!Created with skrf (http://scikit-rf.org).
# GHz S MA R 50.0 
!freq magS11 angS11
500.0 0.0130583382928 117.399927737
500.625 0.0161436420806 162.78164355
501.25 0.0171146875309 -162.285363067
501.875 0.044973022735 -169.375547014
502.5 0.0099492787981 126.544526445
503.125 0.0146023319299 102.879500395
503.75 0.0132820381478 -22.9773242821
504.375 0.0113734840705 -55.7375654491
505.0 0.0242010401216 -65.8380318184
505.625 0.0249802191671 -77.2631667838
506.25 0.0261910943509 -119.656428588
506.875 0.0592136637678 -105.933503071
507.5 0.0402012686829 -148.070260869
508.125 0.0397572224213 -99.6711685146
508.75 0.0622757802486 -138.689054571
509.375 0.0666850678194 -126.703535898
510.0 0.0315060170936 -177.0048122
510.625 0.0363404458517 -160.665137288
511.25 0.0610916332516 -173.259235339
511.875 0.053794088733 146.171786884
512.5 0.0434301545413 107.819116347
513.125 0.0512764099133 46.283847198
513.75 0.0534180417665 24.2902238219
514.375 0.0555338195714 31.7933420741
515.0 0.038295856889 -7.34889230246
515.625 0.0683662136056 45.6928616218
516.25 0.074821404378 25.7593343586
516.875 0.13061361251 70.6895969036
517.5 0.100727795322 13.8123337736
518.125 0.172272669589 62.677078244
518.75 0.0811125104926 10.9641961481
519.375 0.0806649968584 24.6888344238
520.0 0.0920575100366 -1.9040524193
520.625 0.0936083159658 -6.95811615459
521.25 0.0835425996095 -22.8510075614
521.875 0.0792527292374 2.03832737792
522.5 0.0805587200601 -41.3096881212
523.125 0.16390983851 -40.4570274407
523.75 0.212515513639 -62.7375998018
524.375 0.230772833661 -45.9099009315
525.0 0.0691980393786 -55.7534760058
525.625 0.0414378274993 -26.2433525337
526.25 0.0473047680179 -6.54414303364
526.875 0.0558618566513 -21.3808004957
527.5 0.0460926156064 -29.9075085673
528.125 0.0432243196046 -53.9560106797
528.75 0.0621129791481 -70.9689066876
529.375 0.101977999345 -106.509479677
530.0 0.0420932942321 -132.270253158
530.625 0.0304550184105 -144.411313731
531.25 0.139398984558 -141.181679423
531.875 0.173889312652 -147.251476631
532.5 0.140979888038 -170.403019608
533.125 0.104202494386 176.509777621
533.75 0.114960049506 169.040191078
534.375 0.123924765203 -179.276204696
535.0 0.0804862777695 159.559018194
535.625 0.0583925767244 176.708701784
536.25 0.0648831018151 164.155334066
536.875 0.0657581205478 -161.389141348
537.5 0.0926865727641 -143.128641371
538.125 0.0968417565646 -175.25203609
538.75 0.10838967638 -179.822337372
539.375 0.0757478376762 -164.144015526
540.0 0.0885950105694 -154.235692364
540.625 0.127803360969 -155.079944513
541.25 0.141951689639 -142.865241352
541.875 0.0823096473256 -140.5847133
542.5 0.105366494122 -140.954097845
543.125 0.145259441806 -168.346100288
543.75 0.135704952507 159.75726043
544.375 0.102389918405 136.271215097
545.0 0.0796004192473 91.1856464642
545.625 0.0919378032378 83.8453291245
546.25 0.0839156307188 67.0953217042
546.875 0.0990835477518 53.0909379292
547.5 0.109968635866 58.9166999654
548.125 0.117413697459 76.0896874723
548.75 0.0965419089583 90.1517746263
549.375 0.102562981026 86.5852486164
550.0 0.0803249352005 125.822934518
550.625 0.045313950848 158.190623909
551.25 0.0370004620438 -137.619903017
551.875 0.0708618958472 -167.350318112
552.5 0.108771795891 -164.04881709
553.125 0.097137453244 -170.423714705
553.75 0.0923380678251 -169.352076661
554.375 0.115533425889 164.730614326
555.0 0.121248618385 164.024047863
555.625 0.0904127681827 160.554748291
556.25 0.0910944464818 163.692956408
556.875 0.129539408048 162.525455807
557.5 0.10774173202 167.625898968
558.125 0.0938478034928 165.332564423
558.75 0.0784739867384 176.599919878
559.375 0.0729213092368 -173.971020599
560.0 0.0428001502258 -144.635164893
560.625 0.0552591677099 -131.190991433
561.25 0.0888838704032 -150.033347971
561.875 0.109297838201 -165.174949222
562.5 0.0828320515513 178.796465684
563.125 0.105918562643 146.247382557
563.75 0.129102350978 131.675211765
564.375 0.111143358007 119.601805765
565.0 0.0844458566565 120.219023905
565.625 0.076543431073 120.995099986
566.25 0.0940110630985 154.119098794
566.875 0.0807014106442 175.50682855
567.5 0.0635923685514 -170.561582919
568.125 0.0768263178503 -167.829927907
568.75 0.0724574727629 -151.175362109
569.375 0.0510403483821 -115.742538999
570.0 0.0591211047089 -105.5164268
570.625 0.0870383435303 -110.300034389
571.25 0.0853634997564 -116.527450661
571.875 0.0903940275967 -132.336706165
572.5 0.107452939484 -149.351822826
573.125 0.137463935339 -171.59851386
573.75 0.106734988388 159.052446677
574.375 0.0888616092957 143.28433922
575.0 0.0936948180898 164.243141368
575.625 0.102180568518 160.597797318
576.25 0.088899949065 146.558460034
576.875 0.085718201039 125.945025787
577.5 0.0783572177704 143.779780628
578.125 0.0570266878024 166.695452321
578.75 0.0434137659873 169.902984616
579.375 0.0583751572152 152.065000863
580.0 0.0647420422525 -165.043237084
580.625 0.0775765672959 -147.597990559
581.25 0.0865300775811 -160.357885059
581.875 0.11632184061 179.808736706
582.5 0.114034250215 -174.174018643
583.125 0.0907350254301 -168.545749582
583.75 0.0841542756883 -169.918049847
584.375 0.104267186127 -156.852842265
585.0 0.0988356576901 -147.369709759
585.625 0.0717502518886 -146.1843356
586.25 0.0699551870711 -140.365150311
586.875 0.084371887558 -140.576514764
587.5 0.0719292782305 -137.90672349
588.125 0.0589870340757 -173.019842979
588.75 0.067532350469 -172.092298611
589.375 0.0832118183302 -154.489745943
590.0 0.0925243620016 -172.230349186
590.625 0.105608133443 166.378354926
591.25 0.12318838236 154.918548146
591.875 0.0939086917636 160.310307543
592.5 0.0673916126894 139.960602767
593.125 0.0584259906338 152.086295756
593.75 0.0777625749743 166.9146501
594.375 0.0590530779992 -149.333100816
595.0 0.0422219515709 -125.120694755
595.625 0.0647180081343 -96.6520037208
596.25 0.0775633706601 -80.5249369111
596.875 0.0683522180937 -66.7941188242
597.5 0.0554789970875 -71.9189663365
598.125 0.0689536965345 -59.593941863
598.75 0.0791968587084 -56.2948383981
599.375 0.0868214262013 -69.1265418399
600.0 0.102992272418 -63.8661239695
600.625 0.100426598929 -64.2845709514
601.25 0.0852331525455 -77.5130351241
601.875 0.0697801470056 -85.8859529967
602.5 0.061977354166 -95.7618660694
603.125 0.0418971712901 -50.8945193414
603.75 0.0373459924461 -18.7329439942
604.375 0.0425111147046 -14.5923187715
605.0 0.0470934739943 -37.4217274797
605.625 0.0507255829004 -2.36808228425
606.25 0.027512208257 17.8613959032
606.875 0.0317450662304 60.7249928523
607.5 0.06369799717 43.9840469642
608.125 0.0861344433861 36.0237113334
608.75 0.0734286027278 28.3337596357
609.375 0.0708641569343 36.2181963255
610.0 0.0535001346818 29.6894259907
610.625 0.0700533653741 43.3712391319
611.25 0.057126890096 40.6773007892
611.875 0.0333251350603 54.6010464823
612.5 0.0212869800902 82.6937721165
613.125 0.0145325978977 128.880325026
613.75 0.0475727873995 126.286862837
614.375 0.0631675658928 128.457441749
615.0 0.038347669629 118.285030776
615.625 0.0156925700791 139.805855598
616.25 0.0794210752047 137.070215836
616.875 0.0693978089465 132.625816624
617.5 0.037311171115 118.753290803
618.125 0.0130680437167 124.758966213
618.75 0.0575440869616 147.327652439
619.375 0.0401340534872 150.660419144
620.0 0.00688899322159 124.178673442
620.625 0.0269343126288 -70.1182961062
621.25 0.0431910301348 -103.885958529
621.875 0.0624710624393 -121.24759272
622.5 0.0711774938519 -166.832646374
623.125 0.0634871508719 -172.450913119
623.75 0.0856384217512 160.309661432
624.375 0.0608598914297 177.880427853
625.0 0.0574888317166 -148.211878937
625.625 0.0206466089635 -113.744196747
626.25 0.0321703074496 179.241682127
626.875 0.00518805808369 145.865248867
627.5 0.0318973672658 -42.5709086299
628.125 0.037875309441 -17.7476124197
628.75 0.038707403428 -13.327068433
629.375 0.0478828874693 -9.40257950661
630.0 0.065837004356 -0.647649999995
630.625 0.076285574195 14.793065625
631.25 0.0739592393727 -19.168692089
631.875 0.0666705670039 -9.80471838049
632.5 0.0636088208105 -9.24576803361
633.125 0.0451853624353 10.3033595439
633.75 0.0441855311384 24.0915821088
634.375 0.0474831307923 9.52142739353
635.0 0.0328368670254 -7.43800053653
635.625 0.0323977648421 21.3461976446
636.25 0.0737916647475 48.7105719227
636.875 0.0632246612315 27.5766302381
637.5 0.0418785871392 40.6999320055
638.125 0.0468492247139 71.6293842577
638.75 0.0829906810505 79.0469989487
639.375 0.103428806627 98.7234947017
640.0 0.0679680871282 101.916415776
640.625 0.0569726974781 108.228741759
641.25 0.061624738565 124.321736724
641.875 0.0740226756645 156.641902259
642.5 0.0515874158739 156.333958227
643.125 0.0557714734401 151.678400052
643.75 0.0739218056617 176.92655659
644.375 0.0747087157967 -173.884478334
645.0 0.0785991099064 179.108825292
645.625 0.0940379620193 170.153146033
646.25 0.0894119288133 165.153390864
646.875 0.0814002026294 -176.900652192
647.5 0.0574228845033 177.435352403
648.125 0.0763028294034 -178.868553196
648.75 0.0703144219953 -169.336024486
649.375 0.0607742095285 -143.719374387
650.0 0.0276690979037 -133.221415229
650.625 0.0586815544431 -88.6438119683
651.25 0.0617786427945 -69.1096398444
651.875 0.0785997956191 -44.4497997922
652.5 0.0786101108507 -27.1072419355
653.125 0.114007243903 -2.14033396818
653.75 0.10235819522 4.90480074866
654.375 0.118202797232 8.24754922922
655.0 0.111779856999 10.6000862905
655.625 0.0835707455728 19.7300294496
656.25 0.0560300750578 13.5714683029
656.875 0.084066898856 7.69718494929
657.5 0.0688929258727 14.5586310415
658.125 0.0669969847664 48.9240570064
658.75 0.0640209846398 61.0794650565
659.375 0.0883835959328 39.9862643048
660.0 0.128570485434 25.3092191296
660.625 0.109146522601 17.8116151351
661.25 0.111546240242 4.88633269451
661.875 0.120935674843 -11.708644699
662.5 0.131993680353 -19.6766035237
663.125 0.10238604218 -15.8740343135
663.75 0.109851138896 5.64968324239
664.375 0.105455383473 55.1501835721
665.0 0.0533076221734 86.7410660007
665.625 0.056902432771 114.408954996
666.25 0.0831409558373 133.011789723
666.875 0.126670619674 168.678860405
667.5 0.0827184717942 -166.479519745
668.125 0.0927992191752 -176.444699962
668.75 0.123156754339 168.35105734
669.375 0.145899881833 175.964151557
670.0 0.0667779558046 -171.065508381
670.625 0.079539867635 -168.402405854
671.25 0.107289161657 170.614082927
671.875 0.115537763468 166.268312076
672.5 0.0795869494433 156.780189763
673.125 0.0794956354657 155.743060397
673.75 0.111207848885 160.068705955
674.375 0.123065475706 166.985933942
675.0 0.105555621183 -173.679341572
675.625 0.115554363661 -147.422959219
676.25 0.122966846821 -124.558935214
676.875 0.124411227051 -122.296185263
677.5 0.106627464203 -125.446230742
678.125 0.113789199307 -113.802144055
678.75 0.0713617594426 -94.1922055276
679.375 0.0588701776196 -78.1980804342
680.0 0.0690338940549 -73.181424201
680.625 0.120258282195 -76.0199716687
681.25 0.105382418818 -71.7047999109
681.875 0.101921687313 -91.5589859771
682.5 0.144916816174 -124.152778094
683.125 0.141397395908 -116.570467513
683.75 0.129126540454 -103.825103006
684.375 0.115828795437 -80.1823354583
685.0 0.133874153696 -39.4133506797
685.625 0.114708110644 0.341343869685
686.25 0.10928709005 21.1024317261
686.875 0.100725835335 42.5797920584
687.5 0.0860329407162 80.689609105
688.125 0.0779737951848 115.739079528
688.75 0.100489690562 113.676750171
689.375 0.149740674882 117.001549114
690.0 0.133562357815 133.924375163
690.625 0.126163837551 123.333362684
691.25 0.13906112853 98.8120332412
691.875 0.178052030752 74.3023914508
692.5 0.140076544699 40.7247986402
693.125 0.0999475499529 -20.1695988437
693.75 0.0840240637842 -34.671420216
694.375 0.132153735999 -26.9190497843
695.0 0.137304722535 8.91618292339
695.625 0.102601951388 55.8859316883
696.25 0.121175348504 107.24639831
696.875 0.130366245758 -179.967202687
697.5 0.140748335081 -140.730697775
698.125 0.12948277709 -129.86591838
698.75 0.139789847344 -135.440671144
699.375 0.108343149331 -124.163640615
700.0 0.0997946700988 -117.773463476
700.625 0.116716901673 -94.2270188959
701.25 0.108228985514 -70.2480159119
701.875 0.0807079374769 -57.4106193568
702.5 0.0997297399008 -86.739992467
703.125 0.17046316306 -121.696054594
703.75 0.197929735205 -160.835637567
704.375 0.115815743107 179.822572631
705.0 0.110592007333 161.496728667
705.625 0.150840648061 -175.329802175
706.25 0.149361508596 -115.869269424
706.875 0.0915850729607 -61.6758463608
707.5 0.0751533612267 -33.552178
708.125 0.0936553442787 12.5934793496
708.75 0.112743400212 65.1415011592
709.375 0.107527381364 100.313245838
710.0 0.102932936733 135.027537279
710.625 0.109107567356 162.990709089
711.25 0.122007660251 172.608161056
711.875 0.134767874225 173.577273419
712.5 0.150002544355 144.195788638
713.125 0.132714623936 95.1000438081
713.75 0.103252824361 48.093209117
714.375 0.11451300724 9.56759032144
715.0 0.107865721141 43.9059974223
715.625 0.0837478435771 58.6200431324
716.25 0.0737897181845 77.6984736068
716.875 0.109503122287 94.2268124841
717.5 0.143677776648 141.818172993
718.125 0.117438416573 169.468180175
718.75 0.102563822028 172.864270894
719.375 0.118601791475 -167.83891468
720.0 0.124895498497 -141.214966428
720.625 0.114504925487 -59.9694739743
721.25 0.0960036647356 -18.633485408
721.875 0.0857477963904 26.298811768
722.5 0.0666830250204 71.7825586044
723.125 0.0806771743384 74.6961658861
723.75 0.109423274604 38.1739509758
724.375 0.115190569129 -0.397643007147
725.0 0.0852470629002 -50.2634073239
725.625 0.122368835946 -51.3006545101
726.25 0.118412285695 -63.2038089825
726.875 0.0978983355523 -44.740830103
727.5 0.0745019538574 -52.0350296214
728.125 0.0823134221923 -5.64817958903
728.75 0.0923247985684 24.8312720077
729.375 0.0817172705465 15.1306983255
730.0 0.0702565209882 4.76143124156
730.625 0.0420607777653 -1.68117734238
731.25 0.105100265577 81.8682610846
731.875 0.086076355426 121.052985047
732.5 0.0774129537809 157.241478895
733.125 0.0786549574659 168.762028059
733.75 0.106557966143 -167.269187369
734.375 0.0742176048407 173.598023388
735.0 0.0589896103642 148.059280049
735.625 0.0333129007438 123.008565278
736.25 0.0751519981306 154.814596241
736.875 0.0751762320923 163.494557321
737.5 0.0845313145981 177.375148534
738.125 0.0574553010338 -177.042240699
738.75 0.110809554786 -161.761639635
739.375 0.0709999851644 -157.704941486
740.0 0.0493736285862 -140.336093714
740.625 0.0454020804292 -151.030228139
741.25 0.0404372030033 -157.682793409
741.875 0.0425388896216 -103.308416939
742.5 0.0613543180669 -24.5526510661
743.125 0.0327817127697 53.9984346283
743.75 0.0257778649091 114.634714434
744.375 0.0341678047261 112.603911211
745.0 0.0513456121192 161.47479828
745.625 0.0574332910801 130.458269288
746.25 0.0664147030996 99.1101529196
746.875 0.0889109326088 31.9320193468
747.5 0.0571155048759 4.29203704001
748.125 0.0352473879056 -4.8677044364
748.75 0.0255338522098 53.2545330543
749.375 0.0297199459983 -18.6870213601
750.0 0.0266760889219 -82.3384502861
