!Created with skrf (http://scikit-rf.org).
# GHz S RI R (50+0j) 
!freq	ReS11	ImS11	
500.0	0.6096700976	-0.9421972102	
500.625	2.138544812	-3.936591708	
501.25	-2.193234742	-1.205853001	
501.875	-1.05468184	-0.1734373624	
502.5	0.07524034956	-0.5181723586	
503.125	-0.3526674615	0.1884711842	
503.75	0.005254201763	-0.03102712653	
504.375	0.2084183611	-0.0117932857	
505.0	-0.09863702859	0.02871185815	
505.625	0.1086670323	-0.4189940091	
506.25	-0.2229479913	0.3424305001	
506.875	-0.8941269278	-1.029664829	
507.5	-1.78489595	-0.5358382664	
508.125	0.3583468855	-0.273927587	
508.75	2.869039999	-3.784429969	
509.375	-2.578180394	-4.226782032	
510.0	-0.694930177	-0.6557727289	
510.625	-0.9702789797	-0.3812300302	
511.25	-0.1228277331	-0.1349769436	
511.875	-0.6582661841	-0.2005559513	
512.5	0.06478086802	0.2005350733	
513.125	-0.05963988721	-0.1836787257	
513.75	-0.07630259965	-0.4310683369	
514.375	-0.7082578368	-0.002505729428	
515.0	1.754159198	-0.123440127	
515.625	-2.755723207	-1.601799081	
516.25	1.131109497	-0.3033186674	
516.875	-1.073284756	-2.728356424	
517.5	-0.7318266808	0.3334266479	
518.125	-0.03746400915	-0.5049074348	
518.75	-0.5111392334	0.1882705343	
519.375	-0.225067999	-0.003895041551	
520.0	0.5089666371	0.2110863956	
520.625	0.3426493812	-0.3100812154	
521.25	0.2173944411	-0.625933529	
521.875	-0.5593101188	-0.02336446775	
522.5	-0.0008328431601	-0.07263585341	
523.125	-0.2035004184	0.2644578795	
523.75	-0.2055925299	-0.124783124	
524.375	-0.449398661	0.4110842581	
525.0	-0.1706897119	-0.01907901655	
525.625	0.1405050755	0.3794407437	
526.25	-0.2211245053	-0.2520984951	
526.875	0.02026002821	0.3066514224	
527.5	-0.1847269175	0.1667863874	
528.125	0.00584663177	1.206548373	
528.75	0.5475581085	0.4393701164	
529.375	-0.073739522	0.3529833024	
530.0	0.2904682164	0.2299912937	
530.625	0.08762706291	1.228656593	
531.25	0.9436075202	-0.3955937238	
531.875	0.7984391095	-0.0003849023547	
532.5	-0.6089327105	-0.3989710789	
533.125	0.7380927886	0.01686169792	
533.75	-0.2865849984	-0.6706197939	
534.375	0.1936090571	-0.7000304741	
535.0	-1.198003615	-0.1098108135	
535.625	-0.1317781126	0.1230022904	
536.25	-0.1268353851	0.3012968165	
536.875	0.3510180196	-0.02995162834	
537.5	0.07493153038	-0.0197729299	
538.125	0.4482331592	-0.1997855815	
538.75	0.1342311254	-0.2903434238	
539.375	-0.01260421427	-0.47998436	
540.0	-0.6460176011	-0.323475356	
540.625	-0.1492868476	-0.05873512419	
541.25	-0.3202917781	-0.06713358053	
541.875	-0.1326521093	0.03122750468	
542.5	-0.0351791702	-0.07196750536	
543.125	-0.2286123022	-0.2740904202	
543.75	-0.2638102756	0.2941232731	
544.375	-0.1625055423	-0.1363375609	
545.0	0.1497250286	0.3252732262	
545.625	-0.1306168597	0.02030195891	
546.25	0.4926136471	0.194818179	
546.875	0.01962260722	-0.1307327214	
547.5	0.4503212012	-0.2232884055	
548.125	-0.3218541324	-0.5162535372	
548.75	-0.1690282176	-0.09989319877	
549.375	-0.2000739544	-0.3308012679	
550.0	-0.2825761929	0.1491910299	
550.625	-0.04011631819	-0.1188164751	
551.25	-0.267777265	0.19957745	
551.875	-0.100870244	0.05186055877	
552.5	-0.2019718486	0.2607566212	
553.125	0.02077349357	0.1319971327	
553.75	0.08369492805	0.1445442114	
554.375	0.2574269237	-0.0002913054133	
555.0	0.2179040148	-0.1707586903	
555.625	0.220635675	-0.2429209345	
556.25	0.1742171638	-0.3576810198	
556.875	-0.09223219764	-0.3942949554	
557.5	-0.2237805392	-0.2491330914	
558.125	-0.285144531	-0.108119532	
558.75	-0.262983552	0.01028731036	
559.375	-0.2381599917	0.01897015882	
560.0	-0.2818596601	0.1884693177	
560.625	-0.06349333893	0.2874807573	
561.25	-0.02617199667	0.1646254258	
561.875	0.1137712318	0.1941501551	
562.5	-0.03442004114	0.01865360901	
563.125	0.2492381597	0.272555508	
563.75	0.1999243236	-0.09214954168	
564.375	0.4234823299	-0.1017656112	
565.0	0.1187738338	-0.5058186018	
565.625	-0.07564804212	-0.201209071	
566.25	-0.1720540366	-0.357199395	
566.875	-0.4843276598	-0.193816883	
567.5	-0.2113767554	-0.08720796859	
568.125	-0.2457046879	-0.6002051658	
568.75	-0.6946513291	-0.03068857409	
569.375	-0.3840994711	0.001051524478	
570.0	-0.5078416413	0.6862609948	
570.625	0.1183974502	0.3400023408	
571.25	-0.3196806008	0.1939259543	
571.875	0.5369735344	0.1861447233	
572.5	-0.06661226537	0.1656523157	
573.125	0.5453485655	-0.3333143895	
573.75	-0.1371019714	-0.4467679068	
574.375	0.1402136291	0.1405229836	
575.0	0.02930013703	-0.4407239816	
575.625	0.1519392485	0.1531116794	
576.25	0.2817397276	-0.4953193022	
576.875	-0.2840291147	-0.2449627372	
577.5	0.2632813292	-0.1549753016	
578.125	-0.07033959292	-0.6649957647	
578.75	-0.3975036035	-0.1847539547	
579.375	-0.007059247292	-0.01032708698	
580.0	-0.2159193343	-0.3508668817	
580.625	-0.0217758907	0.1888909688	
581.25	-0.4899904139	-0.06575666489	
581.875	0.2096051713	0.5786535754	
582.5	0.1257995639	-0.032556434	
583.125	-0.1398374128	0.4897630536	
583.75	0.5287040134	-0.2294135888	
584.375	-0.3379668991	0.3972907125	
585.0	0.6290259431	0.06432322341	
585.625	0.001873274389	-0.09101593962	
586.25	0.6138377035	0.08148256839	
586.875	-0.07694026193	-0.5087940127	
587.5	0.181311954	-0.1197726991	
588.125	-0.01817054469	-0.6214420139	
588.75	-0.2132355031	-0.2477803884	
589.375	0.4669752944	-0.1009216588	
590.0	-0.2377608546	-0.6314104704	
590.625	-0.3547145987	0.01363484561	
591.25	-0.2669392159	0.07648773723	
591.875	-0.2764616295	0.4076570839	
592.5	0.2125166484	-0.03687065234	
593.125	-0.1625911857	0.2701592007	
593.75	0.147105071	0.1082063689	
594.375	0.1602044976	0.4570404827	
595.0	0.7630829703	0.3157803343	
595.625	0.1398208284	-0.1890291468	
596.25	0.3097483933	0.5590087013	
596.875	0.6907903731	-0.1484771286	
597.5	0.02299779323	0.1508184294	
598.125	0.5179926492	0.5410848232	
598.75	0.3161871795	-0.0303426276	
599.375	0.5760633757	0.2704475296	
600.0	0.3797591997	-0.6067154636	
600.625	0.1769900068	-0.2280068201	
601.25	0.3791562905	-0.4024803359	
601.875	-0.3037136947	-0.4527544172	
602.5	-0.2074693358	-0.005687176333	
603.125	-0.2182209498	0.08771627979	
603.75	-0.3992898096	0.08483642561	
604.375	-0.07917711512	0.3567337544	
605.0	-0.2520215196	-0.08423106823	
605.625	-0.1979369013	0.3988679293	
606.25	-0.1354562012	-0.116379597	
606.875	-0.7379971373	0.3009620876	
607.5	0.000521248725	0.3789944228	
608.125	-0.5112298282	0.4158702464	
608.75	0.8981980714	0.496259078	
609.375	0.1661229034	-0.007728869905	
610.0	0.6876138778	-0.2246939962	
610.625	-0.0307854425	-0.4620258164	
611.25	0.2814737049	-0.25701874	
611.875	-0.4222839674	-0.2574848603	
612.5	-0.1227823254	-0.2629033664	
613.125	-0.6189231755	0.05928638127	
613.75	0.1220016739	0.1470212348	
614.375	-0.06929433268	0.4801945965	
615.0	0.168782179	-0.1051585989	
615.625	-0.206954035	0.4072529015	
616.25	0.2929958915	0.2947590489	
616.875	-0.4719577347	0.2105621029	
617.5	-0.1358186448	0.8106610917	
618.125	0.1095088844	0.240901107	
618.75	-0.2156675761	0.6420964755	
619.375	0.4149349799	0.2879697068	
620.0	0.2652164432	0.2364455129	
620.625	0.3265663	-0.4679962592	
621.25	-0.06808788879	-0.3438212208	
621.875	-0.6085340746	-0.2631958848	
622.5	-0.3744576998	0.123837432	
623.125	-0.269136238	0.4385710667	
623.75	0.4401121441	-0.1107536786	
624.375	0.133196076	0.2008028015	
625.0	-0.09881076556	-0.3169653055	
625.625	0.3079555235	0.0722508047	
626.25	-0.2378366964	-0.6534241175	
626.875	-0.2766953484	0.130296491	
627.5	-0.2077584823	-0.4255361435	
628.125	-0.4720615937	-0.07119643858	
628.75	0.01189083935	-0.1638666422	
629.375	-0.2380004183	-0.5816947314	
630.0	-0.3772705672	0.0268511514	
630.625	-0.5810905748	-0.09278642627	
631.25	-0.4417378291	0.5924522307	
631.875	0.08171336094	0.5088563455	
632.5	0.197641388	0.4189149461	
633.125	0.4435905863	0.2921645785	
633.75	0.5068247453	-0.3008085181	
634.375	0.03353673396	-0.09741086819	
635.0	0.1578818113	-0.5419684228	
635.625	-0.4321361934	0.08184135715	
636.25	-0.4644475012	-0.1844701075	
636.875	-0.1102260199	0.5725032613	
637.5	0.04531793678	-0.09206881383	
638.125	-0.5764423794	0.451710635	
638.75	0.3916771637	0.2580878248	
639.375	-0.4631737886	0.3529765205	
640.0	0.4068934625	0.9557396041	
640.625	0.7004208633	0.1050062939	
641.25	0.2644953666	0.122365767	
641.875	0.7728113476	-0.6722932428	
642.5	-0.237497697	-0.2156033328	
643.125	-0.04205269685	-0.6111849218	
643.75	-0.7036492034	0.1280552449	
644.375	0.03698185808	-0.3374368557	
645.0	-0.701852116	0.5115017778	
645.625	0.3557521907	0.5243830387	
646.25	0.275177839	-0.09181133158	
646.875	0.1522116297	0.449631102	
647.5	0.2792241393	-0.5514886478	
648.125	0.2095440485	0.6759970008	
648.75	0.9387478348	-0.5445936518	
649.375	-0.0408905567	-0.2640344271	
650.0	1.247001189	-0.6495895199	
650.625	-0.1424706387	-1.223937752	
651.25	0.1431904521	0.1415594247	
651.875	1.37718927	-0.3238541742	
652.5	0.4337582421	-0.8480388788	
653.125	0.2527096788	0.2113840879	
653.75	0.8829069853	-0.7239839547	
654.375	-0.5444538263	-0.5387859723	
655.0	-0.1583996775	-0.4906539854	
655.625	-0.936129413	0.7465943558	
656.25	0.4248925296	0.09528297835	
656.875	-0.2730972706	0.2807580509	
657.5	0.42729378	0.2824250978	
658.125	0.07224383775	0.09508748654	
658.75	0.7172698384	0.6776707813	
659.375	0.8268620524	-0.7098501479	
660.0	0.2646334213	-0.4370290065	
660.625	0.8017114946	-0.6384057343	
661.25	0.01247216977	-1.217830476	
661.875	0.3590997025	0.02246031328	
662.5	1.153573939	-0.5776897447	
663.125	0.3358303875	-0.8485946656	
663.75	0.3554315682	-0.08259968358	
664.375	0.05037697043	-1.27912037	
665.0	-0.6545771505	-0.03213138952	
665.625	-0.7514648198	-0.252909564	
666.25	-0.2332661889	0.9957527091	
666.875	0.1657633288	0.07295368881	
667.5	0.4798783488	0.5827368461	
668.125	0.6507116107	-0.2619969633	
668.75	0.1561067392	-0.2259932593	
669.375	0.5208405239	-0.3938695397	
670.0	-0.05989906806	-0.7956675447	
670.625	-0.1062013814	-0.1799470664	
671.25	0.3642639584	-0.4256610123	
671.875	0.1874803404	-0.6231429838	
672.5	0.3180330749	-0.004502960031	
673.125	0.709844024	-0.6274273881	
673.75	0.04846563245	-0.5209191645	
674.375	0.3584715692	-0.2589275877	
675.0	-0.09557317255	-1.095652373	
675.625	-0.7910723097	0.2364515511	
676.25	0.05298327697	-0.4636702469	
676.875	-0.8169752839	0.2115111142	
677.5	0.09825744773	0.009150958009	
678.125	-0.8543900981	0.3198284321	
678.75	0.5672937835	0.3471845931	
679.375	0.1464095925	0.4325039959	
680.0	0.7412281102	-0.2082825118	
680.625	-0.202757628	-0.5058152335	
681.25	0.1918133865	0.5250150768	
681.875	0.7160443441	-0.03762694587	
682.5	0.4146365907	0.01702511733	
683.125	0.2883887858	0.1288017192	
683.75	0.882560105	0.6117554113	
684.375	0.6112603858	-0.514266437	
685.0	0.3498330132	0.5813219578	
685.625	1.218708925	-0.09565343958	
686.25	-0.07803222345	-0.3134752078	
686.875	1.618307721	0.1664462638	
687.5	-0.08043295229	-1.497731223	
688.125	0.5353682743	-0.2440074884	
688.75	-1.41944581	-1.178369768	
689.375	-0.1631870949	1.153341545	
690.0	-0.4321746202	0.5771375192	
690.625	1.064138544	0.6868978135	
691.25	0.3041278099	0.4445388353	
691.875	1.162351436	1.143214686	
692.5	1.522805168	0.1663514212	
693.125	1.3670562	0.1611467894	
693.75	1.476788	-0.5784742545	
694.375	1.061805265	-0.8947666177	
695.0	1.136117463	-0.8970986702	
695.625	0.8306338355	-0.1297935506	
696.25	1.595651422	0.8521255215	
696.875	1.253840881	0.1988605884	
697.5	0.248569275	1.404057158	
698.125	2.229888156	0.4157685061	
698.75	0.4255497711	-0.466200428	
699.375	-0.7727532615	-1.910276791	
700.0	-0.4003570918	1.369571237	
700.625	-0.4473568278	0.3528002437	
701.25	1.070315176	0.5847134922	
701.875	0.127818256	0.3404204482	
702.5	0.971911276	1.003894929	
703.125	0.9364947501	-0.1101936349	
703.75	0.9579532903	0.2127719984	
704.375	0.7036394969	-0.8981829521	
705.0	0.2952837223	-0.07788319324	
705.625	1.29184955	-0.04040878333	
706.25	0.2029025448	-0.08110689046	
706.875	0.3109740312	1.180000722	
707.5	1.368774672	0.6330030694	
708.125	0.5281036464	0.4208606444	
708.75	1.167028651	-1.048447663	
709.375	-0.875233671	-0.4548332229	
710.0	-0.616140813	0.2171448587	
710.625	0.3691659862	0.6236799017	
711.25	-0.05546879824	0.1708274775	
711.875	0.6441613239	0.4359198375	
712.5	0.6449919194	-0.01129356839	
713.125	0.7645620911	-0.5641370412	
713.75	0.08100305395	-0.4060971395	
714.375	0.4226469548	-0.7249002992	
715.0	-0.5728865165	-0.4564620141	
715.625	0.4395656498	-0.1323244274	
716.25	0.4595562432	-1.39939	
716.875	-0.03726572685	0.1204918442	
717.5	2.089238613	0.5661272549	
718.125	1.974786111	-1.707758484	
718.75	0.4918241993	1.741110419	
719.375	3.942153133	-2.371886072	
720.0	-0.2637469545	-1.389315356	
720.625	1.411786846	-1.654229366	
721.25	-0.08552209736	-3.909399671	
721.875	-1.200884758	-1.390244971	
722.5	-0.9896137336	-2.871963676	
723.125	-2.360246618	-0.1158022893	
723.75	-0.4383048493	0.859129134	
724.375	-0.4743712113	1.240071056	
725.0	0.8876228373	0.8768620502	
725.625	0.398106948	0.6648406764	
726.25	-0.3934590119	1.531475797	
726.875	0.09411402164	3.601981117	
727.5	1.95262177	1.918848077	
728.125	-4.102273383	4.862257226	
728.75	4.371890209	10.72383909	
729.375	1.018007463	1.993906183	
730.0	-15.84009702	16.10147021	
730.625	13.20206737	8.676176997	
731.25	-7.351429755	3.983004036	
731.875	-11.21589993	9.559948702	
732.5	-5.461170645	9.178769931	
733.125	-3.51514442	-2.430316231	
733.75	-3.884560772	5.089870782	
734.375	2.210709466	0.4215938561	
735.0	0.62149066	-0.6188147424	
735.625	-2.321038661	0.6977801846	
736.25	0.01756142261	0.04912865652	
736.875	0.7275747583	2.375499832	
737.5	3.575845608	0.1152250487	
738.125	2.741388833	-2.979017484	
738.75	1.733096091	1.719188328	
739.375	14.19614093	-5.127097999	
740.0	-2.076482212	-16.20848378	
740.625	-6.002354114	13.56480803	
741.25	18.84607215	15.58775514	
741.875	6.194254618	-13.48739506	
742.5	-21.14224393	-21.48951329	
743.125	-12.202797	0.2784640272	
743.75	3.34102033	-1.893577743	
744.375	-2.399726636	-1.30884622	
745.0	0.6500780645	-0.1689780394	
745.625	0.1803641805	0.1930563727	
746.25	-0.2044392449	-0.443343594	
746.875	-0.0005546320908	0.09701339506	
747.5	-0.3052782969	1.280464689	
748.125	0.4623581466	0.9985204842	
748.75	0.1311773702	1.402218624	
749.375	0.5934346274	2.268423546	
750.0	-0.4421135855	0.2903979935	
