!Created with skrf (http://scikit-rf.org).
# GHz S RI R (50+0j) 
!freq	ReS11	ImS11	
500.0	1.48283065	-3.925023912	
500.625	-0.1219256573	-4.069621662	
501.25	-1.139470197	-1.191388517	
501.875	-1.172606798	-1.77974454	
502.5	-0.3651982592	-0.3129495824	
503.125	-0.1395336011	-0.07831112018	
503.75	0.09607094344	0.4467652628	
504.375	-0.05812441128	-0.05177285666	
505.0	0.2294940565	-0.08400245527	
505.625	-0.2093430681	-0.04115822637	
506.25	0.2519178881	-0.4229859356	
506.875	-0.4261958458	0.9773813881	
507.5	0.9345125567	-0.9355085437	
508.125	0.3688972002	-3.055974846	
508.75	-0.8037170736	-2.183927802	
509.375	2.624110378	-3.548440015	
510.0	-2.500416162	-0.7230879926	
510.625	-0.155628796	-0.128060342	
511.25	-0.3613702008	-0.2994901835	
511.875	-0.4030506822	0.134841123	
512.5	-0.06358279311	0.1202300382	
513.125	0.01385834045	-0.2680007839	
513.75	-0.4266218714	-0.09737133966	
514.375	0.1087672247	-0.04912927989	
515.0	-0.9812969413	-0.5858817714	
515.625	1.936280479	0.1192533996	
516.25	-2.578805142	-4.148375107	
516.875	-0.7736419503	0.6272704959	
517.5	0.5641713097	-0.8451215704	
518.125	-0.3701590891	0.2946847146	
518.75	0.2876717263	-0.7311524475	
519.375	-0.1778836947	0.2517789199	
520.0	0.2183244116	0.0370280625	
520.625	0.6465506819	-0.0246733481	
521.25	-0.2809501683	-0.8208343991	
521.875	-0.1725292722	-0.03935530656	
522.5	-0.2644657763	0.1335704575	
523.125	-0.03081448079	-0.101449439	
523.75	-0.4275607274	0.1818700498	
524.375	-0.1747887243	-0.07798635294	
525.0	-0.2381285061	0.6132230488	
525.625	0.1476247276	-0.1716784911	
526.25	-0.002145269924	0.1686967524	
526.875	-0.1289157561	-0.07761823864	
527.5	-0.2668214199	0.8820329813	
528.125	0.4137577494	0.3606031363	
528.75	-0.3135128984	0.5901308277	
529.375	0.412850057	0.1489632321	
530.0	-0.3762848564	0.5520437502	
530.625	0.6948105783	0.5484939148	
531.25	0.8310432565	0.5694400395	
531.875	0.6668454393	-0.8853534147	
532.5	0.07888183734	-0.02207049086	
533.125	-0.3105221301	-0.7038933439	
533.75	0.726016829	-0.0759346996	
534.375	-0.7876168241	-0.9962207584	
535.0	-0.2382362606	-0.04997931155	
535.625	-0.7062641776	0.1922226625	
536.25	0.1677456624	0.2543072854	
536.875	0.1102365502	0.1596832326	
537.5	0.2604435592	-0.1826163741	
538.125	0.08828061266	-0.1486503143	
538.75	0.524611787	-0.1798322566	
539.375	-0.3592313729	-0.3835400762	
540.0	-0.2072389765	-0.2680097306	
540.625	-0.4484896902	-0.1431664667	
541.25	-0.215895332	0.1048113474	
541.875	-0.04942220187	-0.05487909536	
542.5	-0.1735723534	-0.172551952	
543.125	-0.1912827603	0.04202176948	
543.75	-0.1522099911	-0.1637050006	
544.375	-0.1164610604	0.2559630806	
545.0	-0.07253336235	-0.07115693142	
545.625	0.2904010494	0.3514497705	
546.25	0.06716129651	-0.1458456125	
546.875	0.3963109349	0.2153882878	
547.5	-0.009646274704	-0.5055597067	
548.125	0.05388689466	-0.1880469649	
548.75	-0.2957668373	-0.4721136108	
549.375	-0.3927527431	-0.03792593846	
550.0	-0.03542944011	-0.08644073266	
550.625	-0.2562772393	0.11207066	
551.25	-0.06179758161	-0.0090856435	
551.875	-0.2904494024	0.1958836728	
552.5	-4.542001033e-05	0.2029297084	
553.125	-0.09301236002	0.1313020809	
553.75	0.1447552744	0.1135739203	
554.375	0.1995278155	-0.0004222128931	
555.0	0.2519785294	-0.1517744955	
555.625	0.1973515589	-0.2690172133	
556.25	0.1500606221	-0.3334438225	
556.875	-0.06860993421	-0.3796312198	
557.5	-0.2364094833	-0.2487497227	
558.125	-0.2765731346	-0.08510153962	
558.75	-0.2362360175	-0.02134782014	
559.375	-0.2903478638	0.04809080615	
560.0	-0.1741183694	0.1859536906	
560.625	-0.1684880097	0.2070893264	
561.25	0.04846950811	0.3091431453	
561.875	0.05365727749	0.003763313699	
562.5	0.01653245044	0.241321639	
563.125	0.1590399337	0.02478796121	
563.75	0.3034877686	0.1476405245	
564.375	0.3385620912	-0.3586958717	
565.0	0.0532011992	-0.2151215539	
565.625	0.04708036975	-0.450929839	
566.25	-0.3844894112	-0.1780588268	
566.875	-0.1767741324	-0.152619386	
567.5	-0.3817357726	-0.3968543689	
568.125	-0.458069183	-0.2377480353	
568.75	-0.2988859532	-0.2997524246	
569.375	-0.7972498338	0.2723809679	
570.0	-0.01760089735	0.506507813	
570.625	-0.3351269555	0.1310927884	
571.25	0.1107550983	0.653554238	
571.875	-0.1694251563	-0.06035237654	
572.5	0.6183355612	0.1202301106	
573.125	-0.1408098541	-0.3811818255	
573.75	0.3192243587	0.04351558552	
574.375	0.02542718044	-0.5164610721	
575.0	-0.06248093193	0.1873920746	
575.625	0.3090204201	-0.3578254873	
576.25	-0.1940694691	-0.3005735186	
576.875	0.2618553925	-0.1354203733	
577.5	-0.01819278501	-0.6560241599	
578.125	-0.2817561308	-0.2055907043	
578.75	0.03876031897	-0.2406109515	
579.375	-0.3034098213	-0.3628460242	
580.0	-0.1428119154	0.1897557698	
580.625	-0.1433724575	-0.3347943835	
581.25	-0.2540896034	0.4401049411	
581.875	0.0656317712	0.02872247585	
582.5	-0.2094173196	0.5141999943	
583.125	0.6247604636	0.1929614214	
583.75	-0.3442906188	-0.03071958134	
584.375	0.5059260673	0.2885629053	
585.0	-0.1539691954	-0.08366455111	
585.625	0.5909296579	0.3120930383	
586.25	0.2744981179	-0.4637140995	
586.875	0.1183804379	-0.003789754194	
587.5	0.09683369467	-0.5778927916	
588.125	-0.3190130569	-0.2003076887	
588.75	0.3648080433	-0.1570260408	
589.375	0.1901650395	-0.6184148249	
590.0	-0.1463428967	-0.1382641294	
590.625	-0.3865269462	-0.3282336987	
591.25	-0.3585768153	0.4262439315	
591.875	0.04587047825	0.1647362301	
592.5	-0.1654987706	0.08827640559	
593.125	0.1336323136	0.1498422023	
593.75	-0.1894206068	0.2733501122	
594.375	0.6688695715	0.3452127529	
595.0	0.2446375161	-0.07434273267	
595.625	0.2015912954	0.5439649002	
596.25	0.8034912391	-0.1324890252	
596.875	-0.1015655047	0.1634773935	
597.5	0.6358784009	0.4822001309	
598.125	0.3761115602	-0.06099436265	
598.75	0.1883911139	0.471752752	
599.375	0.6901216093	-0.2095184242	
600.0	0.1787602533	-0.2863468918	
600.625	0.4504975272	-0.2562338636	
601.25	0.1504996128	-0.629397207	
601.875	-0.126115066	-0.1467303957	
602.5	-0.3346539615	-0.1758744729	
603.125	-0.2048513146	0.15641478	
603.75	-0.2308013133	0.1578918853	
604.375	-0.1978323046	0.07894470419	
605.0	-0.2793836162	0.2753332426	
605.625	0.06035927475	0.02098361093	
606.25	-0.5851192007	0.1175044015	
606.875	-0.07301791331	0.4307665967	
607.5	-0.508695121	-0.01618342859	
608.125	0.03172986218	1.037153698	
608.75	0.1452203035	0.02927414622	
609.375	0.7902600109	0.2435198766	
610.0	0.23803098	-0.6236822047	
610.625	0.3222073416	0.02372189767	
611.25	-0.07219198046	-0.6355033724	
611.875	-0.01225825104	-0.07618919185	
612.5	-0.5119876981	-0.3516336844	
613.125	-0.2517913248	0.2162061134	
613.75	-0.4496501432	0.2315425504	
614.375	0.3367383403	0.289782257	
615.0	-0.1825762888	0.1118255574	
615.625	0.308214552	0.2476957639	
616.25	-0.304646874	0.0470386098	
616.875	-0.3244474301	0.7001267749	
617.5	0.1832302409	0.3696447169	
618.125	-0.3786466338	0.4765023759	
618.75	0.2956097911	0.5208250124	
619.375	0.03744464045	0.2142706335	
620.0	0.6051058072	0.2119873632	
620.625	0.1126343678	-0.3179219487	
621.25	-0.118557034	-0.5126899052	
621.875	-0.4456069279	-0.07442750267	
622.5	-0.4761724057	-0.01450460693	
623.125	0.04434054151	0.5893884415	
623.75	-0.03127868537	0.07665376968	
624.375	0.3436697218	-0.3078433376	
625.0	-0.09048720702	0.2266347336	
625.625	0.366259334	-0.4666192006	
626.25	-0.3282770944	0.03871656012	
626.875	-0.07496036209	-0.4944445323	
627.5	-0.6155756772	0.0426443555	
628.125	-0.02236648323	0.01597535701	
628.75	-0.07171328253	-0.5463978679	
629.375	-0.4123583516	-0.1670593278	
630.0	-0.2268416048	-0.3061123805	
630.625	-0.6661294223	0.1223968938	
631.25	-0.1502197992	0.5226834025	
631.875	-0.2012691065	0.3996873397	
632.5	0.4345360139	0.5775728486	
633.125	0.4446653188	0.03793994395	
633.75	0.3193078899	-0.09839023627	
634.375	0.3052744725	-0.3179313829	
635.0	-0.2855595517	-0.2972318298	
635.625	-0.03644231539	-0.3360098493	
636.25	-0.626094494	0.2723508877	
636.875	0.1707781768	0.2877330651	
637.5	-0.5005023825	-0.06127680593	
638.125	0.2901582177	0.5095158926	
638.75	-0.3902429137	-0.04563469997	
639.375	-0.03815209448	1.007792695	
640.0	0.5630577368	0.1803219814	
640.625	0.1272109118	0.5320743259	
641.25	1.013824371	-0.04229968608	
641.875	0.03275099336	-0.5108404359	
642.5	0.2909598976	-0.2785782264	
643.125	-0.6397129592	-0.5783082862	
643.75	0.04223219287	0.1984532495	
644.375	-0.6140064808	-0.2869290887	
645.0	-0.2096782905	0.6008885731	
645.625	0.1172200732	0.1905809496	
646.25	0.2644099747	0.5374114686	
646.875	0.398121014	-0.3807866551	
647.5	-0.1868309383	0.2760479206	
648.125	0.7829698745	0.1024746539	
648.75	0.04351018777	-0.4323516929	
649.375	1.03774189	0.02370936019	
650.0	0.260157851	-1.433017175	
650.625	-0.2028230846	-0.1808960249	
651.25	1.165813273	-0.303416848	
651.875	0.4058339861	-1.185109999	
652.5	0.1287582643	0.2333216738	
653.125	1.165960359	-0.2406851955	
653.75	-0.0194033261	-0.7900726368	
654.375	0.2199541841	-0.3079826546	
655.0	-1.089171141	-0.5732285727	
655.625	-0.04030724077	0.6668814286	
656.25	-0.1913528738	0.03840893469	
656.875	0.2708036789	0.5544537511	
657.5	0.0045077853	-0.2000478624	
658.125	0.2450957368	0.7884251443	
658.75	0.8660746659	-0.05617416915	
659.375	0.4483144002	-0.3441672213	
660.0	0.7590121855	-0.3048693595	
660.625	0.2133822878	-1.341359852	
661.25	-0.007440880946	-0.2010881797	
661.875	0.9571045306	-0.4938671939	
662.5	0.495541699	-0.9492599675	
663.125	0.1385448501	-0.04546868853	
663.75	0.8931790947	-0.9904026549	
664.375	-0.5871111102	-0.5181366446	
665.0	-0.1502437803	-0.5495818411	
665.625	-1.096469896	0.2346173998	
666.25	0.185912461	0.6050296702	
666.875	-0.07568040224	0.4999149465	
667.5	0.6977115629	0.2796215678	
668.125	0.2288026709	-0.2420242365	
668.75	0.648257427	-0.01127052183	
669.375	0.03904567606	-0.8405867451	
670.0	-0.003335284398	-0.231944442	
670.625	0.2026621747	-0.4817682454	
671.25	0.01160604237	-0.6075827156	
671.875	0.06560277368	-0.1322494618	
672.5	0.789635985	-0.2902803216	
673.125	0.3040277177	-0.705024203	
673.75	0.1569251677	-0.1961295073	
674.375	0.5551925289	-0.7773980488	
675.0	-0.8523494672	-0.3995841427	
675.625	0.2053902706	-0.3551861945	
676.25	-0.917755818	-0.1648356741	
676.875	0.01965035378	0.466590308	
677.5	-0.5984533503	-0.4956775415	
678.125	-0.1377729048	0.8642131687	
678.75	-0.04432322292	0.1422023811	
679.375	0.435992589	0.512399327	
680.0	0.5189951212	-0.6005645321	
680.625	-0.2035078528	0.1555921314	
681.25	0.5934331607	-0.08706358971	
681.875	0.2536121109	-0.1608364405	
682.5	0.1961702234	0.3665783666	
683.125	0.8563464464	0.2929292042	
683.75	0.5101812519	-0.1799691902	
684.375	0.3811084197	0.1554888813	
685.0	0.9745857343	0.380553188	
685.625	0.5637901464	-0.7319058757	
686.25	0.440303099	0.7835763128	
686.875	1.171969515	-1.258392891	
687.5	-0.1145609461	-0.09412433473	
688.125	0.5940623291	-1.376843517	
688.75	-1.722249568	0.1688802235	
689.375	-0.3695083493	-0.1882591176	
690.0	0.2600852796	1.53303811	
690.625	0.5823873445	0.02186730364	
691.25	0.4125742661	1.020060137	
691.875	1.486666717	0.5114118196	
692.5	1.089683645	0.3779357551	
693.125	1.583289706	0.02817741174	
693.75	1.363532682	-0.662909108	
694.375	0.9151137243	-0.9173883378	
695.0	0.9101237105	-0.8192637862	
695.625	1.201343009	0.003412119171	
696.25	1.516607602	-0.008531432984	
696.875	0.4059256013	0.5470229593	
697.5	1.32065437	1.667706022	
698.125	1.148747472	-0.4799465659	
698.75	1.409972115	-0.3302419071	
699.375	-1.643470895	-1.088144196	
700.0	0.1048012139	0.3547857217	
700.625	0.06174470939	1.417039607	
701.25	0.6570229252	-0.1069737477	
701.875	0.2177615656	0.8911187452	
702.5	1.361461749	0.2384686121	
703.125	0.533485665	0.3342971318	
703.75	1.282861423	-0.2661709063	
704.375	0.1580580539	-0.6111766639	
705.0	0.8665704769	0.05997482249	
705.625	0.5860713701	-0.6535218445	
706.25	0.1157165558	0.571938418	
706.875	1.069259284	0.9948848178	
707.5	0.3977356222	0.09589790283	
708.125	1.341507185	0.772555373	
708.75	0.448592512	-1.36999057	
709.375	-0.344474214	-0.3484579381	
710.0	-0.7540309195	0.5810851447	
710.625	0.4471182178	0.1558852976	
711.25	0.09462395364	0.4464038553	
711.875	0.563377183	0.1167932271	
712.5	0.7716668914	-0.02393338762	
713.125	0.5035019728	-0.4565709203	
713.75	0.3530487179	-0.4743140213	
714.375	-0.07586846644	-0.7828557213	
715.0	-0.1336017334	-0.01440450019	
715.625	0.427001097	-0.9082624021	
716.25	-0.4664841853	-0.6250248833	
716.875	0.9944999923	0.3744227425	
717.5	2.259321968	-0.5709558239	
718.125	-0.1546798577	-0.8055875052	
718.75	3.441990447	1.106853795	
719.375	1.022531044	-2.766199613	
720.0	0.7967439096	-0.5924078789	
720.625	1.457453488	-4.037916531	
721.25	-1.627022807	-1.474054905	
721.875	0.4680640733	-2.523336197	
722.5	-2.026110151	-2.166178947	
723.125	-1.919293318	0.4031479859	
723.75	-0.8763749492	0.4733547281	
724.375	0.1004182771	1.615832055	
725.0	0.5863457872	0.4955728585	
725.625	0.1573045779	0.8951691913	
726.25	-0.07524474179	2.109019398	
726.875	1.47631973	2.279826942	
727.5	-1.764256544	1.855358302	
728.125	0.233953612	7.138680511	
728.75	3.945712429	4.825244109	
729.375	-8.88376446	4.735298146	
730.0	6.253302685	17.01067377	
730.625	2.441883268	-0.1318230503	
731.25	-11.88179276	15.28355364	
731.875	-2.526418715	16.43894176	
732.5	-2.170608077	-2.214858058	
733.125	-10.02633324	1.012387446	
733.75	-0.6963326604	4.011937029	
734.375	1.282440693	0.06268954667	
735.0	0.9982617428	-2.100854093	
735.625	-0.8125207588	1.423404796	
736.25	-0.8456472183	0.6731940587	
736.875	1.383092255	1.939164839	
737.5	3.044818038	-0.795011798	
738.125	1.379723638	0.1497394755	
738.75	8.049694224	-2.9078512	
739.375	4.114729577	-9.392228476	
740.0	-3.607666111	3.050811442	
740.625	19.7300602	11.51806725	
741.25	12.79424591	-10.96470575	
741.875	-14.47319483	-8.273243744	
742.5	-11.82490993	-5.070037104	
743.125	-0.1208492818	1.70348357	
743.75	3.026058549	-3.943338601	
744.375	-2.012761365	0.9535775664	
745.0	-0.1247596279	-0.1283594034	
745.625	0.363621116	-0.1718556028	
746.25	-0.2668892608	-0.1751821065	
746.875	-0.7165585849	-0.05065305145	
747.5	-0.2031533389	0.9854874612	
748.125	0.4798315161	0.8878511202	
748.75	0.4473388228	1.393411318	
749.375	0.5610258276	1.355240965	
750.0	-0.2873466976	0.199298417	
