!Created with skrf (http://scikit-rf.org).
# GHz S RI R (50+0j) 
!freq	ReS11	ImS11	
500.0	0.05972907549	-1.194811725	
500.625	2.893503193	-5.480914	
501.25	-2.385866196	-1.140018562	
501.875	-0.8906012279	-0.4423615979	
502.5	0.09613302211	-0.5571684079	
503.125	-0.3548682902	0.203517832	
503.75	0.004095554973	-0.04229334702	
504.375	0.2019381009	-0.001674857598	
505.0	-0.1093520502	0.01632310145	
505.625	0.1467556215	-0.4204902452	
506.25	-0.2527532269	0.3386853079	
506.875	-0.911048764	-0.9559409964	
507.5	-1.627061268	-0.1691806968	
508.125	0.7738125181	-0.4051348591	
508.75	2.76103455	-4.166736062	
509.375	-2.439813828	-3.214179714	
510.0	-0.9891904952	-0.4422592295	
510.625	-1.416302526	-0.8578874925	
511.25	-0.1253731587	-0.08261426417	
511.875	-0.5688067271	-0.1787193591	
512.5	-0.0222589245	0.2707034232	
513.125	-0.04679559895	-0.2545205628	
513.75	-0.05298131661	-0.3494948583	
514.375	-0.7889391223	0.03710277661	
515.0	1.930164867	0.03640614586	
515.625	-2.387094033	-1.146970779	
516.25	1.589596147	-0.3025104274	
516.875	-1.350896218	-2.909507446	
517.5	-0.6668429715	0.2696501333	
518.125	-0.01963974942	-0.5220597547	
518.75	-0.530265753	0.1199229528	
519.375	-0.2174605597	0.02941615943	
520.0	0.5615299554	0.1885525159	
520.625	0.3798316826	-0.3035550775	
521.25	0.2727048702	-0.6570805267	
521.875	-0.5766470817	0.03144262096	
522.5	-0.03021916106	-0.02794194368	
523.125	-0.1850417071	0.1846155277	
523.75	-0.1016695428	-0.2520097952	
524.375	-0.4651019591	0.4225111043	
525.0	-0.1818028127	-0.001458856079	
525.625	0.1543014038	0.3957026622	
526.25	-0.2348577224	-0.227277313	
526.875	0.02348628182	0.2897124758	
527.5	-0.2111164697	0.1730368106	
528.125	0.040067925	1.260110367	
528.75	0.5183520075	0.4247063073	
529.375	-0.05061115958	0.3906956927	
530.0	0.2792026864	0.200252297	
530.625	0.1023004975	1.450523363	
531.25	0.952210446	-0.3135518352	
531.875	0.8431192289	-0.09525150078	
532.5	-0.710441604	-0.4362101063	
533.125	0.787893382	-0.004926155044	
533.75	-0.193838238	-0.626384578	
534.375	0.2836263957	-0.7267184472	
535.0	-1.197369546	-0.1418037805	
535.625	-0.1767886225	0.1081241837	
536.25	-0.109876396	0.3133496371	
536.875	0.3398442529	-0.03584957514	
537.5	0.08194719413	-0.009143932731	
538.125	0.4616243326	-0.2173564256	
538.75	0.1595055837	-0.2902178592	
539.375	-0.02511591895	-0.4851892616	
540.0	-0.642485234	-0.3374098291	
540.625	-0.1565607007	-0.06612439442	
541.25	-0.3344803108	-0.06840852137	
541.875	-0.1097887335	0.06006658506	
542.5	-0.03692970052	-0.103540518	
543.125	-0.2543605964	-0.2881143666	
543.75	-0.2270999764	0.2563561222	
544.375	-0.1841853088	-0.1460679864	
545.0	0.1516820579	0.3294934019	
545.625	-0.1318488115	0.02534265549	
546.25	0.5629726863	0.2110287701	
546.875	0.0009035695801	-0.1283923729	
547.5	0.463483826	-0.2324413158	
548.125	-0.3539210058	-0.5172266621	
548.75	-0.1621211271	-0.1142397532	
549.375	-0.2110822814	-0.3475630687	
550.0	-0.2835104813	0.1544393861	
550.625	-0.03964713281	-0.1228470935	
551.25	-0.2718001341	0.2080138575	
551.875	-0.1059963012	0.04850869233	
552.5	-0.2106322729	0.2686582057	
553.125	0.01458343916	0.1343130777	
553.75	0.08939208381	0.1519058532	
554.375	0.2659457177	0.002581819986	
555.0	0.2261774713	-0.169313334	
555.625	0.2297708603	-0.2450504089	
556.25	0.1815891601	-0.3668855171	
556.875	-0.08260106384	-0.3949274416	
557.5	-0.2193268612	-0.2577444203	
558.125	-0.2946221019	-0.1198998102	
558.75	-0.2632591068	0.00563125722	
559.375	-0.2464224548	0.013661476	
560.0	-0.2917002727	0.1963338401	
560.625	-0.0676422457	0.2877936416	
561.25	-0.03189873877	0.1682052447	
561.875	0.1147817405	0.2012103243	
562.5	-0.02787034136	0.01683198718	
563.125	0.2426165509	0.2921294701	
563.75	0.2159754877	-0.09504227723	
564.375	0.4383307986	-0.09748015509	
565.0	0.1219872191	-0.5130273415	
565.625	-0.05688190295	-0.2070807443	
566.25	-0.1930433027	-0.3839134338	
566.875	-0.4946705214	-0.1740964402	
567.5	-0.2066659183	-0.1118373463	
568.125	-0.2574723154	-0.6154609574	
568.75	-0.7274442823	-0.02897506042	
569.375	-0.3750333445	0.01155484208	
570.0	-0.5464441087	0.695931718	
570.625	0.126481391	0.348033829	
571.25	-0.3519910822	0.2098368266	
571.875	0.5442880475	0.1617237175	
572.5	-0.05307632238	0.1951203121	
573.125	0.5522063227	-0.370255199	
573.75	-0.1546047605	-0.4392474381	
574.375	0.1542473027	0.1452773699	
575.0	0.05149081627	-0.453956262	
575.625	0.1319500474	0.1603726979	
576.25	0.2935847762	-0.5182392021	
576.875	-0.2938502452	-0.2437507018	
577.5	0.2729087377	-0.1699289295	
578.125	-0.08400181265	-0.6847870949	
578.75	-0.3871301367	-0.169346262	
579.375	0.001732293129	-0.0223308862	
580.0	-0.2281474614	-0.357004224	
580.625	-0.01895564049	0.1946813275	
581.25	-0.5113606073	-0.08293005126	
581.875	0.2164079921	0.596221846	
582.5	0.1138932208	-0.03621607847	
583.125	-0.1336467663	0.5258652159	
583.75	0.5223860784	-0.2597672595	
584.375	-0.3259824873	0.4005413252	
585.0	0.6470487979	0.05650470145	
585.625	0.003001304299	-0.08393634109	
586.25	0.6217250146	0.0976404562	
586.875	-0.03719401975	-0.5262437874	
587.5	0.1713321832	-0.1223999653	
588.125	-0.02487228341	-0.6398795714	
588.75	-0.2142800998	-0.2265300302	
589.375	0.4699122909	-0.1133344864	
590.0	-0.264902988	-0.6286318254	
590.625	-0.3593751582	0.002694153881	
591.25	-0.2669614631	0.06749488425	
591.875	-0.3006307489	0.4024917953	
592.5	0.2435927111	-0.02700882158	
593.125	-0.1909917486	0.2892664986	
593.75	0.153376926	0.09465375546	
594.375	0.1772829228	0.4929451005	
595.0	0.7770980359	0.2645289564	
595.625	0.1121951189	-0.1372080395	
596.25	0.3577212283	0.5558977827	
596.875	0.6974743755	-0.2328213574	
597.5	0.01186305674	0.1762624173	
598.125	0.4933758475	0.5536193954	
598.75	0.3310487345	-0.03181819593	
599.375	0.5322660128	0.2428838169	
600.0	0.4164381404	-0.57915025	
600.625	0.1952855142	-0.2123008543	
601.25	0.3885502708	-0.4354201641	
601.875	-0.2949273256	-0.4687372523	
602.5	-0.1740433584	-0.04664863133	
603.125	-0.2336950669	0.07598788748	
603.75	-0.4309040952	0.1109000373	
604.375	-0.08636010373	0.3935762969	
605.0	-0.2759017637	-0.1101881117	
605.625	-0.1725597062	0.4376247315	
606.25	-0.1161075371	-0.141213089	
606.875	-0.78677222	0.3267008608	
607.5	-0.0257346304	0.3400192722	
608.125	-0.5017326035	0.473079486	
608.75	0.8726828359	0.514430188	
609.375	0.1220188313	0.08243609352	
610.0	0.7160325121	-0.2385228924	
610.625	0.03657547702	-0.4662006999	
611.25	0.3308311957	-0.2912787663	
611.875	-0.4699835793	-0.2085133073	
612.5	-0.2300895896	-0.2285948508	
613.125	-0.6900224645	0.1008368702	
613.75	0.07362290076	0.1469920707	
614.375	-0.002534589814	0.4498019292	
615.0	0.2334005409	-0.2052931091	
615.625	-0.2530109634	0.4593940552	
616.25	0.2046317172	0.2777524728	
616.875	-0.4710734692	0.2564653308	
617.5	-0.1155506493	0.8264892631	
618.125	0.09025683224	0.2254185154	
618.75	-0.2093492871	0.6570237053	
619.375	0.401792672	0.3060811937	
620.0	0.2741603897	0.2466951413	
620.625	0.3294864488	-0.4796236449	
621.25	-0.04194430952	-0.3623625092	
621.875	-0.6019853866	-0.2725979943	
622.5	-0.3418297782	0.08582471874	
623.125	-0.3328208319	0.4722249443	
623.75	0.4289298972	-0.0741360391	
624.375	0.1482542004	0.159547447	
625.0	-0.1821314308	-0.3661173672	
625.625	0.3365589384	0.06666871551	
626.25	-0.2370477522	-0.6239227278	
626.875	-0.2386292579	0.1471722585	
627.5	-0.2299852824	-0.4559619704	
628.125	-0.4647914471	-0.09884214796	
628.75	-0.002880853543	-0.1584875488	
629.375	-0.2009686395	-0.6077208999	
630.0	-0.4157103833	0.003941096083	
630.625	-0.5842543443	-0.09977166267	
631.25	-0.4547243745	0.5935978604	
631.875	0.07104139218	0.4949243838	
632.5	0.1701810294	0.454869624	
633.125	0.5056663625	0.2961032214	
633.75	0.5299464927	-0.315525897	
634.375	0.03474686859	-0.09686710305	
635.0	0.178709385	-0.5447465696	
635.625	-0.4937377414	0.1136520635	
636.25	-0.456631191	-0.2463355392	
636.875	-0.132896017	0.5795074581	
637.5	0.05130054522	-0.1082649373	
638.125	-0.5885507164	0.492602341	
638.75	0.3217411298	0.2464474841	
639.375	-0.5258595493	0.4135973585	
640.0	0.435236827	0.9847701675	
640.625	0.7087445192	0.1259710224	
641.25	0.246060109	0.1480479609	
641.875	0.8561896743	-0.6387916514	
642.5	-0.2574319404	-0.2448471471	
643.125	-0.002037554668	-0.6440071717	
643.75	-0.6998704525	0.09904016116	
644.375	0.005265783404	-0.392783445	
645.0	-0.7109594916	0.5434888151	
645.625	0.3545762193	0.5154300068	
646.25	0.258344333	-0.07537121898	
646.875	0.1558979254	0.4918502975	
647.5	0.3230510588	-0.5503129057	
648.125	0.1668895652	0.698890149	
648.75	1.02862994	-0.5832511712	
649.375	-0.05787919507	-0.248230454	
650.0	1.259500877	-0.6695877674	
650.625	-0.1599458566	-1.210959196	
651.25	0.2165095865	0.2211144324	
651.875	1.427139816	-0.3482457295	
652.5	0.4456269351	-0.8412446472	
653.125	0.2626479609	0.2488761163	
653.75	0.9895697684	-0.6753902249	
654.375	-0.546924357	-0.6053274448	
655.0	-0.117420892	-0.5071110117	
655.625	-0.9818555114	0.7177578029	
656.25	0.3999170778	0.07671894228	
656.875	-0.2840726691	0.3116427153	
657.5	0.4395432277	0.2698096742	
658.125	0.03119173358	0.1255002999	
658.75	0.7356328041	0.7269489119	
659.375	0.8918423977	-0.6910988206	
660.0	0.2545875385	-0.4348157288	
660.625	0.8548269195	-0.5991510595	
661.25	0.05684055106	-1.261093888	
661.875	0.384250189	0.07391752804	
662.5	1.202250881	-0.5980089043	
663.125	0.3349527337	-0.8312380387	
663.75	0.4411723825	-0.04655009633	
664.375	0.09161463556	-1.303300075	
665.0	-0.6797354072	-0.09863040235	
665.625	-0.7253897343	-0.2570773436	
666.25	-0.3166254142	0.9873265025	
666.875	0.1756285883	0.08999329443	
667.5	0.4585246595	0.6049953426	
668.125	0.6654030808	-0.2483844429	
668.75	0.1770975386	-0.1642650203	
669.375	0.5871862429	-0.4199765662	
670.0	-0.06454359442	-0.8184025017	
670.625	-0.1058225984	-0.1854583659	
671.25	0.39731993	-0.4105332413	
671.875	0.2246108837	-0.6640245095	
672.5	0.2758281569	0.0169494886	
673.125	0.7819188024	-0.6249558745	
673.75	0.07896907402	-0.5150354575	
674.375	0.4116981618	-0.2618806539	
675.0	-0.09499331432	-1.140657511	
675.625	-0.755672	0.2302753696	
676.25	0.05279602942	-0.526918414	
676.875	-0.8325762824	0.1802765687	
677.5	0.04511988118	0.05194073153	
678.125	-0.8546218057	0.2235885028	
678.75	0.5330066871	0.4208990125	
679.375	0.1385062897	0.3834668952	
680.0	0.7634440228	-0.1751986617	
680.625	-0.2437157611	-0.4726830064	
681.25	0.2517130818	0.5399363848	
681.875	0.6931213348	-0.08591918573	
682.5	0.4031153994	0.05710732543	
683.125	0.2433980933	0.1728259539	
683.75	0.8888060041	0.6958750357	
684.375	0.6808075554	-0.5566192616	
685.0	0.3085154252	0.6748036684	
685.625	1.279554134	-0.1235877172	
686.25	-0.1121477934	-0.2900387251	
686.875	1.701836805	0.1982853834	
687.5	0.003457892952	-1.379275109	
688.125	0.6127533774	-0.3051039657	
688.75	-1.420287275	-1.285211728	
689.375	-0.250402625	1.126544762	
690.0	-0.4858896809	0.6357026351	
690.625	1.007073614	0.7261771681	
691.25	0.3676108752	0.4659805107	
691.875	1.048792142	1.149777634	
692.5	1.40128667	0.09037938961	
693.125	1.42055887	0.226476597	
693.75	1.496367304	-0.4843697525	
694.375	1.052816166	-0.8868154363	
695.0	1.168054821	-0.8367090856	
695.625	0.8207075384	-0.1278324462	
696.25	1.658092468	1.02786505	
696.875	1.183316999	0.2775479557	
697.5	0.1545261987	1.564575495	
698.125	2.380737664	0.6027908146	
698.75	0.4620722149	-0.3310826933	
699.375	-0.6873821467	-1.981068772	
700.0	-0.4329370164	1.312115887	
700.625	-0.326718657	0.365912048	
701.25	1.158679692	0.5339420601	
701.875	0.1385849424	0.3830748461	
702.5	0.9751638017	1.023942029	
703.125	0.7899611831	-0.3039766248	
703.75	1.015732005	0.2665752239	
704.375	0.7065117394	-0.7649965372	
705.0	0.2775981179	0.03692972174	
705.625	1.354717129	-0.1036323954	
706.25	0.261874485	0.109018434	
706.875	0.30726423	1.236300459	
707.5	1.312163623	0.6819854437	
708.125	0.5506207989	0.5337787193	
708.75	1.267217843	-0.9421944863	
709.375	-0.8176531377	-0.554783542	
710.0	-0.6282107594	0.1698104813	
710.625	0.2894638753	0.6639430287	
711.25	-0.04463206091	0.1877622081	
711.875	0.6258708359	0.4914918001	
712.5	0.654710322	0.03671533532	
713.125	0.785082933	-0.5528879735	
713.75	0.101405831	-0.3473754419	
714.375	0.4789265639	-0.7899453312	
715.0	-0.5121124974	-0.4746830086	
715.625	0.4848028744	-0.1324133521	
716.25	0.4757350121	-1.52488772	
716.875	0.07764123815	0.0316714711	
717.5	2.216189268	0.663559273	
718.125	2.088259302	-1.57024836	
718.75	0.6225161231	1.8405919	
719.375	4.061620916	-2.577766937	
720.0	-0.03276505915	-1.367371544	
720.625	1.619175844	-1.539666481	
721.25	0.2473775128	-4.108534884	
721.875	-1.282240973	-1.446642494	
722.5	-0.7316007832	-2.775133223	
723.125	-2.427099731	-0.3661907358	
723.75	-0.5300690958	0.7985966054	
724.375	-0.5394451706	1.264489332	
725.0	0.9518001638	0.9057904127	
725.625	0.3024921498	0.7388258606	
726.25	-0.4539407837	1.632223649	
726.875	-0.1786010892	3.745698875	
727.5	1.687615022	1.982431528	
728.125	-5.027775067	4.747359022	
728.75	1.029731477	10.69647204	
729.375	1.122154488	1.8026047	
730.0	-15.33090419	14.52611237	
730.625	13.64256347	6.726889146	
731.25	-7.052955174	3.166359761	
731.875	-14.10655106	10.92342252	
732.5	-4.780769674	7.138207785	
733.125	-3.917886077	-3.234297725	
733.75	-4.615549579	4.731448429	
734.375	2.197344745	0.6512701772	
735.0	0.6441084788	-0.533684123	
735.625	-2.420529439	0.5463422742	
736.25	0.08577827357	0.09366338863	
736.875	0.695830186	2.400540931	
737.5	3.592009496	0.1941690804	
738.125	2.802227605	-2.693659893	
738.75	2.838535826	2.126217018	
739.375	16.24661588	-6.679050639	
740.0	-0.1367245219	-11.27147525	
740.625	1.542649572	15.84076035	
741.25	23.76717895	13.18472038	
741.875	7.817685578	-17.77737954	
742.5	-45.15834855	-9.349301961	
743.125	-6.185369647	-0.4825487304	
743.75	3.566447613	-0.7892617812	
744.375	-3.116053473	-1.646621789	
745.0	0.6318815553	-0.1554068464	
745.625	0.1693843416	0.2265823148	
746.25	-0.2969550956	-0.6265892498	
746.875	-0.3013045482	-0.008929079378	
747.5	-0.3406941978	1.225724878	
748.125	0.638871834	1.023499993	
748.75	0.3716189678	0.8918024312	
749.375	0.3740670092	1.771274416	
750.0	-1.164642037	0.4432533476	
