!Created with skrf (http://scikit-rf.org).
# GHz S RI R (50+0j) 
!freq	ReS11	ImS11	
500.0	0.7213675211	-0.8496821165	
500.625	1.633088786	-4.7363314	
501.25	-4.054296374	-0.6274955094	
501.875	-0.8805251923	-0.4699024892	
502.5	0.07440606211	-0.4277240856	
503.125	-0.3677843205	0.2216581764	
503.75	-0.008503796102	-0.04285190615	
504.375	0.2055337953	-0.02073945449	
505.0	-0.0969218856	0.04034369357	
505.625	0.1195640548	-0.411616019	
506.25	-0.2143372848	0.3715945273	
506.875	-0.8944919114	-1.044042606	
507.5	-1.742930457	-0.5198653527	
508.125	0.5494177665	-0.1828871777	
508.75	2.606835269	-3.975495974	
509.375	-2.233752138	-3.020773509	
510.0	-0.6904957035	-0.5802574664	
510.625	-1.08823037	-0.5727261479	
511.25	-0.213754102	-0.09332995088	
511.875	-0.6194732065	-0.1292232065	
512.5	-0.03868839755	0.1032533145	
513.125	-0.0484121912	-0.1879097541	
513.75	-0.08145281885	-0.3425512514	
514.375	-0.7422978563	-0.03895772782	
515.0	1.591878133	0.1758232284	
515.625	-2.590984737	-1.554962383	
516.25	1.408377146	-0.08572969725	
516.875	-1.219765053	-2.890541791	
517.5	-0.677444167	0.4076569925	
518.125	-0.03080300451	-0.5191785728	
518.75	-0.4948790582	0.2842760252	
519.375	-0.2477782956	0.004866187864	
520.0	0.5212962474	0.2003837956	
520.625	0.2882867269	-0.3009464999	
521.25	0.3275110248	-0.6234928791	
521.875	-0.620919988	0.058886233	
522.5	0.006619846733	-0.07297138203	
523.125	-0.2004599641	0.3146382292	
523.75	-0.09452734689	-0.217495275	
524.375	-0.5162388574	0.4534085029	
525.0	-0.1654622072	-0.01717442178	
525.625	0.1504047876	0.3931013192	
526.25	-0.2257497033	-0.2611616122	
526.875	0.02631127465	0.3095474552	
527.5	-0.1752892234	0.1528215962	
528.125	0.01695787061	1.238197202	
528.75	0.5396157262	0.4518298779	
529.375	-0.07810491743	0.3848391129	
530.0	0.2688446047	0.0690012545	
530.625	0.07358893144	1.402244054	
531.25	0.9629111646	-0.5007661528	
531.875	0.8275874211	0.08666277566	
532.5	-0.7105738041	-0.473233141	
533.125	0.8217202073	0.008136616554	
533.75	-0.3211200563	-0.6901466913	
534.375	0.3548506329	-0.6571167962	
535.0	-1.205573632	-0.1491998238	
535.625	-0.1073372725	0.1059899538	
536.25	-0.1268118055	0.2955405523	
536.875	0.3559896086	-0.0295361981	
537.5	0.06691482623	-0.005995802121	
538.125	0.4598301279	-0.2274006917	
538.75	0.1273835201	-0.2759878126	
539.375	-0.007675946072	-0.4928752019	
540.0	-0.6524694743	-0.312491826	
540.625	-0.143320175	-0.06168987335	
541.25	-0.3195909361	-0.06321028421	
541.875	-0.1490110959	0.02490813146	
542.5	-0.02837596604	-0.03385818483	
543.125	-0.2187398254	-0.3021239428	
543.75	-0.2647634831	0.2925526725	
544.375	-0.1768893526	-0.1655365302	
545.0	0.1455495405	0.3167069338	
545.625	-0.1448592762	0.02778319798	
546.25	0.533502261	0.1829591758	
546.875	-0.00862694237	-0.1223893194	
547.5	0.4481039769	-0.2202158205	
548.125	-0.3410331067	-0.521354876	
548.75	-0.1785619351	-0.09473040653	
549.375	-0.1911551695	-0.3394898468	
550.0	-0.2837257538	0.1458174793	
550.625	-0.03751567164	-0.1258015075	
551.25	-0.2630068347	0.205540223	
551.875	-0.1057532893	0.04061264365	
552.5	-0.1998993367	0.2669841981	
553.125	0.0201492882	0.1229412106	
553.75	0.0866482491	0.1457933239	
554.375	0.2613571956	-0.003972482335	
555.0	0.2183984266	-0.1725854003	
555.625	0.2220391513	-0.2400857644	
556.25	0.1736650481	-0.3590595373	
556.875	-0.08988492597	-0.3942616615	
557.5	-0.2217400349	-0.2472511228	
558.125	-0.2817931638	-0.1156993063	
558.75	-0.2614304335	0.01303425353	
559.375	-0.2370424442	0.01512162382	
560.0	-0.2797051219	0.1892531151	
560.625	-0.06092114363	0.2811170391	
561.25	-0.03557215577	0.1663084005	
561.875	0.1251916188	0.1898682685	
562.5	-0.03802027045	0.01932019293	
563.125	0.2503981089	0.2748323236	
563.75	0.2040511749	-0.09853872472	
564.375	0.4221777003	-0.09420793685	
565.0	0.1214449502	-0.5084068353	
565.625	-0.06731512952	-0.1993848791	
566.25	-0.1841952861	-0.3693180344	
566.875	-0.4869096393	-0.1662625778	
567.5	-0.1921042095	-0.1113405656	
568.125	-0.2720877071	-0.6055851019	
568.75	-0.6826430549	-0.01606251358	
569.375	-0.3859423007	0.003565323755	
570.0	-0.512166693	0.693990432	
570.625	0.1379364845	0.351525506	
571.25	-0.3362128204	0.1716070287	
571.875	0.5462235622	0.1913654211	
572.5	-0.06721466252	0.1806048548	
573.125	0.5453297208	-0.3781807213	
573.75	-0.1674850084	-0.4083558001	
574.375	0.1982300278	0.1239071064	
575.0	-0.01003385871	-0.4323004332	
575.625	0.1693359547	0.1524410326	
576.25	0.284928849	-0.5081979561	
576.875	-0.2967012947	-0.2476988194	
577.5	0.2461809752	-0.1485905508	
578.125	-0.06928404002	-0.6614703757	
578.75	-0.3897277043	-0.1736317918	
579.375	0.003970308032	-0.03133007777	
580.0	-0.2412703841	-0.328656067	
580.625	0.01017394166	0.1628363987	
581.25	-0.5058860423	-0.02136075534	
581.875	0.2219614423	0.5513586622	
582.5	0.1143732428	-0.03486753661	
583.125	-0.1336042371	0.4898955833	
583.75	0.5395280137	-0.2383076523	
584.375	-0.3444453441	0.3914338788	
585.0	0.6444494936	0.0570046562	
585.625	-0.01989692358	-0.0764422224	
586.25	0.6473532942	0.06205037088	
586.875	-0.1039773082	-0.4856726446	
587.5	0.2067561697	-0.1344349023	
588.125	-0.05210453169	-0.6266962674	
588.75	-0.2160921246	-0.2219154348	
589.375	0.4742821329	-0.1067709907	
590.0	-0.2669282667	-0.6170198932	
590.625	-0.355204093	0.01887472238	
591.25	-0.2719551884	0.08323666945	
591.875	-0.2595917096	0.4018571548	
592.5	0.191124661	-0.03527503792	
593.125	-0.1471824342	0.2698521705	
593.75	0.1345143604	0.1166184578	
594.375	0.1764278077	0.4517022302	
595.0	0.7597775575	0.2973620756	
595.625	0.1404388824	-0.1666078133	
596.25	0.3216658542	0.5612482333	
596.875	0.7043940214	-0.2000256165	
597.5	-0.01776424008	0.1807389372	
598.125	0.5379141526	0.5367282631	
598.75	0.2891439809	-0.04863569201	
599.375	0.5805499079	0.2696648623	
600.0	0.3582501205	-0.6173742668	
600.625	0.1771586125	-0.1895732618	
601.25	0.3854319346	-0.4256361226	
601.875	-0.3316839959	-0.4329734325	
602.5	-0.1621343268	-0.04419923399	
603.125	-0.2346959071	0.08873843927	
603.75	-0.3732644932	0.08312117891	
604.375	-0.1156167966	0.362153771	
605.0	-0.2327915032	-0.07953069376	
605.625	-0.2108897669	0.4044332371	
606.25	-0.09789953795	-0.08744521495	
606.875	-0.7660912901	0.294015208	
607.5	0.01336919994	0.386165442	
608.125	-0.5229206482	0.4305668919	
608.75	0.9160260501	0.4532571229	
609.375	0.1040517987	0.04771535467	
610.0	0.7444989233	-0.2587502804	
610.625	-0.08895992027	-0.4470265792	
611.25	0.4115118148	-0.2916962296	
611.875	-0.4883603927	-0.2075011904	
612.5	-0.1090471894	-0.2676609991	
613.125	-0.7276240957	0.09658674709	
613.75	0.0873044241	0.1870046165	
614.375	-0.08582400283	0.5221356171	
615.0	0.2459783689	-0.1834625125	
615.625	-0.3065919815	0.4486286585	
616.25	0.3168411564	0.2763594724	
616.875	-0.4936711571	0.2023874084	
617.5	-0.1271036355	0.8634198873	
618.125	0.1285697219	0.1941892179	
618.75	-0.2081198649	0.6497111371	
619.375	0.4103042924	0.2835274913	
620.0	0.2756947358	0.2503072593	
620.625	0.2876464821	-0.4917204729	
621.25	-0.07231510685	-0.3285054301	
621.875	-0.6335665659	-0.2501170555	
622.5	-0.3324929718	0.1175340123	
623.125	-0.3053676267	0.4528654141	
623.75	0.4382174877	-0.1143031778	
624.375	0.1465341798	0.2324099152	
625.0	-0.1528259358	-0.3778945497	
625.625	0.3288115723	0.1013536181	
626.25	-0.269247568	-0.6718073722	
626.875	-0.2403999229	0.1872648963	
627.5	-0.2242495789	-0.4583000548	
628.125	-0.4800187992	-0.04720311656	
628.75	0.03345074114	-0.1660810461	
629.375	-0.2730217035	-0.5927867034	
630.0	-0.3603421439	0.03352204325	
630.625	-0.5886982856	-0.08993590155	
631.25	-0.4373354901	0.5958884505	
631.875	0.08895836477	0.4972370036	
632.5	0.2068743246	0.4160847104	
633.125	0.4531289951	0.2837546256	
633.75	0.5158762016	-0.3256477375	
634.375	0.04333256145	-0.1069774554	
635.0	0.1476522386	-0.5545612527	
635.625	-0.4318574153	0.1195636802	
636.25	-0.4770454766	-0.1949503353	
636.875	-0.09825993623	0.5846328997	
637.5	0.05281977954	-0.09049500906	
638.125	-0.5951369336	0.471466866	
638.75	0.3951937773	0.2547872197	
639.375	-0.4895017932	0.3707206347	
640.0	0.4316364734	0.9540927223	
640.625	0.6819312226	0.08697259685	
641.25	0.2643579813	0.1574334359	
641.875	0.7518777546	-0.7206165895	
642.5	-0.2267430614	-0.1901565321	
643.125	-0.05291580298	-0.6234639136	
643.75	-0.701245155	0.1266248625	
644.375	0.04427502896	-0.3433892461	
645.0	-0.700302734	0.5121589144	
645.625	0.3522707853	0.5254256897	
646.25	0.2685144656	-0.09005902292	
646.875	0.168874901	0.4661360076	
647.5	0.2383938985	-0.5441643923	
648.125	0.2447568538	0.6734838596	
648.75	0.9314690038	-0.5787049359	
649.375	-0.05306716	-0.2320089072	
650.0	1.241987011	-0.6601649982	
650.625	-0.1858813595	-1.240449544	
651.25	0.1431826432	0.1816429402	
651.875	1.394559316	-0.3310859859	
652.5	0.4008574335	-0.8456180588	
653.125	0.277463237	0.2550020963	
653.75	0.8766424784	-0.7692588409	
654.375	-0.5457433883	-0.4911711004	
655.0	-0.1806922623	-0.5079752632	
655.625	-0.9174691284	0.7684876901	
656.25	0.4194017742	0.07063314284	
656.875	-0.2750821932	0.2898083146	
657.5	0.4281249997	0.2687899059	
658.125	0.06496953252	0.1034791554	
658.75	0.7401198558	0.6740461353	
659.375	0.8001479135	-0.6985246879	
660.0	0.2753248699	-0.4355195152	
660.625	0.7856749471	-0.6470472653	
661.25	-0.01184730171	-1.213045528	
661.875	0.3729325868	0.04567945517	
662.5	1.161862065	-0.5952052207	
663.125	0.3060223514	-0.8610816537	
663.75	0.3845450432	-0.06190869873	
664.375	0.02077997941	-1.305707947	
665.0	-0.6223961508	-0.009865330536	
665.625	-0.771866354	-0.2531845027	
666.25	-0.1998653703	1.005768863	
666.875	0.1502654453	0.06476922046	
667.5	0.481589756	0.578643063	
668.125	0.650273277	-0.2713050379	
668.75	0.1567658466	-0.210587681	
669.375	0.5357456375	-0.4005809866	
670.0	-0.09477644257	-0.7883646635	
670.625	-0.05046733697	-0.1743250071	
671.25	0.3376304736	-0.4474832211	
671.875	0.1694132305	-0.5980264311	
672.5	0.354801655	-0.002717123829	
673.125	0.697314409	-0.6406367866	
673.75	0.04449878248	-0.5344903908	
674.375	0.3512262745	-0.2440410935	
675.0	-0.09035079311	-1.088596829	
675.625	-0.7905948417	0.2658936176	
676.25	0.04084913461	-0.541555349	
676.875	-0.8148564321	0.288133877	
677.5	0.1318205055	-0.02598500729	
678.125	-0.9231029701	0.3931682017	
678.75	0.576826577	0.2642167117	
679.375	0.1436716941	0.4564762228	
680.0	0.7515283286	-0.2172530627	
680.625	-0.1879663161	-0.5085382387	
681.25	0.1955307511	0.5325623333	
681.875	0.6991132744	-0.05682328597	
682.5	0.3896552231	0.04837951623	
683.125	0.2934249782	0.1277955328	
683.75	0.8609981504	0.5573190767	
684.375	0.5665690685	-0.4377898565	
685.0	0.3950012495	0.5258627906	
685.625	1.18969979	-0.1006373692	
686.25	-0.06788274937	-0.2998219422	
686.875	1.631870864	0.1531573505	
687.5	-0.08701881884	-1.49273409	
688.125	0.5709348992	-0.2278574958	
688.75	-1.403019205	-1.190033825	
689.375	-0.1067612194	1.146322069	
690.0	-0.539827115	0.6292288465	
690.625	1.161859653	0.592351127	
691.25	0.2844793484	0.4635420418	
691.875	1.258081548	1.192944046	
692.5	1.368124247	0.01727754889	
693.125	1.400288442	0.2403839965	
693.75	1.485973637	-0.6370771022	
694.375	0.9209886625	-0.8501160303	
695.0	1.185483469	-0.8741810735	
695.625	0.776916804	-0.2393953213	
696.25	1.5475505	0.9920169158	
696.875	1.296525676	0.1772286458	
697.5	0.1547700732	1.406472027	
698.125	2.299992869	0.4729688647	
698.75	0.3322833558	-0.4198808474	
699.375	-0.7605355207	-1.883578079	
700.0	-0.2932162577	1.372770076	
700.625	-0.5083674379	0.346061146	
701.25	1.232365976	0.5033261464	
701.875	0.1372834607	0.3113154944	
702.5	1.02276968	1.080631081	
703.125	0.8469309407	-0.3020458497	
703.75	0.9933714827	0.3113992551	
704.375	0.6929518247	-0.9291699306	
705.0	0.133751352	0.08296994606	
705.625	1.409198576	-0.07372624804	
706.25	0.1951892871	-0.1201362934	
706.875	0.2718350366	1.285892717	
707.5	1.406323679	0.6278307561	
708.125	0.5013667457	0.4885940656	
708.75	1.201146429	-1.129295097	
709.375	-0.8661405276	-0.3706012454	
710.0	-0.6547420164	0.1867067185	
710.625	0.3640091927	0.6192323025	
711.25	-0.04583786527	0.1851360808	
711.875	0.6281611161	0.4105916582	
712.5	0.6251500745	4.027700741e-05	
713.125	0.7734475456	-0.605446785	
713.75	0.03175252598	-0.3661982183	
714.375	0.4636989089	-0.7654476934	
715.0	-0.5493012464	-0.4415121601	
715.625	0.5404900884	-0.1016691758	
716.25	0.3874880795	-1.485685261	
716.875	-0.01006415516	0.1361645312	
717.5	2.233700269	0.6046283008	
718.125	2.010339366	-1.754008331	
718.75	0.3998305218	1.85691188	
719.375	4.038958278	-2.778718285	
720.0	-0.2381380949	-1.424610128	
720.625	1.332657119	-1.641840285	
721.25	0.1272286817	-3.965096487	
721.875	-1.036743443	-1.263653488	
722.5	-1.165245553	-2.797668947	
723.125	-2.381405107	-0.1091926547	
723.75	-0.4042419878	0.8024879376	
724.375	-0.4756849427	1.271811981	
725.0	0.8857117727	0.9539904637	
725.625	0.4240261475	0.6302221178	
726.25	-0.5602500572	1.499609185	
726.875	-0.1338491927	3.615645752	
727.5	2.090340155	1.842227683	
728.125	-4.700806088	5.487821045	
728.75	1.434907157	10.72410842	
729.375	0.5265211038	1.142710825	
730.0	-6.344455234	19.53351102	
730.625	15.21860894	3.346384421	
731.25	-9.032087646	1.830301455	
731.875	-13.57231155	10.10447308	
732.5	-5.423466463	8.962933919	
733.125	-3.76797037	-2.240856781	
733.75	-4.025157568	4.797932739	
734.375	2.140738317	0.3964563204	
735.0	0.6035224747	-0.6196902898	
735.625	-2.304753513	0.8123571365	
736.25	-0.06968610384	0.02444807087	
736.875	0.8493864404	2.387892214	
737.5	3.607294366	0.00096473999	
738.125	2.524094701	-3.00144444	
738.75	2.163811745	1.982459794	
739.375	15.22171012	-7.502257846	
740.0	-1.737165218	-14.41578042	
740.625	-5.224879614	13.43494154	
741.25	24.92455111	16.62256177	
741.875	-5.962576428	-20.89815905	
742.5	-10.1889339	-8.999557109	
743.125	-6.258641514	-0.8587324167	
743.75	3.551357273	-1.187729826	
744.375	-3.338380715	-0.7274776245	
745.0	0.6341937175	-0.2343103537	
745.625	0.2672342651	0.28644538	
746.25	-0.2038377324	-0.3494036537	
746.875	-0.3328180944	0.07210144468	
747.5	-0.5574360855	1.223634395	
748.125	0.783065663	0.8963385307	
748.75	0.3222263486	0.8378485316	
749.375	0.03963616115	2.060583781	
750.0	0.3158508673	0.1380921872	
