!Created with skrf (http://scikit-rf.org).
# GHz S RI R (50+0j) 
!freq	ReS11	ImS11	
500.0	0.1572074426	-0.9967030209	
500.625	0.3169206756	-1.034007295	
501.25	-0.3401086696	-0.6630285172	
501.875	-0.2304186999	-0.4724520485	
502.5	-0.03699143395	-0.1364161787	
503.125	-0.07533395328	0.0007441402958	
503.75	0.008134482716	0.08189121844	
504.375	0.02946954151	-0.001780687297	
505.0	0.02384925666	-0.02089594866	
505.625	0.002201145179	-0.05336812433	
506.25	-0.06569852056	-0.06033775643	
506.875	-0.1209552568	0.004582563788	
507.5	-0.08798146791	-0.3353262198	
508.125	0.1676016968	-0.63956301	
508.75	0.591020038	-0.9473830037	
509.375	0.3894691827	-1.194805523	
510.0	-0.3109487577	-0.3128791426	
510.625	-0.1036086427	-0.2320681315	
511.25	-0.09126399813	-0.05701814598	
511.875	-0.1192230204	-0.05952905187	
512.5	-0.02020593124	0.04588498363	
513.125	-0.01819331977	-0.07429746825	
513.75	-0.06402282687	-0.06010249888	
514.375	-0.03933232209	-0.01184120614	
515.0	0.0009738234594	-0.05727306718	
515.625	-0.009998400646	-0.3773334622	
516.25	-0.2526384611	-0.6478969759	
516.875	-0.2430854316	-0.4443218725	
517.5	-0.05402261411	-0.152453091	
518.125	-0.02135877918	-0.02426939248	
518.75	-0.02637112212	-0.1420477569	
519.375	-0.0628964402	0.03749245146	
520.0	0.1097221482	0.06757600139	
520.625	0.1667820242	-0.05238674628	
521.25	-0.008791305026	-0.2658799946	
521.875	-0.1474709891	-0.02451845521	
522.5	-0.04358783799	0.02305028349	
523.125	-0.06392113271	0.02181368233	
523.75	-0.115305108	-0.01419738088	
524.375	-0.1642301936	0.03184012688	
525.0	-0.03986388926	0.1358501038	
525.625	0.03410039578	0.04192845247	
526.25	-0.01687827963	-0.01214524164	
526.875	-0.05056651081	0.05512068679	
527.5	-0.0470579826	0.1830633273	
528.125	0.04652088615	0.2584063955	
528.75	0.01280825372	0.2169882099	
529.375	0.04576493369	0.0748465927	
530.0	0.01582420546	0.1590243599	
530.625	0.08339218827	0.2960672485	
531.25	0.3997856149	0.1525775819	
531.875	0.2610662063	-0.1689628494	
532.5	-0.05156844918	-0.1127933042	
533.125	0.05891127234	-0.03969809976	
533.75	0.1250023597	-0.1756547644	
534.375	-0.06484674093	-0.2939922642	
535.0	-0.2259143428	-0.1214526312	
535.625	-0.1740472483	0.09872272583	
536.25	-0.007837230476	0.09642421448	
536.875	0.09594812414	0.02218551356	
537.5	0.07189794387	-0.04287677223	
538.125	0.116731348	-0.06026598335	
538.75	0.1332009407	-0.1181100534	
539.375	-0.07046568282	-0.1744909439	
540.0	-0.1626302341	-0.1625072684	
540.625	-0.1675594863	-0.03433085863	
541.25	-0.08792534234	0.001165125089	
541.875	-0.04381965645	-0.02222122065	
542.5	-0.04372704801	-0.05747611813	
543.125	-0.07984031503	-0.05270939378	
543.75	-0.08916300496	-0.01099039917	
544.375	-0.05047643646	0.03996394389	
545.0	-0.00704142744	0.05983403568	
545.625	0.0502436603	0.06816385855	
546.25	0.09668465458	0.04479467362	
546.875	0.123896209	-0.02041007173	
547.5	0.07771041791	-0.1244093988	
548.125	-0.03510541706	-0.1697109565	
548.75	-0.1213382373	-0.1271766514	
549.375	-0.1137775928	-0.07552770073	
550.0	-0.07828359164	0.003555667676	
550.625	-0.05589667124	0.00127309701	
551.25	-0.08208158304	0.02665409384	
551.875	-0.07837948462	0.06570965655	
552.5	-0.05317643765	0.07671652653	
553.125	-0.01699256138	0.06700307042	
553.75	0.04351517671	0.05096439661	
554.375	0.1028292148	0.007180995512	
555.0	0.1082559702	-0.07371327717	
555.625	0.09652908516	-0.1075968058	
556.25	0.07968076392	-0.1467359153	
556.875	-0.03326520491	-0.1712902544	
557.5	-0.09623591547	-0.1142276252	
558.125	-0.1229005235	-0.05095746224	
558.75	-0.1181830845	-0.005246306327	
559.375	-0.1199383167	0.01385712158	
560.0	-0.1074789272	0.07959597226	
560.625	-0.0550900045	0.1142568342	
561.25	-0.0003471284937	0.1075021161	
561.875	0.0308474687	0.04724485917	
562.5	0.004968779493	0.05924903115	
563.125	0.07194143671	0.07979257541	
563.75	0.1486900291	0.01474120533	
564.375	0.1429690957	-0.09626975019	
565.0	0.08574731232	-0.1503158704	
565.625	-0.02513050606	-0.1692990398	
566.25	-0.115694296	-0.1196263637	
566.875	-0.1415580607	-0.08949172266	
567.5	-0.1424959819	-0.1201105622	
568.125	-0.1450970336	-0.1693167107	
568.75	-0.2326582888	-0.09473437295	
569.375	-0.2524927961	0.08879130176	
570.0	-0.1372144645	0.2028798752	
570.625	-0.06744500732	0.1803245466	
571.25	-0.0007376764614	0.1217702972	
571.875	0.0541980318	0.08455185285	
572.5	0.1333612862	0.003459931867	
573.125	0.1003262485	-0.1096103935	
573.75	0.05161462396	-0.1208707506	
574.375	0.01492352035	-0.06803164663	
575.0	0.03399249734	-0.04230627267	
575.625	0.04237484097	-0.07322468136	
576.25	0.05588385374	-0.1154680356	
576.875	-0.00352918804	-0.1505067633	
577.5	0.004672850773	-0.1646236399	
578.125	-0.04034193954	-0.1720183164	
578.75	-0.08945533447	-0.1303091949	
579.375	-0.08522263428	-0.06940427905	
580.0	-0.05364821835	-0.03923718048	
580.625	-0.07347274176	-0.03071934744	
581.25	-0.1103215842	0.06960810553	
581.875	-0.004251785399	0.1659419965	
582.5	0.05498556856	0.151338623	
583.125	0.08002000686	0.08075223402	
583.75	0.0391909503	0.02206908853	
584.375	0.03297469258	0.065551664	
585.0	0.1144154703	0.06532746673	
585.625	0.1633258198	0.00391388634	
586.25	0.1581896061	-0.06006466959	
586.875	0.08420217146	-0.1347316402	
587.5	-0.002823361299	-0.1484417423	
588.125	-0.01259634461	-0.1490139351	
588.75	0.03588058948	-0.1518691089	
589.375	0.06910080568	-0.1597753778	
590.0	-0.04785269912	-0.1838459374	
590.625	-0.1868151468	-0.06031062634	
591.25	-0.1453074917	0.1059081463	
591.875	-0.04272620177	0.124772478	
592.5	0.008142888289	0.05345922083	
593.125	-0.03186060979	0.04929841155	
593.75	0.0488314294	0.1262519728	
594.375	0.1521750568	0.1114941087	
595.0	0.1749467459	0.1099794449	
595.625	0.1815209178	0.08726804956	
596.25	0.1697635396	0.047237987	
596.875	0.1632788459	0.04116114255	
597.5	0.1474800885	0.08907166109	
598.125	0.1476919144	0.1266237493	
598.75	0.1810468127	0.1013558954	
599.375	0.2286757957	-0.0236265963	
600.0	0.181042708	-0.147700236	
600.625	0.1449150973	-0.1837927596	
601.25	0.06821668147	-0.1939435651	
601.875	-0.07154369835	-0.1516633857	
602.5	-0.1381153427	-0.02800775902	
603.125	-0.11822304	0.04662456177	
603.75	-0.1107561545	0.06924300637	
604.375	-0.1065663738	0.07104286918	
605.0	-0.07851728582	0.08093899705	
605.625	-0.07537729109	0.0665187204	
606.25	-0.1185830619	0.05885133343	
606.875	-0.1857265569	0.08370904652	
607.5	-0.1783162715	0.1875942127	
608.125	-0.04060224712	0.2557829819	
608.75	0.1753878133	0.1910090575	
609.375	0.2529185872	-0.01671256808	
610.0	0.1812147047	-0.1203554208	
610.625	0.09723672844	-0.1595294318	
611.25	0.01790862761	-0.1686206226	
611.875	-0.08863733508	-0.1360121299	
612.5	-0.1670388416	-0.07389953438	
613.125	-0.2015689323	0.02640795163	
613.75	-0.1044433876	0.1497915588	
614.375	0.04484340768	0.1170783717	
615.0	0.03855794947	0.04679269315	
615.625	-0.006664145236	0.0923991041	
616.25	-0.0439228005	0.1526392988	
616.875	-0.08774265887	0.1968830517	
617.5	-0.07763943881	0.2281113992	
618.125	-0.02981517469	0.2254992299	
618.75	0.01964385103	0.2046834906	
619.375	0.08919039176	0.1765443131	
620.0	0.1958808409	0.06395083313	
620.625	0.1313170502	-0.1554478	
621.25	-0.07955510137	-0.2029130755	
621.875	-0.2119204251	-0.1022249641	
622.5	-0.2304771548	0.0513271135	
623.125	-0.05383582547	0.1932540042	
623.75	0.1344285193	0.05530816325	
624.375	0.04684926605	-0.05284980262	
625.0	0.04448465879	-0.02593951141	
625.625	0.05835391184	-0.09054340508	
626.25	-0.04285271839	-0.1473710332	
626.875	-0.1433946047	-0.09678158524	
627.5	-0.1541921064	-0.05046162672	
628.125	-0.1165650381	-0.0747437403	
628.75	-0.07226946929	-0.1312020914	
629.375	-0.08807429617	-0.168052577	
630.0	-0.1928650849	-0.1196271378	
630.625	-0.2413155167	0.05250052644	
631.25	-0.1668165967	0.1977551698	
631.875	-0.04414642393	0.2594346295	
632.5	0.1377964709	0.2185159085	
633.125	0.2179375687	0.07573595213	
633.75	0.1859596875	-0.05628297211	
634.375	0.07890734726	-0.1397803285	
635.0	-0.000826985445	-0.1599961311	
635.625	-0.1448509745	-0.1089667101	
636.25	-0.1735624695	0.06081423948	
636.875	-0.08070892514	0.1297808579	
637.5	-0.04411112786	0.09286650233	
638.125	-0.07575853526	0.08889454978	
638.75	-0.08814659135	0.1702760746	
639.375	-0.01940929776	0.2633128376	
640.0	0.1294157782	0.2698547242	
640.625	0.2415011524	0.1738291443	
641.25	0.2917831234	0.02222273807	
641.875	0.2004212316	-0.1764731271	
642.5	0.01451916115	-0.2275122444	
643.125	-0.1172062772	-0.1414829784	
643.75	-0.1341219638	-0.08849278376	
644.375	-0.1869006715	-0.01885345025	
645.0	-0.1704117298	0.1518466847	
645.625	0.04452875	0.2336377255	
646.25	0.1700233608	0.09084791234	
646.875	0.1037352793	-0.01053768564	
647.5	0.05812086702	0.04252868591	
648.125	0.1643687281	0.06717672895	
648.75	0.2798131406	-0.05341590755	
649.375	0.2529252831	-0.2381682401	
650.0	0.1915938697	-0.3090651724	
650.625	0.177425863	-0.2922111677	
651.25	0.2202992712	-0.2329805103	
651.875	0.2783069838	-0.1549083597	
652.5	0.3024438989	-0.07702841539	
653.125	0.2964585129	-0.09182152882	
653.75	0.2328856559	-0.2152400774	
654.375	-0.01551930773	-0.3270427697	
655.0	-0.2838597764	-0.1413077444	
655.625	-0.2130321719	0.169029959	
656.25	0.01334965961	0.1894518586	
656.875	0.04721171856	0.07805413091	
657.5	0.02484303557	0.1139283166	
658.125	0.1335881388	0.1868225486	
658.75	0.3031332904	0.1144998024	
659.375	0.356334783	-0.1171099039	
660.0	0.2623970767	-0.2930116543	
660.625	0.1715510241	-0.3363047161	
661.25	0.1906834702	-0.3003625907	
661.875	0.2459305332	-0.2507452073	
662.5	0.2922824494	-0.190564372	
663.125	0.2942735793	-0.1802598795	
663.75	0.2021561421	-0.2816811611	
664.375	-0.004382625139	-0.352876458	
665.0	-0.2586034523	-0.2531419459	
665.625	-0.3457342069	0.05490532488	
666.25	-0.1412277076	0.2759302488	
666.875	0.09871443613	0.2349181801	
667.5	0.1862901696	0.1212608682	
668.125	0.2339257665	0.008675522402	
668.75	0.2166872608	-0.1292639707	
669.375	0.1223904663	-0.2245434789	
670.0	0.02535628006	-0.2320621893	
670.625	0.01970705151	-0.1994057381	
671.25	0.0747365215	-0.1806423552	
671.875	0.1541480158	-0.1681833625	
672.5	0.2243890741	-0.1403007283	
673.125	0.2338002781	-0.1612823874	
673.75	0.1909831336	-0.212292309	
674.375	0.084270897	-0.268384647	
675.0	-0.06383206624	-0.2631389453	
675.625	-0.1822668973	-0.1627186273	
676.25	-0.1914537858	-0.05003399559	
676.875	-0.1559178802	-0.0126778652	
677.5	-0.1659330823	0.004771392159	
678.125	-0.1701376338	0.1227793822	
678.75	-0.003235452543	0.2435612154	
679.375	0.2103865027	0.1120056087	
680.0	0.1686553994	-0.07627585711	
680.625	0.07951361636	-0.07393891785	
681.25	0.09669590677	-0.003449374503	
681.875	0.1557126787	0.06664199172	
682.5	0.211494118	0.1131050005	
683.125	0.2531978681	0.1054799305	
683.75	0.2709269914	0.09913433294	
684.375	0.2887613281	0.07280813727	
685.0	0.2964614075	0.07436002578	
685.625	0.3039823518	0.03913591796	
686.25	0.3198666291	-0.000795289098	
686.875	0.3434751065	-0.1083577481	
687.5	0.3165088358	-0.2588888334	
688.125	0.05344610789	-0.4578153399	
688.75	-0.3903671855	-0.2761316416	
689.375	-0.3549052378	0.2677862499	
690.0	0.04459276885	0.3832954974	
690.625	0.2100425782	0.2914998952	
691.25	0.2993716152	0.3160140045	
691.875	0.4468230103	0.3635931411	
692.5	0.6105865522	0.2711090563	
693.125	0.6948560234	0.03708244505	
693.75	0.6388481052	-0.2010495444	
694.375	0.492137413	-0.3692519103	
695.0	0.5028829084	-0.2593637483	
695.625	0.5443275041	-0.04300222883	
696.25	0.5073001097	0.2304071389	
696.875	0.3774578345	0.4622356111	
697.5	0.3462917497	0.533083275	
698.125	0.557414391	0.3434019535	
698.75	0.5467887321	-0.3433481745	
699.375	-0.3184988228	-0.489993991	
700.0	-0.3677180115	0.3013290921	
700.625	0.09960823791	0.3355247106	
701.25	0.221586777	0.2185916428	
701.875	0.2613143021	0.2689891502	
702.5	0.3511606692	0.2758815946	
703.125	0.430582762	0.1523228368	
703.75	0.4120027833	-0.08108863775	
704.375	0.2970338366	-0.1876674365	
705.0	0.2529978802	-0.1309931791	
705.625	0.2703000146	0.0118077902	
706.25	0.2501941802	0.1974683999	
706.875	0.2141983584	0.3222962872	
707.5	0.2363147681	0.3879037417	
708.125	0.4342897909	0.2141230506	
708.75	0.3701232021	-0.2921725954	
709.375	-0.207858607	-0.3474758088	
710.0	-0.2371612983	0.169944344	
710.625	0.03353312063	0.165610761	
711.25	0.07165322865	0.1339705393	
711.875	0.1948320424	0.1505234926	
712.5	0.3211394986	0.01751417145	
713.125	0.291239621	-0.1485476757	
713.75	0.1636770775	-0.2442748783	
714.375	0.03170263936	-0.2459603123	
715.0	-0.01634911071	-0.2122976949	
715.625	0.02616548034	-0.2230450608	
716.25	0.1680643565	-0.239706892	
716.875	0.3578863963	-0.1714862561	
717.5	0.5409651085	0.004201119685	
718.125	0.6885492933	0.1224575279	
718.75	0.809651915	-0.005521435651	
719.375	0.859808746	-0.3121570584	
720.0	0.6749052134	-0.7376226203	
720.625	0.395927237	-0.93298055	
721.25	0.1616015737	-1.023443611	
721.875	-0.08984855377	-1.060483666	
722.5	-0.5196725177	-0.8775977605	
723.125	-0.784535899	-0.2663779127	
723.75	-0.4920892225	0.3857050641	
724.375	-0.02224182333	0.4796807611	
725.0	0.1490751966	0.3977311627	
725.625	0.1575706664	0.4905618826	
726.25	0.01723864563	0.7054729578	
726.875	-0.1565195377	0.9640052036	
727.5	-0.2761092052	1.390359188	
728.125	-0.2074684904	2.016887996	
728.75	-0.5242019912	2.800261771	
729.375	-1.366009715	3.530579186	
730.0	-0.8460892223	3.632575945	
730.625	-0.3897982242	4.398780817	
731.25	-2.017601111	3.430587587	
731.875	-2.914411168	2.052656538	
732.5	-3.476623149	0.3948462501	
733.125	-2.565950586	-0.01391743345	
733.75	-1.096303859	1.154555938	
734.375	0.7268649379	0.6309611527	
735.0	0.1124388486	-0.611372869	
735.625	-0.4860839081	0.02714461938	
736.25	-0.1341147195	0.5120988507	
736.875	0.3421655484	0.6028376492	
737.5	0.9970767307	0.3323457912	
738.125	1.483332415	-0.2454145857	
738.75	1.792631274	-0.926120441	
739.375	2.27485894	-1.337192832	
740.0	2.8680353	-0.9010941366	
740.625	2.944783263	0.3928657732	
741.25	0.1917524626	1.891182828	
741.875	-2.334817053	0.3163955778	
742.5	-1.051325371	-2.10324435	
743.125	0.688079827	-1.954461015	
743.75	0.2017389652	-1.049045489	
744.375	-0.4590803546	-0.2171291957	
745.0	-0.005976036394	0.1284563193	
745.625	0.05451490121	-0.0003973902692	
746.25	0.003383635363	-0.1377607162	
746.875	-0.2163838873	-0.0382582292	
747.5	-0.1591382592	0.3317515489	
748.125	0.04891907325	0.4900793126	
748.75	0.2029899581	0.5150021226	
749.375	0.06314586941	0.5263812907	
750.0	-0.4447762222	0.2700037157	
