!Created with skrf (http://scikit-rf.org).
# GHz S RI R (50+0j) 
!freq	ReS11	ImS11	
500.0	-2.184116144	-2.651721726	
500.625	0.6362230201	-1.553589413	
501.25	-1.830997177	-3.373593674	
501.875	-2.148339626	-1.026983054	
502.5	-0.2163288457	-0.06166820816	
503.125	-0.2881445319	-0.08652197111	
503.75	0.3295487949	0.1973009282	
504.375	0.0634788705	0.107230581	
505.0	-0.02563020322	-0.2020896194	
505.625	0.2012092014	0.0215998755	
506.25	-0.6625437459	-0.304600237	
506.875	0.6381431521	-0.2703582239	
507.5	-0.08691205379	-1.970240896	
508.125	-1.238341786	-2.213916453	
508.75	1.097092	-0.7936207415	
509.375	0.41043192	-5.54300721	
510.0	-1.085135927	0.2340472847	
510.625	-0.076472715	-0.6743095265	
511.25	-0.4996383693	0.264001014	
511.875	-0.2951748662	-0.2958730662	
512.5	-0.03826874009	0.2016330848	
513.125	-0.09508253125	-0.359593249	
513.75	-0.1204881245	0.03764692465	
514.375	-0.2273721454	-0.4154602562	
515.0	-0.6408032431	1.004667962	
515.625	0.8135593216	-3.377857037	
516.25	-2.703518104	0.08206075958	
516.875	0.8482317431	-1.205180818	
517.5	-0.7521411834	-1.016880592	
518.125	0.2703400108	0.09628356308	
518.75	-0.5791340896	-0.7685798385	
519.375	-0.02532697676	0.147720882	
520.0	0.2341946292	0.2932400204	
520.625	0.5754561611	-0.3151415446	
521.25	-0.1992914746	-0.3507487696	
521.875	-0.3250281731	-0.2755388714	
522.5	-0.06457004799	0.2158919841	
523.125	-0.3259967528	-0.01948922682	
523.75	-0.09044994419	0.1204885705	
524.375	-0.5910041764	-0.0315040996	
525.0	0.3115289032	0.2978235894	
525.625	-0.1188136962	0.1138434971	
526.25	0.2006709651	-0.08845176791	
526.875	-0.3431438053	0.2035293901	
527.5	0.2182089934	0.5186688295	
528.125	-0.1772121971	0.4815592293	
528.75	0.1888546605	1.012925223	
529.375	0.0575116267	-0.08610365403	
530.0	0.4901442469	0.60299269	
530.625	-0.007524906056	0.5003642879	
531.25	1.741554807	0.3347954427	
531.875	-0.0473961729	-0.4222378104	
532.5	0.1159337413	-0.5706520738	
533.125	-0.210747895	0.2170237106	
533.75	0.408402524	-0.9946860669	
534.375	-0.5114082167	-0.2286128353	
535.0	-0.5230953828	-0.5771164749	
535.625	-0.346386956	0.6814491281	
536.25	-0.01504100425	0.09583655206	
536.875	0.2805902507	0.1365855316	
537.5	0.1261866007	-0.2139568986	
538.125	0.2461783767	0.05792644316	
538.75	0.3376805984	-0.5183501912	
539.375	-0.1127174228	-0.2087343324	
540.0	-0.3502220642	-0.5362716545	
540.625	-0.4763491279	0.1653368446	
541.25	-0.0773355467	-0.04498587856	
541.875	-0.1276998384	-0.1050013969	
542.5	-0.2330854723	-0.06980480906	
543.125	-0.01184289926	-0.05016640687	
543.75	-0.4028557456	-0.1049785623	
544.375	0.1354625642	0.1265684329	
545.0	-0.1769816353	0.2192996232	
545.625	0.2740845553	-0.03804356266	
546.25	0.02154083502	0.2963594539	
546.875	0.4432787201	-0.3023154748	
547.5	0.0235143525	-0.06233757736	
548.125	0.06748510132	-0.4893019768	
548.75	-0.4816304823	-0.2535753413	
549.375	-0.1299767865	-0.01447073357	
550.0	-0.2878027039	-0.1015934741	
550.625	-0.01368264958	0.1189628923	
551.25	-0.2779613436	-0.02704631476	
551.875	-0.07019816704	0.2882811709	
552.5	-0.1269969178	0.07595152653	
553.125	-0.03139479212	0.211989461	
553.75	0.1172805322	0.07691748579	
554.375	0.2125585337	0.01650939747	
555.0	0.2388108983	-0.1872500763	
555.625	0.1708111472	-0.2546700344	
556.25	0.1513828894	-0.3264527272	
556.875	-0.1027661119	-0.3801067739	
557.5	-0.2389594157	-0.2205799401	
558.125	-0.2568181325	-0.08479535805	
558.75	-0.2712275723	-0.008973325171	
559.375	-0.2387190113	0.08974498226	
560.0	-0.2024236198	0.1308787081	
560.625	-0.1529967303	0.2917080402	
561.25	0.105476172	0.2124546209	
561.875	-0.02531071922	0.1135307465	
562.5	0.1406009291	0.0870176395	
563.125	0.05628981691	0.222610944	
563.75	0.4286472826	-0.08083973244	
564.375	0.1072736186	-0.1810916377	
565.0	0.3250512272	-0.3027023074	
565.625	-0.2107146074	-0.4127257112	
566.25	-0.2134784778	-0.1113787686	
566.875	-0.2511306031	-0.2899106347	
567.5	-0.509699171	-0.2225622525	
568.125	-0.1585728563	-0.200615679	
568.75	-0.6565125247	-0.3450854639	
569.375	-0.390647133	0.413976745	
570.0	-0.3558254162	0.2287231853	
570.625	-0.2016449691	0.7098589691	
571.25	0.2129699715	0.001033990595	
571.875	-0.02001738991	0.4797962592	
572.5	0.3422105429	-0.371040015	
573.125	0.1177966917	0.06332997671	
573.75	0.3552383917	-0.4588121253	
574.375	-0.2639896973	-0.1088340313	
575.0	0.3699196125	-0.04324528611	
575.625	-0.2095518707	-0.2622362237	
576.25	0.2785682275	0.04531267605	
576.875	0.00133369777	-0.6086078995	
577.5	-0.2740194973	-0.2901161964	
578.125	0.08791197052	-0.2027644041	
578.75	-0.1685062164	-0.4954830948	
579.375	-0.3966446882	0.009916295404	
580.0	0.1189986949	-0.1003824567	
580.625	-0.4094162377	0.001870348073	
581.25	0.01839606245	0.03111555961	
581.875	-0.2768247238	0.4603549631	
582.5	0.4397237252	0.4543031793	
583.125	0.04804313093	-0.2056522527	
583.75	0.04286331952	0.500491812	
584.375	0.09673071617	-0.3656997266	
585.0	0.1410085368	0.5232594168	
585.625	0.5176633477	-0.3058455674	
586.25	0.02686710158	0.02483214375	
586.875	0.4523536341	-0.4962428235	
587.5	-0.3303206268	-0.1659794731	
588.125	0.2182986695	-0.2131699648	
588.75	0.1345329655	-0.5970217834	
589.375	-0.145733815	-0.2805408782	
590.0	0.1184104191	-0.3705647098	
590.625	-0.5812039486	-0.1722795124	
591.25	-0.1464699658	0.3377608573	
591.875	-0.1472487066	0.1158796374	
592.5	0.06361254134	0.2805344911	
593.125	-0.2275599901	-0.013758105	
593.75	0.2885924563	0.3143963911	
594.375	0.2631281592	0.04556826413	
595.0	0.1296650447	0.4331678809	
595.625	0.8351651743	0.2973424764	
596.25	0.006646691177	-0.2140082342	
596.875	0.4569325449	0.4749799307	
597.5	0.5472076412	-0.04666727632	
598.125	0.01027492499	0.3334139659	
598.75	0.7480349529	0.1627352596	
599.375	0.1735946563	-0.0800171339	
600.0	0.6082177475	-0.1940641109	
600.625	0.2553198129	-0.6424178537	
601.25	-0.009144290772	-0.2756615431	
601.875	-0.03127185959	-0.4244896022	
602.5	-0.3486067333	-0.001028014627	
603.125	-0.2507415044	0.1790688922	
603.75	-0.1372676471	0.06707235593	
604.375	-0.3860683757	0.1599927185	
605.0	0.03605130997	0.2314372405	
605.625	-0.3434460422	-0.003454365287	
606.25	-0.1446464288	0.3481667799	
606.875	-0.3177727048	-0.07804365047	
607.5	-0.6440803927	0.7617736517	
608.125	0.2191987176	0.2063813402	
608.75	0.1497440433	0.6805910648	
609.375	0.7288350543	-0.4353564776	
610.0	0.1641503113	0.003551475432	
610.625	0.3785458431	-0.576341123	
611.25	-0.1976366472	-0.1693573142	
611.875	0.003609875244	-0.4940286064	
612.5	-0.4274441494	0.2205766469	
613.125	-0.3473383505	-0.1578909255	
613.75	-0.2657535857	0.5036277686	
614.375	0.07528903659	-0.07502097689	
615.0	0.283233287	0.4005626361	
615.625	-0.08106414114	-0.09406794895	
616.25	-0.2779374536	0.551618131	
616.875	0.2237559331	0.3719820249	
617.5	-0.4844225983	0.350920898	
618.125	0.138960789	0.7218015107	
618.75	0.08867023318	0.1723481515	
619.375	0.1780603022	0.5900846861	
620.0	0.3745584424	-0.07158203916	
620.625	0.353083769	-0.2801642081	
621.25	-0.3298327784	-0.3631133205	
621.875	-0.3163006411	-0.2651469	
622.5	-0.6160429826	0.3192516961	
623.125	-0.01701576372	0.2562524669	
623.75	0.33005434	0.2602219565	
624.375	-0.1191341839	-0.264099147	
625.0	0.3927577176	0.03462156731	
625.625	-0.2824368615	-0.2215250519	
626.25	0.2524710743	-0.3154241291	
626.875	-0.6533644744	-0.2452710497	
627.5	-0.1060869145	0.1501926955	
628.125	-0.2038160977	-0.4623960915	
628.75	-0.3793146065	-0.1483392362	
629.375	-0.0411278054	-0.2626293567	
630.0	-0.4957942592	-0.3673222352	
630.625	-0.4351393305	0.3858704824	
631.25	-0.2911620262	0.2140190717	
631.875	-0.08284346018	0.724051644	
632.5	0.4056910955	0.2978232927	
633.125	0.3828475268	0.1330567376	
633.75	0.4772582001	-0.1792990384	
634.375	0.01353356011	-0.2647117695	
635.0	0.06589963302	-0.3210552923	
635.625	-0.4683990866	-0.2508537877	
636.25	-0.1022707456	0.3229497986	
636.875	-0.4479397636	-0.0471450524	
637.5	0.0698398273	0.6484151299	
638.125	0.0251869772	-0.2118751001	
638.75	-0.452433755	0.6028114689	
639.375	0.354694588	0.578252185	
640.0	-0.04606427803	0.356275563	
640.625	0.8950627518	0.4660290287	
641.25	0.1878111044	-0.2542282867	
641.875	0.8805081739	-0.2254095414	
642.5	-0.5503511111	-0.6482274741	
643.125	-0.08704814706	0.07013428931	
643.75	-0.1471992099	-0.49996434	
644.375	-0.6218064311	-0.00601544772	
645.0	-0.1422548916	0.7092012645	
645.625	-0.05551659183	-0.03839479127	
646.25	0.7440992244	0.5926871795	
646.875	-0.07784915272	-0.315972566	
647.5	0.4677041394	0.1847796931	
648.125	0.1198731395	0.4350028912	
648.75	0.7291146941	-0.4979615476	
649.375	0.2159015944	-0.4432356099	
650.0	0.3174136276	-0.2199075528	
650.625	1.070752082	-0.6291746809	
651.25	0.5455002117	-1.281428667	
651.875	0.1554569993	-0.8616770143	
652.5	0.2212360915	0.1286397508	
653.125	1.057076898	-0.3018276228	
653.75	-0.1202924676	-0.3387923229	
654.375	-0.416185085	-1.107501947	
655.0	-0.07900631486	0.03165002595	
655.625	-1.035166569	0.4837249712	
656.25	0.7528904796	0.1941744903	
656.875	-0.3388036707	0.03519990614	
657.5	0.2293622132	0.5953942256	
658.125	0.5759691742	0.1406384367	
658.75	0.6193138338	-0.2073615205	
659.375	0.2440784175	-0.03704128045	
660.0	1.169625497	-0.6728899682	
660.625	-0.4313127075	-0.9528216136	
661.25	0.7161529672	-0.2896162314	
661.875	0.4553971183	-1.140793362	
662.5	0.5074266042	0.07343375978	
663.125	0.7012836353	-0.8516971328	
663.75	-0.05931013191	-0.4840685544	
664.375	0.3845473394	-0.6170723244	
665.0	-1.029146557	-0.6808823455	
665.625	-0.6263028188	0.6048594461	
666.25	-0.1051058506	0.2619668027	
666.875	0.1405753145	0.7283045909	
667.5	0.5875773168	-0.09213278267	
668.125	0.3340968112	0.3045541408	
668.75	0.3833576045	-0.6684706948	
669.375	0.08963069537	-0.2435777898	
670.0	0.2404778055	-0.7547820703	
670.625	-0.4143887194	-0.243704573	
671.25	0.4359173994	-0.264714558	
671.875	0.327155644	-0.5844554906	
672.5	0.3105186894	-0.5546427453	
673.125	0.06502917327	-0.2222012526	
673.75	0.7562588555	-0.2228812708	
674.375	-0.258241106	-1.103959514	
675.0	0.08220906416	0.01295024271	
675.625	-0.6663498899	-0.6985216686	
676.25	-0.2539326815	0.5725840033	
676.875	-0.5540523923	-0.5959708156	
677.5	-0.1710414023	0.6578595725	
678.125	-0.2722136779	-0.2536228248	
678.75	0.007568875163	1.140298866	
679.375	0.7093820117	-0.3774762067	
680.0	-0.1184684159	-0.1512409133	
680.625	0.4019644129	0.0235312662	
681.25	0.3464095547	-0.166867588	
681.875	0.1664123589	-0.167497416	
682.5	0.4078308925	0.5714189143	
683.125	0.6280694228	-0.1120666463	
683.75	0.5073390319	0.2041207008	
684.375	0.8495444043	-0.1587035706	
685.0	0.413997596	0.3233126545	
685.625	0.8193549802	-0.05217174698	
686.25	0.8707738039	-0.4050049714	
686.875	-0.108245853	-0.3741462324	
687.5	1.192939032	-0.2255340748	
688.125	-0.5594811505	-1.521286614	
688.75	-0.6785138554	0.1116191312	
689.375	-1.080276241	0.690565384	
690.0	0.723387892	0.5968840955	
690.625	-0.05054499547	1.054802969	
691.25	1.307052662	-0.1191054059	
691.875	0.3316990649	0.9062335594	
692.5	2.051466382	0.6850492783	
693.125	1.210262277	-0.6194522639	
693.75	1.157928508	-0.2963953011	
694.375	0.8864989894	-1.029341941	
695.0	0.9862111699	-0.3030374615	
695.625	1.668409337	-0.8092152607	
696.25	0.4319843823	-0.1313711296	
696.875	1.144387128	1.776519974	
697.5	1.365656953	-0.06590361062	
698.125	1.041288198	0.9887574744	
698.75	0.8978975934	-1.775684807	
699.375	-0.6065483904	-0.1623666361	
700.0	-1.319127204	0.8498633528	
700.625	0.9399018048	0.3594204091	
701.25	-0.0670512196	0.5357621442	
701.875	1.17545601	0.5243902526	
702.5	0.3820341382	0.357138188	
703.125	1.289741545	0.5174270492	
703.75	0.6095847385	-0.6429441735	
704.375	0.8515605908	0.03736818466	
705.0	0.4943875139	-0.8439233338	
705.625	0.195654383	0.2236059589	
706.25	1.397146848	0.5829328556	
706.875	0.2405482446	-0.01214523575	
707.5	0.5338425506	1.234488641	
708.125	1.472610659	-0.3424881095	
708.75	0.3813326649	-0.4461277025	
709.375	-0.7742774125	-0.9248322173	
710.0	-0.1440891927	0.7882182791	
710.625	0.01247987383	0.331735398	
711.25	0.3489143224	0.2141705195	
711.875	0.4002896046	0.2051000636	
712.5	0.7971646031	-0.04582628998	
713.125	0.4902344964	-0.4354538312	
713.75	0.317260672	-0.7423111521	
714.375	-0.1159593169	-0.3363188151	
715.0	0.1720332858	-0.7294667928	
715.625	-0.4631179019	-0.3691455242	
716.25	0.6570371538	-0.02551864414	
716.875	1.42717559	-1.278156756	
717.5	-0.2641691739	-0.5241298806	
718.125	2.479784451	1.239178566	
718.75	2.175280862	-1.828352053	
719.375	0.311146619	-0.1746935517	
720.0	2.8088676	-3.428556694	
720.625	-1.405113033	-1.776615055	
721.25	0.5933284636	-2.511219177	
721.875	-1.1755982	-3.180649469	
722.5	-1.829686761	-0.4525845671	
723.125	-1.842474654	-1.00894249	
723.75	-0.8883638949	1.65125929	
724.375	0.3613436106	0.7286726778	
725.0	0.2095984865	0.7227533756	
725.625	0.3256983805	1.583047215	
726.25	1.094585246	1.171972636	
726.875	-0.9825774348	1.639754985	
727.5	-0.2991540811	5.313553107	
728.125	2.7702518	3.073839928	
728.75	-6.280744415	5.448788746	
729.375	5.268022722	16.88886115	
730.0	2.531039003	1.295386682	
730.625	-7.125720991	13.66279335	
731.25	5.684337504	22.12950505	
731.875	-3.003144953	-0.9388731113	
732.5	-12.36147913	2.614102421	
733.125	-6.377441982	4.054826083	
733.75	-0.3308043006	1.419753062	
734.375	3.757256969	1.455270722	
735.0	-0.5485763157	-0.5635985305	
735.625	-0.975363779	-0.2159908058	
736.25	-0.0452812263	2.343410356	
736.875	1.45521608	-0.07226682686	
737.5	1.129139626	1.148316489	
738.125	5.606875107	-0.1358523633	
738.75	4.894461126	-7.014924904	
739.375	-2.400181662	-1.588891796	
740.0	16.77776561	4.232712468	
740.625	-0.9885449087	-23.74443177	
741.25	-15.18970781	14.33406906	
741.875	1.731826301	13.32951845	
742.5	12.43096448	-6.363313062	
743.125	-0.5060740473	-9.125334901	
743.75	-4.190254857	-0.4479504688	
744.375	-0.01445498003	0.09410079219	
745.0	-0.1629560661	0.5298119507	
745.625	0.04858204174	-0.369164243	
746.25	0.3141187852	-0.3961615114	
746.875	-0.7037814343	0.2088683005	
747.5	-0.0627655005	0.5711197387	
748.125	0.3042016034	1.857933156	
748.75	1.567751416	0.9038462599	
749.375	-0.7214890946	0.6904171879	
750.0	-0.9173006903	0.2051622447	
