!Created with skrf (http://scikit-rf.org).
# GHz S RI R (50+0j) 
!freq	ReS11	ImS11	
500.0	-1.672114601	-1.0599196	
500.625	2.155994438	-1.573119655	
501.25	-1.474962637	-2.360336804	
501.875	-1.800891681	-0.3117051099	
502.5	-0.03511830901	-0.1777391651	
503.125	-0.3916986663	0.03217027971	
503.75	0.2383674804	-0.00766724509	
504.375	0.1384947966	0.07140927507	
505.0	-0.1071221499	-0.09974802502	
505.625	0.2563248897	-0.207276378	
506.25	-0.5881286266	0.133694948	
506.875	0.1481594218	-0.8035215375	
507.5	-1.109403515	-1.970766181	
508.125	-1.268170116	-0.7990408777	
508.75	2.797993096	-1.689185313	
509.375	-1.484787017	-5.079114551	
510.0	-0.6433116511	-0.0826452336	
510.625	-0.8466975135	-0.9944480994	
511.25	-0.2228715442	0.2058026971	
511.875	-0.5987529298	-0.18259112	
512.5	-0.03974206939	0.1542388699	
513.125	-0.08981092129	-0.2821491015	
513.75	-0.02548020871	-0.1212238218	
514.375	-0.487814226	-0.3095809271	
515.0	0.5140545977	1.290689163	
515.625	-1.363711877	-3.127866442	
516.25	-0.7981756458	0.8766304198	
516.875	0.4173742877	-2.479886841	
517.5	-1.095058396	-0.4028134318	
518.125	0.2752320943	-0.2540700892	
518.75	-0.7762859311	-0.3515635035	
519.375	-0.05803269204	-0.0001306772273	
520.0	0.451945332	0.3203178559	
520.625	0.4399464713	-0.3643641069	
521.25	-0.02372256525	-0.381894734	
521.875	-0.6035050257	-0.1918691921	
522.5	0.04300273994	0.09582748838	
523.125	-0.296740007	0.1262981551	
523.75	-0.05515209429	-0.02340520178	
524.375	-0.6958169739	0.2028599847	
525.0	0.1713536699	0.01557890092	
525.625	-0.04762293826	0.2625537205	
526.25	0.04900286629	-0.2441335822	
526.875	-0.1789262808	0.3443130512	
527.5	0.145432494	0.2611729404	
528.125	-0.2374382189	0.815128825	
528.75	0.4677852972	0.8687961266	
529.375	-0.1302626301	0.07133457845	
530.0	0.4713089146	0.2596388274	
530.625	-0.1408502239	0.8719167155	
531.25	1.55514708	-0.31338888	
531.875	0.2560621453	-0.1371303156	
532.5	-0.30086458	-0.7927207169	
533.125	0.2439194572	0.3621655801	
533.75	0.06306703622	-0.8919900476	
534.375	-0.1200938497	-0.2328906392	
535.0	-0.9687052941	-0.6030690332	
535.625	-0.08839323173	0.4801155443	
536.25	-0.09027471878	0.1683642661	
536.875	0.334316245	0.07503221816	
537.5	0.04229121653	-0.1560567674	
538.125	0.4184029301	-0.01357135562	
538.75	0.1697779228	-0.4447918898	
539.375	-0.01970643239	-0.3023409721	
540.0	-0.5469072648	-0.5035619843	
540.625	-0.2617867099	0.1811043829	
541.25	-0.1893567168	-0.1126216494	
541.875	-0.1734799727	-0.03680299923	
542.5	-0.155401481	0.01569335266	
543.125	-0.05225499703	-0.2062035317	
543.75	-0.4096467512	0.08757253796	
544.375	0.07484664711	-0.07036863665	
545.0	-0.04605812873	0.3405181509	
545.625	0.09016753724	-0.09188279596	
546.25	0.286734542	0.3690644173	
546.875	0.1531925517	-0.3527987241	
547.5	0.2550526304	-0.04394612189	
548.125	-0.09066901476	-0.6024295618	
548.75	-0.4050775744	-0.09203158974	
549.375	-0.07903902725	-0.1706342316	
550.0	-0.3359232972	0.02497845671	
550.625	0.02361185187	0.0134453721	
551.25	-0.3213577278	0.08504467693	
551.875	-0.01307600372	0.1689037103	
552.5	-0.2029280125	0.1577199834	
553.125	0.02823747181	0.1860753964	
553.75	0.09038986974	0.09603481206	
554.375	0.2379282756	0.01024111689	
555.0	0.2151966698	-0.191910967	
555.625	0.1772462281	-0.2433802088	
556.25	0.1486578807	-0.3392789698	
556.875	-0.1084711965	-0.3830760309	
557.5	-0.2273709473	-0.2201940519	
558.125	-0.2653830209	-0.09854391872	
558.75	-0.2690311523	0.009224051949	
559.375	-0.2128819811	0.06543835874	
560.0	-0.2494042896	0.1426023535	
560.625	-0.10102596	0.3130529218	
561.25	0.06301512375	0.15393127	
561.875	0.02755070012	0.1872942414	
562.5	0.07454019074	0.01234642352	
563.125	0.1359918641	0.2771307902	
563.75	0.3374109256	-0.1486110891	
564.375	0.2131314512	-0.05985664134	
565.0	0.2629568238	-0.466954439	
565.625	-0.2155898505	-0.2809018596	
566.25	-0.1319258857	-0.2109600499	
566.875	-0.3863640864	-0.2904186304	
567.5	-0.4092483529	-0.06432572719	
568.125	-0.1197775883	-0.4241598705	
568.75	-0.7424702438	-0.1747472016	
569.375	-0.2987387824	0.2527545018	
570.0	-0.5279136932	0.4007379472	
570.625	0.08315383486	0.6189911165	
571.25	-0.06891592152	-0.04347323879	
571.875	0.2882874166	0.503820049	
572.5	0.01392362295	-0.2557444525	
573.125	0.4250449085	-0.003943529706	
573.75	0.06709844936	-0.5659664008	
574.375	-0.1237914192	0.110680998	
575.0	0.2921220835	-0.3174207355	
575.625	-0.1709640616	0.03874841007	
576.25	0.4088235504	-0.2482389282	
576.875	-0.221060324	-0.5079928222	
577.5	-0.1084799044	-0.08126680946	
578.125	0.1334912104	-0.4186059756	
578.75	-0.3780188764	-0.426083383	
579.375	-0.1900049844	0.0853766709	
580.0	0.02552124423	-0.2754187216	
580.625	-0.2550802858	0.1872970876	
581.25	-0.193524937	-0.1228380971	
581.875	-0.02677448102	0.6450503667	
582.5	0.4088018155	0.1473701361	
583.125	-0.212381607	0.05341116961	
583.75	0.479660959	0.340046388	
584.375	-0.2989061103	-0.1594631655	
585.0	0.5196909631	0.4117494733	
585.625	0.2446075711	-0.3419498734	
586.25	0.2973929989	0.2080131271	
586.875	0.1865730005	-0.6384021396	
587.5	-0.07229529428	-0.01346699216	
588.125	0.1839338035	-0.4635795136	
588.75	-0.1351802433	-0.5202846411	
589.375	0.03436165534	-0.0407670465	
590.0	0.02883564267	-0.6259217698	
590.625	-0.5162383227	0.03098643016	
591.25	-0.1340167033	0.2100412924	
591.875	-0.2495138659	0.2066198816	
592.5	0.2027379421	0.199665922	
593.125	-0.2545873522	0.1588777259	
593.75	0.2537351135	0.1865506136	
594.375	0.1227966947	0.1777650481	
595.0	0.4427085483	0.5738947851	
595.625	0.6907544234	-0.1830619574	
596.25	-0.06731423832	0.2549312472	
596.875	0.7276681376	0.2186093344	
597.5	0.2293539614	-0.1529532605	
598.125	0.2415230283	0.5675339699	
598.75	0.5675480969	-0.07323439767	
599.375	0.2682988669	0.1075445952	
600.0	0.6143804514	-0.4570868746	
600.625	0.05320034139	-0.4656295155	
601.25	0.2168071773	-0.2150544286	
601.875	-0.1339520039	-0.4825568441	
602.5	-0.2598645079	0.05525301284	
603.125	-0.2134979929	0.140250486	
603.75	-0.2486545782	0.04406129023	
604.375	-0.3306469965	0.3257728045	
605.0	0.01976051452	0.02243372283	
605.625	-0.3735251046	0.2348999347	
606.25	-0.01035032494	0.1796383178	
606.875	-0.5868533413	-0.04274946769	
607.5	-0.1883293554	0.7715071403	
608.125	-0.1563320342	0.1743418782	
608.75	0.5021493139	0.7975641255	
609.375	0.2746940391	-0.4419721829	
610.0	0.5161384568	0.03792870555	
610.625	0.1496907056	-0.6078070676	
611.25	0.06750663024	-0.01282694573	
611.875	-0.3516856638	-0.5611753889	
612.5	-0.1941181175	0.05150345194	
613.125	-0.5759684629	-0.1120338799	
613.75	-0.002435591537	0.546957262	
614.375	-0.1753814298	0.1432814689	
615.0	0.383405574	0.0966624247	
615.625	-0.3178418629	0.07028048488	
616.25	0.0262819047	0.622019532	
616.875	-0.05383368812	0.05914933337	
617.5	-0.3939554981	0.6729978924	
618.125	0.2680935123	0.4903612343	
618.75	-0.1543434191	0.2562365606	
619.375	0.3966957105	0.5102389356	
620.0	0.2716477889	-0.006865147199	
620.625	0.3664927134	-0.3784817033	
621.25	-0.2442999079	-0.2606293667	
621.875	-0.4375083506	-0.3088914349	
622.5	-0.4177397944	0.2808581802	
623.125	-0.1914539052	0.2861568669	
623.75	0.4909081714	0.1315380176	
624.375	-0.1642122347	0.0005964623383	
625.0	0.3468346616	-0.3733976153	
625.625	-0.07727633227	0.1496375999	
626.25	0.1078254367	-0.5544798296	
626.875	-0.5720058378	0.004235114979	
627.5	-0.003409485161	-0.07907924006	
628.125	-0.4345367426	-0.3682213982	
628.75	-0.1733672465	-0.03951347266	
629.375	-0.07883553302	-0.5117301509	
630.0	-0.6234004404	-0.1019679503	
630.625	-0.2539140851	0.02531802045	
631.25	-0.5027603712	0.4500807196	
631.875	0.106855254	0.6504516981	
632.5	0.3407960871	0.3448010578	
633.125	0.3545123105	0.09537412403	
633.75	0.5937295439	-0.08579140222	
634.375	-0.1343750355	-0.295348494	
635.0	0.1756753858	-0.3191826703	
635.625	-0.580567353	-0.1403541816	
636.25	-0.07081489581	-0.02899672412	
636.875	-0.3677504171	0.4792211684	
637.5	0.2507311069	0.140162457	
638.125	-0.4557109132	-0.005878035468	
638.75	0.04555262769	0.8294323269	
639.375	0.1044056918	0.04163289731	
640.0	0.04409751478	0.7581064418	
640.625	0.8644475085	0.3360864472	
641.25	0.3470511757	-0.2377680975	
641.875	0.7340040299	-0.1841549578	
642.5	-0.4481400114	-0.4305586473	
643.125	0.0969689945	-0.2461503421	
643.75	-0.6646166428	-0.3115651293	
644.375	-0.04397420058	0.3475591629	
645.0	-0.5690549133	-0.02196038245	
645.625	0.2101870933	0.7578882368	
646.25	0.5430778707	-0.07013798308	
646.875	-0.1799626171	0.05117375942	
647.5	0.6813983494	0.06174332041	
648.125	-0.2456134726	0.1862597102	
648.75	1.10309825	-0.1154130383	
649.375	0.004395119582	-0.8333483717	
650.0	0.4794989939	-0.01613337787	
650.625	0.7471649825	-1.368976342	
651.25	-0.3976937087	-0.5375476582	
651.875	0.7552586411	0.2826687514	
652.5	1.053459921	-0.7000830433	
653.125	0.06700844942	-0.4423884027	
653.75	0.8255544907	-0.2178874723	
654.375	-0.5610599482	-0.905083854	
655.0	-0.2607531751	0.1201121251	
655.625	-0.7834155405	0.1191787731	
656.25	0.561671261	0.7029783335	
656.875	-0.2399554383	-0.1429375708	
657.5	0.2624258762	0.5215156234	
658.125	0.4201048055	0.05762518868	
658.75	0.3051469617	0.2855233603	
659.375	1.153651421	-0.4253626184	
660.0	0.04977486727	-0.7692985181	
660.625	0.4176907443	-0.4100758601	
661.25	0.6549787716	-1.015562251	
661.875	-0.2166351927	-0.6688354759	
662.5	0.8118644873	0.08818969633	
663.125	0.7858734538	-0.9940408562	
663.75	-0.1401043681	-0.4287213367	
664.375	0.3446962643	-0.8101973004	
665.0	-1.084668531	-0.2441328346	
665.625	-0.316310377	-0.01428824146	
666.25	-0.4800678423	0.8387624731	
666.875	0.5911066579	0.2722885301	
667.5	0.02983555889	0.2536728001	
668.125	0.8363713813	-0.01368175454	
668.75	0.2067814356	-0.5310996895	
669.375	0.1644795284	-0.2648033331	
670.0	0.1936288845	-0.6179945066	
670.625	-0.3120481323	-0.4446944772	
671.25	0.3005510399	-0.2501549034	
671.875	0.2845421124	-0.5744177556	
672.5	0.168089391	-0.3285098575	
673.125	0.7196061549	-0.2568475949	
673.75	0.2060079138	-0.9186201206	
674.375	-0.203358726	-0.1939960292	
675.0	0.2375504598	-0.6948250751	
675.625	-0.9385248417	-0.3955149559	
676.25	0.05860510036	0.3041458938	
676.875	-0.7456011006	-0.3664204246	
677.5	0.01308587767	0.4497358629	
678.125	-0.6056367742	-0.07748229421	
678.75	0.5694970154	0.9258384359	
679.375	-0.01933258807	-0.110301962	
680.0	0.5437726777	0.03417646681	
680.625	0.295647603	-0.5245462899	
681.25	-0.2733290896	-0.07412987632	
681.875	0.4758712679	0.4852508434	
682.5	0.6856275033	0.02810387906	
683.125	0.4557215488	-0.05867858841	
683.75	0.2822370193	0.364234697	
684.375	1.134288859	-0.06075078311	
685.0	0.05824324088	-0.04665075955	
685.625	1.007785784	0.1742036312	
686.25	0.613894765	-0.7389386164	
686.875	0.4140529939	0.4295910534	
687.5	1.073115498	-1.578039717	
688.125	-0.8363463525	-0.1476203141	
688.75	-0.6120634232	-1.12400044	
689.375	-0.6961230593	1.400098512	
690.0	0.3476516344	0.2007360426	
690.625	0.6776652489	1.165946737	
691.25	0.71145798	0.06221636006	
691.875	0.7532545582	0.9059640021	
692.5	1.731076468	0.3913525753	
693.125	1.101662202	-0.2752114211	
693.75	1.36968139	-0.432105933	
694.375	0.7966186813	-0.9916666856	
695.0	1.120213551	-0.6361190463	
695.625	0.948948444	-0.5817165646	
696.25	0.7277418901	0.6893300569	
696.875	1.779495795	0.8183039899	
697.5	0.4359041235	0.335979994	
698.125	1.851241985	0.9554992813	
698.75	0.1113457449	-1.670477173	
699.375	-0.1056712608	-1.003844621	
700.0	-0.8593035707	1.497651473	
700.625	0.5202357736	0.07281789575	
701.25	0.5521658619	1.112847167	
701.875	0.7166950179	-0.09416601391	
702.5	0.4633636778	0.7471925855	
703.125	1.378326004	0.08438864431	
703.75	0.3265903114	-0.07770942133	
704.375	1.057678455	-0.4881996369	
705.0	0.06925621334	-0.5725565485	
705.625	0.647563021	0.5788101491	
706.25	1.085328053	-0.09372626584	
706.875	0.05776686451	0.5759197602	
707.5	1.082019938	1.193496197	
708.125	0.8491187349	-0.4111947857	
708.75	0.9322647219	-0.5991123612	
709.375	-1.206850497	-0.5866543072	
710.0	-0.08185562999	0.3145449231	
710.625	0.1315290807	0.5941216937	
711.25	0.3329840199	0.001508640843	
711.875	0.4223040029	0.369843911	
712.5	0.7099968963	-0.1900402308	
713.125	0.7412020752	-0.3103730054	
713.75	0.04831039137	-0.8101921475	
714.375	0.2703406631	-0.1220863555	
715.0	-0.2613661508	-0.897915644	
715.625	-0.1408391594	0.02516484956	
716.25	1.058639999	-0.672780787	
716.875	0.1452616978	-1.199032938	
717.5	0.8846913871	0.9853434168	
718.125	2.989960382	-0.4505739781	
718.75	0.2363311427	-1.693259323	
719.375	3.162498919	0.571029146	
720.0	0.01837986269	-4.240663133	
720.625	0.1285800744	-1.116822326	
721.25	0.3198442131	-2.693245895	
721.875	-2.205939523	-2.696098467	
722.5	-0.5411989204	-1.279489044	
723.125	-2.623151361	-0.1923267822	
723.75	-0.4669786298	1.392843256	
724.375	-0.0866205745	0.6779423949	
725.0	0.2481700869	1.183308843	
725.625	0.9674273241	1.004411877	
726.25	0.09436128549	0.7364198394	
726.875	-1.0484643	2.613997769	
727.5	1.260351073	4.498506182	
728.125	-0.01711999458	0.8485698779	
728.75	-0.04511665053	10.66163269	
729.375	7.187016116	8.640770465	
730.0	-8.403992783	1.778658563	
730.625	3.58809426	18.99683483	
731.25	4.846192884	-0.3621077266	
731.875	-12.51431415	5.41698721	
732.5	-9.354719992	6.874767271	
733.125	-2.916615288	4.388535777	
733.75	-3.574531771	1.787736889	
734.375	3.359792571	-0.2187690595	
735.0	-0.2641984114	-0.7906808476	
735.625	-1.58744547	-0.4195178445	
736.25	1.248627557	1.493688533	
736.875	-0.2398013626	0.967097569	
737.5	3.588663303	1.089288067	
738.125	4.29803989	-2.512623729	
738.75	0.4877495752	-5.252551237	
739.375	6.256427821	5.572608929	
740.0	19.8124167	-18.29910587	
740.625	-9.611960477	-7.321190948	
741.25	-9.464334211	23.99833757	
741.875	4.134677481	11.11344511	
742.5	6.900928203	-18.25958294	
743.125	-7.472875249	-12.28266648	
743.75	-1.052138388	0.2218329929	
744.375	-0.5896462674	-1.415693263	
745.0	0.614015924	0.6929546252	
745.625	-0.0879748886	0.2964165916	
746.25	0.0256789038	-0.4502478533	
746.875	-0.2926983902	0.4781219399	
747.5	-0.6242290876	0.7124386702	
748.125	0.2949024859	1.755768525	
748.75	0.9611610859	0.494927081	
749.375	-0.32647325	1.19915831	
750.0	-1.142994742	0.04311257339	
