!Created with skrf (http://scikit-rf.org).
# GHz S MA R 50.0 
!freq magS11 angS11
500.0 0.0154935129717 166.754056722
500.625 0.0143206772521 134.031194641
501.25 0.00620859314429 -148.440402806
501.875 0.017553874165 -122.87880496
502.5 0.0211332057978 159.86545924
503.125 0.0174621745578 126.214249397
503.75 0.0173509640105 -44.5184405038
504.375 0.0145549336043 130.059283979
505.0 0.0113604757821 -55.3925026615
505.625 0.0261523886366 -82.9761069623
506.25 0.0438511216834 -107.686193963
506.875 0.0503081340324 -129.165170364
507.5 0.0367887928835 -135.946067325
508.125 0.0483553688229 -91.532593
508.75 0.0822174725389 -118.04490504
509.375 0.0472511181371 -158.330953635
510.0 0.0286512922638 -131.760695753
510.625 0.0292521256077 -167.356972063
511.25 0.0740273057346 -169.768512001
511.875 0.0459320317647 130.735571102
512.5 0.0385200403971 101.296725541
513.125 0.0521297198627 36.883563131
513.75 0.0693742509613 45.3521326984
514.375 0.0464735654977 20.8371162631
515.0 0.0642934065803 7.74014783402
515.625 0.0966238027875 50.1298834865
516.25 0.106382707152 30.2102271119
516.875 0.110383743464 67.9405367628
517.5 0.106672340179 19.5997636183
518.125 0.191960368899 70.6405760135
518.75 0.079092966982 2.894926304
519.375 0.0683295030622 20.1182916413
520.0 0.0929770779358 -8.42492032907
520.625 0.110004662974 -4.76251873508
521.25 0.0854925579604 -24.2400946194
521.875 0.0678697457497 -1.55355020283
522.5 0.102772769898 -32.8415570146
523.125 0.184308559634 -35.6197570373
523.75 0.232100082371 -54.7326748132
524.375 0.208451544977 -58.0431103882
525.0 0.0800139627059 -40.391372967
525.625 0.0506265909448 -25.3434134258
526.25 0.0328341035662 -32.1012919228
526.875 0.0498423500691 -25.9139012631
527.5 0.0526646898091 -35.6793224236
528.125 0.0506620023885 -59.1735584374
528.75 0.0692328270278 -74.4094571841
529.375 0.0884924468377 -112.561695792
530.0 0.0468676851368 -134.779769981
530.625 0.0476513330058 -152.526579445
531.25 0.0977413795213 -131.516646514
531.875 0.161975100747 -149.970536258
532.5 0.130306528242 -174.737409973
533.125 0.113107966679 172.279858046
533.75 0.0971591164851 164.97877238
534.375 0.112169904794 176.96391541
535.0 0.0971819100648 161.480036049
535.625 0.0712802300308 175.245647587
536.25 0.0425653491301 157.063078817
536.875 0.0724217928203 -160.017560977
537.5 0.0960444901951 -145.189395301
538.125 0.114972504782 -177.527884193
538.75 0.0860250298339 173.617846458
539.375 0.0733314339033 -166.615756272
540.0 0.0883711095218 -159.397024391
540.625 0.145775429491 -162.649176724
541.25 0.113418574998 -144.11355518
541.875 0.0928088862719 -143.972343187
542.5 0.11066919042 -144.688924902
543.125 0.152642449661 -171.9168217
543.75 0.114439603931 155.223111055
544.375 0.0969718052754 133.371368132
545.0 0.0971447647247 87.0683916735
545.625 0.108089696729 79.4444832221
546.25 0.10309578541 63.9286024346
546.875 0.0891464713548 51.5010912433
547.5 0.112222725204 51.1455051192
548.125 0.13433742977 74.5740272288
548.75 0.0751825411074 87.5625464589
549.375 0.0974815940578 85.0096555352
550.0 0.097176071929 121.777977914
550.625 0.057930462799 148.917602739
551.25 0.043912182297 -153.306219758
551.875 0.0623905242595 -163.492727336
552.5 0.102001375048 -167.73635572
553.125 0.0990666709893 -175.216613293
553.75 0.0816790440827 -163.755878427
554.375 0.109179643852 164.756084754
555.0 0.127973882907 160.64330724
555.625 0.0994987960029 156.308862212
556.25 0.10512692273 158.113515791
556.875 0.11741312617 162.674584454
557.5 0.110202199974 165.252640129
558.125 0.0972121710313 161.856665405
558.75 0.0910458422413 173.558576525
559.375 0.0670287694656 -175.175437537
560.0 0.0428982137407 -152.220762311
560.625 0.0580680843001 -144.146635048
561.25 0.0870557363273 -154.674082837
561.875 0.105765180932 -165.470735794
562.5 0.0959755853536 170.389078375
563.125 0.108269920021 140.96439364
563.75 0.121567667034 131.414733769
564.375 0.106812525589 119.669865772
565.0 0.08387085728 117.643642169
565.625 0.0864726447908 112.669176159
566.25 0.093067055714 149.161893459
566.875 0.0761997292975 176.932499212
567.5 0.0704759227512 -178.528516234
568.125 0.0831766490516 -174.184997963
568.75 0.0806087674389 -158.468194092
569.375 0.0444670932694 -102.136556226
570.0 0.0603092797816 -106.837589418
570.625 0.0905124789814 -120.534555944
571.25 0.0934052961972 -127.22999356
571.875 0.0854562810055 -125.511579652
572.5 0.112131420486 -155.976252724
573.125 0.142059780119 -177.14644694
573.75 0.11397734497 155.762640414
574.375 0.0814104345207 146.069886488
575.0 0.107247567834 149.330420241
575.625 0.110973195398 152.540748732
576.25 0.0917474666013 144.868159987
576.875 0.0835315140122 128.006652422
577.5 0.0927868465985 127.211533457
578.125 0.0639240390244 154.700789329
578.75 0.0521688804224 153.347225965
579.375 0.0538282907421 158.325026722
580.0 0.0663433548534 -175.6415422
580.625 0.0781583283106 -153.640258786
581.25 0.0868635425831 -170.979620091
581.875 0.112732640217 -170.887116633
582.5 0.115342764184 -174.712199631
583.125 0.0917800795554 -170.518215713
583.75 0.0845939851645 -177.54281845
584.375 0.0994221378728 -151.363360565
585.0 0.0971243291492 -147.080832801
585.625 0.0700315373022 -145.223508547
586.25 0.0736993314227 -153.712679605
586.875 0.0802500034536 -127.151051485
587.5 0.0727220829119 -140.258460263
588.125 0.0560404245799 -175.06525269
588.75 0.0668652953247 175.610302681
589.375 0.0855553864282 -144.743556288
590.0 0.092712219046 -170.731418425
590.625 0.100925673017 161.494256162
591.25 0.122787218106 145.116302005
591.875 0.101765398671 150.964325798
592.5 0.0650800443739 141.929216142
593.125 0.064506292924 140.775159535
593.75 0.0780853482827 152.361157473
594.375 0.058364990124 -141.557001478
595.0 0.0436307951248 -121.477367487
595.625 0.0537862657038 -113.261153756
596.25 0.0712739201547 -96.9687011375
596.875 0.0650169717102 -85.3429257655
597.5 0.0577283166627 -67.4292735304
598.125 0.0682003959991 -60.3761598469
598.75 0.0705892298472 -74.2958293983
599.375 0.0985628951525 -58.295217276
600.0 0.105080939742 -64.27662343
600.625 0.100185543292 -62.4235474279
601.25 0.0851005521878 -88.813371497
601.875 0.0710967318928 -77.1297295615
602.5 0.0628356605414 -90.7323212016
603.125 0.0437501518564 -78.1782554429
603.75 0.0299508850717 -43.1217828726
604.375 0.0311064293059 -42.6490287925
605.0 0.0661835014385 -16.4671152458
605.625 0.0564707190939 -2.49456606999
606.25 0.0302315187561 19.6094764254
606.875 0.0148591466598 37.9667153351
607.5 0.0814161327008 46.7856534075
608.125 0.0776156741009 28.7810992265
608.75 0.0618456476941 16.0359653795
609.375 0.050972647479 18.9478881392
610.0 0.0730730922835 41.6474346667
610.625 0.0742981297872 41.0688848347
611.25 0.0548762974463 34.7345079906
611.875 0.0300985810165 12.1896834972
612.5 0.0415163686002 107.391422714
613.125 0.0247031837798 126.190079888
613.75 0.035514379376 130.836541073
614.375 0.0434787203921 119.623156904
615.0 0.0246934180797 106.803314343
615.625 0.0273540188618 134.228404621
616.25 0.0498253311568 132.853832294
616.875 0.0461611841514 125.367968456
617.5 0.0374249652462 125.422019619
618.125 0.0257086611106 128.603346353
618.75 0.0180969693598 138.033969208
619.375 0.0192146053746 136.948448739
620.0 0.0199227052838 157.785332057
620.625 0.0166193215966 -103.788364392
621.25 0.0461750988702 -110.650380292
621.875 0.0602798688502 -99.6905976856
622.5 0.0762991361729 -166.916771763
623.125 0.0728233240994 171.433560695
623.75 0.0517564918752 171.2659612
624.375 0.0432156967679 -175.9902083
625.0 0.028939670613 -123.801339233
625.625 0.0437357365864 -154.732445496
626.25 0.0364155793873 172.940230292
626.875 0.00336133302929 114.052678244
627.5 0.0497479814355 -11.4017790748
628.125 0.0366517540398 -69.9248029585
628.75 0.0315994206416 -25.6673955969
629.375 0.041424619893 -21.6690748433
630.0 0.0801681994827 2.98960696435
630.625 0.0726006571349 -15.2359031383
631.25 0.0652930674638 -1.54028849522
631.875 0.0689350266228 -9.30494320672
632.5 0.0711371905672 12.1024225381
633.125 0.0579076009764 -22.2296453301
633.75 0.0416617407642 6.19055825478
634.375 0.0485588084164 18.4257026231
635.0 0.0368114596553 22.055630043
635.625 0.0486975833992 46.1176301201
636.25 0.0517715560546 30.6945889423
636.875 0.0551560936142 24.2085347744
637.5 0.0454077479364 28.5372954698
638.125 0.0579417350393 66.6757605382
638.75 0.0512747339822 59.5369792428
639.375 0.090038374817 90.4234610892
640.0 0.0811395193636 97.2856248075
640.625 0.0676954017974 108.710538367
641.25 0.0698258178212 120.446688086
641.875 0.063129004547 147.75186632
642.5 0.0548675660066 156.712465399
643.125 0.0712366464045 160.418051752
643.75 0.0494947636916 151.024118035
644.375 0.0688185208294 -178.192442827
645.0 0.0716712168182 172.614120187
645.625 0.107202302258 167.596098217
646.25 0.0801752552324 153.435288576
646.875 0.0752813200918 175.23172758
647.5 0.0779174406034 -176.030006294
648.125 0.0935284997733 -176.726958116
648.75 0.0894060949527 -161.574017231
649.375 0.0495789163255 -153.152043349
650.0 0.0548150996389 -121.720302639
650.625 0.0688759374606 -90.0503936388
651.25 0.0800939449455 -67.9749637549
651.875 0.0611284878876 -46.3100209544
652.5 0.0772905836384 -23.7013788461
653.125 0.116357356014 -6.1971836884
653.75 0.121870329086 4.66138206921
654.375 0.109249640743 4.52278128647
655.0 0.118548939632 8.10213542946
655.625 0.0996730613149 23.0769924976
656.25 0.0716906304176 21.4527055436
656.875 0.0691877695533 2.12322113872
657.5 0.0703483039181 17.1938826432
658.125 0.0614326041273 40.4113679868
658.75 0.0696021085001 53.9322326175
659.375 0.0621063120069 43.557369127
660.0 0.114938225051 22.4856461395
660.625 0.113026385687 13.6404080423
661.25 0.118550286358 -0.551196356199
661.875 0.126883616984 -16.5262732779
662.5 0.123313634279 -24.9056984072
663.125 0.106379157702 -17.9712796082
663.75 0.117146330732 0.813573792206
664.375 0.0762208088222 46.6766984691
665.0 0.0728091076851 90.3941645542
665.625 0.0697551597688 107.996856806
666.25 0.0759228002409 127.990170297
666.875 0.115088972095 164.402023599
667.5 0.10507564734 -172.651224786
668.125 0.103873440705 178.693702453
668.75 0.134878679718 163.084310156
669.375 0.126741395623 172.068925321
670.0 0.0890127336009 -172.211521576
670.625 0.0899689171122 -174.801250378
671.25 0.127233656771 168.118710325
671.875 0.0895476268596 164.714192997
672.5 0.0765192528554 154.547468041
673.125 0.0860160161365 149.908684112
673.75 0.114659392198 154.313146366
674.375 0.116954522601 165.470135545
675.0 0.123662331964 178.934411342
675.625 0.13123091113 -153.073884879
676.25 0.116715752055 -128.098841494
676.875 0.117553979629 -123.003211583
677.5 0.131710693954 -131.999772252
678.125 0.134523672297 -120.146018793
678.75 0.0849076710027 -99.8963913913
679.375 0.0421795572666 -71.5270677202
680.0 0.0723180432006 -79.00359858
680.625 0.112065284555 -78.3412345692
681.25 0.112112751799 -80.4080620093
681.875 0.0959888056928 -92.9960415143
682.5 0.135413765416 -123.121089492
683.125 0.162778758195 -122.434649663
683.75 0.144612826543 -107.872714799
684.375 0.127906109022 -84.9095959777
685.0 0.118371457805 -38.0088633127
685.625 0.124964231041 -3.26618460437
686.25 0.103350355845 19.5381357685
686.875 0.107228613999 35.5033240103
687.5 0.0637183649585 88.6196485937
688.125 0.077624785255 109.662606671
688.75 0.0943826927179 112.414978634
689.375 0.150450781812 108.620187635
690.0 0.131118994527 131.374649639
690.625 0.12147173542 123.600184939
691.25 0.138347943118 93.8210437786
691.875 0.191873805699 63.9768717622
692.5 0.153516397161 34.6656582608
693.125 0.090497250103 -18.5396553491
693.75 0.0904683924026 -38.4805795811
694.375 0.134867085084 -32.6311707366
695.0 0.143924823294 0.88405246343
695.625 0.0980335418677 54.8716834731
696.25 0.114767911144 109.442683834
696.875 0.141052961608 165.252462921
697.5 0.146644187138 -149.132361488
698.125 0.146291174617 -139.8385494
698.75 0.135111317456 -137.076595943
699.375 0.103106538177 -126.638544212
700.0 0.103982909365 -124.869185517
700.625 0.101926314103 -82.6469606559
701.25 0.101932598052 -68.0145225688
701.875 0.0790388946629 -64.094830062
702.5 0.0955667977138 -95.3459758842
703.125 0.168698786191 -127.132317343
703.75 0.188856550565 -158.557935746
704.375 0.133469157754 167.304420093
705.0 0.11083951093 155.845579591
705.625 0.150380138471 175.10330055
706.25 0.133092947211 -105.431653967
706.875 0.0920710151888 -62.9963808281
707.5 0.0719213459375 -41.3872880999
708.125 0.0926861451192 -1.07399513043
708.75 0.112589993309 70.4176696181
709.375 0.10796204907 102.112953192
710.0 0.102173929714 122.486143464
710.625 0.10763770468 149.978888045
711.25 0.117176583144 174.92353602
711.875 0.146746420275 168.101098127
712.5 0.142038605129 143.697311903
713.125 0.137220334907 88.3558384697
713.75 0.100515494021 46.7947731642
714.375 0.111798060563 14.8563175263
715.0 0.120403810263 15.2345356406
715.625 0.083761297936 42.2185183682
716.25 0.0724004964873 59.6740892281
716.875 0.127277303904 110.745385265
717.5 0.145780481628 143.541967549
718.125 0.1178189077 157.568566068
718.75 0.0976598696751 160.988199247
719.375 0.110350912562 176.372896547
720.0 0.132805268579 -128.004517724
720.625 0.120519085576 -76.8494892518
721.25 0.0980133725779 -32.6285777616
721.875 0.0888101491467 47.5959599195
722.5 0.0809614491071 69.381822169
723.125 0.0864427893132 75.6735456385
723.75 0.0903506315927 24.7021438773
724.375 0.10370415458 -9.87781656496
725.0 0.0902162336541 -47.6777872174
725.625 0.101842144494 -70.4002604955
726.25 0.109300667254 -69.2716643895
726.875 0.0990480052439 -68.257612413
727.5 0.0864686117823 -26.7314101612
728.125 0.086428544429 -0.043960180741
728.75 0.0763554225137 14.0086184911
729.375 0.0677840182692 -2.64266925869
730.0 0.0638659841838 -5.88211852466
730.625 0.0590533234721 20.1505030953
731.25 0.0725427882293 59.7561691243
731.875 0.0674161187179 106.945891188
732.5 0.053064115415 137.078423547
733.125 0.113037674994 -176.289686935
733.75 0.0840320916084 169.319149145
734.375 0.0533260739508 142.998878469
735.0 0.0581955371918 156.48405379
735.625 0.0464765890934 135.03513577
736.25 0.0276065745501 134.555156002
736.875 0.0449610555307 166.817497604
737.5 0.0603226095893 -178.619606152
738.125 0.092464382132 -177.766947518
738.75 0.0797104015364 178.85591867
739.375 0.046539671345 -179.566177324
740.0 0.0108732366766 -85.1170787201
740.625 0.091671019041 -152.340035798
741.25 0.0563970677746 -159.190965951
741.875 0.0318112768339 -87.1177983613
742.5 0.0308705414563 -17.3687509265
743.125 0.0547598469133 47.918160962
743.75 0.0395028000049 95.5075260476
744.375 0.0502750355716 104.812044361
745.0 0.0601796396327 176.741826108
745.625 0.0885510703525 93.1987444519
746.25 0.0771811229822 79.5257106034
746.875 0.0591022096379 52.564972842
747.5 0.0348172945107 11.0208940977
748.125 0.0136491872616 47.9654313419
748.75 0.0370629878594 -33.8015456229
749.375 0.0368135688598 -43.8220930815
750.0 0.0435539219003 -104.429719276
