!Created with skrf (http://scikit-rf.org).
# GHz S RI R (50+0j) 
!freq	ReS11	ImS11	
500.0	-0.04902341072	-1.102647275	
500.625	0.1308877026	-0.3725533148	
501.25	-0.3084611	-0.8149771318	
501.875	-0.42094452	-0.2203690638	
502.5	0.02120996693	-0.07193563992	
503.125	-0.1055833232	0.009643085238	
503.75	0.03536493185	0.01024091257	
504.375	0.03380544518	0.01660536286	
505.0	-0.009434849199	-0.03645987951	
505.625	0.05671875016	-0.03388234729	
506.25	-0.1121248144	-0.08947331584	
506.875	0.09883287028	0.008027223643	
507.5	0.0188745657	-0.5478522567	
508.125	-0.208449104	-0.4700201404	
508.75	0.7740233436	-0.5725552622	
509.375	-0.02557751924	-1.195306505	
510.0	-0.3909821137	0.04288665066	
510.625	-0.03771340392	-0.1641019673	
511.25	-0.09872078175	-0.03193734523	
511.875	-0.02307906287	-0.03709157429	
512.5	-0.03721752976	0.03471843625	
513.125	-0.05213574697	-0.07949440358	
513.75	0.005802467558	-0.0005746913076	
514.375	-0.0996850573	-0.08422978955	
515.0	0.1344437511	0.2550842322	
515.625	-0.1312612913	-0.6381603709	
516.25	-0.03214193226	0.1752570947	
516.875	0.09283886052	-0.4788197397	
517.5	-0.08985771144	-0.2492038555	
518.125	-0.006250927601	0.04110153699	
518.75	-0.04768674995	-0.1827680971	
519.375	-0.03958766002	0.05568232354	
520.0	0.07603659903	0.04881882988	
520.625	0.1756339119	-0.01099566475	
521.25	-0.007871613642	-0.1779637079	
521.875	-0.04730514932	-0.0208844205	
522.5	-0.1036868074	0.01707172948	
523.125	0.07421363717	0.03166417167	
523.75	-0.07264820699	-0.0889409916	
524.375	-0.2171551579	0.1414721292	
525.0	0.06523118559	0.01826668176	
525.625	-0.05151508963	0.0767197633	
526.25	0.05302274621	-0.05807926894	
526.875	-0.1014634843	0.08848320636	
527.5	0.04234379149	0.09066240076	
528.125	-0.07099620748	0.1739087995	
528.75	0.1403252911	0.1818318026	
529.375	0.0439571624	-0.02913298218	
530.0	-0.01366615575	0.1889877929	
530.625	0.05924352661	0.2596421346	
531.25	0.2072357375	0.01751151408	
531.875	0.3004497091	-0.07776827823	
532.5	-0.122540178	-0.1785509803	
533.125	0.1583768129	0.01517084708	
533.75	-0.02314865927	-0.2438986655	
534.375	0.02582428785	-0.1731124851	
535.0	-0.2639885288	-0.163024091	
535.625	-0.0733928259	0.1257555378	
536.25	-0.02512374273	0.0607325675	
536.875	0.1151047559	0.02117970151	
537.5	0.01902604147	-0.05637514518	
538.125	0.1235672843	-0.009884337105	
538.75	0.08280276878	-0.1756389058	
539.375	-0.03598527218	-0.08938491754	
540.0	-0.1355633621	-0.154492765	
540.625	-0.1633650145	0.0005507957914	
541.25	-0.02580126282	-0.006253581839	
541.875	-0.0967987347	-0.05059473687	
542.5	-0.04107730841	0.006686897748	
543.125	-0.01200521931	-0.06731274835	
543.75	-0.1167521864	0.04366208199	
544.375	-0.005862565426	-0.007016392966	
545.0	-0.03065130438	0.1080929672	
545.625	0.04265785922	-0.005843314763	
546.25	0.03966775921	0.1201772782	
546.875	0.1291158012	-0.0794126334	
547.5	0.00860801732	-0.06763644418	
548.125	0.01351784377	-0.1617316413	
548.75	-0.1633981314	-0.0894389175	
549.375	-0.05408916765	-0.02220700459	
550.0	-0.1067472759	-0.02176600849	
550.625	-0.008205132251	0.02977841532	
551.25	-0.08853390729	-0.001850786979	
551.875	-0.04218535198	0.09001935652	
552.5	-0.02048040067	0.0478398221	
553.125	-0.02322823348	0.06773512085	
553.75	0.04549982021	0.02775417262	
554.375	0.07750132225	0.002900969932	
555.0	0.0935208272	-0.07198714347	
555.625	0.06764017155	-0.09485412703	
556.25	0.05765886793	-0.1228026656	
556.875	-0.03782789272	-0.143859028	
557.5	-0.09463101267	-0.08485627176	
558.125	-0.1026460929	-0.03122185015	
558.75	-0.1062784736	-0.001351020661	
559.375	-0.09720082357	0.03495957667	
560.0	-0.07372014165	0.06285557397	
560.625	-0.05851109979	0.1051266651	
561.25	0.0385153235	0.1006111205	
561.875	0.0002128416642	0.02960575842	
562.5	0.04524159738	0.05419766845	
563.125	0.02906111845	0.06726369123	
563.75	0.1698613557	-0.007268718269	
564.375	0.07060447466	-0.0995088886	
565.0	0.0782433308	-0.0902728414	
565.625	-0.047847531	-0.1822009362	
566.25	-0.1420315454	-0.0253883099	
566.875	-0.07299084616	-0.08732721652	
567.5	-0.178373591	-0.1054501207	
568.125	-0.1077399488	-0.04984309838	
568.75	-0.2196495768	-0.1543319407	
569.375	-0.182666945	0.1709345614	
570.0	-0.09544410694	0.1058609203	
570.625	-0.08064459309	0.2235747457	
571.25	0.1032076891	0.03139813637	
571.875	-0.008210491834	0.1073387914	
572.5	0.1681726826	-0.05280339078	
573.125	-0.01196123407	-0.06616417421	
573.75	0.1324904248	-0.06591195978	
574.375	-0.0531362905	-0.1330119082	
575.0	0.05651914575	0.04119702011	
575.625	0.007839933391	-0.1444478214	
576.25	0.002140935765	-0.01988349333	
576.875	0.06153868232	-0.1554551709	
577.5	-0.06182852231	-0.1995268751	
578.125	-0.06530968031	-0.05994571734	
578.75	0.03524858566	-0.1380642028	
579.375	-0.1705072339	-0.1150049128	
580.0	0.01433015192	0.05223321279	
580.625	-0.1558164891	-0.100653439	
581.25	0.05175233916	0.1310839961	
581.875	-0.08003453976	0.07852214771	
582.5	0.08656605812	0.22872912	
583.125	0.09111826498	-0.07271442427	
583.75	-0.03529376595	0.09578717713	
584.375	0.1165064879	-0.002944722136	
585.0	-0.001852805745	0.03971456923	
585.625	0.2461323103	0.02974453962	
586.25	0.07113272844	-0.1368405543	
586.875	0.08491247412	-0.04094713329	
587.5	-0.0247344634	-0.2048510503	
588.125	-0.05140619966	-0.04867486179	
588.75	0.09948180698	-0.1155420583	
589.375	0.02581570253	-0.2187086789	
590.0	-0.07973864859	-0.05807428518	
590.625	-0.1320630673	-0.1450702842	
591.25	-0.1419922366	0.2023677638	
591.875	0.04299548258	-0.03372038446	
592.5	-0.07303247749	0.1138106244	
593.125	0.02919975892	-0.07484802456	
593.75	0.001913956109	0.2164113747	
594.375	0.1916892672	-0.03124943308	
595.0	0.05590469669	0.05784180157	
595.625	0.2024750395	0.1392274556	
596.25	0.197090176	-0.02192673654	
596.875	0.05806565862	0.07118398086	
597.5	0.1800948693	0.1371670204	
598.125	0.1189132432	0.01641786334	
598.75	0.1419440374	0.1211873552	
599.375	0.2460117872	-0.07583589914	
600.0	0.06245626944	-0.1277781209	
600.625	0.141488527	-0.1276961335	
601.25	0.06257406585	-0.2366401005	
601.875	-0.14000004	-0.06536336477	
602.5	-0.03142100934	-0.07467732731	
603.125	-0.181984099	0.1420505043	
603.75	0.004468288294	0.07109703112	
604.375	-0.1962190905	0.02359261545	
605.0	-0.01272579515	0.176495156	
605.625	-0.05249100188	-0.06045197422	
606.25	-0.09838018828	0.1766989879	
606.875	-0.05354038604	0.01193214879	
607.5	-0.2151396953	0.1740032457	
608.125	-0.004790029115	0.3088645857	
608.75	0.195761596	0.03913790383	
609.375	0.2118737017	-0.02690730595	
610.0	0.1971364606	-0.1648070644	
610.625	-0.02285828245	-0.1254410199	
611.25	0.06828129956	-0.1254148399	
611.875	-0.1404108447	-0.1245342646	
612.5	-0.05716295842	-0.03051763445	
613.125	-0.2531811468	-0.007770434402	
613.75	-0.008998146294	0.2320204576	
614.375	-0.02268028095	-0.006252963294	
615.0	0.1365911323	0.1273337109	
615.625	0.04357653245	-0.03535816615	
616.25	-0.1415561085	0.104665321	
616.875	-0.03131661118	0.2944525242	
617.5	-0.1336540134	0.1908322145	
618.125	-0.06751496512	0.2567288722	
618.75	0.1189442	0.1783855654	
619.375	0.01886037132	0.07629031701	
620.0	0.1145250945	0.06812446514	
620.625	0.05471976623	-0.1970593833	
621.25	-0.1348036106	-0.07436220178	
621.875	-0.2091475076	-0.1428340579	
622.5	-0.3036537367	0.1645885941	
623.125	-0.01128613349	0.07989268084	
623.75	0.1664676291	0.1107373122	
624.375	-0.03813430693	-0.09387324291	
625.0	0.1038905002	0.03740583997	
625.625	-0.01395297152	-0.1435399877	
626.25	0.0006357619211	-0.04666556195	
626.875	-0.1301668425	-0.1467922836	
627.5	-0.1732823102	0.008307187782	
628.125	-0.04584885513	-0.02586438353	
628.75	-0.08324256604	-0.1850385783	
629.375	-0.1076457831	-0.1285164941	
630.0	-0.1254966854	-0.1228630147	
630.625	-0.2489464085	0.08352995811	
631.25	-0.04377833849	0.178894511	
631.875	-0.02149730706	0.1482148721	
632.5	0.110955429	0.2700966116	
633.125	0.2136906504	-0.05079880975	
633.75	0.09116257811	-0.008747798949	
634.375	0.1388451635	-0.2090520761	
635.0	-0.07432755246	-0.05555915703	
635.625	-0.06058530617	-0.1814858541	
636.25	-0.174540953	0.1563953211	
636.875	-0.005778620166	0.04572370085	
637.5	-0.1294997767	0.081696191	
638.125	0.04958685518	0.1092227293	
638.75	-0.1262356336	0.07173089624	
639.375	-0.0003615265617	0.3238439139	
640.0	0.2063160602	0.154055567	
640.625	0.1164798399	0.132057609	
641.25	0.2963215873	0.08611481837	
641.875	0.08291345922	-0.2207196325	
642.5	0.04264355423	-0.1050134133	
643.125	-0.1569830783	-0.2409606896	
643.75	-0.06512933424	0.06538532414	
644.375	-0.184653619	-0.1074473548	
645.0	-0.1897725334	0.3401472461	
645.625	0.09584610979	0.05315911832	
646.25	0.0366972825	0.2569143474	
646.875	0.2339855892	-0.1437511283	
647.5	-0.104307699	0.1188119846	
648.125	0.2844125212	-0.001700840943	
648.75	0.07177300242	-0.1040707415	
649.375	0.3063593685	-0.1041825022	
650.0	0.1047249416	-0.4297178981	
650.625	-0.01365995372	-0.1601087	
651.25	0.3110335068	-0.1045012477	
651.875	0.2765833282	-0.3034864848	
652.5	0.08328053018	-0.0957575279	
653.125	0.3033404102	0.01932222343	
653.75	0.1867666886	-0.3690584448	
654.375	-0.06396115542	-0.1434692841	
655.0	-0.2355774607	-0.2640417039	
655.625	-0.1113760793	0.2908084539	
656.25	0.06656552722	-0.02477277643	
656.875	-0.03088682023	0.1980270278	
657.5	0.1214728972	-0.03513116998	
658.125	-0.1095006197	0.2650129438	
658.75	0.4657688701	0.03691981502	
659.375	0.1313336862	-0.1997540125	
660.0	0.264085688	-0.1376540939	
660.625	0.1450635446	-0.4689239652	
661.25	-0.003692335725	-0.1926555917	
661.875	0.3532989068	-0.1744763218	
662.5	0.237590798	-0.2972492511	
663.125	0.1043258525	-0.1578972259	
663.75	0.2549302066	-0.1975768267	
664.375	-0.1330470865	-0.3776721591	
665.0	-0.1860097063	-0.08903251805	
665.625	-0.3238543892	0.002442348739	
666.25	-0.05252341821	0.3519555541	
666.875	0.07303611621	0.0819212465	
667.5	0.199809415	0.163191718	
668.125	0.1932581615	-0.1139639852	
668.75	0.07792428203	0.02250999929	
669.375	0.2096174796	-0.2632890199	
670.0	-0.1233506867	-0.2094327097	
670.625	0.087727103	-0.07497507884	
671.25	0.06861620368	-0.2902892406	
671.875	0.001528566619	-0.1581859285	
672.5	0.2363466181	-0.01572504243	
673.125	0.1828136085	-0.2949870125	
673.75	0.09219346101	-0.08697665292	
674.375	0.1235556538	-0.2210428635	
675.0	-0.1592391074	-0.3005083094	
675.625	-0.1387266117	0.02303965294	
676.25	-0.1870422679	-0.1434684728	
676.875	-0.2079223838	0.08942073453	
677.5	-0.02747938849	0.0166413268	
678.125	-0.2398564366	0.1041880758	
678.75	0.1735238987	0.2320176244	
679.375	0.05705524787	0.03535265517	
680.0	0.2566532463	-0.01569312559	
680.625	-0.08916419586	-0.269756518	
681.25	0.03210007813	0.1713024179	
681.875	0.4011134863	-0.1518358901	
682.5	0.03304382332	-0.06171525683	
683.125	0.1387008316	0.1981943482	
683.75	0.4405472142	-0.001202510932	
684.375	-0.008891074102	-0.02807763177	
685.0	0.4103809128	0.1392238804	
685.625	0.3300024001	-0.1047983001	
686.25	0.1468764623	0.001956710023	
686.875	0.4548355526	-0.08485485761	
687.5	0.1024210922	-0.4056824206	
688.125	0.03711859622	-0.2331289347	
688.75	-0.4045139348	-0.239593196	
689.375	-0.2111762701	0.4346747778	
690.0	0.08623143696	0.1729579647	
690.625	0.2632242001	0.4022999388	
691.25	0.3607749352	0.03974859908	
691.875	0.2245548194	0.310755081	
692.5	0.8784906999	0.1992906626	
693.125	0.425431878	-0.2526130255	
693.75	0.5005414259	-0.02713295807	
694.375	0.4558823236	-0.5569846928	
695.0	0.192917342	-0.3011425897	
695.625	0.7320055687	-0.02092085577	
696.25	0.6253402158	0.03048254632	
696.875	0.284497711	0.1818938709	
697.5	0.3035645253	0.4106920006	
698.125	0.4937006836	0.1696887198	
698.75	0.2061449275	-0.3199845668	
699.375	-0.291618073	-0.2540550765	
700.0	-0.3267386461	0.3829663959	
700.625	0.2398860383	0.1326154115	
701.25	0.08069527962	0.2652167106	
701.875	0.4437233031	0.2167897703	
702.5	0.1741318974	0.09149043963	
703.125	0.4323752059	0.2504153447	
703.75	0.4080875681	-0.2410876108	
704.375	0.08887055287	-0.09396685156	
705.0	0.3653674629	-0.1385338777	
705.625	0.1873560481	-0.115971932	
706.25	0.1356035392	0.1698101807	
706.875	0.287129906	0.3707423554	
707.5	0.2342705789	0.2852732438	
708.125	0.2788593657	0.1600308189	
708.75	0.2589472571	-0.1514772658	
709.375	-0.3097114825	-0.2304661815	
710.0	-0.03046593252	0.09374837796	
710.625	0.09871365572	0.2765207295	
711.25	0.2097430412	-0.134625388	
711.875	0.160830155	0.2113943592	
712.5	0.4337318021	-0.110061113	
713.125	0.08080567135	-0.1525074072	
713.75	0.2357813092	-0.1671284379	
714.375	-0.05476170222	-0.2983512186	
715.0	-0.05337990942	-0.06976033128	
715.625	0.1212513628	-0.2360235755	
716.25	0.04149109393	-0.296911939	
716.875	0.2001497092	-0.02609096725	
717.5	0.592768851	0.02447850619	
718.125	0.5287709944	-0.2030010857	
718.75	0.45921069	0.1964404672	
719.375	0.7455590594	-0.2022005055	
720.0	0.1556160251	-0.6997434551	
720.625	0.3739925812	-0.5197416341	
721.25	-0.07563204569	-1.157383513	
721.875	-0.7559739642	-0.5853606991	
722.5	-0.2364871972	-0.6523015545	
723.125	-1.06702955	-0.1861500227	
723.75	-0.1545079113	0.4384347627	
724.375	-0.2812300936	0.2156991053	
725.0	0.3615615729	0.4733038765	
725.625	0.09706070831	0.1733990277	
726.25	-0.1418652682	0.6579339182	
726.875	0.1155755897	1.011023478	
727.5	0.1473309707	0.7767646925	
728.125	-0.5729889117	1.630733984	
728.75	0.4320539658	2.940666866	
729.375	0.2913900641	1.923389734	
730.0	-1.570392559	2.651853611	
730.625	1.406813924	3.870377389	
731.25	-0.6020837768	1.504612645	
731.875	-2.829817402	1.704841067	
732.5	-3.701507951	1.928017966	
733.125	-0.6516786365	0.4550581538	
733.75	-1.206481391	1.228133542	
734.375	0.9667831195	0.1248030039	
735.0	-0.02935236966	-0.04631812948	
735.625	-0.6420073374	-0.1501122685	
736.25	0.3012903719	0.4708812121	
736.875	-0.01623017963	0.4058789831	
737.5	1.475980436	0.2949207966	
738.125	0.9678131769	-0.9107266897	
738.75	0.8049814718	-0.2986781634	
739.375	3.308275406	-1.038385317	
740.0	0.9159400231	-3.758052799	
740.625	-0.2926987716	1.627642331	
741.25	2.263398335	4.340641147	
741.875	1.489197041	0.9978033818	
742.5	-0.02657233356	-3.517883618	
743.125	-0.6191305698	-2.216068402	
743.75	-0.397491765	-0.4877682556	
744.375	-0.07808216353	-0.4441219249	
745.0	0.1735995526	0.2317578632	
745.625	-0.02115109457	0.08329777091	
746.25	-0.02081665525	-0.1986624174	
746.875	-0.1391025583	0.08316651078	
747.5	-0.1520914711	0.2264269989	
748.125	0.2344161877	0.5802614688	
748.75	0.2669735826	0.2483042229	
749.375	0.01258800651	0.3706120333	
750.0	-0.3500703116	0.339390011	
