!Created with skrf (http://scikit-rf.org).
# GHz S RI R (50+0j) 
!freq	ReS11	ImS11	
500.0	0.097137598	-0.3975413913	
500.625	0.5517799354	-1.042587978	
501.25	-0.6423709768	-0.3849468343	
501.875	0.07131256445	-0.2695469681	
502.5	-0.0876236385	-0.169580471	
503.125	-0.01848241084	0.0194805026	
503.75	-0.03918216945	0.09739511224	
504.375	0.02604633426	-0.03037324671	
505.0	0.02367340563	0.01159544651	
505.625	-0.04252780911	-0.07458967918	
506.25	-0.02130873585	0.02572909416	
506.875	-0.2783783233	-0.07220535248	
507.5	-0.20979965	-0.008559452535	
508.125	0.40440257	-0.4768051638	
508.75	0.3070182181	-1.14123153	
509.375	-0.4503135798	-0.6079800139	
510.0	-0.1853709283	-0.3530474394	
510.625	-0.2700755982	-0.1574848744	
511.25	-0.03314625906	-0.0140732602	
511.875	-0.1439511958	-0.05969647988	
512.5	0.001506996656	0.05368210245	
513.125	0.007636865014	-0.03317759917	
513.75	-0.08067058936	-0.08331957033	
514.375	-0.00678031789	0.07863718694	
515.0	0.02130229647	-0.294664852	
515.625	-0.1691692065	0.07081854023	
516.25	0.1188313411	-1.142309959	
516.875	-0.4616842468	-0.4597280526	
517.5	-0.07645067727	0.005199902365	
518.125	-0.01534949207	-0.08835359803	
518.75	-0.03969732834	-0.01980243089	
519.375	-0.05408107403	0.007967677789	
520.0	0.1079523231	0.02936554513	
520.625	0.09420250786	-0.09787039339	
521.25	-0.02969346881	-0.2261531835	
521.875	-0.1836966757	-0.07328178694	
522.5	0.0009030968367	0.0736528009	
523.125	-0.1186537434	-0.05795210227	
523.75	-0.1609096017	0.06202170587	
524.375	-0.0005828348043	-0.0171317718	
525.0	-0.1627461286	0.169068739	
525.625	0.1261935539	0.005311753054	
526.25	-0.07953088512	0.03129419566	
526.875	0.02459779737	0.0297735138	
527.5	-0.1302888211	0.1559726168	
528.125	0.1199670724	0.2925879707	
528.75	-0.05574226802	0.1336328452	
529.375	-4.080718887e-05	0.1016194298	
530.0	0.07708421274	0.06753059431	
530.625	0.136553514	0.1918241929	
531.25	0.4441158948	0.1302631382	
531.875	0.06886903924	-0.2284929083	
532.5	0.01006349744	-0.003695215667	
533.125	-0.02679898289	-0.1436700001	
533.75	0.1128203339	-0.01943222668	
534.375	-0.1333247516	-0.3247470184	
535.0	-0.1797223679	0.009905766802	
535.625	-0.1602155414	0.03718168625	
536.25	0.01582422734	0.1132277346	
536.875	0.04327860864	-0.01307315012	
537.5	0.08968859644	-0.01731143105	
538.125	0.07919980367	-0.1042456133	
538.75	0.08947233828	-0.04233522796	
539.375	-0.07260280599	-0.2019770097	
540.0	-0.1618350496	-0.09639670183	
540.625	-0.1132382259	-0.01660855616	
541.25	-0.1194811715	-0.0006066765809	
541.875	0.001010960989	0.03438807963	
542.5	-0.02923612312	-0.09490510751	
543.125	-0.1328584983	-0.02872442078	
543.75	-0.0213997245	-0.03244899492	
544.375	-0.08833240833	0.06419046966	
545.0	0.05288012249	0.0087017956	
545.625	0.02332166933	0.1077121381	
546.25	0.1510998881	-0.02563563105	
546.875	0.05493263024	0.006017870452	
547.5	0.1130066547	-0.1367647574	
548.125	-0.1086594122	-0.1189636498	
548.75	-0.05534224838	-0.09600931233	
549.375	-0.1331419699	-0.09053231608	
550.0	-0.04261224397	0.05381999015	
550.625	-0.06874346312	-0.02946607671	
551.25	-0.06056069026	0.06148619831	
551.875	-0.06101523706	0.03122131671	
552.5	-0.0561675516	0.07838859231	
553.125	0.005708647917	0.04692306445	
553.75	0.03925217189	0.05055333614	
554.375	0.08598262876	-0.01268255468	
555.0	0.07640890803	-0.06098550977	
555.625	0.0783525259	-0.09811051222	
556.25	0.05057653582	-0.1311207161	
556.875	-0.03652858638	-0.1356886725	
557.5	-0.08968134198	-0.09111726939	
558.125	-0.1086203687	-0.03378931167	
558.75	-0.09417606918	0.009386166061	
559.375	-0.09657063432	0.01633472858	
560.0	-0.09423455068	0.08149712971	
560.625	-0.02784858504	0.09795183055	
561.25	-0.02321522198	0.08304798611	
561.875	0.05712962561	0.04791259794	
562.5	-0.01925416958	0.03434561775	
563.125	0.09969705693	0.07833308432	
563.75	0.09048434767	-0.02548813734	
564.375	0.1355924128	-0.05999444827	
565.0	0.06578437555	-0.1833106163	
565.625	-0.03535608164	-0.09611210816	
566.25	-0.06617053918	-0.1451868429	
566.875	-0.1752674819	-0.03487212162	
567.5	-0.07272706294	-0.08713689979	
568.125	-0.1655446526	-0.188668544	
568.75	-0.1989308706	0.04087954656	
569.375	-0.1852788706	0.01753594311	
570.0	-0.1220578917	0.2551181595	
570.625	0.03061365199	0.1223179285	
571.25	-0.09755475457	0.1138930281	
571.875	0.1293403422	0.04338677297	
572.5	0.0432754055	0.03408273477	
573.125	0.1489276812	-0.143695468	
573.75	-0.06755213389	-0.1277451129	
574.375	0.0656869624	0.01832953458	
575.0	-0.0002110942115	-0.1231141786	
575.625	0.03172194921	0.01256098763	
576.25	0.1019787728	-0.1454081693	
576.875	-0.08369073653	-0.130823527	
577.5	0.01917988912	-0.06253156817	
578.125	-0.01090711258	-0.2132438915	
578.75	-0.2041847433	-0.06457882828	
579.375	0.012215373	-0.00374070087	
580.0	-0.1054246017	-0.09308278112	
580.625	0.006524728574	0.07148674843	
581.25	-0.2275606245	-0.02719835518	
581.875	0.09015495551	0.2141743337	
582.5	0.05755040541	0.01560405525	
583.125	0.01199892198	0.1818953793	
583.75	0.1278978392	-0.0438584689	
584.375	-0.06383949631	0.09665057958	
585.0	0.1949411237	0.04698522548	
585.625	0.03812404336	-0.04788105051	
586.25	0.1796216547	0.02769435729	
586.875	0.0471533422	-0.2129154915	
587.5	-0.02200257577	-0.04173155998	
588.125	0.0275665828	-0.176644767	
588.75	-0.0421743957	-0.166964777	
589.375	0.0444233022	-0.04698120184	
590.0	-0.03851082345	-0.2503929406	
590.625	-0.1744800187	0.07797934966	
591.25	-0.08505487152	0.01468514662	
591.875	-0.1101771423	0.2293351253	
592.5	0.114492539	-0.02304826649	
593.125	-0.08503612487	0.1737157423	
593.75	0.1207358581	0.006157590911	
594.375	0.05088624588	0.1561249232	
595.0	0.229720705	0.1224339427	
595.625	0.106433347	-0.03920845701	
596.25	0.09370235908	0.1000732566	
596.875	0.1909457689	-0.04799343983	
597.5	0.08588863424	0.005723297455	
598.125	0.1474954132	0.1655971332	
598.75	0.1930691909	-0.00219650266	
599.375	0.1114260062	-0.02261264881	
600.0	0.1991578461	-0.1154294391	
600.625	0.1027331014	-0.2122038171	
601.25	-0.003592248197	-0.1090592891	
601.875	-0.01988038918	-0.1875264558	
602.5	-0.1648622868	0.06831735281	
603.125	-0.01966004496	-0.02571136983	
603.75	-0.1885413437	0.07057387437	
604.375	0.0642502677	0.1030382468	
605.0	-0.1103981989	-0.02515093559	
605.625	-0.08778304898	0.1564526913	
606.25	-0.0474483735	-0.05083658058	
606.875	-0.2358754334	0.1337160981	
607.5	-0.05904217968	0.1939833952	
608.125	-0.02929297789	0.1261617286	
608.75	0.1690348608	0.2253813661	
609.375	0.1900744101	-0.05210107443	
610.0	0.08886033271	-0.04860840355	
610.625	0.1586274585	-0.1916458257	
611.25	-0.0662219121	-0.1497370562	
611.875	-0.02560157616	-0.06622906382	
612.5	-0.2351435122	-0.09710328789	
613.125	-0.08837067137	0.1231704935	
613.75	-0.1426359974	0.02783530819	
614.375	0.09764330643	0.1927325736	
615.0	-0.03556165302	-0.06599812272	
615.625	-0.03965288944	0.2114493141	
616.25	0.08700354628	0.1023255487	
616.875	-0.1245763096	0.07354477951	
617.5	0.0184437501	0.2338586501	
618.125	0.07708885962	0.1327839094	
618.75	-0.06157693656	0.1475470889	
619.375	0.1596891684	0.2064032728	
620.0	0.2220210866	-0.008955261294	
620.625	0.1211271884	-0.1006578481	
621.25	-0.03321648197	-0.2430697215	
621.875	-0.1312213367	0.0082014603	
622.5	-0.09897822108	-0.06890967744	
623.125	-0.03028154755	0.2433563302	
623.75	0.08661039795	-0.04733147698	
624.375	0.1045729656	0.016199363	
625.0	-0.03372181795	-0.09334482913	
625.625	0.09236779947	-0.02371600201	
626.25	-0.08248588056	-0.1883921532	
626.875	-0.1305457974	0.008886033695	
627.5	-0.08493292656	-0.09419100951	
628.125	-0.1720000153	-0.0609490088	
628.75	-0.03878531851	-0.03818136687	
629.375	-0.06870544907	-0.1493473182	
630.0	-0.2228893526	-0.03591266355	
630.625	-0.1416978418	0.04007199004	
631.25	-0.1859269063	0.1856131866	
631.875	0.003313867395	0.2866868167	
632.5	0.1737745673	0.08406234344	
633.125	0.1688687807	0.143426013	
633.75	0.1922549296	-0.1435128966	
634.375	-0.001889182185	-0.008950888413	
635.0	0.01424558949	-0.2090210445	
635.625	-0.1838402397	0.02922060391	
636.25	-0.09661356688	-0.01974433379	
636.875	-0.1046841254	0.1970535092	
637.5	0.07610517153	0.06199891538	
638.125	-0.1393338598	0.05226655716	
638.75	0.0005700113539	0.2322626912	
639.375	0.00637555472	0.108406575	
640.0	0.07041407068	0.2989800028	
640.625	0.3072914824	0.07969597665	
641.25	0.1779536122	-0.07277228259	
641.875	0.2342411339	-0.129093551	
642.5	-0.09501370481	-0.2760840383	
643.125	-0.07155328253	0.02272823697	
643.75	-0.1634635149	-0.1867390954	
644.375	-0.1388703092	0.1327881496	
645.0	-0.08394471408	-0.08054646409	
645.625	0.06307602887	0.3381825559	
646.25	0.1765514797	-0.1372057643	
646.875	-0.01160077371	0.1225180064	
647.5	0.1886900155	-0.09599159602	
648.125	-0.0001196781429	0.1123576858	
648.75	0.4480865727	-0.06302172553	
649.375	0.06372294482	-0.3133265392	
650.0	0.1420135611	-0.1337171754	
650.625	0.2767272943	-0.3338278264	
651.25	-0.01996078952	-0.32241859	
651.875	0.2024258881	0.01743671919	
652.5	0.3827132778	-0.1619977015	
653.125	0.1234055637	-0.1844493264	
653.75	0.2064002182	-0.03627494211	
654.375	-0.08166400009	-0.3993212246	
655.0	-0.2676087023	0.08304563086	
655.625	-0.1702285629	0.04063825202	
656.25	-0.02011253928	0.3836205615	
656.875	0.09842006198	-0.1144711618	
657.5	0.004770150549	0.2190648679	
658.125	0.2857152715	-0.009932026852	
658.75	0.06987720868	0.09918910722	
659.375	0.4792163129	-0.1151423007	
660.0	0.02487678302	-0.3711002983	
660.625	0.1845718369	-0.1259088864	
661.25	0.2219305089	-0.3386706234	
661.875	0.06024406039	-0.3300528015	
662.5	0.1810577963	-0.04458427096	
663.125	0.3458847813	-0.252855434	
663.75	0.009704453681	-0.2599509758	
664.375	0.06039286788	-0.2467359575	
665.0	-0.331187219	-0.2414233442	
665.625	-0.1979960384	0.1491958697	
666.25	-0.1564020255	0.1521805757	
666.875	0.1565975512	0.2685600341	
667.5	0.1365013033	-0.01829252026	
668.125	0.2002202972	0.09291287061	
668.75	0.1946457051	-0.3104404211	
669.375	-0.007824652536	-0.1101977437	
670.0	0.1012149952	-0.2076382114	
670.625	-0.1011944789	-0.2615155244	
671.25	0.09189865657	0.04344534367	
671.875	0.2193882119	-0.2364480064	
672.5	0.08573762286	-0.1881818904	
673.125	0.171828574	-0.05725630427	
673.75	0.2306902095	-0.3217702549	
674.375	-0.0929823852	-0.2164655058	
675.0	0.02211911813	-0.1793199658	
675.625	-0.2243701368	-0.1940010214	
676.25	-0.1215035944	0.09622069351	
676.875	-0.06884132387	-0.1035555169	
677.5	-0.2245123885	0.1051475219	
678.125	-0.01622440367	0.09556901701	
678.75	-0.09841892148	0.2017582014	
679.375	0.3351581709	0.06127991279	
680.0	-0.02433793437	-0.10129351	
680.625	0.2493171348	0.0548870811	
681.25	0.0909633891	-0.175158829	
681.875	-0.1029615996	0.2415843861	
682.5	0.4055814277	0.2087545938	
683.125	0.1976102655	-0.1369724737	
683.75	0.1442774533	0.2032597099	
684.375	0.4133856992	0.01965969893	
685.0	0.1214678558	-0.1137435874	
685.625	0.168356514	0.1910677261	
686.25	0.2750665179	-0.1860853778	
686.875	0.1583944484	-0.1229240346	
687.5	0.3212631529	-0.1535989814	
688.125	-0.1398480066	-0.5572388431	
688.75	-0.2614600522	-0.1102759214	
689.375	-0.3583513306	0.2105815778	
690.0	0.1525388206	0.4097156544	
690.625	0.1385769738	0.04705981889	
691.25	0.2634531392	0.4766211842	
691.875	0.5578291201	0.1052607379	
692.5	0.2423335429	0.2609371967	
693.125	0.7505104561	0.1182333755	
693.75	0.4993187536	-0.4588323804	
694.375	0.3862552417	-0.07982061936	
695.0	0.554752045	-0.3819215747	
695.625	0.175633032	-0.05829073194	
696.25	0.3015894731	0.2265302023	
696.875	0.4939982533	0.4885863068	
697.5	0.3518907835	0.2314384289	
698.125	0.5540352335	0.166368821	
698.75	0.4757035291	-0.3883372573	
699.375	-0.4284325558	-0.3541364325	
700.0	-0.1908567518	0.1589152702	
700.625	0.1186154855	0.4265034753	
701.25	0.2185829085	0.007091327224	
701.875	0.08921906821	0.2555957243	
702.5	0.4701203019	0.25369044	
703.125	0.2172352082	-0.06528452144	
703.75	0.3661077397	0.06176916603	
704.375	0.32793858	-0.2846376766	
705.0	0.0597632558	-0.09839436588	
705.625	0.317056906	0.1042189697	
706.25	0.2963189535	0.06014099073	
706.875	0.09209646617	0.1901984978	
707.5	0.2825734284	0.2709725875	
708.125	0.458226087	0.01726097802	
708.75	0.1715774052	-0.3885487749	
709.375	-0.2229442232	-0.3165184838	
710.0	-0.2135779473	0.2617164038	
710.625	0.02385468843	0.01527419455	
711.25	0.02428488243	0.3273246629	
711.875	0.1319792576	-0.05934286273	
712.5	0.1658327325	0.1450462652	
713.125	0.3304262555	-0.2312673864	
713.75	-0.0354415262	-0.2364204495	
714.375	0.115954136	-0.1446108457	
715.0	-0.08832503262	-0.2824353162	
715.625	-0.04437257087	-0.09459802888	
716.25	0.2319188809	-0.1645363288	
716.875	0.2933907052	-0.3426839278	
717.5	0.227195385	0.005828620041	
718.125	0.6387486094	0.1578615805	
718.75	0.684914233	-0.3906793156	
719.375	0.4011079304	-0.5341055573	
720.0	0.6480261895	-0.7826462816	
720.625	-0.2410238799	-0.7391644643	
721.25	0.1438015235	-0.6316835623	
721.875	-0.05699471098	-1.177836946	
722.5	-0.8244006975	-0.4737088908	
723.125	-0.1041257818	-0.09341591395	
723.75	-0.5279048042	0.4876941093	
724.375	0.3414976936	0.3104154896	
725.0	-0.0340575039	0.2412572871	
725.625	0.2759909359	0.5808246438	
726.25	0.2261940927	0.3475695733	
726.875	-0.316169358	0.6732735441	
727.5	-0.00222594409	1.483386191	
728.125	0.54286797	1.30705133	
728.75	-0.7593906985	1.607062396	
729.375	-0.2890573509	3.885002692	
730.0	1.422587111	2.55157013	
730.625	-1.062143879	2.95481861	
731.25	0.2318322889	4.295001274	
731.875	-0.7130189404	1.513714735	
732.5	-2.647711594	-0.5419003774	
733.125	-2.597234057	0.9851598915	
733.75	-0.1929821978	0.830431157	
734.375	0.5153460157	0.7263444238	
735.0	-0.4887018087	-1.041353378	
735.625	-0.05712810174	0.07871757004	
736.25	-0.2784989089	0.5692060471	
736.875	0.6900073369	0.3907793818	
737.5	0.09630606713	0.09778496749	
738.125	1.815091505	-0.01259509039	
738.75	1.06051594	-1.75994862	
739.375	0.6350270184	-0.6267043086	
740.0	3.92761074	0.7866418765	
740.625	2.841467948	-3.794495787	
741.25	-2.039416955	-0.1633448681	
741.875	-4.981469811	0.8829243883	
742.5	-1.114564054	0.260612174	
743.125	1.485857667	-0.949419118	
743.75	-0.07625259071	-1.360185566	
744.375	-0.3820391417	0.2779419757	
745.0	-0.1277078013	0.001634360338	
745.625	0.06092943758	-0.1253137987	
746.25	0.07997894597	-0.03961377848	
746.875	-0.2650372311	0.006664245036	
747.5	0.01086871112	0.2933187388	
748.125	-0.02052100363	0.2960837359	
748.75	0.2598131462	0.4827405842	
749.375	0.241244062	0.2940954363	
750.0	-0.2630864471	0.07178654363	
