!Created with skrf (http://scikit-rf.org).
# GHz S RI R (50+0j) 
!freq	ReS11	ImS11	
500.0	-0.2428427063	-1.048660991	
500.625	0.2701671145	-0.328799476	
501.25	-0.4373698877	-0.7827416023	
501.875	-0.281489937	-0.1814593783	
502.5	0.03178346279	-0.1392503629	
503.125	-0.07304339619	0.03856726216	
503.75	-0.02556430842	0.006379153141	
504.375	0.05442214188	-0.003632903477	
505.0	-0.02254201922	-0.005040035117	
505.625	0.04447355386	-0.05189611404	
506.25	-0.1361888512	-0.03156628576	
506.875	0.03356745748	-0.120912758	
507.5	-0.3505858254	-0.4648603383	
508.125	-0.02302822722	-0.1852152789	
508.75	0.8850853648	-0.8845029582	
509.375	-0.5757761078	-1.115084767	
510.0	-0.1257336853	-0.04326484909	
510.625	-0.07086635719	-0.2319576732	
511.25	-0.1068498491	-0.009335675915	
511.875	-0.04226303806	-0.04395343069	
512.5	-0.02331687572	0.04906418085	
513.125	-0.04589645808	-0.03435160901	
513.75	0.002509732891	-0.0579889953	
514.375	-0.1621243481	0.02999218545	
515.0	0.2841535048	0.02723762657	
515.625	-0.4823114514	-0.4250221455	
516.25	-0.1483302652	-0.03609856829	
516.875	-0.1827417681	-0.6807009638	
517.5	-0.1528016877	-0.1680979899	
518.125	0.03854382939	0.005763025679	
518.75	-0.1304784074	-0.1689091485	
519.375	-0.03946995398	0.01244753744	
520.0	0.07997475768	0.07375158908	
520.625	0.1471238931	-0.08540212766	
521.25	-0.1154195817	-0.1445172135	
521.875	-0.1127989798	0.01222851194	
522.5	-0.08529274963	0.04357646191	
523.125	0.06158406981	-0.01840853204	
523.75	-0.1568088187	-0.07594368533	
524.375	-0.1154274551	0.1786807496	
525.0	-0.05727066173	0.006844600578	
525.625	0.04198361498	0.1307734519	
526.25	-0.0475323302	-0.08678067675	
526.875	-0.02286072292	0.1027296904	
527.5	0.01053309164	0.05938007201	
528.125	0.005174602922	0.2773915864	
528.75	0.106042201	0.2795172156	
529.375	0.01395217258	0.05781484964	
530.0	0.05684704565	0.2472724584	
530.625	0.1098547065	0.1923483293	
531.25	0.2864533353	-0.004899752389	
531.875	0.2526816025	-0.2198366519	
532.5	-0.07125283876	-0.001048039921	
533.125	0.192882795	-0.04896762482	
533.75	-0.02448079706	-0.1198819889	
534.375	0.04046591104	-0.1815930929	
535.0	-0.2720065743	-0.08157568902	
535.625	-0.06155577012	0.1071492936	
536.25	-0.02716387144	0.08315764142	
536.875	0.105019089	-0.01278611253	
537.5	0.02928029309	-0.0137110648	
538.125	0.1513455936	-0.06204788322	
538.75	0.05122847186	-0.1236147533	
539.375	-0.0271633945	-0.1228959079	
540.0	-0.1754650257	-0.1546248258	
540.625	-0.1565404202	0.003867409105	
541.25	-0.04388164405	0.01859679629	
541.875	-0.08192217	-0.002637597395	
542.5	0.01104998554	-0.03871833026	
543.125	-0.05566280525	-0.1055451626	
543.75	-0.08636447944	0.07874940213	
544.375	-0.05394241173	-0.04853909155	
545.0	0.01420893532	0.09717599302	
545.625	0.01273181234	-0.0008493831137	
546.25	0.1099290739	0.07194821726	
546.875	0.09774801223	-0.1046026081	
547.5	0.04895083166	-0.05579787619	
548.125	-0.03741315001	-0.1978372228	
548.75	-0.1392060446	-0.0312061821	
549.375	-0.05171103999	-0.08047407959	
550.0	-0.1094567806	0.02756583591	
550.625	-0.00583704719	-0.000568686221	
551.25	-0.09903078777	0.03503128797	
551.875	-0.03904910115	0.08608624677	
552.5	-0.03822263351	0.04986403468	
553.125	-0.01292501968	0.07607758188	
553.75	0.03965593461	0.02642650898	
554.375	0.08786797111	0.004567051137	
555.0	0.07861834185	-0.07603173504	
555.625	0.06712984305	-0.09621609561	
556.25	0.04982533674	-0.1307212265	
556.875	-0.04693170704	-0.1422249841	
557.5	-0.09391332962	-0.08091959225	
558.125	-0.1049151259	-0.02987857118	
558.75	-0.1030559394	0.00644515738	
559.375	-0.09151309009	0.0351033285	
560.0	-0.0825175261	0.06201071441	
560.625	-0.04462064675	0.1189991238	
561.25	0.02609473324	0.07130243879	
561.875	0.008184472643	0.07048094481	
562.5	0.04062556197	0.01947643873	
563.125	0.04073742497	0.08556849064	
563.75	0.158392613	-0.02700208326	
564.375	0.06280722156	-0.09647444277	
565.0	0.09341307517	-0.1136024986	
565.625	-0.07847662127	-0.165513616	
566.25	-0.07859845695	-0.05612923429	
566.875	-0.1301415825	-0.1335345769	
567.5	-0.1705629216	-0.03562436072	
568.125	-0.07413915993	-0.1281621264	
568.75	-0.3053709338	-0.08203911044	
569.375	-0.1067516922	0.1545010648	
570.0	-0.1332860495	0.1184716323	
570.625	-0.04769904456	0.2333620954	
571.25	0.05105265327	0.03140474989	
571.875	0.0442141568	0.153584376	
572.5	0.1033282066	-0.09691531841	
573.125	0.06547120085	-0.01514108179	
573.75	0.09028081798	-0.2080050768	
574.375	-0.09231955428	-0.02435199916	
575.0	0.1163052519	-0.009837957765	
575.625	-0.03835276638	-0.1191965808	
576.25	0.03821047624	-0.0151230006	
576.875	0.03374743338	-0.2024002176	
577.5	-0.09969407228	-0.1470621373	
578.125	0.005390962543	-0.07068220353	
578.75	-0.07469292655	-0.195801464	
579.375	-0.179424626	0.05147748701	
580.0	0.04973398594	-0.05148830881	
580.625	-0.1607185751	0.00294780654	
581.25	0.04098572275	0.02203471196	
581.875	-0.1155324795	0.1704298463	
582.5	0.1576354685	0.1787449402	
583.125	0.02834402162	-0.05581418059	
583.75	0.06669223105	0.1346047484	
584.375	0.04310282453	-0.05908845271	
585.0	0.08746525049	0.1740460157	
585.625	0.2071939656	-0.08509834095	
586.25	0.02051298194	-0.03507708906	
586.875	0.1465426319	-0.1108922342	
587.5	-0.09243258422	-0.1755485891	
588.125	-0.00970327928	-0.03051663677	
588.75	0.09373296227	-0.1659733479	
589.375	-0.0300295996	-0.1872911662	
590.0	0.01359036631	-0.06118749652	
590.625	-0.2601195362	-0.08761088018	
591.25	0.0007405031791	0.1590553244	
591.875	-0.06537796463	0.02688708868	
592.5	0.06956406274	0.1862973687	
593.125	-0.06290696421	-0.07919131452	
593.75	0.1618094087	0.2407707339	
594.375	0.1431655666	-0.03429205992	
595.0	0.07878260574	0.1595259	
595.625	0.2482916668	0.08412927713	
596.25	0.09550944392	-0.05300337522	
596.875	0.1106119423	0.1117158409	
597.5	0.179398858	-0.01363046724	
598.125	0.06727999593	0.04876826321	
598.75	0.1882196763	0.1177288305	
599.375	0.1774797761	-0.1140695484	
600.0	0.08721423644	-0.09302546788	
600.625	0.1765950965	-0.1553262883	
601.25	0.02162176354	-0.2304060434	
601.875	-0.06370433936	-0.03508638403	
602.5	-0.1803095218	-0.1276266653	
603.125	-0.04769308862	0.1425584374	
603.75	-0.0556931997	-0.01429944068	
604.375	-0.1759300127	0.1351339656	
605.0	0.08663182685	0.01492017049	
605.625	-0.1588953264	0.01800044469	
606.25	-0.06057623692	0.1659938145	
606.875	-0.1698627438	-0.03374657853	
607.5	-0.2187894408	0.2101073757	
608.125	0.09378179584	0.2364811539	
608.75	0.08206393201	0.09438375952	
609.375	0.2493209118	-0.04417034623	
610.0	0.1365754652	-0.1237959338	
610.625	0.04636976019	-0.07027200096	
611.25	0.01802477101	-0.2281126837	
611.875	-0.1468018515	-0.07111265829	
612.5	-0.08220917893	-0.1022130121	
613.125	-0.2901186636	0.0308582385	
613.75	0.03082259269	0.1371087035	
614.375	-0.05473161146	0.1058393163	
615.0	0.1424777749	0.05041764996	
615.625	-0.1045939668	0.04395598092	
616.25	-0.06401012154	0.2416529051	
616.875	0.07176701402	0.1742561501	
617.5	-0.1206754761	0.1079626934	
618.125	0.07796464127	0.1258168178	
618.75	0.0525391354	0.110792573	
619.375	0.005103580047	0.1517951849	
620.0	0.2428592564	-0.01328094792	
620.625	0.04353187319	-0.2457425067	
621.25	-0.07613802482	-0.1460498351	
621.875	-0.2408160273	-0.07454777778	
622.5	-0.1144792757	0.09730104523	
623.125	-0.08951627013	0.05673940399	
623.75	0.182908911	0.0531550706	
624.375	-0.03860128242	-0.03421934477	
625.0	0.1140259888	-0.03786859092	
625.625	-0.04573335456	-0.08785212634	
626.25	0.01843077214	-0.1121643165	
626.875	-0.1903222305	-0.1008285182	
627.5	-0.1154176886	0.03478337208	
628.125	-0.05548664069	-0.1116374431	
628.75	-0.1262149274	-0.1119106479	
629.375	-0.06106571967	-0.08816681195	
630.0	-0.1530568712	-0.09644113868	
630.625	-0.2277535847	0.1021927601	
631.25	-0.06287565487	0.1709481015	
631.875	-0.03824782623	0.2282592735	
632.5	0.2187974466	0.2352161191	
633.125	0.1507497979	-0.02599803441	
633.75	0.1854018308	0.07741421793	
634.375	0.01071794784	-0.232710421	
635.0	0.0155777814	-0.07497008935	
635.625	-0.1899849953	-0.1500643061	
636.25	-0.06280642108	0.166554339	
636.875	-0.05061845426	0.03495051854	
637.5	-0.08360088383	0.1734332853	
638.125	0.05328590922	0.02789762066	
638.75	-0.1431809794	0.1533200775	
639.375	0.1081685047	0.2949702605	
640.0	0.1243569231	0.09443372788	
640.625	0.1963242838	0.1948941616	
641.25	0.3031183534	-0.1175226474	
641.875	0.0171420091	-0.1756430525	
642.5	0.06467021762	-0.2121860634	
643.125	-0.2766386497	-0.1331904488	
643.75	-0.01102546329	0.001596157005	
644.375	-0.2742123654	-0.06455218438	
645.0	-0.01692632382	0.2690733841	
645.625	-0.07231362308	0.03429046279	
646.25	0.2423350417	0.1737803468	
646.875	-0.04934422074	-0.2422015829	
647.5	0.04340451399	0.2238876993	
648.125	0.1972040979	-0.1113102755	
648.75	0.08477474238	0.0137712799	
649.375	0.3881487035	-0.2702719633	
650.0	-0.03759090857	-0.3866166336	
650.625	0.09555102438	-0.1150644042	
651.25	0.311532203	-0.279938455	
651.875	0.05616959546	-0.3147827718	
652.5	0.1792660146	0.03558028604	
653.125	0.3620708506	-0.1878847697	
653.75	-0.004304618071	-0.2576702535	
654.375	0.04426916783	-0.1184259801	
655.0	-0.4076244302	-0.1483589697	
655.625	-0.02455071004	0.2341209261	
656.25	-0.06013522087	0.0275742205	
656.875	0.1883678007	0.2452758775	
657.5	-0.0532938992	-0.06416080582	
658.125	0.1862359865	0.3414581241	
658.75	0.300412087	-0.1798239234	
659.375	0.1285982529	-0.05940983963	
660.0	0.3713057274	-0.3350758467	
660.625	-0.08034811712	-0.4304245538	
661.25	0.1075679574	-0.09696982515	
661.875	0.2867645193	-0.2846654596	
662.5	0.1168273883	-0.3052548585	
663.125	0.1549703814	-0.07774702666	
663.75	0.1917300385	-0.4048297923	
664.375	-0.185327926	-0.2040539435	
665.0	-0.1483687145	-0.183827316	
665.625	-0.3717107403	0.1227027751	
666.25	0.05281842836	0.2587727961	
666.875	-0.01076794644	0.1303121917	
667.5	0.2837547199	0.1141896687	
668.125	0.1160740568	-0.1034032632	
668.75	0.2086785824	-0.03894484014	
669.375	0.001208539716	-0.3900545946	
670.0	-0.05814930625	-0.05886574302	
670.625	0.09324728344	-0.1896439265	
671.25	-0.1108910166	-0.2588875797	
671.875	0.07328741372	0.01536876512	
672.5	0.3071770264	-0.2255316994	
673.125	0.06932963561	-0.2628468366	
673.75	0.1061670229	-0.106950249	
674.375	0.08279645569	-0.3305947746	
675.0	-0.2444474331	-0.1228283457	
675.625	-0.0441250145	-0.1018501351	
676.25	-0.2727626073	-0.04344390999	
676.875	-0.05249778896	0.1068770981	
677.5	-0.1175139516	-0.07859621425	
678.125	-0.1475227477	0.2742058674	
678.75	0.1546289254	0.07241868373	
679.375	0.08725655568	0.1510852104	
680.0	0.2646339131	-0.1835015848	
680.625	-0.1738773698	-0.04199830465	
681.25	0.2591845735	0.08873924144	
681.875	0.1640887683	-0.1487235286	
682.5	-0.04520198676	0.1999598445	
683.125	0.4033955651	0.2033549874	
683.75	0.2716146435	-0.2250690824	
684.375	0.2300548565	0.3109745393	
685.0	0.4340201496	0.02060472468	
685.625	0.2048289805	-0.1792050349	
686.25	0.2106532645	0.1176315884	
686.875	0.2530961206	-0.3535567012	
687.5	0.07004058691	-0.1725898542	
688.125	0.0320851781	-0.4059219456	
688.75	-0.5388602032	-0.06729061179	
689.375	-0.0782293358	0.2798725489	
690.0	-0.04070385856	0.3707529401	
690.625	0.4145226984	0.2482416665	
691.25	0.1887202704	0.06190322872	
691.875	0.3868855311	0.4267753804	
692.5	0.7223975813	-0.03911941655	
693.125	0.3177844741	0.08330056916	
693.75	0.6654304644	-0.2011184341	
694.375	0.2603393001	-0.5946468588	
695.0	0.3876843879	0.01043443472	
695.625	0.6903759846	-0.06794751707	
696.25	0.1768415171	0.09088200565	
696.875	0.2909004838	0.3654172346	
697.5	0.4809459708	0.47413532	
698.125	0.5147609186	-0.0127171365	
698.75	0.2281652964	-0.5432121716	
699.375	-0.4390221702	-0.2922661066	
700.0	-0.2021498442	0.448490827	
700.625	0.07455585019	0.1387508757	
701.25	0.1848017994	0.3575867444	
701.875	0.2623304685	0.05602054435	
702.5	0.1915451223	0.2516715912	
703.125	0.4984293288	0.09798571749	
703.75	0.180134159	-0.2300852258	
704.375	0.253974716	-0.02551920675	
705.0	0.2919793958	-0.2537807288	
705.625	0.1252575283	0.02239022628	
706.25	0.2560589528	0.2620782562	
706.875	0.2681483372	0.167056588	
707.5	0.1707834238	0.2625311045	
708.125	0.3988577854	-0.006308484735	
708.75	0.109063797	-0.432320449	
709.375	-0.4809374427	-0.1112397381	
710.0	-0.1079740188	0.1557436288	
710.625	0.1984568879	0.0974028442	
711.25	0.03030674375	0.07663444247	
711.875	0.2759046145	0.1502621086	
712.5	0.2654232758	-0.1953038577	
713.125	0.1505039056	-0.01253366055	
713.75	0.1416668463	-0.3046519353	
714.375	-0.1218389896	-0.1904045468	
715.0	0.05447082279	-0.1006063117	
715.625	-0.01108130298	-0.3111250012	
716.25	0.02317138864	-0.2013725705	
716.875	0.3030013852	-0.07811979767	
717.5	0.5424416878	-0.1321513615	
718.125	0.3848787671	-0.08545288555	
718.75	0.7376288855	-0.02801459459	
719.375	0.4747356132	-0.7016802473	
720.0	-0.0622336016	-0.7526865052	
720.625	0.2510188727	-0.8394642218	
721.25	-0.5440749708	-0.8724485158	
721.875	-0.2999918098	-0.4608098678	
722.5	-0.5406495092	-0.9421613394	
723.125	-0.8942742693	0.1777214975	
723.75	-0.05475212495	0.2544636724	
724.375	-0.0767886198	0.5163049371	
725.0	0.4426391837	0.1090195066	
725.625	-0.01585150293	0.2912014042	
726.25	0.06253189654	0.8009380136	
726.875	0.3235272642	0.7044267744	
727.5	-0.2436258107	0.7600438037	
728.125	0.03416250651	2.119036978	
728.75	0.8824344285	2.270589415	
729.375	-0.5291976091	1.649993042	
730.0	0.4497298229	4.472730049	
730.625	2.25723338	2.780001195	
731.25	-0.7195915583	1.961215732	
731.875	-2.069337708	3.578812496	
732.5	-1.101906393	2.867111935	
733.125	-1.819467184	0.04371320518	
733.75	-0.4659324026	1.732769756	
734.375	0.7576822193	-0.1585913605	
735.0	0.1103434072	-0.3143233162	
735.625	-0.8851048244	0.5231541918	
736.25	0.2577709383	0.01318396799	
736.875	0.2125068461	0.6520604496	
737.5	1.264712116	-0.2092377313	
738.125	0.4132580148	-0.5392346626	
738.75	2.059223324	-0.1793729506	
739.375	1.907325033	-3.078910303	
740.0	-0.4861314392	-1.043770521	
740.625	2.646706414	2.488311151	
741.25	4.778317923	1.762658773	
741.875	0.004360644835	-2.542201685	
742.5	-1.566413077	-2.894241942	
743.125	-1.15154104	-1.13603785	
743.75	0.2352463872	-0.2018893855	
744.375	-0.6564240909	-0.1847626322	
745.0	0.22327576	-0.05356167865	
745.625	0.07757146336	0.07429874631	
746.25	-0.1782012974	-0.1064147602	
746.875	-0.06420408059	-0.004565078217	
747.5	-0.1320414574	0.3196281913	
748.125	0.3074033786	0.4003383595	
748.75	0.1584146938	0.2411574089	
749.375	0.07977851318	0.50779251	
750.0	-0.1661298432	0.3436057899	
