!Created with skrf (http://scikit-rf.org).
# GHz S RI R (50+0j) 
!freq	ReS11	ImS11	
500.0	0.2129005751	-2.954160368	
500.625	-1.783178619	-4.729686139	
501.25	-0.8658253258	-1.732939877	
501.875	-1.913296808	-0.5711724532	
502.5	-0.09719679981	-0.3257808982	
503.125	-0.2659892158	0.1081432204	
503.75	0.2466782302	0.107608163	
504.375	0.03284880236	0.1122594757	
505.0	0.06449236658	-0.2018060611	
505.625	-0.07950663184	0.04553484056	
506.25	-0.04045867966	-0.4790891778	
506.875	0.1925642202	0.6156781673	
507.5	-0.2674305086	-2.058870101	
508.125	-1.103408987	-0.8207463862	
508.75	3.191910919	-2.467287949	
509.375	-2.080070159	-3.99146707	
510.0	-0.7927258807	0.5008543312	
510.625	-0.1691994725	-0.6693198265	
511.25	-0.4621024558	0.07879295739	
511.875	-0.4452975096	0.05152552866	
512.5	-0.09364351734	0.02460283478	
513.125	-0.03421657346	-0.2861408998	
513.75	-0.1536662758	-0.03856970868	
514.375	-0.2762065241	-0.1810438066	
515.0	-0.3171685819	0.7541142449	
515.625	-0.09989409554	-3.532117786	
516.25	-2.586838242	0.3539023991	
516.875	0.8949799406	-1.02703016	
517.5	-0.6178458881	-1.087543088	
518.125	0.1974903879	0.1931396365	
518.75	-0.5777990044	-0.9456396386	
519.375	0.006795967876	0.1415811349	
520.0	0.2335079014	0.3181734666	
520.625	0.5176512982	-0.3985851708	
521.25	-0.2021269336	-0.363207256	
521.875	-0.39559483	-0.3024029851	
522.5	0.01966444948	0.164653962	
523.125	-0.3859433674	0.07457499061	
523.75	-0.01567412969	0.1252039059	
524.375	-0.5800005923	-0.1621853559	
525.0	0.2894101154	0.4551535681	
525.625	-0.1366463646	0.04276899645	
526.25	0.195300451	-0.04692536979	
526.875	-0.3642192634	0.2003147095	
527.5	0.2319472104	0.4960675665	
528.125	-0.2161941005	0.550008453	
528.75	0.2754571696	1.005799226	
529.375	-0.007315070243	-0.04863023673	
530.0	0.3429478183	0.7001037998	
530.625	0.2410571785	0.420577929	
531.25	1.362971902	0.4749059305	
531.875	0.03290078705	-0.5588598825	
532.5	0.1315013001	-0.5917596018	
533.125	-0.3743459135	0.5440846821	
533.75	0.5050747091	-1.169967755	
534.375	-0.5939575076	-0.1636195008	
535.0	-0.404371402	-0.5097786492	
535.625	-0.4127843034	0.6720945359	
536.25	-0.04702989995	0.07366165065	
536.875	0.3784156006	0.1151246969	
537.5	0.02451046516	-0.1776819237	
538.125	0.3333879739	0.08430213667	
538.75	0.3400630762	-0.5115696142	
539.375	-0.1538615459	-0.2353953002	
540.0	-0.3171558047	-0.3606124109	
540.625	-0.4063121501	-0.0886168084	
541.25	-0.2077325536	0.08085138192	
541.875	-0.07598172831	-0.1113112119	
542.5	-0.1320224523	-0.03673329391	
543.125	-0.1368901691	-0.1410693375	
543.75	-0.294234766	0.0523133654	
544.375	0.04100514206	0.06030251144	
545.0	-0.1703605176	0.2307758171	
545.625	0.3347215184	-0.04758311395	
546.25	-0.05431479155	0.2249916972	
546.875	0.5043992239	-0.2082546917	
547.5	-0.0244636416	-0.144789292	
548.125	0.078962536	-0.4889747336	
548.75	-0.499614781	-0.1693611867	
549.375	-0.06093557336	-0.09740629448	
550.0	-0.3241905427	-0.04074598905	
550.625	-0.00906661271	0.1113506357	
551.25	-0.2507144708	-0.04051285895	
551.875	-0.139850983	0.2827493941	
552.5	-0.0565018408	0.1209842858	
553.125	-0.04726801089	0.193006887	
553.75	0.1160470201	0.07351155081	
554.375	0.2204986622	0.009829066343	
555.0	0.216932268	-0.1868436372	
555.625	0.1700872131	-0.2475625895	
556.25	0.1508657865	-0.3307070013	
556.875	-0.09646193652	-0.3742807854	
557.5	-0.2454701505	-0.2186567619	
558.125	-0.2546221826	-0.07542102129	
558.75	-0.2613186238	-0.01409486027	
559.375	-0.2408984395	0.09257064894	
560.0	-0.204348157	0.1275362225	
560.625	-0.1365013818	0.3163557231	
561.25	0.08911876369	0.1523275648	
561.875	-0.007165383623	0.1725898538	
562.5	0.135657306	0.06500120477	
563.125	0.03353571874	0.1587044316	
563.75	0.4339395605	0.0254192336	
564.375	0.162569235	-0.3017422725	
565.0	0.2194132278	-0.2254364527	
565.625	-0.1614099757	-0.446317481	
566.25	-0.1764399503	-0.123899502	
566.875	-0.3477530612	-0.2824766084	
567.5	-0.421254318	-0.1062850993	
568.125	-0.1442746071	-0.3365607724	
568.75	-0.6831990799	-0.2626566743	
569.375	-0.4169095094	0.4814887485	
570.0	-0.1812416284	0.1627358231	
570.625	-0.3997629122	0.6583617556	
571.25	0.3342618158	0.09610922917	
571.875	-0.06910155996	0.4253981246	
572.5	0.3362966205	-0.3985924046	
573.125	0.2120815335	0.1453471827	
573.75	0.2533040291	-0.6075070236	
574.375	-0.266599026	-0.0402482627	
575.0	0.3466100928	0.01954231422	
575.625	-0.1247029647	-0.3999828958	
576.25	0.08913099458	0.08298898184	
576.875	0.09820959704	-0.5652133084	
577.5	-0.256811323	-0.3399119247	
578.125	0.1004519379	-0.2026518339	
578.75	-0.239527246	-0.5072630809	
579.375	-0.3199534818	0.06821826937	
580.0	0.08942227409	-0.1226075875	
580.625	-0.4156160872	-0.06487287495	
581.25	0.08916642218	0.1687760134	
581.875	-0.3381020482	0.253656267	
582.5	0.4028500407	0.6440499822	
583.125	0.1134370165	-0.2521422859	
583.75	0.05601322301	0.5139858847	
584.375	0.02688633653	-0.3847833883	
585.0	0.2483924238	0.5804320504	
585.625	0.5095694561	-0.3476682038	
586.25	0.001068959807	-0.07177882012	
586.875	0.4230485622	-0.2460894264	
587.5	-0.2864472907	-0.4829185807	
588.125	0.06467045813	-0.02068256502	
588.75	0.2301841995	-0.5447533547	
589.375	-0.1415142283	-0.2807455383	
590.0	0.176918285	-0.4799123047	
590.625	-0.6014880861	0.1257237586	
591.25	-0.1138161384	0.1207340229	
591.875	-0.2146354077	0.239125477	
592.5	0.02170490788	0.2808059893	
593.125	0.000586284483	-0.1830525187	
593.75	0.05949248452	0.6567411106	
594.375	0.496181212	-0.1606661665	
595.0	-0.00184385936	0.3432827658	
595.625	0.8619719544	0.3424160237	
596.25	-0.07419355013	-0.09957107907	
596.875	0.6024092515	0.3934418999	
597.5	0.4802670532	-0.2116140441	
598.125	-0.08701949072	0.4037221498	
598.75	0.6382372201	0.2858756424	
599.375	0.3798310137	-0.2799786136	
600.0	0.319092405	-0.1385758237	
600.625	0.4500272084	-0.5062646037	
601.25	-0.01145275437	-0.3464838414	
601.875	-0.03728149569	-0.4129451793	
602.5	-0.3658061787	0.09212280416	
603.125	-0.188102976	-0.04897942124	
603.75	-0.2841879157	0.2538652588	
604.375	-0.1794451257	0.118708803	
605.0	-0.05283471532	0.2539573789	
605.625	-0.3464663782	-0.09876946573	
606.25	-0.1661944784	0.5189762858	
606.875	-0.1009559816	-0.1795050805	
607.5	-0.7854840746	0.7821741095	
608.125	0.2767595419	0.2128759371	
608.75	0.1590465271	0.6776214028	
609.375	0.7266302373	-0.5299877225	
610.0	0.1309362244	0.1188544678	
610.625	0.4142080454	-0.6513372193	
611.25	-0.2287749896	-0.1567361194	
611.875	0.01188644421	-0.5308154447	
612.5	-0.434233089	0.1857868729	
613.125	-0.385025699	-0.196082291	
613.75	-0.237648115	0.5943119355	
614.375	0.01978951744	-0.1313063566	
615.0	0.2916255713	0.4116362463	
615.625	-0.06862061028	-0.1659190275	
616.25	-0.3550089395	0.5457218464	
616.875	0.2384045497	0.4559164661	
617.5	-0.4546704019	0.2631463917	
618.125	0.09973709033	0.7283722068	
618.75	0.1059638944	0.1824073482	
619.375	0.2003560429	0.5629088703	
620.0	0.3821383633	-0.08958431026	
620.625	0.32028871	-0.2674313085	
621.25	-0.3468967658	-0.3824909385	
621.875	-0.3083440787	-0.2375054489	
622.5	-0.6458460794	0.2960460077	
623.125	0.04750807175	0.1320873406	
623.75	0.3820225027	0.4143904572	
624.375	-0.1913751851	-0.34266738	
625.0	0.4663041183	0.1255117956	
625.625	-0.3790053819	-0.2311377381	
626.25	0.2743590116	-0.3272199917	
626.875	-0.6693721422	-0.2392251768	
627.5	-0.04074441578	0.1875895895	
628.125	-0.1980099297	-0.5454607479	
628.75	-0.4114880864	-0.1629957989	
629.375	-0.07570743603	-0.2029448007	
630.0	-0.4102312279	-0.3700673133	
630.625	-0.5097967281	0.3449671581	
631.25	-0.245191223	0.2717996424	
631.875	-0.03705731188	0.7071143186	
632.5	0.3854513658	0.2579636192	
633.125	0.3847580592	0.1952905858	
633.75	0.4625168893	-0.2873581093	
634.375	-0.01137978941	-0.2776513817	
635.0	0.07904250468	-0.2265411341	
635.625	-0.4913088405	-0.3672363874	
636.25	-0.2077460368	0.5055275865	
636.875	-0.1444772691	-0.2205540938	
637.5	-0.1739022501	0.6762492961	
638.125	0.0828772026	-0.1909300769	
638.75	-0.4207275944	0.7092077004	
639.375	0.5001137971	0.3250402902	
640.0	-0.1643236139	0.6973702987	
640.625	1.009490468	0.3389423511	
641.25	0.2073452783	-0.3031108845	
641.875	0.3909077168	-0.08729023855	
642.5	0.143814338	-0.872529839	
643.125	-0.5196838377	0.1208591216	
643.75	-0.07142380825	-0.2890271869	
644.375	-0.6127096616	0.09490868587	
645.0	-0.004996920748	0.2569539965	
645.625	-0.1157343534	0.7170999332	
646.25	0.5149027408	-0.105747158	
646.875	0.0152608508	0.05099351892	
647.5	0.4386725831	0.2161206449	
648.125	0.012147247	-0.3509546131	
648.75	0.6512573233	0.4892293161	
649.375	0.8230221196	-1.157241801	
650.0	-0.4019296948	-0.5594000945	
650.625	0.8442644367	-0.1644749738	
651.25	0.4280699519	-1.30826681	
651.875	-0.005544794892	0.06421688541	
652.5	1.227882457	-0.1251794055	
653.125	0.1455290371	-0.7950786939	
653.75	0.4261639643	0.009023681204	
654.375	-0.2243374792	-1.16225774	
655.0	-0.8052893505	0.2947467956	
655.625	-0.08355521508	0.04871844565	
656.25	-0.155384219	0.7128084092	
656.875	0.4696631897	-0.1790839079	
657.5	-0.1445346688	0.5150414424	
658.125	0.6043232271	0.2175916881	
658.75	0.4233517758	-0.04470004427	
659.375	0.8409367598	0.02118844579	
660.0	0.456873663	-1.206711293	
660.625	-0.1283606513	-0.4044058026	
661.25	0.707677987	-0.4657036306	
661.875	0.5130231743	-1.128210413	
662.5	-0.0578474314	-0.1670463077	
663.125	1.136053034	-0.5316705856	
663.75	-0.238251989	-0.793108835	
664.375	0.2214676493	-0.3867027869	
665.0	-0.9734838827	-0.7108079938	
665.625	-0.4392946138	0.6244367597	
666.25	-0.2366558713	0.3044644356	
666.875	0.299753086	0.7220505171	
667.5	0.5027235743	-0.1746549639	
668.125	0.4040448922	0.3083214852	
668.75	0.3641897827	-0.6908718155	
669.375	0.04097502857	-0.263999155	
670.0	0.2586133169	-0.6178023306	
670.625	-0.3071764315	-0.5436944832	
671.25	0.09934344393	-0.09332124774	
671.875	0.5369880584	-0.3607536843	
672.5	0.4215320857	-0.6989985277	
673.125	0.01749680732	-0.3265871304	
673.75	0.7543392686	-0.3054817123	
674.375	-0.5304411045	-0.8222428968	
675.0	0.2009165372	-0.2611338482	
675.625	-0.8142461655	-0.5393244676	
676.25	-0.1935741661	0.6008133624	
676.875	-0.3918700479	-0.640158079	
677.5	-0.5153933311	0.6987244017	
678.125	0.006949914862	0.07105797952	
678.75	-0.1729385301	0.5249421054	
679.375	0.8945173265	0.1442420564	
680.0	-0.1441975712	-0.3185829216	
680.625	0.4581590718	-0.054791424	
681.25	0.1215806257	-0.3511946434	
681.875	0.1092077367	0.5053901095	
682.5	0.8553939394	-0.08149425362	
683.125	0.2536413261	0.06496583571	
683.75	0.5261616136	0.1796282787	
684.375	0.8318009204	0.283742625	
685.0	0.7837869021	-0.6498734413	
685.625	-0.1290023287	0.5401671584	
686.25	1.62079872	-0.4006328349	
686.875	-0.3475802641	-0.5089476658	
687.5	1.266742949	-0.3965536947	
688.125	-1.357167087	-1.210726634	
688.75	-0.01058665478	-0.4770038792	
689.375	-1.152050323	1.344122286	
690.0	0.910193265	0.2046202108	
690.625	-0.02147705813	0.8666124349	
691.25	1.24131989	0.471053183	
691.875	0.8289577513	0.3763108052	
692.5	1.333001064	0.5339127376	
693.125	1.526489659	-0.2675766817	
693.75	1.172700277	-0.514146014	
694.375	0.8788706166	-1.084631201	
695.0	0.8451755971	-0.5253225407	
695.625	1.334524368	-0.5155113117	
696.25	0.780380464	0.05985734871	
696.875	1.232299338	1.385166162	
697.5	1.389302105	-0.03458670189	
698.125	0.9275985503	0.8890138216	
698.75	0.9253177636	-2.012572726	
699.375	-0.6681697862	0.2436440374	
700.0	-1.300432022	0.9689332257	
700.625	0.9713706799	0.2789304429	
701.25	-0.05399523406	0.6074347611	
701.875	1.311414192	0.3656942348	
702.5	0.2645223117	0.3650497675	
703.125	1.264044224	0.4901504248	
703.75	0.5389022401	-0.7543174308	
704.375	0.8532283278	0.1521163922	
705.0	0.5764080865	-0.903293105	
705.625	0.04026765632	0.1475673431	
706.25	1.234475294	0.7974062181	
706.875	0.3480248546	-0.1234468471	
707.5	0.5994594875	1.232643883	
708.125	1.439662637	-0.6041813354	
708.75	0.3612038989	-0.3443323928	
709.375	-1.006806901	-0.8538912554	
710.0	0.006162496637	0.770672198	
710.625	0.06821672014	0.3119292665	
711.25	0.3359885042	0.1165031725	
711.875	0.5541065646	0.2658294315	
712.5	0.6869376192	-0.1917626372	
713.125	0.5034314262	-0.3702452625	
713.75	0.3097381341	-0.7647566807	
714.375	-0.1573289553	-0.2752717198	
715.0	0.2450894643	-0.7688101504	
715.625	-0.5240408559	-0.4321861693	
716.25	0.6109437244	0.1032582222	
716.875	1.582154724	-0.997228743	
717.5	-0.152407479	-0.9923719572	
718.125	2.272031518	1.209725549	
718.75	1.995973541	-2.014597962	
719.375	0.263200492	-0.2005613731	
720.0	2.131029132	-4.290857245	
720.625	-1.447991163	-0.8557080066	
721.25	0.2736548562	-2.742881865	
721.875	-1.143733162	-3.219819819	
722.5	-2.51208073	-0.624626882	
723.125	-1.207285398	-0.2365621286	
723.75	-1.147902554	1.493939352	
724.375	0.5033839732	0.9296092095	
725.0	0.2630213526	0.5917149869	
725.625	0.4340319916	1.546588079	
726.25	0.8190169919	1.057232688	
726.875	-0.867646494	1.950449573	
727.5	0.08984118695	5.03111224	
728.125	3.593140241	2.904635843	
728.75	-5.244615809	4.375697	
729.375	2.134557026	20.44344359	
730.0	6.349726285	2.693936394	
730.625	-8.041247742	11.72522056	
731.25	6.970307635	15.71058365	
731.875	-3.800889706	-1.355304613	
732.5	-11.277853	6.11815372	
733.125	-4.067296499	5.364473462	
733.75	-1.256135727	1.171206891	
734.375	3.204809035	1.735674357	
735.0	-1.561122052	-1.19487373	
735.625	-0.5108747364	-0.007560666727	
736.25	-0.457785048	1.530339183	
736.875	2.139783663	1.006487939	
737.5	0.9860050252	0.9285319969	
738.125	5.217145296	-1.787941143	
738.75	2.336582864	-5.199701743	
739.375	1.827580426	0.9426136735	
740.0	25.96046236	-7.328938823	
740.625	0.5085260238	-14.66268366	
741.25	-24.77242496	1.55390114	
741.875	-15.45615507	13.56236863	
742.5	-0.2136377355	5.572710284	
743.125	7.165140775	-6.254490254	
743.75	-2.730237563	-2.437418728	
744.375	0.1494976909	-0.07157332852	
745.0	0.1821877595	0.8936167329	
745.625	-0.2838474005	0.2071390568	
746.25	-0.01672526976	-0.6046975234	
746.875	-0.4133133737	-0.03929561658	
747.5	0.110311511	0.6060264977	
748.125	-0.1704762068	1.064489962	
748.75	1.038087736	1.491347661	
749.375	0.7793845371	0.4789641172	
750.0	-0.5259326245	0.7552551294	
