!Created with skrf (http://scikit-rf.org).
# GHz S RI R (50+0j) 
!freq	ReS11	ImS11	
500.0	-0.4192238099	-0.896145963	
500.625	0.3500745824	-0.3712741262	
501.25	-0.5079674768	-0.8521983858	
501.875	-0.3244594874	-0.08703875158	
502.5	0.02394666206	-0.1219213758	
503.125	-0.0789196284	0.05710136846	
503.75	-0.01490148791	0.01244616011	
504.375	0.04941839094	-0.004896903833	
505.0	-0.01965237751	-0.005121867172	
505.625	0.03891913137	-0.0842623431	
506.25	-0.1370096212	-0.02510640843	
506.875	0.06626295008	-0.06440764915	
507.5	-0.2327557945	-0.5408650799	
508.125	0.1079733041	-0.06074767319	
508.75	0.8706042399	-0.7991839166	
509.375	-0.7276100472	-0.9788456402	
510.0	-0.155210434	-0.08693326619	
510.625	-0.1903514253	-0.1589102282	
511.25	-0.1065197263	-0.0008534771622	
511.875	-0.08617766598	-0.05950520989	
512.5	-0.0341510294	0.06352038846	
513.125	-0.06094193233	-0.01397141553	
513.75	0.01313325081	-0.03879217028	
514.375	-0.1646590134	0.02028218206	
515.0	0.3377808049	-0.001026584904	
515.625	-0.4208949296	-0.397635614	
516.25	0.1246887864	-0.07048624341	
516.875	-0.2091930055	-0.7378479109	
517.5	-0.1733024831	-0.1725139303	
518.125	0.04412564076	-0.0144122462	
518.75	-0.1015872935	-0.1841520551	
519.375	-0.02118389375	0.03401307484	
520.0	0.1026407971	0.05174801402	
520.625	0.1599710559	-0.08555861687	
521.25	-0.1007961077	-0.1408548069	
521.875	-0.1376743104	0.01364585037	
522.5	-0.07362417198	0.0246464232	
523.125	0.04362668699	0.006556510374	
523.75	-0.1472846237	-0.07197153826	
524.375	-0.1299553908	0.1921708113	
525.0	-0.03963607349	-0.01712662192	
525.625	0.0201107989	0.1285185197	
526.25	-0.03193248795	-0.09065909675	
526.875	-0.02577713279	0.1105708667	
527.5	-0.03599847802	0.05018173149	
528.125	-0.04644344376	0.2626398894	
528.75	0.1306006798	0.2293634454	
529.375	0.001814720844	0.005615976664	
530.0	0.03985564438	-0.03019334798	
530.625	0.1528270738	0.1938326922	
531.25	0.262039158	-0.03138084806	
531.875	0.2498299452	-0.2576013623	
532.5	-0.2536354897	-0.1192831902	
533.125	0.1009528169	-0.1095863742	
533.75	-0.0141333239	-0.06735172615	
534.375	0.001758419814	-0.2418517127	
535.0	-0.3237320447	-0.07441081327	
535.625	-0.05940299716	0.1126666718	
536.25	-0.02529214166	0.07600711725	
536.875	0.1152540987	-0.001046844022	
537.5	0.01770837765	-0.0278620152	
538.125	0.155096949	-0.05262603575	
538.75	0.03818526812	-0.1281655391	
539.375	-0.01080710945	-0.1360347282	
540.0	-0.1788393926	-0.1392071282	
540.625	-0.1241087058	0.02573412257	
541.25	-0.03868139282	0.003942575756	
541.875	-0.09092720819	-0.01166579094	
542.5	-0.06097065402	0.06041980184	
543.125	-0.05343503717	-0.08391628415	
543.75	-0.08371178726	0.06409635112	
544.375	-0.04029456839	-0.02078697155	
545.0	0.02451900981	0.1208194422	
545.625	0.004199150989	0.009100184273	
546.25	0.1221259407	0.08743218654	
546.875	0.07236583594	-0.1089672109	
547.5	0.05148182515	-0.04714670274	
548.125	-0.03155959304	-0.1905057657	
548.75	-0.1491322002	-0.04475431345	
549.375	-0.05178020951	-0.06418290373	
550.0	-0.1158453736	0.02236701832	
550.625	-0.004762136426	0.003805308177	
551.25	-0.1008788935	0.03507055439	
551.875	-0.02652373045	0.07995227463	
552.5	-0.03262054708	0.04623462205	
553.125	-0.004886979648	0.07270431688	
553.75	0.03817762542	0.0265335495	
554.375	0.0862939829	-0.00191456006	
555.0	0.0781087861	-0.08349077892	
555.625	0.06356698232	-0.09806101557	
556.25	0.05104460255	-0.1295299248	
556.875	-0.04971570002	-0.139437236	
557.5	-0.09802541541	-0.08025733635	
558.125	-0.1056536311	-0.02927453917	
558.75	-0.1049952046	0.008489030071	
559.375	-0.09432745979	0.0370843777	
560.0	-0.08015685649	0.05928786272	
560.625	-0.04730046446	0.1198110592	
561.25	0.02785537341	0.07135068689	
561.875	0.01251321633	0.06950804717	
562.5	0.03385880989	0.01309385153	
563.125	0.05049664844	0.09259335426	
563.75	0.1545124131	-0.03897467865	
564.375	0.06409600083	-0.09586560814	
565.0	0.08236143093	-0.08610447379	
565.625	-0.06484685273	-0.1813097228	
566.25	-0.0998807396	-0.03727106233	
566.875	-0.1006325228	-0.1358441985	
567.5	-0.1806116204	-0.05206100208	
568.125	-0.01886231765	-0.1323598616	
568.75	-0.2892443132	-0.05545430606	
569.375	-0.1146188487	0.120892017	
570.0	-0.1505066383	0.1363049972	
570.625	-0.01711494142	0.2664128537	
571.25	0.07027467315	0.03093444405	
571.875	0.003699843397	0.1265580662	
572.5	0.1541422172	-0.08333878899	
573.125	0.02339602449	0.005838090752	
573.75	0.1180595898	-0.1653035986	
574.375	-0.09397597887	-0.01322241624	
575.0	0.1256268778	-0.05330164397	
575.625	-0.07266211043	-0.0619342561	
576.25	0.08218649254	-0.02070968862	
576.875	0.02267813224	-0.1969152229	
577.5	-0.1015581454	-0.1779530212	
578.125	-0.03095714392	-0.04443224386	
578.75	-0.008469222324	-0.1809948253	
579.375	-0.2472300389	-0.004596871747	
580.0	0.06157019898	-0.01861462	
580.625	-0.2239235798	0.0510013665	
581.25	0.03298492903	-0.002972870214	
581.875	-0.08750018061	0.1930751127	
582.5	0.1809247847	0.1529035267	
583.125	-0.02985470587	-0.04952712682	
583.75	0.05156901897	0.1300965029	
584.375	0.07366066797	-0.0404286445	
585.0	0.02686573248	0.1374549395	
585.625	0.2279258228	-0.08847277145	
586.25	0.02611877623	-0.07877772557	
586.875	0.1361597644	-0.09817697717	
587.5	-0.1085363538	-0.1652797088	
588.125	0.02171618514	-0.05493594532	
588.75	0.07634719388	-0.1822281418	
589.375	-0.02614641575	-0.1758682674	
590.0	-0.002098369302	-0.06912172601	
590.625	-0.2613931268	-0.1071748611	
591.25	-0.01383288688	0.1792482685	
591.875	-0.0580700597	0.01084509595	
592.5	0.04627380283	0.1893847322	
593.125	-0.08706446614	-0.09864587388	
593.75	0.1213161665	0.2308900341	
594.375	0.1538064895	-0.02877084724	
595.0	0.0652546714	0.1260642439	
595.625	0.2410515244	0.07632800988	
596.25	0.1277932552	-0.05632838268	
596.875	0.1103245867	0.1055045915	
597.5	0.1870410263	-0.009337991311	
598.125	0.06265213023	0.08901463024	
598.75	0.2002328947	0.1140985014	
599.375	0.1858379452	-0.1363481407	
600.0	0.07815220247	-0.08894910169	
600.625	0.1358768612	-0.1397660135	
601.25	0.03743718232	-0.2459898024	
601.875	-0.1041412046	-0.03505806807	
602.5	-0.1400552626	-0.1382322795	
603.125	-0.04274429888	0.1713868271	
603.75	-0.06160549136	-0.03863821137	
604.375	-0.1758889153	0.1407073741	
605.0	0.08688656261	0.006027398785	
605.625	-0.1673390038	0.02611926026	
606.25	0.05806869333	0.1169030212	
606.875	-0.1110119241	-0.01801041447	
607.5	-0.2175072246	0.1631769312	
608.125	0.05871136179	0.2868090053	
608.75	0.1466220216	0.08331694302	
609.375	0.2395844419	-0.02895963694	
610.0	0.140206085	-0.1214165184	
610.625	0.06420126101	-0.06121633411	
611.25	0.02994498764	-0.07909041093	
611.875	-0.0902186805	-0.04660201021	
612.5	-0.1178133265	-0.130739875	
613.125	-0.2612895133	0.05730214446	
613.75	0.0683950079	0.173215787	
614.375	-0.07436138967	0.0733100882	
615.0	0.1412412085	0.09396675441	
615.625	-0.09730462667	0.02976435946	
616.25	-0.1037292998	0.2128222217	
616.875	0.01560779043	0.1031962407	
617.5	-0.1263769865	0.1421478762	
618.125	0.07175265372	0.2305875247	
618.75	0.03167784722	0.105694652	
619.375	0.07799116555	0.1250277792	
620.0	0.2605481153	0.004777530039	
620.625	0.02406868372	-0.2056810745	
621.25	-0.06936542901	-0.02905820302	
621.875	-0.2471625511	-0.08579237838	
622.5	-0.1249303712	0.1433855104	
623.125	-0.07925673264	0.03980621972	
623.75	0.2157033729	0.03674305746	
624.375	-0.06494861563	-0.0252233436	
625.0	0.1178089668	-0.05123760351	
625.625	-0.04982912094	-0.07734503403	
626.25	0.01983678683	-0.1073584805	
626.875	-0.1648489122	-0.1089444615	
627.5	-0.128078844	0.03938142484	
628.125	-0.0301590359	-0.09406494687	
628.75	-0.1426836151	-0.1278787121	
629.375	-0.105967885	-0.1050285527	
630.0	-0.1838714376	-0.112678272	
630.625	-0.1886850102	0.1524413558	
631.25	-0.05733744586	0.1603809019	
631.875	-0.08903024454	0.1078833066	
632.5	0.2096179228	0.2030752603	
633.125	0.143681245	-0.02487201645	
633.75	0.1498508876	0.02807814785	
634.375	-0.01314435299	-0.281772422	
635.0	0.02379532681	-0.02860842757	
635.625	-0.2043214853	-0.1514466125	
636.25	-0.03981333518	0.167973722	
636.875	-0.06121077334	0.03448035046	
637.5	-0.08340088357	0.1858977668	
638.125	0.04631114192	0.03778586437	
638.75	-0.1290360461	0.1470929327	
639.375	0.09717646408	0.2978671239	
640.0	0.1670763415	0.09647915201	
640.625	0.2008860735	0.1853828299	
641.25	0.303455283	-0.126095175	
641.875	0.04487393145	-0.1318412258	
642.5	0.09275264318	-0.176176281	
643.125	-0.2508831435	-0.08912569992	
643.75	-0.02410046008	-0.0390660179	
644.375	-0.2439460959	-0.04927944768	
645.0	0.01271262325	0.3552526594	
645.625	0.01254464757	0.02436012457	
646.25	0.2140198818	0.1983660046	
646.875	-0.005964494048	-0.2647977908	
647.5	0.07886137993	0.232244844	
648.125	0.160895337	-0.1405756685	
648.75	0.1123828192	0.08628984032	
649.375	0.3617869333	-0.3554695327	
650.0	-0.05012932597	-0.3667109959	
650.625	0.07795740655	-0.06217895379	
651.25	0.3126533554	-0.2336045718	
651.875	0.1477078764	-0.3447518183	
652.5	0.1205704356	-0.0101739102	
653.125	0.3736501855	-0.1441555674	
653.75	-0.02117891676	-0.2624629493	
654.375	0.03330528215	-0.2170518072	
655.0	-0.4483647229	-0.03817523454	
655.625	0.02995160548	0.2195204561	
656.25	-0.06253150178	0.0298455264	
656.875	0.1674463727	0.2571927386	
657.5	0.009671950109	-0.09032787551	
658.125	0.145462407	0.3995148317	
658.75	0.3651189391	-0.1527495884	
659.375	0.1279145613	-0.1102739008	
660.0	0.3471083006	-0.3052394457	
660.625	-0.1409428926	-0.3920295527	
661.25	0.1425762076	-0.1111457187	
661.875	0.2520669828	-0.3394520581	
662.5	0.1137668342	-0.3029724303	
663.125	0.1264111267	-0.06359792467	
663.75	0.2079964434	-0.3576109633	
664.375	-0.2159109695	-0.2445670085	
665.0	-0.1585964693	-0.1501278172	
665.625	-0.3585418278	0.1524184274	
666.25	0.06762437958	0.2319261787	
666.875	0.02594896507	0.1678726417	
667.5	0.2859447273	0.0776042019	
668.125	0.08526601828	-0.1253902769	
668.75	0.1959789026	-0.01252066984	
669.375	0.05799463052	-0.4057416506	
670.0	-0.1065867066	-0.07641349839	
670.625	0.1295991408	-0.2343791946	
671.25	-0.06982624815	-0.2755762173	
671.875	0.06235923771	-0.005029731946	
672.5	0.2937309848	-0.2334436608	
673.125	-0.005648438823	-0.1725101313	
673.75	0.1171005376	-0.1257454018	
674.375	0.07113560465	-0.3162990311	
675.0	-0.2767200415	-0.1436963611	
675.625	-0.0375676746	-0.09345874188	
676.25	-0.2623635111	-0.04689925155	
676.875	-0.05370595643	0.1163170112	
677.5	-0.1319683996	-0.05794830011	
678.125	-0.07026255206	0.2618781482	
678.75	0.1124604031	0.06595115774	
679.375	0.13239337	0.1349428695	
680.0	0.2439684024	-0.1984178615	
680.625	-0.2261610453	-0.04296804234	
681.25	0.2240376367	0.1229561006	
681.875	0.2010121371	-0.1610341688	
682.5	-0.05709654218	0.1521245235	
683.125	0.3383222444	0.2256881889	
683.75	0.05566406172	-0.3078943926	
684.375	0.1584858488	0.255355198	
685.0	0.4248928659	-0.01449067358	
685.625	0.1571057628	-0.1807319666	
686.25	0.3461900768	0.07968247943	
686.875	0.3036411794	-0.3730149972	
687.5	-0.03744249734	-0.2503682406	
688.125	0.01147173073	-0.3517144549	
688.75	-0.4787471204	-0.06107298886	
689.375	0.002736191234	0.3379934832	
690.0	-0.007168050853	0.3251874089	
690.625	0.4010584068	0.2016223517	
691.25	0.1911599526	0.03784681887	
691.875	0.4355291185	0.4594994537	
692.5	0.7042534943	-0.1024604177	
693.125	0.3082196427	0.05444420395	
693.75	0.6398097793	-0.166676513	
694.375	0.01793016389	-0.5725648119	
695.0	0.2059805963	-0.09738932254	
695.625	0.6456618147	-0.06488998827	
696.25	0.2883684141	-0.03027084201	
696.875	0.3712571218	0.3202939635	
697.5	0.4552728834	0.05132991245	
698.125	0.4708040543	-0.09249162559	
698.75	0.1811111466	-0.5738021538	
699.375	-0.3253409831	-0.1834179116	
700.0	-0.08761038818	0.4599195899	
700.625	0.0821937528	0.08870784035	
701.25	0.2305167429	0.2875094395	
701.875	0.3686718512	-0.01534576971	
702.5	0.203565448	0.2360296716	
703.125	0.5161352056	0.09007553275	
703.75	0.1659133962	-0.2467451676	
704.375	0.2668545575	-0.03311963804	
705.0	0.1477120951	-0.2629145029	
705.625	0.0955449264	-0.05259370705	
706.25	0.1679116652	0.2666410942	
706.875	0.3861581904	0.191598182	
707.5	0.3334390772	0.2879913797	
708.125	0.4442111955	0.01445656272	
708.75	0.0790726209	-0.4527390208	
709.375	-0.3533144672	-0.07899197272	
710.0	-0.07294663947	0.1139882127	
710.625	0.2097206332	0.3050978277	
711.25	0.02819792812	0.05647227063	
711.875	0.2710633558	0.1380025017	
712.5	0.2564607138	-0.3021574021	
713.125	0.1188646682	-0.07031314933	
713.75	0.1770466252	-0.3031907729	
714.375	-0.1213386392	-0.216371366	
715.0	0.05396111844	-0.1064867811	
715.625	-0.007184771583	-0.2604447583	
716.25	0.01318825015	-0.1502190369	
716.875	0.349268953	-0.07975120829	
717.5	0.5527260615	-0.2407197053	
718.125	0.3925376219	-0.158501357	
718.75	0.7188580032	-0.07027480475	
719.375	0.540536757	-0.6142773821	
720.0	-0.1546850012	-0.7838133203	
720.625	0.165473761	-0.7796059323	
721.25	-0.5544010007	-1.042147597	
721.875	-0.2431634091	-0.5327283013	
722.5	-0.7038614703	-0.7585357404	
723.125	-0.8711807888	0.4210730353	
723.75	-0.07689628351	0.2688549515	
724.375	-0.0986779507	0.6149752436	
725.0	0.4787056131	0.1257532228	
725.625	-0.0126448746	0.2669918673	
726.25	0.0120235454	0.7906563748	
726.875	0.306315602	0.8086299992	
727.5	-0.08763874906	0.7453654146	
728.125	0.1282265715	2.070270769	
728.75	1.289781005	2.306619269	
729.375	-0.4537282555	1.694484462	
730.0	0.6646958219	4.726846515	
730.625	2.475746473	2.055236033	
731.25	-0.9419843875	2.231549552	
731.875	-2.815954811	3.478565506	
732.5	-1.292354395	2.949417967	
733.125	-1.62876559	0.3158146698	
733.75	-0.3604529978	1.750117635	
734.375	0.7047402744	-0.361931112	
735.0	0.1151931632	-0.3310259103	
735.625	-0.841520791	0.5443177823	
736.25	0.2455931227	0.02097759239	
736.875	0.29953984	0.8250071524	
737.5	1.25183234	-0.3698423219	
738.125	0.4398335144	-0.6480265704	
738.75	1.884376245	-0.2127831199	
739.375	2.30393805	-3.505130285	
740.0	-0.2777768059	-1.443196903	
740.625	2.276638694	1.952297925	
741.25	5.003935198	2.732192928	
741.875	0.1379114188	-2.637040167	
742.5	-2.158716607	-2.889251096	
743.125	-1.244714904	-1.055588318	
743.75	0.08564511148	-0.2335364362	
744.375	-0.7514727691	-0.2204734175	
745.0	0.2232464036	-0.04508976593	
745.625	0.09341754279	0.04409648708	
746.25	-0.1447402512	-0.1126507663	
746.875	-0.06210957331	-0.006427141001	
747.5	-0.1143642532	0.3880757725	
748.125	0.347650769	0.3864379109	
748.75	0.1815754693	0.2357545588	
749.375	0.06432247664	0.5282948604	
750.0	-0.1639543868	0.2776203611	
