!Created with skrf (http://scikit-rf.org).
# GHz S RI R (50+0j) 
!freq	ReS11	ImS11	
500.0	2.227473329	-2.099489981	
500.625	-0.336480082	-3.281495714	
501.25	-0.8594638589	-0.6834099897	
501.875	-0.973097145	-1.750406239	
502.5	-0.4711803502	-0.1747624233	
503.125	-0.1001542087	-0.04039454358	
503.75	0.09050642317	0.4310671247	
504.375	-0.0582466193	-0.0653695801	
505.0	0.2265690548	-0.08910162338	
505.625	-0.2311354593	-0.04124855084	
506.25	0.2473680894	-0.3764429772	
506.875	-0.4432079407	0.9877331179	
507.5	0.8811370989	-0.7205071968	
508.125	0.2603506989	-3.055263791	
508.75	-0.8172557137	-2.466510067	
509.375	1.301596113	-3.454889641	
510.0	-2.183228212	-0.4050849677	
510.625	-0.08278548929	-0.2494672398	
511.25	-0.5995833697	-0.2459034903	
511.875	-0.4441058482	0.06680935254	
512.5	-0.03712199906	0.08351307951	
513.125	0.02663049829	-0.3054939281	
513.75	-0.3465920237	-0.08323540976	
514.375	0.1614803402	0.004982912471	
515.0	-0.8270689572	-0.6758359119	
515.625	2.144954598	0.06453856989	
516.25	-2.475448818	-3.872854358	
516.875	-0.9424594767	0.7720166012	
517.5	0.4977686699	-0.8293793215	
518.125	-0.3409940285	0.2919949831	
518.75	0.2727249928	-0.7918685361	
519.375	-0.1767516492	0.2597164371	
520.0	0.213071914	0.008268524022	
520.625	0.5887245837	0.005544185877	
521.25	-0.3820691192	-0.7861788623	
521.875	-0.1358215042	-0.0207436875	
522.5	-0.2598735033	0.1091166614	
523.125	-0.01700163378	-0.1645153339	
523.75	-0.4398344852	0.1733190461	
524.375	-0.1124828549	-0.07239052738	
525.0	-0.2497214882	0.6019493926	
525.625	0.171522493	-0.1647219065	
526.25	-0.0007574256655	0.1824842748	
526.875	-0.1273762157	-0.08643351549	
527.5	-0.2369972285	0.8674005597	
528.125	0.4301594877	0.3537033095	
528.75	-0.3206249202	0.6262423874	
529.375	0.310820212	0.06815812794	
530.0	-0.2939329961	0.6355722651	
530.625	0.7664440123	0.5559251913	
531.25	0.7316796872	0.5236502216	
531.875	0.570574994	-1.078029885	
532.5	0.1637680995	0.1031190478	
533.125	-0.2971036127	-0.7310640794	
533.75	0.7187195771	0.03578165641	
534.375	-0.9747601372	-1.003911747	
535.0	-0.2434879621	0.03734845565	
535.625	-0.6716033501	0.2050562308	
536.25	0.1800754163	0.2527403904	
536.875	0.1018695578	0.1339400538	
537.5	0.2533992228	-0.1756650914	
538.125	0.08634607994	-0.1732661922	
538.75	0.4775053102	-0.1608289187	
539.375	-0.3674080335	-0.3911019317	
540.0	-0.2233483129	-0.2342821104	
540.625	-0.4345037914	-0.1327399532	
541.25	-0.2136648805	0.1030443357	
541.875	-0.05207373424	-0.03028206759	
542.5	-0.1623893098	-0.200343959	
543.125	-0.2145217952	0.04284318365	
543.75	-0.1131532604	-0.1565318754	
544.375	-0.1390331189	0.291024131	
545.0	-0.03927171595	-0.08662439496	
545.625	0.2787956407	0.3667355344	
546.25	0.07779810301	-0.1874996454	
546.875	0.3719315353	0.2164244865	
547.5	-0.01631799555	-0.5187836164	
548.125	0.02268012768	-0.1658578871	
548.75	-0.2835871674	-0.4460337685	
549.375	-0.3997660925	-0.0347326825	
550.0	-0.02119424294	-0.05937431217	
550.625	-0.2598768856	0.1017080206	
551.25	-0.03926653226	0.0147703827	
551.875	-0.2762811674	0.1892726674	
552.5	0.004578727902	0.2144669452	
553.125	-0.07687186307	0.1267390595	
553.75	0.1462039326	0.1047179057	
554.375	0.1927573051	-0.01458391349	
555.0	0.2354525095	-0.1601956551	
555.625	0.1791538464	-0.2751671867	
556.25	0.1295748202	-0.3312776856	
556.875	-0.09025870027	-0.3728617835	
557.5	-0.242675231	-0.2382239558	
558.125	-0.2724199212	-0.06144988593	
558.75	-0.2265640201	-0.01378718609	
559.375	-0.2839470705	0.05438104555	
560.0	-0.1640008614	0.1970284444	
560.625	-0.1535301418	0.2032786609	
561.25	0.04721282815	0.3024460911	
561.875	0.06478063804	0.001724004714	
562.5	0.009357376037	0.2316624591	
563.125	0.17491177	0.01786341909	
563.75	0.2863455747	0.137648482	
564.375	0.3314517357	-0.3643088533	
565.0	0.02763773293	-0.2287876706	
565.625	0.04271388629	-0.4178470425	
566.25	-0.3939155055	-0.18298925	
566.875	-0.1831236084	-0.1173363887	
567.5	-0.3591376253	-0.3887528338	
568.125	-0.488883135	-0.2340153982	
568.75	-0.287396868	-0.2333914847	
569.375	-0.7854741284	0.2738648322	
570.0	0.01543038729	0.5340951031	
570.625	-0.2901691803	0.1128935397	
571.25	0.09962505995	0.6600414639	
571.875	-0.1412290691	-0.09440804536	
572.5	0.6010763247	0.1237654542	
573.125	-0.1447362462	-0.4031944529	
573.75	0.2556329147	0.05472976337	
574.375	0.0741772776	-0.4985659386	
575.0	-0.09807180499	0.1619683319	
575.625	0.3231630497	-0.3317327841	
576.25	-0.1957697851	-0.3364178521	
576.875	0.240164401	-0.1018405824	
577.5	0.006747730087	-0.6481653523	
578.125	-0.2937993947	-0.2149557141	
578.75	0.0213228374	-0.2031788098	
579.375	-0.2705222637	-0.3554564278	
580.0	-0.1817331581	0.1848134771	
580.625	-0.09781148218	-0.3274364649	
581.25	-0.28490535	0.439037109	
581.875	0.1274780804	0.03137142353	
582.5	-0.239433482	0.4524322062	
583.125	0.6305924907	0.2484789673	
583.75	-0.3362231048	-0.08181847798	
584.375	0.491415792	0.3195691738	
585.0	-0.1564215601	-0.1207277742	
585.625	0.567145075	0.3089438093	
586.25	0.2893937066	-0.4805779375	
586.875	0.07801927193	-0.02091788202	
587.5	0.1096114659	-0.5509800871	
588.125	-0.3430536954	-0.2437924347	
588.75	0.3218256074	-0.09825096521	
589.375	0.2025293732	-0.6139639076	
590.0	-0.175472819	-0.128470372	
590.625	-0.3733130553	-0.2858917286	
591.25	-0.3549419444	0.4205807044	
591.875	0.05671823943	0.1767811285	
592.5	-0.1445490623	0.07736216968	
593.125	0.1235580266	0.1639529932	
593.75	-0.1718338601	0.2345642076	
594.375	0.6517001209	0.381559529	
595.0	0.2828872476	-0.1367635887	
595.625	0.1538417446	0.5032208511	
596.25	0.8290804206	-0.09140778359	
596.875	-0.1259766268	0.1071311515	
597.5	0.6038922508	0.4891809714	
598.125	0.3931276545	-0.08475525226	
598.75	0.1726342296	0.4132664524	
599.375	0.6716092952	-0.2244853275	
600.0	0.1510188855	-0.29142463	
600.625	0.4389759345	-0.2469070708	
601.25	0.1510511321	-0.6268528063	
601.875	-0.1342168257	-0.1224656275	
602.5	-0.3475858921	-0.1545814347	
603.125	-0.1938469406	0.1650091649	
603.75	-0.248012637	0.1932142162	
604.375	-0.1772339665	0.07679022702	
605.0	-0.29520111	0.2632209464	
605.625	0.1154098623	0.06798875491	
606.25	-0.608634512	0.07855260695	
606.875	-0.1024058251	0.4722251877	
607.5	-0.4693949397	-0.03176565395	
608.125	0.0726531621	1.065957867	
608.75	0.1394914396	-0.01495946224	
609.375	0.7536859582	0.2376546273	
610.0	0.233289758	-0.6415286429	
610.625	0.3269642176	0.0334230006	
611.25	-0.1239509633	-0.6455661042	
611.875	-0.06915479541	-0.05360502527	
612.5	-0.5099150309	-0.3840117944	
613.125	-0.1663562141	0.3309240717	
613.75	-0.4435455555	0.1600178236	
614.375	0.3859645789	0.3151871301	
615.0	-0.2731343155	0.02619475135	
615.625	0.3765304298	0.3064472841	
616.25	-0.2551699062	-0.003673097924	
616.875	-0.3237724998	0.7076529035	
617.5	0.2308545596	0.361341218	
618.125	-0.3645580417	0.4658064686	
618.75	0.3091910772	0.5255214745	
619.375	0.07284027384	0.2189735616	
620.0	0.5907620003	0.1615514409	
620.625	0.1083134838	-0.295485774	
621.25	-0.1545900547	-0.5123578095	
621.875	-0.4330814552	-0.03769647393	
622.5	-0.4724646083	-0.0441504248	
623.125	0.05737599681	0.6213598276	
623.75	-0.02343771127	0.002919417138	
624.375	0.3941662825	-0.3291966827	
625.0	-0.1353573124	0.2018227085	
625.625	0.3937767449	-0.4512551879	
626.25	-0.4031954203	0.07863698018	
626.875	-0.02495200699	-0.5053038483	
627.5	-0.6369362942	0.006264460819	
628.125	-0.02809321214	0.03147602737	
628.75	-0.07457228601	-0.5150871185	
629.375	-0.4278039321	-0.1756701219	
630.0	-0.2329815211	-0.268296735	
630.625	-0.6410972234	0.1302422294	
631.25	-0.1295311956	0.547690469	
631.875	-0.1258885874	0.3844891383	
632.5	0.4247138153	0.5486273543	
633.125	0.4701338013	0.01362185828	
633.75	0.2720259824	-0.1505343676	
634.375	0.2826695458	-0.2864460263	
635.0	-0.3419763685	-0.3249425597	
635.625	-0.02631753549	-0.2765167549	
636.25	-0.6216146298	0.2782606534	
636.875	0.2082993285	0.2990012032	
637.5	-0.4778976356	-0.09666137388	
638.125	0.2754017816	0.556987423	
638.75	-0.340671101	-0.06830030931	
639.375	-0.02926486253	1.009143668	
640.0	0.597940279	0.1865232864	
640.625	0.1403838643	0.4049400122	
641.25	0.9932718499	-0.0313806837	
641.875	0.02331888801	-0.5839819049	
642.5	0.2375886481	-0.2324453821	
643.125	-0.6035042924	-0.568978069	
643.75	0.005250150783	0.2574865688	
644.375	-0.6057218846	-0.2785321101	
645.0	-0.2013642991	0.6100604188	
645.625	0.1780127619	0.1936293467	
646.25	0.1787130977	0.4744957826	
646.875	0.4833330263	-0.360388572	
647.5	-0.2347415215	0.2214104098	
648.125	0.793521686	0.1420060541	
648.75	0.07061894549	-0.5210168103	
649.375	0.9093126373	0.09482048881	
650.0	0.3258589088	-1.447161804	
650.625	-0.285033057	-0.2051300519	
651.25	1.092176069	-0.2394547466	
651.875	0.4439728926	-1.192106473	
652.5	0.07361178493	0.1707414449	
653.125	1.106820654	-0.2344167971	
653.75	-0.0388101919	-0.8534401868	
654.375	0.09648850366	-0.2510952104	
655.0	-1.016921692	-0.5709062965	
655.625	-0.01211827886	0.7302991503	
656.25	-0.1242613781	0.01627497276	
656.875	0.2463685058	0.5385663879	
657.5	0.06650907987	-0.1950381891	
658.125	0.209532042	0.7391776705	
658.75	0.886009742	-0.08823793429	
659.375	0.4221145059	-0.3996284642	
660.0	0.6552001488	-0.2983708972	
660.625	0.267750016	-1.351273299	
661.25	-0.1272052873	-0.2487740104	
661.875	0.9276094069	-0.4335082995	
662.5	0.4950604913	-0.9810356135	
663.125	0.05464518131	-0.1157025641	
663.75	0.8697783497	-0.913095074	
664.375	-0.6533395822	-0.531726217	
665.0	-0.1686389357	-0.4656856399	
665.625	-1.046813033	0.2484877054	
666.25	0.2127706234	0.6367314619	
666.875	-0.05529885374	0.4390543716	
667.5	0.6846263587	0.2768335849	
668.125	0.2431622527	-0.2936561167	
668.75	0.5779997957	-0.01221847608	
669.375	0.07415034056	-0.8603169062	
670.0	-0.06522229365	-0.2216616224	
670.625	0.174146792	-0.4456510747	
671.25	0.03535846547	-0.6035688135	
671.875	-0.0001552542574	-0.1962055027	
672.5	0.7591456233	-0.2374581201	
673.125	0.3035857872	-0.7445817319	
673.75	0.08821550645	-0.2090327643	
674.375	0.5157749324	-0.7251183505	
675.0	-0.8809964007	-0.4625904483	
675.625	0.2316071946	-0.2495067846	
676.25	-0.9405011695	-0.1635798304	
676.875	-0.008528900428	0.498725945	
677.5	-0.5053200049	-0.4554675112	
678.125	-0.1146665124	0.8879106451	
678.75	0.03831923107	0.1096015566	
679.375	0.4068017716	0.4537860452	
680.0	0.5319088492	-0.6008053637	
680.625	-0.2617741076	0.1175582576	
681.25	0.6001396515	-0.06025576382	
681.875	0.2299526002	-0.1689516108	
682.5	0.2110701239	0.3106061727	
683.125	0.8048450048	0.2880104649	
683.75	0.5730275782	-0.180784616	
684.375	0.351415843	0.1059825011	
685.0	0.9094880831	0.4181703181	
685.625	0.6481499693	-0.8021166518	
686.25	0.2789609364	0.7449697307	
686.875	1.225742673	-1.252443186	
687.5	-0.2569672438	-0.1277114473	
688.125	0.5372191131	-1.383057444	
688.75	-1.772749441	0.2838391763	
689.375	-0.2216603641	-0.1051148839	
690.0	0.3579512625	1.572684273	
690.625	0.5963762315	-0.0380243968	
691.25	0.4013208426	0.9247936205	
691.875	1.501274964	0.4798769795	
692.5	1.027619584	0.2979830785	
693.125	1.561539876	0.01642767107	
693.75	1.24712636	-0.7490173532	
694.375	0.9500877079	-0.814543886	
695.0	0.8789722773	-0.8767181804	
695.625	0.9961485061	0.07176355489	
696.25	1.673778626	-0.0201402985	
696.875	0.4832139756	0.3772383879	
697.5	1.366022732	1.663686145	
698.125	1.219718406	-0.6944565359	
698.75	1.285394064	-0.3992542718	
699.375	-1.765228205	-0.8307088321	
700.0	0.2388466146	0.4509668897	
700.625	0.1411473775	1.427822303	
701.25	0.6175765145	-0.2051348005	
701.875	0.196172814	0.8528266932	
702.5	1.400845855	0.2528869089	
703.125	0.3873214025	0.2907660817	
703.75	1.316366711	-0.2430275825	
704.375	0.1473304597	-0.7186908872	
705.0	0.9245395444	0.2441091247	
705.625	0.7056425712	-0.7013156029	
706.25	0.01151402596	0.502471261	
706.875	1.216693376	1.064470748	
707.5	0.4789450601	-0.08970323301	
708.125	1.306682534	0.640745229	
708.75	0.2768805896	-1.420638261	
709.375	-0.3920794215	-0.33835443	
710.0	-0.6427897488	0.6362229742	
710.625	0.4420003224	0.1764539185	
711.25	0.1549221311	0.3788113757	
711.875	0.5485589419	0.1034522387	
712.5	0.7841423447	-0.0453132468	
713.125	0.4626818705	-0.5013809964	
713.75	0.3601217754	-0.4003113725	
714.375	-0.06934051558	-0.8271911427	
715.0	-0.2229270752	-0.01564158955	
715.625	0.5567941352	-0.9167344713	
716.25	-0.4782274946	-0.8054692456	
716.875	0.8695360549	0.4388253898	
717.5	2.347254662	-0.6128897859	
718.125	-0.08958113493	-1.144144474	
718.75	3.263713014	1.020670952	
719.375	0.8153738342	-2.975838595	
720.0	0.6430239235	-0.7172733067	
720.625	1.135991292	-3.922146544	
721.25	-1.812037552	-1.713304941	
721.875	0.2660789347	-2.1723565	
722.5	-2.150562277	-2.106465825	
723.125	-1.921080099	0.5886464026	
723.75	-0.6761657416	0.63217404	
724.375	0.0303219671	1.505731459	
725.0	0.6699306529	0.5460529932	
725.625	0.1523156421	0.8430331609	
726.25	-0.2353207201	2.044777566	
726.875	1.460344954	2.464733467	
727.5	-1.398754602	1.490891822	
728.125	-0.6816245978	7.230532992	
728.75	4.394701632	4.939037318	
729.375	-7.601772309	1.433113604	
730.0	7.873212721	20.20903807	
730.625	3.936339262	-0.1160622321	
731.25	-7.550454174	10.35637997	
731.875	-3.539214331	14.92133376	
732.5	-1.345598662	-0.2205009868	
733.125	-9.095665772	0.9512533057	
733.75	-0.1798314751	4.33514204	
734.375	1.430915161	-0.260324995	
735.0	0.8292791623	-1.932865689	
735.625	-0.8560029395	1.572069799	
736.25	-0.6906067014	0.5607148889	
736.875	1.412530951	1.849149759	
737.5	3.232447911	-0.784707198	
738.125	1.051098431	-0.6889728192	
738.75	8.329535882	-2.361332212	
739.375	4.588854359	-10.7605749	
740.0	-3.341043183	-0.4450490755	
740.625	27.39614159	3.630854021	
741.25	26.69071731	-11.90819641	
741.875	-13.97901725	-4.992656406	
742.5	-10.75582046	-13.68647778	
743.125	-1.13649304	1.951199535	
743.75	2.393727169	-4.744231634	
744.375	-1.555735391	1.290275068	
745.0	-0.1589296524	-0.09968499787	
745.625	0.3706512718	-0.1008141761	
746.25	-0.1625757247	-0.08299661311	
746.875	-1.571259503	-0.7183859049	
747.5	-0.4299252059	1.197215277	
748.125	0.8963286822	1.064101612	
748.75	-0.01304508999	1.239231707	
749.375	0.5770168826	1.398654122	
750.0	-1.201965229	1.004363506	
