!Created with skrf (http://scikit-rf.org).
# GHz S RI R (50+0j) 
!freq	ReS11	ImS11	
500.0	0.380350272	-1.328057398	
500.625	-0.06849523857	-0.3747172498	
501.25	0.0498257565	-1.03484319	
501.875	-0.4140950336	-0.3149498428	
502.5	0.04068987242	-0.07127637158	
503.125	-0.0938272803	-0.003192123633	
503.75	0.04797737426	0.01415189956	
504.375	0.04963525805	0.02097085779	
505.0	-0.010473692	-0.04491923339	
505.625	0.0306658215	-0.005779771409	
506.25	-0.1226314468	-0.1295206749	
506.875	0.1555172354	-0.006799774317	
507.5	0.09705453965	-0.6533312997	
508.125	-0.07609719094	-0.5970726858	
508.75	0.8222972437	-0.1894165391	
509.375	0.0593911152	-1.529619689	
510.0	-0.3840267556	-0.1479632829	
510.625	0.06681790705	-0.1642590946	
511.25	-0.09563390886	-0.1071133256	
511.875	-0.03560050711	-0.0109085073	
512.5	-0.05776383545	0.02044033659	
513.125	-0.02990314628	-0.07898834672	
513.75	0.0001173343697	-0.007119654094	
514.375	-0.08867326726	-0.112042504	
515.0	-0.1169358831	0.1949623128	
515.625	-0.009952872118	-0.7863302548	
516.25	-0.3618993969	-0.1782123129	
516.875	0.253908791	-0.4119609627	
517.5	0.03504190409	-0.2734788939	
518.125	-0.001263734795	0.02111234307	
518.75	-0.03377057595	-0.1984494022	
519.375	-0.04796743064	0.02567412609	
520.0	0.03921028748	0.04910572784	
520.625	0.172604569	0.004264774477	
521.25	0.0495274967	-0.2280137667	
521.875	-0.08596716117	-0.01318396499	
522.5	-0.0844368244	-0.05055496547	
523.125	-0.02959020929	0.09558963684	
523.75	-0.0281469367	-0.1358096011	
524.375	-0.2879036318	0.06410209522	
525.0	0.04376414101	0.04814703313	
525.625	-0.07602129845	0.05942301537	
526.25	0.04630379237	-0.09628680935	
526.875	-0.1205180017	0.05245509785	
527.5	-0.02989945454	0.203764957	
528.125	-0.1539688078	0.1723664753	
528.75	-0.02455305376	0.2800031714	
529.375	0.01375317655	0.06339799935	
530.0	-0.1285421304	0.1792074268	
530.625	0.03002770858	0.3527234374	
531.25	0.4270882821	0.109045066	
531.875	0.1972358881	0.05071980257	
532.5	-0.1004526819	-0.1468202434	
533.125	0.08124174044	0.102713617	
533.75	0.1544735117	-0.2815480961	
534.375	-0.008711889308	-0.13317422	
535.0	-0.1656196357	-0.2544203212	
535.625	-0.1751892208	0.1036546864	
536.25	-0.03838428609	0.04071136898	
536.875	0.08276477523	0.08220097577	
537.5	0.04879662782	-0.03471025943	
538.125	0.1085837436	0.06657706406	
538.75	0.153359329	-0.05081859794	
539.375	0.004308947428	-0.1280096646	
540.0	-0.0143960374	-0.2170001366	
540.625	-0.1508009765	-0.07729770102	
541.25	-0.09535559922	0.01934113445	
541.875	-0.03269620055	-0.07767614623	
542.5	-0.06786632421	-0.03688799061	
543.125	0.004706723003	-0.06285942733	
543.75	-0.1989603125	-0.07072070662	
544.375	0.03770548334	0.01598544867	
545.0	-0.05345635071	0.07571733274	
545.625	0.08187562836	0.03055599168	
546.25	-0.008553629797	0.08407352815	
546.875	0.163283164	0.01891820158	
547.5	0.04939242624	-0.05796076082	
548.125	0.08644853129	-0.1301491731	
548.75	-0.1014706499	-0.1800750589	
549.375	-0.04723765735	-0.0399901402	
550.0	-0.07254653968	-0.06896097075	
550.625	-0.04370911244	0.02075155341	
551.25	-0.05743503032	-0.03471704829	
551.875	-0.1078467664	0.04144300368	
552.5	-0.04294904904	0.03017664363	
553.125	-0.05435947208	0.03835699907	
553.75	0.03822643835	0.04877676766	
554.375	0.06192311797	0.0404736521	
555.0	0.1106065572	-0.02044987457	
555.625	0.1053855226	-0.05125256851	
556.25	0.1131684953	-0.07065984016	
556.875	0.05028401487	-0.1400041297	
557.5	-0.03120242856	-0.1253740937	
558.125	-0.06771903348	-0.07879555735	
558.75	-0.08189534676	-0.05871639878	
559.375	-0.102321428	-0.02766888148	
560.0	-0.09604010312	0.01216035604	
560.625	-0.1087121754	0.05900012829	
561.25	-0.0113452249	0.09881901279	
561.875	-0.01774770563	0.02531419954	
562.5	0.007337168355	0.0719053169	
563.125	0.009272172221	0.05520775362	
563.75	0.1192812117	0.09588373398	
564.375	0.1471041273	-0.07354193674	
565.0	0.09615312641	-0.05167726694	
565.625	0.08529229373	-0.178194858	
566.25	-0.1123696813	-0.0844891343	
566.875	-0.01136336276	-0.1175742205	
567.5	-0.09506540648	-0.1833699075	
568.125	-0.05572571229	-0.08139109466	
568.75	-0.07771988533	-0.2444025203	
569.375	-0.275212351	0.05231530975	
570.0	-0.1032531559	0.05560276466	
570.625	-0.2071396285	0.0784632397	
571.25	0.02389230423	0.1466205918	
571.875	-0.07701101043	0.04873303164	
572.5	0.1702617982	0.06414155697	
573.125	0.01245598581	-0.0561999883	
573.75	0.1490900313	0.009751033344	
574.375	0.02746555487	-0.1435708371	
575.0	0.00391880821	0.05645892325	
575.625	0.1225305018	-0.0921155625	
576.25	0.002544260331	-0.08651098348	
576.875	0.1186746565	-0.02452832041	
577.5	0.08793643847	-0.1941373329	
578.125	-0.06785123364	-0.09108749336	
578.75	0.1005900643	-0.08888072294	
579.375	-0.08535688479	-0.2018332338	
580.0	-0.02840641435	0.0609045831	
580.625	-0.07124183447	-0.1922856556	
581.25	-0.06357156951	0.1340534325	
581.875	-0.1178610957	-0.0103740188	
582.5	-0.09070941443	0.2220899079	
583.125	0.1325459998	0.07343352319	
583.75	-0.08722629615	0.02770142794	
584.375	0.1204073009	0.06785685216	
585.0	-0.03482772464	0.03146001665	
585.625	0.1628241586	0.1543813662	
586.25	0.1534931485	-0.07463681643	
586.875	0.09271685522	0.01408892209	
587.5	0.1067966854	-0.162177986	
588.125	-0.03939748654	-0.1227994957	
588.75	0.1148580253	-0.006794481059	
589.375	0.191426245	-0.1735422265	
590.0	-0.05545827296	-0.08265716573	
590.625	-0.04924399154	-0.1676971253	
591.25	-0.2485062077	0.1246718019	
591.875	0.05748370286	-0.005319241995	
592.5	-0.1452421126	0.04515049786	
593.125	0.05381795552	0.03325103745	
593.75	-0.1263930343	0.1460992226	
594.375	0.1998865813	0.09400819104	
595.0	0.008923103082	0.07385451774	
595.625	0.02076876863	0.2075031362	
596.25	0.1585450352	0.07785119578	
596.875	0.004548285569	0.09332745082	
597.5	0.0878851672	0.2050962736	
598.125	0.1226476593	0.1047928598	
598.75	0.04001528373	0.1378592174	
599.375	0.192796391	0.07867518376	
600.0	0.1596106131	-0.1133141467	
600.625	0.1391671581	-0.01549126014	
601.25	0.2006640092	-0.1437372449	
601.875	-0.1086227763	-0.1370150361	
602.5	0.03158555456	-0.1086224379	
603.125	-0.2003704454	0.01453659191	
603.75	0.01044076562	0.02197422387	
604.375	-0.1647025786	-0.08427971687	
605.0	-0.09556133251	0.146063911	
605.625	0.0005512062307	-0.05118726182	
606.25	-0.1979684501	0.0292734724	
606.875	-0.1028671057	0.03536609612	
607.5	-0.2934730146	0.07226461096	
608.125	-0.1958518628	0.2346001396	
608.75	0.06326730414	0.1699836682	
609.375	0.1872294052	0.1019447809	
610.0	0.2273324337	-0.04506335163	
610.625	0.05020820747	-0.110671652	
611.25	0.1026611457	-0.06433637846	
611.875	-0.05994301886	-0.2045660236	
612.5	-0.06206317008	0.01395276228	
613.125	-0.1576613937	-0.1665856814	
613.75	-0.1658746262	0.1737189329	
614.375	-0.00316186849	-0.03358496827	
615.0	0.06414061311	0.1636415408	
615.625	0.01578187202	-0.02785204656	
616.25	-0.1823777195	0.02671564658	
616.875	-0.07879340935	0.1838865294	
617.5	-0.2528570603	0.120452312	
618.125	-0.09653138156	0.1875867226	
618.75	-0.0330717613	0.2296384424	
619.375	0.02574910175	0.1923975641	
620.0	-0.01435347883	0.02347412806	
620.625	0.2137201799	-0.1222717938	
621.25	-0.01255134331	-0.1259072841	
621.875	-0.06855446207	-0.1866466269	
622.5	-0.3407781189	0.02160655498	
623.125	-0.02104069496	0.08685155425	
623.75	0.0699236789	0.1597784718	
624.375	0.06615035664	-0.1132150746	
625.0	0.03810697082	0.07239934604	
625.625	0.09157721052	-0.1291294868	
626.25	-0.01067349244	-0.04704056831	
626.875	-0.04094658968	-0.1750754222	
627.5	-0.1497924854	-0.08026883277	
628.125	-0.05085457468	-0.07535545099	
628.75	0.04803164368	-0.1647563361	
629.375	-0.01713773314	-0.1569165213	
630.0	-0.07962122672	-0.145507856	
630.625	-0.1617044958	-0.129003521	
631.25	-0.1771398923	0.1264980844	
631.875	-0.04445321127	0.127437522	
632.5	-0.04954340026	0.2620380526	
633.125	0.2656029583	0.0490548383	
633.75	0.04698338083	0.03972310121	
634.375	0.1846913005	-0.1021286435	
635.0	-0.07081599996	-0.1125525049	
635.625	0.03824829396	-0.1597025548	
636.25	-0.2423837933	0.005212527121	
636.875	-0.0325939922	0.08546963955	
637.5	-0.112641661	-0.02518609263	
638.125	-0.07675292072	0.1350049684	
638.75	-0.0887520664	-0.007200610558	
639.375	-0.1936540704	0.2378895132	
640.0	0.08781038408	0.2411285219	
640.625	0.06056282765	0.1658236163	
641.25	0.2026460864	0.2238676084	
641.875	0.2236756971	-0.1772188759	
642.5	-0.01676745942	-0.06264241282	
643.125	0.05939377796	-0.2645888395	
643.75	-0.2633653822	0.02741895806	
644.375	-0.04942946014	-0.1556123078	
645.0	-0.3432733442	0.1611845843	
645.625	0.1148775389	0.1092087441	
646.25	-0.137041195	0.2327375093	
646.875	0.3215029579	0.00565367802	
647.5	-0.1237871854	0.005420678334	
648.125	0.2222630457	0.2206720336	
648.75	0.1956687335	-0.04024381706	
649.375	0.1846337283	0.08885119915	
650.0	0.4153903872	-0.2103819015	
650.625	0.07159239978	-0.2355612612	
651.25	0.263660196	0.05964540587	
651.875	0.3856463511	-0.1089956778	
652.5	0.1305002788	-0.06802506118	
653.125	0.244356887	0.1431700522	
653.75	0.3511334281	-0.2635721865	
654.375	-0.09077969257	-0.162648648	
655.0	-0.06392858368	-0.2584054414	
655.625	-0.3927224196	0.2365546335	
656.25	0.1496572254	0.01840502311	
656.875	-0.1768575912	0.1179913076	
657.5	0.1309328419	0.09918549936	
658.125	-0.1923248176	0.0957169552	
658.75	0.3095493524	0.3703960957	
659.375	0.2015789939	-0.07897667228	
660.0	0.2781633482	0.05510824991	
660.625	0.3980053527	-0.2092473943	
661.25	0.1177608496	-0.2486123789	
661.875	0.2851882579	0.08982313507	
662.5	0.3919390034	-0.1008253512	
663.125	0.1783958258	-0.1178505375	
663.75	0.2770017604	-0.04517364217	
664.375	0.06941540064	-0.4037955525	
665.0	-0.137112253	-0.1584172849	
665.625	-0.2498836307	-0.1485665558	
666.25	-0.2732529754	0.2779469217	
666.875	0.1048237578	0.08972219469	
667.5	0.01552816219	0.2259104539	
668.125	0.3032971526	0.01625929737	
668.75	0.03121436727	0.02421039584	
669.375	0.3421270897	-0.05703157735	
670.0	0.02341285996	-0.2684013092	
670.625	0.1483401592	0.02713259856	
671.25	0.2144317279	-0.1934755838	
671.875	0.08538869231	-0.135339985	
672.5	0.1573069064	0.09424080259	
673.125	0.3634739728	-0.09735168537	
673.75	0.1035698183	-0.1006002595	
674.375	0.1954581881	-0.1089960804	
675.0	0.02467884353	-0.3325376969	
675.625	-0.1393368738	-0.02208416454	
676.25	-0.1153193819	-0.1875381278	
676.875	-0.2166460389	0.002463117239	
677.5	-0.03949774144	0.02102702615	
678.125	-0.2373404181	-0.08714902979	
678.75	-0.02303173387	0.3565912183	
679.375	0.05969592271	-0.01788497633	
680.0	0.1478563571	0.1640890083	
680.625	0.1773525457	-0.2335200472	
681.25	-0.1676186636	0.1435278335	
681.875	0.4223852331	0.1495251422	
682.5	0.008287843054	-0.04914163448	
683.125	-0.04338659396	0.2284573046	
683.75	0.3841866311	0.2285076461	
684.375	0.02502467599	-0.02264639599	
685.0	0.2779884875	0.2906931738	
685.625	0.3786142351	0.03413719478	
686.25	0.1546363379	-0.04580055192	
686.875	0.3647556085	0.1160180381	
687.5	0.2653865314	-0.3473946552	
688.125	0.08332264126	-0.1913920154	
688.75	-0.2020491196	-0.4147478076	
689.375	-0.4306345755	0.245423512	
690.0	0.03563936175	0.1339397626	
690.625	-0.06715745898	0.4936239524	
691.25	0.2909575854	0.2723116473	
691.875	-0.07141071365	0.3303490846	
692.5	0.5353905905	0.7743406148	
693.125	0.483254579	0.07051622536	
693.75	0.3388252846	0.2528893175	
694.375	0.66991964	-0.1976602315	
695.0	0.3142743008	-0.1728103157	
695.625	0.6493299386	0.1778821621	
696.25	0.5024400098	0.2017594662	
696.875	0.2356910236	0.2329594736	
697.5	0.2515258804	0.4280219611	
698.125	0.3507440079	0.3550471176	
698.75	0.4481930881	-0.2869709324	
699.375	-0.08755006814	-0.3834448444	
700.0	-0.4682945902	0.1274424117	
700.625	0.1036482469	0.2739731777	
701.25	-0.1041544785	0.220163143	
701.875	0.1591717034	0.4322538228	
702.5	0.07873200854	0.1862256176	
703.125	0.1385693899	0.4857520444	
703.75	0.4348822544	0.1132803268	
704.375	0.1493254278	-0.07708556456	
705.0	0.3626906925	0.03986946036	
705.625	0.2081468013	-0.02907859054	
706.25	0.08956944345	0.2419208265	
706.875	0.1308843516	0.4217973759	
707.5	0.171900922	0.2933568035	
708.125	0.3174522001	0.1988127147	
708.75	0.2633297881	-0.06144987974	
709.375	-0.222577102	-0.2998068453	
710.0	-0.1088549467	0.1188755406	
710.625	-0.178523701	0.1333866304	
711.25	0.2403855841	0.05116858972	
711.875	-0.009464172495	0.2195871022	
712.5	0.3346959955	0.2394409876	
713.125	0.1993417517	-0.06143044828	
713.75	0.2504584899	0.0260143555	
714.375	0.1840871113	-0.2276486112	
715.0	-0.003846258854	-0.1004500084	
715.625	0.1911166768	-0.1312545294	
716.25	0.2031243357	-0.1876088046	
716.875	0.2154209806	-0.001090857807	
717.5	0.4707481445	0.2430508048	
718.125	0.5755608853	0.08880986623	
718.75	0.5181372454	0.01934124574	
719.375	0.5394792742	0.4032223895	
720.0	0.661678429	-0.9028476627	
720.625	0.4100628188	-0.4313571584	
721.25	0.7191292057	-0.8150076644	
721.875	-0.1536836788	-1.164210624	
722.5	0.2691696426	-0.5960324142	
723.125	-0.3248385685	-0.9998230839	
723.75	-0.5399144951	0.1608003022	
724.375	-0.2625738366	0.03718093831	
725.0	-0.17429579	0.5433067278	
725.625	0.06770876711	0.2550828146	
726.25	-0.4248457564	0.3707167794	
726.875	-0.4973104793	0.8305419501	
727.5	-0.1536806486	0.8849748608	
728.125	-0.8847297547	1.132808078	
728.75	-0.4254436237	2.515844272	
729.375	0.07236969797	2.332143289	
730.0	-0.9892270367	1.506783736	
730.625	-0.9319549864	4.76128795	
731.25	-0.4116836964	2.110865599	
731.875	-2.781432735	-0.4950897735	
732.5	-5.156413607	-0.4946467195	
733.125	-1.418800096	0.4778188942	
733.75	-1.486587468	-0.4297396896	
734.375	0.4506709833	1.216685411	
735.0	0.05116532438	-0.1079379562	
735.625	-0.1555090455	-0.5522492745	
736.25	-0.3473657515	0.6242565637	
736.875	-0.1769886825	0.08568229268	
737.5	0.5030003652	1.21195705	
738.125	1.343002077	0.06591900449	
738.75	0.6729765323	-0.1320677226	
739.375	2.794025701	0.7545089523	
740.0	2.336126819	-3.208297902	
740.625	-0.6250132548	0.4134886799	
741.25	0.1269567653	4.515563711	
741.875	-1.15158584	3.145401674	
742.5	1.467315113	-1.870605855	
743.125	1.495996991	-2.479911477	
743.75	-0.02470227661	-0.835866814	
744.375	0.2951239695	-0.1743444791	
745.0	-0.144716946	0.3401548963	
745.625	-0.1121167787	-0.02341539295	
746.25	0.1561738522	-0.117672493	
746.875	-0.1970442766	-0.05487756635	
747.5	-0.2167836712	-0.005561823641	
748.125	-0.2705832094	0.5103728688	
748.75	0.1410525225	0.3257833583	
749.375	-0.04542760359	0.3024294427	
750.0	-0.3577387777	0.2140582135	
