!Created with skrf (http://scikit-rf.org).
# GHz S RI R (50+0j) 
!freq	ReS11	ImS11	
500.0	0.59280283	-0.80896806	
500.625	0.21139347	-1.434254077	
501.25	0.00738273814	-0.2183023651	
501.875	-0.1892606876	-0.596812304	
502.5	-0.07688137436	-0.07316452967	
503.125	-0.04452523004	-0.02957179212	
503.75	0.04944456133	0.1274032785	
504.375	-0.006216598768	-0.003933237334	
505.0	0.04956471444	-0.02267887648	
505.625	-0.04541139234	-0.02826712574	
506.25	0.03479450962	-0.1205058647	
506.875	-0.1851864741	0.208054029	
507.5	0.2703050982	-0.2957631157	
508.125	0.2162362103	-0.8243304661	
508.75	0.0696511366	-0.7970054041	
509.375	0.2902181843	-0.7308130241	
510.0	-0.4720924781	-0.3571415481	
510.625	-0.09308175346	-0.02908638769	
511.25	0.0147865655	-0.1003944326	
511.875	-0.1599209044	0.02033162196	
512.5	0.02379339423	-0.00118505365	
513.125	0.02180792288	-0.07687620543	
513.75	-0.07933369375	0.002999414473	
514.375	0.04119412605	-0.02769543432	
515.0	-0.2230049218	-0.1042151557	
515.625	0.576670534	-0.3657245366	
516.25	-0.4685838046	-1.020333793	
516.875	-0.3738547186	-0.08186729216	
517.5	0.07385855503	-0.223305618	
518.125	-0.06183467904	0.009612549945	
518.75	0.05255380616	-0.07177606041	
519.375	-0.07639883314	0.03332543926	
520.0	0.1163835932	0.01569536275	
520.625	0.1300919891	-0.03888031775	
521.25	0.06273876996	-0.2590094616	
521.875	-0.1964188799	0.03665514256	
522.5	0.01139435081	0.003714320682	
523.125	-0.1519398937	0.02962143849	
523.75	0.003806024709	0.06391987706	
524.375	-0.1833518902	-0.121919698	
525.0	0.02434098613	0.2421621861	
525.625	-0.04404131489	-0.02450508882	
526.25	0.01904115858	0.05708025696	
526.875	-0.08264274091	-0.007913230064	
527.5	-0.1127677234	0.2377238713	
528.125	-0.01962443423	0.1315998688	
528.75	-0.05555398515	0.1318226446	
529.375	0.04870977474	0.08419847932	
530.0	0.0312575834	0.08562540299	
530.625	0.0125800823	0.2629277013	
531.25	0.41252576	0.01958106418	
531.875	0.07439337079	-0.1797271667	
532.5	0.005867688892	-0.1843455311	
533.125	-0.1845391638	-0.08842391839	
533.75	0.1900168596	-0.1600973831	
534.375	-0.1665966367	-0.2284594725	
535.0	-0.1214762855	-0.106237255	
535.625	-0.2102831852	0.070494615	
536.25	0.02888502431	0.08193149419	
536.875	0.05406834572	0.04098946035	
537.5	0.080404134	-0.05748044788	
538.125	0.05291190026	-0.05073210447	
538.75	0.1582194114	-0.08312276639	
539.375	-0.07738997247	-0.1533117461	
540.0	-0.09444925119	-0.08448182326	
540.625	-0.1067188899	-0.04810330472	
541.25	-0.09550519558	0.02292555913	
541.875	0.0009096385658	0.0488614259	
542.5	-0.06378971872	-0.1090782124	
543.125	-0.07059075198	0.07684237045	
543.75	-0.05740441833	-0.06557466827	
544.375	-0.03221250663	0.09284030078	
545.0	-0.02908344375	0.008735684777	
545.625	0.08128482491	0.1192486724	
546.25	0.06297371484	-0.01616818157	
546.875	0.1181995633	0.03129841665	
547.5	0.05174540875	-0.1565594001	
548.125	-0.03673142651	-0.07685116279	
548.75	-0.07705579615	-0.1515558416	
549.375	-0.1443289958	-0.05111059862	
550.0	-0.02558925223	-0.000463644843	
550.625	-0.07995444798	-0.002600150881	
551.25	-0.03622806922	0.02957775629	
551.875	-0.09011810951	0.038374057	
552.5	-0.02853679384	0.08597789064	
553.125	-0.003980865998	0.02820853148	
553.75	0.04444725278	0.05402919216	
554.375	0.07862335259	-0.003437211974	
555.0	0.09313416423	-0.05570753723	
555.625	0.0835576038	-0.1023442503	
556.25	0.05864886381	-0.1241315462	
556.875	-0.02482088665	-0.1438665833	
557.5	-0.08783157812	-0.09942653959	
558.125	-0.1071429652	-0.035970115	
558.75	-0.09558533165	-0.004108286641	
559.375	-0.106116275	0.01160536603	
560.0	-0.08742299768	0.07851132356	
560.625	-0.04427923526	0.07960952143	
561.25	-0.01206318144	0.1079867202	
561.875	0.04536920118	0.02615801377	
562.5	-0.02170376855	0.06280232719	
563.125	0.09858328324	0.06094641854	
563.75	0.08852364872	0.009135617826	
564.375	0.1592782758	-0.07854414168	
565.0	0.03544277884	-0.1554755702	
565.625	0.008307109039	-0.08653600929	
566.25	-0.125151286	-0.1603540664	
566.875	-0.1192528979	-0.01795593325	
567.5	-0.05265636814	-0.1661692034	
568.125	-0.2123412833	-0.1547924372	
568.75	-0.1024338921	-0.02680138882	
569.375	-0.2790404065	0.01203052485	
570.0	-0.05685458166	0.2595110325	
570.625	-0.02579827569	0.06246464149	
571.25	-0.05282238247	0.1600046157	
571.875	0.09652613637	-0.01199194334	
572.5	0.1087246469	0.1118156368	
573.125	0.1000772525	-0.1936078075	
573.75	-0.04045222508	-0.02361379117	
574.375	0.1037975626	-0.05201944119	
575.0	-0.05253927809	-0.08263441191	
575.625	0.08861602447	0.006385073105	
576.25	0.06498753004	-0.1825244898	
576.875	-0.06414535907	-0.07644933942	
577.5	0.08632475456	-0.1025836005	
578.125	-0.09108728733	-0.2728125951	
578.75	-0.1104405265	-0.02083730482	
579.375	0.01853087865	-0.0999125179	
580.0	-0.2085506196	-0.02461125084	
580.625	0.08755487471	-0.03008980387	
581.25	-0.2115196699	0.103960596	
581.875	0.1271294316	0.1273646794	
582.5	-0.04874904366	0.05508327675	
583.125	0.05945053424	0.179656188	
583.75	0.04235101728	-0.1245606583	
584.375	-0.0100406897	0.1595876808	
585.0	0.1706054159	-0.005932252141	
585.625	0.04460184163	0.01722738321	
586.25	0.2325455903	-0.04046953003	
586.875	-0.007795617109	-0.1711503693	
587.5	0.03865384413	-0.06390148204	
588.125	0.008568587416	-0.2060747727	
588.75	-0.08011227395	-0.1322404479	
589.375	0.1374344753	-0.04491710461	
590.0	-0.1052191868	-0.2346416728	
590.625	-0.1086738258	0.0347709707	
591.25	-0.2074099348	-0.01901744099	
591.875	-0.02547342493	0.2295161393	
592.5	0.03315100937	-0.06722039715	
593.125	-0.03055257531	0.1527719355	
593.75	-0.03880322353	-0.008493498051	
594.375	0.1032698843	0.1889603639	
595.0	0.2546102605	0.07399461522	
595.625	0.07311863964	0.001834532091	
596.25	0.1901649728	0.1084087091	
596.875	0.1868490868	-0.03356608461	
597.5	0.05114828787	0.04798581815	
598.125	0.1608071987	0.1883203462	
598.75	0.1724360702	0.01498143185	
599.375	0.1492232071	0.02743644479	
600.0	0.2015415588	-0.1315445597	
600.625	0.06114207564	-0.2125603641	
601.25	0.07181275724	-0.0467451066	
601.875	-0.07687450309	-0.2244578177	
602.5	-0.1093196385	0.07163115773	
603.125	-0.08781857791	-0.05919445348	
603.75	-0.1298905147	0.2122519206	
604.375	0.001956645265	0.01229196107	
605.0	-0.1617548822	0.03306183096	
605.625	0.03751542058	0.09253413277	
606.25	-0.07369391549	-0.04020424637	
606.875	-0.1541243027	0.1538086271	
607.5	-0.06578974291	0.1494624974	
608.125	-0.05930347479	0.2548651665	
608.75	0.1614923457	0.1586130097	
609.375	0.1943709853	-0.08356858274	
610.0	0.1585413868	-0.02466410928	
610.625	0.1343808738	-0.1575785168	
611.25	-0.06350613018	-0.09372739976	
611.875	0.02676754779	-0.1304301989	
612.5	-0.2446040788	-0.04279087299	
613.125	-0.0595697186	0.04043406303	
613.75	-0.1817380435	0.08989258884	
614.375	0.1584087508	0.1154186074	
615.0	-0.07044196206	-0.0276332896	
615.625	0.04110988045	0.198349245	
616.25	-0.07107585208	0.04489667279	
616.875	-0.1195933578	0.2152376278	
617.5	-0.01299136891	0.2638214744	
618.125	0.05820496711	0.1101409294	
618.75	0.002566808233	0.1670573438	
619.375	0.01891109656	0.2020254986	
620.0	0.162448953	0.02226358106	
620.625	0.1548961405	-0.09526182655	
621.25	-0.1470258555	-0.1868066092	
621.875	-0.1366112587	0.03309528061	
622.5	-0.2191323876	-0.01337415212	
623.125	-0.004228714065	0.2264355727	
623.75	0.06452270817	-0.02429167213	
624.375	0.1178559164	-0.0005606204304	
625.0	-0.0392812067	-0.04024009485	
625.625	0.1100489979	-0.0455733882	
626.25	-0.08748108772	-0.1672628831	
626.875	-0.08509139362	-0.01272487582	
627.5	-0.1328467305	-0.08048708315	
628.125	-0.136290816	-0.03688580002	
628.75	-0.0488041779	-0.08178202297	
629.375	-0.07630848809	-0.2004873592	
630.0	-0.2461495885	-0.1518078004	
630.625	-0.1651625048	0.06330075952	
631.25	-0.2152562903	0.100430566	
631.875	0.006999547225	0.2665119318	
632.5	0.09468792673	0.06171360675	
633.125	0.1803953133	0.1570115093	
633.75	0.1398552377	-0.1243201475	
634.375	0.06380367421	-0.05337690244	
635.0	-0.0005208964968	-0.2462978712	
635.625	-0.1425966838	-0.008377515898	
636.25	-0.1239586727	-0.03472580786	
636.875	-0.1188404986	0.2059337913	
637.5	0.03784517027	0.03956928728	
638.125	-0.1585506533	0.05903419439	
638.75	-0.003435702971	0.2138057507	
639.375	-0.03788106573	0.1301517059	
640.0	0.09497590096	0.3122633347	
640.625	0.3115608465	0.1460116945	
641.25	0.1714261651	-0.01549877431	
641.875	0.2557609246	-0.1220657102	
642.5	-0.07711713631	-0.2680642759	
643.125	0.005042116817	0.009288491663	
643.75	-0.1425946265	-0.2339740707	
644.375	-0.1412594923	0.1816088182	
645.0	-0.1619394309	-0.01017381303	
645.625	0.1533265099	0.4391505394	
646.25	0.1569843044	-0.1109310725	
646.875	0.03048573432	0.1069871183	
647.5	0.1707669586	-0.08762135417	
648.125	-0.0339437277	0.164799976	
648.75	0.3948298065	-0.07169973486	
649.375	0.08083324516	-0.2875197012	
650.0	0.1594915869	-0.106703479	
650.625	0.2952845789	-0.3588166544	
651.25	0.01722733137	-0.2699632123	
651.875	0.2286971615	0.01628711993	
652.5	0.390337672	-0.1157917548	
653.125	0.1425777436	-0.1752796326	
653.75	0.2502545906	-0.05936637121	
654.375	-0.06837374367	-0.4054763262	
655.0	-0.2423082421	0.03337069036	
655.625	-0.1904864587	-0.08993942518	
656.25	0.01618982537	0.3538600155	
656.875	0.06973399907	-0.1324219921	
657.5	0.02599870298	0.3169814394	
658.125	0.2344461174	0.04669302999	
658.75	0.07332865221	0.197071148	
659.375	0.5121873429	-0.1053800545	
660.0	0.07583812391	-0.3538496249	
660.625	0.1586156396	-0.1492150636	
661.25	0.2612396963	-0.3327306953	
661.875	0.09024786047	-0.3222654531	
662.5	0.2058826096	-0.01974838629	
663.125	0.3637276029	-0.2366916326	
663.75	0.03241050237	-0.233566819	
664.375	0.07405111855	-0.2468664968	
665.0	-0.3133443082	-0.3065257793	
665.625	-0.2054222931	0.1778259336	
666.25	-0.1728913017	0.1320455015	
666.875	0.1402040388	0.2856720167	
667.5	0.135889504	-0.06383638443	
668.125	0.2259649221	0.2023531567	
668.75	0.205259051	-0.2564350495	
669.375	0.01499866151	-0.09138757542	
670.0	0.1761679852	-0.267984076	
670.625	-0.1408616521	-0.2517831376	
671.25	0.1322794983	0.01924343007	
671.875	0.2206855525	-0.2558882619	
672.5	0.1045664037	-0.1849957887	
673.125	0.1584527909	-0.04468551407	
673.75	0.2754638714	-0.2480192186	
674.375	-0.08055341706	-0.2436353675	
675.0	0.04800611384	-0.1767048564	
675.625	-0.2251465683	-0.2085251761	
676.25	-0.1700739527	0.08241224257	
676.875	-0.04722594135	-0.1145263439	
677.5	-0.2634667179	0.07830613398	
678.125	0.008574362916	0.09695876351	
678.75	-0.1813601144	0.1893309941	
679.375	0.394454812	0.1092486595	
680.0	-0.1235678627	-0.0841606152	
680.625	0.2009458542	0.05079284585	
681.25	0.007127172737	-0.2403970482	
681.875	-0.08098599477	0.1689411084	
682.5	0.370488369	0.2405732839	
683.125	0.005425492699	-0.1216347571	
683.75	0.1816366211	0.2086763846	
684.375	0.3835774204	0.02620655045	
685.0	0.1936010253	-0.1440608805	
685.625	0.2619973645	0.2173497126	
686.25	0.4481313799	-0.1203800147	
686.875	0.2087349663	-0.09095270641	
687.5	0.3448657503	-0.1251547294	
688.125	-0.04340370549	-0.5249589691	
688.75	-0.2562441914	-0.02053117724	
689.375	-0.3370017487	0.101270601	
690.0	0.1713281246	0.455429528	
690.625	0.138863892	0.0536923215	
691.25	0.2384308304	0.4940223387	
691.875	0.5548475018	-0.005729210831	
692.5	0.3231470127	0.215092034	
693.125	0.7615674138	0.1436532788	
693.75	0.3410250463	-0.4298815978	
694.375	0.2976198916	-0.1001260155	
695.0	0.4042805332	-0.4950263832	
695.625	0.3559267318	-0.1666919784	
696.25	0.2491060002	0.1802708575	
696.875	0.4033494428	0.4165144847	
697.5	0.3319013464	0.3502184076	
698.125	0.3899207197	0.257082285	
698.75	0.5536566772	-0.3455181422	
699.375	-0.4470963516	-0.3264875542	
700.0	-0.08718258961	0.2282264048	
700.625	0.08073307241	0.415615778	
701.25	0.2177077261	0.01957400444	
701.875	0.1030046778	0.2657395189	
702.5	0.5228459359	0.2498533836	
703.125	0.295738949	-0.0498191012	
703.75	0.3509816361	0.0760963498	
704.375	0.2439878521	-0.2928280003	
705.0	0.07178745183	-0.1170297448	
705.625	0.3208906123	-0.1199539719	
706.25	0.2635887143	0.06814624565	
706.875	0.166188308	0.2781756671	
707.5	0.1841945756	0.4145531471	
708.125	0.3982982244	0.3709421682	
708.75	0.2502685296	-0.3057921916	
709.375	-0.1326925346	-0.3551773324	
710.0	-0.2682420582	0.2444058305	
710.625	0.1250518001	-0.01140085094	
711.25	0.01906406017	0.2333798214	
711.875	0.2545369213	-0.06642146232	
712.5	0.2153745743	0.09284721984	
713.125	0.3436621203	-0.1885112619	
713.75	0.03846348863	-0.2675947405	
714.375	0.07272285316	-0.1180807064	
715.0	-0.01312481659	-0.270730873	
715.625	-0.05000085012	-0.1363650459	
716.25	0.1624427185	-0.141334426	
716.875	0.3135938384	-0.2461257719	
717.5	0.2871753446	-0.05757157259	
718.125	0.5728306235	0.1871692833	
718.75	0.9104669696	0.1292953344	
719.375	0.4498737117	-0.3103083855	
720.0	0.5725635352	-0.3174529086	
720.625	0.2511322609	-1.741224757	
721.25	-0.1453605064	-0.10963785	
721.875	0.2136739105	-0.9850163138	
722.5	-0.8328027263	-0.7354940128	
723.125	-0.4078747016	-0.06207497711	
723.75	-0.7404222329	0.3284927565	
724.375	0.2022943235	0.4449948528	
725.0	0.0306135727	0.2029935776	
725.625	0.1270377905	0.5680555938	
726.25	0.2842267268	0.5168551069	
726.875	-0.2308297484	0.5005039251	
727.5	-0.3218765603	1.42718838	
728.125	0.4368305679	1.66155035	
728.75	-0.6478673435	1.460469858	
729.375	-2.052201947	3.235666904	
730.0	0.8528213401	3.295280346	
730.625	-0.3358059343	2.03803743	
731.25	-3.314454712	3.94058333	
731.875	-0.1526738218	3.642269812	
732.5	-1.927693052	-1.678529034	
733.125	-3.185679702	0.1033551348	
733.75	0.02521132205	1.336528883	
734.375	-0.09863305091	0.6612979512	
735.0	0.1042552056	-1.034915878	
735.625	-0.1699129337	0.2171270813	
736.25	-0.4058898055	0.4831283538	
736.875	0.6116312824	0.5842234258	
737.5	0.5166574456	-0.195333557	
738.125	1.379129034	0.513434258	
738.75	1.853406393	-1.950678689	
739.375	0.4385043166	-1.430350731	
740.0	2.711566714	1.684948298	
740.625	5.835845877	-1.000150997	
741.25	-0.4396510614	-1.813860543	
741.875	-4.719573918	-1.58772143	
742.5	-3.477813575	-0.6362753213	
743.125	0.6920745647	-0.127336458	
743.75	0.388235338	-1.206522452	
744.375	-0.5511090754	0.155086422	
745.0	-0.1232088	-0.08976968615	
745.625	0.1857552694	-0.09177536592	
746.25	0.007955882956	-0.006206817941	
746.875	-0.2971048978	-0.0747120088	
747.5	0.01418033942	0.3388974711	
748.125	0.03566150776	0.3178277694	
748.75	0.1578056575	0.5316755904	
749.375	0.2145468263	0.4179716969	
750.0	-0.2599189573	0.1199226205	
