!Created with skrf (http://scikit-rf.org).
# GHz S RI R (50+0j) 
!freq	ReS11	ImS11	
500.0	-0.1917117461	-0.8044076604	
500.625	0.7482079715	-0.4389984472	
501.25	-0.5827408034	-0.774877213	
501.875	-0.1282628465	-0.126078319	
502.5	0.02436384948	-0.1572829412	
503.125	-0.07679412274	0.03051517568	
503.75	-0.01225964048	0.02144381447	
504.375	0.0551047574	-0.01269627888	
505.0	-0.01259203665	-0.004083224337	
505.625	0.04509746841	-0.0631510036	
506.25	-0.107385099	0.01760793868	
506.875	-0.1196336263	-0.218645655	
507.5	-0.4286046485	-0.3367316973	
508.125	0.2951616485	-0.2252918765	
508.75	0.8768051077	-0.8215390852	
509.375	-0.3378138466	-1.119305527	
510.0	-0.1942740888	-0.07208777593	
510.625	-0.06083835363	-0.2276368793	
511.25	-0.07290713412	0.0253378836	
511.875	-0.01652206338	-0.09241643545	
512.5	-0.03770147628	0.06409202865	
513.125	-0.004863747408	-0.0210686927	
513.75	-0.00719391974	-0.09402418756	
514.375	-0.1236467644	0.01702780859	
515.0	0.2434950075	0.01737920355	
515.625	-0.3928276454	-0.2977633775	
516.25	0.2401703471	-0.2999379005	
516.875	-0.1118984374	-0.6632765747	
517.5	-0.142430306	-0.08953164059	
518.125	0.004513385045	-0.07656170672	
518.75	-0.0844709431	-0.05898812382	
519.375	-0.0230048821	0.01715055067	
520.0	0.06416049971	0.08723956652	
520.625	0.1552211148	-0.06752053179	
521.25	-0.04444201442	-0.210506858	
521.875	-0.05404123291	-0.06939403969	
522.5	-0.09194147678	0.06600388202	
523.125	0.04177450111	-0.02185901624	
523.75	-0.2006104925	-0.03521863149	
524.375	-0.01980261512	0.1241745067	
525.0	-0.1105917911	0.001891085925	
525.625	0.04723827922	0.1351850609	
526.25	-0.09545215453	-0.0100917283	
526.875	-0.008616315187	0.09654855233	
527.5	-0.002351965241	0.06158953745	
528.125	-0.03010818456	0.2768440244	
528.75	0.05785966952	0.1471059606	
529.375	-0.01720587968	0.04603493381	
530.0	0.001587983783	0.1320886106	
530.625	0.09580096851	0.1211033817	
531.25	0.139297689	0.02560753695	
531.875	0.2743321799	-0.1951261254	
532.5	-0.08528022039	0.009843419095	
533.125	0.1416083817	-0.1333886094	
533.75	-0.04804178353	-0.1312123391	
534.375	0.03492506557	-0.2640802894	
535.0	-0.259394919	-0.05005057887	
535.625	-0.08906745249	0.06142193789	
536.25	-0.03281278048	0.09304112476	
536.875	0.1017188075	-0.01395684734	
537.5	0.04443345116	-0.008098834327	
538.125	0.1535980648	-0.06880012063	
538.75	0.1183376664	-0.1135366342	
539.375	-0.02906664811	-0.1495642848	
540.0	-0.1957955629	-0.1666988856	
540.625	-0.1059157137	0.02267129327	
541.25	-0.001463843156	0.003823699968	
541.875	-0.07500928159	-0.02130130098	
542.5	0.01109205253	0.01669175336	
543.125	-0.1091179032	-0.07364767274	
543.75	-0.0666743298	0.1220527421	
544.375	-0.05900431336	-0.0216783889	
545.0	0.02733021539	0.08113723825	
545.625	-0.0009224067517	0.01318946508	
546.25	0.1247889355	0.08540723825	
546.875	0.06926951109	-0.06685334214	
547.5	0.09553230832	-0.07238459253	
548.125	-0.05863688252	-0.1883045077	
548.75	-0.1082869863	-0.03387058908	
549.375	-0.05922599985	-0.09372239607	
550.0	-0.1032020216	0.02325738698	
550.625	-0.01491149902	-0.0007188171011	
551.25	-0.09782953669	0.01798418731	
551.875	-0.0427192969	0.06983079433	
552.5	-0.06035297068	0.05469957756	
553.125	-0.004808172763	0.06661499254	
553.75	0.02586201577	0.03030903336	
554.375	0.09394431207	0.006294009617	
555.0	0.08516723894	-0.06483955976	
555.625	0.07863958963	-0.08568760775	
556.25	0.06708350155	-0.12783975	
556.875	-0.03087602297	-0.1453591909	
557.5	-0.08652164459	-0.09247209089	
558.125	-0.1049580723	-0.04349703844	
558.75	-0.1057569875	-0.001792415818	
559.375	-0.093004182	0.02031539545	
560.0	-0.09831449624	0.05974511287	
560.625	-0.04607105922	0.1213986296	
561.25	0.01209108262	0.06498065379	
561.875	0.01449910358	0.06666922778	
562.5	0.02808028283	0.02431616785	
563.125	0.03921070455	0.09185943411	
563.75	0.1630411886	-0.01545056093	
564.375	0.07788067771	-0.07215237141	
565.0	0.1122980454	-0.1377643581	
565.625	-0.08153582569	-0.1628481021	
566.25	-0.04001611491	-0.05815869858	
566.875	-0.1542945156	-0.1300324349	
567.5	-0.1617356775	-0.01840814059	
568.125	-0.02878483659	-0.1795896989	
568.75	-0.2694435514	-0.0826906448	
569.375	-0.1058147716	0.09075781193	
570.0	-0.1857956128	0.1249130529	
570.625	-0.002783231278	0.2479527192	
571.25	0.002798922817	0.01772892767	
571.875	0.0759200137	0.1661989119	
572.5	0.07350162876	-0.0885036473	
573.125	0.1190808255	-0.001204731495	
573.75	0.08012965302	-0.1811290511	
574.375	-0.06958218543	-0.02625032003	
575.0	0.1119452227	-0.0264820703	
575.625	-0.04020437356	-0.1066344959	
576.25	0.07564022224	-0.004077879971	
576.875	0.01556273091	-0.2154798905	
577.5	-0.08304797286	-0.1114469596	
578.125	0.0543177467	-0.07877370978	
578.75	-0.08925230074	-0.2361852559	
579.375	-0.1385756194	0.0632855509	
580.0	0.06974377326	-0.1003804034	
580.625	-0.1709071245	0.06506397622	
581.25	-0.001594209606	-0.004179121845	
581.875	-0.09247398921	0.258175157	
582.5	0.1742158697	0.1238972802	
583.125	0.000471381273	-0.01127035046	
583.75	0.08410804469	0.1168597486	
584.375	-0.02160873701	-0.06493440079	
585.0	0.08964787172	0.1602710437	
585.625	0.199945201	-0.06501810702	
586.25	0.04613341215	-0.04488870907	
586.875	0.1370715984	-0.1182620442	
587.5	-0.0868039283	-0.1686042226	
588.125	0.02437351681	-0.04306046108	
588.75	0.08299061853	-0.1976067432	
589.375	-0.06021604156	-0.1526995533	
590.0	0.05715044347	-0.1228063901	
590.625	-0.2681509973	-0.06737361181	
591.25	-6.249281152e-06	0.1169926342	
591.875	-0.1348752961	0.03481645831	
592.5	0.05234526456	0.1384254255	
593.125	-0.07579655881	-0.05531014096	
593.75	0.1214057569	0.1713206313	
594.375	0.0526979121	0.01781409663	
595.0	0.1077380352	0.1692704406	
595.625	0.2452558505	0.07457300126	
596.25	0.05905255708	-0.01088909789	
596.875	0.1764442681	0.1127137892	
597.5	0.1927305968	0.02925076788	
598.125	0.06422586191	0.05791243767	
598.75	0.1770207857	0.1510682504	
599.375	0.1991995833	-0.08131605001	
600.0	0.1166458678	-0.06326323973	
600.625	0.1966510764	-0.1688194726	
601.25	-0.01044090457	-0.2233421465	
601.875	0.03126676588	-0.02799865615	
602.5	-0.2003881109	-0.07612297089	
603.125	-0.03839610027	0.1125932105	
603.75	-0.1721444168	-0.05755289434	
604.375	-0.1638869538	0.1405052218	
605.0	-0.03085107423	-0.05284633515	
605.625	-0.1703247983	0.06444695595	
606.25	-0.04312673426	0.1200704966	
606.875	-0.1154326318	-0.01724665479	
607.5	-0.1284146671	0.2065604493	
608.125	0.03864521946	0.1953358675	
608.75	0.1656755853	0.1741605113	
609.375	0.289241324	-0.00325609855	
610.0	0.1659785467	-0.15804589	
610.625	0.09143756629	-0.07136457027	
611.25	0.03334622369	-0.2324566708	
611.875	-0.08911176203	-0.02026969624	
612.5	-0.07944860033	-0.1606901636	
613.125	-0.2608643325	0.09932720788	
613.75	0.01838039492	0.07048556822	
614.375	-0.02862154385	0.2078976528	
615.0	0.1111068037	-0.03423304594	
615.625	-0.1070778282	0.0397017486	
616.25	0.01013460383	0.2255871495	
616.875	-0.1288167964	0.1199776263	
617.5	-0.06228939568	0.2481876597	
618.125	0.002789138777	0.2543300399	
618.75	0.03108971889	0.1270775236	
619.375	0.08266647754	0.05479023113	
620.0	0.2112208615	0.1440831028	
620.625	0.06523206211	-0.1328889259	
621.25	-0.02237671949	-0.2118348768	
621.875	-0.2773270298	-0.1075400816	
622.5	-0.09738093616	0.1045953032	
623.125	-0.1314507855	0.1583039616	
623.75	0.1886556218	0.0361472413	
624.375	-0.03892626231	-0.01642716825	
625.0	0.1066428198	-0.06928385125	
625.625	-0.007938463372	-0.04827716374	
626.25	0.0239474094	-0.152749702	
626.875	-0.1867888062	-0.08413529089	
627.5	-0.07878256401	0.01424708342	
628.125	-0.09067835015	-0.05243112808	
628.75	-0.09162427305	-0.106580556	
629.375	-0.03659011241	-0.1043320094	
630.0	-0.1394172917	-0.1333801477	
630.625	-0.3128062828	0.0877007438	
631.25	-0.07698828306	0.1536154895	
631.875	-0.1006906342	0.2394046993	
632.5	0.1760358371	0.1774449894	
633.125	0.06738935752	-0.01004806352	
633.75	0.223376849	0.003696640613	
634.375	-0.00600667158	-0.1690633956	
635.0	0.07895971591	-0.05166606301	
635.625	-0.1868159066	-0.1411159345	
636.25	-0.09983469888	0.1171524804	
636.875	-0.08795868226	0.0207953503	
637.5	-0.04090527717	0.1733947145	
638.125	-0.01366804874	0.001370443101	
638.75	-0.154818351	0.1789383061	
639.375	0.07224352134	0.2530098316	
640.0	0.05522708141	0.1520338332	
640.625	0.1901934929	0.2238807635	
641.25	0.3549101329	-0.04899685904	
641.875	0.06391855197	-0.133866455	
642.5	0.1367276063	-0.2011626116	
643.125	-0.207791766	-0.08137531385	
643.75	0.1199007231	-0.04901416034	
644.375	-0.327349602	-0.08052713344	
645.0	-0.01630020686	0.1899218737	
645.625	-0.1368933848	0.1211084613	
646.25	0.3750047187	0.1528210966	
646.875	-0.01370179145	-0.1160240567	
647.5	0.1000031667	0.1685631369	
648.125	0.1667737563	-0.091196751	
648.75	0.1236931801	0.09192243686	
649.375	0.3653889221	-0.3155501236	
650.0	-0.01394613846	-0.3160882874	
650.625	0.1921649656	-0.1003468816	
651.25	0.3056514888	-0.2947236199	
651.875	0.09032904643	-0.2628672081	
652.5	0.2089889616	0.06935796422	
653.125	0.378262282	-0.1431645818	
653.75	0.04630480947	-0.2469024317	
654.375	0.1434473087	-0.2216794112	
655.0	-0.3966254986	-0.140673161	
655.625	0.05381108615	0.2198974509	
656.25	-0.1267841186	0.0761655593	
656.875	0.2556677977	0.1770501604	
657.5	-0.1580155396	-0.05846035741	
658.125	0.1918357316	0.2930019709	
658.75	0.274610289	-0.06700893554	
659.375	0.2334811176	0.02070241132	
660.0	0.3707705776	-0.3072098886	
660.625	-0.02847134176	-0.3511404936	
661.25	0.2042123789	-0.1103007877	
661.875	0.2959973954	-0.3127069197	
662.5	0.1332881008	-0.249748142	
663.125	0.2367871469	-0.02731593971	
663.75	0.2268106698	-0.3591082258	
664.375	-0.1165376444	-0.2149078403	
665.0	-0.1253801293	-0.2362047529	
665.625	-0.4289311648	0.06196804598	
666.25	0.06507129964	0.2307941225	
666.875	-0.02741749498	0.2113265412	
667.5	0.2953212868	0.1018414381	
668.125	0.01970819017	-0.05136851895	
668.75	0.3274116994	-0.022795719	
669.375	-0.05886794464	-0.3305761426	
670.0	0.03671479727	-0.05016395303	
670.625	0.09149627662	-0.2709159842	
671.25	-0.05451417735	-0.2252342416	
671.875	0.1898982073	0.01182765339	
672.5	0.2921635679	-0.2228500461	
673.125	0.1012998484	-0.1676250513	
673.75	0.1715862673	-0.09400111754	
674.375	0.1232482508	-0.3418010274	
675.0	-0.1792881982	-0.1260660291	
675.625	-0.06177085584	-0.191976324	
676.25	-0.258592043	-0.05601436643	
676.875	-0.08590730352	0.1004073798	
677.5	-0.1201852883	-0.1313077679	
678.125	-0.1791791603	0.3032242278	
678.75	0.06657615567	0.06623031994	
679.375	0.1148239931	0.3215392803	
680.0	0.258456149	-0.2677744641	
680.625	-0.1131343026	0.02781093285	
681.25	0.3354469326	-0.04604474959	
681.875	-0.009226170458	-0.1206151138	
682.5	0.06291742566	0.2297757562	
683.125	0.4659693911	0.1034916146	
683.75	0.05639684186	-0.04854621017	
684.375	0.1754076481	0.2269106478	
685.0	0.3491032983	0.02876295044	
685.625	0.1607939218	-0.1248606537	
686.25	0.242003496	0.2053075276	
686.875	0.366538793	-0.3174679733	
687.5	0.2015491447	-0.1790590986	
688.125	0.1442748854	-0.4202641674	
688.75	-0.5365887248	-0.2021869711	
689.375	-0.08214749701	0.1966527212	
690.0	-0.1440526789	0.4408818045	
690.625	0.3873035087	0.1903097795	
691.25	0.0932450303	0.1551600659	
691.875	0.68887742	0.5386634847	
692.5	0.4594855297	-0.09344639563	
693.125	0.5830267415	0.2542584126	
693.75	0.7367010799	-0.2444235211	
694.375	0.2369408567	-0.4582323411	
695.0	0.3692017091	-0.02644420965	
695.625	0.4657557228	-0.2010293305	
696.25	0.378983324	0.04380393442	
696.875	0.246827206	0.3781186614	
697.5	0.3308997255	0.4608300061	
698.125	0.4514798311	0.05408938549	
698.75	0.4535786433	-0.1647749889	
699.375	-0.3722316588	-0.4971480147	
700.0	-0.1835519754	0.3717154362	
700.625	-0.04131026599	0.117355644	
701.25	0.3437643357	0.2666872455	
701.875	0.1672981807	0.06079654139	
702.5	0.2341501416	0.3539681667	
703.125	0.5063765651	0.02050925144	
703.75	0.2382706893	-0.01108050264	
704.375	0.3909261927	-0.09479904021	
705.0	0.2001215996	-0.2192485646	
705.625	0.09226368854	0.02256599758	
706.25	0.2283348265	0.01455291473	
706.875	0.1969688674	0.2095225721	
707.5	0.1058827122	0.2842871722	
708.125	0.3189895999	0.1838788054	
708.75	0.4710107518	-0.3631947453	
709.375	-0.21068679	-0.1685242742	
710.0	-0.2818496919	0.1101597538	
710.625	0.2410485006	0.2505677968	
711.25	-0.1011847718	0.06674525277	
711.875	0.2828557308	0.1922589064	
712.5	0.1762643721	-0.09939602955	
713.125	0.2674491513	-0.033357894	
713.75	0.1673057026	-0.2975881099	
714.375	-0.05967466576	-0.1732876331	
715.0	0.08028901862	-0.167332046	
715.625	-0.003533708153	-0.2551790583	
716.25	0.06291844523	-0.1018413118	
716.875	0.2614002252	-0.07555001996	
717.5	0.4527892699	-0.1056225337	
718.125	0.3878779755	0.08437943036	
718.75	0.5467236846	0.1493904434	
719.375	0.8295477811	-0.529230613	
720.0	-0.2260873123	-0.4175509646	
720.625	0.7578129744	-0.6167994729	
721.25	-0.7092062754	-1.194651909	
721.875	0.3237325204	-0.2997249365	
722.5	-0.460082419	-1.036954764	
723.125	-0.761075198	0.0219726415	
723.75	-0.2757581893	0.09947785534	
724.375	-0.06168911579	0.6492849629	
725.0	0.2392590457	0.1651035248	
725.625	-0.03954946681	0.3952826803	
726.25	0.08302124513	0.7745644001	
726.875	0.1810078788	0.6341888691	
727.5	-0.4893753099	0.7810505463	
728.125	-0.1012423565	2.095418237	
728.75	0.4897083141	1.797811522	
729.375	-1.187938372	1.943383281	
730.0	-1.149260084	4.514506343	
730.625	2.261855186	2.771920898	
731.25	-1.648047784	1.424660381	
731.875	-4.174501213	3.840215382	
732.5	-1.684301532	1.356110083	
733.125	-2.50698307	-1.59816375	
733.75	-0.9408805566	1.821028186	
734.375	0.4398919305	-0.02322193039	
735.0	0.5513057854	-0.4770525663	
735.625	-0.6083019282	0.3776537741	
736.25	-0.1099985524	0.03521923138	
736.875	0.3605688759	0.8056512281	
737.5	1.137192119	-0.08121074683	
738.125	0.3559051075	-0.4441763794	
738.75	2.399553482	-0.1035091318	
739.375	1.815328934	-3.041713939	
740.0	0.2219802387	-0.4104314567	
740.625	3.776546268	2.902837065	
741.25	4.088878717	1.253414095	
741.875	-1.622618684	-2.663137442	
742.5	-2.671052706	-3.784025888	
743.125	-1.499267245	-1.134738229	
743.75	0.6247138569	-0.2272481092	
744.375	-0.6702346346	-0.255667882	
745.0	0.1667215457	-0.02065586548	
745.625	0.1674268954	0.1033565783	
746.25	-0.1021463017	-0.08236557357	
746.875	-0.1229410332	-0.09592652204	
747.5	-0.1394466329	0.4374132034	
748.125	0.210890268	0.3707313291	
748.75	0.08632793563	0.3617706673	
749.375	0.0815817907	0.5346323304	
750.0	-0.2647278658	0.2173576046	
