!Created with skrf (http://scikit-rf.org).
# GHz S RI R (50+0j) 
!freq	ReS11	ImS11	
500.0	0.03574996915	-1.38620975	
500.625	0.2484006651	-1.210458853	
501.25	-0.541990693	-0.8186628944	
501.875	-0.3979877805	-0.5660198754	
502.5	-0.07927897731	-0.1700267907	
503.125	-0.09393406213	0.0174676288	
503.75	0.02390653206	0.09968272863	
504.375	0.03480281151	-0.01030777878	
505.0	0.02298033547	-0.02732725722	
505.625	-0.004053544473	-0.06618660072	
506.25	-0.08885342779	-0.06901720995	
506.875	-0.1417053983	0.01055067707	
507.5	-0.1382356993	-0.473582024	
508.125	0.1485429756	-0.8417801433	
508.75	0.5973834324	-1.306651016	
509.375	-0.5881364068	-1.496867273	
510.0	-0.6445308541	-0.3061181185	
510.625	-0.2431745366	-0.1826498032	
511.25	-0.1562127927	-0.009702138711	
511.875	-0.1570494436	-0.06910759013	
512.5	-0.02769865473	0.05605179704	
513.125	-0.01066792692	-0.0895061303	
513.75	-0.08530350652	-0.05554530717	
514.375	-0.09757346215	-0.006522693037	
515.0	-0.01903242718	-0.07790459867	
515.625	-0.09948129993	-0.5167565435	
516.25	-0.3534610978	-0.7880760755	
516.875	-0.3145032765	-0.5029311571	
517.5	-0.07018421153	-0.2053060406	
518.125	-0.03606134495	-0.03794424311	
518.75	-0.07089526614	-0.1816194834	
519.375	-0.07616529873	0.05378083612	
520.0	0.1450437908	0.06768647609	
520.625	0.1994818291	-0.08557714217	
521.25	-0.04070468602	-0.3314305574	
521.875	-0.1864414235	-0.01961489998	
522.5	-0.05788601882	0.03072623357	
523.125	-0.07199180779	0.04007630776	
523.75	-0.131031352	-0.008154114863	
524.375	-0.1935246058	0.05933172262	
525.0	-0.03745071996	0.1705165394	
525.625	0.04981217266	0.05350963431	
526.25	-0.01912300193	-0.01574818704	
526.875	-0.06488440901	0.06568342466	
527.5	-0.05919846557	0.2358969883	
528.125	0.07751861674	0.329723767	
528.75	0.05377240288	0.2668392408	
529.375	0.05050448341	0.07542512642	
530.0	0.05759072935	0.1993871125	
530.625	0.1722100165	0.3614953327	
531.25	0.5473767825	0.07703689734	
531.875	0.2603949258	-0.2568161477	
532.5	-0.0796500466	-0.1351329066	
533.125	0.05636193225	-0.07237011021	
533.75	0.09992333699	-0.2515285191	
534.375	-0.1567975919	-0.3403557648	
535.0	-0.3154561692	-0.1049399012	
535.625	-0.1911435213	0.1599410087	
536.25	0.001448636042	0.1223622328	
536.875	0.1218185329	0.01813007839	
537.5	0.08337384799	-0.05450726194	
538.125	0.1455204096	-0.07573482595	
538.75	0.1592970768	-0.151600594	
539.375	-0.0909367242	-0.2082041746	
540.0	-0.2105216638	-0.1827621652	
540.625	-0.2053482192	-0.02462712772	
541.25	-0.1085442371	0.01180272144	
541.875	-0.05937422152	-0.02244090476	
542.5	-0.06018740745	-0.06223592858	
543.125	-0.1043789799	-0.05016800735	
543.75	-0.1077163307	0.004927140586	
544.375	-0.05434556308	0.05434662114	
545.0	-0.001225987394	0.07310224162	
545.625	0.06804262427	0.07535520223	
546.25	0.1240738968	0.04349554003	
546.875	0.1480629069	-0.04272237159	
547.5	0.08139742532	-0.1575323369	
548.125	-0.05835740228	-0.2041195613	
548.75	-0.1600566297	-0.1415049161	
549.375	-0.1444862762	-0.08084235928	
550.0	-0.09626020755	0.01247090286	
550.625	-0.06729688202	0.01204310367	
551.25	-0.09599424626	0.04102053214	
551.875	-0.08759381979	0.0937194818	
552.5	-0.04894330349	0.1053291403	
553.125	-0.01354383632	0.08523935382	
553.75	0.06363082402	0.05623012422	
554.375	0.1222132969	-0.01023916808	
555.0	0.1213153216	-0.09539472735	
555.625	0.1025250093	-0.1458674459	
556.25	0.07758351536	-0.1842244632	
556.875	-0.0518960212	-0.2031803723	
557.5	-0.133439421	-0.1333518302	
558.125	-0.1527694259	-0.04823775231	
558.75	-0.1417592185	0.0005197164495	
559.375	-0.141421477	0.03133513505	
560.0	-0.1223998604	0.1007184676	
560.625	-0.06445804765	0.1450572948	
561.25	0.01207965736	0.1304137681	
561.875	0.04043131796	0.05703185193	
562.5	0.0166184027	0.06793442696	
563.125	0.0933746498	0.08953708404	
563.75	0.1782518445	-0.004389616461	
564.375	0.1602602854	-0.1298286625	
565.0	0.08513695022	-0.1927288242	
565.625	-0.04790261181	-0.198781737	
566.25	-0.1490970569	-0.1328063317	
566.875	-0.1800394537	-0.09301282954	
567.5	-0.1833394252	-0.1328320143	
568.125	-0.188579022	-0.1984231172	
568.75	-0.2936310487	-0.08976656584	
569.375	-0.2912077239	0.1391558824	
570.0	-0.1445160754	0.2622458268	
570.625	-0.06620430694	0.2255191559	
571.25	0.005164330878	0.1511474567	
571.875	0.0781127019	0.09394158962	
572.5	0.1595478271	-0.01043509814	
573.125	0.1086925416	-0.144773931	
573.75	0.04965813969	-0.1477734661	
574.375	0.01269194702	-0.08832777785	
575.0	0.03655413971	-0.05043650478	
575.625	0.04511640629	-0.09728320746	
576.25	0.05619365114	-0.1398445144	
576.875	-0.008112158231	-0.1818864494	
577.5	-0.008310625825	-0.2045163228	
578.125	-0.06523275004	-0.1985704296	
578.75	-0.1133446026	-0.1500651143	
579.375	-0.1114610242	-0.08071358553	
580.0	-0.06797066645	-0.03720118364	
580.625	-0.08929630442	-0.0329824537	
581.25	-0.125239554	0.0997121292	
581.875	0.01572723996	0.1972549862	
582.5	0.0765669606	0.1735910823	
583.125	0.09565163592	0.09581116782	
583.75	0.05055618847	0.02558598337	
584.375	0.04635720434	0.06974923978	
585.0	0.1394405083	0.06865723923	
585.625	0.1959739763	-0.0130442347	
586.25	0.1831545637	-0.0904855282	
586.875	0.08356741341	-0.1740801615	
587.5	-0.02489331803	-0.1777167198	
588.125	-0.02595988001	-0.1744011523	
588.75	0.03807140348	-0.184020537	
589.375	0.07944574227	-0.1973420029	
590.0	-0.07925046726	-0.2151226277	
590.625	-0.2325680419	-0.0406740679	
591.25	-0.1564424562	0.1490578846	
591.875	-0.03894561597	0.1514294444	
592.5	0.009510403137	0.06257317699	
593.125	-0.03429040465	0.0644289562	
593.75	0.07101436346	0.1487880212	
594.375	0.1944251598	0.1233980707	
595.0	0.2168188628	0.1278513142	
595.625	0.2179061601	0.1013071168	
596.25	0.2051090153	0.05153844949	
596.875	0.2022636976	0.0407333274	
597.5	0.1906294137	0.09819607755	
598.125	0.1953706886	0.1369393979	
598.75	0.2300621988	0.0950019399	
599.375	0.2663802402	-0.0590591289	
600.0	0.1993167893	-0.1959970493	
600.625	0.16640444	-0.2305774591	
601.25	0.07953053076	-0.2417110968	
601.875	-0.1031296358	-0.1787646028	
602.5	-0.1655071994	-0.01349952804	
603.125	-0.1331847826	0.0700342457	
603.75	-0.1283694496	0.09600274802	
604.375	-0.1208446787	0.09763729929	
605.0	-0.08489185968	0.09930371153	
605.625	-0.08831519316	0.08066411425	
606.25	-0.1419397518	0.08495307988	
606.875	-0.2096957409	0.1189609444	
607.5	-0.1937509208	0.2409610628	
608.125	-0.01531664252	0.3124296202	
608.75	0.2438460531	0.1955245306	
609.375	0.2934095226	-0.06356329136	
610.0	0.2004508233	-0.1684588274	
610.625	0.09464132087	-0.2064072623	
611.25	-0.004574338272	-0.2002659854	
611.875	-0.1145579133	-0.1504975153	
612.5	-0.2112184287	-0.07291741784	
613.125	-0.2401575156	0.05374110479	
613.75	-0.1079278468	0.1889020834	
614.375	0.06306625915	0.1351737019	
615.0	0.05212675463	0.05404008712	
615.625	0.0004348175755	0.1091098664	
616.25	-0.05003388933	0.1822375943	
616.875	-0.09463707808	0.2417235364	
617.5	-0.06831208668	0.2845968453	
618.125	0.001322988226	0.2731110179	
618.75	0.05452684849	0.2379730903	
619.375	0.1382552859	0.1945081858	
620.0	0.2453558595	0.03304106344	
620.625	0.1220394197	-0.2103323807	
621.25	-0.1347620464	-0.2225074042	
621.875	-0.2666024709	-0.08882959205	
622.5	-0.2662938013	0.09268112663	
623.125	-0.03214847709	0.2380678727	
623.75	0.1689993399	0.04080172658	
624.375	0.04504993564	-0.07058598634	
625.0	0.0479554318	-0.03791553925	
625.625	0.05577677136	-0.1162231634	
626.25	-0.06785433572	-0.1687771008	
626.875	-0.1775234525	-0.1025693028	
627.5	-0.1864055312	-0.05112010721	
628.125	-0.1427787944	-0.08557235115	
628.75	-0.09779163709	-0.151115319	
629.375	-0.1251840824	-0.1830679047	
630.0	-0.246692482	-0.1094424603	
630.625	-0.2729660073	0.1089237287	
631.25	-0.1540359244	0.2663054834	
631.875	0.002890883206	0.3147099934	
632.5	0.2121411668	0.2241738927	
633.125	0.2727836929	0.0358522119	
633.75	0.2025472675	-0.113187604	
634.375	0.05823206947	-0.1827181397	
635.0	-0.04181884558	-0.1838193945	
635.625	-0.1949200196	-0.09167362808	
636.25	-0.1881669341	0.1080214476	
636.875	-0.06752689341	0.1686274564	
637.5	-0.03377099776	0.1179762612	
638.125	-0.07132554898	0.1196663595	
638.75	-0.06688428496	0.2173269467	
639.375	0.03217894981	0.3112310777	
640.0	0.2073503328	0.2859989026	
640.625	0.3191976828	0.1515172703	
641.25	0.3473554043	-0.04459555438	
641.875	0.1904743382	-0.2567698123	
642.5	-0.04150200215	-0.2696910595	
643.125	-0.1720504649	-0.1374293589	
643.75	-0.1802269287	-0.0737268235	
644.375	-0.2211199099	0.02180292166	
645.0	-0.1675544353	0.2090917771	
645.625	0.08925234555	0.2645298662	
646.25	0.2169090054	0.08113178801	
646.875	0.1264321676	-0.03032669365	
647.5	0.07293457258	0.03613329195	
648.125	0.2047113725	0.05572715172	
648.75	0.3258861539	-0.1055426084	
649.375	0.2659824937	-0.3213169353	
650.0	0.1839065645	-0.3922944488	
650.625	0.1716607369	-0.3676508567	
651.25	0.2234897294	-0.3141113272	
651.875	0.2963043837	-0.2418374663	
652.5	0.3298649605	-0.1666259335	
653.125	0.3134356939	-0.1917427049	
653.75	0.1879799489	-0.3304483065	
654.375	-0.1432245892	-0.3629558787	
655.0	-0.3770555547	-0.0590498756	
655.625	-0.193117415	0.2643218325	
656.25	0.0716139858	0.2129358638	
656.875	0.07732539556	0.0799202529	
657.5	0.05980141185	0.1247227884	
658.125	0.2033479171	0.1826446379	
658.75	0.3799747228	0.06256294641	
659.375	0.3885625375	-0.2171780886	
660.0	0.2481350021	-0.3965010623	
660.625	0.1371307324	-0.4272011055	
661.25	0.1680270232	-0.3868604939	
661.875	0.2405667987	-0.3394404315	
662.5	0.2994018879	-0.2892084981	
663.125	0.2955606587	-0.2847070578	
663.75	0.1535104399	-0.3785850452	
664.375	-0.1014434471	-0.4040346464	
665.0	-0.3625698582	-0.2222763104	
665.625	-0.3825879837	0.1533163729	
666.25	-0.09292986744	0.3542708612	
666.875	0.1743087253	0.2470608408	
667.5	0.2448339788	0.0937779355	
668.125	0.2728608059	-0.04427312421	
668.75	0.2247087338	-0.2002631479	
669.375	0.09942573601	-0.2880028223	
670.0	-0.01087934664	-0.2776926085	
670.625	-0.008049856918	-0.2394118712	
671.25	0.05753883928	-0.2250760497	
671.875	0.1529112116	-0.2230703722	
672.5	0.232782926	-0.2109004602	
673.125	0.2333177307	-0.2461064057	
673.75	0.1601092209	-0.3004651196	
674.375	0.01644937229	-0.3333169587	
675.0	-0.1526013951	-0.2812342944	
675.625	-0.2552466454	-0.1314508363	
676.25	-0.2357000241	-0.001971724752	
676.875	-0.183283639	0.037734866	
677.5	-0.1863054146	0.06552135378	
678.125	-0.143817313	0.2047755324	
678.75	0.0881164611	0.2753183338	
679.375	0.274663531	0.0601205695	
680.0	0.1785879886	-0.1318724256	
680.625	0.08150232422	-0.1088441325	
681.25	0.1163755203	-0.02393461808	
681.875	0.1948272422	0.05273348565	
682.5	0.2621275611	0.0960047256	
683.125	0.3215150263	0.07450450341	
683.75	0.3395887848	0.0603340458	
684.375	0.3573606929	0.02661166531	
685.0	0.3635553477	0.01564396004	
685.625	0.3667595401	-0.03689860864	
686.25	0.3682442346	-0.1012895211	
686.875	0.3541947388	-0.2438884016	
687.5	0.256566243	-0.4255210341	
688.125	-0.1350577515	-0.5420493546	
688.75	-0.5633427893	-0.1404385368	
689.375	-0.2961909657	0.4574224371	
690.0	0.1876751578	0.4300189712	
690.625	0.329744715	0.2883280648	
691.25	0.4239891541	0.3164106345	
691.875	0.5931533329	0.3597481526	
692.5	0.7697615321	0.2277577603	
693.125	0.83002932	-0.07211562173	
693.75	0.7214294705	-0.344382205	
694.375	0.5191382848	-0.5164848612	
695.0	0.5449631814	-0.3916043419	
695.625	0.6238434262	-0.1587205897	
696.25	0.6488568077	0.1373094783	
696.875	0.582151515	0.3962195176	
697.5	0.6070988981	0.449551667	
698.125	0.7762480443	0.09243402043	
698.75	0.3992462725	-0.6545833677	
699.375	-0.6072754195	-0.3428986111	
700.0	-0.2665916069	0.5042551684	
700.625	0.2293648311	0.3544655703	
701.25	0.3015059641	0.2049942112	
701.875	0.3398636343	0.2781382227	
702.5	0.4458310573	0.2848483208	
703.125	0.5357403856	0.1212783318	
703.75	0.4822230265	-0.1499438607	
704.375	0.34104599	-0.2591578948	
705.0	0.2935458473	-0.1849829842	
705.625	0.3332190239	-0.0186635287	
706.25	0.337080727	0.1961964386	
706.875	0.3404526732	0.3329765029	
707.5	0.4282442563	0.3606517026	
708.125	0.6052319253	0.01966125171	
708.75	0.2441213872	-0.5361722369	
709.375	-0.437042841	-0.2584853505	
710.0	-0.1661728799	0.3250931923	
710.625	0.1257519316	0.1765051189	
711.25	0.1447695368	0.1293446024	
711.875	0.2877338795	0.1134970941	
712.5	0.3933930162	-0.06922549623	
713.125	0.3193037077	-0.2461441551	
713.75	0.1501697163	-0.3278029376	
714.375	-6.519015462e-05	-0.3033972298	
715.0	-0.03901151888	-0.2582264598	
715.625	0.0181107109	-0.2771198667	
716.25	0.1884599097	-0.3074130861	
716.875	0.4184615679	-0.2516606952	
717.5	0.6497115995	-0.1093245628	
718.125	0.8563152315	-0.06207718834	
718.75	0.9598036475	-0.3008971306	
719.375	0.8590949949	-0.7400218104	
720.0	0.3844548782	-1.175915404	
720.625	0.01563470644	-1.244086146	
721.25	-0.2826599543	-1.245748751	
721.875	-0.5321372288	-1.235671539	
722.5	-0.972166654	-0.8517801406	
723.125	-1.023934409	0.01651925968	
723.75	-0.4291965154	0.6499226101	
724.375	0.1050255699	0.5750492237	
725.0	0.2378591518	0.4579093304	
725.625	0.2239228987	0.5674737485	
726.25	0.07329633132	0.845732943	
726.875	-0.0190287637	1.211446751	
727.5	-0.003671848241	1.766535727	
728.125	0.3623606949	2.465905004	
728.75	0.1251291682	3.561143672	
729.375	-0.03288129187	4.562451644	
730.0	1.148395231	4.639403687	
730.625	0.5766511531	5.035006332	
731.25	0.1738212626	4.969855971	
731.875	-2.272041224	4.015000576	
732.5	-3.886556953	2.046918911	
733.125	-2.780050028	1.446150245	
733.75	-0.506808107	1.945387276	
734.375	1.192052574	0.1919967254	
735.0	-0.2275679532	-0.7410360779	
735.625	-0.5714586055	0.2323429078	
736.25	0.006583922419	0.6886121548	
736.875	0.6124509656	0.6421984824	
737.5	1.360511054	0.105249273	
738.125	1.840303261	-0.7105404321	
738.75	2.125468354	-1.651833952	
739.375	2.747145241	-2.212804455	
740.0	3.607502375	-2.273791834	
740.625	3.889546589	-0.3443036183	
741.25	1.269503745	1.972011201	
741.875	-3.241248996	0.1102293504	
742.5	-1.496670139	-2.706533264	
743.125	0.06120813144	-2.396846434	
743.75	-0.3930899856	-1.247628217	
744.375	-0.5237696567	0.04044546796	
745.0	0.0835303904	0.09146812462	
745.625	0.06201530565	-0.03122620481	
746.25	-0.02927075829	-0.1677461471	
746.875	-0.2926086253	0.05760303799	
747.5	-0.07679276373	0.437064767	
748.125	0.2235178686	0.6977057519	
748.75	0.3896950203	0.5852602512	
749.375	0.214241528	0.5760263149	
750.0	-0.6252413881	0.2549440232	
