!Created with skrf (http://scikit-rf.org).
# GHz S MA R 50.0 
!freq magS11 angS11
500.0 0.0149440682481 134.099216482
500.625 0.0072133975776 79.0253146808
501.25 0.00851068252277 -131.280368324
501.875 0.0209683015277 -156.728475869
502.5 0.0056701519957 85.5856602943
503.125 0.0186179174684 104.187597741
503.75 0.00787533982894 62.3448885167
504.375 0.00564527099336 -53.1008339131
505.0 0.0266017500193 -69.4291171159
505.625 0.0140646244573 -75.132876691
506.25 0.0318275628281 -121.611097292
506.875 0.0558995181627 -103.323283548
507.5 0.0512227912095 -113.06109536
508.125 0.0508282677319 -89.7890186652
508.75 0.0728736136322 -118.202367509
509.375 0.0525727462056 -131.526509097
510.0 0.0348720786891 -120.103208827
510.625 0.0358004217409 -159.738065533
511.25 0.0609386443131 -168.984422049
511.875 0.0490451516559 148.195976499
512.5 0.0458457633961 112.656162714
513.125 0.0519794984239 37.4157271397
513.75 0.0644034647657 44.2185476266
514.375 0.0584499878995 33.7671992257
515.0 0.0331212227505 -21.5192131693
515.625 0.0693889630499 43.9954349016
516.25 0.0913912579863 26.6164025937
516.875 0.129069930531 71.2696105877
517.5 0.127391760553 22.527911181
518.125 0.182164985752 68.6966520351
518.75 0.0809311373926 10.7723234537
519.375 0.0829562441789 26.2712990811
520.0 0.0796056609932 -6.46333997998
520.625 0.0917979109927 -7.74785823161
521.25 0.0788441270508 -28.4942849314
521.875 0.0769888286603 3.73623051514
522.5 0.0829458455166 -38.0870502281
523.125 0.172050070978 -36.6222082908
523.75 0.21739483515 -55.3673204497
524.375 0.213618855729 -48.1175261508
525.0 0.0660345938542 -64.0017410645
525.625 0.0312914238302 -34.9900817749
526.25 0.0444900768568 -6.58618749722
526.875 0.065087358395 -14.1886152674
527.5 0.0354137446163 -40.211527222
528.125 0.0326950399825 -57.4511526816
528.75 0.0559169295496 -76.7921541873
529.375 0.105127931037 -104.682980587
530.0 0.0464879080574 -129.417881124
530.625 0.0460080818414 -143.535751972
531.25 0.1282991323 -133.522344467
531.875 0.197519245511 -145.81556131
532.5 0.136069111029 -169.563243329
533.125 0.0891554468795 176.915793092
533.75 0.112223113964 170.683918403
534.375 0.126300525293 -177.814376231
535.0 0.0700000767823 156.748267182
535.625 0.0551929945719 177.206570034
536.25 0.0601524810422 167.507124045
536.875 0.0871459886217 -160.182819003
537.5 0.0975104084946 -142.678274755
538.125 0.110471884724 -172.389745444
538.75 0.102168543672 -178.643399534
539.375 0.0894398216179 -162.312038174
540.0 0.0758495049893 -150.227807136
540.625 0.137613023694 -155.65958751
541.25 0.12937456725 -139.795816629
541.875 0.100000813561 -143.514179472
542.5 0.110076578195 -141.793264202
543.125 0.139531427711 -165.198500666
543.75 0.128655296336 160.878532029
544.375 0.103342030041 137.040927721
545.0 0.068901766859 89.8760429951
545.625 0.0878089125436 84.3391760125
546.25 0.0865764922791 65.3474608288
546.875 0.0975067204925 54.2484397422
547.5 0.0926141807803 59.5538797476
548.125 0.118400340098 81.0385837077
548.75 0.0882855040596 92.1040098573
549.375 0.107838210683 87.6769469759
550.0 0.0621080311041 123.080012973
550.625 0.0367031739746 164.051203568
551.25 0.0362793491315 -133.396397429
551.875 0.0733082425072 -166.712542293
552.5 0.099724245355 -157.22661566
553.125 0.0906363813857 -164.651136081
553.75 0.091961369668 -167.915649994
554.375 0.116955909766 164.434194847
555.0 0.107980961062 168.384514246
555.625 0.0939030733852 160.302004203
556.25 0.10090250631 162.022628131
556.875 0.123869658363 165.549665911
557.5 0.121145929985 166.57554992
558.125 0.0948142511213 166.0133471
558.75 0.0767178667701 178.749622602
559.375 0.0734895209191 -172.916079834
560.0 0.0359801789591 -135.786357122
560.625 0.0555776725963 -131.383650236
561.25 0.0836637427758 -144.50589687
561.875 0.110462271025 -164.80649029
562.5 0.087532221229 177.507165893
563.125 0.100356320571 151.392198501
563.75 0.126756214921 134.83584952
564.375 0.111204619491 120.51920004
565.0 0.0775187741148 123.741582524
565.625 0.07492957711 123.83292147
566.25 0.0824342327445 159.542367382
566.875 0.0793456530146 177.47378903
567.5 0.0739394623752 -176.86921564
568.125 0.0793472066367 -169.420465014
568.75 0.0704217728441 -144.253217069
569.375 0.0500442426006 -108.472132483
570.0 0.0638417039731 -114.48882496
570.625 0.0900064393589 -111.644292377
571.25 0.0862018003771 -117.34166414
571.875 0.0894487064336 -127.312560203
572.5 0.112486918711 -155.933982875
573.125 0.138777774961 -172.870734401
573.75 0.104481203815 163.317998069
574.375 0.0853161442117 147.198159816
575.0 0.0972900003117 161.885058688
575.625 0.107141810535 158.973976842
576.25 0.0804720151354 148.908063152
576.875 0.0854502001218 126.060042827
577.5 0.0689275016081 148.975466369
578.125 0.0541349804678 167.560018078
578.75 0.0442548663153 164.959021368
579.375 0.0578572241363 156.360306305
580.0 0.0691182593392 -178.118055547
580.625 0.0788145983507 -148.300102955
581.25 0.089797450519 -166.891405076
581.875 0.116940087756 -175.73636829
582.5 0.121738406051 -178.43325897
583.125 0.0867285730598 -161.429854652
583.75 0.0812485871615 -160.731375263
584.375 0.102929099093 -156.042791078
585.0 0.0990024552567 -148.222207229
585.625 0.0688755472522 -144.213117291
586.25 0.0715365283765 -139.094745421
586.875 0.0834642830716 -133.414749178
587.5 0.0757211208326 -147.443322962
588.125 0.0574766453422 -164.551713555
588.75 0.0691542286969 -155.201542484
589.375 0.0840907788245 -151.542340546
590.0 0.0912415513758 -172.623276485
590.625 0.107718414941 174.483221805
591.25 0.121718640543 162.429905638
591.875 0.0894641445362 164.556360419
592.5 0.0672059223452 139.218701971
593.125 0.0608664380171 171.869147148
593.75 0.0770126430848 -174.918662774
594.375 0.0573383039439 -145.796961555
595.0 0.0414524256665 -127.010538045
595.625 0.0700860355653 -82.262965151
596.25 0.080488997177 -74.0744853933
596.875 0.068234927146 -65.5199256829
597.5 0.054293320238 -71.7498415907
598.125 0.0729705164938 -47.7393136241
598.75 0.0763435010616 -66.1102022379
599.375 0.0894032072776 -63.1646939116
600.0 0.0969091531882 -72.2320971752
600.625 0.100821079715 -62.7250118558
601.25 0.0844457934521 -67.4822783184
601.875 0.068948148676 -85.4061826385
602.5 0.0603378630248 -100.16742079
603.125 0.0486675728153 -26.0792283155
603.75 0.0326866752544 -26.2340407054
604.375 0.0357779690461 -30.4058468034
605.0 0.0560768985496 -24.1875456952
605.625 0.0465393927779 -23.8202516542
606.25 0.0277067926389 19.7983532417
606.875 0.0312710791588 46.7205944355
607.5 0.06350383014 44.752984601
608.125 0.0668058677724 26.0494016906
608.75 0.0692513027201 25.1352863655
609.375 0.0615572473665 28.067867686
610.0 0.0635251050785 37.4052954278
610.625 0.0562997725479 27.4914487224
611.25 0.0539274620709 35.2890871243
611.875 0.0336950290072 36.5757609325
612.5 0.021773485188 86.1073312
613.125 0.00975736579902 145.485219792
613.75 0.0711195389035 129.204554291
614.375 0.0550145258524 125.331110211
615.0 0.0420132667293 129.996858036
615.625 0.0126690842749 156.940315353
616.25 0.0592233228631 141.974703627
616.875 0.0557281159604 130.473531516
617.5 0.0474835232455 127.027131853
618.125 0.00558276675464 131.493594225
618.75 0.0581308123921 149.368577046
619.375 0.0293848549451 150.989240886
620.0 0.00833717584918 129.737659497
620.625 0.0318526891815 -66.3797481944
621.25 0.0421971184258 -122.275106185
621.875 0.0664052844172 -124.776547699
622.5 0.0816890847545 -172.923568696
623.125 0.0619294337238 -172.916513064
623.75 0.0851292306327 161.741835477
624.375 0.0504410974499 -177.560789225
625.0 0.0355362018326 -139.275087481
625.625 0.0251751082659 -144.439864292
626.25 0.00523999163005 144.917253981
626.875 0.00283202974891 24.2305701704
627.5 0.0370240925692 -12.5950059519
628.125 0.0379895163803 -18.0227243083
628.75 0.0476207218475 -0.282392578923
629.375 0.0443836244714 -12.433719593
630.0 0.0569152428352 -17.913857621
630.625 0.0695200974501 8.63363113929
631.25 0.0718272621174 -4.34991484693
631.875 0.0694423419461 -5.1550544368
632.5 0.0605569347252 5.67324591951
633.125 0.0441420388346 10.2809556497
633.75 0.0488475876916 28.6743450482
634.375 0.0500922651028 -20.6402116525
635.0 0.0326452356718 11.3333459285
635.625 0.0422465337736 44.68246648
636.25 0.0631355553787 48.3960130573
636.875 0.0745821620939 50.8805439658
637.5 0.038502455325 27.1969926843
638.125 0.0334546352222 66.77982347
638.75 0.0747059088088 78.809723806
639.375 0.106950942687 99.9520988608
640.0 0.0637210190203 89.3435618806
640.625 0.0486995940318 94.208489775
641.25 0.057147750409 111.488395215
641.875 0.077479625152 160.062068131
642.5 0.0582628965881 157.749119657
643.125 0.0661418739929 164.888452268
643.75 0.0676378790968 177.582297947
644.375 0.0891324018543 -166.893329003
645.0 0.0740065122964 179.191608534
645.625 0.0773593900553 164.151292071
646.25 0.0861655365708 166.51871349
646.875 0.0853439265295 -175.19932421
647.5 0.0480804839704 168.061029444
648.125 0.0727821791506 179.893006593
648.75 0.0744262933099 -167.205405885
649.375 0.0594298180202 -142.015327415
650.0 0.0289766872453 -127.865137523
650.625 0.0673468044376 -86.3420877504
651.25 0.0737048495636 -63.2104277616
651.875 0.0732301489018 -41.5762055177
652.5 0.104314242954 -23.2412530255
653.125 0.117957803212 0.335654280204
653.75 0.108305850979 4.1388546913
654.375 0.121019558632 8.9242406423
655.0 0.0955044808623 5.70510803968
655.625 0.0835062266331 25.3810233905
656.25 0.0629788379995 21.3853046368
656.875 0.0767187815002 9.91479290512
657.5 0.0904597424183 26.6210599476
658.125 0.0579051414486 50.7983627977
658.75 0.0559421060375 67.0493870977
659.375 0.0862441408597 43.3685781064
660.0 0.131751228474 25.7572614967
660.625 0.0933979476217 19.2433846721
661.25 0.0972830513693 6.7418446419
661.875 0.110735813018 -13.2278290584
662.5 0.136339275495 -18.453697356
663.125 0.105027508174 -16.2612420563
663.75 0.0982196131222 8.2359299172
664.375 0.0972628073692 57.4715851666
665.0 0.0720633947355 83.8885105571
665.625 0.0546667872993 118.053490658
666.25 0.0724183298703 136.358669857
666.875 0.130739806752 169.547548893
667.5 0.0825968915653 -165.28716238
668.125 0.0992878568885 -175.898502343
668.75 0.118262965857 168.0882028
669.375 0.137771199695 179.527496603
670.0 0.0800690746945 -171.794818323
670.625 0.0856816231856 -168.530600829
671.25 0.118827737791 176.65352987
671.875 0.103332343723 170.125628823
672.5 0.0882033176271 155.837870991
673.125 0.0851991069507 157.420465346
673.75 0.101966063548 161.972241997
674.375 0.124703889123 167.13500457
675.0 0.0952163788238 -168.370070292
675.625 0.123126532592 -148.325626186
676.25 0.114953845008 -121.525412618
676.875 0.124025223774 -121.800530324
677.5 0.102505858342 -124.149411655
678.125 0.122846169565 -112.920875025
678.75 0.0734832511792 -90.9323246037
679.375 0.0540665026135 -72.1499710677
680.0 0.0872597315589 -80.444280009
680.625 0.114603517617 -69.608620734
681.25 0.0975266250701 -67.2155204722
681.875 0.0960900513112 -90.3224997005
682.5 0.145926539103 -123.312461309
683.125 0.161421147621 -122.063623196
683.75 0.137396228441 -104.167161949
684.375 0.121474528901 -78.7211581065
685.0 0.134335664266 -37.911868488
685.625 0.133158465956 -1.34954863107
686.25 0.104444556109 25.6340597903
686.875 0.0891442505821 49.3875584288
687.5 0.079152478074 85.9053754926
688.125 0.0864408048186 106.09101702
688.75 0.101774571673 120.149256762
689.375 0.142370373449 123.789749792
690.0 0.127211782555 136.377896322
690.625 0.126792773527 122.956701046
691.25 0.130945706487 106.248582096
691.875 0.178592184312 72.1449673307
692.5 0.127872359331 41.6900109209
693.125 0.094820898717 -16.2403126724
693.75 0.101688264357 -41.8187718075
694.375 0.136031976815 -27.6641098599
695.0 0.127541553789 15.6546658369
695.625 0.0978984905018 59.3945903546
696.25 0.122265780252 106.251114658
696.875 0.128655774105 -176.74243204
697.5 0.143741709246 -144.204989018
698.125 0.137404515228 -133.129767606
698.75 0.141605774733 -136.001362624
699.375 0.103611011477 -121.55886746
700.0 0.0959763384568 -111.25649421
700.625 0.114317432355 -88.6600467651
701.25 0.109117378911 -69.8301297401
701.875 0.0779566898006 -47.6903141527
702.5 0.100241829406 -77.4970597071
703.125 0.167820479647 -114.26381104
703.75 0.193176303356 -157.494352862
704.375 0.120201614234 176.787223936
705.0 0.109488802302 159.214474755
705.625 0.146746118508 -168.799114604
706.25 0.145285542242 -110.48763869
706.875 0.0987056572743 -67.7175494833
707.5 0.0706743979219 -21.3469741932
708.125 0.0911221127365 27.8814813538
708.75 0.113632617465 66.5715475376
709.375 0.107657498771 98.7101990071
710.0 0.10300696606 144.935309717
710.625 0.107885223252 158.406777138
711.25 0.119298404912 175.658837702
711.875 0.142276486252 163.027742918
712.5 0.149436717257 149.39829583
713.125 0.123019823248 103.752323654
713.75 0.100324796152 52.3729280849
714.375 0.114494029502 10.0064418145
715.0 0.109243438182 50.9555753824
715.625 0.0848977309232 52.8222563485
716.25 0.0799761837157 72.784288466
716.875 0.118322627344 103.605842847
717.5 0.141097431454 138.319483596
718.125 0.120272058484 -177.804132321
718.75 0.107579201986 -178.99947364
719.375 0.115225184033 -164.467921512
720.0 0.127886099674 -133.560840943
720.625 0.103174372009 -69.8878996565
721.25 0.100207864597 -11.1840925362
721.875 0.0843551515189 32.1433191106
722.5 0.0704504920313 55.5535768963
723.125 0.0879037456227 79.3544185877
723.75 0.125638649383 51.8056350025
724.375 0.115282495006 6.9082872562
725.0 0.0814391490191 -52.5427960218
725.625 0.107096200224 -55.5749240808
726.25 0.110914467539 -65.0756150505
726.875 0.0967199164683 -56.700895953
727.5 0.0801094619594 -37.4407899726
728.125 0.0695909891186 -18.7475451099
728.75 0.11833458747 40.9879802033
729.375 0.100385879972 29.4079280629
730.0 0.0747953721075 14.4068714595
730.625 0.0551915455834 13.6992065301
731.25 0.0849053510841 74.0028804122
731.875 0.0782335818299 116.492409919
732.5 0.0624161327684 149.283380207
733.125 0.0850639855457 174.04176496
733.75 0.0839112162071 178.604810129
734.375 0.0811256111382 -173.165503964
735.0 0.0752422842255 161.872615236
735.625 0.021792761814 114.557936545
736.25 0.0769779358521 155.674537657
736.875 0.062223883148 170.617214201
737.5 0.0898825055262 -177.195127228
738.125 0.0756990331832 -177.929267161
738.75 0.0844017766369 -166.430314086
739.375 0.0572932246805 -165.197686394
740.0 0.0323474254621 -139.424535876
740.625 0.0491805230329 -149.756100082
741.25 0.0237594776513 -152.590307551
741.875 0.0780279276517 -105.928916055
742.5 0.0470381641799 -17.4252236064
743.125 0.0369808255232 52.2347213365
743.75 0.0222729419834 141.810685232
744.375 0.0415844517429 115.239261924
745.0 0.048556549333 124.475100656
745.625 0.0627733928912 118.018827798
746.25 0.0679795959787 105.357162846
746.875 0.1025813791 30.9893743368
747.5 0.0558467338904 4.52725769878
748.125 0.0252634407443 24.5362270345
748.75 0.0187342232371 4.05603485496
749.375 0.0320725964789 7.51979556422
750.0 0.0222882860114 -111.940954328
