!Created with skrf (http://scikit-rf.org).
# GHz S RI R (50+0j) 
!freq	ReS11	ImS11	
500.0	1.416220044	-3.775669076	
500.625	-0.2904129657	-5.053691836	
501.25	-1.116094492	-0.4140937188	
501.875	-0.8204621	-2.235329438	
502.5	-0.3896801154	-0.3274475512	
503.125	-0.1144046266	-0.05481997077	
503.75	0.1011808292	0.4463399117	
504.375	-0.05974399891	-0.05580619466	
505.0	0.2392323121	-0.09022441541	
505.625	-0.2202273704	-0.0303905033	
506.25	0.2555406338	-0.4209753255	
506.875	-0.380158165	1.033161372	
507.5	0.9882666806	-0.9204592076	
508.125	0.1405665728	-3.168055125	
508.75	-1.029525185	-2.448508793	
509.375	2.214290751	-4.444308289	
510.0	-2.197059078	-1.344863965	
510.625	-0.07406581662	-0.2903311457	
511.25	-0.4995711853	-0.2124820001	
511.875	-0.4693277452	0.05501197349	
512.5	-0.07153962677	0.1233392404	
513.125	-0.04780951835	-0.2813738596	
513.75	-0.4143307292	-0.09817378105	
514.375	0.1437736971	-0.05982139926	
515.0	-0.9366358181	-0.7010082955	
515.625	1.655557346	0.05396479727	
516.25	-2.862867656	-4.244177411	
516.875	-0.7445888052	0.7561086974	
517.5	0.5763166247	-0.7816394406	
518.125	-0.3600814956	0.2600774811	
518.75	0.3135682089	-0.8311141996	
519.375	-0.1474491551	0.2532911699	
520.0	0.1755495499	0.02739795138	
520.625	0.5875760358	0.002784504646	
521.25	-0.4126932865	-0.7969477403	
521.875	-0.1400070449	-0.04102063308	
522.5	-0.2554968164	0.1009667208	
523.125	-0.01549168462	-0.1061577176	
523.75	-0.4467906479	0.1873533905	
524.375	-0.1517076618	-0.07979237845	
525.0	-0.2547780393	0.6225813987	
525.625	0.1615860791	-0.1732156471	
526.25	0.009344137391	0.1699674972	
526.875	-0.1367450921	-0.08532571931	
527.5	-0.2467908546	0.8932438072	
528.125	0.4393440394	0.3760732075	
528.75	-0.3474175215	0.6808423081	
529.375	0.370038004	0.1042885053	
530.0	-0.330632014	0.6483243011	
530.625	0.6989856997	0.5733810669	
531.25	0.7776649136	0.5589763989	
531.875	0.6599281204	-1.009222786	
532.5	0.1699707093	0.07480173654	
533.125	-0.2518018207	-0.6895312061	
533.75	0.7849192944	0.01292736298	
534.375	-0.9179183337	-1.035415246	
535.0	-0.2278712305	-0.02688675255	
535.625	-0.6910738136	0.1875235951	
536.25	0.1735768132	0.2498973448	
536.875	0.1090948544	0.148687166	
537.5	0.2572402103	-0.173797001	
538.125	0.09047816067	-0.1610779039	
538.75	0.5085044713	-0.1616745033	
539.375	-0.3664129862	-0.3900387077	
540.0	-0.2079927133	-0.2558386082	
540.625	-0.4516808634	-0.1423030456	
541.25	-0.2083581059	0.1120896238	
541.875	-0.05185764658	-0.05544370362	
542.5	-0.1677595733	-0.1893199478	
543.125	-0.2014202786	0.04291047232	
543.75	-0.1278320469	-0.1522966121	
544.375	-0.1367334348	0.2877215296	
545.0	-0.05345951866	-0.0829223494	
545.625	0.2696229312	0.3647221383	
546.25	0.05972836882	-0.171880999	
546.875	0.3948600064	0.221113839	
547.5	-0.03216719372	-0.5027566374	
548.125	0.05592090466	-0.1801650798	
548.75	-0.2950748371	-0.4631642496	
549.375	-0.3951541621	-0.03579712851	
550.0	-0.029038489	-0.07429290271	
550.625	-0.2629373726	0.1000304372	
551.25	-0.05011010667	-0.002199815668	
551.875	-0.2901398994	0.1896360473	
552.5	0.001013754062	0.2124490989	
553.125	-0.09182721739	0.1341915089	
553.75	0.1447526367	0.1090703083	
554.375	0.1985259516	-0.003122554702	
555.0	0.2449532428	-0.1573794777	
555.625	0.1920550863	-0.2663773695	
556.25	0.1425612222	-0.3324797247	
556.875	-0.07686280615	-0.3754442458	
557.5	-0.2426064272	-0.2469483652	
558.125	-0.276516953	-0.0694823872	
558.75	-0.2316099684	-0.02087301533	
559.375	-0.2891267875	0.05108403227	
560.0	-0.1687300775	0.1855754703	
560.625	-0.1668966687	0.2067351156	
561.25	0.05602444453	0.3064122703	
561.875	0.05079993383	0.003429013552	
562.5	0.02233863352	0.2406590729	
563.125	0.1586937749	0.0231171406	
563.75	0.3011590044	0.1484509315	
564.375	0.3376071386	-0.3655286631	
565.0	0.04402552356	-0.2146633774	
565.625	0.04695538027	-0.4385640862	
566.25	-0.3878257806	-0.1810520646	
566.875	-0.1762164757	-0.1395461783	
567.5	-0.3719849221	-0.3952694848	
568.125	-0.4675265903	-0.2330180952	
568.75	-0.3009497957	-0.293776575	
569.375	-0.7915364663	0.2805581863	
570.0	-0.01126960366	0.503952893	
570.625	-0.3311741234	0.128922305	
571.25	0.1163740609	0.6648355625	
571.875	-0.1639913766	-0.07178751378	
572.5	0.6169128799	0.1266918596	
573.125	-0.1451567659	-0.3875259051	
573.75	0.2906028636	0.04804481282	
574.375	0.04689561809	-0.5098179154	
575.0	-0.0748406717	0.1819866786	
575.625	0.3102480069	-0.3538508359	
576.25	-0.2100775508	-0.2981402423	
576.875	0.2789158521	-0.1382560961	
577.5	-0.03018380698	-0.6597868201	
578.125	-0.2877033215	-0.1945370382	
578.75	0.03460427833	-0.2367310335	
579.375	-0.2914950241	-0.3626759569	
580.0	-0.1601154655	0.1900588043	
580.625	-0.1240346632	-0.3359018247	
581.25	-0.2689762482	0.4451453008	
581.875	0.08875404016	0.02842629786	
582.5	-0.2194980258	0.5009675716	
583.125	0.6369213887	0.1892205541	
583.75	-0.3399097753	-0.03471037063	
584.375	0.522226059	0.2868838694	
585.0	-0.1868878275	-0.079067602	
585.625	0.6160810055	0.3023572096	
586.25	0.275263689	-0.4721213398	
586.875	0.1017214634	-0.013286143	
587.5	0.1046124282	-0.5678055722	
588.125	-0.3370961629	-0.21222365	
588.75	0.3461982692	-0.1334022499	
589.375	0.1780859618	-0.6285013668	
590.0	-0.1422451688	-0.1163826482	
590.625	-0.4012567005	-0.3208586055	
591.25	-0.3440171136	0.4402411371	
591.875	0.02549815215	0.1571288503	
592.5	-0.1493197109	0.1003565596	
593.125	0.1293634072	0.1500637732	
593.75	-0.178646019	0.262301109	
594.375	0.6734631917	0.362315838	
595.0	0.2612798087	-0.1173584151	
595.625	0.1818426289	0.5287304482	
596.25	0.8075752496	-0.1227729837	
596.875	-0.1275354633	0.1688973361	
597.5	0.647079405	0.4700223277	
598.125	0.3574804311	-0.08843446358	
598.75	0.1913617169	0.4657864887	
599.375	0.6742762316	-0.2342391447	
600.0	0.1627144854	-0.2779362942	
600.625	0.4656238777	-0.2573908528	
601.25	0.1516727857	-0.6324355306	
601.875	-0.1128972173	-0.1310659306	
602.5	-0.3548383261	-0.1666318884	
603.125	-0.1958277063	0.160258478	
603.75	-0.2392012941	0.1630010129	
604.375	-0.1921907683	0.0782461745	
605.0	-0.2766660643	0.2698034628	
605.625	0.0839380696	0.04817387474	
606.25	-0.6118558335	0.1034888025	
606.875	-0.08262285284	0.4354323099	
607.5	-0.5217554454	-0.02493188734	
608.125	0.06564006004	1.058478245	
608.75	0.1505152978	0.004279794813	
609.375	0.781931728	0.2339396579	
610.0	0.2312818146	-0.6302430992	
610.625	0.3427847831	0.02875898598	
611.25	-0.13203294	-0.6518114409	
611.875	-0.03342461301	-0.0691830787	
612.5	-0.5287110994	-0.3955462734	
613.125	-0.1791366168	0.302681218	
613.75	-0.4679853598	0.1961498361	
614.375	0.3495651108	0.3172258864	
615.0	-0.3016331776	0.0746578192	
615.625	0.3668039483	0.2637968993	
616.25	-0.2742141028	0.02840926558	
616.875	-0.3226803589	0.7260131948	
617.5	0.2118091993	0.3295844569	
618.125	-0.3765322442	0.4979943868	
618.75	0.3061474966	0.5298034449	
619.375	0.05209727029	0.211620529	
620.0	0.6028317394	0.1796951278	
620.625	0.1102956465	-0.3003677176	
621.25	-0.1524218343	-0.522678742	
621.875	-0.4672571834	-0.06238949882	
622.5	-0.5117299693	-0.06168314897	
623.125	0.06844868486	0.616145334	
623.75	-0.01485549831	0.0293274621	
624.375	0.3821080328	-0.2945814941	
625.0	-0.1035678576	0.2196818236	
625.625	0.3796300316	-0.467341061	
626.25	-0.3615051492	0.09331741934	
626.875	-0.06608038579	-0.5513324768	
627.5	-0.6236821562	0.03901386358	
628.125	-0.006937300087	0.01524745318	
628.75	-0.09470729353	-0.5449136073	
629.375	-0.4145366617	-0.1641213845	
630.0	-0.2285204854	-0.2915217145	
630.625	-0.6597973325	0.1234610478	
631.25	-0.1316634906	0.5335631108	
631.875	-0.1790558516	0.3916404623	
632.5	0.4385352437	0.5700167378	
633.125	0.4520133316	0.02573869888	
633.75	0.3022023382	-0.1212484679	
634.375	0.2979013134	-0.3096299908	
635.0	-0.2981645123	-0.3086780209	
635.625	-0.04313801185	-0.323212777	
636.25	-0.6200602454	0.2792318735	
636.875	0.1927483246	0.2895337736	
637.5	-0.5202818659	-0.06613511528	
638.125	0.2897257669	0.5213593684	
638.75	-0.3862705777	-0.06166737805	
639.375	-0.01739244026	1.029840937	
640.0	0.5704569533	0.1760650913	
640.625	0.13028586	0.4777317036	
641.25	1.002315157	-0.04030721305	
641.875	0.02588581957	-0.5419888222	
642.5	0.2815163469	-0.2657669724	
643.125	-0.6446022734	-0.5650023845	
643.75	0.0589066985	0.2042918676	
644.375	-0.6361702526	-0.2805649255	
645.0	-0.1889051378	0.6032485754	
645.625	0.1232500751	0.1952728343	
646.25	0.224856466	0.5201509602	
646.875	0.4435374539	-0.3794912663	
647.5	-0.2121408012	0.2541051914	
648.125	0.7869191374	0.1201832229	
648.75	0.04310368498	-0.4706202517	
649.375	1.012223814	0.03406037621	
650.0	0.2490726782	-1.433310404	
650.625	-0.2269803367	-0.1520525033	
651.25	1.153320224	-0.3058764634	
651.875	0.3826795237	-1.196323883	
652.5	0.1219641829	0.2505478762	
653.125	1.149920384	-0.2457370776	
653.75	-0.02359542843	-0.8221848105	
654.375	0.1619667634	-0.2776609037	
655.0	-1.06952368	-0.5845284666	
655.625	-0.02458693731	0.6928945739	
656.25	-0.1782351557	0.03396727997	
656.875	0.2908532477	0.5485808774	
657.5	-0.02167394234	-0.2046515996	
658.125	0.2823689679	0.7814023857	
658.75	0.8514272529	-0.08405002745	
659.375	0.4463281119	-0.3586620714	
660.0	0.7289315879	-0.2866104711	
660.625	0.2355718439	-1.356176985	
661.25	-0.0650950137	-0.2297661527	
661.875	0.9677315456	-0.4704710451	
662.5	0.4969801806	-0.972471316	
663.125	0.1062919839	-0.0372540228	
663.75	0.878503126	-0.9837665944	
664.375	-0.6073820759	-0.4965174112	
665.0	-0.1528542097	-0.5380967833	
665.625	-1.090584159	0.2464994585	
666.25	0.2013712592	0.596895751	
666.875	-0.06807127359	0.4848862826	
667.5	0.6943674485	0.2816617927	
668.125	0.232377986	-0.2650968962	
668.75	0.6345910164	-0.00772930963	
669.375	0.05108082425	-0.8521437788	
670.0	-0.0220519833	-0.2248746743	
670.625	0.1917805562	-0.4842398174	
671.25	0.008876633699	-0.6032391752	
671.875	0.06498323418	-0.1458114297	
672.5	0.7685648887	-0.2952202075	
673.125	0.2988968375	-0.7126991099	
673.75	0.132821658	-0.1934340038	
674.375	0.5481007676	-0.7733934176	
675.0	-0.8588666689	-0.4199498108	
675.625	0.2317661395	-0.3124440075	
676.25	-0.9457617377	-0.1568501967	
676.875	0.01559655385	0.4778590459	
677.5	-0.5582646444	-0.4767915163	
678.125	-0.09792932344	0.8816242728	
678.75	-0.03329238367	0.130575874	
679.375	0.4438776252	0.5038032666	
680.0	0.5031232441	-0.6308912534	
680.625	-0.1968493055	0.2007694305	
681.25	0.6073058069	-0.09180557537	
681.875	0.2165864034	-0.1545259063	
682.5	0.2089892295	0.3584179211	
683.125	0.8412291171	0.2741481268	
683.75	0.5471705736	-0.1559331842	
684.375	0.35610403	0.1402024338	
685.0	0.9518704698	0.4205682288	
685.625	0.5975643221	-0.770668764	
686.25	0.4005436912	0.8011462711	
686.875	1.147785011	-1.236602453	
687.5	-0.1394927813	-0.09127654308	
688.125	0.5985357838	-1.436817589	
688.75	-1.760993327	0.2956560439	
689.375	-0.3081750198	-0.158946959	
690.0	0.4012600954	1.604976489	
690.625	0.58523658	0.0009769539498	
691.25	0.4120029556	0.9744070073	
691.875	1.502633713	0.5351729618	
692.5	1.023066999	0.3711914015	
693.125	1.580710597	0.0494324783	
693.75	1.291147189	-0.7611636574	
694.375	0.9826565095	-0.7818701215	
695.0	0.9387033423	-0.8273614429	
695.625	1.05737442	0.09716917549	
696.25	1.604622002	0.005230359932	
696.875	0.4751186798	0.501288735	
697.5	1.316430811	1.751645967	
698.125	1.179372282	-0.5493313588	
698.75	1.432354447	-0.3490785254	
699.375	-1.754814153	-0.9821015396	
700.0	0.1553177468	0.4275041961	
700.625	0.1346881133	1.456931167	
701.25	0.6096466165	-0.1786969727	
701.875	0.2155354456	0.9079542726	
702.5	1.396712543	0.3188160948	
703.125	0.4209915438	0.3801910388	
703.75	1.299779448	-0.2249945573	
704.375	0.164859918	-0.6740000997	
705.0	0.9859747868	0.2255828125	
705.625	0.6445210152	-0.680886525	
706.25	0.02644268969	0.5360101302	
706.875	1.212340696	1.085474706	
707.5	0.398374748	0.01312163582	
708.125	1.288237703	0.7445751863	
708.75	0.3646240699	-1.394642163	
709.375	-0.3049330937	-0.3985074175	
710.0	-0.7487452165	0.6181502194	
710.625	0.4424165474	0.1509172959	
711.25	0.1370994427	0.4104619207	
711.875	0.555659277	0.1163648204	
712.5	0.8074195041	-0.03198309065	
713.125	0.4979215641	-0.4888419918	
713.75	0.4115890769	-0.3988792241	
714.375	-0.07991322865	-0.8271319947	
715.0	-0.1833499432	-0.02206320913	
715.625	0.5111610073	-0.9654645845	
716.25	-0.4612907411	-0.6854180821	
716.875	0.9364283588	0.421760879	
717.5	2.378760652	-0.696983628	
718.125	-0.2122413959	-0.8856202688	
718.75	3.500333746	1.030177536	
719.375	1.014967899	-3.029145185	
720.0	0.7887250359	-0.5936919079	
720.625	1.207947693	-3.878247776	
721.25	-1.74470407	-1.67572746	
721.875	0.3492519229	-2.301728182	
722.5	-2.051515173	-2.130321422	
723.125	-1.911561792	0.5720078784	
723.75	-0.8596527887	0.4950958693	
724.375	0.1274630177	1.60874691	
725.0	0.546791892	0.4721682607	
725.625	0.1518755279	0.9269916188	
726.25	-0.05037377384	2.168870995	
726.875	1.24473336	2.225874261	
727.5	-1.559227837	1.818339447	
728.125	-0.1125447981	7.683448688	
728.75	5.201744806	5.558957983	
729.375	-7.078317304	2.86783569	
730.0	3.807806594	21.14597044	
730.625	2.965237529	-0.1531279583	
731.25	-12.46715062	10.09103925	
731.875	-3.40232288	14.78147746	
732.5	-2.278403136	-1.9534817	
733.125	-9.605497763	1.506792341	
733.75	-0.4660934487	4.116126152	
734.375	1.275032638	0.01597827696	
735.0	0.9391618673	-2.088910212	
735.625	-0.8277894893	1.485074652	
736.25	-0.7786309533	0.583058287	
736.875	1.35689594	1.918533243	
737.5	3.219744977	-0.805251787	
738.125	1.281717385	-0.2256550745	
738.75	8.840123157	-2.392100082	
739.375	5.404198732	-10.01555372	
740.0	-2.668542752	1.578600887	
740.625	18.75787523	15.89090136	
741.25	10.00610132	-9.119060936	
741.875	-10.20638242	-18.89133058	
742.5	-9.289653233	-8.251378566	
743.125	-0.3291945322	2.455073567	
743.75	0.6840710779	-4.885877734	
744.375	-1.670638553	0.9995290864	
745.0	-0.2487643578	-0.1370926148	
745.625	0.3560954593	-0.1246284119	
746.25	-0.04956483165	0.03636852152	
746.875	-0.7528024775	0.0008083446828	
747.5	0.237441863	1.180187413	
748.125	0.5211913861	0.9471905252	
748.75	0.8560908394	1.608357363	
749.375	0.6421607239	1.523659041	
750.0	-0.9782982673	-0.1578108216	
