!Created with skrf (http://scikit-rf.org).
# GHz S RI R (50+0j) 
!freq	ReS11	ImS11	
500.0	-1.677256831	-4.219789043	
500.625	2.004668297	-1.345404916	
501.25	-0.9908011247	-2.920862529	
501.875	-2.10454525	-1.797504544	
502.5	-0.2285250157	-0.05448563871	
503.125	-0.3237872092	-0.0945465738	
503.75	0.3545261775	0.2203165501	
504.375	0.05099046857	0.1072151737	
505.0	-0.01526675246	-0.2350444791	
505.625	0.2558102108	0.007200821471	
506.25	-0.7017699454	-0.2927225542	
506.875	0.5983895451	-0.4983405719	
507.5	-0.4622832702	-2.107829961	
508.125	-1.278968219	-2.179614876	
508.75	1.764364966	-0.834765617	
509.375	-0.5645459548	-5.06165838	
510.0	-1.773909255	1.166282361	
510.625	-0.3839188011	-0.937633105	
511.25	-0.4568968622	0.2053799715	
511.875	-0.353110876	-0.181691475	
512.5	-0.1302389023	0.1775409924	
513.125	-0.1432863854	-0.2793000695	
513.75	-0.09219522198	0.04123036435	
514.375	-0.2706387955	-0.5316236706	
515.0	-0.4409655942	1.550374618	
515.625	0.3539096403	-3.952967943	
516.25	-2.879753377	0.3457553213	
516.875	0.9360742139	-1.43132749	
517.5	-0.8060437868	-1.091750023	
518.125	0.305356633	0.06193013245	
518.75	-0.5880987014	-0.6718037119	
519.375	-0.04607184889	0.1792874226	
520.0	0.2849984862	0.3536047578	
520.625	0.6321350328	-0.2639070105	
521.25	-0.1643219979	-0.5042704871	
521.875	-0.3832178198	-0.3165663255	
522.5	-0.0752105733	0.1999679228	
523.125	-0.226093	-0.02503034464	
523.75	-0.08083555535	0.1344614039	
524.375	-0.6353251691	-0.04418579551	
525.0	0.3208444926	0.2776767773	
525.625	-0.1585979065	0.1481837004	
526.25	0.1873120539	-0.1387462639	
526.875	-0.3495806688	0.2665304773	
527.5	0.2628890884	0.4948508478	
528.125	-0.2665835286	0.5768746291	
528.75	0.2318812001	1.15453189	
529.375	0.03367134525	-0.0973778395	
530.0	0.3099737481	0.7269361526	
530.625	-0.1729891473	0.6151346547	
531.25	1.763485879	0.3883245532	
531.875	0.1649063382	-0.3760380153	
532.5	0.1249322568	-0.7113426473	
533.125	-0.1771101842	0.4177700392	
533.75	0.4347444341	-0.9150582029	
534.375	-0.4199147382	-0.3390984032	
535.0	-0.5938094986	-0.7553189489	
535.625	-0.3479213315	0.6286549297	
536.25	-0.05601280507	0.1254446694	
536.875	0.3162473258	0.1407904599	
537.5	0.1301713029	-0.2088271763	
538.125	0.29677282	0.05575317172	
538.75	0.3674430323	-0.5008596896	
539.375	-0.1135872677	-0.2478722158	
540.0	-0.3727941349	-0.5905719813	
540.625	-0.475392539	0.1746631035	
541.25	-0.08331481537	-0.1050998795	
541.875	-0.1981090621	-0.0754306153	
542.5	-0.1654412121	-0.06621814218	
543.125	0.01046436765	-0.1074979965	
543.75	-0.4133519733	-0.09407753782	
544.375	0.1560218624	0.1137883981	
545.0	-0.2244069955	0.265165678	
545.625	0.2888206678	-0.03424587714	
546.25	0.01507728717	0.369446962	
546.875	0.4524249517	-0.3282922262	
547.5	0.08978612723	-0.02353973136	
548.125	0.07248270682	-0.5882936722	
548.75	-0.495100299	-0.259474421	
549.375	-0.117404806	-0.05243540521	
550.0	-0.3177848473	-0.119735401	
550.625	-0.01855807823	0.1183523002	
551.25	-0.2994976107	-0.0455478827	
551.875	-0.09165243003	0.287628603	
552.5	-0.1692382514	0.08026329546	
553.125	-0.02617926447	0.2297255361	
553.75	0.1036543229	0.1003852277	
554.375	0.2359672412	0.04057760418	
555.0	0.2670465979	-0.1855878379	
555.625	0.2018488864	-0.2554503303	
556.25	0.1870438742	-0.3380031675	
556.875	-0.08397144428	-0.4193605202	
557.5	-0.247210394	-0.2667721288	
558.125	-0.2668422448	-0.1166051305	
558.75	-0.2934562235	-0.02069594424	
559.375	-0.2482577585	0.07727503368	
560.0	-0.2399055696	0.1232466828	
560.625	-0.1679144777	0.3126265672	
561.25	0.0994929712	0.2238318159	
561.875	-0.03840072466	0.116354409	
562.5	0.1435390456	0.1113707741	
563.125	0.0447290262	0.2390161775	
563.75	0.4598507219	-0.05730262564	
564.375	0.1462525407	-0.1488142219	
565.0	0.3833288907	-0.3688803068	
565.625	-0.2184059075	-0.4091411902	
566.25	-0.1781611569	-0.1557087992	
566.875	-0.2824685299	-0.3411115669	
567.5	-0.5306442481	-0.2453146752	
568.125	-0.159875762	-0.2086001205	
568.75	-0.6968120565	-0.443304356	
569.375	-0.4566815894	0.4267927653	
570.0	-0.4230932503	0.2131496133	
570.625	-0.1771073679	0.7428601346	
571.25	0.1302318507	-0.02735632712	
571.875	0.03447599398	0.5439443151	
572.5	0.3018746833	-0.3785731471	
573.125	0.1741221021	0.07904876988	
573.75	0.3925135351	-0.4873284595	
574.375	-0.2776050417	-0.1512612406	
575.0	0.3848998829	-0.005785050776	
575.625	-0.2065727796	-0.3082062135	
576.25	0.3536869382	0.0219693297	
576.875	-0.03761222531	-0.6467057046	
577.5	-0.2605157922	-0.2392411091	
578.125	0.1501350392	-0.2654620765	
578.75	-0.2008978197	-0.5521277808	
579.375	-0.4169983606	0.005236805998	
580.0	0.153029054	-0.1011153756	
580.625	-0.4664626964	-0.04494566201	
581.25	0.03476207233	0.02497796713	
581.875	-0.334862969	0.5036519323	
582.5	0.4634688407	0.4395096989	
583.125	-0.03779029725	-0.1797621111	
583.75	0.1477735167	0.5458465571	
584.375	0.03065077887	-0.3602311471	
585.0	0.2027741939	0.5881405778	
585.625	0.5505293494	-0.2783758463	
586.25	0.05121108811	0.03292353052	
586.875	0.4897996002	-0.4390901955	
587.5	-0.3086080354	-0.2111809132	
588.125	0.2579972812	-0.2632030012	
588.75	0.09313289533	-0.6450098658	
589.375	-0.1150860549	-0.2505291487	
590.0	0.1893571668	-0.4683924514	
590.625	-0.6184736841	-0.1816698196	
591.25	-0.1902311654	0.3506506904	
591.875	-0.1580208127	0.0734438486	
592.5	0.02611832606	0.3611578554	
593.125	-0.2374129844	-0.07308576793	
593.75	0.3080941364	0.3583781429	
594.375	0.2247544244	0.07892394337	
595.0	0.211608546	0.537799666	
595.625	0.8948129167	0.181638879	
596.25	-0.05113784199	-0.1123204708	
596.875	0.5686002529	0.5062259202	
597.5	0.550098856	-0.02998502359	
598.125	0.02628808853	0.3746648312	
598.75	0.723862712	0.244124928	
599.375	0.2637561015	-0.09098012784	
600.0	0.6562191269	-0.1908416558	
600.625	0.2570281281	-0.6416185631	
601.25	0.07676293898	-0.23107513	
601.875	0.004523778772	-0.4467160696	
602.5	-0.3797266732	-0.002540587899	
603.125	-0.2825973561	0.1593145247	
603.75	-0.1801189932	0.00468513623	
604.375	-0.4824911801	0.1707884109	
605.0	0.1046289665	0.2241833701	
605.625	-0.4542095407	0.01317099501	
606.25	-0.1042153681	0.3608453558	
606.875	-0.3714949528	-0.1538670382	
607.5	-0.6206915552	0.7924351341	
608.125	0.123483246	0.2335731525	
608.75	0.1314446955	0.752014527	
609.375	0.7327810692	-0.4789875607	
610.0	0.2450998667	0.04414623765	
610.625	0.3984784978	-0.5233842286	
611.25	-0.1351448245	-0.2263161067	
611.875	-0.03948479862	-0.6232519209	
612.5	-0.4394332157	0.01753485214	
613.125	-0.4237147999	-0.1758496176	
613.75	-0.2606939508	0.5883842638	
614.375	0.04452620398	0.08037925326	
615.0	0.3614442162	0.3886572414	
615.625	-0.147936942	-0.08867309748	
616.25	-0.2310647906	0.5994926988	
616.875	0.1267428179	0.3415909161	
617.5	-0.5412173643	0.4334912066	
618.125	0.1249253452	0.7461436389	
618.75	0.0250567206	0.1830664054	
619.375	0.1406541724	0.6700887627	
620.0	0.4312236061	-0.03660827853	
620.625	0.4094717462	-0.2330899522	
621.25	-0.3023097068	-0.3928030784	
621.875	-0.3351743038	-0.299738099	
622.5	-0.6300338255	0.2944156492	
623.125	-0.1067147551	0.2418652503	
623.75	0.3745079928	0.3019853303	
624.375	-0.09607830119	-0.2174440304	
625.0	0.5255586246	-0.01513898066	
625.625	-0.2964403848	-0.1596383846	
626.25	0.2577798564	-0.3456710648	
626.875	-0.6220181767	-0.295377864	
627.5	-0.1634952901	0.1195395303	
628.125	-0.1428338698	-0.4236031876	
628.75	-0.3871872935	-0.181574082	
629.375	0.00959067875	-0.3533528076	
630.0	-0.5906496101	-0.377206341	
630.625	-0.3296035475	0.2486161766	
631.25	-0.5345687617	0.2385246334	
631.875	-0.07729282879	0.7738466571	
632.5	0.3472932986	0.41497933	
633.125	0.4200099147	0.1170827405	
633.75	0.4357948556	0.1065919696	
634.375	0.04831551313	-0.6139172457	
635.0	0.1347112509	-0.1186466546	
635.625	-0.5257350653	-0.4664271658	
636.25	-0.1262820192	0.3315448157	
636.875	-0.5175558743	0.09550475227	
637.5	0.1873800892	0.4771655758	
638.125	-0.2501566089	-0.1980489205	
638.75	-0.4294216377	0.7697391214	
639.375	0.4450486687	0.3562695559	
640.0	-0.1423453976	0.4844135364	
640.625	0.6891041349	0.6959352598	
641.25	0.6940794409	-0.3262585239	
641.875	0.3667360234	0.004944734397	
642.5	-0.1139647206	-1.00161916	
643.125	-0.05929135687	0.03222067742	
643.75	-0.346818359	-0.6089801459	
644.375	-0.480611559	0.4022900972	
645.0	-0.1707028382	-0.08018692522	
645.625	-0.1625831757	0.7926651154	
646.25	0.7071057912	0.159481734	
646.875	-0.09154194071	-0.2407959708	
647.5	0.4123873718	0.526786261	
648.125	0.0588612612	-0.4169666482	
648.75	0.9350512995	0.5178798553	
649.375	0.5140624678	-1.1527455	
650.0	-0.02379210453	-0.2005312913	
650.625	1.216657346	-0.5815118683	
651.25	-0.03348215933	-1.339988214	
651.875	0.1634251448	0.2428981538	
652.5	1.29952483	-0.001481245399	
653.125	0.5137163451	-0.7343286572	
653.75	0.3336768995	0.07769134228	
654.375	-0.03350396249	-1.268072665	
655.0	-0.6890301629	0.1665136516	
655.625	-0.3953623466	-0.1444560908	
656.25	-0.07703674581	0.9773906957	
656.875	0.2669074192	-0.3604161003	
657.5	-0.1176511327	0.617244671	
658.125	0.5766004005	0.3291667089	
658.75	0.461883688	-0.01276535306	
659.375	0.943752875	0.2129564796	
660.0	0.5181324119	-1.220137497	
660.625	0.1775305185	-0.3402053749	
661.25	0.8418694625	-0.6664627409	
661.875	0.2758678194	-1.162972505	
662.5	0.2639101628	0.1431951731	
663.125	1.297429764	-0.4803508923	
663.75	-0.05600039192	-0.8865409984	
664.375	0.2569516951	-0.400711318	
665.0	-0.8080041955	-0.9226153004	
665.625	-0.4024251654	0.4153957739	
666.25	-0.6553885139	0.4502728947	
666.875	0.5280720851	0.6895889087	
667.5	0.1707849055	-0.03059111363	
668.125	0.7119137004	0.3989704569	
668.75	0.4554886107	-0.6440419702	
669.375	0.08708158667	-0.3404667875	
670.0	0.2579944134	-0.4232877639	
670.625	0.01844121758	-0.7475993492	
671.25	-0.0682763793	-0.1235443117	
671.875	0.6046252583	-0.4459129981	
672.5	0.3712846284	-0.5677547078	
673.125	0.3870617	-0.04733558279	
673.75	0.8029683049	-0.7882258008	
674.375	-0.3513309059	-0.5779238355	
675.0	0.3463011701	-0.2890274371	
675.625	-0.6538173672	-0.803145691	
676.25	-0.4910419068	0.4831997957	
676.875	-0.09810920806	-0.5172599147	
677.5	-0.6611210022	0.4948767192	
678.125	-0.1354924894	-0.04492112564	
678.75	-0.2815327161	0.9597102985	
679.375	0.6999881095	-0.2667101366	
680.0	0.1952812095	0.1779028528	
680.625	0.5139012037	-0.2582017991	
681.25	0.01397757595	-0.3885288845	
681.875	0.0912822567	0.5126586704	
682.5	0.7965917612	0.3600893309	
683.125	0.6018382367	-0.1021251501	
683.75	0.2713301254	0.1572351646	
684.375	0.9847035107	0.6006404885	
685.0	0.5689312937	-0.6072988981	
685.625	0.6237959917	0.7317124882	
686.25	1.216981261	-0.4825370411	
686.875	-0.06744315889	-0.1525314295	
687.5	1.621739877	-0.3235638985	
688.125	-0.9438178356	-1.510111011	
688.75	0.07179722963	-0.5627869437	
689.375	-1.506677639	0.9111769272	
690.0	0.6305178596	0.5918781752	
690.625	-0.04646155459	0.9632716568	
691.25	1.204736801	0.4020041693	
691.875	0.7010316551	0.6800496161	
692.5	1.60054783	0.8330575707	
693.125	1.673319119	-0.2671896373	
693.75	1.218666186	-0.4120840563	
694.375	1.041773133	-0.9544983928	
695.0	1.167159145	-0.3999632891	
695.625	1.495960747	-0.6143138544	
696.25	0.6006222213	0.3356738899	
696.875	1.27794932	1.779566365	
697.5	1.099663505	0.3867095333	
698.125	0.9493925522	1.488269018	
698.75	1.491639739	-1.656184148	
699.375	-0.2665771577	-0.2332643148	
700.0	-1.666234265	0.6553725852	
700.625	0.7622601152	0.6523761843	
701.25	-0.08020390904	0.7420664881	
701.875	1.239568258	0.391620574	
702.5	0.3867281895	0.5405997072	
703.125	1.416772445	0.5886294418	
703.75	0.6083569552	-0.524327602	
704.375	0.8923064724	-0.09561470899	
705.0	0.4855940451	-0.7541915545	
705.625	0.233543138	0.3988270124	
706.25	1.155200874	0.5751241549	
706.875	0.2666703473	0.1793822393	
707.5	0.4004719753	1.433831584	
708.125	1.526040418	0.1035651908	
708.75	0.6562832971	-0.3820931369	
709.375	-0.6171064865	-1.269417173	
710.0	-0.2581977699	0.6738642098	
710.625	-0.194371787	0.3902084345	
711.25	0.4255854693	0.2926579832	
711.875	0.287687749	0.3266315594	
712.5	0.8446157905	0.03286383855	
713.125	0.6277969541	-0.223910686	
713.75	0.4380774069	-0.9013789164	
714.375	-0.2073331459	-0.1815548464	
715.0	0.3641818192	-0.8833717356	
715.625	-0.482231579	-0.4084517153	
716.25	0.8883700674	-0.001227424605	
716.875	1.308034548	-1.234177865	
717.5	-0.1245027054	0.07876710587	
718.125	2.963850855	1.266284206	
718.75	2.231198459	-1.874965214	
719.375	0.8322877694	1.231587919	
720.0	3.274758269	-3.653702869	
720.625	-0.78195418	-1.953027284	
721.25	1.13827059	-2.28569944	
721.875	-0.5686516783	-3.581153651	
722.5	-1.710579795	-1.033065785	
723.125	-1.74519202	-1.53905404	
723.75	-1.126722593	1.527047425	
724.375	0.1713043279	0.7609000371	
725.0	0.140777443	0.8926798813	
725.625	0.5889721559	1.645642477	
726.25	0.9400858464	1.139243909	
726.875	-1.308398329	1.731700092	
727.5	-0.6062235807	4.905114199	
728.125	2.621431797	4.14305143	
728.75	-4.985461202	6.872516134	
729.375	3.512868333	18.3085163	
730.0	0.7616207817	1.103593465	
730.625	-17.73929926	19.40695449	
731.25	11.45022008	12.55930481	
731.875	-7.50559899	-2.992489644	
732.5	-13.86849278	2.485244929	
733.125	-7.460087987	3.096362663	
733.75	-0.8726892469	1.25604384	
734.375	2.697311904	3.216295867	
735.0	-0.6540185125	-1.029782802	
735.625	-0.8515887701	-0.4922287435	
736.25	-0.2397187081	2.459046484	
736.875	0.9297591398	-0.01788989723	
737.5	2.150194966	2.346170839	
738.125	5.794064781	-1.221628086	
738.75	3.557905821	-6.778825879	
739.375	-1.443542283	0.4484818396	
740.0	35.23352596	-2.621545984	
740.625	6.491594343	-21.34203886	
741.25	-11.61705357	11.31817533	
741.875	1.777145695	27.70390543	
742.5	7.542911271	-4.274761005	
743.125	5.258301008	-14.50258941	
743.75	-3.012149309	-1.629875956	
744.375	0.2335481847	-0.4681344385	
745.0	-0.260078937	0.9002424936	
745.625	-0.1707155916	-0.2187358393	
746.25	0.2688456696	-0.3641637459	
746.875	-0.6790876619	-0.3364951769	
747.5	-0.08425321663	0.5992735112	
748.125	-0.1536985518	1.800016558	
748.75	1.104400951	0.820518743	
749.375	-0.3474532429	2.899368961	
750.0	-2.014423081	-1.157618268	
