!Created with skrf (http://scikit-rf.org).
# GHz S RI R (50+0j) 
!freq	ReS11	ImS11	
500.0	0.3321331768	-1.007620836	
500.625	-0.2884598972	-0.9037056897	
501.25	-0.02633716347	-0.4833668052	
501.875	-0.4662314808	-0.5412618135	
502.5	-0.03340129726	-0.04113129217	
503.125	-0.06555130682	-0.02690874719	
503.75	0.08185502927	0.09567232245	
504.375	-0.00345898004	0.01358839845	
505.0	0.03306957447	-0.04554121852	
505.625	-0.01485199629	0.01942543881	
506.25	-0.0430310289	-0.1497906777	
506.875	-0.02469030212	0.2036053689	
507.5	0.2054427654	-0.3802653237	
508.125	0.03884283716	-0.8268646785	
508.75	0.1837414205	-0.2281716108	
509.375	0.5278018161	-1.220816595	
510.0	-0.5333927572	-0.1148430254	
510.625	-0.03813986748	-0.07293243615	
511.25	-0.08768810093	-0.03559465213	
511.875	-0.09630391459	0.02677952967	
512.5	-0.02658569524	0.02921958082	
513.125	-0.01396136689	-0.08897664408	
513.75	-0.05810635033	0.03136972047	
514.375	-0.001198298289	-0.07282244005	
515.0	-0.2984918153	0.1491523224	
515.625	0.3917013508	-0.4967656682	
516.25	-0.9903961845	-0.4053796861	
516.875	-0.04376384253	0.007217406949	
517.5	0.08886634852	-0.2091154193	
518.125	-0.06593231851	0.03841594005	
518.75	0.05022386846	-0.1455771951	
519.375	-0.05905037049	0.05607421763	
520.0	0.0688286766	0.01841718643	
520.625	0.1300211641	-0.02937441708	
521.25	-0.03246699871	-0.2694105067	
521.875	-0.1116939836	0.03423494665	
522.5	-0.02249262967	0.02107942648	
523.125	-0.07669214821	0.09851926447	
523.75	-0.02224990255	0.06619949945	
524.375	-0.213672497	-0.02206904527	
525.0	0.07335072549	0.2055033312	
525.625	-0.032836184	-0.02197560159	
526.25	0.04480319345	0.02990318529	
526.875	-0.08018475457	-0.008205051592	
527.5	0.02071748843	0.2376064439	
528.125	0.05695752189	0.09562252236	
528.75	-0.03591984263	0.2116751326	
529.375	0.09816440584	0.04551398708	
530.0	-0.06706771272	0.0786585007	
530.625	0.06433897793	0.1111573856	
531.25	0.3230704815	0.01838027295	
531.875	0.1774308301	-0.06463137757	
532.5	-0.05002301763	-0.1358442876	
533.125	-0.09667704369	-0.001013136376	
533.75	0.1145506957	-0.2436901748	
534.375	-0.1492241378	-0.1395554576	
535.0	-0.104135516	-0.08920613951	
535.625	-0.182629606	0.1400987605	
536.25	0.03246650337	0.06240891088	
536.875	0.07320830687	0.04397681628	
537.5	0.06197525466	-0.07078785393	
538.125	0.03831660399	-0.02928453657	
538.75	0.165249055	-0.1142388052	
539.375	-0.1184577142	-0.1094880658	
540.0	-0.1103706025	-0.1104522888	
540.625	-0.142426243	-0.03869125547	
541.25	-0.07271859927	0.03671407432	
541.875	-0.01133218887	-0.04734003491	
542.5	-0.08499514535	-0.02926583654	
543.125	-0.04474982201	0.03865162065	
543.75	-0.08782514037	-0.05146424338	
544.375	-0.001388309287	0.06967141045	
545.0	-0.06513457969	-0.009912170001	
545.625	0.118589262	0.07735515664	
546.25	0.01160699063	-0.02706157787	
546.875	0.1472471262	0.02223846283	
547.5	-0.004634629591	-0.1574287565	
548.125	-0.004560569585	-0.08271498275	
548.75	-0.1166515493	-0.1523167885	
549.375	-0.1288411299	-0.01297081555	
550.0	-0.02137511317	-0.02916927224	
550.625	-0.0786572624	0.04232515709	
551.25	-0.03197977697	0.01058310298	
551.875	-0.08738778752	0.06891292168	
552.5	-0.008999364496	0.0818046378	
553.125	-0.01908853818	0.0427292392	
553.75	0.05520237	0.03650637913	
554.375	0.07328634349	-0.01098048017	
555.0	0.08807336453	-0.06399389612	
555.625	0.06548794905	-0.1054661961	
556.25	0.04317159445	-0.125710101	
556.875	-0.03591143233	-0.1368591774	
557.5	-0.09594034686	-0.08698369259	
558.125	-0.1062892137	-0.02205944453	
558.75	-0.0927688609	-0.0003300348555	
559.375	-0.1058999762	0.02625730482	
560.0	-0.07000479432	0.08265994623	
560.625	-0.04993810738	0.08466083888	
561.25	0.01412347988	0.1152415921	
561.875	0.03537351952	0.006822813322	
562.5	0.0005381767908	0.08591942626	
563.125	0.08028909337	0.01609713606	
563.75	0.1072513775	0.02832578064	
564.375	0.1371559708	-0.1253150304	
565.0	0.009502778234	-0.1275477797	
565.625	0.01210209395	-0.1317368442	
566.25	-0.1660435275	-0.1010391603	
566.875	-0.08352724461	-0.01463983208	
567.5	-0.1218114733	-0.1483227088	
568.125	-0.1959310759	-0.09855696433	
568.75	-0.08798885796	-0.06232225694	
569.375	-0.3024968487	0.098292582	
570.0	-0.01663443161	0.2154277659	
570.625	-0.06916164264	0.07203274695	
571.25	0.03208192124	0.2153810723	
571.875	0.01368491884	-0.03697241748	
572.5	0.1671997172	0.0609314645	
573.125	0.02354732405	-0.1835106363	
573.75	0.01358539306	0.01631762421	
574.375	0.08784397017	-0.1466021107	
575.0	-0.07288818346	0.0154095783	
575.625	0.1175019873	-0.06857135922	
576.25	-0.02519707411	-0.1646094686	
576.875	-0.007404520928	-0.04095964351	
577.5	0.07318949116	-0.1849818134	
578.125	-0.1376591396	-0.1668343704	
578.75	-0.04020647773	0.009735509162	
579.375	-0.03474065281	-0.1586941908	
580.0	-0.13822063	0.0412030994	
580.625	0.03185622717	-0.1033626474	
581.25	-0.1649715891	0.2264076208	
581.875	0.109471162	0.03772532861	
582.5	-0.0572265596	0.1032774423	
583.125	0.2017353527	0.1459917885	
583.75	-0.06974738457	-0.07564091976	
584.375	0.0869408991	0.1474841875	
585.0	0.07983226579	-0.06559084433	
585.625	0.0904523267	0.0887010836	
586.25	0.2156462138	-0.1441639989	
586.875	-0.03703640803	-0.08910385756	
587.5	0.06301465954	-0.1096070454	
588.125	-0.08813004502	-0.1770642312	
588.75	-0.006365303333	-0.05033075552	
589.375	0.144189044	-0.1525535062	
590.0	-0.1526821737	-0.1525539896	
590.625	-0.06700231609	-0.01085228067	
591.25	-0.2084944281	0.07810958139	
591.875	0.08887991734	0.1886402842	
592.5	-0.07507049424	-0.05644536487	
593.125	0.08931229541	0.1414730218	
593.75	-0.06080234633	0.01302464188	
594.375	0.1653595395	0.1965083743	
595.0	0.2182164284	-0.01792517392	
595.625	0.04652300043	0.1432806215	
596.25	0.2384870686	0.05061381967	
596.875	0.06915941905	-0.03121159416	
597.5	0.08381493247	0.1309918945	
598.125	0.2225605656	0.07464675451	
598.75	0.08773642567	0.0373522426	
599.375	0.2076627547	0.01509826382	
600.0	0.1616969086	-0.2050445084	
600.625	0.04497143017	-0.1443497059	
601.25	0.09549212085	-0.1386803005	
601.875	-0.1380196689	-0.1678696352	
602.5	-0.04991031794	0.04640443429	
603.125	-0.1582266177	-0.04356854273	
603.75	-0.06378500705	0.1799512304	
604.375	-0.0272741127	-0.06346223628	
605.0	-0.1603136732	0.1206330841	
605.625	0.04235853337	0.1018095044	
606.25	-0.1819510071	-0.03180099306	
606.875	-0.07603171284	0.2002463375	
607.5	-0.06014462564	0.09212844284	
608.125	-0.09052156291	0.2441653027	
608.75	0.2443209543	0.1014137091	
609.375	0.240833652	0.002460558329	
610.0	0.1763287489	-0.1158112076	
610.625	0.0227099989	-0.2205830576	
611.25	-0.005938076474	-0.06706819674	
611.875	-0.02256117647	-0.1060824476	
612.5	-0.1860839992	0.02848490665	
613.125	-0.0975043005	-0.006342079632	
613.75	-0.1763929699	0.1432264913	
614.375	0.1439250956	0.06587750018	
615.0	-0.09802120861	0.06350593577	
615.625	0.1179663545	0.1136293433	
616.25	-0.05272858192	0.0314200254	
616.875	-0.1572633813	0.2110703738	
617.5	0.03350150809	0.2199246122	
618.125	-0.05233529248	0.1202094639	
618.75	0.09579027762	0.1851195477	
619.375	0.1317885351	0.08687895356	
620.0	0.1269918547	0.04157846689	
620.625	0.1167036748	-0.1736708962	
621.25	-0.1528762885	-0.1993547156	
621.875	-0.1489246929	-0.01672609903	
622.5	-0.2688684813	0.02527491065	
623.125	0.03330605673	0.2224525965	
623.75	0.01155809341	-0.0300566465	
624.375	0.1012472409	-0.08386097541	
625.0	-0.06766063005	0.02269960849	
625.625	0.1083399435	-0.09311447268	
626.25	-0.1254139209	-0.1089163799	
626.875	-0.05134205524	-0.04409633225	
627.5	-0.1742682847	-0.09232950196	
628.125	-0.1279182306	0.007029942976	
628.75	-0.008587116734	-0.1017082973	
629.375	-0.1250312299	-0.1649923651	
630.0	-0.1785705553	-0.03144713588	
630.625	-0.1837520019	0.04960574431	
631.25	-0.1314101516	0.2123666081	
631.875	0.05863162412	0.2151527286	
632.5	0.07848060975	0.06581920071	
633.125	0.2595440011	0.05368133962	
633.75	0.09024303319	-0.1464931298	
634.375	0.1158851072	-0.0103202546	
635.0	-0.07346474713	-0.2011747296	
635.625	-0.03040498594	0.06578039291	
636.25	-0.2069187662	-0.01305540787	
636.875	-0.001167320504	0.1958562551	
637.5	-0.002582388087	-0.01836535699	
638.125	-0.1240437786	0.1489909852	
638.75	0.06729164037	0.1345103784	
639.375	-0.07503555381	0.179303856	
640.0	0.2146846501	0.3006236371	
640.625	0.2339550895	-0.006768718972	
641.25	0.1756023463	0.04275983549	
641.875	0.1970494475	-0.2664845486	
642.5	-0.118932021	-0.1341668897	
643.125	0.01947543104	-0.06874057904	
643.75	-0.2386934626	-0.08388545458	
644.375	-0.02935534301	0.06601717611	
645.0	-0.2711431903	0.07157594782	
645.625	0.2358676859	0.2866318875	
646.25	0.04688360491	-0.05268305291	
646.875	0.1626057307	0.1738905354	
647.5	-0.02045438891	-0.2497054703	
648.125	0.1398313013	0.2404741078	
648.75	0.3065632132	-0.3148665311	
649.375	0.00848487766	-0.1525947186	
650.0	0.2687944413	-0.1801264295	
650.625	0.08686218684	-0.4546801409	
651.25	-0.02926181564	-0.09172212902	
651.875	0.3613722307	-0.07604193792	
652.5	0.2545217959	-0.2768147026	
653.125	0.0702721202	-0.05827537256	
653.75	0.2927012721	-0.2520457648	
654.375	-0.2506078697	-0.2810316165	
655.0	-0.1138323256	0.03819699196	
655.625	-0.2708895493	0.1228658027	
656.25	0.2780997788	0.2699850004	
656.875	-0.09184000267	-0.05653790568	
657.5	0.1377306369	0.1921638294	
658.125	0.1160710677	-0.0942965015	
658.75	0.1918949488	0.2882591527	
659.375	0.3923990332	-0.343264377	
660.0	-0.01451318721	-0.2006310325	
660.625	0.273163192	-0.2644743076	
661.25	0.09785549087	-0.4339445285	
661.875	-0.01119365824	-0.1547391482	
662.5	0.3359758447	-0.1228706357	
663.125	0.1835836502	-0.3425012682	
663.75	0.03051670829	-0.1530807928	
664.375	0.02024522178	-0.3602349282	
665.0	-0.3829477829	-0.07995364823	
665.625	-0.1537048089	0.07641623121	
666.25	-0.1536078024	0.2737608003	
666.875	0.2419715239	0.1708168721	
667.5	0.04933414489	0.01454171474	
668.125	0.3071777449	0.009829308221	
668.75	0.04905903331	-0.2573876588	
669.375	0.08487367121	-0.06622863071	
670.0	0.04548088799	-0.3377155644	
670.625	-0.1694149694	-0.1026420574	
671.25	0.2316833721	-0.1144444139	
671.875	0.07742819565	-0.3110155621	
672.5	0.04038172041	-0.1393134616	
673.125	0.249785615	-0.06874692716	
673.75	0.03350930256	-0.3805707323	
674.375	-0.01537686266	-0.09354397381	
675.0	-0.05274340855	-0.2796039157	
675.625	-0.2984355696	-0.07567965262	
676.25	-0.01839305116	0.04836128505	
676.875	-0.2460404675	-0.05313505208	
677.5	-0.06576920321	0.1537282132	
678.125	-0.07362725823	0.02712131672	
678.75	0.02850218737	0.3001742261	
679.375	0.2692050511	-0.1123560843	
680.0	0.008824694908	0.01981771453	
680.625	0.2486000497	-0.1118321151	
681.25	-0.08559218093	-0.1756499235	
681.875	0.09061339862	0.2934644656	
682.5	0.4332299393	-0.1059399833	
683.125	0.01651330995	-0.04332387032	
683.75	0.2509781844	0.2214996482	
684.375	0.3684501111	-0.2613589083	
685.0	-0.01527117578	-0.02159278617	
685.625	0.4373888394	0.1247022934	
686.25	0.1543766112	-0.1894410176	
686.875	0.2153304905	-0.082499263	
687.5	0.3220089179	-0.3798752324	
688.125	-0.3235655093	-0.33391843	
688.75	-0.3090610903	-0.1404914778	
689.375	-0.2574290045	0.3825519397	
690.0	0.260862507	0.2560234263	
690.625	0.06351691336	0.1793879302	
691.25	0.4293461197	0.3294418505	
691.875	0.3847302463	0.02312859588	
692.5	0.3747794475	0.3220355665	
693.125	0.8160663584	-0.141345179	
693.75	0.2698812014	-0.4002273802	
694.375	0.4999590712	-0.1974716866	
695.0	0.3820229592	-0.552727964	
695.625	0.2225538711	-0.09388015976	
696.25	0.4889436156	0.2908295287	
696.875	0.4656831732	0.03714793388	
697.5	0.2643602299	0.1959729461	
698.125	0.617014305	-0.1245458924	
698.75	0.2303590063	-0.4882036874	
699.375	-0.4380180994	-0.1782694863	
700.0	-0.1298208878	0.2943291771	
700.625	0.2634210738	0.2776312993	
701.25	0.1588160233	0.03599269593	
701.875	0.1370899966	0.2723974429	
702.5	0.4894305099	0.1441598185	
703.125	0.174982848	0.001008013939	
703.75	0.4213350133	-0.03176222143	
704.375	0.2034583649	-0.3326660454	
705.0	0.08437225727	-0.03709533794	
705.625	0.387007597	-0.03933692829	
706.25	0.2221477192	-0.01200747544	
706.875	0.1195282	0.258102268	
707.5	0.329411965	0.1307573574	
708.125	0.3693008865	0.03201730624	
708.75	0.1851236462	-0.2967963489	
709.375	-0.3281052169	-0.1845897225	
710.0	-0.2120511656	0.3582471632	
710.625	0.03090137632	0.07347327586	
711.25	0.1754818498	0.1815014599	
711.875	0.104546133	0.00399048623	
712.5	0.2732083559	0.1146357984	
713.125	0.2921860889	-0.3173476545	
713.75	-0.03423745313	-0.1499571405	
714.375	0.1137449377	-0.1940993193	
715.0	-0.1451140902	-0.2273588864	
715.625	0.002856049402	-0.08166447259	
716.25	0.2347143968	-0.2327194894	
716.875	0.1961904297	-0.3234761233	
717.5	0.293663274	0.02203536293	
718.125	0.6359515011	0.02497450478	
718.75	0.5544486457	-0.4047680233	
719.375	0.2488445516	-0.4707124421	
720.0	0.4092457056	-0.836983664	
720.625	-0.251277301	-0.7306027641	
721.25	-0.07085545321	-0.5979990597	
721.875	-0.4020887654	-1.020379932	
722.5	-0.7662540523	-0.252865718	
723.125	-0.3442964357	-0.2169408456	
723.75	-0.4364577986	0.7305421402	
724.375	0.3238654799	0.1894735401	
725.0	-0.07237939447	0.2833970696	
725.625	0.3706983881	0.5468565342	
726.25	0.1759220301	0.2719044961	
726.875	-0.2814080464	0.8721146439	
727.5	0.2842987181	1.493217226	
728.125	0.543437583	1.033309033	
728.75	-0.6646021906	2.086268433	
729.375	0.783946874	4.027636914	
730.0	1.432270738	1.631062251	
730.625	-0.9281945122	3.776997214	
731.25	1.109063064	3.957873196	
731.875	-0.5956177881	1.403511517	
732.5	-3.113785473	0.4893921739	
733.125	-2.041610786	1.631974073	
733.75	0.1240392893	0.7917658164	
734.375	0.7411157269	0.6996169169	
735.0	-0.6641675267	-0.5969104856	
735.625	-0.06306886444	-0.01991369235	
736.25	-0.2506981442	0.7312712012	
736.875	0.7989689578	0.1647315194	
737.5	0.143932415	0.5921737444	
738.125	2.104562752	-0.5792706834	
738.75	0.6022790616	-1.983870866	
739.375	0.5996553152	-0.2066436646	
740.0	5.022172204	-0.1617710815	
740.625	2.009126835	-4.017563221	
741.25	-3.209711799	1.317516413	
741.875	-3.659258119	2.422296028	
742.5	-0.6838267401	0.372482348	
743.125	1.131199634	-1.884072485	
743.75	-0.6644188537	-1.034532119	
744.375	-0.16301293	0.2135647217	
745.0	-0.1087895023	0.1387222483	
745.625	0.001435700333	-0.1311851079	
746.25	0.06740376826	-0.1129882429	
746.875	-0.2874358669	0.100481048	
747.5	0.08073829986	0.2569032856	
748.125	-0.0488209212	0.3373970006	
748.75	0.3520071066	0.4883808892	
749.375	0.2279286776	0.2667796768	
750.0	-0.3904141818	0.1175550365	
