!Created with skrf (http://scikit-rf.org).
# GHz S RI R (50+0j) 
!freq	ReS11	ImS11	
500.0	0.2891974366	-1.416758991	
500.625	-0.2004381958	-0.4313537853	
501.25	-0.05590735014	-0.7415104279	
501.875	-0.4160088293	-0.3039811337	
502.5	-0.01861759424	-0.0382789649	
503.125	-0.09371359263	-0.01340475035	
503.75	0.0624393734	0.04643882118	
504.375	0.02430503837	0.02196183341	
505.0	-0.01443378382	-0.05361039223	
505.625	0.04308923495	0.001556233946	
506.25	-0.1723088929	-0.08244534266	
506.875	0.1040701587	0.08607462218	
507.5	0.08698230732	-0.5251348233	
508.125	-0.2830361615	-0.623678221	
508.75	0.302611794	-0.3021480695	
509.375	0.2049451524	-1.121506717	
510.0	-0.3991064873	0.007602271891	
510.625	-0.02673380252	-0.1746688548	
511.25	-0.1525184283	-0.01011212393	
511.875	-0.03607695166	-0.02387290857	
512.5	-0.02956005134	0.04190572229	
513.125	-0.03736436177	-0.06244881832	
513.75	-0.02254928023	0.01365249433	
514.375	-0.03974997021	-0.09374917733	
515.0	-0.1553366477	0.1709886182	
515.625	0.1350285768	-1.070941777	
516.25	-0.5949583444	-0.2399351884	
516.875	0.1216670266	-0.2795040501	
517.5	-0.1169458865	-0.2801632611	
518.125	0.07527020677	0.009461225704	
518.75	-0.04605181926	-0.2170313376	
519.375	-0.02134421799	0.04327780666	
520.0	0.06896161895	0.02927395836	
520.625	0.134608425	-0.07264492528	
521.25	-0.06436352265	-0.2565930012	
521.875	-0.08428988196	0.04633564709	
522.5	-0.07507497498	-0.02191621305	
523.125	-0.10369925	0.05273462292	
523.75	-0.08753310442	-0.06613203509	
524.375	-0.1898378158	0.1387936693	
525.0	0.05953029506	0.0449979016	
525.625	-0.04821884477	0.03820473528	
526.25	0.06103941195	-0.01158941362	
526.875	-0.1101917492	0.05832837715	
527.5	0.05018399863	0.2022222617	
528.125	-0.008673907459	0.1330639696	
528.75	0.01346964713	0.2711141806	
529.375	0.004106630437	-0.0009538225048	
530.0	0.06860533981	0.171806776	
530.625	0.1953435187	0.1858718527	
531.25	0.2053872434	0.01145151383	
531.875	0.07527352191	-0.1173836826	
532.5	-0.03381789489	-0.1820275281	
533.125	0.0210117542	0.1185712872	
533.75	0.06009113016	-0.242127429	
534.375	-0.1501406169	-0.08520020469	
535.0	-0.214098128	-0.1291584578	
535.625	-0.1340840982	0.2017500255	
536.25	-0.0008917358676	0.04992462981	
536.875	0.101627558	0.03718751686	
537.5	0.0384798328	-0.07389963353	
538.125	0.08313701863	0.004357141989	
538.75	0.1310870538	-0.1658872908	
539.375	-0.07114833421	-0.09266607284	
540.0	-0.1093899837	-0.153827647	
540.625	-0.1911669231	0.001803393128	
541.25	-0.02787713255	0.03097283261	
541.875	-0.03530275646	-0.05034500199	
542.5	-0.1029031641	-0.04259578392	
543.125	-0.02684682772	-0.04954803028	
543.75	-0.1217548336	0.003696410579	
544.375	0.05720566431	0.06962349057	
545.0	-0.03557023165	0.07224497216	
545.625	0.1300824729	-0.009948552415	
546.25	0.02096672746	0.05453376644	
546.875	0.1532791905	-0.06591157187	
547.5	-0.005477823808	-0.0870194797	
548.125	0.008522953462	-0.131313545	
548.75	-0.1505821602	-0.1268356484	
549.375	-0.1072589134	0.01292827448	
550.0	-0.06125724202	-0.03411403237	
550.625	-0.04560229976	0.0571666514	
551.25	-0.05997359717	-0.007856709937	
551.875	-0.06572973844	0.1012647604	
552.5	-0.01746638755	0.04458037508	
553.125	-0.01809822914	0.06885441773	
553.75	0.04888543098	0.02588505169	
554.375	0.07265441166	-0.003034618929	
555.0	0.08864004259	-0.07010147237	
555.625	0.05951975764	-0.1085879079	
556.25	0.0454024754	-0.1239292314	
556.875	-0.03979848068	-0.1404120574	
557.5	-0.09953801128	-0.08495464981	
558.125	-0.1001921528	-0.02476246244	
558.75	-0.1024616166	-0.001284870125	
559.375	-0.1010727385	0.03852418382	
560.0	-0.06936031022	0.06508487165	
560.625	-0.06358570798	0.1000862932	
561.25	0.02992305123	0.109160703	
561.875	0.0151608607	0.008634816337	
562.5	0.02296372561	0.07990034883	
563.125	0.04932114398	0.02225957532	
563.75	0.1453298149	0.02821308146	
564.375	0.08598021609	-0.1392515461	
565.0	0.05591778801	-0.08808024257	
565.625	-0.0267525355	-0.1901011075	
566.25	-0.1379783768	-0.04254969564	
566.875	-0.07718636567	-0.07641777139	
567.5	-0.1734654944	-0.1354445284	
568.125	-0.1746169023	-0.0346442678	
568.75	-0.1471325807	-0.1171207496	
569.375	-0.2585716599	0.1586534336	
570.0	0.002438167168	0.1332551039	
570.625	-0.1734460668	0.165243805	
571.25	0.1169537595	0.1376198328	
571.875	-0.03109505106	0.06000859719	
572.5	0.2018300893	-0.03480832095	
573.125	-0.03944800473	-0.09316262597	
573.75	0.09956426802	-0.026205999	
574.375	0.001797288965	-0.1624177242	
575.0	-0.01076163122	0.05143223268	
575.625	0.07711909768	-0.1607909679	
576.25	-0.05426084125	-0.07469241885	
576.875	0.07581618684	-0.1012988516	
577.5	-0.02415561636	-0.223901995	
578.125	-0.1284872495	-0.07443198718	
578.75	0.01994971402	-0.07875516939	
579.375	-0.1286582297	-0.1419811664	
580.0	-0.04945371912	0.1128302499	
580.625	-0.09388832154	-0.17042687	
581.25	-0.03638172335	0.1982875011	
581.875	-0.009874835314	0.0166561964	
582.5	-0.0009426123512	0.2752084079	
583.125	0.1971299331	-0.01979713413	
583.75	-0.08340190897	0.05184706424	
584.375	0.155312707	0.05118493525	
585.0	-0.003955517509	-0.005170429434	
585.625	0.1865369688	0.0903144004	
586.25	0.1433336557	-0.1639486939	
586.875	0.01642437583	-0.04216350374	
587.5	0.01536274595	-0.2108556882	
588.125	-0.1097129149	-0.07372989817	
588.75	0.0943843481	-0.07890473325	
589.375	0.05799540037	-0.2237492435	
590.0	-0.1011227979	-0.07492009387	
590.625	-0.1031702342	-0.09086047139	
591.25	-0.2095195737	0.1793436639	
591.875	0.110426079	0.07627010986	
592.5	-0.1090758417	0.03515636938	
593.125	0.08552491986	0.04063634218	
593.75	-0.05783288534	0.1658800948	
594.375	0.2798179763	0.06597124303	
595.0	0.01735858215	0.007113733395	
595.625	0.1304823142	0.1680829096	
596.25	0.1735853368	-0.08117407371	
596.875	0.04669805034	0.01983317791	
597.5	0.1474403214	0.1444708181	
598.125	0.1869649749	0.03151645633	
598.75	0.08996090742	0.06208218127	
599.375	0.246808763	-0.02787098112	
600.0	0.0838142246	-0.1524499533	
600.625	0.1240022365	-0.1143671672	
601.25	0.07952461024	-0.2034948178	
601.875	-0.1351537665	-0.08481324511	
602.5	-0.03502096426	-0.02325169767	
603.125	-0.1937130584	0.06981833041	
603.75	0.04862934092	0.1105699862	
604.375	-0.1129000641	-0.03213412995	
605.0	-0.1042037218	0.1605639264	
605.625	0.02336196769	-0.08177652784	
606.25	-0.2111649207	0.1456452923	
606.875	-0.04931692282	0.1449101645	
607.5	-0.19766411	0.07700358588	
608.125	0.0406948063	0.2968939364	
608.75	0.09085844405	0.1182882649	
609.375	0.1934146036	-0.001258085707	
610.0	0.2102189702	-0.1451649433	
610.625	0.04664745293	-0.1587371878	
611.25	-0.01705255061	-0.1083823472	
611.875	-0.1439951826	-0.1494946454	
612.5	-0.1040461551	0.009958741453	
613.125	-0.14252469	-0.0451621893	
613.75	-0.06193238822	0.2224451819	
614.375	0.1016821785	-0.0286975158	
615.0	0.0075370339	0.144990197	
615.625	0.08670595381	-0.0007249209693	
616.25	-0.1143586307	0.07109430201	
616.875	-0.004755430874	0.2525660335	
617.5	0.03099344037	0.1147374606	
618.125	-0.04148851534	0.2487657113	
618.75	0.1061766337	0.2150011281	
619.375	0.08673586086	0.2130607453	
620.0	0.192940917	0.02762273946	
620.625	0.148709865	-0.1133915081	
621.25	-0.1372322767	-0.1302563573	
621.875	-0.0334817854	-0.0530221404	
622.5	-0.2516785261	0.07555860805	
623.125	0.04752305229	0.1316677338	
623.75	0.08650670746	0.08687355398	
624.375	0.06438494	-0.1823738303	
625.0	0.02807516145	0.0486784614	
625.625	0.0333127534	-0.1527951596	
626.25	-0.08051354355	-0.03387673028	
626.875	-0.07973003724	-0.131757286	
627.5	-0.2041857379	-0.01331866836	
628.125	-0.07034992944	-0.0003175457914	
628.75	-0.03989280435	-0.1348080215	
629.375	-0.13326719	-0.1298387347	
630.0	-0.1659806868	-0.03811393426	
630.625	-0.2182439759	0.06793193324	
631.25	-0.08162924304	0.2242483159	
631.875	0.05942787979	0.174289982	
632.5	0.1290555397	0.2113421786	
633.125	0.2486775575	-0.01895773399	
633.75	0.02834424604	-0.0707191687	
634.375	0.1090852615	-0.1384667593	
635.0	-0.207300334	-0.1382711877	
635.625	-0.01751590327	-0.06825455902	
636.25	-0.2091782618	0.10847976	
636.875	0.06997183145	0.1257451718	
637.5	-0.08991472797	0.01836882735	
638.125	-0.01201113961	0.1861454919	
638.75	-0.03071827964	0.04429862541	
639.375	-0.05865626117	0.3026677287	
640.0	0.2546189243	0.1816661426	
640.625	0.1366908532	0.03645845658	
641.25	0.2919258737	0.05369292625	
641.875	0.118012975	-0.286451788	
642.5	-0.06427589239	-0.08197057347	
643.125	-0.1019936958	-0.1881027433	
643.75	-0.2099150684	0.05940950799	
644.375	0.002335413701	-0.1127916587	
645.0	-0.2527030829	0.2558006997	
645.625	0.2527900972	0.07677650648	
646.25	-0.04241657355	0.07187893892	
646.875	0.306669111	-0.0138764019	
647.5	-0.1234431099	-0.03200024279	
648.125	0.3811880483	0.1304654617	
648.75	0.1101766092	-0.2549053451	
649.375	0.158600909	-0.06501656168	
650.0	0.2502335032	-0.4236249951	
650.625	-0.1050342921	-0.2774231407	
651.25	0.1940109216	-0.04635520802	
651.875	0.3368157511	-0.2513756619	
652.5	0.08390904961	-0.2487066637	
653.125	0.2068170084	0.02733398399	
653.75	0.2097925076	-0.3622868927	
654.375	-0.205252362	-0.1346911525	
655.0	-0.1729421707	-0.1495136265	
655.625	-0.2476326816	0.3555489022	
656.25	0.1491719985	0.02467504295	
656.875	-0.04979534627	0.1307639845	
657.5	0.2476756206	0.03763624545	
658.125	-0.07702704465	0.06511370829	
658.75	0.4413763595	0.1793245473	
659.375	0.1836672877	-0.3543136552	
660.0	0.1358882303	-0.09152458744	
660.625	0.2262641894	-0.3636171065	
661.25	-0.0827736608	-0.3587894217	
661.875	0.2080898267	-0.05277335325	
662.5	0.2765855059	-0.3564334623	
663.125	0.07186957545	-0.2202688569	
663.75	0.1763042228	-0.1645450438	
664.375	-0.13481133	-0.4196610663	
665.0	-0.2644311463	-0.01620795982	
665.625	-0.2425030685	0.0056317044	
666.25	-0.101568596	0.3469696274	
666.875	0.1938850981	0.06612187605	
667.5	0.1115115534	0.155229894	
668.125	0.2859341427	-0.1329189106	
668.75	0.03253901636	-0.09908565413	
669.375	0.1843865104	-0.1936694712	
670.0	-0.1567586795	-0.2893924093	
670.625	0.03475848066	0.02660697418	
671.25	0.136304464	-0.2471925571	
671.875	0.01069605739	-0.2423009972	
672.5	0.132024143	0.0209178012	
673.125	0.3063577328	-0.2956012207	
673.75	-0.05079943897	-0.2066182008	
674.375	0.09245133554	-0.1745500726	
675.0	-0.1362110798	-0.3027785316	
675.625	-0.1910646124	0.06970634879	
676.25	-0.09504517229	-0.1284265718	
676.875	-0.241001056	0.09132469291	
677.5	-0.01272330682	0.08069887623	
678.125	-0.191784081	0.09582328417	
678.75	0.172465871	0.2940897583	
679.375	0.09863544883	-0.08750512687	
680.0	0.1676471935	0.06059503307	
680.625	0.102049987	-0.2684490435	
681.25	-0.179278074	0.1203467641	
681.875	0.3925404827	0.1368818832	
682.5	0.1582301631	-0.1518620854	
683.125	0.05789840877	0.1913336705	
683.75	0.5352004129	0.05178631504	
684.375	0.1396958057	-0.2520666365	
685.0	0.2492532763	0.2977666148	
685.625	0.344234745	-0.2208399126	
686.25	0.1061179662	-0.06556125133	
686.875	0.3316316692	-0.03556380853	
687.5	0.1278499699	-0.499484457	
688.125	-0.06333360401	-0.2326781951	
688.75	-0.3901069483	-0.197734616	
689.375	-0.2151881405	0.4277833846	
690.0	0.1745084548	0.1351902394	
690.625	0.1782895589	0.3081701784	
691.25	0.4427634458	0.07249986312	
691.875	0.2620061662	0.1278534351	
692.5	0.6650898896	0.3043912571	
693.125	0.5935706847	-0.3256732853	
693.75	0.3465174652	-0.01377271118	
694.375	0.5743824834	-0.5016021411	
695.0	0.1800440481	-0.4646179143	
695.625	0.3108646626	0.08799709068	
696.25	0.6911677322	0.0005283990926	
696.875	0.4138641774	0.03828605226	
697.5	0.4766229437	0.445385053	
698.125	0.5964220998	0.01023916516	
698.75	0.1910256175	-0.4692030523	
699.375	-0.4073703018	-0.2649386326	
700.0	-0.2048635369	0.3663495689	
700.625	0.2441370375	0.1839363411	
701.25	0.1048859379	0.06581010987	
701.875	0.3615173435	0.2671453277	
702.5	0.375171613	-0.04281777945	
703.125	0.2809524872	0.1571589113	
703.75	0.4550768385	-0.1689687088	
704.375	0.08615497306	-0.2395430171	
705.0	0.2996089188	-0.005842693857	
705.625	0.2716407024	-0.1362684464	
706.25	0.1063331054	0.09531342061	
706.875	0.3390483715	0.268142228	
707.5	0.3718827527	0.1357340385	
708.125	0.4453316932	0.01296211095	
708.75	0.1474042207	-0.3851963384	
709.375	-0.2144146972	-0.2869467638	
710.0	-0.04179918174	0.1949393642	
710.625	-0.1007580606	-0.01853685192	
711.25	0.2229280552	0.08428331722	
711.875	0.001696850065	0.057671575	
712.5	0.3753544558	-0.01853182525	
713.125	0.1057987059	-0.2972010616	
713.75	0.09189742182	-0.09796767586	
714.375	-0.000196389025	-0.3155527766	
715.0	-0.1193644492	-0.1144350098	
715.625	0.1078175863	-0.1372225839	
716.25	0.1231025164	-0.3489970401	
716.875	0.1146215385	-0.1704538582	
717.5	0.4099816319	0.02098969622	
718.125	0.6913219238	-0.2176343442	
718.75	0.4737691362	-0.3371649734	
719.375	0.6454200747	-0.3563298231	
720.0	-0.005924818512	-0.9047043809	
720.625	-0.1213705969	-0.5877175461	
721.25	0.3268112106	-0.7442040811	
721.875	-0.6982299518	-0.9434617861	
722.5	-0.3013014893	0.1055127705	
723.125	-0.8864400455	-0.2841362135	
723.75	-0.0895581025	0.7361893218	
724.375	0.1102620531	0.1345721709	
725.0	0.1095877942	0.5496379933	
725.625	0.4083824633	0.2324922625	
726.25	-0.1846597661	0.4088443256	
726.875	-0.03088643269	1.044887834	
727.5	0.4757569341	1.049012558	
728.125	-0.1728490871	0.9775155073	
728.75	0.1330621678	2.887059905	
729.375	1.354194601	2.841321447	
730.0	-0.4410888817	1.855046666	
730.625	1.249295397	4.28894017	
731.25	1.514924424	2.117928946	
731.875	-1.863718425	1.34227948	
732.5	-3.092819754	1.692672445	
733.125	-1.153279438	1.862473504	
733.75	-0.6739904851	0.4840994614	
734.375	1.598176889	0.2112225134	
735.0	-0.4181235611	-0.1799014551	
735.625	-0.3952493075	-0.1804885709	
736.25	0.1897140436	0.8001956792	
736.875	-0.05546291601	-0.1979336363	
737.5	1.131483028	0.6943952375	
738.125	1.412894689	-1.129482345	
738.75	0.2457859325	-0.9864717718	
739.375	2.428776693	0.2510548442	
740.0	3.907276543	-3.805504006	
740.625	-1.342000651	-1.078201879	
741.25	-0.9515825796	4.4229434	
741.875	0.4351991867	3.987809147	
742.5	1.432083897	-1.880192174	
743.125	-0.1080542344	-3.059214554	
743.75	-0.7261932792	-0.4994064483	
744.375	-0.08503806893	-0.08673185965	
745.0	0.1321911059	0.2561300898	
745.625	-0.07424774853	0.005266811278	
746.25	0.02754833333	-0.2087694478	
746.875	-0.1783051496	0.1536591945	
747.5	-0.02168310532	0.1151687126	
748.125	0.06468628976	0.5994793839	
748.75	0.4091095286	0.2899631416	
749.375	0.02274516096	0.2561095605	
750.0	-0.4229709325	0.3415296645	
