!Created with skrf (http://scikit-rf.org).
# GHz S RI R (50+0j) 
!freq	ReS11	ImS11	
500.0	0.2278201453	-0.3246012764	
500.625	0.4100737666	-1.10483417	
501.25	-0.5721508335	-0.2257982258	
501.875	-0.05297080091	-0.3393366109	
502.5	-0.07743301352	-0.158071776	
503.125	-0.02436228784	0.01684096093	
503.75	-0.03740458994	0.09213971491	
504.375	0.01621700063	-0.04155420776	
505.0	0.03331213113	0.01487296054	
505.625	-0.05459287074	-0.07020069045	
506.25	0.03617191654	0.02248883076	
506.875	-0.3481731227	0.0563759872	
507.5	-0.0403416049	0.07609288406	
508.125	0.4421424495	-0.5422748443	
508.75	0.4358628251	-1.21384785	
509.375	-0.2543952577	-0.5898964534	
510.0	-0.3804385763	-0.4702226013	
510.625	-0.1966894982	-0.1301031624	
511.25	-0.02233567831	-0.07971729896	
511.875	-0.1276214583	-0.03555502388	
512.5	0.01845588339	0.0401196586	
513.125	0.001675659602	-0.03945617437	
513.75	-0.07591104162	-0.06504670287	
514.375	-0.01154643125	0.08379279981	
515.0	-0.04086042143	-0.4054505839	
515.625	-0.08219294571	0.1531288607	
516.25	0.1410659601	-0.860965267	
516.875	-0.4993720748	-0.4091655199	
517.5	0.07720105162	-0.008335047547	
518.125	-0.07536995326	-0.07658813315	
518.75	0.03563023246	-0.02641767723	
519.375	-0.06492401985	0.008432346574	
520.0	0.1132154494	0.0281849557	
520.625	0.089547453	-0.07475767159	
521.25	-0.0003459901949	-0.1878085114	
521.875	-0.1972888414	-0.0579344245	
522.5	-0.05756401892	0.03747087591	
523.125	-0.0959095805	-0.01069437951	
523.75	-0.0970071223	0.09907899519	
524.375	-0.03396992065	-0.04231788566	
525.0	-0.163083458	0.1644861215	
525.625	0.1112309671	0.001306217004	
526.25	-0.06189355303	0.0478936329	
526.875	0.01029787665	0.01154319866	
527.5	-0.1301179046	0.1713087202	
528.125	0.1436375827	0.2797605189	
528.75	0.03945507924	0.07290130104	
529.375	0.02476585311	0.1022400497	
530.0	0.09153376993	0.05057540565	
530.625	-0.01670026504	0.2404763643	
531.25	0.3485057569	0.09333843319	
531.875	0.2140098178	-0.2451800964	
532.5	0.02390529524	-0.06213619123	
533.125	-0.004200923456	-0.1159641213	
533.75	0.05106082493	0.001772202433	
534.375	-0.1441817352	-0.3146501541	
535.0	-0.1801548774	0.06409919563	
535.625	-0.1401862403	0.05392436681	
536.25	0.00445165752	0.1205483073	
536.875	0.04904420984	-0.02201467039	
537.5	0.08692691009	-0.01745996024	
538.125	0.07406038612	-0.1014322643	
538.75	0.09403808239	-0.0526196477	
539.375	-0.07472386469	-0.185868707	
540.0	-0.1565728887	-0.08132218415	
540.625	-0.1030588145	-0.05538445518	
541.25	-0.106606813	-0.003786401619	
541.875	-0.05758433462	0.02484688787	
542.5	-0.02512230694	-0.07670561856	
543.125	-0.1117041389	-0.00449642392	
543.75	0.02521453842	0.01877990123	
544.375	-0.0867592884	0.0603988926	
545.0	0.08495681618	-0.008075401259	
545.625	0.005712628405	0.1034578856	
546.25	0.1092702661	-0.02208740473	
546.875	0.06574729806	0.01113674207	
547.5	0.106766474	-0.1572142284	
548.125	-0.09193477322	-0.1084362701	
548.75	-0.04343105563	-0.0889733601	
549.375	-0.1315726318	-0.0966869734	
550.0	-0.04423889499	0.06034013551	
550.625	-0.06286331337	-0.0303784104	
551.25	-0.04925679545	0.06144845543	
551.875	-0.06113463526	0.03280607091	
552.5	-0.04186171726	0.09068278775	
553.125	0.0009117541008	0.0432430797	
553.75	0.0385091152	0.04698520011	
554.375	0.08275472555	-0.01649540073	
555.0	0.07375568733	-0.0614228427	
555.625	0.07427941645	-0.09936005525	
556.25	0.04705029979	-0.132251925	
556.875	-0.04031538277	-0.1354847083	
557.5	-0.09002444901	-0.08968729602	
558.125	-0.1093918182	-0.03088271731	
558.75	-0.09559568628	0.006907591746	
559.375	-0.09697844412	0.01566075186	
560.0	-0.09026188895	0.08345665184	
560.625	-0.02378201525	0.09573646035	
561.25	-0.01573762658	0.0870630419	
561.875	0.05698661288	0.0456929542	
562.5	-0.02484371082	0.03217939652	
563.125	0.1046857972	0.07820375785	
563.75	0.08533838673	-0.0279988863	
564.375	0.1381725209	-0.0608262363	
565.0	0.04560466885	-0.1815487597	
565.625	-0.04192952498	-0.08907281765	
566.25	-0.08612437161	-0.1434688008	
566.875	-0.1672800991	-0.02210305009	
567.5	-0.04309860718	-0.07550040897	
568.125	-0.1636657951	-0.202599337	
568.75	-0.1959550781	0.0226651704	
569.375	-0.1899308589	-0.02259464931	
570.0	-0.1246298189	0.2905004053	
570.625	0.04747027296	0.1077998666	
571.25	-0.07624231782	0.09797817366	
571.875	0.1435509923	0.02698509524	
572.5	0.02458266235	0.06180686885	
573.125	0.1525982751	-0.1574767812	
573.75	-0.06414633292	-0.1186360812	
574.375	0.07981359444	0.01465887726	
575.0	-0.04608832086	-0.1347384465	
575.625	0.05709781087	0.02973461603	
576.25	0.08945741185	-0.1612591662	
576.875	-0.09140262682	-0.1133864139	
577.5	0.03153237723	-0.0586415818	
578.125	0.002338942927	-0.2303503642	
578.75	-0.1693688597	-0.0605641645	
579.375	0.01690368225	-0.01355317113	
580.0	-0.1388165267	-0.1262478779	
580.625	0.02349692518	0.06628224325	
581.25	-0.1947841238	0.01390285155	
581.875	0.1661296039	0.198696511	
582.5	0.01442741953	-0.02741612661	
583.125	0.02606749889	0.2085028334	
583.75	0.1319680412	-0.08545160238	
584.375	-0.05827361686	0.1416849712	
585.0	0.1994800395	0.03037353525	
585.625	0.04244521372	-0.05233301713	
586.25	0.1774804212	0.02397559443	
586.875	-0.009532096452	-0.2147862481	
587.5	0.01252005106	-0.03927768309	
588.125	0.01080784203	-0.1983780312	
588.75	-0.06270139633	-0.1415405945	
589.375	0.0786894507	-0.05407078384	
590.0	-0.07708606391	-0.2484705193	
590.625	-0.1536322196	0.08351598334	
591.25	-0.09550490828	-0.0003203765934	
591.875	-0.08704122691	0.1912480567	
592.5	0.1066657213	-0.02798841641	
593.125	-0.0903723085	0.206021505	
593.75	0.09465680824	-0.01272128465	
594.375	0.03694410249	0.1986943518	
595.0	0.2677744281	0.1166808019	
595.625	0.02515007153	-0.02128017489	
596.25	0.1384180168	0.1343957568	
596.875	0.2151084126	-0.01424834688	
597.5	0.06827519856	0.01367226173	
598.125	0.1610348519	0.174167206	
598.75	0.2122417113	-0.003011614844	
599.375	0.1576380666	0.009420219578	
600.0	0.1884034087	-0.1546673745	
600.625	0.08064101342	-0.2192404471	
601.25	0.0277771046	-0.1028745083	
601.875	-0.03120716501	-0.1824878863	
602.5	-0.1434718989	0.07775235831	
603.125	-0.02160343788	-0.03645429394	
603.75	-0.1992371733	0.1157943551	
604.375	0.02416358476	0.1084098053	
605.0	-0.1489616007	-0.01144840996	
605.625	-0.02672367699	0.1781252565	
606.25	-0.03453716675	-0.03439989167	
606.875	-0.2613818119	0.1079707444	
607.5	-0.02712424544	0.1145110327	
608.125	-0.09017814148	0.223514947	
608.75	0.2305448094	0.1583722915	
609.375	0.1882602464	-0.1355407463	
610.0	0.1249469234	-0.07657350922	
610.625	0.07200427223	-0.1666080104	
611.25	-0.08061567942	-0.1080248001	
611.875	-0.01139310263	-0.1261916604	
612.5	-0.1906008213	-0.1072963558	
613.125	-0.07543390182	0.08029973034	
613.75	-0.1413646193	0.0175230162	
614.375	0.1052903179	0.170715733	
615.0	-0.0123945675	-0.06530423802	
615.625	-0.01507572398	0.1986880914	
616.25	0.03914650841	0.03739770086	
616.875	-0.1494205888	0.1281157331	
617.5	-0.01397561802	0.2932689126	
618.125	0.08100480996	0.1135757885	
618.75	0.07320352157	0.2147897143	
619.375	0.1323718011	0.1140576965	
620.0	0.2262853968	0.02841555457	
620.625	0.09866165972	-0.1264411763	
621.25	-0.06688767118	-0.2495852885	
621.875	-0.1986979328	0.001728702751	
622.5	-0.1580971795	-0.006473755685	
623.125	0.0001664580084	0.2269881262	
623.75	0.1152082963	-0.1032964162	
624.375	0.07958115841	0.02162626519	
625.0	-0.0400453933	-0.05406663745	
625.625	0.0932312533	-0.03517141164	
626.25	-0.08886633967	-0.1824331071	
626.875	-0.1192405324	0.009643595754	
627.5	-0.09254150455	-0.09951770397	
628.125	-0.1564783107	-0.05170391716	
628.75	-0.05030281839	-0.05692957966	
629.375	-0.06805534252	-0.1688647258	
630.0	-0.2038631558	-0.04556458531	
630.625	-0.1554575261	0.1144793059	
631.25	-0.1354384523	0.1376171769	
631.875	0.03895266617	0.2498271715	
632.5	0.1365097936	0.09980190065	
633.125	0.1204389216	0.1422888376	
633.75	0.1550747494	-0.1537855774	
634.375	-0.01610629307	0.02772778301	
635.0	0.02289710547	-0.2178035005	
635.625	-0.1647981085	0.01483164752	
636.25	-0.09420509996	-0.02374963047	
636.875	-0.1002903502	0.2220299011	
637.5	0.07397240688	0.03144675319	
638.125	-0.144553988	0.06460531121	
638.75	0.01960180759	0.251939268	
639.375	0.01561639786	0.1099326937	
640.0	0.09284196655	0.3021316187	
640.625	0.3161051482	0.05650577033	
641.25	0.1469740479	-0.0408933019	
641.875	0.2312660522	-0.1622064188	
642.5	-0.1362682195	-0.2095457557	
643.125	-0.03424867817	-0.04064427271	
643.75	-0.1545722893	-0.216462224	
644.375	-0.1538539473	0.1877236059	
645.0	-0.1308775034	-0.0291706054	
645.625	0.07089416555	0.3905759198	
646.25	0.1883937404	-0.1647287117	
646.875	0.01011092734	0.09713749155	
647.5	0.2117403998	-0.1881965112	
648.125	-0.0481110216	0.1615242011	
648.75	0.3856857107	-0.1149455294	
649.375	0.02176605852	-0.2956638533	
650.0	0.1668772297	-0.1224734315	
650.625	0.2503763704	-0.3844129107	
651.25	-0.02221680961	-0.2872371659	
651.875	0.2101176024	0.01307798967	
652.5	0.3795402165	-0.2065245312	
653.125	0.08310943609	-0.2032733461	
653.75	0.2318696291	-0.1204226486	
654.375	-0.1958526185	-0.3658917256	
655.0	-0.2019074167	0.1257760655	
655.625	-0.1746189695	0.02642551179	
656.25	0.09559966627	0.3029262591	
656.875	0.03891850539	-0.1476946755	
657.5	0.02776008238	0.2765387181	
658.125	0.2618320448	-0.03341126852	
658.75	0.05841821887	0.0903728348	
659.375	0.5467606874	-0.1902296891	
660.0	-0.01224265595	-0.3705423494	
660.625	0.2234386352	-0.1360886507	
661.25	0.1984844463	-0.3981710527	
661.875	0.01882501992	-0.3064067475	
662.5	0.2227216664	-0.03648353232	
663.125	0.2951704679	-0.3094574525	
663.75	-0.02735011513	-0.2358331686	
664.375	0.05498953968	-0.2741285159	
665.0	-0.3870267316	-0.1816524871	
665.625	-0.1488231723	0.1656561401	
666.25	-0.1459756747	0.1965225278	
666.875	0.2105941748	0.235563224	
667.5	0.1143115641	-0.05824928428	
668.125	0.2346504788	0.1066642574	
668.75	0.1451742944	-0.2702681642	
669.375	-0.01492015098	-0.08670832608	
670.0	0.1416170729	-0.259827812	
670.625	-0.1782020452	-0.2387197777	
671.25	0.09881552157	0.002405891806	
671.875	0.1655239295	-0.3261513616	
672.5	0.03837059998	-0.1815991768	
673.125	0.1753334931	-0.05089805868	
673.75	0.1924934869	-0.3274866904	
674.375	-0.1293752954	-0.1704659734	
675.0	0.003478839101	-0.2319597124	
675.625	-0.2744565228	-0.1395681407	
676.25	-0.1016958094	0.127182087	
676.875	-0.1194731366	-0.114813195	
677.5	-0.1271409835	0.1731763855	
678.125	-0.01939780361	0.05511527036	
678.75	-0.04274007475	0.2634295365	
679.375	0.3322104814	-0.03309675428	
680.0	-0.06021697267	-0.06969202335	
680.625	0.2361081167	0.01871613905	
681.25	0.03778687711	-0.2311837496	
681.875	-0.04959226871	0.1910881728	
682.5	0.4248845115	0.1571336206	
683.125	0.007389460283	-0.1908968968	
683.75	0.1767504253	0.2232891824	
684.375	0.4521817807	-0.03045334103	
685.0	-0.0326712725	-0.06671858225	
685.625	0.4604510498	0.1425859209	
686.25	0.2140492464	-0.2464050201	
686.875	0.1413001584	-0.09869776438	
687.5	0.2864139271	-0.3145433566	
688.125	-0.2743841216	-0.4268676517	
688.75	-0.2764080491	-0.07593448267	
689.375	-0.317643702	0.3102052015	
690.0	0.2673497935	0.3350099132	
690.625	0.08762166191	0.07032153341	
691.25	0.3159701383	0.3957896708	
691.875	0.4878369709	0.019702061	
692.5	0.3684315299	0.2026047286	
693.125	0.8079464358	-0.02180119137	
693.75	0.3087417819	-0.4993019315	
694.375	0.3409263487	-0.1204069218	
695.0	0.5174274043	-0.4668482853	
695.625	0.2642347396	-0.2070648105	
696.25	0.3052637724	0.214753174	
696.875	0.5241680264	0.0776763083	
697.5	0.298394838	0.1551579939	
698.125	0.5086596231	0.1810895622	
698.75	0.2872395464	-0.5513920608	
699.375	-0.4966792463	-0.2235096999	
700.0	-0.1915121093	0.2576517438	
700.625	0.07000915772	0.3127081401	
701.25	0.1775640717	0.00582815274	
701.875	0.07033889983	0.2261266406	
702.5	0.4538073045	0.193419063	
703.125	0.2496321031	-0.03858613171	
703.75	0.3957975181	0.008287725509	
704.375	0.2362801034	-0.333551493	
705.0	0.05477362924	-0.09551661691	
705.625	0.3525250709	0.06730361977	
706.25	0.1804495619	0.03014939366	
706.875	0.1652308147	0.2422958246	
707.5	0.3439917512	0.1153207664	
708.125	0.3463883292	-0.01507068708	
708.75	0.1248917334	-0.4257857747	
709.375	-0.3207386005	-0.2110044844	
710.0	-0.3186549634	0.3528372057	
710.625	0.1077958108	0.02933205795	
711.25	0.102142805	0.239388891	
711.875	0.2477410511	-0.1352996258	
712.5	0.212385359	0.1411831909	
713.125	0.29954506	-0.2451949992	
713.75	-0.0298928511	-0.2299086247	
714.375	0.07948595359	-0.1666636697	
715.0	-0.112365861	-0.2586597939	
715.625	-0.03588727413	-0.08406474906	
716.25	0.234553596	-0.2079052104	
716.875	0.2538408359	-0.3166679311	
717.5	0.2646400984	-0.01744537201	
718.125	0.5898910258	0.06039248268	
718.75	0.6064259879	-0.3756233976	
719.375	0.3584744089	-0.2680846553	
720.0	0.4911052883	-0.6403180789	
720.625	-0.2819374736	-1.195871308	
721.25	-0.1876932476	-0.4521659864	
721.875	-0.1434747489	-1.160709783	
722.5	-0.9504628578	-0.2771719143	
723.125	-0.3042786242	-0.1966344624	
723.75	-0.5255714958	0.6077061674	
724.375	0.2440683936	0.3061989672	
725.0	0.01432704155	0.2532404045	
725.625	0.3434999496	0.6309384207	
726.25	0.2672100902	0.3475896589	
726.875	-0.2529709305	0.7044573599	
727.5	0.1413684509	1.53403708	
728.125	0.7169693033	1.135448685	
728.75	-0.7188228024	1.762441215	
729.375	0.4055493254	4.17666517	
730.0	1.312895661	1.816361697	
730.625	-0.986058344	3.006055968	
731.25	0.5170610129	4.481345295	
731.875	-0.1247856936	1.788447235	
732.5	-2.926335923	0.5459395214	
733.125	-2.568198614	1.670826899	
733.75	0.5218059194	0.8709680926	
734.375	0.5639258509	0.7421700107	
735.0	-0.5425120113	-0.7210940369	
735.625	-0.1095390693	0.05663570695	
736.25	-0.3049466454	0.7611301649	
736.875	0.8839642466	0.1910428127	
737.5	0.2841824677	0.09929880113	
738.125	2.043504175	-0.3057220953	
738.75	0.6339201762	-2.135565438	
739.375	0.4319686446	-0.4165551681	
740.0	4.188988764	0.431124425	
740.625	2.801363567	-4.320632527	
741.25	-2.730916942	0.9018693432	
741.875	-3.649991589	2.818930921	
742.5	-1.003515042	0.6974096548	
743.125	1.111259848	-1.466772941	
743.75	-0.6366069742	-1.175720061	
744.375	-0.2508742369	0.2649626508	
745.0	-0.07276700216	0.09691594002	
745.625	0.001607722074	-0.1819953407	
746.25	0.04681132599	-0.08827648248	
746.875	-0.3061970288	0.097912849	
747.5	0.09818258912	0.2558277001	
748.125	0.02068621524	0.3492577715	
748.75	0.3907344806	0.5068817633	
749.375	0.2422834638	0.2679873817	
750.0	-0.3356163898	0.07647791551	
