!Created with skrf (http://scikit-rf.org).
# GHz S RI R (50+0j) 
!freq	ReS11	ImS11	
500.0	0.7769545828	-1.125617082	
500.625	1.594999648	-3.669046375	
501.25	-2.294664646	-2.560991544	
501.875	-0.8904342173	-0.3980637996	
502.5	0.146625598	-0.4526883024	
503.125	-0.3584661567	0.194411007	
503.75	0.003434815797	-0.04711209913	
504.375	0.2008120577	-0.008858483972	
505.0	-0.09936069005	0.04097412701	
505.625	0.1225219959	-0.3985720258	
506.25	-0.2177035881	0.3487317598	
506.875	-0.8625246837	-0.9888264426	
507.5	-1.714673185	-0.4139844393	
508.125	0.497055409	-0.1946609996	
508.75	2.795486219	-3.902956195	
509.375	-3.259758913	-4.386414974	
510.0	-1.002257075	-0.8366230657	
510.625	-0.8527452856	-0.6335681579	
511.25	-0.07429736072	-0.03836291064	
511.875	-0.7365077869	-0.1138054962	
512.5	-0.0196751687	0.2100515235	
513.125	-0.06868040013	-0.201400206	
513.75	-0.1060247317	-0.2943329382	
514.375	-0.699447711	0.02421523313	
515.0	1.558659891	0.2612677746	
515.625	-2.369563358	-1.604757681	
516.25	1.307418623	-0.335870279	
516.875	-1.432412325	-2.868136322	
517.5	-0.7289836003	0.3115179561	
518.125	-0.003031589001	-0.5174877352	
518.75	-0.5678949906	0.1738491221	
519.375	-0.2347235576	-0.005183091659	
520.0	0.4923283086	0.2216754245	
520.625	0.2957345544	-0.2917110203	
521.25	0.3071337976	-0.5722645331	
521.875	-0.6170169441	0.09126294546	
522.5	0.009952766959	-0.05519944279	
523.125	-0.2255261591	0.2718866293	
523.75	-0.09860346495	-0.2025243001	
524.375	-0.5052311926	0.4391413416	
525.0	-0.1609773405	-0.01806291253	
525.625	0.1389860451	0.3948514337	
526.25	-0.2164451052	-0.2525477107	
526.875	0.02006603714	0.3073495774	
527.5	-0.1690094939	0.1610994683	
528.125	0.001502018082	1.199563834	
528.75	0.5705253377	0.4613822451	
529.375	-0.08738008445	0.3909167199	
530.0	0.2762458949	0.0977646932	
530.625	0.0606023994	1.384155461	
531.25	0.9513206393	-0.4541960223	
531.875	0.7279980202	0.07300179934	
532.5	-0.698959653	-0.499471812	
533.125	0.7892038111	0.03684213561	
533.75	-0.280212136	-0.7052628464	
534.375	0.3069997416	-0.6354744741	
535.0	-1.154431155	-0.1220697435	
535.625	-0.1041989346	0.1127443957	
536.25	-0.1225384992	0.2900685844	
536.875	0.3461013198	-0.02868163765	
537.5	0.06043172513	-0.01702359342	
538.125	0.4484508723	-0.2048285497	
538.75	0.1254663066	-0.2824952641	
539.375	-0.009313711226	-0.4784179499	
540.0	-0.6448728508	-0.3060167505	
540.625	-0.1359083721	-0.05945892329	
541.25	-0.3259910228	-0.06132602658	
541.875	-0.1200889357	0.04494702234	
542.5	-0.04122455897	-0.05104046793	
543.125	-0.2220687472	-0.2893402103	
543.75	-0.2677346744	0.284680528	
544.375	-0.1609183162	-0.1676476341	
545.0	0.1395456608	0.3212003612	
545.625	-0.1393716835	0.008945550067	
546.25	0.5184531885	0.1995601322	
546.875	-0.0137765814	-0.1247616156	
547.5	0.4419505896	-0.2228143654	
548.125	-0.3463010281	-0.4974111023	
548.75	-0.1628375037	-0.09151856709	
549.375	-0.1962407695	-0.3311913866	
550.0	-0.2771090051	0.1476914213	
550.625	-0.03393722879	-0.1193248312	
551.25	-0.2631149816	0.2029605719	
551.875	-0.09264814644	0.04618023441	
552.5	-0.1926284877	0.2585430489	
553.125	0.02263758539	0.1224765102	
553.75	0.08903886089	0.1431274212	
554.375	0.2542742797	-0.004269230002	
555.0	0.2119756138	-0.1717779056	
555.625	0.2167010382	-0.2429145012	
556.25	0.1667004828	-0.3551483714	
556.875	-0.09585925467	-0.3897748991	
557.5	-0.2202738767	-0.2487596774	
558.125	-0.2831924745	-0.104014605	
558.75	-0.2573423433	0.01315476424	
559.375	-0.2330181608	0.01817157905	
560.0	-0.27533464	0.1886725385	
560.625	-0.05721418184	0.2822430071	
561.25	-0.03039755488	0.165732728	
561.875	0.1259941639	0.186275011	
562.5	-0.03619359044	0.02070210809	
563.125	0.2517289168	0.2664334673	
563.75	0.1971940537	-0.09774698951	
564.375	0.415255228	-0.09756354857	
565.0	0.1157882101	-0.5034876015	
565.625	-0.07426100133	-0.1971782474	
566.25	-0.1798630474	-0.3580660697	
566.875	-0.4835793264	-0.1726531704	
567.5	-0.2009188611	-0.1044262005	
568.125	-0.2653208973	-0.5909205181	
568.75	-0.6686765841	-0.01296996954	
569.375	-0.3893105243	0.00773728007	
570.0	-0.4861060757	0.6814069315	
570.625	0.1316426881	0.3505210267	
571.25	-0.3264604545	0.166647543	
571.875	0.5387876123	0.1958733218	
572.5	-0.06752962531	0.1466383211	
573.125	0.5367305771	-0.3500855994	
573.75	-0.1619380376	-0.4195532623	
574.375	0.1922961719	0.1236828058	
575.0	-0.0226773111	-0.4229387297	
575.625	0.1754796951	0.1442124536	
576.25	0.2719039684	-0.5043282246	
576.875	-0.2936548099	-0.2366775998	
577.5	0.2384451501	-0.1433019537	
578.125	-0.05645281282	-0.651882139	
578.75	-0.3958874119	-0.1830928636	
579.375	-0.005667384407	-0.01575171463	
580.0	-0.2240414248	-0.3295796618	
580.625	0.003340136793	0.1619864445	
581.25	-0.4998165795	-0.01009389526	
581.875	0.2181488345	0.5347610208	
582.5	0.1074237986	-0.02529618837	
583.125	-0.120531583	0.4874617585	
583.75	0.5317691074	-0.2286263948	
584.375	-0.3474118997	0.3649584314	
585.0	0.6347259354	0.06220316609	
585.625	-0.007435449076	-0.09874663881	
586.25	0.6261719569	0.06871471847	
586.875	-0.1052133824	-0.4865033175	
587.5	0.2066618504	-0.1373708068	
588.125	-0.08239454637	-0.6193708709	
588.75	-0.2026961984	-0.1968091077	
589.375	0.474110027	-0.1146518462	
590.0	-0.2817545396	-0.6014365948	
590.625	-0.3574360507	0.02750200824	
591.25	-0.2463837588	0.08520644337	
591.875	-0.2780891896	0.3828871644	
592.5	0.2148057726	-0.02110331606	
593.125	-0.1555845563	0.2673980748	
593.75	0.1321351726	0.1178666339	
594.375	0.1954463142	0.44308151	
595.0	0.7332025272	0.2618041554	
595.625	0.1376802228	-0.1485580731	
596.25	0.3293369705	0.5436849172	
596.875	0.6978566257	-0.2036189358	
597.5	-0.01611593807	0.1698926125	
598.125	0.5055210011	0.5236784115	
598.75	0.3097031278	-0.05438686243	
599.375	0.5518235423	0.2517153874	
600.0	0.3640926017	-0.6128557958	
600.625	0.1663514475	-0.1900021129	
601.25	0.3765014651	-0.4295750017	
601.875	-0.3332658334	-0.4330345095	
602.5	-0.1473602932	-0.06007833706	
603.125	-0.2437119335	0.08623359655	
603.75	-0.3554604781	0.09350001476	
604.375	-0.1127617263	0.3635803527	
605.0	-0.2325454965	-0.0791854269	
605.625	-0.2116609652	0.3975025955	
606.25	-0.08327194426	-0.08642563017	
606.875	-0.7661831889	0.2866514528	
607.5	0.02025092265	0.3967582383	
608.125	-0.487571687	0.4141145942	
608.75	0.914985744	0.4733737316	
609.375	0.1013614057	0.04136434006	
610.0	0.7274688958	-0.2644237065	
610.625	-0.07818953119	-0.4784312459	
611.25	0.3955782554	-0.2626778142	
611.875	-0.4975802324	-0.2144974751	
612.5	-0.1125421311	-0.2305567871	
613.125	-0.741156235	0.1042989489	
613.75	0.09946549814	0.2022575213	
614.375	-0.10702897	0.4816189227	
615.0	0.2486228854	-0.1564718463	
615.625	-0.3092621922	0.4521172132	
616.25	0.2820273509	0.2941421465	
616.875	-0.469790302	0.1863720741	
617.5	-0.1252803904	0.8439751339	
618.125	0.1234390455	0.1928067326	
618.75	-0.2033493887	0.6384468522	
619.375	0.4268983479	0.2736326189	
620.0	0.26038344	0.2271444473	
620.625	0.2737524732	-0.4945412068	
621.25	-0.07007634502	-0.3215442816	
621.875	-0.622214691	-0.2580304226	
622.5	-0.344475248	0.1559452552	
623.125	-0.2908922032	0.4506433775	
623.75	0.4311857363	-0.08975213499	
624.375	0.116447584	0.1952110188	
625.0	-0.1359420584	-0.3623646053	
625.625	0.3191554162	0.09097425243	
626.25	-0.2460301935	-0.6625040344	
626.875	-0.2580561659	0.175552444	
627.5	-0.2018176202	-0.4178494007	
628.125	-0.4730237934	-0.07782906374	
628.75	0.01717370851	-0.1550812531	
629.375	-0.2621304091	-0.5800873897	
630.0	-0.3463172789	0.04078083437	
630.625	-0.5989714619	-0.07082340739	
631.25	-0.3998078652	0.6013433517	
631.875	0.1063529863	0.4762059023	
632.5	0.201403063	0.4115178116	
633.125	0.4516084952	0.2634706881	
633.75	0.5275391008	-0.3441707072	
634.375	0.01800238185	-0.1066202811	
635.0	0.165266125	-0.5390661211	
635.625	-0.4577763113	0.1241127332	
636.25	-0.4634262377	-0.1944179874	
636.875	-0.1083176694	0.5733774694	
637.5	0.04206775896	-0.08368541527	
638.125	-0.5582684109	0.4784569257	
638.75	0.3897045289	0.2280481629	
639.375	-0.4941107764	0.3896455762	
640.0	0.4447656206	0.9391541358	
640.625	0.6839701275	0.07943668513	
641.25	0.2584191485	0.1250168015	
641.875	0.7698527514	-0.6984886954	
642.5	-0.2470436257	-0.1945922851	
643.125	-0.05387765423	-0.614151124	
643.75	-0.6877982442	0.1373328659	
644.375	0.03068300886	-0.3528869798	
645.0	-0.6866244634	0.5376419814	
645.625	0.3720557426	0.4834387301	
646.25	0.2557154151	-0.06952397744	
646.875	0.1834900726	0.4595788029	
647.5	0.244843618	-0.5318942523	
648.125	0.2235431771	0.6585382236	
648.75	0.9453385126	-0.5698629657	
649.375	-0.06940973956	-0.2553096739	
650.0	1.2072408	-0.6169156892	
650.625	-0.1853012416	-1.245446041	
651.25	0.1323643187	0.1742235519	
651.875	1.376028095	-0.3519627694	
652.5	0.376493006	-0.8587656916	
653.125	0.2919057335	0.2604171064	
653.75	0.8384427601	-0.7924154368	
654.375	-0.5402505483	-0.4611790668	
655.0	-0.1822294227	-0.4987088244	
655.625	-0.8974250508	0.7582608279	
656.25	0.4307220671	0.06838327961	
656.875	-0.2657872059	0.2803233344	
657.5	0.4202625285	0.2737798457	
658.125	0.09110669563	0.08756585776	
658.75	0.7221980674	0.6546244074	
659.375	0.7820691734	-0.7050292635	
660.0	0.2729564162	-0.4362816262	
660.625	0.7708550231	-0.6751619709	
661.25	-0.03822070435	-1.155057019	
661.875	0.3896908657	0.02209899809	
662.5	1.142110253	-0.6011677868	
663.125	0.2947650212	-0.861952416	
663.75	0.3498698946	-0.07526650668	
664.375	0.02457389739	-1.261847621	
665.0	-0.6521690189	-0.005832845791	
665.625	-0.7602298079	-0.2404979232	
666.25	-0.1733969266	0.9995557086	
666.875	0.1104890114	0.05581610416	
667.5	0.5166855446	0.5575770788	
668.125	0.6219725814	-0.2830767921	
668.75	0.1482885758	-0.2072637193	
669.375	0.5193690449	-0.4027434499	
670.0	-0.07735353975	-0.7815863498	
670.625	-0.09609243867	-0.1783408104	
671.25	0.3408126421	-0.4266710283	
671.875	0.1717511774	-0.607226265	
672.5	0.3350684304	-0.01253779566	
673.125	0.6609042483	-0.641469483	
673.75	0.05392774667	-0.5081266342	
674.375	0.3413336917	-0.2611828522	
675.0	-0.1176764651	-1.070492151	
675.625	-0.7761254897	0.2584632779	
676.25	0.04942682816	-0.5048291062	
676.875	-0.805157379	0.2704804329	
677.5	0.1153243337	0.004279480805	
678.125	-0.8932427659	0.3757378711	
678.75	0.5886744736	0.2701892667	
679.375	0.1458696999	0.4420265186	
680.0	0.7434686122	-0.2349858976	
680.625	-0.2180193275	-0.4902723754	
681.25	0.2104646125	0.530894776	
681.875	0.7100955632	-0.07657394811	
682.5	0.3805015419	0.04528635447	
683.125	0.3130966059	0.1445598695	
683.75	0.8357673514	0.5307965161	
684.375	0.5893126116	-0.4502363169	
685.0	0.3900528193	0.5182364717	
685.625	1.150778933	-0.1091740823	
686.25	-0.05435587059	-0.3062086701	
686.875	1.594533151	0.1344829216	
687.5	-0.1084470274	-1.491785834	
688.125	0.5123000608	-0.216547732	
688.75	-1.422608961	-1.134836464	
689.375	-0.0808002842	1.159291665	
690.0	-0.493759931	0.5825984731	
690.625	1.168903534	0.5454772802	
691.25	0.2951569229	0.4178416902	
691.875	1.230929585	1.174178543	
692.5	1.411917837	-0.01488741009	
693.125	1.383388068	0.2283659076	
693.75	1.48975815	-0.6291159913	
694.375	0.8837258077	-0.8721062785	
695.0	1.161441078	-0.8638237542	
695.625	0.7876981076	-0.2633822456	
696.25	1.550546011	0.9774897147	
696.875	1.293799053	0.1895993609	
697.5	0.1990197757	1.319674258	
698.125	2.335628305	0.3481293499	
698.75	0.3136747739	-0.4320186313	
699.375	-0.7948212067	-1.833280354	
700.0	-0.2883989688	1.355221639	
700.625	-0.4219027866	0.2970426372	
701.25	1.245069465	0.4398942636	
701.875	0.1634664313	0.2789754074	
702.5	0.9917378192	1.057930156	
703.125	0.9154036399	-0.301077647	
703.75	0.9794803706	0.2919271549	
704.375	0.7186899924	-0.892743087	
705.0	0.1149922303	0.03375368845	
705.625	1.393848224	-0.04465908825	
706.25	0.2270529351	-0.1311977653	
706.875	0.2330326728	1.270826333	
707.5	1.397324488	0.5912412047	
708.125	0.4851250877	0.4272798897	
708.75	1.174735776	-1.101361813	
709.375	-0.8877448382	-0.3414040359	
710.0	-0.6042168002	0.1994250939	
710.625	0.4017627379	0.6142173168	
711.25	-0.06127023469	0.1615566415	
711.875	0.6509006509	0.4184745911	
712.5	0.6051398765	-0.04281944736	
713.125	0.7558836309	-0.5884757609	
713.75	0.02918078809	-0.4150368827	
714.375	0.450479686	-0.7590367531	
715.0	-0.5403863831	-0.4572841985	
715.625	0.5005227595	-0.07763515464	
716.25	0.3922222428	-1.480742389	
716.875	-0.03374375729	0.08730473961	
717.5	2.203569278	0.58682862	
718.125	2.045447178	-1.756184909	
718.75	0.3516487898	1.696378857	
719.375	4.065078988	-2.678713554	
720.0	-0.3279861049	-1.41359628	
720.625	1.235564967	-1.547027367	
721.25	-0.2805462904	-3.866856333	
721.875	-1.085627355	-1.19544583	
722.5	-1.17199678	-2.810467288	
723.125	-2.372818334	0.02609144081	
723.75	-0.4030534266	0.7834586207	
724.375	-0.4444706556	1.291795109	
725.0	0.9218028782	0.9291452123	
725.625	0.4309212356	0.6594624566	
726.25	-0.4657424264	1.410210448	
726.875	-0.2182261804	3.579390124	
727.5	1.96976704	1.986796182	
728.125	-4.51062433	5.470588473	
728.75	5.829260613	11.28663163	
729.375	0.8214589656	1.18554629	
730.0	-7.115063557	22.88264217	
730.625	11.64269789	5.626892342	
731.25	-9.507774843	1.12459796	
731.875	-12.98602403	14.25425068	
732.5	-4.17853954	8.711703396	
733.125	-3.445192584	-2.029607214	
733.75	-3.822715501	5.023545164	
734.375	2.106548188	0.2407800964	
735.0	0.5696104211	-0.65801612	
735.625	-2.201183379	0.904351788	
736.25	-0.0868948596	0.03188076299	
736.875	0.8878495082	2.365835327	
737.5	3.505686785	-0.1189762373	
738.125	2.529962224	-2.928283982	
738.75	2.081563952	1.486768135	
739.375	13.95250693	-5.473871164	
740.0	-3.207446598	-14.24414763	
740.625	-2.578665938	13.55503512	
741.25	21.747454	8.614497892	
741.875	7.796515436	-15.31365282	
742.5	-18.62739668	-11.71280406	
743.125	-5.36123149	-0.3323276601	
743.75	3.85046167	-1.57160243	
744.375	-2.933014158	-0.6119308588	
745.0	0.5951062266	-0.0970520508	
745.625	0.3154142842	0.2270483677	
746.25	-0.1355547023	-0.3149526527	
746.875	-0.2753188321	-0.05804072261	
747.5	-0.5772806943	1.26595128	
748.125	0.7030284441	1.003524758	
748.75	0.4469498725	0.8782030517	
749.375	0.1870513459	1.374790658	
750.0	-0.2818156952	0.7661171199	
