!Created with skrf (http://scikit-rf.org).
# GHz S RI R (50+0j) 
!freq	ReS11	ImS11	
500.0	1.531498428	-3.971418184	
500.625	-0.4427501318	-2.820025193	
501.25	-0.6175874872	-0.6153799065	
501.875	-1.178242271	-2.223426924	
502.5	-0.4752300902	-0.1308416112	
503.125	-0.1988163096	-0.07924911884	
503.75	0.2525798274	0.2919998349	
504.375	0.01221033542	0.05916064706	
505.0	0.07953694341	-0.2081584096	
505.625	0.01813222472	0.1118821459	
506.25	-0.28925751	-0.6902490788	
506.875	0.1283914103	0.7921091315	
507.5	0.9184315387	-1.036606154	
508.125	-0.4244871789	-3.072486752	
508.75	-0.5036043688	-1.559700599	
509.375	0.2666480077	-5.127797783	
510.0	-2.071142684	0.2302801784	
510.625	-0.03709673939	-0.5838941777	
511.25	-0.6380926467	-0.06890054451	
511.875	-0.1347286553	-0.03461068545	
512.5	-0.1119684381	0.06340029261	
513.125	-0.02020823053	-0.3786973781	
513.75	-0.383056341	-0.002669505741	
514.375	0.01335724192	-0.2193903349	
515.0	-0.9981893681	0.197494851	
515.625	1.576019623	-1.867130736	
516.25	-2.959174866	-1.682760509	
516.875	0.4629365653	-0.02190512558	
517.5	-0.09496391134	-1.297283795	
518.125	-0.004464347515	0.3084872526	
518.75	-0.1118114725	-0.9522163306	
519.375	-0.1156903363	0.2281218069	
520.0	0.19215163	0.1671328023	
520.625	0.6540406553	-0.2140880231	
521.25	-0.396754468	-0.4907819064	
521.875	-0.1782766698	-0.2083422093	
522.5	-0.1719931048	0.258064287	
523.125	-0.2086716615	-0.1228488046	
523.75	-0.1716346005	0.1793094674	
524.375	-0.4136884348	-0.184126598	
525.0	0.1879870773	0.6781692805	
525.625	-0.05741419444	-0.09454867377	
526.25	0.1268460632	0.100923273	
526.875	-0.2899325943	-0.01971170717	
527.5	0.06921919289	0.8303109283	
528.125	0.103197511	0.2526108719	
528.75	-0.1047949566	0.952677734	
529.375	0.1964482103	-0.07393853953	
530.0	0.2206502116	0.8845119636	
530.625	0.2933645838	0.3531824884	
531.25	1.233154164	0.6565370028	
531.875	0.1047072315	-0.9121814597	
532.5	0.1210445015	-0.2417914859	
533.125	-0.34032845	-0.1834816004	
533.75	0.7393236799	-0.6365144171	
534.375	-0.8485834903	-0.4636246236	
535.0	-0.2300824273	-0.3850506891	
535.625	-0.6721859241	0.4766308549	
536.25	0.1291029747	0.1628731097	
536.875	0.1926720713	0.1557627566	
537.5	0.1950235573	-0.2086056456	
538.125	0.1243514525	0.00182531529	
538.75	0.5036683681	-0.4383667826	
539.375	-0.2408744026	-0.1863343651	
540.0	-0.2177651795	-0.46023582	
540.625	-0.5544355409	-0.01943354477	
541.25	-0.1424756914	0.08056841684	
541.875	-0.0045224889	-0.03817945982	
542.5	-0.2234754076	-0.2031490199	
543.125	-0.1014887418	0.07588893294	
543.75	-0.2720926701	-0.1609431657	
544.375	0.02546887983	0.2276081203	
545.0	-0.1816053119	0.08412245134	
545.625	0.3410979499	0.1154726453	
546.25	-0.04736110739	0.05821722123	
546.875	0.5766848409	-0.02663097118	
547.5	-0.1032115249	-0.289304922	
548.125	0.09454549417	-0.3008655613	
548.75	-0.4076204214	-0.4000015048	
549.375	-0.2567273612	0.03745146074	
550.0	-0.1907963082	-0.1495727592	
550.625	-0.08694959001	0.1641486695	
551.25	-0.18944095	-0.06740483877	
551.875	-0.1979277033	0.3053654271	
552.5	-0.01588635949	0.1178543274	
553.125	-0.0774311215	0.1674936011	
553.75	0.1486965107	0.1008693303	
554.375	0.1932572356	-0.004316094607	
555.0	0.2441563847	-0.1685035964	
555.625	0.1716291235	-0.262709643	
556.25	0.1425951205	-0.3278958237	
556.875	-0.09553922881	-0.3860407568	
557.5	-0.2470521889	-0.2342622072	
558.125	-0.2559280282	-0.07841919791	
558.75	-0.2508026454	-0.02685384383	
559.375	-0.2772780569	0.07461090294	
560.0	-0.171382439	0.1656104678	
560.625	-0.1617926171	0.233435366	
561.25	0.08166446701	0.2741466385	
561.875	-0.01463375406	0.05061029742	
562.5	0.1403192928	0.1614358428	
563.125	0.0333335163	0.1482070563	
563.75	0.4401505787	0.04102463522	
564.375	0.1656193616	-0.3462387102	
565.0	0.1707338115	-0.1786043352	
565.625	-0.03194306765	-0.4719493918	
566.25	-0.3675856024	-0.1494098678	
566.875	-0.1655618729	-0.1751294484	
567.5	-0.4462233907	-0.3650835455	
568.125	-0.3202778885	-0.1497935845	
568.75	-0.5250831894	-0.3915973786	
569.375	-0.5389248596	0.4327169817	
570.0	-0.1647717105	0.2551709867	
570.625	-0.4468673393	0.4560596352	
571.25	0.3728858258	0.3652214958	
571.875	-0.2072821919	0.2158299395	
572.5	0.5953388124	-0.1137500284	
573.125	-0.1136011329	-0.1389091756	
573.75	0.4232669015	-0.163174593	
574.375	-0.2442547199	-0.3334311478	
575.0	0.2392074497	0.1635783946	
575.625	-0.005202682063	-0.445967156	
576.25	-0.0925582835	0.02632983265	
576.875	0.2882872031	-0.4559460757	
577.5	-0.1988005217	-0.5241909053	
578.125	-0.1427164659	-0.1294138083	
578.75	0.002681477826	-0.3771964381	
579.375	-0.4332696629	-0.2069268966	
580.0	0.09026900671	0.06922842982	
580.625	-0.3533758945	-0.1995163007	
581.25	0.006633949141	0.2894379705	
581.875	-0.2165564912	0.1297179679	
582.5	0.08328931809	0.7031232148	
583.125	0.4659069743	-0.1534602148	
583.75	-0.2972858911	0.2531297554	
584.375	0.4941700274	-0.1235108192	
585.0	-0.1441812754	0.2996723754	
585.625	0.7183141142	-0.1023531348	
586.25	-0.005240301512	-0.2345496731	
586.875	0.4910836542	-0.1479725455	
587.5	-0.2736904561	-0.5223362785	
588.125	-0.05829770593	-0.0002350007819	
588.75	0.3572433221	-0.3763026306	
589.375	0.02546579119	-0.5607367332	
590.0	-0.04377737109	-0.2086310485	
590.625	-0.4352664634	-0.2690312438	
591.25	-0.1993881255	0.3986113142	
591.875	-0.1044098108	0.124770888	
592.5	0.01441850874	0.2622665264	
593.125	-0.09204537719	-0.05420940173	
593.75	0.1223998976	0.481795022	
594.375	0.5321990469	0.03015185605	
595.0	0.05494472259	0.06961875774	
595.625	0.443100004	0.6592023175	
596.25	0.4680665771	-0.3510426912	
596.875	0.08675357672	0.3685284773	
597.5	0.6865580529	0.1586700621	
598.125	0.01871349769	0.04276808788	
598.75	0.6525680039	0.5233994219	
599.375	0.2690905962	-0.3501801915	
600.0	0.3745673034	-0.07948077218	
600.625	0.5036608157	-0.4481527	
601.25	-2.637231601e-05	-0.5333585715	
601.875	-0.05357779135	-0.2721545597	
602.5	-0.2963358602	-0.07924913299	
603.125	-0.2998669298	0.1011633657	
603.75	-0.1374222478	0.1702345636	
604.375	-0.2842314585	0.1090873405	
605.0	-0.1322717507	0.2592982812	
605.625	-0.1206980494	-0.02140269454	
606.25	-0.3678974957	0.3217294467	
606.875	-0.09056759128	0.09884482575	
607.5	-0.8395362287	0.282433616	
608.125	0.4372190947	0.6531360119	
608.75	-0.002023298971	0.348507647	
609.375	0.8850614522	-0.05263579716	
610.0	-0.01483140312	-0.320247358	
610.625	0.5692824258	-0.3339551152	
611.25	-0.268877734	-0.4005068254	
611.875	0.08655202818	-0.23911288	
612.5	-0.7156166267	-0.07417176572	
613.125	-0.1549126165	-0.01106175209	
613.75	-0.4277021385	0.4271998506	
614.375	0.3097337873	0.05926588123	
615.0	-0.06197112616	0.4057964331	
615.625	0.1943773088	-0.03817690176	
616.25	-0.4220604392	0.341181081	
616.875	0.01133360953	0.7217275651	
617.5	-0.131777442	0.08681203229	
618.125	-0.1900199575	0.7508156964	
618.75	0.2794986778	0.2915411161	
619.375	-0.007581190539	0.4063982841	
620.0	0.5416182441	-0.03285682548	
620.625	0.227666958	-0.2088075227	
621.25	-0.2661054231	-0.4992286733	
621.875	-0.3562433576	-0.1033378188	
622.5	-0.6170809044	0.07741466272	
623.125	0.07159102984	0.375635008	
623.75	0.170902886	0.2943278956	
624.375	0.0635260404	-0.4126940644	
625.0	0.1506396814	0.2473171715	
625.625	0.04960360686	-0.6011834128	
626.25	0.05287861435	0.08931974517	
626.875	-0.3653141021	-0.5056489376	
627.5	-0.4265177587	0.1731213056	
628.125	0.04690268396	-0.2667105593	
628.75	-0.503514265	-0.3742800739	
629.375	-0.01687386461	-0.1292365016	
630.0	-0.4759465073	-0.420246233	
630.625	-0.5838275267	0.321674816	
631.25	-0.1110851386	0.347429788	
631.875	-0.1816586055	0.5195244287	
632.5	0.382127307	0.4880588722	
633.125	0.5236053091	-0.00762409181	
633.75	0.2530626582	-0.06227988926	
634.375	0.1953185147	-0.5090761324	
635.0	-0.0353366397	-0.1262758613	
635.625	-0.3698354782	-0.3382896598	
636.25	-0.3121664176	0.3622215954	
636.875	-0.04726399724	-0.05866196294	
637.5	-0.3514861743	0.569731252	
638.125	0.2851203091	0.01893993943	
638.75	-0.5828463322	0.2505595034	
639.375	0.2419982605	0.8637923126	
640.0	0.3756019232	0.1813738013	
640.625	0.4054199077	0.6670350604	
641.25	0.816708197	-0.3291088449	
641.875	0.2095292057	-0.1010942788	
642.5	0.2011069582	-0.8410336414	
643.125	-0.5331207267	0.1602117342	
643.75	0.04405273434	-0.3242174217	
644.375	-0.736985438	0.007306701352	
645.0	-0.1134016037	0.5104136021	
645.625	0.02106439119	0.1401494607	
646.25	0.5051820504	0.5852363728	
646.875	0.1407223009	-0.4059752274	
647.5	0.06337097683	0.4403070063	
648.125	0.5165252702	-0.3439308981	
648.75	0.2585832646	0.3700958964	
649.375	0.9545901554	-0.8981281196	
650.0	-0.2930904448	-0.8852656569	
650.625	0.4029687569	0.06947169448	
651.25	1.057717499	-0.951827738	
651.875	-0.1243650532	-0.7593695351	
652.5	0.6118139499	0.3207180212	
653.125	0.9106472774	-0.7078997328	
653.75	-0.05412562059	-0.2503736597	
654.375	0.2919383958	-1.026202499	
655.0	-0.9842201596	0.1439363137	
655.625	0.03565675226	0.2913910456	
656.25	-0.3651621353	0.3968851941	
656.875	0.5321992257	0.2902208454	
657.5	-0.3045059773	0.0176503447	
658.125	0.5681620885	0.5998333177	
658.75	0.6412315156	-0.109826081	
659.375	0.4863899569	-0.07114073583	
660.0	0.8622592899	-0.9537517524	
660.625	-0.2175930577	-0.6542824949	
661.25	0.5669569433	-0.3134796344	
661.875	0.7601677739	-0.8996919197	
662.5	0.06104647891	-0.8169028729	
663.125	0.5898614675	0.158530221	
663.75	0.3761179446	-1.209566067	
664.375	-0.2740139388	-0.247169528	
665.0	-0.5079533886	-0.8918255815	
665.625	-0.6655161576	0.735197228	
666.25	-0.2664759125	0.1666999043	
666.875	0.2505674831	0.7588833328	
667.5	0.6305188995	-0.02663135875	
668.125	0.128745753	0.01182863158	
668.75	0.7600350268	-0.2600005106	
669.375	-0.05060621997	-0.6471440998	
670.0	0.05603428896	-0.3063642546	
670.625	0.100890513	-0.6150239333	
671.25	-0.1839987209	-0.3009586514	
671.875	0.5467938975	-0.3481828734	
672.5	0.3877696066	-0.5492900131	
673.125	0.1796241965	-0.4062222587	
673.75	0.4776636204	-0.1268425935	
674.375	0.2001596491	-1.155925636	
675.0	-0.5782182601	0.08298192295	
675.625	-0.09469165202	-0.7493646743	
676.25	-0.8293029887	0.2370919745	
676.875	0.2701169544	-0.09876587345	
677.5	-0.9823572837	0.289217801	
678.125	0.267335023	0.1630744864	
678.75	-0.336712563	0.542566714	
679.375	0.970691913	0.1977912617	
680.0	-0.07346826685	-0.5096677324	
680.625	0.2726861732	0.2086831451	
681.25	0.4023962264	-0.261185179	
681.875	0.1590786019	-0.08206638349	
682.5	0.3242900716	0.4417686691	
683.125	0.8108952799	-0.004324460553	
683.75	0.4131694852	0.09815098147	
684.375	0.5786447585	0.300422341	
685.0	0.9868377483	-0.2249883629	
685.625	0.01171937222	0.01708580809	
686.25	1.341114304	0.1644337055	
686.875	0.1685744376	-1.132553524	
687.5	0.603559253	0.1298835452	
688.125	-0.02830864779	-1.893403301	
688.75	-0.8126127439	0.5832939488	
689.375	-1.23463305	0.1890440573	
690.0	0.9694924343	0.9840633483	
690.625	-0.04951864585	0.1949186362	
691.25	1.334094013	1.04627955	
691.875	0.8361791973	0.1423932685	
692.5	1.20842031	0.6343015491	
693.125	1.594339458	-0.09755892049	
693.75	1.137255784	-0.6675281549	
694.375	0.8973725007	-1.000892058	
695.0	0.7568951836	-0.6041983395	
695.625	1.524186171	-0.0913334098	
696.25	1.035524766	-0.1701424562	
696.875	0.5153558498	1.163827706	
697.5	1.746181116	0.8095947796	
698.125	0.709043271	0.2299282903	
698.75	1.588857695	-1.261066829	
699.375	-1.595759869	-0.2604443699	
700.0	-0.6927384327	-0.00649580032	
700.625	0.8983555969	1.060955379	
701.25	0.1519655	0.02104331405	
701.875	0.8460970742	1.083245135	
702.5	0.706989622	-0.09367741406	
703.125	0.8460969326	0.6527080579	
703.75	1.033551905	-0.5906048697	
704.375	0.1968300359	-0.01559220015	
705.0	1.014706199	-0.5483670656	
705.625	0.1558107257	-0.2736918697	
706.25	0.4800192794	0.9993904334	
706.875	1.226937117	0.2414699855	
707.5	0.1243929921	0.6982549708	
708.125	1.575433451	0.2479195586	
708.75	-0.02611427108	-0.8935771394	
709.375	-0.3818408301	-0.939177084	
710.0	-0.3235740176	1.017600047	
710.625	0.0131541226	0.03937796524	
711.25	0.3857576061	0.3979587357	
711.875	0.4315996755	0.210531031	
712.5	0.7768089122	-0.1835787196	
713.125	0.3787606952	-0.3499594398	
713.75	0.5863867048	-0.6218302884	
714.375	-0.3381586094	-0.6316817902	
715.0	0.3865394008	-0.1848371543	
715.625	-0.3008657898	-0.943105691	
716.25	0.1008852508	-0.03488491004	
716.875	1.593749683	-0.3469983452	
717.5	0.9325646872	-1.574829429	
718.125	0.5847960086	1.667839185	
718.75	3.407606335	-1.170934706	
719.375	0.3696291858	-1.709426555	
720.0	2.13059838	-0.8192307584	
720.625	-0.3941257122	-4.080631187	
721.25	0.002190186631	-1.019844392	
721.875	-0.8993330785	-3.103151868	
722.5	-2.498369702	-1.372882019	
723.125	-1.090552474	-0.008035479081	
723.75	-1.473160442	1.134513305	
724.375	0.6059446708	1.12485486	
725.0	0.4064666234	0.5611347115	
725.625	0.01033138339	1.043425707	
726.25	0.5640684722	2.36764572	
726.875	0.4668869351	0.8973797825	
727.5	-1.513117141	3.811784042	
728.125	2.56429843	5.841171168	
728.75	-0.5059306422	0.9923281112	
729.375	-3.025429113	16.49209905	
730.0	9.22737552	5.881405414	
730.625	-5.233744552	3.155451901	
731.25	-4.076580848	22.6237068	
731.875	2.864802586	9.517237253	
732.5	-8.658125199	-2.714561824	
733.125	-7.802834334	4.588387169	
733.75	0.03288731619	3.545610236	
734.375	1.308236422	2.096321303	
735.0	-1.415742321	-1.977736175	
735.625	-0.3601988015	-0.0503090106	
736.25	-0.7456435659	1.489097917	
736.875	1.895669271	1.553664468	
737.5	2.007590837	-1.296166082	
738.125	2.831119479	1.486275953	
738.75	7.874555402	-6.265635108	
739.375	-0.4732281983	-7.223254289	
740.0	6.949060539	9.226594867	
740.625	28.56639119	-14.62528945	
741.25	-12.25096344	-3.909521489	
741.875	-16.42743668	1.816837849	
742.5	-2.992537072	8.181297729	
743.125	7.473167287	-2.708622372	
743.75	-1.065635372	-6.084837386	
744.375	-0.7154395474	1.337201874	
745.0	-0.1224104842	0.08837840101	
745.625	0.290482466	-0.2718426458	
746.25	0.141472132	-0.1658622942	
746.875	-0.8913958236	-0.2438096462	
747.5	0.08332837316	0.7324485373	
748.125	-0.1153190943	0.9313431875	
748.75	0.7039161482	1.547225216	
749.375	1.118773268	0.3717771796	
750.0	-1.200772735	-0.2808961985	
