!Created with skrf (http://scikit-rf.org).
# GHz S MA R 50.0 
!freq magS11 angS11
500.0 0.0170304900902 163.790056755
500.625 0.00531387850966 95.3778764147
501.25 0.0109095839986 -50.3994153889
501.875 0.0363714053514 -166.392128246
502.5 0.0135826343233 123.797150517
503.125 0.0160537082324 32.7201528228
503.75 0.0184010130806 126.61056901
504.375 0.00225054461574 156.96850635
505.0 0.0149322523024 -82.7269309023
505.625 0.0403875268354 -82.3086779227
506.25 0.0426572460937 -106.453765709
506.875 0.0539065050168 -107.328784722
507.5 0.042545786341 -123.46786305
508.125 0.0666738705647 -80.6759071702
508.75 0.0555204155923 -147.400345394
509.375 0.0451989995264 -156.073526948
510.0 0.0355366205251 -112.991591303
510.625 0.0568770859791 -155.467077578
511.25 0.0441263962712 168.071881815
511.875 0.0493070469158 142.318225851
512.5 0.0406437048205 98.5961892352
513.125 0.0650807461504 56.7377562339
513.75 0.0489837212316 22.3300025315
514.375 0.0506500247133 30.2367677825
515.0 0.055886378313 11.0747845907
515.625 0.0906040713993 50.6874566815
516.25 0.0878274079889 30.1620551427
516.875 0.110412925743 72.5038718749
517.5 0.117614848302 21.6946586273
518.125 0.213837158011 75.9875764077
518.75 0.0787972316129 7.87890998918
519.375 0.0695848748255 16.9708953333
520.0 0.113868511453 -1.23341956538
520.625 0.101907879025 -3.46259263407
521.25 0.0868405279811 -23.0336831941
521.875 0.0673749179224 2.13264183457
522.5 0.0960596998844 -31.3981829724
523.125 0.190334645054 -30.8666297476
523.75 0.198441188564 -63.235426876
524.375 0.193500680426 -54.9960957153
525.0 0.0705853241344 -40.3823448769
525.625 0.031742824325 -62.5886360715
526.25 0.0391569225221 -11.2028735755
526.875 0.0478720278092 -23.6494011611
527.5 0.053605336939 -21.8998061237
528.125 0.0338888703986 -57.7228783374
528.75 0.0647734434705 -70.4517914738
529.375 0.0833036596487 -109.743198586
530.0 0.0587700709137 -124.256799813
530.625 0.0247717946622 -125.890487759
531.25 0.105322418292 -128.987158135
531.875 0.159065656662 -148.976802406
532.5 0.158434725901 -169.065194683
533.125 0.0885526112531 175.378173217
533.75 0.110269491892 170.410019546
534.375 0.106235523875 179.575184134
535.0 0.0901109962683 165.326742882
535.625 0.0631200700903 179.50275145
536.25 0.0538849365276 166.347035877
536.875 0.0781963389487 -156.958807406
537.5 0.107871978131 -144.133290288
538.125 0.0887943387903 -170.750659137
538.75 0.0943618946741 -178.51012242
539.375 0.06796121827 -161.974810729
540.0 0.103349708902 -154.722357603
540.625 0.10166388392 -150.578750054
541.25 0.113813292531 -137.894411806
541.875 0.0981313247173 -140.455043414
542.5 0.118666378194 -142.939014641
543.125 0.117277196218 -163.77697471
543.75 0.119056784504 161.364976751
544.375 0.0918164073998 135.692111908
545.0 0.09144155742 94.39492778
545.625 0.098106925877 86.7162385331
546.25 0.0886064996742 70.3487081044
546.875 0.0889777173236 57.8844445511
547.5 0.119240368124 59.6955441722
548.125 0.0906650683899 78.5006457267
548.75 0.0771643168543 93.2937608902
549.375 0.090493458839 85.8173669811
550.0 0.0927880994793 129.216783256
550.625 0.0439350215403 164.252284138
551.25 0.0408153809121 -133.89708475
551.875 0.0643301659934 -157.558884193
552.5 0.121878738123 -165.079494898
553.125 0.0826427320489 -159.552142424
553.75 0.0896074244113 -167.20092192
554.375 0.112440723701 166.870706425
555.0 0.131859454585 164.495830777
555.625 0.101789209527 159.023113271
556.25 0.0948135484569 166.878872113
556.875 0.115718719573 169.073102664
557.5 0.109182477337 167.789075006
558.125 0.103402137085 165.455564769
558.75 0.078985653018 -179.803617379
559.375 0.0635655292444 -173.052416642
560.0 0.0496146552962 -147.241778457
560.625 0.0605315812085 -137.480779779
561.25 0.0885132484873 -148.736603504
561.875 0.108355246322 -162.364166704
562.5 0.0944366956224 175.401814859
563.125 0.102935310415 149.706183249
563.75 0.125658216343 134.806019472
564.375 0.100258330206 123.611782706
565.0 0.0917472218223 120.029445019
565.625 0.0807719669354 121.29128073
566.25 0.0931289099566 156.968827907
566.875 0.075700018665 -177.222555878
567.5 0.0734488762383 -174.661569369
568.125 0.0868931452286 -171.544522399
568.75 0.0545652184896 -133.849591857
569.375 0.0476731543998 -100.32366561
570.0 0.0586549451759 -103.215426346
570.625 0.0957649893515 -117.964292961
571.25 0.0903952199502 -116.342174455
571.875 0.0878753394089 -121.362395753
572.5 0.113788027183 -154.640373622
573.125 0.146516372541 -175.411974564
573.75 0.0907974926147 169.143174819
574.375 0.0822757408597 152.276368022
575.0 0.107111372855 156.341175423
575.625 0.113394395798 154.513211961
576.25 0.0879445055074 148.687893025
576.875 0.0734243593095 126.450238944
577.5 0.0852098654099 138.904868007
578.125 0.0587467929371 161.760378702
578.75 0.0475219928152 167.983328513
579.375 0.0565650839661 164.694420911
580.0 0.0689993919389 -172.152313754
580.625 0.0797357522054 -154.49085691
581.25 0.0912336455339 -156.789962334
581.875 0.114928766897 -171.709652037
582.5 0.110979555859 -169.597623414
583.125 0.0966860763802 -171.829153036
583.75 0.07789334037 -156.935297557
584.375 0.102898732542 -153.404985748
585.0 0.0971049575993 -145.370201959
585.625 0.0750790568991 -151.643162009
586.25 0.0668336843765 -121.898815884
586.875 0.0805873725773 -127.043292386
587.5 0.0695975477796 -138.18981658
588.125 0.0602671249912 179.134443563
588.75 0.0692155534561 -142.977687022
589.375 0.0859727615261 -147.936093313
590.0 0.0910820527155 -168.19689122
590.625 0.105060114851 162.483469143
591.25 0.118344459867 160.039324839
591.875 0.0942686736561 159.782343847
592.5 0.0644992635295 145.28406769
593.125 0.0604868565247 147.221818307
593.75 0.0642909152088 -170.87538202
594.375 0.0572865151519 -143.221862582
595.0 0.0402094781485 -107.638595957
595.625 0.0573611107252 -103.314087276
596.25 0.0753880933076 -81.0623919992
596.875 0.068351727971 -67.2917951986
597.5 0.0592311334787 -62.953309244
598.125 0.0583669035015 -67.8335804272
598.75 0.0889509338212 -53.3787203779
599.375 0.0946147795883 -59.1640047178
600.0 0.105370342492 -58.8373207823
600.625 0.0966500360801 -74.399784403
601.25 0.0817464210445 -64.2118493491
601.875 0.0689084702175 -82.1817249584
602.5 0.0606212746095 -89.6611166375
603.125 0.0441233713125 -64.2147801475
603.75 0.0272875423551 -50.131512063
604.375 0.0493566669305 -10.8276399702
605.0 0.0682054610048 -9.27103415085
605.625 0.0544134972287 7.42889857771
606.25 0.0182122783648 -20.1561279388
606.875 0.0585950985733 57.7590288372
607.5 0.0681118063732 47.9206630611
608.125 0.0742685741457 30.5125581914
608.75 0.0545479809897 16.5860674309
609.375 0.0740432283852 37.4576964457
610.0 0.0779541171683 47.374912854
610.625 0.0675284880493 44.8662110043
611.25 0.041750078994 13.6386692269
611.875 0.050268359868 77.7762107359
612.5 0.0286276368382 98.976225123
613.125 0.0239986937511 131.847458768
613.75 0.0339699951077 129.417114603
614.375 0.034691924644 120.487488706
615.0 0.0327506569693 121.342335077
615.625 0.0215307554805 139.766773957
616.25 0.0460671433924 135.834075841
616.875 0.0330809028392 126.204518813
617.5 0.0329676995007 125.160051908
618.125 0.0207347517893 138.205388348
618.75 0.0307939961586 144.284267306
619.375 0.00738085926946 136.098413513
620.0 0.0097118624195 149.687492407
620.625 0.0273065504999 -111.93761302
621.25 0.0542954871576 -78.8625454331
621.875 0.0672576505229 -109.281134944
622.5 0.0728057921687 -164.867212127
623.125 0.0697010405718 170.011907225
623.75 0.0596007739336 166.697546557
624.375 0.0323193402635 -162.375178788
625.0 0.0525811346998 -150.525392297
625.625 0.0436342571933 -158.836473486
626.25 0.0283383026381 -177.358082491
626.875 0.0253319015274 -7.49062886786
627.5 0.0248861651487 -94.4490464334
628.125 0.0344464703312 -28.4664827433
628.75 0.0394369336431 -28.7908912627
629.375 0.0659964229943 3.02198890909
630.0 0.0613583718883 -11.9336237224
630.625 0.0691336567174 -1.3539907107
631.25 0.0661377256581 4.62382767503
631.875 0.0762046244466 12.1681733393
632.5 0.0710876060088 -27.8650074158
633.125 0.0472902676876 -0.433671758623
633.75 0.0437632142376 13.8292702136
634.375 0.0475818367027 30.2131414995
635.0 0.04285370024 41.2892920765
635.625 0.0309574618203 26.1526562221
636.25 0.0470764913531 39.5107524416
636.875 0.0605236210314 34.0758055243
637.5 0.0564917151601 57.1579386864
638.125 0.0245012598815 39.0712770476
638.75 0.0683747786672 72.7697215079
639.375 0.0968639922711 92.1227559924
640.0 0.0772242066878 110.991759685
640.625 0.0501452840339 92.6908782856
641.25 0.0666598024629 124.217296724
641.875 0.063942428466 147.130141815
642.5 0.0678915325906 165.493612101
643.125 0.0445121865138 145.552479089
643.75 0.0646094505812 166.961587522
644.375 0.0680577492354 -176.745129037
645.0 0.0920089107101 -177.378514347
645.625 0.0811204149795 161.691672427
646.25 0.0842976477272 165.57453702
646.875 0.0793636765457 -174.078912635
647.5 0.0709399389313 -171.682515891
648.125 0.0849530516455 -176.018682966
648.75 0.0720145575621 -162.59508095
649.375 0.0475458323741 -143.248169905
650.0 0.0480023045413 -112.366484112
650.625 0.0802127611969 -85.2917219272
651.25 0.0602195998849 -65.9199628789
651.875 0.0621040090466 -38.4677967826
652.5 0.0829907783561 -21.4340062692
653.125 0.137332179668 0.280587381606
653.75 0.108417095099 7.78330559489
654.375 0.109882708235 6.9088157919
655.0 0.123810456634 14.7584453665
655.625 0.100717297109 30.7572938915
656.25 0.0567465107729 17.8433702239
656.875 0.0646639410379 9.91613061632
657.5 0.0759783543313 24.8568408618
658.125 0.0832880022362 51.6696850351
658.75 0.0401875170746 73.3512603073
659.375 0.0790551155298 45.5066972485
660.0 0.11819265586 26.8878696198
660.625 0.120288183677 19.4184383771
661.25 0.0977658805251 6.7897115682
661.875 0.122533283083 -9.91633532925
662.5 0.118954473308 -21.7372069645
663.125 0.116202736314 -13.8597616667
663.75 0.0760027381211 2.54490764545
664.375 0.0868023480856 54.4616923621
665.0 0.0757086370228 94.293961189
665.625 0.0646822004859 115.577076217
666.25 0.0845709556035 136.387421105
666.875 0.121366934051 169.906834808
667.5 0.100349285586 -167.171382208
668.125 0.110152507089 -178.774426359
668.75 0.126851757583 169.1461324
669.375 0.120205094713 -179.573358469
670.0 0.087259223305 -167.241640627
670.625 0.0966760349051 -171.35471817
671.25 0.0906683119596 178.015930935
671.875 0.0914059949257 171.940078863
672.5 0.0694736568814 157.339621857
673.125 0.0929542253557 153.34525923
673.75 0.112200139943 161.448032907
674.375 0.119863568436 169.447958692
675.0 0.119547675373 -173.472354043
675.625 0.138857776027 -149.727950835
676.25 0.121560050799 -122.50307922
676.875 0.118784654424 -119.110696967
677.5 0.126239469559 -125.241003271
678.125 0.138349336402 -114.587444349
678.75 0.0491083417593 -88.3285613376
679.375 0.0457634365721 -65.1550750768
680.0 0.0760724956485 -75.2657484779
680.625 0.134648342131 -78.1302619253
681.25 0.102568750407 -69.4089018948
681.875 0.101358076689 -89.5010320857
682.5 0.143315183148 -119.789800278
683.125 0.169250242173 -120.140383135
683.75 0.147717034901 -104.597020825
684.375 0.0990349498437 -72.1389530912
685.0 0.130920529518 -36.0682791044
685.625 0.126223488636 0.466677548395
686.25 0.119236942667 20.8170135056
686.875 0.0651428157498 55.9141093571
687.5 0.0687331576406 91.5298458862
688.125 0.0770239798755 112.679317164
688.75 0.108910550043 109.484558561
689.375 0.12656830155 132.345581172
690.0 0.132511535356 134.909954102
690.625 0.119549707729 126.256264875
691.25 0.146522664929 97.0023778657
691.875 0.196727897651 68.498582144
692.5 0.139489145159 41.8566581773
693.125 0.0864133386225 -11.6665480216
693.75 0.0924528018188 -34.4508823802
694.375 0.147759713562 -33.4319566507
695.0 0.112423549926 25.3669273929
695.625 0.100910111064 57.567812136
696.25 0.117683643389 114.418465715
696.875 0.141323738192 174.637589529
697.5 0.150480322611 -146.94898936
698.125 0.133064603543 -128.559049188
698.75 0.138489121799 -133.574407123
699.375 0.116001530253 -127.548521586
700.0 0.0849638034501 -99.0785688016
700.625 0.110517034293 -81.4020094391
701.25 0.0965348771356 -63.6368612769
701.875 0.0845495023389 -63.0948807613
702.5 0.101094427888 -74.6979172057
703.125 0.172720019198 -120.55808385
703.75 0.18461072003 -152.535283795
704.375 0.128448840769 172.683536302
705.0 0.115124718102 154.531517466
705.625 0.133826189658 -154.579491806
706.25 0.137231957366 -104.730546901
706.875 0.0824947173196 -57.8281137892
707.5 0.0789315681898 -41.7278082315
708.125 0.0907481144237 32.5425346652
708.75 0.114520905143 70.569324641
709.375 0.103536712887 109.878772019
710.0 0.103676900761 129.335161004
710.625 0.108681118231 150.59138139
711.25 0.121305807103 177.476698172
711.875 0.150817840861 170.602636762
712.5 0.156492293678 138.625691811
713.125 0.112682056771 113.283129635
713.75 0.0987501416052 49.5829826373
714.375 0.114658137619 19.6120461256
715.0 0.112014141078 31.5365691926
715.625 0.0855199892442 43.6934922223
716.25 0.0925979093701 94.3928981248
716.875 0.129804533285 114.028508283
717.5 0.133665708967 153.508208468
718.125 0.117184639776 164.519832595
718.75 0.0984560072491 177.817274332
719.375 0.115749596263 -167.553746968
720.0 0.131116992991 -120.126760573
720.625 0.113579017904 -74.5486947328
721.25 0.093872837799 -19.4332894844
721.875 0.0814796027992 42.6021202767
722.5 0.0708494596348 85.2610404407
723.125 0.0690930022698 56.1694927366
723.75 0.118152353192 53.0748791322
724.375 0.110471683635 -0.054695187253
725.0 0.0869535917268 -46.6259670231
725.625 0.101870215586 -64.8775588564
726.25 0.101485385588 -79.5347598992
726.875 0.107648435054 -32.7277729203
727.5 0.0837383956425 -20.3150697292
728.125 0.0748231521952 11.6916956024
728.75 0.0756353329135 14.6051610813
729.375 0.0994699634721 28.5804414408
730.0 0.0688189208785 4.40950133337
730.625 0.070367246833 27.0595325409
731.25 0.0708401583991 66.7281688289
731.875 0.056067261623 104.150247147
732.5 0.0963663406102 162.89753549
733.125 0.0995614632865 176.790704414
733.75 0.0741178502071 171.040507741
734.375 0.0513029799328 177.855852498
735.0 0.0540909490057 153.058090102
735.625 0.0355858682289 143.444453004
736.25 0.0423199024852 144.782581778
736.875 0.0353084726078 178.835926111
737.5 0.078678141002 -178.220603604
738.125 0.103469974235 -173.533099134
738.75 0.0745349268316 -176.879014945
739.375 0.0260061175887 169.982915252
740.0 0.0942138657027 -137.15799331
740.625 0.0628994469388 -146.617191541
741.25 0.0583470257164 -145.532328733
741.875 0.0221636612722 -96.3600385477
742.5 0.0196056672365 12.4150456569
743.125 0.0397596239617 56.2687243215
743.75 0.0498901751067 105.653825969
744.375 0.0429170055428 177.521945223
745.0 0.0904811397565 108.365761802
745.625 0.0777019158422 109.429646531
746.25 0.0820529217805 88.8675266249
746.875 0.0639835980036 43.2522117575
747.5 0.035367619172 18.468548466
748.125 0.0253623661749 5.07750550757
748.75 0.0340184136942 -22.3489316669
749.375 0.0386704021267 -39.8291647249
750.0 0.0430980940665 -42.8529468881
