!Created with skrf (http://scikit-rf.org).
# GHz S MA R 50.0 
!freq magS11 angS11
500.0 0.0164531643608 -176.61138272
500.625 0.00477847865799 127.940619177
501.25 0.00960446791025 -92.0694481803
501.875 0.024901947875 -175.377864105
502.5 0.0485522224855 177.165939658
503.125 0.0217155833039 113.894941576
503.75 0.00693322322726 38.9095488124
504.375 0.0181496922964 -60.0396955884
505.0 0.00594536154883 95.8466818085
505.625 0.014366156194 -68.9999203534
506.25 0.0343575135767 -123.077876373
506.875 0.0766866402848 -91.2757716518
507.5 0.0434028873486 -126.901164406
508.125 0.054757092267 -88.2728954354
508.75 0.0573318413261 -128.994644756
509.375 0.0548121105321 -136.239681154
510.0 0.0338645312004 -118.806632658
510.625 0.031451897258 -156.769090701
511.25 0.0555535605449 -172.673033819
511.875 0.0608941124953 153.320620083
512.5 0.035549430637 87.8664273514
513.125 0.0443997338355 31.9956031412
513.75 0.0535296563924 32.6546793094
514.375 0.033960887762 -8.92773919786
515.0 0.0448263095114 2.4196073839
515.625 0.0733028200558 38.9743310461
516.25 0.0990440793509 31.4486002692
516.875 0.10212254944 66.2619147381
517.5 0.118737068779 21.1133797203
518.125 0.196542950878 68.0241424014
518.75 0.0962032919889 16.2690795528
519.375 0.052840445937 8.05336743557
520.0 0.078828026175 -8.72958242106
520.625 0.0954337181671 -12.5417527132
521.25 0.0967545367408 -19.1750391937
521.875 0.0622811199337 -2.73261916401
522.5 0.0919589394729 -34.3655895805
523.125 0.180312208007 -38.3556941668
523.75 0.210282394202 -58.7726126078
524.375 0.206692014246 -50.9997156542
525.0 0.0663766900897 -50.7126940521
525.625 0.0345200672059 -33.3986640435
526.25 0.0541136229361 -4.21780774411
526.875 0.046668283191 -24.0542997964
527.5 0.0383166009123 -35.7775511953
528.125 0.0348533970962 -61.1331405694
528.75 0.0769397083577 -71.3974523074
529.375 0.0680541720502 -122.698690084
530.0 0.0468328599978 -127.699016796
530.625 0.0379782826838 -137.131100447
531.25 0.133952076331 -138.323415708
531.875 0.16053915256 -148.736060753
532.5 0.13145884921 -170.69632844
533.125 0.0930507116032 173.599272227
533.75 0.134703495577 167.07841448
534.375 0.0898788234421 175.439611071
535.0 0.0821959321385 161.78125537
535.625 0.0583269091087 171.946129857
536.25 0.0705218061638 164.703986104
536.875 0.078239227129 -160.552379757
537.5 0.100436180991 -143.946668255
538.125 0.102318673633 -171.621837998
538.75 0.112985824049 -178.582057001
539.375 0.0710121680813 -164.152683066
540.0 0.078839399879 -149.880504582
540.625 0.129427148021 -153.945760594
541.25 0.13777641195 -141.351413877
541.875 0.0974005704374 -142.994872745
542.5 0.114626636613 -142.648723717
543.125 0.139900856149 -165.381339002
543.75 0.138215960223 160.907138556
544.375 0.0827083060535 133.357551464
545.0 0.082400359935 92.5927324759
545.625 0.0887460557021 82.1765431342
546.25 0.0965158417369 68.3936598748
546.875 0.0800171707253 53.0961521107
547.5 0.0979696671113 59.9982890618
548.125 0.114218371591 79.005480404
548.75 0.0974234099518 90.7181981741
549.375 0.0795463417164 86.7655551595
550.0 0.0764594863688 123.94526716
550.625 0.0367476418402 155.67913075
551.25 0.0444537638598 -146.942765415
551.875 0.0544911204454 -146.284666044
552.5 0.0980458530108 -158.122367886
553.125 0.0916897485173 -167.208548373
553.75 0.0958103094519 -173.694312394
554.375 0.0935560041403 173.078518095
555.0 0.115511004428 166.689077111
555.625 0.0911197443258 158.007280182
556.25 0.100461007437 162.434099941
556.875 0.118370563645 165.873058261
557.5 0.11172203201 166.604258779
558.125 0.097351317226 165.315064074
558.75 0.0870072142552 177.219119986
559.375 0.0471839305586 -170.499676549
560.0 0.0375198573188 -137.775927703
560.625 0.0534549237898 -133.813148754
561.25 0.0934634984597 -154.760892821
561.875 0.0901882993938 -155.371693094
562.5 0.0917170504886 173.465115434
563.125 0.0978007399043 148.53028499
563.75 0.139862612711 128.224806203
564.375 0.0904961111752 123.990948664
565.0 0.0775143862623 122.985071499
565.625 0.0735985170633 119.705156598
566.25 0.104018197467 149.332578844
566.875 0.0687729229594 -176.442945156
567.5 0.0730277692648 -177.060040484
568.125 0.084699048533 -171.766041827
568.75 0.0696887032489 -146.097724381
569.375 0.0526336629411 -116.450567689
570.0 0.0602206117228 -107.976363466
570.625 0.0890703818878 -117.126096966
571.25 0.0918521408158 -122.070642581
571.875 0.0899652864222 -130.514768811
572.5 0.112087492839 -156.759920747
573.125 0.144288931024 -175.443438409
573.75 0.105004286923 162.640127539
574.375 0.082056328795 150.04798688
575.0 0.104815494349 155.121599633
575.625 0.104127428649 155.110878005
576.25 0.0936037176615 142.459113156
576.875 0.0713671431281 137.614670294
577.5 0.0789046729789 138.327017286
578.125 0.0525933843208 162.838226175
578.75 0.0500820729898 160.232339582
579.375 0.0521929927159 167.06089839
580.0 0.0684566344753 -175.41784705
580.625 0.0796852120114 -151.400131883
581.25 0.0904515891387 -163.407987439
581.875 0.116891560762 177.974832686
582.5 0.115561542435 -174.359840702
583.125 0.0890423431538 -162.083414465
583.75 0.0801745500823 -164.659727022
584.375 0.106471623111 -164.287596147
585.0 0.0844804502482 -132.439565738
585.625 0.0684589895604 -141.356617834
586.25 0.0719329568764 -137.338902952
586.875 0.0846580386666 -141.870198372
587.5 0.072272438126 -142.564044495
588.125 0.0573582727533 -165.2512262
588.75 0.0689721086282 -162.024307748
589.375 0.0827054613602 -160.664710588
590.0 0.0958819323782 -156.530773205
590.625 0.107006785025 169.750978322
591.25 0.117293189319 159.813295887
591.875 0.100795398652 150.839525328
592.5 0.0578914643445 160.708930232
593.125 0.0643857552412 161.581609399
593.75 0.077495980274 176.308931792
594.375 0.0592153812776 -163.702640134
595.0 0.0481773674363 -102.703070419
595.625 0.0621120504933 -92.5804005126
596.25 0.0762901931638 -76.5137744653
596.875 0.0655256474881 -78.2210518075
597.5 0.0663071396028 -47.7084167099
598.125 0.0741084756809 -49.6188680601
598.75 0.0827481668772 -61.2502946833
599.375 0.0841917360875 -71.3858722473
600.0 0.10263863562 -63.8012084484
600.625 0.102961098495 -62.5315012348
601.25 0.0827265929646 -71.8085568066
601.875 0.0685852532545 -98.0163597156
602.5 0.0661789239832 -57.4895726408
603.125 0.0463792461113 -41.5382006226
603.75 0.0279817975322 -32.2573652393
604.375 0.0418318260941 -21.1748672237
605.0 0.0557629994088 -22.3575039147
605.625 0.0522523530177 -3.94072527742
606.25 0.0303246442422 19.5373362913
606.875 0.0372875126359 49.5315204967
607.5 0.0442431042761 37.5462541514
608.125 0.0718168779512 27.9361745343
608.75 0.0676374781068 22.0140889881
609.375 0.0634164142376 27.3894939954
610.0 0.0699805453631 42.0864322799
610.625 0.0674545204465 39.0586803992
611.25 0.0550924030822 34.428270337
611.875 0.0374813865185 53.1467940184
612.5 0.012825272185 40.4798756746
613.125 0.0531851009774 131.028375485
613.75 0.0629694257299 127.362220592
614.375 0.0493580369266 134.833716884
615.0 0.0169719999867 110.74214211
615.625 0.0563463271564 136.319917387
616.25 0.0461454592182 136.625318966
616.875 0.045994715372 133.585372451
617.5 0.0160616011946 106.521573516
618.125 0.0564622495753 139.954888245
618.75 0.0397881992839 142.422539979
619.375 0.0246311675939 168.508644842
620.0 0.0160961988807 -28.3023786954
620.625 0.0248708470408 -167.711637246
621.25 0.0434943870017 -129.062333589
621.875 0.0711143767369 -119.749436954
622.5 0.070206521185 -149.320960134
623.125 0.0876843642298 166.504929793
623.75 0.0679299682398 161.05861884
624.375 0.0511019847761 -169.911018438
625.0 0.0385585383852 -146.179601835
625.625 0.0359197077087 -150.535679911
626.25 0.024900934518 -178.772691334
626.875 0.00409981239608 84.1878105276
627.5 0.0243555750286 -30.6534981919
628.125 0.0499381459092 -4.67381530611
628.75 0.0345259486973 -37.0782253045
629.375 0.0378293574312 -21.0905486757
630.0 0.061134924408 -15.9740231205
630.625 0.077562678939 19.3808483178
631.25 0.0688398529336 1.39247142208
631.875 0.0636152071687 -6.79831254933
632.5 0.0574724936104 -9.31542200103
633.125 0.0496601167013 26.9354009682
633.75 0.0516748330324 -28.3346359502
634.375 0.0454715462868 -9.57229544945
635.0 0.0404884075297 10.7270117646
635.625 0.0372083984446 43.3593801806
636.25 0.0520581280739 45.3079870577
636.875 0.0638757661718 34.1128218666
637.5 0.0361828367357 20.8011593063
638.125 0.0366595965623 71.5173419884
638.75 0.0923680385979 79.8669719168
639.375 0.0793285524662 73.3848138428
640.0 0.0643469136436 91.1673454196
640.625 0.0516748934133 98.3603502464
641.25 0.082939545429 130.111704448
641.875 0.0540511707383 128.406208207
642.5 0.0556287505165 162.548075178
643.125 0.0558111859358 158.745228634
643.75 0.0836109342584 177.989565133
644.375 0.0667296728942 -176.697150643
645.0 0.0705225509045 178.37098888
645.625 0.0840124557725 163.469115673
646.25 0.106601198335 170.027641836
646.875 0.0539100958273 156.189712788
647.5 0.0585004461769 -178.720721829
648.125 0.076792094495 176.723423577
648.75 0.0806139848335 -158.008730609
649.375 0.0427371670113 -162.404960515
650.0 0.0413500504178 -120.789940095
650.625 0.0743280990866 -86.6905955441
651.25 0.0703650047603 -63.0966624714
651.875 0.0670205284164 -42.009503852
652.5 0.0861605909198 -23.7033835717
653.125 0.117865594792 -0.284623226138
653.75 0.116581414388 7.09103063277
654.375 0.0897287898651 -0.280947732351
655.0 0.100184015447 7.30792077035
655.625 0.0922931206965 17.8426173726
656.25 0.0634908817145 23.0487344741
656.875 0.0662665616211 4.40828858456
657.5 0.0783531197551 20.8526499123
658.125 0.0542818519137 48.7485352099
658.75 0.0588686668201 66.6889147178
659.375 0.0946734579235 37.5351035236
660.0 0.0880047602573 26.5761451035
660.625 0.0994789734121 19.4344832577
661.25 0.100714892765 2.56046697286
661.875 0.135531847217 -12.9870578815
662.5 0.104196264133 -22.3836444079
663.125 0.107780058355 -14.6300097047
663.75 0.0999746937724 5.79394948118
664.375 0.111123999191 55.5486292046
665.0 0.0734097523925 89.2855094147
665.625 0.0547716038447 112.622617573
666.25 0.0955074967385 128.506216795
666.875 0.0824176016287 174.140549151
667.5 0.0950143587235 -167.418310946
668.125 0.0966349253485 179.060094542
668.75 0.140501911278 165.857909331
669.375 0.129021346894 176.726302973
670.0 0.0859499463842 -170.045319633
670.625 0.0923729557265 -172.651506242
671.25 0.111652142337 176.683117691
671.875 0.113769836761 168.833274023
672.5 0.0667743259257 157.646180162
673.125 0.0872368813315 152.801661611
673.75 0.122153428837 155.845592529
674.375 0.0940475402942 173.628021708
675.0 0.109854930729 -172.245650014
675.625 0.129230362808 -151.012805974
676.25 0.133519570824 -127.40983906
676.875 0.103095417322 -119.781200966
677.5 0.120030650814 -127.784169001
678.125 0.133490930965 -116.565966478
678.75 0.0684182595366 -92.0373381606
679.375 0.0597145014259 -78.407742154
680.0 0.0765197394877 -77.6943013504
680.625 0.10978602352 -70.811401497
681.25 0.0941703322694 -70.3148248943
681.875 0.10576721697 -96.9367069484
682.5 0.126735870488 -114.926885966
683.125 0.164208019794 -122.088623691
683.75 0.143609521433 -106.999350779
684.375 0.118027064766 -78.5975943162
685.0 0.143785391398 -42.9374191848
685.625 0.127945730258 -2.89415294429
686.25 0.100461169508 24.9843822237
686.875 0.090694346286 46.6961454758
687.5 0.0862515532245 79.013580088
688.125 0.0787332666013 110.301331977
688.75 0.100564564091 120.731486478
689.375 0.143268803173 121.047430594
690.0 0.142202041967 130.106691669
690.625 0.107155351069 134.102375044
691.25 0.135338922774 103.249492397
691.875 0.172010650207 67.469667661
692.5 0.154144631694 38.2644381569
693.125 0.0863889704451 -15.0812296319
693.75 0.0922631939528 -38.0595649045
694.375 0.139358514598 -28.8973812521
695.0 0.130232604181 12.9115332794
695.625 0.107350792338 48.3750825691
696.25 0.105263338962 124.864273472
696.875 0.138632653934 174.64472533
697.5 0.148079514784 -148.632210545
698.125 0.142788919471 -133.690007982
698.75 0.113621421609 -122.662109823
699.375 0.10128122353 -119.389639182
700.0 0.0966783963764 -112.875211088
700.625 0.120966317759 -96.5105015718
701.25 0.0850414497042 -51.4625448736
701.875 0.0793728676374 -50.0955388537
702.5 0.0976911758416 -81.2124386934
703.125 0.172031275489 -128.5556096
703.75 0.177809507929 -152.670980604
704.375 0.127980301607 172.468411615
705.0 0.113336418518 158.280850662
705.625 0.148239219586 -169.947201266
706.25 0.153899743238 -118.03796381
706.875 0.087473178637 -61.3773882766
707.5 0.0706813750992 -24.4762548972
708.125 0.0856111940212 21.3785419671
708.75 0.113436528766 55.8431384456
709.375 0.104936349899 114.655731589
710.0 0.102271925358 135.924654132
710.625 0.105752395316 155.54482874
711.25 0.118228388719 164.731311964
711.875 0.142380517492 167.92305574
712.5 0.149755924491 151.3722952
713.125 0.125989543882 101.057824614
713.75 0.107201473421 38.0744484748
714.375 0.103224282151 35.8251269021
715.0 0.115977667317 33.4519655321
715.625 0.0848120702386 44.5002164881
716.25 0.0807494232737 77.6486987865
716.875 0.109850523067 94.6129316494
717.5 0.152658202195 157.32241179
718.125 0.120582855712 174.751185152
718.75 0.103033714953 178.859329619
719.375 0.111320907167 -179.367079366
720.0 0.125356942821 -131.2906092
720.625 0.113066550008 -75.7826976122
721.25 0.0908594986879 -16.9905048706
721.875 0.0867896370114 19.0452001096
722.5 0.0765602303476 80.8255213298
723.125 0.0951686561437 79.2993871099
723.75 0.113873851011 49.3954872311
724.375 0.0974541023342 -12.6191382767
725.0 0.111244998827 -26.583013292
725.625 0.101103242242 -64.838190021
726.25 0.119152409132 -68.5817500039
726.875 0.103680305184 -47.9928193148
727.5 0.077117717636 -44.1845941061
728.125 0.0862916671874 7.91061528342
728.75 0.118089375844 34.6430818231
729.375 0.0869595217045 27.7282053364
730.0 0.055188286581 -13.0294317091
730.625 0.066650940039 25.3692706957
731.25 0.0672693968719 66.3173504086
731.875 0.0599355727182 116.415660005
732.5 0.0767812719184 151.963750579
733.125 0.0682964966275 161.824737589
733.75 0.075727640184 173.259329913
734.375 0.0680964696554 -171.709002198
735.0 0.0276915691205 120.775051708
735.625 0.0955781205273 161.659127834
736.25 0.0523344226528 145.884347393
736.875 0.0615839292946 -179.253226015
737.5 0.0520736503186 -175.095855759
738.125 0.0887586515211 -172.198713118
738.75 0.075673516189 -175.843957256
739.375 0.0329624591489 -175.424967055
740.0 0.0490923451484 -145.194359643
740.625 0.025305556804 -137.932230348
741.25 0.0682275899831 -151.410182716
741.875 0.066211855956 -108.994323159
742.5 0.0422086162499 -11.7073214071
743.125 0.0197080301471 118.542078969
743.75 0.0548644213194 78.6186592472
744.375 0.0542480293036 101.61331702
745.0 0.0474248284096 130.69038611
745.625 0.0616784176288 139.512911931
746.25 0.104545083103 68.1560723107
746.875 0.0747402654043 36.6934862494
747.5 0.0511375161777 11.5492618901
748.125 0.013592203531 15.1465853556
748.75 0.0222596645538 53.0867232264
749.375 0.041204727776 -53.2662593314
750.0 0.0349360935186 -114.101176989
