!Created with skrf (http://scikit-rf.org).
# GHz S RI R (50+0j) 
!freq	ReS11	ImS11	
500.0	0.1895139161	-1.484227854	
500.625	-0.1529493519	-0.4933967024	
501.25	-0.132511869	-1.136252909	
501.875	-0.5546595727	-0.2765732943	
502.5	0.0243936973	-0.08860900055	
503.125	-0.1335212891	0.01676966066	
503.75	0.05620411799	0.02478493604	
504.375	0.03944164024	0.02333817956	
505.0	-0.02366203178	-0.04614196285	
505.625	0.05062780314	-0.02200207581	
506.25	-0.1867506488	-0.08316015054	
506.875	0.1358025253	0.001564844443	
507.5	-0.136444791	-0.7274025715	
508.125	-0.2477362639	-0.3951347753	
508.75	0.7395574822	-0.5126449216	
509.375	0.03763961488	-1.720895756	
510.0	-0.573685568	-0.06801864314	
510.625	-0.02445810422	-0.1406811693	
511.25	-0.1395144726	-0.0837692262	
511.875	-0.08209092562	0.02666522986	
512.5	-0.06263420517	0.03179972027	
513.125	-0.06767784673	-0.09301004915	
513.75	0.01880429033	-0.02066100546	
514.375	-0.1348778769	-0.123253125	
515.0	-0.01143950395	0.3110874002	
515.625	-0.5544457746	-0.9107974807	
516.25	-0.492482539	-0.02000579709	
516.875	0.1184861234	-0.374789473	
517.5	-0.1362971197	-0.2798886597	
518.125	0.06456773324	-0.03604883639	
518.75	-0.07799547285	-0.2313974808	
519.375	-0.02546239698	0.02223181306	
520.0	0.07967992864	0.06188470779	
520.625	0.1333413389	-0.08987820996	
521.25	-0.08272684	-0.2903174267	
521.875	-0.08083721801	0.03375831637	
522.5	-0.0905037028	-0.02597551905	
523.125	-0.02994550571	0.1577746138	
523.75	-0.05882517661	-0.133212122	
524.375	-0.2703198414	0.1680672735	
525.0	0.06479502328	0.01353729216	
525.625	-0.04293855801	0.1087689396	
526.25	0.05927835833	-0.09186575042	
526.875	-0.06530131562	0.133705638	
527.5	0.06886252086	0.1647059821	
528.125	-0.03228876397	0.2971783003	
528.75	0.06936404679	0.3202114274	
529.375	-0.02044944297	0.1064946298	
530.0	0.1019122123	0.0696473049	
530.625	0.1761121423	0.3169426432	
531.25	0.2797694777	0.06048546759	
531.875	0.1558213677	0.01474866346	
532.5	-0.1627058381	-0.2500806278	
533.125	0.2013846673	0.1301804534	
533.75	0.0198214872	-0.3017294787	
534.375	-0.07150895723	-0.1035839677	
535.0	-0.2863032485	-0.182035307	
535.625	-0.1256081951	0.2155389125	
536.25	-0.02114103066	0.06075414337	
536.875	0.1299476638	0.03864656541	
537.5	0.03514406167	-0.06225784197	
538.125	0.1507254278	0.004076501503	
538.75	0.1155910375	-0.1844559353	
539.375	-0.07862948672	-0.1558602236	
540.0	-0.1482087199	-0.1933106946	
540.625	-0.2005903714	0.003680303271	
541.25	-0.04753305617	0.01191197552	
541.875	-0.02796521136	-0.0758694021	
542.5	-0.1455147472	0.02748458765	
543.125	-0.02505995169	-0.08744512564	
543.75	-0.1614799644	0.016283732	
544.375	0.05938345669	-0.006467051653	
545.0	-0.03764458157	0.1031334778	
545.625	0.1085773968	-0.02146845316	
546.25	0.03674234715	0.0946866387	
546.875	0.1686517511	-0.079807237	
547.5	0.01626252154	-0.07912836651	
548.125	0.01141203399	-0.1950107403	
548.75	-0.1941322208	-0.1155945272	
549.375	-0.06742392151	-0.01616765893	
550.0	-0.1114949498	-0.02812059735	
550.625	-0.04607115866	0.04684509808	
551.25	-0.07933768792	0.001905577476	
551.875	-0.09425786019	0.1023250149	
552.5	-0.01749176747	0.06607825985	
553.125	-0.0281651088	0.07762757954	
553.75	0.05772036943	0.03246199401	
554.375	0.08884832497	0.006227271413	
555.0	0.103315463	-0.08414316097	
555.625	0.07233755693	-0.1138750634	
556.25	0.06781154672	-0.1432567579	
556.875	-0.03796809797	-0.1680240408	
557.5	-0.1077657044	-0.1030779776	
558.125	-0.1191716311	-0.03726591515	
558.75	-0.1168975478	-0.00968791967	
559.375	-0.1202598545	0.03500898045	
560.0	-0.09046866891	0.06895693327	
560.625	-0.08084207199	0.1223887287	
561.25	0.03729749709	0.1077316422	
561.875	-0.00312708702	0.03668238702	
562.5	0.0475606293	0.06972752855	
563.125	0.04310230581	0.04560509436	
563.75	0.1686302892	0.03007731346	
564.375	0.1204637849	-0.1606311354	
565.0	0.05092509525	-0.1021038345	
565.625	0.002257456939	-0.2429902884	
566.25	-0.1634482191	-0.04481487405	
566.875	-0.0867841655	-0.1084220487	
567.5	-0.2339778803	-0.1462614396	
568.125	-0.0935343943	-0.03241026289	
568.75	-0.2428489823	-0.1841555514	
569.375	-0.249389318	0.2059403369	
570.0	-0.07039493549	0.09561135404	
570.625	-0.1675518725	0.215026916	
571.25	0.1122798273	0.1439567284	
571.875	-0.03826478695	0.08612319441	
572.5	0.2334614681	-0.04912935384	
573.125	-0.03459459991	-0.06078670008	
573.75	0.1479100642	-0.07984538005	
574.375	-0.05278785016	-0.1540812838	
575.0	0.0444182035	0.05391053113	
575.625	0.04590846529	-0.1761226852	
576.25	-0.03813679665	-0.07734020498	
576.875	0.1092177654	-0.1052982398	
577.5	-0.02643917029	-0.2636711112	
578.125	-0.1357580822	-0.03536558287	
578.75	0.04980789304	-0.1359709927	
579.375	-0.1868387076	-0.1582729499	
580.0	0.04685121537	0.1320647349	
580.625	-0.2145712199	-0.1537908042	
581.25	0.01728628627	0.1787905799	
581.875	-0.08429745061	0.05390880201	
582.5	0.08498401382	0.3058300514	
583.125	0.163470711	-0.04293892557	
583.75	-0.0639348015	0.1059196482	
584.375	0.1530792388	0.004309708146	
585.0	-0.01335424011	0.05674742877	
585.625	0.2706477915	0.04172747631	
586.25	0.1114544437	-0.1691942662	
586.875	0.0656940456	-0.0481780099	
587.5	-0.002305877775	-0.2184615253	
588.125	-0.111067544	-0.1115730213	
588.75	0.1097896386	-0.07854049726	
589.375	0.08082387089	-0.2707758074	
590.0	-0.09980461567	-0.05234923788	
590.625	-0.155160438	-0.1518847774	
591.25	-0.1456005537	0.3124648436	
591.875	0.05617069009	-0.0092996491	
592.5	-0.1079831042	0.1334729977	
593.125	0.07714871949	-0.02448426217	
593.75	0.002848683121	0.2394519019	
594.375	0.2847791992	0.02811257157	
595.0	0.0453284287	0.08099021069	
595.625	0.1806698641	0.1790717136	
596.25	0.1755650815	-0.05687423329	
596.875	0.06381548189	0.06327323906	
597.5	0.2175553272	0.1398738522	
598.125	0.1634766875	0.03236722554	
598.75	0.1245685506	0.1144079245	
599.375	0.2746994666	-0.03758525865	
600.0	0.1236053771	-0.2038683189	
600.625	0.1211400013	-0.09876149755	
601.25	0.1322522413	-0.2612762951	
601.875	-0.1799638478	-0.08640084377	
602.5	-0.02172038558	-0.1090448944	
603.125	-0.2023878719	0.1538350586	
603.75	0.03501042689	-0.01847165324	
604.375	-0.2069216148	0.01632486031	
605.0	-0.0279328019	0.2068141286	
605.625	-0.1802048621	-0.07488481903	
606.25	-0.1306659987	0.1825264233	
606.875	-0.07633075971	0.1070307138	
607.5	-0.2191823539	0.1602029048	
608.125	0.01699097097	0.2874449984	
608.75	0.1576122298	0.2006755237	
609.375	0.228127072	0.004595730208	
610.0	0.2193225236	-0.1902064241	
610.625	0.04742434723	-0.2182667664	
611.25	0.0457502118	-0.09419953967	
611.875	-0.1913607807	-0.1553442662	
612.5	-0.0815088698	0.01474019209	
613.125	-0.2675706895	-0.06785797186	
613.75	-0.05501551724	0.2864361375	
614.375	-0.07939333222	-0.00995401406	
615.0	0.1131861484	0.1851832947	
615.625	0.02840303847	-0.03350899741	
616.25	-0.1578622603	0.1784855588	
616.875	0.02349360207	0.1339924775	
617.5	-0.08979162365	0.143747577	
618.125	0.02393649182	0.2628869548	
618.75	0.100085079	0.2083036358	
619.375	0.2573683255	0.2047673728	
620.0	0.1546875153	0.04774654908	
620.625	0.2166081348	-0.2628601803	
621.25	-0.1167326564	-0.09597682697	
621.875	-0.1196380031	-0.2371543836	
622.5	-0.2868095614	0.1590655417	
623.125	0.01157386821	0.1047919808	
623.75	0.1462216656	0.1271059328	
624.375	-0.007676462202	-0.1537301489	
625.0	0.08237898563	0.05342548592	
625.625	0.01460973676	-0.1929446653	
626.25	-0.04287083337	-0.05730901662	
626.875	-0.1416831838	-0.1496419669	
627.5	-0.2073896111	0.01885232601	
628.125	-0.06163670585	-0.05633412213	
628.75	-0.0510553661	-0.1189364082	
629.375	-0.131428261	-0.1638680153	
630.0	-0.1560673168	0.007872225178	
630.625	-0.2480569169	0.03868422567	
631.25	-0.12148537	0.2855028584	
631.875	0.04912660987	0.1262410153	
632.5	0.1363609265	0.2818395216	
633.125	0.2881791554	-0.05375204544	
633.75	0.07385638643	0.01579186426	
634.375	0.131551171	-0.2207192993	
635.0	-0.1460630526	-0.0448274307	
635.625	-0.07718311446	-0.1748234461	
636.25	-0.2212104277	0.1653879753	
636.875	0.03635130304	0.09383051757	
637.5	-0.1352556089	0.05222448456	
638.125	0.01972553275	0.1971433318	
638.75	-0.09205168153	0.06396071264	
639.375	-0.03489989408	0.3496306821	
640.0	0.2337429244	0.1887149198	
640.625	0.1707558047	0.07519095402	
641.25	0.3378357663	0.05711027297	
641.875	0.140367251	-0.3543802452	
642.5	-0.01621842383	-0.03970361203	
643.125	-0.1410607583	-0.2551653917	
643.75	-0.2154552069	0.1351173777	
644.375	-0.08667350782	-0.2692796954	
645.0	-0.2464997488	0.3897507121	
645.625	0.1884041264	-0.02113719377	
646.25	0.01252382743	0.2397663917	
646.875	0.2972915592	-0.1568163888	
647.5	-0.1328096733	0.09675987857	
648.125	0.3802148114	0.006787420082	
648.75	0.1294832007	-0.168080167	
649.375	0.281711947	-0.06959702999	
650.0	0.2505154965	-0.5097554509	
650.625	-0.07924470189	-0.2470276189	
651.25	0.3107850462	-0.09319543224	
651.875	0.3436176321	-0.3087596042	
652.5	0.1008156247	-0.2103714279	
653.125	0.3080238936	0.04078399589	
653.75	0.2262395889	-0.427142131	
654.375	-0.1851191959	-0.1219384365	
655.0	-0.2071435125	-0.2344176758	
655.625	-0.2436025052	0.5239033485	
656.25	0.136149506	-0.02665692115	
656.875	-0.06390179438	0.2092439834	
657.5	0.2533157147	-0.09976146631	
658.125	-0.1001787149	0.238600324	
658.75	0.5603184946	0.04558889477	
659.375	0.1339623623	-0.2447674818	
660.0	0.2859812703	-0.1602202022	
660.625	0.2348445976	-0.4676798369	
661.25	-0.08393784345	-0.310432006	
661.875	0.3172389039	-0.0924658867	
662.5	0.3314938617	-0.3641734067	
663.125	0.1075843747	-0.2102505542	
663.75	0.2629782447	-0.2184702776	
664.375	-0.1516452281	-0.4465416648	
665.0	-0.2225023934	-0.08111493866	
665.625	-0.3442329237	-0.02800477766	
666.25	-0.1159768952	0.41109601	
666.875	0.1676252101	0.03195987246	
667.5	0.1487509053	0.2399623138	
668.125	0.3071159749	-0.2185477962	
668.75	0.05239346307	-0.04044735189	
669.375	0.2622620308	-0.258752845	
670.0	-0.2250645093	-0.2553204559	
670.625	0.1844240166	-0.07122629439	
671.25	0.09533235896	-0.3093020241	
671.875	-0.001110529016	-0.1854635221	
672.5	0.3016697413	0.003240926106	
673.125	0.2490870169	-0.3539694943	
673.75	0.02690760262	-0.1820356894	
674.375	0.13132808	-0.2181692564	
675.0	-0.1360050723	-0.3607243663	
675.625	-0.1535629751	0.0292736952	
676.25	-0.1531722375	-0.159271149	
676.875	-0.2516945845	0.09356493243	
677.5	-0.03064831551	0.04055154041	
678.125	-0.2830380092	0.09017120359	
678.75	0.2293155099	0.3039413796	
679.375	0.03838641382	-0.03393603587	
680.0	0.365168275	0.07015717547	
680.625	-0.00704914881	-0.3345365718	
681.25	-0.03082668913	0.3824971098	
681.875	0.4782436363	-0.02550273871	
682.5	0.0801262666	-0.08943483029	
683.125	0.2018058652	0.2815824271	
683.75	0.5024293178	-0.0780023164	
684.375	0.03785162979	-0.1096942994	
685.0	0.4109560858	0.2153932158	
685.625	0.3152566473	-0.1004324177	
686.25	0.1412818089	-0.06555167806	
686.875	0.4768717223	-0.06001222295	
687.5	0.142853599	-0.4853991092	
688.125	-0.01561094484	-0.3667940403	
688.75	-0.4224245047	-0.2907058773	
689.375	-0.3103081547	0.5280053151	
690.0	0.1312839321	0.1051576348	
690.625	0.2459485035	0.5403183539	
691.25	0.4715497959	0.05455481551	
691.875	0.1093725463	0.4619436784	
692.5	0.9296325979	0.371113692	
693.125	0.5475689425	-0.3009010611	
693.75	0.7788549026	0.06380497191	
694.375	0.5102726843	-0.6257264155	
695.0	0.2446300258	-0.1973583495	
695.625	0.5722638322	0.1288062816	
696.25	0.5732482874	0.02250917257	
696.875	0.3664310004	0.2509039155	
697.5	0.5040460653	0.3320291549	
698.125	0.7086246949	0.2070801915	
698.75	0.237672446	-0.5476456279	
699.375	-0.341763389	-0.3105133724	
700.0	-0.4151344243	0.4496854879	
700.625	0.289589363	0.1729809119	
701.25	0.03810441786	0.2655295853	
701.875	0.4811947118	0.2691946741	
702.5	0.1325939982	0.1092071447	
703.125	0.4228977538	0.3202092908	
703.75	0.5305133952	-0.220852401	
704.375	0.1155739753	-0.1094764257	
705.0	0.3871292807	-0.1866167123	
705.625	0.2337398044	-0.05087971298	
706.25	0.159088135	0.2427219927	
706.875	0.2265326919	0.1165027929	
707.5	0.3301612993	0.2193932397	
708.125	0.5417700641	-0.1717492433	
708.75	0.2319311195	-0.3059256632	
709.375	-0.5092624263	-0.4231173058	
710.0	-0.04310945262	0.173095796	
710.625	-0.1965701111	0.3467035061	
711.25	0.2368017377	-0.06106892803	
711.875	0.0658942809	0.2730488015	
712.5	0.4705131689	-0.07603552686	
713.125	0.1087365328	-0.1958921216	
713.75	0.2470912931	-0.1574524541	
714.375	-0.02223474999	-0.3672734394	
715.0	-0.0658857151	-0.08707955648	
715.625	0.129562048	-0.2360544225	
716.25	0.08328622373	-0.3544474923	
716.875	0.2600028003	-0.06484713936	
717.5	0.5024763396	0.05370006332	
718.125	0.6926066979	-0.1690238035	
718.75	0.5629487319	-0.6417978628	
719.375	0.7199529916	-0.1215444425	
720.0	0.3392561718	-1.188090491	
720.625	-0.04343055427	-0.3703204293	
721.25	0.6228765596	-1.569933852	
721.875	-1.040473873	-0.8882734146	
722.5	0.1867276022	-0.7019437405	
723.125	-1.231747066	-0.1691715241	
723.75	-0.04378177616	0.6024532759	
724.375	-0.1920878901	0.255934916	
725.0	0.256413945	0.6354879722	
725.625	0.2667313538	0.2276910908	
726.25	-0.2463792636	0.5967027826	
726.875	-0.1010716384	1.251091184	
727.5	0.2691467577	1.147179068	
728.125	-0.6029636256	1.376483353	
728.75	0.2983226677	3.277167397	
729.375	1.262484066	3.017325177	
730.0	-0.764757714	3.24117567	
730.625	0.1860396988	5.613043843	
731.25	0.755322728	2.807927949	
731.875	-3.699028813	0.6849811119	
732.5	-4.361450247	2.457611056	
733.125	-0.6331171848	1.672517463	
733.75	-1.835855694	0.883490877	
734.375	1.732122816	-0.2513670935	
735.0	-0.1665431081	-0.1305266168	
735.625	-0.7306424852	-0.2100745098	
736.25	0.3869798123	0.7567623512	
736.875	-0.2769863076	0.3848374908	
737.5	1.617979056	0.5676640694	
738.125	1.39661261	-1.063023826	
738.75	0.723274978	-0.6659950066	
739.375	4.344721857	0.4030002857	
740.0	3.177914707	-4.328156528	
740.625	-1.055336921	0.1663349521	
741.25	-2.364691875	6.180152697	
741.875	-0.6922347105	3.088493574	
742.5	2.274503239	-2.043077173	
743.125	-0.02795148279	-3.056232656	
743.75	-1.010447073	-0.4816152787	
744.375	-0.1005423344	-0.4532589732	
745.0	0.2499884321	0.2799683397	
745.625	-0.07522830222	0.1139665624	
746.25	-0.05802525864	-0.2446273676	
746.875	-0.1860499993	0.1590592939	
747.5	-0.2352807684	0.1914567727	
748.125	0.04651724939	0.7297723555	
748.75	0.3523524297	0.3608594118	
749.375	-0.01100677328	0.445091962	
750.0	-0.4867424657	0.271302693	
