!Created with skrf (http://scikit-rf.org).
# GHz S RI R (50+0j) 
!freq	ReS11	ImS11	
500.0	-2.288631651	-1.788876277	
500.625	1.810681206	-2.775614242	
501.25	-2.316177151	-2.227899301	
501.875	-1.714144961	-0.5545004291	
502.5	0.06864652235	-0.17451247	
503.125	-0.4113328856	0.04371381171	
503.75	0.2189166243	-0.01373633637	
504.375	0.1633108693	0.06231607756	
505.0	-0.1070664648	-0.08075022471	
505.625	0.2606365231	-0.2482537685	
506.25	-0.5878727288	0.1675990077	
506.875	0.07490433076	-0.8861112861	
507.5	-1.267256249	-2.041362328	
508.125	-1.067679878	-1.104510229	
508.75	2.561630948	-1.703003419	
509.375	-2.807235617	-4.14337978	
510.0	-0.6569926669	-0.1006217778	
510.625	-0.7053366304	-0.5918861875	
511.25	-0.1795187459	0.158813415	
511.875	-0.56383932	-0.3090407586	
512.5	-0.01502889168	0.1680187181	
513.125	-0.1143778062	-0.1985262812	
513.75	-0.03384408444	-0.1947564318	
514.375	-0.5297388816	-0.3282330197	
515.0	0.9028525942	1.523945087	
515.625	-1.53433837	-3.057257955	
516.25	-0.7516446612	0.7139813123	
516.875	0.07656260656	-2.595007769	
517.5	-1.180587354	-0.4069951938	
518.125	0.2820174204	-0.3186279723	
518.75	-0.8453658781	-0.2608860434	
519.375	-0.07804203707	-0.02486391665	
520.0	0.4490442055	0.3156191022	
520.625	0.4234593618	-0.3680841053	
521.25	0.01358475333	-0.4018269881	
521.875	-0.4917394409	-0.2219891479	
522.5	0.06083233632	0.06731183223	
523.125	-0.2892741926	0.1526266531	
523.75	-0.1663864744	-0.07020026337	
524.375	-0.6416435943	0.2466876348	
525.0	0.1335746692	0.005247207206	
525.625	-0.04267810991	0.2895936183	
526.25	0.04984780155	-0.2920919727	
526.875	-0.1723857889	0.3790685463	
527.5	0.09890465286	0.2423537951	
528.125	-0.2746006347	0.9274024662	
528.75	0.5212785164	0.8864643993	
529.375	-0.1427790796	0.1063241554	
530.0	0.3915602848	0.4391156565	
530.625	-0.08022178958	0.8135039362	
531.25	1.520949026	-0.1694269484	
531.875	0.3410418318	-0.08146931336	
532.5	-0.2106644753	-0.5825433071	
533.125	0.2872436892	0.3445754627	
533.75	0.01758662137	-0.9780481493	
534.375	-0.06562847063	-0.3386736123	
535.0	-1.065993733	-0.6771295195	
535.625	-0.09483116627	0.458773241	
536.25	-0.1085547088	0.184404336	
536.875	0.3556842111	0.07748293256	
537.5	0.05127388427	-0.1292584627	
538.125	0.4577504631	-0.05192600335	
538.75	0.1392831962	-0.4203057522	
539.375	-0.00403983624	-0.357605377	
540.0	-0.5825516211	-0.5007937936	
540.625	-0.2651857733	0.1520786267	
541.25	-0.1983946812	-0.1052338498	
541.875	-0.1732617722	-0.0796742326	
542.5	-0.1414974668	-0.01632294547	
543.125	-0.06781666054	-0.2225969903	
543.75	-0.4378174414	0.1112175452	
544.375	0.03286702429	-0.07806658534	
545.0	-0.02376382384	0.3602488388	
545.625	0.05962284556	-0.08690439702	
546.25	0.3051606907	0.3387453165	
546.875	0.1744345011	-0.313845078	
547.5	0.2905524928	-0.05363669837	
548.125	-0.09837412256	-0.6199778746	
548.75	-0.400618146	-0.09636364462	
549.375	-0.07953147113	-0.1966750723	
550.0	-0.3505216443	0.03128191941	
550.625	0.02698510597	-0.006960370931	
551.25	-0.3358689696	0.09161667336	
551.875	-0.0294590324	0.1527952019	
552.5	-0.2162859777	0.1689655093	
553.125	0.02045396199	0.1897064661	
553.75	0.08166389501	0.1060661801	
554.375	0.2493025033	0.01987426961	
555.0	0.2282958089	-0.1888822849	
555.625	0.1991420529	-0.245481645	
556.25	0.1711080761	-0.3518155708	
556.875	-0.09848497652	-0.3942325718	
557.5	-0.232761605	-0.239879825	
558.125	-0.2722300593	-0.1083712756	
558.75	-0.2774151832	0.007069589162	
559.375	-0.2244895936	0.05425252939	
560.0	-0.2676254345	0.1485125582	
560.625	-0.1024845451	0.3255808869	
561.25	0.04886382729	0.1533917437	
561.875	0.03603069752	0.1981289434	
562.5	0.06133675314	0.009010954736	
563.125	0.1412399495	0.2987636912	
563.75	0.349124094	-0.1450288293	
564.375	0.2404691738	-0.05163812394	
565.0	0.2736649758	-0.4793345126	
565.625	-0.198685346	-0.2858783342	
566.25	-0.1271940918	-0.250520062	
566.875	-0.4172236581	-0.2963610455	
567.5	-0.3779160515	-0.05812260216	
568.125	-0.1472109178	-0.4782828612	
568.75	-0.7600664845	-0.1770327513	
569.375	-0.3165699159	0.2284987332	
570.0	-0.5841914201	0.4057309483	
570.625	0.08108871554	0.6388303759	
571.25	-0.09927180731	-0.03280317161	
571.875	0.3316545286	0.5088100084	
572.5	-0.03410053538	-0.2025782324	
573.125	0.4929090831	-0.03926217039	
573.75	0.02388116735	-0.5706173749	
574.375	-0.08438214469	0.1293064437	
575.0	0.2816499373	-0.348897854	
575.625	-0.1622000149	0.04611746377	
576.25	0.4265495692	-0.2532781838	
576.875	-0.2187833723	-0.5286689343	
577.5	-0.07612015253	-0.07644385498	
578.125	0.1345689921	-0.4728480509	
578.75	-0.4180874626	-0.4142826933	
579.375	-0.1472471617	0.06754228078	
580.0	-0.02299569531	-0.3157873404	
580.625	-0.2256473375	0.1922585662	
581.25	-0.234286369	-0.1419540418	
581.875	-0.03272930749	0.6787169442	
582.5	0.4274255018	0.1437767522	
583.125	-0.2385330164	0.0716269689	
583.75	0.5348972018	0.317247644	
584.375	-0.3610614524	-0.1074881369	
585.0	0.5473784032	0.4012888233	
585.625	0.2127163417	-0.3260073104	
586.25	0.3716131879	0.231955355	
586.875	0.1522658853	-0.6647575254	
587.5	-0.03217883166	-0.01734116861	
588.125	0.1971117463	-0.4786836734	
588.75	-0.1313324313	-0.5407123939	
589.375	0.07458498408	-0.02732348982	
590.0	0.05814818262	-0.6276512983	
590.625	-0.5214793405	0.007377502447	
591.25	-0.1651947815	0.180800882	
591.875	-0.2808941981	0.2515135798	
592.5	0.2281298862	0.1575251197	
593.125	-0.2379207453	0.1909281746	
593.75	0.246473506	0.1886740844	
594.375	0.115224572	0.1969289719	
595.0	0.491005737	0.5997262334	
595.625	0.6824403722	-0.2393349178	
596.25	-0.04894182084	0.32163431	
596.875	0.7362722856	0.2095987132	
597.5	0.2280880669	-0.1141517963	
598.125	0.2740452412	0.6079734274	
598.75	0.5585892996	-0.05710329336	
599.375	0.3059743433	0.176955251	
600.0	0.6473813852	-0.4877592603	
600.625	0.1173783548	-0.4861044731	
601.25	0.2467777312	-0.2352946743	
601.875	-0.1648627666	-0.5022861216	
602.5	-0.3150035398	0.03842974451	
603.125	-0.2245538722	0.1385042251	
603.75	-0.283487771	0.03623837161	
604.375	-0.3037690761	0.3544939233	
605.0	-0.01517516457	-0.008885411672	
605.625	-0.3841336479	0.2596068454	
606.25	-0.01638239243	0.1177509671	
606.875	-0.6553658659	-0.02775312576	
607.5	-0.1513819228	0.7888007433	
608.125	-0.2363697585	0.1781845629	
608.75	0.5437156136	0.8543884266	
609.375	0.3169089698	-0.3844249747	
610.0	0.5363311606	0.03026803694	
610.625	0.1401269086	-0.6203622726	
611.25	0.004970903183	-0.1188278864	
611.875	-0.3071192865	-0.5403361934	
612.5	-0.1247517226	0.00605336415	
613.125	-0.5242948057	-0.06267796275	
613.75	0.03828335105	0.5467686804	
614.375	-0.1865847992	0.2100412666	
615.0	0.3138663008	0.0601043204	
615.625	-0.2629716067	0.1535621726	
616.25	0.1092197079	0.6685441139	
616.875	-0.1252513745	0.06868822178	
617.5	-0.410172582	0.7213329964	
618.125	0.240281369	0.5072710073	
618.75	-0.2138080219	0.2933950474	
619.375	0.4008141102	0.5275973916	
620.0	0.257459815	0.04828467469	
620.625	0.4205282985	-0.3623498999	
621.25	-0.2318160957	-0.3129410128	
621.875	-0.4482310436	-0.3482699505	
622.5	-0.4664991331	0.2297078462	
623.125	-0.1498744918	0.3254846101	
623.75	0.5355086986	0.1233293464	
624.375	-0.1603432756	0.0255061766	
625.0	0.3191458568	-0.340308846	
625.625	-0.05787287393	0.1330701437	
626.25	0.1002697112	-0.61039321	
626.875	-0.5434771657	-0.03664298888	
627.5	0.001868779015	-0.1364163808	
628.125	-0.5248693702	-0.3177991982	
628.75	-0.1102632934	-0.03832355219	
629.375	-0.09734949256	-0.5684353147	
630.0	-0.6205553413	-0.08099628493	
630.625	-0.2897423474	-0.03207993279	
631.25	-0.5500381108	0.4445024961	
631.875	0.05063035681	0.6656397542	
632.5	0.3310186395	0.3993302658	
633.125	0.33018739	0.1256308148	
633.75	0.5968490956	-0.09140319237	
634.375	-0.09327984776	-0.2582163614	
635.0	0.1960030496	-0.3607009313	
635.625	-0.545126026	-0.1522541053	
636.25	-0.1474024536	-0.07505973292	
636.875	-0.3755293367	0.5160622128	
637.5	0.2277798902	0.124317197	
638.125	-0.5077244421	-0.01725416695	
638.75	0.06217564777	0.8482821979	
639.375	0.07253848153	0.07750928443	
640.0	0.01625243397	0.8054974597	
640.625	0.8689026474	0.3669280792	
641.25	0.3554580501	-0.1656025116	
641.875	0.8387774632	-0.220545329	
642.5	-0.3832307854	-0.4394912587	
643.125	0.1178809961	-0.3006795798	
643.75	-0.691492295	-0.3411902405	
644.375	-0.03517241549	0.3135306052	
645.0	-0.6246119859	-0.01266449128	
645.625	0.1990435271	0.782592406	
646.25	0.5409265869	-0.05843276613	
646.875	-0.1531579349	0.09852592662	
647.5	0.7165271772	-0.02261904879	
648.125	-0.2267157969	0.3080908454	
648.75	1.126823851	-0.1258823249	
649.375	0.04239480288	-0.807561305	
650.0	0.603620648	0.02635022037	
650.625	0.7411158367	-1.385568582	
651.25	-0.3536625693	-0.4995323853	
651.875	0.857319149	0.3027390756	
652.5	1.069982338	-0.7156101452	
653.125	0.09203073794	-0.3644889594	
653.75	0.9450834145	-0.2336087284	
654.375	-0.4697117329	-0.9395894416	
655.0	-0.2278071231	0.04642471765	
655.625	-0.8780035674	0.0795636004	
656.25	0.5179834923	0.7328446674	
656.875	-0.2449046033	-0.1291239976	
657.5	0.2500301926	0.5322884458	
658.125	0.4018354278	0.08607639076	
658.75	0.3067409435	0.3979652804	
659.375	1.202980208	-0.4589463695	
660.0	0.1279615782	-0.7170208811	
660.625	0.5078089087	-0.4235102839	
661.25	0.7134586516	-1.095658868	
661.875	-0.1769325275	-0.607513438	
662.5	0.9133053251	0.1103393141	
663.125	0.8410300177	-0.9568544898	
663.75	-0.06748644076	-0.3947776792	
664.375	0.4301324798	-0.9140134436	
665.0	-1.061536095	-0.2543466109	
665.625	-0.3779306206	-0.1160336082	
666.25	-0.5456902622	0.8591681992	
666.875	0.5707001906	0.3140698598	
667.5	0.01743720632	0.3293470502	
668.125	0.8609112641	0.01093277075	
668.75	0.2480279917	-0.5138356909	
669.375	0.2235378831	-0.257632939	
670.0	0.2143013218	-0.6801336016	
670.625	-0.2960827936	-0.4051921362	
671.25	0.3455572815	-0.28718303	
671.875	0.317323886	-0.5853605895	
672.5	0.1851100509	-0.3037453707	
673.125	0.7983645341	-0.2069364273	
673.75	0.2731880647	-0.9239440258	
674.375	-0.1296902859	-0.1978800116	
675.0	0.2820445846	-0.7738153568	
675.625	-0.9464495566	-0.4191727542	
676.25	0.1274750477	0.2045776428	
676.875	-0.8225915763	-0.3478713634	
677.5	0.03932380758	0.4003603074	
678.125	-0.6439361488	-0.1043214542	
678.75	0.4910038918	0.9612674207	
679.375	0.01312783408	-0.0476074853	
680.0	0.5333971227	0.08482846481	
680.625	0.3514668438	-0.5159849989	
681.25	-0.272216985	-0.04105653413	
681.875	0.5323201526	0.4984027866	
682.5	0.6976281203	-0.005073736789	
683.125	0.4753952039	0.02694350661	
683.75	0.411000702	0.4806399303	
684.375	1.102520935	-0.1627819102	
685.0	0.104808049	0.09072196734	
685.625	1.055401496	0.2725639702	
686.25	0.6073341245	-0.7341549479	
686.875	0.4408761445	0.5651544928	
687.5	1.281592112	-1.616719028	
688.125	-0.7082506277	-0.1565713041	
688.75	-0.6026257346	-1.275465877	
689.375	-0.8202645239	1.390608835	
690.0	0.1961067202	0.1901093623	
690.625	0.6757631866	1.241491709	
691.25	0.6040490508	0.1243225699	
691.875	0.7791788901	1.013723937	
692.5	1.710251771	0.5735473187	
693.125	1.277168686	-0.2060614475	
693.75	1.457172441	-0.4426327218	
694.375	1.011148566	-0.8907416258	
695.0	1.275659722	-0.6424221991	
695.625	0.9348199337	-0.5266631564	
696.25	0.930325606	0.8435235341	
696.875	1.775442666	0.8997369304	
697.5	0.4294556582	0.6386557186	
698.125	1.791734638	1.177515832	
698.75	0.4915848176	-1.491786756	
699.375	0.02434259237	-1.162018092	
700.0	-1.079769799	1.424597754	
700.625	0.3599295231	0.03481642403	
701.25	0.4931335211	1.071878371	
701.875	0.5859448541	-0.05302941769	
702.5	0.5199406007	0.8922577394	
703.125	1.310379958	0.1808137437	
703.75	0.4674652783	-0.06415309055	
704.375	1.126895127	-0.6238390539	
705.0	0.2591443872	-0.4573468971	
705.625	0.7618876103	0.5792578605	
706.25	1.045619167	-0.258359699	
706.875	0.0313259733	0.6963806707	
707.5	1.068010947	1.330503159	
708.125	0.8102366679	-0.2474027831	
708.75	1.154370473	-0.5239085358	
709.375	-1.09350815	-0.7821235131	
710.0	-0.2148315481	0.2410324715	
710.625	0.05825030904	0.6761760182	
711.25	0.284843705	0.03081454219	
711.875	0.4282183692	0.4417228493	
712.5	0.7522945447	-0.1230477348	
713.125	0.8273120543	-0.2852277477	
713.75	0.08942540567	-0.7863460712	
714.375	0.2693412337	-0.251059728	
715.0	-0.356970926	-0.9079158305	
715.625	-0.08463958373	-0.05766548604	
716.25	1.057460561	-0.7845793107	
716.875	-0.02598958935	-1.151275813	
717.5	0.9839026888	1.052862579	
718.125	3.080439467	-0.3035967399	
718.75	0.1614950696	-1.459679875	
719.375	3.43512753	0.765866076	
720.0	0.204106723	-3.893919925	
720.625	0.6239233825	-1.294232635	
721.25	0.6724191696	-2.900787498	
721.875	-1.804926162	-2.633333805	
722.5	-0.3141367667	-1.692320279	
723.125	-2.569961104	-0.6221857261	
723.75	-0.629289914	1.342444065	
724.375	-0.1790817566	0.7393196247	
725.0	0.2813575361	1.264001317	
725.625	1.054476268	1.025736423	
726.25	0.0244878951	0.8816373014	
726.875	-1.0461399	2.885231636	
727.5	1.444204522	4.647789275	
728.125	-1.103562359	1.015483942	
728.75	-4.462019594	15.12398236	
729.375	4.927770176	8.549127104	
730.0	-8.36509892	5.400619883	
730.625	10.85700909	34.07043497	
731.25	2.454889566	-1.539163955	
731.875	-13.72727595	3.727185386	
732.5	-12.22305899	5.012666989	
733.125	-3.352018702	3.599852214	
733.75	-4.577682667	1.674908409	
734.375	3.189038101	0.454915554	
735.0	-0.09140472567	-0.8562434226	
735.625	-1.739189583	-0.6027610986	
736.25	1.166735987	1.476585803	
736.875	-0.2836287875	1.179892942	
737.5	3.69049271	1.169230253	
738.125	4.646847467	-2.517874967	
738.75	0.1724179381	-4.545444909	
739.375	8.768620464	3.606711418	
740.0	14.00365466	-17.44899311	
740.625	-7.413697519	-1.645068151	
741.25	20.75873176	27.67013182	
741.875	9.679788327	6.638357092	
742.5	4.022427152	-20.38804806	
743.125	-8.738235118	-9.116428336	
743.75	-0.8346557166	0.09982138278	
744.375	-0.3456907273	-1.898531349	
745.0	0.6765356571	0.7308314766	
745.625	-0.07994035882	0.3122915013	
746.25	-0.06196699975	-0.6148409007	
746.875	-0.3303010006	0.09065367326	
747.5	-0.5712020371	0.6908103746	
748.125	0.4597424786	1.549349859	
748.75	0.6435381034	0.6371235037	
749.375	-0.8259181258	1.668475957	
750.0	-1.041424324	-0.08626462457	
