!Created with skrf (http://scikit-rf.org).
# GHz S RI R (50+0j) 
!freq	ReS11	ImS11	
500.0	0.1485757313	-1.015995682	
500.625	0.291462029	-1.045169399	
501.25	-0.3914356463	-0.6859524066	
501.875	-0.3094751703	-0.4606228627	
502.5	-0.04550951335	-0.1429210605	
503.125	-0.07375037204	0.003540388267	
503.75	0.01254610982	0.08340552752	
504.375	0.02780960841	-0.005802864138	
505.0	0.02037821924	-0.02149645275	
505.625	-0.002258549359	-0.05077335019	
506.25	-0.06831505294	-0.06110552996	
506.875	-0.13748976	0.00774853915	
507.5	-0.05778719883	-0.3479822766	
508.125	0.1501355469	-0.6720855567	
508.75	0.5559848932	-0.9582907655	
509.375	-0.2292051569	-1.329095214	
510.0	-0.3316475128	-0.4456559803	
510.625	-0.1072776881	-0.2402625102	
511.25	-0.0589457536	-0.05409042411	
511.875	-0.1184572465	-0.03915546832	
512.5	-0.02249384991	0.0253043496	
513.125	-0.00709029432	-0.06809608866	
513.75	-0.04840422077	-0.05771907128	
514.375	-0.06820399506	-0.02534194056	
515.0	0.006950457531	-0.05210081628	
515.625	-0.004417193765	-0.395208497	
516.25	-0.3305189942	-0.688551061	
516.875	-0.182543515	-0.4642001843	
517.5	-0.04246777145	-0.1547287202	
518.125	-0.02682304521	-0.03098068998	
518.75	-0.03503551341	-0.1291426689	
519.375	-0.0519308713	0.04061046265	
520.0	0.1074411337	0.06172796508	
520.625	0.1598884398	-0.05454943168	
521.25	-0.0111758271	-0.2580461082	
521.875	-0.1494302337	-0.02538578356	
522.5	-0.04736937961	0.02419693643	
523.125	-0.06135182591	0.03135940438	
523.75	-0.1090991366	-0.01342037723	
524.375	-0.1546781077	0.03134171153	
525.0	-0.04783941906	0.1340739871	
525.625	0.03562600202	0.04659051973	
526.25	-0.01258156206	-0.01348498704	
526.875	-0.0503160582	0.05313364864	
527.5	-0.0426022388	0.1861226801	
528.125	0.05931029472	0.2572159694	
528.75	0.03280090967	0.215787765	
529.375	0.03787142048	0.06368415664	
530.0	0.03143964458	0.1470036118	
530.625	0.09595806346	0.2852772648	
531.25	0.4057695398	0.1223188035	
531.875	0.2282103862	-0.1613419351	
532.5	-0.04958838669	-0.1083123446	
533.125	0.06609378057	-0.04776153493	
533.75	0.1068037133	-0.1734541256	
534.375	-0.06748482042	-0.2869690922	
535.0	-0.2374841197	-0.11992598	
535.625	-0.1713472902	0.1032981776	
536.25	-0.003631538438	0.09602266641	
536.875	0.09717215344	0.01618246659	
537.5	0.06836315382	-0.04217972431	
538.125	0.112782265	-0.06618060589	
538.75	0.1299951125	-0.1244040789	
539.375	-0.07846734809	-0.1654643957	
540.0	-0.1687397326	-0.1562117573	
540.625	-0.1662278302	-0.02408560712	
541.25	-0.0926703562	0.004369192639	
541.875	-0.0446879409	-0.02612365507	
542.5	-0.04482704397	-0.05350876182	
543.125	-0.08319952113	-0.04868756913	
543.75	-0.08542530512	-0.009563701779	
544.375	-0.04923379868	0.04464383789	
545.0	-0.00706233933	0.0592190565	
545.625	0.05383741144	0.06350489921	
546.25	0.09760184046	0.04257420743	
546.875	0.1213902368	-0.02516325204	
547.5	0.07300503203	-0.1280485929	
548.125	-0.04455355463	-0.1657000637	
548.75	-0.1259005651	-0.1222417872	
549.375	-0.1155245631	-0.06913943928	
550.0	-0.07915440904	0.004043200427	
550.625	-0.05194236723	0.007976384621	
551.25	-0.0806004862	0.02826611934	
551.875	-0.07512083336	0.07042712756	
552.5	-0.04865532293	0.07816726069	
553.125	-0.01503417432	0.064404156	
553.75	0.04707055698	0.05122284216	
554.375	0.09989304151	0.0003294739809	
555.0	0.1055138255	-0.07231814839	
555.625	0.09344755616	-0.1129948045	
556.25	0.07027631704	-0.1478086498	
556.875	-0.03600644937	-0.1694276052	
557.5	-0.1044357913	-0.1131305578	
558.125	-0.1229551035	-0.04145615057	
558.75	-0.1161734154	-0.003773851886	
559.375	-0.1189597529	0.02222677798	
560.0	-0.1028299595	0.07966952394	
560.625	-0.05382963205	0.1166476082	
561.25	0.00557691717	0.1058154881	
561.875	0.03106840391	0.04862937568	
562.5	0.01008312283	0.05583808161	
563.125	0.07063517672	0.07907393185	
563.75	0.1491917637	0.006898431835	
564.375	0.138623244	-0.09940660087	
565.0	0.07802017042	-0.15422014	
565.625	-0.02968051955	-0.1645918073	
566.25	-0.1182511987	-0.1166094917	
566.875	-0.1466367005	-0.08252692003	
567.5	-0.1453235893	-0.111455126	
568.125	-0.1488244118	-0.1602056911	
568.75	-0.2354301365	-0.08409883267	
569.375	-0.2470484466	0.09911174358	
570.0	-0.1258270922	0.2097364525	
570.625	-0.05444021388	0.180629942	
571.25	0.003252482635	0.1192177731	
571.875	0.06009582883	0.08171540791	
572.5	0.1340121581	-0.002110289826	
573.125	0.09105831958	-0.1152056891	
573.75	0.04586916301	-0.1139375395	
574.375	0.01675146325	-0.07198485365	
575.0	0.03059150509	-0.04349216292	
575.625	0.03779879282	-0.07424979667	
576.25	0.04808329176	-0.1112124946	
576.875	-0.0002657124173	-0.1495635126	
577.5	-0.003968307327	-0.1699436246	
578.125	-0.05148419222	-0.1656718554	
578.75	-0.08755783958	-0.1233522694	
579.375	-0.08654947567	-0.06811085634	
580.0	-0.05751536645	-0.0363423412	
580.625	-0.07289330373	-0.02614481064	
581.25	-0.1064695618	0.07248161396	
581.875	-0.0006183219254	0.1636264212	
582.5	0.06024529809	0.1493796822	
583.125	0.08443782274	0.07533089717	
583.75	0.0374278825	0.02087737434	
584.375	0.03518385273	0.06657656743	
585.0	0.1162444363	0.06027794405	
585.625	0.1581205031	-0.001631840588	
586.25	0.1555397532	-0.05955708782	
586.875	0.08315450313	-0.1408184819	
587.5	-0.0140964521	-0.1490671759	
588.125	-0.01958941588	-0.1401010056	
588.75	0.03533942924	-0.1476942335	
589.375	0.06683864903	-0.1645515562	
590.0	-0.06252140012	-0.1832518177	
590.625	-0.1873178567	-0.04623919678	
591.25	-0.1346523457	0.1087013347	
591.875	-0.03809431108	0.1218181069	
592.5	0.008946029457	0.05421579618	
593.125	-0.02737228262	0.05126746037	
593.75	0.05294423711	0.1222888911	
594.375	0.1549411632	0.1046617685	
595.0	0.1795367592	0.1005779103	
595.625	0.1822661022	0.07770101257	
596.25	0.1691671596	0.03787813468	
596.875	0.1633261159	0.03377392281	
597.5	0.1510210889	0.08141260461	
598.125	0.152730721	0.1160544372	
598.75	0.1817962213	0.08907820197	
599.375	0.2213617999	-0.03098760108	
600.0	0.1744465321	-0.1489207945	
600.625	0.1397254407	-0.186649403	
601.25	0.06154451321	-0.2008045198	
601.875	-0.0821921805	-0.1492711557	
602.5	-0.1363437538	-0.02025688607	
603.125	-0.1177358515	0.04865084973	
603.75	-0.1126407489	0.0763758203	
604.375	-0.1006149647	0.08195474214	
605.0	-0.07068677101	0.08372708324	
605.625	-0.07079914088	0.06783729866	
606.25	-0.1131027742	0.06860297763	
606.875	-0.171909398	0.09356579298	
607.5	-0.1622314438	0.187929403	
608.125	-0.02920023389	0.2611926644	
608.75	0.1893468194	0.1835517797	
609.375	0.2505091285	-0.0319266514	
610.0	0.1804248251	-0.1279438537	
610.625	0.09178456729	-0.1712825996	
611.25	0.006204035364	-0.1731467495	
611.875	-0.09407087944	-0.1357766033	
612.5	-0.1782813952	-0.06553743698	
613.125	-0.2016557583	0.0453101617	
613.75	-0.09404721735	0.1584980881	
614.375	0.05565575587	0.116478709	
615.0	0.05103383233	0.04563109891	
615.625	0.006733216055	0.08581151268	
616.25	-0.03299154675	0.1480227374	
616.875	-0.07424845146	0.2019833447	
617.5	-0.06638792018	0.2399588176	
618.125	-0.02078148841	0.230613294	
618.75	0.02451915534	0.2081381863	
619.375	0.09795077983	0.1782951361	
620.0	0.1999096562	0.0601746333	
620.625	0.1264121237	-0.1551751101	
621.25	-0.08212395098	-0.1944613636	
621.875	-0.2078773169	-0.09643892798	
622.5	-0.2230092935	0.05832941313	
623.125	-0.04456359391	0.1893357426	
623.75	0.1340886107	0.04539449151	
624.375	0.03918409272	-0.05674868733	
625.0	0.03987641964	-0.02389368384	
625.625	0.05252108122	-0.09005084768	
626.25	-0.04814067564	-0.1411361122	
626.875	-0.1450223465	-0.08649675923	
627.5	-0.1527510422	-0.0391787681	
628.125	-0.1179357782	-0.06789754109	
628.75	-0.0801002869	-0.1267309515	
629.375	-0.1000393092	-0.1602121184	
630.0	-0.1995241767	-0.1075073103	
630.625	-0.2402999013	0.06584028072	
631.25	-0.1608532597	0.2028761093	
631.875	-0.03547293009	0.2627068902	
632.5	0.1449607606	0.2165158855	
633.125	0.2211736252	0.06863304018	
633.75	0.1853414451	-0.06332955058	
634.375	0.07648292185	-0.1443482995	
635.0	-0.008853107795	-0.162325388	
635.625	-0.1507065535	-0.1013907329	
636.25	-0.1691167678	0.071946896	
636.875	-0.07043568754	0.1316906575	
637.5	-0.0381735628	0.09091074442	
638.125	-0.07326662655	0.0858310412	
638.75	-0.08405543348	0.1693545899	
639.375	-0.01446040122	0.2654597923	
640.0	0.1373188479	0.2663288795	
640.625	0.2498272257	0.168500764	
641.25	0.2948505805	0.007330972595	
641.875	0.1886562878	-0.1871199353	
642.5	0.0003409963513	-0.2208797267	
643.125	-0.1132665676	-0.1314792163	
643.75	-0.1334065821	-0.09240884036	
644.375	-0.1939395534	-0.01126632632	
645.0	-0.159563755	0.1635395882	
645.625	0.0518089775	0.2214149269	
646.25	0.1621484969	0.08559780052	
646.875	0.1073880492	-0.005887863508	
647.5	0.06341096117	0.03232513669	
648.125	0.1570481442	0.05957160361	
648.75	0.2761578621	-0.05137218723	
649.375	0.2524136967	-0.2451831753	
650.0	0.1764622887	-0.3213994354	
650.625	0.1576184276	-0.2955431957	
651.25	0.2049822468	-0.2314226888	
651.875	0.2737413419	-0.1539070473	
652.5	0.3061439671	-0.08663525386	
653.125	0.2949866139	-0.1055945419	
653.75	0.2187015198	-0.2308347763	
654.375	-0.03538521423	-0.319319619	
655.0	-0.2795850441	-0.1246890095	
655.625	-0.2029880377	0.1649387769	
656.25	0.01060441775	0.1891930265	
656.875	0.05229318192	0.08611117943	
657.5	0.03607824735	0.1047416485	
658.125	0.1337836777	0.1706971677	
658.75	0.2925765353	0.1052155245	
659.375	0.345617832	-0.1183378635	
660.0	0.2596534103	-0.2866545811	
660.625	0.1680759063	-0.3349448936	
661.25	0.1916181153	-0.3034916508	
661.875	0.2443168007	-0.2591090279	
662.5	0.2920766099	-0.1967130841	
663.125	0.2941110542	-0.1831918095	
663.75	0.198185771	-0.2884700162	
664.375	-0.01246902779	-0.357804549	
665.0	-0.2644434488	-0.2482975885	
665.625	-0.343166305	0.05739804718	
666.25	-0.1379210415	0.2742872946	
666.875	0.09785260357	0.2341169767	
667.5	0.1896369723	0.1207961261	
668.125	0.2380318119	0.005951951107	
668.75	0.2183665426	-0.1363637735	
669.375	0.1170094822	-0.2321275938	
670.0	0.01743175538	-0.2376207298	
670.625	0.01114606026	-0.2031167771	
671.25	0.06395337392	-0.182660468	
671.875	0.143882042	-0.1701137308	
672.5	0.2128002825	-0.141909754	
673.125	0.224700653	-0.1625875731	
673.75	0.1838221095	-0.2109086401	
674.375	0.08335346615	-0.2655713114	
675.0	-0.06715205196	-0.264638129	
675.625	-0.1929996242	-0.1565678268	
676.25	-0.1912751027	-0.0404773504	
676.875	-0.1491228974	-0.005822023624	
677.5	-0.1620417788	0.002902784158	
678.125	-0.1702278556	0.1306228847	
678.75	0.008606277953	0.2421588656	
679.375	0.2057693559	0.1032916515	
680.0	0.1672946269	-0.07542759998	
680.625	0.07916919526	-0.08445585993	
681.25	0.09030782046	-0.008742357251	
681.875	0.1546453837	0.06390745058	
682.5	0.2117664149	0.1010949454	
683.125	0.2465681458	0.09527282702	
683.75	0.2675830208	0.09297755497	
684.375	0.2894216597	0.06071542224	
685.0	0.2868435269	0.05883502689	
685.625	0.3014604864	0.03485900159	
686.25	0.3160741684	-0.01654334606	
686.875	0.330815472	-0.1160397062	
687.5	0.307462486	-0.2714940205	
688.125	0.03243622949	-0.4600641768	
688.75	-0.3969801396	-0.2570549286	
689.375	-0.3519049697	0.2797572357	
690.0	0.06040911809	0.3848150795	
690.625	0.2193942809	0.2811777701	
691.25	0.3091147552	0.3110186861	
691.875	0.4575583693	0.3490858911	
692.5	0.6129301069	0.2504395403	
693.125	0.6858316834	0.02206230199	
693.75	0.6339264618	-0.2128849422	
694.375	0.4807603602	-0.3868133416	
695.0	0.4796669763	-0.273345201	
695.625	0.526193483	-0.05146774787	
696.25	0.5064532982	0.2201486002	
696.875	0.3881401474	0.4461960591	
697.5	0.3588973175	0.5060422983	
698.125	0.5512497776	0.3110653501	
698.75	0.5198533265	-0.3443165312	
699.375	-0.3132522385	-0.466085031	
700.0	-0.3485109767	0.2945994286	
700.625	0.09346672777	0.3246552647	
701.25	0.2117856095	0.2207998801	
701.875	0.2597225879	0.2746670871	
702.5	0.3507663758	0.2771090824	
703.125	0.4397388548	0.1485238963	
703.75	0.4141466261	-0.08954844084	
704.375	0.2998356911	-0.1941696562	
705.0	0.2492218451	-0.1386804935	
705.625	0.2668632925	0.003866876597	
706.25	0.2490682452	0.189372035	
706.875	0.2156202514	0.3122369939	
707.5	0.2376414291	0.3775184434	
708.125	0.4317376143	0.2025966635	
708.75	0.3612996058	-0.2914810995	
709.375	-0.2074447294	-0.3436212268	
710.0	-0.2380049916	0.1718558472	
710.625	0.03646181294	0.1767603223	
711.25	0.08099366231	0.1416537304	
711.875	0.2060134976	0.1516581374	
712.5	0.3273931894	0.008537488764	
713.125	0.2897458137	-0.1567351505	
713.75	0.1574295735	-0.2453158411	
714.375	0.0315398057	-0.2405037859	
715.0	-0.007933505134	-0.206448984	
715.625	0.0363571848	-0.2248874737	
716.25	0.1720777075	-0.2449020441	
716.875	0.3493366374	-0.1760270819	
717.5	0.5133659049	-0.003788014068	
718.125	0.6634701616	0.1256358112	
718.75	0.8058869523	0.003872602171	
719.375	0.8403295168	-0.3335643141	
720.0	0.5696880218	-0.7590352745	
720.625	0.3568812383	-0.8758854608	
721.25	0.1157066609	-1.029164311	
721.875	-0.1037997043	-1.086566476	
722.5	-0.5391825565	-0.8727645732	
723.125	-0.7589391649	-0.2571347842	
723.75	-0.4840461918	0.3636800851	
724.375	-0.02897003991	0.480852009	
725.0	0.1632273639	0.390933825	
725.625	0.1518523675	0.4567291685	
726.25	-0.005431041004	0.6790995705	
726.875	-0.146697513	0.9649020823	
727.5	-0.2005773403	1.390166941	
728.125	-0.1502485863	1.908022323	
728.75	-0.3464880508	2.496559934	
729.375	-1.266904415	3.452501421	
730.0	-0.4987534738	3.968649859	
730.625	-0.3167436738	3.806769283	
731.25	-1.361806709	4.144042423	
731.875	-2.979036838	2.543673093	
732.5	-3.537649794	0.4864421742	
733.125	-2.541907795	0.1269437383	
733.75	-1.08498199	1.143985504	
734.375	0.7340729824	0.6168439399	
735.0	0.1235312713	-0.6080628385	
735.625	-0.5035462434	0.02407544816	
736.25	-0.130516775	0.5384038103	
736.875	0.3762567211	0.6179666526	
737.5	1.043788407	0.2850823766	
738.125	1.481577615	-0.2974181342	
738.75	1.769810383	-1.103144503	
739.375	2.134686364	-1.489374896	
740.0	2.657336516	-1.060939808	
740.625	2.443306263	-0.005566038494	
741.25	0.4731461566	1.920989908	
741.875	-2.362493789	-0.2157579999	
742.5	-0.6828393802	-2.589496821	
743.125	0.4790234105	-1.933801259	
743.75	0.1080170615	-0.9199934838	
744.375	-0.3744893543	-0.2031293211	
745.0	0.03499210403	0.09833703958	
745.625	0.05709739668	0.003867987099	
746.25	0.005039414836	-0.1449564682	
746.875	-0.2467947197	-0.02854166739	
747.5	-0.1479337224	0.3466203777	
748.125	0.01923817066	0.5399424744	
748.75	0.2309925953	0.5012315254	
749.375	0.05373655965	0.5046872641	
750.0	-0.3784117697	0.2078707149	
