!Created with skrf (http://scikit-rf.org).
# GHz S RI R (50+0j) 
!freq	ReS11	ImS11	
500.0	-2.854081648	-4.947986476	
500.625	-0.004362589323	-1.627845226	
501.25	-0.5132395481	-2.406125712	
501.875	-1.718167811	-2.420377278	
502.5	-0.5227229638	-0.1349233279	
503.125	-0.1879943598	-0.1380550954	
503.75	0.2603597404	0.4334377849	
504.375	-0.02443819026	0.06138742868	
505.0	0.1255614016	-0.2288403067	
505.625	0.04449526632	0.1241008353	
506.25	-0.3811624263	-0.6867317767	
506.875	0.585928223	0.5790019547	
507.5	0.8033710919	-1.66346326	
508.125	-0.2328810319	-3.24492333	
508.75	-0.1291164133	-1.767495263	
509.375	1.441092311	-5.512985975	
510.0	-1.838101099	0.5555459135	
510.625	0.04262197757	-0.8459680176	
511.25	-0.6108998657	0.0454749939	
511.875	-0.07762693984	-0.1072085912	
512.5	-0.1211606091	0.1492162099	
513.125	-0.01652199036	-0.3872417751	
513.75	-0.3446790369	0.01108573857	
514.375	0.13001165	-0.3131894094	
515.0	-1.296461813	0.2310460224	
515.625	2.21069403	-1.879620558	
516.25	-3.534263875	-1.860616234	
516.875	0.6584993153	-0.0222885687	
517.5	-0.1008485017	-1.313901941	
518.125	0.09021304572	0.4026427881	
518.75	-0.06435253229	-1.042543121	
519.375	-0.09487529244	0.2298837131	
520.0	0.1539144841	0.2343527915	
520.625	0.7155080087	-0.2029485312	
521.25	-0.3487121256	-0.5982091057	
521.875	-0.172336758	-0.2809005385	
522.5	-0.214351057	0.2276848199	
523.125	-0.2246128478	-0.2125231613	
523.75	-0.2562224897	0.1996152632	
524.375	-0.3865573069	-0.244953021	
525.0	0.1609776588	0.6853361298	
525.625	-0.08009824718	-0.07770958702	
526.25	0.140361438	0.1111203921	
526.875	-0.3255921118	-0.0276577954	
527.5	0.08256653796	0.8792646178	
528.125	0.07820576623	0.3071765121	
528.75	-0.2669180093	1.109297069	
529.375	0.2432914332	-0.06057518272	
530.0	0.1999255128	1.023013995	
530.625	0.2088504534	0.3639307839	
531.25	1.455009148	0.9901245182	
531.875	0.1101413217	-0.9192413802	
532.5	0.351251573	-0.3210374071	
533.125	-0.5047401797	-0.1873453302	
533.75	0.8727614903	-0.6265380737	
534.375	-0.8303787001	-0.5464804162	
535.0	-0.2220763227	-0.4865374573	
535.625	-0.7723990532	0.5065768789	
536.25	0.1167977075	0.1474008318	
536.875	0.1900954225	0.2014221385	
537.5	0.2316783679	-0.1953807562	
538.125	0.1234170151	-0.001659747191	
538.75	0.564539698	-0.420388477	
539.375	-0.2308432916	-0.2026379661	
540.0	-0.2000726548	-0.5208557004	
540.625	-0.6120521321	0.00177909601	
541.25	-0.07593077938	0.060185893	
541.875	-0.06114357925	-0.09454459152	
542.5	-0.2395549055	-0.2156100528	
543.125	-0.0846870794	0.1245997296	
543.75	-0.2532028251	-0.2623379493	
544.375	0.03650801604	0.331619186	
545.0	-0.2412223412	0.04292601729	
545.625	0.3735553526	0.1502437262	
546.25	-0.07169016716	0.09303435982	
546.875	0.6328374668	-0.05772632126	
547.5	-0.1016801351	-0.2075785789	
548.125	0.1680288549	-0.3693885267	
548.75	-0.3999803682	-0.4688293617	
549.375	-0.3029070868	0.014821726	
550.0	-0.1339843531	-0.1855307437	
550.625	-0.1465870578	0.166889858	
551.25	-0.161959229	-0.09683824901	
551.875	-0.2387746287	0.3023087388	
552.5	-0.04882352373	0.08791177358	
553.125	-0.09970469438	0.2094183476	
553.75	0.1314140057	0.1013837462	
554.375	0.2083166857	0.03221638382	
555.0	0.2778418805	-0.1545766747	
555.625	0.2069013811	-0.2683435535	
556.25	0.1809780391	-0.3312906066	
556.875	-0.05815025689	-0.4186387366	
557.5	-0.2414804533	-0.2638768004	
558.125	-0.2638351865	-0.1049186036	
558.75	-0.2655413429	-0.05531994335	
559.375	-0.2875397679	0.06550914454	
560.0	-0.1984450358	0.1362292604	
560.625	-0.2072804243	0.2511995191	
561.25	0.08292674099	0.2824063265	
561.875	-0.02536043842	0.05120677109	
562.5	0.1282575043	0.1914438238	
563.125	0.01936410012	0.1458956348	
563.75	0.4648468541	0.08133667994	
564.375	0.1840382829	-0.3324030892	
565.0	0.2432182586	-0.161869174	
565.625	-0.04793254681	-0.5243095663	
566.25	-0.3295217265	-0.1550062273	
566.875	-0.1578346627	-0.2388114251	
567.5	-0.4549516931	-0.4090047674	
568.125	-0.3093648051	-0.1820979769	
568.75	-0.5026613729	-0.4999051458	
569.375	-0.6242574797	0.3931381691	
570.0	-0.2347322996	0.2252929987	
570.625	-0.5234234508	0.4895636299	
571.25	0.355419937	0.3503669261	
571.875	-0.2477904597	0.2576853438	
572.5	0.6381287307	-0.07995730226	
573.125	-0.08291545248	-0.1590727093	
573.75	0.4455839451	-0.1043070651	
574.375	-0.208367221	-0.379486029	
575.0	0.2692545255	0.1813418252	
575.625	-0.03675051514	-0.4527560679	
576.25	0.02064817775	0.09415811953	
576.875	0.286262223	-0.5546200277	
577.5	-0.2013307209	-0.5336582574	
578.125	-0.1116939497	-0.1434614113	
578.75	0.05445136895	-0.3763710797	
579.375	-0.4054713164	-0.340928279	
580.0	0.0435348545	0.1633461291	
580.625	-0.336711925	-0.3075815601	
581.25	-0.002580997923	0.283141371	
581.875	-0.2997704167	0.1874793615	
582.5	0.1906198413	0.6948783566	
583.125	0.3445748465	-0.1696885214	
583.75	-0.2603333923	0.3403601314	
584.375	0.4969318956	-0.1386013014	
585.0	-0.1578232047	0.3351308894	
585.625	0.7339448698	0.02371830221	
586.25	0.08873762573	-0.2817562297	
586.875	0.481201219	-0.0790550623	
587.5	-0.230817522	-0.5689954999	
588.125	0.03683468276	-0.005455448553	
588.75	0.3929499413	-0.4576791659	
589.375	0.004723120239	-0.5400061407	
590.0	0.1277500482	-0.2254479836	
590.625	-0.491390021	-0.3489094297	
591.25	-0.283643966	0.3840264384	
591.875	-0.07111733445	0.1103179612	
592.5	-0.1241359396	0.2478831167	
593.125	-0.0106648097	-0.08956577229	
593.75	0.0711679243	0.5422091482	
594.375	0.4785536697	0.0659376611	
595.0	0.03957625867	0.1880784691	
595.625	0.5010974152	0.7098941861	
596.25	0.4563671497	-0.3513819262	
596.875	0.08506198211	0.4813981742	
597.5	0.6908654573	0.2283877798	
598.125	0.01626319909	0.08311614286	
598.75	0.619622792	0.6044862458	
599.375	0.3454115622	-0.2964291017	
600.0	0.4361178098	-0.01367937204	
600.625	0.5855615079	-0.479184478	
601.25	0.02757336068	-0.4977143721	
601.875	0.02283778443	-0.2838154453	
602.5	-0.3358360398	-0.09679178609	
603.125	-0.3412899451	0.07078029893	
603.75	-0.1293902455	0.1687884645	
604.375	-0.3303027278	0.01837191021	
605.0	-0.1607652277	0.3105231317	
605.625	-0.1565967075	-0.06468394649	
606.25	-0.4086942647	0.3213768358	
606.875	-0.1497566602	0.0491805398	
607.5	-0.8728841698	0.2655992697	
608.125	0.337345579	0.7042490511	
608.75	-0.06030561855	0.4131442023	
609.375	0.9508209926	0.02838976535	
610.0	0.02953142826	-0.2694787403	
610.625	0.6132415688	-0.2815809958	
611.25	-0.2274265934	-0.3933661246	
611.875	0.1818304083	-0.3035899988	
612.5	-0.7384295223	-0.104115487	
613.125	-0.1245729977	-0.1234677518	
613.75	-0.5022391342	0.4193343592	
614.375	0.3276648184	0.04819618035	
615.0	-0.08612552526	0.4609187293	
615.625	0.1974495209	-0.1068759273	
616.25	-0.4586924575	0.3074954634	
616.875	0.0107265102	0.740519888	
617.5	-0.1959793069	0.0843790674	
618.125	-0.21120737	0.8089650925	
618.75	0.283623939	0.3155271441	
619.375	-0.1037392306	0.4545372368	
620.0	0.6221121864	0.05128740255	
620.625	0.2678308493	-0.1652072683	
621.25	-0.2333127024	-0.5484680986	
621.875	-0.3042021181	-0.1741310484	
622.5	-0.7176685394	0.01342770352	
623.125	0.1121095615	0.3285912817	
623.75	0.1381889229	0.3666328253	
624.375	0.0647817841	-0.4372275393	
625.0	0.2043350642	0.3049995727	
625.625	-0.003853725354	-0.6481593149	
626.25	0.142353781	0.05624489183	
626.875	-0.4296962318	-0.5721057522	
627.5	-0.4205053175	0.1756842981	
628.125	0.07524246364	-0.2726507619	
628.75	-0.4525535658	-0.4586960518	
629.375	-0.01468316423	-0.1712292479	
630.0	-0.4344565975	-0.5134673426	
630.625	-0.6113053136	0.2947156924	
631.25	-0.1990923533	0.2568142597	
631.875	-0.3225543018	0.5884004397	
632.5	0.3433501479	0.5383204429	
633.125	0.5180003817	0.08962243222	
633.75	0.2459463554	0.0007880861115	
634.375	0.335895721	-0.5138524544	
635.0	-0.04777032864	-0.08434429206	
635.625	-0.314829687	-0.4756882669	
636.25	-0.3612285565	0.3605962149	
636.875	-0.1263269074	-0.09233608737	
637.5	-0.3046150785	0.6228090133	
638.125	0.2128055667	-0.05970608224	
638.75	-0.6837653026	0.2929072815	
639.375	0.2252002542	0.8914167372	
640.0	0.3524707821	0.2555756966	
640.625	0.2641695471	0.718963328	
641.25	0.951589051	-0.1405955857	
641.875	0.1905897278	-0.1166276835	
642.5	0.3043671784	-0.9005619088	
643.125	-0.3673315373	0.169325498	
643.75	-0.01215076339	-0.4843339627	
644.375	-0.7938803879	0.07529033064	
645.0	-0.08877415718	0.4232910633	
645.625	-0.0927633592	0.1885646478	
646.25	0.4199105923	0.7024926888	
646.875	0.2799929578	-0.5014358901	
647.5	-0.08801924572	0.5236741803	
648.125	0.6701783899	-0.3083952466	
648.75	0.1837219064	0.4710486812	
649.375	0.9983523089	-0.9454650105	
650.0	-0.1932614632	-0.714898045	
650.625	0.7023600614	0.02957801046	
651.25	1.054332907	-1.224929405	
651.875	-0.2118362719	-0.5585544947	
652.5	0.6975196668	0.4402462753	
653.125	1.084731913	-0.5136003157	
653.75	-0.02483162139	-0.4506563193	
654.375	0.5559415427	-0.8563032732	
655.0	-1.039904602	-0.05761037011	
655.625	-0.02592214391	0.2075290532	
656.25	-0.4726274329	0.5295108942	
656.875	0.6368442505	0.1393692676	
657.5	-0.4534375512	0.2705535975	
658.125	0.6093011306	0.561485486	
658.75	0.6210580564	-0.01541947531	
659.375	0.5108972575	0.006765350938	
660.0	1.10571985	-0.8881426366	
660.625	-0.2204350744	-0.7782705555	
661.25	0.6405068603	-0.223628622	
661.875	0.8973274343	-0.9054367276	
662.5	0.06470054782	-0.748274139	
663.125	0.8244239023	0.264153251	
663.75	0.4065825319	-1.232658633	
664.375	-0.156348131	-0.2753953144	
665.0	-0.4360915885	-1.025292767	
665.625	-0.757688927	0.6512612268	
666.25	-0.3544544482	0.1555223865	
666.875	0.1872992261	0.8306267912	
667.5	0.6189976876	0.01060025625	
668.125	0.1418205512	0.1314499679	
668.75	0.8516198226	-0.2605752939	
669.375	0.01101626923	-0.644237042	
670.0	0.08171623218	-0.3150468165	
670.625	0.1747857095	-0.6210080459	
671.25	-0.1681445746	-0.3442486017	
671.875	0.59911055	-0.3462636123	
672.5	0.4330866053	-0.5167444329	
673.125	0.2532555753	-0.3267744323	
673.75	0.6670816481	-0.1242744362	
674.375	0.2013522361	-1.235991614	
675.0	-0.5039921352	0.04124701161	
675.625	-0.0170583685	-0.8048756161	
676.25	-0.8776532829	0.07880543781	
676.875	0.2250438217	-0.03315092158	
677.5	-1.017194974	0.0614431545	
678.125	0.2085322471	0.1381426264	
678.75	-0.4828733099	0.6138005598	
679.375	1.111315314	0.1081535679	
680.0	-0.2037370167	-0.1649543878	
680.625	0.4673024532	0.08891353344	
681.25	0.3663626629	-0.3020781964	
681.875	0.1422659271	-0.05253262729	
682.5	0.2357378455	0.4157232521	
683.125	0.9686333659	0.3175759845	
683.75	0.4563117018	-0.1471733441	
684.375	0.4273678462	0.5151741507	
685.0	1.203833134	-0.09126060578	
685.625	0.09255792796	0.201023862	
686.25	1.323402279	0.08887548689	
686.875	0.2821410225	-0.8280782795	
687.5	0.779618814	0.2041659147	
688.125	0.1792232872	-2.045832818	
688.75	-0.7176152137	0.4409380815	
689.375	-1.263159506	-0.02798862852	
690.0	0.6570502035	1.149175887	
690.625	0.08901904193	0.2793235721	
691.25	1.093161131	1.157452479	
691.875	0.865166593	0.3075696669	
692.5	1.268612748	0.85252026	
693.125	1.763986675	-0.06904003789	
693.75	1.163068805	-0.5691258279	
694.375	1.185012341	-0.8842900802	
695.0	0.9151434209	-0.6035636335	
695.625	1.580501128	0.01039959907	
696.25	1.05476988	-0.1190750354	
696.875	0.3857891684	1.420709641	
697.5	1.899436149	1.04171733	
698.125	0.4773817815	0.5108460193	
698.75	2.024201306	-1.045363865	
699.375	-1.494825983	-0.4865287393	
700.0	-0.8528596594	-0.2118574597	
700.625	0.7553764938	1.313777602	
701.25	0.02713864561	0.09888079479	
701.875	0.85755203	1.232216974	
702.5	0.7181147634	-0.02843971159	
703.125	0.8897149222	0.8220753201	
703.75	1.109590242	-0.6047551274	
704.375	0.3020361944	0.03721795486	
705.0	1.114456716	-0.6696561415	
705.625	0.1155401059	-0.2089335893	
706.25	0.5559672768	1.104104784	
706.875	1.186545972	0.3119792785	
707.5	0.02969164151	0.863049999	
708.125	1.578817791	0.6306050074	
708.75	0.2102751913	-0.9167626285	
709.375	-0.1781918307	-1.125617633	
710.0	-0.5454453757	1.000486344	
710.625	-0.08296727157	0.07778240418	
711.25	0.4286467089	0.5229992516	
711.875	0.3916360998	0.2386371319	
712.5	0.8097907369	-0.07808762419	
713.125	0.4040695391	-0.2632656673	
713.75	0.7598503468	-0.6443049827	
714.375	-0.4090108144	-0.6910496932	
715.0	0.4675063199	-0.1143501359	
715.625	-0.3746382788	-1.100803839	
716.25	0.1436527815	0.0720583189	
716.875	1.712619872	-0.3809177546	
717.5	0.6397356875	-1.375011476	
718.125	1.15208389	2.056928228	
718.75	3.504428164	-1.126782783	
719.375	0.2329748581	-1.409466378	
720.0	3.084021089	-0.5486598246	
720.625	0.6824877183	-4.292951723	
721.25	-0.3823327738	-1.179270113	
721.875	0.138914763	-3.180852969	
722.5	-2.363883244	-2.01789387	
723.125	-0.9518574586	-0.390020901	
723.75	-1.671463233	1.25162046	
724.375	0.5084295444	0.9829176132	
725.0	0.09999134871	0.7307699495	
725.625	0.1396946526	1.36920335	
726.25	0.8102830755	2.149896808	
726.875	0.2035694899	0.8344373157	
727.5	-2.683870692	4.093918671	
728.125	0.9383379717	7.523247201	
728.75	-0.2160084449	0.7362951346	
729.375	-6.670037253	15.39049273	
730.0	8.06916297	6.89196624	
730.625	-7.990467124	6.718551252	
731.25	-5.485130576	21.78426597	
731.875	4.114722913	4.421509612	
732.5	-12.55863191	-3.384335241	
733.125	-8.129475883	2.765845299	
733.75	-0.7851785125	3.40123227	
734.375	0.4455800468	2.516206916	
735.0	-0.659460416	-2.559641928	
735.625	-0.3218189653	-0.09570791758	
736.25	-0.9347224964	1.512512416	
736.875	1.891814495	1.674992445	
737.5	1.565610357	-0.9354838339	
738.125	4.002217055	2.039855703	
738.75	7.708966871	-5.045472223	
739.375	-0.3841270827	-6.497660754	
740.0	10.53955414	9.646208962	
740.625	14.06601622	-13.39028788	
741.25	-12.12755272	-3.342254458	
741.875	-17.9883594	13.34539832	
742.5	-0.9233049971	9.005251764	
743.125	12.40476761	-4.555027437	
743.75	-1.059176746	-6.682563468	
744.375	-0.873015466	0.5733928785	
745.0	-0.3311276438	0.01743378521	
745.625	0.3195203836	-0.2883689152	
746.25	0.1358873831	-0.2205549882	
746.875	-1.024601844	0.1028726043	
747.5	-0.02406062223	0.7491067762	
748.125	-0.2868035278	1.201190084	
748.75	1.285064043	1.668876084	
749.375	0.5973991187	1.053518918	
750.0	-1.08483905	1.393762229	
