!Created with skrf (http://scikit-rf.org).
# GHz S RI R (50+0j) 
!freq	ReS11	ImS11	
500.0	2.076914138	-2.827583424	
500.625	-1.634686079	-3.022818823	
501.25	-1.531694695	-2.454520967	
501.875	-1.605925151	-0.3120410861	
502.5	-0.08693140231	-0.3081563674	
503.125	-0.3044379585	0.01402886867	
503.75	0.3482262914	0.1689198395	
504.375	0.002256966404	0.07270703117	
505.0	0.1048661588	-0.1660676794	
505.625	-0.06224782937	0.05828635699	
506.25	-0.226223848	-0.4923723983	
506.875	0.546021154	0.1016261064	
507.5	-0.8972450829	-2.083712496	
508.125	-0.9643675907	-0.3087939539	
508.75	2.772550245	-1.910353009	
509.375	-1.378076063	-4.933587845	
510.0	-1.159294152	0.1927618007	
510.625	-0.2594948241	-0.4237384562	
511.25	-0.4698873205	-0.1585480622	
511.875	-0.2676417344	0.04830640191	
512.5	-0.08919507918	0.09104298777	
513.125	-0.04702893413	-0.3315225042	
513.75	-0.1733660208	-0.08844237036	
514.375	-0.2647973553	-0.233209989	
515.0	-0.4641253677	0.969556414	
515.625	0.8242670972	-3.440568823	
516.25	-2.927460489	0.6181961747	
516.875	0.8856296682	-0.8579750591	
517.5	-0.5855639735	-1.164817595	
518.125	0.2476001072	0.1588255542	
518.75	-0.6694019965	-0.7708896208	
519.375	0.01419561509	0.1102775844	
520.0	0.2381228389	0.3384691594	
520.625	0.5114967211	-0.3672224665	
521.25	-0.217711831	-0.4060458115	
521.875	-0.4184562589	-0.2720795645	
522.5	0.02101345245	0.1534837814	
523.125	-0.3675426886	0.0462626697	
523.75	-0.05587926313	0.1642975199	
524.375	-0.5177242465	-0.171253664	
525.0	0.2981432814	0.4628325905	
525.625	-0.1423115988	0.0597192248	
526.25	0.2038707553	-0.07884664656	
526.875	-0.3540994614	0.2283951427	
527.5	0.2210013306	0.458655913	
528.125	-0.2117513462	0.5294382341	
528.75	0.2815933388	0.9949297672	
529.375	0.009016963042	-0.09286762825	
530.0	0.3343586889	0.765400297	
530.625	0.2238895254	0.3746345262	
531.25	1.449924838	0.382225072	
531.875	-0.06912274071	-0.4469564461	
532.5	0.1849438976	-0.7005893675	
533.125	-0.3859421239	0.6031480731	
533.75	0.4826929797	-1.150125605	
534.375	-0.5900676711	-0.1047803751	
535.0	-0.4175714999	-0.5667058502	
535.625	-0.3360258409	0.7459977352	
536.25	-0.07436277192	0.06821925001	
536.875	0.3751838113	0.1050502957	
537.5	0.05530546918	-0.1936084845	
538.125	0.2516134538	0.07030329159	
538.75	0.3675745662	-0.4703638553	
539.375	-0.1691668764	-0.2722922503	
540.0	-0.3336029271	-0.3343424907	
540.625	-0.4403691844	-0.02513241421	
541.25	-0.1277627672	0.02877510071	
541.875	-0.1735114032	-0.0825503179	
542.5	-0.09734558155	-0.03157136352	
543.125	-0.129972316	-0.1404167006	
543.75	-0.3385822468	0.008391300939	
544.375	0.1217766319	0.1049660002	
545.0	-0.2259386625	0.2231303299	
545.625	0.3480674334	-0.03450445795	
546.25	-0.05461623434	0.2101776443	
546.875	0.5024991271	-0.249398801	
547.5	-0.008482662986	-0.07977925193	
548.125	0.0507791333	-0.5360573238	
548.75	-0.5020660136	-0.1419010996	
549.375	-0.08270658592	-0.06806074486	
550.0	-0.300022863	-0.07713227171	
550.625	-0.0306880605	0.1398211898	
551.25	-0.2213994282	-0.03746759799	
551.875	-0.1350120239	0.2783156126	
552.5	-0.07087266834	0.1074468287	
553.125	-0.02392093991	0.2111751714	
553.75	0.09991017925	0.07559289857	
554.375	0.2301843816	0.004376172355	
555.0	0.2149466135	-0.1911634563	
555.625	0.1668308193	-0.2533739676	
556.25	0.1423665722	-0.3259736105	
556.875	-0.09832108546	-0.3844587898	
557.5	-0.2522925408	-0.2167153266	
558.125	-0.2552417549	-0.07002183084	
558.75	-0.2637985628	-0.00763973405	
559.375	-0.2333208913	0.09549869069	
560.0	-0.2137269567	0.1311405216	
560.625	-0.1204865004	0.3242446773	
561.25	0.09422932453	0.1571070197	
561.875	-0.01628706604	0.1339976983	
562.5	0.1482517041	0.1168973766	
563.125	0.03950386072	0.1243294523	
563.75	0.4241793735	0.02963455077	
564.375	0.1397766183	-0.2920900974	
565.0	0.2728178776	-0.2528498597	
565.625	-0.2231404113	-0.4042454121	
566.25	-0.1328646566	-0.1464269484	
566.875	-0.3854129869	-0.2723212606	
567.5	-0.4243099185	-0.100151769	
568.125	-0.148194778	-0.2669098678	
568.75	-0.6523063871	-0.3211684533	
569.375	-0.4577739693	0.5381668307	
570.0	-0.1365559881	0.1633449381	
570.625	-0.3702017161	0.6772362814	
571.25	0.3165223981	0.04258029876	
571.875	-0.02270138781	0.4586658618	
572.5	0.2914054273	-0.4230455045	
573.125	0.2394136059	0.151689855	
573.75	0.2476926641	-0.5996729653	
574.375	-0.2740015211	-0.09729562336	
575.0	0.3217892526	0.06823507314	
575.625	-0.1196534605	-0.4157109379	
576.25	0.1020314123	0.08629462827	
576.875	0.06456395836	-0.58473836	
577.5	-0.2804608993	-0.3077524103	
578.125	0.1189084162	-0.2081712215	
578.75	-0.2510614092	-0.5013933336	
579.375	-0.3464982703	0.06121049548	
580.0	0.1026493844	-0.09150533674	
580.625	-0.4321572798	-0.08080448617	
581.25	0.09897061514	0.1660638451	
581.875	-0.3347965256	0.2895012316	
582.5	0.4393450778	0.5842732566	
583.125	0.07021881163	-0.237178932	
583.75	0.09235025301	0.4989127203	
584.375	0.04378899744	-0.3866085976	
585.0	0.2048306652	0.5681955252	
585.625	0.5531469159	-0.2989551768	
586.25	0.01483711598	-0.1495454239	
586.875	0.4046717146	-0.2283500635	
587.5	-0.3185509925	-0.4343082936	
588.125	0.1282540368	-0.06974946401	
588.75	0.1428458129	-0.5917156339	
589.375	-0.1332185619	-0.2108379994	
590.0	0.1610052042	-0.5262891471	
590.625	-0.61455381	0.1183980625	
591.25	-0.110608881	0.2149188841	
591.875	-0.1282523513	0.1344991277	
592.5	-0.07581772105	0.3359808411	
593.125	0.05502652007	-0.1975063578	
593.75	0.1266008937	0.6436943121	
594.375	0.3938453814	-0.1197084204	
595.0	0.1024478277	0.4184312498	
595.625	0.8087560582	0.1785230925	
596.25	-0.04798820092	-0.03424798744	
596.875	0.6055674625	0.3798548693	
597.5	0.5163570264	-0.205263956	
598.125	-0.003635984293	0.2645503043	
598.75	0.5306788686	0.3299747617	
599.375	0.4096742715	-0.3049600759	
600.0	0.3425877559	-0.1418164906	
600.625	0.3920323331	-0.5890166394	
601.25	-0.02963522285	-0.2777461247	
601.875	-0.0689465991	-0.4673350912	
602.5	-0.3575580827	0.1451160127	
603.125	-0.1819475939	-0.04879504322	
603.75	-0.2480612178	0.2185796805	
604.375	-0.2802802558	0.1382635237	
605.0	0.0703666975	0.320931681	
605.625	-0.3994778568	-0.1735599994	
606.25	-0.1415440267	0.5451460523	
606.875	-0.1264102862	-0.1809204317	
607.5	-0.7329551333	0.8220481162	
608.125	0.2616404899	0.1852203947	
608.75	0.1869689054	0.6655586877	
609.375	0.7144064672	-0.5481485228	
610.0	0.1352903371	0.1043952327	
610.625	0.378029195	-0.6328265832	
611.25	-0.212537137	-0.1638307738	
611.875	-0.01982343541	-0.5018941141	
612.5	-0.4138334955	0.1868034397	
613.125	-0.3903445303	-0.1881694339	
613.75	-0.2275594684	0.6022101787	
614.375	0.03874913143	-0.12731084	
615.0	0.2820254522	0.4223046515	
615.625	-0.05822726121	-0.1726952817	
616.25	-0.3478991843	0.5454024538	
616.875	0.2347640271	0.449883677	
617.5	-0.4484815286	0.2851410628	
618.125	0.1231897535	0.7111142005	
618.75	0.09785488655	0.184554832	
619.375	0.2134441773	0.5605307111	
620.0	0.3832845889	-0.1062514164	
620.625	0.3131031195	-0.2788427006	
621.25	-0.3607141377	-0.3566681039	
621.875	-0.3036574653	-0.235522882	
622.5	-0.6534482779	0.3308715848	
623.125	0.05208552428	0.1133347794	
623.75	0.4074240215	0.3752445338	
624.375	-0.1987637011	-0.2991152955	
625.0	0.4720168641	0.05627407201	
625.625	-0.3697360183	-0.1726210601	
626.25	0.2604138558	-0.3421478757	
626.875	-0.672695819	-0.2465112706	
627.5	-0.110362685	0.1834415903	
628.125	-0.1142218897	-0.4154952265	
628.75	-0.4108243355	-0.2859046144	
629.375	-0.1100770252	-0.1823999136	
630.0	-0.4219543777	-0.3552839615	
630.625	-0.4522696772	0.3964236181	
631.25	-0.3426369791	0.2262409749	
631.875	0.0450786914	0.7364351299	
632.5	0.3758021654	0.2200580129	
633.125	0.38424022	0.1810590955	
633.75	0.4593250244	-0.1951856197	
634.375	-0.04929908273	-0.4718089568	
635.0	0.05896914858	-0.05602606662	
635.625	-0.4640086271	-0.4750181763	
636.25	-0.2158955275	0.5409031196	
636.875	-0.1857810586	-0.2162665785	
637.5	-0.0334005946	0.7074557803	
638.125	-0.04905131278	-0.2470959845	
638.75	-0.3398649227	0.7814381339	
639.375	0.507572461	0.1757253638	
640.0	-0.1625939168	0.7115798932	
640.625	0.9500893348	0.409260811	
641.25	0.4164749924	-0.3938688448	
641.875	0.1758884666	-0.1105983488	
642.5	0.2002939831	-0.7818223198	
643.125	-0.4876542979	0.1454772733	
643.75	-0.1154502316	-0.3860917412	
644.375	-0.5558890238	0.3128841886	
645.0	-0.08326569588	-0.003511623488	
645.625	0.08562168103	0.8685248946	
646.25	0.4921878171	-0.1349717809	
646.875	-0.01447919939	-0.01764146462	
647.5	0.3846339213	0.3819200712	
648.125	0.2382975649	-0.509287664	
648.75	0.4027969812	0.5700697735	
649.375	0.8623181938	-1.16062842	
650.0	-0.3946128315	-0.4889687793	
650.625	0.9459326637	-0.2505592388	
651.25	0.18125727	-1.375940048	
651.875	0.08748826552	0.2013438465	
652.5	1.268239971	-0.2155895327	
653.125	0.1568548864	-0.8114198043	
653.75	0.243989892	-0.04618310391	
654.375	-0.08459851623	-1.147287044	
655.0	-0.84690619	0.2974122626	
655.625	-0.08600734758	0.05091231995	
656.25	-0.1118880472	0.7489232294	
656.875	0.4001232361	-0.286412827	
657.5	-0.06261464941	0.5706975857	
658.125	0.6023126342	0.1728403741	
658.75	0.4306469825	-0.05772200284	
659.375	0.7664102318	0.05008862893	
660.0	0.5534350052	-1.244919525	
660.625	-0.1844161662	-0.4268232405	
661.25	0.7076840832	-0.4737156957	
661.875	0.4655785262	-1.141163802	
662.5	0.0005015388518	-0.0700176299	
663.125	1.114453403	-0.5968981805	
663.75	-0.2509506776	-0.7828754029	
664.375	0.181515231	-0.3656390312	
665.0	-0.8549265236	-0.7072741054	
665.625	-0.5447460222	0.6509402305	
666.25	-0.2188188263	0.3040076708	
666.875	0.3726521103	0.7065761402	
667.5	0.4059314021	-0.1923247931	
668.125	0.5673507963	0.3036061441	
668.75	0.2773504666	-0.6684093221	
669.375	0.0505110803	-0.256226478	
670.0	0.2450275244	-0.5651632932	
670.625	-0.1546757805	-0.6328612481	
671.25	-0.1440656863	-0.172799251	
671.875	0.5757623167	-0.1857931107	
672.5	0.4664565611	-0.7286598462	
673.125	0.03164666399	-0.2921198458	
673.75	0.7766396785	-0.5157394421	
674.375	-0.4972186823	-0.5738381225	
675.0	0.1660277031	-0.3652238657	
675.625	-0.8231276735	-0.5297466033	
676.25	-0.3044324523	0.6311717303	
676.875	-0.1962300644	-0.5388578064	
677.5	-0.6420956488	0.5172142497	
678.125	0.06677355668	0.2291563904	
678.75	-0.1661769028	0.4611628514	
679.375	0.9047318443	0.0656678053	
680.0	-0.1178672076	-0.1150097357	
680.625	0.4675703693	-0.1798617363	
681.25	-0.008212649389	-0.3672439188	
681.875	0.1823515595	0.5848309002	
682.5	0.8616528743	-0.09061338885	
683.125	0.3085387287	0.0009580677366	
683.75	0.4202771912	0.06931487268	
684.375	0.7604836669	0.5028864139	
685.0	1.011535689	-0.7096717246	
685.625	-0.1541459822	0.5426584197	
686.25	1.522504032	-0.5316127172	
686.875	-0.2902219378	-0.4150440298	
687.5	1.355915416	-0.5531630517	
688.125	-1.389254914	-1.039260228	
688.75	-0.01781772814	-0.5029701852	
689.375	-1.153188475	1.296278746	
690.0	0.874256418	0.3306959505	
690.625	0.07376448857	0.6504137988	
691.25	1.168146205	0.5885575817	
691.875	0.8640602698	0.3680872731	
692.5	1.348541133	0.563224604	
693.125	1.547527968	-0.3583773788	
693.75	1.120061614	-0.4492581739	
694.375	0.9140853094	-1.109738889	
695.0	0.8267017609	-0.5586797603	
695.625	1.346409861	-0.5382198919	
696.25	0.696891169	0.00575254353	
696.875	1.250466893	1.454870483	
697.5	1.433802679	-0.1217138261	
698.125	0.901764618	0.8753870853	
698.75	0.8294053289	-1.998198971	
699.375	-0.5604163825	0.2361409405	
700.0	-1.261169562	1.050720551	
700.625	0.9835200384	0.2628211954	
701.25	-0.04663531538	0.6232846211	
701.875	1.333989606	0.3448546519	
702.5	0.2783214091	0.3418254162	
703.125	1.291344402	0.5006130897	
703.75	0.5380288281	-0.7872432731	
704.375	0.8503364207	0.1476225743	
705.0	0.5822868568	-0.9274002652	
705.625	0.04643958647	0.1854231094	
706.25	1.300305451	0.7443589279	
706.875	0.2902329617	-0.1328913165	
707.5	0.6145776863	1.271409857	
708.125	1.445396313	-0.5858768485	
708.75	0.3048075646	-0.4706561283	
709.375	-0.893155081	-0.7577084768	
710.0	-0.04154990132	0.7755778571	
710.625	0.0964493029	0.3252331111	
711.25	0.3466406333	0.1368109171	
711.875	0.4684741813	0.1666709689	
712.5	0.7423440693	-0.1139458963	
713.125	0.476310357	-0.4322475131	
713.75	0.3044471847	-0.7603643719	
714.375	-0.2046175165	-0.2423233173	
715.0	0.3803982726	-0.7784237414	
715.625	-0.6319866818	-0.5037162144	
716.25	0.5524311341	0.1446544462	
716.875	1.594046272	-0.954497553	
717.5	-0.1987521614	-0.926567307	
718.125	2.490371943	1.098044864	
718.75	1.872218155	-2.145511745	
719.375	0.3347312797	0.4101284379	
720.0	1.7255777	-4.423937489	
720.625	-1.362583355	-0.7856337343	
721.25	0.2024100439	-2.38316111	
721.875	-0.927982258	-2.942979597	
722.5	-2.562260661	-0.7559854634	
723.125	-1.210200383	-0.2261750216	
723.75	-1.038312844	1.544688187	
724.375	0.4590356677	0.8337872805	
725.0	0.2232509299	0.7249626803	
725.625	0.5586861363	1.468120179	
726.25	0.7205834742	1.018370258	
726.875	-0.8942048508	1.761331266	
727.5	0.02948434696	4.917326859	
728.125	3.359612858	3.517562211	
728.75	-3.26819022	2.351093905	
729.375	3.378024608	16.3806848	
730.0	5.269824192	2.338876184	
730.625	-8.973330383	10.96248551	
731.25	11.38854896	12.88272835	
731.875	-5.491411673	-1.438959012	
732.5	-12.34402862	6.189774914	
733.125	-3.864622718	5.341649433	
733.75	-0.2304349455	1.465111398	
734.375	2.72561995	1.999789157	
735.0	-1.596786998	-1.412170544	
735.625	-0.5117709003	-0.01263368317	
736.25	-0.4106567924	1.661104557	
736.875	2.009371118	0.3481581645	
737.5	1.798988031	1.59862001	
738.125	4.658144873	-2.703380454	
738.75	2.040749502	-5.282723077	
739.375	0.4412854361	0.67518632	
740.0	24.98616425	1.256097831	
740.625	5.447665335	-21.30482401	
741.25	-17.95580875	2.476705514	
741.875	-18.52912559	29.66626499	
742.5	4.234248438	4.081092702	
743.125	2.996257693	-8.378280911	
743.75	-3.73273461	-1.969206782	
744.375	0.0694686341	-0.4888196878	
745.0	0.528831611	0.9947149006	
745.625	-0.2569524456	0.04296995944	
746.25	0.008023076126	-0.390152494	
746.875	-0.6532512543	0.1285050237	
747.5	0.3005976827	0.3992300635	
748.125	-0.00313373131	1.424422713	
748.75	0.9649221626	1.056087464	
749.375	1.082167656	0.9767997396	
750.0	0.1091608064	0.9157258742	
