!Created with skrf (http://scikit-rf.org).
# GHz S RI R (50+0j) 
!freq	ReS11	ImS11	
500.0	-0.2129203946	-0.8555615013	
500.625	0.5470492366	-0.6060352192	
501.25	-0.6281658448	-0.6738111766	
501.875	-0.1473729659	-0.1761593935	
502.5	0.007406131099	-0.1364273198	
503.125	-0.08443606019	0.05279550415	
503.75	0.008078067701	0.005111213036	
504.375	0.05486795008	0.001754931379	
505.0	-0.01538873851	-0.02151217491	
505.625	0.03161801349	-0.09738060207	
506.25	-0.113671573	0.03337096148	
506.875	-0.1233477442	-0.2012677337	
507.5	-0.4187674513	-0.1849690157	
508.125	0.1296175575	-0.1611765199	
508.75	0.8094974873	-0.7635224908	
509.375	-0.3793622619	-1.058353576	
510.0	-0.2792655439	-0.07087382576	
510.625	-0.04210552004	-0.1669966511	
511.25	-0.09026993644	0.03274889864	
511.875	-0.04951334769	-0.1042084449	
512.5	-0.009217084304	0.0355246945	
513.125	-0.005953484266	-0.01270409902	
513.75	-0.03296619879	-0.07722806902	
514.375	-0.1289149117	0.03026395846	
515.0	0.3307654036	0.008395840651	
515.625	-0.3431895835	-0.5616194595	
516.25	-0.2068621178	-0.002722992816	
516.875	-0.00861019144	-0.5828621536	
517.5	-0.1796202519	-0.1173128994	
518.125	0.04345436908	-0.04493822513	
518.75	-0.1484317857	-0.1070702951	
519.375	-0.01804482469	0.0131569323	
520.0	0.1226661124	0.03953104977	
520.625	0.1432327752	-0.09149607199	
521.25	-0.1191931618	-0.1511244593	
521.875	-0.08186259465	-0.04021427723	
522.5	-0.06631868342	0.016123452	
523.125	0.031973338	-0.02869834082	
523.75	-0.180419056	-0.03269590491	
524.375	-0.09307582815	0.1495405784	
525.0	-0.07354436783	0.01000903341	
525.625	0.05233996523	0.1136870661	
526.25	-0.05935002785	-0.08415860115	
526.875	-0.02985252667	0.1124187725	
527.5	-0.05491342879	0.05956288675	
528.125	-0.04271685208	0.2663451964	
528.75	0.1340652623	0.2665715764	
529.375	-0.02865300621	-0.007471436639	
530.0	0.07796250084	0.1520679019	
530.625	0.09470565363	0.1293518944	
531.25	0.2833168596	-0.0779568001	
531.875	0.2256824792	-0.2561972204	
532.5	-0.2075202519	-0.0961564784	
533.125	0.1050952115	-0.08334135525	
533.75	-0.02782082065	-0.1209181943	
534.375	-0.01497793064	-0.2821434145	
535.0	-0.3253065584	-0.06648070385	
535.625	-0.08039114443	0.08694684307	
536.25	-0.02560425963	0.09069417643	
536.875	0.1070065481	-0.01405520141	
537.5	0.02229110369	-0.01659286009	
538.125	0.152034518	-0.05169749498	
538.75	0.06402754528	-0.1295017042	
539.375	-0.01924902953	-0.1236380749	
540.0	-0.1542329698	-0.136481532	
540.625	-0.1028280079	0.02645552722	
541.25	-0.06303966874	-0.00821990096	
541.875	-0.06645492767	0.01271459519	
542.5	0.007662890133	-0.04145978222	
543.125	-0.08295976832	-0.06474725308	
543.75	-0.1151959889	0.08593161953	
544.375	-0.04687209264	-0.004454734575	
545.0	0.01059677099	0.1216093044	
545.625	0.03338105969	-0.009089561173	
546.25	0.1120885207	0.07237980768	
546.875	0.07017317385	-0.08574632353	
547.5	0.09959748017	-0.05553914253	
548.125	-0.07961952606	-0.1860928329	
548.75	-0.111269944	-0.02042458259	
549.375	-0.06621957279	-0.08299354608	
550.0	-0.1144617504	0.02848266496	
550.625	-0.007448892981	0.01136327071	
551.25	-0.09856949348	0.02330326673	
551.875	-0.03014467944	0.08087659073	
552.5	-0.03603440167	0.04086743518	
553.125	0.002175898784	0.06932329246	
553.75	0.03195301289	0.03329759635	
554.375	0.08998934968	-0.01163172348	
555.0	0.07399486916	-0.076346987	
555.625	0.06748262469	-0.09645425123	
556.25	0.05131654239	-0.1310733798	
556.875	-0.04610655518	-0.1399072867	
557.5	-0.09551730564	-0.08274471767	
558.125	-0.1055187709	-0.0287544507	
558.75	-0.102792878	0.006324113773	
559.375	-0.09008581976	0.03103659155	
560.0	-0.09400658904	0.06538275724	
560.625	-0.03423438587	0.1206769334	
561.25	0.01603650388	0.06677703922	
561.875	0.0165805025	0.06364891782	
562.5	0.03801592507	0.01534641521	
563.125	0.03788132326	0.0827324555	
563.75	0.1589055071	-0.02624037237	
564.375	0.06701278538	-0.08418572898	
565.0	0.1076883041	-0.122310765	
565.625	-0.0850058764	-0.1496142068	
566.25	-0.06728280191	-0.07553534538	
566.875	-0.1546811125	-0.1094818571	
567.5	-0.1618848087	-0.02095855486	
568.125	-0.06478331198	-0.1440918256	
568.75	-0.2864847391	-0.08042873618	
569.375	-0.09969972943	0.1564923574	
570.0	-0.1406706043	0.1107013692	
570.625	-0.02716798092	0.2439044842	
571.25	0.0296362803	0.02291907051	
571.875	0.08959197321	0.1631898037	
572.5	0.06468826434	-0.09615755584	
573.125	0.09531600346	-0.01217677925	
573.75	0.07933589152	-0.1996681022	
574.375	-0.09571477316	-0.02488358296	
575.0	0.1245025601	-0.02217101646	
575.625	-0.04853863666	-0.1050490373	
576.25	0.06969504906	-0.02036094407	
576.875	-0.0195810805	-0.2059257103	
577.5	-0.08931744987	-0.09746075514	
578.125	0.02558507987	-0.09548847228	
578.75	-0.1047319795	-0.1890578309	
579.375	-0.1641759824	0.05003390361	
580.0	0.07261519848	-0.05640410373	
580.625	-0.1768759552	0.0157772007	
581.25	0.03926558582	0.03577618079	
581.875	-0.1229425511	0.2038300738	
582.5	0.1844368612	0.1577888021	
583.125	-0.06928987125	-0.02782135714	
583.75	0.1305509764	0.1227976339	
584.375	-0.02704444595	-0.05838093425	
585.0	0.1099288694	0.1506562143	
585.625	0.1834756131	-0.1210483682	
586.25	0.02420088878	-0.06345345493	
586.875	0.1465793152	-0.1097607938	
587.5	-0.09485637137	-0.1772230343	
588.125	0.009931741442	-0.05416018402	
588.75	0.06245501716	-0.197749705	
589.375	-0.03706443196	-0.1320618137	
590.0	0.02205734801	-0.1382653044	
590.625	-0.2686638642	-0.01530351097	
591.25	-0.0009486922336	0.1248044551	
591.875	-0.07415848644	0.03920323523	
592.5	0.03518295467	0.1552934734	
593.125	-0.09643426301	-0.09953331222	
593.75	0.1182655213	0.230356654	
594.375	0.1253542862	-0.03972978605	
595.0	0.06943313367	0.1401690662	
595.625	0.26323029	-0.009673541924	
596.25	0.03296432334	-0.00867650191	
596.875	0.1730541732	0.1092936127	
597.5	0.18238973	-0.01304119571	
598.125	0.06148899834	0.1010119884	
598.75	0.1764496295	0.1252234607	
599.375	0.174379141	-0.1117518933	
600.0	0.0809462612	-0.08288417612	
600.625	0.1344082865	-0.1818658023	
601.25	-0.01534649512	-0.2014054859	
601.875	-0.03149504975	-0.06112930481	
602.5	-0.1902120548	-0.04150009722	
603.125	-0.01179030747	0.1242372008	
603.75	-0.08653956445	-0.0201554973	
604.375	-0.1661042559	0.1397516327	
605.0	0.1011385395	-0.005027204477	
605.625	-0.1578120458	-0.01150268327	
606.25	0.0064056595	0.1326532259	
606.875	-0.1126438049	-0.03063801595	
607.5	-0.1927057324	0.2369679127	
608.125	0.06800687296	0.1589817553	
608.75	0.1048994039	0.1644776467	
609.375	0.2762458084	-0.07330467922	
610.0	0.1314547106	-0.1108235487	
610.625	0.07014642217	-0.07747339769	
611.25	0.02259810251	-0.1530687286	
611.875	-0.1128840885	-0.0408564668	
612.5	-0.08198383402	-0.09004258053	
613.125	-0.2456925969	0.1018125795	
613.75	0.07069307124	0.1484926883	
614.375	-0.03838319079	0.1289342901	
615.0	0.1370595444	0.01009952895	
615.625	-0.09565327367	0.03096140125	
616.25	0.0006898782974	0.2435933709	
616.875	0.06326137456	0.1332385158	
617.5	-0.1205002092	0.1114957809	
618.125	0.002400676412	0.2941127138	
618.75	0.007840940773	0.1600073458	
619.375	0.05519755386	0.1755199242	
620.0	0.2201783034	-0.03976189118	
620.625	0.04782585417	-0.08934702288	
621.25	-0.04185114861	-0.04065815157	
621.875	-0.2188164203	-0.06636365221	
622.5	-0.1031702604	0.07943118846	
623.125	-0.07924302971	0.1090602557	
623.75	0.2184518867	0.05878785392	
624.375	-0.04044220115	-0.04374523152	
625.0	0.1070898325	-0.04971394768	
625.625	-0.05201448128	-0.0702316134	
626.25	0.01293344907	-0.1277698745	
626.875	-0.1944582246	-0.08166668317	
627.5	-0.09388611645	0.0393886767	
628.125	-0.0684235535	-0.120721564	
628.75	-0.156870692	-0.09352175683	
629.375	-0.1109469261	-0.1050250886	
630.0	-0.1851999424	-0.0930213086	
630.625	-0.2265116082	0.1108191842	
631.25	-0.04687135464	0.1824308117	
631.875	-0.07109259778	0.2012088471	
632.5	0.1927620504	0.1749934028	
633.125	0.1304303957	-0.021844053	
633.75	0.1829992114	-0.04581403366	
634.375	-0.05626592701	-0.2784062395	
635.0	0.01698533197	-0.05528709024	
635.625	-0.1885063674	-0.1371184419	
636.25	-0.05207375629	0.1693854369	
636.875	-0.05803981811	0.03067127204	
637.5	-0.06736097668	0.2022537052	
638.125	0.02234886724	0.002577350204	
638.75	-0.1353741413	0.1891391148	
639.375	0.1188214606	0.2492532259	
640.0	0.08244789498	0.08437770321	
640.625	0.2323035633	0.2009144066	
641.25	0.2897003112	-0.1328645301	
641.875	0.05603322922	-0.1225600867	
642.5	0.1055832324	-0.1946640756	
643.125	-0.2337675062	-0.08660280358	
643.75	0.0002091301007	-0.03015485582	
644.375	-0.2419655444	0.01377026829	
645.0	0.08715503425	0.2598029399	
645.625	-0.08583399507	0.08292668341	
646.25	0.2852857164	0.1227798401	
646.875	-0.01455816082	-0.1524009964	
647.5	0.1142053027	0.2388224469	
648.125	0.1948444316	-0.1451570612	
648.75	0.0902735514	0.01669236672	
649.375	0.3702944195	-0.2893979429	
650.0	-0.07604758556	-0.3497521161	
650.625	0.1489308018	-0.1098054488	
651.25	0.2799859687	-0.3368799496	
651.875	-0.01882206928	-0.2428278919	
652.5	0.2423864624	0.04843375565	
653.125	0.3392372331	-0.2589471344	
653.75	-0.009882136477	-0.2273814234	
654.375	0.02674495275	-0.2139874903	
655.0	-0.4573015295	-0.1614591688	
655.625	-0.0008086467735	0.2489193771	
656.25	-0.05792769463	0.05880953598	
656.875	0.2265327532	0.219398904	
657.5	-0.09333332319	-0.03813224851	
658.125	0.3135641754	0.3260510583	
658.75	0.2730164129	-0.1538547758	
659.375	0.15727425	-0.01362296598	
660.0	0.3503334092	-0.3153403669	
660.625	-0.145390002	-0.3692818838	
661.25	0.1337642618	-0.08733509343	
661.875	0.2806303363	-0.2998106051	
662.5	0.1165132957	-0.2927191767	
663.125	0.1977944784	-0.0500745346	
663.75	0.1585317028	-0.415477536	
664.375	-0.1533982463	-0.1703777963	
665.0	-0.168997573	-0.2317043556	
665.625	-0.3673561388	0.1660335503	
666.25	0.05249110623	0.2215229784	
666.875	0.02754194917	0.1805669395	
667.5	0.2963168969	0.08881846772	
668.125	0.09341624081	-0.0969538804	
668.75	0.2244624885	-0.0536646444	
669.375	-0.03328377097	-0.3832111418	
670.0	-0.0277262994	-0.046037297	
670.625	0.08951326764	-0.2236901452	
671.25	-0.1082412095	-0.2520616838	
671.875	0.137981967	0.05317252275	
672.5	0.3048185638	-0.2188197793	
673.125	0.04564539461	-0.2015909244	
673.75	0.1321678529	-0.1012657372	
674.375	0.05474737136	-0.3525727076	
675.0	-0.2047554787	-0.06427914304	
675.625	-0.0526042013	-0.1350220021	
676.25	-0.275870369	-0.02719211628	
676.875	-0.04690398967	0.1098934277	
677.5	-0.1487053658	-0.06808409434	
678.125	-0.1074117206	0.275466458	
678.75	0.09283128298	0.06774345405	
679.375	0.133999756	0.1657239001	
680.0	0.2094382004	-0.2312021761	
680.625	-0.1601353516	0.05047194783	
681.25	0.2771588626	0.03273949409	
681.875	0.1367105875	-0.1344016989	
682.5	-0.03613902416	0.1826580811	
683.125	0.4874794831	0.1239458799	
683.75	0.1868014279	-0.2371166317	
684.375	0.1643057718	0.2726289757	
685.0	0.4275394433	-0.01835295402	
685.625	0.129820674	-0.1588412812	
686.25	0.4222177381	0.05634190006	
686.875	0.1993586631	-0.3840686297	
687.5	0.1547016021	-0.1672093007	
688.125	0.02016221135	-0.4474358495	
688.75	-0.4421573663	0.001106877536	
689.375	-0.05839312269	0.2151011603	
690.0	-0.02820313176	0.3963308533	
690.625	0.401845269	0.1620607445	
691.25	0.1624474684	0.02774022449	
691.875	0.4265606007	0.44853155	
692.5	0.6667137544	-0.06880904636	
693.125	0.3535378347	0.1149776113	
693.75	0.6880426843	-0.2129537349	
694.375	0.05013013864	-0.5313034784	
695.0	0.3401312004	0.02013722579	
695.625	0.687784628	-0.1413427156	
696.25	0.3734349787	-0.1206936288	
696.875	0.4106337582	0.4123262376	
697.5	0.4880161238	0.3832482753	
698.125	0.4660936218	-0.07396052103	
698.75	0.3427946702	-0.3479336928	
699.375	-0.2467599113	-0.2098151252	
700.0	-0.1259157718	0.3810435774	
700.625	0.07304343011	0.1695165746	
701.25	0.3764511215	0.1665951699	
701.875	0.3252579719	-0.02343764458	
702.5	0.2368238503	0.2383559492	
703.125	0.5054465417	0.0589044927	
703.75	0.1657844957	-0.2152070347	
704.375	0.3207423229	-0.05407482438	
705.0	0.1986083526	-0.2536594748	
705.625	0.07701123663	-0.03332485598	
706.25	0.2869331343	0.2433860575	
706.875	0.3950459512	0.1218880331	
707.5	0.30914073	0.3355790912	
708.125	0.483535045	0.002017325524	
708.75	0.08730796337	-0.4153797495	
709.375	-0.1705368481	-0.1294794092	
710.0	-0.08331756739	0.04292936548	
710.625	0.1549247372	0.08296628734	
711.25	0.03304060464	0.1057139041	
711.875	0.2497726391	0.1304712154	
712.5	0.2174657633	-0.346911148	
713.125	0.1580757475	-0.05643479462	
713.75	0.1227382604	-0.3122015208	
714.375	-0.1211806316	-0.184350498	
715.0	0.08232361017	-0.1395011117	
715.625	-0.04295779334	-0.2906238138	
716.25	0.01292290613	-0.1337139581	
716.875	0.3196704677	-0.08671441907	
717.5	0.5265889845	-0.271277096	
718.125	0.3938319691	-0.07385290184	
718.75	0.7813446751	-0.1190561173	
719.375	0.3875923226	-0.7050496684	
720.0	-0.08784838878	-0.7462298197	
720.625	0.3344701936	-0.6473062429	
721.25	-0.4426695371	-1.012598251	
721.875	-0.1947912219	-0.5033877203	
722.5	-0.6469281225	-0.6599457703	
723.125	-0.894733992	0.3842434204	
723.75	-0.02875671236	0.2184497743	
724.375	-0.0006828879922	0.562403362	
725.0	0.3630290388	0.1190740741	
725.625	-0.07213184861	0.3619999204	
726.25	0.1596012905	0.8399576375	
726.875	0.3667099396	0.6248477556	
727.5	-0.2824980117	0.7686931825	
728.125	0.1686013532	2.071270026	
728.75	1.290634173	2.063099041	
729.375	-0.7764585557	1.81383977	
730.0	0.8666725799	4.304924026	
730.625	1.900936092	2.145339917	
731.25	-0.9870105852	2.174413569	
731.875	-1.75102123	3.80087376	
732.5	-1.182209017	1.874220342	
733.125	-2.030051207	0.03644072611	
733.75	-0.4553928659	1.829756958	
734.375	0.7530377118	-0.2772866707	
735.0	0.1134273976	-0.3886703979	
735.625	-0.7037704231	0.4255676917	
736.25	0.05235489873	-0.09920238776	
736.875	0.2983691109	0.7580050819	
737.5	1.21668939	-0.3009376949	
738.125	0.2323782805	-0.2194430356	
738.75	2.482560719	-0.4901276835	
739.375	1.602552915	-3.275417641	
740.0	-0.1944241479	-0.4513122533	
740.625	3.392770967	2.559277202	
741.25	4.774576707	1.086119333	
741.875	-0.6097772032	-2.981528116	
742.5	-2.690504133	-2.15916954	
743.125	-0.973802189	-0.8377019664	
743.75	0.2712292996	-0.6756586093	
744.375	-0.697593736	-0.04668863769	
745.0	0.1566299706	-0.04695978423	
745.625	0.1054790672	0.0597103005	
746.25	-0.1156439505	-0.09885892946	
746.875	-0.07962355027	-0.06071469995	
747.5	-0.09729649337	0.3760598319	
748.125	0.3158509987	0.3833477468	
748.75	0.1171077315	0.2643648022	
749.375	0.08167114853	0.4687721423	
750.0	-0.07024688966	0.2364879881	
