!Created with skrf (http://scikit-rf.org).
# GHz S MA R 50.0 
!freq magS11 angS11
500.0 0.0178223599927 -162.057714844
500.625 0.00875295811525 127.182065707
501.25 0.0170324019011 -152.648987242
501.875 0.0144852902894 -112.256235931
502.5 0.0295867568929 165.558378557
503.125 0.0121346960988 72.6370527814
503.75 0.00913403646445 -7.52271666759
504.375 0.00266374604064 -115.290573878
505.0 0.0129779775887 -57.7669552007
505.625 0.0320232879048 -72.0330358431
506.25 0.0387279833457 -105.882337157
506.875 0.0647547473773 -95.968476071
507.5 0.040241714719 -127.505948981
508.125 0.0463827312822 -106.369191306
508.75 0.0843072596702 -115.459430142
509.375 0.0504235913005 -178.999203834
510.0 0.0273845492248 -139.653737176
510.625 0.0386803525009 -164.560494519
511.25 0.0691336942283 -170.737697231
511.875 0.0535302971384 149.068052092
512.5 0.0402805679835 105.742538056
513.125 0.0600080726872 55.5287429474
513.75 0.0703684475756 49.5473812849
514.375 0.035884529726 8.34629814753
515.0 0.0429165546862 1.21680924663
515.625 0.0871530438778 51.5982746445
516.25 0.108815060016 32.2468150005
516.875 0.0867701449706 63.7125800777
517.5 0.113089619868 19.6328807868
518.125 0.187107048761 66.1898401294
518.75 0.0908932283479 16.1070155464
519.375 0.0699015159782 21.9500153782
520.0 0.102129586455 0.204646454946
520.625 0.101901194253 -5.19624879702
521.25 0.0935625790463 -19.1681829846
521.875 0.0551566181963 -5.16952567466
522.5 0.0853459299762 -35.9092053376
523.125 0.174519666152 -36.6426484544
523.75 0.229806417446 -53.3237714705
524.375 0.189898834878 -65.5349611887
525.0 0.0659633225054 -50.0079565675
525.625 0.0393693213676 -27.1069840525
526.25 0.0440437566714 -12.011037589
526.875 0.0559633393073 -19.9386787871
527.5 0.0508245145202 -25.0222895053
528.125 0.041097474903 -56.2679096953
528.75 0.0746256601412 -70.8366873871
529.375 0.0875222622326 -107.571592187
530.0 0.0427265645861 -139.762663344
530.625 0.0481769956503 -149.079913189
531.25 0.0835477097984 -127.240713397
531.875 0.176199083526 -146.765337895
532.5 0.142517277465 -171.183271413
533.125 0.100810015176 176.906793689
533.75 0.125276597347 168.264329355
534.375 0.112015889037 -179.279970148
535.0 0.0822981466364 162.813420716
535.625 0.0642987649934 178.071276493
536.25 0.0572936549861 164.214922852
536.875 0.0773896188748 -159.542519267
537.5 0.0892228047721 -145.344688746
538.125 0.115777662937 -175.119186302
538.75 0.0996108220764 178.695117537
539.375 0.0787650536254 -162.79603427
540.0 0.0976884121956 -154.879498836
540.625 0.143466281604 -158.789898837
541.25 0.102176278319 -141.463890933
541.875 0.0946784539112 -141.746020471
542.5 0.102399689963 -141.150642611
543.125 0.146360635269 -167.290765845
543.75 0.121973322831 158.708648252
544.375 0.0959729412412 136.06701433
545.0 0.0837056849492 91.3875898806
545.625 0.0988721171658 84.3621593262
546.25 0.102805443328 66.8857458019
546.875 0.0741876325106 54.6389183804
547.5 0.116813574764 58.8298424962
548.125 0.127131095648 78.531098715
548.75 0.0774253000782 89.201433889
549.375 0.0980870481594 87.283720494
550.0 0.0856983217281 127.703681164
550.625 0.0479467611108 157.394430458
551.25 0.045286822665 -149.524229427
551.875 0.0669354371451 -160.169091058
552.5 0.116774089372 -166.125279173
553.125 0.0948972945199 -169.124869104
553.75 0.0909238284432 -168.083989107
554.375 0.106629400194 168.250693996
555.0 0.12670203252 164.41913859
555.625 0.0962344652252 158.974009032
556.25 0.105576151267 159.238336565
556.875 0.102016903409 169.309148702
557.5 0.11126706807 167.81015592
558.125 0.0914183883315 162.995305236
558.75 0.0900008477669 176.185054776
559.375 0.0635405378754 -171.73773932
560.0 0.0469429088198 -147.042359198
560.625 0.0586042475543 -137.824618054
561.25 0.0926381610265 -153.797769558
561.875 0.100286503381 -160.818742062
562.5 0.088893010308 177.094935949
563.125 0.106115084379 146.515255111
563.75 0.136123086039 130.200509182
564.375 0.104466870742 121.662995081
565.0 0.0889011768651 119.954548889
565.625 0.0823059109545 118.855887091
566.25 0.102066194107 150.59175692
566.875 0.0653050761523 -174.265503683
567.5 0.070477340838 -175.28011831
568.125 0.0736561901834 -167.67461997
568.75 0.0740286631474 -150.009440448
569.375 0.0469564456771 -104.058677051
570.0 0.0608293251366 -107.424977497
570.625 0.0883558518548 -112.219891634
571.25 0.0940941190453 -124.524045859
571.875 0.084328042913 -119.165011732
572.5 0.112091479686 -153.807137697
573.125 0.131007531991 -171.586936021
573.75 0.107411819218 159.994696087
574.375 0.0739604999097 157.721049284
575.0 0.101137555133 159.780620166
575.625 0.106112750222 157.463794726
576.25 0.0933847494898 143.814459027
576.875 0.0793731378341 128.874699768
577.5 0.0814347910978 141.053950759
578.125 0.0589770603537 160.870020804
578.75 0.0520758906344 155.191757691
579.375 0.0506604912163 177.685117066
580.0 0.0677041695248 -173.635735003
580.625 0.0756991943439 -145.117819946
581.25 0.0879442405206 -169.577269525
581.875 0.115251651672 -173.76490649
582.5 0.117000418163 -173.955835584
583.125 0.0954787742399 -171.532160208
583.75 0.0833393762826 -167.24172133
584.375 0.103793869226 -159.732320338
585.0 0.0927009585392 -141.439776536
585.625 0.0729044564632 -147.634615696
586.25 0.072231511058 -144.81447263
586.875 0.0804331485988 -129.173432924
587.5 0.0740126138034 -140.603707257
588.125 0.0599212682257 -178.799959301
588.75 0.068528184518 -167.843698586
589.375 0.0828344161296 -152.820297971
590.0 0.0930085331224 -165.111432943
590.625 0.105411231513 164.854839987
591.25 0.122618509916 155.113463638
591.875 0.101090887418 152.06713229
592.5 0.061200361612 154.074699478
593.125 0.0614761785448 150.813157732
593.75 0.0765550177005 172.656631978
594.375 0.0584251478333 -155.131374595
595.0 0.042987596173 -117.654666923
595.625 0.0630938890136 -98.9460305088
596.25 0.0757185235555 -84.2432458666
596.875 0.0643536337951 -81.8950209949
597.5 0.0640297376866 -52.8724160376
598.125 0.0608816316931 -64.4741063002
598.75 0.0710220370943 -72.2319623281
599.375 0.0901513665927 -61.1780862773
600.0 0.103462355087 -65.070313607
600.625 0.0950708139364 -64.6248004554
601.25 0.0857922162211 -74.8901532317
601.875 0.0672015883799 -90.764011756
602.5 0.062664835275 -79.6806589282
603.125 0.0448348838295 -55.2925551538
603.75 0.0328124781436 -28.2103525779
604.375 0.0300908329882 -41.2177589873
605.0 0.0771302559025 -2.01974246202
605.625 0.0534562216075 -4.44524900038
606.25 0.0231990628418 22.5916885442
606.875 0.0221889910091 44.3469591513
607.5 0.0560757548914 43.9839157851
608.125 0.0773724556605 29.2415228988
608.75 0.0644322277051 23.0802901515
609.375 0.0477288194472 19.8159960945
610.0 0.0899431655495 55.4489864859
610.625 0.0676681942102 39.7213325762
611.25 0.0492120184914 43.2388683304
611.875 0.028840540758 19.9557452854
612.5 0.0203470428093 91.7647907396
613.125 0.0308567373505 125.512657793
613.75 0.0412805651705 124.945280385
614.375 0.0507113400333 121.967052975
615.0 0.0197853697141 106.285106174
615.625 0.0447021868354 135.879112438
616.25 0.0651762225945 134.012519616
616.875 0.0555667906803 133.324334352
617.5 0.02313818859 109.718164267
618.125 0.0313918302623 129.33270944
618.75 0.0465904064175 143.397834674
619.375 0.0254767748852 144.009151367
620.0 0.00612988602201 -12.3128291918
620.625 0.0171100790593 -95.8478770011
621.25 0.0430063550727 -87.7320441813
621.875 0.0618090272044 -112.213576564
622.5 0.0686844310043 -154.470556834
623.125 0.0928048621415 161.606346555
623.75 0.0751087143058 161.446772132
624.375 0.0477724767156 -178.752899084
625.0 0.0285442262473 -110.723420253
625.625 0.0676461483911 -157.970048732
626.25 0.0272739663461 169.480796155
626.875 0.00639457056272 -108.019577353
627.5 0.0472430171734 -10.4500659014
628.125 0.0410029810172 -22.7035934029
628.75 0.0370100616408 -13.8816707257
629.375 0.0560549956091 -5.21486179831
630.0 0.0642616512408 -1.6581889803
630.625 0.0690813958922 1.19437500981
631.25 0.0660657368765 -9.06338209642
631.875 0.0778540632435 -8.66265927082
632.5 0.0681592557686 12.0354428308
633.125 0.0475111808873 8.08340255854
633.75 0.0407635563996 1.30465493164
634.375 0.0433438325023 17.3498098901
635.0 0.0331095056138 18.8260022874
635.625 0.0534042064201 49.2883903461
636.25 0.0408637647063 10.8348093433
636.875 0.0580089144068 36.443283014
637.5 0.0483428613639 50.3360392898
638.125 0.0448908786938 71.2201306142
638.75 0.074003645696 72.8364292221
639.375 0.089949326108 91.6319908488
640.0 0.0724996885334 108.449286634
640.625 0.0528792049514 104.604805857
641.25 0.0779651659096 129.239374829
641.875 0.0642619683297 152.113687875
642.5 0.056011583651 149.999079914
643.125 0.0718098624042 164.081433902
643.75 0.0692827519178 168.530870268
644.375 0.0749755689995 -170.517358897
645.0 0.0815633735741 178.475510655
645.625 0.089313044322 168.998315141
646.25 0.0991666816128 168.68660785
646.875 0.0633920162049 172.708407764
647.5 0.0598618379809 -176.066916797
648.125 0.0834816807307 -175.039024533
648.75 0.0889641918974 -157.344218318
649.375 0.0366374901015 -167.279632955
650.0 0.0363963253694 -123.211979197
650.625 0.0572111000164 -92.0381431765
651.25 0.0821555626942 -65.0407803369
651.875 0.0463125323312 -45.0112857335
652.5 0.0860272922689 -21.6063110529
653.125 0.116062850968 -5.13668015609
653.75 0.122275901338 6.82144107332
654.375 0.106541419945 6.62559974553
655.0 0.119290431184 14.6318190806
655.625 0.091343632237 27.6927491745
656.25 0.0722359687974 24.2809740637
656.875 0.0490717009276 -3.85392548245
657.5 0.0755940379051 23.0622088119
658.125 0.0762281468104 49.4524134393
658.75 0.0630882175259 61.6062407584
659.375 0.079449624629 40.5097943058
660.0 0.113670621532 26.6004757782
660.625 0.117220208148 18.9772723366
661.25 0.10908884435 6.04633088191
661.875 0.133753094436 -12.6315445023
662.5 0.124065327445 -18.543018363
663.125 0.0988822072468 -19.1556915252
663.75 0.107736404807 5.35446610813
664.375 0.0943824170378 50.1844855551
665.0 0.0651153418726 89.5717092436
665.625 0.0650858632178 113.911701749
666.25 0.091913179529 129.577957987
666.875 0.110577045399 172.837085474
667.5 0.0906432729943 -166.543833399
668.125 0.102375946593 -177.186285743
668.75 0.139148549972 165.732413715
669.375 0.101932380005 177.020712709
670.0 0.0770921796179 -169.517728433
670.625 0.0796543543572 -169.361966065
671.25 0.125617661039 173.206765372
671.875 0.0835744094806 168.911905623
672.5 0.079409889232 156.334278697
673.125 0.0741947832079 156.402012198
673.75 0.121112494931 156.84740457
674.375 0.108513687689 171.210619727
675.0 0.112969271765 -173.525544553
675.625 0.120995558398 -148.620998261
676.25 0.131537161214 -126.225004568
676.875 0.103203837721 -117.904820543
677.5 0.117097129053 -125.119716079
678.125 0.111353111915 -117.946283305
678.75 0.0785975940017 -94.0179788362
679.375 0.0433602832215 -69.5413132632
680.0 0.0773825609127 -76.3405932517
680.625 0.130625735156 -78.7705231972
681.25 0.106391882311 -71.6426880922
681.875 0.104881167507 -95.2877659005
682.5 0.125982108528 -115.495920027
683.125 0.157893030442 -118.546809212
683.75 0.125722269816 -103.512324
684.375 0.125416275133 -81.7704986749
685.0 0.135901022171 -39.7932557317
685.625 0.12597413683 -1.26854325018
686.25 0.113701707274 20.1794615987
686.875 0.0982224923621 44.2661200124
687.5 0.0678892606707 85.4023107585
688.125 0.0818915284969 111.348300743
688.75 0.106605810196 110.655721993
689.375 0.147796835818 118.176446401
690.0 0.140955564632 131.292260779
690.625 0.11984351538 127.760153095
691.25 0.145619127344 97.4564753093
691.875 0.188127830577 69.7865595017
692.5 0.153365082566 38.5489146129
693.125 0.0720042297955 -8.06291647359
693.75 0.0941481666101 -37.0764568294
694.375 0.125559070851 -26.8264898871
695.0 0.135258908372 9.66800851812
695.625 0.106565702848 50.5232716263
696.25 0.114320480701 112.988761368
696.875 0.134644925718 177.068680561
697.5 0.136579282229 -140.622891404
698.125 0.146893604186 -137.823503355
698.75 0.126499403315 -131.609590701
699.375 0.113168586149 -126.119392772
700.0 0.100417444563 -116.171596411
700.625 0.109501024791 -87.2282617366
701.25 0.10008909777 -63.3439583942
701.875 0.0846407430992 -61.8838790861
702.5 0.101542304045 -84.0561081067
703.125 0.172287916198 -126.985311383
703.75 0.166656236535 -145.453076843
704.375 0.123073367118 176.259718071
705.0 0.10570661543 162.185129119
705.625 0.148308294079 -174.558346655
706.25 0.137693934443 -110.13842124
706.875 0.0917807281223 -62.6468237476
707.5 0.0799977918817 -39.543673859
708.125 0.0914154326944 18.3671375199
708.75 0.114384498079 61.6854880545
709.375 0.106364293708 104.490921142
710.0 0.105084008254 132.881784073
710.625 0.107678522121 157.73593052
711.25 0.118938252519 167.585200839
711.875 0.14409378687 168.547962492
712.5 0.156372307888 139.899784229
713.125 0.130278431525 97.4041248889
713.75 0.10657099214 40.981086299
714.375 0.108989868755 34.6195963372
715.0 0.11174594134 37.5432061841
715.625 0.0852747478763 61.339238052
716.25 0.0751226135121 66.7555177443
716.875 0.12496281118 114.135753936
717.5 0.143431640117 145.249860813
718.125 0.119080811848 167.469461837
718.75 0.101586809572 172.149621205
719.375 0.11056696804 179.48774589
720.0 0.137847481988 -113.231123018
720.625 0.115962997863 -67.2307266192
721.25 0.0987468601004 -22.3345625525
721.875 0.0829799103277 35.0441172397
722.5 0.0746734808168 69.4452938865
723.125 0.077230034991 67.6581235004
723.75 0.11060801346 42.2255065631
724.375 0.100935869816 -10.2057960624
725.0 0.100651967344 -34.9474811094
725.625 0.114825319501 -57.5545548116
726.25 0.11307640087 -60.2808335866
726.875 0.0963312501227 -64.3090720439
727.5 0.092022614662 -14.3617427849
728.125 0.0768698614226 -5.01537271325
728.75 0.0862029446974 15.1516022411
729.375 0.0857399996475 18.4036717715
730.0 0.0583288792213 -9.1678811853
730.625 0.0932346249679 39.403064175
731.25 0.0928781707054 74.8419342785
731.875 0.0759403288566 120.93953371
732.5 0.05281223022 141.743366085
733.125 0.0873271121727 175.889087553
733.75 0.0902576831023 -176.973378994
734.375 0.0635669953164 169.817288356
735.0 0.0378007452955 133.486969251
735.625 0.0602255499092 142.020370016
736.25 0.0636657748047 147.590614749
736.875 0.054443072809 163.68756732
737.5 0.0540886690327 -176.265151332
738.125 0.127778084101 -167.641369302
738.75 0.0966123200519 -169.583960388
739.375 0.0664417936012 -157.67227195
740.0 0.0122961791528 -100.979697113
740.625 0.04930191551 -145.575592425
741.25 0.0442913521008 -153.583740381
741.875 0.0383070074441 -118.420776003
742.5 0.0391700187076 -23.48778669
743.125 0.0214303959746 76.9103025999
743.75 0.0363886766757 99.5690530986
744.375 0.0314765428186 148.521057072
745.0 0.0469363012899 153.697829494
745.625 0.0747636040894 115.645357256
746.25 0.0732660618424 82.288888753
746.875 0.0763241412408 32.5968544001
747.5 0.0392314378478 7.87964943336
748.125 0.0151272491109 65.258113101
748.75 0.0416625872298 -25.7506782097
749.375 0.0294561651053 -25.0753444363
750.0 0.0290153966932 -60.2661040098
