!Created with skrf (http://scikit-rf.org).
# GHz S RI R (50+0j) 
!freq	ReS11	ImS11	
500.0	-1.034129653	-1.664969439	
500.625	2.649191639	-2.477596691	
501.25	-4.640043755	-0.7283059053	
501.875	-1.879668631	-0.254063014	
502.5	0.01887628305	-0.1404153046	
503.125	-0.4217672766	0.02850970455	
503.75	0.2339665015	-0.009633585993	
504.375	0.1616491626	0.08174416023	
505.0	-0.1144056955	-0.102679654	
505.625	0.2783239259	-0.2397722386	
506.25	-0.5971344365	0.2010176254	
506.875	-0.04143376672	-1.013688837	
507.5	-1.468658677	-1.786028656	
508.125	-1.007917173	-0.6896444612	
508.75	3.172567379	-2.209493455	
509.375	-2.52757163	-4.704009625	
510.0	-0.6300315049	-0.164101155	
510.625	-0.9486648072	-1.047910795	
511.25	-0.09258323788	0.1528585047	
511.875	-0.5888494308	-0.3043889821	
512.5	-0.05949965594	0.1748847039	
513.125	-0.01902941001	-0.2418318208	
513.75	-0.06619349514	-0.1651162567	
514.375	-0.5835889007	-0.3417190673	
515.0	0.7557390064	1.446879717	
515.625	-1.529674776	-3.212046865	
516.25	-0.6531290446	0.8695543128	
516.875	0.1703717765	-2.636063722	
517.5	-1.168332053	-0.346296749	
518.125	0.2949596158	-0.3512385526	
518.75	-0.9142433085	-0.2559392286	
519.375	-0.07424082044	-0.01783389725	
520.0	0.4486036634	0.3576960595	
520.625	0.3987517264	-0.3799297826	
521.25	0.1199991173	-0.39445021	
521.875	-0.6353680856	-0.2130110443	
522.5	0.07502886291	0.075578041	
523.125	-0.3597386506	0.2035399736	
523.75	-0.01985058647	-0.05652646631	
524.375	-0.7554518395	0.2435611834	
525.0	0.1159744639	-0.01095330535	
525.625	-0.07023811046	0.314846342	
526.25	0.04237043276	-0.31248265	
526.875	-0.1682790957	0.3941511055	
527.5	0.09500694654	0.2404814521	
528.125	-0.2810290807	0.9692987395	
528.75	0.5876902493	0.8914091219	
529.375	-0.1669817915	0.1741884124	
530.0	0.4799512563	0.3066374376	
530.625	-0.2756979649	1.045494762	
531.25	1.665921109	-0.3267041028	
531.875	0.3130204045	0.0980331231	
532.5	-0.3487069312	-0.8485790486	
533.125	0.4573623708	0.5349957422	
533.75	0.004221065847	-1.011636982	
534.375	0.03904176789	-0.2508953874	
535.0	-1.049720084	-0.638732689	
535.625	-0.02153687618	0.4193246234	
536.25	-0.1320754666	0.1983098817	
536.875	0.3631976993	0.08304334738	
537.5	0.04538734243	-0.1390279296	
538.125	0.4579674956	-0.02901641514	
538.75	0.1798621664	-0.4337484272	
539.375	0.0009263297722	-0.3387734848	
540.0	-0.579871366	-0.5246485513	
540.625	-0.2343110674	0.1405947526	
541.25	-0.2354100097	-0.1435448756	
541.875	-0.1801894776	-0.01598235087	
542.5	-0.1170890279	-0.01009627074	
543.125	-0.0652693281	-0.2509939427	
543.75	-0.4697598551	0.1258338652	
544.375	0.07354885426	-0.1317667563	
545.0	-0.05015465861	0.3763210535	
545.625	0.06715151192	-0.1409615638	
546.25	0.3237532693	0.4261848041	
546.875	0.148853748	-0.3362239388	
547.5	0.3158397826	-0.05463752866	
548.125	-0.1359580211	-0.6563696107	
548.75	-0.3541369657	-0.06964133887	
549.375	-0.077260656	-0.2463166329	
550.0	-0.3503528787	0.03679715287	
550.625	0.03143873669	-0.01082893193	
551.25	-0.3464662009	0.0747909929	
551.875	-0.03158914359	0.1647165106	
552.5	-0.2211683649	0.155970411	
553.125	0.008605128397	0.1938800051	
553.75	0.08224757046	0.1116063082	
554.375	0.2536417786	0.0258261388	
555.0	0.2377098746	-0.1840148297	
555.625	0.2123559994	-0.2447533109	
556.25	0.1819013307	-0.3495717049	
556.875	-0.09036659827	-0.4028836398	
557.5	-0.2212646583	-0.2524097644	
558.125	-0.2712791739	-0.1181977315	
558.75	-0.2828852224	-0.002267775249	
559.375	-0.2251281859	0.04915374887	
560.0	-0.2743100247	0.1411732454	
560.625	-0.1139002488	0.3213788374	
561.25	0.04761595879	0.1559382663	
561.875	0.02899389071	0.204308355	
562.5	0.05822042998	0.01078725806	
563.125	0.1509405468	0.307836078	
563.75	0.3280753592	-0.1395755939	
564.375	0.2726839128	-0.03491259503	
565.0	0.2736933227	-0.4924610873	
565.625	-0.1927801879	-0.2794053948	
566.25	-0.1251636919	-0.2442677537	
566.875	-0.3973395783	-0.3281619656	
567.5	-0.4250496121	-0.071367252	
568.125	-0.09393628088	-0.462544224	
568.75	-0.7828587783	-0.226193176	
569.375	-0.3226495607	0.2222676136	
570.0	-0.6126603677	0.4228586033	
570.625	0.08721800524	0.5861070477	
571.25	-0.152131506	-0.02195525574	
571.875	0.3523926912	0.5110502331	
572.5	-0.04741163	-0.1892329988	
573.125	0.4939226953	-0.01793368208	
573.75	0.08754440152	-0.5802471221	
574.375	-0.1373266896	0.1055491622	
575.0	0.3275365752	-0.3090648568	
575.625	-0.1648766178	0.05383458007	
576.25	0.4365946637	-0.2925390059	
576.875	-0.251795469	-0.4959606901	
577.5	-0.02885237837	-0.05795544691	
578.125	0.1487095563	-0.5338970712	
578.75	-0.42710038	-0.3953016307	
579.375	-0.1598652189	0.06445519996	
580.0	0.0291288413	-0.314184593	
580.625	-0.2810749587	0.1852233092	
581.25	-0.1859894744	-0.1612958696	
581.875	-0.07745135248	0.6980685283	
582.5	0.4236364394	0.1435494256	
583.125	-0.2503158073	0.09838449679	
583.75	0.5637194535	0.2914531789	
584.375	-0.3997224056	-0.07856492966	
585.0	0.5882053342	0.395625589	
585.625	0.2038247125	-0.3229395173	
586.25	0.3726725261	0.247484787	
586.875	0.1978874153	-0.652335689	
587.5	-0.03308575366	-0.02271567018	
588.125	0.2176746948	-0.4856557498	
588.75	-0.1384695696	-0.5335245895	
589.375	0.1003889146	-0.004759444473	
590.0	0.04620921591	-0.6720593809	
590.625	-0.5171552207	-0.009016525057	
591.25	-0.1774117256	0.1771190567	
591.875	-0.2907337676	0.2246146089	
592.5	0.2139182266	0.1901375922	
593.125	-0.2604553479	0.1713136527	
593.75	0.2357656441	0.2037936919	
594.375	0.1143233708	0.2204527857	
595.0	0.5029341642	0.6136426683	
595.625	0.6553192381	-0.217016507	
596.25	-0.05556599095	0.3721852648	
596.875	0.775696319	0.212471432	
597.5	0.2123036704	-0.1134541749	
598.125	0.2404938096	0.6017209283	
598.75	0.5575468789	-0.0382225949	
599.375	0.3036961577	0.1919592859	
600.0	0.6666233632	-0.5117998328	
600.625	0.07596971664	-0.416092882	
601.25	0.3305577344	-0.2422377015	
601.875	-0.1629324566	-0.5296707745	
602.5	-0.2537375452	0.03845066384	
603.125	-0.2236039286	0.1302641662	
603.75	-0.2752477402	0.005494717633	
604.375	-0.3718543288	0.3726056314	
605.0	0.03168940815	-0.03195413371	
605.625	-0.4437896253	0.2600414908	
606.25	0.004999445429	0.1438296554	
606.875	-0.6716740605	-0.07738177241	
607.5	-0.1794007828	0.7812560212	
608.125	-0.2680585559	0.1793066477	
608.75	0.5861699002	0.8992384736	
609.375	0.2361910125	-0.3859804428	
610.0	0.5991496619	0.05610471826	
610.625	0.1266954816	-0.6227359841	
611.25	0.1196754879	-0.03809796218	
611.875	-0.3867120303	-0.5596514171	
612.5	-0.109243216	-0.01725999166	
613.125	-0.6364057148	-0.1392274609	
613.75	-0.003979008326	0.5246070698	
614.375	-0.2898762438	0.225196871	
615.0	0.4263463901	0.0534448872	
615.625	-0.3506493798	0.1283134586	
616.25	0.1201600559	0.6758004009	
616.875	-0.1508819124	0.02448302701	
617.5	-0.4326369413	0.7554771815	
618.125	0.2519509028	0.488196106	
618.75	-0.23492317	0.3002891675	
619.375	0.3921640683	0.5149156859	
620.0	0.2533599479	0.07974059141	
620.625	0.4264844306	-0.4017525946	
621.25	-0.2068228083	-0.3004915357	
621.875	-0.4983193562	-0.3965738769	
622.5	-0.4223741407	0.2482880267	
623.125	-0.2246613947	0.3021487289	
623.75	0.5184966641	0.1419552776	
624.375	-0.1755383344	0.06863197002	
625.0	0.328625788	-0.4423255049	
625.625	-0.01934345045	0.184286793	
626.25	0.1076284609	-0.6526633871	
626.875	-0.5597693448	-0.005267866237	
627.5	-0.005361224473	-0.137584846	
628.125	-0.4781247468	-0.354735	
628.75	-0.1284433574	-0.0567013447	
629.375	-0.08136034265	-0.562432578	
630.0	-0.6256192905	-0.0937624672	
630.625	-0.3245819106	-0.09012887899	
631.25	-0.5649993592	0.4697294428	
631.875	0.05263599804	0.6621045648	
632.5	0.2999176767	0.411481762	
633.125	0.3280863662	0.153526548	
633.75	0.6634602323	-0.03662685222	
634.375	-0.1143712422	-0.3018442132	
635.0	0.2705844956	-0.3376388247	
635.625	-0.6111578991	-0.1987166546	
636.25	-0.0791576989	-0.09112716876	
636.875	-0.4115099404	0.5356729154	
637.5	0.2233220706	0.1103207296	
638.125	-0.5391125264	0.01028159793	
638.75	0.1247094576	0.8448107133	
639.375	-0.0694020227	0.01414996825	
640.0	0.02456721062	0.8728684677	
640.625	0.8733857742	0.3880238318	
641.25	0.3604972609	-0.1781107427	
641.875	0.8339233088	-0.1253993971	
642.5	-0.3969391039	-0.5076132821	
643.125	0.14144424	-0.2695223766	
643.75	-0.6893691184	-0.3628852576	
644.375	0.01480178885	0.2875383728	
645.0	-0.7271652162	0.01008425247	
645.625	0.2627196589	0.7618117625	
646.25	0.4829773027	-0.05476047178	
646.875	-0.1537712379	0.1372151584	
647.5	0.713745469	-0.02023687627	
648.125	-0.2808694606	0.3125038618	
648.75	1.203680825	-0.09346266996	
649.375	0.02361647343	-0.8545030099	
650.0	0.593723573	0.05807156312	
650.625	0.8051122953	-1.444374008	
651.25	-0.3639765131	-0.4711971107	
651.875	0.9040431782	0.3287403808	
652.5	1.086195084	-0.7531681311	
653.125	0.06402760403	-0.2852693757	
653.75	1.028573273	-0.2965922747	
654.375	-0.4852828297	-0.9320562935	
655.0	-0.2147665627	-0.009185671971	
655.625	-0.9207986036	0.07771278687	
656.25	0.5282764573	0.7391167463	
656.875	-0.2334727558	-0.137045994	
657.5	0.1955256105	0.5439134484	
658.125	0.4498444583	0.1402758205	
658.75	0.2498267125	0.3425757109	
659.375	1.260439876	-0.3923934387	
660.0	0.1476992921	-0.70449308	
660.625	0.5349607295	-0.4448880799	
661.25	0.6634780261	-1.143291077	
661.875	-0.1603393496	-0.4331954467	
662.5	1.030369479	0.04834916991	
663.125	0.8355923516	-0.9700207573	
663.75	-0.05324538682	-0.3983168742	
664.375	0.4333642515	-0.8415742748	
665.0	-1.053738781	-0.4253753463	
665.625	-0.3677429167	-0.09050018649	
666.25	-0.5692106232	0.8687484393	
666.875	0.540389659	0.2370601311	
667.5	0.06569961572	0.4952424952	
668.125	0.8308113219	-0.08772114272	
668.75	0.2184751086	-0.4600372075	
669.375	0.280097941	-0.2412875991	
670.0	0.2386553688	-0.6655264593	
670.625	-0.2914118314	-0.5233289838	
671.25	0.3044921038	-0.1614273454	
671.875	0.4169897389	-0.5940952222	
672.5	0.1603245815	-0.3776399489	
673.125	0.8210571521	-0.1971949401	
673.75	0.2231013785	-0.8422949195	
674.375	-0.001555255061	-0.1962551183	
675.0	0.2626954653	-0.8067930221	
675.625	-1.018309271	-0.3925353816	
676.25	0.1607087546	0.1822484013	
676.875	-0.8050232769	-0.4017479782	
677.5	-0.05443899206	0.4108358746	
678.125	-0.574850066	-0.1235778263	
678.75	0.3525091302	0.9959794477	
679.375	0.07345455778	-0.06140344086	
680.0	0.5612663229	0.08358770881	
680.625	0.3160899325	-0.5544056271	
681.25	-0.291447076	0.1063615096	
681.875	0.7067893539	0.4528901094	
682.5	0.5686844794	-0.04815477138	
683.125	0.468124784	0.08459863821	
683.75	0.3811727701	0.4923170543	
684.375	1.17140885	-0.08747535586	
685.0	0.02886020465	0.04528820662	
685.625	1.082281525	0.391252426	
686.25	0.6435936548	-0.7772441306	
686.875	0.4442051462	0.6519790575	
687.5	1.307829805	-1.627416041	
688.125	-0.636557956	-0.07576111908	
688.75	-0.5836768296	-1.353712946	
689.375	-0.8327948784	1.423464273	
690.0	0.07413739561	0.1193863816	
690.625	0.8183992287	1.309832522	
691.25	0.5998320651	0.1524480436	
691.875	0.7763367445	1.122777041	
692.5	1.780925217	0.4529590219	
693.125	1.207085452	-0.1089931591	
693.75	1.545980318	-0.4594450832	
694.375	0.8979240989	-0.8910159288	
695.0	1.386147906	-0.5755265466	
695.625	0.9854375221	-0.5913623124	
696.25	0.7694729134	0.9629857161	
696.875	1.815670701	0.9532088642	
697.5	0.3101314497	0.5975801102	
698.125	1.823621067	1.344712536	
698.75	0.4698515263	-1.496868867	
699.375	0.1211546209	-1.278395948	
700.0	-1.080618049	1.47368253	
700.625	0.3407386315	0.04098337079	
701.25	0.6604544048	1.221566444	
701.875	0.5989247119	0.01419588366	
702.5	0.5272797375	1.016200009	
703.125	1.426931532	0.04600882859	
703.75	0.4000421822	0.07650098798	
704.375	1.157146827	-0.6178273084	
705.0	0.08897509822	-0.4789176486	
705.625	0.8803213272	0.7010687377	
706.25	0.9987437119	-0.308547307	
706.875	-0.06860609002	0.789782143	
707.5	1.074969173	1.374549016	
708.125	0.7621182212	-0.1839238895	
708.75	1.187445965	-0.5015253506	
709.375	-1.043970534	-0.8209999258	
710.0	-0.2490910412	0.2718939872	
710.625	0.05171128677	0.618881857	
711.25	0.2684983133	0.06032870571	
711.875	0.4225275946	0.4777590645	
712.5	0.783051943	-0.1360641434	
713.125	0.8386999001	-0.2982792368	
713.75	0.06787184326	-0.7563372389	
714.375	0.3567928469	-0.2230438491	
715.0	-0.3449324376	-0.9080204595	
715.625	-0.06066605772	0.05075906277	
716.25	1.168509756	-0.8000746393	
716.875	-0.04764567997	-1.20949878	
717.5	1.073398535	1.256315399	
718.125	3.125757604	-0.2330847915	
718.75	0.0389824655	-1.375320827	
719.375	3.760319253	0.7472128343	
720.0	0.1843941415	-3.931809921	
720.625	0.9263473787	-1.215049871	
721.25	0.9508178437	-3.065519306	
721.875	-1.925454025	-2.734091159	
722.5	-0.2918382707	-1.813194095	
723.125	-2.615097038	-0.5221141353	
723.75	-0.663556174	1.332725075	
724.375	-0.1617151561	0.7676581349	
725.0	0.1698221831	1.246126781	
725.625	1.084139065	1.096588505	
726.25	-0.04776258501	0.7237779997	
726.875	-1.156323239	2.917375495	
727.5	1.76789346	5.138419516	
728.125	-1.518035894	0.923796785	
728.75	-2.362802546	10.78525458	
729.375	6.380519537	8.267047896	
730.0	-13.56626216	7.69336896	
730.625	0.5108983	19.25406755	
731.25	1.338871467	-1.067215731	
731.875	-14.5529798	7.083190946	
732.5	-11.81461784	4.837777612	
733.125	-3.629906148	3.880735453	
733.75	-4.317879978	0.8179899111	
734.375	3.303035899	0.7749117234	
735.0	-0.05420964039	-0.8750550904	
735.625	-1.839054998	-0.6412828289	
736.25	1.208833718	1.186003644	
736.875	-0.3529070763	1.626629828	
737.5	3.862793738	1.073413027	
738.125	4.561113377	-2.489967045	
738.75	0.4063259977	-4.086913991	
739.375	9.692033777	5.555741163	
740.0	15.48280601	-23.620811	
740.625	-9.652147555	-1.989201496	
741.25	1.398133293	22.73908583	
741.875	18.1318702	12.96566656	
742.5	2.120758414	-16.92253377	
743.125	-6.980224436	-8.400075047	
743.75	-0.5376686391	0.7681477542	
744.375	-1.141035441	-2.294352008	
745.0	0.8462307993	0.6580695674	
745.625	-0.05295014868	0.3123407987	
746.25	0.02383560052	-0.5572811655	
746.875	-0.469527461	0.1754409518	
747.5	-0.4968551823	0.7535519563	
748.125	0.4591340586	1.678954016	
748.75	0.6513862418	0.7926598556	
749.375	0.1567102656	1.434396902	
750.0	-1.44951565	0.378101628	
