!Created with skrf (http://scikit-rf.org).
# GHz S RI R (50+0j) 
!freq	ReS11	ImS11	
500.0	0.489996038	-0.8834325976	
500.625	2.372672355	-3.78809819	
501.25	-3.323143358	-2.723025397	
501.875	-1.30935207	-0.2854291285	
502.5	0.06991459843	-0.3917175492	
503.125	-0.3604753259	0.2332049905	
503.75	-0.04863762578	-0.02271536535	
504.375	0.1904576195	-0.03915634918	
505.0	-0.0712783029	0.0553977728	
505.625	0.106835012	-0.4259352127	
506.25	-0.2312676588	0.3282463829	
506.875	-0.6380443232	-0.9869889963	
507.5	-1.734795434	-1.1903462	
508.125	0.2892333381	-0.1252237348	
508.75	2.805180321	-4.073657544	
509.375	-3.331590425	-3.257449076	
510.0	-0.6155570492	-1.12667047	
510.625	-1.500432953	-0.7299468016	
511.25	-0.07535820598	-0.2427234132	
511.875	-0.6023011609	-0.0472724077	
512.5	0.03078856092	0.142164992	
513.125	-0.004256142998	-0.2265452051	
513.75	-0.001308237393	-0.3465297877	
514.375	-0.7280274378	-0.01604569539	
515.0	1.617595848	-0.01940661497	
515.625	-2.277835759	-1.460901462	
516.25	1.386785438	-0.4764326379	
516.875	-1.254872371	-2.791347825	
517.5	-0.6658894009	0.3887247028	
518.125	-0.03861835972	-0.50904736	
518.75	-0.5277083734	0.192871106	
519.375	-0.2624408178	-0.009469173591	
520.0	0.511233396	0.205528145	
520.625	0.3171534322	-0.3092930504	
521.25	0.3290042298	-0.6315973084	
521.875	-0.6310323003	0.0792323894	
522.5	0.001274589297	-0.07230120613	
523.125	-0.1961101166	0.2927930866	
523.75	-0.1264832988	-0.2759352945	
524.375	-0.4688282461	0.4827951517	
525.0	-0.1901359227	-0.03024178817	
525.625	0.1215218773	0.386099221	
526.25	-0.2221736734	-0.2651960888	
526.875	0.01901292137	0.3194319773	
527.5	-0.1810647316	0.1594128303	
528.125	-0.01261818008	1.265237884	
528.75	0.5399222834	0.3972131622	
529.375	-0.05129615758	0.4345175218	
530.0	0.2228280159	0.03950886647	
530.625	0.1028750736	1.513663968	
531.25	0.9796453932	-0.4390812996	
531.875	0.7890555812	0.07375515946	
532.5	-0.6695217346	-0.4827411001	
533.125	0.7174997734	0.01744766137	
533.75	-0.2443296758	-0.6899552728	
534.375	0.4211381718	-0.6854959825	
535.0	-1.222196637	-0.153477151	
535.625	-0.123112332	0.1304017788	
536.25	-0.1234493992	0.2739017386	
536.875	0.3564218892	-0.02049754082	
537.5	0.07102250875	-0.0005004917845	
538.125	0.4640137861	-0.2417344386	
538.75	0.1249420212	-0.2488847471	
539.375	-0.008709453113	-0.5281511327	
540.0	-0.665427932	-0.2807781621	
540.625	-0.1453765065	-0.06450315933	
541.25	-0.2853286215	-0.05908139735	
541.875	-0.1633584515	-0.02644499986	
542.5	-0.03303319285	0.01221342119	
543.125	-0.2077999879	-0.3272127286	
543.75	-0.2605041652	0.292926262	
544.375	-0.1912620448	-0.1515882628	
545.0	0.1502297932	0.295607645	
545.625	-0.1357878551	0.05408075148	
546.25	0.5345478995	0.1702255599	
546.875	-0.009423704267	-0.1160915488	
547.5	0.4482686779	-0.2130807796	
548.125	-0.3046110411	-0.5430678729	
548.75	-0.1923791488	-0.09200022135	
549.375	-0.1894475644	-0.350504802	
550.0	-0.2781585116	0.1500804697	
550.625	-0.04915359278	-0.1358451997	
551.25	-0.2555692372	0.2110871151	
551.875	-0.1075263059	0.03848342554	
552.5	-0.2013544685	0.2626059779	
553.125	0.01522575954	0.1396844288	
553.75	0.08250001523	0.1395382194	
554.375	0.2627041631	0.00300394565	
555.0	0.225338508	-0.1681077683	
555.625	0.2304267967	-0.2426127718	
556.25	0.1755647796	-0.3652000646	
556.875	-0.08103448361	-0.3855687097	
557.5	-0.2171291059	-0.2576326383	
558.125	-0.2885861016	-0.1125406293	
558.75	-0.2640403937	0.007632373007	
559.375	-0.2353203104	0.0136138673	
560.0	-0.2828641277	0.177066874	
560.625	-0.07242645649	0.2898500969	
561.25	-0.03498811126	0.1703268507	
561.875	0.1364351284	0.1825123443	
562.5	-0.05789263797	0.03676324098	
563.125	0.2692030342	0.2548321941	
563.75	0.1931156685	-0.0768437159	
564.375	0.4274958594	-0.08812029499	
565.0	0.1484522777	-0.504126353	
565.625	-0.09930928944	-0.2261484736	
566.25	-0.14250899	-0.3280511708	
566.875	-0.4926458907	-0.2195479123	
567.5	-0.2098136821	-0.09241778372	
568.125	-0.2765889976	-0.6116979209	
568.75	-0.6446636335	-0.02530478472	
569.375	-0.4612569168	-0.02868683869	
570.0	-0.4596759108	0.7009104896	
570.625	0.1157657985	0.3387071052	
571.25	-0.351924435	0.1475979466	
571.875	0.5389636174	0.2193856907	
572.5	-0.05577347863	0.1019176925	
573.125	0.5546848284	-0.2997125608	
573.75	-0.1346969769	-0.4522351385	
574.375	0.198219373	0.1317441797	
575.0	-0.043196164	-0.4288493761	
575.625	0.2133999148	0.1359736258	
576.25	0.2624124628	-0.5245717595	
576.875	-0.2912331882	-0.2319611841	
577.5	0.2542215556	-0.1566063741	
578.125	-0.04639109852	-0.6515095382	
578.75	-0.3985231695	-0.2017886602	
579.375	-0.004907407295	-0.008910608337	
580.0	-0.2132328499	-0.3515985082	
580.625	-0.01141442143	0.1766213724	
581.25	-0.5016800091	-0.05276654375	
581.875	0.2035138951	0.5763051801	
582.5	0.1343281853	-0.03471912006	
583.125	-0.155665696	0.4901049992	
583.75	0.5376398778	-0.2365152497	
584.375	-0.3320319378	0.4163766503	
585.0	0.6437977375	0.02057562597	
585.625	-0.04392922372	-0.02475359523	
586.25	0.6824337774	0.05170165081	
586.875	-0.09185811819	-0.4889570164	
587.5	0.1765206282	-0.1125369586	
588.125	0.02928972724	-0.6240845025	
588.75	-0.227027609	-0.3017075321	
589.375	0.4221044552	-0.06875346882	
590.0	-0.2173623459	-0.6313543954	
590.625	-0.3549863048	0.00573953118	
591.25	-0.3315849825	0.08127640375	
591.875	-0.1933488153	0.4290591415	
592.5	0.07014829911	-0.06137288678	
593.125	-0.09907280248	0.2560655652	
593.75	0.1399030195	0.1254175615	
594.375	0.1104822361	0.4378934674	
595.0	0.7840544639	0.4482552392	
595.625	0.1954270139	-0.2707556966	
596.25	0.2699607242	0.5658859894	
596.875	0.6947709145	-0.1644915685	
597.5	-0.03803174664	0.2153449729	
598.125	0.6417974852	0.5160706755	
598.75	0.1992060495	-0.03653510622	
599.375	0.6407843102	0.3147680375	
600.0	0.351899047	-0.6299060476	
600.625	0.1631568731	-0.2307007691	
601.25	0.3829320581	-0.3554750326	
601.875	-0.2516861418	-0.453364004	
602.5	-0.2650510145	-0.05869983711	
603.125	-0.1816826155	0.08770918511	
603.75	-0.3966503215	0.06643077979	
604.375	-0.1311892325	0.3441127929	
605.0	-0.2304998631	-0.01745095268	
605.625	-0.2039685943	0.3298676071	
606.25	-0.1412911009	-0.04466318302	
606.875	-0.7391220002	0.2704656247	
607.5	0.0008570368986	0.3878528886	
608.125	-0.5386437647	0.396398116	
608.75	0.8934004882	0.5124445525	
609.375	0.1376234871	0.04193670741	
610.0	0.7260167981	-0.2368498562	
610.625	-0.06051176572	-0.4610147228	
611.25	0.4366878362	-0.2870211331	
611.875	-0.5048119241	-0.1983629691	
612.5	-0.09763547682	-0.265083409	
613.125	-0.7668495287	0.08470085309	
613.75	0.1007955639	0.1629024559	
614.375	-0.08866549367	0.5165487466	
615.0	0.2272319315	-0.1928291527	
615.625	-0.3029607681	0.4752494552	
616.25	0.2923537952	0.2680356899	
616.875	-0.5010378449	0.1982416814	
617.5	-0.1445724833	0.85185689	
618.125	0.1297872917	0.2223365874	
618.75	-0.2292279218	0.6406031204	
619.375	0.4235197891	0.2933599872	
620.0	0.2545520752	0.2618363617	
620.625	0.309670678	-0.4897303836	
621.25	-0.0747207194	-0.3385162165	
621.875	-0.5934566745	-0.2871167659	
622.5	-0.3582822042	0.1201740275	
623.125	-0.3238310075	0.4581990096	
623.75	0.4536747205	-0.1099439877	
624.375	0.1011067119	0.2809501282	
625.0	-0.1682377778	-0.4422958323	
625.625	0.3115397958	0.1275128761	
626.25	-0.2383803848	-0.6676860648	
626.875	-0.2348726288	0.1775287136	
627.5	-0.276574656	-0.5048473584	
628.125	-0.4651223363	0.01141656772	
628.75	0.1207295297	-0.2181830468	
629.375	-0.3544562756	-0.6087159101	
630.0	-0.2985387464	0.02357141904	
630.625	-0.5619393039	-0.1138461536	
631.25	-0.4833574881	0.5618722453	
631.875	0.02639440043	0.5473060156	
632.5	0.2985307282	0.3827924441	
633.125	0.3678451185	0.3111610662	
633.75	0.5421692032	-0.3360406238	
634.375	0.09518308381	-0.1180843395	
635.0	0.09946256883	-0.5391525859	
635.625	-0.2910835398	0.0738452353	
636.25	-0.5316918319	-0.07634684884	
636.875	-0.08141333915	0.5288655151	
637.5	0.03584353976	-0.09232037162	
638.125	-0.6385706649	0.4266861651	
638.75	0.3669274683	0.3898937442	
639.375	-0.3788670206	0.2885088908	
640.0	0.2617111541	0.9327990072	
640.625	0.7306476673	0.1321641389	
641.25	0.2682755158	0.1895899285	
641.875	0.6420989859	-0.782281831	
642.5	-0.08636148471	-0.1068213442	
643.125	-0.140223949	-0.6702341952	
643.75	-0.6681760322	0.1667849037	
644.375	0.06732535675	-0.320165426	
645.0	-0.710931157	0.4188639701	
645.625	0.3100796794	0.6369357279	
646.25	0.3416144104	-0.161408163	
646.875	0.07690890645	0.4954300799	
647.5	0.2820328146	-0.5554202051	
648.125	0.2708156572	0.6724828779	
648.75	0.8853688691	-0.5811850994	
649.375	0.009229166095	-0.1702500128	
650.0	1.21643197	-0.7651028139	
650.625	-0.1923693323	-1.188146354	
651.25	0.1627936456	0.1949087491	
651.875	1.390655689	-0.3101763601	
652.5	0.4555748091	-0.8239439154	
653.125	0.2408869495	0.2201818585	
653.75	0.9234482205	-0.7234885105	
654.375	-0.5527453116	-0.5358095505	
655.0	-0.1428826554	-0.4901084387	
655.625	-0.9513112218	0.7251964702	
656.25	0.4270710878	0.0849700111	
656.875	-0.2835349179	0.2925968293	
657.5	0.4317104811	0.2589737866	
658.125	0.01239278198	0.1425020357	
658.75	0.8428164112	0.6506070447	
659.375	0.7423100444	-0.6604947539	
660.0	0.3113265946	-0.4178951472	
660.625	0.8187859816	-0.6695073768	
661.25	0.05306959505	-1.252881891	
661.875	0.2780109204	0.05403898944	
662.5	1.251904823	-0.5073659541	
663.125	0.3447230344	-0.8851982799	
663.75	0.3728972641	-0.06936081119	
664.375	-0.0002643039658	-1.329553467	
665.0	-0.5229018818	-0.0120936392	
665.625	-0.8665960853	-0.2882983251	
666.25	-0.1589246491	1.022766545	
666.875	0.1419151966	0.06758515915	
667.5	0.4091123555	0.6012336352	
668.125	0.7148012426	-0.2241825168	
668.75	0.184627426	-0.2813547983	
669.375	0.4617473643	-0.3343455446	
670.0	-0.02047524928	-0.802452088	
670.625	-0.02115969347	-0.1835094183	
671.25	0.3115990687	-0.4949258965	
671.875	0.1132646107	-0.5211304762	
672.5	0.5300934165	-0.02330549574	
673.125	0.6230653434	-0.6441337423	
673.75	0.04712774156	-0.5470197292	
674.375	0.3415045259	-0.1960495549	
675.0	-0.008647205152	-1.080193108	
675.625	-0.8418279192	0.1614496311	
676.25	0.05524118887	-0.4736210876	
676.875	-0.8136820179	0.2700694889	
677.5	0.1338634978	-0.06680515605	
678.125	-0.9465128126	0.474921726	
678.75	0.5729023345	0.1774525802	
679.375	0.1477535851	0.5232819758	
680.0	0.775053301	-0.2256310033	
680.625	-0.1952690655	-0.5172356878	
681.25	0.1529087127	0.528196749	
681.875	0.6911644331	-0.0037090877	
682.5	0.4343759859	0.05476942509	
683.125	0.2678429886	0.1000357013	
683.75	0.8690420636	0.6281445112	
684.375	0.5793064718	-0.4638589781	
685.0	0.3732027012	0.5530442932	
685.625	1.217497942	-0.0865264659	
686.25	-0.07013081508	-0.3071142719	
686.875	1.635427456	0.2145231047	
687.5	-0.04912438679	-1.496463341	
688.125	0.5980040358	-0.2355763481	
688.75	-1.433669001	-1.226906732	
689.375	-0.07733136972	1.147157001	
690.0	-0.6045418309	0.6806900227	
690.625	1.142063453	0.5580405383	
691.25	0.313395269	0.4619048547	
691.875	1.156076572	1.152121075	
692.5	1.47388193	0.1270505434	
693.125	1.377210035	0.1962828861	
693.75	1.47078447	-0.6124027456	
694.375	0.9433616794	-0.8197359655	
695.0	1.191783616	-0.8360161716	
695.625	0.8652064381	-0.2223559523	
696.25	1.488102169	0.9476504107	
696.875	1.228666169	0.3011958332	
697.5	0.1927039162	1.429547952	
698.125	2.335332186	0.4701415865	
698.75	0.3419678087	-0.3443501772	
699.375	-0.6485719087	-1.973421909	
700.0	-0.3814592766	1.392594628	
700.625	-0.4674094076	0.3409826808	
701.25	1.229504889	0.5010334877	
701.875	0.1257047515	0.3214012504	
702.5	0.9931275632	1.070858316	
703.125	0.8581919848	-0.2796985595	
703.75	1.010951252	0.30768363	
704.375	0.7069196698	-0.8860581593	
705.0	0.1472389419	0.09463211031	
705.625	1.396535312	-0.06830288672	
706.25	0.20641009	-0.08703478529	
706.875	0.259463724	1.241058245	
707.5	1.299197444	0.6908266298	
708.125	0.5371345118	0.4610595842	
708.75	1.250150524	-1.091792886	
709.375	-0.8479485177	-0.341531698	
710.0	-0.733816502	0.1138221002	
710.625	0.4849065841	0.6171652848	
711.25	-0.1084920404	0.2025544991	
711.875	0.6290765978	0.4364777712	
712.5	0.6168720804	0.05819749913	
713.125	0.8640283016	-0.63686351	
713.75	-0.06234761135	-0.3536227787	
714.375	0.5659643915	-0.7955416367	
715.0	-0.5643704645	-0.4444516665	
715.625	0.5613453021	-0.1088658003	
716.25	0.334753337	-1.473837707	
716.875	0.07963226557	0.161266561	
717.5	2.279087139	0.5614637458	
718.125	1.906162296	-1.71177282	
718.75	0.4866459007	1.887524058	
719.375	4.157410878	-2.460370877	
720.0	-0.1656292138	-1.430134374	
720.625	1.309058008	-1.608089315	
721.25	0.1433306215	-3.983713285	
721.875	-1.107212976	-1.329076382	
722.5	-0.9640451429	-2.846432334	
723.125	-2.400424735	-0.1414426858	
723.75	-0.4812534556	0.818783366	
724.375	-0.4779326394	1.208097646	
725.0	0.9287884891	0.9097132289	
725.625	0.367455915	0.7152075537	
726.25	-0.4193101292	1.560049685	
726.875	-0.1265674975	3.455203342	
727.5	1.575105319	1.589569847	
728.125	-4.254920033	6.195878511	
728.75	6.464925161	10.13644846	
729.375	1.10991539	1.370283571	
730.0	-9.942738252	15.18026773	
730.625	16.25206131	7.883126064	
731.25	-8.409997219	2.760524599	
731.875	-13.99115247	12.16164998	
732.5	-6.562230639	8.360678187	
733.125	-4.373762215	-3.011320101	
733.75	-3.625507236	5.458314501	
734.375	1.835266451	0.5948375474	
735.0	0.9334904462	-0.7588835938	
735.625	-2.280991779	0.9100291897	
736.25	0.1422340663	0.09192104205	
736.875	0.4548169905	2.261975067	
737.5	3.676060386	0.8963861151	
738.125	3.445989742	-3.43298023	
738.75	0.8051231573	1.415782403	
739.375	15.13435652	-6.385802068	
740.0	0.01596267289	-13.32282762	
740.625	2.605571129	11.72149452	
741.25	32.13222669	18.59745328	
741.875	1.863362314	-12.92846483	
742.5	-11.52033338	-16.64184125	
743.125	-4.77256584	-2.397721474	
743.75	2.668874721	-0.2860429792	
744.375	-2.282670757	-1.220848651	
745.0	0.8211744689	0.1646443023	
745.625	0.1951572251	0.287721987	
746.25	-0.1518173713	-0.4313066288	
746.875	-0.3415858084	-0.1448852498	
747.5	-0.1697908349	1.320291479	
748.125	0.4557064675	1.270581345	
748.75	0.4663720421	1.012436662	
749.375	1.644118412	1.363366944	
750.0	0.003411929666	0.4931016229	
