!Created with skrf (http://scikit-rf.org).
# GHz S RI R (50+0j) 
!freq	ReS11	ImS11	
500.0	-0.4101089719	-1.047642812	
500.625	0.6014744981	-0.5591142839	
501.25	-0.7143596416	-0.9295551629	
501.875	-0.2780741967	-0.1745857244	
502.5	0.009966811292	-0.1815023788	
503.125	-0.09201790315	0.04455709647	
503.75	-0.004393038914	0.03505211479	
504.375	0.05461698777	0.0009951485564	
505.0	-0.02036320339	-0.002935402129	
505.625	0.04747749079	-0.07080261013	
506.25	-0.1577393994	-0.01457059562	
506.875	0.004727447293	-0.2173858566	
507.5	-0.5792948808	-0.3356589199	
508.125	0.05208777333	-0.2258439504	
508.75	1.026049277	-1.042986795	
509.375	-0.645100756	-1.513517182	
510.0	-0.2807530956	-0.3085013637	
510.625	-0.04267918926	-0.2874849678	
511.25	-0.1294509137	0.03913151924	
511.875	0.01066422383	-0.08110564411	
512.5	-0.04050677883	0.07298634076	
513.125	-0.04066096966	-0.05031548365	
513.75	-0.005297945391	-0.07813875961	
514.375	-0.1639774134	0.02875702146	
515.0	0.3347201482	-0.02454919133	
515.625	-0.4596968852	-0.5570892708	
516.25	0.2255395889	-0.224812796	
516.875	0.05275133144	-0.70203273	
517.5	-0.1708493026	-0.007766439189	
518.125	0.05807915735	-0.02667084373	
518.75	-0.1512765401	-0.1751730106	
519.375	-0.03372335978	0.01920007108	
520.0	0.07624986556	0.104705288	
520.625	0.2135705424	-0.09570313589	
521.25	-0.04870382179	-0.2281027418	
521.875	-0.0608495584	-0.08806995559	
522.5	-0.09531908758	0.02342962448	
523.125	0.04819779913	-0.06129604258	
523.75	-0.2152869723	-0.06495355308	
524.375	-0.06974752185	0.1670607621	
525.0	-0.1080566912	0.001312742952	
525.625	0.05261188633	0.1502908468	
526.25	-0.05361654219	-0.1019263594	
526.875	-0.005610609487	0.1135258423	
527.5	0.01462914292	0.08085094683	
528.125	-0.08389372957	0.2962308138	
528.75	0.124925904	0.1891801778	
529.375	0.004236157356	0.0691193384	
530.0	0.08145833933	0.2884820486	
530.625	0.1616297867	0.1261656647	
531.25	0.3075608262	0.2998680518	
531.875	0.3520175719	-0.1190192498	
532.5	-0.08925840167	0.02427903766	
533.125	0.1504517369	-0.2041000653	
533.75	-0.02667370471	-0.1247035013	
534.375	0.06053629077	-0.2619784494	
535.0	-0.3479434454	-0.06011959453	
535.625	-0.09735065032	0.07630445886	
536.25	-0.03492320509	0.1115347608	
536.875	0.137050687	-0.007399859926	
537.5	0.03318120501	-0.01081196072	
538.125	0.1850245567	-0.07938004811	
538.75	0.05674717537	-0.1412204797	
539.375	-0.04143160618	-0.1648028713	
540.0	-0.2311224658	-0.203032634	
540.625	-0.1317936615	0.05833360134	
541.25	-0.06918127941	-0.06871669296	
541.875	-0.1010406135	-0.0852674118	
542.5	0.01006494793	-0.04716564189	
543.125	-0.1486407471	-0.08242202203	
543.75	-0.04267770846	0.05844203369	
544.375	-0.05401755326	-0.04662659184	
545.0	0.04730528416	0.1077266615	
545.625	-1.17181061e-05	0.0313702916	
546.25	0.1520989661	0.1098405848	
546.875	0.07996102971	-0.07936174923	
547.5	0.1051630439	-0.07796722669	
548.125	-0.07451655115	-0.2211276875	
548.75	-0.1259144592	-0.05233798072	
549.375	-0.05515470001	-0.1050514446	
550.0	-0.1232169179	0.0332319482	
550.625	-0.01009111621	-0.009276658768	
551.25	-0.1215680587	0.03255170084	
551.875	-0.04242965888	0.08810175303	
552.5	-0.06957006475	0.06164657814	
553.125	0.002967542408	0.07995598788	
553.75	0.03572051003	0.04206281778	
554.375	0.1079527253	0.00395298608	
555.0	0.0937642952	-0.07951323766	
555.625	0.08757846578	-0.1104450414	
556.25	0.06939055078	-0.1517991005	
556.875	-0.04316453343	-0.167023005	
557.5	-0.1021387933	-0.1005206817	
558.125	-0.1224410867	-0.04503864006	
558.75	-0.1232226352	0.0003644744508	
559.375	-0.1074845342	0.02976601472	
560.0	-0.1076165877	0.07038177069	
560.625	-0.0516750032	0.1354247904	
561.25	0.02329702321	0.07263884013	
561.875	0.01358000812	0.07897550141	
562.5	0.03756374247	0.01910288141	
563.125	0.05008245435	0.106584742	
563.75	0.1820781098	-0.02799100054	
564.375	0.08340609322	-0.09095782728	
565.0	0.1276360772	-0.155277393	
565.625	-0.08607142287	-0.174146035	
566.25	-0.06884762959	-0.06029847438	
566.875	-0.1748285155	-0.1293406023	
567.5	-0.2174773419	-0.01012264348	
568.125	-0.06900433826	-0.1719411748	
568.75	-0.3033362033	-0.07682086581	
569.375	-0.1686699573	0.1292873065	
570.0	-0.2318233069	0.1229082774	
570.625	-0.04357560343	0.2819299509	
571.25	0.02056485316	0.0132175228	
571.875	0.06131613726	0.1601531884	
572.5	0.09195800277	-0.1210208073	
573.125	0.1025561996	-0.008415916513	
573.75	0.08912551547	-0.204204678	
574.375	-0.0783181254	-0.03651819959	
575.0	0.1486025298	-0.04444110597	
575.625	-0.05250253089	-0.1154032118	
576.25	0.08200995579	-0.01815734572	
576.875	0.01951885298	-0.2430250099	
577.5	-0.1054685038	-0.1331446758	
578.125	0.02927090177	-0.1034855506	
578.75	-0.08282074524	-0.2528162835	
579.375	-0.1501302552	0.02613021998	
580.0	0.117426255	-0.1113478082	
580.625	-0.1876444099	0.01540985914	
581.25	0.001193901765	0.01312542193	
581.875	-0.09897678034	0.2168622709	
582.5	0.2312464138	0.1461244748	
583.125	0.01629280588	-0.0221143944	
583.75	0.06732851895	0.1289621098	
584.375	0.01939039999	-0.06182762768	
585.0	0.09348074856	0.1814647155	
585.625	0.2365036343	-0.08091056102	
586.25	0.05703316403	-0.06457935009	
586.875	0.1653402781	-0.1131167694	
587.5	-0.1132317482	-0.1663582413	
588.125	0.01844226651	-0.04828833587	
588.75	0.09295921166	-0.2217540179	
589.375	-0.03598344194	-0.1817806887	
590.0	0.04009090931	-0.1232212428	
590.625	-0.2997320671	-0.07443078663	
591.25	-0.03468313595	0.1530882647	
591.875	-0.1266813758	0.008586474424	
592.5	0.04723413607	0.16504994	
593.125	-0.07102788891	-0.06520192652	
593.75	0.1130592406	0.2212485825	
594.375	0.1190421367	-0.01526132038	
595.0	0.1162352287	0.2185551675	
595.625	0.2722105349	0.08242446024	
596.25	0.1016738464	-0.05046141037	
596.875	0.1979920748	0.1336340306	
597.5	0.2310956936	0.03473778714	
598.125	0.0839039061	0.05745018127	
598.75	0.2022450897	0.1637214555	
599.375	0.2306339335	-0.1307422348	
600.0	0.1398921828	-0.1065428396	
600.625	0.2183850794	-0.1921247312	
601.25	-0.009715015468	-0.2603587688	
601.875	-0.03732637463	-0.05056435969	
602.5	-0.2194419263	-0.1024260519	
603.125	-0.04672663452	0.1361755788	
603.75	-0.09396932593	-0.03160436788	
604.375	-0.1892709982	0.1467483303	
605.0	0.04777424277	0.09464204303	
605.625	-0.2203483344	0.1028752154	
606.25	-0.0761699752	0.1775913988	
606.875	-0.09240953892	0.009882845635	
607.5	-0.2448269817	0.244217392	
608.125	-0.02460095609	0.1779396449	
608.75	0.08814369549	0.1544903685	
609.375	0.3147040083	-0.01025698509	
610.0	0.1123440867	-0.2216206502	
610.625	0.04611007939	-0.153378402	
611.25	0.02232277096	-0.2785528573	
611.875	-0.1221865791	-0.0122987438	
612.5	-0.1037642643	-0.147768767	
613.125	-0.3099208273	0.08290196904	
613.75	0.04001675649	0.1093189205	
614.375	-0.07140062555	0.1470678484	
615.0	0.171595219	0.009950430525	
615.625	-0.1068806558	0.01515819312	
616.25	0.0622059158	0.2360451188	
616.875	0.05889336713	0.1539790167	
617.5	-0.1256618411	0.2556102811	
618.125	0.02668018329	0.2709682272	
618.75	0.0110263806	0.2333701836	
619.375	0.01439386027	0.2083257902	
620.0	0.2360006889	0.04508925036	
620.625	0.07508775986	-0.2072780108	
621.25	-0.02892846435	-0.2323010532	
621.875	-0.3040406955	-0.06947798205	
622.5	-0.1442789038	0.1861567571	
623.125	-0.1322722805	0.1826060165	
623.75	0.2633769666	0.05469441684	
624.375	-0.03959142923	-0.0249604512	
625.0	0.130506687	-0.07378207517	
625.625	-0.03969754522	-0.05195765698	
626.25	0.02923512746	-0.1453490635	
626.875	-0.2289678366	-0.1086022334	
627.5	-0.10578325	0.03969970741	
628.125	-0.07132222175	-0.1415400794	
628.75	-0.1253519108	-0.1268799364	
629.375	-0.05072165294	-0.09861580548	
630.0	-0.2127923502	-0.1726153886	
630.625	-0.2461454128	0.1429490273	
631.25	-0.008125896824	0.2465511889	
631.875	-0.07057761344	0.2943983501	
632.5	0.2327638371	0.1681288385	
633.125	0.1526422387	0.002134784863	
633.75	0.2431451406	0.03326177868	
634.375	-0.03536952931	-0.2107315116	
635.0	0.0442572682	-0.0829619139	
635.625	-0.233748488	-0.1589866789	
636.25	-0.0989177125	0.1394900825	
636.875	-0.07817239539	0.02316724867	
637.5	-0.05056066455	0.2119882002	
638.125	-0.01055770887	0.001673534515	
638.75	-0.1740062123	0.2102177081	
639.375	0.111640857	0.3154329492	
640.0	0.07745084211	0.14447315	
640.625	0.2604022711	0.2689501006	
641.25	0.3727557672	-0.07468963537	
641.875	0.06676070111	-0.1653410187	
642.5	0.09546685793	-0.2678063862	
643.125	-0.2530804767	-0.0405992402	
643.75	0.01056961054	-0.06980664066	
644.375	-0.3671085435	-0.1072025714	
645.0	-0.02181987012	0.2284345068	
645.625	-0.09520891819	0.1640565811	
646.25	0.3713386698	0.2217316964	
646.875	-0.02145183947	-0.1590666179	
647.5	0.1429576226	0.214143413	
648.125	0.1944652911	-0.1088388793	
648.75	0.130090573	0.08689642229	
649.375	0.3867171161	-0.3421576042	
650.0	-0.05821852699	-0.3862409948	
650.625	0.1770571363	-0.1210319745	
651.25	0.3520127902	-0.3439274018	
651.875	0.09159188906	-0.2763646917	
652.5	0.246361533	0.09190313299	
653.125	0.421159362	-0.2047059018	
653.75	0.0304571284	-0.2707597583	
654.375	0.117155676	-0.2351968584	
655.0	-0.4816234178	-0.103766475	
655.625	-0.03678732545	0.2408091942	
656.25	-0.1201691005	0.09755746803	
656.875	0.1834658987	0.1587573209	
657.5	-0.1801840752	-0.1321535309	
658.125	0.2270586338	0.3257441523	
658.75	0.3178765686	-0.05553749823	
659.375	0.2203301065	-0.01366227928	
660.0	0.4308252235	-0.3631900748	
660.625	-0.03385098102	-0.4180826155	
661.25	0.1867344404	-0.1460817398	
661.875	0.3355144183	-0.3679708209	
662.5	0.1523347059	-0.3125378411	
663.125	0.2317824889	-0.05229865918	
663.75	0.2323563314	-0.4145072907	
664.375	-0.1494451355	-0.2465347554	
665.0	-0.1694101363	-0.2857542604	
665.625	-0.4459301583	0.1172454147	
666.25	0.04211451486	0.2796298028	
666.875	-0.0116506535	0.2183327166	
667.5	0.3464928068	0.1316632372	
668.125	0.1169220001	-0.08361639318	
668.75	0.3303075187	0.001201552139	
669.375	0.04547254177	-0.3459611407	
670.0	0.01785163647	0.000674462622	
670.625	0.1269673294	-0.2530269991	
671.25	-0.03342418567	-0.2594277139	
671.875	0.1040856264	-0.03749893203	
672.5	0.3484519808	-0.2933431755	
673.125	0.09349057108	-0.2451031846	
673.75	0.1949125721	-0.125930649	
674.375	0.131381015	-0.3724206037	
675.0	-0.221462752	-0.1293175952	
675.625	-0.04313325653	-0.1732306173	
676.25	-0.3170240559	-0.03438385299	
676.875	-0.08999250439	0.1205784472	
677.5	-0.1647406487	-0.1064775662	
678.125	-0.1846542054	0.3051366257	
678.75	0.07960990704	0.0965695097	
679.375	0.1424106551	0.2129162577	
680.0	0.336850065	-0.2722607487	
680.625	-0.1278100849	-0.009435227747	
681.25	0.2811566635	0.07294648648	
681.875	0.07408540582	-0.2264067213	
682.5	0.02237781516	0.1423760841	
683.125	0.661533951	0.07732800724	
683.75	0.2278314784	-0.2147885728	
684.375	0.1401738613	0.2005624807	
685.0	0.448327819	-0.001902264268	
685.625	0.1512104235	-0.08496477518	
686.25	0.2518609988	0.1994929452	
686.875	0.4665245658	-0.3656597208	
687.5	0.1155573536	-0.2124772413	
688.125	0.07105106952	-0.4906405799	
688.75	-0.6275147198	-0.2062078271	
689.375	-0.07336886216	0.2796420888	
690.0	-0.06895163708	0.4074872706	
690.625	0.445729572	0.2563977134	
691.25	0.1571424544	0.1429772966	
691.875	0.4946371611	0.5800860696	
692.5	0.7388230949	-0.1138948616	
693.125	0.4824648008	0.05262602103	
693.75	0.9001125685	-0.2998890805	
694.375	0.3438667575	-0.6344272009	
695.0	0.276729378	-0.09657160878	
695.625	0.6920276977	-0.3008121567	
696.25	0.3883439988	0.06927500409	
696.875	0.4922856104	0.4871088649	
697.5	0.4995197304	0.6464259306	
698.125	0.6060838198	0.005615305823	
698.75	0.4376727957	-0.2701167094	
699.375	-0.4869303915	-0.5366671602	
700.0	-0.1679581317	0.471497903	
700.625	0.007752903342	0.1836245942	
701.25	0.344160569	0.3429445181	
701.875	0.2261323471	0.0477714551	
702.5	0.2457027337	0.3685937283	
703.125	0.6126095477	0.1298116244	
703.75	0.2516925027	-0.2178225022	
704.375	0.4627402779	-0.133938707	
705.0	0.3280742666	-0.2806578819	
705.625	0.1200775355	-0.0627158809	
706.25	0.285190099	0.3111810456	
706.875	0.2304566383	0.2315438262	
707.5	0.1660220695	0.2520682983	
708.125	0.5176239258	0.2479390041	
708.75	0.3599927268	-0.3865659928	
709.375	-0.3521598793	-0.197580216	
710.0	-0.2627930623	0.03490328129	
710.625	0.1819852001	0.1503815884	
711.25	-0.06277918381	-0.01361837776	
711.875	0.3230671289	0.3033580421	
712.5	0.2175829035	-0.1459647165	
713.125	0.3093611458	-0.02231165739	
713.75	0.2261092858	-0.3708261492	
714.375	-0.0917158763	-0.1995720755	
715.0	0.08876523353	-0.1822571212	
715.625	-0.02744862481	-0.3589137141	
716.25	0.03247465221	-0.13458796	
716.875	0.463402445	-0.05077335636	
717.5	0.6380261822	-0.1676247105	
718.125	0.4440266862	-0.01520160554	
718.75	1.027359881	0.1114840893	
719.375	0.8816734274	-0.5708381165	
720.0	0.316369092	-0.3389864644	
720.625	0.996303274	-0.4334384018	
721.25	-0.4604055702	-1.010551777	
721.875	0.03661398461	-0.6078295234	
722.5	-0.5313298381	-1.324864209	
723.125	-0.9045169074	0.08597914051	
723.75	-0.3129888799	0.2085700713	
724.375	-0.1673866586	0.7917450954	
725.0	0.3221913822	0.2052675661	
725.625	-0.1254456878	0.472702912	
726.25	0.05666308545	0.9469217819	
726.875	0.2357578701	0.7611586405	
727.5	-0.5974324177	1.099501086	
728.125	-0.190359622	2.570336998	
728.75	1.014320714	2.373007969	
729.375	-1.714168032	2.265500046	
730.0	-0.4426029889	5.473464529	
730.625	1.132002089	2.386997833	
731.25	-1.636402281	1.676899508	
731.875	-2.854881285	4.145471448	
732.5	-1.472669986	1.029268001	
733.125	-2.64611099	-0.6982318439	
733.75	-1.003228654	2.492817267	
734.375	0.7666002051	0.008428611704	
735.0	0.556854381	-0.3984816272	
735.625	-0.8335419734	0.4538125536	
736.25	-0.06927160531	-0.1272452417	
736.875	0.2490301957	0.9569213442	
737.5	1.399151905	-0.2247324297	
738.125	0.6715088498	-0.3220568409	
738.75	3.089721021	0.06850660536	
739.375	2.398758695	-3.459031959	
740.0	0.3345631936	-0.4804080443	
740.625	3.832692636	3.670214827	
741.25	4.993450169	1.360024783	
741.875	-1.932577024	-4.040514731	
742.5	-2.804380584	-4.13184515	
743.125	-1.349539158	-1.475191136	
743.75	0.5555346751	-0.4826537589	
744.375	-0.7721141231	-0.1905445886	
745.0	0.1201415779	-0.01293971675	
745.625	0.1359313389	0.07759309916	
746.25	-0.1353084132	-0.109023537	
746.875	-0.1188692465	-0.09768059298	
747.5	-0.194632795	0.4244026418	
748.125	0.2117268988	0.4859249716	
748.75	0.1411527134	0.385533124	
749.375	0.1134961724	0.6519224025	
750.0	-0.3155291526	0.3762672601	
