!Created with skrf (http://scikit-rf.org).
# GHz S RI R (50+0j) 
!freq	ReS11	ImS11	
500.0	0.3810001659	-0.4560891281	
500.625	0.6377445706	-1.304070912	
501.25	-0.6472058937	-0.3304922252	
501.875	0.004754732567	-0.4792017088	
502.5	-0.09197705763	-0.1855794255	
503.125	-0.03770097098	0.01203732678	
503.75	-0.03368011849	0.1057295093	
504.375	0.01010888582	-0.0510470154	
505.0	0.03316376906	0.01531256789	
505.625	-0.02336141627	-0.09768632142	
506.25	0.007446862272	0.03029447295	
506.875	-0.3921223199	-0.01245217664	
507.5	-0.1843494783	0.01781231892	
508.125	0.5711383899	-0.6837496979	
508.75	0.6371312195	-1.409096623	
509.375	-0.1331170955	-0.716462418	
510.0	-0.2553989187	-0.6601287858	
510.625	-0.290892412	-0.1319477787	
511.25	-0.04036885534	-0.03727608191	
511.875	-0.1828825914	-0.1144281441	
512.5	0.01387097709	0.04172109584	
513.125	0.02296677586	-0.05084728765	
513.75	-0.09266977547	-0.09350528061	
514.375	-0.02087535173	0.0660265319	
515.0	0.05238009388	-0.2880472464	
515.625	-0.09058960327	0.1420753144	
516.25	0.4205234872	-1.113387694	
516.875	-0.5108547423	-0.4072039199	
517.5	-0.05044863923	0.02686034768	
518.125	-0.08529386742	-0.09175911905	
518.75	0.01657285324	-0.05126071997	
519.375	-0.07553718087	-0.002717932563	
520.0	0.1586618472	0.0797625205	
520.625	0.1185574699	-0.08532072357	
521.25	0.01649134079	-0.2327048406	
521.875	-0.2177119447	-0.07535027655	
522.5	0.02579584203	0.07939945802	
523.125	-0.08677053324	-0.05062355141	
523.75	-0.1438784224	0.1134653085	
524.375	-0.005342730617	-0.04474121154	
525.0	-0.1739262727	0.2328822933	
525.625	0.1326502822	-0.006653704158	
526.25	-0.06234552012	0.06236866034	
526.875	0.01893745974	0.02427251645	
527.5	-0.1627698719	0.135972486	
528.125	0.1254282782	0.3741882147	
528.75	0.02391849613	0.09639698978	
529.375	-0.0146059776	0.1282666352	
530.0	0.05221407509	0.1214205471	
530.625	-0.09415966891	0.258715499	
531.25	0.3010590887	0.2530719724	
531.875	0.07899902656	-0.2300351526	
532.5	0.07956410215	-0.1125189113	
533.125	-0.09237003825	-0.1189998244	
533.75	0.1255003451	0.002537921512	
534.375	-0.1739915143	-0.3666696548	
535.0	-0.171864574	-0.03037006075	
535.625	-0.1944647224	0.03808849657	
536.25	0.001419473229	0.1407794112	
536.875	0.05449108854	-0.0056705791	
537.5	0.1088424155	-0.02175436112	
538.125	0.08293791237	-0.1198581933	
538.75	0.1248188831	-0.06803776289	
539.375	-0.08624869207	-0.2375105095	
540.0	-0.2002458666	-0.06353295782	
540.625	-0.09927186721	-0.08049057996	
541.25	-0.09194680642	-0.04519136057	
541.875	-0.003544837749	0.02322984668	
542.5	-0.002954815993	-0.09468893877	
543.125	-0.1008776772	0.02964366046	
543.75	0.06202923452	-0.002612124081	
544.375	-0.08394396892	0.08499386262	
545.0	0.006778174991	0.003618591261	
545.625	0.02600749996	0.1339843984	
546.25	0.1377913316	-0.03021505816	
546.875	0.07459629326	0.02860772199	
547.5	0.1095990077	-0.1760628336	
548.125	-0.08980346141	-0.1258315383	
548.75	-0.03759749735	-0.1124175053	
549.375	-0.1546531988	-0.1092761458	
550.0	-0.04280558402	0.04168076284	
550.625	-0.08577542178	-0.03332624332	
551.25	-0.05641930369	0.06637273605	
551.875	-0.08004433347	0.03218802471	
552.5	-0.05440784888	0.111016904	
553.125	-0.004768772147	0.0445978434	
553.75	0.03603282609	0.06250243285	
554.375	0.09857591273	-0.0109966412	
555.0	0.1023418288	-0.06498620603	
555.625	0.09801868107	-0.11455887	
556.25	0.06555750222	-0.1489503609	
556.875	-0.03430551729	-0.1609967352	
557.5	-0.1000284545	-0.1122557062	
558.125	-0.1295144926	-0.0410564645	
558.75	-0.110399401	6.813924413e-05	
559.375	-0.1129429347	0.01253812784	
560.0	-0.108401887	0.08900782235	
560.625	-0.03421229117	0.1099064066	
561.25	-0.02414531191	0.1014909453	
561.875	0.06098806279	0.05140261151	
562.5	-0.02566657769	0.04423306069	
563.125	0.1138851328	0.08997038961	
563.75	0.1033557724	-0.0197271676	
564.375	0.1706965276	-0.06490396693	
565.0	0.05719242079	-0.2009344284	
565.625	-0.03696297429	-0.107288354	
566.25	-0.08128928839	-0.1778123464	
566.875	-0.1931549208	-0.02130083707	
567.5	-0.07274225459	-0.1049024898	
568.125	-0.1932843004	-0.2552100807	
568.75	-0.2099766049	-0.01800727953	
569.375	-0.2490850884	-0.05831712923	
570.0	-0.1625925001	0.2953331551	
570.625	0.03849305333	0.1122513488	
571.25	-0.1042631423	0.1296390312	
571.875	0.1624935976	0.03640145446	
572.5	0.03998791417	0.05556843162	
573.125	0.1924665417	-0.1790105087	
573.75	-0.04632015361	-0.1343716569	
574.375	0.107069426	0.008124225569	
575.0	-0.003848821967	-0.1409335031	
575.625	0.06380299526	0.0284252503	
576.25	0.1176636813	-0.1800647357	
576.875	-0.09388877981	-0.1351527953	
577.5	0.05218981634	-0.08810452951	
578.125	0.0007277815325	-0.2763137776	
578.75	-0.1890870157	-0.0681731145	
579.375	0.0400851579	-0.04415330081	
580.0	-0.1348912067	-0.1209168113	
580.625	0.04395770284	0.07562983072	
581.25	-0.2069821427	0.01492887824	
581.875	0.1812250384	0.2296887197	
582.5	0.05194727156	0.01523351952	
583.125	0.01090032772	0.1635358098	
583.75	0.1416178004	-0.04716170349	
584.375	-0.07163061743	0.1538702872	
585.0	0.220057368	0.0476994264	
585.625	0.06928285248	-0.04580032126	
586.25	0.1988285505	0.02374330991	
586.875	-0.007967855125	-0.2327423261	
587.5	-0.005704569567	-0.04460190298	
588.125	0.04554380359	-0.2112249149	
588.75	-0.0598277522	-0.1832300626	
589.375	0.07245229189	-0.04000405173	
590.0	-0.06387915269	-0.2908776457	
590.625	-0.1757957013	0.04865999956	
591.25	-0.1265424266	0.003707280531	
591.875	-0.1066205193	0.2428111942	
592.5	0.0942587055	-0.03102930208	
593.125	-0.09305330423	0.1376992357	
593.75	0.09286458689	0.03311966681	
594.375	0.06978593393	0.2289996716	
595.0	0.2740290536	0.1602440726	
595.625	0.1632123157	-0.03657067787	
596.25	0.135787537	0.1416849927	
596.875	0.2382697963	-0.01527385556	
597.5	0.08410233061	0.02267246697	
598.125	0.130451329	0.2094170216	
598.75	0.2546886062	0.01753694049	
599.375	0.1985900599	0.01729370288	
600.0	0.2510293919	-0.1444796965	
600.625	0.1002364794	-0.2621004042	
601.25	0.02564743288	-0.1068449624	
601.875	-0.02234141099	-0.2369883307	
602.5	-0.1715088443	0.07378347823	
603.125	-0.0545970989	-0.02435467309	
603.75	-0.2536145786	0.1551228506	
604.375	0.004034889238	0.1307407753	
605.0	-0.2202552774	0.02847729195	
605.625	-0.08061806032	0.18635666	
606.25	-0.04139010851	-0.02013095903	
606.875	-0.3025635873	0.05539667405	
607.5	-0.05994767962	0.1522245034	
608.125	-0.06960180711	0.1591688234	
608.75	0.2215843066	0.1725874184	
609.375	0.247976584	-0.1436647088	
610.0	0.1637301969	-0.1215161521	
610.625	0.1650330587	-0.236189258	
611.25	-0.08528414528	-0.1459757534	
611.875	0.02396784496	-0.1565257879	
612.5	-0.260490944	-0.1288718796	
613.125	-0.07797713453	0.09173086872	
613.75	-0.1870007911	0.07300720545	
614.375	0.1363596715	0.2077646953	
615.0	-0.02443059314	-0.07319860741	
615.625	-0.01616152581	0.2280886302	
616.25	0.07855326002	0.09426393639	
616.875	-0.1722723851	0.189113966	
617.5	-0.02108471209	0.3046871735	
618.125	0.1057107363	0.1543410682	
618.75	-0.09348029131	0.1812298973	
619.375	0.07196383119	0.1524987755	
620.0	0.2613309105	0.01963876025	
620.625	0.1723842564	-0.119388889	
621.25	-0.19537891	-0.2411239578	
621.875	-0.1873164867	0.007948232085	
622.5	-0.1886026573	-0.04317478516	
623.125	-0.02082308888	0.3025338796	
623.75	0.08429734545	-0.03229826212	
624.375	0.1250185264	0.03546533479	
625.0	-0.0539072803	-0.06104378085	
625.625	0.112516032	-0.03657252529	
626.25	-0.09843121297	-0.2106868676	
626.875	-0.1302618435	0.006311188084	
627.5	-0.1079244718	-0.133614729	
628.125	-0.1741087925	-0.0600792976	
628.75	-0.0378241893	-0.0572447031	
629.375	-0.06470293206	-0.241742633	
630.0	-0.2488924633	-0.06224173613	
630.625	-0.1741562125	0.1430660638	
631.25	-0.2041846055	0.215708929	
631.875	0.02833066271	0.3048894191	
632.5	0.09599158711	0.1361458408	
633.125	0.1682255392	0.201036667	
633.75	0.1663447102	-0.1608986454	
634.375	0.07917839636	-0.06012006803	
635.0	0.0459978572	-0.2868264837	
635.625	-0.1710286034	0.002618395155	
636.25	-0.1281086208	-0.05799484481	
636.875	-0.1145884793	0.2262924681	
637.5	0.04219897237	0.03292247039	
638.125	-0.1642312634	0.08655405352	
638.75	-0.001061861741	0.2819328659	
639.375	-0.0192889658	0.1355471027	
640.0	0.1086540721	0.3631834193	
640.625	0.3452637655	0.09316450358	
641.25	0.1818735338	-0.02764636114	
641.875	0.304671519	-0.1682053712	
642.5	-0.1204080499	-0.271024114	
643.125	-0.001281078397	-0.08608248464	
643.75	-0.1654118472	-0.2754477719	
644.375	-0.151382985	0.1422274401	
645.0	-0.2229171198	0.01617628062	
645.625	0.1248622118	0.4025137721	
646.25	0.1894092015	-0.1686112163	
646.875	0.05214533534	0.1254889684	
647.5	0.170920985	-0.09789800526	
648.125	-0.02493263191	0.1844578695	
648.75	0.4611294633	-0.1134751564	
649.375	0.05164979167	-0.2991682009	
650.0	0.197875038	-0.1469824678	
650.625	0.33116472	-0.4396854076	
651.25	0.01716360062	-0.2947118146	
651.875	0.2857688917	0.05177760581	
652.5	0.4412461102	-0.1817730957	
653.125	0.1231431318	-0.1950861428	
653.75	0.3003954358	-0.0967030658	
654.375	-0.1535734946	-0.4470237738	
655.0	-0.2110567995	0.0303252341	
655.625	-0.2063874548	-0.03836979672	
656.25	0.07826773378	0.3428314416	
656.875	0.028582983	-0.1922486112	
657.5	0.009390799697	0.2729443136	
658.125	0.2179722223	0.05055265044	
658.75	0.1527074878	0.1366899839	
659.375	0.6238092993	-0.1820328171	
660.0	0.06303098877	-0.3852506867	
660.625	0.187670635	-0.2056892227	
661.25	0.2615086867	-0.4056893419	
661.875	0.06983992366	-0.3446119943	
662.5	0.2607994461	-0.03248213904	
663.125	0.3880951777	-0.3102534738	
663.75	0.04262567317	-0.2819860928	
664.375	0.09656944503	-0.3183727305	
665.0	-0.396660147	-0.2879979568	
665.625	-0.2099905109	0.1601505138	
666.25	-0.2040797369	0.1954769313	
666.875	0.2034469322	0.2920883848	
667.5	0.129722727	-0.01235294074	
668.125	0.2777318792	0.1848502125	
668.75	0.1950200396	-0.3065708827	
669.375	0.02386742013	-0.06447958471	
670.0	0.1474813038	-0.2649063344	
670.625	-0.1990349479	-0.2666811075	
671.25	0.09016227386	-0.04413203163	
671.875	0.1968684234	-0.38420906	
672.5	0.09779001784	-0.2140975955	
673.125	0.2296803659	-0.04403327022	
673.75	0.2567635768	-0.3553296004	
674.375	-0.08459274198	-0.2229864095	
675.0	0.03392832192	-0.2196458995	
675.625	-0.2968615788	-0.2079816914	
676.25	-0.1379152018	0.1126964647	
676.875	-0.1313342771	-0.1375983434	
677.5	-0.2495826017	0.1455640408	
678.125	-0.03470010573	0.07269508258	
678.75	-0.1032729104	0.2857378928	
679.375	0.4361023128	0.04386408881	
680.0	-0.03828852833	-0.07058345925	
680.625	0.2143970581	-0.0268807266	
681.25	0.04062009529	-0.2360792209	
681.875	-0.06630848255	0.2784086361	
682.5	0.5034561708	0.1464118357	
683.125	0.1425284927	-0.1549018598	
683.75	0.2253041702	0.3063621795	
684.375	0.466756436	0.1013260428	
685.0	0.03956866976	-0.07148382544	
685.625	0.2972103433	0.2816507873	
686.25	0.4593297289	-0.2028125336	
686.875	0.1343831739	-0.130288779	
687.5	0.4244400077	-0.3032352013	
688.125	-0.1974514325	-0.6196603908	
688.75	-0.2421440243	-0.05767820165	
689.375	-0.4736236791	0.2493358555	
690.0	0.2325397076	0.4573341508	
690.625	0.08801794236	0.1071946399	
691.25	0.3990425177	0.5135584432	
691.875	0.5819225114	0.03319487086	
692.5	0.3830465682	0.2993110801	
693.125	1.011865964	0.0185554328	
693.75	0.5142105446	-0.5139850125	
694.375	0.437305623	-0.1257586735	
695.0	0.6757414032	-0.3665888616	
695.625	0.3105362437	-0.1267031397	
696.25	0.2997464462	0.2760084634	
696.875	0.6336323104	0.5750933258	
697.5	0.3111865784	0.4103394727	
698.125	0.4919924338	0.3834667743	
698.75	0.5696767211	-0.532509542	
699.375	-0.5240388743	-0.2120356707	
700.0	-0.3205244477	0.1011646968	
700.625	0.08183003855	0.4786453413	
701.25	0.1859652254	0.02834833344	
701.875	0.1556540083	0.3675874552	
702.5	0.5489234781	0.2703662013	
703.125	0.2737550076	-0.006901854985	
703.75	0.516365011	0.03215104201	
704.375	0.3495343115	-0.3393827218	
705.0	0.09118421358	-0.08770548139	
705.625	0.3747257502	0.1732573481	
706.25	0.2201868167	0.08944596844	
706.875	0.09889031848	0.2594896511	
707.5	0.2700751793	0.5233175202	
708.125	0.5357033062	0.03756774351	
708.75	0.2349017813	-0.4419401726	
709.375	-0.3043527317	-0.4187241073	
710.0	-0.1251240434	0.3248976696	
710.625	0.116918329	-0.0283366691	
711.25	0.08342983687	0.3369947268	
711.875	0.1389926236	-0.00499583305	
712.5	0.3564855873	0.1231148053	
713.125	0.3444475199	-0.2729883119	
713.75	-0.003803423353	-0.2497037543	
714.375	0.1506273188	-0.2132026796	
715.0	-0.1073560021	-0.3137219621	
715.625	-0.02300692099	-0.1129672375	
716.25	0.3244761515	-0.2282208479	
716.875	0.3538158419	-0.3058138088	
717.5	0.2944342963	0.06374015129	
718.125	0.8773124236	0.2376156286	
718.75	0.8783383779	-0.3297867859	
719.375	0.5320143835	-0.2477973221	
720.0	1.043332898	-0.3096799961	
720.625	-0.1204087665	-0.9083779078	
721.25	0.04636451007	-0.5026393131	
721.875	0.05629371403	-1.493087566	
722.5	-0.8646530013	-0.5662250376	
723.125	-0.6088072576	-0.4184407102	
723.75	-0.6627164303	0.620769087	
724.375	0.2347168208	0.3624870248	
725.0	-0.05685072252	0.3679932196	
725.625	0.3128264992	0.6911236808	
726.25	0.1686405589	0.3855015451	
726.875	-0.4108656446	0.9366630536	
727.5	-0.09179282742	1.831798012	
728.125	0.4919737496	1.484154904	
728.75	-1.247486618	2.4573335	
729.375	0.06480182971	5.020396329	
730.0	1.087698208	2.616585645	
730.625	-1.517060792	3.190962186	
731.25	-0.3337323588	5.266412146	
731.875	-0.4438946268	2.114105274	
732.5	-4.339189628	0.156527113	
733.125	-3.539887353	1.384468625	
733.75	-0.1876766514	1.067835432	
734.375	0.5735729709	1.246287057	
735.0	-0.4705707862	-0.9765809478	
735.625	-0.2288815533	-0.003012242624	
736.25	-0.3534386853	0.7006580494	
736.875	0.9179641752	0.3319523529	
737.5	0.2764967745	0.3863655666	
738.125	2.552090183	-0.1690643294	
738.75	1.409071555	-2.228227608	
739.375	0.8250495004	-0.4364065445	
740.0	5.626293926	0.111356983	
740.625	2.880408456	-4.371464405	
741.25	-3.503311127	1.437011884	
741.875	-4.649366733	1.943964538	
742.5	-1.489162083	0.4653692082	
743.125	1.901146627	-2.29557515	
743.75	-0.2773371889	-1.499820165	
744.375	-0.2166191498	0.1529293394	
745.0	-0.1026627223	0.1732523648	
745.625	0.07005691976	-0.2309236367	
746.25	0.09584392419	-0.1121802432	
746.875	-0.306735517	0.01336823585	
747.5	0.04647874935	0.3136958401	
748.125	-0.06159594407	0.4475805953	
748.75	0.3653847118	0.6784803573	
749.375	0.2101968104	0.3933320911	
750.0	-0.3142694654	0.1753916216	
