!Created with skrf (http://scikit-rf.org).
# GHz S RI R (50+0j) 
!freq	ReS11	ImS11	
500.0	-0.6600504761	-1.935448673	
500.625	2.027688932	-3.320260308	
501.25	-1.937593763	-2.085659739	
501.875	-1.7375679	-0.4265608022	
502.5	0.0503868834	-0.2323694197	
503.125	-0.4167861512	0.04111846403	
503.75	0.2224053681	0.002867292055	
504.375	0.1553511626	0.0785525458	
505.0	-0.105446016	-0.1118107868	
505.625	0.2836436369	-0.2456736055	
506.25	-0.5886128569	0.1537959023	
506.875	-0.01682228893	-0.9631462388	
507.5	-1.470951418	-1.689838198	
508.125	-0.9364993288	-0.7393878932	
508.75	2.688429668	-2.192919246	
509.375	-3.51808899	-4.400631781	
510.0	-0.6493412188	-0.2910359489	
510.625	-0.5003871815	-1.148914597	
511.25	-0.2047502187	0.08688683437	
511.875	-0.4832414804	-0.22966596	
512.5	-0.07314685759	0.1936170077	
513.125	-0.05592136017	-0.2053439562	
513.75	0.008683504896	-0.2040261887	
514.375	-0.5772730062	-0.3323278306	
515.0	0.7876803713	1.628423769	
515.625	-1.51477283	-3.096052744	
516.25	-0.6751308832	0.6647356944	
516.875	0.01574490072	-2.70799644	
517.5	-1.116085492	-0.3983236771	
518.125	0.2615228948	-0.2813619373	
518.75	-0.8408401567	-0.3596912237	
519.375	-0.07838709105	0.02901422468	
520.0	0.5062930698	0.3526819695	
520.625	0.4691310531	-0.3566565376	
521.25	-0.03382812856	-0.4631292992	
521.875	-0.5714934512	-0.20246907	
522.5	0.06249055487	0.07741507474	
523.125	-0.2525279378	0.09654311829	
523.75	-0.1439209417	-0.05363968873	
524.375	-0.7215605453	0.2319654994	
525.0	0.1195017953	-0.0004359852982	
525.625	-0.05105733706	0.2995644143	
526.25	0.03647214762	-0.2905319817	
526.875	-0.1734927227	0.3668666	
527.5	0.09435485547	0.2361752534	
528.125	-0.2632731565	0.9263148364	
528.75	0.5082231216	0.9482577987	
529.375	-0.1403675494	0.09498074854	
530.0	0.4272849464	0.411061334	
530.625	-0.15123471	0.9599627518	
531.25	1.645644183	-0.3670169426	
531.875	0.3950419945	-0.1127980472	
532.5	-0.3304523279	-0.8538175868	
533.125	0.3554175887	0.403842673	
533.75	0.09036362697	-0.9024929308	
534.375	-0.08078397663	-0.4157105884	
535.0	-1.071052291	-0.6548014616	
535.625	-0.1112603385	0.4232338594	
536.25	-0.1256439162	0.1967517503	
536.875	0.3673555177	0.07818456956	
537.5	0.04526757014	-0.138018134	
538.125	0.4610026376	-0.04148203107	
538.75	0.1761078987	-0.4385468185	
539.375	-0.003695263939	-0.3550233064	
540.0	-0.5853498044	-0.5299056892	
540.625	-0.2486210731	0.1428961648	
541.25	-0.2312912876	-0.1377492177	
541.875	-0.1827238981	-0.01355818752	
542.5	-0.1101087337	-0.04110014269	
543.125	-0.07647386632	-0.2457333413	
543.75	-0.4544540776	0.113442961	
544.375	0.04781482181	-0.08111947186	
545.0	-0.04610538008	0.3832513803	
545.625	0.07275256684	-0.1081928118	
546.25	0.3040163202	0.3848539237	
546.875	0.1578762924	-0.3269271658	
547.5	0.3221086641	-0.05646098545	
548.125	-0.1274585836	-0.6544075906	
548.75	-0.3718784665	-0.08053234539	
549.375	-0.08343135211	-0.2250613871	
550.0	-0.3566906766	0.03139812407	
550.625	0.02558080008	-0.006473665647	
551.25	-0.344105475	0.07715182296	
551.875	-0.04009182057	0.1650715235	
552.5	-0.2302736229	0.1654787565	
553.125	0.02156790947	0.188107216	
553.75	0.08065425118	0.1175956392	
554.375	0.2576900016	0.02545825757	
555.0	0.2395929446	-0.1885760402	
555.625	0.2119067078	-0.2462034832	
556.25	0.1848671644	-0.3502985876	
556.875	-0.08565807063	-0.4088644264	
557.5	-0.2394843229	-0.2535928098	
558.125	-0.2796225003	-0.1217884999	
558.75	-0.2849199201	-0.002306092836	
559.375	-0.2277160064	0.04878199535	
560.0	-0.2756988209	0.148535426	
560.625	-0.1088244534	0.3266005605	
561.25	0.04543271388	0.1567055905	
561.875	0.02677213562	0.2028965035	
562.5	0.06556430696	0.01273078289	
563.125	0.1386735901	0.3098785971	
563.75	0.3460934919	-0.1378709522	
564.375	0.2635773524	-0.04360245597	
565.0	0.2797234313	-0.5014364364	
565.625	-0.1947089926	-0.2864556464	
566.25	-0.1266074667	-0.2611567206	
566.875	-0.4172308051	-0.3189089822	
567.5	-0.4037969753	-0.06786486113	
568.125	-0.1174812803	-0.4713539482	
568.75	-0.7898926056	-0.2130208125	
569.375	-0.3187753922	0.2303593859	
570.0	-0.6054615561	0.4233305024	
570.625	0.08433380781	0.6064588651	
571.25	-0.1364199331	-0.01605935617	
571.875	0.3626851768	0.5134087428	
572.5	-0.02760937573	-0.2003837989	
573.125	0.4899470691	-0.01984645157	
573.75	0.07254894432	-0.5851712725	
574.375	-0.1262157989	0.1166104458	
575.0	0.3201081464	-0.3283547893	
575.625	-0.1623315733	0.04654079286	
576.25	0.4276648111	-0.2905643134	
576.875	-0.2412178409	-0.5056307652	
577.5	-0.03573960514	-0.06295298694	
578.125	0.1494979796	-0.5007000146	
578.75	-0.4217122445	-0.4269377328	
579.375	-0.1717373184	0.08128011308	
580.0	0.02995665489	-0.317328532	
580.625	-0.2770667316	0.1900670957	
581.25	-0.2067028554	-0.1619004461	
581.875	-0.05306886835	0.7021009436	
582.5	0.4067441168	0.1290732369	
583.125	-0.253010235	0.1188728712	
583.75	0.5563489423	0.2766621763	
584.375	-0.3690474062	-0.08498830459	
585.0	0.5609659932	0.4112299329	
585.625	0.2257089225	-0.3233257586	
586.25	0.3416240654	0.2253852801	
586.875	0.2208046996	-0.6487911457	
587.5	-0.05862974674	-0.03121189439	
588.125	0.2134414933	-0.49751567	
588.75	-0.1511476184	-0.5257113545	
589.375	0.1029729064	-0.02141922491	
590.0	0.04726256463	-0.6790772504	
590.625	-0.5125859922	0.005461475712	
591.25	-0.1624607303	0.180092839	
591.875	-0.3019524539	0.2343771666	
592.5	0.2390976297	0.2012563306	
593.125	-0.284549714	0.1654227148	
593.75	0.2692687265	0.1957345223	
594.375	0.1111239893	0.2282263524	
595.0	0.5325887482	0.5884605211	
595.625	0.6357596873	-0.2482950651	
596.25	-0.03027395401	0.3549269485	
596.875	0.7603805592	0.2089776998	
597.5	0.2209278515	-0.1133333474	
598.125	0.2634564694	0.6048976094	
598.75	0.5759413432	-0.02082150593	
599.375	0.2994558899	0.1659431958	
600.0	0.660466452	-0.4574894984	
600.625	0.0782214995	-0.4469030244	
601.25	0.2886195573	-0.2449959612	
601.875	-0.1399051317	-0.5098021304	
602.5	-0.31226625	0.03555945934	
603.125	-0.2256011918	0.1275517023	
603.75	-0.3218706145	0.03042589246	
604.375	-0.3245607142	0.3760454131	
605.0	0.0118626919	-0.03333259299	
605.625	-0.3898600738	0.2812389433	
606.25	-0.001021181972	0.1293871855	
606.875	-0.6776560809	-0.03113008589	
607.5	-0.1968048761	0.7482202246	
608.125	-0.2387043326	0.2068797174	
608.75	0.4956784388	0.8538700935	
609.375	0.3055303096	-0.389494513	
610.0	0.6075309775	0.03464203534	
610.625	0.1917442506	-0.6067580719	
611.25	0.1040463141	-0.05573568181	
611.875	-0.3604776689	-0.5463512698	
612.5	-0.1826019847	-0.0160513048	
613.125	-0.5583943004	-0.07692590717	
613.75	0.02533483656	0.5254088174	
614.375	-0.1041514425	0.2349897043	
615.0	0.300328452	0.07003053188	
615.625	-0.2930251447	0.1370118951	
616.25	0.08969785882	0.6445504224	
616.875	-0.1345007923	0.1347065627	
617.5	-0.429967288	0.6868392813	
618.125	0.2334042136	0.5355287818	
618.75	-0.2399323565	0.306790979	
619.375	0.3934449237	0.5750327278	
620.0	0.2516540185	0.02801914595	
620.625	0.4534631193	-0.3534887424	
621.25	-0.1843911109	-0.2863365472	
621.875	-0.4665441437	-0.3739655871	
622.5	-0.4791292654	0.224459433	
623.125	-0.2366880976	0.3070070998	
623.75	0.5432401309	0.1262227138	
624.375	-0.105991507	0.008916978973	
625.0	0.3093833185	-0.3903402859	
625.625	-0.003242340871	0.1883342422	
626.25	0.09101077402	-0.6014698061	
626.875	-0.5624705826	0.004750845678	
627.5	-0.001959451656	-0.1329242099	
628.125	-0.4683788486	-0.3679944636	
628.75	-0.1731181687	-0.0547255654	
629.375	-0.06711386841	-0.5420266259	
630.0	-0.6416595154	-0.1340050301	
630.625	-0.3079831073	-0.05895562156	
631.25	-0.5700065208	0.4645653518	
631.875	0.04988751173	0.6690536757	
632.5	0.2997836759	0.4007931652	
633.125	0.3637104165	0.1820131021	
633.75	0.617641778	-0.07589791528	
634.375	-0.1112637161	-0.2858300852	
635.0	0.2257469784	-0.3322619159	
635.625	-0.6016296441	-0.1998785439	
636.25	-0.06759577777	-0.1008549242	
636.875	-0.4109897531	0.4939697393	
637.5	0.2423609972	0.1185929883	
638.125	-0.526766681	0.002184183604	
638.75	0.0822053429	0.8423584611	
639.375	-0.01217028459	0.04641479669	
640.0	0.01704493205	0.8682200995	
640.625	0.8803327486	0.3997117691	
641.25	0.3668482288	-0.169383271	
641.875	0.8246669819	-0.1365463993	
642.5	-0.3945260539	-0.5121653717	
643.125	0.1503201734	-0.2853194609	
643.75	-0.6917409007	-0.3559270053	
644.375	-0.01276296901	0.2668037889	
645.0	-0.7247877684	0.004208613927	
645.625	0.2338995232	0.7777140463	
646.25	0.4990368822	-0.04377026761	
646.875	-0.1616484897	0.1183974691	
647.5	0.7425926507	0.01845259015	
648.125	-0.2753580981	0.2586653213	
648.75	1.194730906	-0.0731330997	
649.375	0.0293899728	-0.8477247116	
650.0	0.6350428579	0.04564592252	
650.625	0.7510079824	-1.43451825	
651.25	-0.3428910725	-0.4376005477	
651.875	0.931959356	0.3335513433	
652.5	1.108382099	-0.7076036539	
653.125	0.0962370567	-0.3476614529	
653.75	0.981663572	-0.1664594102	
654.375	-0.443886693	-1.006723093	
655.0	-0.2324494787	0.02714708745	
655.625	-0.8967782547	0.05601324729	
656.25	0.5246919579	0.7361871786	
656.875	-0.2641208677	-0.1094899263	
657.5	0.2249710812	0.5506237805	
658.125	0.4084695792	0.1155917911	
658.75	0.2763216314	0.4010654304	
659.375	1.267608805	-0.3806677962	
660.0	0.137564952	-0.7429585898	
660.625	0.5322676113	-0.4036136553	
661.25	0.734503684	-1.114080226	
661.875	-0.1603355664	-0.5477788062	
662.5	0.9766161655	0.09049379204	
663.125	0.8539580472	-0.9622761411	
663.75	-0.03836804773	-0.3980222863	
664.375	0.4561617071	-0.8705664813	
665.0	-1.060826358	-0.3972173638	
665.625	-0.3734734158	-0.09067564148	
666.25	-0.5960409718	0.8343518766	
666.875	0.5619942362	0.3090395883	
667.5	0.02578060741	0.4218578347	
668.125	0.8625062746	-0.0174959465	
668.75	0.2519709598	-0.4788283569	
669.375	0.2623868012	-0.2458417181	
670.0	0.2556619447	-0.6696220568	
670.625	-0.3010049333	-0.4992158193	
671.25	0.3334808735	-0.1976132658	
671.875	0.4001294778	-0.5938663339	
672.5	0.1758704524	-0.335473182	
673.125	0.8391902462	-0.2028891234	
673.75	0.247697637	-0.8666762275	
674.375	-0.02630343968	-0.1881154392	
675.0	0.295697606	-0.8092017609	
675.625	-0.939942018	-0.4497295453	
676.25	0.04352013366	0.2329526243	
676.875	-0.758803571	-0.4302869794	
677.5	-0.06638509328	0.4074948483	
678.125	-0.5597536831	-0.1432229632	
678.75	0.3768998971	1.015553557	
679.375	0.03118350552	-0.02302256829	
680.0	0.5817090362	0.1052270674	
680.625	0.3071239209	-0.5714468468	
681.25	-0.2748186713	0.06021563775	
681.875	0.5872699167	0.5204314063	
682.5	0.6618566732	0.006070559479	
683.125	0.455331659	0.006650001853	
683.75	0.3368319637	0.5352824593	
684.375	1.268823176	-0.0794021838	
685.0	-0.01511222194	0.0465217474	
685.625	1.129104796	0.3363011754	
686.25	0.628788747	-0.7623794716	
686.875	0.5253211702	0.6169428343	
687.5	1.324555592	-1.588145175	
688.125	-0.6142213433	-0.2185241374	
688.75	-0.5779207547	-1.405221371	
689.375	-0.9310300691	1.316982295	
690.0	0.258131731	0.2652456398	
690.625	0.5664590524	1.25449577	
691.25	0.6652916788	0.2056118378	
691.875	0.7351332523	0.9921731916	
692.5	1.736613592	0.5714590779	
693.125	1.202942383	-0.0741883397	
693.75	1.44739542	-0.3990440845	
694.375	0.9637605434	-0.900823522	
695.0	1.298022195	-0.6466411042	
695.625	0.9584967754	-0.4170818332	
696.25	0.9235389778	0.910947601	
696.875	1.782543323	0.9553232528	
697.5	0.3413685514	0.6526498708	
698.125	1.747582522	1.432397517	
698.75	0.5975771242	-1.461039887	
699.375	0.1518484592	-1.356933939	
700.0	-1.204454481	1.338330514	
700.625	0.4103254936	0.1130759916	
701.25	0.4544064712	1.144656097	
701.875	0.587680013	-0.006852363237	
702.5	0.5063317374	0.9379974609	
703.125	1.342771988	0.1964403428	
703.75	0.4245830675	0.1072884636	
704.375	1.120640278	-0.5962126365	
705.0	0.1166348348	-0.466733713	
705.625	0.8084719214	0.5879550472	
706.25	0.9712442799	-0.1206047496	
706.875	0.0586660568	0.7135833692	
707.5	1.034873677	1.399202193	
708.125	0.8891068276	-0.143322207	
708.75	1.149173626	-0.368527771	
709.375	-1.038673012	-0.9597027945	
710.0	-0.2577520419	0.2441404698	
710.625	-0.06481873313	0.7309756479	
711.25	0.2560157477	-0.03595374273	
711.875	0.4210228448	0.5436092731	
712.5	0.7505997205	-0.1054080094	
713.125	0.8542849999	-0.2741233285	
713.75	0.1379271305	-0.7631922462	
714.375	0.3776994669	-0.1747114067	
715.0	-0.3425824909	-0.9621124839	
715.625	-0.08514747864	-0.02451748734	
716.25	1.142453002	-0.7747455893	
716.875	0.02830210274	-1.160401204	
717.5	1.040421846	1.063471298	
718.125	3.144665722	-0.295178061	
718.75	0.1161106885	-1.240024288	
719.375	3.76830607	0.8947352402	
720.0	0.2273290667	-3.935244082	
720.625	0.7082816787	-1.134215554	
721.25	1.113736709	-2.808298743	
721.875	-1.678522676	-2.801929495	
722.5	-0.2560432547	-1.723217653	
723.125	-2.658293389	-0.7544409289	
723.75	-0.7295287257	1.280977415	
724.375	-0.2349902742	0.7500222313	
725.0	0.2923937003	1.336226816	
725.625	0.9292402896	0.8977676896	
726.25	-0.1552970608	0.8579358054	
726.875	-1.127509828	2.954953031	
727.5	1.450380211	4.740936379	
728.125	-0.6983588556	1.036394247	
728.75	-5.282139028	15.67352146	
729.375	5.048863357	7.179475223	
730.0	-8.861610846	1.718699462	
730.625	5.247074361	27.54920638	
731.25	2.294018189	-0.3039648614	
731.875	-14.15767636	4.570578076	
732.5	-12.74066928	5.779297653	
733.125	-3.369259319	2.9991391	
733.75	-4.666949198	1.144249772	
734.375	3.347662935	0.8935657174	
735.0	-0.001090955723	-0.8675937501	
735.625	-1.643505969	-0.7078467363	
736.25	1.107060294	1.468436313	
736.875	-0.3518251365	1.342252507	
737.5	3.788823797	1.348048422	
738.125	4.873892389	-2.292018456	
738.75	0.2400131241	-3.72931346	
739.375	11.13039651	3.945726269	
740.0	14.40228814	-15.62362644	
740.625	-13.08890336	0.8236329436	
741.25	7.740651318	20.48948425	
741.875	27.23877944	21.1659964	
742.5	0.4459316068	-15.79003475	
743.125	-4.804632171	-8.730051966	
743.75	-0.7742312308	0.3434042608	
744.375	-0.7060334186	-2.292100898	
745.0	0.6433007088	0.8568609291	
745.625	-0.1182006122	0.2832582017	
746.25	0.09209110677	-0.5574911996	
746.875	-0.4096408204	0.2513646106	
747.5	-0.7237406986	0.4818356154	
748.125	0.454389058	1.604554441	
748.75	0.6072019259	0.8980548231	
749.375	-0.3694315708	1.762214256	
750.0	2.283323658	12.77349918	
