!Created with skrf (http://scikit-rf.org).
# GHz S RI R (50+0j) 
!freq	ReS11	ImS11	
500.0	-0.2104393332	-1.099943977	
500.625	0.04804639616	-0.3389398927	
501.25	-0.4685303214	-0.7413890249	
501.875	-0.3018353687	-0.1179503732	
502.5	-0.003534366263	-0.09947907793	
503.125	-0.0986200683	0.03294275011	
503.75	0.02906088286	-0.0002279398565	
504.375	0.04153831063	0.01529216392	
505.0	-0.01676886435	-0.0384428986	
505.625	0.0550594991	-0.03675145547	
506.25	-0.1263530064	-0.07064430988	
506.875	0.09209673981	-0.0943548797	
507.5	-0.2270385063	-0.5126641144	
508.125	-0.1166499591	-0.1988254666	
508.75	0.7766821733	-0.6866960154	
509.375	-0.5505126372	-1.256707019	
510.0	-0.3862219613	-0.1027221821	
510.625	-0.02575832418	-0.16542494	
511.25	-0.1346498785	-0.0658959501	
511.875	-0.04428609902	-0.006594542382	
512.5	-0.03359371685	0.04419651068	
513.125	-0.04337355746	-0.04045607512	
513.75	-0.002180474994	-0.0324097881	
514.375	-0.1324898935	-0.02737046652	
515.0	0.1649451634	0.1713660558	
515.625	-0.02495913594	-0.7233259702	
516.25	-0.1265824806	0.1687464964	
516.875	0.1339437436	-0.4320014313	
517.5	-0.1198807389	-0.2522952158	
518.125	0.02654552885	0.03121770175	
518.75	-0.141395699	-0.1155718034	
519.375	-0.01151222089	0.03132964827	
520.0	0.09504850633	0.06614883368	
520.625	0.172143019	-0.06179350698	
521.25	0.007406560627	-0.1562926717	
521.875	-0.06636173676	-0.01567429992	
522.5	-0.09928491057	0.001979451426	
523.125	0.05231213567	0.0639923595	
523.75	-0.06099770799	-0.08298381401	
524.375	-0.1757833246	0.1480448129	
525.0	0.007258773948	0.005348681867	
525.625	-0.00569610039	0.1077710288	
526.25	0.005782320421	-0.09228510721	
526.875	-0.07800738165	0.1148913927	
527.5	0.04698178782	0.08104246819	
528.125	-0.06046080165	0.1491807417	
528.75	0.1559527452	0.1752986401	
529.375	0.02449288407	-0.01450499439	
530.0	0.08110955173	0.1845244351	
530.625	0.07468868476	0.1988742545	
531.25	0.2814339962	0.1316800925	
531.875	0.2200496791	-0.2152144585	
532.5	-0.1209933372	-0.1916493111	
533.125	0.1405531522	-0.06158857199	
533.75	-0.03394498899	-0.2846281127	
534.375	-0.03706576428	-0.1409846734	
535.0	-0.2662393299	-0.138504597	
535.625	-0.06947871127	0.138911559	
536.25	-0.0219662018	0.06636259509	
536.875	0.1151183009	0.0006328489803	
537.5	0.01267052018	-0.03914295607	
538.125	0.1499393365	-0.02200688526	
538.75	0.05610733184	-0.1630442538	
539.375	-0.02785937793	-0.09883841185	
540.0	-0.1474202711	-0.1502926868	
540.625	-0.1619388727	0.01113566031	
541.25	-0.03356598234	-0.007188898688	
541.875	-0.09508111836	-0.01741322382	
542.5	-0.03780837749	-0.009565419084	
543.125	-0.0431241811	-0.07102410181	
543.75	-0.09100940759	0.04628608485	
544.375	-0.006193353079	0.002051446876	
545.0	-0.006280530906	0.104198898	
545.625	0.04614755202	-0.004608677392	
546.25	0.04994967194	0.1157504975	
546.875	0.1270050101	-0.09261669832	
547.5	0.0214080245	-0.05627654694	
548.125	-0.01227682352	-0.181380832	
548.75	-0.155389702	-0.05697898552	
549.375	-0.04667876783	-0.03871468937	
550.0	-0.1162216238	-0.0005239226349	
550.625	-0.004969426339	0.02514537949	
551.25	-0.09322994673	0.005520085192	
551.875	-0.04081319481	0.0903365678	
552.5	-0.02117091435	0.04935944809	
553.125	-0.009470838045	0.06959526355	
553.75	0.04233898242	0.02431020518	
554.375	0.08296244556	-0.003250884345	
555.0	0.08129796178	-0.07798596149	
555.625	0.06404273585	-0.09899680079	
556.25	0.05003648796	-0.126725628	
556.875	-0.04545136233	-0.1407690748	
557.5	-0.0981045602	-0.08090530946	
558.125	-0.1031576527	-0.02576474955	
558.75	-0.1041151594	0.002117874266	
559.375	-0.0947742573	0.03713764437	
560.0	-0.07880802917	0.06071502517	
560.625	-0.04762051049	0.1142606571	
561.25	0.0419527708	0.07442334476	
561.875	-0.001580353633	0.04690768891	
562.5	0.04920739264	0.04020354709	
563.125	0.03144345309	0.06160505854	
563.75	0.1643900188	0.001717337539	
564.375	0.07609551066	-0.1193925775	
565.0	0.06879759296	-0.09274753796	
565.625	-0.06264325935	-0.1725130186	
566.25	-0.1008252583	-0.02451902398	
566.875	-0.11125971	-0.1070798581	
567.5	-0.1729799034	-0.05974881689	
568.125	-0.06847830945	-0.07565934261	
568.75	-0.260883037	-0.125878416	
569.375	-0.1713126375	0.1870854538	
570.0	-0.06950632365	0.09445253889	
570.625	-0.1010910019	0.2147477496	
571.25	0.1134472035	0.0518603373	
571.875	-0.002209396165	0.1164685124	
572.5	0.1412847026	-0.08799777348	
573.125	0.02832960725	-0.01343695265	
573.75	0.1275168481	-0.1591644222	
574.375	-0.09694734437	-0.08163439616	
575.0	0.08135329647	0.03080647306	
575.625	-0.001248584229	-0.1483616117	
576.25	-0.01599022175	-0.03009991033	
576.875	0.06256156409	-0.142489079	
577.5	-0.06745129194	-0.190032348	
578.125	-0.04885427745	-0.0571529697	
578.75	-0.01492517122	-0.1779900408	
579.375	-0.1899323558	-0.03661826725	
580.0	0.04009951336	0.002375251597	
580.625	-0.1874870677	-0.0566671756	
581.25	0.06824428431	0.09721982735	
581.875	-0.1029294086	0.08241606321	
582.5	0.1042042593	0.2452310872	
583.125	0.09471615505	-0.08120987607	
583.75	-0.02930952332	0.108157192	
584.375	0.09692029282	-0.05056100827	
585.0	0.007812717379	0.09499511405	
585.625	0.2466385153	-0.05073229379	
586.25	0.03478636853	-0.113588253	
586.875	0.1143242803	-0.05573008328	
587.5	-0.06295755008	-0.2052693346	
588.125	-0.03713751895	-0.03380957902	
588.75	0.09386412827	-0.1330849567	
589.375	0.002607133429	-0.2054763138	
590.0	-0.05444866208	-0.06077139752	
590.625	-0.1874364951	-0.1174498323	
591.25	-0.07802960591	0.2040615464	
591.875	-0.004096565706	-0.02075582724	
592.5	-0.05073272743	0.1441394459	
593.125	0.0263112875	-0.07040564787	
593.75	0.007567092899	0.2166309201	
594.375	0.1869559996	-0.06820749967	
595.0	0.03071165459	0.07938146772	
595.625	0.2326796057	0.1286412959	
596.25	0.1465915521	-0.06348270092	
596.875	0.1155136065	0.11471242	
597.5	0.2188651741	0.06372865987	
598.125	0.08647352092	0.02080342033	
598.75	0.1578871919	0.1192094394	
599.375	0.2221395464	-0.09411480571	
600.0	0.06237020162	-0.1301833694	
600.625	0.1337597442	-0.1515828064	
601.25	0.03605369493	-0.2339113207	
601.875	-0.1102778744	-0.06944724127	
602.5	-0.0901834637	-0.08599885553	
603.125	-0.1141089845	0.148529583	
603.75	-0.007380548172	0.01857817758	
604.375	-0.2016044927	0.06525943467	
605.0	0.02471410274	0.1738308033	
605.625	-0.08441958216	-0.07873684354	
606.25	-0.06383857795	0.2013149503	
606.875	-0.04731796156	0.02882489742	
607.5	-0.2042369943	0.2339030143	
608.125	0.07559705874	0.2814522761	
608.75	0.1058375893	0.05699652137	
609.375	0.2453291316	-0.08206580637	
610.0	0.1182938038	-0.1779916565	
610.625	0.01426247656	-0.09633576826	
611.25	0.01900323465	-0.114679953	
611.875	-0.1438350412	-0.1118052535	
612.5	-0.0641975321	0.01213423589	
613.125	-0.2305786709	-0.01190319678	
613.75	-0.008601407633	0.2249180148	
614.375	-0.02823651782	0.01305591934	
615.0	0.1389908256	0.1230148102	
615.625	-0.01508032831	-0.04526035369	
616.25	-0.1331440393	0.1810971721	
616.875	0.06508719912	0.2485915393	
617.5	-0.1458428521	0.1924338943	
618.125	-0.01921844175	0.2842684796	
618.75	0.1459249456	0.1627435641	
619.375	0.02394509162	0.09648881597	
620.0	0.09285874465	0.009753922116	
620.625	0.05814456515	-0.1504643535	
621.25	-0.1289890748	-0.0877686411	
621.875	-0.2324859909	-0.07459985523	
622.5	-0.2872340827	0.2089116974	
623.125	-0.007823432273	0.09267559093	
623.75	0.1821624838	0.06924115787	
624.375	-0.03672938937	-0.08980451177	
625.0	0.1082378177	0.03310717557	
625.625	-0.02368668996	-0.1462517089	
626.25	-0.001409800473	-0.05086530351	
626.875	-0.148685786	-0.1359856615	
627.5	-0.1653318267	0.03875464423	
628.125	-0.03051088283	-0.05185894287	
628.75	-0.1408721032	-0.1638916916	
629.375	-0.09467012303	-0.08913602231	
630.0	-0.1570632504	-0.1296862705	
630.625	-0.2194607851	0.1017029074	
631.25	-0.04236759326	0.1713857612	
631.875	0.01380368483	0.1331489196	
632.5	0.1613786551	0.2344310966	
633.125	0.2142106693	-0.07564611798	
633.75	0.08850942409	-0.02014203205	
634.375	0.08836305107	-0.2319151215	
635.0	-0.05698149984	-0.04442572252	
635.625	-0.1154358669	-0.1973962165	
636.25	-0.1482732562	0.1895509816	
636.875	-0.001100474161	0.03452307301	
637.5	-0.1231036426	0.1125393836	
638.125	0.0560550405	0.09015479779	
638.75	-0.1352676577	0.09197381811	
639.375	0.05334161855	0.3218283768	
640.0	0.2017682378	0.08874639887	
640.625	0.1421599463	0.1841512315	
641.25	0.3455460033	-0.03866457278	
641.875	0.04922943416	-0.2001220508	
642.5	0.03198324155	-0.1023929905	
643.125	-0.1893981817	-0.2037555136	
643.75	-0.05476562128	0.08858336746	
644.375	-0.1719663045	-0.08871824447	
645.0	-0.1197700345	0.3605102705	
645.625	0.06436823642	0.06040634606	
646.25	0.1272204584	0.3214097917	
646.875	0.174479944	-0.2283048475	
647.5	-0.06096315648	0.1564703086	
648.125	0.2979914688	-0.05612669074	
648.75	0.04575832695	-0.0813523271	
649.375	0.3187531993	-0.1217126239	
650.0	0.06991622386	-0.4353464173	
650.625	-0.02201610111	-0.1317840076	
651.25	0.3247110295	-0.1762399846	
651.875	0.1796416277	-0.3558604219	
652.5	0.08324919008	-0.01319452403	
653.125	0.3939134738	-0.100244572	
653.75	0.02491696142	-0.3452541885	
654.375	-0.06048135383	-0.1365846323	
655.0	-0.302040209	-0.1956279184	
655.625	-0.08772744828	0.3022179063	
656.25	0.04779216935	-0.03217458723	
656.875	0.0080298873	0.2116079482	
657.5	0.1028564828	-0.07947329275	
658.125	0.004232320528	0.3462559571	
658.75	0.4320322988	-0.0614164233	
659.375	0.08189802503	-0.1434990377	
660.0	0.3328953699	-0.1671180661	
660.625	0.03406257821	-0.5002191737	
661.25	-0.01862356746	-0.1610683198	
661.875	0.3375139014	-0.2180451016	
662.5	0.1873412198	-0.3308754723	
663.125	0.08253436249	-0.1373465689	
663.75	0.2482477358	-0.2776587795	
664.375	-0.2215437636	-0.2858412211	
665.0	-0.1462950571	-0.1108366376	
665.625	-0.3606430067	0.07377482513	
666.25	0.03094506903	0.3233484156	
666.875	0.06485390254	0.08262619241	
667.5	0.2125864333	0.1337570945	
668.125	0.1824609747	-0.139224637	
668.75	0.1050505536	0.01251726581	
669.375	0.1572960796	-0.3184681485	
670.0	-0.1401595947	-0.1508756061	
670.625	0.1279747577	-0.1185883158	
671.25	0.007138517659	-0.3116725493	
671.875	-0.03549626359	-0.09709114103	
672.5	0.3205547588	-0.06509967983	
673.125	0.09304119452	-0.3271281312	
673.75	0.09254313374	-0.08697080595	
674.375	0.09796712464	-0.2693389237	
675.0	-0.2163587082	-0.2422123042	
675.625	-0.06505832908	-0.001719003163	
676.25	-0.2753555481	-0.08234914062	
676.875	-0.1318536461	0.1515181058	
677.5	-0.04611130648	-0.03721779956	
678.125	-0.1961342915	0.2083513806	
678.75	0.1788034445	0.1485446969	
679.375	0.07120881604	0.04641582276	
680.0	0.266900012	-0.06293229445	
680.625	-0.1214003731	-0.2175591521	
681.25	0.08976169952	0.1765029125	
681.875	0.3256094301	-0.1931877665	
682.5	-0.02787747874	-0.03909200479	
683.125	0.2096666824	0.2689733601	
683.75	0.4260110865	-0.1993260683	
684.375	-0.05082791143	0.08783568783	
685.0	0.5464558234	0.01356328138	
685.625	0.2473602307	-0.1734302682	
686.25	0.177768537	0.05319098264	
686.875	0.441589118	-0.2216892078	
687.5	0.02082301403	-0.2930604847	
688.125	0.03576115772	-0.3185268393	
688.75	-0.4932827365	-0.1185794698	
689.375	-0.05272160887	0.4049177347	
690.0	0.09021896766	0.2827873021	
690.625	0.3388326834	0.2885412904	
691.25	0.3216321552	0.03930285487	
691.875	0.2610578836	0.316001864	
692.5	0.8453755504	0.1135216032	
693.125	0.3683089641	-0.2468889924	
693.75	0.5604236679	-0.04767871228	
694.375	0.3425703251	-0.6873645058	
695.0	0.08816882617	-0.2636109425	
695.625	0.8179898838	-0.1298131507	
696.25	0.5237315347	-0.1916181529	
696.875	0.2214322543	0.1766454585	
697.5	0.4860291026	0.3765716078	
698.125	0.4600964303	0.02913192991	
698.75	0.2395096049	-0.3336340472	
699.375	-0.4188586698	-0.1678933063	
700.0	-0.1958710261	0.4290954021	
700.625	0.2382377362	0.1553189718	
701.25	0.185454854	0.2389086307	
701.875	0.4062589792	0.1303174199	
702.5	0.1849848594	0.1464251313	
703.125	0.4458832738	0.2082413479	
703.75	0.3684815681	-0.2767726409	
704.375	0.08964225623	-0.08004956573	
705.0	0.3463744146	-0.2181109206	
705.625	0.1517535286	-0.1565519539	
706.25	0.1791552364	0.2242323518	
706.875	0.4124825351	0.2563656583	
707.5	0.2173047038	0.1561795513	
708.125	0.4079405872	0.1726510847	
708.75	0.1490813387	-0.1986517416	
709.375	-0.2740292354	-0.1938796162	
710.0	-0.1226053616	0.1335633502	
710.625	0.0762965899	0.1680768719	
711.25	0.2248581645	-0.205495164	
711.875	0.1624891363	0.168309555	
712.5	0.4270222712	-0.1630402592	
713.125	0.07706715946	-0.126826068	
713.75	0.2904848845	-0.2170053645	
714.375	-0.1129242335	-0.2818780858	
715.0	-0.01950713425	-0.06081716493	
715.625	0.07848256831	-0.2952204812	
716.25	-0.008121392048	-0.2627971917	
716.875	0.2219549567	-0.0492690504	
717.5	0.5842663142	-0.07290527247	
718.125	0.4196909149	-0.3132535555	
718.75	0.6102668679	0.1518978594	
719.375	0.6950536232	-0.5298867172	
720.0	0.08182027607	-0.5852779369	
720.625	0.2810133481	-0.8080411347	
721.25	-0.3656107132	-0.9399522092	
721.875	-0.8136970591	-0.3499730295	
722.5	-0.299418848	-0.5577378506	
723.125	-1.07651017	0.05811688765	
723.75	-0.08391637181	0.4787584196	
724.375	-0.3053911626	0.2899160253	
725.0	0.4849175641	0.4330268877	
725.625	0.07429058596	0.1691457209	
726.25	-0.1084420742	0.7719891436	
726.875	0.3382680034	0.9437765644	
727.5	0.05203914269	0.6688062041	
728.125	-0.2916873351	1.850329808	
728.75	0.9872955959	2.711144784	
729.375	0.4097681797	1.561639816	
730.0	-1.029164372	3.715387682	
730.625	2.371323112	2.974591616	
731.25	-0.9724374632	1.909652117	
731.875	-2.284072707	2.53306555	
732.5	-2.532220415	2.672525468	
733.125	-0.6436053453	0.1875761076	
733.75	-0.7259580045	1.445514582	
734.375	0.9569394953	-0.06867555325	
735.0	-0.001697440909	-0.03385576676	
735.625	-0.7816733784	-0.04129621773	
736.25	0.3920560096	0.3768030177	
736.875	-0.03637853907	0.5261674267	
737.5	1.552696952	-0.07701271201	
738.125	0.5667005439	-1.013752965	
738.75	1.208150488	0.04328088264	
739.375	3.4036685	-2.302846998	
740.0	-0.1611007886	-3.147489852	
740.625	0.3735789743	2.115176084	
741.25	2.418687151	3.858847653	
741.875	1.748293605	-0.1292069924	
742.5	-0.6843056622	-3.450990672	
743.125	-1.106644704	-1.923268423	
743.75	-0.2497089551	-0.2722648597	
744.375	-0.4672224818	-0.3227066185	
745.0	0.1976390765	0.05390466228	
745.625	0.02377368188	0.0866301509	
746.25	-0.06882783573	-0.2056159595	
746.875	-0.1069225486	0.1036136634	
747.5	-0.1332143541	0.2231758924	
748.125	0.3135646146	0.5460569147	
748.75	0.2689588792	0.1834018468	
749.375	0.010695473	0.4311741234	
750.0	-0.285663438	0.44824046	
