!Created with skrf (http://scikit-rf.org).
# GHz S RI R (50+0j) 
!freq	ReS11	ImS11	
500.0	-0.07670659721	-1.098953879	
500.625	-0.04986062386	-0.3429935384	
501.25	-0.4032818548	-0.8115919847	
501.875	-0.4221141427	-0.1887600345	
502.5	0.02280416626	-0.07780969086	
503.125	-0.09235653715	0.02353966694	
503.75	0.02238181434	-0.009495642294	
504.375	0.04647875804	0.01512395992	
505.0	-0.02793059797	-0.03059965546	
505.625	0.04852910507	-0.02171474634	
506.25	-0.1320510372	-0.08988984735	
506.875	0.09433660584	0.007003679733	
507.5	-0.1222916479	-0.5899530428	
508.125	-0.2304494016	-0.3812485111	
508.75	0.7734944181	-0.5898943947	
509.375	-0.8743966358	-1.092377956	
510.0	-0.2918021186	-0.06614085703	
510.625	-0.03417260871	-0.1717845006	
511.25	-0.1046440553	-0.005872095221	
511.875	-0.02475382432	0.03294755505	
512.5	-0.0373073691	0.03866141782	
513.125	-0.05319643725	-0.06250894341	
513.75	0.01267499235	-0.01184658849	
514.375	-0.1295912216	-0.05261115775	
515.0	0.1654568021	0.1678707434	
515.625	-0.2416956704	-0.5752353637	
516.25	-0.3666319463	0.02528572244	
516.875	0.081840287	-0.5303195491	
517.5	-0.1251355249	-0.2461845414	
518.125	0.003348640051	0.04647120513	
518.75	-0.04331909015	-0.2069605052	
519.375	-0.01775639646	0.02447975604	
520.0	0.0669767517	0.05929470749	
520.625	0.1582753115	-0.07041618329	
521.25	-0.1313690071	-0.194502187	
521.875	-0.1253471943	-0.0109888207	
522.5	-0.07464454309	0.02419260916	
523.125	0.05938416999	0.05498973284	
523.75	-0.08250181427	-0.09355931541	
524.375	-0.235486033	0.1308668814	
525.0	0.04006552168	0.02054936711	
525.625	-0.02885455432	0.09730802478	
526.25	0.02416186814	-0.08419844273	
526.875	-0.06569426493	0.1059897801	
527.5	0.05308197987	0.1020593183	
528.125	-0.03736220878	0.2260194892	
528.75	0.04378332025	0.2833631257	
529.375	-0.0004394503261	0.03873815356	
530.0	-0.0230388423	0.212757907	
530.625	0.1040989635	0.2377431569	
531.25	0.3881708625	-0.02937132973	
531.875	0.22918398	-0.1211930083	
532.5	-0.1202536166	-0.06337261711	
533.125	0.1439172533	0.07283290611	
533.75	-0.02874357881	-0.1815525435	
534.375	-0.03657939734	-0.09612266318	
535.0	-0.2306895904	-0.1322850735	
535.625	-0.08470743302	0.1627561671	
536.25	-0.01517709248	0.05445716117	
536.875	0.1128034702	0.01491085987	
537.5	0.02122551129	-0.04356846209	
538.125	0.1374649538	-0.01076536262	
538.75	0.0704581644	-0.1633109823	
539.375	-0.03673688746	-0.102946837	
540.0	-0.1445300842	-0.1626130097	
540.625	-0.1625203383	-0.01037615957	
541.25	-0.05770868308	0.04057770832	
541.875	-0.0647493037	-0.04736139846	
542.5	-0.02980270797	0.005186595693	
543.125	0.005703333315	-0.06513486443	
543.75	-0.1304356672	0.03600516822	
544.375	0.02842075992	-0.02375641961	
545.0	-0.02088836769	0.09863876712	
545.625	0.05334681994	-0.01095242963	
546.25	0.06906939537	0.08313043274	
546.875	0.1401827298	-0.0970995207	
547.5	0.003273684866	-0.07106924646	
548.125	0.01285955946	-0.1636777916	
548.75	-0.1743591081	-0.08724459784	
549.375	-0.04619455862	-0.02048964061	
550.0	-0.1095363398	-0.01367917828	
550.625	-0.007218418907	0.0321616621	
551.25	-0.09309555733	0.008169560849	
551.875	-0.04722481512	0.09642644948	
552.5	-0.02210404495	0.04834603245	
553.125	-0.02171467768	0.06491530611	
553.75	0.04837667256	0.02459105813	
554.375	0.07461846933	0.003023278164	
555.0	0.08557379067	-0.0774122884	
555.625	0.06192335537	-0.09975577363	
556.25	0.04990312846	-0.1270988538	
556.875	-0.0460023065	-0.1431462721	
557.5	-0.1000868291	-0.08060579469	
558.125	-0.1048058223	-0.02553246454	
558.75	-0.1028031646	0.002329418329	
559.375	-0.0975884796	0.03651509264	
560.0	-0.07305203413	0.06090399678	
560.625	-0.05425471125	0.1098887964	
561.25	0.03593928439	0.08723190663	
561.875	-0.00977804283	0.04210312331	
562.5	0.0542809423	0.04645301957	
563.125	0.02833299054	0.0606215837	
563.75	0.1632446944	0.003001976119	
564.375	0.07323461269	-0.1255818292	
565.0	0.06012278601	-0.09047389182	
565.625	-0.04338055931	-0.1891017048	
566.25	-0.1153348841	-0.03823636524	
566.875	-0.08045997604	-0.1104859324	
567.5	-0.1915908983	-0.08533410835	
568.125	-0.08562488638	-0.07536786182	
568.75	-0.2578637578	-0.151890443	
569.375	-0.1682253751	0.1969211508	
570.0	-0.07467685843	0.09926986187	
570.625	-0.1122494384	0.1916685946	
571.25	0.1024763264	0.09472727091	
571.875	-0.0276163152	0.1054398307	
572.5	0.1760901394	-0.07043743731	
573.125	-0.004072916987	-0.044787031	
573.75	0.154206756	-0.1291460879	
574.375	-0.1047635801	-0.09005897399	
575.0	0.08672677181	0.04189783548	
575.625	0.01015186223	-0.1496914168	
576.25	-0.02871502036	-0.0375836833	
576.875	0.08159629053	-0.1244156227	
577.5	-0.05372057799	-0.2230982173	
578.125	-0.08235403648	-0.0492166083	
578.75	0.005763151472	-0.1444119064	
579.375	-0.2107196686	-0.08516191317	
580.0	0.05295943957	0.03010976207	
580.625	-0.1649492287	-0.05750525447	
581.25	0.05219097882	0.1020986162	
581.875	-0.1185231071	0.07926046721	
582.5	0.09936333307	0.246573668	
583.125	0.1225307324	-0.06788914581	
583.75	-0.04916458447	0.1102140911	
584.375	0.1333714804	-0.0006077123397	
585.0	-0.02026067154	0.0805314135	
585.625	0.2452484513	0.001689171191	
586.25	0.02948703893	-0.1205277805	
586.875	0.1234143107	-0.05382425987	
587.5	-0.05811239664	-0.2070899267	
588.125	-0.05604789982	-0.03009937336	
588.75	0.09817744612	-0.1290789864	
589.375	0.02282449591	-0.2253788718	
590.0	-0.07706596035	-0.04672244515	
590.625	-0.1541540981	-0.1299048218	
591.25	-0.1025051142	0.2399605298	
591.875	0.02000950441	0.01097861103	
592.5	-0.07209135804	0.163510924	
593.125	0.03670674549	-0.06493932274	
593.75	0.00812115552	0.2637567725	
594.375	0.2213801644	-0.01539408495	
595.0	0.0195756698	0.09475088195	
595.625	0.2162186284	0.1508392002	
596.25	0.161865304	-0.06095148353	
596.875	0.05373530842	0.06417075665	
597.5	0.2189992883	0.06243612783	
598.125	0.1170055977	0.008999429612	
598.75	0.1412335403	0.1181886039	
599.375	0.226452583	-0.09756729744	
600.0	0.07169677981	-0.140864372	
600.625	0.1466642381	-0.1072565431	
601.25	0.06344926534	-0.220952919	
601.875	-0.1183458075	-0.05249090447	
602.5	-0.0466370897	-0.09564823971	
603.125	-0.1287596433	0.1501258285	
603.75	-0.003254120438	0.02723967244	
604.375	-0.1937014008	0.04717210469	
605.0	0.05931217053	0.1657939418	
605.625	-0.09946921308	-0.06516049634	
606.25	-0.1398458832	0.1684306523	
606.875	-0.05617295174	-0.01593671341	
607.5	-0.2104080903	0.1246339338	
608.125	0.04154120879	0.290966135	
608.75	0.1390282699	0.03542445936	
609.375	0.2451832675	-0.03398363222	
610.0	0.1124637701	-0.1131043671	
610.625	0.022339136	-0.1096216426	
611.25	0.05382853237	-0.1760667701	
611.875	-0.1226683844	-0.1402946666	
612.5	-0.07322211285	-0.02735226464	
613.125	-0.21988189	-0.06429278984	
613.75	-0.02578601325	0.2209917554	
614.375	-0.01356512097	-0.0008153466627	
615.0	0.09291354964	0.1310673429	
615.625	-0.03992558705	-0.0342692844	
616.25	-0.1276305587	0.1725792215	
616.875	0.03125883834	0.2538578516	
617.5	-0.0495410015	0.08059045683	
618.125	0.07908549202	0.2305949794	
618.75	0.0866077294	0.1286081539	
619.375	0.04177498856	0.07825926749	
620.0	0.2156573954	0.05880172415	
620.625	0.1713034682	-0.219920672	
621.25	-0.1068527694	-0.1133522201	
621.875	-0.1986055628	-0.0980163875	
622.5	-0.1671542252	0.1361113794	
623.125	0.04459580985	0.04429423429	
623.75	0.1444872238	0.09611324035	
624.375	-0.03270538024	-0.08407080404	
625.0	0.09312664934	0.02973307312	
625.625	-0.01155788322	-0.1579935427	
626.25	-0.01706656643	-0.04665581738	
626.875	-0.1340158458	-0.1374267777	
627.5	-0.1738360936	0.014298736	
628.125	-0.03853809291	-0.04033126628	
628.75	-0.09583471045	-0.1546768362	
629.375	-0.1056227581	-0.07521469036	
630.0	-0.1478923965	-0.08729843937	
630.625	-0.2178651031	0.08369705974	
631.25	-0.06380872504	0.2088462244	
631.875	-0.01431955683	0.1763893704	
632.5	0.1334866816	0.2798702467	
633.125	0.2058578109	-0.04903085866	
633.75	0.04050088143	0.03329720275	
634.375	0.1117889422	-0.206997021	
635.0	-0.07138658829	-0.05318543628	
635.625	-0.0972740689	-0.1701285664	
636.25	-0.1695344579	0.2055143338	
636.875	0.01348042281	0.05339653895	
637.5	-0.131383285	0.09084384555	
638.125	0.07021750206	0.1307202831	
638.75	-0.1112938873	0.07584971488	
639.375	0.03129706053	0.3427519281	
640.0	0.2208436811	0.110600275	
640.625	0.1282295382	0.1338261955	
641.25	0.341887346	-0.04337233681	
641.875	0.04460900485	-0.2622809485	
642.5	0.02962089108	-0.1173646661	
643.125	-0.1656032308	-0.2397583528	
643.75	-0.1091389341	0.1001230752	
644.375	-0.1791980692	-0.1440170123	
645.0	-0.1390839194	0.3106314512	
645.625	0.1161441119	-0.005096073763	
646.25	0.09946417996	0.201034825	
646.875	0.1981037376	-0.3074346876	
647.5	-0.09637467183	0.1671877822	
648.125	0.2959888998	-0.03274183801	
648.75	0.06016399034	-0.1258947279	
649.375	0.3113972581	-0.07897314801	
650.0	0.1238361936	-0.4897510988	
650.625	-0.04250851019	-0.1817894688	
651.25	0.2929246563	-0.1275935152	
651.875	0.2340564178	-0.3653368125	
652.5	0.05823986658	-0.06745264623	
653.125	0.3539682829	-0.07085204203	
653.75	0.03138391085	-0.3572237012	
654.375	-0.07593405869	-0.09598210304	
655.0	-0.2818067253	-0.2052686202	
655.625	-0.08824679134	0.3372706002	
656.25	0.07343195651	-0.02277036911	
656.875	-0.03181230272	0.2449574795	
657.5	0.1487747773	-0.07225345781	
658.125	-0.0497471801	0.2673459849	
658.75	0.4985206452	-0.08562022987	
659.375	0.09186625704	-0.1878991233	
660.0	0.3531191841	-0.1633732166	
660.625	0.06594929777	-0.5168608988	
661.25	-0.05116029322	-0.141710095	
661.875	0.297207094	-0.1741614384	
662.5	0.1871203909	-0.3426207091	
663.125	0.07800420976	-0.1777244378	
663.75	0.2552853682	-0.2443190169	
664.375	-0.2161021128	-0.3335822091	
665.0	-0.1633156384	-0.07079770298	
665.625	-0.3419232549	0.05160929075	
666.25	0.01848300747	0.3404113381	
666.875	0.06604287588	0.05955038481	
667.5	0.2148160341	0.168074961	
668.125	0.186275125	-0.1499828842	
668.75	0.090076501	-0.04032066447	
669.375	0.2024088328	-0.3312860896	
670.0	-0.1797867034	-0.1557483143	
670.625	0.09141994343	-0.09680386268	
671.25	0.01516368078	-0.3238491578	
671.875	-0.05488982067	-0.1013563879	
672.5	0.3195999317	-0.05758007139	
673.125	0.1553710101	-0.3297294376	
673.75	0.01995247199	-0.1295193556	
674.375	0.09152591936	-0.2645190629	
675.0	-0.2290511275	-0.2598441647	
675.625	-0.09577329304	0.03645346404	
676.25	-0.2045322103	-0.1211583274	
676.875	-0.1299066701	0.1504128402	
677.5	-0.03470233672	-0.02142563682	
678.125	-0.2265260603	0.1872577921	
678.75	0.1995812313	0.1668656517	
679.375	0.04293309416	0.02279639182	
680.0	0.2700024513	-0.04317472132	
680.625	-0.08950221659	-0.2486768213	
681.25	0.06286420666	0.2160706993	
681.875	0.3137327721	-0.08538675985	
682.5	-0.05523729261	-0.03835249922	
683.125	0.1976755775	0.2586094584	
683.75	0.4549941348	-0.09458869463	
684.375	-0.08268402846	0.1511923554	
685.0	0.4019428211	0.1687579855	
685.625	0.2803460948	-0.1834222216	
686.25	0.1133193489	-0.003943280954	
686.875	0.4186073802	-0.2516929671	
687.5	-0.05396301518	-0.3366076715	
688.125	0.02107728456	-0.3020734661	
688.75	-0.4879227839	-0.1451708989	
689.375	-0.09479826647	0.3907444124	
690.0	-0.01510948154	0.1750227453	
690.625	0.2642686094	0.3068742453	
691.25	0.3179288109	0.02193681082	
691.875	0.2589793246	0.3177979964	
692.5	0.7820228992	0.1738296311	
693.125	0.3087041584	-0.2760705703	
693.75	0.5698433381	-0.07367078433	
694.375	0.4312967481	-0.5678430563	
695.0	0.08359145281	-0.1535039248	
695.625	0.5011571205	0.1158860076	
696.25	0.3110093283	-0.2221651152	
696.875	0.2361525724	0.2534101925	
697.5	0.3840837328	0.4199645674	
698.125	0.5318893087	-0.007663165734	
698.75	0.3438868906	-0.5311694736	
699.375	-0.4097192099	-0.2668542796	
700.0	-0.2550900718	0.3571100727	
700.625	0.1983783512	0.1215134391	
701.25	0.04061558096	0.1634239164	
701.875	0.3717048543	0.1316703284	
702.5	0.1789573958	0.09157558668	
703.125	0.4357194832	0.1702275735	
703.75	0.3582062889	-0.2834105599	
704.375	0.103780902	-0.09079365034	
705.0	0.3510997957	-0.1312902259	
705.625	0.1352398547	-0.08758623979	
706.25	0.1328480361	0.1958537894	
706.875	0.3076014276	0.1852114302	
707.5	0.2349221771	0.1622753485	
708.125	0.4336066745	0.02598732754	
708.75	0.1596965727	-0.4437205572	
709.375	-0.4389954246	-0.3175488435	
710.0	-0.02245153223	0.2091083887	
710.625	0.1505740225	0.2021178858	
711.25	0.07095288735	-0.005300090249	
711.875	0.1632581988	0.1883963965	
712.5	0.3763577455	-0.1283287849	
713.125	0.01069884953	-0.1690651614	
713.75	0.1861913681	-0.2149800578	
714.375	-0.110242286	-0.2901166528	
715.0	-0.05242117954	-0.06503670579	
715.625	0.086936061	-0.2592364356	
716.25	0.03742632704	-0.2847406545	
716.875	0.1972124215	-0.0880968133	
717.5	0.5067892623	-0.00185580836	
718.125	0.5226255312	-0.2371347419	
718.75	0.4804505799	-0.05829924724	
719.375	0.7018495163	-0.5810981961	
720.0	0.08078916446	-0.9554907593	
720.625	0.1100571852	-0.6176384881	
721.25	-0.3060723163	-1.06207043	
721.875	-0.6234493309	-0.5338898618	
722.5	-0.08827554299	-0.6757117308	
723.125	-0.9762218924	0.0116216347	
723.75	-0.02476827123	0.5204876799	
724.375	-0.07845049564	0.2769135036	
725.0	0.4756116729	0.5191647367	
725.625	0.1494886572	0.1195155246	
726.25	-0.1270735521	0.6535417818	
726.875	0.2978548753	0.9960070386	
727.5	0.2387187698	0.7132374621	
728.125	-0.4096987933	1.704992027	
728.75	1.014044999	2.794092975	
729.375	0.797497743	1.773511854	
730.0	-0.5112046837	3.198737285	
730.625	2.237864627	4.359810125	
731.25	0.2630179318	1.635296535	
731.875	-2.366633334	2.33200089	
732.5	-3.0661956	2.963130885	
733.125	-0.7201177838	0.6684502464	
733.75	-0.8670516396	1.513726905	
734.375	0.9986765534	-0.2080879669	
735.0	-0.1296563267	-0.2085255254	
735.625	-0.8556925691	-0.1008909692	
736.25	0.5514021065	0.5011315106	
736.875	0.01909175572	0.358538931	
737.5	1.368047402	0.1673064148	
738.125	0.6604404262	-1.12557652	
738.75	0.742810232	-0.1380835986	
739.375	3.451770439	-1.655979176	
740.0	-0.03465302162	-3.565993438	
740.625	0.1196552139	1.870449589	
741.25	2.087054578	5.107244301	
741.875	1.613068437	0.9676343556	
742.5	-0.06479710913	-3.151870528	
743.125	-1.03141883	-1.970459519	
743.75	-0.5233408794	-0.1324302711	
744.375	-0.2977714775	-0.3713672588	
745.0	0.294305147	0.1173130902	
745.625	0.0179556695	0.09461150707	
746.25	-0.105331028	-0.2164994831	
746.875	-0.07789035783	0.1377812869	
747.5	-0.1262153811	0.2391272	
748.125	0.2734057518	0.5523214405	
748.75	0.303381475	0.1770112987	
749.375	-0.009802297514	0.3774835826	
750.0	-0.3164317523	0.4100509009	
