!Created with skrf (http://scikit-rf.org).
# GHz S RI R (50+0j) 
!freq	ReS11	ImS11	
500.0	0.2113421541	-0.4696075947	
500.625	0.8729789489	-1.096941892	
501.25	-0.7638632045	-0.5906762524	
501.875	0.07999137703	-0.4924642267	
502.5	-0.08343042476	-0.2108264519	
503.125	-0.04008252131	0.01972422484	
503.75	-0.0464290806	0.09744088456	
504.375	0.02239940525	-0.04743485353	
505.0	0.02408560818	0.02032614365	
505.625	-0.002374627537	-0.1059513383	
506.25	-0.02420585928	0.03900004165	
506.875	-0.4174269184	-0.1035216029	
507.5	-0.2932835531	0.01338981014	
508.125	0.5948949197	-0.6404041134	
508.75	0.6844243286	-1.354298112	
509.375	-0.02559304214	-0.9190459768	
510.0	-0.1691542877	-0.5240092633	
510.625	-0.2471455246	-0.2488973288	
511.25	-0.02271324863	-0.01862702278	
511.875	-0.1270756919	-0.1298866944	
512.5	0.01937726981	0.05491442777	
513.125	0.0137659914	-0.02164372013	
513.75	-0.07514235651	-0.1358455443	
514.375	-0.04292544762	0.07853545596	
515.0	0.1484605481	-0.2984488042	
515.625	-0.1326468858	0.09590064072	
516.25	0.396030144	-0.865248637	
516.875	-0.4403928529	-0.5779301016	
517.5	-0.09107129162	-0.001851472623	
518.125	-0.04649666486	-0.1043116385	
518.75	-0.03671530534	-0.0594726464	
519.375	-0.07057972873	-0.002560921296	
520.0	0.1516615172	0.1018975722	
520.625	0.1372215408	-0.09464203859	
521.25	0.01482014469	-0.216541874	
521.875	-0.2049532112	-0.1320571166	
522.5	-0.002817570556	0.1015436656	
523.125	-0.08707719596	-0.08699927339	
523.75	-0.1834995565	0.08588325054	
524.375	0.006595390973	-0.03374988904	
525.0	-0.2112712784	0.1946293117	
525.625	0.1443210005	0.02589819347	
526.25	-0.06008274851	0.06382950404	
526.875	0.02381171636	0.04252003546	
527.5	-0.1510072025	0.1037500613	
528.125	0.07676743233	0.421481964	
528.75	0.02736492997	0.1394971001	
529.375	-0.02607979975	0.1206978904	
530.0	0.03478683588	0.1538472175	
530.625	-0.08872273957	0.2407264338	
531.25	0.3096477913	0.3187034993	
531.875	0.1204982617	-0.2550870164	
532.5	0.07809837827	-0.05706837781	
533.125	-0.07524113777	-0.1586768728	
533.75	0.1096836732	0.007060279226	
534.375	-0.1032643118	-0.4181882961	
535.0	-0.204863398	-0.02727570054	
535.625	-0.1843891926	0.0247206799	
536.25	-0.01376198373	0.1394078212	
536.875	0.06095679159	-0.01210567537	
537.5	0.1079340383	-0.01352100575	
538.125	0.1009386756	-0.1222175572	
538.75	0.1279398317	-0.08302658843	
539.375	-0.06583293408	-0.243687675	
540.0	-0.2240309257	-0.08730185781	
540.625	-0.08480718863	-0.06546246272	
541.25	-0.08280985581	-0.06404908114	
541.875	-0.02109932044	0.03039280829	
542.5	0.02608267498	-0.09063589388	
543.125	-0.122395816	0.01449221398	
543.75	0.06014960608	0.01599052423	
544.375	-0.1009253666	0.06984445231	
545.0	0.01919335671	0.01058069333	
545.625	0.007959106062	0.1276312159	
546.25	0.1533207093	-0.0004385576098	
546.875	0.06837267351	0.02038908238	
547.5	0.1323327938	-0.159074345	
548.125	-0.09229147377	-0.1488191372	
548.75	-0.04097180958	-0.1042308122	
549.375	-0.1411604528	-0.1277096159	
550.0	-0.05650951027	0.04611278612	
550.625	-0.07249000865	-0.04129131435	
551.25	-0.07691885458	0.06352764368	
551.875	-0.07631221809	0.02864779735	
552.5	-0.06924877929	0.1032883828	
553.125	-0.004060061488	0.0496040051	
553.75	0.02903224019	0.06372537256	
554.375	0.103836483	-0.003220525304	
555.0	0.1053505372	-0.06164742724	
555.625	0.1051657162	-0.1095308673	
556.25	0.0754667425	-0.1499078745	
556.875	-0.02699566828	-0.1657269006	
557.5	-0.09468012782	-0.1167686283	
558.125	-0.125954611	-0.05138902612	
558.75	-0.1126425596	-0.003773868461	
559.375	-0.1144972758	0.007104236146	
560.0	-0.1163043648	0.08264525346	
560.625	-0.04102851336	0.1132554698	
561.25	-0.0270466396	0.0937867214	
561.875	0.05650468125	0.06376046362	
562.5	-0.0221790551	0.03475991468	
563.125	0.1000140491	0.1094388985	
563.75	0.1243493209	-0.02777554742	
564.375	0.1611897546	-0.05035348225	
565.0	0.08219051009	-0.2013778465	
565.625	-0.04477492388	-0.1151980217	
566.25	-0.05977235969	-0.1771901596	
566.875	-0.2001915056	-0.04755019663	
567.5	-0.07290209924	-0.09362509469	
568.125	-0.169671367	-0.2767296676	
568.75	-0.2352461495	-0.02666238886	
569.375	-0.2181091051	-0.05145357299	
570.0	-0.2084169106	0.2722193684	
570.625	0.03857071376	0.1502798266	
571.25	-0.1007816079	0.09794167565	
571.875	0.1656352994	0.07772764206	
572.5	0.03159822451	0.03715117088	
573.125	0.2147312391	-0.1512101926	
573.75	-0.03256962921	-0.1570110024	
574.375	0.0727818723	0.02736796387	
575.0	0.034720552	-0.144015716	
575.625	0.01195293354	0.02144163871	
576.25	0.1508008775	-0.1420718841	
576.875	-0.08414295337	-0.1765146804	
577.5	0.03151214042	-0.08014566213	
578.125	0.03855034018	-0.2619968756	
578.75	-0.2122646274	-0.1097659945	
579.375	0.02388105622	-0.02104208159	
580.0	-0.106181337	-0.14977175	
580.625	0.01503347513	0.1034010432	
581.25	-0.194439445	-0.02773327807	
581.875	0.1493231915	0.2649971403	
582.5	0.08491692295	0.02603131005	
583.125	-0.01875263818	0.1388235872	
583.75	0.1565903768	0.00127149429	
584.375	-0.1065370083	0.1115852504	
585.0	0.2184839293	0.09235134794	
585.625	0.08797236144	-0.06313703421	
586.25	0.173277932	0.04473928184	
586.875	0.04971359093	-0.239269299	
587.5	-0.03288732978	-0.05285159312	
588.125	0.07505617558	-0.187974255	
588.75	-0.03488401965	-0.2119799772	
589.375	0.03043114404	-0.02385109416	
590.0	-0.008023754458	-0.2984187665	
590.625	-0.2064813372	0.03357850491	
591.25	-0.1033699826	0.003791271309	
591.875	-0.1485995695	0.2176390487	
592.5	0.115684419	0.009709478228	
593.125	-0.1272395369	0.1083258605	
593.75	0.1258193475	0.06576358105	
594.375	0.04461990583	0.195050212	
595.0	0.2494389235	0.191034618	
595.625	0.1991149804	-0.0273808996	
596.25	0.1058843613	0.1367735369	
596.875	0.2537780926	0.02268748309	
597.5	0.1069474034	0.01024277534	
598.125	0.0921366167	0.2074146083	
598.75	0.2733890241	0.06957605593	
599.375	0.1810586402	-0.002235342021	
600.0	0.2513226536	-0.1003894909	
600.625	0.149545117	-0.2632123906	
601.25	0.009283208935	-0.1239991991	
601.875	0.02647285795	-0.2485145694	
602.5	-0.2014723822	0.04612525291	
603.125	-0.04094637852	-0.01179301918	
603.75	-0.2774357444	0.1149840727	
604.375	-0.01682441984	0.1605543898	
605.0	-0.1855755225	0.01348007401	
605.625	-0.12174231	0.1768223914	
606.25	-0.03949002507	0.002802608034	
606.875	-0.2827885135	0.002486561408	
607.5	-0.1077476862	0.1564246834	
608.125	-0.05241570383	0.156326314	
608.75	0.1868551626	0.2307378538	
609.375	0.2842090174	-0.1106858718	
610.0	0.1404017782	-0.1035672375	
610.625	0.2015977716	-0.2027238965	
611.25	-0.07737813003	-0.1848675242	
611.875	0.03394287156	-0.1218704231	
612.5	-0.2515245473	-0.1801262687	
613.125	-0.1156406279	0.1300676441	
613.75	-0.1587474458	0.03447080885	
614.375	0.1042517958	0.2328832672	
615.0	-0.001416443772	-0.08436421804	
615.625	-0.07686678558	0.2169944566	
616.25	0.09162119106	0.1286195945	
616.875	-0.1815983176	0.1864739719	
617.5	-0.04873595116	0.2918363313	
618.125	0.09935832979	0.1981462008	
618.75	-0.0962989882	0.1394604355	
619.375	0.06031841587	0.1961871103	
620.0	0.2726049624	0.04167262447	
620.625	0.1617457184	-0.0890444396	
621.25	-0.1424248482	-0.2896106003	
621.875	-0.2042746366	-0.008396341939	
622.5	-0.1724551367	-0.0575675963	
623.125	-0.06120094787	0.2934590929	
623.75	0.1113214643	-0.03106914581	
624.375	0.09364257901	0.04861685931	
625.0	-0.03081987284	-0.09377927822	
625.625	0.1016655928	-0.02023407101	
626.25	-0.06580276332	-0.2313740853	
626.875	-0.1510814939	-0.00666074549	
627.5	-0.0748086629	-0.1216643257	
628.125	-0.1343917759	-0.08357929076	
628.75	-0.05535399724	-0.05680267837	
629.375	-0.02833313062	-0.2260530322	
630.0	-0.2617447157	-0.1092366725	
630.625	-0.200399215	0.1633408869	
631.25	-0.2249365178	0.1803440767	
631.875	-0.02699224361	0.3343674439	
632.5	0.1052227074	0.1412665362	
633.125	0.1081487414	0.2205253671	
633.75	0.2152309237	-0.1446262613	
634.375	0.06496398865	-0.05173068742	
635.0	0.08701876255	-0.2535558026	
635.625	-0.2049009349	-0.03381404681	
636.25	-0.08772335916	-0.01755330839	
636.875	-0.168809064	0.1900027095	
637.5	0.05511373221	0.073547841	
638.125	-0.1644125754	0.04486163258	
638.75	-0.05528151766	0.2863628069	
639.375	-0.001278344909	0.1371323653	
640.0	0.05575410677	0.3671373316	
640.625	0.3538134718	0.1501737734	
641.25	0.2166472886	-0.04686161377	
641.875	0.2937782465	-0.104813476	
642.5	-0.04125297386	-0.3567284776	
643.125	-0.02610642972	-0.04945376274	
643.75	-0.06810253704	-0.3431463542	
644.375	-0.2252414291	0.1262317282	
645.0	-0.1505252618	-0.02221778637	
645.625	0.05090553858	0.4135967964	
646.25	0.2399414069	-0.1345086342	
646.875	0.01140666146	0.1082178273	
647.5	0.1994629559	-0.04670250144	
648.125	-0.04269643903	0.11042463	
648.75	0.4740994094	-0.01546386051	
649.375	0.1190858308	-0.3593957505	
650.0	0.1540911004	-0.1414728302	
650.625	0.3908407034	-0.3354475274	
651.25	0.07397971798	-0.3667790416	
651.875	0.2098586734	0.03906664631	
652.5	0.4681720021	-0.09108191731	
653.125	0.1995399181	-0.2207426708	
653.75	0.2511647213	-0.0322654747	
654.375	-0.03278060364	-0.4821203364	
655.0	-0.2612895357	0.01127229256	
655.625	-0.1428175263	-0.0542432748	
656.25	-0.02847101767	0.3660947511	
656.875	0.1271214361	-0.1774910662	
657.5	-0.07477892866	0.2694640087	
658.125	0.2469970339	0.110661802	
658.75	0.1472992548	0.09761215287	
659.375	0.6184756319	-0.0375382527	
660.0	0.1376326883	-0.4403419151	
660.625	0.1634480083	-0.1881752018	
661.25	0.3179613252	-0.3506784634	
661.875	0.1421190134	-0.3846187315	
662.5	0.2142270171	-0.03109369958	
663.125	0.4585833296	-0.2313708345	
663.75	0.07638460511	-0.3178799491	
664.375	0.09878678773	-0.2816783694	
665.0	-0.3238302557	-0.3592468963	
665.625	-0.2835412465	0.1816425345	
666.25	-0.1851479813	0.1280047469	
666.875	0.1360443156	0.3438711192	
667.5	0.178139325	-0.00535255304	
668.125	0.2052788244	0.2262967359	
668.75	0.26992594	-0.290610003	
669.375	0.01834249253	-0.08716444362	
670.0	0.1678404785	-0.2221848537	
670.625	-0.1483337327	-0.3346764716	
671.25	0.04031539243	-0.03661611009	
671.875	0.2688010435	-0.3315575822	
672.5	0.1407062295	-0.2323227911	
673.125	0.1857969179	-0.05418115777	
673.75	0.3369477496	-0.2579868043	
674.375	-0.06254353376	-0.2985823435	
675.0	0.04468772023	-0.1855337648	
675.625	-0.251523417	-0.2572875906	
676.25	-0.1982262988	0.0813242377	
676.875	-0.0593599591	-0.1258972278	
677.5	-0.3037982865	0.06738012194	
678.125	-0.01168593234	0.1262392662	
678.75	-0.1451485687	0.2159619167	
679.375	0.4887229195	0.1895359999	
680.0	-0.03302965037	-0.1671266659	
680.625	0.186003904	0.04269556006	
681.25	0.1154864487	-0.2181319274	
681.875	-0.1038150683	0.2168474833	
682.5	0.4136282224	0.2494949572	
683.125	0.2327459908	-0.1683013573	
683.75	0.1929809565	0.2746077862	
684.375	0.4341469875	0.1799989629	
685.0	0.1623559446	-0.1036341315	
685.625	0.1658769421	0.2630687425	
686.25	0.5400931263	-0.08693531631	
686.875	0.1565239113	-0.168246377	
687.5	0.4210147588	-0.1814430216	
688.125	-0.00881645982	-0.6812943102	
688.75	-0.3128211731	-0.04668885632	
689.375	-0.4845503224	0.1125303311	
690.0	0.1442759583	0.5549277672	
690.625	0.1588375346	0.08059636517	
691.25	0.2596328051	0.5500165019	
691.875	0.6598101367	0.08859810683	
692.5	0.3442034615	0.3064388665	
693.125	0.9696140387	0.1449949014	
693.75	0.6454490037	-0.4939586574	
694.375	0.4131587793	-0.1229048346	
695.0	0.7312002153	-0.2350516428	
695.625	0.3969121514	-0.1048195074	
696.25	0.2931323402	0.2301393027	
696.875	0.4444873914	0.712675613	
697.5	0.3708063484	0.4623592258	
698.125	0.388226465	0.4160516764	
698.75	0.6982179939	-0.3630540476	
699.375	-0.5101531181	-0.3945289802	
700.0	-0.2523702467	0.06439419529	
700.625	-0.04906157649	0.5090775406	
701.25	0.2342676788	0.0430177127	
701.875	0.1064865539	0.3409847018	
702.5	0.5136977842	0.3720132265	
703.125	0.3119647132	-0.02380767612	
703.75	0.4681296611	0.07146063675	
704.375	0.4233352021	-0.2907636723	
705.0	0.1081787779	-0.113171903	
705.625	0.2779733454	0.2204486151	
706.25	0.1541864186	0.1600954305	
706.875	0.09323013716	0.2458521558	
707.5	0.1539789623	0.5444876935	
708.125	0.5593403348	0.1657750122	
708.75	0.2844686936	-0.4166826873	
709.375	-0.1681564497	-0.4644687146	
710.0	-0.2301911613	0.3141308185	
710.625	0.1501384271	-0.005330638119	
711.25	-0.001350006468	0.3481493301	
711.875	0.211574679	-0.01284933654	
712.5	0.2855872246	0.1687072965	
713.125	0.3930812645	-0.2104201135	
713.75	0.03786110109	-0.2785956412	
714.375	0.1339563016	-0.160888898	
715.0	-0.05414068017	-0.3480878038	
715.625	-0.04278133879	-0.1373321404	
716.25	0.3220424432	-0.1644012141	
716.875	0.4135315044	-0.2199359528	
717.5	0.2890338549	0.01256859201	
718.125	0.7746284218	0.4073031682	
718.75	0.9953843531	-0.135950832	
719.375	0.541664009	-0.3996959612	
720.0	1.008084831	0.06117488376	
720.625	0.06410849833	-1.120624653	
721.25	0.1244082232	-0.5125101332	
721.875	0.4158273307	-1.527226281	
722.5	-0.8719299862	-0.8085885579	
723.125	-0.4409940873	-0.3874057134	
723.75	-0.7901349917	0.4407392567	
724.375	0.2320140322	0.4432866838	
725.0	-0.03988075268	0.3071389986	
725.625	0.1880351619	0.7271563769	
726.25	0.2617081638	0.5166548324	
726.875	-0.4367811468	0.7950047698	
727.5	-0.4488927522	1.836193884	
728.125	0.4564636851	1.76043779	
728.75	-1.267995801	1.949964089	
729.375	-1.971613061	4.893480015	
730.0	0.9821526127	3.61887495	
730.625	-1.74469283	2.234412956	
731.25	-1.634287037	5.393858917	
731.875	-0.335765285	3.328277645	
732.5	-4.032028236	-0.6877421957	
733.125	-4.194426437	0.5995332993	
733.75	-0.3864774532	1.259664962	
734.375	0.111554702	1.085091961	
735.0	-0.1344897279	-1.230260824	
735.625	-0.1885700252	0.06315084401	
736.25	-0.4703669941	0.5874874245	
736.875	0.8163120859	0.613416173	
737.5	0.364915219	0.1000546162	
738.125	2.292643084	0.5040010005	
738.75	1.780661619	-2.224559698	
739.375	0.5948387021	-0.9849696391	
740.0	4.945591807	1.779260919	
740.625	5.647334373	-4.226989574	
741.25	-2.600517707	-0.2515873787	
741.875	-5.477892031	1.021952222	
742.5	-3.260568985	-0.3261535295	
743.125	1.726157263	-0.7285113866	
743.75	0.4298170539	-1.814471203	
744.375	-0.3815591212	0.06282705612	
745.0	-0.1018659017	0.05762496834	
745.625	0.1285293938	-0.2001623821	
746.25	0.0854117082	-0.06800704	
746.875	-0.319048475	-0.03556341626	
747.5	-0.005896363211	0.3776517322	
748.125	-0.01359048019	0.4174413592	
748.75	0.2590324907	0.6928509017	
749.375	0.2552658378	0.4590083654	
750.0	-0.3657880848	0.1101568081	
