!Created with skrf (http://scikit-rf.org).
# GHz S MA R 50.0 
!freq magS11 angS11
500.0 0.0156801291707 170.745538305
500.625 0.00982803614996 44.9102269422
501.25 0.00494804215862 -65.0946051742
501.875 0.0310809196194 -165.924450445
502.5 0.0333317535757 169.39189942
503.125 0.0147474435962 95.0690259938
503.75 0.0132774464657 -27.9199881214
504.375 0.00407459866536 -55.2342875446
505.0 0.00480607965374 -6.78090852962
505.625 0.023311516145 -68.050917689
506.25 0.056857253327 -101.419126301
506.875 0.053728585481 -125.353300988
507.5 0.0488119008012 -110.388829124
508.125 0.0499067925625 -89.1616536549
508.75 0.0660757602895 -126.868577839
509.375 0.0508908470919 -141.832843926
510.0 0.0473083735891 -112.296659755
510.625 0.0364157415059 -157.472318866
511.25 0.0707662651362 -167.455879897
511.875 0.0465098809169 137.173032928
512.5 0.0352776854972 97.8318562435
513.125 0.0505195991296 46.613613751
513.75 0.0583316644575 34.9924327317
514.375 0.0373273089229 12.5963038894
515.0 0.0439445120907 -6.70694915094
515.625 0.112122149523 51.5883061983
516.25 0.0790738501939 24.4765026057
516.875 0.105240652952 69.7329816393
517.5 0.130548042356 23.1393603161
518.125 0.22341943455 73.939973934
518.75 0.0735837521088 -1.17006057723
519.375 0.0589786899871 16.7759020288
520.0 0.0907046240806 -2.5349019343
520.625 0.118256282387 -1.28010487837
521.25 0.0714151191095 -36.3301330265
521.875 0.0636867370354 -0.722505597812
522.5 0.0937898196823 -36.7691839543
523.125 0.196509657675 -31.7477268138
523.75 0.209186634571 -59.1270684648
524.375 0.208879485035 -51.8893655721
525.0 0.069741630053 -53.8237138534
525.625 0.0447718279123 -24.8782306179
526.25 0.0400458730188 -11.2814065443
526.875 0.05050849891 -19.2563283303
527.5 0.0447187319915 -31.9831763523
528.125 0.050995190412 -56.156791453
528.75 0.0447240774917 -81.7936668726
529.375 0.0771587280884 -115.076873641
530.0 0.0464075162591 -131.072457933
530.625 0.0418682172396 -144.713310656
531.25 0.119421649748 -135.286301254
531.875 0.171090399597 -145.809967094
532.5 0.140442074089 -170.20218189
533.125 0.113841363264 175.217321079
533.75 0.0946935808056 167.673821101
534.375 0.100567147656 178.819497485
535.0 0.0807344552372 158.670627388
535.625 0.0763283002738 178.187381819
536.25 0.0569062186979 163.22417686
536.875 0.0864695185262 -160.309165164
537.5 0.0977498270131 -142.822026363
538.125 0.106761455323 -173.255721737
538.75 0.100336419392 179.892686401
539.375 0.0799440249767 -161.715512618
540.0 0.0885103639471 -153.331947365
540.625 0.14213880281 -157.90437981
541.25 0.126738121149 -141.355574404
541.875 0.104079643343 -144.541464842
542.5 0.112879264534 -142.46397041
543.125 0.14921462992 -167.368719364
543.75 0.127561682701 159.9797029
544.375 0.0893327355004 135.636013628
545.0 0.0797499288069 89.0849465324
545.625 0.113252326185 82.613201039
546.25 0.0806251948299 67.2678479954
546.875 0.0855498641604 56.0349421017
547.5 0.107966364189 58.4883472603
548.125 0.127656563373 78.2794665079
548.75 0.0888683700941 90.1815177247
549.375 0.0899394703218 88.6353102271
550.0 0.0758550518674 123.322229522
550.625 0.0603215992538 152.032853269
551.25 0.0326045841524 -124.08312958
551.875 0.060167531138 -153.599754189
552.5 0.109397033255 -162.620565479
553.125 0.0981394210586 -171.482963262
553.75 0.0884161900337 -167.484815001
554.375 0.101601283253 171.026697881
555.0 0.119377202619 164.871540381
555.625 0.103817057289 156.006421943
556.25 0.0956312555722 163.708358066
556.875 0.1179780332 165.437046709
557.5 0.118532545533 166.375906101
558.125 0.0958527329502 165.083172539
558.75 0.0712000946951 -179.859351029
559.375 0.0566776675697 -169.52196304
560.0 0.0424932778339 -145.747720844
560.625 0.0616198187342 -146.196776791
561.25 0.0787807497783 -140.761436835
561.875 0.0986131841687 -159.342179193
562.5 0.090047860379 172.711254632
563.125 0.111140026438 141.87802854
563.75 0.115052087214 134.931548763
564.375 0.0977835218215 123.15045653
565.0 0.0855089412826 121.019433153
565.625 0.0903975357775 113.828292356
566.25 0.0746675279431 162.718347501
566.875 0.0733248561327 -178.042230351
567.5 0.0778137209216 179.797550412
568.125 0.0831288970179 -171.382209482
568.75 0.0766759839589 -151.828351178
569.375 0.0484840023199 -108.974474886
570.0 0.0622360779053 -112.166080954
570.625 0.0944934906829 -120.029470528
571.25 0.0865725307429 -114.242656894
571.875 0.0876416814992 -127.663042591
572.5 0.114654544173 -158.993408947
573.125 0.143232519538 -174.73854961
573.75 0.110423930772 159.471227354
574.375 0.0826902199712 150.224614834
575.0 0.104195725082 155.40835771
575.625 0.114236641878 151.423153419
576.25 0.0783793529492 152.663728009
576.875 0.0778507279722 134.502537281
577.5 0.0761853693703 139.60347661
578.125 0.0650581778728 153.938953783
578.75 0.045220198639 170.301690856
579.375 0.0535657756961 165.648550787
580.0 0.0709043978477 175.772319579
580.625 0.0773999845856 -151.496615683
581.25 0.0889458010077 -163.74214112
581.875 0.115788074949 -176.155210085
582.5 0.118194187268 -175.604018506
583.125 0.0928750906481 -167.264632769
583.75 0.084254568928 -173.240514868
584.375 0.0992021311823 -152.635891415
585.0 0.0906675342453 -138.007075463
585.625 0.0729477348504 -145.577533428
586.25 0.0728203763448 -146.248707895
586.875 0.080868505637 -134.722234913
587.5 0.0747368921774 -145.452455424
588.125 0.0591921498603 -173.4462306
588.75 0.0685014090303 -175.024362294
589.375 0.0823332971062 -149.220070268
590.0 0.0956265038782 -160.772618885
590.625 0.104667771459 167.651010514
591.25 0.123379372614 146.577633689
591.875 0.0861905690279 169.871585848
592.5 0.0622025354729 152.515211043
593.125 0.0562926630749 157.466861428
593.75 0.0728087787036 160.048098581
594.375 0.0577387106997 -138.150683698
595.0 0.0463067317425 -109.877428421
595.625 0.0635949571101 -91.1401822146
596.25 0.0691714988263 -98.4763866376
596.875 0.0717392656104 -60.4680884843
597.5 0.0619578714757 -57.1489830672
598.125 0.0677423429773 -57.6943467383
598.75 0.0775015731335 -62.5020967561
599.375 0.0900418187713 -64.1743354281
600.0 0.103331418952 -68.2680210894
600.625 0.100644196655 -64.4627548115
601.25 0.0846200874167 -84.2409851307
601.875 0.068897821901 -78.3813944955
602.5 0.0623520632681 -70.431610577
603.125 0.0423661781981 -41.9915841578
603.75 0.0265147254225 -58.917357217
604.375 0.0391192681465 -23.660775235
605.0 0.0596097527739 -20.3029329733
605.625 0.0517019383896 -11.6551211921
606.25 0.0277290192137 15.032164186
606.875 0.0235486151378 43.2456092131
607.5 0.0748254095639 48.4806141156
608.125 0.0623224910387 23.0282893804
608.75 0.0473787350779 12.4180255789
609.375 0.0666559939026 32.0402890545
610.0 0.0698112983652 42.5694705794
610.625 0.0619009576094 31.532476113
611.25 0.0543290901717 34.9389944725
611.875 0.0330241771885 34.5954550339
612.5 0.0269300966875 101.485742158
613.125 0.0439146319072 125.206445626
613.75 0.0519091191713 126.233747174
614.375 0.0250220081043 116.323657044
615.0 0.0591480077744 127.847121184
615.625 0.0429687434786 130.985369118
616.25 0.0426170098757 142.011446493
616.875 0.0312287677966 130.454709371
617.5 0.0609876411784 132.674761243
618.125 0.0462479507468 133.967094004
618.75 0.0396165372926 148.225460545
619.375 0.00138152228113 40.8369286539
620.0 0.0230491599418 150.725970279
620.625 0.0138993832192 -152.784765744
621.25 0.0384774304593 -104.229057503
621.875 0.0674804902341 -91.1405998569
622.5 0.0916425482879 178.699940743
623.125 0.0783957676906 167.139928591
623.75 0.0717514619226 171.538368444
624.375 0.0308573412235 -151.795115431
625.0 0.0458375261733 -144.979499982
625.625 0.0363586182799 -152.415920856
626.25 0.0149840036795 157.159541894
626.875 0.0045916530463 79.6996507421
627.5 0.0374760485987 -13.6373700719
628.125 0.036208248897 -38.7899935132
628.75 0.031642797401 -25.5046316961
629.375 0.0437413526331 -8.74942830781
630.0 0.0845613587539 8.88848785809
630.625 0.0757539040945 5.35402623028
631.25 0.0740537450757 6.37089135554
631.875 0.0666210939907 -4.94307174304
632.5 0.0626482425288 5.42421445578
633.125 0.0482344805055 -5.81510313021
633.75 0.0409392030169 -19.9987527566
634.375 0.0426483597203 0.297324033955
635.0 0.049426581866 41.168665107
635.625 0.0347741311202 32.9369382239
636.25 0.0537762004973 41.7669112849
636.875 0.0675589884018 45.347473075
637.5 0.041946892061 44.2902894209
638.125 0.0535013199708 72.2989614447
638.75 0.0718515000238 74.523495011
639.375 0.0796027665611 84.582332762
640.0 0.0685172755417 100.023880896
640.625 0.0667286904695 112.039642864
641.25 0.0506334429847 92.9360825731
641.875 0.0553022565767 141.91792377
642.5 0.0534009257052 161.246462293
643.125 0.063170385013 159.646803131
643.75 0.0630445671171 175.074546662
644.375 0.0713625886883 -169.648012079
645.0 0.0763902377236 -179.979957769
645.625 0.106833637886 170.038300001
646.25 0.0788781209743 153.601764161
646.875 0.0605275379693 172.628536546
647.5 0.059898298335 175.031929354
648.125 0.101888301266 -173.589877817
648.75 0.0662621314159 -173.620065256
649.375 0.0454663195025 -153.220577499
650.0 0.0420897741377 -124.277956708
650.625 0.0720997063403 -86.981759045
651.25 0.0656699824722 -65.3485976941
651.875 0.0661448477979 -41.8140573215
652.5 0.096049119654 -23.2366476241
653.125 0.11837280313 -1.10365130189
653.75 0.0999121615967 2.82840536833
654.375 0.0970322903939 4.99617759661
655.0 0.111801568672 9.59429778424
655.625 0.110304879461 29.1850193565
656.25 0.0563701528284 17.90988385
656.875 0.0669267663115 6.16264465585
657.5 0.0889752771663 25.3438420496
658.125 0.0687478263465 49.614472774
658.75 0.0679934835891 60.0509561343
659.375 0.0775008685947 40.3766548085
660.0 0.099730237309 27.8380057411
660.625 0.108699205884 18.4630441242
661.25 0.120048784577 2.78982657117
661.875 0.0962445074844 -14.7724445865
662.5 0.114648747627 -20.1148486966
663.125 0.106420850295 -14.5449307096
663.75 0.111927258404 4.69180897703
664.375 0.0943339300636 55.9143434488
665.0 0.0791166779306 89.2292659077
665.625 0.0754022897547 109.362527829
666.25 0.0561920185087 136.75728899
666.875 0.0973004997392 173.426444185
667.5 0.0908295069101 -172.469225187
668.125 0.111307125554 177.94439722
668.75 0.102964362665 169.821322116
669.375 0.129190156095 177.197670501
670.0 0.0873096629431 -170.033387951
670.625 0.0931210999153 -173.456357462
671.25 0.120246032409 172.538229317
671.875 0.104757289195 167.228674963
672.5 0.0759868284864 156.953561031
673.125 0.0864597616304 151.929569264
673.75 0.089148040565 165.047097803
674.375 0.107364406786 171.471139217
675.0 0.104649978112 -173.254324624
675.625 0.138841670342 -152.259107822
676.25 0.102660711607 -122.40428903
676.875 0.112153460754 -119.316802671
677.5 0.11729197449 -128.01879903
678.125 0.13513078352 -117.37273773
678.75 0.0784272455783 -94.9581293155
679.375 0.0517526120563 -74.9981922334
680.0 0.0839086313002 -81.0381289177
680.625 0.122235778905 -75.8560313689
681.25 0.114511483907 -77.6256754498
681.875 0.0904759668808 -83.8773735854
682.5 0.134945082282 -117.906113858
683.125 0.175821855023 -124.584313816
683.75 0.144571916366 -106.525430453
684.375 0.125447587802 -81.576784492
685.0 0.120160738457 -39.050270842
685.625 0.136858455742 -3.7140819903
686.25 0.110056966139 22.2744276505
686.875 0.101517653542 41.9789242651
687.5 0.077744759163 84.4722037251
688.125 0.0847306362678 105.657984836
688.75 0.104613763823 113.966169117
689.375 0.150377820781 114.731076416
690.0 0.117732797579 140.453981236
690.625 0.115695717585 130.634178321
691.25 0.13945710821 99.6588569622
691.875 0.203102849341 63.5265989079
692.5 0.116101047078 43.892795982
693.125 0.0884869476068 -15.7474749126
693.75 0.101058943207 -42.906981613
694.375 0.137016453128 -29.0272062006
695.0 0.139149290455 6.69991135913
695.625 0.0920797147225 66.0974216328
696.25 0.112089588875 119.40459164
696.875 0.134193279157 175.260522917
697.5 0.147495959831 -147.756692128
698.125 0.136367751998 -130.20872479
698.75 0.126401848644 -127.517151561
699.375 0.110315657635 -124.181043467
700.0 0.10194867547 -118.919363929
700.625 0.111479686405 -89.6355699179
701.25 0.0950712466632 -57.6400548505
701.875 0.0810615085722 -56.5901817337
702.5 0.0992163926467 -91.1625513388
703.125 0.164206883531 -109.150200567
703.75 0.1816914459 -153.660550812
704.375 0.124952350838 169.984719225
705.0 0.113150700006 158.37636331
705.625 0.15121554348 -177.909340544
706.25 0.142820983379 -111.250088226
706.875 0.0938244628067 -63.3482302092
707.5 0.0742164899811 -34.0055446027
708.125 0.0935078032153 5.55358434042
708.75 0.1103762795 72.8455758355
709.375 0.10662184086 109.3366471
710.0 0.100956162047 137.474009285
710.625 0.107207900057 146.935561294
711.25 0.120520527009 -178.326203829
711.875 0.146116748731 163.158721183
712.5 0.154436740634 144.711153731
713.125 0.132646564887 94.0290456758
713.75 0.0938216805969 60.1422296161
714.375 0.111730920625 25.9741772095
715.0 0.101503319077 33.7028391465
715.625 0.0851981346756 43.3785710026
716.25 0.0766515665358 67.524659647
716.875 0.118465249591 102.170306292
717.5 0.150006537285 150.93464844
718.125 0.115034777218 173.394007455
718.75 0.0967832244118 160.513579887
719.375 0.126104974939 -156.768762534
720.0 0.131035588975 -129.491409997
720.625 0.112242591638 -79.5468004404
721.25 0.097763334871 -35.9589181591
721.875 0.0873648508338 35.3456989529
722.5 0.0747788260284 73.048351211
723.125 0.0839706932895 71.8153774217
723.75 0.0929809656552 28.6073337488
724.375 0.130417945254 13.6536769779
725.0 0.100293430898 -34.945102654
725.625 0.0960042906113 -65.9529906732
726.25 0.114263595326 -66.7022530099
726.875 0.0989674225521 -55.2967887491
727.5 0.0823788948246 -36.0977879779
728.125 0.0849642752856 -2.457487844
728.75 0.0994423879082 24.9380201138
729.375 0.0693050631676 0.0481547507121
730.0 0.0899075392492 20.9446993795
730.625 0.0669893720176 21.168986325
731.25 0.0613303305993 68.1355718904
731.875 0.053357956096 104.72337481
732.5 0.0685771823939 147.503792529
733.125 0.0895328451487 177.346420197
733.75 0.0676130629911 167.58036648
734.375 0.039007129324 135.708226282
735.0 0.0982683198241 169.989491612
735.625 0.0798094253696 150.762542318
736.25 0.0478506367413 161.343713778
736.875 0.0268036023673 -164.519229355
737.5 0.118074077568 178.516615686
738.125 0.0898017994028 -175.405970735
738.75 0.0668773050685 -174.940835444
739.375 0.0314732490524 -179.834857595
740.0 0.0263326790035 -133.83490383
740.625 0.0632147530953 -151.32078288
741.25 0.0527813426582 -157.330947607
741.875 0.0502991041111 -114.435695014
742.5 0.0191332118797 48.7070338886
743.125 0.0587307511774 52.2763716019
743.75 0.0446025162449 74.0804593414
744.375 0.0348896530276 115.866466027
745.0 0.0477984903953 168.390433317
745.625 0.0714095828932 119.966358392
746.25 0.0871742514771 70.8260875578
746.875 0.076601334189 38.7696638355
747.5 0.0261338577058 43.9053601014
748.125 0.031648681873 -2.91747840856
748.75 0.0211657551366 0.08524624976
749.375 0.0331618733394 -49.5223831317
750.0 0.0280811626263 -89.6333815957
