!Created with skrf (http://scikit-rf.org).
# GHz S MA R 50.0 
!freq magS11 angS11
500.0 0.0150334905036 -166.886360943
500.625 0.0137891582698 35.098394598
501.25 0.0214678270294 -163.769700462
501.875 0.0379482892332 -172.993360653
502.5 0.0319696938286 157.826300603
503.125 0.0128581789585 56.1809362505
503.75 0.00488623724987 31.9628388363
504.375 0.0131908653176 -47.5963605295
505.0 0.0158948168252 -53.6891973768
505.625 0.0416368979872 -77.7021952693
506.25 0.0250200261614 -134.984124153
506.875 0.0593671606229 -100.155607014
507.5 0.0532095734138 -110.830233478
508.125 0.0415546038808 -105.061328255
508.75 0.058620316003 -132.474687347
509.375 0.0535532939753 -148.761241486
510.0 0.0549527153484 -104.327833152
510.625 0.0398725612141 -154.916500904
511.25 0.0600226142639 -171.501848205
511.875 0.0539299887289 148.699246822
512.5 0.0384482007384 105.970058526
513.125 0.0604604115323 56.1044319108
513.75 0.0477605719382 33.0863606064
514.375 0.0371790937221 20.5582202793
515.0 0.0724964483036 11.8885241884
515.625 0.0591405854758 38.480458431
516.25 0.0814715534228 29.2161737047
516.875 0.0990170918845 66.7591242329
517.5 0.134923986457 24.2390655035
518.125 0.16941817001 57.4701569437
518.75 0.0772843889092 11.0143547531
519.375 0.0689596065013 24.2214343393
520.0 0.109726820819 1.53673615701
520.625 0.0884114258035 -13.036483162
521.25 0.0738613830948 -27.8381841181
521.875 0.060573496741 -2.3710902285
522.5 0.112477134145 -29.4121451656
523.125 0.159987798315 -44.9187507094
523.75 0.200780137072 -58.750808911
524.375 0.200824677102 -55.167150663
525.0 0.0775484306539 -33.3146140049
525.625 0.0361788349912 -32.3221769609
526.25 0.0490023323307 -2.99116665573
526.875 0.0534308814453 -16.7528842517
527.5 0.055520788246 -21.8520792007
528.125 0.0381308310249 -57.1563496431
528.75 0.051121486987 -72.0986088936
529.375 0.0869537230979 -106.34845226
530.0 0.041038842518 -132.376291158
530.625 0.0373787647006 -134.986422015
531.25 0.120645193722 -136.194376723
531.875 0.175676832183 -144.319446672
532.5 0.145138022666 -167.970341643
533.125 0.0967639491722 176.581285673
533.75 0.112781528224 172.720624406
534.375 0.111249936645 -177.171563519
535.0 0.0974155081867 166.370310165
535.625 0.0535688528695 175.221895555
536.25 0.0663090846967 167.472193128
536.875 0.0891267688676 -157.579504045
537.5 0.0904104055365 -141.528387011
538.125 0.10047982795 -170.610356207
538.75 0.106776499511 -176.73486736
539.375 0.0793172316637 -159.574088359
540.0 0.104816893574 -154.899801749
540.625 0.131384908135 -153.497877974
541.25 0.127075388658 -140.436450877
541.875 0.106361864153 -142.835787921
542.5 0.100341809762 -138.149165865
543.125 0.139347176049 -164.866942156
543.75 0.134004231344 162.09369525
544.375 0.0944407392 137.749457533
545.0 0.0984747466375 92.7444036081
545.625 0.0828657125313 85.424055774
546.25 0.0828596005225 70.7320151852
546.875 0.0784944333724 55.5183640114
547.5 0.12221581539 59.9992978532
548.125 0.114887426547 81.5460026788
548.75 0.0921824490713 92.7068146489
549.375 0.095785025126 90.866997804
550.0 0.0978967370088 129.175111504
550.625 0.037803173521 162.145647471
551.25 0.0377463981173 -125.804210706
551.875 0.0696145633759 -157.554176614
552.5 0.119210642441 -163.352371303
553.125 0.0917756339771 -165.107181496
553.75 0.0941010448927 -167.869010829
554.375 0.111177597597 169.511577313
555.0 0.134594107949 164.56740935
555.625 0.0835384466223 163.334469335
556.25 0.0972467155017 165.977655674
556.875 0.112727376329 167.208349214
557.5 0.118540648281 168.073537932
558.125 0.0914286750534 166.640331554
558.75 0.0745804503182 -177.267959356
559.375 0.0645434899003 -168.07062582
560.0 0.0497530421846 -146.975804599
560.625 0.0530765056922 -123.150039007
561.25 0.085752424974 -142.321036032
561.875 0.101745220374 -158.548871798
562.5 0.0991579654808 171.578917986
563.125 0.099887441087 149.827000922
563.75 0.126834813737 135.192369559
564.375 0.103259523353 123.431675852
565.0 0.0906698701212 120.743497155
565.625 0.0703855614998 126.130547609
566.25 0.0843316936937 162.851500895
566.875 0.0670141147342 -175.009861338
567.5 0.0781598278092 -178.847437361
568.125 0.0696794510213 -163.843631077
568.75 0.0691462751574 -143.278775059
569.375 0.0520118905037 -111.455265246
570.0 0.0645373400521 -110.273698617
570.625 0.0836882179613 -103.283941105
571.25 0.0879010978799 -114.238156722
571.875 0.0870261673295 -126.060561956
572.5 0.116414682898 -158.211862138
573.125 0.130267383742 -167.706174859
573.75 0.103387657059 163.6414878
574.375 0.07856135359 154.523609773
575.0 0.11336559468 149.89663696
575.625 0.0961477625305 165.756275096
576.25 0.0819386715618 151.605315012
576.875 0.0796815846243 131.229763948
577.5 0.0911723717604 132.511070133
578.125 0.0504582260327 173.613003649
578.75 0.0458113648451 170.942458448
579.375 0.0508928689864 171.897304709
580.0 0.0723990376607 -179.239657813
580.625 0.079460518284 -141.510491243
581.25 0.0914113010964 -160.073060593
581.875 0.117983463556 -179.273284592
582.5 0.118467356493 -174.605759633
583.125 0.096333582011 -170.62984585
583.75 0.0818361477017 -163.315277987
584.375 0.104463866249 -155.177456841
585.0 0.0929267248863 -139.378460877
585.625 0.0735832822193 -146.509292967
586.25 0.0716401788357 -136.390896748
586.875 0.083559193826 -138.944073244
587.5 0.0738569583159 -144.105598529
588.125 0.06020044669 -177.057283942
588.75 0.0696264620326 -157.771557706
589.375 0.0842933229585 -152.309026732
590.0 0.0948223854102 -165.055408534
590.625 0.104260495747 161.346096721
591.25 0.116838790374 158.79283498
591.875 0.0876838110871 166.820717994
592.5 0.0581547208508 151.641788668
593.125 0.0640393949684 144.241959639
593.75 0.077646650207 176.798967117
594.375 0.0585300213165 -145.069942514
595.0 0.0437714312525 -113.904742015
595.625 0.0544302187752 -109.683399939
596.25 0.0793590107449 -73.7378603241
596.875 0.0694628085245 -60.9375047145
597.5 0.060758077985 -51.8188802369
598.125 0.062823800556 -64.7315815195
598.75 0.0857975308966 -57.4275808763
599.375 0.0870435401035 -67.0333046832
600.0 0.101556378553 -66.636241131
600.625 0.0972812629122 -64.2324914491
601.25 0.0831055035605 -72.3712183343
601.875 0.0694073030451 -86.2728237964
602.5 0.0625228165944 -76.1092543052
603.125 0.0435530386562 -73.3312440219
603.75 0.0409771743237 -6.81845271273
604.375 0.0449567681408 -15.7377738056
605.0 0.0569577582255 -8.33036354826
605.625 0.0475767721589 -8.92914268859
606.25 0.0267696630269 17.1243001924
606.875 0.0362082608307 51.3401467413
607.5 0.0617309956561 43.8391958891
608.125 0.0594479189239 25.5303658382
608.75 0.0803986058232 34.6074858352
609.375 0.0702570868833 35.1410088622
610.0 0.0734662652953 50.4091910674
610.625 0.0605355990532 31.8207327439
611.25 0.0552243652087 37.6478430318
611.875 0.0365807773738 55.3023388609
612.5 0.0173732434623 77.8666695831
613.125 0.0303406795993 127.354961862
613.75 0.0289269231489 127.031391479
614.375 0.073749023463 136.155874084
615.0 0.0510371719015 124.760509494
615.625 0.0395245710637 138.753435026
616.25 0.0256915625328 152.118825947
616.875 0.0783206595029 139.962284352
617.5 0.0499391844337 125.945712775
618.125 0.0290709919502 132.516007243
618.75 0.0059778488465 -165.88921278
619.375 0.0492796180348 162.970242221
620.0 0.00895287000082 127.688096377
620.625 0.0173849586818 -98.663703617
621.25 0.049003417725 -82.1587839451
621.875 0.0697458593201 -124.590809459
622.5 0.0795342010087 -176.213873279
623.125 0.087547125172 166.284484197
623.75 0.0434544494349 -172.899251524
624.375 0.071918860731 179.641129711
625.0 0.0461702639806 -151.688111639
625.625 0.0470670516908 -141.676153286
626.25 0.0112893805377 167.722793904
626.875 0.00241817109374 -73.0503323136
627.5 0.0258093159148 -23.6000299978
628.125 0.0411906035956 -9.93590879729
628.75 0.0344383829492 -12.4122883689
629.375 0.053811044474 0.224151789453
630.0 0.0675232798281 -9.74838317451
630.625 0.0754071375842 15.8464203367
631.25 0.0752166360257 15.9347293914
631.875 0.0649845305177 -7.0760835049
632.5 0.0604203445339 -3.12702394696
633.125 0.0443935403516 17.6410392218
633.75 0.037256840765 7.47251835354
634.375 0.0506862711936 35.6630267298
635.0 0.0402636618604 -19.8483059152
635.625 0.0307860034819 38.8228715018
636.25 0.055176476287 32.3534811764
636.875 0.068503320783 48.8863869414
637.5 0.0518609933056 57.1503856633
638.125 0.0389644862179 71.7068127233
638.75 0.0875760349275 81.6322208294
639.375 0.0918669307212 95.8416736315
640.0 0.0772935371574 112.048849847
640.625 0.0558342086506 102.793282488
641.25 0.0521522042563 112.723079821
641.875 0.0624597806414 155.289496813
642.5 0.0536391799542 153.325534692
643.125 0.0548968274521 159.475432976
643.75 0.0775606948334 -178.372863113
644.375 0.0737478927758 -167.026496299
645.0 0.0821934837282 -178.912110191
645.625 0.087009763406 168.421575792
646.25 0.0853271572636 167.763212728
646.875 0.0643481084886 178.139753482
647.5 0.0804167287282 -170.489365218
648.125 0.0701559876872 177.42491995
648.75 0.065494304939 -166.190609957
649.375 0.0393135084891 -157.87290768
650.0 0.0644465913371 -115.159712842
650.625 0.0520321100684 -90.1931772373
651.25 0.0650032399733 -60.5385150532
651.875 0.0619784250293 -42.2909633045
652.5 0.0997098911088 -20.4470608147
653.125 0.115778981989 0.732101403622
653.75 0.101899311075 5.55164947557
654.375 0.108393535156 10.0221210986
655.0 0.12746427486 17.2193275486
655.625 0.0716706567667 15.4812666142
656.25 0.0554873785354 24.2655600623
656.875 0.0606044158592 5.78573137242
657.5 0.0890771366499 27.8629590067
658.125 0.0794584545051 54.2153750209
658.75 0.0592960978247 69.1857996186
659.375 0.0922062710585 41.4772097013
660.0 0.118040926407 30.137282939
660.625 0.123288077974 20.3461325268
661.25 0.103144992201 7.38834856757
661.875 0.106317848697 -9.58228460741
662.5 0.121798038144 -17.4269321281
663.125 0.0956588595176 -17.0563247016
663.75 0.0988842771822 8.20755848343
664.375 0.106069606371 59.2432910424
665.0 0.0849445796732 94.2139625289
665.625 0.0481052034521 115.17136865
666.25 0.0733868392267 139.898956085
666.875 0.115331221608 174.589159095
667.5 0.109448306332 -170.133283713
668.125 0.0850507021114 -173.117180951
668.75 0.114413088815 172.515178456
669.375 0.11888098787 178.460675905
670.0 0.0960231954096 -168.591988708
670.625 0.0697354920951 -165.916906331
671.25 0.111841808143 177.672215169
671.875 0.10315823175 172.259178767
672.5 0.0785105671738 161.385448465
673.125 0.0718239351944 163.529687784
673.75 0.101109898169 166.322279778
674.375 0.110979953557 171.908815182
675.0 0.125986537885 -175.264549848
675.625 0.10292055931 -143.446759165
676.25 0.115003429971 -120.62477865
676.875 0.104930024628 -117.8589711
677.5 0.136918118663 -128.681317317
678.125 0.096532730714 -110.959480237
678.75 0.067868900576 -88.5084089848
679.375 0.0572082261404 -73.7361527119
680.0 0.0858808390868 -78.5809989068
680.625 0.132181948719 -74.9307567665
681.25 0.0974437698625 -65.8101162531
681.875 0.100192485728 -86.7094140946
682.5 0.13203348539 -114.428690476
683.125 0.178652835525 -122.232177101
683.75 0.116432889097 -100.113118038
684.375 0.118448281008 -77.0667071941
685.0 0.136718275699 -36.692648525
685.625 0.134967959693 -0.926992856514
686.25 0.112616974477 22.9852338446
686.875 0.0873840465433 50.1367158253
687.5 0.0876192331949 85.2157422111
688.125 0.0876355608367 109.17762251
688.75 0.108740483827 111.738750058
689.375 0.145278867284 123.915695335
690.0 0.128536903288 139.337994481
690.625 0.121803151786 128.440048356
691.25 0.148905181144 97.3410552694
691.875 0.160433144209 79.7306700916
692.5 0.122886686118 46.5012971868
693.125 0.0795448085283 -13.4224733065
693.75 0.0994234382816 -39.8783780056
694.375 0.127798917628 -22.9686608117
695.0 0.12668625124 15.2326007988
695.625 0.0996298363352 61.6486908398
696.25 0.119811219247 115.044779851
696.875 0.146725690086 168.502426617
697.5 0.13344314977 -135.28442834
698.125 0.137231254237 -128.032875341
698.75 0.129969177236 -127.605500611
699.375 0.112272662309 -124.35454999
700.0 0.0953405178927 -110.600606543
700.625 0.117129906392 -91.3075727614
701.25 0.100364653117 -60.9369365598
701.875 0.0853094377932 -61.3872310389
702.5 0.100557057255 -80.2573028633
703.125 0.170543013884 -111.257794809
703.75 0.171603070944 -149.2898288
704.375 0.134273367618 168.080997208
705.0 0.108091785442 166.236056024
705.625 0.144892476191 -167.13288923
706.25 0.149498111075 -113.488435327
706.875 0.0921826278037 -61.3139734012
707.5 0.0796320012386 -40.1766423182
708.125 0.0928569142298 23.1251010652
708.75 0.115713611489 68.8410881178
709.375 0.107679963162 107.262039712
710.0 0.104102209132 126.003926797
710.625 0.107487335193 170.619930395
711.25 0.123792119768 176.663962169
711.875 0.145464918032 164.546160525
712.5 0.15520268236 142.352040411
713.125 0.122175717145 102.754197866
713.75 0.0984490754326 55.7667371224
714.375 0.108740528277 34.7714696486
715.0 0.117989161983 17.4089037084
715.625 0.0875121459725 71.0452873748
716.25 0.0803853099503 79.4589063277
716.875 0.113432031424 100.5877917
717.5 0.148236342232 149.671434043
718.125 0.11686612366 162.20037777
718.75 0.107857621775 -179.749702131
719.375 0.124929787883 -159.944031626
720.0 0.123239747489 -121.013814504
720.625 0.113245563644 -83.7700620914
721.25 0.0962942428115 -9.17166319643
721.875 0.0833323497245 27.7093911206
722.5 0.0725885114857 75.8357586006
723.125 0.0780863431119 73.4679483567
723.75 0.110763057273 50.2654683029
724.375 0.125351822841 10.8388899727
725.0 0.0977273030671 -33.8239663992
725.625 0.0873279732932 -75.9378103322
726.25 0.118377174245 -60.130029863
726.875 0.102657469552 -44.5367581616
727.5 0.0756591111342 -33.1093877779
728.125 0.0804013517328 0.686087184613
728.75 0.0769198109497 8.62882063364
729.375 0.0839137569373 26.9478528584
730.0 0.0840281703017 16.9962623136
730.625 0.0702774524657 32.9493239475
731.25 0.0475146527548 50.2705903201
731.875 0.0977411109576 130.195418686
732.5 0.0794377008184 156.010224552
733.125 0.0741441245485 171.307150294
733.75 0.0547168040705 151.766800606
734.375 0.0851935260369 -173.029056932
735.0 0.0790189230107 163.940524229
735.625 0.0550462755449 144.248277665
736.25 0.00759476890665 157.028242209
736.875 0.091329986292 169.636878797
737.5 0.105291458223 178.640485252
738.125 0.0956946811914 -164.308202757
738.75 0.0461881100187 172.524987058
739.375 0.0904207259491 -147.735111242
740.0 0.0475576491246 -133.995598998
740.625 0.0447326301748 -150.63496571
741.25 0.0472249272093 -154.880456853
741.875 0.0134346481678 -85.0586343907
742.5 0.0788661169422 -18.3726575329
743.125 0.0329741594519 56.5388685072
743.75 0.0316288528025 90.5729529028
744.375 0.0306942839155 155.056704803
745.0 0.0491218177145 133.071196965
745.625 0.0608716694894 131.052419322
746.25 0.0727475725805 84.7462122289
746.875 0.0525564841848 67.8443539879
747.5 0.0675138576405 6.47265837256
748.125 0.0297886522283 -8.8226752234
748.75 0.0277288247304 34.0285860054
749.375 0.0282768813329 -27.0693477263
750.0 0.0307089923753 -56.6585656626
