!Created with skrf (http://scikit-rf.org).
# GHz S RI R (50+0j) 
!freq	ReS11	ImS11	
500.0	1.784657457	-3.394472138	
500.625	0.1187022739	-4.265930978	
501.25	-0.9713270295	-0.9064742699	
501.875	-0.1968731997	-2.546893165	
502.5	-0.471708249	-0.2992577916	
503.125	-0.1388969733	-0.05373759648	
503.75	0.1229426995	0.4456095414	
504.375	-0.05770738289	-0.04822987778	
505.0	0.2367472975	-0.1060908949	
505.625	-0.2096924454	-0.02203098823	
506.25	0.2354844742	-0.4551382296	
506.875	-0.3615655738	0.9863426435	
507.5	0.9027626425	-0.915282037	
508.125	0.04199571064	-3.184363959	
508.75	-0.8147932454	-2.313665533	
509.375	1.282316675	-3.591098025	
510.0	-2.730189457	0.6032473982	
510.625	-0.2202748293	-0.2206481036	
511.25	-0.4809608307	-0.179386004	
511.875	-0.6258917	-0.08510876153	
512.5	-0.04038085279	0.09465957914	
513.125	0.006180029184	-0.31900898	
513.75	-0.3615786875	-0.08444324275	
514.375	0.142635678	-0.08050696609	
515.0	-1.028983089	-0.6800060297	
515.625	1.897308261	0.1324451269	
516.25	-2.941176587	-4.199384831	
516.875	-0.6429301734	0.6235464781	
517.5	0.5090861716	-0.9169499528	
518.125	-0.356298667	0.3003471393	
518.75	0.2925637708	-0.8536730039	
519.375	-0.1896085469	0.2775570311	
520.0	0.1714760363	0.05626875928	
520.625	0.6469823476	-0.005425209156	
521.25	-0.3422500819	-0.8179485816	
521.875	-0.1895279782	-0.0461604747	
522.5	-0.2173498282	0.09545088146	
523.125	-0.03544781957	-0.1869466584	
523.75	-0.3948563689	0.17676854	
524.375	-0.2517921567	-0.09763351217	
525.0	-0.1802246602	0.6241113439	
525.625	0.1062460559	-0.1495734194	
526.25	0.03035950908	0.1611426285	
526.875	-0.1661360969	-0.08040464907	
527.5	-0.2118726994	0.9133626435	
528.125	0.4038820003	0.392421961	
528.75	-0.3769445738	0.6985133213	
529.375	0.3686825575	0.1317304692	
530.0	-0.3435994492	0.6859322492	
530.625	0.6599650425	0.6562059342	
531.25	0.888507792	0.4891735878	
531.875	0.6220470294	-0.981444972	
532.5	0.1784447903	0.04542363926	
533.125	-0.2491878849	-0.5634239625	
533.75	0.7621405061	-0.08577854592	
534.375	-0.9533810528	-1.016315507	
535.0	-0.2773470335	-0.0955849521	
535.625	-0.7105612086	0.2101121003	
536.25	0.1578928764	0.2384571922	
536.875	0.1289795421	0.1636695688	
537.5	0.2531178754	-0.1886509659	
538.125	0.09443124383	-0.1400596954	
538.75	0.5149003825	-0.1894050606	
539.375	-0.3691757214	-0.3763247946	
540.0	-0.2047409927	-0.2694142666	
540.625	-0.4590670739	-0.1525045975	
541.25	-0.2124329933	0.1141125412	
541.875	-0.04177953217	-0.06804188785	
542.5	-0.1768295286	-0.187059847	
543.125	-0.1752128234	0.01426175416	
543.75	-0.1669706198	-0.1522409146	
544.375	-0.1182448193	0.2855421498	
545.0	-0.07375074205	-0.0553893202	
545.625	0.2944448609	0.3526397936	
546.25	0.05955692685	-0.1513895841	
546.875	0.4090369802	0.2104884909	
547.5	-0.02688640743	-0.4976323585	
548.125	0.05417358893	-0.2003449472	
548.75	-0.3005926473	-0.4671861677	
549.375	-0.3885355628	-0.02940717496	
550.0	-0.04107879325	-0.09339135032	
550.625	-0.2525300168	0.1127069203	
551.25	-0.05768342628	-0.01221284665	
551.875	-0.3008553158	0.2022233001	
552.5	-0.001697036449	0.2048714613	
553.125	-0.1025342059	0.1405975142	
553.75	0.1467347584	0.1148853621	
554.375	0.1998455217	0.001553906492	
555.0	0.2545460021	-0.158010283	
555.625	0.1962635956	-0.269422064	
556.25	0.1454838161	-0.3323179284	
556.875	-0.07031166078	-0.3876566226	
557.5	-0.2383568345	-0.2576824281	
558.125	-0.2765244058	-0.07701491785	
558.75	-0.2364009424	-0.02710342384	
559.375	-0.2942854248	0.0495319627	
560.0	-0.1727440115	0.1853401247	
560.625	-0.1740424129	0.2138673975	
561.25	0.05429317159	0.3054550918	
561.875	0.04329469541	0.004480738545	
562.5	0.02368460529	0.2424335672	
563.125	0.1486698882	0.02988047104	
563.75	0.3164119839	0.1551431456	
564.375	0.3329836392	-0.3710769598	
565.0	0.06007483439	-0.2058024858	
565.625	0.04404982837	-0.4629792257	
566.25	-0.3782194637	-0.1692131507	
566.875	-0.1756278865	-0.1630690616	
567.5	-0.3876530408	-0.394267467	
568.125	-0.4620576699	-0.2279028477	
568.75	-0.3138148078	-0.3166909227	
569.375	-0.7965176248	0.2893703335	
570.0	-0.01700894433	0.4914006492	
570.625	-0.3638068251	0.1375917394	
571.25	0.1501010119	0.653507161	
571.875	-0.1751574106	-0.04009290356	
572.5	0.6281955417	0.1035510905	
573.125	-0.1605517954	-0.3581045523	
573.75	0.3184782385	0.03300272796	
574.375	0.01362832256	-0.51253564	
575.0	-0.04709869013	0.1877069854	
575.625	0.3060036298	-0.3819629831	
576.25	-0.2106272744	-0.2868362084	
576.875	0.3017453848	-0.1633738138	
577.5	-0.039290835	-0.656005969	
578.125	-0.2750251751	-0.1856559197	
578.75	0.04076685026	-0.2633223051	
579.375	-0.3181744567	-0.3583262767	
580.0	-0.1243882529	0.1929472909	
580.625	-0.1593146793	-0.3322310302	
581.25	-0.2440377372	0.443435501	
581.875	0.04995570266	0.0266238169	
582.5	-0.2068174931	0.5363930497	
583.125	0.6363491585	0.1579630751	
583.75	-0.3374339865	-0.0089078616	
584.375	0.5270817595	0.2694687263	
585.0	-0.1916959367	-0.05436345059	
585.625	0.6372221433	0.2979352017	
586.25	0.2678704639	-0.4552633896	
586.875	0.133575898	-0.007737315937	
587.5	0.08145953343	-0.5872679047	
588.125	-0.323214715	-0.1800533032	
588.75	0.3566594677	-0.1689663501	
589.375	0.173232357	-0.6257904074	
590.0	-0.1169519997	-0.1180017574	
590.625	-0.3991004387	-0.3305801753	
591.25	-0.3550051458	0.4348622488	
591.875	0.03087055877	0.1636891969	
592.5	-0.1607484193	0.1023598268	
593.125	0.1382770499	0.1364576276	
593.75	-0.192899253	0.2988448635	
594.375	0.6867901472	0.3184950107	
595.0	0.2292963383	-0.09040548518	
595.625	0.2306500503	0.5466543627	
596.25	0.7906987086	-0.173497994	
596.875	-0.1149875814	0.2014431351	
597.5	0.6671314873	0.4496031771	
598.125	0.3458009568	-0.07376936458	
598.75	0.2054689039	0.4698616197	
599.375	0.6745131388	-0.2162386904	
600.0	0.18191087	-0.2629377408	
600.625	0.4837304148	-0.271245321	
601.25	0.1512020964	-0.6267854262	
601.875	-0.1134262163	-0.1461523103	
602.5	-0.3694409087	-0.1666040283	
603.125	-0.2247191659	0.1573593817	
603.75	-0.2664916572	0.1706857735	
604.375	-0.2204222421	0.06601868693	
605.0	-0.261959625	0.3130618452	
605.625	0.07879813616	0.01148053785	
606.25	-0.6178216778	0.1289439012	
606.875	-0.07414688076	0.3919200826	
607.5	-0.5634139082	-0.004040321098	
608.125	0.07458240867	1.035941907	
608.75	0.08505468816	0.04813534351	
609.375	0.7937557004	0.233462176	
610.0	0.2531587364	-0.5931045879	
610.625	0.3707456004	-0.0004686259081	
611.25	-0.1425118611	-0.644099839	
611.875	-0.06036198146	-0.1124814458	
612.5	-0.5100004459	-0.3443208554	
613.125	-0.1488825881	0.2619182605	
613.75	-0.4394448529	0.2489544443	
614.375	0.3938415637	0.2943025428	
615.0	-0.2478182628	0.1191061831	
615.625	0.3452170123	0.2160121363	
616.25	-0.2999255313	0.1061745444	
616.875	-0.3128674313	0.7521901154	
617.5	0.1780799579	0.3155827941	
618.125	-0.3903406229	0.5347497401	
618.75	0.2838496882	0.5157522956	
619.375	0.02965061524	0.2453404802	
620.0	0.5997757672	0.200728592	
620.625	0.1376022755	-0.2859454286	
621.25	-0.1304965694	-0.5259408028	
621.875	-0.4406600022	-0.08124596061	
622.5	-0.5107959553	-0.0465676229	
623.125	0.04223768594	0.5757199134	
623.75	0.03868957738	0.08969887273	
624.375	0.3691544282	-0.3521544296	
625.0	-0.07530198092	0.211171102	
625.625	0.3379917639	-0.4462874128	
626.25	-0.3083928803	0.08479642223	
626.875	-0.08928520091	-0.5658819622	
627.5	-0.5972712383	0.03742255127	
628.125	-0.01592918238	-0.004159291584	
628.75	-0.1118763498	-0.559631683	
629.375	-0.3918521018	-0.1498984463	
630.0	-0.2415703745	-0.3151383881	
630.625	-0.6693450405	0.1178672887	
631.25	-0.1436897111	0.5270525955	
631.875	-0.2173482187	0.4044872247	
632.5	0.4408915852	0.581340826	
633.125	0.4414410431	0.04204340509	
633.75	0.3186449607	-0.09927401271	
634.375	0.3019595992	-0.3284523957	
635.0	-0.2968396171	-0.2829063193	
635.625	-0.0602069337	-0.3468154864	
636.25	-0.6057249878	0.2733723256	
636.875	0.1729074444	0.2735645972	
637.5	-0.5411558208	-0.03930021784	
638.125	0.2664072996	0.478969403	
638.75	-0.4075880737	-0.02938978605	
639.375	0.0006307428849	1.03909106	
640.0	0.5485970894	0.1801167145	
640.625	0.1345120213	0.540449201	
641.25	1.003153393	-0.04087092968	
641.875	0.03555912671	-0.5081056486	
642.5	0.3107524732	-0.2784803121	
643.125	-0.6525074534	-0.5656636158	
643.75	0.07014269174	0.1655172722	
644.375	-0.6514352734	-0.2865715193	
645.0	-0.1879531895	0.5964359239	
645.625	0.09281680013	0.1876116218	
646.25	0.2772516697	0.5540308232	
646.875	0.391715237	-0.3874997046	
647.5	-0.1771529084	0.2777775482	
648.125	0.801830588	0.09744960847	
648.75	0.03133054912	-0.413103122	
649.375	1.05828046	-0.007467639314	
650.0	0.2442202457	-1.404969427	
650.625	-0.1870719449	-0.1192268378	
651.25	1.184781629	-0.3402510818	
651.875	0.3813843993	-1.177749583	
652.5	0.1764577055	0.2915819064	
653.125	1.180937678	-0.2615165087	
653.75	-0.01391409513	-0.7780068809	
654.375	0.2354457691	-0.3011863727	
655.0	-1.100520662	-0.6038336936	
655.625	-0.0475877863	0.6613920079	
656.25	-0.2014631006	0.04000459469	
656.875	0.2852332483	0.5617435323	
657.5	-0.04444941257	-0.2015006284	
658.125	0.2936605242	0.8023146413	
658.75	0.8403792934	-0.06281762717	
659.375	0.4598642323	-0.3162267338	
660.0	0.8005248025	-0.3078811471	
660.625	0.1756496172	-1.338053211	
661.25	0.01689908804	-0.194087137	
661.875	0.9809332387	-0.5066866983	
662.5	0.4923860644	-0.9657790639	
663.125	0.1406373206	0.003476363403	
663.75	0.8899550848	-0.9839713652	
664.375	-0.5591144782	-0.5029565764	
665.0	-0.1550396964	-0.5765891007	
665.625	-1.117484382	0.2573587691	
666.25	0.1795216559	0.5588234938	
666.875	-0.07727499382	0.5332456369	
667.5	0.6957841657	0.2909288609	
668.125	0.2162345297	-0.2335857205	
668.75	0.67417047	-0.004444209096	
669.375	0.05767271851	-0.842333601	
670.0	-0.004594096781	-0.237889641	
670.625	0.1996761592	-0.4991150271	
671.25	-0.0003828825059	-0.613237738	
671.875	0.09432830913	-0.1115834311	
672.5	0.7858061592	-0.3187435575	
673.125	0.3066482717	-0.6896666419	
673.75	0.1693271955	-0.1760435448	
674.375	0.5708430249	-0.8108991135	
675.0	-0.821639619	-0.3889650058	
675.625	0.2434564635	-0.3841525607	
676.25	-0.9553387623	-0.1546707145	
676.875	0.02414482445	0.4459594369	
677.5	-0.5776202466	-0.4859045307	
678.125	-0.09564780383	0.8727178082	
678.75	-0.04367519257	0.1617671761	
679.375	0.4378350315	0.5407735676	
680.0	0.5084543441	-0.6266994519	
680.625	-0.1659105305	0.2108581915	
681.25	0.5927771769	-0.1206162172	
681.875	0.2132673857	-0.1576138269	
682.5	0.1980432116	0.3964681422	
683.125	0.867046698	0.2986430751	
683.75	0.502375525	-0.1133264356	
684.375	0.3454528917	0.201319721	
685.0	0.9911247044	0.4193802981	
685.625	0.5270815775	-0.7575226377	
686.25	0.4724980092	0.8378587722	
686.875	1.127017148	-1.217833744	
687.5	-0.04588728731	-0.05333705013	
688.125	0.6638993059	-1.469828542	
688.75	-1.7241775	0.2140056033	
689.375	-0.4092408914	-0.1430731846	
690.0	0.3492871389	1.597652107	
690.625	0.5332582327	0.02173251039	
691.25	0.4105526876	0.9988152685	
691.875	1.481728318	0.4577008094	
692.5	1.067802918	0.4076898725	
693.125	1.526897149	0.06811551323	
693.75	1.335862495	-0.6878520122	
694.375	1.011591442	-0.7993553588	
695.0	0.9114512948	-0.6929366556	
695.625	1.151289944	0.1003827323	
696.25	1.571585312	-0.01755700062	
696.875	0.4475945375	0.6938859171	
697.5	1.322749975	1.807678027	
698.125	1.157248569	-0.3952429835	
698.75	1.547328819	-0.3146298729	
699.375	-1.640227714	-1.099935131	
700.0	0.01672896458	0.4449184382	
700.625	0.09090630178	1.45215822	
701.25	0.5448365294	-0.1507284366	
701.875	0.2409279152	0.8986645424	
702.5	1.27659391	0.281705384	
703.125	0.4827279421	0.3951303828	
703.75	1.211461372	-0.2437991875	
704.375	0.2655424681	-0.5552027048	
705.0	1.040050953	0.1516334218	
705.625	0.5603834955	-0.5000788041	
706.25	0.1420918683	0.5980213327	
706.875	1.214703855	1.070073891	
707.5	0.3622056558	0.1499336657	
708.125	1.310111957	0.77161429	
708.75	0.4733954851	-1.333175178	
709.375	-0.2749240855	-0.4897768871	
710.0	-0.7953639891	0.5566955364	
710.625	0.4070180208	0.1742798443	
711.25	0.1090422414	0.4356591847	
711.875	0.5551830155	0.1689057909	
712.5	0.7820288409	-0.01995003743	
713.125	0.5557954575	-0.4121814295	
713.75	0.4077118147	-0.438309209	
714.375	-0.06944933837	-0.7771785956	
715.0	-0.1243450537	-0.0749479569	
715.625	0.4696293556	-1.026663571	
716.25	-0.3369382035	-0.6217678127	
716.875	1.011831768	0.3269588434	
717.5	2.408957676	-0.7138487472	
718.125	-0.05381039899	-0.7099219581	
718.75	3.678192583	1.055327169	
719.375	1.052081659	-2.652627157	
720.0	0.8314614231	-0.5514877096	
720.625	1.558138859	-4.093565408	
721.25	-1.499979667	-1.532985904	
721.875	0.5195181095	-2.438232183	
722.5	-2.007259835	-2.31405654	
723.125	-1.93484295	0.4356278508	
723.75	-0.933953987	0.4458756031	
724.375	0.135549	1.607613262	
725.0	0.5242795091	0.5047505251	
725.625	0.1508041845	0.9461403125	
726.25	0.007739912606	2.174299393	
726.875	1.164140094	2.076741882	
727.5	-1.807359349	2.153576439	
728.125	-0.8412772775	7.855741181	
728.75	3.641075192	4.596334044	
729.375	-8.463150735	3.703357716	
730.0	5.821314886	19.15469049	
730.625	1.781338204	0.9911737342	
731.25	-7.556225447	8.84619725	
731.875	-4.046020411	15.36295641	
732.5	-2.562586653	-2.497892088	
733.125	-10.0260599	0.9566961635	
733.75	-0.9536274163	4.01414957	
734.375	1.147372141	0.1571230259	
735.0	1.069716083	-2.235810295	
735.625	-0.7094250199	1.370948012	
736.25	-0.8724877314	0.7077780974	
736.875	1.453478736	1.949497955	
737.5	3.130109549	-0.8035915271	
738.125	1.379710219	0.2086402781	
738.75	8.135735412	-3.045514684	
739.375	3.737722736	-9.456210155	
740.0	-2.37296863	2.389486869	
740.625	21.25567889	8.213814413	
741.25	9.679500583	-11.51191322	
741.875	-26.33444572	-9.331055081	
742.5	-14.69331815	-6.785050493	
743.125	0.1527529653	2.51681488	
743.75	3.399739914	-6.313826962	
744.375	-2.101795815	1.038382431	
745.0	-0.2735998686	-0.2547401506	
745.625	0.3828432964	-0.1286021949	
746.25	-0.258566786	0.01868925793	
746.875	-0.4968428317	-0.1643766099	
747.5	-0.2851545762	1.053006473	
748.125	0.4456214567	0.8587096294	
748.75	0.1309856746	1.710649022	
749.375	0.3889670033	1.082295074	
750.0	-0.01173275105	0.745023238	
