!Created with skrf (http://scikit-rf.org).
# GHz S RI R (50+0j) 
!freq	ReS11	ImS11	
500.0	-0.9802444044	-4.236762469	
500.625	-0.1183014566	-1.483248593	
501.25	0.4269820109	-2.246573696	
501.875	-2.021747011	-2.297016824	
502.5	-0.4712960447	-0.04587895531	
503.125	-0.1633597463	-0.1093559975	
503.75	0.2594404326	0.3971739173	
504.375	-0.03577845921	0.05615276374	
505.0	0.1080384345	-0.2186372618	
505.625	0.04258427427	0.104441279	
506.25	-0.4231293794	-0.6444812403	
506.875	0.7492528354	0.3996679789	
507.5	0.5526296131	-1.685771231	
508.125	-0.5416172873	-2.960781612	
508.75	-0.3696881615	-1.785956063	
509.375	1.287856446	-5.136419114	
510.0	-2.427364277	0.7036892493	
510.625	-0.1447595915	-0.5063343733	
511.25	-0.659087236	0.02844745946	
511.875	-0.09778580319	-0.1470619402	
512.5	-0.1179148035	0.1727657126	
513.125	-0.1101219454	-0.3525128291	
513.75	-0.252843072	0.04932075297	
514.375	0.03826024635	-0.3293844788	
515.0	-1.56466281	0.1703340215	
515.625	2.452607777	-1.837272925	
516.25	-3.838425576	-1.931789233	
516.875	0.5680372163	-0.04024993395	
517.5	-0.1523965022	-1.281725704	
518.125	0.07786939971	0.3488753948	
518.75	-0.2576567641	-0.9643471187	
519.375	-0.1028198058	0.2526426225	
520.0	0.192584796	0.1721674927	
520.625	0.6868452103	-0.2105012138	
521.25	-0.3345336492	-0.5903330134	
521.875	-0.1933453194	-0.2461226026	
522.5	-0.1845959148	0.2327303923	
523.125	-0.2179992781	-0.1878046878	
523.75	-0.228271023	0.1469351918	
524.375	-0.3712589813	-0.2249371883	
525.0	0.1987994256	0.6213106206	
525.625	-0.1124157373	-0.05551058646	
526.25	0.1641521937	0.08144854056	
526.875	-0.3229181888	0.02295065541	
527.5	0.1253153598	0.8041896595	
528.125	0.06467287061	0.3008598109	
528.75	-0.1886451461	1.000035525	
529.375	0.2560462953	-0.02458856485	
530.0	0.07034057694	0.7975323674	
530.625	0.2789182395	0.4614871919	
531.25	1.517775513	0.8732701592	
531.875	0.06827062677	-0.8023433871	
532.5	0.2077480951	-0.3056444903	
533.125	-0.5268729775	-0.1264913306	
533.75	0.8067883948	-0.6694534736	
534.375	-0.7013784157	-0.5261008885	
535.0	-0.2845469474	-0.4153606839	
535.625	-0.7111968094	0.5894637414	
536.25	0.09541510416	0.1059521823	
536.875	0.2094442543	0.1619117216	
537.5	0.2080245413	-0.1954629756	
538.125	0.1270388712	-0.04065530466	
538.75	0.5138893645	-0.3879432282	
539.375	-0.2617699651	-0.2141115555	
540.0	-0.2162950042	-0.457886457	
540.625	-0.5897688977	0.01061759328	
541.25	-0.04983896429	0.06328376267	
541.875	-0.09617531726	-0.1147594246	
542.5	-0.2131305602	-0.1430558655	
543.125	-0.0852099763	0.06477989394	
543.75	-0.2705887371	-0.233713793	
544.375	0.02424910549	0.2781675351	
545.0	-0.2168809473	0.052357782	
545.625	0.3768298653	0.1310615963	
546.25	-0.03778665825	0.07906460357	
546.875	0.6005906844	-0.07833546126	
547.5	-0.1080837785	-0.2128952858	
548.125	0.1197381133	-0.3642244622	
548.75	-0.4101014875	-0.4154316565	
549.375	-0.2878744964	0.02273603657	
550.0	-0.1450583404	-0.1577143051	
550.625	-0.1267798534	0.1707872365	
551.25	-0.1698950932	-0.07213702224	
551.875	-0.1971459745	0.3039402105	
552.5	-0.04120900629	0.0866028331	
553.125	-0.08128500914	0.2096527463	
553.75	0.130700641	0.08923162435	
554.375	0.2038076405	0.01256234352	
555.0	0.2567223356	-0.1689899565	
555.625	0.185345449	-0.2710996757	
556.25	0.1464462118	-0.3295183746	
556.875	-0.08000651325	-0.3969840905	
557.5	-0.247009855	-0.237935269	
558.125	-0.2623844051	-0.08482184039	
558.75	-0.2630261805	-0.02515312859	
559.375	-0.2714145474	0.0818028615	
560.0	-0.1813255404	0.1494872596	
560.625	-0.17724826	0.2543812497	
561.25	0.08104052884	0.282955088	
561.875	0.003084830401	0.02699891359	
562.5	0.1105946151	0.2086727123	
563.125	0.03658528551	0.1226394362	
563.75	0.4542253082	0.04452389209	
564.375	0.1496297115	-0.308775362	
565.0	0.265366563	-0.1807717004	
565.625	-0.1382423786	-0.508151194	
566.25	-0.2963430782	-0.1179222484	
566.875	-0.1763862889	-0.2277513713	
567.5	-0.4524425647	-0.3779671299	
568.125	-0.3797079801	-0.1415221166	
568.75	-0.4420161033	-0.438048725	
569.375	-0.6296906557	0.4523875728	
570.0	-0.1636564795	0.2517015381	
570.625	-0.4198180175	0.5365835935	
571.25	0.3468801331	0.2424291625	
571.875	-0.1954336592	0.3222906038	
572.5	0.5979256157	-0.1983022173	
573.125	-0.08794978996	-0.09906981226	
573.75	0.4178693645	-0.1559935882	
574.375	-0.2070465508	-0.3843383	
575.0	0.2021995613	0.1783129259	
575.625	0.002384417715	-0.4536669008	
576.25	-0.02798900582	0.05964582388	
576.875	0.2376396026	-0.54197303	
577.5	-0.2525652877	-0.4850272929	
578.125	-0.0654480137	-0.1059087005	
578.75	-0.01439603877	-0.4151664421	
579.375	-0.4399715515	-0.227161291	
580.0	0.07617515756	0.1157500327	
580.625	-0.3526034345	-0.2501485781	
581.25	0.01555960532	0.2968831312	
581.875	-0.2622377135	0.1727775509	
582.5	0.2005844074	0.6805960196	
583.125	0.3547682532	-0.1869035618	
583.75	-0.2480666154	0.3307922386	
584.375	0.4920065181	-0.1647860933	
585.0	-0.1372204727	0.3087036599	
585.625	0.7140533602	-0.03477794333	
586.25	0.04916257581	-0.2592359573	
586.875	0.4905339492	-0.1572284112	
587.5	-0.3023541214	-0.4866803756	
588.125	0.06757056798	-0.02302504303	
588.75	0.3174384789	-0.4797308738	
589.375	-0.06410925413	-0.5286332659	
590.0	0.0515496637	-0.209758651	
590.625	-0.4531452194	-0.2936253845	
591.25	-0.292842959	0.4243985166	
591.875	0.003267340251	0.1100947569	
592.5	-0.1119615704	0.2529346992	
593.125	-0.0240823598	-0.08293224125	
593.75	0.1686312167	0.4815729876	
594.375	0.4054368765	0.04069818874	
595.0	0.09293949298	0.2217913632	
595.625	0.5832424365	0.574913599	
596.25	0.3803336128	-0.4190046374	
596.875	0.1157054446	0.4154258256	
597.5	0.6673227375	0.2050439176	
598.125	0.1270802989	0.04290543041	
598.75	0.5905158932	0.4894480773	
599.375	0.3002793926	-0.3151045089	
600.0	0.4332080656	-0.07006034902	
600.625	0.4849286274	-0.560021848	
601.25	-0.05701024922	-0.4326562212	
601.875	0.03085964419	-0.2828574415	
602.5	-0.3604078446	-0.08312425554	
603.125	-0.313032518	0.1097284362	
603.75	-0.08344684377	0.1765832618	
604.375	-0.364744643	0.02446540968	
605.0	-0.1212171558	0.390849854	
605.625	-0.1671547631	-0.1297643465	
606.25	-0.3470762993	0.3862991037	
606.875	-0.1369237441	0.04032869073	
607.5	-0.7971967431	0.3593569848	
608.125	0.4027549518	0.5992320924	
608.75	-0.0197299892	0.4187833928	
609.375	0.8863986721	-0.06313017096	
610.0	-0.02508303175	-0.2480354443	
610.625	0.5131526298	-0.3283546304	
611.25	-0.1895864198	-0.3952663516	
611.875	0.04352123569	-0.2607553281	
612.5	-0.7077984421	-0.05176867581	
613.125	-0.2142519339	-0.02156246369	
613.75	-0.4005598704	0.4203097062	
614.375	0.3167222924	0.05829081375	
615.0	-0.02799194008	0.3933429327	
615.625	0.180697972	-0.07923869303	
616.25	-0.4061786134	0.3698582505	
616.875	0.0458232847	0.7009663603	
617.5	-0.2087460323	0.1165936713	
618.125	-0.12905611	0.7688089607	
618.75	0.2523796191	0.2802417752	
619.375	-0.01807474651	0.4305587465	
620.0	0.5748678348	-0.00171975106	
620.625	0.2166253296	-0.2167883578	
621.25	-0.2506642574	-0.5037926142	
621.875	-0.3148214403	-0.1367748026	
622.5	-0.6500086804	0.07834032134	
623.125	0.1122085317	0.3218989656	
623.75	0.2040913825	0.2806811584	
624.375	0.04302547353	-0.3778056834	
625.0	0.2011026997	0.2041358016	
625.625	-0.06444586079	-0.6422874619	
626.25	0.1211073056	0.04039342761	
626.875	-0.3920949552	-0.4983181119	
627.5	-0.4216794578	0.1316699417	
628.125	0.006609185329	-0.2040879727	
628.75	-0.3976235334	-0.4434153292	
629.375	-0.05829862004	-0.1542481746	
630.0	-0.4709993699	-0.4206450546	
630.625	-0.5353365314	0.3437828453	
631.25	-0.1683665027	0.2258483623	
631.875	-0.2590570734	0.6540386037	
632.5	0.4298617675	0.4486227588	
633.125	0.5012520086	0.03543200638	
633.75	0.2456607038	-0.04319159885	
634.375	0.3357376893	-0.5032180972	
635.0	-0.1475001519	-0.04640121955	
635.625	-0.3047497939	-0.4496200297	
636.25	-0.3368444158	0.4061690722	
636.875	-0.1185144234	-0.06673572122	
637.5	-0.2040791255	0.5795917772	
638.125	0.1365284636	-0.09118708099	
638.75	-0.6462444734	0.3952886763	
639.375	0.3227369159	0.8398848244	
640.0	0.2962015745	0.1731593698	
640.625	0.3183174535	0.6540640385	
641.25	0.9272637555	-0.1623036924	
641.875	0.09591746165	-0.2152415218	
642.5	0.3143648519	-0.7824657339	
643.125	-0.4372117957	0.1694363092	
643.75	-0.02642875369	-0.4406873367	
644.375	-0.7701152802	0.1505057971	
645.0	0.01067401507	0.3571383555	
645.625	-0.1763901278	0.2826514486	
646.25	0.5541438534	0.5603453802	
646.875	0.1856768656	-0.4438574196	
647.5	-0.03830471428	0.4920821657	
648.125	0.6522329648	-0.3284330066	
648.75	0.144004395	0.371492731	
649.375	0.9895032141	-0.9409828844	
650.0	-0.2546108287	-0.7415452353	
650.625	0.6078147091	-0.006598069602	
651.25	0.9666160015	-1.175381118	
651.875	-0.2707222231	-0.5322402253	
652.5	0.7319150014	0.3767190645	
653.125	0.9695723895	-0.6424852051	
653.75	-0.04747487976	-0.3806616285	
654.375	0.40710322	-0.9267722534	
655.0	-0.9830311634	0.07647924811	
655.625	-0.002718722624	0.2039227053	
656.25	-0.4086015662	0.5256057362	
656.875	0.627475172	0.1352623084	
657.5	-0.4038833068	0.1922247954	
658.125	0.6019303372	0.5665758484	
658.75	0.6597760899	-0.07249417545	
659.375	0.4521225366	-0.06442345862	
660.0	0.9964661932	-0.8857779045	
660.625	-0.2094070771	-0.6905966555	
661.25	0.6316351542	-0.3371842266	
661.875	0.7433847305	-0.9461440769	
662.5	0.009113099158	-0.6485732065	
663.125	0.7952641689	0.17158415	
663.75	0.3337173627	-1.21644827	
664.375	-0.239884006	-0.270369106	
665.0	-0.4258474715	-0.8755553342	
665.625	-0.78096661	0.6556326389	
666.25	-0.3030439063	0.1753059464	
666.875	0.2923084877	0.7991035452	
667.5	0.5218187433	-0.07925838789	
668.125	0.1849454169	0.2207791918	
668.75	0.8252627023	-0.4206767183	
669.375	-0.06750605246	-0.5541402596	
670.0	0.0607965461	-0.3099798971	
670.625	0.1840756204	-0.5636586721	
671.25	-0.1827792251	-0.4863843732	
671.875	0.5190909595	-0.1959553256	
672.5	0.4795522593	-0.5672005094	
673.125	0.2128209997	-0.3439135662	
673.75	0.6563783681	-0.2279444213	
674.375	-0.04987454213	-1.138317387	
675.0	-0.3461540549	0.09151786005	
675.625	-0.14891164	-0.8030088355	
676.25	-0.8511890264	0.1626623032	
676.875	0.2174388077	-0.0244771311	
677.5	-0.9429955029	0.04260244946	
678.125	0.2011463491	0.2658472705	
678.75	-0.3539841665	0.5252980097	
679.375	1.038931168	0.1021503142	
680.0	-0.166377238	-0.2111095649	
680.625	0.438130008	0.06420001346	
681.25	0.3322536582	-0.3414153917	
681.875	0.04913257542	-0.03200816022	
682.5	0.3899051456	0.4822035046	
683.125	0.8961842699	0.1154538477	
683.75	0.3941351719	-0.08987342068	
684.375	0.4646501834	0.4639894611	
685.0	1.166047681	-0.1642670371	
685.625	0.01754790555	0.1452453161	
686.25	1.335639121	0.03316838931	
686.875	0.1734998864	-0.8831407309	
687.5	0.7703620128	0.1736828179	
688.125	-0.02120750035	-1.965969385	
688.75	-0.7400978724	0.4786237794	
689.375	-1.247505983	0.1249280219	
690.0	0.7658517172	1.058248747	
690.625	0.1182247922	0.2327450561	
691.25	1.178301239	1.065239536	
691.875	0.8050162209	0.2331632224	
692.5	1.242600151	0.7278182966	
693.125	1.737662066	-0.174655757	
693.75	1.122012677	-0.6783324601	
694.375	0.9513740891	-0.8853335208	
695.0	0.8120812838	-0.5662316183	
695.625	1.602842617	-0.09234875407	
696.25	0.9758982952	-0.1808985421	
696.875	0.4291846514	1.369451613	
697.5	1.799195144	0.8832653275	
698.125	0.6333010133	0.4565932259	
698.75	1.783218248	-1.206764661	
699.375	-1.431887342	-0.3546125179	
700.0	-0.895706029	-0.06228816071	
700.625	0.9032345578	1.144294591	
701.25	0.1747579634	0.1202798271	
701.875	0.8124559901	1.060833376	
702.5	0.6397038388	-0.04095434093	
703.125	0.8872966421	0.6451096844	
703.75	1.069586737	-0.6768104449	
704.375	0.2991821856	-0.03987117392	
705.0	0.9239863434	-0.5443857306	
705.625	0.1422169584	-0.1804939928	
706.25	0.6111399989	1.091727466	
706.875	1.077411808	0.2249256656	
707.5	0.1075618983	0.8234092275	
708.125	1.548804126	0.3849154544	
708.75	0.1762437809	-0.8990234903	
709.375	-0.35042831	-0.8984072395	
710.0	-0.4983510122	0.9282636803	
710.625	0.02184302931	0.08694222834	
711.25	0.3914333631	0.4458885158	
711.875	0.4595584444	0.1504822702	
712.5	0.7058297315	-0.01138237959	
713.125	0.5129021132	-0.3590756059	
713.75	0.5782811232	-0.6173002016	
714.375	-0.3872375715	-0.638651933	
715.0	0.4058604415	-0.1503534621	
715.625	-0.2860736119	-1.012564538	
716.25	0.09046713867	0.01232162266	
716.875	1.704810688	-0.3660274475	
717.5	0.8499379836	-1.327550309	
718.125	0.9980925296	1.828472536	
718.75	3.375092057	-1.422323851	
719.375	0.2515231753	-1.507582784	
720.0	3.028671665	-0.908957885	
720.625	-0.1319590438	-4.067167458	
721.25	-0.1080814615	-1.110447545	
721.875	-0.2926179034	-3.082609364	
722.5	-2.399145176	-1.791691739	
723.125	-0.9832160485	-0.295883443	
723.75	-1.563651155	1.31063069	
724.375	0.5554003634	0.9946628007	
725.0	0.1877618853	0.6593980285	
725.625	0.0805157148	1.224565855	
726.25	0.7361143015	2.187755077	
726.875	0.4008801473	0.8539963249	
727.5	-2.223203139	4.445854521	
728.125	1.86227384	6.927398038	
728.75	0.08501690412	1.093025331	
729.375	-8.094674338	18.69780918	
730.0	8.96928215	5.144964116	
730.625	-9.701108463	4.824874473	
731.25	-4.677724232	19.10563282	
731.875	4.241974067	5.907489432	
732.5	-11.1819427	-2.498392506	
733.125	-7.94198807	3.353489443	
733.75	-0.565158482	3.897228501	
734.375	0.6172210325	1.990910824	
735.0	-0.9935057336	-2.364213564	
735.625	-0.4214492133	-0.120573171	
736.25	-0.8521996146	1.573535743	
736.875	2.21482332	1.164277252	
737.5	0.9495002407	-0.2722710966	
738.125	4.680316537	1.137390003	
738.75	7.170530136	-6.411495785	
739.375	-1.076625291	-7.974512166	
740.0	6.45597096	10.71692574	
740.625	24.32135502	-13.05307069	
741.25	-2.771352909	-9.478278548	
741.875	-19.88192159	0.274073227	
742.5	-1.016876319	5.660403346	
743.125	6.7108145	-6.252343544	
743.75	-2.173109043	-4.523836174	
744.375	-0.4782016815	0.6790138143	
745.0	-0.3952293432	0.1846431924	
745.625	0.3431301149	-0.2958578246	
746.25	0.242907347	-0.1802116353	
746.875	-1.405276128	0.2159374166	
747.5	0.1022085559	0.9721782679	
748.125	0.3845702999	0.9016930385	
748.75	0.8033669993	1.601226279	
749.375	0.8834199988	1.129159932	
750.0	-0.9074885644	-0.7363470019	
