!Created with skrf (http://scikit-rf.org).
# GHz S RI R (50+0j) 
!freq	ReS11	ImS11	
500.0	0.1204209644	-0.864072926	
500.625	1.742821186	-3.497468679	
501.25	-2.86923262	-2.759980106	
501.875	-1.541719227	-0.1957612207	
502.5	0.06067000469	-0.3491258588	
503.125	-0.3514011015	0.224119279	
503.75	-0.02807844469	-0.03291620125	
504.375	0.1857600247	-0.03789559774	
505.0	-0.07206067546	0.04462174281	
505.625	0.09633484285	-0.4095973106	
506.25	-0.2187126376	0.3254392761	
506.875	-0.5948099824	-0.9342673335	
507.5	-1.510302794	-0.9880670129	
508.125	0.2776024382	-0.1030883664	
508.75	2.610955425	-3.68317754	
509.375	-2.514472444	-3.487602291	
510.0	-0.7861628176	-0.9225040365	
510.625	-1.131924733	-0.6123879592	
511.25	-0.1289067206	-0.1538610802	
511.875	-0.5791988876	-0.2637064792	
512.5	-0.05588044443	0.1105851488	
513.125	-0.07093190024	-0.2438399455	
513.75	0.006842922798	-0.2712103051	
514.375	-0.6719456392	0.01798837001	
515.0	1.405372741	0.01525667902	
515.625	-1.810613658	-1.256645846	
516.25	1.189933613	-0.4987790067	
516.875	-1.371124783	-2.611253782	
517.5	-0.6992663967	0.2676552424	
518.125	-0.03806401874	-0.4484042545	
518.75	-0.5313013242	-0.004062090086	
519.375	-0.2022836343	-0.02128794626	
520.0	0.5116372756	0.1951733236	
520.625	0.3569949819	-0.2957469379	
521.25	0.2132890126	-0.5735243869	
521.875	-0.6258719671	0.09916111359	
522.5	-0.0002110883157	-0.03013125209	
523.125	-0.1609674988	0.2062107791	
523.75	-0.1684770874	-0.1981707222	
524.375	-0.4480714976	0.4653194424	
525.0	-0.1680141125	-0.01489948745	
525.625	0.1311379942	0.356669929	
526.25	-0.1881864463	-0.2225528384	
526.875	0.0131670216	0.2879047711	
527.5	-0.1480267032	0.1598016886	
528.125	0.03612429371	1.17151253	
528.75	0.5056384785	0.402370447	
529.375	-0.01172352014	0.3155255292	
530.0	0.2285662486	0.06598065575	
530.625	0.09711153345	1.315005541	
531.25	0.9807613097	-0.4321455031	
531.875	0.7038205961	-0.133545336	
532.5	-0.6808448021	-0.4689827624	
533.125	0.5984325556	-0.02279499776	
533.75	-0.1358556735	-0.633460779	
534.375	0.2042038316	-0.6628541663	
535.0	-1.198784987	-0.1254416305	
535.625	-0.1469107671	0.159803125	
536.25	-0.1016500358	0.2680406643	
536.875	0.340636989	-0.02205011678	
537.5	0.06079754468	-0.008836158869	
538.125	0.4486553092	-0.2309131718	
538.75	0.1200584423	-0.2669461084	
539.375	-0.0248862216	-0.4867047166	
540.0	-0.6537497386	-0.2873536292	
540.625	-0.1469562741	-0.0404884216	
541.25	-0.2829276946	-0.057390174	
541.875	-0.1601241475	0.007703542035	
542.5	-0.0324756431	-0.002806249495	
543.125	-0.209923318	-0.2788568965	
543.75	-0.2389565299	0.2358882026	
544.375	-0.1696467885	-0.1075355524	
545.0	0.1390526097	0.2787972944	
545.625	-0.08872835418	0.0591173801	
546.25	0.5004165349	0.1656091359	
546.875	-0.01181025946	-0.129139086	
547.5	0.4153756496	-0.201275372	
548.125	-0.2975088448	-0.5260301099	
548.75	-0.2036046917	-0.08600982038	
549.375	-0.1945411267	-0.3146273083	
550.0	-0.2665226674	0.1526133467	
550.625	-0.05332065993	-0.1202467981	
551.25	-0.241575693	0.2137889447	
551.875	-0.1003497201	0.04503115114	
552.5	-0.1917051684	0.2608338625	
553.125	0.01989221352	0.1302860558	
553.75	0.08493044874	0.1292868056	
554.375	0.2529638883	-0.004846651147	
555.0	0.2086642285	-0.1743119453	
555.625	0.2096314612	-0.2414251696	
556.25	0.1565500447	-0.3567761691	
556.875	-0.09824498374	-0.3784213697	
557.5	-0.2247200228	-0.2415752891	
558.125	-0.2835993972	-0.1027341404	
558.75	-0.2555760956	0.01847242406	
559.375	-0.2282121766	0.02205697585	
560.0	-0.2730064793	0.1866410422	
560.625	-0.05783630108	0.2834757432	
561.25	-0.0229054709	0.1635599881	
561.875	0.1278774921	0.1808016729	
562.5	-0.04253557342	0.02810330772	
563.125	0.256588145	0.2501002061	
563.75	0.1970404066	-0.09164383106	
564.375	0.4018648018	-0.09985834294	
565.0	0.1200360618	-0.4994599218	
565.625	-0.09816898648	-0.2078296519	
566.25	-0.1669991597	-0.332547985	
566.875	-0.4832889768	-0.1776913897	
567.5	-0.201807464	-0.09942662737	
568.125	-0.2860041283	-0.5800514722	
568.75	-0.6425026143	-0.002890074236	
569.375	-0.4116743189	0.01366172409	
570.0	-0.4577598684	0.6804040289	
570.625	0.1386003019	0.3536223165	
571.25	-0.3175581656	0.1498076696	
571.875	0.5280300763	0.2098139455	
572.5	-0.05838813231	0.1202250866	
573.125	0.5314412239	-0.3596130869	
573.75	-0.170067139	-0.4016186507	
574.375	0.217193097	0.110754207	
575.0	-0.0424343532	-0.4185285079	
575.625	0.1689710086	0.1371089937	
576.25	0.2815668014	-0.489244294	
576.875	-0.298293606	-0.2646552027	
577.5	0.2021832174	-0.1350282253	
578.125	-0.03800073098	-0.6225996686	
578.75	-0.3964921601	-0.1785019324	
579.375	0.002435077638	-0.03463269043	
580.0	-0.2488029962	-0.2973678274	
580.625	0.03003115246	0.137450147	
581.25	-0.4954558982	0.01574016696	
581.875	0.2205326991	0.5291687651	
582.5	0.1414770974	-0.03279301039	
583.125	-0.1573891254	0.4550260955	
583.75	0.5392781454	-0.1945628519	
584.375	-0.3288809075	0.3453595276	
585.0	0.6242487676	0.04625908561	
585.625	-0.0362004673	-0.05921510821	
586.25	0.6658264259	0.02446035546	
586.875	-0.1320120656	-0.4574707215	
587.5	0.1844528261	-0.1329219575	
588.125	-0.04653793746	-0.6166834747	
588.75	-0.2223925822	-0.2646848262	
589.375	0.3809787134	-0.07739610338	
590.0	-0.226058872	-0.6091094542	
590.625	-0.3706203654	0.03392895094	
591.25	-0.2615467587	0.08524862511	
591.875	-0.2107116077	0.4175565444	
592.5	0.1203612103	-0.05520961479	
593.125	-0.09547853925	0.2535705414	
593.75	0.1239745014	0.1133704071	
594.375	0.1596105045	0.4342312023	
595.0	0.7558699132	0.3377814367	
595.625	0.1750522749	-0.2359212476	
596.25	0.2947113392	0.5124589266	
596.875	0.678816387	-0.1746944773	
597.5	-0.02153893265	0.1847144333	
598.125	0.5994493022	0.5004502903	
598.75	0.2554889908	-0.05681981863	
599.375	0.559025777	0.2467592272	
600.0	0.3690833012	-0.6069202105	
600.625	0.143596275	-0.2198333449	
601.25	0.3370719953	-0.3707377816	
601.875	-0.266031787	-0.4518322685	
602.5	-0.2092022376	-0.02757491853	
603.125	-0.2128825177	0.08860692763	
603.75	-0.3662905951	0.1126762036	
604.375	-0.1101475063	0.3276876848	
605.0	-0.2268755087	-0.02406084003	
605.625	-0.163280046	0.358214704	
606.25	-0.1047958491	-0.05559384984	
606.875	-0.7300075632	0.3025594277	
607.5	0.006657703488	0.3826693813	
608.125	-0.4593938976	0.4130370018	
608.75	0.8633561252	0.469396998	
609.375	0.1235906745	0.01564581736	
610.0	0.7011035314	-0.2678800677	
610.625	-0.03660499473	-0.4621660613	
611.25	0.4234863274	-0.2874170611	
611.875	-0.4737338708	-0.2221110428	
612.5	-0.1720998748	-0.1955981145	
613.125	-0.6773709938	0.08855641671	
613.75	0.106288079	0.183144479	
614.375	-0.02132040814	0.4512166899	
615.0	0.1951675163	-0.14594878	
615.625	-0.2888149993	0.4440662898	
616.25	0.2392694631	0.276660254	
616.875	-0.451533217	0.2194413598	
617.5	-0.1172440212	0.7948899389	
618.125	0.1382637605	0.2194607636	
618.75	-0.1936564354	0.6064743132	
619.375	0.4126092618	0.2909859049	
620.0	0.2719514514	0.1941543797	
620.625	0.2859462072	-0.4777484834	
621.25	-0.08263115707	-0.3232425718	
621.875	-0.5474015961	-0.2446461403	
622.5	-0.3856805021	0.1473325771	
623.125	-0.2714023147	0.4427889084	
623.75	0.4122096951	-0.08558608804	
624.375	0.1232306774	0.1675195525	
625.0	-0.1319663058	-0.3751785027	
625.625	0.2932143218	0.09670626581	
626.25	-0.2159056625	-0.611230251	
626.875	-0.2547889984	0.1849975732	
627.5	-0.2167673031	-0.434626116	
628.125	-0.4634529632	-0.04766808679	
628.75	0.04752148967	-0.1716703812	
629.375	-0.3224147286	-0.5730483556	
630.0	-0.3333439162	0.03337629568	
630.625	-0.55149051	-0.06942572281	
631.25	-0.4303974194	0.5739999228	
631.875	0.09398568479	0.5135977063	
632.5	0.2587533639	0.3763390261	
633.125	0.4433645176	0.2537438326	
633.75	0.4908733689	-0.3334915863	
634.375	0.06353660374	-0.1215656874	
635.0	0.08038813975	-0.5203395205	
635.625	-0.3491392425	0.1027553703	
636.25	-0.4883546618	-0.1107745696	
636.875	-0.08262657587	0.5292346863	
637.5	0.05656072421	-0.08121064465	
638.125	-0.5813050856	0.4019659851	
638.75	0.3669699577	0.3730438102	
639.375	-0.396522324	0.3148125859	
640.0	0.3938273153	0.9163405155	
640.625	0.6740338489	0.0639809097	
641.25	0.281307111	0.1751278954	
641.875	0.6289501116	-0.7783915251	
642.5	-0.1837712054	-0.1402762235	
643.125	-0.08469666491	-0.6059330731	
643.75	-0.6943739847	0.096386273	
644.375	0.08374781524	-0.2222648523	
645.0	-0.6869653878	0.4376283067	
645.625	0.3460129448	0.5702755874	
646.25	0.281375596	-0.1048670256	
646.875	0.1782302699	0.4520846494	
647.5	0.1552650378	-0.5139871622	
648.125	0.3271405666	0.59287591	
648.75	0.8340183174	-0.571952684	
649.375	-0.02759352154	-0.2205903018	
650.0	1.163153324	-0.616913345	
650.625	-0.1603725469	-1.283662888	
651.25	0.05979523628	0.1215725162	
651.875	1.305261765	-0.2785980317	
652.5	0.4605400898	-0.8305280828	
653.125	0.263893263	0.2258570807	
653.75	0.7891606446	-0.8321673921	
654.375	-0.5245793352	-0.4064866185	
655.0	-0.2160216946	-0.5095184806	
655.625	-0.8706223677	0.7663696247	
656.25	0.4413913332	0.07918161728	
656.875	-0.2605486206	0.255168172	
657.5	0.4093407761	0.3052128525	
658.125	0.1116956014	0.07227872316	
658.75	0.7225643359	0.6330579892	
659.375	0.7470614842	-0.7010521712	
660.0	0.2834696749	-0.4347743902	
660.625	0.7427159401	-0.6800591184	
661.25	-0.02921764463	-1.154460399	
661.875	0.3410178365	0.01462961927	
662.5	1.143170098	-0.5613794646	
663.125	0.2981763555	-0.8772190782	
663.75	0.3146052451	-0.1024990168	
664.375	0.004612410861	-1.251840817	
665.0	-0.6024545943	0.008013675548	
665.625	-0.7801614933	-0.227937795	
666.25	-0.1481623785	0.998715865	
666.875	0.1656037673	0.04989069872	
667.5	0.4425230037	0.5558707596	
668.125	0.6690928798	-0.261646969	
668.75	0.1500199976	-0.2606245357	
669.375	0.4790062087	-0.3674330746	
670.0	-0.09208729409	-0.7782929237	
670.625	-0.02405781393	-0.1672562909	
671.25	0.2953991252	-0.4769109711	
671.875	0.1137643456	-0.5545694065	
672.5	0.4060832499	-0.01768147326	
673.125	0.659107917	-0.6382839481	
673.75	0.006310176746	-0.5710326273	
674.375	0.3035962912	-0.2097006761	
675.0	-0.0837720555	-1.036206071	
675.625	-0.8018028171	0.2464277125	
676.25	0.01657949577	-0.5175159529	
676.875	-0.7805854871	0.3457915984	
677.5	0.1436002382	-0.06318360143	
678.125	-0.901362036	0.5094127006	
678.75	0.5936845218	0.2185617014	
679.375	0.1390810517	0.3945555588	
680.0	0.6922326096	-0.1506997882	
680.625	-0.1220805069	-0.5579044001	
681.25	0.02668306731	0.4563851094	
681.875	0.7022117034	0.02474777289	
682.5	0.3951149047	0.02850212193	
683.125	0.2860939779	0.1629859283	
683.75	0.8825436515	0.4108083167	
684.375	0.4625711623	-0.3205046908	
685.0	0.5038524065	0.4703957953	
685.625	1.111369294	-0.1725427561	
686.25	-0.0535750677	-0.3427132118	
686.875	1.543312893	0.2209804313	
687.5	-0.04151225388	-1.539972043	
688.125	0.4053819291	-0.2165819871	
688.75	-1.411602499	-1.090676403	
689.375	-0.09697857427	1.15636196	
690.0	-0.4889857115	0.6358725144	
690.625	1.200902059	0.476548305	
691.25	0.2359907283	0.4363901088	
691.875	1.209516864	1.119189147	
692.5	1.42680101	0.02554594815	
693.125	1.340149133	0.1482366217	
693.75	1.386935495	-0.5534389236	
694.375	0.8813386535	-0.811468584	
695.0	1.084031296	-0.9344384409	
695.625	0.7970023107	-0.1788625418	
696.25	1.545786779	0.8426826894	
696.875	1.193454153	0.2076074541	
697.5	0.2777260624	1.338632422	
698.125	2.200013336	0.2587216745	
698.75	0.281054443	-0.4703686878	
699.375	-0.808967668	-1.742196071	
700.0	-0.3217921522	1.37369058	
700.625	-0.2319547213	0.2952230285	
701.25	1.154582646	0.509680836	
701.875	0.163167484	0.2813477997	
702.5	0.9026700084	0.9179931032	
703.125	0.9083609714	-0.2504655071	
703.75	0.9374975622	0.2446729736	
704.375	0.6824463027	-0.8161162804	
705.0	0.1121930728	0.06715644628	
705.625	1.260626232	-0.03269172864	
706.25	0.3024942699	-0.02170301405	
706.875	0.3524405205	1.089647383	
707.5	1.409256055	0.5977644426	
708.125	0.5571135217	0.3644653147	
708.75	1.069563758	-1.107281228	
709.375	-0.8875127516	-0.3214559755	
710.0	-0.605500685	0.1997495857	
710.625	0.3984399434	0.590898541	
711.25	-0.02151146558	0.1404055474	
711.875	0.6109109773	0.4061610333	
712.5	0.5985272577	-0.01663111246	
713.125	0.7396242644	-0.5828795267	
713.75	0.06136427023	-0.4101598411	
714.375	0.4219716891	-0.7537739015	
715.0	-0.4740679054	-0.4389955325	
715.625	0.5206643878	-0.1308945291	
716.25	0.3484865412	-1.364919903	
716.875	0.0703319631	-0.007564817735	
717.5	2.102763475	0.5288599515	
718.125	2.08601253	-1.615232732	
718.75	0.3133426455	1.139061481	
719.375	3.893307079	-2.139896422	
720.0	-0.4286155733	-1.670271034	
720.625	1.067837268	-1.623643901	
721.25	-0.4051087234	-3.825297718	
721.875	-0.8952050992	-1.124171554	
722.5	-1.254212809	-2.786157259	
723.125	-2.309096526	0.0197776994	
723.75	-0.3698155023	0.8554315641	
724.375	-0.415876293	1.145415431	
725.0	0.8521011605	1.074655509	
725.625	0.5266453533	0.5880419976	
726.25	-0.5379111402	1.413452989	
726.875	-0.1419085711	3.423888333	
727.5	1.615778001	1.95276699	
728.125	-2.552216432	5.517699741	
728.75	3.887622745	10.48153462	
729.375	0.319736886	1.852969195	
730.0	-14.5020873	17.54685474	
730.625	12.74023523	5.999043481	
731.25	-7.247705743	1.498216944	
731.875	-12.79054568	9.79842726	
732.5	-6.124110486	8.730799101	
733.125	-3.104398503	-1.591234227	
733.75	-3.44609007	5.327523484	
734.375	2.002654339	0.2881736785	
735.0	0.6859408868	-0.7284091322	
735.625	-2.125923918	1.035016209	
736.25	0.002367726302	0.04591215309	
736.875	0.7875211794	2.258269507	
737.5	3.484743746	0.1840938107	
738.125	2.840002624	-3.230693573	
738.75	1.305815887	1.169935521	
739.375	15.98510553	-5.555050584	
740.0	-3.331450018	-14.40720625	
740.625	0.9041239897	11.19248869	
741.25	17.96611363	20.81680582	
741.875	2.977058324	-13.4416807	
742.5	-0.66214831	-18.34036063	
743.125	-5.749360684	-1.391041902	
743.75	2.220537374	-1.08160801	
744.375	-2.749788281	-1.102896882	
745.0	0.5936413967	-0.1038208385	
745.625	0.2784991352	0.2096534721	
746.25	-0.2656348875	-0.3355866791	
746.875	-0.5170168372	0.213214575	
747.5	-0.4843354028	1.05099948	
748.125	0.70163083	1.207566363	
748.75	0.3412841475	0.8470174218	
749.375	0.8262027347	1.753599988	
750.0	0.3568261663	0.4468833799	
