!Created with skrf (http://scikit-rf.org).
# GHz S RI R (50+0j) 
!freq	ReS11	ImS11	
500.0	1.065960446	-1.322465023	
500.625	1.613362523	-3.499704491	
501.25	-2.971276779	-2.326162894	
501.875	-0.7019440381	-0.2366900225	
502.5	0.01784944146	-0.7311956764	
503.125	-0.1349017299	0.2539255164	
503.75	-0.1784006585	0.216775508	
504.375	0.1067192932	-0.1089311204	
505.0	0.08454986376	0.1033149508	
505.625	-0.1456026836	-0.3967252195	
506.25	0.07839759836	0.240760186	
506.875	-0.9991103255	-0.6254938318	
507.5	-1.515292663	-0.2867605839	
508.125	1.275552563	-0.7897397486	
508.75	1.795420884	-4.872949273	
509.375	-1.813287969	-2.001569738	
510.0	-0.5169700885	-2.656342424	
510.625	-0.9407531643	0.277811636	
511.25	-0.1414011888	-0.4809118166	
511.875	-0.6227449474	-0.1106032581	
512.5	-0.1175881021	0.106098818	
513.125	-0.0355346819	-0.203775738	
513.75	-0.1573299826	-0.3902012448	
514.375	-0.6157918229	0.480234243	
515.0	0.9378808099	-1.22552146	
515.625	-1.301911356	0.01115440477	
516.25	1.704711102	-2.745401015	
516.875	-2.597498854	-1.926510756	
517.5	0.02299021713	0.3418498901	
518.125	-0.2645689857	-0.4113626209	
518.75	0.007217543595	0.2126625576	
519.375	-0.3127191415	0.1076887757	
520.0	0.482515489	0.0493660779	
520.625	0.278232417	-0.1428784285	
521.25	0.1997608648	-0.8911006286	
521.875	-0.4118963358	0.1941416537	
522.5	-0.1173372605	-0.05676440954	
523.125	-0.09380220895	0.1108910433	
523.75	-0.4100051378	-0.1881675763	
524.375	-0.1091494449	0.3744967695	
525.0	-0.3484137049	0.1776796672	
525.625	0.331728087	0.2734706354	
526.25	-0.2681608241	-0.03782468637	
526.875	0.05925076299	0.1487377301	
527.5	-0.4221355047	0.2964199649	
528.125	0.4149602433	1.184489039	
528.75	0.1949145996	0.2031525293	
529.375	0.244046591	0.4595199231	
530.0	-0.08206558661	0.09021006538	
530.625	0.6262513309	1.371823151	
531.25	0.6181727219	-0.04169784021	
531.875	0.8787516403	-0.3746525931	
532.5	-0.4803179362	-0.1514867775	
533.125	0.5087523698	-0.3647280164	
533.75	-0.1159372762	-0.2963034457	
534.375	0.1895596393	-1.280699115	
535.0	-0.8948195347	0.1822917709	
535.625	-0.2896789811	0.07743056628	
536.25	-0.07940345149	0.3291953337	
536.875	0.2553428387	-0.09878714409	
537.5	0.2232475436	0.03631072917	
538.125	0.2764580706	-0.3362920487	
538.75	0.2453181079	-0.08287319998	
539.375	-0.1950246003	-0.6127664188	
540.0	-0.4835181131	-0.08378928384	
540.625	-0.2699151389	-0.1913364473	
541.25	-0.2621336871	-0.018818366	
541.875	-0.1568548791	0.004986575639	
542.5	0.02211307274	-0.09368194176	
543.125	-0.3755510286	-0.2263271507	
543.75	-0.02680174876	0.1496367554	
544.375	-0.3036227215	0.05737113746	
545.0	0.1629754555	0.09004674394	
545.625	-0.05102674433	0.2879597021	
546.25	0.4273466758	-0.07688156001	
546.875	0.03863395395	0.1113463346	
547.5	0.4229536472	-0.4080492695	
548.125	-0.3182774414	-0.3294093641	
548.75	-0.08339656629	-0.2287088169	
549.375	-0.3521156875	-0.323097765	
550.0	-0.1174391916	0.1636392478	
550.625	-0.2154736995	-0.1290402571	
551.25	-0.09223682173	0.1857388754	
551.875	-0.233613822	0.03566176987	
552.5	-0.1206414461	0.2987986259	
553.125	-0.01516664192	0.1107919645	
553.75	0.1025452041	0.1503195501	
554.375	0.2464187016	-0.01785765536	
555.0	0.2239848961	-0.1471066575	
555.625	0.2257196873	-0.2602162641	
556.25	0.1573382711	-0.3558134654	
556.875	-0.07863563127	-0.3813846165	
557.5	-0.2256728972	-0.2658361604	
558.125	-0.2878963672	-0.1027666094	
558.75	-0.2445658009	0.004601960242	
559.375	-0.2635677442	0.004066450461	
560.0	-0.2566586952	0.2141184874	
560.625	-0.071549265	0.2277492474	
561.25	-0.06558036577	0.2495445747	
561.875	0.1659749875	0.07889325374	
562.5	-0.09622440313	0.1429345721	
563.125	0.2911181979	0.1299089953	
563.75	0.1721909061	0.04932083479	
564.375	0.4629392415	-0.2114174643	
565.0	0.04906280309	-0.438127411	
565.625	0.001789423585	-0.244270636	
566.25	-0.254273611	-0.3967112849	
566.875	-0.4063865171	-0.03756061145	
567.5	-0.161263635	-0.3045847728	
568.125	-0.4903721457	-0.5088128437	
568.75	-0.4099428796	-0.03375234802	
569.375	-0.7055910247	-0.01030602592	
570.0	-0.2375225232	0.7155071593	
570.625	0.02642458489	0.172882519	
571.25	-0.3746391513	0.4178225159	
571.875	0.383722603	-0.1081564513	
572.5	0.1789030781	0.3556061803	
573.125	0.3187664185	-0.5585015778	
573.75	-0.1707586269	-0.05902255782	
574.375	0.3881392906	-0.2303628785	
575.0	-0.277575736	-0.1251766455	
575.625	0.3644452978	-0.05074600566	
576.25	0.07714928566	-0.5509923678	
576.875	-0.1604650037	-0.05318487538	
577.5	0.3057934403	-0.3721792199	
578.125	-0.2611940744	-0.5700162571	
578.75	-0.2331744866	-0.08429176117	
579.375	0.001050852284	-0.3026624813	
580.0	-0.3722733168	-0.04860489583	
580.625	0.1164362046	-0.1691610517	
581.25	-0.4871335618	0.2754718358	
581.875	0.2988808344	0.3239389987	
582.5	-0.1366518488	0.04924509506	
583.125	0.1520984095	0.6757755114	
583.75	0.1584588674	-0.4630743937	
584.375	0.003173326342	0.5593207317	
585.0	0.3951661396	-0.2664609964	
585.625	0.1305070459	0.365510653	
586.25	0.6689754499	-0.3918827471	
586.875	-0.0942864861	-0.1399427941	
587.5	0.2882118016	-0.3536167754	
588.125	-0.2252249421	-0.5433210355	
588.75	-0.09410991145	-0.03902413886	
589.375	0.4893915489	-0.3310261242	
590.0	-0.2750424196	-0.4686678999	
590.625	-0.2604637039	-0.06949769659	
591.25	-0.4625582418	0.1474904569	
591.875	0.0491162563	0.4042506491	
592.5	-0.1179047404	0.03543934687	
593.125	0.03805386348	0.1866535101	
593.75	-0.02622402066	0.1378622838	
594.375	0.3664163688	0.5777845278	
595.0	0.7772921602	0.02940747698	
595.625	-0.06053710066	0.1136540351	
596.25	0.6136533325	0.4755401331	
596.875	0.3080802699	-0.2915194106	
597.5	0.1456454891	0.5359379014	
598.125	0.6688384783	0.1333746072	
598.75	0.04733136711	0.2010355493	
599.375	0.8683539552	0.04296201155	
600.0	0.178193356	-0.4548155141	
600.625	0.3233794251	-0.1821162741	
601.25	0.3664113581	-0.4934035982	
601.875	-0.2817939723	-0.3459204344	
602.5	-0.2677439955	-0.08796874335	
603.125	-0.2516303192	0.04489872058	
603.75	-0.3204110443	0.2459246915	
604.375	-0.08557786562	0.1305018674	
605.0	-0.3094337878	0.1268434636	
605.625	-0.01526754426	0.2289191768	
606.25	-0.3782055252	-0.09443867598	
606.875	-0.4883187727	0.5552781814	
607.5	-0.1707903673	0.09103369044	
608.125	-0.4904565192	0.787407216	
608.75	0.6885207306	0.09623681239	
609.375	0.3842762515	0.3166708431	
610.0	0.608652462	-0.5164054935	
610.625	-0.04823306961	-0.1719208415	
611.25	0.2868083905	-0.6156851869	
611.875	-0.2629596685	-0.02739810558	
612.5	-0.2676663891	-0.3576874693	
613.125	-0.5805172513	0.3942118556	
613.75	-0.2536790316	0.04226676877	
614.375	0.1772838666	0.411375071	
615.0	-0.04806922455	-0.07925165369	
615.625	0.1366781758	0.6000941976	
616.25	-0.008537242717	0.04326302104	
616.875	-0.474845724	0.4957872115	
617.5	0.08307440153	0.7071065522	
618.125	-0.2202856528	0.1695763754	
618.75	0.05183919148	0.7262148215	
619.375	0.278030286	0.1632501027	
620.0	0.4117569832	0.3410293415	
620.625	0.1508510237	-0.4018395728	
621.25	-0.0486512622	-0.430348973	
621.875	-0.5512836461	-0.2044925719	
622.5	-0.4021827656	0.08588571056	
623.125	-0.1855670659	0.6019955512	
623.75	0.1883468189	-0.1058149474	
624.375	0.3606849968	0.0221073238	
625.0	-0.2677587635	-0.04077604451	
625.625	0.4870361006	-0.1287487254	
626.25	-0.4195518945	-0.4093791569	
626.875	0.05740327775	-0.08268017873	
627.5	-0.6290801985	-0.283710478	
628.125	-0.2294519725	0.1037372462	
628.75	0.07937599008	-0.4979799177	
629.375	-0.5296662541	-0.2937192439	
630.0	-0.1430572689	-0.2458792827	
630.625	-0.6653458285	0.003180938509	
631.25	-0.3361482134	0.5958699897	
631.875	-0.008193125474	0.4832131651	
632.5	0.202710007	0.4182251989	
633.125	0.5760974986	0.2345813355	
633.75	0.2967460917	-0.2749319854	
634.375	0.2604377192	-0.1829885339	
635.0	-0.166869224	-0.456751886	
635.625	-0.07643472635	-0.2093517456	
636.25	-0.5918939505	0.153904917	
636.875	0.05640604372	0.3794215861	
637.5	-0.2126712159	-0.1766192005	
638.125	-0.1995162504	0.7585162627	
638.75	0.09722630155	-0.03131031649	
639.375	-0.4156970323	0.6813961418	
640.0	0.6267202268	0.6918739344	
640.625	0.3562920528	0.0769362212	
641.25	0.835966892	0.4218862437	
641.875	0.1638798467	-0.6796520068	
642.5	0.2707140504	-0.2070325686	
643.125	-0.4420565706	-0.7002554081	
643.75	-0.2461057196	0.3403560379	
644.375	-0.3558072867	-0.4696155135	
645.0	-0.5063418432	0.555435709	
645.625	0.3447819341	0.4330056952	
646.25	-0.003787426161	0.07517438703	
646.875	0.7463192822	0.1608815968	
647.5	-0.330723664	-0.05815129768	
648.125	0.6951363532	0.3519768091	
648.75	0.3572592571	-0.59071711	
649.375	0.6390465663	0.2019871527	
650.0	0.7345894548	-1.357467177	
650.625	-0.364690829	-0.5951927823	
651.25	0.8073182196	0.1453680843	
651.875	1.046200965	-0.9788857672	
652.5	0.002692909082	-0.3785784489	
653.125	0.9304808858	0.2189129775	
653.75	0.3777251272	-1.011224547	
654.375	-0.05508169433	-0.1881855808	
655.0	-0.6636993237	-0.8484982229	
655.625	-0.3096189526	0.8958148087	
656.25	0.06506177788	-0.02117503159	
656.875	-0.05230358546	0.5326525132	
657.5	0.3254972923	-0.05754309742	
658.125	-0.09617288169	0.5728076005	
658.75	1.04666816	0.1606614736	
659.375	0.5005381813	-0.4175136007	
660.0	0.5639954444	-0.2690163752	
660.625	0.6172197149	-1.248817103	
661.25	-0.245646847	-0.5277966389	
661.875	0.8714376715	-0.1450154115	
662.5	0.8683186821	-0.9265314947	
663.125	0.06716941263	-0.4927948025	
663.75	0.9496074459	-0.3903117378	
664.375	-0.5828651776	-0.9399532251	
665.0	-0.1361842652	-0.3553114742	
665.625	-1.171214569	0.05003904173	
666.25	0.1642573314	0.7499265507	
666.875	-0.1231351614	0.3466389501	
667.5	0.6018167167	0.4608570718	
668.125	0.4981029917	-0.3138120712	
668.75	0.2963869385	-0.0475468735	
669.375	0.4771517024	-0.7044464189	
670.0	-0.2532115366	-0.3914669374	
670.625	0.2168017366	-0.3819427626	
671.25	0.07587384489	-0.6206894978	
671.875	0.1082087357	-0.1472266483	
672.5	0.7489703084	-0.3384064915	
673.125	0.4062268662	-0.6830002974	
673.75	0.05005862257	-0.3063491279	
674.375	0.5874216579	-0.4338849829	
675.0	-0.5762380072	-1.023910481	
675.625	-0.05867376424	0.2278114252	
676.25	-0.7579915867	-0.5359454895	
676.875	-0.2334964419	0.5401306466	
677.5	-0.3612527336	-0.6046481924	
678.125	-0.2977522536	0.9664848348	
678.75	-0.07624776836	-0.009343805358	
679.375	0.3946821777	0.574492991	
680.0	0.687300679	-0.4485005639	
680.625	-0.3388300675	-0.1795658826	
681.25	0.5139085354	0.2895068176	
681.875	0.4863866676	-0.1061917504	
682.5	0.3168793446	0.07774201186	
683.125	0.5073381061	0.5417956197	
683.75	0.7824399389	-0.1776111165	
684.375	0.4225579495	0.1570775483	
685.0	0.872201051	0.3829098034	
685.625	0.7408672853	-0.5624588719	
686.25	0.1862884032	0.6352014269	
686.875	1.62242586	-0.9039654229	
687.5	-0.383194457	-0.5243874187	
688.125	0.7669004898	-1.001235693	
688.75	-1.778977743	-0.4908434346	
689.375	0.009992531355	0.1978543808	
690.0	-0.187464476	1.500770155	
690.625	0.6962061344	-0.002961392976	
691.25	0.2417285262	1.014272604	
691.875	1.561452608	0.7308902098	
692.5	1.107300951	0.320256921	
693.125	1.594184424	0.1287893461	
693.75	1.408595189	-0.5456594117	
694.375	1.071805173	-0.915351605	
695.0	0.8957610521	-0.8248656232	
695.625	1.146721774	0.1163208684	
696.25	1.813564558	0.230193493	
696.875	0.5394820172	0.5256322185	
697.5	0.9399174192	1.82572797	
698.125	1.492436971	-0.238892548	
698.75	1.350586096	-0.0476087372	
699.375	-1.4344622	-1.529771579	
700.0	0.08638645461	0.7376667128	
700.625	-0.2865333134	1.191685491	
701.25	0.7486058978	-0.1185227236	
701.875	0.1423918134	0.7922086866	
702.5	1.331317776	0.5974567285	
703.125	0.5523654121	0.2010710458	
703.75	1.350898729	-0.1140658124	
704.375	0.3619797053	-0.6238778719	
705.0	0.7856305831	0.1702704511	
705.625	0.7847930869	-0.6302069182	
706.25	0.136141331	0.4610629381	
706.875	0.9433512254	1.207293855	
707.5	0.7072829873	0.134644721	
708.125	1.050254748	0.887626167	
708.75	0.7478456347	-1.327435864	
709.375	-0.2406952459	-0.3926055274	
710.0	-0.9414031248	0.4701799284	
710.625	0.5182807208	0.1933622389	
711.25	0.003458024816	0.4572065504	
711.875	0.6069167641	0.1991626546	
712.5	0.8571853423	0.1162314696	
713.125	0.4907593965	-0.5926761239	
713.75	0.3950908445	-0.3513256448	
714.375	-0.01460941143	-0.9105884301	
715.0	-0.1992240238	-0.1022098576	
715.625	0.4405747531	-0.85780795	
716.25	-0.3758278831	-0.6772548554	
716.875	0.9520037507	0.3369573534	
717.5	2.457987147	-0.5560564912	
718.125	0.137115976	-1.054303114	
718.75	2.787920691	1.555822277	
719.375	1.930764724	-2.845628649	
720.0	0.7371020733	-1.179038025	
720.625	2.214034579	-3.008080818	
721.25	-1.649282787	-2.11821618	
721.875	0.632111257	-2.544599599	
722.5	-1.789932203	-2.490565722	
723.125	-1.952885593	0.3325398955	
723.75	-0.9237028687	0.4203476432	
724.375	-0.07183064246	1.612682604	
725.0	0.6915458327	0.6614809681	
725.625	0.1698079583	0.777933285	
726.25	-0.2953281167	2.00596877	
726.875	1.29324905	2.731318007	
727.5	-1.719902789	1.5066156	
728.125	-0.4832539455	7.163928098	
728.75	3.959000982	6.137824388	
729.375	-9.668711192	6.674062323	
730.0	7.964176108	16.89644338	
730.625	2.239110367	0.9564926331	
731.25	-8.543145633	9.814216115	
731.875	-7.772916879	15.34801173	
732.5	-1.820807337	1.864424637	
733.125	-9.425440526	-1.48208908	
733.75	-1.421972511	4.248932779	
734.375	1.104268584	0.5228222531	
735.0	0.9390092501	-2.473987234	
735.625	-0.4547401776	1.197638891	
736.25	-0.9382189089	0.8075797988	
736.875	1.313931594	1.999274193	
737.5	3.671971373	-0.3741470666	
738.125	0.6890713767	-1.552996357	
738.75	8.506135538	0.1969838803	
739.375	6.037657278	-11.28247715	
740.0	-3.54240687	1.90763886	
740.625	25.99113159	8.500268139	
741.25	8.881933921	-13.27277652	
741.875	-12.57748646	-6.660232509	
742.5	-14.74414658	-3.352451082	
743.125	1.32571254	2.837517769	
743.75	3.245464868	-4.336118512	
744.375	-2.099923853	0.137103247	
745.0	0.004958409218	-0.1278158082	
745.625	0.4706155329	-0.06631868322	
746.25	-0.1373608817	-0.0379021797	
746.875	-0.6692162326	0.1567392236	
747.5	-0.01312314791	1.25004101	
748.125	0.3094255111	0.8955190127	
748.75	0.1852412117	1.438129859	
749.375	0.395920144	1.518595478	
750.0	-0.02477144697	-0.759468235	
