!Created with skrf (http://scikit-rf.org).
# GHz S MA R 50.0 
!freq magS11 angS11
500.0 0.0137200217252 143.137136267
500.625 0.0102032089978 91.1095848197
501.25 0.00714824112936 -44.2622306023
501.875 0.0354420941104 -166.155940737
502.5 0.0141171709432 137.783181087
503.125 0.0145800338526 31.6689287794
503.75 0.016142695968 127.917933949
504.375 0.00195245818066 125.338676803
505.0 0.0168837111039 -74.8946646205
505.625 0.0418536208634 -78.3053590619
506.25 0.0453661894882 -102.454447135
506.875 0.0558749323135 -105.486216829
507.5 0.0433304463117 -120.636415077
508.125 0.0697397051796 -78.2392291522
508.75 0.0542323443671 -145.993761769
509.375 0.0453267247106 -154.564703437
510.0 0.0348356817274 -110.871662448
510.625 0.0578967468721 -154.660926675
511.25 0.0443256744289 169.107016452
511.875 0.0503082393062 145.367031953
512.5 0.0411454443472 99.1931787303
513.125 0.0651493220108 59.4291496053
513.75 0.0491533838827 22.7200216356
514.375 0.0508235286966 34.6115146812
515.0 0.0552452397946 10.1805569562
515.625 0.094738673167 53.2445104246
516.25 0.0899240043611 31.0738186991
516.875 0.109561439424 72.1768194667
517.5 0.118801611799 22.7795528381
518.125 0.213798620388 77.1135647792
518.75 0.0784880778465 11.7170841492
519.375 0.0710262068501 18.9876547826
520.0 0.112393874801 2.09819732224
520.625 0.102288426459 -1.68730669293
521.25 0.0831715451687 -21.4451547261
521.875 0.0655360002702 5.35625492444
522.5 0.0968471455598 -30.0258532935
523.125 0.188722254705 -30.2572853033
523.75 0.197746579598 -62.5271156882
524.375 0.192887693691 -54.6651670293
525.0 0.06970095067 -39.7724111015
525.625 0.0300394825794 -60.1617529132
526.25 0.0402497260545 -10.3243260436
526.875 0.0483690622224 -20.7205180797
527.5 0.0532537643229 -21.2238792168
528.125 0.0341021656129 -56.6595445595
528.75 0.0654245592555 -68.0140118314
529.375 0.084620017747 -108.615455987
530.0 0.0584935695071 -121.690851812
530.625 0.0259269456797 -120.593963074
531.25 0.108436910401 -127.14426563
531.875 0.161928853392 -145.824202175
532.5 0.15730891568 -167.421380931
533.125 0.0903124443004 176.426342753
533.75 0.111313551501 172.212106566
534.375 0.108272973422 -179.168269191
535.0 0.0889874312042 167.350161774
535.625 0.0634233689753 -178.481790449
536.25 0.0551177557838 168.179224371
536.875 0.0785253786863 -154.34313581
537.5 0.108372109736 -143.25102603
538.125 0.0891860797953 -170.390519205
538.75 0.0942396748983 -176.969198479
539.375 0.0688203620777 -160.53320346
540.0 0.104141110001 -153.052933064
540.625 0.102760405461 -149.045751393
541.25 0.113881861117 -136.630941458
541.875 0.0979068027077 -139.847638601
542.5 0.119851912243 -142.488340535
543.125 0.118141365569 -163.294742941
543.75 0.119871203066 161.45491986
544.375 0.0919056639702 136.166395514
545.0 0.0908574885486 95.1844907799
545.625 0.0985063719559 87.1483533874
546.25 0.087450329591 71.2529362413
546.875 0.0888185176403 58.8907543427
547.5 0.11969261473 60.4329387804
548.125 0.090228057039 80.1677040224
548.75 0.0766029371216 94.3578733153
549.375 0.0882929082729 89.8272011472
550.0 0.0917609846434 130.323012262
550.625 0.0452911641053 165.315394975
551.25 0.0402619931224 -133.350445011
551.875 0.0678648295614 -155.575669758
552.5 0.121909905525 -163.691591675
553.125 0.0837567903148 -158.81199038
553.75 0.0898379533027 -165.416879896
554.375 0.113293857741 167.283246149
555.0 0.131686296228 165.530768291
555.625 0.101881466196 159.658456757
556.25 0.0936816071477 167.273899098
556.875 0.115895242238 170.485069595
557.5 0.107765481259 169.759970934
558.125 0.102893313996 166.017663098
558.75 0.0799401242575 -178.081924578
559.375 0.0640173041435 -172.75718679
560.0 0.0491876306607 -145.417903362
560.625 0.0610103927375 -137.076688775
561.25 0.0892226791735 -147.893324694
561.875 0.108320169953 -161.318911073
562.5 0.0940171786712 175.764698559
563.125 0.10377106077 150.073139116
563.75 0.12541159726 135.578155719
564.375 0.0995263686093 123.416266371
565.0 0.0909391180125 120.77612574
565.625 0.0807298709431 120.511021727
566.25 0.0933594111372 158.198472849
566.875 0.075420618959 -176.652179509
567.5 0.0728078900948 -174.293837801
568.125 0.087001114162 -170.410196319
568.75 0.0551380632839 -132.44047646
569.375 0.0488831658927 -98.484988844
570.0 0.0610327926431 -100.802963131
570.625 0.0964021812142 -117.130732763
571.25 0.0908245523467 -115.609378681
571.875 0.0884787391449 -120.869057708
572.5 0.114338375153 -153.992542934
573.125 0.146580730535 -174.757577521
573.75 0.0906484340368 169.918222357
574.375 0.0814856436425 153.45589412
575.0 0.106722159241 157.698900263
575.625 0.113450610674 155.211077855
576.25 0.0877459458718 149.653988498
576.875 0.0745199486409 127.226641714
577.5 0.0841224389965 140.558857783
578.125 0.0587567087963 162.925541544
578.75 0.0470426701137 168.942274792
579.375 0.0566059391471 166.433571344
580.0 0.0678939474001 -171.058389675
580.625 0.0800479291226 -153.357739735
581.25 0.0935484650291 -156.150727696
581.875 0.114231470305 -171.182095688
582.5 0.110560316738 -169.263629306
583.125 0.0962817057149 -170.562274413
583.75 0.0793190189167 -156.288287264
584.375 0.102532503226 -152.267805035
585.0 0.0963782309657 -144.68394016
585.625 0.0747662136853 -150.337566431
586.25 0.0671996411967 -120.605378663
586.875 0.0819226699237 -125.553144898
587.5 0.0688027250117 -136.405596075
588.125 0.0602966192591 -179.071244843
588.75 0.0700770776006 -142.728436509
589.375 0.0861604365066 -146.899746312
590.0 0.0935876586552 -167.707179618
590.625 0.104414403663 163.498972491
591.25 0.121606867984 160.897994757
591.875 0.0925669923956 160.809089586
592.5 0.0640547023913 146.632388567
593.125 0.0608199546049 148.585603153
593.75 0.0652669356605 -169.826728051
594.375 0.0570975260892 -142.000316623
595.0 0.043552900158 -108.828958755
595.625 0.0596784596057 -103.205876141
596.25 0.0740553375614 -80.0497012244
596.875 0.0688952999262 -66.0876691313
597.5 0.0586085415791 -61.1532439594
598.125 0.0595643543457 -66.4083054698
598.75 0.0893198061239 -52.3451352949
599.375 0.0932419000302 -58.3190180793
600.0 0.103493457382 -58.4278857944
600.625 0.0963662563891 -73.7208683526
601.25 0.081747150486 -63.7282876071
601.875 0.0685988747671 -81.5162195077
602.5 0.0602427141723 -89.6523654945
603.125 0.0429019615954 -62.2399071683
603.75 0.027352231612 -48.4521583149
604.375 0.0503379830018 -9.65418968088
605.0 0.0681743944504 -7.75776048218
605.625 0.0539722762168 9.29716249217
606.25 0.017887800079 -17.8884981858
606.875 0.0592395715744 58.7146293799
607.5 0.0697690548454 47.3642331654
608.125 0.0734158479495 32.4370958238
608.75 0.0537601553675 16.6523459561
609.375 0.0749798271993 34.8873937924
610.0 0.0775509924721 48.2820583553
610.625 0.0671053357943 45.6197562848
611.25 0.0414547987839 15.5384629551
611.875 0.0506648138546 79.1918812993
612.5 0.0263598338289 102.098308976
613.125 0.0233442440536 133.261319687
613.75 0.0334946577183 131.337650366
614.375 0.0326520868397 119.180398328
615.0 0.0333118844519 120.157054718
615.625 0.0219805090204 139.892334149
616.25 0.0463494797754 137.816343914
616.875 0.0326236881022 127.553410703
617.5 0.0319496622765 129.598967469
618.125 0.020788861839 141.379350982
618.75 0.0292582317213 145.164570693
619.375 0.0053701762123 127.040257206
620.0 0.00908949409122 148.935165853
620.625 0.0236849777029 -105.258284714
621.25 0.0537817576338 -77.5361799099
621.875 0.0665646396952 -107.634791093
622.5 0.074387742826 -162.852903474
623.125 0.0700612159079 170.875426716
623.75 0.0589970138066 168.118669996
624.375 0.0305440712839 -160.319977086
625.0 0.0513245125855 -152.464349654
625.625 0.0435045580702 -162.247380505
626.25 0.0279566657103 -178.368017176
626.875 0.0265662303535 -5.67217760247
627.5 0.0254836256378 -91.9825828607
628.125 0.0339004761521 -25.7195492352
628.75 0.039615524838 -26.2720166549
629.375 0.0666785490909 3.90495448578
630.0 0.0647668832152 -7.6983355516
630.625 0.0682643499415 1.43638295558
631.25 0.0652048545678 6.01479503125
631.875 0.0752535007307 14.1830404541
632.5 0.0708890052071 -26.537997257
633.125 0.0461484608925 2.20695682704
633.75 0.0400166986239 18.9593072654
634.375 0.0489073821186 31.2778801238
635.0 0.0443572534726 46.4798256468
635.625 0.0335395057705 27.1992599117
636.25 0.0470438474193 41.1057906637
636.875 0.0577877464112 32.1954860459
637.5 0.0564727740764 59.1242454204
638.125 0.0249603071232 44.9962746841
638.75 0.0669549375529 77.624934644
639.375 0.10007569456 93.5067232073
640.0 0.0759889129841 111.764679505
640.625 0.0525384580407 93.2566349233
641.25 0.0666439300898 126.994504157
641.875 0.0632593333968 148.683702085
642.5 0.068052314629 167.244773252
643.125 0.043164296504 147.137526926
643.75 0.0625061168276 173.756792432
644.375 0.0666956900648 -173.697046097
645.0 0.0920919979861 -176.229457088
645.625 0.084828205858 161.876187686
646.25 0.0855118675094 165.683437783
646.875 0.0785775355123 -172.586536659
647.5 0.0704659704799 -170.556949453
648.125 0.0855249442291 -173.958071824
648.75 0.0713694014034 -160.516708057
649.375 0.047117190801 -139.61015449
650.0 0.0490680841348 -111.660063116
650.625 0.0807178474218 -83.6647299011
651.25 0.0608484731356 -61.5254132064
651.875 0.0625881531323 -36.8447921547
652.5 0.0830217034938 -20.3091519599
653.125 0.137285242172 1.94596142892
653.75 0.107670982529 8.88763841899
654.375 0.111382156701 9.09950415167
655.0 0.123367258191 16.7871741749
655.625 0.0993083971716 33.9751356533
656.25 0.0556618659065 19.5136839591
656.875 0.064376119667 12.9074427015
657.5 0.0763914634005 24.3643063093
658.125 0.0832376047369 54.4815800617
658.75 0.0419005631066 75.8486272117
659.375 0.0827599784343 46.9679924305
660.0 0.120765519675 27.2757308202
660.625 0.121072466126 21.1080232976
661.25 0.0972318273337 5.68044821783
661.875 0.122358904623 -9.0984179686
662.5 0.115714658252 -17.78669889
663.125 0.114800066952 -12.3354270002
663.75 0.0758237297889 4.83460571318
664.375 0.0876880862766 58.8318668622
665.0 0.0751323886831 95.5263207554
665.625 0.0655094669796 116.420850375
666.25 0.0859567459814 137.939030254
666.875 0.123467230372 174.384846715
667.5 0.10093122601 -165.422739087
668.125 0.111247371352 -177.514620049
668.75 0.129373552572 171.068536347
669.375 0.120139475291 -175.36564113
670.0 0.0871049810198 -165.786502221
670.625 0.0968977433018 -169.839458187
671.25 0.0909984175278 -179.994128361
671.875 0.0906648204244 175.719554883
672.5 0.0693966037392 161.095701599
673.125 0.0933503397534 155.143016579
673.75 0.114295259014 163.802928651
674.375 0.120869127879 171.49767725
675.0 0.119874542657 -171.633811404
675.625 0.13919400414 -147.566126095
676.25 0.123347706017 -121.383432065
676.875 0.117841221887 -117.441659279
677.5 0.126147085522 -124.930097609
678.125 0.137030322667 -112.296595466
678.75 0.0486289328121 -85.219480917
679.375 0.0475563964818 -62.5624728678
680.0 0.0775083637352 -73.1972759224
680.625 0.135477887352 -75.4916265344
681.25 0.10378395618 -67.6711490553
681.875 0.101359121925 -89.2519439663
682.5 0.144905734815 -118.034594218
683.125 0.168757763767 -117.797962819
683.75 0.145485828761 -103.07859812
684.375 0.0990762151362 -70.4102081995
685.0 0.131207682302 -34.7558018602
685.625 0.125907551787 1.98323707696
686.25 0.118003715168 22.8240354286
686.875 0.0654594373274 58.9527909533
687.5 0.0696032015197 93.6610373859
688.125 0.0794591587109 116.12976571
688.75 0.11003701906 111.604069162
689.375 0.12861422367 134.252465138
690.0 0.134035884866 136.904253476
690.625 0.122140826374 128.582727281
691.25 0.147511006051 98.5698686633
691.875 0.198576110033 70.0476560192
692.5 0.136150031603 43.7076846927
693.125 0.0855713840281 -8.59266574033
693.75 0.0902691494493 -32.4605061083
694.375 0.148572388929 -30.5710152028
695.0 0.113088834679 27.6958210033
695.625 0.101650892837 59.296318245
696.25 0.116725385949 115.799588762
696.875 0.144034701922 176.164843064
697.5 0.151256960115 -145.188665383
698.125 0.13718966537 -125.712656178
698.75 0.138555063899 -131.962037282
699.375 0.115099095221 -125.576638779
700.0 0.0854323142659 -96.8791063476
700.625 0.109578441602 -80.8420151143
701.25 0.0964351816862 -61.0558869274
701.875 0.0855760946406 -60.0837796875
702.5 0.101771582867 -73.5238906468
703.125 0.176771238623 -117.896379984
703.75 0.185248001908 -149.989180527
704.375 0.127698521824 174.358433664
705.0 0.115085676975 156.221318694
705.625 0.134928958219 -152.435250841
706.25 0.137853047455 -101.093936429
706.875 0.0830704952516 -54.0973731051
707.5 0.0785609261165 -39.0480390588
708.125 0.0952244211616 32.0568117508
708.75 0.11379733312 72.4958883303
709.375 0.102552962117 110.552536636
710.0 0.104038735633 131.400281788
710.625 0.109481913478 152.541450709
711.25 0.122443407283 178.205518197
711.875 0.149148444223 171.987126773
712.5 0.156838345032 140.611218513
713.125 0.111576254751 114.763552262
713.75 0.0979662169639 51.9451385615
714.375 0.116325121943 22.3115445313
715.0 0.113400893043 34.5474575791
715.625 0.0847289142681 46.4805285093
716.25 0.0941242978939 96.1538780453
716.875 0.130714076818 115.57011625
717.5 0.137860763933 154.020895632
718.125 0.117250364026 166.525847297
718.75 0.0998505238266 178.560157994
719.375 0.115479022291 -166.450005232
720.0 0.135921382564 -118.903800448
720.625 0.114004599369 -72.6844511056
721.25 0.0948312172967 -18.9819387151
721.875 0.0783851831526 42.5512699466
722.5 0.0683664918254 90.7057510616
723.125 0.0692965128519 59.4944744504
723.75 0.121638507023 53.3174282919
724.375 0.108360379808 2.0615439733
725.0 0.0880021141193 -44.7461838065
725.625 0.102677566078 -62.9741097726
726.25 0.102082394203 -77.9574761702
726.875 0.105593389282 -30.0676108714
727.5 0.0856049399442 -18.9886470877
728.125 0.086570881489 12.0059682035
728.75 0.0789249496727 14.5532538393
729.375 0.0987923673535 29.0912342983
730.0 0.0682347170759 6.11821721692
730.625 0.0690156698166 30.4609319822
731.25 0.0740182254675 67.8488966721
731.875 0.0569236598932 105.421866649
732.5 0.0967468180818 165.659691218
733.125 0.0919338429406 -177.342106993
733.75 0.0744788828282 173.581018747
734.375 0.0542385950432 177.618500547
735.0 0.054992090944 153.119349769
735.625 0.033383646328 145.49584861
736.25 0.0416735169343 150.635293425
736.875 0.0353983962507 -178.032600261
737.5 0.07913928591 -179.744948631
738.125 0.103963218005 -172.579826869
738.75 0.0725898759635 -175.841842846
739.375 0.0253236641634 167.175207634
740.0 0.0933546398133 -132.505783505
740.625 0.0613138484587 -143.39794206
741.25 0.0553946961095 -145.221493313
741.875 0.019280270849 -95.8629128352
742.5 0.0170312600631 20.0228293939
743.125 0.036772519892 61.6324974722
743.75 0.0490421776242 110.230599222
744.375 0.0425870795242 179.987191147
745.0 0.0894569003504 110.739703782
745.625 0.0741649754738 111.066563432
746.25 0.0801390005265 94.9656269838
746.875 0.0642793219525 43.3321186137
747.5 0.0316571427492 18.3626656558
748.125 0.0250508312539 3.17889448713
748.75 0.0329007725404 -19.7524192375
749.375 0.040671615947 -33.3618989621
750.0 0.0436064691933 -39.335449006
