!Created with skrf (http://scikit-rf.org).
# GHz S RI R (50+0j) 
!freq	ReS11	ImS11	
500.0	-1.028792517	-2.145595341	
500.625	2.903789081	-3.241216196	
501.25	-2.822150644	-2.180375585	
501.875	-1.210152203	-0.2944130667	
502.5	0.0217516811	-0.1806557996	
503.125	-0.3989402803	0.04215680414	
503.75	0.2552088429	0.0298953712	
504.375	0.136700502	0.08212136979	
505.0	-0.1130465148	-0.1285017477	
505.625	0.2642891811	-0.1975944437	
506.25	-0.5819375545	0.1574622925	
506.875	-0.06029751112	-0.9919670334	
507.5	-1.812103307	-1.334651171	
508.125	-0.7774749073	-0.5065775764	
508.75	3.010081001	-2.421270089	
509.375	-2.772444689	-3.877724489	
510.0	-0.7361033965	-0.1564289285	
510.625	-0.598728338	-1.038906068	
511.25	-0.2450099285	0.1913867334	
511.875	-0.4571856502	-0.1363310403	
512.5	-0.04166537031	0.1160417572	
513.125	-0.04586060899	-0.2134398519	
513.75	-0.1145758247	-0.187152764	
514.375	-0.5211961375	-0.2670561033	
515.0	0.7417509997	1.216599187	
515.625	-1.250951783	-3.256126253	
516.25	-0.6612101707	0.8869285457	
516.875	0.3259856837	-2.541132706	
517.5	-1.083259809	-0.3719597532	
518.125	0.2738081971	-0.304417296	
518.75	-0.8476487404	-0.2818940031	
519.375	-0.09306244429	0.02769823407	
520.0	0.4150585666	0.3071299921	
520.625	0.4673684136	-0.3612623283	
521.25	0.02096099368	-0.401062169	
521.875	-0.5634915308	-0.1683850605	
522.5	-0.009754024539	0.1127117216	
523.125	-0.296160778	0.1215955586	
523.75	-0.04589330455	-0.02313682718	
524.375	-0.596695344	0.1769359871	
525.0	0.104226618	0.05839491937	
525.625	-0.03737074787	0.2919845608	
526.25	0.02604903627	-0.2742863247	
526.875	-0.1477428076	0.3839726304	
527.5	0.1025844288	0.2435955359	
528.125	-0.229242468	0.8951094361	
528.75	0.5192734565	0.8196376385	
529.375	-0.1791814829	0.1305030592	
530.0	0.4436461882	0.3850105762	
530.625	-0.09386139602	0.8374004599	
531.25	1.48074044	-0.1560578891	
531.875	0.2850786043	0.066880904	
532.5	-0.3106519348	-0.7550851282	
533.125	0.3029506206	0.3170998568	
533.75	0.03617514016	-0.9140225671	
534.375	-0.003137857882	-0.2012320301	
535.0	-0.8918862319	-0.4980728756	
535.625	-0.0960089416	0.4289871921	
536.25	-0.1189436187	0.1996244542	
536.875	0.3613860448	0.04420687061	
537.5	0.03764785721	-0.1369950192	
538.125	0.4248198933	-0.03769775758	
538.75	0.1874086723	-0.4390032121	
539.375	-0.0345582582	-0.3210328978	
540.0	-0.5444995173	-0.4999095642	
540.625	-0.2484585234	0.1598502463	
541.25	-0.2243973738	-0.1482155041	
541.875	-0.1857445624	0.02000056088	
542.5	-0.08525132026	-0.04478402492	
543.125	-0.1169880039	-0.211702221	
543.75	-0.3977572023	0.09832944843	
544.375	0.07821608444	-0.1189550299	
545.0	-0.05407997282	0.3376197952	
545.625	0.09573625129	-0.1133256777	
546.25	0.3074596975	0.4086680888	
546.875	0.1539651597	-0.3398564397	
547.5	0.2873180109	-0.07062698476	
548.125	-0.1604992176	-0.62998173	
548.75	-0.3562765133	-0.05127728679	
549.375	-0.0869954413	-0.22209944	
550.0	-0.3355905965	0.03469177766	
550.625	0.02166664289	0.01007269485	
551.25	-0.3295438179	0.0785266373	
551.875	-0.01928235609	0.1709220865	
552.5	-0.2088570243	0.1677092954	
553.125	0.03235955809	0.1773251485	
553.75	0.08169731577	0.1143895	
554.375	0.2512911696	0.006808844113	
555.0	0.2177444414	-0.187359797	
555.625	0.1933959621	-0.2454948462	
556.25	0.1587138583	-0.3459112405	
556.875	-0.1079172854	-0.3905421286	
557.5	-0.2316288728	-0.229728351	
558.125	-0.2684541961	-0.09905678172	
558.75	-0.2708614254	0.01169581631	
559.375	-0.2154085356	0.05752984915	
560.0	-0.2626659445	0.1541589651	
560.625	-0.08179718261	0.3204327298	
561.25	0.04326044704	0.1506584055	
561.875	0.03077763514	0.1942262596	
562.5	0.07905550278	0.01761699394	
563.125	0.12507079	0.2837371501	
563.75	0.3480170541	-0.1461753672	
564.375	0.245206487	-0.04890777239	
565.0	0.2487460959	-0.4904395848	
565.625	-0.2007148484	-0.2496134554	
566.25	-0.1324741714	-0.2743543712	
566.875	-0.426800532	-0.2657696839	
567.5	-0.3806375506	-0.04957724154	
568.125	-0.1264757049	-0.4401772408	
568.75	-0.7670959373	-0.1910226267	
569.375	-0.2973125916	0.2702934644	
570.0	-0.5675192795	0.3959809376	
570.625	0.1118368768	0.5967761138	
571.25	-0.1318870038	-0.01133907426	
571.875	0.3466558927	0.4627682729	
572.5	-0.07420002572	-0.1941190968	
573.125	0.4993476539	-0.05461297956	
573.75	0.04016683337	-0.5666072575	
574.375	-0.134064025	0.1028855598	
575.0	0.310616294	-0.2908369486	
575.625	-0.1711457852	0.03666369928	
576.25	0.4086657196	-0.2857137415	
576.875	-0.2670985452	-0.4729935746	
577.5	-0.05216730008	-0.06311860544	
578.125	0.1278042779	-0.5121327306	
578.75	-0.4385506786	-0.3695029203	
579.375	-0.1645758297	0.08062821425	
580.0	0.02238976475	-0.2941240316	
580.625	-0.2769632079	0.1942122703	
581.25	-0.1803921105	-0.1425683131	
581.875	-0.02563825554	0.6716420348	
582.5	0.3983278652	0.1051289522	
583.125	-0.21274084	0.1430403915	
583.75	0.5259006486	0.2321685152	
584.375	-0.3665114729	-0.07692468156	
585.0	0.5840827517	0.3756291042	
585.625	0.2354306771	-0.3343367684	
586.25	0.2902048268	0.1808147905	
586.875	0.2246150128	-0.6138036945	
587.5	-0.06104802918	-0.019054785	
588.125	0.1759087038	-0.4829903164	
588.75	-0.174879919	-0.4799990756	
589.375	0.1115583432	-0.01069002104	
590.0	-0.0625596187	-0.7142329006	
590.625	-0.4819321531	0.06887166975	
591.25	-0.1472280619	0.1862853904	
591.875	-0.262768641	0.2106305712	
592.5	0.2284810544	0.2401575776	
593.125	-0.3119940056	0.125154858	
593.75	0.2915519666	0.1853819792	
594.375	0.1208953604	0.207347812	
595.0	0.5512006302	0.5169415867	
595.625	0.5370175155	-0.2116907264	
596.25	0.01113064379	0.3546947176	
596.875	0.7908485758	0.1354793528	
597.5	0.1951298913	-0.1421439964	
598.125	0.2367256027	0.5227469778	
598.75	0.5868517227	-0.02080886089	
599.375	0.2837975514	0.07308849217	
600.0	0.6128829649	-0.4959982348	
600.625	0.05085983441	-0.4336791935	
601.25	0.2630142691	-0.25663612	
601.875	-0.1856274902	-0.5012253187	
602.5	-0.2209905615	0.101395766	
603.125	-0.20537568	0.08422778111	
603.75	-0.2729599497	0.06326630562	
604.375	-0.3262821357	0.3692735538	
605.0	0.02425976754	-0.03257527981	
605.625	-0.4426122976	0.2751144975	
606.25	0.02666778183	0.1506076153	
606.875	-0.644298038	-0.01572834921	
607.5	-0.1516400113	0.7426471377	
608.125	-0.2270383577	0.1940815979	
608.75	0.5684551952	0.8144222759	
609.375	0.212641907	-0.4161631398	
610.0	0.5281997667	0.0143791494	
610.625	0.08393430913	-0.6290133242	
611.25	0.05713127722	-0.07884110651	
611.875	-0.3529858824	-0.5175758732	
612.5	-0.21934754	-0.003372053999	
613.125	-0.6197233618	-0.09299247865	
613.75	-0.07785699052	0.4716040847	
614.375	-0.1599029241	0.1925961536	
615.0	0.410135002	0.05843636163	
615.625	-0.3112872779	0.1117175371	
616.25	0.08954025382	0.637608576	
616.875	-0.09681279643	0.06619533943	
617.5	-0.3806850594	0.7234434366	
618.125	0.2734634993	0.4733755366	
618.75	-0.1874455036	0.2987755881	
619.375	0.4291450695	0.493037146	
620.0	0.2593543646	0.01159360628	
620.625	0.3899577142	-0.4031652769	
621.25	-0.2565193669	-0.2986408619	
621.875	-0.4591688277	-0.3184059703	
622.5	-0.3971202926	0.2889078372	
623.125	-0.1991604891	0.3045140844	
623.75	0.4746670292	0.1161144094	
624.375	-0.1346781271	0.02939879015	
625.0	0.2782979297	-0.41431576	
625.625	-0.007375918394	0.1176265597	
626.25	0.06492609142	-0.6508742759	
626.875	-0.5620011553	0.03126607873	
627.5	-0.003596117804	-0.1107381262	
628.125	-0.4420563791	-0.3550049324	
628.75	-0.1782781438	-0.05967533772	
629.375	-0.06552526575	-0.4835512748	
630.0	-0.6287685036	-0.126762533	
630.625	-0.3016086278	-0.01941482895	
631.25	-0.497441103	0.512149196	
631.875	0.1221343457	0.6314398953	
632.5	0.2682158495	0.3261875807	
633.125	0.4070926477	0.1778773467	
633.75	0.6014970176	-0.1206365592	
634.375	-0.1032375739	-0.3031066649	
635.0	0.2250305686	-0.3055554332	
635.625	-0.6192306383	-0.1892474503	
636.25	-0.02543779449	0.0006865617002	
636.875	-0.434383662	0.5269250248	
637.5	0.2276262584	0.1267901907	
638.125	-0.4716863489	0.05649012131	
638.75	0.1437693867	0.7903526682	
639.375	-0.1188027486	-0.01221419914	
640.0	0.1007107008	0.8896465884	
640.625	0.8733583262	0.2957307505	
641.25	0.3563795843	-0.2198188375	
641.875	0.7275260236	-0.1047435835	
642.5	-0.434932739	-0.5529827804	
643.125	0.1102808176	-0.2177495008	
643.75	-0.6743799377	-0.3191740495	
644.375	0.06159803649	0.2542355652	
645.0	-0.7710503474	0.09589717423	
645.625	0.3619731758	0.6959387128	
646.25	0.4172280472	-0.07212716171	
646.875	-0.1276525155	0.1218679954	
647.5	0.6691158682	0.03211153303	
648.125	-0.2866916481	0.1664184778	
648.75	1.187067665	-0.04925503006	
649.375	0.009263234665	-0.8828918767	
650.0	0.5274020299	0.0005949103469	
650.625	0.6808753781	-1.417567813	
651.25	-0.3615234164	-0.3938931367	
651.875	0.9133767306	0.2592240618	
652.5	1.005671457	-0.8428546277	
653.125	0.03261153403	-0.2928516957	
653.75	0.9256335303	-0.2591417545	
654.375	-0.5062478658	-0.9455355869	
655.0	-0.2646961746	0.08141368039	
655.625	-0.8503546794	0.09901261535	
656.25	0.5670172246	0.6908948332	
656.875	-0.2560797021	-0.1052942298	
657.5	0.279751085	0.5147395712	
658.125	0.3853049621	0.06465639865	
658.75	0.312576361	0.3592480476	
659.375	1.187399075	-0.4244305158	
660.0	0.09301211438	-0.7449847973	
660.625	0.4718912431	-0.4260543005	
661.25	0.6420631145	-1.077301704	
661.875	-0.1978594448	-0.5040000287	
662.5	0.9764995555	-0.001327655585	
663.125	0.7418657467	-0.9819199407	
663.75	-0.07804100103	-0.3902665603	
664.375	0.3820440079	-0.8396213872	
665.0	-1.061730806	-0.3504731356	
665.625	-0.3370426841	-0.003693171581	
666.25	-0.5144026624	0.8332012566	
666.875	0.5616507017	0.2317697803	
667.5	0.07489828606	0.4320384336	
668.125	0.7980640523	-0.1350656602	
668.75	0.1760997776	-0.4581864952	
669.375	0.2696040978	-0.2262128915	
670.0	0.1942631708	-0.6763900231	
670.625	-0.2988608604	-0.5039848198	
671.25	0.2706537578	-0.1453582068	
671.875	0.4045627829	-0.5935636746	
672.5	0.1451105617	-0.4122866983	
673.125	0.7724133596	-0.2183656873	
673.75	0.1589399786	-0.8007120346	
674.375	0.0121742338	-0.213871953	
675.0	0.1741697268	-0.7834519886	
675.625	-0.9922262439	-0.318929864	
676.25	0.1259091499	0.232006662	
676.875	-0.7203215164	-0.3870067262	
677.5	-0.1136676873	0.4436743612	
678.125	-0.46026204	-0.07854298256	
678.75	0.326470171	0.9639354926	
679.375	0.07702263733	-0.1063689265	
680.0	0.5994153094	0.02758020711	
680.625	0.2225324764	-0.5606767528	
681.25	-0.2767915292	0.1539128962	
681.875	0.7642027258	0.4267372658	
682.5	0.5565121039	-0.1083270133	
683.125	0.4645302926	0.06027509679	
683.75	0.3208669077	0.4306848037	
684.375	1.234063061	-0.05882446749	
685.0	-0.0377364033	-0.1241423489	
685.625	1.094942825	0.3606427627	
686.25	0.6023330235	-0.7491608795	
686.875	0.521127134	0.4943339234	
687.5	1.032132993	-1.628418138	
688.125	-0.5786324668	-0.0101572825	
688.75	-0.6733780602	-1.230321181	
689.375	-0.7890774542	1.397386132	
690.0	0.1971000309	0.1629548503	
690.625	0.7148483117	1.209726199	
691.25	0.7635174095	0.1882630033	
691.875	0.7789822086	0.9127585055	
692.5	1.753669626	0.4176024883	
693.125	1.208009479	-0.2615940244	
693.75	1.501751617	-0.4800772837	
694.375	0.9153016504	-0.9579704638	
695.0	1.132902183	-0.6891865739	
695.625	0.972371287	-0.5295368226	
696.25	0.7834666025	0.7840694456	
696.875	1.700256689	0.8180779807	
697.5	0.4033245933	0.498499898	
698.125	1.847748304	1.131198425	
698.75	0.30664464	-1.536507759	
699.375	-0.0589076663	-1.103675651	
700.0	-0.984824777	1.426491945	
700.625	0.4607133299	0.1111938913	
701.25	0.6651497722	1.181925474	
701.875	0.7142400338	0.06085964881	
702.5	0.5123414689	0.782347697	
703.125	1.397449224	0.01749821408	
703.75	0.4429416781	-0.08470757636	
704.375	1.073808833	-0.5656311794	
705.0	0.1390193469	-0.4898687123	
705.625	0.7396943514	0.4603327194	
706.25	0.9845391044	-0.09034140056	
706.875	-0.03687167701	0.7248132429	
707.5	1.037056208	1.233803779	
708.125	0.8726880954	-0.2676777086	
708.75	1.028824882	-0.5494566643	
709.375	-1.0938731	-0.7190791088	
710.0	-0.1600230162	0.3369107356	
710.625	0.08663391623	0.6198771973	
711.25	0.2749663379	-0.003658420373	
711.875	0.4326685309	0.4657469233	
712.5	0.8058275366	-0.1907072656	
713.125	0.6902278795	-0.3238694381	
713.75	0.06372212458	-0.759009331	
714.375	0.2920532079	-0.1883186073	
715.0	-0.2621210494	-0.8987935103	
715.625	-0.1451643364	0.02932529131	
716.25	1.066409535	-0.6705532185	
716.875	0.1582605198	-1.194898188	
717.5	1.045661035	1.136758219	
718.125	2.937352952	-0.3412259389	
718.75	-0.0494658215	-1.292389553	
719.375	4.11610886	0.6323031755	
720.0	-0.345072167	-3.89189649	
720.625	0.7608425057	-1.245180216	
721.25	0.6064918072	-2.902533009	
721.875	-1.599641741	-2.841396777	
722.5	-0.4814758776	-1.330712711	
723.125	-2.625180109	-0.5149502493	
723.75	-0.5707903402	1.352783923	
724.375	-0.2082564696	0.7118966345	
725.0	0.4379970064	1.303478292	
725.625	0.8519476485	0.738615413	
726.25	-0.0790282692	0.986071717	
726.875	-0.8352510545	2.903304459	
727.5	1.164504264	4.573089778	
728.125	-0.4600916588	0.6191443805	
728.75	-4.141673104	11.67562798	
729.375	4.994449595	9.434555307	
730.0	-8.46572297	3.404998128	
730.625	8.733607574	17.3897737	
731.25	2.020952712	-1.793973543	
731.875	-14.7365709	6.564625309	
732.5	-10.73052499	7.263412629	
733.125	-2.492073029	2.97851273	
733.75	-4.182769625	1.760491495	
734.375	3.430663843	0.5087977099	
735.0	-0.2193660238	-0.8107404256	
735.625	-1.634824066	-0.5703433795	
736.25	1.232818583	1.391943546	
736.875	-0.2881065049	1.434207182	
737.5	3.803417364	0.7540591398	
738.125	3.74354819	-2.423073973	
738.75	0.2047923628	-3.664338119	
739.375	8.112203797	4.225605706	
740.0	17.5852752	-19.34334724	
740.625	-8.514164283	-5.649313962	
741.25	-5.787594987	23.57809615	
741.875	8.164404076	9.700414276	
742.5	6.479563508	-16.78823799	
743.125	-4.86667708	-8.598450089	
743.75	-0.4454543525	0.921589116	
744.375	-1.315165343	-1.834270795	
745.0	0.710589601	0.4340474442	
745.625	-0.06722835635	0.2468268168	
746.25	0.1665747431	-0.579511879	
746.875	-0.4815667508	0.2886908847	
747.5	-0.5488593723	0.4713685591	
748.125	0.4802367704	1.896283123	
748.75	0.7505587348	0.8676010111	
749.375	0.0837380266	1.163342405	
750.0	-1.479992938	-0.2369556199	
