!Created with skrf (http://scikit-rf.org).
# GHz S RI R (50+0j) 
!freq	ReS11	ImS11	
500.0	-0.01388278359	-0.3876441991	
500.625	0.6807449945	-0.9699824921	
501.25	-0.6737462777	-0.4388969726	
501.875	0.01298128467	-0.2979196713	
502.5	-0.07389985557	-0.1494367423	
503.125	-0.0336772802	0.02396453984	
503.75	-0.04354396316	0.1077135048	
504.375	0.03206419709	-0.03393691747	
505.0	0.01421984699	0.01153371892	
505.625	-0.004234749226	-0.08607607017	
506.25	-0.01626739118	0.04112770182	
506.875	-0.2563152004	-0.121832922	
507.5	-0.1405757438	0.07411494554	
508.125	0.4198288377	-0.4862683958	
508.75	0.4824628316	-1.191729217	
509.375	-0.4345687073	-0.5809465487	
510.0	-0.2917833473	-0.2819516011	
510.625	-0.2597215927	-0.1461839521	
511.25	-0.02548319065	-0.003125656502	
511.875	-0.105454155	-0.07039608523	
512.5	0.0098713934	0.03354573979	
513.125	-0.001692347523	-0.0511302642	
513.75	-0.06332786354	-0.07380560761	
514.375	-0.02900641788	0.06062849453	
515.0	0.08243166372	-0.2464184257	
515.625	-0.156376694	0.1693784601	
516.25	0.2969893115	-0.5297547913	
516.875	-0.3482007093	-0.5147309648	
517.5	0.001918913148	-0.00298429906	
518.125	-0.0421985645	-0.07574065006	
518.75	-0.08512625698	-0.01431108138	
519.375	-0.05298301896	0.006511427541	
520.0	0.1248576705	0.06545291026	
520.625	0.1103443152	-0.0580523552	
521.25	0.01899336166	-0.1337634041	
521.875	-0.1717566638	-0.103911474	
522.5	-0.02954459519	0.08475267323	
523.125	-0.04586286395	-0.07359759213	
523.75	-0.1698778816	0.0770658072	
524.375	0.002617575205	0.01398393187	
525.0	-0.1645492782	0.1549754025	
525.625	0.1308387215	-0.02655206905	
526.25	-0.08546384133	0.02659204091	
526.875	0.0151322723	0.02187206809	
527.5	-0.1017632343	0.08075174437	
528.125	0.1473626335	0.165812987	
528.75	0.1104073476	0.07954274473	
529.375	-0.01366142512	0.06863969026	
530.0	0.07834991784	0.1201092052	
530.625	0.0841707781	0.1531957378	
531.25	0.4350040389	0.130099684	
531.875	0.1935260758	-0.2755185962	
532.5	0.06041441504	-0.06408835257	
533.125	0.07959195853	-0.2389437341	
533.75	0.1118995015	-0.05065978838	
534.375	-0.08278094877	-0.3424962543	
535.0	-0.1940714287	0.001599458563	
535.625	-0.1244098148	0.03220889302	
536.25	0.001870500019	0.1137827937	
536.875	0.0550130263	-0.02755457795	
537.5	0.08448758045	-0.01532762997	
538.125	0.0831168039	-0.1091038122	
538.75	0.0816950792	-0.05394684594	
539.375	-0.06452019462	-0.1707257311	
540.0	-0.205788732	-0.06575120368	
540.625	-0.1156594753	0.004564308351	
541.25	-0.1095385654	-0.01068223352	
541.875	-0.09060284467	0.02080157805	
542.5	-0.002525110736	-0.07302257082	
543.125	-0.1804436686	-0.05092021307	
543.75	-0.01985853305	0.0001349703936	
544.375	-0.09380764264	0.05813964855	
545.0	0.03806636875	0.02180425822	
545.625	-0.0148977246	0.1013194221	
546.25	0.1348785773	-0.0009097757606	
546.875	0.05513717415	-0.003893755537	
547.5	0.09973004891	-0.1331534969	
548.125	-0.1156312919	-0.1298736656	
548.75	-0.05598661589	-0.08151709953	
549.375	-0.1266794828	-0.09858047358	
550.0	-0.05177401819	0.05164912048	
550.625	-0.04673024153	-0.02848675568	
551.25	-0.06453357092	0.06127491332	
551.875	-0.04766724177	0.03493286529	
552.5	-0.05268170592	0.08566458575	
553.125	0.01612514261	0.06032845722	
553.75	0.03391502363	0.04731013139	
554.375	0.08622985013	-0.01232515747	
555.0	0.08220457035	-0.06023987733	
555.625	0.08262955404	-0.09737924094	
556.25	0.05323591045	-0.1316838784	
556.875	-0.03691231888	-0.1387205772	
557.5	-0.08869899317	-0.09074695886	
558.125	-0.1100163465	-0.03360048451	
558.75	-0.09963480355	0.008599256929	
559.375	-0.09522506086	0.01763529234	
560.0	-0.09316486567	0.07801366688	
560.625	-0.01958386359	0.1030179286	
561.25	-0.01315230009	0.08013205314	
561.875	0.0526237745	0.05138387189	
562.5	-0.01586005432	0.02631849388	
563.125	0.08674081087	0.09408983387	
563.75	0.1122504987	-0.03381898053	
564.375	0.1202485368	-0.0492254588	
565.0	0.06997764217	-0.1750149533	
565.625	-0.07425782405	-0.09514815192	
566.25	-0.06743087716	-0.1267601911	
566.875	-0.1710332359	-0.04164521959	
567.5	-0.04111901313	-0.04484471417	
568.125	-0.1528224006	-0.2066817696	
568.75	-0.2101180208	0.05184220517	
569.375	-0.1596146841	0.01567692126	
570.0	-0.1633362447	0.2627694488	
570.625	0.05522877701	0.147673569	
571.25	-0.05686859009	0.07011494133	
571.875	0.1362354342	0.07726713394	
572.5	0.002821723564	0.015310114	
573.125	0.1699266422	-0.1231585568	
573.75	-0.06536297413	-0.1454228975	
574.375	0.0392205982	0.02263540767	
575.0	0.02544892119	-0.1261377151	
575.625	-0.00541891857	0.01059602013	
576.25	0.1128528149	-0.118083078	
576.875	-0.07781784939	-0.154276753	
577.5	-0.005686851804	-0.05703460248	
578.125	0.04792531473	-0.2102123041	
578.75	-0.1776620715	-0.09563587952	
579.375	-0.0103168196	0.00706620048	
580.0	-0.1119388846	-0.1634289156	
580.625	-0.008435432856	0.08887963637	
581.25	-0.1678077513	-0.03210951731	
581.875	0.07775404649	0.2501980373	
582.5	0.07692287616	-0.001449323269	
583.125	-0.02100211278	0.1093971549	
583.75	0.1562782273	-0.03459707523	
584.375	-0.08091881623	0.05857814589	
585.0	0.1859626144	0.07994192538	
585.625	0.08468355689	-0.07857552482	
586.25	0.1649605365	0.03617803536	
586.875	0.08330189235	-0.2119221884	
587.5	-0.04793951399	-0.05255867342	
588.125	0.05701147974	-0.1420706308	
588.75	-0.02871764595	-0.2012128034	
589.375	0.008562837773	-0.04917216411	
590.0	-0.02409330984	-0.2374537742	
590.625	-0.1929609467	0.04892966145	
591.25	-0.06368727835	-0.01966320064	
591.875	-0.1088257295	0.1670967878	
592.5	0.1082135469	0.0243779107	
593.125	-0.1308812003	0.08412764569	
593.75	0.1154636797	-0.02037930994	
594.375	0.03579100454	0.09579279976	
595.0	0.2102778071	0.1517115704	
595.625	0.1753080045	-0.03881064598	
596.25	0.1107437911	0.1125887336	
596.875	0.2248734647	0.01578174744	
597.5	0.101895433	-0.008623695228	
598.125	0.08516127541	0.1540766855	
598.75	0.2184808511	0.04543972998	
599.375	0.1148692472	-0.04824047223	
600.0	0.1785103269	-0.0997824189	
600.625	0.1167270082	-0.2370432001	
601.25	-0.05169501767	-0.1229899861	
601.875	0.004273240975	-0.1735682869	
602.5	-0.1793558047	0.04450641293	
603.125	-0.01454624337	0.002008490138	
603.75	-0.2228184798	0.08712069284	
604.375	0.02370917708	0.1278672989	
605.0	-0.08246182961	-0.03515408016	
605.625	-0.05656208471	0.1694099229	
606.25	0.001040405661	0.03531050935	
606.875	-0.2092011675	0.1296119345	
607.5	-0.08476144498	0.2500271192	
608.125	-0.05706082226	0.1983540013	
608.75	0.1849489226	0.167613253	
609.375	0.242942943	-0.0876016049	
610.0	0.07145211228	-0.06423552564	
610.625	0.1104458799	-0.134510982	
611.25	-0.09027516885	-0.1600636591	
611.875	-0.01720706637	-0.04246501911	
612.5	-0.2170103306	-0.1129121954	
613.125	-0.1113523528	0.1398161917	
613.75	-0.1084894868	0.02968481086	
614.375	0.09401404794	0.2003157349	
615.0	0.03518362523	-0.08348069345	
615.625	-0.08292019778	0.1730684709	
616.25	0.04807369776	0.04967443057	
616.875	-0.1358432761	0.1320688207	
617.5	-0.09674383569	0.2842735013	
618.125	0.1099273339	0.2050577619	
618.75	0.006537305258	0.1501436331	
619.375	0.05015486609	0.1410927312	
620.0	0.159528168	0.001487164222	
620.625	0.1193703956	-0.09160821662	
621.25	-0.1259278575	-0.2309449606	
621.875	-0.2454719006	0.02927201259	
622.5	-0.1689957419	-0.007052026144	
623.125	-0.04137812995	0.2424238931	
623.75	0.1348707964	-0.04801752946	
624.375	0.05215701709	0.04362229538	
625.0	-0.01079533877	-0.0998649018	
625.625	0.07264270007	-0.01042119664	
626.25	-0.05608096071	-0.1907658799	
626.875	-0.1484051447	0.007714755675	
627.5	-0.08387372954	-0.07015190832	
628.125	-0.1741579881	-0.06454974563	
628.75	-0.07312641642	-0.05665065647	
629.375	-0.03442621063	-0.1818973995	
630.0	-0.1898292743	-0.1525570669	
630.625	-0.163311713	0.07770311144	
631.25	-0.1250501695	0.07677755453	
631.875	0.01044292496	0.2745570952	
632.5	0.182386283	0.06605386868	
633.125	0.138503595	0.1065705749	
633.75	0.1776247309	-0.1381924404	
634.375	0.02151836185	-0.06037024236	
635.0	0.07430662287	-0.2087106189	
635.625	-0.1885973416	-0.01782978617	
636.25	-0.06585124166	0.01076449794	
636.875	-0.1644573788	0.1458092158	
637.5	0.05792704654	0.09303466361	
638.125	-0.1284904379	0.003399260977	
638.75	-0.0369872254	0.2427124813	
639.375	0.03282159299	0.1160122197	
640.0	0.05660429171	0.2915606885	
640.625	0.3006444737	0.1691412627	
641.25	0.1794410962	-0.04918871182	
641.875	0.2253452816	-0.08518299701	
642.5	-0.0533668395	-0.2861062833	
643.125	-0.0837881234	0.05015230189	
643.75	-0.06852388539	-0.1821199175	
644.375	-0.2320958403	0.1431116598	
645.0	-0.09157201101	0.01621746038	
645.625	-0.03493247624	0.472571372	
646.25	0.2499802559	-0.07625922668	
646.875	-0.009841214247	0.06024856787	
647.5	0.1999942512	-0.01395868184	
648.125	-0.05733308092	0.0205666015	
648.75	0.3781252355	0.007813095325	
649.375	0.1202726717	-0.3511094705	
650.0	0.08055722884	-0.1238762939	
650.625	0.3002888688	-0.2773751898	
651.25	0.04696195043	-0.3505827594	
651.875	0.1524034972	-0.007606472978	
652.5	0.4019700541	-0.0743296852	
653.125	0.1734587777	-0.2083812745	
653.75	0.1744996612	-0.06150770164	
654.375	-0.03713067703	-0.4061482871	
655.0	-0.2886498851	0.02638521948	
655.625	-0.06166986454	-0.02837078161	
656.25	-0.04546569687	0.3224151695	
656.875	0.1469836732	-0.08184415523	
657.5	-0.07497849346	0.2909376796	
658.125	0.2523522111	0.09423982573	
658.75	0.03521460171	0.07770059138	
659.375	0.4478346301	-0.01179347184	
660.0	0.1373323768	-0.4106239451	
660.625	0.07094716999	-0.1569656416	
661.25	0.2632382424	-0.3005616571	
661.875	0.140963262	-0.344240664	
662.5	0.1416688661	-0.06971703635	
663.125	0.3705425855	-0.1956955778	
663.75	0.01025111568	-0.2834066293	
664.375	0.04558951602	-0.2206813744	
665.0	-0.2770170791	-0.2949475745	
665.625	-0.2612958506	0.2058354157	
666.25	-0.1027200018	0.1297913033	
666.875	0.1112902232	0.2798736703	
667.5	0.2067175678	-0.04734377469	
668.125	0.1320311341	0.1641238899	
668.75	0.2407664432	-0.2364121538	
669.375	-0.02102038856	-0.1329425183	
670.0	0.1717251365	-0.2027011237	
670.625	-0.09143794417	-0.2947494154	
671.25	0.0412213199	0.03727773229	
671.875	0.2630488384	-0.1978980245	
672.5	0.1193053621	-0.2227346585	
673.125	0.1303142542	-0.07649410574	
673.75	0.2658460241	-0.1952957575	
674.375	-0.06882523927	-0.2886523466	
675.0	0.02369226673	-0.1439193093	
675.625	-0.2100762133	-0.2166154044	
676.25	-0.1976037183	0.0797216585	
676.875	-0.03108962276	-0.06705971084	
677.5	-0.2651154652	0.04003482066	
678.125	-0.0007055163873	0.1467083675	
678.75	-0.1327841943	0.1258956041	
679.375	0.3393397962	0.1699186351	
680.0	-0.08040906182	-0.2002108278	
680.625	0.1415804786	0.0710935116	
681.25	0.09585984788	-0.2590108391	
681.875	-0.08846102426	0.07529836299	
682.5	0.2943897144	0.2772122819	
683.125	0.1120109887	-0.2147074738	
683.75	0.1100284197	0.192731057	
684.375	0.3827411466	0.03894076038	
685.0	0.2731562746	-0.1426098665	
685.625	0.1737149907	0.2008233234	
686.25	0.4759984402	-0.06655895724	
686.875	0.1948166815	-0.09795493106	
687.5	0.3021307642	-0.1227496927	
688.125	-0.04146656764	-0.5179567323	
688.75	-0.3116728751	0.008988309367	
689.375	-0.2874226898	0.1489452987	
690.0	0.1403874673	0.4629335272	
690.625	0.2066108604	0.05701493323	
691.25	0.1638021116	0.4312990665	
691.875	0.6489263131	0.0830844362	
692.5	0.3279437632	0.1223024176	
693.125	0.6978286996	0.1678291872	
693.75	0.4260573062	-0.4881572445	
694.375	0.2162719306	-0.1479527604	
695.0	0.4982974544	-0.5087403882	
695.625	0.3776329335	-0.2269417347	
696.25	0.2545737665	0.1184001828	
696.875	0.4010244896	0.4223257365	
697.5	0.4152421882	0.3448304014	
698.125	0.4022652595	0.2206289212	
698.75	0.5469517388	-0.3453358781	
699.375	-0.4624141793	-0.3297303311	
700.0	-0.1036585704	0.2900493019	
700.625	0.09933001556	0.4157725529	
701.25	0.2250347912	0.008175598447	
701.875	0.1058932764	0.2479534077	
702.5	0.4832183782	0.305355637	
703.125	0.3507203733	-0.08404496736	
703.75	0.2838957002	0.07502213509	
704.375	0.2900671988	-0.2959840497	
705.0	0.07344440893	-0.183972424	
705.625	0.3573695626	-0.05879300674	
706.25	0.3364228431	0.05404308005	
706.875	0.1203023207	0.2304657107	
707.5	0.1774975544	0.4297283491	
708.125	0.3452008757	0.2959844471	
708.75	0.2306338975	-0.2503047342	
709.375	-0.1333686461	-0.3745112617	
710.0	-0.2543471852	0.2169076463	
710.625	0.1444753671	0.00375724101	
711.25	0.02359277344	0.2242881449	
711.875	0.2848037913	-0.06049477841	
712.5	0.213954415	0.0957264461	
713.125	0.3658710882	-0.2037186068	
713.75	0.02571012555	-0.2672140824	
714.375	0.07914469717	-0.1120361221	
715.0	-0.0285734234	-0.285302057	
715.625	-0.06835651449	-0.1223224885	
716.25	0.1688000897	-0.1344515641	
716.875	0.3308841842	-0.2984330262	
717.5	0.2428738314	-0.09539733218	
718.125	0.5900818472	0.2167344292	
718.75	0.8269955211	0.03161406009	
719.375	0.3619316278	-0.3024264604	
720.0	0.634535408	-0.5143420444	
720.625	0.2673233557	-1.585252336	
721.25	-0.1888651892	-0.2031651327	
721.875	0.1068474103	-0.980296648	
722.5	-0.818310212	-0.6686592068	
723.125	-0.4113599482	-0.09746980683	
723.75	-0.7513607313	0.3501896176	
724.375	0.2096376901	0.4171345719	
725.0	0.01366681281	0.213873546	
725.625	0.1821679298	0.5965468761	
726.25	0.2886324837	0.4495777854	
726.875	-0.2618462434	0.5227143373	
727.5	-0.2280752261	1.469864203	
728.125	0.5303035881	1.53864138	
728.75	-0.6513919718	1.463389985	
729.375	-1.797373547	3.543898361	
730.0	1.130023574	2.899123876	
730.625	-0.7630903017	2.330262352	
731.25	-2.685777077	4.113285359	
731.875	-0.3547480064	3.012705186	
732.5	-2.340696854	-1.347587299	
733.125	-2.854183044	0.3667608406	
733.75	0.1097155144	1.302792663	
734.375	-0.05627900645	0.6131729049	
735.0	0.03775574808	-0.9881804281	
735.625	-0.1623058926	0.1722319074	
736.25	-0.3880976938	0.5208378266	
736.875	0.7015917375	0.5154200755	
737.5	0.371180196	-0.06337492099	
738.125	1.660262697	0.282864697	
738.75	1.378613108	-2.031338494	
739.375	0.3364006562	-1.008020273	
740.0	3.300962823	1.737471826	
740.625	4.903773875	-2.136556655	
741.25	-1.011487747	-1.45340814	
741.875	-4.638025191	-0.2968754933	
742.5	-2.712341464	-0.9888912676	
743.125	0.6321847831	-0.3680453982	
743.75	0.005919146786	-1.382402664	
744.375	-0.3937229872	0.1125926058	
745.0	-0.1801005456	-0.07187996663	
745.625	0.1374944852	-0.1085744125	
746.25	0.0397319688	-0.03672322023	
746.875	-0.2979048229	-0.02502710431	
747.5	0.02709415988	0.3413628106	
748.125	0.05178544267	0.3034032056	
748.75	0.187667017	0.4870306673	
749.375	0.23916094	0.4210953013	
750.0	-0.3063269432	0.1186059903	
