!Created with skrf (http://scikit-rf.org).
# GHz S MA R 50.0 
!freq magS11 angS11
500.0 0.0230426137839 -159.942639889
500.625 0.0103719769013 103.977040488
501.25 0.0125912134062 -111.389776271
501.875 0.0206524447421 -147.896213811
502.5 0.0492199557334 176.838135716
503.125 0.0176871239687 93.6700674145
503.75 0.00634998018334 38.0485834882
504.375 0.0172702272427 -56.2459921199
505.0 0.00548702733262 -1.34696483838
505.625 0.018622134627 -62.7340455616
506.25 0.0257529573292 -120.993961699
506.875 0.0740917442116 -92.459198081
507.5 0.0449462198384 -121.18567969
508.125 0.0592205963554 -87.4971565335
508.75 0.0715610493439 -121.860617216
509.375 0.0495461979744 -152.851401012
510.0 0.0339446631005 -127.875851317
510.625 0.0433166393102 -156.813840893
511.25 0.05622721513 -173.170218453
511.875 0.061155523924 151.99472945
512.5 0.0409136782221 95.211410499
513.125 0.0484325407718 41.9097158386
513.75 0.0636989541739 40.4928892145
514.375 0.0314027793654 -16.4661298872
515.0 0.0400361911078 -6.98403349932
515.625 0.0718828843713 34.1531018064
516.25 0.107888204369 29.636434127
516.875 0.0870235508167 64.1549452099
517.5 0.123088958311 19.3855535372
518.125 0.182123319498 63.8320061858
518.75 0.0960532854177 15.26451348
519.375 0.0616853730237 15.0195144187
520.0 0.0858462373338 -4.09124859248
520.625 0.0971999434168 -10.5658198465
521.25 0.0980194963889 -21.5621877642
521.875 0.0549988747642 -8.00617542879
522.5 0.092375826307 -35.030771307
523.125 0.173636592485 -40.4555211515
523.75 0.224044321342 -57.0478452902
524.375 0.208973520419 -58.9767968309
525.0 0.0676683714354 -56.8762378485
525.625 0.038762172854 -35.9517962976
526.25 0.0546674103322 -9.28237364681
526.875 0.0539092291144 -25.8764972523
527.5 0.0416996431417 -37.77060559
528.125 0.0413204158962 -59.1552654217
528.75 0.0785092317643 -75.4339958639
529.375 0.0832197021709 -118.03879857
530.0 0.0580742212991 -131.886893084
530.625 0.0411120871078 -147.492547848
531.25 0.11055934824 -140.521727814
531.875 0.169898290913 -150.338175364
532.5 0.144399785938 -171.892867098
533.125 0.101693406401 174.498717307
533.75 0.130503028567 164.04220432
534.375 0.105570908508 174.54845594
535.0 0.0792682363872 158.185149362
535.625 0.0612777272116 170.138948609
536.25 0.0700959056397 159.185025956
536.875 0.0813299109651 -165.211149857
537.5 0.103864087664 -147.663012176
538.125 0.108518334 -176.525025493
538.75 0.1158460801 177.275384499
539.375 0.079176427081 -168.002196829
540.0 0.0828482957798 -154.586484025
540.625 0.129028019007 -159.399176665
541.25 0.126491993379 -145.65879392
541.875 0.0989597344634 -146.636248196
542.5 0.11021096158 -146.373009834
543.125 0.139432019066 -169.544006881
543.75 0.140832015464 156.568117
544.375 0.0925473584953 132.668334089
545.0 0.0796833115584 88.0838118934
545.625 0.0926986779097 77.1036239673
546.25 0.104947068222 63.0244822588
546.875 0.0734200815932 51.7760457419
547.5 0.102573542981 56.6349142133
548.125 0.118287166152 75.590822643
548.75 0.0961704483192 87.3455748903
549.375 0.0959368061227 84.2287652681
550.0 0.0778218616989 121.968920506
550.625 0.0473876828499 149.780475546
551.25 0.0443142349817 -157.271440755
551.875 0.056807373402 -157.900605257
552.5 0.104713281142 -164.686515271
553.125 0.0922839633265 -171.265082489
553.75 0.0943385712197 -173.87348809
554.375 0.0971115295725 169.84281471
555.0 0.117718093723 163.668973408
555.625 0.09192592306 156.203960465
556.25 0.102938932318 158.026473915
556.875 0.111722578108 164.55943087
557.5 0.118681800473 164.061991524
558.125 0.103479699974 161.10231081
558.75 0.0925035570656 172.209224562
559.375 0.0581687225252 -175.860773968
560.0 0.0408951368956 -147.11219267
560.625 0.0509571481154 -136.929803978
561.25 0.0920385180443 -159.379760891
561.875 0.0912472344996 -158.824188084
562.5 0.0932587127728 171.712162072
563.125 0.102025788594 143.430894281
563.75 0.139406398304 125.064074479
564.375 0.100339735511 119.005234616
565.0 0.0840196656061 118.850674125
565.625 0.0760298524471 115.603800672
566.25 0.105421581816 143.197454769
566.875 0.0663709229081 -176.958832566
567.5 0.0750371036018 177.517643986
568.125 0.0829949751882 -176.616555598
568.75 0.0717339215579 -152.931522931
569.375 0.0523359080516 -122.68282243
570.0 0.0595430726522 -114.707513189
570.625 0.0839632307572 -118.298796398
571.25 0.0933479053918 -128.699976429
571.875 0.0851658110917 -130.617622213
572.5 0.111805421274 -159.867304785
573.125 0.140675557367 -178.833478279
573.75 0.107093860977 159.076635075
574.375 0.0796431265013 150.262503912
575.0 0.105350134695 151.459763387
575.625 0.103172186614 153.705031981
576.25 0.0963688857707 139.467831667
576.875 0.0789850892748 131.270648542
577.5 0.0782988273538 135.149533199
578.125 0.0550609054439 160.450261567
578.75 0.0527362550409 150.893237925
579.375 0.0499028262659 169.869187849
580.0 0.0664384034681 174.860218362
580.625 0.0764882277757 -159.165576438
581.25 0.0873805833475 -169.720527772
581.875 0.114765980085 174.870046166
582.5 0.117659333468 -179.348819762
583.125 0.0921468695542 -169.030581876
583.75 0.083237795737 -171.245943063
584.375 0.105825021607 -168.043558635
585.0 0.0879279538227 -137.361963516
585.625 0.0740808792102 -150.698438434
586.25 0.0713764795302 -143.604605012
586.875 0.0840532860663 -144.956030755
587.5 0.0746789757707 -148.221888695
588.125 0.0595343897533 -174.348040526
588.75 0.0671129768388 -171.213537902
589.375 0.0811670419317 -165.584613236
590.0 0.0948879758305 -162.278393877
590.625 0.106697453363 166.888658154
591.25 0.122447168601 151.760346775
591.875 0.10650147029 145.845196288
592.5 0.0601858712215 158.305311859
593.125 0.0626618962925 156.655547447
593.75 0.07280664173 164.787208984
594.375 0.0610603182284 -168.046301459
595.0 0.0436192269304 -119.620708221
595.625 0.065186264246 -96.9643331601
596.25 0.0728086903002 -85.8327015527
596.875 0.0638831119405 -88.5934013377
597.5 0.0667649665552 -50.2381230484
598.125 0.0692083330355 -58.7818222975
598.75 0.0745736363523 -71.4398154682
599.375 0.0817727760328 -74.9216936193
600.0 0.101045805917 -69.8875660647
600.625 0.102242173173 -72.6244519407
601.25 0.0856482419392 -79.2549907827
601.875 0.0702797879296 -100.004615643
602.5 0.0685952039523 -65.7997627025
603.125 0.0493463562931 -46.3694155052
603.75 0.0321388525083 -31.9413193518
604.375 0.0348596627226 -37.3531464176
605.0 0.0597615075455 -16.9899277124
605.625 0.0495341302547 -13.5631807766
606.25 0.022948213466 -6.10157492948
606.875 0.0326894717594 43.3870122182
607.5 0.0441822659665 34.083063745
608.125 0.0658804333653 22.903076574
608.75 0.0675400337368 25.6303778803
609.375 0.0546847737756 19.721981262
610.0 0.0782311261841 48.1470107356
610.625 0.0626930215739 33.2740127051
611.25 0.0473227533779 19.7871488738
611.875 0.0353498530412 38.5812354997
612.5 0.014437455081 37.9869179934
613.125 0.0459575513373 124.009165857
613.75 0.0587768359687 120.696931784
614.375 0.0545452259795 126.102515093
615.0 0.0126809094415 98.9258594086
615.625 0.0577110623614 131.357260123
616.25 0.0520661133536 130.006430555
616.875 0.055646503323 134.800744991
617.5 0.0168725905796 108.873322438
618.125 0.051637880922 131.528377649
618.75 0.0402259252575 142.530779215
619.375 0.0344567917031 148.510406204
620.0 0.0117598676423 -18.4084013839
620.625 0.0111802280378 -124.901101585
621.25 0.0348475794877 -113.570514417
621.875 0.0650622177552 -117.325538771
622.5 0.0717516650148 -150.221858376
623.125 0.0980569933581 157.780827262
623.75 0.0679280700041 161.043737488
624.375 0.0565578888839 -179.016958415
625.0 0.033469046058 -134.456973808
625.625 0.0534960995193 -156.997905988
626.25 0.0207891646707 176.256373353
626.875 0.0127030819976 -4.72025940159
627.5 0.028312110968 -23.0774168455
628.125 0.0485887401087 -8.12523922723
628.75 0.0365062649084 -22.8736266585
629.375 0.041933187477 -7.59447910798
630.0 0.0621297509501 -6.25541785708
630.625 0.0802388418961 17.0893991791
631.25 0.0653925449159 -4.80565302438
631.875 0.0705073047723 2.89137023269
632.5 0.0615611093664 -3.93766398969
633.125 0.0510780664519 22.7021533278
633.75 0.0469458614511 -25.8789338312
634.375 0.0427281126729 -10.6506840265
635.0 0.041336382152 -1.63399267265
635.625 0.0437904426065 43.2419002399
636.25 0.0448533633108 26.0987743068
636.875 0.0676622334993 36.753220435
637.5 0.0397408651472 33.829118392
638.125 0.0390186180072 66.7999422261
638.75 0.0904384461267 75.8306745592
639.375 0.0805266239712 79.2012867711
640.0 0.0640599541032 93.4108132191
640.625 0.0550834217369 101.671179954
641.25 0.0858892910197 124.062213745
641.875 0.0643960726121 138.279875499
642.5 0.0658625699205 161.846186813
643.125 0.0622927768263 158.885675397
643.75 0.0828727323726 172.876899381
644.375 0.0734510171728 -177.48687935
645.0 0.0791374173471 177.997494475
645.625 0.0913602420521 164.941001631
646.25 0.106201937139 164.88256072
646.875 0.0550950717828 153.602840987
647.5 0.0544852224816 174.168998488
648.125 0.0778723950614 175.347795918
648.75 0.0925164990177 -162.271512391
649.375 0.0381204549172 -178.17556804
650.0 0.0412590868992 -125.466775355
650.625 0.0694591564458 -96.3501526871
651.25 0.0758152873274 -68.2118955201
651.875 0.05711967865 -45.4507649528
652.5 0.0896162380338 -26.6831246645
653.125 0.13050690764 -5.22646217551
653.75 0.123903872947 3.87329094017
654.375 0.0953398843542 1.26260192287
655.0 0.103633318047 6.18272194088
655.625 0.0873904339023 16.5321120892
656.25 0.0707050558865 20.132380355
656.875 0.0593600778066 -4.14884382193
657.5 0.0838705596774 17.0105780193
658.125 0.0685502169947 42.7460827822
658.75 0.0583642440581 58.9599785205
659.375 0.0901439749791 32.529191118
660.0 0.0957608921086 23.1020223867
660.625 0.102070268105 15.7319874804
661.25 0.108938588528 1.70178277329
661.875 0.137546365651 -18.0099215565
662.5 0.121251826981 -25.0575865479
663.125 0.116842235466 -19.1753109939
663.75 0.103192825585 0.905140609355
664.375 0.11472402663 50.1786475035
665.0 0.0756596609566 84.1303987751
665.625 0.0544684034862 104.868001754
666.25 0.0925943290102 122.546367953
666.875 0.0907627723935 168.774319183
667.5 0.0944371105708 -171.524593559
668.125 0.0930919602485 178.449418752
668.75 0.140097055531 160.369658461
669.375 0.118726362797 170.843024123
670.0 0.0861190548829 -173.754583203
670.625 0.0833765378316 -176.673730397
671.25 0.117682652032 170.123548724
671.875 0.107398683379 163.280462907
672.5 0.0792870054081 152.069199482
673.125 0.0833083604326 145.966309962
673.75 0.121664829688 150.081423713
674.375 0.0951092260561 169.967262432
675.0 0.107252057398 -175.161820504
675.625 0.120104432103 -153.017632692
676.25 0.134308964903 -131.311744388
676.875 0.0984026381792 -121.236033464
677.5 0.117880895557 -131.199703098
678.125 0.13039872641 -124.46482866
678.75 0.0747151063837 -97.7259296356
679.375 0.0565965790571 -83.5740847031
680.0 0.0776975349176 -84.9630606231
680.625 0.11888840411 -79.3283924786
681.25 0.103142965642 -76.9650322714
681.875 0.10345043221 -100.010904034
682.5 0.118895494611 -115.692484013
683.125 0.162159684403 -126.057595466
683.75 0.138990804271 -110.477788983
684.375 0.119041576781 -82.5498587628
685.0 0.143967938639 -46.5552662638
685.625 0.132855964167 -6.2135909583
686.25 0.114313131943 18.2663503599
686.875 0.0943807488572 39.5683985871
687.5 0.0866691941302 71.7025083863
688.125 0.0826838840079 102.645648831
688.75 0.10110180725 110.517470292
689.375 0.142396916186 114.310841787
690.0 0.143293600543 125.505149335
690.625 0.110984718904 127.564074935
691.25 0.136530337612 98.5367401863
691.875 0.17399166827 66.7323200023
692.5 0.164755691929 32.1436026979
693.125 0.0822967006407 -17.0698974461
693.75 0.097132834729 -46.1232977182
694.375 0.143331665985 -40.5082697883
695.0 0.132662361601 6.34356677557
695.625 0.10695222912 44.9115331275
696.25 0.108205002659 116.579412304
696.875 0.135173943771 171.032705456
697.5 0.13730963068 -150.802909796
698.125 0.145548805282 -140.443900202
698.75 0.1188402583 -127.98348388
699.375 0.113544823848 -128.901253007
700.0 0.0982710609285 -118.030699075
700.625 0.120442837417 -102.775991766
701.25 0.0941958837506 -62.9536017557
701.875 0.0800527302468 -58.9128723165
702.5 0.0971188395554 -89.4976927304
703.125 0.165850762407 -135.174084747
703.75 0.171937523178 -153.952057924
704.375 0.130430243354 168.436548173
705.0 0.113469929663 149.474355054
705.625 0.145965385355 -176.743077129
706.25 0.158193737018 -124.319278055
706.875 0.0956539658804 -67.4703356879
707.5 0.0754496697039 -35.6068524687
708.125 0.0912382240502 8.54724997122
708.75 0.112096493642 50.7328795099
709.375 0.103876279761 101.954344137
710.0 0.102281466636 133.644904797
710.625 0.100937826906 153.18985581
711.25 0.116571018052 161.528761487
711.875 0.137973967222 161.704794612
712.5 0.15622254493 142.096735824
713.125 0.129801455049 95.6483651251
713.75 0.109877416825 34.3355915112
714.375 0.109398740703 35.0596137652
715.0 0.112141990249 28.4376396489
715.625 0.0811493807516 43.7583251031
716.25 0.0782594882794 70.9789187978
716.875 0.112369792751 92.8592794183
717.5 0.140853199079 141.62571877
718.125 0.123145467488 170.279485379
718.75 0.102018731878 169.380742706
719.375 0.106031925339 171.721463412
720.0 0.132224773321 -129.496448588
720.625 0.11598918092 -76.4904822194
721.25 0.0925441939161 -22.8518387389
721.875 0.0893919737832 13.4528248365
722.5 0.0721716183648 63.9415181029
723.125 0.084222691728 62.8763766535
723.75 0.105885006307 36.0580751872
724.375 0.0930227168611 -20.7737435625
725.0 0.110283478667 -31.8262052788
725.625 0.107838803128 -70.1222694282
726.25 0.103726749171 -81.7883795823
726.875 0.105330641026 -60.1029310031
727.5 0.0833891264007 -40.4128481015
728.125 0.0793596719915 -5.05389394169
728.75 0.107350665152 26.8368348158
729.375 0.086363400058 11.4755355426
730.0 0.0527971478223 -22.0765272004
730.625 0.076623125586 27.1257716314
731.25 0.0794172137363 61.7136442588
731.875 0.0696482071067 115.121126009
732.5 0.0662127816173 143.063504108
733.125 0.0673261184968 159.052632543
733.75 0.0820331387806 168.161583011
734.375 0.0807327558388 164.16966966
735.0 0.0295258390043 114.111795829
735.625 0.0882723234044 148.870306707
736.25 0.0513776954256 148.442338778
736.875 0.0633658706564 165.662381247
737.5 0.0458270080373 -169.685070456
738.125 0.106457244617 -175.238100307
738.75 0.0838066906578 -176.669057434
739.375 0.0546038257692 -165.238914637
740.0 0.0339238917908 -150.45037766
740.625 0.0258913195163 -143.569723989
741.25 0.0470888256749 -158.895666376
741.875 0.0608652573593 -116.980575692
742.5 0.0520443775057 -25.5886107085
743.125 0.0171245997943 98.4895439299
743.75 0.0330197513839 75.7660000153
744.375 0.0315819443677 105.607958242
745.0 0.0423238523396 129.804961976
745.625 0.0624640300036 139.547267569
746.25 0.087119131502 67.9337043243
746.875 0.0785956467939 27.4892733475
747.5 0.0593224322688 5.16889534657
748.125 0.0161939002918 47.5437120169
748.75 0.0241956771503 8.91952483078
749.375 0.0324055296729 -41.451232468
750.0 0.0238239335195 -96.6872765462
