!Created with skrf (http://scikit-rf.org).
# GHz S RI R (50+0j) 
!freq	ReS11	ImS11	
500.0	-0.2143517442	-0.2996263874	
500.625	0.641744142	-0.871227922	
501.25	-0.6346842567	-0.2959411044	
501.875	0.1081326524	-0.2829610493	
502.5	-0.08518889738	-0.1762154398	
503.125	-0.01390620445	0.02373308853	
503.75	-0.04714148914	0.07629567992	
504.375	0.03678738759	-0.02895855515	
505.0	0.01300429894	0.01694097078	
505.625	-0.01308660696	-0.0884857979	
506.25	-0.04058781836	0.04309129107	
506.875	-0.3204272418	-0.1130723557	
507.5	-0.2013220953	0.01908124197	
508.125	0.4345234318	-0.5136061021	
508.75	0.4360909287	-1.145551408	
509.375	-0.3488682665	-0.6718693674	
510.0	-0.09541777277	-0.2578220311	
510.625	-0.1487065666	-0.1752110578	
511.25	-0.02887116707	0.008595173043	
511.875	-0.1034800257	-0.1093105608	
512.5	0.0115983442	0.0424994383	
513.125	0.01712651036	-0.01580559245	
513.75	-0.06894343139	-0.0956752722	
514.375	-0.01554233266	0.09998520901	
515.0	0.09816299348	-0.2665648096	
515.625	-0.2392414537	-0.007634350459	
516.25	0.32489068	-0.8833869865	
516.875	-0.4193106714	-0.4317266935	
517.5	-0.07051350719	-0.01030366724	
518.125	-0.01322774666	-0.08308655701	
518.75	0.01211800003	-0.02438226036	
519.375	-0.05782202803	0.009244495983	
520.0	0.1031017489	0.03759869495	
520.625	0.1060539895	-0.09333525328	
521.25	-0.07131617481	-0.2213338903	
521.875	-0.1208996672	-0.06545051667	
522.5	-0.03140598816	0.08497325648	
523.125	-0.07077321256	-0.07292155921	
523.75	-0.1886062827	0.04872273109	
524.375	-0.004977630706	0.003298666535	
525.0	-0.1618224467	0.1541551467	
525.625	0.1240470923	0.01337038262	
526.25	-0.06891148247	0.03104580689	
526.875	0.01147346525	0.03180374398	
527.5	-0.1101164164	0.1537876449	
528.125	0.0642561458	0.2991950614	
528.75	-0.07957356801	0.1531241265	
529.375	0.03130252085	0.06898927374	
530.0	-0.03928390797	0.1292787746	
530.625	0.180775815	0.2136328247	
531.25	0.3893722489	0.1573549188	
531.875	0.1911225688	-0.2384025195	
532.5	-0.05956690757	0.07423295599	
533.125	0.02343612107	-0.1480224565	
533.75	0.005601296564	-0.002306100593	
534.375	-0.03154218258	-0.3247004241	
535.0	-0.2204884855	0.0117062999	
535.625	-0.1274609094	0.0419432826	
536.25	-0.0008288874481	0.1108900615	
536.875	0.0587617357	-0.01714301143	
537.5	0.07860719979	-0.01053664604	
538.125	0.09649456181	-0.0870792525	
538.75	0.08221599282	-0.07768959223	
539.375	-0.048677119	-0.1611282597	
540.0	-0.1562905168	-0.1450657117	
540.625	-0.127268207	0.01918829819	
541.25	-0.0893054714	-0.02607351052	
541.875	-0.04718701957	0.02761927231	
542.5	0.02128702949	-0.05849257141	
543.125	-0.1513629967	-0.04528464044	
543.75	0.003374756022	0.01179361948	
544.375	-0.1094313528	0.02590371128	
545.0	0.05083843348	0.03545793036	
545.625	-0.003868444632	0.07372668939	
546.25	0.1544846861	0.01336273502	
546.875	0.03606914556	-0.02410921663	
547.5	0.1199840309	-0.1110245199	
548.125	-0.1001099682	-0.1427637441	
548.75	-0.04896821841	-0.07752935991	
549.375	-0.1078037919	-0.1062242264	
550.0	-0.06721789424	0.04584308689	
550.625	-0.03921243111	-0.02570186746	
551.25	-0.08694479003	0.0468911189	
551.875	-0.03726729148	0.04877951257	
552.5	-0.06774645474	0.06257879839	
553.125	0.007046319187	0.05397015238	
553.75	0.03167034377	0.04610212294	
554.375	0.09256703239	-0.01154056452	
555.0	0.07572997389	-0.0605569231	
555.625	0.07685293229	-0.09649758333	
556.25	0.05157199236	-0.1309577479	
556.875	-0.0400964046	-0.1333500651	
557.5	-0.08638062452	-0.08880410486	
558.125	-0.1064866125	-0.03734063059	
558.75	-0.0993834679	0.004295649484	
559.375	-0.09232854013	0.01300453786	
560.0	-0.09807677432	0.07253983654	
560.625	-0.02955104798	0.1021483433	
561.25	-0.01733111662	0.07400365986	
561.875	0.04777879127	0.06225321062	
562.5	-0.001398102418	0.01965451579	
563.125	0.07111148692	0.09507838146	
563.75	0.1316784131	-0.04166842487	
564.375	0.09412068069	-0.04100767849	
565.0	0.09358755911	-0.1800168999	
565.625	-0.06535826236	-0.09918271586	
566.25	-0.04234097561	-0.1348334794	
566.875	-0.2028388998	-0.05723136808	
567.5	-0.05754237572	-0.05129993671	
568.125	-0.1213039823	-0.2352559129	
568.75	-0.2341107335	0.01842017301	
569.375	-0.1404398914	0.02308483417	
570.0	-0.199546415	0.2052314727	
570.625	0.03167572093	0.1722638342	
571.25	-0.07931630122	0.04712570808	
571.875	0.132684008	0.09150074397	
572.5	0.01246971262	0.00260361374	
573.125	0.1844087811	-0.1114787627	
573.75	-0.04131608392	-0.1583251247	
574.375	0.02764690958	0.03565802368	
575.0	0.0639883769	-0.1130594621	
575.625	-0.03018265036	-0.005538174831	
576.25	0.1367956205	-0.07906744802	
576.875	-0.07365752722	-0.1903096025	
577.5	-0.02107453354	-0.04858806206	
578.125	0.06011499891	-0.1871796626	
578.75	-0.2188012571	-0.136914162	
579.375	0.01163252896	0.0426656232	
580.0	-0.06530106284	-0.1501737936	
580.625	-0.01845450615	0.118838301	
581.25	-0.1716207105	-0.07358495545	
581.875	0.05803563294	0.2499668376	
582.5	0.09476529018	0.0166601819	
583.125	-0.04437160543	0.1298306334	
583.75	0.1563318552	0.0118098957	
584.375	-0.1039553646	0.05666668397	
585.0	0.2020402309	0.0843856945	
585.625	0.06485915264	-0.07803331901	
586.25	0.1279480314	0.03858415984	
586.875	0.1036490744	-0.1932108751	
587.5	-0.06409738697	-0.05517040322	
588.125	0.06814300312	-0.1307527923	
588.75	-0.004319077143	-0.2042827572	
589.375	0.005723243872	-0.03962310298	
590.0	0.02088412528	-0.2671472367	
590.625	-0.2054803324	0.07237397503	
591.25	-0.04901102544	0.006696205335	
591.875	-0.1797032705	0.1603616187	
592.5	0.1493599609	0.03413495659	
593.125	-0.152427692	0.09807284205	
593.75	0.135653334	0.04725110487	
594.375	0.02345558186	0.1462406972	
595.0	0.2172811849	0.1654844541	
595.625	0.1579079763	-0.02893208385	
596.25	0.07347435013	0.1129294557	
596.875	0.2146129286	0.003867348916	
597.5	0.08348835432	0.01646888615	
598.125	0.1012987935	0.1497559338	
598.75	0.2039962699	0.07287486661	
599.375	0.1337074596	-0.0577004579	
600.0	0.1825430952	-0.06554672445	
600.625	0.1712900004	-0.1921409323	
601.25	-0.0128986874	-0.1181109637	
601.875	0.03758196306	-0.1837239966	
602.5	-0.1801908956	0.06384937352	
603.125	-0.007646177913	-0.01680062352	
603.75	-0.2140853055	0.04771819669	
604.375	0.04382565312	0.1383406202	
605.0	-0.08625683461	-0.03203857278	
605.625	-0.09374583331	0.1431959418	
606.25	-0.06682967969	-0.05181113369	
606.875	-0.2213268328	0.0826014694	
607.5	-0.07842007099	0.1500920945	
608.125	-0.03254241835	0.1518679388	
608.75	0.1520356006	0.2123744886	
609.375	0.2077839181	-0.02540487915	
610.0	0.1003791618	-0.07437597287	
610.625	0.1344591061	-0.1312431278	
611.25	-0.01512104266	-0.2219153734	
611.875	-0.02256097868	-0.03336786494	
612.5	-0.1922170595	-0.1651873806	
613.125	-0.1451232603	0.1431901881	
613.75	-0.1171356194	0.00899889691	
614.375	0.06332267337	0.1975855417	
615.0	-0.02656071195	-0.06714403727	
615.625	-0.02392955638	0.1948121291	
616.25	0.06079770125	0.1170901457	
616.875	-0.1302132068	0.128670103	
617.5	0.05375867612	0.2020093368	
618.125	-0.01787515735	0.1508676318	
618.75	-0.01455134323	0.1276721771	
619.375	0.08679836378	0.1744084335	
620.0	0.3126734802	0.07435234236	
620.625	0.03836955112	-0.1068799493	
621.25	8.012483817e-05	-0.2494573575	
621.875	-0.2001181592	-0.01298417273	
622.5	-0.06836680548	-0.03783127189	
623.125	-0.08745577431	0.2202511355	
623.75	0.1264505773	-0.0364443899	
624.375	0.04384879665	0.03058906632	
625.0	0.006554544473	-0.105581329	
625.625	0.06199420808	-0.01002582785	
626.25	-0.04782081301	-0.1851167177	
626.875	-0.1481849577	-0.02446403544	
627.5	-0.09044146267	-0.05630776748	
628.125	-0.102528657	-0.07237506922	
628.75	-0.08627883393	-0.1028036058	
629.375	-0.06291803888	-0.07400110404	
630.0	-0.1993877499	-0.1073343795	
630.625	-0.177234549	0.1359868603	
631.25	-0.1524249193	0.1282976669	
631.875	-0.06156654891	0.3326014017	
632.5	0.1960343798	0.074534242	
633.125	0.08902484776	0.1391160777	
633.75	0.2650369566	-0.1266669518	
634.375	-0.03359930302	-0.05706829098	
635.0	0.05766550406	-0.1699564847	
635.625	-0.2033805267	-0.02075589559	
636.25	-0.04843881876	0.04516341684	
636.875	-0.1596518563	0.121502913	
637.5	0.0733180039	0.1227251938	
638.125	-0.1169850845	0.01719742945	
638.75	-0.03966358808	0.2428149984	
639.375	0.06413748756	0.1329848259	
640.0	0.0488918405	0.2444760724	
640.625	0.2938172528	0.1493883331	
641.25	0.2266703437	-0.1366112244	
641.875	0.1184139394	-0.04177441967	
642.5	0.03482258683	-0.395881008	
643.125	-0.1335628948	0.07950717502	
643.75	-0.04342962732	-0.2423348614	
644.375	-0.2709249407	0.170976745	
645.0	0.02218206924	-0.07955569175	
645.625	-0.02594621913	0.364645999	
646.25	0.2518336977	-0.1599509184	
646.875	-0.07178371489	0.09431848823	
647.5	0.2038029797	0.01694676314	
648.125	-0.02842719976	-0.02618208069	
648.75	0.3887925471	0.05617830199	
649.375	0.1214187669	-0.3995208033	
650.0	0.05211765165	-0.1476976969	
650.625	0.2935714089	-0.2461863989	
651.25	0.05469123855	-0.389053751	
651.875	0.1126130201	-0.02517065795	
652.5	0.3853495265	-0.06000775096	
653.125	0.2108492986	-0.2715315463	
653.75	0.06635066211	-0.04003036295	
654.375	0.02794805711	-0.4599776754	
655.0	-0.3438091525	0.09906725567	
655.625	-0.05339840053	0.0198635063	
656.25	-0.1062491798	0.3540065062	
656.875	0.2003786604	-0.1198004164	
657.5	-0.09113656851	0.2667557492	
658.125	0.3088136587	0.02860103804	
658.75	0.09760331099	0.003241774859	
659.375	0.4344006415	-0.02544694757	
660.0	0.07622969367	-0.4744680365	
660.625	0.05744066266	-0.1291064903	
661.25	0.2490296566	-0.2860813429	
661.875	0.1103616415	-0.3741377767	
662.5	0.101145795	-0.05574189903	
663.125	0.3710341764	-0.2206569815	
663.75	0.009887838791	-0.3173067946	
664.375	0.01140067631	-0.2039754725	
665.0	-0.2583863822	-0.281744161	
665.625	-0.265594791	0.2302625091	
666.25	-0.07197665956	0.08295260305	
666.875	0.1161793571	0.3164844094	
667.5	0.1975769744	-0.05125951827	
668.125	0.1285076847	0.1312706334	
668.75	0.2462170508	-0.3132964574	
669.375	-0.04404458289	-0.1195129043	
670.0	0.1119938149	-0.1700954632	
670.625	-0.103464884	-0.3005170626	
671.25	-0.01590281419	0.01000602929	
671.875	0.2451891222	-0.193666956	
672.5	0.08772311325	-0.2275436065	
673.125	0.1156345845	-0.08747239754	
673.75	0.2590920348	-0.2251738787	
674.375	-0.1318707972	-0.2580147945	
675.0	0.008350259599	-0.1235921544	
675.625	-0.2157039417	-0.1927561406	
676.25	-0.1716989983	0.07849034687	
676.875	-0.008145988097	-0.04265175187	
677.5	-0.2835030952	0.04466965003	
678.125	0.0446890795	0.1724527864	
678.75	-0.1043509953	0.1218347355	
679.375	0.3622157498	0.1456698651	
680.0	-0.09354585508	-0.1934780376	
680.625	0.2473050411	0.1074144902	
681.25	0.1197695587	-0.2049193669	
681.875	-0.1364003906	0.1728609447	
682.5	0.4076168957	0.2527502684	
683.125	0.2316505373	-0.1925243191	
683.75	0.140880959	0.2160507675	
684.375	0.3573761148	0.05769213129	
685.0	0.1980235866	-0.1431931974	
685.625	0.1187247307	0.1549238158	
686.25	0.3589492837	-0.1794704299	
686.875	0.1249703611	-0.1716221073	
687.5	0.2613181901	-0.1856402966	
688.125	-0.09744486209	-0.5360223573	
688.75	-0.3419300849	0.001914388126	
689.375	-0.305933261	0.1368834043	
690.0	0.1556464647	0.4941513309	
690.625	0.2108124184	-0.02701344147	
691.25	0.2014305807	0.4792666721	
691.875	0.6395562363	0.05384413362	
692.5	0.2240112405	0.2051605769	
693.125	0.7296704048	0.07547180557	
693.75	0.4388441057	-0.5094686753	
694.375	0.4523725105	-0.04354723194	
695.0	0.5488654731	-0.3397991302	
695.625	0.2110792797	-0.08791497306	
696.25	0.3973623823	0.1829418611	
696.875	0.4012278826	0.4577107774	
697.5	0.353244589	0.3183898179	
698.125	0.532768876	0.08921069586	
698.75	0.3784532138	-0.3612707124	
699.375	-0.4650871482	-0.3494764137	
700.0	-0.1239578887	0.1953324679	
700.625	-0.01272509309	0.3984833192	
701.25	0.2902510288	0.02154308179	
701.875	0.08569730448	0.2218624368	
702.5	0.4416537852	0.2738401896	
703.125	0.2315164731	-0.09272341988	
703.75	0.3177871298	0.03260915513	
704.375	0.3148751819	-0.2765984576	
705.0	0.1188231747	-0.03547103526	
705.625	0.296676147	0.07758319131	
706.25	0.1759395872	0.08877878988	
706.875	0.1847119534	0.2681710013	
707.5	0.2644693565	0.22669541	
708.125	0.4258841293	0.04974252529	
708.75	0.1529767808	-0.6007911541	
709.375	-0.1412515643	-0.1323667235	
710.0	-0.2019988781	0.282148721	
710.625	0.1533081333	-0.005677509387	
711.25	-0.02681097682	0.3043062092	
711.875	0.2657518275	-0.05840998854	
712.5	0.142323799	0.06661476651	
713.125	0.3094849024	-0.1972919875	
713.75	-0.005607546088	-0.2703104024	
714.375	0.03709665639	-0.1232583005	
715.0	-0.03535741778	-0.2677355108	
715.625	-0.06541871994	-0.15802922	
716.25	0.1620271279	-0.1541966824	
716.875	0.3225690085	-0.2474510501	
717.5	0.4028750138	-0.127396966	
718.125	0.5010467779	0.08274466581	
718.75	0.753701647	-0.1968083896	
719.375	0.3748547952	-0.7843702002	
720.0	0.5291266648	-0.4280531913	
720.625	-0.009683456239	-1.208667158	
721.25	-0.2448221948	-0.4079822456	
721.875	0.0724196346	-1.199873083	
722.5	-1.011168172	-0.5960084281	
723.125	-0.1782551476	0.1101360082	
723.75	-0.5466160708	0.3835094574	
724.375	0.3721328095	0.3804329555	
725.0	0.02284063487	0.1722275629	
725.625	0.145515561	0.549210284	
726.25	0.3498179024	0.5886784749	
726.875	-0.1267117009	0.4664638899	
727.5	-0.1963578895	1.447016692	
728.125	0.6272755043	1.683558391	
728.75	0.002860605547	1.487583291	
729.375	-1.382499824	3.483240959	
730.0	1.728434194	3.330685534	
730.625	-0.2084315502	1.883645991	
731.25	-1.313980184	4.138813962	
731.875	0.1730847242	3.735948588	
732.5	-1.922756434	-1.053034847	
733.125	-3.235812409	1.183870317	
733.75	0.1057256058	1.33386923	
734.375	0.221439077	0.3826065623	
735.0	-0.2414794382	-1.17626929	
735.625	0.0610843309	0.2399330051	
736.25	-0.2812885641	0.4759765548	
736.875	0.7291804687	0.4776101004	
737.5	0.3614130039	-0.2557282673	
738.125	1.491138707	0.3137644039	
738.75	1.677607256	-2.012238522	
739.375	0.1771511504	-1.489494921	
740.0	2.360480054	1.325845993	
740.625	6.006122937	-1.720833547	
741.25	-0.268065391	-2.563214246	
741.875	-4.327491403	-1.149612931	
742.5	-3.007300038	-0.689803326	
743.125	0.9987513191	-0.07436213385	
743.75	0.2777747051	-1.543304248	
744.375	-0.4640716887	0.3544834115	
745.0	-0.1102311694	-0.07269808035	
745.625	0.1540330258	-0.143356186	
746.25	0.0851633827	0.01871356114	
746.875	-0.2417778904	-0.05341006928	
747.5	0.0157634739	0.3069640114	
748.125	0.01403523075	0.3139722227	
748.75	0.1968128914	0.4437480637	
749.375	0.3271791208	0.3800135415	
750.0	-0.4090347574	0.1559137571	
