!Created with skrf (http://scikit-rf.org).
# GHz S MA R 50.0 
!freq magS11 angS11
500.0 0.0193017512792 -152.000431984
500.625 0.0100026457293 100.142361124
501.25 0.0127062561962 -112.771156896
501.875 0.0142975526383 -124.482406455
502.5 0.0420815429238 176.895566394
503.125 0.0147574650243 80.6270078997
503.75 0.0063065712212 21.0577617588
504.375 0.0168539276748 -54.4062267656
505.0 0.00824119317366 -48.1476896828
505.625 0.0231250436371 -71.7599256254
506.25 0.0333810040019 -116.827203336
506.875 0.073475581146 -89.7527474065
507.5 0.0454203225695 -118.813042268
508.125 0.0591038801206 -89.4511873223
508.75 0.0722433873009 -118.107856281
509.375 0.0499904392796 -156.752778531
510.0 0.0308028222745 -122.416073865
510.625 0.0453933844853 -152.905460031
511.25 0.0605482892712 -169.745877146
511.875 0.0607778404686 152.275695257
512.5 0.0393157414177 105.117671839
513.125 0.0519051393311 48.8746888901
513.75 0.0645951707943 44.7838206395
514.375 0.030939630212 -9.87064391705
515.0 0.0381355930188 -2.82913221423
515.625 0.0768061589968 46.8457647622
516.25 0.111227588888 32.8729556573
516.875 0.0866239257088 63.9967183869
517.5 0.120807919932 21.1788351522
518.125 0.184743277533 64.6370183652
518.75 0.0931736510196 17.7197834427
519.375 0.0671402012408 19.0121955585
520.0 0.0886261407488 -0.482469633811
520.625 0.0978221843798 -5.76695173167
521.25 0.0974566326239 -18.2707998453
521.875 0.0537498912121 -6.88520343471
522.5 0.0887279473878 -34.1542270004
523.125 0.171627453699 -39.5454265442
523.75 0.221442693955 -54.3073122545
524.375 0.19541182863 -59.122175757
525.0 0.0634104610754 -55.0953297694
525.625 0.0361078279812 -31.0340953832
526.25 0.0542637177169 -2.90172599457
526.875 0.055445734803 -20.3731835019
527.5 0.04156139098 -28.1561069167
528.125 0.0424129865709 -53.2464215302
528.75 0.0786161604375 -70.2755889768
529.375 0.0873499347158 -113.201632228
530.0 0.0520865879933 -127.299899394
530.625 0.0443221414175 -143.416943469
531.25 0.11055252265 -134.502801263
531.875 0.176486926168 -145.81176802
532.5 0.148144574803 -168.331774882
533.125 0.103108396058 177.13993452
533.75 0.131480866764 169.387056775
534.375 0.109309445732 -179.761485797
535.0 0.0767292910833 162.926050527
535.625 0.061695997304 176.574950184
536.25 0.0706888189243 165.652638688
536.875 0.0822211420376 -159.197262928
537.5 0.101768769526 -144.611654606
538.125 0.110882836378 -172.762864767
538.75 0.112329466772 -177.917928446
539.375 0.0785986373196 -161.609265432
540.0 0.0881007630963 -151.42990848
540.625 0.136350519506 -155.333193844
541.25 0.120992333082 -141.621391781
541.875 0.0975517071211 -142.055935861
542.5 0.108217624688 -143.193808555
543.125 0.139960919597 -165.418352173
543.75 0.133415681583 160.629984996
544.375 0.0930175775212 135.731592159
545.0 0.0775749413509 92.4000976625
545.625 0.0946391076506 84.536986656
546.25 0.102694037791 68.2964586128
546.875 0.0706042574423 56.1632800163
547.5 0.104913900206 61.2619912414
548.125 0.119002004092 80.5945317066
548.75 0.0893465779722 91.926801868
549.375 0.0941982546192 89.246069065
550.0 0.0742864599991 127.342514188
550.625 0.0468593300156 162.098447771
551.25 0.0467371083518 -148.672981832
551.875 0.0615284998513 -158.399647924
552.5 0.112422002436 -160.559102944
553.125 0.0943903464151 -166.838536537
553.75 0.0960488375566 -171.070537433
554.375 0.100917326413 171.348244323
555.0 0.118894236995 167.925836993
555.625 0.0896891405161 160.618373738
556.25 0.105319669413 160.916322183
556.875 0.107423987043 169.258765552
557.5 0.116195412426 167.546776571
558.125 0.101682988569 164.873363945
558.75 0.0910429384299 176.688748893
559.375 0.0582039785293 -167.82457258
560.0 0.042191157415 -139.796049788
560.625 0.0543622343448 -132.824184678
561.25 0.09432053057 -154.497042522
561.875 0.0938063405749 -155.525876016
562.5 0.091505404051 175.787636811
563.125 0.10609721477 147.268436959
563.75 0.138174384632 130.327478204
564.375 0.100663824799 122.71947388
565.0 0.0834767527609 122.54376456
565.625 0.0777407555117 120.15520351
566.25 0.10388564864 150.773193513
566.875 0.0640216731359 -171.331983805
567.5 0.0723115816968 -175.970687311
568.125 0.0778987892665 -170.66443357
568.75 0.0698752833025 -144.655936602
569.375 0.0514683637478 -111.091755931
570.0 0.0627107174423 -109.132886541
570.625 0.0852637065895 -111.9766086
571.25 0.0948837541275 -123.915011613
571.875 0.0893292530479 -124.203297172
572.5 0.114275648786 -154.927259044
573.125 0.136086748648 -175.044208086
573.75 0.104566344103 163.451270629
574.375 0.0764282783287 156.954524061
575.0 0.106243675872 159.366786148
575.625 0.102282874843 159.982559108
576.25 0.0943972680233 143.761394116
576.875 0.081806293485 134.474860806
577.5 0.076467307697 144.579602072
578.125 0.0550333603349 164.778555943
578.75 0.0519334608939 156.668191073
579.375 0.0506935456927 -179.632090051
580.0 0.0684885716873 -175.680551288
580.625 0.0771675125597 -149.767957672
581.25 0.0893168330306 -166.274105185
581.875 0.115751780386 -179.465850206
582.5 0.117364215886 -174.921896295
583.125 0.0924693273683 -165.995185335
583.75 0.0827990409038 -166.038206512
584.375 0.105766794914 -162.486505521
585.0 0.0869240057105 -134.267302333
585.625 0.072660713322 -146.067960983
586.25 0.0710133596343 -138.403513976
586.875 0.0829001456302 -137.298134069
587.5 0.0743454862717 -142.945085062
588.125 0.0599077994048 -171.90889214
588.75 0.0695346146787 -162.442396664
589.375 0.0830881872323 -158.884686844
590.0 0.093367073497 -159.114501888
590.625 0.107180191028 169.776676449
591.25 0.122839017788 155.419004358
591.875 0.102565632362 150.800912738
592.5 0.0578310112857 163.591924782
593.125 0.0591256625045 161.784177519
593.75 0.0726100657938 172.891770683
594.375 0.0591975791258 -159.410128605
595.0 0.0433234534787 -113.590099392
595.625 0.0660964354817 -90.6395035638
596.25 0.0756242391215 -80.8302296325
596.875 0.0640021739553 -82.9173803285
597.5 0.0678764617664 -44.7138458963
598.125 0.0682403356062 -56.8876174917
598.75 0.0755625512078 -66.6588240735
599.375 0.0847002775395 -68.3727047928
600.0 0.0991914643787 -65.3609526592
600.625 0.100384899619 -68.8758341431
601.25 0.0833649483821 -74.5351989604
601.875 0.0684439951799 -96.025230016
602.5 0.0660059978677 -62.7430825018
603.125 0.0472249727365 -39.6065338714
603.75 0.0329703809435 -19.735214682
604.375 0.0362562307794 -33.9946039082
605.0 0.0673563919048 -8.49847855829
605.625 0.0500253666165 -7.82476570686
606.25 0.0237409494289 1.13365286739
606.875 0.0321741903047 49.5183290479
607.5 0.0470718957932 38.6657950639
608.125 0.0705037453367 28.4519065285
608.75 0.0726254546609 29.6098327966
609.375 0.0521622884473 21.651569391
610.0 0.0824286765454 53.5915262107
610.625 0.0634960149196 35.9939119393
611.25 0.0474569246574 25.8569810076
611.875 0.0323461076245 38.7720866323
612.5 0.0123514165174 46.4129465906
613.125 0.0420150126238 131.571046177
613.75 0.0578813072917 124.912346193
614.375 0.061787970718 131.973851615
615.0 0.0129628378248 102.464230527
615.625 0.0587721828408 136.737559753
616.25 0.0538286921184 137.103601346
616.875 0.0588706438025 136.285796616
617.5 0.0185340647009 108.176500502
618.125 0.0433904149022 137.10096318
618.75 0.0446149182634 149.429388926
619.375 0.0361019788311 158.683412097
620.0 0.0121248544106 -18.3442486924
620.625 0.0164784191777 -101.68169458
621.25 0.0381212653265 -106.501409251
621.875 0.0624279325923 -115.516564504
622.5 0.0697160635732 -150.25693927
623.125 0.0998685526396 160.936723568
623.75 0.072247820053 163.256183161
624.375 0.0584754223065 -176.982377102
625.0 0.0277574910453 -121.248675969
625.625 0.057599466248 -156.704989382
626.25 0.0184579962532 -175.038931934
626.875 0.0149231327334 5.40770412747
627.5 0.0349351029626 -13.7298309118
628.125 0.0503681592203 -3.91690823197
628.75 0.035187392108 -15.0478858423
629.375 0.0501021408844 -0.589131946451
630.0 0.063981802063 -0.147794947994
630.625 0.0756466148108 17.492331569
631.25 0.06542582871 -1.84466110866
631.875 0.0691876645332 6.31114500544
632.5 0.0617620709404 3.78695692793
633.125 0.0490074671328 28.0320177975
633.75 0.0437328399936 -15.4183104827
634.375 0.0410128767367 -4.19868575716
635.0 0.0372402480843 1.82947337372
635.625 0.0497350904472 51.8200200215
636.25 0.0452201187928 23.5227938484
636.875 0.0644433716152 42.2206938266
637.5 0.0400226934179 45.6179171511
638.125 0.0403748703099 71.0777686355
638.75 0.0929013978341 80.9030989193
639.375 0.0830778760229 88.5111389097
640.0 0.0649893356843 100.366003836
640.625 0.054273441629 107.99434026
641.25 0.084694516815 131.113458633
641.875 0.065500432774 148.779952787
642.5 0.0625081698419 162.997098535
643.125 0.0645823102998 164.734119513
643.75 0.0843794950693 179.862652489
644.375 0.0774483469192 -172.591573113
645.0 0.0836995931907 -177.645209828
645.625 0.0914381583833 170.897059465
646.25 0.103346073135 170.883908252
646.875 0.0536007492657 160.79868812
647.5 0.0542721439341 179.41800469
648.125 0.0803604219539 -177.268925946
648.75 0.0902233345446 -156.282913763
649.375 0.0356536848926 -173.502216049
650.0 0.0381094906325 -119.996879478
650.625 0.0670879906155 -91.3065048589
651.25 0.0795093284446 -63.3173149698
651.875 0.0536019035058 -44.4301570871
652.5 0.0932152750855 -21.9345323887
653.125 0.130043279662 -0.251895554243
653.75 0.123335122124 7.29804379609
654.375 0.0984696975521 5.37787319382
655.0 0.106403879326 11.5359910869
655.625 0.0836354979916 20.1511751581
656.25 0.070547368546 25.2385710609
656.875 0.0529564462359 -0.131961816693
657.5 0.0815315211462 25.5278596391
658.125 0.069083712861 53.5560140012
658.75 0.0602800121297 65.7554965428
659.375 0.0948287703404 37.7763578179
660.0 0.103519249689 27.2863102472
660.625 0.1068415044 20.7869824822
661.25 0.110594844843 6.22509754647
661.875 0.137157686362 -12.7888434238
662.5 0.121443225864 -20.5500732901
663.125 0.108606005223 -15.214237169
663.75 0.101019335323 7.18226738725
664.375 0.109428527936 57.1926544835
665.0 0.0701221947941 91.7270272973
665.625 0.0609892466006 112.710911305
666.25 0.0951188017591 130.691981898
666.875 0.0971772289563 175.629924238
667.5 0.0920147772273 -166.604566306
668.125 0.0939827227797 -177.845028798
668.75 0.142729287183 165.671849554
669.375 0.111045147856 178.889663822
670.0 0.0829207795526 -167.596874876
670.625 0.0808435087016 -171.132660166
671.25 0.118820740586 174.95274749
671.875 0.0990403398039 169.241274307
672.5 0.0758530222771 158.978015637
673.125 0.0795900453459 153.285643153
673.75 0.124068976316 156.376861758
674.375 0.0976311832674 174.812402003
675.0 0.106981217206 -169.603665685
675.625 0.120052356996 -147.14409941
676.25 0.132995195591 -125.748586405
676.875 0.0964693303082 -116.99086681
677.5 0.116039748905 -124.955434661
678.125 0.118122325365 -118.02508215
678.75 0.0724106540319 -90.8962856779
679.375 0.052013716345 -75.3407118857
680.0 0.0812269069837 -78.042824406
680.625 0.124789884243 -74.198737996
681.25 0.105550461576 -70.9798304217
681.875 0.106149333975 -95.2019562023
682.5 0.121157057213 -111.217368839
683.125 0.161535523339 -119.531961153
683.75 0.133762166196 -102.378019184
684.375 0.120626553397 -78.7322658741
685.0 0.14319620268 -40.9898573748
685.625 0.130690668785 -0.904801899314
686.25 0.113028605918 22.749648961
686.875 0.0914394511124 48.3330232931
687.5 0.0796285901293 80.8538705226
688.125 0.0846732792846 110.348813111
688.75 0.10612957833 115.092570439
689.375 0.145248606333 121.059413363
690.0 0.14140153746 131.186336383
690.625 0.113579008931 130.327950353
691.25 0.138909745577 101.923447339
691.875 0.173265723568 73.3452245367
692.5 0.155996061392 38.1485771812
693.125 0.0758750593364 -8.15698559682
693.75 0.0956488871761 -39.1729967704
694.375 0.141773085236 -30.9446879422
695.0 0.13131043348 13.5783179476
695.625 0.107113852989 51.0539216707
696.25 0.111857196522 119.414972473
696.875 0.134556434477 177.762476654
697.5 0.13804522298 -142.970728974
698.125 0.146326955281 -136.227569516
698.75 0.11751493187 -123.504533914
699.375 0.109719433839 -123.112428581
700.0 0.0975140319282 -112.358833597
700.625 0.119304716047 -94.8765325643
701.25 0.0953948854351 -58.3630281463
701.875 0.0811684135307 -54.9248296254
702.5 0.100991946326 -84.5052804484
703.125 0.173318814977 -128.612052857
703.75 0.166563732413 -145.110899316
704.375 0.125606174536 173.749540299
705.0 0.112935764918 158.472441751
705.625 0.146608420617 -169.15272687
706.25 0.152287895309 -116.036033201
706.875 0.0926991827964 -62.2612832892
707.5 0.0742944933629 -30.2853483524
708.125 0.0940427213085 17.5479322354
708.75 0.113872238918 58.5716133789
709.375 0.106046996059 106.789403781
710.0 0.103349099182 138.619311556
710.625 0.103624147329 160.53594861
711.25 0.120288675591 167.223314482
711.875 0.139432355164 166.718217637
712.5 0.156073187673 144.800432958
713.125 0.126224441951 101.093002367
713.75 0.105341630214 40.6207558928
714.375 0.108097742407 44.2492282223
715.0 0.112524087269 41.0177570444
715.625 0.0835233802274 56.2232400523
716.25 0.0782308006417 74.8072636318
716.875 0.112392220585 104.215142827
717.5 0.142590609992 148.1387003
718.125 0.121697778278 175.377236923
718.75 0.103649337295 172.611634302
719.375 0.108700387614 177.687678313
720.0 0.132964495536 -119.869679469
720.625 0.113283121449 -72.152428354
721.25 0.0969967188356 -19.5086307166
721.875 0.0866796176273 19.3867185489
722.5 0.0697056656797 72.3719921263
723.125 0.0797899065147 67.4964479746
723.75 0.108781799877 42.2001679419
724.375 0.0966396609484 -14.1610542042
725.0 0.111424743873 -26.6426137475
725.625 0.105739088067 -61.9420365805
726.25 0.11040795302 -71.6677691226
726.875 0.0984720161661 -56.0921330644
727.5 0.0838707020026 -28.2779152779
728.125 0.0806604511935 -1.37745902
728.75 0.102790438974 31.3236631297
729.375 0.0854734520582 17.8275666296
730.0 0.0532722623091 -15.0339403728
730.625 0.0874097824802 36.5327218661
731.25 0.0798908482518 69.2145999456
731.875 0.0766642748136 121.286848947
732.5 0.0632149302179 148.82549838
733.125 0.0675401607706 162.737628444
733.75 0.080062144583 177.301003896
734.375 0.0680367187361 174.22927768
735.0 0.0308913429703 126.385316677
735.625 0.0800079552439 154.185129679
736.25 0.0569330469706 151.154325998
736.875 0.0719625667364 169.443371886
737.5 0.0471068919748 -168.9862708
738.125 0.116400161312 -169.68352947
738.75 0.0835540519643 -174.514954075
739.375 0.0571804582141 -160.9808987
740.0 0.0275887564243 -140.424294625
740.625 0.0261838367578 -142.26717217
741.25 0.0485760487435 -159.013634167
741.875 0.0597415864463 -111.382314398
742.5 0.056351853046 -19.4845682314
743.125 0.017511336609 103.221417559
743.75 0.0326511787004 101.617445159
744.375 0.0294720918678 132.394784127
745.0 0.0453616899412 130.529531401
745.625 0.0623534750537 135.242394202
746.25 0.0896207860776 80.597085847
746.875 0.0849101865861 32.3434478637
747.5 0.0491417253208 10.4630426746
748.125 0.0151789263159 67.0205618447
748.75 0.0223607306822 6.79387258909
749.375 0.0344733243348 -31.602216949
750.0 0.0265267090278 -67.4295323156
