!Created with skrf (http://scikit-rf.org).
# GHz S RI R (50+0j) 
!freq	ReS11	ImS11	
500.0	0.4879265152	-0.979751011	
500.625	-0.2815051637	-1.06346445	
501.25	0.05584958564	-0.2299249176	
501.875	-0.2858430482	-0.7763097878	
502.5	-0.07431318043	-0.03427524862	
503.125	-0.05535053952	-0.04051535488	
503.75	0.04943055849	0.1067631151	
504.375	-0.003891212633	-0.0006540806521	
505.0	0.03810196979	-0.05080926277	
505.625	-0.03397635146	0.000959857275	
506.25	-0.000733628384	-0.1332907149	
506.875	-0.1422328109	0.2096092607	
507.5	0.219352458	-0.2023373164	
508.125	0.006279341744	-0.8380520751	
508.75	-0.007486669806	-0.6073334174	
509.375	0.3415943843	-0.694984241	
510.0	-0.6119354126	-0.3420594534	
510.625	-0.06235796388	-0.02180420626	
511.25	-0.06316664698	-0.1095324382	
511.875	-0.1199313876	0.03361410162	
512.5	-0.01262418861	-0.01654515008	
513.125	0.01340429814	-0.07897707953	
513.75	-0.07920742792	0.009953821201	
514.375	0.0311262052	-0.08266747205	
515.0	-0.2294744626	-0.06544898484	
515.625	0.5627079618	-0.3747690303	
516.25	-0.6401132842	-0.8914938493	
516.875	-0.1490913147	-0.01745854328	
517.5	0.1103453344	-0.1361442929	
518.125	-0.02676535918	0.04827103599	
518.75	0.05016461174	-0.09198884534	
519.375	-0.04580549269	0.0537798392	
520.0	0.08325237152	0.02779366767	
520.625	0.1265255782	-0.04789542314	
521.25	-0.0008709257659	-0.2768689946	
521.875	-0.1460803575	0.0269111922	
522.5	-0.002718483095	-0.02792802795	
523.125	-0.1467466493	0.01052393145	
523.75	-0.003885880296	0.03441762606	
524.375	-0.215296501	-0.08357431116	
525.0	0.05534253803	0.2177662847	
525.625	-0.01034199932	-0.03702248231	
526.25	0.02395326559	0.05240199711	
526.875	-0.07892151776	-0.008178018444	
527.5	-0.00995919852	0.2395220665	
528.125	0.1157361432	0.1303109795	
528.75	-0.0602503119	0.1852738822	
529.375	0.05203340939	0.01171540244	
530.0	0.08058640008	0.1859225721	
530.625	0.1035728532	0.2767992851	
531.25	0.3697219245	-0.09541034938	
531.875	0.1010359182	-0.1445535368	
532.5	0.07219819853	-0.1223769782	
533.125	-0.05841191194	0.03915854627	
533.75	0.1486427311	-0.2131900282	
534.375	-0.2087702	-0.2032559638	
535.0	-0.1318834727	-0.08773307923	
535.625	-0.1941160119	0.1084013465	
536.25	0.03144728985	0.06724167333	
536.875	0.05659267261	0.03920390724	
537.5	0.07440106289	-0.0605137364	
538.125	0.04497050274	-0.04236721169	
538.75	0.165851692	-0.09129076199	
539.375	-0.1072668099	-0.1289306837	
540.0	-0.1150621504	-0.1041524371	
540.625	-0.1527597393	-0.04485434831	
541.25	-0.08435729426	0.05725787731	
541.875	0.0007813006901	-0.0420500061	
542.5	-0.06645939563	-0.1298427465	
543.125	-0.0485745861	0.01518064584	
543.75	-0.09750444308	-0.04051848057	
544.375	-0.02534463682	0.1333787115	
545.0	-0.03133084762	0.01270933287	
545.625	0.1082067817	0.09339715888	
546.25	0.05172814906	-0.0318423846	
546.875	0.1276542791	0.02830132725	
547.5	0.03343115745	-0.1642030609	
548.125	-0.03045132661	-0.08064389209	
548.75	-0.09613236247	-0.143138188	
549.375	-0.1491540035	-0.03329062508	
550.0	-0.02302072118	-0.006266777927	
550.625	-0.08216086122	0.02090034763	
551.25	-0.03472742356	0.02353727432	
551.875	-0.08061835375	0.03962289212	
552.5	-0.02751803273	0.08922865917	
553.125	-0.01880394178	0.04110958134	
553.75	0.0521028487	0.04232271111	
554.375	0.0735908712	-0.01798789707	
555.0	0.08762896461	-0.05819370564	
555.625	0.07262059378	-0.1087279711	
556.25	0.04464829298	-0.1251113772	
556.875	-0.03511449845	-0.1365006949	
557.5	-0.09242415542	-0.08952538505	
558.125	-0.1099072321	-0.02580876652	
558.75	-0.09185511107	0.001072026513	
559.375	-0.1059918405	0.01746516486	
560.0	-0.07797193129	0.08262031259	
560.625	-0.04221395238	0.0783045236	
561.25	-0.002675954243	0.1112311521	
561.875	0.04722919007	0.0109738742	
562.5	-0.01036713646	0.06960847853	
563.125	0.09258663117	0.03527035578	
563.75	0.0921371255	0.0172147398	
564.375	0.1571299841	-0.09346348801	
565.0	0.01378698069	-0.1549178791	
565.625	0.006384700716	-0.09855783554	
566.25	-0.1436076678	-0.1431098967	
566.875	-0.1067963966	-0.0008407291158	
567.5	-0.08767092719	-0.1360709962	
568.125	-0.2320984404	-0.1256381367	
568.75	-0.1169653133	-0.03009827738	
569.375	-0.2663267556	0.05110881608	
570.0	-0.0396329451	0.2436799817	
570.625	-0.06098387253	0.0400335524	
571.25	-0.0395063082	0.1845739752	
571.875	0.07552846016	-0.01511406463	
572.5	0.1138219201	0.08144713565	
573.125	0.0630166066	-0.2042349002	
573.75	-0.03190843243	-0.02502137696	
574.375	0.1032932092	-0.0820795348	
575.0	-0.07099544197	-0.04686818854	
575.625	0.1086716633	-0.03429399289	
576.25	0.02402982918	-0.180558131	
576.875	-0.05726109848	-0.05085732174	
577.5	0.08163931008	-0.1239522584	
578.125	-0.114046893	-0.239865062	
578.75	-0.1029527124	0.008051564145	
579.375	0.019638349	-0.118466403	
580.0	-0.161022094	-0.02072424109	
580.625	0.1089478973	-0.08789631992	
581.25	-0.2140985877	0.1520836528	
581.875	0.1160993838	0.1115728758	
582.5	-0.07397275179	0.07153436145	
583.125	0.1231617195	0.1820907347	
583.75	0.02412782061	-0.0970481859	
584.375	0.02232195663	0.1552361216	
585.0	0.1336626525	-0.06098655925	
585.625	0.04695479665	0.06514687115	
586.25	0.2366377705	-0.04392637754	
586.875	-0.02674074546	-0.1517258926	
587.5	0.05567588081	-0.08088647502	
588.125	-0.02965410479	-0.1944151893	
588.75	-0.04924892266	-0.08862592364	
589.375	0.1486790635	-0.08181427763	
590.0	-0.1474800137	-0.2195714152	
590.625	-0.07705682831	0.03023698208	
591.25	-0.1909851969	0.01348164045	
591.875	2.898062082e-05	0.2368285047	
592.5	-0.02981764112	-0.1126475873	
593.125	0.01930703968	0.1456076692	
593.75	0.004704430659	0.02337453096	
594.375	0.1212222288	0.1924579114	
595.0	0.2309054451	-0.00107917106	
595.625	0.0423906809	0.03473082811	
596.25	0.1991054762	0.09172883141	
596.875	0.1444146189	-0.05205814091	
597.5	0.05594446732	0.1006507053	
598.125	0.1962643498	0.1287471823	
598.75	0.1314132567	-0.001316484726	
599.375	0.1566595443	0.03889488433	
600.0	0.1849262834	-0.1522603918	
600.625	0.0756402889	-0.1930543658	
601.25	0.08860816813	-0.08143060058	
601.875	-0.09395547165	-0.2059450027	
602.5	-0.07302079562	0.08657363502	
603.125	-0.1058446126	-0.06441650282	
603.75	-0.08591506441	0.2472437122	
604.375	0.01276280956	-0.01287483308	
605.0	-0.1579922222	0.03784095598	
605.625	0.05848686605	0.1073371951	
606.25	-0.197552776	-0.01236006162	
606.875	-0.2087119899	0.1678242213	
607.5	-0.05057957659	0.1262507611	
608.125	-0.1018732846	0.2058900946	
608.75	0.1415552928	0.08394769377	
609.375	0.15936953	-0.05346863759	
610.0	0.181398249	-0.02225305489	
610.625	0.08593144188	-0.1867665974	
611.25	-0.06221900057	-0.1418897758	
611.875	-0.0356762847	-0.1526651521	
612.5	-0.2166880441	-0.0002319515887	
613.125	-0.03832062962	0.03314600057	
613.75	-0.1836427321	0.119057147	
614.375	0.1722824026	0.07306975388	
615.0	-0.08804295396	0.004453236784	
615.625	0.1074820895	0.1204407917	
616.25	0.01312093035	0.02689023339	
616.875	-0.06537792352	0.2610321555	
617.5	0.03830607145	0.2371113081	
618.125	-0.07455979	0.2159493389	
618.75	-0.03491288227	0.237066696	
619.375	-0.03045625219	0.2129467328	
620.0	0.1499114795	0.02689394263	
620.625	0.07176013405	-0.02830786655	
621.25	-0.1348132245	-0.2225640886	
621.875	-0.113423038	0.0428311351	
622.5	-0.2052134821	-0.005924568821	
623.125	0.01777994684	0.2322751088	
623.75	0.05716206463	0.001044052301	
624.375	0.1370937675	-0.03404431536	
625.0	-0.04479778875	-0.03280535209	
625.625	0.1089701825	-0.07086967575	
626.25	-0.1099021071	-0.1493766223	
626.875	-0.07601966457	-0.02242910295	
627.5	-0.1476864168	-0.1023613692	
628.125	-0.1436636586	-0.01518072658	
628.75	-0.05419141291	-0.08453768877	
629.375	-0.07010822187	-0.1483321072	
630.0	-0.2084632966	-0.05694739579	
630.625	-0.1836421634	0.01984860972	
631.25	-0.1482742922	0.1975639229	
631.875	0.04649583242	0.3037361301	
632.5	0.1100230203	0.09705854381	
633.125	0.2184875665	0.1047915816	
633.75	0.1191954522	-0.2162381825	
634.375	0.06888442908	-0.03821334814	
635.0	-0.06426995175	-0.2687460649	
635.625	-0.1245002324	0.04218310991	
636.25	-0.1567866194	-0.0141938145	
636.875	-0.06408057573	0.2108169413	
637.5	0.03945285512	0.01069454087	
638.125	-0.1353992328	0.09685451043	
638.75	0.03673404338	0.1897113649	
639.375	-0.0361195784	0.1235830445	
640.0	0.127705303	0.2987013744	
640.625	0.2706077437	0.05339359742	
641.25	0.1639070969	-0.01427928904	
641.875	0.2633466116	-0.1194939011	
642.5	-0.1532727217	-0.2519242839	
643.125	-0.0261798543	-0.02432817625	
643.75	-0.1956247731	-0.1493833293	
644.375	-0.07217193641	0.1984556124	
645.0	-0.2374217686	-0.07896115841	
645.625	0.1650514613	0.3239900261	
646.25	0.1194416701	-0.1194918068	
646.875	0.1001877033	0.173752933	
647.5	0.1257189308	-0.1440480523	
648.125	0.04716502117	0.227398718	
648.75	0.3887652361	-0.1797281312	
649.375	0.0284558666	-0.2389257926	
650.0	0.1865534016	-0.1363530921	
650.625	0.2209266928	-0.4477343034	
651.25	-0.04092932015	-0.2208672302	
651.875	0.2635715446	-0.01549816903	
652.5	0.3420105173	-0.2060084933	
653.125	0.08467446463	-0.1791366564	
653.75	0.2635333119	-0.100656844	
654.375	-0.1712732882	-0.4240929984	
655.0	-0.1861044046	0.07432050785	
655.625	-0.2597023119	-0.05944001514	
656.25	0.1257808413	0.3701418441	
656.875	0.006437608993	-0.09321326042	
657.5	0.06537300246	0.2745112242	
658.125	0.2021526532	-0.05297322142	
658.75	0.1157732062	0.1585222611	
659.375	0.4739684703	-0.2043586595	
660.0	-0.04853468855	-0.2541510113	
660.625	0.1987077399	-0.1817231383	
661.25	0.188447927	-0.3772216408	
661.875	0.003866031096	-0.2768039135	
662.5	0.2948329816	-0.02095636082	
663.125	0.2765035568	-0.326028564	
663.75	0.009750599818	-0.220643083	
664.375	0.05622655716	-0.2812658177	
665.0	-0.3649365688	-0.1976082272	
665.625	-0.1573295984	0.14319879	
666.25	-0.1721578933	0.1841906268	
666.875	0.2129225492	0.2601931764	
667.5	0.1048594059	-0.03000166478	
668.125	0.3102041976	0.1480206789	
668.75	0.1187779453	-0.2927621092	
669.375	0.0203258282	-0.09723501696	
670.0	0.1106530669	-0.2563563043	
670.625	-0.2302845982	-0.1533465184	
671.25	0.1444449885	-0.01624360723	
671.875	0.1767249357	-0.2688595733	
672.5	0.04992386865	-0.1450016731	
673.125	0.2041171321	-0.05714550946	
673.75	0.196960083	-0.3353380433	
674.375	-0.08800289256	-0.1414034233	
675.0	0.0249824124	-0.2044127783	
675.625	-0.2803383025	-0.1332645183	
676.25	-0.09634116648	0.1008242828	
676.875	-0.1332006833	-0.1210167491	
677.5	-0.1850926882	0.1558272626	
678.125	-0.01297805056	0.06017379301	
678.75	-0.07860694407	0.2531395439	
679.375	0.3442232389	-0.004886206739	
680.0	-0.08185517342	-0.04006663467	
680.625	0.2829141737	-0.03598015022	
681.25	-0.043757861	-0.2419603834	
681.875	-0.03114061517	0.2452926653	
682.5	0.4761752384	0.08595908119	
683.125	0.08409768833	-0.1504585522	
683.75	0.3056571806	0.2475929762	
684.375	0.4333254082	-0.0141448243	
685.0	0.06893235268	-0.1188166079	
685.625	0.3440780514	0.1963351121	
686.25	0.2589473007	-0.2030679748	
686.875	0.1153689415	-0.1066492178	
687.5	0.3475376479	-0.2022871722	
688.125	-0.207900474	-0.45833543	
688.75	-0.2455842843	-0.07103443977	
689.375	-0.3673074421	0.243898412	
690.0	0.242268512	0.3602604521	
690.625	0.08964564902	0.02067904052	
691.25	0.3841348573	0.4386267933	
691.875	0.4768981121	-0.1161714154	
692.5	0.3262996159	0.2463825239	
693.125	0.7623173258	0.03331827723	
693.75	0.2790479673	-0.4794387847	
694.375	0.5605892451	-0.1408055386	
695.0	0.5181991492	-0.4176806195	
695.625	0.2435705557	-0.1712731333	
696.25	0.54383962	0.2480687166	
696.875	0.5731318364	0.3948989302	
697.5	0.3008698934	0.3933749268	
698.125	0.5365641925	0.1734527279	
698.75	0.3821828158	-0.3495900458	
699.375	-0.4517353258	-0.2509072248	
700.0	-0.2209937224	0.1578821781	
700.625	0.2142454922	0.3582158384	
701.25	0.2580032417	-0.02277130012	
701.875	0.1406779701	0.2641566399	
702.5	0.513868504	0.1893492249	
703.125	0.2485964595	-0.05505183928	
703.75	0.369123549	0.02109396697	
704.375	0.290599018	-0.3109184644	
705.0	0.1293723687	-0.02631283258	
705.625	0.3298573143	0.08859513403	
706.25	0.2917245634	0.01018467013	
706.875	0.208299445	0.3040193638	
707.5	0.2662652449	0.2825072987	
708.125	0.4406774045	0.07837534913	
708.75	0.2121318256	-0.3151608387	
709.375	-0.03454135173	-0.1160797799	
710.0	-0.1274370613	0.234171405	
710.625	0.141035709	-0.126618611	
711.25	0.06345859444	0.2236900538	
711.875	0.1708723761	-0.101354892	
712.5	0.2026336712	0.1010561877	
713.125	0.278689128	-0.2422957711	
713.75	-0.02261959481	-0.2503886514	
714.375	0.08741588448	-0.1591262991	
715.0	-0.09062804453	-0.2704633164	
715.625	-0.05514616366	-0.1245668486	
716.25	0.2268978118	-0.1848150697	
716.875	0.2747741319	-0.3348008464	
717.5	0.3753984737	-0.1241398916	
718.125	0.6659347351	0.09135344966	
718.75	0.825075227	-0.1530020626	
719.375	0.4574773583	-0.513719389	
720.0	0.5861853057	-0.833944425	
720.625	-0.09374142144	-0.8507332885	
721.25	0.0152824075	-0.07614125746	
721.875	-0.1201055128	-0.9919636396	
722.5	-1.131120433	-0.4314572652	
723.125	-0.1796790407	-0.09161236275	
723.75	-0.5586191453	0.585500721	
724.375	0.3331673722	0.3471440576	
725.0	-0.005918837635	0.2308009885	
725.625	0.2199372937	0.5874788091	
726.25	0.3223201279	0.40792377	
726.875	-0.2460192869	0.6393893643	
727.5	-0.005097371834	1.448297143	
728.125	0.7217566582	1.417398636	
728.75	-0.5527279504	1.506157306	
729.375	-0.7460959217	4.026782751	
730.0	1.268780151	2.800277569	
730.625	-0.9977808876	2.598951097	
731.25	-0.3763242156	4.362329283	
731.875	0.9714973789	3.176193945	
732.5	-2.459613907	-0.1954488594	
733.125	-2.641181097	0.9448103169	
733.75	0.07846699013	1.231729465	
734.375	0.1606637047	0.9312930825	
735.0	-0.3538132161	-1.041541433	
735.625	0.06934544105	0.07174650195	
736.25	-0.3191055057	0.5077569175	
736.875	0.7808324098	0.3134722968	
737.5	0.1952927767	-0.07358229943	
738.125	1.675440125	0.1351484454	
738.75	1.294613241	-2.041210813	
739.375	0.255249161	-1.011765975	
740.0	3.323524912	1.01215036	
740.625	4.674159915	-3.014415813	
741.25	-2.627910048	-1.311415545	
741.875	-4.335550278	0.7623364314	
742.5	-2.720351014	0.1449725174	
743.125	0.8555993011	-0.7234963143	
743.75	-0.1220843667	-1.503293035	
744.375	-0.3698256509	0.2706619402	
745.0	-0.05815766064	0.01228701963	
745.625	0.1079964056	-0.1176687667	
746.25	0.08324660264	0.01004578514	
746.875	-0.2309982926	-0.01190896029	
747.5	0.06615618498	0.266850371	
748.125	0.04415271516	0.239444529	
748.75	0.2459246293	0.5020997113	
749.375	0.2544903929	0.3247968194	
750.0	-0.4097243181	0.2507243816	
