!Created with skrf (http://scikit-rf.org).
# GHz S RI R (50+0j) 
!freq	ReS11	ImS11	
500.0	-0.03147726767	-0.3526131853	
500.625	0.7195166638	-1.05826106	
501.25	-0.5466456456	-0.2768500593	
501.875	-0.001705653115	-0.2974691336	
502.5	-0.06633173519	-0.1609083016	
503.125	-0.03607436816	0.03208658726	
503.75	-0.03902462628	0.06651334893	
504.375	0.02111906275	-0.04491868722	
505.0	0.02127902868	0.01593868764	
505.625	-0.0153536494	-0.08524612182	
506.25	0.00149528414	0.04094636301	
506.875	-0.3444005138	-0.05429978847	
507.5	-0.2109445246	0.07346044527	
508.125	0.4189895023	-0.4808096939	
508.75	0.5181491722	-1.183739868	
509.375	-0.2306874871	-0.6343296089	
510.0	-0.2496651542	-0.2774076987	
510.625	-0.1880823705	-0.1412061792	
511.25	-0.01685302766	-0.02618207786	
511.875	-0.1254474212	-0.08916184966	
512.5	0.004637879954	0.06216753771	
513.125	0.02592388294	-0.02419591888	
513.75	-0.06462525684	-0.08351475405	
514.375	-0.04340063107	0.09121303857	
515.0	0.1454457201	-0.2257706784	
515.625	-0.1735117786	0.1954577172	
516.25	0.2256914283	-0.8200715981	
516.875	-0.4571841144	-0.3971593263	
517.5	-0.004576179971	0.02220612559	
518.125	-0.07863649489	-0.06936041877	
518.75	-0.00897240279	-0.02707448368	
519.375	-0.05079418755	0.006240695252	
520.0	0.1153919443	0.07112754408	
520.625	0.1019353191	-0.07545485811	
521.25	-0.0301383229	-0.1900231788	
521.875	-0.1473247545	-0.06467575381	
522.5	-0.005582823568	0.06431814666	
523.125	-0.02778701856	-0.04194678238	
523.75	-0.130342671	0.07793590017	
524.375	0.006401526969	-0.00273775899	
525.0	-0.1562344599	0.1507727706	
525.625	0.1229285141	0.04032091743	
526.25	-0.05782775382	0.05275350949	
526.875	0.0236749307	0.03120185783	
527.5	-0.09861668243	0.07853140364	
528.125	0.1112590048	0.2924696188	
528.75	0.0108194304	0.1083390405	
529.375	0.02900820241	0.09526893895	
530.0	0.02610824891	0.09942415262	
530.625	-0.00826490779	0.2009827896	
531.25	0.1492223589	0.1699930702	
531.875	0.1700262347	-0.2215617052	
532.5	0.02960418019	-0.0224666568	
533.125	0.009093343758	-0.1432867532	
533.75	0.02681356772	6.702738939e-05	
534.375	-0.08783985104	-0.3102336183	
535.0	-0.1758679105	-0.002114406166	
535.625	-0.1303389939	0.04447636964	
536.25	-0.0004711951963	0.1144678585	
536.875	0.05921375458	-0.02379170465	
537.5	0.07774639271	-0.01288238936	
538.125	0.09219629279	-0.1107012995	
538.75	0.08990848789	-0.09095728673	
539.375	-0.06999395272	-0.1721945818	
540.0	-0.1942749696	-0.06386998438	
540.625	-0.09159187616	-0.04004978575	
541.25	-0.04955624829	-0.04454731827	
541.875	-0.05562110364	0.007909814514	
542.5	0.02560484163	-0.06330855711	
543.125	-0.1050376666	-0.005131727074	
543.75	0.05135644668	0.04062064517	
544.375	-0.09722926348	0.03202346615	
545.0	0.03826352652	0.02929822255	
545.625	-0.006693552335	0.09608374701	
546.25	0.1407320546	-0.007503928082	
546.875	0.04724335237	-0.005791455608	
547.5	0.09478747494	-0.1278281062	
548.125	-0.09309086566	-0.1318571833	
548.75	-0.04242057748	-0.0663799265	
549.375	-0.1151537381	-0.1017648841	
550.0	-0.05661054876	0.0521047853	
550.625	-0.0477376076	-0.02791167821	
551.25	-0.06657324641	0.05878351515	
551.875	-0.04857183327	0.03795172243	
552.5	-0.04916447219	0.08583307592	
553.125	0.002852126102	0.04648581081	
553.75	0.03099610787	0.04400752792	
554.375	0.08904108252	-0.01346584978	
555.0	0.07730214929	-0.06378234382	
555.625	0.07703917998	-0.09641427221	
556.25	0.04833070801	-0.1319516816	
556.875	-0.04550606799	-0.1339543376	
557.5	-0.09128590056	-0.08564390844	
558.125	-0.1096000434	-0.03031080431	
558.75	-0.09717561797	0.009261539843	
559.375	-0.0931882714	0.01785934566	
560.0	-0.09242936582	0.07645477769	
560.625	-0.01977676931	0.1046480918	
561.25	-0.01088075522	0.07365151083	
561.875	0.05042624597	0.056863841	
562.5	-0.00771984965	0.02071530639	
563.125	0.09005494539	0.08762625066	
563.75	0.1033804934	-0.03928405493	
564.375	0.1206282617	-0.05157045625	
565.0	0.05595048458	-0.1755679671	
565.625	-0.06782740607	-0.09003559638	
566.25	-0.05542843719	-0.1295898785	
566.875	-0.1903586443	-0.04561465554	
567.5	-0.05880519358	-0.02881117261	
568.125	-0.1351547565	-0.2268662059	
568.75	-0.232312359	0.01201953445	
569.375	-0.1543656982	-0.01646321735	
570.0	-0.1713352491	0.255539638	
570.625	0.05483405603	0.1221304159	
571.25	-0.08390396146	0.0774453463	
571.875	0.153935047	0.05389478422	
572.5	0.006808559438	0.01167892005	
573.125	0.1787471879	-0.1185313768	
573.75	-0.03426766761	-0.1601677798	
574.375	0.03942404164	0.0332269696	
575.0	0.03567482941	-0.1293413658	
575.625	-0.002046813533	0.01379137014	
576.25	0.1139458864	-0.1229409651	
576.875	-0.08453314673	-0.1546732301	
577.5	0.0004730723983	-0.05485903065	
578.125	0.04649916002	-0.2097260533	
578.75	-0.1967477498	-0.1146430927	
579.375	0.0116656154	0.02669793369	
580.0	-0.08327433995	-0.1611759099	
580.625	-0.009651418208	0.1123228266	
581.25	-0.1424366009	-0.04965438599	
581.875	0.127701709	0.2488825445	
582.5	0.08049379422	-0.00859542764	
583.125	-0.03480908539	0.1149944453	
583.75	0.1480707517	-0.01495338656	
584.375	-0.09268846887	0.08311694488	
585.0	0.1954626895	0.07654908333	
585.625	0.08190786304	-0.08241663218	
586.25	0.1262472684	0.03888605542	
586.875	0.03849472005	-0.2116578514	
587.5	-0.03874790336	-0.03728164162	
588.125	0.0615409986	-0.1494330964	
588.75	-0.02547640059	-0.1889767653	
589.375	0.006770587461	-0.03828291307	
590.0	-0.006751048722	-0.2498194545	
590.625	-0.1999516966	0.05783612151	
591.25	-0.04492417553	0.0007033348473	
591.875	-0.141550528	0.1661981427	
592.5	0.1236766387	0.01880794151	
593.125	-0.1340699083	0.0971575891	
593.75	0.1226988466	0.01942530931	
594.375	0.02593267235	0.1594040043	
595.0	0.2302388955	0.1493193311	
595.625	0.1708374185	-0.03584072974	
596.25	0.08798187872	0.1112528648	
596.875	0.2232423376	0.01030021269	
597.5	0.0951122687	-0.0005589840244	
598.125	0.07338301888	0.1568041591	
598.75	0.2361529615	0.03699527242	
599.375	0.146038912	-0.01243229657	
600.0	0.1973998916	-0.1094657643	
600.625	0.1219257009	-0.2191776043	
601.25	-0.01251705414	-0.1159057246	
601.875	0.02375901441	-0.1826370928	
602.5	-0.1814644656	0.05028937265	
603.125	-0.008582944541	0.004876734227	
603.75	-0.2544326744	0.08176559463	
604.375	-0.01466297472	0.1668015567	
605.0	-0.1791994116	-0.01966856245	
605.625	-0.0693210144	0.178526296	
606.25	-0.007621014579	-0.004078143053	
606.875	-0.2516202717	0.03147990738	
607.5	-0.06540808295	0.1484398333	
608.125	-0.05648238121	0.1625959875	
608.75	0.2069417536	0.1268387802	
609.375	0.2309778946	-0.1029497535	
610.0	0.1310065181	-0.1297257647	
610.625	0.1181672693	-0.1576061304	
611.25	-0.06969013846	-0.160656875	
611.875	0.0005859178514	-0.09666547825	
612.5	-0.1926202676	-0.1444123061	
613.125	-0.1112415458	0.11893054	
613.75	-0.1164741042	0.03846031816	
614.375	0.1128718075	0.1960447724	
615.0	-0.004325321433	-0.07560582888	
615.625	-0.05193401985	0.1810227157	
616.25	0.0759757233	0.07966892011	
616.875	-0.1487063762	0.1900709536	
617.5	0.001523787983	0.2452182411	
618.125	0.07661273431	0.1498977471	
618.75	-0.01799092015	0.1640061752	
619.375	0.0172801695	0.08285328297	
620.0	0.2585161459	0.0408122461	
620.625	0.07639820527	-0.1245858915	
621.25	-0.119570077	-0.2122891819	
621.875	-0.2433998335	0.01264403658	
622.5	-0.1066833895	-0.02201972918	
623.125	-0.05211087028	0.2529774805	
623.75	0.1346301374	-0.03966766579	
624.375	0.06020018962	0.0524810618	
625.0	-0.005648863275	-0.09161608376	
625.625	0.06247309258	-0.01651122646	
626.25	-0.05664031838	-0.1907927059	
626.875	-0.1464966814	0.001914464123	
627.5	-0.06566562308	-0.07915592582	
628.125	-0.1237150945	-0.06498221624	
628.75	-0.06270423957	-0.07325625204	
629.375	-0.04717013743	-0.1779401329	
630.0	-0.2009900427	-0.0926961562	
630.625	-0.1754626716	0.1594734199	
631.25	-0.1144260601	0.1278388714	
631.875	-0.006735277658	0.2755259549	
632.5	0.1540224974	0.1179506776	
633.125	0.08288091931	0.1305954148	
633.75	0.2106782028	-0.1357322087	
634.375	0.001280553142	-0.07231392305	
635.0	0.07624571143	-0.2232148975	
635.625	-0.1999396302	-0.01695796325	
636.25	-0.05598557994	0.01666469504	
636.875	-0.1512343566	0.1626325172	
637.5	0.05866175512	0.08401819967	
638.125	-0.1207066857	0.02814415533	
638.75	-0.03273433931	0.2513513804	
639.375	0.05808831295	0.1244400304	
640.0	0.06128411284	0.2640900058	
640.625	0.3046087053	0.1326823294	
641.25	0.1965723954	-0.09592027928	
641.875	0.17496748	-0.08239482676	
642.5	-0.0640866308	-0.2898851864	
643.125	-0.08613814772	-0.02512987438	
643.75	-0.05637138813	-0.2597419835	
644.375	-0.2538610053	0.1779774897	
645.0	-0.05924390854	0.02501129257	
645.625	-0.01334730257	0.3803780916	
646.25	0.2438553203	-0.1415910655	
646.875	-0.03973934917	0.06917052585	
647.5	0.2163693941	-0.02216187211	
648.125	-0.06579609592	0.04270983357	
648.75	0.4011163447	-0.01809906704	
649.375	0.06961213499	-0.3603802325	
650.0	0.07184002048	-0.1227736019	
650.625	0.2904786726	-0.2853816865	
651.25	0.04228102107	-0.3646108144	
651.875	0.119629098	-0.002626873771	
652.5	0.3870665129	-0.08893588822	
653.125	0.1625315758	-0.2394559862	
653.75	0.1274424971	-0.07038386076	
654.375	-0.06737049743	-0.416306363	
655.0	-0.2809673603	0.06173749319	
655.625	-0.06408776982	-0.04474312386	
656.25	-0.04362166201	0.3081534297	
656.875	0.1671015702	-0.1776646427	
657.5	-0.08871717985	0.2765434206	
658.125	0.2761198101	0.09217766026	
658.75	0.08649329009	0.002863801915	
659.375	0.4773573726	-0.06370558198	
660.0	0.05799154572	-0.4332845694	
660.625	0.07006213039	-0.1355330021	
661.25	0.2339899366	-0.3289057126	
661.875	0.07903026391	-0.3564462017	
662.5	0.1236107056	-0.04878892148	
663.125	0.3566603111	-0.2242861917	
663.75	6.777177184e-05	-0.311495968	
664.375	0.02867345908	-0.2171612353	
665.0	-0.2944890402	-0.2647517069	
665.625	-0.2249053945	0.2203997749	
666.25	-0.1016332068	0.1234786619	
666.875	0.1476436047	0.2743177201	
667.5	0.1803799171	-0.06201921381	
668.125	0.149472138	0.1678432016	
668.75	0.2233507626	-0.2910075442	
669.375	-0.057664996	-0.07256021163	
670.0	0.1396437174	-0.1871641314	
670.625	-0.1447397791	-0.2946475608	
671.25	-0.01654987053	0.002282585157	
671.875	0.2254501048	-0.3003835819	
672.5	0.06180975852	-0.2161231459	
673.125	0.1351366592	-0.06849078662	
673.75	0.2473162726	-0.2484163174	
674.375	-0.117464925	-0.2571610487	
675.0	0.01426275982	-0.1311089125	
675.625	-0.2375358806	-0.1871330386	
676.25	-0.1684170353	0.09309997028	
676.875	-0.03640333684	-0.0671723055	
677.5	-0.2534142197	0.09089311105	
678.125	0.01954057134	0.1348797757	
678.75	-0.08012631868	0.1661820654	
679.375	0.4067756844	0.115776662	
680.0	-0.08909109237	-0.1734492965	
680.625	0.1553195944	0.06791675177	
681.25	0.08903696367	-0.2657128496	
681.875	-0.1037506236	0.1494619173	
682.5	0.4097444496	0.2447891029	
683.125	0.153901826	-0.2384842006	
683.75	0.1512194705	0.2398105389	
684.375	0.4106763605	0.0811924907	
685.0	0.1514277159	-0.1286560109	
685.625	0.2010170421	0.197659018	
686.25	0.4521479546	-0.1537007306	
686.875	0.09291557159	-0.1720956685	
687.5	0.2924355719	-0.2167754981	
688.125	-0.1353472393	-0.5212390595	
688.75	-0.2949718979	0.06336845543	
689.375	-0.3319256731	0.182825136	
690.0	0.1909890906	0.4302826237	
690.625	0.1812340801	0.0270243186	
691.25	0.2477549644	0.4201168173	
691.875	0.6306652202	-0.03550971237	
692.5	0.26791112	0.1587886098	
693.125	0.8596638164	0.05005143315	
693.75	0.43624115	-0.5460749644	
694.375	0.2318378309	-0.1576638899	
695.0	0.588724445	-0.336372298	
695.625	0.2575863089	-0.1672668523	
696.25	0.297167557	0.1673922546	
696.875	0.5148136021	0.3701682649	
697.5	0.327294452	0.3059169534	
698.125	0.4285201516	0.2521601948	
698.75	0.4069473318	-0.4276012619	
699.375	-0.4837134098	-0.2235477513	
700.0	-0.1315175471	0.1792803085	
700.625	-0.01800241721	0.3632455488	
701.25	0.2588300233	0.01546636834	
701.875	0.1292776121	0.2224294934	
702.5	0.4584965186	0.2586217111	
703.125	0.2631069759	-0.08943966845	
703.75	0.4046314722	0.01347685571	
704.375	0.2967948609	-0.3155717498	
705.0	0.07124321484	-0.129767303	
705.625	0.2931978174	0.1334723169	
706.25	0.1458499548	0.06453078599	
706.875	0.1385747867	0.2652561926	
707.5	0.2506748998	0.3752489229	
708.125	0.3790589267	0.09054285903	
708.75	0.1540481721	-0.4817579144	
709.375	-0.205155166	-0.2087851452	
710.0	-0.1640959177	0.2305401439	
710.625	0.1874360667	-0.05124246536	
711.25	0.01037845826	0.2724054645	
711.875	0.2900534694	-0.05111581433	
712.5	0.2196050944	0.04123278456	
713.125	0.2989777025	-0.2057706576	
713.75	-0.01321408263	-0.2711355323	
714.375	0.04756860847	-0.1397497618	
715.0	-0.05047410904	-0.2806531777	
715.625	-0.07040374938	-0.1342498281	
716.25	0.2185071449	-0.14610472	
716.875	0.3171779658	-0.2360318939	
717.5	0.2943726886	-0.07664032749	
718.125	0.6158105042	0.1275971645	
718.75	0.7633999292	-0.1176389493	
719.375	0.4114485148	-0.4923342384	
720.0	0.4699568598	0.1061600982	
720.625	0.1673103829	-1.334335522	
721.25	-0.3370564374	-0.1031062753	
721.875	0.06254710349	-1.160892551	
722.5	-1.017505427	-0.6023192122	
723.125	-0.4335798953	0.02743950505	
723.75	-0.6201081639	0.4360501554	
724.375	0.3316679141	0.3759641136	
725.0	0.04362972933	0.205269898	
725.625	0.1955815412	0.6145795126	
726.25	0.3398999396	0.460652716	
726.875	-0.2068770157	0.5692956044	
727.5	-0.1818803286	1.485451045	
728.125	0.6593784335	1.567959416	
728.75	-0.6278477044	1.50325643	
729.375	-0.9960275073	3.957065356	
730.0	1.592830396	2.972226991	
730.625	-0.02894303502	1.576266329	
731.25	-1.688158084	3.912327827	
731.875	0.3481394855	3.845379315	
732.5	-2.300908	0.1511775456	
733.125	-3.124533411	1.117373468	
733.75	0.309075861	1.347726816	
734.375	0.08782446837	0.7641232236	
735.0	-0.3464262744	-1.058676618	
735.625	-0.06380450344	0.1916415462	
736.25	-0.3673402798	0.553789502	
736.875	0.7816300439	0.374390404	
737.5	0.3176292643	-0.2286332913	
738.125	1.615926657	0.3866825611	
738.75	1.457749096	-2.06859933	
739.375	0.1801253464	-1.2485631	
740.0	3.102169483	0.9432738328	
740.625	5.669368356	-2.649142506	
741.25	-1.732899187	-1.401391632	
741.875	-5.577688028	2.092164541	
742.5	-2.634339748	0.104154494	
743.125	0.9630465574	-0.4140409623	
743.75	0.01336703145	-1.482648914	
744.375	-0.4043551402	0.1793041859	
745.0	-0.07896652123	-0.04291021996	
745.625	0.1445340136	-0.1567053556	
746.25	0.09080781411	-0.02561046936	
746.875	-0.2772199183	0.05506373781	
747.5	0.09268406253	0.274549037	
748.125	0.008696212419	0.2830867098	
748.75	0.2448732235	0.5458786155	
749.375	0.2368574362	0.3789577576	
750.0	-0.3110126371	0.08666287314	
