!Created with skrf (http://scikit-rf.org).
# GHz S RI R (50+0j) 
!freq	ReS11	ImS11	
500.0	-2.334455296	-3.68504119	
500.625	1.178093797	-1.92641924	
501.25	-0.8450841414	-2.877145287	
501.875	-2.30434114	-0.8560353479	
502.5	-0.01693151986	-0.1361506221	
503.125	-0.4030112823	0.09016494859	
503.75	0.1343130621	-0.0358305779	
504.375	0.1636349685	0.03197335917	
505.0	-0.09562608282	-0.06287952317	
505.625	0.2555391949	-0.2542992762	
506.25	-0.5882089487	0.1552884093	
506.875	0.2320515345	-0.6043246437	
507.5	-0.7506601678	-2.211716129	
508.125	-1.410099109	-1.010937531	
508.75	2.969128623	-2.205835341	
509.375	-2.560514203	-4.535109295	
510.0	-0.7101941864	-0.1962664044	
510.625	-0.6990537769	-1.016145384	
511.25	-0.06845046207	0.06186734751	
511.875	-0.5387375855	-0.3065007462	
512.5	-0.05898421071	0.1834987707	
513.125	-0.1601407893	-0.2747822476	
513.75	0.003736895562	-0.09005999364	
514.375	-0.5298925176	-0.3060773266	
515.0	0.6865079884	1.19303609	
515.625	-1.451582455	-2.909535687	
516.25	-0.6277475939	0.8055157336	
516.875	0.1018188216	-2.531807453	
517.5	-1.159708304	-0.3332202236	
518.125	0.2644556822	-0.3071269108	
518.75	-0.8001056047	-0.3712443766	
519.375	-0.1112863152	0.009890575295	
520.0	0.4283902548	0.3456695829	
520.625	0.4201192009	-0.3970515222	
521.25	0.03695428348	-0.3580856155	
521.875	-0.6348615144	-0.1890804502	
522.5	0.04347807706	0.08754388689	
523.125	-0.2988390038	0.1842756151	
523.75	-0.01548549457	-0.1023512007	
524.375	-0.715751861	0.282571936	
525.0	0.1195180158	0.01243720836	
525.625	-0.05813370197	0.2785033857	
526.25	0.04887910257	-0.276081862	
526.875	-0.1747168978	0.3898391852	
527.5	0.1135117364	0.2367463392	
528.125	-0.2513013902	0.9307963832	
528.75	0.5582284676	0.8341713982	
529.375	-0.1579365794	0.2093245922	
530.0	0.4613320869	0.2619383771	
530.625	-0.2125203122	1.003320358	
531.25	1.595498798	-0.2934185183	
531.875	0.3158027131	-0.06218226381	
532.5	-0.2338837865	-0.6571828697	
533.125	0.2495702489	0.3347471958	
533.75	0.08653175418	-0.9509357764	
534.375	0.03669187088	-0.197442137	
535.0	-1.012562476	-0.6491197869	
535.625	-0.1135706372	0.4798008827	
536.25	-0.08755426365	0.1701916652	
536.875	0.3570437287	0.06846239892	
537.5	0.02923098084	-0.1247367378	
538.125	0.4980464415	-0.08262317044	
538.75	0.1095075578	-0.3961663082	
539.375	0.000927399116	-0.3710875865	
540.0	-0.6003777456	-0.4954783027	
540.625	-0.2665129286	0.1571114203	
541.25	-0.1762356613	-0.05141623156	
541.875	-0.1415654054	-0.1040583413	
542.5	-0.1924853362	0.02311628831	
543.125	-0.04382324838	-0.2429843508	
543.75	-0.4050760855	0.1154296363	
544.375	0.01614197253	-0.1033955493	
545.0	-0.005709425419	0.3265080878	
545.625	0.0483090947	-0.07955853236	
546.25	0.3461922905	0.3747201126	
546.875	0.1345745132	-0.3434538612	
547.5	0.2645532141	-0.0612094364	
548.125	-0.0981333362	-0.6185138962	
548.75	-0.4021041142	-0.08363755843	
549.375	-0.08333034244	-0.2177044734	
550.0	-0.3410225247	0.05677591806	
550.625	0.02278073409	-0.02983007133	
551.25	-0.332917234	0.1140891348	
551.875	-0.01919540109	0.1519621453	
552.5	-0.2090357593	0.1711698834	
553.125	0.0147500643	0.1947710284	
553.75	0.08880817848	0.09954124072	
554.375	0.2494841471	0.02077639463	
555.0	0.2277077045	-0.192314899	
555.625	0.1945711078	-0.2453945536	
556.25	0.1667825628	-0.3512617465	
556.875	-0.1031491044	-0.3890434854	
557.5	-0.2327905374	-0.2348705836	
558.125	-0.2740280684	-0.1019539988	
558.75	-0.2835886857	0.007258043825	
559.375	-0.219058186	0.05936684575	
560.0	-0.2568169825	0.1476965422	
560.625	-0.1046138511	0.3237615258	
561.25	0.04275534369	0.1503385977	
561.875	0.06142739345	0.2056440525	
562.5	0.03564686774	0.007869323992	
563.125	0.1688113963	0.2977261147	
563.75	0.336606225	-0.1502257182	
564.375	0.2293724029	-0.05140202318	
565.0	0.2833104891	-0.4612099825	
565.625	-0.2062874126	-0.3166391293	
566.25	-0.136678022	-0.2108846002	
566.875	-0.4113342456	-0.3036265786	
567.5	-0.3800325075	-0.05412558792	
568.125	-0.1786678794	-0.4957719487	
568.75	-0.7378808203	-0.1161202477	
569.375	-0.330887382	0.1941293688	
570.0	-0.5640096861	0.4516020936	
570.625	0.1043556047	0.6490479905	
571.25	-0.08968989751	-0.05595759259	
571.875	0.3284007666	0.5197230779	
572.5	0.002305187849	-0.2208785523	
573.125	0.4884786478	-0.04168601023	
573.75	-0.004625329455	-0.5684914878	
574.375	-0.04513248045	0.1572735793	
575.0	0.2500777713	-0.3745570285	
575.625	-0.1460979118	0.06773911721	
576.25	0.4297616704	-0.2579841464	
576.875	-0.2285658088	-0.5265380444	
577.5	-0.09358690887	-0.09219087374	
578.125	0.1222572917	-0.4538423667	
578.75	-0.4231812327	-0.4010257327	
579.375	-0.1280694763	0.06359253504	
580.0	-0.05754896824	-0.3111487749	
580.625	-0.1933224791	0.1968806671	
581.25	-0.2517217679	-0.1322521085	
581.875	-0.02721685909	0.6732936685	
582.5	0.4532508579	0.1440457668	
583.125	-0.2404296977	0.04181355255	
583.75	0.5406601355	0.321274219	
584.375	-0.3483762289	-0.103226028	
585.0	0.5896651933	0.3682469096	
585.625	0.146572239	-0.3311311982	
586.25	0.4378706522	0.2550214263	
586.875	0.1134735491	-0.6737228864	
587.5	-0.04673222871	-0.0172131423	
588.125	0.2083450523	-0.4523248274	
588.75	-0.1235191102	-0.5684712714	
589.375	0.044227423	-0.06553842669	
590.0	0.03162992137	-0.6004913391	
590.625	-0.5216691349	0.02355461552	
591.25	-0.1940296573	0.1492663441	
591.875	-0.2253168785	0.3231996693	
592.5	0.193521313	0.0497707068	
593.125	-0.1896876358	0.2346639497	
593.75	0.2451413433	0.1906462815	
594.375	0.1076742323	0.1537665805	
595.0	0.438702008	0.6453364422	
595.625	0.7409685221	-0.234527174	
596.25	-0.05017352859	0.2845728215	
596.875	0.7632384352	0.1781400976	
597.5	0.1428680299	-0.1351812858	
598.125	0.3553158524	0.6603759778	
598.75	0.4962261454	-0.151829811	
599.375	0.3049358397	0.1871142874	
600.0	0.6304622293	-0.5076894143	
600.625	0.09823721705	-0.5107419321	
601.25	0.2026988371	-0.226363439	
601.875	-0.1505651339	-0.4765766427	
602.5	-0.2852236013	-0.004170839054	
603.125	-0.2108221424	0.1400181466	
603.75	-0.2636975476	0.06791162049	
604.375	-0.3070795147	0.3077627823	
605.0	-0.04180678085	0.04868864454	
605.625	-0.3408299209	0.2301025449	
606.25	-0.02902375181	0.1491946462	
606.875	-0.6583268466	-0.04845763517	
607.5	-0.1506785614	0.8055031883	
608.125	-0.2058795448	0.1622715285	
608.75	0.5583439388	0.8491346572	
609.375	0.2216306363	-0.3870803589	
610.0	0.5922625032	0.02687173295	
610.625	0.09930819289	-0.6454739593	
611.25	0.09325736694	-0.0103436557	
611.875	-0.4423083606	-0.5677898095	
612.5	-0.1589279997	0.04297511865	
613.125	-0.6388573961	-0.1072997719	
613.75	0.005598046549	0.5295878179	
614.375	-0.2219495006	0.2007538826	
615.0	0.414070227	0.05294189994	
615.625	-0.3437783315	0.1331458399	
616.25	0.1037368133	0.6518511019	
616.875	-0.108861767	0.03837575316	
617.5	-0.4301655762	0.7265312966	
618.125	0.2651071082	0.5016778807	
618.75	-0.1979807158	0.2729326939	
619.375	0.4209100013	0.5269912706	
620.0	0.246623	0.03265612016	
620.625	0.3905750792	-0.4191479832	
621.25	-0.2465160501	-0.2944373801	
621.875	-0.4402277805	-0.3383503815	
622.5	-0.4654068893	0.264915421	
623.125	-0.2017175231	0.314630339	
623.75	0.5173295311	0.1425471083	
624.375	-0.2108415476	0.01977307445	
625.0	0.4000580637	-0.4673515025	
625.625	-0.0704923366	0.1692266131	
626.25	0.1002502307	-0.6179963661	
626.875	-0.5613281784	0.02694572639	
627.5	0.04031709002	-0.2038505287	
628.125	-0.5697048748	-0.2751327381	
628.75	-0.05820837217	-0.01773250567	
629.375	-0.1332445092	-0.6084995807	
630.0	-0.6197419415	-0.05467898291	
630.625	-0.2647480331	0.02305329223	
631.25	-0.5352181076	0.4130335891	
631.875	0.0299078745	0.6490779385	
632.5	0.3878312895	0.4149651615	
633.125	0.3391119069	0.108341019	
633.75	0.6278717045	-0.1273543551	
634.375	-0.02623603776	-0.2324362118	
635.0	0.1360631937	-0.3819492513	
635.625	-0.5349445844	-0.09465855984	
636.25	-0.1893898311	-0.09513243284	
636.875	-0.3712908799	0.5184309299	
637.5	0.2618925176	0.1494257965	
638.125	-0.5177051265	-0.06685502568	
638.75	-0.00563304897	0.8292723497	
639.375	0.121234488	0.1292405683	
640.0	0.01704638775	0.7791574139	
640.625	0.8845219405	0.3015723981	
641.25	0.3151922612	-0.1032925327	
641.875	0.900299021	-0.3966876748	
642.5	-0.3802091713	-0.3535059864	
643.125	0.1242648427	-0.3076362734	
643.75	-0.6806992634	-0.3669105563	
644.375	-0.1208334845	0.3506623974	
645.0	-0.4667384905	-0.03729785996	
645.625	0.1130540898	0.8085539422	
646.25	0.5647854049	-0.06299218889	
646.875	-0.1640646511	0.1330616225	
647.5	0.658111471	-0.1054758645	
648.125	-0.1369699508	0.3955116297	
648.75	1.107409974	-0.225086173	
649.375	0.003547332573	-0.7779091498	
650.0	0.5625589504	0.01464200275	
650.625	0.7999248489	-1.421060421	
651.25	-0.4001959043	-0.5278834537	
651.875	0.8068200287	0.3020808212	
652.5	1.080282428	-0.7070949395	
653.125	0.07663702531	-0.3445323739	
653.75	0.995222438	-0.3158483995	
654.375	-0.5303931554	-0.8979424599	
655.0	-0.2254952436	0.03786350508	
655.625	-0.8646544097	0.07970951943	
656.25	0.5352764869	0.7496780448	
656.875	-0.2340542521	-0.1409882569	
657.5	0.2391088118	0.5322099651	
658.125	0.4079779916	0.08950316995	
658.75	0.3278753835	0.4170203498	
659.375	1.164054664	-0.5151327622	
660.0	0.1225762271	-0.6666816572	
660.625	0.4967273959	-0.4381961762	
661.25	0.7151637028	-1.074874554	
661.875	-0.2162194461	-0.6518923458	
662.5	0.8790252618	0.1662607358	
663.125	0.8490901897	-0.9781609701	
663.75	-0.0780079749	-0.3870696488	
664.375	0.4205958727	-0.9488723566	
665.0	-1.041253081	-0.1511503995	
665.625	-0.3987361192	-0.1587211425	
666.25	-0.5302228258	0.8839284212	
666.875	0.5857493259	0.3304601344	
667.5	0.01010555504	0.225685686	
668.125	0.8613918071	0.0778869072	
668.75	0.2582390393	-0.5226019787	
669.375	0.202650478	-0.2701284606	
670.0	0.1875077023	-0.7042348652	
670.625	-0.2711130619	-0.2922071113	
671.25	0.3546651725	-0.3953044868	
671.875	0.2480450495	-0.5706616934	
672.5	0.2091863474	-0.2514460106	
673.125	0.7833684699	-0.1866111956	
673.75	0.349363142	-0.9987806951	
674.375	-0.2395939613	-0.1838735113	
675.0	0.2962315965	-0.7394501163	
675.625	-0.9671661994	-0.4150085222	
676.25	0.1909570108	0.1609977797	
676.875	-0.9347418711	-0.2477053803	
677.5	0.08462278665	0.3695634536	
678.125	-0.7755499536	-0.09362938932	
678.75	0.594056051	0.931066345	
679.375	0.02571872299	-0.08144668386	
680.0	0.4797940851	0.1063092479	
680.625	0.4035597252	-0.4834953998	
681.25	-0.2431320075	-0.1062126822	
681.875	0.4733410992	0.4723209177	
682.5	0.6566398982	0.01155066606	
683.125	0.4493516504	0.0611649326	
683.75	0.4836492699	0.4438252368	
684.375	0.9407337426	-0.1928512614	
685.0	0.2348125481	0.1796589351	
685.625	1.017800121	0.2515751522	
686.25	0.6483293143	-0.7576706183	
686.875	0.3511778294	0.5618777378	
687.5	1.376433303	-1.530338082	
688.125	-0.7573224126	-0.1389986425	
688.75	-0.591717127	-1.264265974	
689.375	-0.7780273017	1.455833177	
690.0	0.08994489366	0.09139897103	
690.625	0.9400867714	1.298967614	
691.25	0.5881872331	0.08895804137	
691.875	0.7697444883	1.06294473	
692.5	1.768773674	0.4742677918	
693.125	1.217582551	-0.2122952972	
693.75	1.491015577	-0.4526287997	
694.375	0.867772286	-0.9271693959	
695.0	1.301475329	-0.5964104797	
695.625	1.014660449	-0.5657538401	
696.25	0.835647612	0.8293177468	
696.875	1.722177243	0.9152984812	
697.5	0.3809759535	0.5723135131	
698.125	1.869489771	1.2748827	
698.75	0.3480266452	-1.560178302	
699.375	0.07271405971	-1.150937025	
700.0	-1.035260417	1.448929665	
700.625	0.4439839929	0.05082686794	
701.25	0.7082773419	1.198796268	
701.875	0.6481238237	-0.03825541004	
702.5	0.4744205458	0.9141453695	
703.125	1.452149924	0.05595996628	
703.75	0.3821986737	0.02543589625	
704.375	1.108486819	-0.5460647233	
705.0	0.07792952052	-0.5308304017	
705.625	0.7989542889	0.6668840868	
706.25	1.092518822	-0.1780102197	
706.875	-0.02813120574	0.7169101338	
707.5	1.041165796	1.340319482	
708.125	0.748405489	-0.2723831083	
708.75	1.231693683	-0.5194217667	
709.375	-1.14290096	-0.6892184155	
710.0	-0.1686110644	0.1988654393	
710.625	0.09309379753	0.6936629072	
711.25	0.2805959582	0.02692929781	
711.875	0.4446305475	0.4017492233	
712.5	0.6909686506	-0.1409699804	
713.125	0.8625039387	-0.2774990707	
713.75	0.05258694223	-0.8177580617	
714.375	0.3641066625	-0.2139386538	
715.0	-0.2980578395	-0.8553884103	
715.625	-0.05271810227	0.007844805386	
716.25	1.084467509	-0.8550077992	
716.875	0.004178640893	-1.150706563	
717.5	1.059332554	1.222665272	
718.125	3.060751594	-0.2693193007	
718.75	0.2267342122	-1.551620804	
719.375	3.34491751	0.9764606408	
720.0	0.3174053652	-4.03142583	
720.625	0.6297935106	-1.145901185	
721.25	0.6383652837	-3.085511518	
721.875	-1.913845027	-2.411317564	
722.5	-0.3399285538	-1.736973053	
723.125	-2.623266401	-0.524867662	
723.75	-0.6320779324	1.350901142	
724.375	-0.09289343508	0.7780039165	
725.0	0.06354700726	1.185537143	
725.625	1.051817901	1.087886736	
726.25	-0.02819382913	0.7560347166	
726.875	-1.096715058	2.961397922	
727.5	1.592918334	4.239906728	
728.125	-1.801579858	1.390093607	
728.75	-0.03350860398	11.82240213	
729.375	4.583280424	7.396500538	
730.0	-9.006030041	2.631838957	
730.625	7.156040285	25.28998081	
731.25	4.971327677	0.3162355049	
731.875	-11.99276215	3.736375348	
732.5	-12.63436764	4.4656389	
733.125	-3.391613048	3.465631101	
733.75	-4.535712824	2.134122943	
734.375	2.93682465	0.07530148458	
735.0	-0.02718508289	-0.8417172694	
735.625	-1.770601834	-0.5558318466	
736.25	1.139069466	1.544292831	
736.875	-0.1948840535	0.9115216384	
737.5	3.382413639	1.441256862	
738.125	4.973072322	-2.208365225	
738.75	0.3273112434	-4.56551232	
739.375	9.42099036	4.220827624	
740.0	11.67244938	-15.44227243	
740.625	-8.050371348	2.940392586	
741.25	-8.269087383	22.85284894	
741.875	17.2935924	0.6481820338	
742.5	0.12388182	-14.32612354	
743.125	-1.726747488	-10.06214716	
743.75	-1.182151725	-0.1294471919	
744.375	-0.4698780814	-1.544803859	
745.0	0.5759738505	0.9010343386	
745.625	-0.05979631432	0.3005128154	
746.25	-0.06233661562	-0.3945326212	
746.875	-0.223026152	0.3417463328	
747.5	-0.7136302896	1.000087591	
748.125	0.6095048216	1.720477621	
748.75	1.099954111	1.21874078	
749.375	0.006153375852	1.921004028	
750.0	-0.996165996	0.5548805337	
