!Created with skrf (http://scikit-rf.org).
# GHz S RI R (50+0j) 
!freq	ReS11	ImS11	
500.0	-0.4279837364	-1.577340601	
500.625	2.164830373	-2.167558038	
501.25	-1.950910143	-2.166858683	
501.875	-1.243520066	0.1146433242	
502.5	0.1061573449	-0.341483459	
503.125	-0.3487056927	0.1939107296	
503.75	-0.03418620226	-0.01184956338	
504.375	0.1803862326	-0.03881291345	
505.0	-0.06776391822	0.03982744146	
505.625	0.1158667607	-0.3784218764	
506.25	-0.2650756887	0.3131351762	
506.875	-0.3699975913	-0.8804937042	
507.5	-1.592216364	-1.221396521	
508.125	-0.06754037032	-0.1902004114	
508.75	3.035061286	-3.348435934	
509.375	-2.321601433	-3.014699095	
510.0	-0.3081979791	-1.100024341	
510.625	-1.301899777	-0.7371176224	
511.25	-0.05103480068	-0.1404183915	
511.875	-0.5101065294	-0.1248093548	
512.5	-0.08482355045	0.1680387823	
513.125	-0.119026399	-0.1570946725	
513.75	-0.005370344179	-0.2160270255	
514.375	-0.6187955465	-0.06685107709	
515.0	1.443035233	0.3809487384	
515.625	-2.19214131	-1.873412764	
516.25	1.018181827	-0.2769057373	
516.875	-0.960602087	-2.667807207	
517.5	-0.6826384266	0.2771147867	
518.125	0.02372985145	-0.4641427994	
518.75	-0.5743366369	0.08099336988	
519.375	-0.1964412527	-0.00335656221	
520.0	0.4968877678	0.2205885058	
520.625	0.2877903478	-0.3062557009	
521.25	0.2992542205	-0.5678293799	
521.875	-0.5929320654	-0.01958362379	
522.5	0.01030138353	-0.07408765939	
523.125	-0.1889403005	0.2385523146	
523.75	-0.2138451223	-0.1379663221	
524.375	-0.3948600762	0.4247271373	
525.0	-0.144838831	-0.03207331448	
525.625	0.1141918572	0.3402726457	
526.25	-0.1615735427	-0.2718832523	
526.875	-0.006107539076	0.3164608913	
527.5	-0.143727944	0.1666458935	
528.125	-0.02072170114	1.14251428	
528.75	0.5475402002	0.4555262449	
529.375	-0.03171299552	0.3453334692	
530.0	0.2807961502	0.1584526075	
530.625	0.05052984451	1.19028751	
531.25	1.070813784	-0.3865188212	
531.875	0.6760106929	-0.01322220676	
532.5	-0.4189798869	-0.4373819289	
533.125	0.5696127658	0.0369720247	
533.75	-0.2686763377	-0.688999712	
534.375	0.2196601249	-0.590463743	
535.0	-1.213918555	-0.1269268293	
535.625	-0.09591067257	0.1850762543	
536.25	-0.1094626208	0.2524035102	
536.875	0.3486577066	-0.01091092666	
537.5	0.06034317359	-0.0192416999	
538.125	0.4476235271	-0.2103265042	
538.75	0.1098739463	-0.2573412704	
539.375	-0.0013509759	-0.4811831647	
540.0	-0.6347198797	-0.3022510822	
540.625	-0.1630947229	-0.01271604642	
541.25	-0.2498013209	-0.05379687376	
541.875	-0.1778650484	-0.03628919884	
542.5	-0.0483161246	0.001177966579	
543.125	-0.1930196826	-0.2603705756	
543.75	-0.2440149882	0.2389876123	
544.375	-0.1561615033	-0.1059645144	
545.0	0.135579718	0.2729560424	
545.625	-0.09870617305	0.03940412583	
546.25	0.4781923912	0.1780883152	
546.875	0.01908058073	-0.1582361346	
547.5	0.387239621	-0.171262571	
548.125	-0.255335379	-0.5405099965	
548.75	-0.2110716684	-0.07997036216	
549.375	-0.1830652766	-0.3187638353	
550.0	-0.2602526303	0.15058376	
550.625	-0.05058806858	-0.1206964537	
551.25	-0.2426221264	0.2031175425	
551.875	-0.08699375642	0.05073867026	
552.5	-0.1929282894	0.2395329246	
553.125	0.01785935919	0.1461546825	
553.75	0.08368943048	0.1188542176	
554.375	0.2470133271	-0.003547463114	
555.0	0.2062400768	-0.1765504384	
555.625	0.1984048264	-0.2426492418	
556.25	0.1529861436	-0.3489497272	
556.875	-0.09666629834	-0.3739692242	
557.5	-0.2218213117	-0.2436538035	
558.125	-0.2740831135	-0.09909764903	
558.75	-0.2547807774	0.01438599138	
559.375	-0.2238398195	0.02818907956	
560.0	-0.2652258646	0.1689474541	
560.625	-0.07066211984	0.2827764924	
561.25	-0.01964682942	0.1574928103	
561.875	0.1223337936	0.1774685221	
562.5	-0.04348577677	0.02846925039	
563.125	0.2522981406	0.2446364814	
563.75	0.196744293	-0.1006931265	
564.375	0.3802242257	-0.08335134997	
565.0	0.147869714	-0.49336765	
565.625	-0.1219283841	-0.2199817452	
566.25	-0.1452828313	-0.3051561272	
566.875	-0.4676771918	-0.2071094996	
567.5	-0.2167030522	-0.08172911175	
568.125	-0.2652183974	-0.5731342447	
568.75	-0.6306862532	-0.02103530963	
569.375	-0.4051314716	0.01460747157	
570.0	-0.4696611849	0.6603769909	
570.625	0.1347847306	0.386442632	
571.25	-0.2971744506	0.08956966479	
571.875	0.5030132703	0.266749221	
572.5	-0.06771136444	0.07340831179	
573.125	0.5273777137	-0.3078468989	
573.75	-0.1473523158	-0.4223133809	
574.375	0.1887998715	0.1193418785	
575.0	-0.02137184724	-0.4209603874	
575.625	0.1412150793	0.1477254325	
576.25	0.3135536872	-0.4576066454	
576.875	-0.2915575606	-0.3095511779	
577.5	0.1747010229	-0.1112864203	
578.125	0.00726015184	-0.601226707	
578.75	-0.3998113539	-0.2065664627	
579.375	-0.005166886532	-0.02764983361	
580.0	-0.233461281	-0.2979053163	
580.625	0.008282074283	0.1395636701	
581.25	-0.4700033253	-0.01583718312	
581.875	0.1909771313	0.5528429666	
582.5	0.1982437735	-0.03207914662	
583.125	-0.2183478487	0.3834096655	
583.75	0.569367321	-0.1117597657	
584.375	-0.3604783754	0.3082866085	
585.0	0.6139564319	0.08942639635	
585.625	-0.02407628182	-0.08375431704	
586.25	0.6594865569	0.05382459947	
586.875	-0.1321810215	-0.4673156492	
587.5	0.1809480875	-0.1117636292	
588.125	0.02521618506	-0.5900222753	
588.75	-0.2120255382	-0.3297879554	
589.375	0.3459636779	-0.04007782071	
590.0	-0.1478976634	-0.629703635	
590.625	-0.389730022	0.03499220901	
591.25	-0.2668074455	0.08732645944	
591.875	-0.2160643854	0.4004982024	
592.5	0.1062744417	-0.06121135901	
593.125	-0.09135846465	0.2418143101	
593.75	0.134799234	0.1237116262	
594.375	0.1095403282	0.3951939102	
595.0	0.7106443313	0.4589795789	
595.625	0.2536617928	-0.2806431273	
596.25	0.2090020055	0.5256822464	
596.875	0.6966964165	-0.08825496958	
597.5	-0.005949927854	0.13092525	
598.125	0.564207092	0.5319017892	
598.75	0.2646580569	-0.06455880784	
599.375	0.5586369367	0.2782035699	
600.0	0.3842644763	-0.6117399619	
600.625	0.1279307198	-0.2927859016	
601.25	0.3480264146	-0.3155123485	
601.875	-0.2533180312	-0.4429755131	
602.5	-0.2442911751	0.001613465521	
603.125	-0.1970007275	0.09679970882	
603.75	-0.3469781665	0.09112144815	
604.375	-0.1289510477	0.2956601104	
605.0	-0.2138176266	-0.01661921196	
605.625	-0.2124204218	0.3242995889	
606.25	-0.1263284239	-0.05752287095	
606.875	-0.7262689429	0.2479323837	
607.5	0.03930652706	0.4339209355	
608.125	-0.4694173043	0.3545286697	
608.75	0.860201934	0.5031599911	
609.375	0.143010918	-0.06635466855	
610.0	0.6713140207	-0.1908017005	
610.625	-0.0821501564	-0.4726617912	
611.25	0.3105516007	-0.1880964216	
611.875	-0.4565825286	-0.2948513948	
612.5	-0.08872818786	-0.2211132901	
613.125	-0.6273959405	0.02189778612	
613.75	0.1068080447	0.2226350497	
614.375	-0.09567380515	0.4559512783	
615.0	0.2217264426	-0.1216726459	
615.625	-0.2416719695	0.3642194782	
616.25	0.2959419946	0.3228732474	
616.875	-0.437666352	0.1726415284	
617.5	-0.1573944733	0.8138545436	
618.125	0.1642631715	0.2624210678	
618.75	-0.1981906644	0.5842056146	
619.375	0.4150528719	0.2934600874	
620.0	0.2698314663	0.2030761839	
620.625	0.2866464413	-0.4802772861	
621.25	-0.1285187088	-0.3144071371	
621.875	-0.5632183333	-0.2633526321	
622.5	-0.362482366	0.1603510736	
623.125	-0.2194160516	0.3791978679	
623.75	0.4427003885	-0.1041974348	
624.375	0.06752343662	0.2018384061	
625.0	-0.04973348118	-0.3831740232	
625.625	0.2410523696	0.1009007504	
626.25	-0.2038402298	-0.6469771079	
626.875	-0.3176233375	0.1260341964	
627.5	-0.1715322865	-0.4036770281	
628.125	-0.4715999484	-0.0341599195	
628.75	0.06864370231	-0.1583325405	
629.375	-0.2955079933	-0.5760640524	
630.0	-0.3414607001	0.05142326837	
630.625	-0.5172812384	-0.07933652587	
631.25	-0.4373067727	0.5577920668	
631.875	0.08811001386	0.5242686016	
632.5	0.2897661345	0.3587020745	
633.125	0.3801424618	0.255149773	
633.75	0.4883819048	-0.3126250712	
634.375	0.05817074384	-0.1264854697	
635.0	0.07211566143	-0.5061435348	
635.625	-0.3490949529	0.06908021314	
636.25	-0.4526859352	-0.07940197541	
636.875	-0.08705457341	0.5507226988	
637.5	0.07496695169	-0.05465715205	
638.125	-0.5943367835	0.3405971626	
638.75	0.3890982297	0.4246843264	
639.375	-0.3247619369	0.2526492999	
640.0	0.3440286042	0.8844726406	
640.625	0.6854107853	0.05451968077	
641.25	0.279868903	0.1448298891	
641.875	0.5974993659	-0.7944657742	
642.5	-0.1971134613	-0.1454253702	
643.125	-0.07372420576	-0.573274076	
643.75	-0.7139367978	0.06713588663	
644.375	0.1064131098	-0.1297075089	
645.0	-0.6787416478	0.3616868844	
645.625	0.3384184342	0.5967193622	
646.25	0.3100622045	-0.1377098712	
646.875	0.1382337726	0.4084607964	
647.5	0.1849785884	-0.5111883696	
648.125	0.3082115024	0.5889196314	
648.75	0.8291975049	-0.5489766218	
649.375	-0.03758028444	-0.2976140133	
650.0	1.145118294	-0.5100958774	
650.625	-0.07699283072	-1.321016228	
651.25	-0.02610208031	0.0487153694	
651.875	1.243844409	-0.2022178503	
652.5	0.4709113318	-0.8432708832	
653.125	0.220224004	0.1656321787	
653.75	0.7613432705	-0.8445100111	
654.375	-0.5577857777	-0.3998899429	
655.0	-0.2123141603	-0.437627243	
655.625	-0.8752580996	0.7274103797	
656.25	0.5015234655	0.1174378428	
656.875	-0.2515133582	0.2113816549	
657.5	0.3932959943	0.3170905084	
658.125	0.1574116174	0.0477625458	
658.75	0.6896534335	0.5966396301	
659.375	0.7233527885	-0.7191572433	
660.0	0.2674711217	-0.448110217	
660.625	0.6992536304	-0.6698929881	
661.25	0.004950856179	-1.191344439	
661.875	0.241446351	-0.006895977896	
662.5	1.132510129	-0.5005654099	
663.125	0.3207738973	-0.9044656379	
663.75	0.2423489593	-0.1318272052	
664.375	-0.02235382025	-1.230470674	
665.0	-0.6045478153	0.05357334243	
665.625	-0.7635682258	-0.2150447371	
666.25	-0.1263815431	0.9998859512	
666.875	0.2308165435	0.04276213339	
667.5	0.405977446	0.5459365741	
668.125	0.6795093255	-0.2655430065	
668.75	0.1350922531	-0.3069093826	
669.375	0.4172105327	-0.3377940379	
670.0	-0.07558675582	-0.7659100379	
670.625	-0.05115963855	-0.1603827625	
671.25	0.2807881641	-0.4803846568	
671.875	0.1093671539	-0.5418375357	
672.5	0.3874033476	-0.05102848533	
673.125	0.6584496479	-0.6352958335	
673.75	-0.03656174146	-0.6128541893	
674.375	0.242409526	-0.1909964742	
675.0	-0.07242767904	-0.9956667596	
675.625	-0.8409671792	0.2197909879	
676.25	0.0451393196	-0.4854084947	
676.875	-0.780330713	0.3395086921	
677.5	0.1603244574	-0.05913980379	
678.125	-0.8578461093	0.4871822557	
678.75	0.6344852409	0.2336024454	
679.375	0.141546786	0.3642352749	
680.0	0.6635106478	-0.1437809303	
680.625	-0.04822238819	-0.5763960229	
681.25	-0.01940531746	0.4386657719	
681.875	0.7063546988	0.0359595401	
682.5	0.3955665866	-0.02768596011	
683.125	0.3331089331	0.1249996961	
683.75	0.873200291	0.3923284624	
684.375	0.4620903937	-0.3339073033	
685.0	0.4515843878	0.3943802976	
685.625	1.110685022	-0.1179638045	
686.25	-0.02803722809	-0.4193377771	
686.875	1.432126494	0.2752096431	
687.5	-0.0759057497	-1.675535954	
688.125	0.3579142716	-0.1423902296	
688.75	-1.388932044	-0.9762133725	
689.375	-0.005370532279	1.211176374	
690.0	-0.5140844095	0.6023641717	
690.625	1.222972767	0.5357473729	
691.25	0.2597767825	0.3910637435	
691.875	1.187837798	1.09613624	
692.5	1.531970648	0.05590377445	
693.125	1.252171896	0.02177857882	
693.75	1.382299966	-0.6489217923	
694.375	0.9520878418	-0.8895890352	
695.0	1.09541985	-0.9072144042	
695.625	0.7713775608	-0.3046100499	
696.25	1.461507606	0.7042272248	
696.875	1.28318024	0.12234263	
697.5	0.4095817363	1.208335749	
698.125	2.087701463	0.166838561	
698.75	0.1951986467	-0.6289254495	
699.375	-0.8554634336	-1.610985404	
700.0	-0.2492021344	1.392622548	
700.625	-0.3414398905	0.2720910171	
701.25	1.10952992	0.5950752594	
701.875	0.1918602193	0.2378251257	
702.5	0.9143266945	0.9812339865	
703.125	0.9560246121	-0.2654543801	
703.75	0.8267199198	0.1741982766	
704.375	0.699104586	-0.91118452	
705.0	0.1809790004	-0.1013132358	
705.625	1.243645545	0.07276691639	
706.25	0.2612969946	-0.1908907699	
706.875	0.2697605072	1.067312479	
707.5	1.369134832	0.5821311109	
708.125	0.5226889822	0.2539875046	
708.75	0.9779800389	-1.226483543	
709.375	-0.9640442915	-0.201014884	
710.0	-0.5782223852	0.2544768816	
710.625	0.4509036506	0.5655574141	
711.25	0.0001416374596	0.1192542104	
711.875	0.6200809966	0.3453141326	
712.5	0.599262648	-0.08098242322	
713.125	0.7669787567	-0.6021690635	
713.75	-0.0332434451	-0.4203563556	
714.375	0.3727362423	-0.6507223323	
715.0	-0.5262078536	-0.4455245572	
715.625	0.4092485938	-0.1249493007	
716.25	0.4236023567	-1.306596807	
716.875	-0.04388573546	-0.006169780996	
717.5	2.033966155	0.5582598016	
718.125	2.116189258	-1.72785312	
718.75	0.09015942178	1.079841514	
719.375	3.741198802	-1.896116186	
720.0	-0.6045957344	-1.845956427	
720.625	0.9820979417	-1.65140812	
721.25	-0.6710380178	-3.846039153	
721.875	-1.0545505	-1.031660236	
722.5	-1.46021719	-2.619585642	
723.125	-2.319875935	0.2524690237	
723.75	-0.2909328563	0.9420630174	
724.375	-0.2846667632	1.046843405	
725.0	0.7952226422	1.123266527	
725.625	0.677566518	0.5705642658	
726.25	-0.4261543115	1.349684708	
726.875	-0.2316433409	3.313087303	
727.5	1.973002716	1.853059777	
728.125	-3.659862156	5.041854403	
728.75	6.996135123	11.34909845	
729.375	1.363330236	1.341738526	
730.0	-6.76077774	15.16568509	
730.625	15.2546958	0.1993603513	
731.25	-5.863154418	2.722935071	
731.875	-10.41018433	10.40705217	
732.5	-6.452907139	9.787447369	
733.125	-2.788687617	-0.7890551272	
733.75	-2.797964795	5.542657097	
734.375	1.95897534	-0.008557803732	
735.0	0.524247538	-0.7938074299	
735.625	-2.099155084	0.9795955134	
736.25	0.2230798904	0.04935470137	
736.875	0.6601883079	2.1467928	
737.5	3.418737338	0.214468933	
738.125	3.166515815	-3.394286254	
738.75	0.5024744731	0.8304753021	
739.375	12.26185214	-5.360831766	
740.0	-1.170045453	-13.53940434	
740.625	-1.730280752	12.0774266	
741.25	14.82141021	14.62434856	
741.875	5.808065281	-13.39636838	
742.5	-8.688906429	-13.92125888	
743.125	-6.301783451	-2.90159666	
743.75	2.198023098	-0.8125428982	
744.375	-2.282829872	-0.7236147012	
745.0	0.7050605705	0.01428419349	
745.625	0.2303859334	0.2337334676	
746.25	-0.2693919846	-0.5065729626	
746.875	-0.07398305764	-0.1036674311	
747.5	-0.4951973668	0.9968424324	
748.125	0.5519913012	1.08791029	
748.75	0.4994602488	0.945450215	
749.375	-0.07709429732	1.725878648	
750.0	-0.6931169414	0.1797593298	
