!Created with skrf (http://scikit-rf.org).
# GHz S RI R (50+0j) 
!freq	ReS11	ImS11	
500.0	-0.2813697096	-0.7920869018	
500.625	0.8346970454	-0.8896056691	
501.25	-0.7725814254	-0.7585058069	
501.875	-0.03886616018	-0.1756193783	
502.5	-0.01868296687	-0.2315096128	
503.125	-0.05615307179	0.06056207462	
503.75	-0.04491117595	0.05135998766	
504.375	0.05643809048	-0.02059401862	
505.0	-0.007512168865	0.004566493858	
505.625	0.02511808645	-0.1124423296	
506.25	-0.1287606895	0.01832566924	
506.875	-0.2060059734	-0.2964681862	
507.5	-0.5049927927	-0.3219093655	
508.125	0.3368624923	-0.3167716235	
508.75	0.8273461328	-1.30808171	
509.375	-0.8497751655	-1.633106705	
510.0	-0.1252928669	-0.3093003228	
510.625	-0.2037155338	-0.2935910422	
511.25	-0.09487385604	0.02464249736	
511.875	-0.06018948247	-0.1046951859	
512.5	-0.004879877247	0.06194144075	
513.125	-0.01221923306	-0.02525502354	
513.75	-0.02369523675	-0.1278416794	
514.375	-0.1404527425	0.0646108847	
515.0	0.3134544726	-0.148835997	
515.625	-0.4915851576	-0.4382438381	
516.25	0.4466219795	-0.5905081046	
516.875	-0.296633075	-0.8644239857	
517.5	-0.1927543465	-0.1301792556	
518.125	0.0571849757	-0.06882211072	
518.75	-0.09065811562	-0.05128924849	
519.375	-0.0289994294	0.006990188036	
520.0	0.1257190014	0.09629491438	
520.625	0.2097710196	-0.1169050335	
521.25	-0.0263646207	-0.3090907396	
521.875	-0.1136614784	-0.1374365289	
522.5	-0.09139201065	0.1203039517	
523.125	-0.01475087597	-0.1176061632	
523.75	-0.2509171667	-0.01956480321	
524.375	-0.02285091555	0.1169091708	
525.0	-0.1821359476	0.05273144985	
525.625	0.1253495	0.1305469783	
526.25	-0.1076511023	-0.03735049929	
526.875	0.006732359382	0.1119499946	
527.5	-0.100804843	0.1031554121	
528.125	-0.03756772669	0.3848720439	
528.75	-0.01222479144	0.1219849743	
529.375	-0.04132882854	0.03911834861	
530.0	0.06225619368	0.2004952786	
530.625	0.1494895434	0.260896606	
531.25	0.4150237241	0.3503827383	
531.875	0.2650174552	-0.3437000084	
532.5	-0.1316946401	0.009303358429	
533.125	0.08909384779	-0.2242441338	
533.75	-0.03176307015	-0.07403522653	
534.375	0.01792187796	-0.4169760258	
535.0	-0.3098937461	-0.04032676716	
535.625	-0.1358141233	0.03782962898	
536.25	-0.02828474586	0.1318787327	
536.875	0.1046616873	-0.03117967895	
537.5	0.06781139562	0.003048190448	
538.125	0.1560742243	-0.1153879141	
538.75	0.07327030419	-0.112384141	
539.375	-0.02350639311	-0.2089976769	
540.0	-0.2093141635	-0.1721659636	
540.625	-0.1489472616	0.01063410471	
541.25	-0.1124109035	-0.06401043934	
541.875	-0.0796066067	0.04949077253	
542.5	0.02220100761	-0.06054911628	
543.125	-0.1411692213	-0.09111577461	
543.75	-0.01781066998	0.04477919838	
544.375	-0.1104520946	0.01093267281	
545.0	0.05419361362	0.07497957696	
545.625	-0.01552615248	0.07558092567	
546.25	0.1809014298	0.07852347636	
546.875	0.06623103083	-0.05325019674	
547.5	0.1372273385	-0.09172899698	
548.125	-0.09828733828	-0.2253515865	
548.75	-0.09527680139	-0.06584766917	
549.375	-0.09670251195	-0.1315561062	
550.0	-0.1123391409	0.04941714794	
550.625	-0.02649341625	-0.03478807651	
551.25	-0.1199396805	0.04070477112	
551.875	-0.04390471953	0.05908686508	
552.5	-0.07786334706	0.0618895827	
553.125	0.002169014869	0.0770764749	
553.75	0.03127821672	0.05317665495	
554.375	0.1147986353	0.001844303209	
555.0	0.0990622014	-0.07845944658	
555.625	0.105108891	-0.1090457469	
556.25	0.0808523823	-0.1563773847	
556.875	-0.03623087007	-0.1749613223	
557.5	-0.1019946755	-0.1142731365	
558.125	-0.1276763887	-0.05157875422	
558.75	-0.1263503038	-7.651784779e-06	
559.375	-0.11213298	0.02125326878	
560.0	-0.1218140929	0.07443300555	
560.625	-0.04578931705	0.1343986348	
561.25	-0.004443142058	0.07242489819	
561.875	0.03395897163	0.0840839228	
562.5	0.007457212845	0.02065549855	
563.125	0.07092134141	0.1248078986	
563.75	0.173129964	-0.03406913803	
564.375	0.1153834544	-0.05705118349	
565.0	0.1478761029	-0.1789586082	
565.625	-0.07567173061	-0.1483859019	
566.25	-0.02743178509	-0.1057631458	
566.875	-0.2048978829	-0.1256736731	
567.5	-0.1231793377	-0.05306763491	
568.125	-0.0949763697	-0.2464667328	
568.75	-0.3252604276	-0.04001438543	
569.375	-0.1689291582	0.07059494028	
570.0	-0.2253337307	0.2053385481	
570.625	0.01385889333	0.2452555769	
571.25	-0.0460262709	0.0258749997	
571.875	0.1170150981	0.1541962276	
572.5	0.0627888019	-0.0567365337	
573.125	0.1871605991	-0.03968846433	
573.75	0.03278426452	-0.2313183611	
574.375	-0.04459043771	0.01043211178	
575.0	0.1186594767	-0.09211804223	
575.625	-0.05361253167	-0.05382991748	
576.25	0.1380615859	-0.04803422776	
576.875	-0.03663444387	-0.2442652343	
577.5	-0.06075919299	-0.09517963506	
578.125	0.0518074915	-0.1753967657	
578.75	-0.1954514876	-0.2657480715	
579.375	-0.09010080951	0.05771235239	
580.0	-0.005458703678	-0.1329057618	
580.625	-0.1331176458	0.09485811879	
581.25	-0.06749408439	-0.08777781543	
581.875	-0.05054402864	0.2986099434	
582.5	0.1736391678	0.1086635684	
583.125	-0.05044681902	0.05947987541	
583.75	0.1324198086	0.1038747218	
584.375	-0.07713616657	-0.03144185877	
585.0	0.1641083164	0.1792013382	
585.625	0.1642111567	-0.11477087	
586.25	0.09321598549	0.01860047695	
586.875	0.1761818111	-0.1837242502	
587.5	-0.1116093138	-0.1379753084	
588.125	0.06673230029	-0.09223747224	
588.75	0.05284191118	-0.2562909078	
589.375	-0.0468527155	-0.1244038188	
590.0	0.06818816509	-0.2033373325	
590.625	-0.3250997567	-0.005875587575	
591.25	-0.04554850993	0.09288958636	
591.875	-0.2073916378	0.1126077415	
592.5	0.111267319	0.1228500795	
593.125	-0.1666217379	0.02144014867	
593.75	0.171139196	0.1675814648	
594.375	0.03329628791	0.07384078303	
595.0	0.1568017872	0.2054220344	
595.625	0.2855234991	0.03410089717	
596.25	0.06392905547	0.001478321816	
596.875	0.2540283161	0.09395509742	
597.5	0.2048718566	0.006539057439	
598.125	0.08658958761	0.1398969017	
598.75	0.255160857	0.1369056224	
599.375	0.1900902058	-0.09836145711	
600.0	0.1848135812	-0.06437038252	
600.625	0.2054167425	-0.2322356814	
601.25	-0.03179862012	-0.219592486	
601.875	0.05694680167	-0.1047081353	
602.5	-0.2497914156	-0.04542523821	
603.125	-0.01843290512	0.08701124369	
603.75	-0.1593134296	-0.02382742708	
604.375	-0.09901284625	0.2353947043	
605.0	0.02265905302	0.00415780179	
605.625	-0.1894436438	0.08142077222	
606.25	-0.006165240453	0.04523201951	
606.875	-0.2256009791	0.02708103843	
607.5	-0.1475887832	0.2332743827	
608.125	0.06617831536	0.2007530831	
608.75	0.0766018009	0.2308296766	
609.375	0.2951362679	-0.02484654077	
610.0	0.08967819748	-0.1720404486	
610.625	0.174544751	-0.0714800421	
611.25	0.01084162997	-0.2698536375	
611.875	-0.08178480643	-0.03091311385	
612.5	-0.1584158168	-0.2048370563	
613.125	-0.2639091549	0.1605485694	
613.75	-0.02840921173	0.02478182295	
614.375	-0.02831775952	0.2235779943	
615.0	0.08200262207	-0.07925787864	
615.625	-0.1491503794	0.1012359882	
616.25	0.01809874233	0.2856085906	
616.875	-0.02139788872	0.09353249979	
617.5	-0.01275933878	0.310716707	
618.125	0.0323803501	0.327615125	
618.75	0.06116719381	0.08136200116	
619.375	0.01050250353	0.2869629138	
620.0	0.315737659	0.1570136794	
620.625	0.09164499254	-0.09584891177	
621.25	0.01153804207	-0.2395616149	
621.875	-0.285809531	-0.01227082809	
622.5	-0.05684759116	0.07777927715	
623.125	-0.1343464557	0.2421842272	
623.75	0.2044543639	-0.01374553141	
624.375	-0.006402227165	0.03071178425	
625.0	0.1031269734	-0.1169840123	
625.625	0.006868926673	-0.01015750334	
626.25	0.01763241811	-0.2150086279	
626.875	-0.2188888555	-0.06909617345	
627.5	-0.08185214787	-0.02149758393	
628.125	-0.132441665	-0.1254395624	
628.75	-0.1345995797	-0.07869865916	
629.375	-0.07647001145	-0.1368687731	
630.0	-0.2629905353	-0.1770819205	
630.625	-0.2477742619	0.1320261189	
631.25	-0.1955635989	0.1099025808	
631.875	-0.1475611873	0.3204786753	
632.5	0.2391709309	0.1974140934	
633.125	0.08287571091	0.0657242471	
633.75	0.2904543913	-0.0417646367	
634.375	-0.04121297037	-0.1559728737	
635.0	0.09338858583	-0.1610864623	
635.625	-0.2698888426	-0.1285555779	
636.25	-0.08070988564	0.08559925729	
636.875	-0.1842569489	0.07969919698	
637.5	0.01080510881	0.2132450166	
638.125	-0.08498102101	-0.0194088336	
638.75	-0.1584535821	0.2658738098	
639.375	0.09716267445	0.2476446351	
640.0	0.03326062184	0.2163812189	
640.625	0.3180716855	0.2776603921	
641.25	0.4024549434	-0.08509638666	
641.875	0.1570561527	-0.07867793447	
642.5	0.1562968482	-0.3399394967	
643.125	-0.2522313363	-0.01357635701	
643.75	0.03293839471	-0.209869228	
644.375	-0.3252295103	0.04155789099	
645.0	0.08423499902	0.1311898729	
645.625	-0.1176124069	0.3050882666	
646.25	0.4595317535	0.02726577267	
646.875	-0.05600391294	-0.06165599141	
647.5	0.181831545	0.1412061021	
648.125	0.09399458582	-0.0819987483	
648.75	0.2698928433	0.1907451388	
649.375	0.3450304715	-0.4190522706	
650.0	0.03477042881	-0.2488666522	
650.625	0.3149844964	-0.169447487	
651.25	0.3115461459	-0.4475397498	
651.875	0.09253289823	-0.1299585834	
652.5	0.3988925088	0.07618174924	
653.125	0.4130252559	-0.2225206981	
653.75	0.04575797221	-0.2006624832	
654.375	0.1708969602	-0.3742398569	
655.0	-0.4858570866	-0.09851989821	
655.625	-0.07367893167	0.1141166481	
656.25	-0.2518300649	0.1910109506	
656.875	0.2410014921	0.08925250688	
657.5	-0.1668573552	0.1147785895	
658.125	0.3591151475	0.2673198595	
658.75	0.2298772319	-0.0227179699	
659.375	0.3745661289	0.08811793405	
660.0	0.402603304	-0.4622076629	
660.625	-0.01385826273	-0.2777929	
661.25	0.3037201853	-0.199601488	
661.875	0.3241561059	-0.3955022394	
662.5	0.1514775321	-0.230068316	
663.125	0.3983459707	-0.02670888025	
663.75	0.1971399882	-0.4365933099	
664.375	-0.02247116109	-0.2281508921	
665.0	-0.2028455154	-0.3668016945	
665.625	-0.4361480345	0.1570449977	
666.25	0.006820764588	0.1690847564	
666.875	-0.008022389395	0.3209060014	
667.5	0.2864652849	0.06961550082	
668.125	0.1111273628	0.03120645137	
668.75	0.4643207017	-0.1171998225	
669.375	0.0006277761201	-0.2942676026	
670.0	0.07640191343	-0.1347427355	
670.625	0.08640743682	-0.3352792222	
671.25	-0.1011972406	-0.1589980092	
671.875	0.2588178263	-0.0501997265	
672.5	0.2842292189	-0.2738002905	
673.125	0.1324357803	-0.1456427808	
673.75	0.2758727513	-0.1156289588	
674.375	0.1028966355	-0.4312434387	
675.0	-0.1183309961	-0.1261050459	
675.625	-0.09553238534	-0.2795734905	
676.25	-0.2952888342	-0.004923178091	
676.875	-0.04081947173	0.06129806467	
677.5	-0.2573775549	-0.1342422618	
678.125	-0.120689519	0.2899141157	
678.75	-0.04028972611	0.0709081344	
679.375	0.2238278746	0.3097303998	
680.0	0.1908298443	-0.2854640887	
680.625	-0.002213909036	0.2107472173	
681.25	0.2709057324	-0.05423227002	
681.875	-0.1392031531	-0.06237889135	
682.5	0.0825194981	0.3212134019	
683.125	0.5044391221	0.09583901498	
683.75	0.04528907327	-0.002422873588	
684.375	0.3487765858	0.2182002564	
685.0	0.3954154185	-0.04172840261	
685.625	0.1074251089	-0.0878392065	
686.25	0.5009256318	0.137160976	
686.875	0.3148095322	-0.3229831895	
687.5	0.2560384416	-0.1458535775	
688.125	0.2294042718	-0.5680501746	
688.75	-0.5678899851	-0.181141902	
689.375	-0.2138559673	0.09097870873	
690.0	-0.1280684396	0.5760216694	
690.625	0.3890935733	0.1738845014	
691.25	0.03867312991	0.3361928829	
691.875	0.6672778373	0.5493658356	
692.5	0.3490914446	-0.005408130646	
693.125	0.6170200481	0.2269318922	
693.75	0.868867913	-0.2545053884	
694.375	0.2250758314	-0.2814646486	
695.0	0.5714889096	-0.004187174374	
695.625	0.38652735	-0.242317599	
696.25	0.4242503218	0.1052920124	
696.875	0.1518860964	0.550931326	
697.5	0.4815811861	0.6640334358	
698.125	0.533798853	0.293652272	
698.75	0.6692515636	-0.1754183649	
699.375	-0.3521493256	-0.6520899833	
700.0	-0.1854768026	0.3640300433	
700.625	-0.1434476999	0.2738999701	
701.25	0.4346970193	0.1945077196	
701.875	0.1160020141	0.1535471967	
702.5	0.331808514	0.4586196387	
703.125	0.5347555739	-0.04081244304	
703.75	0.2229948668	-0.03426885185	
704.375	0.471124187	-0.1087242536	
705.0	0.1821729901	-0.2297600532	
705.625	0.1375224637	0.08908727813	
706.25	0.2929148389	0.2036380168	
706.875	0.2912817466	0.1853714833	
707.5	0.1911579872	0.4072958898	
708.125	0.554491935	0.3521857017	
708.75	0.6018483338	-0.4741815102	
709.375	-0.06204594132	-0.2903327609	
710.0	-0.4188866857	0.2162928911	
710.625	0.1720673052	0.131913827	
711.25	-0.1997098757	0.1609041476	
711.875	0.378973685	0.1316276714	
712.5	0.1484339074	-0.04431323843	
713.125	0.4136974867	-0.05462048734	
713.75	0.1680661509	-0.3646579154	
714.375	-0.0286643254	-0.144284028	
715.0	0.1306657529	-0.280088409	
715.625	-0.09037052999	-0.2819971906	
716.25	0.1541751878	-0.1149739255	
716.875	0.5423994932	-0.142468625	
717.5	0.4970840736	-0.2118611586	
718.125	0.4638918882	0.3153959803	
718.75	1.172697363	0.06162182334	
719.375	1.070611768	-0.6869381997	
720.0	0.7376055862	-0.2446156469	
720.625	0.5695253333	-1.500906317	
721.25	-0.1971698764	-0.6592522442	
721.875	0.6594893336	-0.8772824213	
722.5	-0.6729555224	-1.185479244	
723.125	-0.7907871217	0.1425053746	
723.75	-0.625069184	0.1020067047	
724.375	0.08215432552	0.8332941124	
725.0	0.1500471822	0.1868842782	
725.625	-0.02220872956	0.6233655937	
726.25	0.1832581447	0.8954689605	
726.875	0.02236410096	0.6153280163	
727.5	-0.7552824088	1.50546046	
728.125	0.1371582289	2.501328932	
728.75	0.3317067616	1.839295946	
729.375	-2.843019579	3.72947477	
730.0	-0.2659718486	5.801254161	
730.625	-0.2532959137	2.70049453	
731.25	-3.724469843	4.09565849	
731.875	-3.052485923	4.08142907	
732.5	-1.08804333	0.09948269766	
733.125	-3.859757888	-1.352896643	
733.75	-0.928913588	1.668280028	
734.375	0.3531531549	0.4344759742	
735.0	0.8889339641	-0.9943995611	
735.625	-0.492851378	0.4541083048	
736.25	-0.3558136855	0.2865493848	
736.875	0.4654529655	0.9651039247	
737.5	1.190966904	-0.1637915845	
738.125	0.9115838022	0.4049552457	
738.75	3.189392341	-1.27687946	
739.375	1.147523157	-2.890644608	
740.0	1.208722323	0.9903708492	
740.625	6.069546943	2.108087865	
741.25	3.442181485	-1.562066922	
741.875	-4.05441561	-4.450421164	
742.5	-3.246354369	-3.801740384	
743.125	-0.969427088	-0.1005174305	
743.75	0.9668386543	-1.056162814	
744.375	-0.9915840384	-0.1509545366	
745.0	0.07628361497	-0.02350391725	
745.625	0.2195255718	0.06609379624	
746.25	-0.08711110315	-0.04637124409	
746.875	-0.2366681442	-0.1223799107	
747.5	-0.1757254592	0.4363614939	
748.125	0.1178188471	0.3959315435	
748.75	0.07648225156	0.524320359	
749.375	0.1520971989	0.6743472693	
750.0	-0.2197853981	0.10927676	
