!Created with skrf (http://scikit-rf.org).
# GHz S RI R (50+0j) 
!freq	ReS11	ImS11	
500.0	-0.3678804951	-1.162841746	
500.625	0.04679716381	-0.3101330225	
501.25	-0.08395793401	-0.7851960487	
501.875	-0.4175371818	-0.1895750789	
502.5	0.004887660926	-0.05886482943	
503.125	-0.09462149616	-0.01030468023	
503.75	0.06082349437	0.03339562688	
504.375	0.0391949948	0.02496544079	
505.0	-0.01059453954	-0.04537894811	
505.625	0.04734003981	-0.01483372062	
506.25	-0.1512224395	-0.06325834862	
506.875	0.1048487358	-0.07198901447	
507.5	-0.09244803611	-0.5993853973	
508.125	-0.2349112735	-0.396982331	
508.75	0.4851936348	-0.3089968146	
509.375	0.01884379079	-1.23795516	
510.0	-0.4633294585	-0.1069366856	
510.625	0.01147190582	-0.1103944613	
511.25	-0.1481168731	-0.01233650275	
511.875	-0.04713814479	-0.005810115361	
512.5	-0.04240286012	0.03677007395	
513.125	-0.0571765478	-0.04740672861	
513.75	0.01097596169	-0.0102702919	
514.375	-0.07784552428	-0.09093414417	
515.0	0.01159270385	0.2367730909	
515.625	-0.1796454954	-0.9240760123	
516.25	-0.391144605	-0.02951183214	
516.875	0.1579974453	-0.4021057297	
517.5	-0.1492428964	-0.2097611371	
518.125	0.05140553109	-0.02582288137	
518.75	-0.09543087799	-0.1610119267	
519.375	-0.0295153609	0.03690947859	
520.0	0.05521388325	0.0314912968	
520.625	0.1372319833	-0.04852816287	
521.25	-0.02182166957	-0.2115592315	
521.875	-0.09995898335	0.01886106446	
522.5	-0.05871314279	-0.008295946418	
523.125	-0.04623672865	0.107996961	
523.75	-0.06922446067	-0.09872560957	
524.375	-0.2499220967	0.1371415956	
525.0	0.04453578758	0.02438283053	
525.625	-0.04721065898	0.0715564318	
526.25	0.02512334325	-0.0874253458	
526.875	-0.08474316898	0.09649053445	
527.5	0.05726926273	0.1503999881	
528.125	-0.04564339023	0.1976532543	
528.75	0.08078584737	0.2287147342	
529.375	0.01094362996	0.0295390164	
530.0	0.07229458364	0.1363829879	
530.625	0.1310747942	0.2504034161	
531.25	0.4788189538	-0.1447863199	
531.875	0.1531187286	-0.05396843353	
532.5	-0.1004516419	-0.1532330181	
533.125	0.08211085485	0.07835692267	
533.75	0.04858964078	-0.2958439746	
534.375	-0.07153836316	-0.1198905432	
535.0	-0.2156108637	-0.1490714095	
535.625	-0.102108417	0.1703120455	
536.25	-0.01662188026	0.04951488825	
536.875	0.1057070753	0.0343286968	
537.5	0.03283754867	-0.05465355135	
538.125	0.1082220216	-0.00324732582	
538.75	0.1090965571	-0.1109654202	
539.375	-0.06377476272	-0.12138805	
540.0	-0.1206635909	-0.1598334483	
540.625	-0.1628620546	0.001063151984	
541.25	-0.07468957717	0.06584571594	
541.875	-0.01270950737	-0.06125726823	
542.5	-0.1130178924	0.004116049651	
543.125	-0.01376182756	-0.05175890376	
543.75	-0.2075256918	-0.009293566817	
544.375	0.03788720018	0.02580573377	
545.0	-0.050428191	0.07924472401	
545.625	0.1000732503	0.0004100229434	
546.25	0.02338041309	0.07470002263	
546.875	0.1538630569	-0.06604385028	
547.5	0.0110840246	-0.07056678021	
548.125	0.01931925427	-0.1603829919	
548.75	-0.1707684465	-0.1201819893	
549.375	-0.06775163118	-0.0142375968	
550.0	-0.08131529546	-0.03035703398	
550.625	-0.04353195335	0.03919841983	
551.25	-0.05832638721	-0.004822042523	
551.875	-0.07648906663	0.08343042163	
552.5	-0.02293856021	0.05047922274	
553.125	-0.0237101782	0.06096791662	
553.75	0.05318412667	0.02628476599	
554.375	0.0765139851	0.004146543836	
555.0	0.09283723556	-0.07033884538	
555.625	0.06136707129	-0.09877763887	
556.25	0.05548470093	-0.1217508493	
556.875	-0.03504144255	-0.1432280057	
557.5	-0.09579189172	-0.0867021164	
558.125	-0.1008327731	-0.03275356261	
558.75	-0.1013394569	-0.006254559639	
559.375	-0.1017003754	0.02963049034	
560.0	-0.07534244861	0.05976550308	
560.625	-0.06572276619	0.1016433201	
561.25	0.03287983936	0.09900218322	
561.875	0.005376060594	0.02295013544	
562.5	0.0349797469	0.07208018338	
563.125	0.03989071851	0.03653870776	
563.75	0.1485379229	0.03099889799	
564.375	0.09525673308	-0.1274397771	
565.0	0.05724008573	-0.08692091029	
565.625	-0.01097467182	-0.1998864607	
566.25	-0.1427698668	-0.03287626089	
566.875	-0.05243616399	-0.09249011764	
567.5	-0.1982183212	-0.1456363811	
568.125	-0.1154297802	-0.0267488235	
568.75	-0.1691650621	-0.1611870789	
569.375	-0.224825976	0.1905738698	
570.0	-0.04569845237	0.08714880697	
570.625	-0.1535049515	0.190001909	
571.25	0.1043807305	0.1023247041	
571.875	-0.04288194215	0.09821788236	
572.5	0.1999393979	-0.04874074137	
573.125	-0.0318155959	-0.06615791917	
573.75	0.1196255227	-0.03935492398	
574.375	-0.02474921945	-0.1536110617	
575.0	0.01126943548	0.05411074023	
575.625	0.0640700079	-0.1461512697	
576.25	-0.03624041876	-0.06522143883	
576.875	0.09027692866	-0.1066420873	
577.5	-0.03501078388	-0.228086188	
578.125	-0.105465202	-0.03829470283	
578.75	0.04695885885	-0.1167032517	
579.375	-0.1749037835	-0.1665567241	
580.0	0.01588574548	0.1334048654	
580.625	-0.1474361138	-0.15248275	
581.25	-0.01323398597	0.1744790347	
581.875	-0.09308399832	0.02748475394	
582.5	0.02095853383	0.2657688841	
583.125	0.1570496451	-0.0252966654	
583.75	-0.06454535609	0.08762718565	
584.375	0.1336472279	-0.0005862270366	
585.0	-0.01262434591	0.0409463565	
585.625	0.2142882965	0.07431085841	
586.25	0.1162948015	-0.1468841033	
586.875	0.07013503777	-0.03669999537	
587.5	0.01870948912	-0.1919765772	
588.125	-0.0999388762	-0.1003517329	
588.75	0.1022925888	-0.05452405749	
589.375	0.08367996278	-0.2315626989	
590.0	-0.08594081391	-0.05610898291	
590.625	-0.1146075431	-0.1419018013	
591.25	-0.1810619588	0.2332433096	
591.875	0.06649667759	-0.01208274746	
592.5	-0.1127102303	0.09419419089	
593.125	0.07943774902	-0.01860544085	
593.75	-0.03435918265	0.2005433364	
594.375	0.2438648281	0.008563284661	
595.0	0.03718503638	0.04991929868	
595.625	0.1615356978	0.1726687069	
596.25	0.1718847673	-0.03558978018	
596.875	0.04499198744	0.05191879957	
597.5	0.1746963021	0.1380869555	
598.125	0.1626256569	0.03239156423	
598.75	0.09483527834	0.09782269448	
599.375	0.2035921724	-0.03826999473	
600.0	0.1004794486	-0.152910329	
600.625	0.1319780039	-0.07639580098	
601.25	0.1167126409	-0.2157428426	
601.875	-0.1507167089	-0.08164116774	
602.5	-0.01982725491	-0.07907705908	
603.125	-0.1947746708	0.1196781458	
603.75	0.04533326635	0.005688272246	
604.375	-0.1656060449	-0.01671908446	
605.0	0.06201417358	0.1861790686	
605.625	-0.08311131446	-0.08414448865	
606.25	-0.1628084899	0.1403096317	
606.875	-0.05222566494	0.06959824599	
607.5	-0.2296310825	0.1779154789	
608.125	0.02187559039	0.2377384578	
608.75	0.1206072566	0.1651584894	
609.375	0.1924913434	0.02026495737	
610.0	0.1550691489	-0.05629281908	
610.625	0.0413685432	-0.1607721697	
611.25	0.05049117159	-0.09682915093	
611.875	-0.1460331122	-0.1419503824	
612.5	-0.07756436756	0.03496760422	
613.125	-0.2100648389	-0.05813688258	
613.75	-0.05007210684	0.225491706	
614.375	-0.04262263905	-0.02955825837	
615.0	0.1000619944	0.1403948772	
615.625	0.01555892558	-0.02578473582	
616.25	-0.1169391241	0.1757150501	
616.875	0.03695845817	0.1339375634	
617.5	-0.1123822602	0.1744400043	
618.125	-0.03595153905	0.2212761666	
618.75	0.01613797732	0.1387191483	
619.375	0.1817770048	0.2028401827	
620.0	0.07673910693	0.02464983867	
620.625	0.1426462918	-0.168312408	
621.25	-0.08493749317	-0.1153828567	
621.875	-0.0964971351	-0.1692328237	
622.5	-0.2885633843	0.1146429111	
623.125	0.03675563352	0.08548975435	
623.75	0.08306287736	0.1177097824	
624.375	0.02106023597	-0.1387810099	
625.0	0.05002949098	0.05258494675	
625.625	0.04151537559	-0.1523254027	
626.25	-0.03823890392	-0.0431248994	
626.875	-0.1135635031	-0.1365406049	
627.5	-0.1741998798	0.0025387212	
628.125	-0.07844785306	-0.03834345214	
628.75	-0.0572942599	-0.1211086266	
629.375	-0.113184265	-0.1151848755	
630.0	-0.1578051135	-0.02679774212	
630.625	-0.201349282	-0.0371741825	
631.25	-0.1502625122	0.2555992898	
631.875	0.03569858311	0.1478470561	
632.5	0.07638365177	0.2436078499	
633.125	0.2753737021	-0.06875626425	
633.75	0.0641594343	-0.01818134714	
634.375	0.1416066696	-0.1671852767	
635.0	-0.1300677469	-0.06883969793	
635.625	-0.04137298867	-0.1359516529	
636.25	-0.2175062289	0.1449045688	
636.875	0.0401360455	0.08459807003	
637.5	-0.1153501102	0.0395501008	
638.125	0.01426434292	0.1711485936	
638.75	-0.06620945813	0.04049322114	
639.375	-0.03873266613	0.2975040646	
640.0	0.2085439601	0.1928598816	
640.625	0.1611891183	0.05620546206	
641.25	0.2710284733	0.09263247777	
641.875	0.136948536	-0.2912235086	
642.5	-0.02960794134	-0.05853253583	
643.125	-0.08536155841	-0.2362692494	
643.75	-0.214033296	0.1431265991	
644.375	-0.05637082339	-0.1914568279	
645.0	-0.225186761	0.285676081	
645.625	0.1831431333	0.01260058283	
646.25	-0.01120850366	0.2090339103	
646.875	0.2835294392	-0.09788320473	
647.5	-0.1484658868	0.06021135272	
648.125	0.3307058874	0.04472036186	
648.75	0.1096808311	-0.177310189	
649.375	0.210381476	-0.03114496847	
650.0	0.2210743831	-0.4725506809	
650.625	-0.0769641644	-0.2171557435	
651.25	0.2508510203	-0.07631551213	
651.875	0.3117230485	-0.2745711273	
652.5	0.09827245865	-0.1956211206	
653.125	0.2388401185	0.04517311886	
653.75	0.2391504169	-0.3647844291	
654.375	-0.17290757	-0.134574374	
655.0	-0.129619986	-0.2143139072	
655.625	-0.2673197176	0.4263178768	
656.25	0.1390105013	-0.0132871994	
656.875	-0.1064633724	0.2301554708	
657.5	0.2323632382	-0.05644913106	
658.125	-0.09236714052	0.1708245459	
658.75	0.5010000204	0.07764990051	
659.375	0.09377601253	-0.2265597951	
660.0	0.2183771458	-0.1322449954	
660.625	0.2016109918	-0.4161016341	
661.25	-0.08322984498	-0.2864686367	
661.875	0.2642203271	-0.08082101155	
662.5	0.2830392564	-0.3146835997	
663.125	0.0923601529	-0.2028779941	
663.75	0.2073793635	-0.1660915299	
664.375	-0.1238412691	-0.4031295878	
665.0	-0.2109457223	-0.04394249814	
665.625	-0.2827529856	-0.02380052736	
666.25	-0.0975296102	0.3617284203	
666.875	0.1468864054	0.03618102586	
667.5	0.1304139653	0.2297075172	
668.125	0.2689689524	-0.1846228284	
668.75	0.03050797426	-0.03651887141	
669.375	0.2729259697	-0.2570789205	
670.0	-0.2224183774	-0.2309149696	
670.625	0.134335479	-0.04252461238	
671.25	0.07625286215	-0.2818787656	
671.875	-0.0288195144	-0.1385892682	
672.5	0.2202824195	0.003113619206	
673.125	0.224058614	-0.3115964106	
673.75	0.01559689976	-0.1464076421	
674.375	0.1161020016	-0.1864142362	
675.0	-0.1287590194	-0.3123515142	
675.625	-0.1620017704	0.0370328745	
676.25	-0.1190511537	-0.1305915972	
676.875	-0.2141647066	0.07533433922	
677.5	-0.01791266505	0.04958498163	
678.125	-0.2398735876	0.06798244456	
678.75	0.2048444516	0.2720116573	
679.375	0.005058088663	-0.05165437159	
680.0	0.2828384033	0.0466350848	
680.625	0.004584282899	-0.2868695871	
681.25	-0.04729523159	0.2832797014	
681.875	0.4372467262	-0.05499760728	
682.5	-0.002500288973	-0.1041246	
683.125	0.1669687517	0.2432497267	
683.75	0.4490327539	-0.02631041095	
684.375	0.03366065851	-0.1218530656	
685.0	0.3855954045	0.1671638481	
685.625	0.2761766279	-0.1302055042	
686.25	0.1234498492	-0.07699023868	
686.875	0.405257429	-0.03433841266	
687.5	0.06162576438	-0.3372771342	
688.125	-0.01553520743	-0.2664481695	
688.75	-0.3756874044	-0.2632817474	
689.375	-0.2491561307	0.4534965228	
690.0	0.1350362145	0.08979725294	
690.625	0.2288716407	0.4357406893	
691.25	0.4017015434	0.01103013943	
691.875	0.1202805693	0.3369977502	
692.5	0.8363471354	0.2404076893	
693.125	0.2481163063	-0.3118002759	
693.75	0.5740744679	0.01446615827	
694.375	0.4550368867	-0.5462445837	
695.0	0.1612105526	-0.2822451379	
695.625	0.573057545	0.02456398686	
696.25	0.5779738078	0.007356441972	
696.875	0.2752080402	0.2929000379	
697.5	0.4294940432	0.3306506477	
698.125	0.5713987605	0.1573606428	
698.75	0.2595752464	-0.4258791378	
699.375	-0.2520907186	-0.329555241	
700.0	-0.3152596444	0.3512274136	
700.625	0.2907335853	0.1809218086	
701.25	0.07529532127	0.1983389768	
701.875	0.4044947581	0.211690475	
702.5	0.1847883272	0.049984805	
703.125	0.3990054853	0.2124426388	
703.75	0.3375080837	-0.2688758654	
704.375	0.10496569	-0.07030569516	
705.0	0.3429020055	-0.1384228425	
705.625	0.1722103288	-0.1122382471	
706.25	0.2407344041	0.2253552737	
706.875	0.2789320899	0.1612327263	
707.5	0.2494547993	0.2338605004	
708.125	0.4630120217	-0.01898616999	
708.75	0.189747121	-0.1461976333	
709.375	-0.3239215815	-0.3180579928	
710.0	-0.01101047315	0.2218651839	
710.625	-0.1792928992	0.2271006519	
711.25	0.2529493643	-0.0954203744	
711.875	0.05040728044	0.1767969788	
712.5	0.373311377	-0.0726773791	
713.125	0.09760284651	-0.2222131073	
713.75	0.1630988162	-0.1483392989	
714.375	-0.01139022226	-0.2956112682	
715.0	-0.08691415419	-0.09255751579	
715.625	0.08840296783	-0.197451315	
716.25	0.05458498099	-0.2994991296	
716.875	0.1986322343	-0.1738806521	
717.5	0.4647785538	-0.01591685712	
718.125	0.6046948384	-0.08543119147	
718.75	0.4986664909	-0.4039446316	
719.375	0.6082645994	-0.1032257174	
720.0	0.3906951667	-1.578526217	
720.625	-0.249789637	-0.2665801343	
721.25	0.4755614955	-1.154956817	
721.875	-1.0745345	-0.8163352019	
722.5	-0.003041202612	-0.3464310827	
723.125	-0.9478142163	-0.1627173886	
723.75	-0.04080268876	0.5497750347	
724.375	-0.1105980991	0.1957735246	
725.0	0.2710282461	0.5347477224	
725.625	0.2871785651	0.1216533971	
726.25	-0.1389272933	0.5149219146	
726.875	0.04473888696	1.037711695	
727.5	0.4368226851	0.9949579267	
728.125	-0.3577114181	1.188074569	
728.75	0.04314116941	2.81884414	
729.375	0.7959701444	2.667578471	
730.0	-0.9952450279	2.050735422	
730.625	-0.3218926169	5.37548354	
731.25	1.727580248	2.303802591	
731.875	-2.767611998	0.3554565948	
732.5	-3.959646452	1.861897372	
733.125	-0.3901805622	1.574013395	
733.75	-1.599427464	0.5255781846	
734.375	1.467360663	-0.02478948333	
735.0	-0.1294888255	-0.1186035663	
735.625	-0.5664657827	-0.210427981	
736.25	0.421101341	0.6725604071	
736.875	-0.1318414809	0.1870358534	
737.5	1.296687592	0.450029216	
738.125	1.117809659	-1.032252809	
738.75	0.4010348686	-0.7850876505	
739.375	3.179628175	0.241740834	
740.0	2.540979857	-3.979057897	
740.625	-1.043254987	0.4784468808	
741.25	-0.4255428084	5.097242017	
741.875	0.2292743908	2.684644464	
742.5	1.684451895	-2.33330021	
743.125	-0.1424701151	-2.837731978	
743.75	-0.7418045792	-0.5204428273	
744.375	-0.001851538587	-0.217099207	
745.0	0.1358661531	0.3398685741	
745.625	-0.0997559245	0.1069106378	
746.25	-0.002138137725	-0.2162217354	
746.875	-0.1377205206	0.1397995609	
747.5	-0.1460700242	0.1629146324	
748.125	0.2665923866	0.5991679176	
748.75	0.3260153769	0.2659623116	
749.375	0.02637137818	0.3353133881	
750.0	-0.598300777	0.6107930176	
