!Created with skrf (http://scikit-rf.org).
# GHz S RI R (50+0j) 
!freq	ReS11	ImS11	
500.0	0.006419518956	-0.8205562485	
500.625	-0.02078652439	-0.8452241474	
501.25	-0.2958495001	-0.5374540989	
501.875	-0.174862664	-0.345853963	
502.5	-0.0324166087	-0.1157711846	
503.125	-0.05312149045	0.01031345502	
503.75	0.01312901982	0.065486293	
504.375	0.02281388232	-0.006236888811	
505.0	0.0131128713	-0.01976799696	
505.625	-0.002373796442	-0.03843732807	
506.25	-0.04870855855	-0.04448530745	
506.875	-0.09658960909	0.02526741166	
507.5	-0.05896299161	-0.2705400309	
508.125	0.09908579848	-0.4994713631	
508.75	0.3954785625	-0.7621601868	
509.375	-0.04965302985	-0.950736201	
510.0	-0.3638698892	-0.1952994651	
510.625	-0.1075794789	-0.1704053433	
511.25	-0.07402465043	-0.02358402343	
511.875	-0.1076804508	-0.03921142165	
512.5	-0.02061796176	0.03774688065	
513.125	0.003645785064	-0.05063858063	
513.75	-0.04270304704	-0.03403832926	
514.375	-0.02982233609	0.000543032866	
515.0	-0.002955926451	-0.03126652774	
515.625	-0.02914890918	-0.2996407313	
516.25	-0.2241318075	-0.4806752088	
516.875	-0.1576159643	-0.3129411229	
517.5	-0.03711827457	-0.1267780598	
518.125	-0.02877274398	-0.02015033427	
518.75	-0.04136725341	-0.09735356499	
519.375	-0.04598951433	0.03446156837	
520.0	0.08631387232	0.03862476154	
520.625	0.1204882244	-0.05746343391	
521.25	-0.03226944723	-0.194559694	
521.875	-0.1153068217	-0.01748423607	
522.5	-0.0450180268	0.02305233415	
523.125	-0.03949922871	0.02453562665	
523.75	-0.08644966668	-0.01373401755	
524.375	-0.1366201683	0.03226654144	
525.0	-0.0211881731	0.1137060003	
525.625	0.02660074964	0.03286428143	
526.25	-0.0116444016	-0.005096063562	
526.875	-0.03730667098	0.03966614127	
527.5	-0.0406139731	0.1491146201	
528.125	0.05448105332	0.2177537571	
528.75	0.04001789199	0.1668898947	
529.375	0.02664117459	0.04002782517	
530.0	0.03228287719	0.1466444962	
530.625	0.1171966694	0.2313996038	
531.25	0.3200362924	0.06485172269	
531.875	0.1866895558	-0.149098086	
532.5	-0.05929375774	-0.09775326121	
533.125	0.03691388426	-0.03018434206	
533.75	0.0882997425	-0.1590642749	
534.375	-0.100122149	-0.2242037829	
535.0	-0.1999813394	-0.05693314237	
535.625	-0.1265574662	0.0930353836	
536.25	6.793022147e-05	0.08148073137	
536.875	0.08316317634	0.008893816566	
537.5	0.05156629098	-0.03764224786	
538.125	0.09456637544	-0.04688183454	
538.75	0.1092518101	-0.1095911049	
539.375	-0.07477874233	-0.1356960247	
540.0	-0.1431646423	-0.1138392443	
540.625	-0.1333248913	-0.01831416157	
541.25	-0.07709647083	0.001924805616	
541.875	-0.04217827574	-0.01152765079	
542.5	-0.03855648398	-0.03916478565	
543.125	-0.06848834376	-0.03820962319	
543.75	-0.07844917116	0.002514440912	
544.375	-0.03254205702	0.03993993689	
545.0	-0.002323325794	0.0466978037	
545.625	0.04777108675	0.05615200075	
546.25	0.0873047478	0.02459462963	
546.875	0.0957532079	-0.03128063748	
547.5	0.05423412258	-0.1038109725	
548.125	-0.03567104811	-0.1392716208	
548.75	-0.1083750449	-0.1012115292	
549.375	-0.1011373044	-0.05229684819	
550.0	-0.06210963437	0.01068620756	
550.625	-0.04564318615	0.005637701772	
551.25	-0.06661730937	0.02975563985	
551.875	-0.05777633486	0.06028233843	
552.5	-0.03532163395	0.06565137956	
553.125	-0.008466659159	0.05599171068	
553.75	0.04480215	0.03615083595	
554.375	0.08057477437	-0.007680954292	
555.0	0.0844953753	-0.06475769784	
555.625	0.07176811006	-0.09956983083	
556.25	0.04937367547	-0.1281871182	
556.875	-0.04072466282	-0.1361192591	
557.5	-0.09300886374	-0.08751710281	
558.125	-0.1060898692	-0.0328306915	
558.75	-0.09927830305	0.001489639101	
559.375	-0.09928783406	0.02367717878	
560.0	-0.08293707205	0.07140367055	
560.625	-0.04217814943	0.09921063636	
561.25	0.009730854954	0.0870609733	
561.875	0.02775197691	0.04063393927	
562.5	0.01467803574	0.04764768608	
563.125	0.0674236994	0.05911604041	
563.75	0.1221599644	-0.003088434361	
564.375	0.1084074447	-0.08798593052	
565.0	0.05743020003	-0.1329549352	
565.625	-0.03653256089	-0.1396994842	
566.25	-0.1086252938	-0.09060728229	
566.875	-0.1251031087	-0.0611611641	
567.5	-0.1216185904	-0.08911934237	
568.125	-0.1254526216	-0.1337459805	
568.75	-0.1989606211	-0.06208092155	
569.375	-0.2021352975	0.0923340103	
570.0	-0.1011319314	0.179263125	
570.625	-0.04700559288	0.151192179	
571.25	0.005783586626	0.0976726219	
571.875	0.04958816876	0.06250248587	
572.5	0.1121291207	-0.00314028999	
573.125	0.07613477729	-0.1029248788	
573.75	0.03337667603	-0.1021676681	
574.375	0.004158815676	-0.05970325149	
575.0	0.02267748885	-0.03020667319	
575.625	0.03660529496	-0.06601013025	
576.25	0.04114459127	-0.10002695	
576.875	-0.007334825821	-0.1281125538	
577.5	-0.009494438237	-0.1397121624	
578.125	-0.0452941614	-0.1347392954	
578.75	-0.07399010417	-0.1007549918	
579.375	-0.07208702808	-0.05619995265	
580.0	-0.04559257903	-0.02937359851	
580.625	-0.06668110422	-0.02242093809	
581.25	-0.08579055408	0.0713384954	
581.875	0.008601641177	0.1340877939	
582.5	0.04583569555	0.1192913185	
583.125	0.06316461732	0.0669143845	
583.75	0.03619546064	0.01946225117	
584.375	0.03533812928	0.04829530332	
585.0	0.09672237205	0.04549712892	
585.625	0.1335240554	-0.001523242963	
586.25	0.1303047781	-0.05576905814	
586.875	0.06143273873	-0.1197903102	
587.5	-0.01498253073	-0.1226172925	
588.125	-0.01557447169	-0.1216277142	
588.75	0.03024367799	-0.1260307282	
589.375	0.05538224042	-0.1340992582	
590.0	-0.05479077809	-0.1494658	
590.625	-0.1599043647	-0.03187165782	
591.25	-0.1137109425	0.09547913938	
591.875	-0.03676345002	0.1032800482	
592.5	0.007751125363	0.04420916942	
593.125	-0.02453576012	0.04226517374	
593.75	0.04799143478	0.1028181567	
594.375	0.1321669519	0.087109551	
595.0	0.1487784409	0.08776762908	
595.625	0.1478442711	0.0664202712	
596.25	0.1346239181	0.03441114986	
596.875	0.1342667626	0.03331612486	
597.5	0.1288640562	0.07331868932	
598.125	0.134177531	0.0966798073	
598.75	0.1572920398	0.06439268758	
599.375	0.1787292628	-0.03503757713	
600.0	0.1424662048	-0.1208345733	
600.625	0.1277923682	-0.1474150894	
601.25	0.06212509008	-0.1680551414	
601.875	-0.07523080124	-0.1229364435	
602.5	-0.1093758419	-0.005656581458	
603.125	-0.09099523609	0.03774381109	
603.75	-0.09780397915	0.05872438212	
604.375	-0.08763837955	0.06939230568	
605.0	-0.05217836702	0.06996888421	
605.625	-0.06032883769	0.04855062646	
606.25	-0.105333301	0.05565230959	
606.875	-0.148424551	0.08388590459	
607.5	-0.1310614837	0.1557097557	
608.125	-0.02435688099	0.2102241485	
608.75	0.1687854368	0.1491626178	
609.375	0.2093213021	-0.04191379141	
610.0	0.1366622272	-0.1046761954	
610.625	0.07715340722	-0.1343998533	
611.25	-0.00144791678	-0.148889635	
611.875	-0.08539820463	-0.09612771225	
612.5	-0.1347409732	-0.05496298869	
613.125	-0.1742026719	0.02230643315	
613.75	-0.07901764078	0.1394535717	
614.375	0.05151368481	0.08662974112	
615.0	0.02627977352	0.03784655447	
615.625	0.007277952309	0.08432105243	
616.25	-0.02174501366	0.1231351369	
616.875	-0.06466772946	0.1572535727	
617.5	-0.05777089867	0.2007733393	
618.125	0.002786435941	0.1991899679	
618.75	0.03851364488	0.1605288568	
619.375	0.08019676976	0.136698381	
620.0	0.1756794311	0.03988256784	
620.625	0.08583290126	-0.1519117951	
621.25	-0.08609182316	-0.1501407322	
621.875	-0.1733211854	-0.0757482847	
622.5	-0.1964990838	0.05307474389	
623.125	-0.02281809583	0.1749732873	
623.75	0.1188052466	0.02072757182	
624.375	0.02868453134	-0.04041947439	
625.0	0.04297448986	-0.02815750026	
625.625	0.0356591548	-0.08339445086	
626.25	-0.04674898708	-0.1114323749	
626.875	-0.1205829805	-0.07409589047	
627.5	-0.1366593816	-0.03767458918	
628.125	-0.1081067217	-0.05295670067	
628.75	-0.06829461205	-0.09818517471	
629.375	-0.08149122942	-0.131803387	
630.0	-0.174025479	-0.08594748173	
630.625	-0.1964320985	0.07372157005	
631.25	-0.1133113848	0.1763154242	
631.875	-0.01520199049	0.2128635523	
632.5	0.1350690106	0.1728195777	
633.125	0.1963235165	0.03269079025	
633.75	0.1403011673	-0.07541399382	
634.375	0.04864867252	-0.1168247762	
635.0	-0.01562410792	-0.1367160919	
635.625	-0.1418115678	-0.0678777784	
636.25	-0.1271162629	0.07489603299	
636.875	-0.05218459151	0.1076648296	
637.5	-0.03324068027	0.08496588963	
638.125	-0.04506484101	0.08556794251	
638.75	-0.05109987485	0.1420335245	
639.375	0.004951341083	0.2227595743	
640.0	0.1406742947	0.2136872043	
640.625	0.2235422213	0.1088298224	
641.25	0.2333101618	-0.02160436252	
641.875	0.146735751	-0.1688474405	
642.5	-0.02595224302	-0.1983305611	
643.125	-0.1164417533	-0.08901892536	
643.75	-0.1109690453	-0.06226073779	
644.375	-0.1688023641	0.006574050312	
645.0	-0.1127395479	0.1565516782	
645.625	0.06352704949	0.1743269699	
646.25	0.1452262209	0.06595508735	
646.875	0.09810722737	-0.0226012432	
647.5	0.04261728009	0.01736560607	
648.125	0.1452235938	0.04885998955	
648.75	0.2375116603	-0.08709828708	
649.375	0.1677780426	-0.2335149099	
650.0	0.1193399708	-0.2601377988	
650.625	0.127581736	-0.258614829	
651.25	0.1535938417	-0.2353269775	
651.875	0.1929448388	-0.1646541147	
652.5	0.2320589444	-0.09101539341	
653.125	0.2411465425	-0.1227884641	
653.75	0.1376412814	-0.2225201876	
654.375	-0.06322288122	-0.2527797606	
655.0	-0.2645863436	-0.07784480596	
655.625	-0.1455099949	0.1883517109	
656.25	0.04790845182	0.1384659415	
656.875	0.03692096724	0.06465415494	
657.5	0.05367609511	0.08874865747	
658.125	0.1265560994	0.1193939263	
658.75	0.2625186155	0.06325306383	
659.375	0.2837013784	-0.1604286454	
660.0	0.1566732035	-0.2763332746	
660.625	0.09871856088	-0.2819907209	
661.25	0.1277706374	-0.2763738585	
661.875	0.1566144144	-0.2452495534	
662.5	0.2011040255	-0.1832812295	
663.125	0.2239514152	-0.1933142499	
663.75	0.1071876753	-0.2710279952	
664.375	-0.05921325601	-0.2700984341	
665.0	-0.2425807571	-0.1761408986	
665.625	-0.279101839	0.1084375156	
666.25	-0.05826874959	0.2394091757	
666.875	0.1039831598	0.1710878533	
667.5	0.1761292691	0.07969625472	
668.125	0.1927730059	-0.04153275817	
668.75	0.1454963958	-0.1328052453	
669.375	0.07715770412	-0.1954875521	
670.0	-0.009460388236	-0.2065562134	
670.625	-0.02304070878	-0.1693715157	
671.25	0.0326219145	-0.1467961796	
671.875	0.1148061965	-0.1530659021	
672.5	0.1717977075	-0.1567042856	
673.125	0.1592156634	-0.1803574869	
673.75	0.1090469771	-0.1971729801	
674.375	0.03445512278	-0.2211513164	
675.0	-0.0866855769	-0.2155757932	
675.625	-0.1891055305	-0.1018268117	
676.25	-0.1610191747	0.005244355551	
676.875	-0.1117748109	0.01509544208	
677.5	-0.1376638274	0.02551066621	
678.125	-0.1175186824	0.1483056862	
678.75	0.06675782992	0.1942453438	
679.375	0.1805577537	0.03171194047	
680.0	0.1133463768	-0.07768392681	
680.625	0.07030678612	-0.06581512435	
681.25	0.09115773772	-0.03385831417	
681.875	0.1269330466	0.01203738864	
682.5	0.1636085073	0.06142552064	
683.125	0.2146286945	0.07024952385	
683.75	0.2515616607	0.05577013936	
684.375	0.2583975514	0.003888041841	
685.0	0.2394666791	-0.003215141901	
685.625	0.2361881617	-0.009149033044	
686.25	0.2646724709	-0.0405771276	
686.875	0.2728365415	-0.1632042413	
687.5	0.1830432489	-0.2986962816	
688.125	-0.07453758443	-0.3611273744	
688.75	-0.3583353621	-0.1300777092	
689.375	-0.2402079275	0.2887303008	
690.0	0.120326314	0.3206339505	
690.625	0.2445273462	0.1882862497	
691.25	0.2903530649	0.1891846554	
691.875	0.4026693245	0.2316873274	
692.5	0.5408392401	0.1483833337	
693.125	0.5926132957	-0.07356032865	
693.75	0.4970859262	-0.2762003804	
694.375	0.3342334946	-0.3838847752	
695.0	0.3490913275	-0.2783275917	
695.625	0.4166723333	-0.09789014881	
696.25	0.4402477656	0.1189120312	
696.875	0.3927143182	0.3027473515	
697.5	0.3989662377	0.336450644	
698.125	0.5138659118	0.1112255989	
698.75	0.3150558423	-0.3899510914	
699.375	-0.3568176425	-0.2845801181	
700.0	-0.212646368	0.2991168563	
700.625	0.1263327329	0.252038019	
701.25	0.2166144081	0.1520763823	
701.875	0.2582302107	0.1794305878	
702.5	0.3242542305	0.1668904644	
703.125	0.3656209074	0.05584693406	
703.75	0.3145357057	-0.1148375296	
704.375	0.2222369531	-0.1730430046	
705.0	0.2032291402	-0.1227949798	
705.625	0.2363563019	-0.01506604314	
706.25	0.2359183758	0.1353538799	
706.875	0.2312947736	0.2247179964	
707.5	0.265754069	0.2535328274	
708.125	0.3814264441	0.05284226642	
708.75	0.202979966	-0.3151516306	
709.375	-0.2462744719	-0.2093455183	
710.0	-0.1445250399	0.1905736542	
710.625	0.07000735141	0.1302591719	
711.25	0.09849897559	0.09094500109	
711.875	0.1954301846	0.07121426949	
712.5	0.2586825798	-0.0579493634	
713.125	0.2031561491	-0.1755754631	
713.75	0.09140698336	-0.2228359894	
714.375	-0.006953671438	-0.2063158015	
715.0	-0.03653747827	-0.1768703272	
715.625	-0.003452576869	-0.1922075975	
716.25	0.1072957098	-0.2159874826	
716.875	0.2576392265	-0.1762604613	
717.5	0.4138852009	-0.06938277333	
718.125	0.5545682244	-0.01486120905	
718.75	0.6272542916	-0.1675867137	
719.375	0.5599485913	-0.4343477914	
720.0	0.3076008404	-0.7018284211	
720.625	0.1019153119	-0.7751163311	
721.25	-0.1589334814	-0.8170782254	
721.875	-0.3370292458	-0.7884375996	
722.5	-0.5961171803	-0.5209162437	
723.125	-0.6597950099	-0.01771138885	
723.75	-0.2947703371	0.4212736252	
724.375	0.08676965255	0.3931794893	
725.0	0.1772616134	0.2875729743	
725.625	0.1677858992	0.3649746664	
726.25	0.09194048402	0.5662385346	
726.875	0.03313318894	0.7891522628	
727.5	0.01295161361	1.087504546	
728.125	0.1181321345	1.562647643	
728.75	0.06206107548	2.242693932	
729.375	-0.2641253811	2.987430469	
730.0	0.2677774322	3.010638779	
730.625	0.105232794	3.126043389	
731.25	-0.4122204083	3.249892453	
731.875	-1.663366096	2.44137226	
732.5	-2.420984939	1.152371563	
733.125	-1.876072475	0.667656568	
733.75	-0.526619284	1.205748349	
734.375	0.760042598	0.2415336498	
735.0	-0.06629557464	-0.4880571134	
735.625	-0.3916363516	0.1095729266	
736.25	-0.007997855853	0.462214941	
736.875	0.4227262187	0.403954721	
737.5	0.8316180905	0.04478324568	
738.125	1.124479746	-0.4006091877	
738.75	1.365123496	-0.9811897733	
739.375	1.693177272	-1.4304086	
740.0	2.064601906	-1.108116622	
740.625	1.722727219	0.003121350265	
741.25	0.2845923685	1.826954692	
741.875	-2.178661578	0.5664025702	
742.5	-1.302804661	-1.797162898	
743.125	-0.1265224539	-1.429046058	
743.75	-0.06034755711	-0.7025099879	
744.375	-0.372498275	-0.02925679686	
745.0	0.05590306315	0.07013626622	
745.625	0.0527272523	-0.003211019641	
746.25	-0.02743922092	-0.08776862051	
746.875	-0.1880015605	0.0245128629	
747.5	-0.03041908854	0.3299686221	
748.125	0.09704756612	0.3837923215	
748.75	0.2226457509	0.275177279	
749.375	0.1905175967	0.3571824533	
750.0	-0.1153711987	0.2720474957	
