!Created with skrf (http://scikit-rf.org).
# GHz S RI R (50+0j) 
!freq	ReS11	ImS11	
500.0	1.351424475	-5.411503471	
500.625	0.6058555644	-1.584599208	
501.25	-0.6570465741	-3.308993785	
501.875	-2.532348	-1.176913523	
502.5	-0.2230322403	-0.02604715335	
503.125	-0.335295264	-0.09689805533	
503.75	0.3503544035	0.1490317968	
504.375	0.0733891895	0.1119206369	
505.0	-0.03633451215	-0.2040795033	
505.625	0.2341948792	-0.006590312788	
506.25	-0.7130526577	-0.2851801864	
506.875	0.5761600824	-0.3959360959	
507.5	-0.14412654	-2.163901406	
508.125	-1.265539158	-2.194148857	
508.75	1.455437817	-0.9264622491	
509.375	-1.010244636	-6.297133838	
510.0	-0.9516502673	0.436758786	
510.625	-0.3885884247	-1.536290992	
511.25	-0.5671828306	0.2666140736	
511.875	-0.342507713	-0.3838337765	
512.5	-0.1132122512	0.117891518	
513.125	-0.02468027339	-0.2341886717	
513.75	-0.09178737706	0.05080233059	
514.375	-0.2702483382	-0.4546563639	
515.0	-0.7326631664	1.129596153	
515.625	0.5803488874	-3.714922909	
516.25	-3.029325366	-0.1589921824	
516.875	0.9729273767	-1.21317428	
517.5	-0.811822946	-1.065801084	
518.125	0.3283933741	0.05918055908	
518.75	-0.7115996083	-0.8983643304	
519.375	-0.03109685497	0.1331113811	
520.0	0.2471113301	0.3649582359	
520.625	0.5913789273	-0.2962173792	
521.25	-0.1664823781	-0.4044149038	
521.875	-0.3338565312	-0.2771513119	
522.5	-0.08142518086	0.1891836202	
523.125	-0.3542556618	0.01944752183	
523.75	-0.09107580501	0.048212384	
524.375	-0.6819637724	-0.03449464733	
525.0	0.2854691121	0.2745976118	
525.625	-0.1402426292	0.156505892	
526.25	0.2155325109	-0.1109253178	
526.875	-0.3726094637	0.2450114803	
527.5	0.2371709182	0.5219497138	
528.125	-0.2669216013	0.5641677633	
528.75	0.178708842	1.137920819	
529.375	-0.001633389264	-0.04952417217	
530.0	0.4782343024	0.6632805226	
530.625	-0.04612601685	0.6218182836	
531.25	1.789814417	0.4267193733	
531.875	0.09069243669	-0.3600611275	
532.5	0.08175055211	-0.5986919389	
533.125	-0.1294566375	0.219804661	
533.75	0.4725636317	-1.053693265	
534.375	-0.4496076575	-0.2621801625	
535.0	-0.5723157817	-0.6394536288	
535.625	-0.3791152468	0.6625100926	
536.25	-0.03427009379	0.1058857542	
536.875	0.3044755326	0.1537701525	
537.5	0.1256522429	-0.2134630085	
538.125	0.302400265	0.07166229669	
538.75	0.3362768807	-0.5316587472	
539.375	-0.0782644216	-0.2459966139	
540.0	-0.3848041938	-0.5782365908	
540.625	-0.4727098308	0.1522257999	
541.25	-0.09405444242	-0.05841647722	
541.875	-0.1240349399	-0.1173313948	
542.5	-0.2447444962	-0.0785233078	
543.125	-0.008712530373	-0.08803607999	
543.75	-0.4439905973	-0.1138280617	
544.375	0.1445596499	0.1043136884	
545.0	-0.1782150219	0.2462616968	
545.625	0.2613456483	-0.04344447175	
546.25	0.0372832026	0.3451602533	
546.875	0.4415859764	-0.3008035988	
547.5	0.07151715459	-0.05732606028	
548.125	0.08751764554	-0.5455338292	
548.75	-0.4974659556	-0.2709789419	
549.375	-0.1134983079	-0.04960368412	
550.0	-0.3083547575	-0.1128556675	
550.625	-0.01492390239	0.1102043282	
551.25	-0.2991249496	-0.04461767346	
551.875	-0.0914328059	0.2882538898	
552.5	-0.1547616094	0.07715244808	
553.125	-0.04159895401	0.2139570502	
553.75	0.10798355	0.09419849353	
554.375	0.2277825639	0.03863981359	
555.0	0.2599846569	-0.1838290498	
555.625	0.2018040455	-0.2517619631	
556.25	0.1839153639	-0.3432721155	
556.875	-0.08107964306	-0.4133292555	
557.5	-0.237118475	-0.2464174798	
558.125	-0.2648486445	-0.1104688581	
558.75	-0.2844645495	-0.02630257089	
559.375	-0.2481948292	0.07414046823	
560.0	-0.2347607167	0.1215440519	
560.625	-0.172845507	0.3063875114	
561.25	0.09635023193	0.2112260081	
561.875	-0.03191550125	0.1381705332	
562.5	0.1344164229	0.08318489399	
563.125	0.05116557799	0.2489160089	
563.75	0.4571484377	-0.05992160499	
564.375	0.1287656757	-0.1717634238	
565.0	0.3659175069	-0.3185532501	
565.625	-0.1956089442	-0.433227446	
566.25	-0.1961961062	-0.1437571584	
566.875	-0.2725738063	-0.3340760087	
567.5	-0.5155092382	-0.2245737792	
568.125	-0.1172681924	-0.2716346427	
568.75	-0.6948049745	-0.3938703903	
569.375	-0.4314129711	0.3826150397	
570.0	-0.4267004708	0.2031924204	
570.625	-0.253743793	0.7507379065	
571.25	0.1880714228	-0.007657184716	
571.875	-0.0255527206	0.5286285689	
572.5	0.3246593864	-0.3636484041	
573.125	0.1836961205	0.09305014149	
573.75	0.3634706687	-0.5060775303	
574.375	-0.2568843494	-0.09409953174	
575.0	0.3956796327	-0.05522296703	
575.625	-0.2165861895	-0.2741579136	
576.25	0.3256830791	0.04882209236	
576.875	0.008041490073	-0.6370347166	
577.5	-0.2565239322	-0.2888331876	
578.125	0.1259722886	-0.2419732235	
578.75	-0.1816306706	-0.5471294188	
579.375	-0.3825308867	0.01334614458	
580.0	0.1290309868	-0.1349612013	
580.625	-0.4289096926	-0.002092147529	
581.25	0.0085804942	0.006905152924	
581.875	-0.3373862124	0.4897400645	
582.5	0.452518983	0.4865783643	
583.125	0.01991775396	-0.1966487642	
583.75	0.08125553511	0.5354440918	
584.375	0.03381944364	-0.3730167263	
585.0	0.1914030487	0.5743296719	
585.625	0.5193566159	-0.2976885131	
586.25	0.0581684682	0.07835670879	
586.875	0.4932436285	-0.5072315969	
587.5	-0.3072070658	-0.188436192	
588.125	0.2377605151	-0.2187368151	
588.75	0.1771139334	-0.6160517574	
589.375	-0.1120666312	-0.2637870874	
590.0	0.1642779402	-0.405082766	
590.625	-0.6102578292	-0.2148504252	
591.25	-0.1848616358	0.3020247099	
591.875	-0.2042029467	0.1221218541	
592.5	0.06597697979	0.2988848658	
593.125	-0.2616525193	-0.02960490366	
593.75	0.2865203361	0.3668041708	
594.375	0.255804278	0.04491103694	
595.0	0.117961754	0.5091283163	
595.625	0.883620275	0.3053141509	
596.25	-0.02581748701	-0.1474216732	
596.875	0.518792107	0.5138274536	
597.5	0.5336890573	-0.03828826256	
598.125	-0.002915868603	0.4156283646	
598.75	0.7531623046	0.2066289969	
599.375	0.2045113016	-0.03321603841	
600.0	0.6607952887	-0.1762152764	
600.625	0.3290621198	-0.6268975111	
601.25	0.03639006458	-0.2906325249	
601.875	-0.00770972183	-0.4577132351	
602.5	-0.3585943271	-0.05463688865	
603.125	-0.2585023322	0.1746205922	
603.75	-0.1767407901	0.04746546966	
604.375	-0.422457105	0.1821117386	
605.0	0.04282142259	0.2080851559	
605.625	-0.40219705	0.002243125744	
606.25	-0.1287201721	0.3452631651	
606.875	-0.3669083029	-0.1527632161	
607.5	-0.7041998289	0.8106984937	
608.125	0.149275794	0.2043861387	
608.75	0.1248990932	0.7817058711	
609.375	0.7540530899	-0.4071346978	
610.0	0.2296693662	0.05613341612	
610.625	0.4111333797	-0.5905168051	
611.25	-0.1480254973	-0.184697906	
611.875	-0.004844115333	-0.5147564571	
612.5	-0.3933689201	0.178088956	
613.125	-0.4115605137	-0.1632169586	
613.75	-0.2589946351	0.4657032782	
614.375	-0.008520503655	-0.05705959008	
615.0	0.3208571624	0.3643609561	
615.625	-0.1540251993	-0.04952504807	
616.25	-0.2586346086	0.62146896	
616.875	0.196558609	0.3095854572	
617.5	-0.5476612869	0.4004334466	
618.125	0.111511149	0.7485819501	
618.75	0.03010298963	0.1895555524	
619.375	0.141995426	0.6496541831	
620.0	0.3916413825	-0.020310117	
620.625	0.4093229263	-0.2340435522	
621.25	-0.2767822599	-0.4561286943	
621.875	-0.3359183341	-0.2964577447	
622.5	-0.6163095764	0.2442060617	
623.125	-0.1094770119	0.3056117913	
623.75	0.3695380074	0.287414266	
624.375	-0.1650262146	-0.2377716301	
625.0	0.4637499385	0.03933508628	
625.625	-0.2999636932	-0.1993592736	
626.25	0.2870620063	-0.323887323	
626.875	-0.6048774114	-0.3017478193	
627.5	-0.1557821659	0.1186765926	
628.125	-0.1949281488	-0.498519357	
628.75	-0.3532080241	-0.09120035512	
629.375	0.04779299586	-0.4001325541	
630.0	-0.6074233146	-0.3449889008	
630.625	-0.3314310322	0.2899639012	
631.25	-0.468073345	0.1943955504	
631.875	-0.126963973	0.7416268571	
632.5	0.3499025113	0.4489314209	
633.125	0.4235853541	0.04218712188	
633.75	0.431750831	0.08458235257	
634.375	0.02938321823	-0.492863334	
635.0	0.1678498557	-0.1795124871	
635.625	-0.4917137147	-0.3704231176	
636.25	-0.1171047603	0.2606107436	
636.875	-0.5260863892	0.1329412922	
637.5	0.1409209601	0.4654398432	
638.125	-0.1818945005	-0.2007170067	
638.75	-0.4581772371	0.785753139	
639.375	0.4102040232	0.4669723767	
640.0	-0.07824650252	0.40464078	
640.625	0.6936998993	0.6709281969	
641.25	0.604513025	-0.3244675451	
641.875	0.4593643783	-0.001497363209	
642.5	-0.2477580151	-0.9254514977	
643.125	-0.04985021136	0.008826970215	
643.75	-0.3329516674	-0.6126306844	
644.375	-0.5222186391	0.3676961915	
645.0	-0.09531747498	0.03790039852	
645.625	-0.2301030769	0.6863550935	
646.25	0.7375178018	0.1887781073	
646.875	-0.08040346136	-0.2236713443	
647.5	0.4230275371	0.4725597394	
648.125	-0.03089467022	-0.3497134863	
648.75	0.9488172565	0.4066225167	
649.375	0.4879243154	-1.08562886	
650.0	-0.04361691219	-0.2197744655	
650.625	1.211204079	-0.5266866548	
651.25	0.08004804211	-1.352528559	
651.875	0.1257938016	0.1994986724	
652.5	1.282748861	0.001257635374	
653.125	0.4578328042	-0.7296915767	
653.75	0.3862048392	0.07446379478	
654.375	-0.1012354725	-1.239003462	
655.0	-0.697003985	0.161732415	
655.625	-0.3503587824	-0.1319332596	
656.25	-0.1249313198	0.9213752408	
656.875	0.3215384304	-0.322504595	
657.5	-0.1283845975	0.6024069319	
658.125	0.5753963267	0.3094988327	
658.75	0.4260831461	0.03088710527	
659.375	1.02963537	0.1435657729	
660.0	0.4088306307	-1.140999425	
660.625	0.1952695871	-0.3530988418	
661.25	0.8124240686	-0.6420116726	
661.875	0.3598780747	-1.168692583	
662.5	0.118711634	0.04589492942	
663.125	1.288941567	-0.3969133604	
663.75	-0.04553030921	-0.8900056378	
664.375	0.316201491	-0.40037074	
665.0	-0.9619533295	-0.8724748693	
665.625	-0.2932002483	0.3372460731	
666.25	-0.6702665182	0.4775562059	
666.875	0.5010658298	0.6938987263	
667.5	0.255674756	-0.07936054959	
668.125	0.5712378404	0.4343009605	
668.75	0.5428563666	-0.6409695213	
669.375	0.06665402963	-0.3842102224	
670.0	0.2441394715	-0.4246279895	
670.625	-0.0838615168	-0.7053453073	
671.25	0.09875135584	-0.08781225409	
671.875	0.4687473856	-0.5322379848	
672.5	0.3290734801	-0.4960244233	
673.125	0.3809940651	-0.06375893669	
673.75	0.8706990645	-0.6942452675	
674.375	-0.4015469214	-0.7282329333	
675.0	0.2877915578	-0.1733654023	
675.625	-0.6410215217	-0.794008831	
676.25	-0.4627014482	0.4968463955	
676.875	-0.1650534311	-0.5686579822	
677.5	-0.5375244208	0.6027794962	
678.125	-0.1993220815	-0.1606765568	
678.75	-0.2148259089	1.022041321	
679.375	0.6059865651	-0.3708581274	
680.0	0.1697159289	0.1690459807	
680.625	0.5101634921	-0.1825578394	
681.25	0.08943690229	-0.3832481371	
681.875	0.05136163298	0.374138837	
682.5	0.7465694649	0.4490726528	
683.125	0.5977274301	-0.06511069452	
683.75	0.3207901625	0.1370062586	
684.375	1.001406821	0.4609108097	
685.0	0.5028545649	-0.4796417505	
685.625	0.6307392967	0.6308745543	
686.25	1.149397804	-0.48460969	
686.875	-0.04950742191	-0.2041962833	
687.5	1.663602711	-0.2963802087	
688.125	-0.9945761132	-1.53266855	
688.75	-0.03153623419	-0.4174280307	
689.375	-1.454366118	0.8895081133	
690.0	0.6789218792	0.5184602548	
690.625	-0.04886489475	0.9632328776	
691.25	1.209167047	0.4327955143	
691.875	0.6330730927	0.7237315162	
692.5	1.529268158	0.7977648469	
693.125	1.644692364	-0.2436362404	
693.75	1.25798448	-0.3813578831	
694.375	1.005075314	-0.9629058911	
695.0	1.169264241	-0.4744131836	
695.625	1.488828627	-0.5737572906	
696.25	0.6481406279	0.358959026	
696.875	1.265385236	1.641656554	
697.5	1.144192821	0.3253303117	
698.125	0.9482663879	1.354352427	
698.75	1.418962352	-1.607908103	
699.375	-0.5135720558	-0.2074243488	
700.0	-1.612539719	0.5863605257	
700.625	0.8486972902	0.4927717345	
701.25	-0.06038402696	0.6763195125	
701.875	1.096773066	0.5585229228	
702.5	0.3726657285	0.5007627413	
703.125	1.325974996	0.5709427517	
703.75	0.6464475916	-0.5333180113	
704.375	0.9679144164	-0.05186643762	
705.0	0.4695932606	-0.7970689946	
705.625	0.3076189331	0.290186606	
706.25	1.398991872	0.6805130408	
706.875	0.2753512567	0.1037238426	
707.5	0.4439056361	1.290096719	
708.125	1.492383362	-0.002826740513	
708.75	0.6360723528	-0.2999765344	
709.375	-0.7719961305	-1.257519669	
710.0	-0.1847216222	0.6682221195	
710.625	-0.1786098591	0.4541259258	
711.25	0.4041987744	0.2826378887	
711.875	0.3818221677	0.3093610263	
712.5	0.8048647267	0.01537576075	
713.125	0.614090474	-0.2330854012	
713.75	0.4440443602	-0.9181304438	
714.375	-0.1606511627	-0.2236500148	
715.0	0.2864054974	-0.8692840971	
715.625	-0.4734935622	-0.3264243496	
716.25	0.7934851582	-0.1195274096	
716.875	1.26060169	-1.447319962	
717.5	-0.1217477845	0.1071002048	
718.125	2.756180874	1.185320945	
718.75	2.341986949	-1.776660831	
719.375	0.5122645676	0.6004466868	
720.0	3.21957181	-3.36267609	
720.625	-0.8615958461	-2.305352519	
721.25	0.7694784867	-2.378772765	
721.875	-0.6562343993	-3.681266386	
722.5	-1.521853617	-0.9107040935	
723.125	-1.842859321	-1.370649868	
723.75	-1.087816426	1.509467178	
724.375	0.2206543345	0.7369391476	
725.0	0.1606203993	0.854148868	
725.625	0.4639625824	1.662304569	
726.25	1.000068389	1.136098842	
726.875	-1.172808884	1.696225469	
727.5	-0.07802876445	5.61328183	
728.125	3.027435236	4.081432313	
728.75	-6.110125641	6.131763101	
729.375	2.671048165	15.59755771	
730.0	1.026555454	1.283786394	
730.625	-8.517970505	14.89162935	
731.25	12.51955202	15.49634524	
731.875	-6.727603966	-3.076701709	
732.5	-12.89695448	2.425079943	
733.125	-7.154814333	3.223565434	
733.75	-0.8412684825	1.147025678	
734.375	2.995471365	2.775545645	
735.0	-0.6383408515	-0.8999839671	
735.625	-0.8560823574	-0.4090430774	
736.25	-0.3149863692	2.407482099	
736.875	1.227875429	-0.01281261668	
737.5	1.818004021	1.932328998	
738.125	5.667353079	-1.075716144	
738.75	3.985834223	-6.418051757	
739.375	-1.030184414	0.8764364733	
740.0	25.34728514	1.330303084	
740.625	-0.1807271172	-13.90827102	
741.25	-13.19570252	15.48013959	
741.875	-21.00006262	22.1514393	
742.5	11.38793377	-5.379471086	
743.125	2.437122133	-10.19787772	
743.75	-2.909821403	-2.144262199	
744.375	0.1649221299	-0.148433184	
745.0	-0.3681442092	0.8303404677	
745.625	-0.2223642233	-0.2789637003	
746.25	0.2634215002	-0.4901143043	
746.875	-0.7517233258	0.6053872924	
747.5	-0.008997270417	0.4357065685	
748.125	0.1369282911	1.979203973	
748.75	1.428255702	0.9810591188	
749.375	-0.2757777055	0.5413979466	
750.0	-0.3952024848	0.601321666	
