!Created with skrf (http://scikit-rf.org).
# GHz S RI R (50+0j) 
!freq	ReS11	ImS11	
500.0	-0.05526168501	-6.967261594	
500.625	-0.1650483449	-0.7856941352	
501.25	-1.929094218	-3.728325291	
501.875	-1.148766352	-0.5706171356	
502.5	-0.1568906707	-0.5352535708	
503.125	-0.1521041938	0.1409509887	
503.75	-0.106938146	0.1468542955	
504.375	0.1893602733	-0.0557176161	
505.0	-0.1051577199	0.01890035231	
505.625	0.1999430831	-0.2660458424	
506.25	-0.5050491126	-0.03053250974	
506.875	0.1556807944	-0.6446221168	
507.5	-1.728539424	-0.9020306235	
508.125	1.321537371	-0.762550979	
508.75	1.75938624	-4.817417584	
509.375	-2.526228451	-2.357201497	
510.0	-0.277299254	-1.454396149	
510.625	-1.01669959	-0.5562880007	
511.25	-0.2080046689	-0.08897258193	
511.875	-0.3563234429	-0.2064922157	
512.5	-0.1250938732	0.212362044	
513.125	-0.1205749646	-0.1821241635	
513.75	-0.06423673682	-0.3733344246	
514.375	-0.5065426464	0.09614841953	
515.0	1.41610811	-0.07567505259	
515.625	-2.665212459	-0.798723048	
516.25	1.524764086	-0.5668252182	
516.875	-1.305742858	-2.823952461	
517.5	-0.6719435966	0.2190846705	
518.125	0.007636049262	-0.4987057081	
518.75	-0.6297833171	0.2022180162	
519.375	-0.2823338249	-0.02907718766	
520.0	0.5298886739	0.2303105344	
520.625	0.2613283528	-0.2829239114	
521.25	0.2734606902	-0.6339108339	
521.875	-0.4945649211	-0.04445563653	
522.5	-0.1148162955	-0.0212685192	
523.125	-0.06262933351	0.2755084292	
523.75	-0.3006860804	-0.1994146818	
524.375	-0.4488955007	0.3674928255	
525.0	-0.1299195502	0.1086687251	
525.625	0.07226854927	0.3353097973	
526.25	-0.1802001674	-0.2525718691	
526.875	0.02554268145	0.3080885089	
527.5	-0.2037224525	0.1780333538	
528.125	0.1352976983	1.254321407	
528.75	0.4087032375	0.3536335469	
529.375	0.01221945497	0.3947493896	
530.0	0.3380260905	0.1754359116	
530.625	-0.1800159762	1.039499307	
531.25	1.395621667	-0.08395712982	
531.875	0.5703975487	-0.2069193356	
532.5	-0.4040392238	-0.4492390875	
533.125	0.8284395281	0.009630038956	
533.75	-0.3532057773	-0.685899686	
534.375	0.3391611301	-0.6113939154	
535.0	-1.083323913	-0.3055539059	
535.625	-0.1570413176	0.2382789356	
536.25	-0.1311542766	0.2995503725	
536.875	0.3173302104	-0.1297027534	
537.5	0.1823558496	0.08944184121	
538.125	0.3685099772	-0.3402035877	
538.75	0.1403925181	-0.199672551	
539.375	-0.002453771328	-0.4977184011	
540.0	-0.5607576022	-0.3765018546	
540.625	-0.3563170541	-0.0121363424	
541.25	-0.1569650106	-0.01947016099	
541.875	-0.1860614744	-0.05731576566	
542.5	-0.03391734875	-0.1010741675	
543.125	-0.2851936399	-0.1569334214	
543.75	-0.1284652453	0.09673129974	
544.375	-0.2079642701	-0.009823878189	
545.0	0.123064883	0.2253851517	
545.625	-0.1685138357	0.02840206506	
546.25	0.5089009973	0.2340555666	
546.875	0.05872662005	-0.1826879921	
547.5	0.3844011821	-0.1702655577	
548.125	-0.317727568	-0.5318232331	
548.75	-0.08702532618	-0.1410004936	
549.375	-0.2994468205	-0.3726600334	
550.0	-0.2059805426	0.1648761586	
550.625	-0.07134143391	-0.1479808826	
551.25	-0.2687475184	0.1936150316	
551.875	-0.08942051347	0.09517920797	
552.5	-0.1949322318	0.2015022615	
553.125	0.00658125626	0.1684837307	
553.75	0.08456136487	0.1461090659	
554.375	0.2530518706	-0.008169552102	
555.0	0.2285254685	-0.1492499938	
555.625	0.2330455363	-0.2541875677	
556.25	0.1669590314	-0.3559908564	
556.875	-0.08639681086	-0.396650837	
557.5	-0.2184849257	-0.25770754	
558.125	-0.2829831566	-0.1261812245	
558.75	-0.2742199058	0.005325548977	
559.375	-0.2363773393	0.01692503113	
560.0	-0.2857686834	0.1889730575	
560.625	-0.05236081225	0.2508162946	
561.25	-0.08965859249	0.2253810662	
561.875	0.1753081618	0.1277376705	
562.5	-0.08176607394	0.06301910502	
563.125	0.2363253197	0.29470267	
563.75	0.2765832188	-0.1303441057	
564.375	0.3109923916	-0.06961175391	
565.0	0.2277526268	-0.4683652056	
565.625	-0.122424419	-0.2447384196	
566.25	-0.1971918968	-0.3901543116	
566.875	-0.4287378821	-0.07753183674	
567.5	-0.1622218842	-0.283210992	
568.125	-0.4247768155	-0.5578221676	
568.75	-0.5566429951	-0.03073521073	
569.375	-0.4080048423	-0.01094935497	
570.0	-0.6512897684	0.6294474625	
570.625	0.1918069454	0.4834063948	
571.25	-0.3088191404	0.06317485375	
571.875	0.5143735571	0.2472683229	
572.5	-0.06598712309	0.2163481102	
573.125	0.5330445465	-0.4893672125	
573.75	-0.2542878544	-0.282337509	
574.375	0.3177168762	0.07609407242	
575.0	-0.01127700049	-0.4313752157	
575.625	0.07505463644	0.1751993818	
576.25	0.3686610854	-0.4303613412	
576.875	-0.2918981641	-0.3345953317	
577.5	0.196996649	-0.1500740532	
578.125	-0.1088870006	-0.6883213199	
578.75	-0.3271383776	-0.100047708	
579.375	0.03819078159	-0.1610113823	
580.0	-0.2965490024	-0.25398369	
580.625	2.697122311e-05	0.1567725783	
581.25	-0.4379150184	-0.144360922	
581.875	0.1350716272	0.6958197647	
582.5	0.2559971774	-0.06149635864	
583.125	-0.2287769931	0.4535188168	
583.75	0.514646875	-0.2804788987	
584.375	-0.2492070784	0.4827899882	
585.0	0.6229708602	-0.05713306316	
585.625	-0.08963338699	0.03771884969	
586.25	0.6821580288	0.0794995974	
586.875	0.0415266947	-0.5817203984	
587.5	0.01396458884	-0.04511882162	
588.125	0.1896737517	-0.5246759538	
588.75	-0.2154974454	-0.3839060667	
589.375	0.4277947668	-0.073781078	
590.0	-0.2774188724	-0.6083361305	
590.625	-0.175216557	-0.03153318297	
591.25	-0.563434866	0.1531726013	
591.875	0.001654928258	0.4563314257	
592.5	0.05749771883	-0.07738555994	
593.125	-0.2701527866	0.2804747252	
593.75	0.3847463703	0.126362321	
594.375	-0.06385174862	0.2961851511	
595.0	0.770016631	0.5948098373	
595.625	0.1838437844	-0.2393316067	
596.25	0.3942264814	0.5669202004	
596.875	0.6172466314	-0.2759434283	
597.5	-0.1173268123	0.3914509808	
598.125	0.7280312322	0.5052853663	
598.75	0.321358242	-0.02916039082	
599.375	0.4383277927	0.207798632	
600.0	0.5955534572	-0.4301280537	
600.625	0.1684755411	-0.4381121742	
601.25	0.3294084572	-0.3326378807	
601.875	-0.2446546511	-0.4537835116	
602.5	-0.1659680762	-0.01980220651	
603.125	-0.3761459619	0.05857966829	
603.75	-0.1596797994	0.1410522466	
604.375	-0.2226144629	0.142711624	
605.0	-0.2314448153	0.05186790208	
605.625	-0.2137935432	0.3640833888	
606.25	-0.03916183568	-0.1383844305	
606.875	-0.9258097329	0.2807471551	
607.5	0.05913140758	0.4179810168	
608.125	-0.5688276793	0.3940758629	
608.75	0.914565333	0.4775777353	
609.375	0.1249491417	0.02886896072	
610.0	0.7707410726	-0.2164684026	
610.625	-0.1164426233	-0.4722069116	
611.25	0.4058239322	-0.2204972859	
611.875	-0.4217448951	-0.2722343915	
612.5	-0.1565164562	-0.2541743435	
613.125	-0.5997272772	0.06805433102	
613.75	-0.07104247084	0.1972221965	
614.375	-0.05309518461	0.5483506355	
615.0	0.1648313298	-0.1475908263	
615.625	-0.1993113922	0.4033291938	
616.25	0.2741301307	0.3028311382	
616.875	-0.4790992623	0.1553929282	
617.5	-0.1917970943	0.8395117342	
618.125	0.1342036846	0.2787973991	
618.75	-0.2178703789	0.6122078017	
619.375	0.3872815101	0.2860514952	
620.0	0.2595536686	0.2785043194	
620.625	0.3617715148	-0.4868935235	
621.25	-0.1512234962	-0.3089129253	
621.875	-0.5677839515	-0.2989588589	
622.5	-0.3583466751	0.1191406255	
623.125	-0.3189332466	0.4298881992	
623.75	0.5013945232	-0.09392317898	
624.375	-0.009039495783	0.3516279315	
625.0	-0.06861659267	-0.4077060595	
625.625	0.300934187	0.07910241185	
626.25	-0.2944395228	-0.6560802944	
626.875	-0.08277584207	0.1680208413	
627.5	-0.4389041439	-0.5307535068	
628.125	-0.4401592669	0.1104411252	
628.75	0.1280189044	-0.2118139548	
629.375	-0.1849330501	-0.5815379424	
630.0	-0.5728065247	-0.06483624776	
630.625	-0.3836908614	-0.02650062968	
631.25	-0.4809269495	0.4816478641	
631.875	0.00149881542	0.555781917	
632.5	0.1355851209	0.4828071794	
633.125	0.6509588659	0.1268087828	
633.75	0.2687617493	-0.1004199486	
634.375	0.2679059799	-0.2884474904	
635.0	0.0006700187286	-0.4840108244	
635.625	-0.3190772594	0.01594850619	
636.25	-0.3356536314	-0.2649530425	
636.875	-0.3370730834	0.6835756328	
637.5	0.2788407489	0.002033988648	
638.125	-0.629364139	0.2633645066	
638.75	0.2967727172	0.4570914704	
639.375	-0.4599529801	0.3734939805	
640.0	0.6108138423	0.9128998163	
640.625	0.3209677851	-0.0576776169	
641.25	0.6525629893	0.5752683156	
641.875	0.5109216701	-0.8277493328	
642.5	-0.2728816446	-0.2791021615	
643.125	0.1360103281	-0.4163050847	
643.75	-0.6493284987	-0.2374715395	
644.375	-0.02386126352	0.1019671855	
645.0	-0.6971032423	0.3020169917	
645.625	0.3375928167	0.5518923015	
646.25	0.1440599643	0.06769346895	
646.875	0.4904567448	0.2727033566	
647.5	-0.12078374	-0.2863376152	
648.125	0.4016307893	0.5940939391	
648.75	0.9114378635	-0.5180995933	
649.375	-0.08662078779	-0.3963244468	
650.0	1.165667768	-0.269209697	
650.625	0.04726524826	-1.453325783	
651.25	0.04951360005	0.07807660611	
651.875	1.380480933	-0.3381855168	
652.5	0.2797550738	-0.8328150794	
653.125	0.4923455275	0.4239156766	
653.75	0.8552690141	-0.8454048973	
654.375	-0.5329629329	-0.5900256768	
655.0	-0.1148899779	-0.3482946336	
655.625	-1.027251948	0.5206194563	
656.25	0.4960308443	0.1997720863	
656.875	-0.2757889007	0.2735367387	
657.5	0.4465054298	0.2044653847	
658.125	-0.08843777845	0.240180426	
658.75	0.9886545824	0.5484121971	
659.375	0.7060763774	-0.6394248494	
660.0	0.287988425	-0.4283649601	
660.625	0.7690311132	-0.5157691892	
661.25	0.370618194	-1.369463881	
661.875	-0.0001588614725	-0.06744916825	
662.5	1.234072532	-0.4428707001	
663.125	0.2883206478	-0.7875350313	
663.75	0.6203597439	-0.02826938495	
664.375	-0.3341884189	-1.358260319	
665.0	-0.4070450621	-0.02550332996	
665.625	-0.7309693996	-0.2748460506	
666.25	-0.4809843805	0.8572028925	
666.875	0.549707774	0.3016817827	
667.5	0.09369667032	0.4877676362	
668.125	0.759470304	-0.1806296187	
668.75	0.174025022	-0.194915391	
669.375	0.6384026426	-0.5673918375	
670.0	-0.367147439	-0.4526800701	
670.625	0.2753071803	-0.303116568	
671.25	0.2188059416	-0.5974815945	
671.875	0.1493499266	-0.5693535999	
672.5	0.1763364328	-0.05669439819	
673.125	1.041283733	-0.2298235051	
673.75	0.05071470134	-0.8993839456	
674.375	0.3018503574	-0.1406858367	
675.0	-0.1231021166	-1.098046103	
675.625	-0.495482167	0.3751529445	
676.25	-0.3650817915	-0.7746450131	
676.875	-0.6532073356	0.4627971248	
677.5	0.1927239705	-0.1464452058	
678.125	-0.9316107643	0.3327288932	
678.75	0.5141497942	0.6270878201	
679.375	0.1617794157	0.02225503937	
680.0	0.5851194767	0.1068848777	
680.625	0.1380948469	-0.6067672536	
681.25	0.06796199047	0.4863598928	
681.875	0.6542179083	-0.1443923892	
682.5	0.2343210764	0.06577543297	
683.125	0.5496230959	0.5112162245	
683.75	0.9325898596	0.0578371193	
684.375	0.4078577761	-0.1254073753	
685.0	0.4028453528	0.5479311634	
685.625	1.405023028	0.03207573328	
686.25	0.04773902547	-0.6030801713	
686.875	1.42064935	0.6474199322	
687.5	0.05849786525	-1.658314236	
688.125	0.6536563287	-0.3092622753	
688.75	-1.479002804	-1.169042199	
689.375	0.2417220975	1.014491929	
690.0	-0.7841097843	0.8997681318	
690.625	1.150654256	0.6188312495	
691.25	0.4811802499	0.4312805005	
691.875	1.005059071	1.087782794	
692.5	1.632035113	0.4254862427	
693.125	1.365066301	0.01473183104	
693.75	1.436320954	-0.5881600766	
694.375	1.019371011	-0.8911396452	
695.0	1.203176884	-0.7297588498	
695.625	1.02133043	-0.2049434951	
696.25	1.469115867	0.6843179078	
696.875	1.116572473	0.3853927392	
697.5	0.19833343	1.413035068	
698.125	2.246987998	0.6595829358	
698.75	0.2935025939	-0.6195954003	
699.375	-0.492361697	-1.881430373	
700.0	-0.3702047854	1.35261183	
700.625	-0.4958198793	0.370207686	
701.25	1.163513128	0.5809872183	
701.875	0.2018936137	0.3097266747	
702.5	1.030109629	1.108409488	
703.125	0.8898780208	-0.1599710259	
703.75	0.9792031514	0.1928966252	
704.375	0.73022592	-0.889246286	
705.0	0.1630839758	0.01425936628	
705.625	1.444137697	0.003834161281	
706.25	0.2618020871	-0.05718078693	
706.875	0.2664402781	1.270913652	
707.5	1.281106648	0.6340449972	
708.125	0.3733874091	0.7750533603	
708.75	1.23932607	-1.230680602	
709.375	-0.8626137444	-0.3801854409	
710.0	-0.6001620817	0.1617420031	
710.625	0.2399085982	0.5936140037	
711.25	0.09954897282	0.2443573695	
711.875	0.5768737974	0.3497235642	
712.5	0.6322864567	0.0255890767	
713.125	0.7208218239	-0.5451257399	
713.75	0.2814852816	-0.4816348222	
714.375	0.1574401245	-0.6413543061	
715.0	-0.325161022	-0.4253718089	
715.625	0.5071424282	-0.2288940696	
716.25	0.4208193684	-1.417492227	
716.875	-0.1808152547	-0.08011324154	
717.5	1.963084166	0.7609044549	
718.125	2.540319541	-0.956171365	
718.75	0.1635736805	1.049752769	
719.375	4.032413627	-1.805453689	
720.0	-0.2018091748	-1.306651238	
720.625	2.323387818	-1.894341586	
721.25	-1.330547822	-3.738278391	
721.875	-0.5081927761	-1.197707329	
722.5	-0.8577677025	-2.762999283	
723.125	-2.389420551	-0.305129681	
723.75	-0.6510803294	1.071620084	
724.375	-0.2060035407	0.8360826393	
725.0	0.7192200956	1.215118013	
725.625	0.3625352415	0.7312541097	
726.25	-0.2879051129	1.740641499	
726.875	0.1898112673	3.120647234	
727.5	0.5448380944	1.396101398	
728.125	-2.989797569	5.859366446	
728.75	2.938006539	9.071798818	
729.375	2.157587548	2.697914942	
730.0	-10.59348329	14.89459803	
730.625	8.309439877	13.04598043	
731.25	-6.549330358	2.697945781	
731.875	-14.82916249	11.23711179	
732.5	-3.047476523	8.001704848	
733.125	-7.017333889	-3.976755413	
733.75	-2.161514295	5.347993792	
734.375	1.906980507	0.5954962047	
735.0	0.5466384186	-0.5652564068	
735.625	-2.23508361	-0.07111685722	
736.25	0.8816183644	0.8985714355	
736.875	0.1478555246	1.860043048	
737.5	3.485411446	0.6766590215	
738.125	2.765217599	-2.809580348	
738.75	5.779232326	1.059103814	
739.375	9.759655958	-8.848017404	
740.0	-2.523601713	-6.273814835	
740.625	2.863370267	14.33105768	
741.25	22.33683065	4.36067682	
741.875	7.197427099	-9.102739858	
742.5	-1.833208054	-17.78160798	
743.125	-4.498650263	-5.60668011	
743.75	1.664282365	0.1257083366	
744.375	-2.329694212	-0.9024519935	
745.0	0.4326511773	-0.3374255522	
745.625	0.3836446827	0.1986073425	
746.25	-0.256488099	-0.24199604	
746.875	-0.2257099432	-0.2320559475	
747.5	-0.4823241479	1.126106234	
748.125	0.7825405903	1.252489831	
748.75	0.8124840434	1.011967438	
749.375	-1.080714463	1.093572533	
750.0	-0.3467731166	1.123115555	
