!Created with skrf (http://scikit-rf.org).
# GHz S RI R (50+0j) 
!freq	ReS11	ImS11	
500.0	0.8072778953	-0.7780845405	
500.625	0.06159344102	-1.470151226	
501.25	0.00924457351	-0.280442938	
501.875	-0.2655839646	-0.6062790859	
502.5	-0.06920697555	-0.03933234699	
503.125	-0.05571311831	-0.02785489915	
503.75	0.02284792698	0.1117030054	
504.375	0.002044163851	-0.009546811282	
505.0	0.04467348821	-0.037720833	
505.625	-0.04166732218	-0.02326459863	
506.25	0.03945464624	-0.07125915111	
506.875	-0.2262824632	0.1625384978	
507.5	0.2038415028	-0.2826255741	
508.125	0.4531125729	-0.7044223884	
508.75	0.4106411836	-0.9227413586	
509.375	0.3782242152	-0.4764355105	
510.0	-0.229748759	-0.5818016376	
510.625	-0.1440017191	-0.03555989245	
511.25	-0.05092649334	-0.1044516736	
511.875	-0.186367093	-0.03316475807	
512.5	0.006797378787	-0.006264048287	
513.125	0.01704296148	-0.1153099871	
513.75	-0.07087388321	-0.0102350593	
514.375	0.03201102849	-0.07421895068	
515.0	-0.1547910819	-0.1393025428	
515.625	0.3304279758	0.02809269209	
516.25	-0.02927366436	-0.7898172659	
516.875	-0.2417929575	-0.2985330506	
517.5	0.09228580649	-0.1572073286	
518.125	-0.07098616983	-0.08781746097	
518.75	0.04325443247	-0.05136276331	
519.375	-0.04053004587	0.01127688986	
520.0	0.0954140239	0.08703162829	
520.625	0.0804876406	-0.02111549977	
521.25	0.148858814	-0.1930622404	
521.875	-0.2253272857	-0.05092298505	
522.5	0.03684913778	0.006420276752	
523.125	-0.1708966339	0.02563849216	
523.75	0.003608527706	0.06976303972	
524.375	-0.1622327567	-0.1746924905	
525.0	-0.03176965525	0.2279617837	
525.625	0.03912947116	-0.035756496	
526.25	-0.007649126613	0.04278977544	
526.875	-0.1256489259	0.06301898024	
527.5	-0.1219949834	0.1317626519	
528.125	0.05852844868	0.2953068162	
528.75	-0.03460302431	0.149457543	
529.375	-0.11733837	0.007941638532	
530.0	0.08300125031	0.08553336882	
530.625	-0.1684530023	0.3268100727	
531.25	0.4569036274	0.1815999584	
531.875	0.03412058499	-0.1470594867	
532.5	0.1196801324	-0.1426560761	
533.125	-0.09350856678	0.008727637505	
533.75	0.2700805044	-0.09670489468	
534.375	-0.07087031252	-0.273543171	
535.0	-0.07159286908	-0.1288402151	
535.625	-0.2336071378	0.01489587381	
536.25	-0.0003586745173	0.08122721851	
536.875	0.05854750964	0.04671985413	
537.5	0.09159266417	-0.009211484222	
538.125	0.08090284662	-0.01806436711	
538.75	0.1553070926	-0.00574633895	
539.375	0.0830549199	-0.2023117813	
540.0	-0.1521124168	-0.1423048718	
540.625	-0.07716649606	-0.116653981	
541.25	-0.1249420741	-0.01830456675	
541.875	0.03181357981	0.04938978278	
542.5	-0.05887588504	-0.1098202566	
543.125	-0.04770615014	0.009253433267	
543.75	-0.04628618133	-0.089743493	
544.375	-0.06741520715	0.0883619905	
545.0	-0.02383106835	-0.003047366032	
545.625	0.04255892974	0.1178120402	
546.25	0.06655810345	0.003312304311	
546.875	0.08436713987	0.07862785985	
547.5	0.1096910744	-0.1241568639	
548.125	0.005720119294	-0.0951610609	
548.75	-0.01880553347	-0.1595151877	
549.375	-0.08202421104	-0.1362176891	
550.0	-0.04684390418	0.005740677322	
550.625	-0.07724453906	-0.03031683385	
551.25	-0.06408882487	0.02927644418	
551.875	-0.07251850799	-0.02797842086	
552.5	-0.07903483517	0.08300816803	
553.125	-0.03124480757	0.02695532076	
553.75	0.02137953527	0.06776052674	
554.375	0.07062872623	0.0140820669	
555.0	0.1040615825	-0.009549936811	
555.625	0.1130174609	-0.05679715012	
556.25	0.1077336328	-0.08331662443	
556.875	0.04288877014	-0.1363695273	
557.5	-0.03062967587	-0.1249063926	
558.125	-0.07818420535	-0.07848987181	
558.75	-0.08076321363	-0.04370842884	
559.375	-0.0983099662	-0.03845066386	
560.0	-0.1096014489	0.03293863722	
560.625	-0.07443695762	0.05732875796	
561.25	-0.05074512446	0.08344169418	
561.875	0.03403260991	0.05745253983	
562.5	-0.03522567571	0.03552511616	
563.125	0.06239890879	0.08812977346	
563.75	0.07438659107	0.02452159651	
564.375	0.1942885101	0.01512471957	
565.0	0.08080039027	-0.1541846309	
565.625	0.04870892882	-0.09676065031	
566.25	-0.05862962168	-0.2025954941	
566.875	-0.1000872402	-0.0313748324	
567.5	-0.0007407818324	-0.1655212832	
568.125	-0.08560439382	-0.217055341	
568.75	-0.1156629662	-0.09170065255	
569.375	-0.223932849	-0.08845754658	
570.0	-0.1779013779	0.1926263429	
570.625	-0.06182650693	0.06973060417	
571.25	-0.1183186811	0.1094867954	
571.875	0.07861477965	0.04068414319	
572.5	0.04782384242	0.1111696016	
573.125	0.1596556009	-0.103284881	
573.75	0.002990041063	-0.07454177553	
574.375	0.07642262263	0.02294877849	
575.0	0.02908517009	-0.1055891548	
575.625	0.06461105743	0.03320369766	
576.25	0.1619640551	-0.1287384728	
576.875	-0.07630629465	-0.09030966517	
577.5	0.1253995379	-0.0248938867	
578.125	0.03447637208	-0.2273302693	
578.75	-0.09822197611	-0.04196601213	
579.375	0.08117659316	-0.10482876	
580.0	-0.1223011197	-0.09066954765	
580.625	0.0290076595	0.004904148613	
581.25	-0.2105768693	-0.005168255511	
581.875	0.01969998096	0.1658430355	
582.5	-0.03552858417	0.03469545977	
583.125	-0.02220428707	0.1879843529	
583.75	0.09949986197	-0.02852086068	
584.375	-0.06926387873	0.108563434	
585.0	0.1351106156	0.05373772303	
585.625	0.06087857262	0.02102560015	
586.25	0.1584535046	0.08759765427	
586.875	0.1062144043	-0.1666591651	
587.5	0.02586448826	-0.01247287177	
588.125	0.1187208633	-0.1885155403	
588.75	-0.009496434826	-0.14094355	
589.375	0.1388353464	0.01739456604	
590.0	-0.07441344685	-0.2967535833	
590.625	-0.06381433558	0.01118023473	
591.25	-0.1390937095	-0.03844700053	
591.875	-0.09603148124	0.178280691	
592.5	0.004788883533	-0.07374274538	
593.125	-0.05106419496	0.09771068822	
593.75	0.03757843004	0.0566626469	
594.375	0.000961217169	0.1597531835	
595.0	0.1794762438	0.1464328711	
595.625	0.0461566384	0.06744496369	
596.25	0.05368918855	0.1640694895	
596.875	0.1591547744	0.08111187862	
597.5	0.06804704881	0.07154636828	
598.125	0.02017308833	0.2095794627	
598.75	0.1889360113	0.09123837246	
599.375	0.1009353327	0.0477043796	
600.0	0.2759530521	-0.0276475972	
600.625	0.1313158967	-0.1811129925	
601.25	0.08682390502	-0.03945940235	
601.875	0.01312616819	-0.228496553	
602.5	-0.03912557466	0.07181386143	
603.125	-0.1391516707	-0.1125385574	
603.75	-0.1945476841	0.03868048355	
604.375	-0.03835676841	0.02083434831	
605.0	-0.1181725235	0.01325960012	
605.625	-0.06809747962	0.03300118552	
606.25	-0.0368147656	-0.01962542794	
606.875	-0.2289593003	-0.04074750957	
607.5	-0.1633475703	0.1452587165	
608.125	-0.1101685301	0.1161013215	
608.75	0.06924866961	0.2855796627	
609.375	0.2324552479	-0.02278840551	
610.0	0.08851211306	0.02174083298	
610.625	0.2310104287	-0.1422837392	
611.25	-0.03975541458	-0.1248746178	
611.875	0.09669815659	-0.1272871576	
612.5	-0.228682639	-0.1362228447	
613.125	-0.06815877897	-0.1363422496	
613.75	-0.2085916046	0.08888897609	
614.375	0.05029975142	0.1942909921	
615.0	-0.05459949324	0.01251523117	
615.625	0.0197325979	-0.04897317628	
616.25	-0.03808421498	0.08528713211	
616.875	-0.1609911813	0.02303371028	
617.5	-0.1900213957	0.1605342763	
618.125	-0.09317518129	0.3466558088	
618.75	-0.07059749883	0.06626218092	
619.375	0.06083777548	0.2401944726	
620.0	0.1177002474	0.01872943798	
620.625	0.188483655	0.03712436206	
621.25	-0.08528929434	-0.2511382037	
621.875	-0.08813277933	-0.05601231834	
622.5	-0.208446371	-0.09968551075	
623.125	-0.08312544214	0.1964614258	
623.75	0.06186911649	0.01090660245	
624.375	0.1133449375	0.03561188065	
625.0	-0.01421797684	-0.02948132484	
625.625	0.08042451948	-0.03665931709	
626.25	-0.005249223407	-0.1639206874	
626.875	-0.07888873018	-0.0425560775	
627.5	-0.0749541922	-0.08524317528	
628.125	-0.09330497067	-0.1267028616	
628.75	-0.0961913593	-0.07507855692	
629.375	0.07667603607	-0.1691144811	
630.0	-0.158782688	-0.1644788361	
630.625	-0.1197265233	-0.02004387692	
631.25	-0.2543013447	0.04808062992	
631.875	-0.06953839142	0.2380667764	
632.5	0.0348964496	0.1227673968	
633.125	0.1534640574	0.1994577281	
633.75	0.1975716824	-0.09709161967	
634.375	0.07256965451	-0.01720606714	
635.0	0.07681991162	-0.1824813885	
635.625	-0.1350817779	-0.08386735541	
636.25	-0.07691584651	-0.04393430972	
636.875	-0.1686264585	0.1156121927	
637.5	0.009063658373	0.06399707835	
638.125	-0.1305407961	0.005398665461	
638.75	-0.118680896	0.1564734983	
639.375	0.05678768804	0.1366458912	
640.0	-0.1022245371	0.2674934825	
640.625	0.2191986379	0.2229558795	
641.25	0.1635803719	-0.01718215411	
641.875	0.2896741564	0.1242818165	
642.5	-0.0187001343	-0.2597235247	
643.125	0.005888002961	0.01442073551	
643.75	-0.1050620877	-0.2412259859	
644.375	-0.1561589102	0.1036278987	
645.0	-0.174870337	-0.06586614134	
645.625	-0.03980347743	0.3303448307	
646.25	0.1403605272	0.01947882202	
646.875	-0.02797545417	0.06042211701	
647.5	0.18796363	0.07735338088	
648.125	-0.05060352833	0.09586546117	
648.75	0.3337330366	0.1763883061	
649.375	0.2382857019	-0.1965641058	
650.0	0.1746568791	-0.08443136278	
650.625	0.3627337517	-0.1716033111	
651.25	0.1928103836	-0.2842542845	
651.875	0.08298215884	0.08253586492	
652.5	0.3970472494	0.05350732037	
653.125	0.1913970851	-0.1365504636	
653.75	0.1913832617	0.09291180257	
654.375	0.007043903953	-0.552373994	
655.0	-0.2260094143	0.04611727693	
655.625	-0.1850467971	-0.02870455118	
656.25	-0.07360070922	0.3474587099	
656.875	0.05343561191	-0.1564334688	
657.5	-0.08336209944	0.207634169	
658.125	0.1303293668	0.1550733801	
658.75	0.06578344681	0.1369030394	
659.375	0.3821381969	0.1973548363	
660.0	0.2455146273	-0.2850800785	
660.625	0.191603442	-0.0680590617	
661.25	0.3414808023	-0.1351451649	
661.875	0.2623720851	-0.2211752186	
662.5	0.150019143	0.02400546338	
663.125	0.3825047675	-0.06329272154	
663.75	0.1477388344	-0.257344568	
664.375	0.1042031089	-0.171981478	
665.0	-0.1541607056	-0.4070113187	
665.625	-0.2674726591	0.08864977924	
666.25	-0.1914104763	0.05401003171	
666.875	0.06888678691	0.3795047677	
667.5	0.1189833832	-0.0172117273	
668.125	0.1228693643	0.1826051994	
668.75	0.2622657952	-0.1368130897	
669.375	0.09957738519	-0.05763203036	
670.0	0.1950400373	-0.1285894336	
670.625	0.07802291318	-0.2412318753	
671.25	0.05147054593	-0.001843150973	
671.875	0.2808790498	-0.06919682936	
672.5	0.2140088656	-0.1031862455	
673.125	0.1557889424	-0.01422402205	
673.75	0.3214129678	-0.06836096269	
674.375	0.02963238159	-0.2511189341	
675.0	0.04459337121	-0.1296752934	
675.625	-0.1278596121	-0.2461021383	
676.25	-0.2283154185	0.02910124784	
676.875	0.1017785217	-0.1591894698	
677.5	-0.3515420708	0.01871016599	
678.125	-0.04939249774	0.1059845888	
678.75	-0.2372900413	0.1130546226	
679.375	0.3106116382	0.2335444251	
680.0	0.006447809319	-0.1049490326	
680.625	0.1195314901	0.1064419731	
681.25	0.1569036257	-0.05375505244	
681.875	-0.05229240293	0.05095474436	
682.5	0.2485477953	0.2671935209	
683.125	0.2047590479	0.07283931944	
683.75	0.03665068817	0.1394044659	
684.375	0.2318133004	0.2779604215	
685.0	0.3211725114	-0.0421093088	
685.625	0.06519721941	0.1643431688	
686.25	0.4492383458	0.0257028467	
686.875	0.171096582	-0.1873058214	
687.5	0.261463726	0.001682514269	
688.125	0.1417595593	-0.5888086794	
688.75	-0.3148269967	-0.08328882044	
689.375	-0.4171395138	-0.09065479693	
690.0	-0.01767937553	0.5070203263	
690.625	-0.1276077654	0.01027923948	
691.25	0.06068586086	0.5572572184	
691.875	0.3729613056	0.4378318807	
692.5	0.1849685073	0.4159148449	
693.125	0.6378484017	0.3099694531	
693.75	0.628626745	0.03187634031	
694.375	0.3003923285	-0.08416090443	
695.0	0.4938303665	-0.02285881332	
695.625	0.5232514018	-0.03587292838	
696.25	0.3801690313	0.09297706277	
696.875	0.1666867848	0.4848593557	
697.5	0.4772527005	0.3218369689	
698.125	0.2679065885	0.2346974996	
698.75	0.6813721989	-0.1915270509	
699.375	-0.3854806746	-0.4257936388	
700.0	-0.1720643947	0.02473059347	
700.625	-0.08622770936	0.4737537013	
701.25	0.08909663036	0.07556526424	
701.875	-0.07107783855	0.2874132648	
702.5	0.1739041614	0.4702888841	
703.125	0.2139744929	0.1924744322	
703.75	0.4582282833	0.1088294102	
704.375	0.2025365678	-0.003876664124	
705.0	0.1798666105	-0.11967965	
705.625	0.1722849143	0.06150823904	
706.25	0.1917691023	0.2720955142	
706.875	0.1802680494	0.1822298433	
707.5	0.05574481356	0.3542747356	
708.125	0.4903169039	0.1979522615	
708.75	0.1195013946	-0.2584813336	
709.375	0.01023008974	-0.3507090611	
710.0	-0.2727607046	0.270533431	
710.625	0.05147715963	0.03299433863	
711.25	-0.02581021759	0.2406919452	
711.875	0.1825387966	0.08221692772	
712.5	0.0902777498	0.1986733767	
713.125	0.3434740102	0.05831606696	
713.75	0.1865391086	-0.1502016151	
714.375	0.07614968891	-0.1887551539	
715.0	0.1339423568	-0.1255693294	
715.625	-0.002483195876	-0.1385649805	
716.25	0.1560999194	-0.09727601638	
716.875	0.4017636925	0.1026077429	
717.5	0.4375857301	-0.1163229423	
718.125	0.2406287644	0.3477555705	
718.75	0.8860340477	0.02122470269	
719.375	0.3429713752	-0.4725489671	
720.0	0.9789377027	0.1341634439	
720.625	0.1761930369	-1.390468156	
721.25	0.1777638573	-0.3614770565	
721.875	0.5148593504	-0.9675269714	
722.5	-0.1867196141	-0.9651834012	
723.125	-0.2074633512	-0.3629780613	
723.75	-0.5898941607	-0.205021003	
724.375	-0.1771484485	0.4193639279	
725.0	-0.02501246945	0.2009776123	
725.625	-0.2259063791	0.420374278	
726.25	-0.04656257018	0.5723846205	
726.875	-0.2723314222	0.44256458	
727.5	-0.8477261148	0.8779865475	
728.125	-0.03624440993	1.636922469	
728.75	-0.1319910782	1.230990043	
729.375	-1.783431135	2.640500009	
730.0	1.291664386	3.643281974	
730.625	-0.919569343	0.2407811163	
731.25	-3.493078033	4.223738322	
731.875	-1.221295066	2.536685515	
732.5	-1.519621288	-1.939509107	
733.125	-2.923357312	-0.9228207134	
733.75	-1.010559857	0.7102879099	
734.375	-0.1512133599	0.5578714884	
735.0	0.6733759547	-0.5046653026	
735.625	-0.2468220251	0.04207458855	
736.25	-0.4374972197	0.09664831089	
736.875	-0.04263720586	0.7734997734	
737.5	0.6381148596	0.2696267563	
738.125	0.4181609048	0.9955911128	
738.75	2.373545062	-0.4109200012	
739.375	0.9422289304	-1.239273664	
740.0	0.7350222823	0.966896005	
740.625	5.264081661	0.7207709692	
741.25	1.577607029	-1.786424579	
741.875	-3.917586119	-2.108529549	
742.5	-2.373743973	-1.620358333	
743.125	0.764521456	0.3679163978	
743.75	0.9220258511	-1.091493751	
744.375	-0.4309816572	-0.1964948544	
745.0	-0.05437814399	-0.05203025672	
745.625	0.146803791	0.03989564591	
746.25	0.02296961015	-0.001689880353	
746.875	-0.1356212877	-0.2052185422	
747.5	-0.2612549367	0.1733446493	
748.125	-0.09981820761	0.3018711487	
748.75	-0.07351281562	0.3988433235	
749.375	0.09548549324	0.4196661324	
750.0	-0.2197951082	0.154661114	
