!Created with skrf (http://scikit-rf.org).
# GHz S RI R (50+0j) 
!freq	ReS11	ImS11	
500.0	-0.342309564	-0.9136463566	
500.625	0.6215455447	-0.4355538097	
501.25	-0.5923638921	-0.6506918927	
501.875	-0.07926618027	-0.1673969058	
502.5	-0.03452067993	-0.1751866404	
503.125	-0.041620866	0.03496955308	
503.75	-0.03116845646	0.04162023686	
504.375	0.04861049067	-0.01728928367	
505.0	-0.00992777466	0.007006209537	
505.625	0.03462197788	-0.06276690358	
506.25	-0.1121207825	0.008881178523	
506.875	-0.1037048287	-0.2104120783	
507.5	-0.3314894431	0.04400413697	
508.125	0.4219112304	-0.3128379963	
508.75	0.6500652708	-1.182776871	
509.375	-0.4811828052	-0.8210825221	
510.0	-0.0921278399	-0.3808744554	
510.625	-0.1306507556	-0.2428543477	
511.25	-0.08134299492	0.01041680727	
511.875	-0.03691645889	-0.03386021401	
512.5	-0.0203830269	0.05168985099	
513.125	-0.02152145053	-0.01539990771	
513.75	-0.0383675435	-0.08586748515	
514.375	-0.06374970344	0.09966499052	
515.0	0.2256687474	-0.2661001127	
515.625	-0.4288174011	-0.06369985459	
516.25	0.3014997979	-0.3402517902	
516.875	-0.08408110468	-0.6145178111	
517.5	-0.07528765169	0.04079310676	
518.125	0.02029540554	-0.05927042608	
518.75	-0.08096805303	-0.02631067684	
519.375	-0.05521996826	0.01499824956	
520.0	0.1001085547	0.08010516453	
520.625	0.1192827486	-0.09212064799	
521.25	-0.008259988871	-0.2320344648	
521.875	-0.09270616827	-0.09877260685	
522.5	-0.08666924812	0.006485752385	
523.125	0.01351259473	-0.04163061329	
523.75	-0.1990320246	-0.009352405278	
524.375	-0.01935085477	0.09705857856	
525.0	-0.1538269771	0.05569455794	
525.625	0.1067145211	0.0873157201	
526.25	-0.08918743383	-0.03156706909	
526.875	0.0182773052	0.05662131729	
527.5	-0.04780159201	0.06330982987	
528.125	-0.0286881012	0.2851386845	
528.75	0.03758388129	0.0990867578	
529.375	0.04181308313	0.08179861654	
530.0	0.09667023605	0.1212521011	
530.625	0.009139805387	0.1366188908	
531.25	0.4350603286	0.1748205494	
531.875	0.3261373875	-0.1625821215	
532.5	-0.0326185468	0.002728364636	
533.125	0.06935044783	-0.1631977888	
533.75	-0.06918624989	-0.1125767975	
534.375	0.03914863992	-0.2510852566	
535.0	-0.2961506392	-0.02053478943	
535.625	-0.08106575171	0.0682390582	
536.25	-0.01902495147	0.1057377326	
536.875	0.08798461518	-0.03194758686	
537.5	0.06098612526	0.005373950836	
538.125	0.1263471112	-0.09831826457	
538.75	0.05836039811	-0.08248078944	
539.375	-0.04478816247	-0.1397340598	
540.0	-0.1823322452	-0.1572157506	
540.625	-0.1116848349	0.03556546884	
541.25	-0.07583212844	-0.04159608585	
541.875	-0.1210909258	-0.04604142604	
542.5	-0.007852865939	-0.04748190913	
543.125	-0.1196189743	-0.007790648895	
543.75	-0.02741997916	0.03238250664	
544.375	-0.1031152223	-0.008944795419	
545.0	0.06582209352	0.07220412773	
545.625	-0.01678364971	0.0306935231	
546.25	0.1420426204	0.06451976365	
546.875	0.06271810001	-0.06667826641	
547.5	0.09334126553	-0.07003083726	
548.125	-0.08022993349	-0.1696807447	
548.75	-0.07225780482	-0.0524969045	
549.375	-0.08859460636	-0.1195870287	
550.0	-0.07986581018	0.05576143392	
550.625	-0.02728592244	-0.03113104561	
551.25	-0.09163184414	0.05147796555	
551.875	-0.03149542761	0.06858499123	
552.5	-0.05507434862	0.05646944997	
553.125	0.005753927179	0.06386665319	
553.75	0.03228418138	0.03328069415	
554.375	0.09354441111	-0.005398414627	
555.0	0.07552488712	-0.06801582885	
555.625	0.0731106518	-0.0952862961	
556.25	0.05129851275	-0.1332948256	
556.875	-0.04158753316	-0.1368713658	
557.5	-0.08896590808	-0.08691248775	
558.125	-0.1060340969	-0.03515774631	
558.75	-0.1040687597	0.006593168049	
559.375	-0.0895893836	0.02377919543	
560.0	-0.09772974382	0.06609805254	
560.625	-0.03379927019	0.1147570229	
561.25	-0.004905998418	0.06209411697	
561.875	0.03941727729	0.0696407026	
562.5	0.005414770581	0.005033645668	
563.125	0.06261659465	0.09694101314	
563.75	0.1490428424	-0.03514555694	
564.375	0.06779496305	-0.07183824273	
565.0	0.1005029309	-0.1505919927	
565.625	-0.08591661605	-0.1327692363	
566.25	-0.04096333033	-0.09114516547	
566.875	-0.1752006715	-0.07778112883	
567.5	-0.08909263513	0.003369948269	
568.125	-0.07725409993	-0.2084369731	
568.75	-0.2571207087	-0.0249292462	
569.375	-0.1056785138	0.07957503829	
570.0	-0.2002599125	0.1563875796	
570.625	-0.00260268965	0.2388711239	
571.25	-0.0111579781	0.01637447638	
571.875	0.09661695375	0.127309832	
572.5	0.008566958767	-0.05355359434	
573.125	0.1716925627	-0.06093659192	
573.75	-0.005747586689	-0.1764156116	
574.375	-0.02588998398	0.02597572637	
575.0	0.09984765098	-0.1101305296	
575.625	-0.04953447166	-0.06640827096	
576.25	0.0808266507	-0.0109262085	
576.875	0.001978789432	-0.2161963564	
577.5	-0.08595222113	-0.08288833379	
578.125	0.05357137363	-0.1299391751	
578.75	-0.1626511573	-0.1734990435	
579.375	-0.04627864658	0.03414504296	
580.0	-0.01188163663	-0.1676783065	
580.625	-0.1054645394	0.104379565	
581.25	-0.04172276066	-0.03566463872	
581.875	-0.05300300376	0.2628372038	
582.5	0.1832810739	0.07993312645	
583.125	-0.01621663032	0.002543232333	
583.75	0.1004143137	0.09601703634	
584.375	-0.0600708311	-0.03336840277	
585.0	0.1656333615	0.1322423034	
585.625	0.1174414449	-0.1011643759	
586.25	0.07873371425	0.01240307194	
586.875	0.1297753115	-0.1873346924	
587.5	-0.09073329362	-0.08207736463	
588.125	0.04311326062	-0.07075089725	
588.75	0.0624106886	-0.1976520458	
589.375	-0.03809641847	-0.1357198309	
590.0	0.05807744571	-0.1519031002	
590.625	-0.262377263	0.02169161093	
591.25	-0.01777759196	0.06622974082	
591.875	-0.1576327375	0.09299633943	
592.5	0.1060385332	0.09857967211	
593.125	-0.1630849566	-0.01406343817	
593.75	0.1557727438	0.1253114336	
594.375	0.02329659835	0.02292608744	
595.0	0.1495561601	0.1967662324	
595.625	0.2269798705	0.01977013102	
596.25	0.04719867086	0.03344780787	
596.875	0.2170251622	0.06716291121	
597.5	0.1449075295	-0.002452043122	
598.125	0.06181464185	0.1131205235	
598.75	0.2200801187	0.1167287945	
599.375	0.1496509239	-0.0909061138	
600.0	0.1320858514	-0.09332322724	
600.625	0.1791996871	-0.1780315908	
601.25	-0.003120182414	-0.2063963428	
601.875	0.01578567353	-0.06727110026	
602.5	-0.2119721549	-0.01223658249	
603.125	0.006665747828	0.05690342094	
603.75	-0.1669502416	-0.009640156418	
604.375	-0.1013354929	0.1755135645	
605.0	0.0183286403	-0.0195573587	
605.625	-0.141505274	0.16961166	
606.25	-0.008347516705	0.1000685572	
606.875	-0.1281555922	-0.01288285555	
607.5	-0.1075274413	0.223557079	
608.125	-0.05708436161	0.1587190628	
608.75	0.152103222	0.1873602251	
609.375	0.2535546235	-0.08846300316	
610.0	0.05704971683	-0.1179902552	
610.625	0.0388339759	-0.135259776	
611.25	-0.03950767983	-0.1954535556	
611.875	-0.05585648546	-0.01728112035	
612.5	-0.1030646939	-0.1405913371	
613.125	-0.2573084374	0.1174865092	
613.75	0.02263443438	0.0356905271	
614.375	-0.03356475792	0.1829927757	
615.0	0.09918621964	-0.06413075805	
615.625	-0.121732878	0.09248862388	
616.25	0.08864795042	0.125527506	
616.875	-0.06914390426	0.05487637891	
617.5	-0.04224233122	0.2741141114	
618.125	0.04360159839	0.1953842949	
618.75	0.04738713522	0.2951484717	
619.375	0.0855771502	0.1426055891	
620.0	0.2058727675	0.1199119094	
620.625	0.006499236003	-0.177039343	
621.25	-0.06864205165	-0.205728251	
621.875	-0.2498792822	-0.03869677437	
622.5	-0.03843263178	0.1025896342	
623.125	-0.07657374818	0.2109464972	
623.75	0.2350510475	-0.03880752544	
624.375	-0.02731056683	0.01301513293	
625.0	0.0743489941	-0.1033036608	
625.625	-0.01035664479	-0.01848004995	
626.25	0.004363991528	-0.1567856393	
626.875	-0.1955360836	-0.04744631305	
627.5	-0.051812925	-0.007540647046	
628.125	-0.1206703898	-0.1228362174	
628.75	-0.09163882113	-0.08199996025	
629.375	-0.03261232163	-0.1250561843	
630.0	-0.2011088581	-0.09772702535	
630.625	-0.2077056219	0.1263713591	
631.25	0.01885425344	0.1358684222	
631.875	-0.04610780489	0.2514910116	
632.5	0.1905373313	0.1116775441	
633.125	0.08295014414	0.006055879246	
633.75	0.2506508312	-0.07340735744	
634.375	-0.0804385002	-0.1159047917	
635.0	0.07751230132	-0.116817736	
635.625	-0.2314270983	-0.0528471261	
636.25	-0.04578311108	0.08982389161	
636.875	-0.1148269484	0.04240215774	
637.5	0.0179282611	0.1708428365	
638.125	-0.03768715218	-0.008422193612	
638.75	-0.1091985388	0.2280369832	
639.375	0.1349708265	0.1984668251	
640.0	0.03585223801	0.1872990914	
640.625	0.312186226	0.158719765	
641.25	0.2229217242	-0.1351770072	
641.875	0.08360823757	-0.08819724609	
642.5	0.04493499492	-0.2630083522	
643.125	-0.1765876864	0.005325249725	
643.75	0.03507188264	-0.09439481343	
644.375	-0.3768154557	0.03045911537	
645.0	0.03758121186	0.1314481292	
645.625	-0.1100540984	0.2258790052	
646.25	0.4080885307	-0.03852082923	
646.875	-0.07730215659	-0.03953455303	
647.5	0.2639069003	0.07464997521	
648.125	0.01930883597	-0.09867522445	
648.75	0.2605396505	0.1060643402	
649.375	0.2584825506	-0.3679378459	
650.0	-0.08251556606	-0.2445696808	
650.625	0.2082556793	-0.123084979	
651.25	0.2261303555	-0.3707939322	
651.875	0.0290145179	-0.1365408153	
652.5	0.3603813823	0.007637415061	
653.125	0.2029620096	-0.2914127658	
653.75	0.04718241921	-0.1192141317	
654.375	0.01805154127	-0.3545364025	
655.0	-0.4065519049	0.06858861096	
655.625	0.04843100441	0.1574912346	
656.25	-0.09876379094	0.1579819312	
656.875	0.227780787	0.07199480093	
657.5	-0.2343791959	0.08802952329	
658.125	0.2972576176	0.1751283232	
658.75	0.18458211	-0.09812334342	
659.375	0.3321415289	0.05065432667	
660.0	0.2067107487	-0.497903322	
660.625	-0.06212464054	-0.1800479218	
661.25	0.243787651	-0.2092223512	
661.875	0.1917080449	-0.3576126507	
662.5	0.05166000991	-0.2200997818	
663.125	0.2927331096	-0.07902585052	
663.75	0.06010317421	-0.3959445098	
664.375	-0.07334744266	-0.1493432168	
665.0	-0.2620036287	-0.2518937663	
665.625	-0.3085424659	0.2224926723	
666.25	0.02356465013	0.1512337569	
666.875	0.05047874516	0.2466843636	
667.5	0.3049792259	-0.02190970111	
668.125	0.04147878066	-0.0156962473	
668.75	0.3278744282	-0.1629711191	
669.375	-0.06281903838	-0.250695099	
670.0	0.1228471372	-0.07340557382	
670.625	0.02888014665	-0.3156605639	
671.25	-0.1067357281	-0.1293083804	
671.875	0.2425934388	-0.058671745	
672.5	0.1366607564	-0.3093590192	
673.125	0.06874324916	-0.1348174304	
673.75	0.1750440784	-0.1613722873	
674.375	-0.02040863825	-0.3593942725	
675.0	-0.06884349398	-0.04117766717	
675.625	-0.162117369	-0.2021601171	
676.25	-0.2295662894	0.1028932329	
676.875	-0.001512903563	0.03142486584	
677.5	-0.2372545513	0.02718670253	
678.125	-0.001187645312	0.2382859034	
678.75	0.02809981432	0.07573637223	
679.375	0.2201612056	0.1922125652	
680.0	0.1099790481	-0.3593162781	
680.625	-0.02840955651	0.1048368545	
681.25	0.2811010547	-0.1124991235	
681.875	-0.1135897848	-0.1069393968	
682.5	0.1169334609	0.2740647062	
683.125	0.4313255798	-0.2480688077	
683.75	-0.0439451059	0.03511816246	
684.375	0.3237820603	0.1730259872	
685.0	0.2784005224	-0.155921651	
685.625	0.0850066894	0.002262624382	
686.25	0.3816982311	0.07075141889	
686.875	0.1719246147	-0.3652257014	
687.5	0.1322505828	-0.2080714552	
688.125	-0.1282901712	-0.4741471966	
688.75	-0.4624240835	0.10825277	
689.375	-0.1694022543	0.157019561	
690.0	0.1174482654	0.3750269231	
690.625	0.3436093077	0.05703956327	
691.25	0.06913338298	0.2298010175	
691.875	0.6757785184	0.3670839135	
692.5	0.3857918025	-0.1455343845	
693.125	0.4895701709	0.09980507024	
693.75	0.6751176935	-0.5178951183	
694.375	0.08062355688	-0.3798857884	
695.0	0.5042962165	-0.07098592886	
695.625	0.3087805117	-0.3845603993	
696.25	0.3126042378	0.09797274118	
696.875	0.6570477805	0.2031027058	
697.5	0.5190208276	0.1989052621	
698.125	0.3533686983	-0.04282119949	
698.75	0.3096840994	-0.4202987947	
699.375	-0.544269689	-0.2360840495	
700.0	0.01070728883	0.3411464818	
700.625	0.04143714551	0.1915844922	
701.25	0.3886342389	0.143018833	
701.875	0.1126112931	0.06781253907	
702.5	0.3124169559	0.323513774	
703.125	0.5044538375	-0.08872714374	
703.75	0.1628780373	-0.0734218502	
704.375	0.3591425962	-0.2779260428	
705.0	0.1370188715	-0.2589571731	
705.625	0.1079288621	0.06780652847	
706.25	0.3281453687	0.1022146714	
706.875	0.1691768343	0.225906271	
707.5	0.2653247851	0.2606293446	
708.125	0.4389091577	-0.04965412157	
708.75	0.2566982863	-0.5053474093	
709.375	-0.2743815063	0.01579585543	
710.0	-0.2774648305	0.08464084637	
710.625	0.2122309843	0.102740961	
711.25	-0.1197342276	0.1184077006	
711.875	0.4366257551	0.08495364355	
712.5	0.1043628088	-0.06220435084	
713.125	0.3095140642	-0.1224859353	
713.75	0.0434329417	-0.3570112997	
714.375	-0.04815361423	-0.1013405604	
715.0	0.0121287146	-0.2328449615	
715.625	-0.09536548553	-0.2174565907	
716.25	0.104027386	-0.08893992346	
716.875	0.3961631059	-0.1561387501	
717.5	0.3902385632	-0.2213775363	
718.125	0.3612337785	-0.09675882654	
718.75	0.703599202	-0.2778737424	
719.375	0.4261479443	-0.7011685947	
720.0	0.3550476749	-0.5851979488	
720.625	0.5812775779	-1.208269996	
721.25	-0.6546702733	-0.6610465801	
721.875	0.1529584942	-0.6446621097	
722.5	-0.9662769181	-0.7850125774	
723.125	-0.5684507348	0.3463038269	
723.75	-0.3307851439	0.140884531	
724.375	0.2376558829	0.6577511008	
725.0	0.1842121822	0.1003942113	
725.625	-0.01808395763	0.5361832777	
726.25	0.3062538358	0.7047343985	
726.875	0.03140316966	0.4570275259	
727.5	-0.2961921307	1.30532676	
728.125	0.5746850347	1.97370872	
728.75	0.7288486462	1.308897895	
729.375	-1.137474517	3.017451188	
730.0	2.00569852	4.090870406	
730.625	0.566042065	1.814578805	
731.25	-1.640264082	2.285877784	
731.875	-1.327221014	4.141514849	
732.5	-1.553911812	0.7142842503	
733.125	-2.869027541	0.3507644985	
733.75	0.4174558678	1.861224489	
734.375	0.278723335	-0.1359152017	
735.0	0.2335735613	-0.9828060217	
735.625	-0.2400241941	0.6103589266	
736.25	-0.4324278538	0.1662156831	
736.875	0.6556545798	0.7293067677	
737.5	0.8003899357	-0.4695420728	
738.125	0.766759992	0.1919051902	
738.75	2.579459269	-1.698135933	
739.375	0.5142749259	-2.398486898	
740.0	1.173288749	0.452087889	
740.625	5.489086336	0.3182766973	
741.25	3.079120422	-1.93824833	
741.875	-3.266550502	-2.260888337	
742.5	-2.897403908	-1.889807244	
743.125	-0.6561417446	-0.2291735452	
743.75	0.2799432123	-1.011262131	
744.375	-0.4593406396	0.2759983146	
745.0	0.073480878	-0.05614584271	
745.625	0.1960511708	-0.02286061996	
746.25	-0.07491440572	0.01559431967	
746.875	-0.234853209	-0.09407512416	
747.5	0.01812205662	0.423258811	
748.125	0.2351291439	0.2931743948	
748.75	0.1115625341	0.3944554504	
749.375	0.2326599885	0.513845717	
750.0	-0.1841230261	0.2455246653	
