!Created with skrf (http://scikit-rf.org).
# GHz S RI R (50+0j) 
!freq	ReS11	ImS11	
500.0	0.5639294616	-3.594387118	
500.625	-1.370841654	-5.629805603	
501.25	-0.9438923128	-0.9363240888	
501.875	-1.119101466	-1.712460187	
502.5	-0.4848385564	-0.2447015996	
503.125	-0.1251379826	-0.07109106548	
503.75	0.1053116158	0.458088269	
504.375	-0.05637510029	-0.05956425896	
505.0	0.2446297943	-0.1000471907	
505.625	-0.2222674085	-0.03432132262	
506.25	0.253763513	-0.4129510032	
506.875	-0.4618000705	0.9351372654	
507.5	0.9868837222	-0.9109200492	
508.125	0.1384590399	-3.239641378	
508.75	-0.8386155954	-2.504082193	
509.375	1.416524918	-3.033864822	
510.0	-2.838543677	-0.3053948703	
510.625	-0.2483224637	-0.212758251	
511.25	-0.3985785321	-0.2731689108	
511.875	-0.4508359562	0.09151576253	
512.5	-0.06086697041	0.08537219533	
513.125	0.03511476473	-0.2603601581	
513.75	-0.3867026355	-0.120853598	
514.375	0.1735505332	-0.08588820808	
515.0	-0.9401653048	-0.6337245403	
515.625	1.903944599	-0.2274999994	
516.25	-2.614279371	-4.423945688	
516.875	-0.7520521719	0.6679157244	
517.5	0.5142448598	-0.8828188785	
518.125	-0.3572294356	0.2669260273	
518.75	0.2650449152	-0.7715778091	
519.375	-0.1855559213	0.2530149855	
520.0	0.2183871695	0.05434263546	
520.625	0.5955103126	-0.03806777416	
521.25	-0.2951345016	-0.8367315436	
521.875	-0.1746606895	-0.06431844957	
522.5	-0.2010589544	0.07259867445	
523.125	-0.08381859086	-0.06164236049	
523.75	-0.4205128412	0.1920433516	
524.375	-0.2203016219	-0.1149480486	
525.0	-0.1976173392	0.5942845046	
525.625	0.1350179684	-0.1272303954	
526.25	0.005925569588	0.1610675291	
526.875	-0.1681879238	-0.09245952915	
527.5	-0.2537257507	0.9150612978	
528.125	0.4659475944	0.4260605332	
528.75	-0.3885892156	0.7238403353	
529.375	0.3492202095	0.08186263198	
530.0	-0.3329042868	0.7014353064	
530.625	0.6807732466	0.5924960978	
531.25	0.8548427943	0.5503197957	
531.875	0.6207837858	-1.071458277	
532.5	0.1633464932	0.02034329335	
533.125	-0.2050883138	-0.5313423524	
533.75	0.7010803739	-0.1312877014	
534.375	-0.9395943646	-1.058828296	
535.0	-0.2889725808	-0.09697311622	
535.625	-0.6680109341	0.1852524482	
536.25	0.1485965358	0.2683986295	
536.875	0.1158628182	0.1626572218	
537.5	0.2629198023	-0.1818357343	
538.125	0.08740037536	-0.1457962648	
538.75	0.5300953236	-0.1845340208	
539.375	-0.3658283665	-0.3900128119	
540.0	-0.2102495528	-0.2832460071	
540.625	-0.4526428087	-0.1620980549	
541.25	-0.2173463378	0.1078744799	
541.875	-0.04200128118	-0.04757746685	
542.5	-0.1710018227	-0.2007599969	
543.125	-0.19251196	0.03136555814	
543.75	-0.1527921398	-0.1600716088	
544.375	-0.135121116	0.2997313428	
545.0	-0.06858216958	-0.06012105888	
545.625	0.2708354222	0.3476617655	
546.25	0.05645312543	-0.160635397	
546.875	0.4116953283	0.2254287373	
547.5	-0.008669695693	-0.5039307617	
548.125	0.05622055155	-0.1939040201	
548.75	-0.2926161453	-0.4817950294	
549.375	-0.3997976426	-0.039123579	
550.0	-0.0320876584	-0.08990070744	
550.625	-0.2582453051	0.102088035	
551.25	-0.05542442672	-0.007104525695	
551.875	-0.3045110658	0.1874007076	
552.5	-0.01067423761	0.2097253598	
553.125	-0.09369594281	0.1329683904	
553.75	0.146478767	0.1187934943	
554.375	0.2037764495	0.003697578897	
555.0	0.2567390315	-0.1552009472	
555.625	0.2067482548	-0.2705342081	
556.25	0.1524357624	-0.3319404494	
556.875	-0.06391381898	-0.3908893077	
557.5	-0.2346722484	-0.2601877705	
558.125	-0.2722672564	-0.08342228256	
558.75	-0.2376664039	-0.02924757809	
559.375	-0.2977719917	0.04343538859	
560.0	-0.1820433472	0.1850328556	
560.625	-0.1767297065	0.2108034507	
561.25	0.04864610805	0.3099949525	
561.875	0.05048728752	0.003621828212	
562.5	0.01666785564	0.2454499197	
563.125	0.157952379	0.03506601884	
563.75	0.3086470261	0.1585889549	
564.375	0.349425902	-0.3641827503	
565.0	0.06062515985	-0.2182998778	
565.625	0.05982553899	-0.4476323565	
566.25	-0.3861220962	-0.191764837	
566.875	-0.1763654861	-0.1575637586	
567.5	-0.3784218059	-0.414158007	
568.125	-0.467683995	-0.2396569825	
568.75	-0.3020297668	-0.3173288267	
569.375	-0.819607822	0.2739400822	
570.0	-0.01421986539	0.5081861783	
570.625	-0.356584846	0.1309031114	
571.25	0.1362815858	0.6698679751	
571.875	-0.16810844	-0.05481430403	
572.5	0.6306762458	0.1250265919	
573.125	-0.1381241362	-0.3769613881	
573.75	0.3090384418	0.04618334619	
574.375	0.04273607918	-0.5189881666	
575.0	-0.06229774034	0.187067716	
575.625	0.3191926901	-0.367382792	
576.25	-0.2046369014	-0.3047133658	
576.875	0.2881980437	-0.1476779828	
577.5	-0.01049841569	-0.6586986414	
578.125	-0.2858579217	-0.2190563835	
578.75	0.0378036122	-0.2425790608	
579.375	-0.2955688222	-0.3774856247	
580.0	-0.1531820437	0.1958758225	
580.625	-0.1319246208	-0.3541027412	
581.25	-0.2754354796	0.4519755535	
581.875	0.06674634417	0.02666727886	
582.5	-0.2425056818	0.5308173298	
583.125	0.6462365509	0.1872818849	
583.75	-0.3342317948	-0.02729688055	
584.375	0.5048278837	0.2878933693	
585.0	-0.1838642596	-0.05915975048	
585.625	0.6116479261	0.3181720198	
586.25	0.2940560321	-0.4591201219	
586.875	0.1161497897	-0.01330898192	
587.5	0.1125232379	-0.5893702945	
588.125	-0.3289966939	-0.2107761986	
588.75	0.3513024732	-0.1532112721	
589.375	0.2016269088	-0.6174253506	
590.0	-0.1216201175	-0.1339918027	
590.625	-0.3781048541	-0.3344794739	
591.25	-0.3941356239	0.424864398	
591.875	0.03829737734	0.1711556228	
592.5	-0.170160737	0.0882522911	
593.125	0.1465394604	0.149071207	
593.75	-0.1994047226	0.2895475228	
594.375	0.6912517993	0.3598164837	
595.0	0.2361625688	-0.1086666276	
595.625	0.2136981181	0.5495219967	
596.25	0.7792629158	-0.1246742347	
596.875	-0.1155908993	0.2078961465	
597.5	0.6601767976	0.4826510362	
598.125	0.3648825891	-0.05948160243	
598.75	0.1965321252	0.4756090896	
599.375	0.6979725066	-0.1867838312	
600.0	0.1874348115	-0.2686622335	
600.625	0.4749597967	-0.2567684728	
601.25	0.1862799153	-0.6116771187	
601.875	-0.1420606635	-0.1685661321	
602.5	-0.3638711891	-0.1692093084	
603.125	-0.2449859016	0.1543975049	
603.75	-0.2192655925	0.1749436864	
604.375	-0.2165484642	0.05996180701	
605.0	-0.2764274	0.3024972773	
605.625	0.1051018376	0.01611609789	
606.25	-0.6229487061	0.1327893107	
606.875	-0.09216856428	0.4141484145	
607.5	-0.5385641196	0.0008450420151	
608.125	0.08823652663	1.073773955	
608.75	0.1502503279	0.0526268771	
609.375	0.8136448127	0.255063494	
610.0	0.2543513144	-0.6092996265	
610.625	0.4267774914	0.01886749455	
611.25	-0.1097871814	-0.6389834441	
611.875	-0.03142444195	-0.1146704405	
612.5	-0.4868599166	-0.3188283137	
613.125	-0.1543018179	0.247647803	
613.75	-0.4367772205	0.2583332397	
614.375	0.3105909	0.2709263748	
615.0	-0.2723007868	0.117509549	
615.625	0.3648242101	0.2272706649	
616.25	-0.307009483	0.08639260873	
616.875	-0.3195235866	0.7160084295	
617.5	0.1695959768	0.3369258331	
618.125	-0.402039438	0.5329946097	
618.75	0.2751796388	0.5655703609	
619.375	0.02182197047	0.2253774566	
620.0	0.6070815001	0.219175885	
620.625	0.1534111845	-0.2703276377	
621.25	-0.1304400016	-0.5433188508	
621.875	-0.4616522296	-0.1117332056	
622.5	-0.5247206431	-0.05822531474	
623.125	0.05134117254	0.5964173968	
623.75	0.03426461008	0.0961140693	
624.375	0.3459983493	-0.3163149347	
625.0	-0.09109472246	0.2328904604	
625.625	0.3644902774	-0.464268734	
626.25	-0.3248695797	0.1228678809	
626.875	-0.08018946534	-0.5401308144	
627.5	-0.6063400912	0.01370672096	
628.125	-0.03487817105	0.00809905205	
628.75	-0.08951256517	-0.5541505097	
629.375	-0.409915944	-0.1712904564	
630.0	-0.2218950159	-0.3312480228	
630.625	-0.6855102684	0.1105671802	
631.25	-0.1679999764	0.5175289517	
631.875	-0.2142645588	0.4036385694	
632.5	0.413512147	0.5990769875	
633.125	0.4565076262	0.05661737238	
633.75	0.3086637265	-0.09894577384	
634.375	0.320578058	-0.3100211468	
635.0	-0.2813243125	-0.3160268398	
635.625	-0.01741157367	-0.3511390765	
636.25	-0.6465964209	0.2605490407	
636.875	0.1972029543	0.282956849	
637.5	-0.543364398	-0.06423593305	
638.125	0.2434759048	0.5068722489	
638.75	-0.3937409896	-0.04385824869	
639.375	-0.03887522016	1.04451386	
640.0	0.55557492	0.2028924614	
640.625	0.109980971	0.5391345532	
641.25	1.020444183	-0.002658122516	
641.875	0.05859856951	-0.5348459889	
642.5	0.3114414753	-0.2586172053	
643.125	-0.6183084626	-0.6057340935	
643.75	0.02447720573	0.1916583462	
644.375	-0.6276516787	-0.3013485205	
645.0	-0.2424352038	0.5947062485	
645.625	0.1136438287	0.1963482976	
646.25	0.2408993886	0.5604928142	
646.875	0.4328678985	-0.3864237672	
647.5	-0.1898262105	0.2790388868	
648.125	0.7879320951	0.1205504679	
648.75	0.02566912738	-0.4415768094	
649.375	1.070636122	0.04921592244	
650.0	0.2921074368	-1.428140247	
650.625	-0.1991980777	-0.1456025682	
651.25	1.203027099	-0.2978033014	
651.875	0.4360717632	-1.179105401	
652.5	0.1553323609	0.2686491636	
653.125	1.181414243	-0.205665971	
653.75	0.03487817619	-0.7988028119	
654.375	0.2312421908	-0.2885153459	
655.0	-1.052858731	-0.6639505585	
655.625	-0.08509085933	0.6765945437	
656.25	-0.1984899205	0.03292257002	
656.875	0.2389498812	0.5602955502	
657.5	0.005441673002	-0.1963326576	
658.125	0.2256478996	0.8085748942	
658.75	0.8853809162	-0.02457153507	
659.375	0.465821881	-0.333293517	
660.0	0.8020796522	-0.2626925538	
660.625	0.2403862482	-1.375540412	
661.25	0.004845775009	-0.2094565856	
661.875	1.018133241	-0.4854852211	
662.5	0.5289083065	-0.9717500192	
663.125	0.1456316014	-0.009800464672	
663.75	0.9327129522	-0.9481067141	
664.375	-0.553224297	-0.5625032321	
665.0	-0.1415584119	-0.5846725607	
665.625	-1.11470504	0.1784956698	
666.25	0.1552633764	0.6148624099	
666.875	-0.09314296523	0.5051981159	
667.5	0.6914314037	0.3182473835	
668.125	0.2464867558	-0.2353914932	
668.75	0.6768598972	0.01268805761	
669.375	0.08465736818	-0.8456489859	
670.0	-0.004514633783	-0.2464574369	
670.625	0.2169368743	-0.4791996538	
671.25	0.03378548306	-0.6293263095	
671.875	0.06209982791	-0.1277182531	
672.5	0.8293248334	-0.2627751531	
673.125	0.3320188125	-0.7140625583	
673.75	0.167306964	-0.1682133678	
674.375	0.6188724595	-0.7892524224	
675.0	-0.8158806371	-0.4470801931	
675.625	0.2381995023	-0.3675836239	
676.25	-0.9368103711	-0.1850751654	
676.875	0.0135563672	0.4552962189	
677.5	-0.5383102203	-0.4976579334	
678.125	-0.165714382	0.8552484193	
678.75	-0.02087940567	0.1542941622	
679.375	0.4001822366	0.5418577899	
680.0	0.5529678168	-0.6116701135	
680.625	-0.2025360699	0.1733701105	
681.25	0.5869811651	-0.05504754334	
681.875	0.2510251247	-0.1382082679	
682.5	0.2016787394	0.3661398074	
683.125	0.8570951097	0.3155207145	
683.75	0.5531119827	-0.154417672	
684.375	0.3276910403	0.2207890236	
685.0	1.035749041	0.4288097481	
685.625	0.581779479	-0.8050277371	
686.25	0.4264070149	0.8712452264	
686.875	1.206881351	-1.192062658	
687.5	-0.0566505716	-0.09593149521	
688.125	0.7344576232	-1.480531582	
688.75	-1.73082754	0.09431590043	
689.375	-0.341895274	-0.09484636563	
690.0	0.2677141622	1.583903146	
690.625	0.5489841242	0.06679586897	
691.25	0.398109963	0.9861167825	
691.875	1.443393017	0.5915182264	
692.5	1.070904371	0.4428736894	
693.125	1.561662757	0.06325695809	
693.75	1.311627372	-0.6936073277	
694.375	1.016516173	-0.870046298	
695.0	0.9176351601	-0.6408283919	
695.625	1.21739829	0.1210122732	
696.25	1.621674052	-0.02448565341	
696.875	0.4045939762	0.6905931643	
697.5	1.304598209	1.851824023	
698.125	1.175858044	-0.3568584846	
698.75	1.617409291	-0.2138582076	
699.375	-1.600536226	-1.148226649	
700.0	0.02249895447	0.492971588	
700.625	-0.02292582235	1.405921092	
701.25	0.5464682342	-0.1352846487	
701.875	0.2331941823	0.9232142413	
702.5	1.240385275	0.4021260714	
703.125	0.4719661707	0.4701951775	
703.75	1.291457153	-0.2685833791	
704.375	0.2144322548	-0.5552593585	
705.0	0.9965467163	0.1130369856	
705.625	0.5746708181	-0.5044156471	
706.25	0.1699568585	0.5981298662	
706.875	1.261100662	1.070922476	
707.5	0.3841580859	0.168328994	
708.125	1.224731825	0.8255011291	
708.75	0.5749265721	-1.33012047	
709.375	-0.2743157717	-0.5173374346	
710.0	-0.8865548296	0.5136600039	
710.625	0.4050613784	0.1853481004	
711.25	0.1033095869	0.4500179319	
711.875	0.4939725665	0.1741659481	
712.5	0.8344726874	0.01748075916	
713.125	0.5547043448	-0.4314046322	
713.75	0.4426003723	-0.425783968	
714.375	-0.0753647384	-0.8200927953	
715.0	-0.1114169729	-0.08089787935	
715.625	0.4599089597	-1.01192227	
716.25	-0.3761253251	-0.6263399129	
716.875	1.020692815	0.3402513686	
717.5	2.427327723	-0.6818642918	
718.125	0.08204599103	-0.7471621187	
718.75	3.253097935	1.228592258	
719.375	1.17930899	-2.700015993	
720.0	0.8677600885	-0.5894129951	
720.625	1.772601296	-3.848100463	
721.25	-1.380422225	-1.748796353	
721.875	0.6284182086	-2.494567426	
722.5	-1.845283999	-2.365884705	
723.125	-1.948611939	0.360263871	
723.75	-0.9146421614	0.5031231559	
724.375	0.04320561231	1.598376696	
725.0	0.5694013599	0.5590718056	
725.625	0.1005289403	0.8856355406	
726.25	-0.1874561447	2.228158605	
726.875	1.335401571	2.182203954	
727.5	-1.857699513	1.925762048	
728.125	-0.4111055351	8.440530013	
728.75	6.165707229	4.209184059	
729.375	-8.247426135	1.959496094	
730.0	4.407819893	21.69436672	
730.625	3.261381928	0.4428074326	
731.25	-13.35424477	11.77658909	
731.875	-3.061787172	18.62755137	
732.5	-2.36735947	-2.09087967	
733.125	-10.53794477	0.08402836423	
733.75	-1.307015323	4.227103064	
734.375	1.256898014	0.2790017713	
735.0	1.259250621	-2.04569603	
735.625	-0.8591108292	1.408728462	
736.25	-0.8406115696	0.6563517717	
736.875	1.304171972	2.066527492	
737.5	3.214072418	-0.704037445	
738.125	1.266941574	0.1243681167	
738.75	8.673394776	-2.924983778	
739.375	4.509065366	-10.03634697	
740.0	-2.798838932	2.291699163	
740.625	29.37991646	9.493633865	
741.25	13.2013513	-9.652946717	
741.875	-14.67323751	-15.39804608	
742.5	-17.18523368	-6.946094643	
743.125	-0.4490386229	1.905598655	
743.75	3.150242075	-5.727656049	
744.375	-1.742731503	1.09068221	
745.0	-0.1278318065	-0.1388051244	
745.625	0.4329852495	-0.05215651215	
746.25	0.003731809361	0.03134595074	
746.875	-0.6203658043	-0.09575726627	
747.5	0.0485970453	1.122533438	
748.125	0.6520579754	0.8307459984	
748.75	0.2492127162	1.039976285	
749.375	0.8896492552	0.8472749677	
750.0	-0.9874504658	0.4616499997	
