!Created with skrf (http://scikit-rf.org).
# GHz S RI R (50+0j) 
!freq	ReS11	ImS11	
500.0	-0.3105199769	-1.467578819	
500.625	2.283536608	-3.226270962	
501.25	-1.943453171	-2.960246501	
501.875	-1.62943105	0.160501559	
502.5	0.09440773289	-0.4486824636	
503.125	-0.3223684916	0.2260581854	
503.75	-0.06834529067	0.03176720503	
504.375	0.159838552	-0.05343698321	
505.0	-0.04213079298	0.053508385	
505.625	0.09137533965	-0.4176778577	
506.25	-0.2465135832	0.3103908925	
506.875	-0.3461724683	-0.8586904988	
507.5	-1.445499754	-1.475212155	
508.125	0.03590710325	-0.2513329873	
508.75	2.813190284	-4.030992011	
509.375	-3.011818763	-2.972914449	
510.0	-0.4849175604	-1.190862248	
510.625	-1.146436752	-0.3955340475	
511.25	-0.05934625587	-0.2723401222	
511.875	-0.5445218939	-0.1767606944	
512.5	-0.12063205	0.1837708212	
513.125	-0.108398716	-0.1887627542	
513.75	-0.07396414289	-0.2741705256	
514.375	-0.6137151322	0.01265792193	
515.0	1.353704197	-0.06956089705	
515.625	-1.840866843	-1.151693858	
516.25	1.304600563	-0.5688606291	
516.875	-1.389320202	-2.728536584	
517.5	-0.7058023578	0.2677526389	
518.125	0.01707064713	-0.4463169036	
518.75	-0.5582090189	0.05665304796	
519.375	-0.2111378901	0.00139245805	
520.0	0.5109355554	0.1662261138	
520.625	0.3003188014	-0.304592248	
521.25	0.3149248772	-0.6599339728	
521.875	-0.6037457247	0.05983553699	
522.5	-0.0175800973	-0.008768730064	
523.125	-0.1697517582	0.1775451343	
523.75	-0.1841509815	-0.2710238988	
524.375	-0.4146309046	0.4491422198	
525.0	-0.1719182911	0.0008912903614	
525.625	0.1070308483	0.3546843079	
526.25	-0.1508635049	-0.2193630251	
526.875	-0.01339129496	0.301412832	
527.5	-0.1547836863	0.163488605	
528.125	-0.003307499794	1.187530914	
528.75	0.4915566618	0.3946229597	
529.375	-0.02735756081	0.3791737488	
530.0	0.2034608936	0.1440463684	
530.625	0.07819070049	1.441545148	
531.25	1.024022451	-0.3187819001	
531.875	0.6636827026	-0.1726024985	
532.5	-0.4981780392	-0.4586674532	
533.125	0.5184448914	-0.004447398707	
533.75	-0.1143207401	-0.6597495251	
534.375	0.2522221855	-0.6838849759	
535.0	-1.178023932	-0.1439637702	
535.625	-0.1400325946	0.2067938272	
536.25	-0.112727847	0.2542096233	
536.875	0.3534979542	-0.02641754983	
537.5	0.07455701902	0.006747973915	
538.125	0.4429182876	-0.2818001707	
538.75	0.1201357226	-0.2161284394	
539.375	-0.03713906399	-0.5283065231	
540.0	-0.6606828188	-0.261804047	
540.625	-0.1637518356	-0.04314836678	
541.25	-0.2482991599	-0.05493716306	
541.875	-0.1737419397	-0.02599739894	
542.5	-0.04153072803	-0.005771068324	
543.125	-0.2141592582	-0.2927845691	
543.75	-0.2022504257	0.1958108023	
544.375	-0.1881893761	-0.08062562614	
545.0	0.1355335052	0.2381112495	
545.625	-0.08453388751	0.08839518212	
546.25	0.5285646302	0.1497878495	
546.875	-0.000953458647	-0.1293327433	
547.5	0.4097987489	-0.1961345177	
548.125	-0.285768064	-0.5395265458	
548.75	-0.1918198171	-0.08590211832	
549.375	-0.2182605792	-0.3380839742	
550.0	-0.2457201648	0.1627986959	
550.625	-0.07860321313	-0.1379998817	
551.25	-0.2283609923	0.2256628465	
551.875	-0.1071605954	0.04415881843	
552.5	-0.1902671003	0.2531906581	
553.125	0.01541479387	0.1433892245	
553.75	0.08283136919	0.1298592777	
554.375	0.2588837629	0.001029925391	
555.0	0.2159819953	-0.1718363469	
555.625	0.2181698663	-0.247817387	
556.25	0.1593730407	-0.3609991397	
556.875	-0.09601919413	-0.3790354525	
557.5	-0.2276398813	-0.2517633566	
558.125	-0.285510834	-0.1025880055	
558.75	-0.259721297	0.01518745619	
559.375	-0.2283774591	0.02626828862	
560.0	-0.2717666299	0.179841425	
560.625	-0.06413077668	0.2897212159	
561.25	-0.0416315037	0.1709548926	
561.875	0.1510916066	0.1616736369	
562.5	-0.06842291556	0.05176190914	
563.125	0.2767942418	0.2353042459	
563.75	0.1928215895	-0.08054636589	
564.375	0.399807692	-0.08753617022	
565.0	0.1547269749	-0.495455333	
565.625	-0.1255722208	-0.2327462363	
566.25	-0.1426567147	-0.3233979119	
566.875	-0.4848302538	-0.1894103178	
567.5	-0.1913848867	-0.1254333615	
568.125	-0.340469089	-0.5789777173	
568.75	-0.5859559516	-0.003666234505	
569.375	-0.4841152079	-0.004160903205	
570.0	-0.4327561796	0.6940465781	
570.625	0.1442573002	0.3714513486	
571.25	-0.3318551267	0.1178759617	
571.875	0.5139038777	0.2382815487	
572.5	-0.05046243868	0.09112006662	
573.125	0.5352429372	-0.3614573459	
573.75	-0.1946697665	-0.3781142507	
574.375	0.2801078766	0.08027525694	
575.0	-0.1071984248	-0.4000468995	
575.625	0.2023773083	0.1226473681	
576.25	0.2835428937	-0.5013121334	
576.875	-0.2998360024	-0.2787476141	
577.5	0.1818195579	-0.1408213792	
578.125	-0.02104798512	-0.6220724779	
578.75	-0.3942117029	-0.1779025317	
579.375	0.01747640631	-0.06549799754	
580.0	-0.2834591089	-0.2656635308	
580.625	0.05427368776	0.103465058	
581.25	-0.5070361813	0.03691089561	
581.875	0.2152756364	0.5353877887	
582.5	0.1618458887	-0.0335512395	
583.125	-0.1986486496	0.4501067075	
583.75	0.5516375965	-0.1847400268	
584.375	-0.3203484637	0.3594310908	
585.0	0.6238959531	0.02474092369	
585.625	-0.06431753638	0.004991724045	
586.25	0.7301295613	-0.01207565749	
586.875	-0.1451467373	-0.4429888654	
587.5	0.1908773046	-0.1272814984	
588.125	0.0004468412449	-0.6141009066	
588.75	-0.2276175186	-0.3140756584	
589.375	0.3384991732	-0.07571288845	
590.0	-0.1897048534	-0.6208218912	
590.625	-0.3647408778	0.0262239112	
591.25	-0.3330370387	0.08533471889	
591.875	-0.1265436224	0.4412969817	
592.5	0.006275739834	-0.07200737722	
593.125	-0.05550794335	0.2464885571	
593.75	0.1247103734	0.1200061283	
594.375	0.1178041717	0.4244279382	
595.0	0.7666605453	0.4339772993	
595.625	0.2148069233	-0.2834818441	
596.25	0.2779832759	0.5193123854	
596.875	0.6703061722	-0.2038711367	
597.5	-0.04138621639	0.2241890431	
598.125	0.693334461	0.4661629499	
598.75	0.1927599874	-0.05309177882	
599.375	0.58188599	0.2698048125	
600.0	0.3912393136	-0.6116469176	
600.625	0.1383070522	-0.2761200372	
601.25	0.3373067199	-0.3426799194	
601.875	-0.2270425592	-0.4443918598	
602.5	-0.2563998175	-0.02382803545	
603.125	-0.2159374832	0.07269710105	
603.75	-0.3438355672	0.1513685107	
604.375	-0.1548324393	0.2807686398	
605.0	-0.2282479535	0.04769217478	
605.625	-0.1579176708	0.2935153217	
606.25	-0.1505488515	-0.04925716902	
606.875	-0.754513855	0.2939344446	
607.5	0.007286497134	0.4007857925	
608.125	-0.4493640426	0.3883385818	
608.75	0.8418615855	0.5036600617	
609.375	0.1217253464	0.04818285043	
610.0	0.7191458785	-0.2499328119	
610.625	-0.05670925259	-0.4686676841	
611.25	0.4032595979	-0.2657348691	
611.875	-0.5126707274	-0.2050975245	
612.5	-0.1618591087	-0.2063203233	
613.125	-0.6836245501	0.0988041842	
613.75	0.0685940167	0.1650286022	
614.375	-0.01368925562	0.4317113146	
615.0	0.2253001747	-0.2048930001	
615.625	-0.2491388709	0.4305733526	
616.25	0.201357886	0.29941623	
616.875	-0.4262072049	0.2180460808	
617.5	-0.1338482025	0.835432147	
618.125	0.166122292	0.2301989275	
618.75	-0.2275241207	0.6006856109	
619.375	0.4337872906	0.314202895	
620.0	0.2680765564	0.2162746098	
620.625	0.2912686326	-0.4849029404	
621.25	-0.08969401168	-0.3338997677	
621.875	-0.5346736264	-0.2826599137	
622.5	-0.382050649	0.1358216385	
623.125	-0.2521780697	0.42380188	
623.75	0.4145081844	-0.05441389493	
624.375	0.08971550266	0.1794522748	
625.0	-0.1518501041	-0.4377816642	
625.625	0.2761765622	0.1018086238	
626.25	-0.1984538985	-0.6196650489	
626.875	-0.2609332768	0.1560707371	
627.5	-0.2710145309	-0.4976581452	
628.125	-0.4624247385	0.0009594350131	
628.75	0.120492614	-0.202437174	
629.375	-0.3812011954	-0.5889580583	
630.0	-0.2989811147	0.04024198853	
630.625	-0.5362485178	-0.09991196363	
631.25	-0.4572751121	0.5567404019	
631.875	0.03652603459	0.5528597057	
632.5	0.3039527917	0.368656789	
633.125	0.4407800776	0.271181834	
633.75	0.4571479276	-0.3171536746	
634.375	0.1294781449	-0.1535066094	
635.0	0.02585493607	-0.5002655619	
635.625	-0.2577363318	0.04732824386	
636.25	-0.511684388	-0.04709542889	
636.875	-0.09079966464	0.5230342169	
637.5	0.08117074485	-0.08601626373	
638.125	-0.62579972	0.3656643074	
638.75	0.3186989526	0.4582116024	
639.375	-0.3502897174	0.2751189749	
640.0	0.3541937229	0.9247879805	
640.625	0.630947222	0.04273976746	
641.25	0.3365175533	0.2995313233	
641.875	0.4885000034	-0.8321913591	
642.5	-0.09901964288	-0.105300434	
643.125	-0.07972600561	-0.6248851704	
643.75	-0.6998472896	0.04886829285	
644.375	0.09782839438	-0.1298715357	
645.0	-0.691007753	0.3387519055	
645.625	0.3198052176	0.6245674587	
646.25	0.2811349558	-0.115835744	
646.875	0.2334233512	0.4500770283	
647.5	0.03349299367	-0.4581071772	
648.125	0.4140324368	0.5586783455	
648.75	0.7854721274	-0.5759881642	
649.375	0.004735098231	-0.2012738593	
650.0	1.178002617	-0.5973157883	
650.625	-0.1064858797	-1.310703523	
651.25	0.0331065705	0.1139179168	
651.875	1.299826176	-0.2321782961	
652.5	0.4712509769	-0.8294969789	
653.125	0.3196321451	0.289516696	
653.75	0.7829190696	-0.8890667911	
654.375	-0.4864854519	-0.3734265836	
655.0	-0.1995099902	-0.5291964893	
655.625	-0.9044742807	0.7294399973	
656.25	0.4631593027	0.1081837548	
656.875	-0.2573250823	0.2383436533	
657.5	0.4003983443	0.3168946528	
658.125	0.08292289531	0.08842660349	
658.75	0.8182844713	0.6263359722	
659.375	0.6724472217	-0.6559525201	
660.0	0.3504890736	-0.4159163647	
660.625	0.7719181616	-0.7239679825	
661.25	-0.004234947523	-1.174891767	
661.875	0.2999006147	0.04235994664	
662.5	1.187632754	-0.4932590396	
663.125	0.3376459093	-0.8791879204	
663.75	0.3397064909	-0.09325177029	
664.375	-0.0379590347	-1.296322829	
665.0	-0.511510296	0.0007999421632	
665.625	-0.8521519239	-0.2527083084	
666.25	-0.1249787898	1.012125188	
666.875	0.2023524718	0.06441077807	
667.5	0.3642941433	0.5728689541	
668.125	0.7083856758	-0.2238261313	
668.75	0.166343052	-0.2805916518	
669.375	0.4690659274	-0.3513408088	
670.0	-0.1346656442	-0.7758503541	
670.625	0.07666101515	-0.1732328524	
671.25	0.2505322297	-0.5354841889	
671.875	0.07447911531	-0.4859764164	
672.5	0.5106803068	-0.02559543749	
673.125	0.7036166389	-0.6294742088	
673.75	-0.01700580259	-0.6381762185	
674.375	0.2865357952	-0.1630725279	
675.0	-0.03915858662	-1.028209816	
675.625	-0.7947207559	0.186744529	
676.25	-0.05581162167	-0.6401563816	
676.875	-0.7310956923	0.4082318433	
677.5	0.1678644208	-0.153820574	
678.125	-0.9167621701	0.5876091587	
678.75	0.5804437402	0.1594312597	
679.375	0.1159751155	0.3826808347	
680.0	0.6809002603	-0.08841526836	
680.625	-0.03300035005	-0.5928453935	
681.25	-0.03643935743	0.4033961306	
681.875	0.6763411465	0.03312435177	
682.5	0.4037478072	0.02820405862	
683.125	0.3005347346	0.2441485665	
683.75	0.963931678	0.2851203228	
684.375	0.3920722578	-0.1309537256	
685.0	0.5889556021	0.3995398563	
685.625	1.092619776	-0.1629133553	
686.25	-0.07434745921	-0.3543651634	
686.875	1.519378219	0.3548360079	
687.5	0.1299109578	-1.63159284	
688.125	0.3892545047	-0.2035528465	
688.75	-1.423576325	-1.120657081	
689.375	-0.02979472215	1.161599543	
690.0	-0.6905906007	0.802113807	
690.625	1.267335345	0.4193082741	
691.25	0.1853771785	0.4777225251	
691.875	1.229647594	1.179864586	
692.5	1.413765756	0.02351299461	
693.125	1.340700754	0.0965714825	
693.75	1.365098499	-0.5421106756	
694.375	0.9978676925	-0.8105265261	
695.0	1.109422832	-0.9343356473	
695.625	0.7705348201	-0.2381839473	
696.25	1.485031696	0.8118215471	
696.875	1.129476581	0.3369258507	
697.5	0.3491789423	1.376980851	
698.125	2.222323313	0.329387129	
698.75	0.3350738539	-0.5196459362	
699.375	-0.7744468696	-1.844341683	
700.0	-0.3822249904	1.364279658	
700.625	-0.2481181486	0.2697650332	
701.25	1.18913949	0.5054014578	
701.875	0.1510377194	0.3060241098	
702.5	0.9640201726	0.9909155275	
703.125	0.7886753669	-0.3169873355	
703.75	0.9496607433	0.2352963969	
704.375	0.6719511202	-0.7765000344	
705.0	0.2086804904	0.02166482043	
705.625	1.283446384	-0.02030047772	
706.25	0.3119559624	-0.007411278309	
706.875	0.3145132099	1.142191119	
707.5	1.339144898	0.6551902753	
708.125	0.4954425119	0.4009300489	
708.75	1.164268943	-1.15169999	
709.375	-0.9017845337	-0.2901653558	
710.0	-0.6539522243	0.118204017	
710.625	0.4769274396	0.6480937512	
711.25	-0.03418862921	0.1602474818	
711.875	0.6202295414	0.4060592903	
712.5	0.5996136955	0.05045235821	
713.125	0.7970808913	-0.5939113483	
713.75	0.02627693328	-0.346697887	
714.375	0.3695330182	-0.7476194106	
715.0	-0.4074382037	-0.433969201	
715.625	0.4630788884	-0.2237606736	
716.25	0.2799817492	-1.351928089	
716.875	0.139994273	-0.01004359419	
717.5	2.141746143	0.5638033286	
718.125	2.173221852	-1.519907466	
718.75	0.2246985678	1.068061842	
719.375	3.963958362	-2.06350151	
720.0	-0.3577692396	-1.715602598	
720.625	1.398666674	-1.631174525	
721.25	-0.6576476329	-3.72152103	
721.875	-0.3184459047	-1.066915292	
722.5	-1.553302671	-2.898458319	
723.125	-2.301456056	-0.03037755686	
723.75	-0.4666768535	0.88562357	
724.375	-0.3721724186	1.045368555	
725.0	0.7810517931	1.190029298	
725.625	0.5712570354	0.6022209761	
726.25	-0.4811913371	1.448828635	
726.875	-0.08232251333	3.468735008	
727.5	1.213033459	1.751942949	
728.125	-3.662396489	6.106224485	
728.75	2.784064822	10.67403482	
729.375	-0.02250453729	1.608098078	
730.0	-4.087458062	18.81304137	
730.625	12.13302736	4.920538941	
731.25	-5.933493419	1.475726751	
731.875	-11.63085174	8.659361652	
732.5	-7.466817911	8.659083814	
733.125	-3.31439288	-1.807871366	
733.75	-3.262597464	5.360589669	
734.375	1.77698809	0.4155427989	
735.0	0.9031396337	-0.8559308651	
735.625	-2.060308373	1.098636821	
736.25	0.05304639417	0.08171577467	
736.875	0.5957998685	2.240480699	
737.5	3.518302483	0.4733616007	
738.125	3.366755811	-3.333270163	
738.75	1.314704054	1.195968034	
739.375	12.99473092	-5.33727218	
740.0	-1.43370565	-11.89033149	
740.625	0.2122988197	14.5251421	
741.25	23.70767108	-4.489511445	
741.875	1.687257095	-19.31456879	
742.5	-2.220883629	-14.05910572	
743.125	-6.861006107	-2.045278046	
743.75	2.593644559	-0.3943532001	
744.375	-2.382770877	-1.193795785	
745.0	0.6187021212	-0.1308901611	
745.625	0.2931579134	0.2544567354	
746.25	-0.2690842216	-0.4842112644	
746.875	-0.0958991081	-0.3518342664	
747.5	-0.2520596123	1.255945137	
748.125	0.9360888331	0.9802149304	
748.75	0.5461684449	1.09840672	
749.375	0.4912784051	1.71672528	
750.0	-0.8297745076	0.7196329922	
