!Created with skrf (http://scikit-rf.org).
# GHz S RI R (50+0j) 
!freq	ReS11	ImS11	
500.0	0.05773168695	-0.4579974781	
500.625	0.6763166555	-1.119357933	
501.25	-0.7261833893	-0.5444336088	
501.875	-0.05396160461	-0.3410992047	
502.5	-0.06760830357	-0.1953590194	
503.125	-0.04880985562	0.03328346254	
503.75	-0.03895041593	0.07910747748	
504.375	0.0409312248	-0.04972338119	
505.0	0.01234054586	0.0170669323	
505.625	0.002664817699	-0.1045079226	
506.25	-0.01198504537	0.0649175467	
506.875	-0.3681805694	-0.1743476221	
507.5	-0.39876709	-0.02880437328	
508.125	0.5026105834	-0.4230512407	
508.75	0.8016918542	-1.381128717	
509.375	-0.2706582115	-0.4350583734	
510.0	-0.1856360715	-0.5466768494	
510.625	-0.2754292652	-0.2049681182	
511.25	-0.04694003752	-0.02621387877	
511.875	-0.1233762553	-0.04454126355	
512.5	0.008520838984	0.06698997349	
513.125	0.004248952857	-0.02365861838	
513.75	-0.05554813261	-0.09310223824	
514.375	-0.05606423595	0.1039555413	
515.0	0.1941433203	-0.2606087442	
515.625	-0.2778694042	0.15332552	
516.25	0.4134316977	-0.7001025864	
516.875	-0.6431549257	-0.5720867754	
517.5	-0.1411369467	0.01727312117	
518.125	-0.04961525807	-0.1191894582	
518.75	-0.05981902214	-0.007695181857	
519.375	-0.05218062417	0.001771685165	
520.0	0.1355817611	0.09776190818	
520.625	0.1219929121	-0.07453620694	
521.25	-0.00180840988	-0.2177916577	
521.875	-0.1532271556	-0.02967555455	
522.5	-0.01493295892	0.09749462218	
523.125	-0.03312853238	-0.02562047767	
523.75	-0.1883797821	0.08822654342	
524.375	-0.006639663768	0.101954095	
525.0	-0.1888378505	0.1324509383	
525.625	0.1462597491	0.07010660555	
526.25	-0.1117692535	0.002291222551	
526.875	0.02636914845	0.0724447182	
527.5	-0.1104989591	0.07805019105	
528.125	0.0856003901	0.4000829699	
528.75	0.1256537749	0.1182341429	
529.375	-0.05249811417	0.109919571	
530.0	0.1760284523	0.1419238552	
530.625	-0.0443447148	0.1734547551	
531.25	0.1928425987	0.05917290333	
531.875	0.1346776745	-0.2824887101	
532.5	0.08144958226	-0.0414306237	
533.125	0.03473580175	-0.1754493225	
533.75	0.001126664746	-0.04502140426	
534.375	-0.1141090152	-0.3965822881	
535.0	-0.2374112973	0.001845926314	
535.625	-0.1307912722	0.04277745204	
536.25	-0.01756387923	0.1332468452	
536.875	0.08123311303	-0.02728365389	
537.5	0.08920913727	-0.0003065877211	
538.125	0.1242834	-0.1287765867	
538.75	0.08081260578	-0.07088304294	
539.375	-0.04393917957	-0.2300164018	
540.0	-0.2489240008	-0.09908456457	
540.625	-0.07671424384	-0.03435119251	
541.25	-0.06682655094	-0.02618073072	
541.875	-0.02718332612	0.03409811612	
542.5	-0.01370081304	-0.08877425906	
543.125	-0.1357554467	0.008546348681	
543.75	0.002815568954	0.08993402401	
544.375	-0.09663649577	0.05549042977	
545.0	0.04343503916	0.03693303015	
545.625	-0.04634467701	0.09250179061	
546.25	0.1595945545	0.003917987179	
546.875	0.03693422926	-0.01647674725	
547.5	0.1250124425	-0.1412765572	
548.125	-0.1085843878	-0.1597715395	
548.75	-0.05799186245	-0.05532771913	
549.375	-0.1260589575	-0.1212370544	
550.0	-0.07435781094	0.06163757406	
550.625	-0.04918993356	-0.04693040303	
551.25	-0.08045203308	0.07988384501	
551.875	-0.05567759336	0.03480515328	
552.5	-0.06817932669	0.1028063528	
553.125	0.007354102326	0.05837540654	
553.75	0.03588777135	0.05043655933	
554.375	0.1032157375	-0.015836823	
555.0	0.09252560594	-0.07291458191	
555.625	0.09099586464	-0.1114889586	
556.25	0.05979407652	-0.1523977795	
556.875	-0.04589415962	-0.1585756003	
557.5	-0.1026559784	-0.1048808469	
558.125	-0.126727749	-0.04102750408	
558.75	-0.115623909	0.006573680683	
559.375	-0.1098238921	0.01753524855	
560.0	-0.1124561069	0.08495148094	
560.625	-0.02596542521	0.1257480121	
561.25	-0.0152720603	0.07944658661	
561.875	0.05608444027	0.07000903203	
562.5	-0.009882291372	0.02091867582	
563.125	0.1047017795	0.1150411831	
563.75	0.1170218857	-0.0486147058	
564.375	0.1458509455	-0.05417162102	
565.0	0.07817969727	-0.2049439537	
565.625	-0.07846465316	-0.1173323785	
566.25	-0.06836369932	-0.1435621937	
566.875	-0.2244280304	-0.08043955352	
567.5	-0.0985533816	-0.0569526058	
568.125	-0.1369905497	-0.2448203394	
568.75	-0.2624134446	-0.01850858851	
569.375	-0.1409961616	-0.004145951772	
570.0	-0.2247787481	0.2581158488	
570.625	0.06673059358	0.184996985	
571.25	-0.0782597781	0.06375110687	
571.875	0.1850292123	0.08812829334	
572.5	0.02275657121	-0.00671711724	
573.125	0.1987779361	-0.1106641532	
573.75	-0.02264293261	-0.1881476361	
574.375	0.03456967675	0.07152312244	
575.0	0.07043022902	-0.1518631663	
575.625	-0.007899831476	0.02848482628	
576.25	0.1382336008	-0.1422697061	
576.875	-0.0906810094	-0.1784962665	
577.5	-0.005022729788	-0.07290195731	
578.125	0.0501181958	-0.2196453772	
578.75	-0.1920460671	-0.1298908215	
579.375	-0.00745955734	0.05150502906	
580.0	-0.05776695026	-0.1548953757	
580.625	-0.0593111502	0.09223080325	
581.25	-0.1284484454	-0.02981739981	
581.875	0.08694199657	0.3381435003	
582.5	0.1442196397	0.01699688915	
583.125	-0.03889474493	0.1050557642	
583.75	0.1789035588	0.002250915044	
584.375	-0.1102280414	0.07700590282	
585.0	0.2181100089	0.09573036981	
585.625	0.1108497998	-0.09717584183	
586.25	0.1320390902	0.02662898914	
586.875	0.07549877049	-0.2690743407	
587.5	-0.07297930711	-0.04574883159	
588.125	0.07214605599	-0.1593288872	
588.75	-0.03139302753	-0.2202042268	
589.375	0.01621813028	-0.07496962679	
590.0	-0.003679562495	-0.2661443352	
590.625	-0.235004689	0.04953568469	
591.25	-0.05178317057	0.03206859342	
591.875	-0.1398677718	0.160386658	
592.5	0.1492376456	0.0380226061	
593.125	-0.1501320416	0.07186638812	
593.75	0.1710366472	0.04867176778	
594.375	-0.004656132867	0.1164873555	
595.0	0.2266371241	0.2086680116	
595.625	0.2292594865	-0.03569361601	
596.25	0.09850066143	0.1398164213	
596.875	0.2619258803	0.0516152529	
597.5	0.1073588495	0.007146438547	
598.125	0.08343177094	0.1660294893	
598.75	0.2832632166	0.07152054838	
599.375	0.1389831352	-0.02019890229	
600.0	0.2266119655	-0.1127759983	
600.625	0.1367804049	-0.2787880766	
601.25	-0.009307155247	-0.1596246445	
601.875	0.0004281438671	-0.1562508697	
602.5	-0.2180465507	0.0379801785	
603.125	-0.01696530071	0.03310016242	
603.75	-0.2331996987	0.02622673989	
604.375	-0.06189121208	0.1939399256	
605.0	-0.1525707964	-0.09672329331	
605.625	-0.1540163535	0.1691772876	
606.25	0.00631053997	0.07557163777	
606.875	-0.2552216761	-0.008051113111	
607.5	-0.02830186422	0.2459087188	
608.125	-0.01874999799	0.1396680793	
608.75	0.2519218362	0.2029435355	
609.375	0.2965804406	-0.1368986629	
610.0	0.2236129793	-0.1593671828	
610.625	0.1724793916	-0.1746014447	
611.25	-0.1126124392	-0.2017585964	
611.875	0.01051797981	-0.07758048402	
612.5	-0.1799056503	-0.1390031827	
613.125	-0.143736579	0.1619152942	
613.75	-0.1123730806	0.04059413762	
614.375	0.04566014765	0.2388012483	
615.0	0.07032837313	-0.08077610662	
615.625	-0.0901044499	0.1950752644	
616.25	0.1072555166	0.2027064619	
616.875	-0.1365218264	0.1075956646	
617.5	-0.09730391696	0.3222297544	
618.125	0.1227120279	0.2400247681	
618.75	-0.05945997288	0.1264413643	
619.375	0.1271467608	0.1343241816	
620.0	0.2061680874	0.05475208534	
620.625	0.1351916432	-0.1069656276	
621.25	-0.15189355	-0.2635621704	
621.875	-0.3365654923	-0.03353131155	
622.5	-0.122042568	0.03983996981	
623.125	-0.1431087473	0.2806950948	
623.75	0.1630775616	-0.03802064539	
624.375	0.01672556063	0.0758482709	
625.0	-0.008006376798	-0.1207977302	
625.625	0.05544452405	0.007237823935	
626.25	-0.04785845244	-0.2219897008	
626.875	-0.1860701113	-0.002453414891	
627.5	-0.05736518445	-0.07224892906	
628.125	-0.1876214149	-0.1123134983	
628.75	-0.09333032824	-0.03336638079	
629.375	-0.02277348073	-0.1944507321	
630.0	-0.2427063195	-0.09276007194	
630.625	-0.2022003481	0.1333273821	
631.25	-0.1806190071	0.1964480793	
631.875	0.03884880915	0.3158076351	
632.5	0.1532715544	0.1174127884	
633.125	0.09659878284	0.08324293084	
633.75	0.2258995796	-0.1639659999	
634.375	0.005538228873	-0.08270824578	
635.0	0.1091024846	-0.1983933492	
635.625	-0.2247198841	-0.02952510401	
636.25	-0.02633611322	-0.0002762306351	
636.875	-0.1767957748	0.1668256592	
637.5	0.07396128236	0.1097200209	
638.125	-0.1415660987	0.01757522462	
638.75	-0.06801215891	0.2943656507	
639.375	0.08287032199	0.1486373647	
640.0	0.05055612214	0.2995434969	
640.625	0.3820793024	0.1543898834	
641.25	0.1871164617	-0.1015017354	
641.875	0.2533033252	-0.1061254485	
642.5	-0.128483094	-0.3238694361	
643.125	-0.05095845602	-0.0166499922	
643.75	-0.05504474155	-0.2067611789	
644.375	-0.2467910228	0.1219188752	
645.0	-0.1064119996	0.02563773035	
645.625	-0.0734620629	0.3897197186	
646.25	0.3577657235	-0.09383320899	
646.875	-0.07534916665	0.06716811812	
647.5	0.2561583862	0.03556594084	
648.125	-0.1071099796	-0.01058224697	
648.75	0.4217292997	0.02011212045	
649.375	0.08990057775	-0.4638946946	
650.0	0.07553677716	-0.1412715039	
650.625	0.3219602651	-0.3016760581	
651.25	0.08630081658	-0.4156855396	
651.875	0.09283387988	0.02253449512	
652.5	0.4692773029	-0.07874058845	
653.125	0.1787994559	-0.2959020564	
653.75	0.1809936662	-0.07582028089	
654.375	-0.09499684861	-0.4777491952	
655.0	-0.3129918294	0.07877087965	
655.625	-0.06012510466	0.04978540219	
656.25	-0.01049557452	0.3084649775	
656.875	0.2825089921	-0.1590864694	
657.5	-0.1050947028	0.2231569799	
658.125	0.2802722237	0.1146842598	
658.75	0.129904328	-0.02887206503	
659.375	0.528564542	0.04478157018	
660.0	0.1500884681	-0.5125062984	
660.625	0.04022997645	-0.1790606565	
661.25	0.3228579469	-0.359771803	
661.875	0.1385715848	-0.4080849133	
662.5	0.1370427797	-0.1051012552	
663.125	0.4008250065	-0.2160617662	
663.75	0.01630398418	-0.365318997	
664.375	0.03818187755	-0.223028378	
665.0	-0.3523081148	-0.3230250946	
665.625	-0.2590942373	0.245725597	
666.25	-0.1180637994	0.1654151567	
666.875	0.1474733708	0.3206375342	
667.5	0.2310583165	-0.0209216321	
668.125	0.1172775034	0.1052199619	
668.75	0.2842149616	-0.2545265577	
669.375	-0.1029434232	-0.1654462787	
670.0	0.1284121816	-0.1639268706	
670.625	-0.06614277203	-0.3619300717	
671.25	-0.04823334404	-0.06484564859	
671.875	0.3697505971	-0.277931006	
672.5	0.129750685	-0.2980840652	
673.125	0.1251549182	-0.09465738985	
673.75	0.2898803114	-0.2523907061	
674.375	-0.1326716741	-0.3235590724	
675.0	-0.008827658818	-0.1306251432	
675.625	-0.2488673572	-0.2328443592	
676.25	-0.2347774741	0.1148779084	
676.875	-0.04862063636	-0.09531348722	
677.5	-0.3136072495	0.0881513312	
678.125	0.007574530218	0.1551810907	
678.75	-0.07838562984	0.1876702768	
679.375	0.3635207283	0.1447438973	
680.0	0.006733297541	-0.2275702739	
680.625	0.1317207546	0.05845475144	
681.25	0.2274966456	-0.2529923936	
681.875	-0.1016685828	0.001913442043	
682.5	0.4088733939	0.3955915649	
683.125	0.3938731879	-0.2175322322	
683.75	0.04314273799	0.1450233597	
684.375	0.4264125902	0.1777428823	
685.0	0.2134386772	-0.2339348407	
685.625	0.1074723075	0.2032400753	
686.25	0.5671442094	-0.08578257664	
686.875	0.1435990562	-0.2069758259	
687.5	0.3278283212	-0.2469722339	
688.125	-0.09208699131	-0.6443039221	
688.75	-0.414057609	0.08690384675	
689.375	-0.3557845167	0.2040806086	
690.0	0.1859990147	0.4711306317	
690.625	0.259796442	0.0571010865	
691.25	0.2180408888	0.4412001923	
691.875	0.7492785092	0.2418184142	
692.5	0.4336451498	0.06869896676	
693.125	0.8675889041	0.245021959	
693.75	0.730081971	-0.5207520054	
694.375	0.168819773	-0.323136059	
695.0	0.7497565812	-0.2585595353	
695.625	0.3914304909	-0.3322583674	
696.25	0.3356511969	0.1431511585	
696.875	0.5174093346	0.596430834	
697.5	0.5777126981	0.2284872736	
698.125	0.3743945984	0.2384508653	
698.75	0.3922464849	-0.4763079817	
699.375	-0.5988896562	-0.2799961062	
700.0	-0.1298822915	0.2874419377	
700.625	0.0455948595	0.3014047197	
701.25	0.3240757704	0.02358295323	
701.875	0.1311694425	0.2492926528	
702.5	0.4362568933	0.3833299071	
703.125	0.4549784894	-0.09171597806	
703.75	0.319958632	0.1050103251	
704.375	0.4316750213	-0.2518579122	
705.0	0.1230085064	-0.2605052546	
705.625	0.2410466124	0.1858440565	
706.25	0.3597793726	0.05882148806	
706.875	0.1531335658	0.1235986544	
707.5	0.2251194389	0.463256162	
708.125	0.4770516423	0.03645160005	
708.75	0.251260885	-0.4136860902	
709.375	-0.242292244	-0.393092336	
710.0	-0.13333728	0.3229106336	
710.625	0.2105953533	0.07860407493	
711.25	-0.03266059992	0.2157990967	
711.875	0.3059891988	-0.0002635984602	
712.5	0.2321448102	0.08114927217	
713.125	0.4123752107	-0.190777488	
713.75	0.02946967165	-0.3608235334	
714.375	0.07413964584	-0.07242618736	
715.0	0.01172060834	-0.3541134593	
715.625	-0.1078590537	-0.1585677603	
716.25	0.2383501363	-0.120149929	
716.875	0.4718337155	-0.2952871078	
717.5	0.2756449368	-0.1937772546	
718.125	0.7009648132	0.3009116473	
718.75	0.9155706684	-0.2607908459	
719.375	0.2691144733	-0.4138950117	
720.0	0.369378974	-0.3759468923	
720.625	-0.1142071853	-1.098688112	
721.25	-0.5675241215	-0.590467944	
721.875	0.2029433221	-1.074413528	
722.5	-0.9349380607	-0.735474249	
723.125	-0.5187076448	-0.05084891558	
723.75	-0.8047811224	0.2700348898	
724.375	0.2733458279	0.5397283005	
725.0	-0.01073279927	0.1743001274	
725.625	0.05101232378	0.7327698626	
726.25	0.3705578522	0.6077299004	
726.875	-0.2808059118	0.6448668529	
727.5	-0.350964954	1.803605331	
728.125	0.7577397555	1.899682011	
728.75	-0.2981516979	1.73030801	
729.375	-1.618317598	4.771518381	
730.0	1.808347244	3.460956793	
730.625	-0.437238188	1.946279332	
731.25	-0.8912582105	5.485002788	
731.875	-0.1411109975	3.099055895	
732.5	-3.595606516	0.2078587377	
733.125	-3.323664898	0.8154587992	
733.75	-0.05489697503	1.692166428	
734.375	0.05428093538	0.4430245895	
735.0	-0.1083943209	-1.175570993	
735.625	-0.09100725346	0.2891693504	
736.25	-0.4381432944	0.4173537778	
736.875	0.9435244272	0.7594794524	
737.5	0.5958598477	-0.3701426011	
738.125	2.024591196	0.8671746509	
738.75	2.304537904	-2.505108293	
739.375	0.2467711548	-1.536027664	
740.0	3.937233229	1.257166197	
740.625	7.54162196	-1.775668727	
741.25	-1.041902825	-1.582863769	
741.875	-4.774744878	-0.4674447191	
742.5	-2.92963548	-0.07087937085	
743.125	1.007141959	-0.5124581683	
743.75	-0.05539835187	-1.591687901	
744.375	-0.3865834414	0.2447247265	
745.0	-0.03895028073	0.006534953957	
745.625	0.1875297738	-0.1049547828	
746.25	0.03242226635	-0.04710542614	
746.875	-0.3091111017	-0.04912401446	
747.5	0.02483031461	0.442114489	
748.125	0.1311871151	0.3613636103	
748.75	0.1765334065	0.6807440278	
749.375	0.2954768758	0.4823221143	
750.0	-0.4704665727	0.1348946379	
