!Created with skrf (http://scikit-rf.org).
# GHz S RI R (50+0j) 
!freq	ReS11	ImS11	
500.0	0.6996849522	-1.276984079	
500.625	-0.1471642202	-1.169255274	
501.25	0.07877037132	-0.6204427724	
501.875	-0.4860427491	-0.7084478784	
502.5	-0.07413254375	-0.0653999291	
503.125	-0.08613267464	-0.05732929287	
503.75	0.04868496041	0.131048628	
504.375	0.0002894641069	-0.001724813233	
505.0	0.05270251803	-0.03802588095	
505.625	-0.0345635035	0.001721513411	
506.25	0.02215946915	-0.134908945	
506.875	-0.1337294082	0.2424264832	
507.5	0.2668880109	-0.3761695955	
508.125	-0.1472497769	-1.036722433	
508.75	0.03290040119	-0.7945459025	
509.375	0.4938090753	-1.323799473	
510.0	-0.8011922131	-0.4016859631	
510.625	-0.1684183514	-0.01327001693	
511.25	-0.104594195	-0.07759293777	
511.875	-0.1645193597	0.02271241926	
512.5	-0.03670363366	0.001155778125	
513.125	0.03998722452	-0.1160505488	
513.75	-0.08369721231	0.009131124833	
514.375	0.02110818864	-0.09239107453	
515.0	-0.3949028272	-0.01402448419	
515.625	0.4370298106	-0.3702206049	
516.25	-0.6753790449	-1.033790444	
516.875	-0.07943174254	-0.07790895629	
517.5	0.1362752783	-0.1510188459	
518.125	-0.1130569754	0.006391490215	
518.75	0.09565938466	-0.09362019696	
519.375	-0.08550328239	0.06010803157	
520.0	0.1013878276	0.03779960922	
520.625	0.1149369301	0.01085705158	
521.25	0.07192020972	-0.3985154174	
521.875	-0.1697991527	0.007014281847	
522.5	-0.01166077406	-0.0303122082	
523.125	-0.1498011301	0.1219019143	
523.75	0.03533546756	0.01818904754	
524.375	-0.2751319978	-0.122433121	
525.0	0.07848622503	0.2570997249	
525.625	-0.01747805392	-0.0441224878	
526.25	0.03780593938	0.05545597969	
526.875	-0.08301253774	-0.02381131155	
527.5	-0.002872159085	0.289047628	
528.125	0.1567234186	0.1390598341	
528.75	-0.1107776816	0.1717470069	
529.375	0.1098610508	0.1094655127	
530.0	0.1182855902	0.2584355856	
530.625	0.08650206432	0.4759373233	
531.25	0.4839439497	0.0602389935	
531.875	0.1539371984	0.003222057273	
532.5	0.1408960828	-0.1831207553	
533.125	-0.0198597157	0.1032535985	
533.75	0.2149390591	-0.3183721916	
534.375	-0.1611771921	-0.1972280295	
535.0	-0.1347629129	-0.1522688366	
535.625	-0.2386636358	0.1539860722	
536.25	0.02663598867	0.06805694223	
536.875	0.08393031567	0.06498430828	
537.5	0.08829494984	-0.07449746635	
538.125	0.05258608553	-0.03795370727	
538.75	0.2165603453	-0.1119010337	
539.375	-0.1553181524	-0.1625476081	
540.0	-0.1500394611	-0.1307408124	
540.625	-0.2120067533	-0.08856808879	
541.25	-0.1151943367	0.04572015216	
541.875	0.0141062515	-0.0885679611	
542.5	-0.1071093957	-0.1492756833	
543.125	-0.02282504712	-0.02516672524	
543.75	-0.1407891927	-0.06759240892	
544.375	-0.001889110638	0.08895941688	
545.0	-0.0611639729	0.009617871545	
545.625	0.1133726732	0.0894993445	
546.25	0.04558510476	0.001664075549	
546.875	0.161803663	0.05234111872	
547.5	0.03427242556	-0.195459408	
548.125	-0.007321410632	-0.1174469147	
548.75	-0.1318014474	-0.1886092365	
549.375	-0.1504388821	-0.02769664854	
550.0	-0.03195979292	-0.02881969192	
550.625	-0.09703493813	0.03609157086	
551.25	-0.04214623182	0.007407370486	
551.875	-0.1181806834	0.0642513197	
552.5	-0.03781991221	0.1066691434	
553.125	-0.03091686432	0.05067461806	
553.75	0.0609429947	0.05500184137	
554.375	0.09106820462	-0.001674599813	
555.0	0.115019603	-0.06291739013	
555.625	0.09668160055	-0.1175984497	
556.25	0.07350759504	-0.1457779986	
556.875	-0.02580456672	-0.1732373389	
557.5	-0.1061566099	-0.1164366972	
558.125	-0.1290227377	-0.03931486988	
558.75	-0.1119178655	-0.00992166944	
559.375	-0.1292216413	0.01532169618	
560.0	-0.0966951304	0.09185006169	
560.625	-0.06552693587	0.09936666705	
561.25	0.0001601175661	0.1315981565	
561.875	0.04287418425	0.0163793639	
562.5	-0.01234198693	0.09172908623	
563.125	0.0935176179	0.04515307561	
563.75	0.1240444702	0.04973728652	
564.375	0.184006881	-0.1215564826	
565.0	0.02832999996	-0.1678282522	
565.625	0.02833851427	-0.1608058389	
566.25	-0.1762328119	-0.1351466068	
566.875	-0.1033535108	-0.005634610742	
567.5	-0.1327144567	-0.1810169286	
568.125	-0.2723039029	-0.136433234	
568.75	-0.1478557385	-0.07331551293	
569.375	-0.3404703759	0.07159463324	
570.0	-0.07225858087	0.2516831744	
570.625	-0.09921852327	0.08296330906	
571.25	-0.01977664495	0.2130484799	
571.875	0.05063951662	-0.0241734578	
572.5	0.1698789614	0.08831796895	
573.125	0.05378656118	-0.2391836954	
573.75	-0.006255688648	-0.02442777273	
574.375	0.1207639708	-0.1304676393	
575.0	-0.0740919921	-0.03604306191	
575.625	0.134448584	-0.04983105728	
576.25	0.01149417653	-0.1999234514	
576.875	-0.02364320735	-0.05380756782	
577.5	0.1129259025	-0.1843208766	
578.125	-0.1348467033	-0.2135263297	
578.75	-0.07485091102	-0.02244570765	
579.375	0.0001729379459	-0.1932555847	
580.0	-0.1504917891	0.0132360475	
580.625	0.1087183064	-0.1662162117	
581.25	-0.2189534775	0.1566924192	
581.875	0.09891626773	0.1125033911	
582.5	-0.04486269895	0.1070629588	
583.125	0.1801793854	0.1924293477	
583.75	0.009502790995	-0.1007480038	
584.375	0.04053093278	0.169905886	
585.0	0.1423273343	-0.04763009526	
585.625	0.08947547535	0.1017724863	
586.25	0.2755248872	-0.06622989014	
586.875	-0.01713842216	-0.1560370547	
587.5	0.07316721099	-0.1027196349	
588.125	-0.04379328917	-0.2302101553	
588.75	-0.04791780595	-0.08488705889	
589.375	0.1773448592	-0.153095504	
590.0	-0.1593313127	-0.2286941745	
590.625	-0.07002638127	-0.001239345747	
591.25	-0.2312921869	0.04808533268	
591.875	0.02049795704	0.2277793365	
592.5	-0.07923052629	-0.09678007017	
593.125	0.05275990686	0.1669708993	
593.75	0.006955420643	0.02215428723	
594.375	0.1433921775	0.2083543132	
595.0	0.2741103625	0.03617388132	
595.625	0.06696723499	0.102935231	
596.25	0.231813227	0.1213412822	
596.875	0.1805415517	-0.05430409823	
597.5	0.08045490285	0.1416363821	
598.125	0.2326904794	0.1471018055	
598.75	0.1743420826	0.002559378812	
599.375	0.1959825487	0.05383497394	
600.0	0.2439977489	-0.205249246	
600.625	0.06621493708	-0.2268128757	
601.25	0.129301593	-0.1244156795	
601.875	-0.1319312671	-0.2291864461	
602.5	-0.07101475943	0.06736705456	
603.125	-0.1821457191	-0.07886932718	
603.75	-0.08462587444	0.2159743028	
604.375	-0.01164881036	0.005130736282	
605.0	-0.1959207087	0.11572182	
605.625	-0.002533249768	0.1529737279	
606.25	-0.2511007692	0.03076805915	
606.875	-0.2729292061	0.1840606789	
607.5	-0.05092187707	0.1892290755	
608.125	-0.1414683036	0.2084947201	
608.75	0.2496072626	0.2023650358	
609.375	0.1571153429	-0.08686394091	
610.0	0.2093325535	-0.07800774189	
610.625	0.08497391804	-0.2841018529	
611.25	-0.0772566143	-0.1569269277	
611.875	-0.03129642875	-0.232520672	
612.5	-0.2613883601	0.03142295	
613.125	-0.07354728085	-0.01198451632	
613.75	-0.2306278837	0.1633740255	
614.375	0.1796085005	0.1116095168	
615.0	-0.09809217438	0.008211728027	
615.625	0.1386557922	0.1274044972	
616.25	-0.008794913654	0.03675660896	
616.875	-0.14652339	0.2563406316	
617.5	0.003685734484	0.3545143678	
618.125	-0.026494385	0.1444272441	
618.75	-0.01886005882	0.2644970279	
619.375	0.1428814919	0.2081506637	
620.0	0.08797510677	0.0450604879	
620.625	0.2132994724	-0.1415482752	
621.25	-0.1724505607	-0.2803707687	
621.875	-0.1130066644	-0.1101665442	
622.5	-0.3259556091	0.02351716887	
623.125	0.02054312508	0.2907450866	
623.75	0.03464057036	0.02192528823	
624.375	0.1565791756	-0.09066038034	
625.0	-0.04040737283	0.01272918406	
625.625	0.1454270714	-0.09880035073	
626.25	-0.1374091545	-0.1601683509	
626.875	-0.08249708495	-0.0548473143	
627.5	-0.1930322492	-0.1388332207	
628.125	-0.1801498938	-0.01202852211	
628.75	0.005500713219	-0.09323650687	
629.375	-0.05374643635	-0.1891512274	
630.0	-0.194687406	-0.02631971194	
630.625	-0.2254443472	-0.02711721779	
631.25	-0.212209492	0.2579333245	
631.875	0.06114284075	0.3539604943	
632.5	0.06431259186	0.1998878968	
633.125	0.3219988485	0.09543117498	
633.75	0.1280008143	-0.155814488	
634.375	0.1257664811	-0.02612342942	
635.0	-0.04958087674	-0.2628037969	
635.625	-0.118363637	-0.006171065317	
636.25	-0.2097630414	-0.05837020592	
636.875	-0.05603989686	0.231832898	
637.5	0.02094667947	0.001107678524	
638.125	-0.1724800832	0.1361052326	
638.75	0.03878252275	0.1644810855	
639.375	-0.1201497225	0.1917637075	
640.0	0.159917417	0.3823114088	
640.625	0.277414923	0.06552640244	
641.25	0.1929718923	0.1013765502	
641.875	0.3210537744	-0.2186366381	
642.5	-0.1762241783	-0.3301519667	
643.125	-0.003772719599	-0.112634745	
643.75	-0.2745525516	-0.1338318383	
644.375	-0.04685464288	0.05476389515	
645.0	-0.3828440538	-0.08187496041	
645.625	0.1614242581	0.321872665	
646.25	0.06917493639	-0.004893220752	
646.875	0.175056248	0.2130615675	
647.5	0.06612568379	-0.1931440062	
648.125	0.1200887022	0.2383254734	
648.75	0.4197592051	-0.1689560238	
649.375	0.06941248229	-0.2413110559	
650.0	0.2809990694	-0.1540177287	
650.625	0.2925425746	-0.5405106108	
651.25	0.02485525685	-0.2113971454	
651.875	0.391894629	0.00666599004	
652.5	0.3918378706	-0.2298308084	
653.125	0.1041756494	-0.136936741	
653.75	0.3903516227	-0.1579214497	
654.375	-0.1459409854	-0.4446064533	
655.0	-0.1661429982	0.0384324079	
655.625	-0.3542680959	0.02555575271	
656.25	0.1177363292	0.3578336846	
656.875	-0.06979344218	-0.1448758725	
657.5	0.07529136281	0.2467368001	
658.125	0.1909323192	-0.05334553285	
658.75	0.1544211204	0.2485159329	
659.375	0.5059399872	-0.2128543414	
660.0	0.06798582659	-0.2700665934	
660.625	0.3136947755	-0.24278938	
661.25	0.2448058892	-0.4393799172	
661.875	0.07651653007	-0.2542184914	
662.5	0.3764591436	-0.04535810319	
663.125	0.3583486285	-0.3510684664	
663.75	0.07903572801	-0.2392171954	
664.375	0.1190822831	-0.3533841061	
665.0	-0.395404484	-0.273931472	
665.625	-0.2216347581	0.08180505571	
666.25	-0.2525553583	0.2493773379	
666.875	0.2138833113	0.302052406	
667.5	0.06958535474	0.03188235753	
668.125	0.3592443779	0.118364663	
668.75	0.1706989449	-0.2472797012	
669.375	0.1004096441	-0.06589118338	
670.0	0.1293637924	-0.3097118978	
670.625	-0.2093884613	-0.169416338	
671.25	0.1658981865	-0.04087067343	
671.875	0.2084047839	-0.2868654852	
672.5	0.1215697908	-0.1816659882	
673.125	0.3067821243	-0.02774391159	
673.75	0.2579005184	-0.3515727181	
674.375	-0.008912537271	-0.1477977952	
675.0	0.05589395612	-0.2908200179	
675.625	-0.3109663888	-0.203734404	
676.25	-0.131137776	0.08042480077	
676.875	-0.1627354898	-0.1727092354	
677.5	-0.2483628982	0.1259066276	
678.125	-0.03030924649	0.04798732442	
678.75	-0.1591803098	0.2972112519	
679.375	0.3748083147	0.03055170216	
680.0	0.01233786676	-0.01803024936	
680.625	0.3508700877	-0.07496128923	
681.25	0.01778234907	-0.1775285176	
681.875	0.02830853266	0.2385871543	
682.5	0.5416299655	-0.03393265285	
683.125	0.1401649709	-0.0734745462	
683.75	0.354249346	0.2905277617	
684.375	0.4981009754	0.07199307375	
685.0	0.1650085399	-0.1499442747	
685.625	0.29107521	0.2982450329	
686.25	0.3347518762	-0.1403458298	
686.875	0.170224755	-0.09134610856	
687.5	0.5032896493	-0.160607379	
688.125	-0.1478452762	-0.6189439694	
688.75	-0.2561152717	-0.2255982693	
689.375	-0.5389863801	0.2307717332	
690.0	0.2244124606	0.4567638618	
690.625	0.02791563642	0.1223609774	
691.25	0.4597180733	0.6006054846	
691.875	0.4846423484	0.07648873792	
692.5	0.4131581897	0.3380141247	
693.125	0.9977884407	0.04645206604	
693.75	0.5537278945	-0.4601526102	
694.375	0.81260986	-0.2093073118	
695.0	0.6808908383	-0.3942544407	
695.625	0.4606207964	-0.2201213222	
696.25	0.4253092698	0.3623589944	
696.875	0.5571010461	0.5371559617	
697.5	0.3010433948	0.6853945649	
698.125	0.4684987817	0.4673443331	
698.75	0.658494087	-0.3229923243	
699.375	-0.4474387032	-0.4363816051	
700.0	-0.3887196225	0.0578579066	
700.625	0.2116933012	0.5303931534	
701.25	0.1959834096	0.0392151698	
701.875	0.126410658	0.4020816539	
702.5	0.5542615523	0.2747439289	
703.125	0.263068856	0.03459280238	
703.75	0.528251174	0.05278159529	
704.375	0.3570244756	-0.3405435865	
705.0	0.2435697478	0.03279222433	
705.625	0.4239364182	0.168671463	
706.25	0.3822032312	0.06174395903	
706.875	0.07784215832	0.2496163766	
707.5	0.2379222152	0.3617387654	
708.125	0.5541104818	0.07910066761	
708.75	0.2711731311	-0.09533355154	
709.375	-0.1683491889	-0.4504776583	
710.0	-0.3199396235	0.3229583585	
710.625	0.04724731476	-0.06093800967	
711.25	0.2150834874	0.2812233242	
711.875	0.08518035963	0.009265421456	
712.5	0.2926304386	0.2118803828	
713.125	0.3797140532	-0.2404098721	
713.75	0.036840328	-0.2300844938	
714.375	0.149741566	-0.2107892875	
715.0	-0.08659057455	-0.3213951513	
715.625	-0.03430904613	-0.1506571372	
716.25	0.3412740011	-0.2243620256	
716.875	0.348485056	-0.3749757682	
717.5	0.325787173	0.07574705589	
718.125	0.7766617414	0.2745583303	
718.75	0.8961803155	-0.3445633312	
719.375	0.5696911683	-0.03479078328	
720.0	1.138609945	-0.6209866413	
720.625	-0.0986782963	-0.8822686024	
721.25	0.3592376484	-0.7228657892	
721.875	-0.04395929443	-1.455900028	
722.5	-0.8183462142	-0.611416562	
723.125	-0.1536515155	-0.4321074336	
723.75	-0.7003872182	0.5270984424	
724.375	0.1566646638	0.4053630784	
725.0	-0.1139973536	0.3580778002	
725.625	0.315181599	0.6919849796	
726.25	0.2567579259	0.456406964	
726.875	-0.475774809	0.8921772917	
727.5	-0.2257520141	1.835242745	
728.125	0.4301850382	1.550058636	
728.75	-1.313348213	2.058393445	
729.375	-1.097817238	5.01750454	
730.0	0.6117910655	3.06477992	
730.625	-2.264535409	2.521500557	
731.25	-0.9110735949	5.846774764	
731.875	0.08421571568	2.605340883	
732.5	-3.769879809	-0.7016272449	
733.125	-3.176048621	0.7506019162	
733.75	-0.5594625074	0.8787832709	
734.375	0.4649339051	1.174896243	
735.0	-0.1325064261	-0.9229154596	
735.625	-0.05697613494	-0.04335531158	
736.25	-0.4484168349	0.6710818436	
736.875	0.7878515168	0.5309085387	
737.5	0.3719260523	0.2751534333	
738.125	2.353816521	0.2947018438	
738.75	1.710659112	-2.021608111	
739.375	0.5899869021	-0.7959727141	
740.0	4.866750554	0.8971672582	
740.625	3.354070463	-3.93668687	
741.25	-2.699529562	-0.1109483899	
741.875	-6.99770688	1.75255919	
742.5	-1.911179728	-0.1562215509	
743.125	2.102705083	-1.428219073	
743.75	-0.06431272531	-1.922527873	
744.375	-0.4546438757	0.2697264945	
745.0	-0.1533577018	0.05334738028	
745.625	0.0630442488	-0.1013105899	
746.25	0.1215446125	-0.07626723951	
746.875	-0.3473725905	-0.008449986899	
747.5	-0.04768214636	0.3467207327	
748.125	-0.06147890201	0.4228842144	
748.75	0.2342120603	0.6534724504	
749.375	0.1846195808	0.4237630329	
750.0	-0.4453606175	0.115331735	
