!Created with skrf (http://scikit-rf.org).
# GHz S MA R 50.0 
!freq magS11 angS11
500.0 0.0148237776726 157.235559315
500.625 0.0136447424457 45.9694078277
501.25 0.011438742137 -138.743073495
501.875 0.029108780471 -177.006583287
502.5 0.012721508422 151.053673008
503.125 0.0286914495303 132.327110361
503.75 0.0109002996335 99.2706523991
504.375 0.00265487185128 -174.779295666
505.0 0.0278508242905 -76.3510684301
505.625 0.00938917293867 -63.4909303783
506.25 0.0422281211861 -108.402460387
506.875 0.0572481184882 -113.744506221
507.5 0.0592593303334 -105.279139733
508.125 0.0446717207282 -101.616609205
508.75 0.0550947980094 -134.810036914
509.375 0.0534718902611 -137.853862262
510.0 0.0530450065111 -108.287405137
510.625 0.0216490831794 -177.9171372
511.25 0.04849102253 179.37544789
511.875 0.0500915636829 138.685609852
512.5 0.0507554478939 109.873879011
513.125 0.0445931312445 19.7113102884
513.75 0.0496553574303 31.5214747363
514.375 0.0526164047074 28.307799102
515.0 0.0539631597429 -2.38222995413
515.625 0.0883596799227 47.9153902137
516.25 0.099434912126 30.7288659893
516.875 0.112413974829 69.7793504882
517.5 0.139348937294 21.8179709399
518.125 0.196651096562 70.4793578055
518.75 0.0834142962202 3.55216996315
519.375 0.0863623278831 20.8567408308
520.0 0.0720301401483 -12.6865561532
520.625 0.108405843343 -7.12093750723
521.25 0.0906569353968 -25.9865626752
521.875 0.0685386021603 0.130855946824
522.5 0.104941607283 -32.7205158833
523.125 0.18639193676 -35.7866792414
523.75 0.20717031991 -59.1562569197
524.375 0.209792142659 -52.1483397614
525.0 0.0714614204346 -48.7073745763
525.625 0.034692924473 -44.221715411
526.25 0.0392155608518 -19.874415188
526.875 0.0716397464531 -19.5299969974
527.5 0.04005390779 -41.0246029201
528.125 0.040655562994 -57.6192700571
528.75 0.0721206632219 -74.5589728522
529.375 0.111452171103 -109.775346825
530.0 0.0420085935757 -141.896967327
530.625 0.0339178318239 -136.236792836
531.25 0.123978045046 -138.089919049
531.875 0.205535675283 -151.146531098
532.5 0.116824970643 -174.801734983
533.125 0.100007428807 174.799654081
533.75 0.108050986284 162.598597173
534.375 0.132822271773 177.408426422
535.0 0.0848825720782 160.27427788
535.625 0.065283131558 174.145079671
536.25 0.0532624269171 159.600292144
536.875 0.0935555881327 -165.805978795
537.5 0.0889265902901 -143.878875383
538.125 0.0985153494821 -173.077893912
538.75 0.0963657286675 175.929007779
539.375 0.0944729840291 -166.954391492
540.0 0.0741872230252 -153.02937678
540.625 0.117558269735 -155.674597209
541.25 0.132223348612 -143.455452357
541.875 0.10728592247 -147.535168043
542.5 0.105694819369 -143.876224374
543.125 0.129353136814 -166.609477504
543.75 0.130130056568 157.228635399
544.375 0.10725035855 134.285732761
545.0 0.0859692334807 87.7715647035
545.625 0.100924892534 80.2368139961
546.25 0.100029132515 65.5378429922
546.875 0.0912715857582 52.6749272028
547.5 0.0978186006923 57.9726559678
548.125 0.108154236704 76.5580722979
548.75 0.0912582996308 88.665499635
549.375 0.113338641503 82.6905013458
550.0 0.0806029798171 122.29274151
550.625 0.0492316443268 153.40599227
551.25 0.0438534003506 -151.761167195
551.875 0.0699849988579 -173.412748186
552.5 0.0907487027179 -158.851301697
553.125 0.0911575996863 -167.582563221
553.75 0.0853135765705 -168.682959816
554.375 0.115060593878 161.302336421
555.0 0.114168506024 163.233407492
555.625 0.0995298135119 156.171887216
556.25 0.101406647379 160.595328057
556.875 0.121720961991 162.815618329
557.5 0.126971215077 162.598457896
558.125 0.0902963230995 163.816553376
558.75 0.0883593370615 174.686477765
559.375 0.0783605070598 -178.155219313
560.0 0.0357894288532 -142.060330514
560.625 0.0576129435431 -143.14367749
561.25 0.0892483803175 -156.034143925
561.875 0.108435487691 -167.562362903
562.5 0.0984142789407 168.486035604
563.125 0.103090394713 143.318618477
563.75 0.123756470142 128.692729026
564.375 0.115639171248 116.133187475
565.0 0.0747005256835 121.856672088
565.625 0.0831172421245 115.20857628
566.25 0.0950192690086 147.909320339
566.875 0.0772509637693 176.488085486
567.5 0.0796763341373 175.266009069
568.125 0.0777049741909 -173.131586229
568.75 0.0646648802791 -146.76374566
569.375 0.0478407812382 -114.385801864
570.0 0.0614453616063 -121.278492636
570.625 0.0910956966538 -119.597958942
571.25 0.0926269434359 -125.226295816
571.875 0.0883269463371 -131.47080505
572.5 0.114318122254 -163.133329763
573.125 0.138425524565 -175.812228168
573.75 0.101372319361 162.812206803
574.375 0.0848816977612 145.403248573
575.0 0.111497652982 145.919747273
575.625 0.109542464691 151.629392998
576.25 0.0931010424734 143.311510905
576.875 0.0877507890579 121.8529942
577.5 0.0829253874035 132.193897995
578.125 0.0618744377961 156.189134362
578.75 0.050743619694 157.73437132
579.375 0.055547711793 156.703546099
580.0 0.0707692415008 168.736648652
580.625 0.0766224626669 -150.687546351
581.25 0.0893707700153 -164.866654761
581.875 0.113902789946 -178.158513945
582.5 0.123932617094 175.281196838
583.125 0.088273965124 -162.569742802
583.75 0.0830062830751 -167.909516961
584.375 0.098092246365 -157.796948551
585.0 0.099581582369 -149.957755117
585.625 0.0677476476031 -138.079660221
586.25 0.0699023650079 -136.492175455
586.875 0.082475316976 -138.296955707
587.5 0.0779345822899 -154.657975775
588.125 0.0572887514819 -163.05171289
588.75 0.0673851703217 -163.184519474
589.375 0.0801645224381 -150.733377002
590.0 0.0900210969375 -176.230853049
590.625 0.10578004052 168.365927314
591.25 0.122534352112 152.329923628
591.875 0.104350954963 148.158812659
592.5 0.0678591557905 139.216723077
593.125 0.0643948187657 154.867238166
593.75 0.0690617940821 169.484060455
594.375 0.0544020663771 -149.817446156
595.0 0.0401468918615 -140.499140058
595.625 0.0584328566 -98.3807182744
596.25 0.0740976221684 -87.8699512643
596.875 0.0660168850314 -83.0810029992
597.5 0.0557902423414 -70.1060666622
598.125 0.0778707194501 -49.3893638929
598.75 0.0819254453177 -62.9561343546
599.375 0.0923415126974 -66.4643693841
600.0 0.0919111501914 -78.759860896
600.625 0.105883805715 -58.1980897473
601.25 0.0852899402123 -75.3843483325
601.875 0.0680226763892 -85.6407259621
602.5 0.0623045498425 -98.7565261108
603.125 0.0418817978993 -51.1793753924
603.75 0.0299283262657 -44.693411603
604.375 0.0438121689171 -25.9201476641
605.0 0.0567569681462 -26.255383815
605.625 0.0445391009092 -38.6883259473
606.25 0.036556128599 28.4886684315
606.875 0.043452325895 47.5795109398
607.5 0.0664929683492 48.8993054513
608.125 0.0537372561149 16.7916653889
608.75 0.0589246461578 15.8396822767
609.375 0.0655887728678 25.6360514335
610.0 0.068922854404 37.3316580739
610.625 0.0518822326873 18.6329722024
611.25 0.0645416985215 41.4355860712
611.875 0.044755198593 58.0189853542
612.5 0.0271995915717 101.695480246
613.125 0.00892788833024 138.638001132
613.75 0.0586749118953 123.493876571
614.375 0.040196535484 120.30684794
615.0 0.0208961407051 104.315985754
615.625 0.0202679775272 135.683493079
616.25 0.0268512329542 143.141445109
616.875 0.0458853134047 127.902501718
617.5 0.0301980990743 136.06068219
618.125 0.00781276838561 123.296089642
618.75 0.0200962468412 146.044698472
619.375 0.0167587802815 149.556630091
620.0 0.00969063688085 177.949407488
620.625 0.0393705806427 -67.3630347387
621.25 0.0474277285133 -140.815918281
621.875 0.0621615949097 -111.276035493
622.5 0.0786385790418 -161.598005056
623.125 0.0720697765529 170.899001472
623.75 0.0541281695839 171.228592194
624.375 0.0428755708347 -170.8944333
625.0 0.0403220401612 -153.819397771
625.625 0.0340410931038 -155.100468884
626.25 0.00148143051087 -110.77837866
626.875 0.0147042832525 172.985497418
627.5 0.0153480846155 -56.5451161043
628.125 0.0389744534044 -44.057902405
628.75 0.0552121534952 -2.23610687073
629.375 0.0349386587558 -45.8293329715
630.0 0.0643563891696 -5.71866615226
630.625 0.0741809873004 2.37752397689
631.25 0.0742779853239 11.5282830217
631.875 0.0668509190425 -19.9197363239
632.5 0.0630526779996 -18.7300592552
633.125 0.0566320314005 -5.97742693095
633.75 0.0484188047736 22.0152114025
634.375 0.0443796494713 -12.0460753683
635.0 0.0402628036511 22.6302598536
635.625 0.0345802799654 39.0568528574
636.25 0.0551839689954 41.9491212017
636.875 0.0811416495923 47.2740794349
637.5 0.039000544753 3.16833594877
638.125 0.0333320222729 55.378234277
638.75 0.0636606497714 71.6577070694
639.375 0.110520194926 96.4052464507
640.0 0.0655327435109 87.0104390893
640.625 0.054088647119 99.8360951597
641.25 0.0747984670451 121.763638997
641.875 0.0852748734582 154.254337275
642.5 0.0472150921172 153.326710442
643.125 0.0525479115728 152.928089046
643.75 0.0609012213044 163.221448292
644.375 0.0968817748412 -172.686508396
645.0 0.059883306527 168.241724467
645.625 0.0884580815165 165.399019636
646.25 0.0879494894875 156.99582991
646.875 0.0808570437805 179.276505036
647.5 0.0643553082762 175.532598545
648.125 0.0846585590344 179.794164743
648.75 0.0856946069349 -162.332527334
649.375 0.0510228009794 -151.079053611
650.0 0.0542483298836 -123.684621611
650.625 0.0637167420141 -92.757103635
651.25 0.0686107067257 -66.3444198157
651.875 0.0683285614703 -45.1098621189
652.5 0.104890236661 -29.2901228006
653.125 0.10252256574 -4.63623759382
653.75 0.119017873632 5.59530759629
654.375 0.121105831686 5.14543111183
655.0 0.101325458804 3.08826000197
655.625 0.0995750540038 23.9361823483
656.25 0.064104530279 20.9747414637
656.875 0.072785747588 4.74156164396
657.5 0.0988661387707 20.0082159021
658.125 0.0458462661143 38.4566110359
658.75 0.0513106951236 62.4419973464
659.375 0.0717969278252 39.0170866186
660.0 0.130681849709 19.8875855992
660.625 0.0985681565214 14.7977157317
661.25 0.108318503699 2.76740568544
661.875 0.131523269605 -16.93320737
662.5 0.143251251361 -24.3835909297
663.125 0.0992183841814 -16.9143956687
663.75 0.0909446286095 2.72352445117
664.375 0.0917456116185 51.4845378266
665.0 0.0860131861488 87.293553114
665.625 0.0662751622824 107.716021369
666.25 0.0794957730063 124.194722827
666.875 0.128860093513 163.328478832
667.5 0.103478388565 -174.646202825
668.125 0.102107493862 177.119896512
668.75 0.13805999003 161.731236066
669.375 0.133883627907 173.224048723
670.0 0.0983356482904 -174.44492691
670.625 0.0864506279161 -175.954237094
671.25 0.104138983434 171.468902933
671.875 0.109152197955 163.98734437
672.5 0.0925635494767 147.428330375
673.125 0.0804076996157 147.097275944
673.75 0.118909541508 152.514314268
674.375 0.12066097662 163.860644538
675.0 0.112508680734 -176.98628212
675.625 0.130864806653 -152.959258699
676.25 0.120868440791 -129.706694408
676.875 0.11997108104 -123.681028922
677.5 0.127396431568 -132.989253145
678.125 0.12994204522 -122.260382349
678.75 0.0656226704829 -94.1692519636
679.375 0.0540839041908 -81.3546167737
680.0 0.0859801012934 -90.6502628866
680.625 0.0985058739219 -71.986194503
681.25 0.106071905586 -76.141058267
681.875 0.0945165196295 -94.2522355098
682.5 0.138257681712 -124.550544549
683.125 0.177216295757 -128.31977265
683.75 0.139477113826 -109.641985106
684.375 0.113118674172 -78.8881315293
685.0 0.12449511954 -43.1581605573
685.625 0.143097894955 -7.57957442907
686.25 0.0922974828262 23.320386354
686.875 0.0847236137899 45.0005183755
687.5 0.0813588507815 80.5078009772
688.125 0.087404378268 97.7603480187
688.75 0.0936993580484 121.36264606
689.375 0.136695941891 119.146423601
690.0 0.130508612909 129.231497137
690.625 0.126847766214 119.144541596
691.25 0.133142628671 100.27689007
691.875 0.192702889983 63.5439775505
692.5 0.157749382232 34.1824052624
693.125 0.0935391037829 -20.280793235
693.75 0.104120981632 -51.2763550296
694.375 0.128012638194 -28.6416420131
695.0 0.128404104533 11.5910034898
695.625 0.0990727042456 53.2924185541
696.25 0.120421234818 102.084041834
696.875 0.139372966803 167.859147817
697.5 0.144237860064 -148.01122591
698.125 0.141906274752 -136.347722811
698.75 0.139794998448 -138.902229741
699.375 0.0971930238718 -119.27919203
700.0 0.0950335289248 -112.021745511
700.625 0.104710063675 -92.039122544
701.25 0.112622624158 -77.7016438127
701.875 0.0797117498699 -52.6733088895
702.5 0.0986723577434 -86.907859391
703.125 0.164566726793 -129.659810796
703.75 0.190908488019 -160.114265925
704.375 0.137684891728 163.810836651
705.0 0.108153055337 159.475128656
705.625 0.140763139771 -169.677393044
706.25 0.139635613333 -113.993421538
706.875 0.104421664665 -75.1469331821
707.5 0.0701446646448 -25.8467355066
708.125 0.0915376615026 13.2203666092
708.75 0.109813500275 63.3947211476
709.375 0.106686873689 91.2360896154
710.0 0.101753910321 131.459942373
710.625 0.110442348746 149.373095918
711.25 0.115943227397 171.583153272
711.875 0.142441905793 155.44078309
712.5 0.147406981298 152.232767711
713.125 0.123265097763 100.641543089
713.75 0.099987529518 44.504324262
714.375 0.113967071692 11.2385754241
715.0 0.111986115402 19.1002325448
715.625 0.0869836691578 44.6389358026
716.25 0.0832890414552 79.0636518864
716.875 0.11263851359 97.8752053585
717.5 0.137499487873 127.172560838
718.125 0.12215505848 168.621757282
718.75 0.10300824156 169.288045141
719.375 0.112640514103 177.631696027
720.0 0.130382712444 -135.100968581
720.625 0.116454810052 -87.8261314578
721.25 0.101390279458 -26.5963356259
721.875 0.0875936584563 36.4630383357
722.5 0.0696560165461 37.0098570781
723.125 0.10460392197 84.5153515455
723.75 0.108743771166 37.1421287175
724.375 0.0982757054503 -12.6547918107
725.0 0.0846145264368 -51.6451158424
725.625 0.0883010123634 -80.006840923
726.25 0.121369940829 -62.7340005311
726.875 0.106881338896 -48.2122793556
727.5 0.0800950302789 -42.7715878037
728.125 0.0621320159527 -35.7392433725
728.75 0.106517746918 29.051287085
729.375 0.0875773027383 15.1944561453
730.0 0.0577174535381 -9.41717447356
730.625 0.0595200547119 14.3135437828
731.25 0.0509655068239 44.8230412336
731.875 0.0664639150486 107.63799795
732.5 0.0832487082023 151.03260178
733.125 0.0880870123282 -179.663215356
733.75 0.0601315563499 149.17361378
734.375 0.0642596877512 161.877989909
735.0 0.0444297703853 156.881303683
735.625 0.02166932273 118.217999542
736.25 0.0251877740877 140.343828899
736.875 0.0423823627501 171.075389601
737.5 0.050086696264 -175.48456602
738.125 0.0855297181754 -178.477078555
738.75 0.0537044843598 169.005138586
739.375 0.0496646742855 -172.647958437
740.0 0.0644397216983 -147.910046112
740.625 0.0670270753552 -151.016943181
741.25 0.0158114315885 -115.160067684
741.875 0.0624025634648 -113.847664844
742.5 0.0285948765649 -8.41750191077
743.125 0.042170152206 61.6629246608
743.75 0.0318710715796 163.109261349
744.375 0.0738010911473 84.8658277398
745.0 0.0584889633374 106.409652238
745.625 0.0716070655916 109.814656001
746.25 0.0730232379777 107.831502616
746.875 0.0685883155594 43.5643274477
747.5 0.0384681454439 15.2485496645
748.125 0.0147381022869 8.88459970059
748.75 0.017961178702 8.80467257391
749.375 0.0427004977836 9.19439158931
750.0 0.052849554403 -133.015743006
