!Created with skrf (http://scikit-rf.org).
# GHz S MA R 50.0 
!freq magS11 angS11
500.0 0.013690925042 141.588403516
500.625 0.0129064152464 172.466833128
501.25 0.0230799509001 -168.586072809
501.875 0.0445880989137 -177.941266258
502.5 0.0132159093986 126.830292017
503.125 0.0160799772271 104.405949464
503.75 0.00492645092401 -44.9135415656
504.375 0.0152246203026 -60.8902594987
505.0 0.0191175611317 -61.3181705927
505.625 0.0270233877078 -76.4433282951
506.25 0.0341191179531 -109.70101313
506.875 0.0623458477891 -100.480438373
507.5 0.042275095134 -160.743503193
508.125 0.0454300145767 -108.76296245
508.75 0.0585129597175 -144.955853773
509.375 0.0671659072582 -125.52062823
510.0 0.0314689859655 -177.578456841
510.625 0.0318666491323 -161.118867709
511.25 0.0535494361737 -179.52294634
511.875 0.0546672925963 148.350204369
512.5 0.0415859914647 101.125486356
513.125 0.0527524908391 45.7745665127
513.75 0.0504028826789 21.3643670473
514.375 0.0540976330888 31.6037246339
515.0 0.0475747013012 3.49278204498
515.625 0.0755971296449 50.8618176707
516.25 0.0815131462348 28.7895447125
516.875 0.126934521539 71.0575076596
517.5 0.0960757347442 11.7979648491
518.125 0.177941642612 64.0594450869
518.75 0.0837066337986 10.1514773969
519.375 0.074660294357 21.5070076823
520.0 0.0950190270213 -3.64435044046
520.625 0.097438414816 -5.61136559308
521.25 0.0810850169071 -25.1945074797
521.875 0.0766936546574 1.85920994746
522.5 0.0847969535073 -37.5537831701
523.125 0.165220363087 -39.7314511126
523.75 0.20370521477 -64.6888536931
524.375 0.231735036776 -45.9308141155
525.0 0.0690643108033 -47.6660547513
525.625 0.0405979543349 -31.2324990308
526.25 0.0506823636084 -6.80299362675
526.875 0.0492553607431 -25.3426242022
527.5 0.047276924584 -27.8879754822
528.125 0.0466421586838 -54.6336692255
528.75 0.0640621206097 -70.6901756521
529.375 0.0915734649897 -107.719031144
530.0 0.0404337926071 -133.881684153
530.625 0.0270900894798 -139.628522351
531.25 0.142191015211 -141.82851994
531.875 0.159191142478 -148.465943239
532.5 0.133122657074 -170.846859589
533.125 0.108719185786 175.76191779
533.75 0.117592769171 169.087680446
534.375 0.113631841271 -179.915844635
535.0 0.0842725554279 162.140682845
535.625 0.0633530844238 -179.942951428
536.25 0.0665876692356 164.12614942
536.875 0.0586422154476 -158.50352513
537.5 0.0910550400797 -142.127668658
538.125 0.093802951293 -173.845048315
538.75 0.109948539658 -178.376114018
539.375 0.0684776732272 -165.54703137
540.0 0.0925406537562 -154.125448443
540.625 0.118737297171 -154.934505244
541.25 0.143052454068 -141.851616305
541.875 0.080408825665 -139.200984853
542.5 0.102678194482 -138.231693606
543.125 0.135798435642 -167.166290691
543.75 0.138716086021 160.805604368
544.375 0.0973516647508 137.224324465
545.0 0.0853592613131 91.8796874675
545.625 0.0977548822122 85.7873673677
546.25 0.0881995988648 69.1241015852
546.875 0.0979350834809 54.8241114466
547.5 0.111122322338 59.3920904938
548.125 0.10755690957 76.1894750575
548.75 0.0996568339473 90.1959759034
549.375 0.0943144912726 87.8101312455
550.0 0.0825361801436 125.902535232
550.625 0.0501821705545 159.156598495
551.25 0.040630999448 -138.014217002
551.875 0.0680304998865 -163.01367527
552.5 0.107861963448 -163.150413156
553.125 0.096257841383 -169.305189927
553.75 0.094004035784 -171.844476069
554.375 0.115578957764 164.416038433
555.0 0.12515494762 165.340783924
555.625 0.0922036418272 160.189991167
556.25 0.0923937419591 165.523431465
556.875 0.12878587163 163.137342567
557.5 0.0999046450857 168.580007768
558.125 0.0921597784377 166.42459714
558.75 0.0805424818926 -179.878289039
559.375 0.0691246069781 -172.089660373
560.0 0.0440847086753 -144.71566797
560.625 0.0575592828706 -133.849505604
561.25 0.0892748441549 -148.723381434
561.875 0.108825108744 -164.25630606
562.5 0.0861245304409 178.098174398
563.125 0.108060250802 144.954155556
563.75 0.130184510053 132.273631655
564.375 0.106380807004 121.50422965
565.0 0.0853135648007 121.051822347
565.625 0.0812648477269 120.26717782
566.25 0.0920230816285 155.37037074
566.875 0.0799862036435 177.032681242
567.5 0.062180891637 -169.18474241
568.125 0.0729474964932 -165.631507867
568.75 0.0648941659693 -146.152072177
569.375 0.0527076423249 -117.050508986
570.0 0.0604270988043 -99.2340936269
570.625 0.0871955708365 -109.12629995
571.25 0.0892377270698 -117.156643462
571.875 0.0907480873267 -132.269960528
572.5 0.106519363941 -148.139790003
573.125 0.132522111371 -169.709697006
573.75 0.101492903653 162.89800304
574.375 0.0888124669297 144.081769808
575.0 0.0975154904683 162.15960843
575.625 0.103197411491 160.126820388
576.25 0.0888251184124 147.661223594
576.875 0.0811677788075 126.804655597
577.5 0.0821445797452 139.004454929
578.125 0.0592378312263 163.424238579
578.75 0.0462356252198 166.864332086
579.375 0.0581822360297 153.862371285
580.0 0.0643125436132 -160.172424637
580.625 0.0758164259159 -144.507643096
581.25 0.0902728023988 -159.064510517
581.875 0.115531145698 178.252419539
582.5 0.110375534781 -169.972119268
583.125 0.0924703617307 -168.353078024
583.75 0.0833422995026 -171.964334846
584.375 0.103891890721 -159.929656433
585.0 0.0979546966787 -146.999414453
585.625 0.0715422636727 -143.561479041
586.25 0.0657154337463 -137.680802854
586.875 0.0844271547369 -144.029093301
587.5 0.068114944166 -133.882339041
588.125 0.0594334182303 -173.651546291
588.75 0.0669312022659 -170.836793281
589.375 0.0823711944853 -157.47260254
590.0 0.0920203009597 -171.95191398
590.625 0.104638523532 165.558193097
591.25 0.123142683164 152.353265785
591.875 0.0951200979189 157.967769539
592.5 0.0668944335608 140.240220283
593.125 0.060926518837 153.126406525
593.75 0.0771980305803 162.529905898
594.375 0.0589068110054 -154.003255484
595.0 0.0443147845939 -118.199025428
595.625 0.0607697776097 -98.355883356
596.25 0.076720136553 -85.6438295312
596.875 0.069321006985 -69.5741010937
597.5 0.0564857157957 -70.6209749516
598.125 0.0663134958063 -57.7558402632
598.75 0.0835804738816 -54.590039263
599.375 0.083457463322 -70.7260110997
600.0 0.104635858814 -58.9208986088
600.625 0.102117011713 -62.1300635793
601.25 0.0839978484137 -80.2236159972
601.875 0.0693719941348 -90.900047007
602.5 0.0622427921919 -95.2310921923
603.125 0.0437783341888 -53.4497205353
603.75 0.0379497302726 -21.3987665373
604.375 0.0474075822968 -12.8979886175
605.0 0.0467439271612 -37.8242631278
605.625 0.0573101668747 6.62534934853
606.25 0.0307909175494 21.2414911775
606.875 0.040845166148 52.2787179979
607.5 0.0563546324824 40.3070883391
608.125 0.0906181071008 38.5069426334
608.75 0.071538450129 25.3406728793
609.375 0.0759427178939 35.8014804991
610.0 0.0545653513126 29.1379317402
610.625 0.0776075258969 49.2072561593
611.25 0.0576950837611 38.8215675611
611.875 0.0392309233635 62.8397467863
612.5 0.0160367083241 67.6631011497
613.125 0.0147637540791 126.448385087
613.75 0.0460295053241 121.895807598
614.375 0.0591112681089 124.458538565
615.0 0.0350940394627 115.367710304
615.625 0.0180903573205 136.631375455
616.25 0.0776595756418 136.441879096
616.875 0.0674264903965 133.122653656
617.5 0.038986279541 119.731480731
618.125 0.0129524194077 116.574105079
618.75 0.0482028871964 141.52615499
619.375 0.0341637206587 148.687675726
620.0 0.00555151010743 84.1288778531
620.625 0.0196684958041 -92.5850820345
621.25 0.0410258981754 -102.237527025
621.875 0.0584939318376 -113.200910257
622.5 0.0732780436557 -168.820920154
623.125 0.0633778951845 -176.484765834
623.75 0.0756467231773 163.323605787
624.375 0.0561165288709 176.138227552
625.0 0.0570440875909 -155.500294887
625.625 0.0196907646824 -114.756236074
626.25 0.0429906355477 -176.146084592
626.875 0.00546510156272 152.489587404
627.5 0.0265095214646 -55.1321335232
628.125 0.0438465672584 -11.5846668313
628.75 0.0341436243045 -27.1054150674
629.375 0.0423479324357 -11.9025563503
630.0 0.0717951395828 5.38234421934
630.625 0.0790838356486 17.1659013588
631.25 0.0731674151042 -18.7685265
631.875 0.0647795553115 -12.6558458689
632.5 0.065561049666 -14.5119880947
633.125 0.0454047254982 17.5181487511
633.75 0.0443133968669 22.0152843738
634.375 0.0454237760581 10.0347543929
635.0 0.0294489113862 0.807462723164
635.625 0.0278977770547 18.5412667417
636.25 0.0733282845194 48.8019758468
636.875 0.0572907959856 15.7549633253
637.5 0.0421229851762 45.8429446555
638.125 0.0457902623065 69.6073358824
638.75 0.0870709139847 78.564357945
639.375 0.0997642165794 96.4249900818
640.0 0.0701311164002 102.826630724
640.625 0.0615115699677 109.721897962
641.25 0.0619704488919 122.309851369
641.875 0.064656608347 150.208884676
642.5 0.0527151482347 153.183101402
643.125 0.0531363105065 148.640170708
643.75 0.0780950650229 176.577013004
644.375 0.0662819272879 -178.206857902
645.0 0.0715692027227 177.733373217
645.625 0.099476333274 170.947649571
646.25 0.0902579426581 166.880733477
646.875 0.0801037212406 -176.662294589
647.5 0.0632826077301 -178.688728416
648.125 0.0809795499357 -173.969889146
648.75 0.0716733352998 -165.262808985
649.375 0.0589411009121 -143.670050926
650.0 0.0356129026886 -125.290578295
650.625 0.0529927851637 -88.0027454803
651.25 0.0570907723001 -67.2709129716
651.875 0.0784592421998 -44.4634324486
652.5 0.0696529583392 -26.7723403777
653.125 0.113272588468 -2.0042301096
653.75 0.107069171877 6.2926080396
654.375 0.116888626235 8.05857715775
655.0 0.1135168276 12.8643641818
655.625 0.0854624969141 24.0158279332
656.25 0.0554611977348 15.4370183762
656.875 0.0833184945953 8.00696883067
657.5 0.0575364058862 12.1797919133
658.125 0.0676179362014 47.8468698908
658.75 0.0609678155381 62.8468338316
659.375 0.0901940315696 38.2167757758
660.0 0.126337022156 26.1064132066
660.625 0.112777283514 18.876709397
661.25 0.115280948802 4.37404651221
661.875 0.122908170663 -11.6289400872
662.5 0.1218597181 -20.681639855
663.125 0.097341739556 -17.4432838622
663.75 0.103722712489 1.74466965237
664.375 0.108160869538 55.8688757652
665.0 0.0530511493238 86.9206459899
665.625 0.0638814709679 113.938077962
666.25 0.0812748116525 134.048218306
666.875 0.12617120359 168.812294449
667.5 0.0897121994453 -165.345053387
668.125 0.096784866596 -176.110900419
668.75 0.128685028611 168.232256571
669.375 0.145000266361 176.32575816
670.0 0.0679801207566 -170.566371318
670.625 0.0777468443019 -167.954208745
671.25 0.102028872363 171.37078832
671.875 0.117301170548 167.126868333
672.5 0.0715828286197 155.946406179
673.125 0.0734819109458 159.205567329
673.75 0.11235034362 160.372526492
674.375 0.122387161428 167.215600271
675.0 0.11221410259 -174.640405198
675.625 0.115116881523 -147.005141595
676.25 0.122782590178 -124.154416085
676.875 0.122821017025 -121.974595055
677.5 0.113024993084 -126.514508735
678.125 0.108608469007 -114.91903844
678.75 0.0633390550671 -98.1311692219
679.375 0.0608282963071 -80.6316941441
680.0 0.0635703182478 -67.5953641195
680.625 0.118749265131 -76.7400838341
681.25 0.108458070148 -73.6875829326
681.875 0.101292819387 -91.5110330919
682.5 0.145763088998 -122.966852578
683.125 0.140833876798 -116.491630427
683.75 0.125181042411 -102.504959409
684.375 0.110501141186 -78.5346780294
685.0 0.139027513377 -40.6699778562
685.625 0.107414621229 1.49171262363
686.25 0.10662554618 23.9507322748
686.875 0.089137463095 41.7102595762
687.5 0.088602327925 77.9993875738
688.125 0.0727340237892 120.85618435
688.75 0.101991409152 113.77325019
689.375 0.144066096774 116.44565611
690.0 0.133182574285 134.563982708
690.625 0.125761301323 124.015750313
691.25 0.140521956569 98.6856988869
691.875 0.182156542283 72.3624000288
692.5 0.141222850523 40.6702653242
693.125 0.0989455707383 -19.5888244633
693.75 0.0802981144882 -27.0791284081
694.375 0.12990386305 -26.5057981505
695.0 0.130342260068 9.67031483818
695.625 0.102153963728 55.7534854133
696.25 0.121167613985 107.78645875
696.875 0.133569993739 176.368983132
697.5 0.136900440456 -139.34975842
698.125 0.132864949064 -129.527190741
698.75 0.1393748094 -135.061280422
699.375 0.106528662867 -123.255523863
700.0 0.0938919562494 -114.351815813
700.625 0.12003447613 -94.7929661118
701.25 0.104572202075 -68.0434302034
701.875 0.0810067882386 -58.7224793097
702.5 0.0998734662123 -88.3632254494
703.125 0.17195866502 -120.636178628
703.75 0.196207963388 -159.599944727
704.375 0.118622086775 178.368159839
705.0 0.107677651634 163.558465711
705.625 0.141302352456 -172.387637202
706.25 0.150265362468 -117.47254284
706.875 0.0835282788973 -57.0093264863
707.5 0.0759564932212 -36.0123456834
708.125 0.0929542194952 9.46546076622
708.75 0.113266583152 62.7013436252
709.375 0.107888805687 105.208601642
710.0 0.103186613308 133.0391181
710.625 0.107516565909 161.985535254
711.25 0.122485448305 172.933347991
711.875 0.143841727723 178.249025631
712.5 0.152330175911 145.054075261
713.125 0.1232685325 96.9536532445
713.75 0.102956170516 48.7485724989
714.375 0.115174659929 12.3292712366
715.0 0.113018990282 36.1930149416
715.625 0.086473822691 62.5701060216
716.25 0.0770627069889 83.6424552595
716.875 0.106140898315 91.2242286279
717.5 0.145131622001 148.068523662
718.125 0.111789637626 168.412188689
718.75 0.101434702681 168.392625351
719.375 0.118974089233 -169.647352043
720.0 0.124269026862 -141.549126206
720.625 0.114495339146 -60.5074905549
721.25 0.0974027710191 -21.744085897
721.875 0.0851442751542 23.0994989256
722.5 0.079697261704 81.2395057606
723.125 0.089614670979 79.8183437048
723.75 0.0998057562081 35.8097112728
724.375 0.110993228763 -1.12968238215
725.0 0.0864192597749 -49.265119372
725.625 0.122299000218 -52.9622771858
726.25 0.124409645643 -61.5395461519
726.875 0.0992526738836 -41.1514759049
727.5 0.0739928516014 -53.6930026473
728.125 0.08236965276 11.1008331731
728.75 0.0917742978243 21.4727507581
729.375 0.0773060149586 8.30285876339
730.0 0.0703051300238 3.17977863464
730.625 0.0453644453933 -0.264850186082
731.25 0.101038672993 79.6774134526
731.875 0.0885727800205 122.159022708
732.5 0.081131364706 159.514807253
733.125 0.0707578104564 169.248966205
733.75 0.106406661216 -167.257421186
734.375 0.0676884959977 163.395123291
735.0 0.0608238031566 151.27654372
735.625 0.0331652329461 123.779552134
736.25 0.065657537485 145.069330474
736.875 0.0675297716581 163.940056184
737.5 0.078896566256 176.38538064
738.125 0.0586313983405 -176.926715097
738.75 0.108918758208 -162.84753254
739.375 0.0784405518328 -158.917160778
740.0 0.0622921911299 -127.790906067
740.625 0.0372378246664 -145.319123516
741.25 0.0566257699579 -155.580217661
741.875 0.0437049225357 -114.364418182
742.5 0.0551169906218 -28.2787680451
743.125 0.0288673103025 57.9868430628
743.75 0.0388251509162 108.36160042
744.375 0.0453136677799 117.137892238
745.0 0.0530470683926 137.953957499
745.625 0.0616792786741 138.262201065
746.25 0.0673262757629 91.8510729163
746.875 0.0745423089701 37.8065970321
747.5 0.0481058498278 1.28370602785
748.125 0.0268917476756 -1.31144727139
748.75 0.0287012298372 58.5794365086
749.375 0.0290685915566 -48.2701262217
750.0 0.0298679524141 -97.827456514
