!Created with skrf (http://scikit-rf.org).
# GHz S MA R 50.0 
!freq magS11 angS11
500.0 0.0108593427547 152.89502529
500.625 0.0120094318744 65.962566233
501.25 0.0103452894901 -150.55660836
501.875 0.0170688648739 -148.481610322
502.5 0.0311619943064 160.818422
503.125 0.0199964640528 111.721408576
503.75 0.0144258857842 -31.3752970947
504.375 0.0100112133206 132.62158709
505.0 0.00583278169077 -16.1074141723
505.625 0.0156155211425 -74.6850529752
506.25 0.0505057610992 -101.997220282
506.875 0.050576517105 -140.965171184
507.5 0.0384638419753 -121.10138667
508.125 0.0464923909932 -93.0960796952
508.75 0.0779596281851 -118.507954437
509.375 0.0491251200753 -149.13023352
510.0 0.0394109620605 -113.259236698
510.625 0.0362898927189 -159.176980486
511.25 0.0686191391112 -169.44162394
511.875 0.0434826366188 125.221889009
512.5 0.0347580951066 90.0270953663
513.125 0.0487421786205 35.8862663939
513.75 0.0659254146296 44.7210841389
514.375 0.0385070280192 18.0445374123
515.0 0.0558278975242 -6.57873386091
515.625 0.105136769145 49.5202229359
516.25 0.0945118941926 28.627998963
516.875 0.108885845884 67.20909688
517.5 0.117069438138 22.1245877154
518.125 0.205057012889 69.2589138481
518.75 0.0736747423416 -6.72136624153
519.375 0.0604447933624 14.8539724798
520.0 0.0814618955412 -9.52326654027
520.625 0.117757646308 -2.92611718794
521.25 0.0748852622087 -34.6402703765
521.875 0.0668670282214 -0.909024101903
522.5 0.102707124202 -32.9589795576
523.125 0.18657838482 -34.6772929396
523.75 0.224198311432 -55.1329981287
524.375 0.206890597921 -53.6787760812
525.0 0.0742727834884 -52.1470858632
525.625 0.0489637974073 -26.498404788
526.25 0.0334679845341 -31.6989935467
526.875 0.0444753991864 -29.4245434497
527.5 0.0427806908389 -39.348721002
528.125 0.0524355014069 -59.3247719795
528.75 0.0543836454092 -79.9439767174
529.375 0.0756991268408 -117.020739875
530.0 0.0482264271764 -134.578891791
530.625 0.0455678653681 -149.022555498
531.25 0.110344831978 -137.197428166
531.875 0.1532490114 -148.697716183
532.5 0.138444668736 -172.151627436
533.125 0.115410951119 172.674644613
533.75 0.0839243636292 163.292891097
534.375 0.100242307876 176.17321901
535.0 0.0847695931074 156.936483628
535.625 0.0755476130392 175.017671192
536.25 0.0442703411949 157.976749956
536.875 0.0771633352896 -160.354347785
537.5 0.0965288693693 -145.436546021
538.125 0.112549438735 -176.122249297
538.75 0.0891076996128 174.215374913
539.375 0.0687367718749 -166.126572148
540.0 0.0793220855267 -157.22584687
540.625 0.141701606926 -160.695974837
541.25 0.124081611282 -143.8011882
541.875 0.0988830329505 -144.961962203
542.5 0.108944090045 -143.178420333
543.125 0.150165135453 -170.208160198
543.75 0.122452987507 155.599934376
544.375 0.0896533239043 134.072132428
545.0 0.0851147441239 86.8306587961
545.625 0.112415167311 79.7443721673
546.25 0.0932925564445 65.0512228397
546.875 0.0902378211806 52.8774793881
547.5 0.101589703914 56.1636692798
548.125 0.129640796994 75.4569811519
548.75 0.0856752569544 87.4464920948
549.375 0.0853012635302 85.4821131964
550.0 0.0817717079053 120.900048047
550.625 0.0613682524258 148.033932851
551.25 0.0361756009094 -141.857011091
551.875 0.0604278887783 -156.163804722
552.5 0.0990878811002 -163.768714181
553.125 0.0984904236164 -174.577251037
553.75 0.0810418096112 -163.858911652
554.375 0.104939964994 167.327593284
555.0 0.116793384882 161.10368052
555.625 0.101346817866 155.369250635
556.25 0.103426474258 159.032610896
556.875 0.119356582507 164.426913051
557.5 0.111519624163 165.580459059
558.125 0.0984947619704 163.432806606
558.75 0.0811185750118 176.64024967
559.375 0.0597974020683 -175.170609941
560.0 0.037745383224 -149.546059315
560.625 0.0590233446847 -147.128527666
561.25 0.0802535671305 -147.506829123
561.875 0.101130120302 -162.777333943
562.5 0.09699601135 169.554223032
563.125 0.109992464939 139.717223909
563.75 0.110757197735 134.32809907
564.375 0.0987180114127 121.444058188
565.0 0.0794402976905 118.516619199
565.625 0.0896675087467 111.675747653
566.25 0.0781969598059 157.299365811
566.875 0.0748502987683 176.629710311
567.5 0.0752136436746 179.825986868
568.125 0.0800438447334 -173.038275744
568.75 0.0781994864681 -155.899687408
569.375 0.0459248506003 -108.286802593
570.0 0.059519220415 -108.213197443
570.625 0.0925192008526 -119.622213491
571.25 0.0896526139547 -122.027088233
571.875 0.0863788499978 -128.518407423
572.5 0.112936760617 -158.616376317
573.125 0.140436395048 -175.48482549
573.75 0.112038905991 156.899282895
574.375 0.0833251226046 146.329033687
575.0 0.111242712306 146.013505943
575.625 0.111665070104 151.469288598
576.25 0.083417738545 150.093015676
576.875 0.0744904456752 129.46923045
577.5 0.0803279780271 131.243389202
578.125 0.0654554637329 152.188200939
578.75 0.0490040802002 158.364194986
579.375 0.0543134304556 157.78568289
580.0 0.0686868277012 178.126153387
580.625 0.0772356203089 -152.42259227
581.25 0.0877869064392 -169.673569493
581.875 0.111851354086 -173.531203524
582.5 0.113929639472 -174.055935759
583.125 0.0869888671375 -166.754132607
583.75 0.0845211981642 -176.978724961
584.375 0.0967184284807 -148.419516633
585.0 0.0943559483794 -143.245215435
585.625 0.0703992596489 -146.941055976
586.25 0.0730935677243 -149.961049258
586.875 0.0789835273535 -133.273177103
587.5 0.0729360506541 -142.219453352
588.125 0.0562274820156 -171.429192058
588.75 0.067229218045 178.072077618
589.375 0.0850437265696 -143.93548112
590.0 0.0938250601165 -166.17343338
590.625 0.103993291256 166.838122388
591.25 0.12274876459 143.531367294
591.875 0.0933431657941 159.910943239
592.5 0.0642628178413 148.427044019
593.125 0.0617109116546 154.572760579
593.75 0.0746240461792 153.503511898
594.375 0.0582758727219 -132.787089093
595.0 0.0470438013186 -109.925252916
595.625 0.0576985835386 -99.4309624991
596.25 0.0691736461594 -101.036462922
596.875 0.0656842577385 -72.1347916875
597.5 0.0586663551378 -61.3631826212
598.125 0.0679208755736 -52.8039553733
598.75 0.0736298516429 -72.0771060444
599.375 0.0945662248699 -60.4039441638
600.0 0.106926922341 -63.5365703603
600.625 0.101886396182 -66.8952091347
601.25 0.0847937535896 -88.7794613326
601.875 0.0711874837404 -72.6809544027
602.5 0.0645357353115 -80.2228217969
603.125 0.0440720874956 -52.1117830242
603.75 0.0291361052804 -49.2293313129
604.375 0.0335708441166 -39.2976168072
605.0 0.0602626248421 -20.9454600844
605.625 0.0590603183 -2.14929207892
606.25 0.0277371872549 8.67380982638
606.875 0.0216620067376 36.8190341903
607.5 0.0858203038188 49.7569083603
608.125 0.0717259207324 24.9564122423
608.75 0.0548868518572 16.1295702686
609.375 0.0543077321164 20.7859785987
610.0 0.0702858302898 40.5748529539
610.625 0.0709672851522 39.7874602969
611.25 0.054111591918 31.5475021037
611.875 0.0323830969445 24.9612205409
612.5 0.0412806614456 107.994141975
613.125 0.0339760406867 123.319554531
613.75 0.0544579896313 127.279395705
614.375 0.0368434545143 117.562204921
615.0 0.0442063248947 120.152528006
615.625 0.0384028726628 130.626746236
616.25 0.0340231249292 137.754645088
616.875 0.0416745716326 124.638574525
617.5 0.0605546746381 129.963251916
618.125 0.0354186448096 127.576117472
618.75 0.0231738105232 150.330378675
619.375 0.0118152697836 126.778989922
620.0 0.0322704978754 157.231909834
620.625 0.015341768783 -160.56837109
621.25 0.0404747165481 -122.52739491
621.875 0.066127398064 -94.0234397472
622.5 0.0881887078331 177.748440083
623.125 0.0725991815138 170.182005838
623.75 0.0571381651002 170.483726501
624.375 0.038158689175 -167.576952732
625.0 0.0300114010742 -131.761368752
625.625 0.0380783149317 -150.731203444
626.25 0.0309295192824 171.333619465
626.875 0.00470486528715 55.5395897482
627.5 0.0409233820059 -12.1451465683
628.125 0.0375260029053 -71.3342606794
628.75 0.0284152044284 -44.3295506931
629.375 0.0433082974877 -16.4487747551
630.0 0.0859997539777 7.4309940024
630.625 0.0726420278422 -7.82533705554
631.25 0.069484364765 8.32879133299
631.875 0.0656640666759 -5.43389674854
632.5 0.0655115556368 7.2125530344
633.125 0.0594678632405 -23.7151516278
633.75 0.0396956312939 -7.65652236934
634.375 0.0516882333653 -2.08559759854
635.0 0.0423294993687 28.7118402218
635.625 0.0456297540182 45.1360568939
636.25 0.052575786951 38.2315264706
636.875 0.0567624585527 31.4966319047
637.5 0.0420447496625 25.3030068622
638.125 0.0564657382336 67.9269021092
638.75 0.0538188052565 62.676200993
639.375 0.0847632052868 84.6454971466
640.0 0.0701674113075 90.7936603852
640.625 0.0694449569808 109.163711844
641.25 0.0567174020526 103.908319845
641.875 0.0536385486306 137.183847106
642.5 0.054719330315 157.628210118
643.125 0.0670997641614 161.488671265
643.75 0.0501242061803 154.493051059
644.375 0.0624457587049 179.256336444
645.0 0.0747908491634 177.415803722
645.625 0.10908104958 167.520948411
646.25 0.0748869859134 143.423968681
646.875 0.0645101394029 171.907641994
647.5 0.0648982377529 172.635382839
648.125 0.100079610645 -176.258380204
648.75 0.0743702665024 -165.138000962
649.375 0.0522810802958 -154.347406562
650.0 0.0522936966272 -123.872764275
650.625 0.0647159274305 -90.9352355064
651.25 0.0781229506732 -67.4164408376
651.875 0.065065635451 -45.6578665525
652.5 0.0813636197827 -23.9983739549
653.125 0.119798940689 -3.40984311372
653.75 0.111049044111 3.43407584998
654.375 0.103703765888 3.1967991388
655.0 0.108606378193 5.90205533061
655.625 0.105108917542 24.4362364688
656.25 0.0679920856557 20.7728135912
656.875 0.0706113922486 4.53008372636
657.5 0.0773268268039 19.8138318055
658.125 0.0626965270864 40.4372655012
658.75 0.0686793091425 54.660989574
659.375 0.062400185646 41.1082811059
660.0 0.107284223874 23.9996242312
660.625 0.103344290705 13.9612869791
661.25 0.120926882079 -0.0661433803758
661.875 0.106989071564 -16.8239060954
662.5 0.110044786908 -22.9753238493
663.125 0.105849900283 -18.4148541502
663.75 0.115027202022 1.27925123528
664.375 0.0791684287872 49.2988335616
665.0 0.0805889006013 89.7346108109
665.625 0.0742242288425 106.683415149
666.25 0.0554870670465 131.461715318
666.875 0.105862987075 168.133627495
667.5 0.102933408611 -172.874338622
668.125 0.107135750641 177.628906479
668.75 0.116919260483 164.932506773
669.375 0.129660249624 173.540369683
670.0 0.0943917790171 -171.805951517
670.625 0.0882922227162 -174.120172109
671.25 0.124175520363 169.773296944
671.875 0.102916000757 164.881073731
672.5 0.0687417112547 153.454981372
673.125 0.0835311148065 151.949070349
673.75 0.0975281441733 158.762397744
674.375 0.109053814529 167.080136872
675.0 0.106929168811 -177.820983402
675.625 0.13165535724 -153.622738186
676.25 0.102416412332 -124.963449311
676.875 0.114614163607 -123.465607331
677.5 0.127088055422 -132.541836658
678.125 0.128408116837 -120.045227511
678.75 0.0816181664079 -98.2405091713
679.375 0.0485773599178 -76.2972641578
680.0 0.0754475235673 -80.3594046156
680.625 0.109443198007 -80.9723257095
681.25 0.114928289864 -80.8787169071
681.875 0.088046739109 -85.6752152838
682.5 0.134563692241 -121.70593485
683.125 0.171135656461 -125.716961291
683.75 0.141423017351 -107.761923631
684.375 0.126405360557 -83.9712054927
685.0 0.111711369229 -37.4054498369
685.625 0.13228236793 -3.9187819998
686.25 0.106987129358 19.796344345
686.875 0.104394259127 37.2853837553
687.5 0.0733114798141 87.9317660398
688.125 0.0790310244008 106.816405502
688.75 0.0963820503248 113.713801478
689.375 0.149633297992 109.25689149
690.0 0.117865787322 137.231920872
690.625 0.116354950458 125.162141903
691.25 0.13095259943 97.9007307644
691.875 0.195548906445 62.101140752
692.5 0.132597748463 38.028767458
693.125 0.091625797744 -19.3713425244
693.75 0.0958668595525 -40.3993690672
694.375 0.13569619858 -33.6994685654
695.0 0.142586687523 1.37406732259
695.625 0.0909068786093 63.4587321239
696.25 0.112616486279 112.551381601
696.875 0.134541768354 167.120004579
697.5 0.1436425486 -148.033331704
698.125 0.144420005487 -137.797271086
698.75 0.130166392424 -133.160534609
699.375 0.105457511935 -126.962601366
700.0 0.103099750315 -123.149215512
700.625 0.102306364887 -85.4114753747
701.25 0.0974474147678 -64.1034173944
701.875 0.076538950428 -58.0541556915
702.5 0.0962022179173 -95.478498995
703.125 0.160745052423 -117.969552326
703.75 0.188414993656 -159.299342369
704.375 0.136819575938 164.263399364
705.0 0.111159328092 156.221335912
705.625 0.150118260332 177.302341021
706.25 0.133246937655 -107.167353688
706.875 0.088615799606 -61.1120900495
707.5 0.0719263561462 -33.5334335363
708.125 0.0931282779547 -1.53582829858
708.75 0.110594628125 75.7016596837
709.375 0.106892348989 107.95757289
710.0 0.0975055002942 129.906481548
710.625 0.108902694133 147.578579285
711.25 0.120820721846 -178.388555243
711.875 0.147670545127 165.624264037
712.5 0.154566808073 144.772221878
713.125 0.135697279796 90.1837716789
713.75 0.09451824283 58.517027591
714.375 0.11027580787 18.9032668778
715.0 0.11081452816 17.5808541997
715.625 0.0877989960837 46.1751253475
716.25 0.0745432647675 63.5951761268
716.875 0.117483456727 102.509404745
717.5 0.150680741973 151.43726095
718.125 0.107843643718 167.697950831
718.75 0.0961454370557 157.681318414
719.375 0.114316010208 -169.706166349
720.0 0.133419366033 -131.633232715
720.625 0.116379978792 -84.3088865233
721.25 0.0983604834041 -37.5635016917
721.875 0.0889522848257 45.8265221682
722.5 0.0790489002906 77.8410870326
723.125 0.0869776028427 68.9045646172
723.75 0.0874741518196 22.4062427534
724.375 0.117177641949 4.42185080106
725.0 0.0979500363477 -40.5863350167
725.625 0.0919968339055 -76.3135646108
726.25 0.116970954782 -70.9988617725
726.875 0.101453435843 -63.0089481765
727.5 0.0824343212994 -35.7756569981
728.125 0.0909998362634 4.60579307391
728.75 0.103619375292 28.3362195126
729.375 0.0661820098226 -7.15006982052
730.0 0.0749758162045 11.1804792353
730.625 0.0618022379713 17.0698565011
731.25 0.0560302949464 50.9828385295
731.875 0.0659106626251 106.631915432
732.5 0.0601525977337 140.223512153
733.125 0.109776343866 -177.100203451
733.75 0.07396361518 161.392181965
734.375 0.0425432254249 134.372299967
735.0 0.0964582997753 165.371615877
735.625 0.0645934258207 140.648478831
736.25 0.0255541277549 137.445687952
736.875 0.0335638010733 170.239305183
737.5 0.0909241045052 177.724421329
738.125 0.090263485235 -177.237833975
738.75 0.0690510803277 174.65241542
739.375 0.0504889426672 -177.60461555
740.0 0.0167723703655 -139.123392201
740.625 0.0913846667703 -151.898913745
741.25 0.0694821325624 -160.145596723
741.875 0.050694743022 -107.487191105
742.5 0.0141249076149 4.5007924296
743.125 0.0727606634117 46.4360019326
743.75 0.0540480828225 72.2925443235
744.375 0.0442498244777 97.3487436392
745.0 0.0492789406324 171.484923152
745.625 0.0804221743456 96.9210059564
746.25 0.08204766099 71.0125066069
746.875 0.0722785722643 48.918179888
747.5 0.0291326316509 27.5761504386
748.125 0.0215649697634 7.46312035367
748.75 0.0280792101428 -3.48370942252
749.375 0.0413414351748 -65.5863909351
750.0 0.031668239414 -106.886802346
