!Created with skrf (http://scikit-rf.org).
# GHz S MA R 50.0 
!freq magS11 angS11
500.0 0.0130036155542 173.47666891
500.625 0.00866958120958 93.7919598035
501.25 0.00517664325492 -120.885702655
501.875 0.0263453353321 -170.914952818
502.5 0.0395429756082 174.224021461
503.125 0.0240842271668 120.532280467
503.75 0.00566566306055 72.6456073161
504.375 0.0212054838284 -64.9015555822
505.0 0.00668432412291 80.5258851063
505.625 0.0190992309948 -73.5608546612
506.25 0.04031495143 -116.334290542
506.875 0.081256955211 -91.7700123072
507.5 0.044194011474 -124.231713981
508.125 0.0470906996737 -90.4616969917
508.75 0.0604878642666 -129.807559489
509.375 0.0622483297841 -129.90140422
510.0 0.0322878810833 -124.252951529
510.625 0.0269766683523 -164.879477063
511.25 0.0572258372098 -173.207915736
511.875 0.0631704906184 152.981850198
512.5 0.0341418942296 81.7528980586
513.125 0.0459502937511 30.1880259809
513.75 0.0566311922699 35.8955877022
514.375 0.0385629701062 9.03855034279
515.0 0.0477007807656 0.429863648965
515.625 0.0808809712695 41.2343376716
516.25 0.0926055450339 29.8119192188
516.875 0.111492297805 68.2427003919
517.5 0.119082935288 19.4638700819
518.125 0.213871501066 71.3209678535
518.75 0.0987708351505 15.7529320961
519.375 0.0531708210703 7.81726057968
520.0 0.0818191387949 -6.87496625653
520.625 0.102967548623 -10.2728231832
521.25 0.0953795588683 -20.8749385375
521.875 0.0690394693634 -0.786515108672
522.5 0.0968893722883 -33.0296689962
523.125 0.18972192067 -34.8071941857
523.75 0.210643904639 -58.4471018304
524.375 0.226806397719 -48.7568380828
525.0 0.0711536051591 -49.2081084371
525.625 0.0351987261148 -42.2403732227
526.25 0.0575781764922 -7.87909663526
526.875 0.0434071403902 -34.3395062494
527.5 0.0435867853509 -33.6371585625
528.125 0.0362604867226 -67.0072004076
528.75 0.0716320320319 -73.6090341204
529.375 0.0680663376841 -125.748896539
530.0 0.0446497104924 -136.011710813
530.625 0.0375149706072 -142.436264822
531.25 0.134539667954 -141.927073083
531.875 0.145288023783 -150.210290721
532.5 0.127996807872 -173.493755587
533.125 0.0908587584724 171.884861154
533.75 0.134535267063 163.80558981
534.375 0.0889984897509 173.065949789
535.0 0.0857845188835 160.607409176
535.625 0.0609529161165 171.909892384
536.25 0.0723083822108 159.978389822
536.875 0.0775588671358 -160.994527905
537.5 0.0962379799749 -144.868907358
538.125 0.103170535944 -174.178120145
538.75 0.117368637215 178.496998401
539.375 0.0647182495556 -166.421406445
540.0 0.0830795470409 -156.284773319
540.625 0.130333027565 -157.357254421
541.25 0.141020933714 -144.298470208
541.875 0.0972695404206 -145.333774582
542.5 0.110876807854 -143.870794282
543.125 0.137018866751 -167.851467304
543.75 0.142040679098 158.025792765
544.375 0.0837438914387 131.416692238
545.0 0.0861318014585 89.4160879875
545.625 0.0944939330238 78.7396500174
546.25 0.0965972338847 65.5463496332
546.875 0.0890167091488 52.9898565958
547.5 0.104779573024 58.2065997967
548.125 0.118381567235 76.6358829134
548.75 0.0999417599447 88.3755952013
549.375 0.0768169121825 83.6152043697
550.0 0.0863947589293 123.272388241
550.625 0.0412258370407 147.967500777
551.25 0.0422177287593 -149.817636005
551.875 0.053034370292 -148.725660851
552.5 0.0974703729513 -161.90543707
553.125 0.0870440543171 -168.111399293
553.75 0.0951367791189 -174.89883199
554.375 0.0953427875326 171.489506916
555.0 0.121241249311 163.373745582
555.625 0.0984315682244 155.685623168
556.25 0.099378302135 161.50979611
556.875 0.125369998537 162.027903033
557.5 0.111245198565 164.554262221
558.125 0.0947905446605 163.058863442
558.75 0.0871578734585 175.809844315
559.375 0.0503942539745 -173.76900227
560.0 0.0403851864944 -146.509179587
560.625 0.0547028888722 -140.96523405
561.25 0.0911074875321 -156.261992194
561.875 0.0963918675324 -160.147813233
562.5 0.0936524704315 171.29112149
563.125 0.0997438645025 145.635593789
563.75 0.140907810309 125.583530011
564.375 0.0918618602926 122.938416018
565.0 0.0804306683846 120.915256866
565.625 0.0767572915651 115.971098432
566.25 0.103218202618 145.791261144
566.875 0.0751213316231 177.171074983
567.5 0.0733144073772 -179.802138181
568.125 0.0826412138797 -173.462357288
568.75 0.0710100977996 -149.590530811
569.375 0.0529817890121 -121.562406535
570.0 0.0591701368219 -106.456238105
570.625 0.0916026947658 -121.858964211
571.25 0.0912543789898 -123.173929287
571.875 0.0894129420172 -133.378250772
572.5 0.111511404898 -157.359080638
573.125 0.142796003878 -176.322254073
573.75 0.105272682118 160.622882813
574.375 0.0869198365809 144.280580153
575.0 0.107538493894 150.516260165
575.625 0.112789390327 151.041338314
576.25 0.0938079091251 140.863023885
576.875 0.072435105543 135.018725397
577.5 0.0838745054927 135.588713505
578.125 0.056272707824 156.459762001
578.75 0.050016636977 159.632335327
579.375 0.0562648564627 158.000760039
580.0 0.0668675300937 179.931138719
580.625 0.0784420442501 -152.625038073
581.25 0.0891077743359 -165.571251914
581.875 0.115521505565 175.01559874
582.5 0.113344526617 -173.036064623
583.125 0.0915182499291 -166.422880272
583.75 0.0797963601892 -163.480158622
584.375 0.106035160413 -168.749536527
585.0 0.0875706215566 -138.445866827
585.625 0.0708275694312 -141.951373952
586.25 0.0710239149109 -142.045940061
586.875 0.0849149924792 -146.155767278
587.5 0.0716445563635 -142.575721146
588.125 0.0585963321762 -167.99890496
588.75 0.0661013197215 -160.70382845
589.375 0.0808340828209 -166.010163022
590.0 0.0961046123445 -159.178016856
590.625 0.105534999134 165.879845764
591.25 0.119821273218 156.344356693
591.875 0.101135149033 152.222234882
592.5 0.0614489576995 150.178985245
593.125 0.0638748718382 152.188573999
593.75 0.0729302625652 179.58339639
594.375 0.0611410807424 -170.551512741
595.0 0.0484370452413 -103.08904496
595.625 0.0599021440476 -101.031488851
596.25 0.0726247781536 -83.1051471045
596.875 0.0659030257372 -78.6383987419
597.5 0.0614931723627 -58.8395225712
598.125 0.0741856467547 -54.5782079543
598.75 0.0796317114877 -64.2216360526
599.375 0.0801594561651 -74.4650555623
600.0 0.108772507523 -62.2200126071
600.625 0.104062525586 -61.3530056232
601.25 0.0852004451075 -69.4571965364
601.875 0.0691702871296 -102.635605119
602.5 0.0648778074925 -68.6253337754
603.125 0.0468435478178 -54.1038780291
603.75 0.0271923463062 -55.2611355701
604.375 0.0406325912622 -27.2390890869
605.0 0.0510676497944 -35.0364382852
605.625 0.0567073454947 2.13938201534
606.25 0.0327076995792 21.2681697706
606.875 0.0334247368677 43.6657619185
607.5 0.038070493194 34.7035764934
608.125 0.068233738766 28.0928253434
608.75 0.0555575163071 16.5707807916
609.375 0.0658293439609 28.0664099127
610.0 0.0616132510965 33.1555409864
610.625 0.0697273709774 41.2416974167
611.25 0.0605934706613 38.0028661197
611.875 0.0386458425266 44.3268918251
612.5 0.0114108053534 14.9060236478
613.125 0.0499470415611 125.700265853
613.75 0.0513388742018 123.899425999
614.375 0.0383509506955 119.196816542
615.0 0.0234829273508 110.88040059
615.625 0.0414846659979 132.353318637
616.25 0.0460626213657 136.054285475
616.875 0.0367040257665 128.083566622
617.5 0.0174151753079 107.024443799
618.125 0.0540780710119 135.059869809
618.75 0.0262546133306 141.892208758
619.375 0.0134562829941 150.140363896
620.0 0.0182609597517 -30.7339079568
620.625 0.0256238248947 -176.099914159
621.25 0.0419341123817 -127.143068813
621.875 0.072611862607 -115.394803357
622.5 0.0707834683641 -150.318859388
623.125 0.0745804670963 169.753178378
623.75 0.0589249343675 166.969978449
624.375 0.0400831359204 -164.106726777
625.0 0.0412870041356 -150.43186863
625.625 0.0242142763269 -139.381800147
626.25 0.0327080021765 174.628969537
626.875 0.00951785861326 146.632659482
627.5 0.0266991534173 -24.6650723785
628.125 0.0547499966524 -5.14598756379
628.75 0.033921514218 -53.8149356437
629.375 0.0345048000816 -27.3719297827
630.0 0.0665093063003 -15.4354980674
630.625 0.0818159301187 20.2497060273
631.25 0.0658967026573 1.42711762221
631.875 0.065840486585 -13.9669671871
632.5 0.0607955133339 -5.99398924877
633.125 0.0549768804513 26.9381865091
633.75 0.04859320368 -28.0984969536
634.375 0.0430948888052 1.28813771059
635.0 0.0422832139928 25.9654030975
635.625 0.0349020318203 38.0463257534
636.25 0.0644061267163 45.9874464296
636.875 0.0605645232939 26.9025997268
637.5 0.0347991285829 19.4857036363
638.125 0.0339157425228 57.504027414
638.75 0.095629683968 76.2131608729
639.375 0.0783062357695 73.6431311504
640.0 0.0700885821707 93.7749846751
640.625 0.0521039439554 91.0716125873
641.25 0.0764884422167 125.360927788
641.875 0.0519473465975 123.540347186
642.5 0.05049779103 158.322020646
643.125 0.0567084185897 157.870988227
643.75 0.0875717630813 174.039940433
644.375 0.0588321757484 175.504605646
645.0 0.0665671545084 174.411788276
645.625 0.082825713009 159.187026409
646.25 0.110309650479 167.109201741
646.875 0.0623472037271 164.177268715
647.5 0.0622271596037 -179.349114123
648.125 0.0815769248785 176.465965344
648.75 0.0807971932003 -161.896873005
649.375 0.0485937278623 -153.457343679
650.0 0.0490503511193 -121.206691428
650.625 0.069587339207 -89.0094343702
651.25 0.0689152848297 -67.0314520261
651.875 0.0744012326099 -45.6403573672
652.5 0.0787809943344 -25.8996201543
653.125 0.110220227208 -2.9449782239
653.75 0.115625952282 5.53377507309
654.375 0.0909097454631 0.248943015674
655.0 0.109196409454 7.01541507768
655.625 0.10087567245 22.9075447351
656.25 0.0622456632448 20.7324473864
656.875 0.0769269216 5.54099170868
657.5 0.0745165579326 18.8235303781
658.125 0.0532522854277 45.7655390404
658.75 0.0542319316705 60.8831762867
659.375 0.0937820452451 32.8001461312
660.0 0.0892153855234 24.4655474922
660.625 0.10560516824 15.9636597849
661.25 0.0995226482344 1.1912395039
661.875 0.131939585225 -15.1068973949
662.5 0.100959628574 -25.9949333993
663.125 0.104871186301 -16.6643326077
663.75 0.0972851860372 1.29295966429
664.375 0.116353998125 51.8614700983
665.0 0.0757443545731 86.5910770721
665.625 0.0601622838831 104.81337834
666.25 0.0937851600422 124.972841229
666.875 0.0868913173294 171.188564689
667.5 0.0999796869224 -172.331878628
668.125 0.10410179689 178.313413702
668.75 0.135143633525 164.27811243
669.375 0.141820526851 173.9709017
670.0 0.0887479988086 -171.59742274
670.625 0.0930166734355 -175.916251376
671.25 0.114960038888 172.301070709
671.875 0.116024253702 163.717980215
672.5 0.061681860907 156.396920082
673.125 0.0850397558052 151.268374441
673.75 0.116863093153 153.272879768
674.375 0.104417172876 169.471105354
675.0 0.112189321599 -175.319420874
675.625 0.136822360575 -154.556740751
676.25 0.13418798994 -129.75370612
676.875 0.112901353648 -121.603457364
677.5 0.125178452674 -131.103771493
678.125 0.134020007131 -120.105948474
678.75 0.0734621099148 -95.3045929403
679.375 0.0601681850237 -83.5746854971
680.0 0.0705912255181 -81.7428006678
680.625 0.108571194976 -72.6850169851
681.25 0.100214264438 -73.8582013851
681.875 0.104370999303 -98.9882523339
682.5 0.132097338964 -120.539055555
683.125 0.163064071646 -123.382359369
683.75 0.144374959233 -107.748053337
684.375 0.119326774243 -81.3336374461
685.0 0.146353964745 -45.9202297863
685.625 0.129930068803 -4.94317555529
686.25 0.101148506666 21.8250980437
686.875 0.0893048146674 42.3387406515
687.5 0.0872864824525 73.4082232092
688.125 0.0782086788573 109.250097769
688.75 0.0978564234389 117.953888154
689.375 0.13518560503 118.912939488
690.0 0.143340533977 127.179313566
690.625 0.109397549218 131.151706281
691.25 0.137781934785 98.0496890906
691.875 0.18674668591 62.4048229958
692.5 0.155253311383 35.7399579958
693.125 0.0970959836709 -20.2813186069
693.75 0.0924668853891 -39.2241757505
694.375 0.131968837441 -30.1438776822
695.0 0.125197814703 11.069543676
695.625 0.107178114399 46.6249985158
696.25 0.106249546532 122.060729465
696.875 0.136641860953 169.102565509
697.5 0.145831421432 -149.773352188
698.125 0.140246814703 -135.051702555
698.75 0.123447804857 -128.492945303
699.375 0.102123767742 -121.844859696
700.0 0.0945953821645 -115.743348218
700.625 0.1218540268 -101.751388393
701.25 0.0877751272043 -55.6123547258
701.875 0.0788184579608 -57.2265394982
702.5 0.0940757247238 -81.2921274362
703.125 0.168689267102 -130.361751868
703.75 0.192763426 -159.518503617
704.375 0.131029414085 168.392052582
705.0 0.111651663944 157.577222369
705.625 0.140721245968 -172.124690341
706.25 0.157803607532 -123.114518896
706.875 0.0856150749437 -58.8354808862
707.5 0.075919296493 -32.5264804766
708.125 0.0862943242132 21.8508754522
708.75 0.111751675627 50.7861913074
709.375 0.105514961291 114.19763298
710.0 0.103042336891 130.28021842
710.625 0.105839534268 146.637814125
711.25 0.116757015532 161.200965948
711.875 0.150997000247 165.458210948
712.5 0.149746481325 148.820015745
713.125 0.123480417545 98.5898649193
713.75 0.108992900798 35.4048445496
714.375 0.107112304767 22.6964905757
715.0 0.114044410372 25.2204858327
715.625 0.0856969558716 43.7297036761
716.25 0.0788886666313 73.2035705903
716.875 0.106856164485 90.5026247321
717.5 0.152590847193 157.568304603
718.125 0.11935378872 167.495878047
718.75 0.101206947222 173.836397653
719.375 0.112622019407 -179.683083522
720.0 0.128214113306 -141.196848241
720.625 0.116334141356 -77.6754777326
721.25 0.0937148322952 -21.4131272532
721.875 0.0882312797686 11.4897588164
722.5 0.0830158005098 83.964887266
723.125 0.0942438455909 78.8141480647
723.75 0.111078150772 47.4121877834
724.375 0.0994742356919 -10.1511755415
725.0 0.0997334316872 -36.8592592398
725.625 0.100639213988 -69.9442148925
726.25 0.12155585991 -66.9579855275
726.875 0.104728944701 -52.2124971713
727.5 0.0774365328349 -50.7102850622
728.125 0.0985754983906 9.29241417263
728.75 0.110307031007 25.1381936164
729.375 0.0871267398739 25.6127800114
730.0 0.0580091599887 -9.18237675226
730.625 0.0550588818133 10.8009450282
731.25 0.0679784498075 61.6035051772
731.875 0.0586636643622 104.236717051
732.5 0.07423137067 148.977837821
733.125 0.061344023735 156.104685783
733.75 0.0722724732571 170.566442343
734.375 0.059890270343 178.576588426
735.0 0.0296124321919 116.329142265
735.625 0.0913560369304 154.771652204
736.25 0.0359730589478 139.720046739
736.875 0.0433938527805 173.723150446
737.5 0.0599974602751 178.440614991
738.125 0.0697302033075 -178.879600515
738.75 0.0733428369246 -175.379654761
739.375 0.0340852089899 171.02650714
740.0 0.0421911836841 -152.344093809
740.625 0.020512741989 -120.575550752
741.25 0.078798304172 -155.728571041
741.875 0.0494862959671 -114.322986779
742.5 0.027726292352 -5.53636930139
743.125 0.0229212130331 123.379886106
743.75 0.066573699423 77.4766520637
744.375 0.056276142474 91.9619324663
745.0 0.0494140463792 122.572475061
745.625 0.0666193922449 143.868202811
746.25 0.101242966275 65.5100813378
746.875 0.0698228111391 37.7744183313
747.5 0.0418006884661 8.92728626445
748.125 0.0203577127207 -3.16275421004
748.75 0.0234841220228 49.4723848187
749.375 0.0500997955342 -66.8748024682
750.0 0.0381599320591 -123.704668053
