!Created with skrf (http://scikit-rf.org).
# GHz S MA R 50.0 
!freq magS11 angS11
500.0 0.0105938244215 117.200458469
500.625 0.0146501096733 153.216754373
501.25 0.0132341578408 -158.813831491
501.875 0.039390322295 -171.628217285
502.5 0.0093821394946 116.911845313
503.125 0.0135183771511 72.9957806901
503.75 0.0130332298126 -34.2883213146
504.375 0.0187894397912 -65.3608797594
505.0 0.0278636950563 -71.4750148733
505.625 0.0335126777464 -78.5275796975
506.25 0.0355078384282 -107.155749999
506.875 0.0670740559125 -99.7194094593
507.5 0.0383325352961 -146.392404586
508.125 0.0516775671631 -93.0099557969
508.75 0.0658940721612 -137.369815539
509.375 0.0729747624645 -125.906424697
510.0 0.025986802829 -165.22757175
510.625 0.0386410171658 -160.244800633
511.25 0.063139343917 -176.857983065
511.875 0.0569157832284 149.542563178
512.5 0.0438857955852 108.303777144
513.125 0.0567344973118 49.0545532494
513.75 0.0590969016363 30.6679102012
514.375 0.0577401423486 30.1820365961
515.0 0.0504639407117 0.456546588708
515.625 0.0813296639557 50.3718704016
516.25 0.0876869155149 27.3107169425
516.875 0.134620296981 68.4521401702
517.5 0.101158677133 16.0595797744
518.125 0.181230368383 66.5934402375
518.75 0.0869445490664 12.7399330172
519.375 0.0822737942695 23.0635419166
520.0 0.101731075579 -2.5708366755
520.625 0.101074432078 -5.40571798275
521.25 0.0886856179357 -22.2590741725
521.875 0.0800805664887 0.0202644573305
522.5 0.0850968827895 -37.7613630688
523.125 0.170217529331 -37.4308475192
523.75 0.208524730588 -60.6745646009
524.375 0.238649699693 -46.1559132282
525.0 0.0709976150675 -47.2910453739
525.625 0.0472170455292 -21.2371064916
526.25 0.0532873621963 -5.14835394435
526.875 0.0566835040257 -20.8624781913
527.5 0.0497542723528 -28.318844443
528.125 0.0472194672111 -54.3966915724
528.75 0.0692656416076 -70.6730050396
529.375 0.102652158893 -106.204431531
530.0 0.04753923038 -129.724234959
530.625 0.0336600888609 -140.609486247
531.25 0.14365882516 -143.230749924
531.875 0.176319069062 -147.894707313
532.5 0.144230670206 -170.689642347
533.125 0.108079343441 175.170904447
533.75 0.121966452936 167.960409345
534.375 0.124246834239 179.896980513
535.0 0.0877145541909 162.18080283
535.625 0.0658196451346 178.256781936
536.25 0.0700057416176 163.130481016
536.875 0.0700372923368 -158.430794795
537.5 0.0981975676658 -143.643352134
538.125 0.0995525889712 -175.776958962
538.75 0.113717978795 -179.978650323
539.375 0.0775744413755 -163.53964684
540.0 0.0959843718723 -154.869332426
540.625 0.12688515087 -156.443721559
541.25 0.145367838942 -143.09373577
541.875 0.087083604535 -138.887460462
542.5 0.109869974742 -141.26630664
543.125 0.1443451006 -168.499994487
543.75 0.139927997592 159.210721201
544.375 0.102600101821 135.831568076
545.0 0.0873283969937 91.2521359491
545.625 0.101124091563 83.2618694444
546.25 0.0910093413187 66.8487830766
546.875 0.0999207031008 52.7878251118
547.5 0.113490641221 57.4162035629
548.125 0.118004318918 74.1109157256
548.75 0.0999274154774 90.077378411
549.375 0.10273755453 85.2323503157
550.0 0.0903972836941 124.274721649
550.625 0.0544584482399 156.47785756
551.25 0.0411035389974 -141.304829182
551.875 0.0711536583751 -168.933027394
552.5 0.112733024759 -165.958965277
553.125 0.0984878889343 -171.665247812
553.75 0.0939883203716 -172.359354985
554.375 0.116118064073 163.187452992
555.0 0.126908197188 162.916957318
555.625 0.0949995686363 160.689071539
556.25 0.0940625006106 163.55018889
556.875 0.130073301155 161.864374851
557.5 0.10828597886 167.14222302
558.125 0.0962925190265 164.595769493
558.75 0.0821427106848 177.995241006
559.375 0.074901535063 -174.113566795
560.0 0.0469395401677 -146.052164698
560.625 0.0589311431315 -135.246722424
561.25 0.0907427546536 -152.007191504
561.875 0.11045163172 -165.995884238
562.5 0.0870797079007 177.939734692
563.125 0.107821234046 144.221908883
563.75 0.133065187159 129.654132224
564.375 0.112016709947 119.296595847
565.0 0.0880205151005 119.694243634
565.625 0.0834105840869 119.354742836
566.25 0.0975382499645 152.320046765
566.875 0.081845965885 175.362405391
567.5 0.0663423692063 -170.914871504
568.125 0.0793586054339 -169.081878616
568.75 0.0720891061758 -150.310824282
569.375 0.0527559736704 -117.607359898
570.0 0.0620800390792 -106.201400412
570.625 0.0894599890326 -112.644948002
571.25 0.0899753018515 -119.331528034
571.875 0.0904821761945 -133.630804736
572.5 0.109834295001 -150.799816878
573.125 0.139144214399 -173.470717133
573.75 0.105782581889 160.425609576
574.375 0.0888416985386 142.48728293
575.0 0.0994690470963 160.850054405
575.625 0.10691927358 158.000660326
576.25 0.0904564171412 145.426338547
576.875 0.0860058731764 124.962766533
577.5 0.081286260715 138.390218358
578.125 0.0595491718226 162.696602718
578.75 0.0473035685812 167.324859611
579.375 0.0581814875197 151.042022491
580.0 0.0667448277262 -165.403345347
580.625 0.0788046207985 -149.619135786
581.25 0.087826272402 -161.920188797
581.875 0.116881295012 177.177227918
582.5 0.114168845944 -174.426096614
583.125 0.0939924975837 -170.713661838
583.75 0.083578554996 -172.449615083
584.375 0.105515757399 -161.370488194
585.0 0.0994016872713 -148.978758015
585.625 0.0718358038184 -149.220506469
586.25 0.068702735359 -142.371997673
586.875 0.0840446923518 -145.029835767
587.5 0.0725125746451 -138.57067093
588.125 0.0588571348779 -176.957569347
588.75 0.0668050680201 -175.891439135
589.375 0.0814055525401 -160.034683308
590.0 0.0915869533255 -174.056377825
590.625 0.101857735473 163.682463432
591.25 0.123070179548 149.286730863
591.875 0.0977574616926 155.434583565
592.5 0.0677607755665 138.290342247
593.125 0.0589845451967 148.414712107
593.75 0.0772607383009 162.556643417
594.375 0.059392612615 -155.190703291
595.0 0.0415200166342 -126.292936628
595.625 0.0588586683069 -104.615835697
596.25 0.0745204318771 -89.2266034708
596.875 0.0680906593882 -72.1522406768
597.5 0.0545699981201 -74.2533808366
598.125 0.0655961724005 -64.4077858713
598.75 0.0819122294839 -60.4376613069
599.375 0.0818745740302 -71.5859489097
600.0 0.105025493033 -65.3594494952
600.625 0.101513271666 -66.1380896016
601.25 0.0850705259337 -83.6969432868
601.875 0.0683468858743 -92.2664921454
602.5 0.0610276845731 -99.0576931252
603.125 0.0444301272001 -61.4609169131
603.75 0.0360544568483 -26.7265604185
604.375 0.0414462508576 -19.3945044831
605.0 0.043854924144 -42.2769145403
605.625 0.050695886545 -3.63907002333
606.25 0.0262838945865 12.7409885084
606.875 0.0318802935271 54.3451522904
607.5 0.0536962657978 40.8137962676
608.125 0.0863973873792 34.7610492476
608.75 0.0686797600091 24.0053136435
609.375 0.0695336193446 35.1210300454
610.0 0.0498887190838 26.420231548
610.625 0.0672769742077 42.9160914342
611.25 0.0526929490916 33.3449630925
611.875 0.0334124914485 52.967945631
612.5 0.0132126253237 52.8800246286
613.125 0.0109441595416 134.908624481
613.75 0.0413105076418 124.095666833
614.375 0.0551063207038 125.450526177
615.0 0.0297092309836 110.777279468
615.625 0.0132683973569 149.01660059
616.25 0.0728041044725 134.771253001
616.875 0.061802067573 131.288469961
617.5 0.03100707156 117.614568581
618.125 0.00872027337325 127.320068346
618.75 0.047772371107 142.392951565
619.375 0.0309671859331 142.991212058
620.0 0.00450866172151 28.5429406177
620.625 0.0289141414455 -71.5930754261
621.25 0.0474713559811 -92.6373820015
621.875 0.0596489784888 -108.443851394
622.5 0.0694789221342 -162.399900409
623.125 0.0638430201132 -169.61098066
623.75 0.0753359196836 160.455908224
624.375 0.0528425358786 -178.837308537
625.0 0.0495365297431 -149.616936922
625.625 0.0211262633696 -100.348885433
626.25 0.030785479411 -176.116877415
626.875 0.00345038857079 29.5147806687
627.5 0.0316270291199 -38.3096050179
628.125 0.047615320185 -7.54049495009
628.75 0.0408996590277 -12.2634982978
629.375 0.0526014142017 -2.30862156279
630.0 0.0714484665016 5.34609688804
630.625 0.0819734111671 18.0435847236
631.25 0.0684859419559 -15.6858467685
631.875 0.067727827697 -5.44574349814
632.5 0.0685217290036 -5.68412461993
633.125 0.0504295429976 20.9401101008
633.75 0.047012465835 25.2103748529
634.375 0.045682228629 15.0435680607
635.0 0.0307880771199 9.19029422574
635.625 0.032656093481 28.8456389384
636.25 0.0775746146479 47.9172542639
636.875 0.0575521393607 30.1881548723
637.5 0.0484994585518 47.8196914897
638.125 0.0558985875766 69.5260380025
638.75 0.0931527734705 77.8070579129
639.375 0.106389001972 98.9797425498
640.0 0.0733543972786 104.366160217
640.625 0.0607921887758 110.412140798
641.25 0.0702152123971 127.781899057
641.875 0.0771890693547 154.231064243
642.5 0.055782432689 159.559314812
643.125 0.0574505291639 152.876977684
643.75 0.0835337191676 177.304504384
644.375 0.0780008917744 -174.084413523
645.0 0.0811447521528 179.681777541
645.625 0.099578132545 170.303324195
646.25 0.0951832753494 167.285773895
646.875 0.0847902139095 -176.534893773
647.5 0.0664683982007 -177.934868893
648.125 0.0853775852743 -174.974460978
648.75 0.0755580138042 -163.697096963
649.375 0.0621681468153 -143.88998223
650.0 0.0341998812931 -121.303385537
650.625 0.0630259106828 -89.4805457873
651.25 0.0643060923632 -66.4824613849
651.875 0.0800084370325 -45.796978394
652.5 0.081888659209 -24.8474220885
653.125 0.119044917913 -2.08277851099
653.75 0.109991675287 5.69510160656
654.375 0.119683745065 7.50647627948
655.0 0.118036663559 11.8552704408
655.625 0.08751391866 24.7307743202
656.25 0.0560020145897 17.7608432048
656.875 0.0856892548329 6.32353538186
657.5 0.0677569091666 19.9579171296
658.125 0.0747148194652 48.9253626918
658.75 0.0694501634294 58.4416272998
659.375 0.0930974597982 35.8112921664
660.0 0.130741933167 23.2456430475
660.625 0.114551449228 16.7830542719
661.25 0.115778089057 3.59384921197
661.875 0.128273202398 -13.1390657886
662.5 0.131767915641 -21.5142141546
663.125 0.104886159369 -15.7512094829
663.75 0.111641399048 3.84696521165
664.375 0.111501194929 55.2833364904
665.0 0.0585984944013 91.0420698047
665.625 0.0632291469905 115.110075654
666.25 0.086072628996 132.157783269
666.875 0.130209165007 167.645204103
667.5 0.0923896275198 -167.213086242
668.125 0.0996754076213 -176.707816691
668.75 0.13303119671 167.21111447
669.375 0.148980806203 174.875282758
670.0 0.0724714699879 -168.971426797
670.625 0.0838330801771 -169.517372086
671.25 0.108398907361 173.800244976
671.875 0.119928741178 165.272806168
672.5 0.0793891672267 154.444524176
673.125 0.0818660064229 157.400090124
673.75 0.116706632754 157.824857479
674.375 0.124497114103 166.433553979
675.0 0.112612590558 -174.119914876
675.625 0.119871789983 -147.033571357
676.25 0.127028534456 -125.589836486
676.875 0.124852675737 -122.528710186
677.5 0.117904502757 -126.905726588
678.125 0.117935567799 -116.921911378
678.75 0.0702520985705 -95.1266578025
679.375 0.0609991807835 -81.0768996827
680.0 0.0727970618177 -73.5229106528
680.625 0.124158509076 -78.7548737397
681.25 0.110382185755 -74.2624969414
681.875 0.102784389442 -94.0947196985
682.5 0.146290763894 -125.000214685
683.125 0.14951075281 -117.415766364
683.75 0.136525776588 -102.428942424
684.375 0.114890586329 -79.9684399253
685.0 0.139940285871 -40.1548484
685.625 0.117111783359 1.30960550733
686.25 0.113081344171 20.7512231348
686.875 0.0966332567767 42.2091165441
687.5 0.0893345104082 78.87773775
688.125 0.080109392827 114.711748714
688.75 0.105370745844 111.415733797
689.375 0.152115979592 113.299304086
690.0 0.136946790693 131.906281732
690.625 0.127049477884 122.331832676
691.25 0.141668977332 96.938556332
691.875 0.184576851007 70.655587433
692.5 0.147838921552 38.7354066143
693.125 0.100227349729 -21.0285451122
693.75 0.08906068346 -32.7573088607
694.375 0.137530633315 -29.4595764586
695.0 0.141921137133 6.69019207625
695.625 0.103782247033 54.536696643
696.25 0.12145403365 106.672399932
696.875 0.135837860934 176.571130312
697.5 0.142481007081 -142.91460898
698.125 0.133784476667 -129.970759251
698.75 0.141399306173 -136.799862708
699.375 0.111494491447 -126.723417681
700.0 0.0999343920809 -118.917245028
700.625 0.118797863127 -97.2885209667
701.25 0.109563326487 -71.4780790052
701.875 0.0837503306702 -62.1402049667
702.5 0.0998963272806 -89.3907459251
703.125 0.172419883147 -125.698987209
703.75 0.199413597349 -162.685911775
704.375 0.122096677688 176.88244058
705.0 0.111934699809 158.836521315
705.625 0.145867333179 -178.602644108
706.25 0.15320315448 -118.944738369
706.875 0.0910119198354 -61.7173186463
707.5 0.0759804140527 -39.2490652114
708.125 0.0941472112426 9.08348367868
708.75 0.112899369833 61.6105942534
709.375 0.106641248688 99.9753502662
710.0 0.100073686793 129.641569687
710.625 0.109438517787 159.233927792
711.25 0.121164399532 169.464252701
711.875 0.142980070574 172.646016723
712.5 0.151894052856 141.42817218
713.125 0.132213910818 93.9589459433
713.75 0.102768734536 44.9758417897
714.375 0.115060548694 8.38662278371
715.0 0.115110257135 35.2991461891
715.625 0.0855366976909 55.0111521401
716.25 0.0739296107044 77.8974927066
716.875 0.104729030742 89.0548973558
717.5 0.145169308455 140.591824339
718.125 0.119730980281 164.914276265
718.75 0.1004969242 167.971334664
719.375 0.117050930077 -172.512286751
720.0 0.123564675635 -144.091422639
720.625 0.116749186953 -63.1595726851
721.25 0.0959500639287 -24.2706613901
721.875 0.0835459443735 18.8445345392
722.5 0.0718547421031 67.2770152725
723.125 0.0753166181716 65.9013858704
723.75 0.100717242253 34.6385290039
724.375 0.106371023217 -6.48426825075
725.0 0.0827736351525 -53.6300750767
725.625 0.119688667501 -55.7872606109
726.25 0.116385048749 -68.3730000387
726.875 0.0980050156161 -48.875215906
727.5 0.0718304964205 -57.2861108012
728.125 0.0712386523666 -3.22753387332
728.75 0.0816080334175 19.147220113
729.375 0.0762521517736 8.74471989251
730.0 0.0634232601186 -2.50074937498
730.625 0.0386038549269 -6.61560962989
731.25 0.0993114947812 77.6061386697
731.875 0.0823320945994 118.777731868
732.5 0.0720887378341 158.178818473
733.125 0.0662496817058 162.438832163
733.75 0.102255890084 -172.087027168
734.375 0.0658212926681 160.860727415
735.0 0.0486394417355 145.177504072
735.625 0.0242397852215 113.890206577
736.25 0.0589545291236 152.802447862
736.875 0.0624567035391 164.273852665
737.5 0.0700939054275 177.479268133
738.125 0.0507444046897 -174.978069507
738.75 0.105265960134 -166.207152208
739.375 0.0654126071286 -164.255860996
740.0 0.0494557149355 -133.722708173
740.625 0.0286303514946 -143.849328966
741.25 0.0401099860944 -160.961123566
741.875 0.0316976957241 -97.0792450918
742.5 0.0487341919628 -24.2324820355
743.125 0.0230117328316 67.3532859101
743.75 0.0331171479569 132.573266788
744.375 0.0393978299064 139.720282315
745.0 0.0545150497652 162.667091487
745.625 0.0658721228807 141.021380743
746.25 0.0685573580544 105.243681526
746.875 0.0747737360091 37.5148266383
747.5 0.0423462802776 7.02282666164
748.125 0.0272996971048 1.10452677217
748.75 0.0327800919851 62.3380742929
749.375 0.034738693411 -17.4926006555
750.0 0.0336697061254 -68.4170397866
