!Created with skrf (http://scikit-rf.org).
# GHz S RI R (50+0j) 
!freq	ReS11	ImS11	
500.0	0.5527132941	-0.9443171509	
500.625	-0.1542836818	-1.105791756	
501.25	0.0529943301	-0.3348571818	
501.875	-0.3929745682	-0.4995570848	
502.5	-0.05998898345	-0.06564088176	
503.125	-0.0575104113	-0.02342196761	
503.75	0.03899855855	0.0985403664	
504.375	-0.008612095796	0.0179753335	
505.0	0.04053203442	-0.03899604115	
505.625	-0.03420888096	-0.012317239	
506.25	-0.01342689817	-0.1359694436	
506.875	-0.04101582257	0.2132061234	
507.5	0.2228043824	-0.2894516597	
508.125	0.04322743887	-0.8270457706	
508.75	-0.04421374356	-0.6902849699	
509.375	0.2487682606	-1.449774885	
510.0	-0.6175894517	-0.2518731469	
510.625	-0.05340699126	-0.01857119596	
511.25	-0.08508671856	-0.0770839084	
511.875	-0.1357570633	0.002719610345	
512.5	-0.02401973676	0.01138493649	
513.125	0.01180252616	-0.07375045941	
513.75	-0.07383842763	0.02205383484	
514.375	0.0168214899	-0.05587300298	
515.0	-0.2463102022	-0.06283384551	
515.625	0.4426258572	-0.4128317605	
516.25	-0.7018784331	-0.7510978281	
516.875	-0.09879688753	-0.03776691092	
517.5	0.0892618259	-0.160331656	
518.125	-0.03726628838	0.04058322638	
518.75	0.01535442441	-0.1518511172	
519.375	-0.06013710008	0.04897839743	
520.0	0.1050232254	0.002598052022	
520.625	0.1164339049	-0.02885804153	
521.25	-0.0004639829319	-0.2509676323	
521.875	-0.1494484724	0.02031278769	
522.5	-0.004673579214	-0.02295170559	
523.125	-0.121517893	0.03933816074	
523.75	0.02249806821	0.02169479378	
524.375	-0.2030363963	-0.09842796502	
525.0	0.07364530104	0.198018896	
525.625	-0.01245662515	-0.03227994061	
526.25	0.05359543522	0.02910687009	
526.875	-0.06940388926	-0.01519028644	
527.5	-0.06048679066	0.2516449917	
528.125	0.1082333181	0.1212942786	
528.75	-0.03677166865	0.1784389269	
529.375	0.0837174223	0.06948212064	
530.0	0.0004057097024	0.07628797382	
530.625	0.08851185829	0.3623294462	
531.25	0.4890971599	0.2222089823	
531.875	0.1261192072	-0.0860571262	
532.5	-0.04526406402	-0.2008528885	
533.125	-0.04335898751	0.03583522436	
533.75	0.2181705087	-0.1883524327	
534.375	-0.162488541	-0.1705609122	
535.0	-0.1246543718	-0.1158739357	
535.625	-0.2010141898	0.108844794	
536.25	0.04240120306	0.07045819271	
536.875	0.06073741441	0.04124511181	
537.5	0.06982929981	-0.07089009574	
538.125	0.03812902741	-0.03759238621	
538.75	0.1462672459	-0.1108777513	
539.375	-0.1198985094	-0.1221465998	
540.0	-0.08046479852	-0.09071021946	
540.625	-0.1767862753	-0.06574045094	
541.25	-0.1291452819	-0.0002362785953	
541.875	-0.001666924012	-0.02849085913	
542.5	-0.07080887152	-0.08571224137	
543.125	-0.01989266795	-0.006509464154	
543.75	-0.05724336944	-0.1124820679	
544.375	-0.01340624522	0.08612588508	
545.0	-0.04176632928	0.02256029498	
545.625	0.1088822306	0.09383392506	
546.25	0.03927005421	-0.01635079919	
546.875	0.1429862327	0.0243815015	
547.5	0.01266789256	-0.1496677448	
548.125	-0.01958707638	-0.08890426089	
548.75	-0.1007735863	-0.1564058106	
549.375	-0.1411405538	-0.02004787392	
550.0	-0.02683722387	-0.01360517912	
550.625	-0.08239206089	0.02908117429	
551.25	-0.03150454126	0.02069258359	
551.875	-0.08893617711	0.0591369452	
552.5	-0.008112398665	0.08207859234	
553.125	-0.02112924682	0.0429166707	
553.75	0.0522435873	0.04757257984	
554.375	0.07414704859	-0.009358598126	
555.0	0.08885728593	-0.06520921495	
555.625	0.0727136291	-0.1075479362	
556.25	0.04746577521	-0.1241716877	
556.875	-0.03310780302	-0.136840246	
557.5	-0.09364846533	-0.08848242242	
558.125	-0.1100818704	-0.02349990503	
558.75	-0.09203363521	0.002678177	
559.375	-0.1059210042	0.02421533716	
560.0	-0.07285243743	0.08208817945	
560.625	-0.04312125898	0.08268027376	
561.25	0.004373829241	0.114930976	
561.875	0.0398457717	0.01282812285	
562.5	-0.008150991674	0.07628323141	
563.125	0.09055278155	0.03093705979	
563.75	0.09433510146	0.02113144594	
564.375	0.1474292529	-0.1089294913	
565.0	0.0137024722	-0.1358338538	
565.625	0.00913381735	-0.1091761112	
566.25	-0.1594978955	-0.1311689463	
566.875	-0.09231659763	-0.001983422028	
567.5	-0.1018154129	-0.14696517	
568.125	-0.2209609284	-0.1026013699	
568.75	-0.1319428594	-0.04108200462	
569.375	-0.3189645132	0.08108960286	
570.0	-0.01273515988	0.2364190853	
570.625	-0.06235218896	0.05472749165	
571.25	-0.003106706822	0.1860121309	
571.875	0.04293642869	-0.04909812711	
572.5	0.144230515	0.0745438081	
573.125	0.04299202522	-0.1979066053	
573.75	-0.01435628248	-0.02375848897	
574.375	0.09811433308	-0.1231074313	
575.0	-0.07482487832	-0.02982839366	
575.625	0.1126926086	-0.04593407901	
576.25	0.000686636674	-0.177692871	
576.875	-0.03615722785	-0.0501142937	
577.5	0.07569269538	-0.1528903993	
578.125	-0.1395426079	-0.210681581	
578.75	-0.07481359184	-0.004606598117	
579.375	-0.008632425216	-0.1486005674	
580.0	-0.1635948069	0.01615058073	
580.625	0.06438771003	-0.08945961269	
581.25	-0.1704713686	0.1419394257	
581.875	0.1361828365	0.02923294493	
582.5	-0.06036774755	0.08953299421	
583.125	0.1254029442	0.1581906678	
583.75	-0.005476125144	-0.09555688462	
584.375	0.0657649729	0.1591994762	
585.0	0.1276364751	-0.04597427316	
585.625	0.06338396842	0.04304391916	
586.25	0.2229368761	-0.06645412543	
586.875	-0.03827532348	-0.1031381641	
587.5	0.05357469552	-0.0866235527	
588.125	-0.04564697571	-0.2019111159	
588.75	-0.05187121446	-0.07239816261	
589.375	0.1437660672	-0.1138604344	
590.0	-0.1485986257	-0.1772307938	
590.625	-0.08445863887	0.00753452969	
591.25	-0.1971013555	0.0488123486	
591.875	0.05283885617	0.2118519479	
592.5	-0.03903142794	-0.06568187238	
593.125	0.01607599016	0.1347991564	
593.75	-0.009779452973	0.02408347694	
594.375	0.1853710602	0.1868572028	
595.0	0.2377413924	0.003031004473	
595.625	0.05951256775	0.03789566098	
596.25	0.2138865975	0.05953037436	
596.875	0.1353895057	-0.05696724833	
597.5	0.05984369281	0.09342447614	
598.125	0.2060331542	0.1393366584	
598.75	0.1464306201	-0.01725344468	
599.375	0.1998259164	-0.001949919413	
600.0	0.1719559129	-0.186350479	
600.625	0.02472577086	-0.1800340899	
601.25	0.0852809312	-0.1068531104	
601.875	-0.1234894613	-0.1962654466	
602.5	-0.06878987084	0.06789267899	
603.125	-0.1228265453	-0.03624080083	
603.75	-0.06659155566	0.2218860656	
604.375	4.618916208e-05	0.01775048933	
605.0	-0.1713144311	0.1578197917	
605.625	0.03937354357	0.1126264612	
606.25	-0.1099714757	-0.0386519258	
606.875	-0.2128286897	0.1715572634	
607.5	-0.1056536616	0.09039969765	
608.125	-0.07202000974	0.2162918984	
608.75	0.1806747348	0.1060929456	
609.375	0.1317917803	-0.1017698606	
610.0	0.1185193844	-0.1310218367	
610.625	0.062804382	-0.2192673012	
611.25	-0.04600559304	-0.06678195763	
611.875	-0.03836127946	-0.1871837383	
612.5	-0.2455077194	-0.0140361398	
613.125	-0.07006379448	0.003469112899	
613.75	-0.1722421222	0.1463879583	
614.375	0.1664566769	0.08707005598	
615.0	-0.08748618005	0.02962705878	
615.625	0.09509202869	0.1369263328	
616.25	-0.01316178347	0.02724379984	
616.875	-0.114221078	0.2269337	
617.5	0.02788864435	0.2190266248	
618.125	0.01230545352	0.08690199836	
618.75	-0.005333227051	0.2209504355	
619.375	0.05045726356	0.16758998	
620.0	0.1938728299	-0.02631718878	
620.625	0.1346965579	-0.1493298982	
621.25	-0.1732745989	-0.1286971999	
621.875	-0.1199746447	0.01818527196	
622.5	-0.2359681395	-0.003653425969	
623.125	0.04356592705	0.249227499	
623.75	0.04367285112	-0.005184508118	
624.375	0.1383969798	-0.04211147805	
625.0	-0.04268394709	-0.0004419825457	
625.625	0.1121146241	-0.07784191254	
626.25	-0.1266288879	-0.1388247819	
626.875	-0.05728641684	-0.02214941984	
627.5	-0.1624415311	-0.1080322059	
628.125	-0.1298584393	-0.02069509679	
628.75	-0.01753047105	-0.08475682993	
629.375	-0.1152844825	-0.2026952079	
630.0	-0.1957949121	-0.04253027679	
630.625	-0.1284605291	0.07535753977	
631.25	-0.1540802212	0.1912608672	
631.875	0.05879460156	0.2275211468	
632.5	0.07546876699	0.1451467497	
633.125	0.2512216171	0.1596614279	
633.75	0.09795732318	-0.130673635	
634.375	0.09178191323	-0.06536517627	
635.0	-0.0563394191	-0.2584782986	
635.625	-0.1008833471	0.01375811033	
636.25	-0.1780268255	-0.04664653655	
636.875	-0.04404113765	0.2160007885	
637.5	0.01373522454	0.007286861192	
638.125	-0.1378174658	0.1157083912	
638.75	0.05481954259	0.1900451941	
639.375	-0.06322855702	0.1509599539	
640.0	0.1666167404	0.3043896086	
640.625	0.2629577876	0.03614999184	
641.25	0.1603740779	0.004959504055	
641.875	0.2457277181	-0.209162583	
642.5	-0.1151038662	-0.180822731	
643.125	-0.01118949051	-0.1083065864	
643.75	-0.2484730922	-0.199478492	
644.375	-0.06674624933	0.1409147217	
645.0	-0.234871687	0.06208207011	
645.625	0.182765973	0.3263194328	
646.25	0.05516654912	-0.1286687098	
646.875	0.1044624219	0.1382034341	
647.5	0.08337232084	-0.1533526733	
648.125	0.07077702448	0.2451014516	
648.75	0.35671387	-0.1827986861	
649.375	0.02983938328	-0.1987952451	
650.0	0.2227817361	-0.1496116765	
650.625	0.1800047858	-0.4485862548	
651.25	-0.004397585821	-0.1791290447	
651.875	0.3268511233	-0.001415693446	
652.5	0.3280862595	-0.2217184589	
653.125	0.08348310706	-0.1162010505	
653.75	0.2922531486	-0.1438704341	
654.375	-0.1815867898	-0.348930766	
655.0	-0.1521295822	0.01513399169	
655.625	-0.2731105411	-0.02035240839	
656.25	0.1424255568	0.274908645	
656.875	-0.08518398371	-0.1421560536	
657.5	0.09147286428	0.2516959783	
658.125	0.1641296863	0.0002993183866	
658.75	0.1412598329	0.1915656746	
659.375	0.4793368192	-0.2801114564	
660.0	0.01575453315	-0.2713722725	
660.625	0.1953201866	-0.1966744965	
661.25	0.1797098736	-0.3866029916	
661.875	0.01050982645	-0.2496914672	
662.5	0.2930302774	-0.05319328443	
663.125	0.2676972546	-0.3086264875	
663.75	0.03210307685	-0.2022496263	
664.375	0.06484775892	-0.3180310315	
665.0	-0.371101539	-0.1859759315	
665.625	-0.159547914	0.120921669	
666.25	-0.1816586799	0.2023623842	
666.875	0.2001109606	0.2261313602	
667.5	0.08167355481	-0.02125704604	
668.125	0.3098258977	0.1187736994	
668.75	0.114793091	-0.2615903075	
669.375	0.06975165546	-0.0288365986	
670.0	0.1097122696	-0.295280568	
670.625	-0.201298421	-0.1550102031	
671.25	0.1291093543	-0.04616233517	
671.875	0.1044225217	-0.3180208692	
672.5	0.06836510282	-0.1540058466	
673.125	0.2133633351	-0.05334195661	
673.75	0.1789405934	-0.3320589431	
674.375	-0.06722343479	-0.1465103051	
675.0	0.01409206244	-0.2250956274	
675.625	-0.2739858799	-0.1367848636	
676.25	-0.08360736243	0.08504669078	
676.875	-0.1627864802	-0.1157332829	
677.5	-0.1738372961	0.1494088953	
678.125	-0.03199858118	0.04717211207	
678.75	-0.06988375873	0.2682313925	
679.375	0.3840846259	-0.03413064985	
680.0	-0.04486208737	-0.02231704402	
680.625	0.1998918814	-0.04718126919	
681.25	-0.05180411563	-0.2226739339	
681.875	-0.008923296686	0.2803560903	
682.5	0.4732914163	0.01157852223	
683.125	0.0437020594	-0.09237448875	
683.75	0.2371373298	0.236844994	
684.375	0.4196541871	0.01819656411	
685.0	0.04716269968	-0.02452001584	
685.625	0.3460542182	0.1834570653	
686.25	0.3355443848	-0.2113432496	
686.875	0.1362808231	-0.1025164096	
687.5	0.3631683378	-0.2763503412	
688.125	-0.2205090869	-0.4740855567	
688.75	-0.1996577963	-0.05758261622	
689.375	-0.374991632	0.2543324537	
690.0	0.241671981	0.3703955138	
690.625	0.07234904642	0.08533409762	
691.25	0.388470752	0.4197950727	
691.875	0.4674509685	-0.02996834362	
692.5	0.3392983905	0.2684181866	
693.125	0.9093947906	-0.1035094774	
693.75	0.3351195412	-0.4443059126	
694.375	0.3881280539	-0.1287553459	
695.0	0.5004459518	-0.4203476731	
695.625	0.2710181175	-0.1366405136	
696.25	0.3000341019	0.2349275109	
696.875	0.5408127489	0.3645777533	
697.5	0.2922950945	0.2965147649	
698.125	0.4425756645	0.2728023424	
698.75	0.4246753336	-0.4265883433	
699.375	-0.4520039449	-0.1614595327	
700.0	-0.2495318611	0.1582249602	
700.625	0.1073754401	0.4066654575	
701.25	0.1674360348	0.008753268516	
701.875	0.1500008835	0.2995927916	
702.5	0.49259507	0.1980565578	
703.125	0.2226839759	-0.01496340865	
703.75	0.456257465	-0.01196287584	
704.375	0.2711668692	-0.3158456406	
705.0	0.06533517164	-0.09380507431	
705.625	0.341971919	0.09451806573	
706.25	0.1875144352	0.07376037164	
706.875	0.1189296289	0.2452702666	
707.5	0.2607162523	0.4051996026	
708.125	0.3925335187	0.06830492104	
708.75	0.1749305888	-0.3750645208	
709.375	-0.2366910621	-0.3116931023	
710.0	-0.134774264	0.2741050508	
710.625	0.09062856482	-0.04824079036	
711.25	0.09252188124	0.2692442624	
711.875	0.1618853716	-0.05429761361	
712.5	0.2736743466	0.08603108121	
713.125	0.3000679673	-0.2504675336	
713.75	-0.01541774659	-0.2182472284	
714.375	0.101763691	-0.1830168857	
715.0	-0.09542289856	-0.2724523408	
715.625	-0.02923995339	-0.09255312672	
716.25	0.2537499778	-0.2002833156	
716.875	0.2840696413	-0.2635751442	
717.5	0.2599434272	0.00778638563	
718.125	0.6850125805	0.1463722247	
718.75	0.7455073803	-0.1906654752	
719.375	0.3688520131	-0.2686335134	
720.0	0.7624316531	-0.1012066981	
720.625	-0.1375287981	-0.9700813268	
721.25	-0.017943115	-0.1703608115	
721.875	0.02192816248	-1.19121165	
722.5	-0.8672022698	-0.4463178627	
723.125	-0.4501340504	-0.2256111634	
723.75	-0.6113550728	0.5529651684	
724.375	0.261838051	0.3052774084	
725.0	-0.03642720569	0.2775878923	
725.625	0.2696430921	0.5896413158	
726.25	0.2341197527	0.3520426631	
726.875	-0.2909882101	0.7062293711	
727.5	-0.07681225245	1.512304542	
728.125	0.5598414261	1.307034721	
728.75	-0.7134867236	1.697720104	
729.375	-0.5438624874	4.079295183	
730.0	1.148363418	2.3016496	
730.625	-0.9877552546	2.271831458	
731.25	-0.8007031704	4.732144131	
731.875	0.1797343317	2.20110145	
732.5	-3.048987439	0.08029252136	
733.125	-2.921150482	1.07276717	
733.75	0.07987659332	1.047982012	
734.375	0.1832663623	0.9465540314	
735.0	-0.3779975204	-0.9377687124	
735.625	-0.09489098485	0.07308433412	
736.25	-0.3227815991	0.5834094982	
736.875	0.7949333265	0.3390692279	
737.5	0.2539388423	0.04667196243	
738.125	2.017359572	-0.0070455457	
738.75	1.102171374	-2.00839426	
739.375	0.4720987425	-0.6943387361	
740.0	3.806269829	-0.001533794451	
740.625	3.924494859	-4.087787611	
741.25	-2.158684731	-0.602535721	
741.875	-3.907859359	1.198583431	
742.5	-2.145696494	0.1011863257	
743.125	1.131312652	-0.7683033094	
743.75	-0.1833683652	-1.356994381	
744.375	-0.253526183	0.1335702931	
745.0	-0.112924584	0.01777978148	
745.625	0.08953679092	-0.1793781101	
746.25	0.06972056046	-0.05379026341	
746.875	-0.2904018243	0.03271056908	
747.5	0.07271158057	0.3065734614	
748.125	0.05178868854	0.3235885848	
748.75	0.2799131672	0.5274614825	
749.375	0.2682476986	0.3147637628	
750.0	-0.2543297625	0.1144058577	
