!Created with skrf (http://scikit-rf.org).
# GHz S MA R 50.0 
!freq magS11 angS11
500.0 0.0134098411885 164.484829112
500.625 0.0105301129914 128.737894121
501.25 0.00894504342189 -122.452628928
501.875 0.0135283459322 -117.501409884
502.5 0.0213544616982 154.985151024
503.125 0.0110213520679 128.879792575
503.75 0.0182141192497 -39.9192047871
504.375 0.0129231082748 137.13919024
505.0 0.0182076337522 -61.5301068778
505.625 0.0321830012666 -80.0749105306
506.25 0.0406937789578 -107.447557018
506.875 0.0536524771249 -109.554232092
507.5 0.0371442345768 -133.842423812
508.125 0.0464885995771 -99.3075099264
508.75 0.0881717243241 -113.74265258
509.375 0.0475076198964 -169.379755601
510.0 0.0268912483313 -137.879267944
510.625 0.0345234236926 -170.593007282
511.25 0.0779233362611 -167.157397296
511.875 0.0515441689 139.795026679
512.5 0.0383091595439 103.587615275
513.125 0.0548879326855 44.0921556236
513.75 0.071159056914 48.9804414529
514.375 0.0414862516854 22.2960388741
515.0 0.0603473917091 10.7756395724
515.625 0.0872278739572 52.4465210022
516.25 0.10955068508 32.9473818814
516.875 0.107286289509 67.7246876988
517.5 0.107399423249 19.0034907605
518.125 0.196559451703 72.308693652
518.75 0.0834166165412 8.90344275124
519.375 0.0726727187106 22.9194054836
520.0 0.0987973974751 -1.38575194833
520.625 0.104774572596 -3.62649851009
521.25 0.0905369728521 -18.7010387763
521.875 0.065431637165 2.04572475298
522.5 0.0956550988253 -30.9720315718
523.125 0.178638061506 -33.9777511395
523.75 0.228462107415 -53.113341745
524.375 0.190608737725 -60.7673411135
525.0 0.0727818003832 -39.1284934634
525.625 0.0472847685542 -22.0468635189
526.25 0.0348091106831 -22.2021642771
526.875 0.0535374565037 -19.4308912327
527.5 0.0565208883836 -24.8120478906
528.125 0.0481595615065 -54.4226248429
528.75 0.0750208121943 -70.8456283379
529.375 0.0904056816543 -109.47048656
530.0 0.0405156062597 -137.868598114
530.625 0.0502270678278 -149.185289776
531.25 0.0905550827756 -127.097001698
531.875 0.174158389491 -146.140965829
532.5 0.132966982183 -171.78723177
533.125 0.10954754869 175.993460725
533.75 0.109933916195 168.063126642
534.375 0.113416901915 -179.177225972
535.0 0.0928831058749 164.628796385
535.625 0.065872806678 178.070025008
536.25 0.0459928376537 163.458392131
536.875 0.073185663125 -158.127603471
537.5 0.089762383167 -142.79917221
538.125 0.116938343433 -175.114974582
538.75 0.0880691735376 177.435373473
539.375 0.0769594550313 -161.440744426
540.0 0.0983721447631 -156.118811516
540.625 0.148709537635 -159.610359454
541.25 0.104946403799 -140.907744249
541.875 0.0925329099925 -140.551391841
542.5 0.107908787538 -142.594012449
543.125 0.153054151487 -169.598623972
543.75 0.112851126106 157.473925395
544.375 0.0964301918102 135.814930663
545.0 0.0938786399234 91.3846788388
545.625 0.101554319881 83.694243118
546.25 0.101435890055 67.7650132752
546.875 0.0871730818364 54.8932834214
547.5 0.121397565736 57.3306854955
548.125 0.133046408305 77.774606978
548.75 0.0722804353609 90.0607138823
549.375 0.0955776437173 88.039373885
550.0 0.0970315092887 126.944102321
550.625 0.053165312842 157.055334292
551.25 0.0454895247055 -147.225485659
551.875 0.0675886325285 -161.414849406
552.5 0.106693577943 -163.759443038
553.125 0.0990590037546 -171.563919942
553.75 0.0848542457673 -164.63871492
554.375 0.111271313837 166.652768175
555.0 0.134171981547 162.067437063
555.625 0.0987968611267 158.725437489
556.25 0.10606599322 159.915127588
556.875 0.112374920404 167.629476913
557.5 0.111107308792 168.669007204
558.125 0.0898766627107 165.470859604
558.75 0.0898445274958 176.666109163
559.375 0.0675051314989 -173.028911791
560.0 0.0471701749344 -149.493864011
560.625 0.0590929168661 -139.238703466
561.25 0.0930071691464 -154.341490292
561.875 0.104908403804 -163.068424585
562.5 0.092220095656 174.340399384
563.125 0.10826303464 144.20170875
563.75 0.1273337114 132.277974029
564.375 0.106699390863 121.530131544
565.0 0.0866483866812 121.239792208
565.625 0.0827042060241 118.162371466
566.25 0.0996059691995 152.078303672
566.875 0.0725208660578 179.126790564
567.5 0.0697561393182 -174.108402701
568.125 0.0786281725734 -169.944520338
568.75 0.0793566067786 -153.855297727
569.375 0.0454345923621 -97.3251235637
570.0 0.0609173675637 -106.360408906
570.625 0.0930138928908 -117.34696514
571.25 0.0943939151345 -123.933063428
571.875 0.0857752879859 -120.135433745
572.5 0.111615678127 -153.236171963
573.125 0.139093157041 -173.356754708
573.75 0.112355766969 158.227448035
574.375 0.0776866863271 152.372865575
575.0 0.10662421611 156.527395652
575.625 0.11152887244 155.546166184
576.25 0.0929688426288 145.120879663
576.875 0.081709833761 129.388154681
577.5 0.0894927016007 133.975272772
578.125 0.0603947938151 160.71602091
578.75 0.0518615983304 157.272361224
579.375 0.0523724910925 166.031243047
580.0 0.0676853123398 -169.925134238
580.625 0.0772695962568 -147.879939249
581.25 0.0883183958787 -169.655677952
581.875 0.113893948953 -168.491508481
582.5 0.116909249154 -173.423216752
583.125 0.0927803557338 -170.743269783
583.75 0.084029507402 -171.664839426
584.375 0.0976581059107 -153.096838424
585.0 0.0958812804985 -143.526552616
585.625 0.0705534317593 -143.628475705
586.25 0.0730278272813 -149.996872553
586.875 0.0801920057078 -123.398775487
587.5 0.0727538891241 -138.636590766
588.125 0.0553727700523 -174.093063002
588.75 0.0668585517053 -176.628037415
589.375 0.0861580077718 -145.440115956
590.0 0.0927826461552 -168.571929871
590.625 0.103348112389 160.230769327
591.25 0.123025905366 149.231145705
591.875 0.101823492402 151.229124606
592.5 0.063389700768 146.957682603
593.125 0.0615967449727 140.976816625
593.75 0.0771735707614 161.94911196
594.375 0.0565423185335 -144.675117543
595.0 0.0436724157457 -115.803554605
595.625 0.0566595429692 -108.716123776
596.25 0.0740515251068 -88.7516173493
596.875 0.0650325491839 -81.3212522442
597.5 0.0589733745765 -61.2550388324
598.125 0.0654885507291 -61.1869601488
598.75 0.0701903394886 -73.0947560867
599.375 0.0990495731891 -56.3588905484
600.0 0.101254455194 -64.0014935094
600.625 0.0989940338916 -61.3093193032
601.25 0.0828813963795 -81.9897967281
601.875 0.066805580477 -80.9178129697
602.5 0.0602727365115 -85.8107612658
603.125 0.0436578039953 -74.366605524
603.75 0.0298286002216 -38.0100060924
604.375 0.0298937212511 -42.4065555669
605.0 0.0726079805073 -5.88944248777
605.625 0.0533650143549 -4.19968455926
606.25 0.0287897080072 26.400581755
606.875 0.0154756212404 42.9588207377
607.5 0.071187351847 47.5586682188
608.125 0.0805390251888 32.9150537965
608.75 0.0612555219566 19.609836979
609.375 0.0485180516727 20.8129464465
610.0 0.0831159022018 49.3647207383
610.625 0.0703610105287 40.8398018793
611.25 0.0569732906102 43.8245958745
611.875 0.0278458717975 8.93560190825
612.5 0.0343591412786 109.048927091
613.125 0.0229828200159 131.301352704
613.75 0.0257727951901 128.697657756
614.375 0.0439642490591 120.977668343
615.0 0.0192721799886 104.840640291
615.625 0.0333383534469 137.518167675
616.25 0.0589828859373 134.484275393
616.875 0.0437577043175 128.51979194
617.5 0.0281079273499 120.293597363
618.125 0.0232592801245 134.388813821
618.75 0.0260507324018 138.072833379
619.375 0.0190155838185 138.405060051
620.0 0.00847117807955 178.109040306
620.625 0.0168138464404 -90.6726836997
621.25 0.0534203976754 -99.1356631606
621.875 0.0610316071563 -108.295226757
622.5 0.0708723015843 -159.383309058
623.125 0.0733793605306 171.618971576
623.75 0.0559994068756 165.751157401
624.375 0.0434231166323 -173.381133664
625.0 0.0286842950425 -113.198994283
625.625 0.0534186655461 -159.70885559
626.25 0.0292024154621 179.473592782
626.875 0.00608666219736 -164.249308603
627.5 0.0544917825887 -9.59565070698
628.125 0.039658009216 -49.5955199374
628.75 0.0349677033497 -16.5570236304
629.375 0.0490774840474 -15.6864428488
630.0 0.0770797793959 4.84047231982
630.625 0.0726373031112 -12.0508390441
631.25 0.0656506953534 -5.67049003685
631.875 0.0702233761841 -12.8989038406
632.5 0.0720092700927 16.2576153874
633.125 0.0496705376549 -10.4323427917
633.75 0.042002467227 12.9424482869
634.375 0.0538404990994 34.8841817826
635.0 0.0361698966153 28.7321466591
635.625 0.052765568879 50.1593051106
636.25 0.0448143289024 27.3688163411
636.875 0.0590442128078 32.3903562387
637.5 0.045157723601 39.6294360456
638.125 0.0560950346753 70.7092952854
638.75 0.0561770622138 65.9882518575
639.375 0.0969925513486 94.1377154174
640.0 0.0778245046649 107.843151075
640.625 0.0628850227858 110.521615564
641.25 0.0793626562363 129.98957154
641.875 0.0652855327171 151.588762262
642.5 0.0484087673182 154.679325187
643.125 0.0735778688788 163.298632668
643.75 0.0545229062977 158.761212597
644.375 0.073783895158 -171.049521847
645.0 0.0742857693543 175.684048804
645.625 0.101991895234 169.984507469
646.25 0.0892160986165 160.795863584
646.875 0.0715616581892 179.458669658
647.5 0.0731353485409 -172.625944211
648.125 0.0857206328529 -175.020560502
648.75 0.0877512987284 -157.223378842
649.375 0.0467038103753 -148.661516201
650.0 0.0498270855068 -114.531079158
650.625 0.0649314169214 -88.5489042554
651.25 0.0826036209098 -65.0439740075
651.875 0.0549321914065 -40.9895787749
652.5 0.0836960903948 -22.886050615
653.125 0.111146681856 -4.88060758545
653.75 0.121687372905 7.10320361614
654.375 0.111941111524 8.12646772778
655.0 0.12800763305 14.1263157038
655.625 0.0950678660561 28.7374186813
656.25 0.0712096694474 25.1295721657
656.875 0.0581378619817 2.97292674531
657.5 0.0716685978646 22.8809547252
658.125 0.0649886756793 47.0519000579
658.75 0.0697405595865 59.1260629524
659.375 0.0693789776411 45.4097790749
660.0 0.120204009485 25.6216682586
660.625 0.121991886025 16.8948755698
661.25 0.116701101411 3.80499598033
661.875 0.134413360189 -13.211593156
662.5 0.124743186659 -20.7916725848
663.125 0.0979362019764 -14.9834297486
663.75 0.115498765835 4.42285051627
664.375 0.0765296761198 51.7551565553
665.0 0.06837721428 95.7140316572
665.625 0.066418943982 114.411362704
666.25 0.0858471855704 130.593220068
666.875 0.117348955875 170.413344496
667.5 0.102436950702 -168.016472689
668.125 0.104929020624 -178.356528603
668.75 0.140217828085 165.71005532
669.375 0.115603054975 178.31006282
670.0 0.0811088467113 -168.018777935
670.625 0.0907050234226 -171.084298646
671.25 0.128221645929 171.889193429
671.875 0.0826235815666 169.520105094
672.5 0.0786308612541 157.856554907
673.125 0.0799493285868 153.633578318
673.75 0.121498616428 156.173873352
674.375 0.116933094145 169.894383417
675.0 0.121658766683 -176.73500026
675.625 0.132941217978 -149.492915079
676.25 0.125898299411 -125.25461407
676.875 0.114114490396 -119.50556712
677.5 0.12919370402 -127.495299147
678.125 0.124942043094 -114.674687821
678.75 0.0820518074402 -94.4441015421
679.375 0.0415176296868 -62.3593024746
680.0 0.0755043495733 -74.3949158788
680.625 0.113516381158 -78.3458779003
681.25 0.110561778422 -74.2274004403
681.875 0.103300813085 -92.2596891201
682.5 0.138100411819 -119.583653417
683.125 0.160454104277 -119.480571962
683.75 0.139225674218 -104.037197321
684.375 0.127522074107 -82.1219015622
685.0 0.125980889538 -36.8231402777
685.625 0.122839286627 0.822719451219
686.25 0.101629307596 20.6001508533
686.875 0.103540811545 40.9864978521
687.5 0.0645919643486 95.3737621079
688.125 0.0816114880696 113.684169407
688.75 0.0989706441609 115.048970915
689.375 0.15290694969 113.701272836
690.0 0.133818537593 131.867042653
690.625 0.123564368664 125.656643208
691.25 0.146588878729 94.3640154124
691.875 0.192094934412 68.2605532579
692.5 0.153971117985 38.1992966935
693.125 0.0824738469016 -11.1882756924
693.75 0.0917491179517 -34.7724744933
694.375 0.127966716536 -23.2070736489
695.0 0.141458387282 6.54602437236
695.625 0.101648959494 54.7512094682
696.25 0.118722667164 111.618984498
696.875 0.144348205482 171.165240927
697.5 0.144722297748 -143.95613335
698.125 0.146384821438 -136.838767016
698.75 0.132963935321 -132.610450188
699.375 0.103383456376 -123.249506492
700.0 0.10269644904 -119.913742066
700.625 0.102621655847 -78.3584420661
701.25 0.101676570805 -67.1535672226
701.875 0.0854472727099 -63.5918504329
702.5 0.0987538042663 -89.7258647029
703.125 0.172548829632 -127.750714665
703.75 0.180657769642 -151.543830341
704.375 0.127055635479 172.912802579
705.0 0.107273794379 161.799309802
705.625 0.150945942375 -179.862687813
706.25 0.131251424239 -100.918494116
706.875 0.0919941511542 -60.8010206721
707.5 0.0760628514719 -42.1924479035
708.125 0.0933416385217 8.89528924178
708.75 0.110751313698 69.0762953122
709.375 0.107655543975 105.526031173
710.0 0.103255395675 126.443205886
710.625 0.108838676534 153.053000876
711.25 0.117597184911 174.54948552
711.875 0.144335592503 171.585990425
712.5 0.144885607041 144.655908079
713.125 0.133894304985 92.4228309
713.75 0.101434376108 45.7512522768
714.375 0.110797481444 22.1637126861
715.0 0.118226653724 25.5271513223
715.625 0.0870192625843 50.516983637
716.25 0.0731601050514 63.5320373609
716.875 0.132557314018 116.805343049
717.5 0.145305866192 147.362808955
718.125 0.11716298685 159.862043485
718.75 0.10069621652 166.601941353
719.375 0.11199833704 179.794448201
720.0 0.136992463068 -117.849004453
720.625 0.114214469345 -69.5943932596
721.25 0.0973626285226 -24.2337150969
721.875 0.0844894919861 47.7790152228
722.5 0.076203780542 71.9275802719
723.125 0.0801383281615 80.6480744255
723.75 0.0994164626955 32.8525841686
724.375 0.10059744192 -11.5713952449
725.0 0.0923526746 -40.8711780662
725.625 0.108032527655 -61.5368000335
726.25 0.119191335102 -59.0374485237
726.875 0.0956188806778 -67.355114788
727.5 0.0908869035207 -16.7504963054
728.125 0.0805720913211 -1.83522885511
728.75 0.076452315721 4.48857702133
729.375 0.0744005581651 6.05414256063
730.0 0.0578535692362 -10.3687981665
730.625 0.0784715336992 33.0478108534
731.25 0.084343778326 67.4865487777
731.875 0.0677704186295 108.697437729
732.5 0.0501674431831 138.977297948
733.125 0.10620364389 -174.847339434
733.75 0.0902888416258 -179.204105066
734.375 0.0589769763771 163.32860506
735.0 0.0449883409936 149.129216204
735.625 0.0433972430358 140.952708906
736.25 0.039429689871 139.403308583
736.875 0.0468707592878 169.352892367
737.5 0.0523955242485 -176.559998405
738.125 0.109350589939 -171.669048406
738.75 0.088691327209 -171.145072582
739.375 0.0460727073521 -176.516193828
740.0 0.0117909057354 -57.5397281483
740.625 0.0766318498893 -151.783662483
741.25 0.047822697459 -156.673100176
741.875 0.0147509109491 -98.0525565793
742.5 0.0302506670602 -15.7601875178
743.125 0.0363059504074 52.8965530156
743.75 0.0323499878456 98.9665475153
744.375 0.0504557477841 124.349935556
745.0 0.0592241408321 177.584603179
745.625 0.0869333002861 96.8780730403
746.25 0.0701827492265 90.8087822633
746.875 0.0573124502748 43.8586372594
747.5 0.0359717315537 11.5389660144
748.125 0.0116304645611 58.322111451
748.75 0.0434219766374 -30.357254682
749.375 0.0283215752088 -34.3963555517
750.0 0.0372688534147 -90.6038749931
