!Created with skrf (http://scikit-rf.org).
# GHz S MA R 50.0 
!freq magS11 angS11
500.0 0.0198573096532 159.791781038
500.625 0.0150320531667 135.25296755
501.25 0.00963807291235 -170.66364337
501.875 0.0118116419511 -154.08719961
502.5 0.0263434449614 161.846168777
503.125 0.0174651567756 128.86873884
503.75 0.0157397332262 -40.8049915201
504.375 0.0185718456555 125.293703829
505.0 0.00979469793751 -52.4454750848
505.625 0.0249964174532 -82.8549290532
506.25 0.0365723994895 -107.722936767
506.875 0.0456730862851 -132.834669408
507.5 0.0343893254696 -145.187947913
508.125 0.044200834861 -102.005435913
508.75 0.0808785034106 -120.83475356
509.375 0.0468805319385 -168.74480517
510.0 0.0275517604923 -149.163110044
510.625 0.0255894221578 -175.439180827
511.25 0.0726226505451 -171.841336525
511.875 0.0441094098131 127.086160371
512.5 0.0372887153753 97.9937379219
513.125 0.0501114437818 33.077763339
513.75 0.0692555627698 42.8633255917
514.375 0.0442417947322 18.619378036
515.0 0.0626008622792 5.49986523189
515.625 0.0844491246746 45.5596817395
516.25 0.102739323705 27.278804411
516.875 0.10377802675 65.3924827805
517.5 0.102561710725 15.0623656275
518.125 0.191058724123 66.1588226802
518.75 0.0810974594306 -1.72545818946
519.375 0.0654901713872 16.1295673955
520.0 0.0932203996331 -13.1110070011
520.625 0.105053274736 -8.29945773486
521.25 0.0850532678627 -28.4907028297
521.875 0.0648113684892 -5.22653174302
522.5 0.0954029244117 -35.6446504027
523.125 0.17961395096 -38.685248739
523.75 0.230544818731 -56.900248491
524.375 0.21148572657 -62.5273830092
525.0 0.0819273540329 -41.4365254983
525.625 0.0508770041039 -29.378409103
526.25 0.0334823672863 -39.4472075257
526.875 0.0490594195078 -28.4659724523
527.5 0.0520933325163 -37.6133886488
528.125 0.0480938226771 -62.1900265086
528.75 0.0695661713356 -77.0662693514
529.375 0.0848937649079 -117.120456079
530.0 0.0470867961741 -144.79313005
530.625 0.0455437347398 -157.834585987
531.25 0.0860349077818 -134.147079222
531.875 0.158158126503 -153.130710396
532.5 0.129464355608 -178.106694283
533.125 0.110517317995 170.639214728
533.75 0.0961086762833 161.535352294
534.375 0.108195323461 174.42253445
535.0 0.0980012631918 158.768279548
535.625 0.0699274428001 173.760287188
536.25 0.040367993856 152.299180716
536.875 0.0672683848625 -164.110074087
537.5 0.0922498958414 -146.74367329
538.125 0.113333410783 -178.794552056
538.75 0.0847105874068 170.900875865
539.375 0.0719948006191 -170.444570415
540.0 0.0882796973884 -164.296262852
540.625 0.143227643471 -164.24119184
541.25 0.106601223831 -146.906327162
541.875 0.0892819408665 -144.552145126
542.5 0.106684126627 -144.107983948
543.125 0.150641049972 -172.034081642
543.75 0.11335308737 154.402817356
544.375 0.0961925218868 133.690767522
545.0 0.0971117357318 86.8386427782
545.625 0.105320668859 79.1389269201
546.25 0.102874883459 63.0849778187
546.875 0.0875236811642 51.819493229
547.5 0.112434129055 52.1418204141
548.125 0.134761859844 72.1983163971
548.75 0.0742432538949 83.1037473318
549.375 0.0957481861813 82.5161873795
550.0 0.102656191215 118.832858951
550.625 0.0566136925 144.7996149
551.25 0.0420320163649 -158.182147569
551.875 0.0589787988798 -164.719941323
552.5 0.0978895880925 -168.159899162
553.125 0.0966110814097 -177.330768285
553.75 0.0788431738402 -168.376460443
554.375 0.10581145844 161.488201229
555.0 0.127721563846 157.371804319
555.625 0.0981970141195 154.162298283
556.25 0.103893401764 156.082294535
556.875 0.112256691826 161.964165341
557.5 0.108376122821 164.127402262
558.125 0.0945966673628 160.117765964
558.75 0.0912772518472 172.417307272
559.375 0.0662547761596 -179.176782163
560.0 0.0432844378601 -159.513249624
560.625 0.0556687786426 -145.25669496
561.25 0.086863246589 -156.899681594
561.875 0.102456811879 -167.416950915
562.5 0.0935538680206 169.531138673
563.125 0.107173582435 139.462971287
563.75 0.11976904008 128.420605319
564.375 0.105242569131 117.760762894
565.0 0.0830880145515 114.247754254
565.625 0.085945056566 111.057385243
566.25 0.0933299668518 145.633462489
566.875 0.0746516703256 175.562562706
567.5 0.0702945382063 -178.156699454
568.125 0.0811341249679 -175.458273354
568.75 0.0807051788641 -161.634650126
569.375 0.0422337515696 -104.69750747
570.0 0.0579462231429 -108.209825729
570.625 0.089096117221 -121.237979204
571.25 0.0919831384569 -129.074129032
571.875 0.0837738887877 -125.644462993
572.5 0.1078971779 -156.784079923
573.125 0.140235422424 -178.164088501
573.75 0.11464119962 153.478631898
574.375 0.0802699854389 144.408831824
575.0 0.107051188571 147.038880738
575.625 0.11052566241 150.894871711
576.25 0.0919083820135 142.31868983
576.875 0.0835617900976 126.718853644
577.5 0.0907679297882 126.178713508
578.125 0.0638315764648 153.479151734
578.75 0.052775374366 149.556603239
579.375 0.0546363764813 155.744265148
580.0 0.0647232400976 -177.821835246
580.625 0.0761140598638 -155.093435472
581.25 0.0851503562266 -173.128300087
581.875 0.110696686149 -172.227405215
582.5 0.114274752755 -176.832218009
583.125 0.0908963135378 -173.079017731
583.75 0.0842758639581 -179.182474779
584.375 0.0987846000449 -154.520016132
585.0 0.0967865260108 -149.714206721
585.625 0.0693565009021 -148.739376068
586.25 0.0733788549639 -156.812892501
586.875 0.0788371781998 -129.522686566
587.5 0.0726387212401 -143.41866207
588.125 0.0560868798324 -177.732846371
588.75 0.0658058678857 173.602680597
589.375 0.0840811857104 -146.301606648
590.0 0.0915563196391 -172.00033464
590.625 0.101529272966 159.427274752
591.25 0.12288099234 144.844586771
591.875 0.103400083926 148.522099847
592.5 0.0673662418302 141.720032729
593.125 0.061826943213 139.773845867
593.75 0.079965610842 151.606087486
594.375 0.0562938325735 -145.40728046
595.0 0.0431798299738 -122.238239594
595.625 0.0519155139448 -118.774370883
596.25 0.0718554334037 -97.4325216507
596.875 0.0657658979603 -86.6835322166
597.5 0.0593186129876 -66.8631341374
598.125 0.0696664667161 -62.4361174602
598.75 0.0709124165298 -77.0913000189
599.375 0.0982312959691 -59.4941186513
600.0 0.104607063388 -65.7458916299
600.625 0.102885988924 -62.6890229049
601.25 0.0853833580992 -88.8357623423
601.875 0.0721711712455 -79.9719922153
602.5 0.0640269828861 -90.3642023586
603.125 0.048889039603 -77.6415260088
603.75 0.0315707303579 -44.3385617957
604.375 0.0319757308149 -46.6801275032
605.0 0.0680305335147 -16.6373921076
605.625 0.0578699313756 -4.7112595738
606.25 0.0309322825541 21.6147532862
606.875 0.0145667206931 31.2880991588
607.5 0.0772099620326 45.5952238904
608.125 0.0804599776234 28.4519462553
608.75 0.0634388793681 17.1295744446
609.375 0.0518156974835 17.1238182956
610.0 0.0754425991407 44.946931031
610.625 0.0773634963369 40.2528281989
611.25 0.0571714311688 36.0291280694
611.875 0.0315719015693 10.0669987018
612.5 0.0432463047276 101.080135142
613.125 0.0249015309528 117.139890166
613.75 0.0389310488877 120.153788517
614.375 0.0480669875104 116.10726827
615.0 0.0248542223168 102.759423748
615.625 0.0308580189411 124.30826807
616.25 0.0520486248622 126.219887677
616.875 0.0510992868722 123.780706521
617.5 0.0388426648072 121.164657188
618.125 0.0274276801057 125.665530396
618.75 0.0271359553188 128.867626867
619.375 0.024472133253 137.135163813
620.0 0.0211702351234 158.574838795
620.625 0.0104373490897 -119.57450015
621.25 0.0489212741867 -114.254297739
621.875 0.0585603374668 -105.943426073
622.5 0.0770630187942 -168.114777386
623.125 0.0770308383171 166.703933849
623.75 0.0585591576636 162.915934961
624.375 0.0466805389086 179.004717763
625.0 0.031056944612 -129.509598575
625.625 0.0505002131665 -161.763879016
626.25 0.0409462576885 173.299095214
626.875 0.0104458019945 161.68389647
627.5 0.0466054711328 -14.5236447184
628.125 0.037783331778 -77.4470552213
628.75 0.0280279568539 -29.2272358285
629.375 0.0402916393692 -27.6892785719
630.0 0.0740731539335 0.948783626623
630.625 0.0737343324822 -19.6172309415
631.25 0.0640538880734 -7.33204003725
631.875 0.068892694861 -18.4773541538
632.5 0.0716930023579 7.11366901012
633.125 0.0611511436374 -27.9876110535
633.75 0.0428435325124 -0.757601847982
634.375 0.0482946026753 12.2222090828
635.0 0.0352880812329 12.6768787327
635.625 0.0471832155474 42.2104965855
636.25 0.0439345605178 28.8068130373
636.875 0.0557020406319 18.3849730882
637.5 0.0440471350848 23.6143026994
638.125 0.0546523248672 63.4649396086
638.75 0.0481623829551 53.0629683649
639.375 0.0914797582085 86.6656468857
640.0 0.0746340121352 96.94701062
640.625 0.0653774142626 105.179910473
641.25 0.0697648803148 118.241815275
641.875 0.0621644100423 140.172975278
642.5 0.0517582083346 152.008582912
643.125 0.0707781227978 157.160712732
643.75 0.0484998392451 142.967845948
644.375 0.0666472838481 176.143622956
645.0 0.0694503344109 167.890892444
645.625 0.102237022788 164.60396275
646.25 0.0812766233519 149.002943813
646.875 0.0734008623601 170.467339128
647.5 0.0776650281367 178.836454344
648.125 0.0898508442784 179.092068403
648.75 0.0886130752023 -164.695743866
649.375 0.0488812920572 -161.934224016
650.0 0.0487256178038 -126.326719171
650.625 0.0642030442017 -94.419071275
651.25 0.07828082095 -71.6540946142
651.875 0.056531293752 -48.8078501393
652.5 0.0727325835121 -27.7093184201
653.125 0.109478209398 -9.93821052048
653.75 0.120026834742 2.63709969214
654.375 0.109539571761 2.70328738128
655.0 0.121279159737 5.14010421504
655.625 0.0976828019515 18.435797108
656.25 0.0731945697319 17.0688298452
656.875 0.0666196282085 -4.94926173696
657.5 0.0670987189544 10.5269291772
658.125 0.0592497735763 33.9494048999
658.75 0.0676714274449 49.8979497807
659.375 0.0568574013443 40.9160472929
660.0 0.111917290903 19.0456156612
660.625 0.110583557058 11.3611083351
661.25 0.115805693865 -1.89976631341
661.875 0.127578159053 -17.8414637342
662.5 0.121612834639 -25.0467568843
663.125 0.103775872978 -20.0466704288
663.75 0.117148035692 -2.3030759391
664.375 0.0748989381082 40.2601714342
665.0 0.0690544927342 84.7510954511
665.625 0.0675843643258 103.90449566
666.25 0.0758086641221 121.028390564
666.875 0.112795802717 161.571825506
667.5 0.102978018843 -175.324932127
668.125 0.101862376665 176.877447719
668.75 0.13437869509 160.389978832
669.375 0.122142827838 173.193531105
670.0 0.0856613412772 -177.189150434
670.625 0.089094648165 -177.560252857
671.25 0.126629364503 165.519816565
671.875 0.0865093884865 159.720624049
672.5 0.0746157503139 149.389281497
673.125 0.081218571423 146.713765083
673.75 0.113073981486 151.452613004
674.375 0.114185304709 163.830961649
675.0 0.121476468767 177.488888402
675.625 0.128485592957 -156.302559407
676.25 0.119394532107 -130.435331504
676.875 0.114876190799 -125.872716098
677.5 0.131917706302 -134.926061657
678.125 0.13416380798 -123.514037164
678.75 0.0870597638569 -103.51326602
679.375 0.0381981484506 -74.8503385365
680.0 0.0686149267967 -80.2428841464
680.625 0.106852983734 -85.6108809622
681.25 0.110649406858 -82.5163227681
681.875 0.0979103916921 -94.0585532328
682.5 0.133777425325 -125.237291077
683.125 0.156327886175 -126.025727549
683.75 0.143220343761 -111.730127015
684.375 0.129206077549 -88.0366685568
685.0 0.117841495054 -42.0103389465
685.625 0.124243647098 -5.19011990056
686.25 0.103724691703 13.0702206742
686.875 0.108484732391 31.6743300824
687.5 0.0602733629307 84.0638331955
688.125 0.073907217972 107.394307588
688.75 0.0887667754746 108.731308377
689.375 0.146780785892 105.152600948
690.0 0.130371273479 128.116273992
690.625 0.118740711865 121.036808463
691.25 0.137124414976 91.8215296233
691.875 0.189406571676 62.003932475
692.5 0.157518678049 32.182799789
693.125 0.0909863517713 -19.5378982737
693.75 0.08883367534 -40.8721221269
694.375 0.128178406416 -36.7063712407
695.0 0.142979004096 -3.53543587478
695.625 0.0970730423669 50.2426171487
696.25 0.111573886577 105.536260751
696.875 0.137884534628 163.583592083
697.5 0.144007574463 -152.130708755
698.125 0.146543929425 -142.796189759
698.75 0.133983973006 -139.161440131
699.375 0.102392900177 -131.016951811
700.0 0.103469203304 -127.87632463
700.625 0.099392865603 -85.750449468
701.25 0.101590346721 -72.4705151865
701.875 0.0794213311291 -65.6829282535
702.5 0.0942145321894 -96.8720746509
703.125 0.162914922755 -130.457752696
703.75 0.189746047285 -160.584326534
704.375 0.134604745746 165.598447419
705.0 0.109476998076 154.345215093
705.625 0.149099873426 172.167227021
706.25 0.132015925922 -108.358858369
706.875 0.0934085838387 -66.5318589125
707.5 0.0739691945835 -44.3195601997
708.125 0.0917192769522 -3.83046742886
708.75 0.109057533304 65.5177653854
709.375 0.106453273605 99.3045040719
710.0 0.101632357723 117.389187466
710.625 0.106668832541 147.952691489
711.25 0.117011964236 171.552164854
711.875 0.147214788309 166.49874868
712.5 0.14681727139 141.963817661
713.125 0.1389623663 86.4118422808
713.75 0.0972253658603 41.7471394521
714.375 0.108582830938 11.5161999243
715.0 0.120136770534 10.443487328
715.625 0.087152372749 40.3626177466
716.25 0.0712233963381 55.4683139579
716.875 0.125499832193 110.266041461
717.5 0.141785222313 141.09664682
718.125 0.118069932927 156.054237263
718.75 0.098135347028 159.933729865
719.375 0.109112042763 173.450197406
720.0 0.129852281853 -128.620377425
720.625 0.120540524514 -78.2813094902
721.25 0.100674988974 -33.0827604236
721.875 0.0894050747512 44.8956440718
722.5 0.0752451514162 66.8124463593
723.125 0.0843327112631 74.2226396746
723.75 0.097195567645 21.9029194003
724.375 0.102618588634 -13.3715568467
725.0 0.0934382201314 -47.8427705794
725.625 0.102052643079 -71.3141880711
726.25 0.114798225988 -70.6229702334
726.875 0.0998222227607 -70.5105498874
727.5 0.0905278037926 -26.2693611395
728.125 0.0898821710184 -4.07804663548
728.75 0.0836253260846 12.7345359058
729.375 0.0706800799542 -0.838603803974
730.0 0.0636192492616 -10.9576060912
730.625 0.0682200217103 16.6151721272
731.25 0.0745420029112 56.95223361
731.875 0.0697135325541 106.227354768
732.5 0.0535536732975 134.224802778
733.125 0.115194179879 -177.875067443
733.75 0.0881772520944 171.402879423
734.375 0.0587168918259 149.002234991
735.0 0.0547272313144 153.060609978
735.625 0.050807563586 132.530696159
736.25 0.0293785411813 128.448303717
736.875 0.0470691616062 158.505892397
737.5 0.0578244901946 174.637696603
738.125 0.103351620781 -178.841566309
738.75 0.0903286807278 -178.683527
739.375 0.0518681336837 -179.585186476
740.0 0.00895131447081 -105.318192409
740.625 0.0947875397144 -154.683066855
741.25 0.0598497436722 -160.707368946
741.875 0.0290130432582 -99.785780582
742.5 0.0369663356735 -29.684219374
743.125 0.0534330748545 32.5550901458
743.75 0.0365238052636 83.4418655438
744.375 0.045619531254 100.119874869
745.0 0.0553990645103 171.440916302
745.625 0.0912349768122 89.6372129944
746.25 0.0739272615856 73.3878399021
746.875 0.0605789304704 48.4472217922
747.5 0.0412832093752 2.87033168142
748.125 0.0127935691053 24.5699110171
748.75 0.0452486999748 -40.2125800628
749.375 0.0335674843228 -50.011861836
750.0 0.0409850803165 -105.751213991
