!Created with skrf (http://scikit-rf.org).
# GHz S RI R (50+0j) 
!freq	ReS11	ImS11	
500.0	0.5759242928	-1.367569426	
500.625	-0.3125117401	-0.7745630498	
501.25	0.1360344192	-0.8474007744	
501.875	-0.5528981522	-0.5117801892	
502.5	-0.002431603159	-0.03505084188	
503.125	-0.1177629538	-0.02965711297	
503.75	0.07429647086	0.07255491421	
504.375	0.01594702261	0.02008153113	
505.0	0.01098241989	-0.0631957631	
505.625	0.02153937935	0.01158128612	
506.25	-0.100927395	-0.1597566845	
506.875	0.02559474319	0.1922299599	
507.5	0.1703440061	-0.5668037128	
508.125	-0.3289381796	-0.7098478694	
508.75	0.3798914183	-0.4496566455	
509.375	0.2889744956	-1.509507512	
510.0	-0.6074505049	-0.220937566	
510.625	0.0167105523	-0.1066270653	
511.25	-0.2180475099	-0.1598849958	
511.875	-0.1060450827	0.01663818616	
512.5	-0.04750850153	0.02942926279	
513.125	-0.03573990345	-0.1016014404	
513.75	-0.03869080013	0.01518851824	
514.375	-0.06692002249	-0.1492107763	
515.0	-0.2145515269	0.2082335864	
515.625	0.3162523963	-0.8532607381	
516.25	-0.7257011773	-0.5903494954	
516.875	0.1049135745	-0.2154122374	
517.5	0.06610456236	-0.2996980376	
518.125	0.03235019336	0.03245929631	
518.75	0.0520553333	-0.2133844605	
519.375	-0.04394906342	0.0607697248	
520.0	0.08025835761	0.04718758135	
520.625	0.1614078502	-0.03270500036	
521.25	-0.0466841625	-0.3617562149	
521.875	-0.1423773138	0.04138518855	
522.5	-0.05935143029	-0.05218548249	
523.125	-0.1169384628	0.1322021086	
523.75	0.001477897678	-0.09629393102	
524.375	-0.3294951875	0.06257268164	
525.0	0.1119270685	0.10467466	
525.625	-0.06271059477	0.03147000657	
526.25	0.0766507177	-0.003727218737	
526.875	-0.1304244755	0.04574710479	
527.5	0.04455750683	0.2441114219	
528.125	0.04385211523	0.1168481024	
528.75	-0.06535058405	0.2845912128	
529.375	0.03014825759	0.02690613308	
530.0	0.06183894889	0.1426557423	
530.625	0.2077438166	0.3576061822	
531.25	0.2700014979	-0.04689175013	
531.875	0.2240611253	-0.0688685205	
532.5	-0.03413763433	-0.2543965733	
533.125	0.1224973842	0.1037088406	
533.75	0.07537332611	-0.3203892344	
534.375	-0.1358407563	-0.1560296887	
535.0	-0.2001949682	-0.199257167	
535.625	-0.1889621329	0.1967418596	
536.25	0.001422052236	0.05456593864	
536.875	0.1153166208	0.0550257837	
537.5	0.05405087996	-0.0818054241	
538.125	0.09871356866	0.00647710753	
538.75	0.1799205157	-0.1914842998	
539.375	-0.09483101727	-0.1169811519	
540.0	-0.1266313149	-0.1586001157	
540.625	-0.2202060551	-0.0282750685	
541.25	-0.04411500043	0.05569479726	
541.875	-0.04311661557	-0.0933076388	
542.5	-0.1703356012	-0.0852111926	
543.125	-0.01729068924	-0.05234891	
543.75	-0.1594824487	0.001585954079	
544.375	0.04647914146	0.06789202122	
545.0	-0.0616557833	0.07934991925	
545.625	0.1258253381	0.0256126454	
546.25	0.02901587694	0.04880038758	
546.875	0.1990054742	-0.02990134314	
547.5	-0.002719088054	-0.1285139873	
548.125	0.01603145499	-0.1486179364	
548.75	-0.1780803796	-0.1534332066	
549.375	-0.1144575121	-0.0008433695031	
550.0	-0.07292256118	-0.04476801995	
550.625	-0.06025306099	0.05358825479	
551.25	-0.0652268523	-0.002864681054	
551.875	-0.1020533255	0.08733548882	
552.5	-0.01371029846	0.07997393158	
553.125	-0.03166534935	0.06836046781	
553.75	0.05793755202	0.03745887548	
554.375	0.08247298824	-0.0002224478954	
555.0	0.1129315156	-0.07860464578	
555.625	0.07960042392	-0.1198149136	
556.25	0.06448303574	-0.1432796419	
556.875	-0.03583638818	-0.1685657747	
557.5	-0.1058054943	-0.1050037205	
558.125	-0.1192661513	-0.03372974846	
558.75	-0.1125843254	-0.006118835709	
559.375	-0.1252952129	0.03097939408	
560.0	-0.08311463931	0.07946135153	
560.625	-0.07631218465	0.1089496587	
561.25	0.02606512736	0.126320304	
561.875	0.01340315259	0.01339583774	
562.5	0.02396423157	0.09145879582	
563.125	0.06136534907	0.03557036662	
563.75	0.152929189	0.04384003973	
564.375	0.1539942433	-0.1501699352	
565.0	0.029483981	-0.1210870434	
565.625	0.02554327846	-0.1991057537	
566.25	-0.1810186926	-0.08429393196	
566.875	-0.06682505746	-0.07048719979	
567.5	-0.1857266618	-0.1608996094	
568.125	-0.2063114341	-0.03131071694	
568.75	-0.1704384532	-0.1507787001	
569.375	-0.2999862344	0.1588534903	
570.0	-0.0311774012	0.1791254371	
570.625	-0.1709975452	0.1432857293	
571.25	0.06427600357	0.2048586632	
571.875	-0.01545293842	0.02618738456	
572.5	0.2174838185	0.02516901998	
573.125	-0.04002163122	-0.1597882773	
573.75	0.09101419522	-0.01731955384	
574.375	0.02451874973	-0.1810741195	
575.0	-0.02447341017	0.03972433189	
575.625	0.1224459954	-0.1415166817	
576.25	-0.04371944306	-0.1430557282	
576.875	0.04612214104	-0.04855053509	
577.5	0.03924516468	-0.2587484444	
578.125	-0.1755711301	-0.1252390359	
578.75	0.01038325558	-0.05576587458	
579.375	-0.1245983358	-0.1931693954	
580.0	-0.08511595668	0.09031655284	
580.625	-0.08551310396	-0.2264334103	
581.25	-0.09034921042	0.2172084726	
581.875	0.02612990242	0.05164428649	
582.5	-0.03741465881	0.2277046423	
583.125	0.2312550752	0.06264183699	
583.75	-0.07173716759	-0.01443265064	
584.375	0.1353003118	0.1161407986	
585.0	0.01815498846	-0.02941971928	
585.625	0.1966672127	0.1215883352	
586.25	0.1975507351	-0.1704361359	
586.875	0.001953762465	-0.07796492805	
587.5	0.06244628629	-0.1884243189	
588.125	-0.1096622516	-0.1732722051	
588.75	0.04263935899	-0.04187729569	
589.375	0.1361969587	-0.2358517519	
590.0	-0.1778960514	-0.1126994205	
590.625	-0.08174090453	-0.1033446451	
591.25	-0.2520814925	0.1650040148	
591.875	0.1185517312	0.1098785923	
592.5	-0.1466081618	0.04750701666	
593.125	0.09535725795	0.05076542818	
593.75	-0.03947509095	0.1119283134	
594.375	0.2536638346	0.1699456898	
595.0	0.116886013	-0.01487737794	
595.625	0.1104458888	0.1567569702	
596.25	0.2502901623	0.007862671154	
596.875	0.09185362602	-0.0314828967	
597.5	0.1660907433	0.1775178954	
598.125	0.2250589248	0.05617944749	
598.75	0.1101166532	0.05317670119	
599.375	0.2688096868	0.01882292237	
600.0	0.1566259813	-0.2315104259	
600.625	0.06601617265	-0.1339971239	
601.25	0.148307537	-0.2080183901	
601.875	-0.1832632111	-0.1535044276	
602.5	0.002317361127	-0.003620141597	
603.125	-0.2459543586	0.03806401212	
603.75	0.07865796881	0.1104726716	
604.375	-0.1150255841	-0.03557114041	
605.0	-0.1366603797	0.1686506328	
605.625	0.02897504623	-0.0102859268	
606.25	-0.2186800722	0.1380300927	
606.875	-0.1209689688	0.1892460584	
607.5	-0.1166004153	0.09762615559	
608.125	-0.105129581	0.3131509151	
608.75	0.1568522112	0.1572380248	
609.375	0.1599232678	-0.0002897691201	
610.0	0.2614349298	-0.125190267	
610.625	0.01654380121	-0.2226826662	
611.25	-0.006338029225	-0.09082390791	
611.875	-0.143105623	-0.223054964	
612.5	-0.1323714841	0.06089565178	
613.125	-0.1594482857	-0.08610041691	
613.75	-0.1478797456	0.2680004138	
614.375	0.09309884162	-0.05005958386	
615.0	-0.04219663683	0.1729068878	
615.625	0.08357072146	-0.003523708657	
616.25	-0.1081349106	0.05171174533	
616.875	0.024140203	0.2472142657	
617.5	0.05363448773	0.1917019029	
618.125	-0.006554584491	0.2717591773	
618.75	0.04956851508	0.294977749	
619.375	0.157266406	0.2787339352	
620.0	0.1432994908	0.1051855706	
620.625	0.2099489234	-0.159117879	
621.25	-0.184454958	-0.1419062904	
621.875	-0.09051856408	-0.1334946305	
622.5	-0.3011811611	0.1062222551	
623.125	0.07195819266	0.1712896095	
623.75	0.07520603505	0.1232114939	
624.375	0.08874700616	-0.1612936777	
625.0	0.01573376504	0.05694800618	
625.625	0.09107533907	-0.1743440276	
626.25	-0.1154104791	-0.06681569173	
626.875	-0.08035301708	-0.1247748549	
627.5	-0.2342901251	-0.04619657961	
628.125	-0.09267658277	0.008699413843	
628.75	-0.0395474662	-0.1533249312	
629.375	-0.1202955558	-0.1770597517	
630.0	-0.1701067808	-0.03991923259	
630.625	-0.2747452191	0.02682157689	
631.25	-0.1269563576	0.2764820433	
631.875	0.09952294907	0.2188754752	
632.5	0.08350094336	0.2448575027	
633.125	0.2958486707	-0.0008649796391	
633.75	0.02472380157	-0.09567301349	
634.375	0.171645241	-0.1439735492	
635.0	-0.1614022487	-0.1763230523	
635.625	-0.03841218709	-0.07301045579	
636.25	-0.2660343992	0.08555443674	
636.875	0.03042130057	0.1713439897	
637.5	-0.07253529152	0.0005268880196	
638.125	-0.06567792239	0.2102463326	
638.75	-0.01585760403	0.06841141572	
639.375	-0.1079812551	0.2912949521	
640.0	0.2542600814	0.2756975133	
640.625	0.1942668859	0.05068708456	
641.25	0.2827844405	0.09419037409	
641.875	0.2628496198	-0.3104332548	
642.5	-0.1473080266	-0.1223239494	
643.125	-0.0359973978	-0.2146983997	
643.75	-0.2579782343	0.02208470035	
644.375	0.02585444892	-0.06919651975	
645.0	-0.3842308171	0.2323990476	
645.625	0.2371332794	0.14792894	
646.25	0.003059708493	0.08037305034	
646.875	0.3442721643	0.04352397917	
647.5	-0.1148070615	-0.06207183636	
648.125	0.3176841095	0.1970623428	
648.75	0.24395325	-0.2518406934	
649.375	0.1284968918	-0.1143838521	
650.0	0.348361569	-0.3535783068	
650.625	-0.04342784985	-0.4684912274	
651.25	0.1477508646	-0.06080668857	
651.875	0.4202433166	-0.2125763607	
652.5	0.2099681561	-0.2652116873	
653.125	0.1734269222	0.04036281459	
653.75	0.3298670373	-0.3339431589	
654.375	-0.2807101991	-0.2674510595	
655.0	-0.0992350805	-0.1161302059	
655.625	-0.4962796182	0.2523412693	
656.25	0.2489485252	0.1352955087	
656.875	-0.1116159673	0.07428759586	
657.5	0.2267762959	0.1464876031	
658.125	-0.05439623583	0.01036212959	
658.75	0.4019652185	0.2550868489	
659.375	0.2996609907	-0.3331617746	
660.0	0.1849902951	-0.1093686092	
660.625	0.2874843897	-0.3761191252	
661.25	0.05787888238	-0.4593680707	
661.875	0.1295110201	-0.08525097813	
662.5	0.4437883921	-0.2488374145	
663.125	0.1649517352	-0.3247389721	
663.75	0.1457266249	-0.1744905912	
664.375	0.004428406513	-0.4615628433	
665.0	-0.34594829	-0.09371967921	
665.625	-0.2460135701	-0.01332128856	
666.25	-0.1891611991	0.3642111827	
666.875	0.2700927019	0.1374346382	
667.5	0.07359144873	0.1597954844	
668.125	0.4290684011	-0.08385647892	
668.75	0.0514599309	-0.1769530555	
669.375	0.1919154397	-0.1437438446	
670.0	-0.02955991315	-0.3767745459	
670.625	-0.01528326978	0.06598970433	
671.25	0.1927669895	-0.2373973597	
671.875	0.08357125929	-0.2700002324	
672.5	0.119685856	-0.04362032386	
673.125	0.3836845996	-0.2235769911	
673.75	0.03253613094	-0.3183146606	
674.375	0.1008877756	-0.1641670329	
675.0	-0.04403028256	-0.3458172032	
675.625	-0.2969012856	-0.006376805472	
676.25	-0.03296257226	-0.04329064366	
676.875	-0.2867112201	-0.02611168761	
677.5	-0.08164814787	0.1418583339	
678.125	-0.1661590883	-0.005645927467	
678.75	0.05391205518	0.4140779148	
679.375	0.1889161784	-0.1019495332	
680.0	0.1411147601	0.1049239874	
680.625	0.1985157819	-0.2926647478	
681.25	-0.1847400595	0.07891115198	
681.875	0.3465590419	0.2642939874	
682.5	0.2223720793	-0.1821749215	
683.125	0.08187791874	0.1013742442	
683.75	0.488863564	0.1562022421	
684.375	0.3603878357	-0.197178554	
685.0	0.05853501206	0.1565113012	
685.625	0.4966156148	0.01082175376	
686.25	0.2348919722	-0.1433872133	
686.875	0.2443052078	0.03070298435	
687.5	0.428460043	-0.4916902724	
688.125	-0.1630521885	-0.2795001074	
688.75	-0.3433055526	-0.28890406	
689.375	-0.4203593558	0.4538519265	
690.0	0.2764494858	0.2160786217	
690.625	-0.01147771216	0.412341924	
691.25	0.6087718363	0.2443511872	
691.875	0.1395200725	0.1196232995	
692.5	0.6172448812	0.476943975	
693.125	0.8650052515	-0.2157640295	
693.75	0.3671442447	-0.1116261735	
694.375	0.7005352311	-0.5236716997	
695.0	0.4618860564	-0.4838102769	
695.625	0.3250669616	-0.03349103062	
696.25	0.7071044919	0.1033468236	
696.875	0.6017074561	0.2040439248	
697.5	0.53505428	0.5264965042	
698.125	0.6232952825	0.3287752718	
698.75	0.4859368172	-0.5405984678	
699.375	-0.3564067426	-0.2419595402	
700.0	-0.4871648976	0.3571841894	
700.625	0.3249694972	0.2693461139	
701.25	0.07124896169	0.09396542111	
701.875	0.3667379414	0.4275147119	
702.5	0.3967508896	0.00405582192	
703.125	0.2851905069	0.2337067981	
703.75	0.5615330613	-0.1099379351	
704.375	0.1629069819	-0.3272161294	
705.0	0.3510801246	-0.03983266896	
705.625	0.4293368364	-0.06681758371	
706.25	0.1928504325	0.04452445605	
706.875	0.252248306	0.3519508346	
707.5	0.3191472805	0.3834515257	
708.125	0.4386656868	0.02342119604	
708.75	0.373346795	-0.3029323809	
709.375	-0.2004099183	-0.4816338812	
710.0	-0.05133413981	0.2491140229	
710.625	-0.185428925	-0.02955818457	
711.25	0.2661162872	0.06507297454	
711.875	0.0183316404	0.1400979837	
712.5	0.4510364258	0.06720257606	
713.125	0.2187885531	-0.2969527831	
713.75	0.1102898755	-0.1241489209	
714.375	0.09034262058	-0.3451147281	
715.0	-0.1505131144	-0.170696912	
715.625	0.08525168297	-0.135216353	
716.25	0.2159738333	-0.3867364614	
716.875	0.1381184483	-0.2193630635	
717.5	0.4583949803	0.04329341612	
718.125	0.8927620288	-0.0188433535	
718.75	0.7395174272	-0.4461920051	
719.375	0.7726392161	-0.1896179388	
720.0	0.3921462097	-1.278010759	
720.625	0.03067252706	-0.6011004401	
721.25	0.6546871203	-0.9333064867	
721.875	-0.6481043347	-1.216940751	
722.5	-0.5117402312	-0.1128915736	
723.125	-0.8770389596	-0.6260116184	
723.75	-0.3184270763	0.7248339061	
724.375	0.06901292799	0.2502385742	
725.0	0.02675211222	0.6037722816	
725.625	0.4184501623	0.3802986541	
726.25	-0.1135854518	0.4123187512	
726.875	-0.2767782892	1.16716345	
727.5	0.3163491279	1.47864355	
728.125	-0.04070375261	1.181212482	
728.75	-0.8331733652	3.270944345	
729.375	0.7112321009	4.277493219	
730.0	-0.1337008068	2.345728132	
730.625	-0.9280685967	5.236732221	
731.25	1.173674086	3.537696881	
731.875	-1.380102595	0.05549102636	
732.5	-4.85986698	0.6966914278	
733.125	-1.965114706	1.594923851	
733.75	-0.9436359641	0.6320877693	
734.375	1.678255127	0.8405719511	
735.0	-0.4385564924	-0.4334321438	
735.625	-0.3708360384	-0.2926162058	
736.25	-0.07007085614	0.8720393748	
736.875	0.4356732001	-0.1197152538	
737.5	0.8829425067	0.8891473318	
738.125	1.976061119	-0.8848231184	
738.75	0.7720275682	-1.383748573	
739.375	1.768396283	0.7789506181	
740.0	5.203456059	-3.045835332	
740.625	-0.269257661	-2.049128366	
741.25	-3.593129718	3.811947109	
741.875	-2.574454627	3.969712681	
742.5	1.352355019	0.1489845429	
743.125	0.8370494239	-3.228969917	
743.75	-1.01211658	-1.342341142	
744.375	-0.01475368215	0.07878684199	
745.0	-0.01965987671	0.2719716394	
745.625	-0.06598645744	-0.05062187374	
746.25	0.09330504259	-0.2618884139	
746.875	-0.2794547766	0.0947385311	
747.5	-0.03741123377	0.1938592733	
748.125	-0.06496053955	0.559269099	
748.75	0.3911118585	0.5152752693	
749.375	0.07642030898	0.30294692	
750.0	-0.4972052221	0.133239829	
