!Created with skrf (http://scikit-rf.org).
# GHz S RI R (50+0j) 
!freq	ReS11	ImS11	
500.0	-0.1636128538	-0.6167983924	
500.625	0.8846856793	-0.8649436247	
501.25	-0.8325278209	-0.6777888885	
501.875	-0.03370864235	-0.2611203542	
502.5	-0.05522376342	-0.2338128184	
503.125	-0.05272309334	0.04265002494	
503.75	-0.04045441155	0.06672794261	
504.375	0.05048399227	-0.02920556226	
505.0	0.008003295992	0.02137354027	
505.625	0.02044015218	-0.1022778469	
506.25	-0.08803734307	0.04597938457	
506.875	-0.2298328288	-0.2357716582	
507.5	-0.3595836351	0.02595019901	
508.125	0.4356098352	-0.3657506029	
508.75	0.8331013521	-1.377352139	
509.375	-0.4781079736	-1.401399495	
510.0	-0.2221022294	-0.6148654864	
510.625	-0.2432128994	-0.2336057069	
511.25	-0.03718449764	0.03344080577	
511.875	-0.1694029819	-0.101887427	
512.5	-0.02442608137	0.09243092135	
513.125	0.005966710568	-0.002128790648	
513.75	-0.0399453386	-0.1169283436	
514.375	-0.08700304536	0.0936422814	
515.0	0.2485659802	-0.355477353	
515.625	-0.5652655332	-0.1543501474	
516.25	0.6283301605	-0.6738848367	
516.875	-0.2616825573	-0.7961053374	
517.5	-0.03261105997	0.03488615905	
518.125	0.01776735319	-0.0996188708	
518.75	-0.09933404631	-0.04220949086	
519.375	-0.06026820275	0.01020749195	
520.0	0.1250682358	0.1056241439	
520.625	0.1603296426	-0.1176408425	
521.25	-0.01649109261	-0.2455344174	
521.875	-0.1397902292	-0.1406171697	
522.5	-0.09302895502	0.04083732172	
523.125	-0.04658849648	-0.08700837153	
523.75	-0.2219067459	0.03957985675	
524.375	0.001262529293	0.06426454204	
525.0	-0.1982934476	0.09100989767	
525.625	0.1386803443	0.09132782566	
526.25	-0.11009558	-0.02197239394	
526.875	0.02246785194	0.0600102893	
527.5	-0.09107199568	0.07751897112	
528.125	0.002106232638	0.3976009403	
528.75	0.05790600032	0.1337941223	
529.375	0.0191456883	0.08787378089	
530.0	0.1402483841	0.1683110614	
530.625	-0.01429204536	0.1478826806	
531.25	0.5151534041	0.2835283838	
531.875	0.3292540722	-0.2308622837	
532.5	0.01711443575	-0.009557508235	
533.125	0.0149347391	-0.2074819485	
533.75	0.003033020003	-0.06171456136	
534.375	0.01133316815	-0.3903117707	
535.0	-0.2984958536	0.005806925815	
535.625	-0.1332877621	0.04525429061	
536.25	-0.01924642995	0.1304445563	
536.875	0.09758079072	-0.03548954583	
537.5	0.08153031388	0.004542800633	
538.125	0.1373731925	-0.1291966981	
538.75	0.07626289834	-0.07686378143	
539.375	-0.04543944931	-0.2008488717	
540.0	-0.2458067071	-0.1370576046	
540.625	-0.08463589125	-0.001172576637	
541.25	-0.1224572803	-0.05078826225	
541.875	-0.1241706969	-0.01514907322	
542.5	-0.005338600837	-0.07742204555	
543.125	-0.1487202061	-0.02076723972	
543.75	-0.01132269646	0.02243367574	
544.375	-0.1205258399	0.004405639914	
545.0	0.07789507867	0.0555813955	
545.625	-0.010550588	0.08096645173	
546.25	0.1835683269	0.03139513692	
546.875	0.05736454624	-0.0314586372	
547.5	0.1321396834	-0.1171355723	
548.125	-0.1077424736	-0.180577053	
548.75	-0.07457997625	-0.07460637618	
549.375	-0.1075258	-0.1353627965	
550.0	-0.08708067524	0.06142522336	
550.625	-0.04081706103	-0.0386515324	
551.25	-0.102056592	0.06445473061	
551.875	-0.04395941325	0.05368150642	
552.5	-0.07493292131	0.08647770217	
553.125	0.008020730055	0.06392113224	
553.75	0.03542346388	0.05076674388	
554.375	0.1089036213	-0.006671487708	
555.0	0.09269953883	-0.07324066968	
555.625	0.09442367221	-0.1096858225	
556.25	0.06654417647	-0.1532146778	
556.875	-0.04295555035	-0.1631468925	
557.5	-0.09966355952	-0.1080648517	
558.125	-0.1236745378	-0.04560999276	
558.75	-0.1185694113	0.004547102653	
559.375	-0.107399506	0.01791574361	
560.0	-0.1145295015	0.07907054119	
560.625	-0.03878453408	0.1270091411	
561.25	-0.01217633184	0.07613003182	
561.875	0.04787297648	0.07840537443	
562.5	-0.006171546999	0.01095612855	
563.125	0.08223514827	0.1157479016	
563.75	0.1476439769	-0.04475518256	
564.375	0.1120892441	-0.05340229343	
565.0	0.1076329075	-0.1952486932	
565.625	-0.07854221738	-0.135954489	
566.25	-0.04652063657	-0.1257312539	
566.875	-0.2049151236	-0.08259871354	
567.5	-0.0888789561	-0.009989997558	
568.125	-0.1164449605	-0.2445776163	
568.75	-0.2757574212	-0.02031785654	
569.375	-0.1590179852	0.04965063627	
570.0	-0.2510990992	0.249257609	
570.625	0.03563469481	0.2303537471	
571.25	-0.06253312856	0.03799054081	
571.875	0.1292949151	0.1313108327	
572.5	0.007334668303	-0.03890561452	
573.125	0.1999071422	-0.077377451	
573.75	-0.007206051253	-0.1995610703	
574.375	-0.004008187959	0.02732832555	
575.0	0.08147260321	-0.1599275884	
575.625	-0.04325878226	-0.01664555011	
576.25	0.1436542476	-0.08955603334	
576.875	-0.06324313542	-0.2268864628	
577.5	-0.05059950111	-0.0672228322	
578.125	0.05666590655	-0.1846059134	
578.75	-0.2066704716	-0.1862851391	
579.375	-0.04438776685	0.03358956048	
580.0	-0.03600555012	-0.2126686914	
580.625	-0.09080385297	0.1053903639	
581.25	-0.1031538101	-0.04651588364	
581.875	0.01268942368	0.3129840648	
582.5	0.1570378654	0.0126998391	
583.125	-0.03940095522	0.07459557373	
583.75	0.1535740327	0.06403304683	
584.375	-0.09219935341	0.01404023605	
585.0	0.208296346	0.1326367815	
585.625	0.1338353505	-0.1068525414	
586.25	0.1076654177	0.01847692485	
586.875	0.1381541551	-0.2205455022	
587.5	-0.07920947423	-0.06740232531	
588.125	0.07174769178	-0.1262472924	
588.75	0.008656855752	-0.2447852212	
589.375	-0.0193012079	-0.09210558718	
590.0	0.04271613977	-0.2449590374	
590.625	-0.2743334607	0.03944719642	
591.25	-0.04121350264	0.05516338571	
591.875	-0.1762318088	0.1462577415	
592.5	0.1291421537	0.07922904909	
593.125	-0.1957129252	0.04461025064	
593.75	0.1721398245	0.1056537333	
594.375	0.01939291997	0.07838918824	
595.0	0.232101549	0.2062551536	
595.625	0.2286064682	-0.0219380883	
596.25	0.05739526261	0.07193984981	
596.875	0.2616410546	0.04906413351	
597.5	0.1541957989	-0.01058076182	
598.125	0.07648532469	0.147000177	
598.75	0.2760574892	0.1099962642	
599.375	0.1508676857	-0.08476934658	
600.0	0.1975239696	-0.1132284301	
600.625	0.1761474549	-0.2566990975	
601.25	-0.03816044634	-0.1870245568	
601.875	0.02846775701	-0.1364920357	
602.5	-0.2416946456	0.01215720894	
603.125	0.002256574591	0.04072183571	
603.75	-0.2082437276	0.01223625083	
604.375	-0.08188091844	0.2019274485	
605.0	-0.02140889414	-0.03274847091	
605.625	-0.125498678	0.1962487926	
606.25	0.006414864962	0.08320069187	
606.875	-0.2011839575	-0.02433055004	
607.5	-0.1145115802	0.2674834641	
608.125	-0.06519983542	0.2044227553	
608.75	0.1510804147	0.2345200303	
609.375	0.3178711021	-0.09614398516	
610.0	0.05817897239	-0.1203915235	
610.625	0.09466758434	-0.1451392331	
611.25	-0.07741991619	-0.2278663248	
611.875	-0.01155015641	-0.0428664556	
612.5	-0.19624047	-0.1651430364	
613.125	-0.217933928	0.1730698961	
613.75	-0.06278509035	0.007110432597	
614.375	0.01355408181	0.2327389499	
615.0	0.08312770916	-0.0774650873	
615.625	-0.1315066077	0.1471217987	
616.25	0.08892710254	0.1008799722	
616.875	-0.08150835328	0.07415686257	
617.5	-0.06538486831	0.310639915	
618.125	0.06422676413	0.2223989717	
618.75	0.06913030238	0.2727595352	
619.375	0.1140213692	0.2319140759	
620.0	0.2549073284	0.06807246977	
620.625	0.06835397694	-0.1506001347	
621.25	-0.09773350262	-0.2736916124	
621.875	-0.2539297007	-0.005887963917	
622.5	-0.07948702546	0.05208346603	
623.125	-0.08658836689	0.2687795736	
623.75	0.2405282221	-0.06131993893	
624.375	0.01582139435	0.03523670044	
625.0	0.03586677064	-0.135159919	
625.625	0.04572986358	-0.001007676827	
626.25	-0.01692762582	-0.2155787399	
626.875	-0.2098800413	-0.02352705324	
627.5	-0.05021588329	-0.05171932758	
628.125	-0.1730230228	-0.125625583	
628.75	-0.09715531382	-0.08219733413	
629.375	-0.03051389165	-0.1719539318	
630.0	-0.2616919204	-0.1213008218	
630.625	-0.2010015047	0.1301449755	
631.25	-0.05146887386	0.1020129325	
631.875	-0.03040048973	0.3126058581	
632.5	0.1782241627	0.1246125404	
633.125	0.1149955457	0.07848822431	
633.75	0.2937739593	-0.1047210554	
634.375	-0.05247486539	-0.0835053012	
635.0	0.08053388212	-0.1786018008	
635.625	-0.2439455119	-0.05248497071	
636.25	-0.06518533741	0.05228670982	
636.875	-0.1955622835	0.1015039128	
637.5	0.05692174324	0.1532476756	
638.125	-0.1101837444	-0.001104767957	
638.75	-0.100642211	0.2817496945	
639.375	0.1164731112	0.1912946369	
640.0	0.02828603571	0.2713654683	
640.625	0.3576606824	0.1896950751	
641.25	0.2477046097	-0.111619856	
641.875	0.1736509678	-0.07859841925	
642.5	-0.004210268034	-0.3485107486	
643.125	-0.11194254	0.00933808126	
643.75	-0.03552855012	-0.1915035144	
644.375	-0.3813668383	0.106143911	
645.0	-0.007767448082	0.07185965116	
645.625	-0.08226969958	0.3406291007	
646.25	0.4080750607	-0.06711279285	
646.875	-0.06382177081	0.01069675471	
647.5	0.281283733	0.03955261966	
648.125	-0.000523795358	-0.06259505564	
648.75	0.4016692999	0.1001493447	
649.375	0.209092369	-0.4329884247	
650.0	0.01270975905	-0.1619161422	
650.625	0.3176611577	-0.2256178822	
651.25	0.1702322216	-0.4437663188	
651.875	0.101472971	-0.07429503479	
652.5	0.4559357959	0.001008113089	
653.125	0.2633219871	-0.2846993662	
653.75	0.09887738346	-0.100640363	
654.375	0.05116999356	-0.4651452222	
655.0	-0.4092339759	0.05439820301	
655.625	-0.04163631584	0.08476328953	
656.25	-0.1060463465	0.2814609201	
656.875	0.2122558864	-0.01595817467	
657.5	-0.2167162693	0.2257836424	
658.125	0.314617555	0.1607490345	
658.75	0.182087272	-0.01861327615	
659.375	0.430513529	0.05785419895	
660.0	0.230849786	-0.5469821753	
660.625	0.01479636786	-0.1863231067	
661.25	0.3076336525	-0.2747541254	
661.875	0.2054737138	-0.4080640823	
662.5	0.09277058339	-0.1540842653	
663.125	0.4215085999	-0.1325417489	
663.75	0.07656812555	-0.403265745	
664.375	-0.003838477661	-0.2128877687	
665.0	-0.2981368259	-0.3401505846	
665.625	-0.3542641663	0.2269916311	
666.25	-0.05424252626	0.1516504899	
666.875	0.0695945223	0.335045119	
667.5	0.3098151147	-0.02557266763	
668.125	0.09033839332	0.06578811853	
668.75	0.3747601504	-0.2356927549	
669.375	-0.02904987799	-0.2248963846	
670.0	0.183951038	-0.1356282963	
670.625	0.004255112186	-0.360317499	
671.25	-0.06686531752	-0.09817006397	
671.875	0.3008097713	-0.1249179876	
672.5	0.1366113759	-0.3054223368	
673.125	0.1147031114	-0.1229346887	
673.75	0.2774659855	-0.1901439827	
674.375	-0.03434864937	-0.4069248919	
675.0	-0.01091501165	-0.1057995335	
675.625	-0.1884612402	-0.2620600547	
676.25	-0.2606138811	0.08691825481	
676.875	-0.01068084159	-0.002174747403	
677.5	-0.2998653275	0.03533359288	
678.125	-0.0131310759	0.222654873	
678.75	-0.06429861147	0.1317710525	
679.375	0.3158000042	0.228992815	
680.0	0.04356695696	-0.33770543	
680.625	0.08253662933	0.1194312075	
681.25	0.2470709094	-0.1605008353	
681.875	-0.1438673969	-0.02313995976	
682.5	0.1874056103	0.3296126852	
683.125	0.3745538273	-0.3359725241	
683.75	0.00972468015	0.09952621268	
684.375	0.359981826	0.1957766545	
685.0	0.319624561	-0.1579077755	
685.625	0.1260512762	0.1740578254	
686.25	0.5461032846	0.04702466086	
686.875	0.1729405581	-0.3186353253	
687.5	0.2549492873	-0.176981202	
688.125	-0.02273954001	-0.591038081	
688.75	-0.5087065711	0.02666584989	
689.375	-0.2948525209	0.1066834018	
690.0	0.08481765597	0.5145499026	
690.625	0.3270563275	0.07281300576	
691.25	0.09309258428	0.4122159442	
691.875	0.763705017	0.3355426613	
692.5	0.3695743599	0.01585011639	
693.125	0.6613566784	0.1781771048	
693.75	0.7164195912	-0.5668997436	
694.375	0.155011729	-0.3277459725	
695.0	0.6540922456	-0.1194085199	
695.625	0.3825340545	-0.3162257547	
696.25	0.3694470996	0.1672850894	
696.875	0.6414313493	0.3235217667	
697.5	0.6068069836	0.355821332	
698.125	0.3881112501	0.1610860815	
698.75	0.5656162246	-0.3795616502	
699.375	-0.5700188734	-0.4075063753	
700.0	-0.07747759814	0.2774420029	
700.625	-0.01355018922	0.3974285764	
701.25	0.4142903547	0.09445356692	
701.875	0.08735033314	0.1876341032	
702.5	0.4195212033	0.4071031091	
703.125	0.5071686705	-0.08735225376	
703.75	0.2450590062	0.02048214943	
704.375	0.392337147	-0.3159856968	
705.0	0.1398406497	-0.2694453211	
705.625	0.1511692763	0.1408975809	
706.25	0.3952834298	0.1516451966	
706.875	0.1697737796	0.2644522099	
707.5	0.2511682709	0.3846227498	
708.125	0.588773744	0.09703228719	
708.75	0.3593640389	-0.477653153	
709.375	-0.2008335687	-0.224929447	
710.0	-0.3875760682	0.1159531559	
710.625	0.1492686394	0.08144036251	
711.25	-0.1178327554	0.2035891555	
711.875	0.4617555254	0.0887934202	
712.5	0.1734646585	0.04800067996	
713.125	0.4083767264	-0.1563794359	
713.75	0.06737991982	-0.3781479244	
714.375	0.02468221138	-0.1141884557	
715.0	0.01596265558	-0.2917552486	
715.625	-0.1139853249	-0.2019388839	
716.25	0.2169652848	-0.09227674266	
716.875	0.5033102443	-0.2545390468	
717.5	0.4182228797	-0.1866233632	
718.125	0.5240196094	0.1665570517	
718.75	0.9805208952	-0.2055066027	
719.375	0.5739002626	-0.6497446666	
720.0	0.8634461579	-0.5151743725	
720.625	0.87584077	-1.635471334	
721.25	-0.2608359091	-0.6903486489	
721.875	0.2987069566	-1.044940783	
722.5	-0.9815710816	-1.095394988	
723.125	-0.5599709142	0.0969919869	
723.75	-0.6250468077	0.2369319825	
724.375	0.2809879061	0.680032827	
725.0	0.08808710814	0.192201179	
725.625	0.02137993987	0.7311563948	
726.25	0.3286101967	0.7571362846	
726.875	-0.1885579521	0.5902544326	
727.5	-0.4708233633	1.665706171	
728.125	0.5923278886	2.321874257	
728.75	-0.03602093179	1.407665853	
729.375	-1.853009955	4.326350605	
730.0	1.668200451	4.231589923	
730.625	-0.5277781358	2.346644034	
731.25	-2.874429891	3.647622198	
731.875	-1.282819581	4.146915076	
732.5	-2.727585651	-0.274607859	
733.125	-3.65068139	0.1812009664	
733.75	-0.03719004507	2.074681556	
734.375	0.3106684198	0.2912867163	
735.0	0.3218181006	-1.296643704	
735.625	-0.1883326611	0.4623045173	
736.25	-0.6446208594	0.3885247205	
736.875	0.7030926466	0.8526327361	
737.5	0.7667178558	-0.3802916433	
738.125	1.370733681	0.5135394598	
738.75	2.893367877	-2.299517223	
739.375	0.5950860054	-2.17356643	
740.0	2.855614751	1.211647315	
740.625	7.990603477	-0.2284623972	
741.25	1.287812035	-3.817638032	
741.875	-5.847976451	-3.684343489	
742.5	-3.70358863	-2.110967199	
743.125	0.2438540235	-0.1339259597	
743.75	0.531507513	-1.528536604	
744.375	-0.6094606982	0.2253289355	
745.0	-0.04781972369	-0.0326912842	
745.625	0.2063905616	-0.03705281127	
746.25	-0.003393783281	0.0116259735	
746.875	-0.3356413806	-0.1307389809	
747.5	-0.05417717462	0.4543423821	
748.125	0.1368533661	0.3906052287	
748.75	0.1191047796	0.5651810961	
749.375	0.2948022806	0.561974738	
750.0	-0.2467387619	0.08922916064	
