!Created with skrf (http://scikit-rf.org).
# GHz S MA R 50.0 
!freq magS11 angS11
500.0 0.0136802618184 179.67644577
500.625 0.0123815698181 35.6281492989
501.25 0.0301192009857 -168.817269387
501.875 0.0334948737186 -177.568111525
502.5 0.0285946145218 155.717468582
503.125 0.0119006626278 82.7480843071
503.75 0.00536393979996 25.1590922113
504.375 0.0148362588095 -51.6534971831
505.0 0.0138142101868 -53.1620479674
505.625 0.0388682205712 -77.2696199425
506.25 0.0257987153882 -126.799864459
506.875 0.06307114629 -98.1428322345
507.5 0.0570222944649 -105.159915157
508.125 0.0408503552009 -113.992774775
508.75 0.0592000086581 -133.463849642
509.375 0.0549235317212 -152.417856878
510.0 0.0565987717046 -105.853199212
510.625 0.0370526561164 -164.912524393
511.25 0.0590918758147 -172.860074838
511.875 0.0545435404889 149.504789661
512.5 0.0391687037711 104.046845776
513.125 0.0565704049273 52.1256596285
513.75 0.0482256101466 33.5233188868
514.375 0.0401779991703 19.3188221311
515.0 0.0707505801109 10.259883512
515.625 0.0663996571538 39.564130756
516.25 0.077940647373 27.1977706428
516.875 0.092586293285 68.4399805573
517.5 0.13947799474 23.6481642854
518.125 0.166428750128 56.4544967595
518.75 0.0814173676239 12.5273759036
519.375 0.0695179171752 22.9131775497
520.0 0.108578605421 0.424868731596
520.625 0.0906154762771 -10.3843865821
521.25 0.0747259755557 -25.793351553
521.875 0.0601635670851 -3.59746865439
522.5 0.112385506746 -30.4168649946
523.125 0.161561711015 -45.7101854431
523.75 0.204441155713 -59.2598717374
524.375 0.202952926717 -57.3114876894
525.0 0.0782830802642 -35.4018350097
525.625 0.038556607404 -33.2587390254
526.25 0.0516180145449 -4.67596236032
526.875 0.05722284266 -17.0560665249
527.5 0.0560608375987 -23.8082812583
528.125 0.03923825145 -54.9174959336
528.75 0.0523679619623 -72.6493035357
529.375 0.0876383509215 -107.885204731
530.0 0.0364573288644 -135.012905985
530.625 0.0352714831157 -133.600880523
531.25 0.112208225548 -137.338949764
531.875 0.183821441606 -145.960228468
532.5 0.140241255859 -169.901274526
533.125 0.0978298957319 174.933457921
533.75 0.116669756135 169.846021667
534.375 0.112028640437 -178.388167871
535.0 0.0972308035108 164.764880727
535.625 0.0567122057085 175.216711544
536.25 0.0689087120483 164.679276718
536.875 0.0909860452081 -160.496238698
537.5 0.0860740654092 -143.233176777
538.125 0.0996134286199 -172.331291646
538.75 0.110512288761 -178.433250565
539.375 0.0834083376442 -162.288883109
540.0 0.103600759791 -156.884133422
540.625 0.12720378038 -154.895716276
541.25 0.121993291799 -144.540032704
541.875 0.107433893055 -145.74983369
542.5 0.0959612122574 -138.474017261
543.125 0.13921803654 -166.42314328
543.75 0.135078464384 160.450817788
544.375 0.0959661302765 136.720066271
545.0 0.0985636964897 91.1788482312
545.625 0.0877389829286 82.2215534698
546.25 0.0827544168082 69.2634550297
546.875 0.0801220208153 52.7992782607
547.5 0.122239223743 58.2026488417
548.125 0.116014334098 78.5938761389
548.75 0.0912482268866 89.1172362898
549.375 0.0970552438999 88.532471909
550.0 0.0994487397085 126.527282137
550.625 0.0426932106379 159.522028151
551.25 0.0373646774217 -126.014985143
551.875 0.0671843033822 -160.06813802
552.5 0.117914027653 -165.715001087
553.125 0.0929400068548 -167.407766037
553.75 0.093692318786 -170.181508605
554.375 0.110890458596 167.713329656
555.0 0.134974788838 162.632953527
555.625 0.085823452545 161.954873337
556.25 0.0958583436126 164.980271306
556.875 0.111810912361 165.389521477
557.5 0.120902313704 165.910921793
558.125 0.0906925431283 165.607623334
558.75 0.074384047733 -179.423081118
559.375 0.0651788258629 -171.524224383
560.0 0.0504129321281 -150.627057455
560.625 0.0531619299955 -128.236731284
561.25 0.0849463328555 -144.902231265
561.875 0.104135291951 -161.002762177
562.5 0.0992596127601 169.940486628
563.125 0.101637557494 147.062367829
563.75 0.129910053726 132.285624667
564.375 0.104732178351 121.670418609
565.0 0.0919327962788 119.045679294
565.625 0.0729162495942 121.72049096
566.25 0.0881823132176 157.907003048
566.875 0.0683280407557 -176.512529698
567.5 0.079487618655 178.09432787
568.125 0.0681800194514 -163.81297612
568.75 0.0702985076341 -147.000875994
569.375 0.0510252308195 -113.205174124
570.0 0.06304005217 -113.65940823
570.625 0.082930262701 -105.104723007
571.25 0.0868527162933 -115.357060816
571.875 0.0848525298763 -125.496420492
572.5 0.116178271893 -160.936032339
573.125 0.12839281448 -167.967128747
573.75 0.104150215065 162.00456251
574.375 0.0791339979239 153.58740176
575.0 0.113268059409 147.306754691
575.625 0.0973227978715 164.195266289
576.25 0.0833452593332 148.98533478
576.875 0.0805193189083 129.753710838
577.5 0.0919854924433 130.267318188
578.125 0.0534066303544 168.679706744
578.75 0.0453723557867 170.281554212
579.375 0.0507641917853 170.57370891
580.0 0.0715846447462 174.182453563
580.625 0.0785282347305 -141.53236023
581.25 0.0910106502848 -161.565598519
581.875 0.116328827554 178.675241487
582.5 0.11930982493 -177.795557024
583.125 0.0972442611141 -172.495736475
583.75 0.0809735000232 -165.728997796
584.375 0.105122263198 -159.046726222
585.0 0.0945561759794 -142.506320324
585.625 0.0724220092242 -146.846215309
586.25 0.0697664067067 -140.09945313
586.875 0.0812506619943 -139.065228676
587.5 0.0744088252745 -147.43402699
588.125 0.0605955867329 -178.410094069
588.75 0.0683090539031 -163.277556211
589.375 0.0832838786152 -156.495443085
590.0 0.0937189815979 -167.171952731
590.625 0.103730258376 160.230908668
591.25 0.120541080016 155.506737819
591.875 0.0909922408103 165.487352335
592.5 0.0629057034723 150.652244446
593.125 0.064418750142 142.594014199
593.75 0.074183069753 173.195433228
594.375 0.0593542485949 -151.255842268
595.0 0.0439728703368 -117.207372673
595.625 0.0544722242586 -111.681359771
596.25 0.0761110408751 -78.8722070309
596.875 0.0724325047637 -61.8373519891
597.5 0.060522579409 -57.4308397936
598.125 0.0614185146477 -66.9145890488
598.75 0.0834555166713 -59.3067355528
599.375 0.0850300767974 -69.5173602317
600.0 0.098549387136 -69.7334226554
600.625 0.0958318051376 -62.8331220615
601.25 0.0840743876128 -74.1330519732
601.875 0.0693791021124 -90.6894830598
602.5 0.0636092657913 -81.6873479845
603.125 0.0458678462107 -74.7724016004
603.75 0.0412746881756 -9.76050407408
604.375 0.0446419499682 -19.8942712611
605.0 0.0613457492755 -12.35677544
605.625 0.0466991299052 -16.6902705651
606.25 0.0285107306246 21.0108362737
606.875 0.0363313744449 50.4523150125
607.5 0.0555088647813 40.9804317939
608.125 0.0551424518557 20.3030793583
608.75 0.079147045629 32.2713259753
609.375 0.0716943666301 32.2445002283
610.0 0.0730395915275 52.2852981625
610.625 0.0580986091332 29.0579850016
611.25 0.0561892989589 43.6817759526
611.875 0.0404591966125 56.7792790842
612.5 0.0139409477065 69.7545101812
613.125 0.0280778640537 124.661837718
613.75 0.0287164235018 124.733979555
614.375 0.0725014401503 132.866056986
615.0 0.0500498837442 123.389343455
615.625 0.0380461862468 132.882165566
616.25 0.0238442842033 153.869945905
616.875 0.079219020287 137.983061491
617.5 0.0463005820145 121.041221081
618.125 0.0278220077196 129.296550468
618.75 0.00631425840478 178.704662084
619.375 0.0483148521776 158.059276576
620.0 0.00515930529216 108.558776629
620.625 0.0158307673739 -95.5436314678
621.25 0.0480426416224 -83.3285287432
621.875 0.0651125793491 -121.926900478
622.5 0.0762182176523 -174.18805376
623.125 0.0850388389478 166.209507275
623.75 0.0439983844902 -174.783083369
624.375 0.0712470237207 177.389496538
625.0 0.0483262210804 -153.010421394
625.625 0.0473603393614 -149.765684476
626.25 0.00984274795497 157.976783754
626.875 0.00773183168541 -154.803472408
627.5 0.0231991832667 -37.4832172781
628.125 0.0437972300228 -9.91139864725
628.75 0.0347242211463 -11.4363052426
629.375 0.0530052146657 -7.97452701446
630.0 0.0689154609028 -7.13810645793
630.625 0.0766402187002 17.3036625171
631.25 0.0767604984819 15.5804050104
631.875 0.0730583302288 -11.2547913748
632.5 0.061421419371 -9.90029579266
633.125 0.0455968829531 20.1661249247
633.75 0.0389364244088 6.33287782707
634.375 0.0506150686809 32.2114107806
635.0 0.0407920438735 -20.0740771332
635.625 0.0284967808753 33.1138869759
636.25 0.0492223064669 32.9526211389
636.875 0.0719058145328 46.8363099319
637.5 0.0511558000584 54.0394828467
638.125 0.0406662202898 68.5157984223
638.75 0.0894842915917 80.5698153448
639.375 0.0905677744201 93.8617351876
640.0 0.0777837151722 110.797050141
640.625 0.054340923307 101.361921845
641.25 0.0504933615982 109.828856265
641.875 0.0639919478377 152.375952025
642.5 0.0534418528155 144.367307762
643.125 0.0527306965744 156.073427968
643.75 0.0811425166856 178.923088691
644.375 0.0798936561587 -168.893188019
645.0 0.0778996769642 177.813227312
645.625 0.0883541233662 166.157694
646.25 0.0889689693638 168.44223404
646.875 0.0667503385241 179.297458155
647.5 0.0795132358697 -172.814642906
648.125 0.0745041968654 177.890845574
648.75 0.0666950740665 -170.805829569
649.375 0.0423446699805 -158.957714411
650.0 0.0634121874522 -118.459765134
650.625 0.0443682182355 -92.8465012093
651.25 0.0640623418723 -63.2950218423
651.875 0.0580975334472 -43.0081923288
652.5 0.0991525238194 -23.6546606645
653.125 0.110149655122 -2.87001232235
653.75 0.10037528346 4.71101775782
654.375 0.108242183679 8.08085761613
655.0 0.127771933569 14.7515899268
655.625 0.0751797978187 15.0762413525
656.25 0.0542850174269 19.5186956418
656.875 0.0622701336485 2.2309210263
657.5 0.0915069738316 24.7798001836
658.125 0.0762324024621 50.7318341715
658.75 0.0591765305107 64.6877858645
659.375 0.0925175449966 38.4968982788
660.0 0.116499381303 28.142611558
660.625 0.122996302661 18.0837883565
661.25 0.105872171705 4.87758992337
661.875 0.108811987991 -11.9861121148
662.5 0.124973612056 -18.5342719391
663.125 0.0924124907158 -20.6537228671
663.75 0.10072248401 4.53692590655
664.375 0.110652198002 56.4140692176
665.0 0.0870204169312 91.0379027388
665.625 0.0503818675881 111.981983966
666.25 0.0759941472653 138.756979383
666.875 0.116591458609 172.113253781
667.5 0.109368202427 -171.725155762
668.125 0.0863022180883 -174.608785879
668.75 0.114770464417 171.217071485
669.375 0.117880948675 176.322748398
670.0 0.0979714972979 -170.964503874
670.625 0.0687212863746 -168.08987322
671.25 0.108132271189 174.871929079
671.875 0.0996741624389 167.249629219
672.5 0.0797625466161 156.942069339
673.125 0.065398379762 160.890195513
673.75 0.0997711338196 161.924995906
674.375 0.113779847832 170.835111037
675.0 0.124945141144 -176.964496254
675.625 0.102274097503 -145.280985529
676.25 0.118866057767 -123.012148102
676.875 0.109418963931 -116.660154189
677.5 0.137094675875 -130.645865261
678.125 0.0951793954589 -115.459363194
678.75 0.0692182772219 -92.9869255356
679.375 0.053879988687 -78.0606931363
680.0 0.0839342247598 -83.1894330167
680.625 0.127817812916 -77.3613810056
681.25 0.0994914650928 -70.8164915077
681.875 0.101348630361 -89.0018814045
682.5 0.133941494613 -118.978952636
683.125 0.178687676665 -124.945470348
683.75 0.116504397229 -100.069178043
684.375 0.115291479384 -79.9804590563
685.0 0.138561923697 -39.9386768947
685.625 0.140281169387 -3.94454734796
686.25 0.110221819987 20.4508394013
686.875 0.0907271693923 45.8844732717
687.5 0.0843239716313 78.9058730893
688.125 0.0848530825405 104.884715178
688.75 0.10552216681 110.651228594
689.375 0.141659333491 119.867560539
690.0 0.131864035942 136.107574468
690.625 0.121402338189 126.596549696
691.25 0.147598217911 95.3125975408
691.875 0.165313726499 75.7792510863
692.5 0.128062396964 42.7324415257
693.125 0.0809255347081 -13.2444463146
693.75 0.102905352567 -42.573071273
694.375 0.12797100326 -22.6639219428
695.0 0.129710855654 12.5481055686
695.625 0.10221144244 58.6368341629
696.25 0.118746661743 113.393501007
696.875 0.145735468736 166.555347119
697.5 0.131792550195 -135.027013674
698.125 0.135746704587 -128.953950503
698.75 0.131727795558 -131.351316405
699.375 0.112918466251 -125.476873159
700.0 0.0964901487875 -113.637566005
700.625 0.119367243103 -95.5554855803
701.25 0.100984743127 -63.0634466977
701.875 0.0851787486368 -64.3402045171
702.5 0.102327922696 -81.9231484055
703.125 0.169806818264 -114.859368508
703.75 0.175198539648 -149.846310722
704.375 0.136172414586 165.934269655
705.0 0.103027529952 165.62359677
705.625 0.145109785643 -171.244307657
706.25 0.153913219035 -117.52512539
706.875 0.0953910969056 -65.9498368792
707.5 0.079534024014 -43.0531618024
708.125 0.0876107472977 20.3565800975
708.75 0.114312058145 64.1488001146
709.375 0.108417980353 105.041241059
710.0 0.103543266106 124.154197472
710.625 0.107147972343 168.519665365
711.25 0.121878723727 172.154556596
711.875 0.146532339275 161.552673767
712.5 0.154542268776 142.236840738
713.125 0.12705643211 100.527840115
713.75 0.102561446102 51.2236243858
714.375 0.107729519925 26.6974947327
715.0 0.119264565338 14.6895642065
715.625 0.0884069417141 70.788385898
716.25 0.0822040258434 78.0176131644
716.875 0.10893227846 101.3212976
717.5 0.146999842335 146.568971514
718.125 0.118673108711 159.993903893
718.75 0.105145276253 175.030180265
719.375 0.124976925691 -160.757200238
720.0 0.130833009752 -123.982449603
720.625 0.113947247449 -86.4312668717
721.25 0.0929509486518 -14.6927356118
721.875 0.0857801538215 21.2830167664
722.5 0.0727274565948 65.843343504
723.125 0.0823749545474 73.4987531491
723.75 0.10561075523 44.4136992345
724.375 0.120778695193 8.21776246107
725.0 0.0975456678195 -39.4587155452
725.625 0.08564559185 -79.0813490888
726.25 0.119552005853 -58.0932185965
726.875 0.103328177223 -45.1499777372
727.5 0.0734591835388 -31.373781286
728.125 0.0756619796018 -9.09578753743
728.75 0.0760289142885 6.4372900994
729.375 0.0864664113449 21.7533973012
730.0 0.079642536143 16.3178285742
730.625 0.0729057167149 31.3401300502
731.25 0.0452227872758 45.9241914231
731.875 0.0985345519265 128.185781707
732.5 0.0799840076355 155.624679889
733.125 0.0707295504718 163.761208988
733.75 0.0540523575157 147.460819793
734.375 0.0789964435204 179.834478562
735.0 0.0737235380176 158.381909176
735.625 0.0526783380443 140.015256698
736.25 0.00800820055215 145.604030131
736.875 0.0856212373326 166.641428911
737.5 0.102192845775 175.857675933
738.125 0.0993522940376 -169.03518637
738.75 0.0450727252525 170.638417972
739.375 0.0931574475057 -150.992603949
740.0 0.0545306483593 -141.546796571
740.625 0.0381646948127 -151.764049135
741.25 0.0443220045487 -162.122009708
741.875 0.0145014576626 -87.3788346462
742.5 0.073886337858 -21.2225503555
743.125 0.0284931994084 62.0834470921
743.75 0.0288580596893 87.73499125
744.375 0.0364119031114 134.667734024
745.0 0.0531790103257 138.59148074
745.625 0.0600568739313 136.861654908
746.25 0.0714678649786 82.8745449589
746.875 0.052558223627 63.4331721109
747.5 0.0635762319372 6.96815205823
748.125 0.033636283941 -13.0905836723
748.75 0.0253632931423 16.867547847
749.375 0.027808197111 -29.2858146118
750.0 0.0294739396428 -73.4803961496
