!Created with skrf (http://scikit-rf.org).
# GHz S MA R 50.0 
!freq magS11 angS11
500.0 0.0211803452593 130.345717657
500.625 0.0114070083748 167.977326666
501.25 0.0185960324257 -169.809983803
501.875 0.0309275023792 -172.182400322
502.5 0.0125624532702 129.132778684
503.125 0.0171064992967 107.790934392
503.75 0.00328436034487 145.859478957
504.375 0.0225081227242 -59.4514735983
505.0 0.012987062993 -67.875278581
505.625 0.0291319840738 -75.3073092428
506.25 0.0422176518119 -100.877181772
506.875 0.0690212213604 -93.9840587954
507.5 0.0426231834005 -157.040210945
508.125 0.0379897217193 -112.272489201
508.75 0.0595835223791 -136.712199136
509.375 0.0649646854862 -124.812485465
510.0 0.0281291169636 -159.928843058
510.625 0.0310414569207 -160.648184125
511.25 0.0507039917961 -179.757154204
511.875 0.0589707522245 152.303229258
512.5 0.0377259018453 93.8023537607
513.125 0.048586349698 42.4329717931
513.75 0.0495281644491 32.273626056
514.375 0.0564339074311 35.9505914671
515.0 0.0526503886356 6.55034792181
515.625 0.0931279308994 55.8914208358
516.25 0.0903175055151 33.4984138468
516.875 0.125743598091 72.4147788672
517.5 0.097910628839 13.6276484458
518.125 0.182220991981 70.5991549801
518.75 0.0873953404035 15.8622137883
519.375 0.0661121959359 20.7744161375
520.0 0.0935057234634 -1.42546977058
520.625 0.105057150247 -1.52082073428
521.25 0.0807029676082 -22.2671271569
521.875 0.0754688760011 3.43342736418
522.5 0.0933773247861 -34.0404550743
523.125 0.172461594765 -34.8589356524
523.75 0.204850623066 -59.108438083
524.375 0.221527400059 -44.0097367568
525.0 0.0675164640286 -43.6723485713
525.625 0.0394252285824 -40.2100910921
526.25 0.0554370403356 -2.85126911117
526.875 0.042156892728 -29.8236553643
527.5 0.047386966937 -24.2462219201
528.125 0.0447905859917 -52.9627905285
528.75 0.0640100918094 -68.3270152432
529.375 0.0817715914151 -110.309842033
530.0 0.0350005330872 -132.752200223
530.625 0.0306531726612 -134.552083647
531.25 0.145991247574 -138.578200859
531.875 0.143464175295 -145.589723096
532.5 0.132060061967 -167.864161002
533.125 0.105477198964 176.850452837
533.75 0.126443121505 171.150413527
534.375 0.10402512429 -179.657536531
535.0 0.0861329558518 164.928653114
535.625 0.0687991701146 -178.969496646
536.25 0.0721543381982 166.27754221
536.875 0.0597745814556 -155.300413953
537.5 0.0877579979934 -139.941117709
538.125 0.0955386121806 -171.093398095
538.75 0.114363470108 -176.72650868
539.375 0.0584132593698 -162.340145054
540.0 0.0941747489623 -153.072232135
540.625 0.116556057087 -152.64083107
541.25 0.142555273437 -139.461506382
541.875 0.0823350098445 -137.68493536
542.5 0.101699273418 -136.850554586
543.125 0.130745877023 -165.444941475
543.75 0.139466812668 162.219050398
544.375 0.0907881702995 136.112378865
545.0 0.0868734314552 94.2950494887
545.625 0.104133622615 87.0239560853
546.25 0.0915082501513 71.6363121662
546.875 0.0962559756037 56.7207293362
547.5 0.111995598199 61.3384016272
548.125 0.101733353479 80.134858677
548.75 0.0989353630997 92.7389389755
549.375 0.0846102436901 88.6929563649
550.0 0.0851868610843 129.84746869
550.625 0.0552775743258 160.550483701
551.25 0.0420523783527 -134.996573094
551.875 0.0662207496985 -155.364301228
552.5 0.106380351978 -158.384725656
553.125 0.0893490021685 -166.449913233
553.75 0.0960913818142 -170.919236686
554.375 0.111837480819 168.461573924
555.0 0.125476928582 167.029641408
555.625 0.0980234567904 161.224268073
556.25 0.0975132729979 166.125941449
556.875 0.12821274683 165.775522197
557.5 0.0972205218832 170.618852601
558.125 0.0884276224708 167.918499482
558.75 0.0817372840528 -178.35157913
559.375 0.0621511262219 -169.265552351
560.0 0.044416044476 -141.847103692
560.625 0.0614118390085 -136.180710626
561.25 0.0903491579547 -146.759898444
561.875 0.108260010118 -161.603971427
562.5 0.0897790850064 177.924276473
563.125 0.109103820033 145.956840794
563.75 0.133889383731 132.851343695
564.375 0.0986926529184 123.991350284
565.0 0.0823006044909 123.540284098
565.625 0.0852517063239 120.021729946
566.25 0.0915086364927 158.752434647
566.875 0.0787120143801 179.646787789
567.5 0.0630304907866 -167.611148989
568.125 0.0714921645629 -162.574351139
568.75 0.0618757426949 -140.469328257
569.375 0.0535919079666 -114.661531129
570.0 0.0607331474895 -93.7550709254
570.625 0.0909684306914 -109.277842822
571.25 0.0918467109505 -117.17264295
571.875 0.0916938317845 -130.367222599
572.5 0.108062439088 -147.349116667
573.125 0.131344186469 -167.193280346
573.75 0.0973624573253 165.633203892
574.375 0.0877204271217 147.56417469
575.0 0.102071992989 159.343781348
575.625 0.106562720656 160.394408839
576.25 0.0873602701332 148.818911149
576.875 0.0741784053508 130.126405146
577.5 0.081207826092 140.843586232
578.125 0.0595642645414 163.180257124
578.75 0.0485532227612 167.694587218
579.375 0.0580880036258 158.387243438
580.0 0.0660680436762 -157.394768155
580.625 0.0798808407639 -140.300538102
581.25 0.0910611521534 -159.612511744
581.875 0.117692556278 178.571777894
582.5 0.107532320186 -164.65296655
583.125 0.0910755725658 -164.912358894
583.75 0.0815052936783 -165.009768449
584.375 0.105504422543 -159.771775288
585.0 0.0957028456571 -142.778897524
585.625 0.0700026064564 -140.014608192
586.25 0.0664081904595 -131.408760445
586.875 0.0847741415456 -141.855299571
587.5 0.0671468790473 -128.616621564
588.125 0.0580940324263 -167.286384547
588.75 0.0639716808313 -158.725357624
589.375 0.0827249410459 -158.186988904
590.0 0.0949894134042 -166.970418444
590.625 0.10523865166 166.012357144
591.25 0.122604012395 150.943838956
591.875 0.0935998836909 160.589956801
592.5 0.0656947099184 142.832302553
593.125 0.063638800192 154.07539809
593.75 0.0682452216357 170.013523563
594.375 0.0587199474464 -154.183833276
595.0 0.0440795857164 -105.353671501
595.625 0.0603444791836 -98.226853953
596.25 0.0731323851968 -89.4231165403
596.875 0.0688731099676 -68.5769201304
597.5 0.0568369731161 -66.9906158518
598.125 0.0706881167391 -54.1589368341
598.75 0.0837732302341 -56.6240998815
599.375 0.0817847525843 -71.2930492734
600.0 0.110999627089 -53.5473238854
600.625 0.099407538214 -58.608041541
601.25 0.0799654693844 -76.3021689135
601.875 0.0664835372409 -92.1434628045
602.5 0.0604585673515 -87.0833917235
603.125 0.0442284990268 -52.5647814346
603.75 0.0337040679675 -23.8008671981
604.375 0.0439328440442 -15.2870950454
605.0 0.0489926906589 -33.0111980482
605.625 0.0617379511545 17.1648737782
606.25 0.0308087842747 32.0932154158
606.875 0.0469943807899 58.1189744256
607.5 0.0504964515961 41.878991129
608.125 0.0901450748542 40.4901167642
608.75 0.0652957901542 24.6390550065
609.375 0.0708804273956 33.5578806146
610.0 0.0575833502989 32.866277514
610.625 0.0782675620345 53.6186563518
611.25 0.0588500467622 47.696639933
611.875 0.0424934932819 72.97172802
612.5 0.00891860996093 51.4692329848
613.125 0.0255631696635 134.097443814
613.75 0.0454481765015 125.28673868
614.375 0.0499779589556 123.814607283
615.0 0.0365028417535 119.501808369
615.625 0.0183836552517 143.360436278
616.25 0.0643060116011 138.6011255
616.875 0.056961348485 132.155480936
617.5 0.0351419092861 119.049424924
618.125 0.0250655992917 131.77607832
618.75 0.0330850206389 150.805266141
619.375 0.0239339237313 144.883624947
620.0 0.00759874152493 -4.96750874903
620.625 0.0225310519902 -124.448998193
621.25 0.0440622323881 -108.974060142
621.875 0.0609955362187 -99.918358296
622.5 0.0702778611355 -167.075097242
623.125 0.0628387459374 -177.378362326
623.75 0.0644436975384 167.945007884
624.375 0.0457827545909 179.183110245
625.0 0.0458543563075 -150.690729093
625.625 0.0186448075134 -121.756200475
626.25 0.0459008213163 -173.75417715
626.875 0.00885066921587 177.392043043
627.5 0.0232053456248 -63.6105789166
628.125 0.0520275272382 -3.74316999174
628.75 0.0340851641691 -41.9741352002
629.375 0.043576866704 -13.7191928688
630.0 0.0767080528506 5.87447296749
630.625 0.0825298909932 22.4191716276
631.25 0.0683719741051 -9.13499324788
631.875 0.0665356041027 -13.8973266657
632.5 0.0647495403571 -16.402907305
633.125 0.0492670732036 28.4551750431
633.75 0.0415304476705 12.0079209793
634.375 0.0427266512517 16.0958782421
635.0 0.0316601527852 26.197826903
635.625 0.0337722469983 37.2804468469
636.25 0.0714276798059 51.7117795423
636.875 0.0574439400482 14.3191783882
637.5 0.0376652336257 40.5484701554
638.125 0.0424833863969 63.2233145557
638.75 0.0988075767927 82.1131231618
639.375 0.0903468505737 94.1953957731
640.0 0.0710234840511 105.125986917
640.625 0.0603008423366 107.397371834
641.25 0.0611696422214 127.207023051
641.875 0.0553215390421 147.889967283
642.5 0.0475832396479 151.57907759
643.125 0.0492578566841 154.743400017
643.75 0.087552052151 -178.557698886
644.375 0.0581081195291 177.322818585
645.0 0.0721083294413 -179.079326173
645.625 0.0968302529653 171.912766462
646.25 0.0974565144732 171.524220282
646.875 0.079290457409 -173.608985701
647.5 0.0665840143055 -174.424920798
648.125 0.0914523943739 -169.317746611
648.75 0.0732511050864 -158.036750491
649.375 0.0565774029181 -139.91056557
650.0 0.0448916592408 -116.015038838
650.625 0.0532171253318 -85.0971933762
651.25 0.064341249141 -61.4312320978
651.875 0.0784725136366 -40.9142261111
652.5 0.0667052813135 -22.2274169779
653.125 0.107502014876 -0.122418169421
653.75 0.111159477156 8.49662259743
654.375 0.107384717644 8.7863019494
655.0 0.114725173654 15.6582391647
655.625 0.0892141165219 31.2778510274
656.25 0.056326655003 24.8961020846
656.875 0.0807434611135 11.8850467751
657.5 0.0563614267904 15.9349181685
658.125 0.0616196765312 54.8983469228
658.75 0.0537207940962 65.065732327
659.375 0.0972612196681 38.5919235875
660.0 0.117440786253 29.1477506025
660.625 0.113219802735 21.1242350831
661.25 0.112529201266 6.98024426185
661.875 0.121107785903 -8.39716190738
662.5 0.110436221638 -18.102213899
663.125 0.0916458084223 -14.9628272306
663.75 0.096592928827 0.693608680849
664.375 0.112916333517 58.5643619493
665.0 0.0562044589016 96.1317756108
665.625 0.0666246109796 115.856637677
666.25 0.0840262660981 137.571457331
666.875 0.118039972472 173.638484937
667.5 0.0994812382078 -165.924407763
668.125 0.105426630238 -175.704840567
668.75 0.129211351103 171.149061471
669.375 0.142135030571 -179.912229684
670.0 0.0732453429503 -166.387427352
670.625 0.0811298990321 -164.871868529
671.25 0.0996386514323 178.077324047
671.875 0.116516798464 170.511863271
672.5 0.0628462128419 162.266910212
673.125 0.0754953547886 163.593347026
673.75 0.113137823578 163.712869703
674.375 0.122783784412 170.054090601
675.0 0.114873302379 -171.51419071
675.625 0.121237840434 -144.285256663
676.25 0.125872283765 -122.390714893
676.875 0.12200825441 -119.494565079
677.5 0.122738457606 -126.80781849
678.125 0.1081145144 -110.173267281
678.75 0.0575086867027 -92.0105693807
679.375 0.0615982024881 -76.5984905866
680.0 0.0652635613303 -63.3728118803
680.625 0.117581729857 -68.6828691855
681.25 0.110267735701 -71.4835998368
681.875 0.104654708502 -90.9164992573
682.5 0.146623584819 -120.590696214
683.125 0.149765204918 -114.46975189
683.75 0.12573211893 -100.518166978
684.375 0.107011571036 -77.5927805148
685.0 0.1422225535 -38.5262631151
685.625 0.107245480603 4.22924428075
686.25 0.103722638362 26.9729665645
686.875 0.0790181739693 47.9500407859
687.5 0.0888830057323 81.5690814248
688.125 0.0735217160346 125.032213393
688.75 0.102714036172 119.483300604
689.375 0.136259175183 123.134333524
690.0 0.136883989342 136.589340598
690.625 0.119613789437 128.763699775
691.25 0.14272111802 100.79808501
691.875 0.189859335446 72.916546219
692.5 0.136853980355 43.7957418045
693.125 0.0961229679645 -15.7120650606
693.75 0.0801414999259 -22.4110138126
694.375 0.128610275826 -19.0891907961
695.0 0.120081607138 16.1745743572
695.625 0.103865122731 56.7322851769
696.25 0.116968475749 115.636606159
696.875 0.136637141175 175.758522415
697.5 0.13864377854 -137.44900116
698.125 0.13848449257 -128.561651376
698.75 0.136015507267 -131.167055936
699.375 0.102463239079 -119.431842866
700.0 0.091944688026 -107.10266294
700.625 0.12195563834 -94.2185178829
701.25 0.0959070961143 -60.1246634576
701.875 0.0816851742687 -56.0037562379
702.5 0.101247962818 -82.5791410115
703.125 0.174117114585 -117.395249163
703.75 0.19317391028 -155.820048711
704.375 0.12250597265 176.361805877
705.0 0.107416763385 168.291178926
705.625 0.138673869116 -164.756690573
706.25 0.153853104583 -115.839597044
706.875 0.0794178210108 -47.7647495315
707.5 0.077219707501 -32.5718239108
708.125 0.0942798254877 19.2435766495
708.75 0.113768979722 64.1198005932
709.375 0.10509373374 112.813460387
710.0 0.103849895223 133.500389478
710.625 0.110501482605 160.72355343
711.25 0.121395492175 171.670506047
711.875 0.144267577443 -179.150991375
712.5 0.149879336804 149.810798825
713.125 0.11288226201 104.038697006
713.75 0.102611013734 47.9984942688
714.375 0.113568018838 16.5614850157
715.0 0.107100017787 34.8822631083
715.625 0.087499551038 65.1468273625
716.25 0.0833884822615 88.388211992
716.875 0.10803912167 93.7757602174
717.5 0.143413854512 158.317947421
718.125 0.116074462018 170.270868023
718.75 0.101722743781 168.551600886
719.375 0.117830376354 -166.687148791
720.0 0.126721181999 -136.833801621
720.625 0.114281624593 -63.5564356076
721.25 0.0957526447016 -25.9706609736
721.875 0.0850729193738 19.5349338845
722.5 0.0821018902347 95.7631279708
723.125 0.0939612778053 79.5934820421
723.75 0.104227031114 40.2166622904
724.375 0.112628088907 3.00751525971
725.0 0.0863938717051 -46.9619251728
725.625 0.11110944864 -55.8668914389
726.25 0.123395271965 -54.3882100002
726.875 0.102459305342 -37.5455267563
727.5 0.0739115030856 -50.8759455278
728.125 0.0993372597294 21.782159618
728.75 0.0909308018322 27.1015230476
729.375 0.0767015089841 17.217153633
730.0 0.0690499712713 7.64813107453
730.625 0.0482952635858 9.06949331723
731.25 0.0864230928934 76.8550713935
731.875 0.0809495287465 121.10713876
732.5 0.0833936718138 161.595041586
733.125 0.0616624046565 162.740387209
733.75 0.0943387917986 -170.069228316
734.375 0.0574758640516 159.95876448
735.0 0.0577061181124 150.713233239
735.625 0.0443894619727 148.618383492
736.25 0.0434069129036 156.556089132
736.875 0.0525001517658 169.883447392
737.5 0.0808892578032 -179.854435054
738.125 0.0627435407954 -176.914725236
738.75 0.0956646063242 -164.292518098
739.375 0.0700814837002 -159.362464428
740.0 0.0747399197232 -134.177934753
740.625 0.0235814648172 -132.685625335
741.25 0.0721982028909 -148.737695768
741.875 0.0387427389175 -104.173946686
742.5 0.0311785104385 -21.0421955546
743.125 0.0253814897934 86.4491868945
743.75 0.0511592730641 96.5845059634
744.375 0.0390765808876 105.456781314
745.0 0.0671079878242 126.593346824
745.625 0.0675121702768 147.917190716
746.25 0.0757118480109 83.3817854216
746.875 0.0677834155923 44.5400597298
747.5 0.0325794982841 14.2716759509
748.125 0.0193732090013 -5.72669868893
748.75 0.0305167081816 65.4746423129
749.375 0.0455474624171 -48.0495298538
750.0 0.0310793132173 -100.048711896
