!Created with skrf (http://scikit-rf.org).
# GHz S MA R 50.0 
!freq magS11 angS11
500.0 0.0140975904468 135.758128136
500.625 0.00935278211529 141.626707295
501.25 0.0153893222237 -158.970871011
501.875 0.0285940931391 -169.142303131
502.5 0.0255402776814 169.599723944
503.125 0.0188062640032 118.267497734
503.75 0.0107348309767 108.464405575
504.375 0.0249021756084 -61.2894665384
505.0 0.00296697446629 -17.8403587823
505.625 0.0240518467529 -73.2633174491
506.25 0.0527263199892 -101.954664929
506.875 0.0791482325631 -89.87904236
507.5 0.0417527062642 -143.162308697
508.125 0.040542626328 -102.248539688
508.75 0.0596475579337 -124.024653967
509.375 0.0610195848209 -125.538287204
510.0 0.030650837763 -126.813888242
510.625 0.0249850035526 -168.478388001
511.25 0.0533427127197 -175.231374427
511.875 0.0615825756036 153.069009145
512.5 0.0350817785003 83.7137459912
513.125 0.04628978554 38.7750127666
513.75 0.0514670558073 38.8093279862
514.375 0.0456073912489 25.8501887927
515.0 0.0547246963708 7.9512742522
515.625 0.103393920298 54.8226705108
516.25 0.0893611591687 33.2344391011
516.875 0.123908595213 72.71377032
517.5 0.107225666931 18.4851944282
518.125 0.20115476518 73.5446262009
518.75 0.0937439781439 17.9291429081
519.375 0.0560320822229 12.1921552393
520.0 0.0881500451668 -1.2035464318
520.625 0.108189391525 -1.22286250102
521.25 0.0893842073448 -19.2893950741
521.875 0.0746107134429 4.28162252926
522.5 0.0953141214195 -31.6138950071
523.125 0.1812777469 -31.534253204
523.75 0.206881667543 -55.8698234955
524.375 0.21811045217 -44.6140634955
525.0 0.0679470104045 -42.9156667089
525.625 0.0344412842232 -44.5954443683
526.25 0.0572037434926 -1.96312585776
526.875 0.0398537165713 -35.409652435
527.5 0.0433439589964 -26.5553823999
528.125 0.0382612923372 -60.9393813338
528.75 0.0673139609258 -67.7053466292
529.375 0.0674585965712 -118.413801192
530.0 0.0350247512639 -133.195822956
530.625 0.0394010731927 -133.67907168
531.25 0.143356095189 -136.804051714
531.875 0.136123323284 -147.08072004
532.5 0.124439562089 -169.274032582
533.125 0.0938922363447 174.936778966
533.75 0.134946949425 169.93500632
534.375 0.0885191350821 177.985835094
535.0 0.0878112734344 164.831481437
535.625 0.0682832292256 178.807958958
536.25 0.0739486434514 166.477540159
536.875 0.0654871212698 -154.994377233
537.5 0.0880987516214 -139.861539753
538.125 0.103286182832 -170.365903673
538.75 0.115579906423 -176.881807771
539.375 0.056485345745 -163.238115271
540.0 0.0885883406863 -149.994798039
540.625 0.124110190919 -153.21900206
541.25 0.139767650342 -138.84483646
541.875 0.0885822258593 -139.59172342
542.5 0.105546603457 -137.392061661
543.125 0.127964395 -164.525650842
543.75 0.139696730606 162.199970107
544.375 0.0824947532408 134.594828494
545.0 0.0884739182357 94.0950861142
545.625 0.103797889022 86.1445985216
546.25 0.0901565664164 71.6091214122
546.875 0.0954271621007 56.9421272078
547.5 0.10632126377 62.2018191113
548.125 0.10751589983 81.4821231431
548.75 0.0980379992854 93.1345310988
549.375 0.0730629616359 88.6148171253
550.0 0.0820747968951 129.644861116
550.625 0.0456845568372 158.579891183
551.25 0.0422072076424 -134.251401204
551.875 0.0603392393058 -146.471730827
552.5 0.105392867236 -157.240541413
553.125 0.0873606266976 -164.112779382
553.75 0.0968673990653 -171.666052412
554.375 0.103547610541 172.188048356
555.0 0.121512983328 168.685423869
555.625 0.100417371662 159.424498854
556.25 0.0999206481251 165.672349573
556.875 0.126862466886 166.354643263
557.5 0.0995079464041 170.425905429
558.125 0.0864314266574 168.078614312
558.75 0.0805571275114 -178.131474362
559.375 0.052129373298 -168.789523619
560.0 0.041810474671 -138.915846157
560.625 0.0623933734811 -139.461358373
561.25 0.0926120151031 -148.664026164
561.875 0.101867097448 -158.735265965
562.5 0.0917382831731 176.175495503
563.125 0.104475111061 148.751807126
563.75 0.138137512229 131.541292237
564.375 0.0902899705772 126.664654778
565.0 0.0807631176376 124.034394796
565.625 0.0841662785647 119.453589202
566.25 0.0983805518528 156.273500989
566.875 0.0785197442495 -179.920419016
567.5 0.0673786349908 -171.880136641
568.125 0.0747042697847 -163.457606913
568.75 0.0608441045316 -140.545231096
569.375 0.0536028910115 -114.547523054
570.0 0.0611175189958 -94.5219991181
570.625 0.094016415896 -113.39891295
571.25 0.0910682859099 -116.356870541
571.875 0.091518968138 -129.171660951
572.5 0.11186928098 -150.520730518
573.125 0.133970657141 -168.470520385
573.75 0.0954390971095 165.950491417
574.375 0.0874181802466 148.142296173
575.0 0.106432383403 158.142904716
575.625 0.111170354062 157.59171458
576.25 0.0886080279154 147.140445624
576.875 0.0693038808815 136.605267234
577.5 0.082517815726 140.021367597
578.125 0.0604231041877 161.439477
578.75 0.0476560018103 168.129464556
579.375 0.0581875957275 158.893454865
580.0 0.0676847828173 -164.073260501
580.625 0.080335336802 -142.142091725
581.25 0.0922786163809 -161.918514765
581.875 0.117918372247 178.406685077
582.5 0.106870936296 -164.369690714
583.125 0.0916135578245 -162.867623493
583.75 0.0783339971709 -161.067553408
584.375 0.10649729693 -162.645017917
585.0 0.0894060965493 -138.51496883
585.625 0.0692089986705 -136.655477228
586.25 0.0677554356413 -130.90553524
586.875 0.0849007204309 -141.910727998
587.5 0.0673827458652 -130.000827483
588.125 0.0573802062766 -165.869186627
588.75 0.0635684320741 -152.452641532
589.375 0.08176703576 -160.162897077
590.0 0.0954920086227 -160.587531758
590.625 0.105471179811 168.835279051
591.25 0.116765182437 156.442523924
591.875 0.0933840468559 159.496716043
592.5 0.0623740988939 148.761425496
593.125 0.0623139785006 157.487642547
593.75 0.0602128740505 -178.679052665
594.375 0.0583868641981 -160.741599783
595.0 0.0499293509981 -96.2043813873
595.625 0.0599347542752 -96.8990568595
596.25 0.0721592984295 -85.2803616323
596.875 0.0693663966638 -67.5235104401
597.5 0.0591696461932 -61.0072456552
598.125 0.0736142057741 -53.0703491969
598.75 0.0820992761528 -59.3889626748
599.375 0.0811470005069 -71.6267106788
600.0 0.110913842429 -53.2843015372
600.625 0.101900311507 -55.1390863239
601.25 0.0797151488942 -69.4277350522
601.875 0.0670142813151 -97.7069015531
602.5 0.061921013695 -74.8186126283
603.125 0.0433189749992 -49.9725044519
603.75 0.0300350478477 -34.6307295993
604.375 0.0427923466941 -20.3311252599
605.0 0.0520397492004 -29.8143719028
605.625 0.0614538338336 17.5630568547
606.25 0.0369044316749 33.8848776164
606.875 0.0419914286347 54.956233588
607.5 0.0428948484993 39.168486984
608.125 0.0811714505591 37.7977347067
608.75 0.0577112250686 20.694532004
609.375 0.0669010760355 31.5940941995
610.0 0.0593588569854 34.6699782603
610.625 0.0757614859475 52.1430280441
611.25 0.0625568813087 48.5887556727
611.875 0.0386281019703 59.8407404512
612.5 0.00903100615239 18.538698776
613.125 0.0383927010069 130.462358604
613.75 0.0533140438624 127.32819403
614.375 0.0391193059461 121.954711552
615.0 0.0327342856173 118.84252359
615.625 0.0303725006837 140.341303103
616.25 0.052300609232 140.241640509
616.875 0.0442092995039 129.464259212
617.5 0.0262228645224 117.815283678
618.125 0.0385255223441 143.771580085
618.75 0.030860527883 148.979205512
619.375 0.0136871986613 137.679284106
620.0 0.0165378443093 -28.6641140235
620.625 0.0286573747417 -163.08776815
621.25 0.0460207760875 -114.201305399
621.875 0.065698113292 -101.310131442
622.5 0.0690539993846 -158.614337696
623.125 0.0650389015406 -179.486523197
623.75 0.0616229296661 168.10976664
624.375 0.0377216109892 -170.527892449
625.0 0.0397389211456 -147.15918965
625.625 0.0200230272231 -131.613613007
626.25 0.0428044835693 -175.302855602
626.875 0.0138289720177 170.327201426
627.5 0.0231755187907 -34.3650427929
628.125 0.0564163835236 -1.33998405799
628.75 0.0370787006454 -55.9235461331
629.375 0.0415522737711 -23.2830394059
630.0 0.0729873548706 -5.27441100402
630.625 0.0833479719815 23.4069652165
631.25 0.0677641431879 1.59250002358
631.875 0.0661477485788 -19.3977847925
632.5 0.0596291562815 -10.4357374254
633.125 0.0525026092964 32.8314513375
633.75 0.0458295318681 -5.74546709989
634.375 0.0413202237777 6.26560818341
635.0 0.0377453372853 35.9717731932
635.625 0.0359629001274 46.1324052262
636.25 0.0683256200934 51.6390214314
636.875 0.0573577995624 18.488843266
637.5 0.0410607883542 33.7047517691
638.125 0.035833497676 60.0485811615
638.75 0.101169263285 81.3077957264
639.375 0.0856648418155 83.6811829951
640.0 0.0662672257513 100.892090472
640.625 0.0554470931373 98.8059444387
641.25 0.0689229739224 130.259866495
641.875 0.0515658916703 129.534975756
642.5 0.0446976472541 154.040146013
643.125 0.0547326886192 161.994441911
643.75 0.0902375229035 -179.070330897
644.375 0.0552304727343 173.085245391
645.0 0.0659369457201 176.962295463
645.625 0.090550538785 162.909569751
646.25 0.105418208487 172.736035745
646.875 0.069363110271 179.312353798
647.5 0.0669502098066 -173.203913452
648.125 0.0908569060369 -171.951541037
648.75 0.0724320093173 -159.046652111
649.375 0.0551660869886 -139.63510523
650.0 0.0462804165663 -111.588618136
650.625 0.0585694504011 -84.1918163233
651.25 0.0700588513779 -60.0194395993
651.875 0.0772591359266 -40.1075103848
652.5 0.069180168763 -20.8083505643
653.125 0.104147896574 -0.160745182242
653.75 0.10910419978 8.21450112684
654.375 0.0990604551928 5.67146173762
655.0 0.106603417986 13.5426157454
655.625 0.0975110323774 32.9812406966
656.25 0.0581153039627 25.2400306567
656.875 0.079929991256 12.0703314478
657.5 0.0607392494664 20.2030936402
658.125 0.0569328250313 54.9627145009
658.75 0.0505132446022 66.3430534856
659.375 0.0988189736348 38.0850925136
660.0 0.103374235019 29.0105091801
660.625 0.107628739184 21.7843666769
661.25 0.102351466529 6.22028146613
661.875 0.125025815538 -9.59997101425
662.5 0.0985405368633 -21.8889078053
663.125 0.0933660473831 -13.314287358
663.75 0.0886369760657 5.89739161071
664.375 0.114346370383 58.323295206
665.0 0.0677784930825 97.8818328775
665.625 0.0685075299784 115.993037039
666.25 0.0905234309384 135.099697165
666.875 0.102128345727 177.357221698
667.5 0.0984260117329 -167.576662707
668.125 0.109230323957 -177.381410799
668.75 0.130057752592 170.915229303
669.375 0.139580960531 -179.580314275
670.0 0.0816978135063 -165.797396503
670.625 0.0883404349325 -167.34555065
671.25 0.107376273362 179.82650708
671.875 0.114697006876 171.292463833
672.5 0.0561147576719 163.474019537
673.125 0.0801835450838 160.506128382
673.75 0.116364306315 161.826685796
674.375 0.114298500657 173.450088382
675.0 0.115575944982 -171.994247457
675.625 0.129923118079 -146.248274914
676.25 0.12828542968 -123.604877761
676.875 0.11901445414 -118.988902937
677.5 0.124196032289 -126.039407789
678.125 0.117754000582 -109.616759632
678.75 0.0633880502734 -89.6454843202
679.375 0.0612353376524 -76.0034672472
680.0 0.0675150130063 -66.2637026754
680.625 0.115319144916 -67.9440334851
681.25 0.102629039434 -71.4683012727
681.875 0.104939439372 -92.4321917343
682.5 0.143538363132 -119.0834235
683.125 0.160716151641 -117.512405899
683.75 0.134038761807 -101.331608953
684.375 0.111669844599 -75.783287868
685.0 0.144790605263 -40.6661242937
685.625 0.115438909552 3.69237248036
686.25 0.0969466982859 27.1130448818
686.875 0.0750109060926 54.998300359
687.5 0.088188119778 81.1531432008
688.125 0.0751345605487 122.034630927
688.75 0.100921570097 120.612905934
689.375 0.132858247541 126.413772965
690.0 0.138268719285 134.789262548
690.625 0.112207787079 131.943635431
691.25 0.140693688978 102.556712328
691.875 0.195446518929 70.5527443152
692.5 0.140674664793 43.5325576592
693.125 0.095402687622 -15.2130648782
693.75 0.0846352394325 -25.0454966094
694.375 0.127970993369 -18.2551382687
695.0 0.117035137197 19.6472603257
695.625 0.105261079439 54.684973502
696.25 0.11144611777 121.523278049
696.875 0.141264876717 175.565312782
697.5 0.143522519564 -139.675940783
698.125 0.139363687055 -128.921394997
698.75 0.129385575409 -126.594503777
699.375 0.0983095412712 -117.309628292
700.0 0.0862621335577 -107.432947727
700.625 0.122024782547 -95.3838854886
701.25 0.0880785589868 -53.1217545282
701.875 0.080771821332 -52.8806171937
702.5 0.0997488927334 -77.6527672972
703.125 0.17464625309 -120.464008972
703.75 0.192610408039 -155.340439083
704.375 0.127147107303 174.91608706
705.0 0.108044953993 167.487552376
705.625 0.135396699631 -160.541871204
706.25 0.154461689134 -116.534748954
706.875 0.0781430236959 -46.924823601
707.5 0.0759179435741 -28.3424414801
708.125 0.0885064999309 27.0169115079
708.75 0.113758147741 59.5158932341
709.375 0.105792890636 119.955667245
710.0 0.10458417552 134.282057829
710.625 0.108495844593 155.654850863
711.25 0.119852916472 168.649206366
711.875 0.147372142266 178.192850042
712.5 0.144981923049 152.219924136
713.125 0.110986994978 106.631504819
713.75 0.104638447881 44.4352385687
714.375 0.109539087647 21.7114058628
715.0 0.107161969849 32.9212673298
715.625 0.0891429213492 57.2320513915
716.25 0.081904988363 84.0767985012
716.875 0.110132703649 94.8446657707
717.5 0.15145922764 165.736587202
718.125 0.118821876389 172.115133482
718.75 0.100502813577 174.76713596
719.375 0.122183441283 -165.963406383
720.0 0.128103901125 -135.131653591
720.625 0.111457007668 -71.0026651135
721.25 0.095301553839 -24.66343179
721.875 0.0835215867325 16.4300047426
722.5 0.0848163383609 101.089177266
723.125 0.0956512317521 89.4348617994
723.75 0.1083229427 51.7876622608
724.375 0.111472907595 -0.965013919094
725.0 0.093946855652 -39.9334810293
725.625 0.104989321284 -61.2439590839
726.25 0.128084206464 -54.1250247346
726.875 0.10389736868 -44.7868770614
727.5 0.0741537439078 -46.3047751756
728.125 0.105979249255 23.4744901767
728.75 0.0955659304831 31.7843219785
729.375 0.0765204305924 31.7875249966
730.0 0.0645327139075 4.82511082208
730.625 0.05140144581 11.3201557637
731.25 0.0772633793677 73.1421644738
731.875 0.0696498092897 114.736480421
732.5 0.0781582305475 155.215167304
733.125 0.059154138805 159.462835179
733.75 0.0778653983025 179.434424278
734.375 0.0412947613851 174.699070641
735.0 0.044900262808 140.850002436
735.625 0.0687813401074 163.289327361
736.25 0.0400029687068 153.1216591
736.875 0.0395150639441 174.899263918
737.5 0.0765675818299 179.658471647
738.125 0.0693358562155 -176.834408997
738.75 0.0785484335765 -168.873420191
739.375 0.054063267657 -168.451583692
740.0 0.0569613132084 -136.850608735
740.625 0.0204151162465 -115.926630601
741.25 0.0847134785983 -147.891559415
741.875 0.0485857305677 -108.509547996
742.5 0.0206313334961 7.38952759412
743.125 0.0209472254945 120.733146881
743.75 0.0697368203347 84.9961800254
744.375 0.0561314166045 105.545093087
745.0 0.0727375683346 120.517212956
745.625 0.070064108577 149.893054957
746.25 0.0957757537307 73.2117682946
746.875 0.066254200389 45.1631653233
747.5 0.0307990911265 29.130337518
748.125 0.0215014209056 -1.09235771069
748.75 0.0264497495499 62.2953670743
749.375 0.05559852763 -59.6253443289
750.0 0.038953555763 -108.907227323
