!Created with skrf (http://scikit-rf.org).
# GHz S RI R (50+0j) 
!freq	ReS11	ImS11	
500.0	-0.2358946852	-0.5396233814	
500.625	0.7609106938	-0.9977844375	
501.25	-0.6874580861	-0.6841590996	
501.875	-0.0832416575	-0.2345774418	
502.5	-0.005643897813	-0.2359005989	
503.125	-0.06018608747	0.04597638738	
503.75	-0.0587817133	0.06663592957	
504.375	0.04966396432	-0.0212280859	
505.0	0.01671554663	0.0342731208	
505.625	0.02337499199	-0.1016142346	
506.25	-0.1073339178	0.03038694534	
506.875	-0.1170154248	-0.2440325122	
507.5	-0.4625814981	-0.1719185349	
508.125	0.3062119382	-0.2672329839	
508.75	0.7738415997	-1.466909471	
509.375	-0.5972364037	-1.066459469	
510.0	-0.08463917645	-0.2212756939	
510.625	-0.2371686547	-0.3187804282	
511.25	-0.1017167742	0.01896013145	
511.875	-0.1216015844	-0.07447231031	
512.5	-0.001516376632	0.05697554338	
513.125	-0.001711492249	-0.02353264298	
513.75	-0.02528098242	-0.1259038216	
514.375	-0.1062409734	0.1142764537	
515.0	0.2771332667	-0.1676450301	
515.625	-0.3976179905	-0.3009719035	
516.25	0.3310957866	-0.3889265065	
516.875	-0.4190185787	-0.7392159443	
517.5	-0.1381112616	-0.03778999285	
518.125	0.04904923003	-0.07359666345	
518.75	-0.1880078209	-0.1352011872	
519.375	-0.07656649717	0.02490427021	
520.0	0.1152698436	0.1062079806	
520.625	0.1736494297	-0.1236426577	
521.25	-0.05671862747	-0.1314624312	
521.875	-0.1247462476	-0.07219827047	
522.5	-0.05621939367	0.1191806731	
523.125	-0.0505483098	-0.1180955938	
523.75	-0.2229703532	-0.0007526612676	
524.375	-0.01440704062	0.09502742762	
525.0	-0.1787956099	0.06551545147	
525.625	0.1356742046	0.1102973722	
526.25	-0.1009780385	-0.0520223282	
526.875	0.02122871835	0.04812501773	
527.5	-0.06851242951	0.06752407039	
528.125	-0.006712428879	0.379818491	
528.75	0.1698016371	0.2068566607	
529.375	0.08928554564	0.0971769222	
530.0	0.1703707732	0.2224061887	
530.625	0.1720154011	0.2898013675	
531.25	0.359097535	0.2259723705	
531.875	0.4333247564	-0.2067746605	
532.5	0.01349494808	0.003378606894	
533.125	0.04129121265	-0.2172370868	
533.75	0.09013369158	-0.01652975248	
534.375	0.09224719053	-0.4102434598	
535.0	-0.2758238356	-0.01466326697	
535.625	-0.1396067277	0.03374532899	
536.25	-0.01801581089	0.1316046961	
536.875	0.09721708702	-0.03424378458	
537.5	0.06975059786	0.005210013215	
538.125	0.145609163	-0.1110788405	
538.75	0.05962226375	-0.08699705913	
539.375	-0.05063833296	-0.1820210598	
540.0	-0.2460317167	-0.1430929258	
540.625	-0.1441760654	0.006440385097	
541.25	-0.09373442155	-0.04508891423	
541.875	-0.08344912559	0.02947639658	
542.5	0.0082457734	-0.09285037453	
543.125	-0.1467621546	-0.1007143947	
543.75	-0.01569269584	0.01738629271	
544.375	-0.1433781406	-0.03612363986	
545.0	0.04939437845	0.05690151116	
545.625	-0.007696045092	0.0900570457	
546.25	0.171859928	0.04098603342	
546.875	0.04869008055	-0.05542584428	
547.5	0.127942326	-0.1076456992	
548.125	-0.1003903128	-0.2145276625	
548.75	-0.08494460604	-0.06577408121	
549.375	-0.09320970996	-0.1365573518	
550.0	-0.09818109489	0.05432236434	
550.625	-0.03503107491	-0.03820432242	
551.25	-0.1024683344	0.06264556104	
551.875	-0.03879448142	0.0681204969	
552.5	-0.07418933406	0.08327695657	
553.125	0.00536867246	0.06930848396	
553.75	0.03530027491	0.05626570127	
554.375	0.1152808858	0.001013141722	
555.0	0.09504882648	-0.07304894816	
555.625	0.09373675886	-0.1106885283	
556.25	0.07095152562	-0.1511267538	
556.875	-0.04088664654	-0.1647609862	
557.5	-0.0992535924	-0.1050826166	
558.125	-0.1234648949	-0.04574748205	
558.75	-0.1186893428	0.001938879622	
559.375	-0.1034240006	0.01883208475	
560.0	-0.1139871076	0.07544801699	
560.625	-0.04112597976	0.1261529084	
561.25	-0.003999372129	0.07879911563	
561.875	0.0419073356	0.08483838645	
562.5	0.00288402901	0.02111617325	
563.125	0.08026783734	0.1149023625	
563.75	0.1438605952	-0.04212529472	
564.375	0.09836716662	-0.05365615794	
565.0	0.1137366442	-0.1868508053	
565.625	-0.07331297948	-0.1312793979	
566.25	-0.0664725902	-0.1312230966	
566.875	-0.2158918915	-0.1271849127	
567.5	-0.1072153514	-0.03366045068	
568.125	-0.1115176638	-0.2279619896	
568.75	-0.3155896775	-0.01419443458	
569.375	-0.1715245432	0.06239876095	
570.0	-0.2470006325	0.2342461492	
570.625	0.01420046096	0.2205069472	
571.25	-0.05239195499	0.03693217005	
571.875	0.1251925448	0.1448620059	
572.5	0.03847857822	-0.05110058833	
573.125	0.1760863219	-0.05384615924	
573.75	0.005347055871	-0.2253733105	
574.375	-0.02664334687	0.03477993038	
575.0	0.1024736223	-0.1090327439	
575.625	-0.0436719295	-0.02661622193	
576.25	0.1378895566	-0.08710798981	
576.875	-0.05054272511	-0.2433737247	
577.5	-0.05140988811	-0.08547283902	
578.125	0.04704963256	-0.1836206525	
578.75	-0.1918024742	-0.2205425875	
579.375	-0.06768802703	0.08185184098	
580.0	-0.02320135823	-0.1691232665	
580.625	-0.1090913659	0.07875611256	
581.25	-0.09837742869	-0.1062673551	
581.875	-0.02103983144	0.2728828928	
582.5	0.1663454824	0.02240828499	
583.125	-0.04338440693	0.0545159396	
583.75	0.1443952124	0.07324808004	
584.375	-0.04878109387	-0.01739357858	
585.0	0.2101564308	0.1564680363	
585.625	0.1632175926	-0.108319632	
586.25	0.1018734614	0.03028995566	
586.875	0.1571704905	-0.1961174875	
587.5	-0.08754464985	-0.08760455759	
588.125	0.07323622551	-0.1098779634	
588.75	0.02333272987	-0.2443263618	
589.375	-0.01693935872	-0.0993116133	
590.0	0.08302211307	-0.2264486413	
590.625	-0.2910825801	0.01290181106	
591.25	-0.04549041325	0.0755442707	
591.875	-0.1505030699	0.1105294504	
592.5	0.1664271385	0.09760262908	
593.125	-0.1567149704	0.007861969949	
593.75	0.1767315048	0.1363555878	
594.375	0.08027842749	0.03698562914	
595.0	0.263055301	0.2025971685	
595.625	0.2722324331	0.02000107532	
596.25	0.05690678814	0.02383173299	
596.875	0.2381666988	0.09472634593	
597.5	0.1430237407	-0.0004539754911	
598.125	0.06452322634	0.129025256	
598.75	0.2552493426	0.08797017635	
599.375	0.1532401119	-0.1093801945	
600.0	0.1866577814	-0.118539114	
600.625	0.188815908	-0.2505509157	
601.25	-0.032503341	-0.1955125053	
601.875	0.0151527126	-0.1285477214	
602.5	-0.2635976919	0.000771399039	
603.125	-0.01210394782	0.07360656335	
603.75	-0.1684498533	-0.003306971485	
604.375	-0.04820220181	0.2434689828	
605.0	-0.02199397476	-0.04273025694	
605.625	-0.1147054284	0.1986117099	
606.25	-0.00630309222	0.1090719789	
606.875	-0.2689273025	0.03713117805	
607.5	-0.2366937353	0.3018847845	
608.125	-0.01398505608	0.1886773282	
608.75	0.09096086749	0.2270889623	
609.375	0.2526366168	-0.04209210543	
610.0	0.0993730007	-0.1412710921	
610.625	0.07943023246	-0.1099397383	
611.25	-0.07037554297	-0.2482503263	
611.875	-0.07495005955	-0.04138904727	
612.5	-0.2138411799	-0.1783965565	
613.125	-0.2511758803	0.1703051632	
613.75	-0.04781620992	0.02983968117	
614.375	-0.003199453144	0.2210122314	
615.0	0.1177311144	-0.06091976356	
615.625	-0.1116606097	0.165235307	
616.25	0.04835282102	0.2453027473	
616.875	-0.02174960388	0.07601022861	
617.5	-0.1765130995	0.2307569664	
618.125	0.00813083487	0.1846322343	
618.75	0.01355789908	0.07670811218	
619.375	0.0608176567	0.2921990118	
620.0	0.2355127333	-0.06180580106	
620.625	-0.02862753704	-0.2103330096	
621.25	-0.07607020437	-0.2643583588	
621.875	-0.2582947786	0.01956686861	
622.5	-0.1415866568	-0.008391400277	
623.125	-0.1429908497	0.2255216586	
623.75	0.1793789338	-0.0352688405	
624.375	0.01972024734	0.04015591387	
625.0	0.07119718082	-0.1304740089	
625.625	0.02132225048	-0.007194876231	
626.25	-0.007804486645	-0.2019712796	
626.875	-0.2190367192	-0.04027116396	
627.5	-0.07401015222	-0.02857380439	
628.125	-0.1571941803	-0.1599641875	
628.75	-0.09853529634	-0.1370909822	
629.375	-0.0256572826	-0.1590224086	
630.0	-0.2737294662	-0.1411962343	
630.625	-0.15587759	0.1343535393	
631.25	-0.1718752529	0.1294312434	
631.875	-0.02891644055	0.3158669492	
632.5	0.2524889864	0.1631137117	
633.125	0.1506085545	0.1070597133	
633.75	0.3371901381	-0.04970505978	
634.375	-0.02801004732	-0.1219197822	
635.0	0.06732408655	-0.1822158238	
635.625	-0.2849627909	-0.07468876343	
636.25	-0.058757437	0.07328377878	
636.875	-0.1832799763	0.08262803098	
637.5	0.04172086494	0.1692475247	
638.125	-0.09771149275	-0.009833246292	
638.75	-0.1051423552	0.267881751	
639.375	0.1209526078	0.2214704737	
640.0	0.02769034808	0.2384721664	
640.625	0.3446796226	0.2180629292	
641.25	0.2587721104	-0.1229545179	
641.875	0.08219413395	-0.07245058126	
642.5	0.002304814119	-0.3524835964	
643.125	-0.2285053653	0.02120981741	
643.75	-0.09108928154	-0.1969550036	
644.375	-0.4438351805	0.1089176506	
645.0	-0.008654889956	0.09926013034	
645.625	-0.0603753424	0.3287293537	
646.25	0.2973839402	-0.0007550116737	
646.875	-0.1381690486	-0.01494883542	
647.5	0.2037444253	0.1076235543	
648.125	0.03701332004	-0.05291258574	
648.75	0.3535899641	0.13506679	
649.375	0.2590542657	-0.4664994036	
650.0	0.02723812716	-0.215556292	
650.625	0.3015515484	-0.2074750471	
651.25	0.2324362824	-0.4764898471	
651.875	0.06616042874	-0.103248703	
652.5	0.4191857087	0.03623192637	
653.125	0.2973387488	-0.2794893841	
653.75	0.05468020795	-0.1225817528	
654.375	0.1273479131	-0.4321725534	
655.0	-0.4132375839	0.005703399945	
655.625	-0.08177430593	0.07848039753	
656.25	-0.2113570356	0.2546030305	
656.875	0.274922934	0.0269733443	
657.5	-0.2295282863	0.1931281071	
658.125	0.3110778668	0.2147919781	
658.75	0.1891531253	-0.03956997356	
659.375	0.3620692206	0.007030362426	
660.0	0.2788454723	-0.5595162927	
660.625	-0.02060628368	-0.233439704	
661.25	0.2863738108	-0.2465989484	
661.875	0.2325457905	-0.3940772164	
662.5	0.06650055649	-0.1710053762	
663.125	0.3874218731	-0.09654283322	
663.75	0.09774593903	-0.4226166308	
664.375	-0.03777876685	-0.2188995738	
665.0	-0.2526916959	-0.3315340323	
665.625	-0.3600883822	0.2105735185	
666.25	-0.06251551053	0.162144067	
666.875	0.02887793384	0.3407515767	
667.5	0.2662417535	0.01245828829	
668.125	0.1259074031	0.05347858099	
668.75	0.365571524	-0.1848219113	
669.375	-0.06546675617	-0.2456064236	
670.0	0.1000569287	-0.1388992334	
670.625	0.03756981642	-0.3193429806	
671.25	-0.1099542329	-0.06926007698	
671.875	0.2701914425	-0.08788180039	
672.5	0.1284106499	-0.3140674571	
673.125	0.1064881336	-0.1440143425	
673.75	0.2596311162	-0.1572806083	
674.375	-0.03847860508	-0.4195573565	
675.0	-0.08599652446	-0.0934666944	
675.625	-0.1463007572	-0.2575110007	
676.25	-0.2918917566	0.03471625578	
676.875	-0.0184172818	0.01260784491	
677.5	-0.2925363274	-0.04994988129	
678.125	-0.03444380165	0.2473538871	
678.75	-0.05234959961	0.09624939134	
679.375	0.2895816721	0.2219053727	
680.0	0.07529982249	-0.3511552115	
680.625	0.03498791425	0.1278407496	
681.25	0.2269498515	-0.0931194533	
681.875	0.01737088711	-0.0643604893	
682.5	0.2240653221	0.4069428404	
683.125	0.4356466689	-0.1181643062	
683.75	0.04566000648	-0.00441085352	
684.375	0.413808828	0.1366350935	
685.0	0.4506301495	-0.06214373878	
685.625	0.1137492979	0.0782580192	
686.25	0.5250332884	0.1042568024	
686.875	0.2104026915	-0.2923654272	
687.5	0.2311128775	-0.1279633206	
688.125	0.0004924805899	-0.5670693218	
688.75	-0.5513268937	-0.00968356789	
689.375	-0.2573334258	0.1102390166	
690.0	0.06899907513	0.5596961633	
690.625	0.3727510883	0.09692231327	
691.25	0.101065883	0.3699883636	
691.875	0.7007264847	0.3889012691	
692.5	0.4435580218	0.01266407876	
693.125	0.6698390778	0.2179097067	
693.75	0.7072664287	-0.559106264	
694.375	0.1714986909	-0.4281364757	
695.0	0.6182650989	-0.07974901012	
695.625	0.6433634749	-0.2268152223	
696.25	0.4188428774	0.2767318246	
696.875	0.2618195035	0.5561677286	
697.5	0.6663605324	0.4648415638	
698.125	0.6050885772	0.2390986807	
698.75	0.4121800534	-0.3702182741	
699.375	-0.5380484074	-0.4426208314	
700.0	-0.1162131923	0.3323860202	
700.625	-0.07109032325	0.4268881517	
701.25	0.4435711042	0.1847596133	
701.875	0.1136890886	0.1793795992	
702.5	0.3776822231	0.4110051436	
703.125	0.5355684021	-0.03655341286	
703.75	0.2444641832	0.01024259726	
704.375	0.4417198226	-0.1826690324	
705.0	0.1771858156	-0.282758235	
705.625	0.1570682232	0.122454937	
706.25	0.417093691	0.3095618457	
706.875	0.1760481937	0.4024228319	
707.5	0.1633481053	0.4096698052	
708.125	0.6107182839	0.1793767454	
708.75	0.1014836785	-0.4302657282	
709.375	-0.2896733815	0.005204807941	
710.0	-0.2850901587	0.3151712715	
710.625	0.1303849228	0.04569059726	
711.25	0.01230653489	0.2425329195	
711.875	0.4961372988	0.05290887156	
712.5	0.1673064827	0.01684738403	
713.125	0.4005024148	-0.117033402	
713.75	0.08857435052	-0.3543354012	
714.375	-0.0146750175	-0.1159856851	
715.0	0.08318673646	-0.3040917146	
715.625	-0.1219876018	-0.2325157763	
716.25	0.1649840758	-0.1200975534	
716.875	0.530863459	-0.2225410515	
717.5	0.5212474335	-0.1341346157	
718.125	0.5343516688	0.3022418047	
718.75	1.122431833	-0.1926448875	
719.375	0.6489831335	-0.6423543055	
720.0	0.6049101385	-0.4276579929	
720.625	0.4014137411	-1.610337096	
721.25	-0.1208210336	-0.5181660275	
721.875	0.04767417813	-1.18019651	
722.5	-1.036738856	-1.208284835	
723.125	-0.6464745571	0.09960720108	
723.75	-0.6478551713	0.2811351418	
724.375	0.1990207391	0.6695787021	
725.0	0.08469754189	0.1063442827	
725.625	0.02437098534	0.6387600986	
726.25	0.2870332053	0.8063151523	
726.875	-0.01385530042	0.5469916462	
727.5	-0.5482511631	1.580788433	
728.125	0.4273874602	2.518789717	
728.75	0.1061301069	1.578377268	
729.375	-2.357367571	3.926850184	
730.0	1.614389151	4.661576897	
730.625	0.1765425838	2.120173334	
731.25	-2.510544238	4.665759181	
731.875	-0.8135018172	4.117506473	
732.5	-1.176802532	-0.08035752322	
733.125	-3.216131995	0.4595072358	
733.75	-0.2490478903	1.786911113	
734.375	0.3977359223	0.4234024011	
735.0	0.2332161495	-1.020126567	
735.625	-0.1548909774	0.6288075298	
736.25	-0.3326587302	0.3650040317	
736.875	0.6030494411	0.8315525311	
737.5	0.9171672767	-0.3539750301	
738.125	1.086825059	0.5831639973	
738.75	2.845345819	-1.829554137	
739.375	0.7962780515	-2.56727506	
740.0	1.460975292	1.179837623	
740.625	6.868534882	0.07498101825	
741.25	2.330394915	-4.114499305	
741.875	-7.509747554	-3.134802656	
742.5	-3.424695645	-1.385135627	
743.125	0.3165604082	-0.473101597	
743.75	0.9552373661	-1.37982234	
744.375	-0.6964159602	0.09050028783	
745.0	0.008854613876	-0.0694615272	
745.625	0.1576623105	-0.02847340416	
746.25	-0.06951372171	0.07598111364	
746.875	-0.2783209751	-0.1040822428	
747.5	-0.08513114646	0.4250067141	
748.125	0.1257486215	0.3382056961	
748.75	0.1229241437	0.5126825126	
749.375	0.2593139446	0.573483723	
750.0	-0.178656424	0.2087753445	
