!Created with skrf (http://scikit-rf.org).
# GHz S RI R (50+0j) 
!freq	ReS11	ImS11	
500.0	-0.1179832268	-1.516743457	
500.625	0.121825483	-0.4412335943	
501.25	-0.396723163	-1.208436094	
501.875	-0.4821180816	-0.2364574024	
502.5	0.03669309338	-0.1193873751	
503.125	-0.1181665622	0.0178579973	
503.75	0.0337975149	0.03305908659	
504.375	0.06369019285	0.02104503135	
505.0	-0.01284946053	-0.04469611567	
505.625	0.04986673178	-0.02314990229	
506.25	-0.1528145709	-0.1040566688	
506.875	0.1210636876	-0.1409595756	
507.5	-0.1653909699	-0.7145637664	
508.125	-0.1765940011	-0.2925989831	
508.75	0.9803091743	-0.5858963583	
509.375	-0.426908006	-1.609718156	
510.0	-0.4531168318	0.01113020469	
510.625	0.007251954573	-0.2315754166	
511.25	-0.1800811141	-0.01232158162	
511.875	-0.07977259279	-0.01446845669	
512.5	-0.05742749351	0.04940058853	
513.125	-0.03534803284	-0.06969635156	
513.75	0.01200223902	-0.02861795916	
514.375	-0.1340975426	-0.08037720275	
515.0	0.1210296984	0.2357241205	
515.625	-0.2797826657	-0.8236354887	
516.25	-0.2736313992	0.01325819092	
516.875	0.184068822	-0.4915631513	
517.5	-0.1326606834	-0.2878940956	
518.125	0.04053824513	0.01859330899	
518.75	-0.1381218285	-0.1641166797	
519.375	-0.03330798346	0.05426997786	
520.0	0.05354719816	0.06585322267	
520.625	0.2187240531	-0.0375301142	
521.25	-0.04140035981	-0.2479349364	
521.875	-0.04168788768	-0.01582809923	
522.5	-0.1333657579	-0.002083566857	
523.125	0.04719736692	0.07554634229	
523.75	-0.1107686047	-0.1346137636	
524.375	-0.2198773436	0.1839535698	
525.0	0.009744285404	-0.00221323556	
525.625	-0.033235103	0.1207199416	
526.25	-0.00782332883	-0.125471472	
526.875	-0.1074781894	0.1216017724	
527.5	0.07282818869	0.1585126024	
528.125	-0.07520861268	0.1757910373	
528.75	0.09938201977	0.2831117221	
529.375	0.05005498238	-0.01367897718	
530.0	0.05216268265	0.1653170447	
530.625	0.2280131193	0.2560325655	
531.25	0.3140494888	0.03805448337	
531.875	0.358171721	-0.1817206669	
532.5	-0.1761830406	-0.1451764132	
533.125	0.2248185328	-0.07256981633	
533.75	0.008864474279	-0.3371494543	
534.375	0.01912539161	-0.2158263295	
535.0	-0.3291580031	-0.1624993288	
535.625	-0.09759392639	0.147315325	
536.25	-0.03128974527	0.06697122432	
536.875	0.1361095905	0.02345002894	
537.5	0.02222278261	-0.05218954203	
538.125	0.1719122044	-0.01050711526	
538.75	0.1043445753	-0.162195235	
539.375	-0.03039645269	-0.1219868335	
540.0	-0.1594525689	-0.235322183	
540.625	-0.2000341601	0.03491389688	
541.25	-0.04116415433	0.01797768987	
541.875	-0.09794879617	-0.04504327615	
542.5	-0.09026957268	0.007998997482	
543.125	-0.08726866803	-0.1148977464	
543.75	-0.2055382536	0.03993374501	
544.375	-0.01892961131	-0.008173757736	
545.0	0.003042098222	0.113112193	
545.625	0.04845709115	-0.003864879032	
546.25	0.06605860391	0.1197251229	
546.875	0.1418803616	-0.08807071803	
547.5	0.05039809972	-0.06733619539	
548.125	-0.006240392234	-0.2129456461	
548.75	-0.1981594627	-0.09452392976	
549.375	-0.05434511556	-0.0474875748	
550.0	-0.125852806	-0.01118135677	
550.625	-0.01306035819	0.02836900148	
551.25	-0.1053668361	-0.002586081979	
551.875	-0.06070130993	0.1030321105	
552.5	-0.04337291285	0.04737933023	
553.125	-0.01890371469	0.08468383832	
553.75	0.05545941503	0.03125584739	
554.375	0.09764956142	0.008669821418	
555.0	0.10117523	-0.08078039909	
555.625	0.08161880222	-0.10953413	
556.25	0.07256813307	-0.1421077369	
556.875	-0.03793717443	-0.1692048398	
557.5	-0.1055584328	-0.1067774712	
558.125	-0.1145064218	-0.04270245564	
558.75	-0.1215040125	-0.008766861652	
559.375	-0.1143463696	0.03114187953	
560.0	-0.09741648075	0.0663241436	
560.625	-0.07115131296	0.1251141326	
561.25	0.04087700619	0.09709322848	
561.875	-0.00420342767	0.0500375384	
562.5	0.04825712086	0.05410808615	
563.125	0.03238438201	0.07878629441	
563.75	0.192281174	0.01479619009	
564.375	0.09364696819	-0.1221693004	
565.0	0.1056092754	-0.1074056126	
565.625	-0.04907906047	-0.2150179751	
566.25	-0.1256756264	-0.03872723316	
566.875	-0.1159488603	-0.1333060398	
567.5	-0.2116063987	-0.1074860316	
568.125	-0.06183664434	-0.06322829775	
568.75	-0.2677246175	-0.1461793837	
569.375	-0.2000063461	0.2188679995	
570.0	-0.1116718276	0.1031425388	
570.625	-0.1361415004	0.2678760992	
571.25	0.1036781562	0.07340525281	
571.875	-0.01546424284	0.1433623527	
572.5	0.1938784484	-0.07355578323	
573.125	0.001796190126	-0.02015786254	
573.75	0.1508335161	-0.1210089204	
574.375	-0.0809917511	-0.1218435902	
575.0	0.081788737	0.04151384571	
575.625	0.005226726335	-0.1725471533	
576.25	-0.004598644854	-0.0321075719	
576.875	0.08511449943	-0.1802896693	
577.5	-0.07566908344	-0.2157910012	
578.125	-0.05241662366	-0.05730497754	
578.75	0.01505127877	-0.1921611444	
579.375	-0.2021373459	-0.07398049329	
580.0	0.06256441567	0.03919035372	
580.625	-0.2295580035	-0.09964442113	
581.25	0.02626948763	0.1184289945	
581.875	-0.1820082814	0.1094928997	
582.5	0.1058673001	0.2835211495	
583.125	0.122360706	-0.03696507235	
583.75	-0.03694682719	0.1042401077	
584.375	0.1145929387	-0.0495243219	
585.0	-0.002289386994	0.0946115679	
585.625	0.2776993886	0.006089527238	
586.25	0.08580159613	-0.1406943247	
586.875	0.1574883201	-0.06142374406	
587.5	-0.03388636216	-0.2418796156	
588.125	-0.07450994474	-0.05509908583	
588.75	0.1288074886	-0.1371110789	
589.375	0.02563196278	-0.257189383	
590.0	-0.05097631957	-0.07214686282	
590.625	-0.2019860461	-0.1456444925	
591.25	-0.1175230273	0.2257592165	
591.875	-0.001415584425	-0.01832982619	
592.5	-0.05862083306	0.1429218136	
593.125	0.02863301914	-0.02955816708	
593.75	-0.004195673849	0.2203955033	
594.375	0.204677703	-0.07351054133	
595.0	0.05878686984	0.07974408222	
595.625	0.2026383982	0.1743779595	
596.25	0.1972004547	-0.04855740994	
596.875	0.08458107876	0.1044532687	
597.5	0.2354276215	0.1286611048	
598.125	0.1499135824	0.02161393316	
598.75	0.1379217029	0.1486568627	
599.375	0.2242618439	-0.08772427467	
600.0	0.081227698	-0.1485656643	
600.625	0.176820353	-0.1320009886	
601.25	0.06861783396	-0.2847813948	
601.875	-0.1511018715	-0.06797344657	
602.5	-0.08233682609	-0.1202906219	
603.125	-0.159855893	0.1417748945	
603.75	-0.004144528188	-0.002224757847	
604.375	-0.2076740464	0.04770069066	
605.0	0.04195777613	0.1630546145	
605.625	-0.09996654661	-0.07939283771	
606.25	-0.1217154961	0.1936823743	
606.875	-0.05218569169	0.09760096485	
607.5	-0.2384050798	0.2920848432	
608.125	0.02708852267	0.3420177549	
608.75	0.1377804411	0.110204078	
609.375	0.2542315726	0.02537670259	
610.0	0.201374105	-0.174632762	
610.625	0.01477983417	-0.1105294986	
611.25	0.07242373391	-0.1547012395	
611.875	-0.1939126265	-0.09181690116	
612.5	-0.06281016851	0.01889673545	
613.125	-0.2948396341	-0.01178857953	
613.75	0.007201411179	0.2320060426	
614.375	-0.05704570078	0.01341244668	
615.0	0.1453701823	0.1387971304	
615.625	0.009456663806	-0.04102184249	
616.25	-0.1641620739	0.1893331558	
616.875	0.04452880611	0.2213145668	
617.5	-0.1382251783	0.1705375467	
618.125	-0.08147787492	0.2941100559	
618.75	0.1361798369	0.2203500112	
619.375	0.07892269015	0.1319621672	
620.0	0.1095202963	0.05830597547	
620.625	0.0577823385	-0.1887357817	
621.25	-0.02238776294	-0.1549498245	
621.875	-0.2457242468	-0.154511578	
622.5	-0.2808510373	0.1788396872	
623.125	-0.06945532332	0.09766308822	
623.75	0.2003088249	0.1125155603	
624.375	-0.0299127681	-0.1206554826	
625.0	0.1191233847	0.02797535026	
625.625	-0.01704996197	-0.1571643856	
626.25	0.008376601962	-0.06452272278	
626.875	-0.1646149993	-0.1634084015	
627.5	-0.1891000187	0.0386107328	
628.125	-0.06101596583	-0.06031728189	
628.75	-0.1296473904	-0.1996028351	
629.375	-0.1107832909	-0.08996935024	
630.0	-0.1420239909	-0.1562849639	
630.625	-0.2768806588	-0.01182450973	
631.25	-0.08223278083	0.2089300551	
631.875	-0.0350429491	0.1592763924	
632.5	0.2037124404	0.2549852098	
633.125	0.2694326362	-0.09973376249	
633.75	0.1455744944	0.003273506083	
634.375	0.06855107866	-0.2371872208	
635.0	-0.07531358054	-0.03903708604	
635.625	-0.1234856709	-0.2122283419	
636.25	-0.1798908981	0.1827313552	
636.875	-0.0009018867154	0.05826458154	
637.5	-0.1455502269	0.124166429	
638.125	0.04564429811	0.1047655038	
638.75	-0.1561531679	0.05910916031	
639.375	0.01308391376	0.3691441895	
640.0	0.2035723005	0.1466449778	
640.625	0.1361128618	0.2164264482	
641.25	0.3880091925	0.02637558111	
641.875	0.08377709756	-0.2250661391	
642.5	0.05615255727	-0.1106511425	
643.125	-0.2250688536	-0.2121965544	
643.75	-0.1087072524	0.1995050082	
644.375	-0.2028796635	-0.1368465678	
645.0	-0.1494048446	0.3348667606	
645.625	0.0448710319	0.08111810225	
646.25	0.08238382466	0.3585170838	
646.875	0.1904217284	-0.1855777357	
647.5	-0.04140192206	0.1506616124	
648.125	0.3228273116	-0.02823867637	
648.75	0.09169238827	-0.09694358229	
649.375	0.3834708866	-0.1327264971	
650.0	0.1279868788	-0.4956059596	
650.625	-0.0159933531	-0.1470925977	
651.25	0.3686920892	-0.1618607843	
651.875	0.2736742165	-0.3725347047	
652.5	0.1019041419	-0.04519471633	
653.125	0.4227586876	-0.01070080239	
653.75	0.1427330155	-0.3866632025	
654.375	-0.03798051439	-0.160656134	
655.0	-0.3492925552	-0.2587882066	
655.625	-0.1457215255	0.3826886938	
656.25	0.03691196993	-0.001480297781	
656.875	0.009132646133	0.2489621157	
657.5	0.1354389274	-0.08208381519	
658.125	0.01540184603	0.31862631	
658.75	0.4505144817	0.02226339254	
659.375	0.08676968737	-0.1209257112	
660.0	0.3478001982	-0.1603251652	
660.625	0.1661451544	-0.5035799017	
661.25	0.0046291254	-0.2153756871	
661.875	0.3924561628	-0.1828623259	
662.5	0.283489613	-0.3420113474	
663.125	0.1237610177	-0.1472634549	
663.75	0.3082467712	-0.264235699	
664.375	-0.2048836913	-0.3729141884	
665.0	-0.1640028398	-0.1455057644	
665.625	-0.4096507342	0.001907372047	
666.25	-0.05683441583	0.3959002075	
666.875	0.06098635935	0.09363994712	
667.5	0.22910672	0.2134196738	
668.125	0.2346972811	-0.1593886914	
668.75	0.1235621237	0.01723135195	
669.375	0.2313797005	-0.353062711	
670.0	-0.1455857856	-0.1775078629	
670.625	0.2026217932	-0.1408069879	
671.25	0.07433233262	-0.3000402309	
671.875	-0.02433271445	-0.07428920213	
672.5	0.3328289248	-0.02310277165	
673.125	0.1704203247	-0.3502591142	
673.75	0.09574832561	-0.1240473101	
674.375	0.1658825639	-0.2529623803	
675.0	-0.1819431429	-0.3410990961	
675.625	-0.05694674804	-0.0162876421	
676.25	-0.2565324551	-0.1540587432	
676.875	-0.2043124803	0.1230322208	
677.5	-0.03859079921	-0.03690078401	
678.125	-0.2986723565	0.1677131576	
678.75	0.1829958071	0.2223153928	
679.375	0.007809739189	0.05490625367	
680.0	0.3329406228	-0.01105380897	
680.625	-0.0522246959	-0.2381119046	
681.25	0.08286643777	0.2426635179	
681.875	0.3813255754	-0.1707972653	
682.5	0.06404247705	-0.02395478244	
683.125	0.2155674106	0.3190220094	
683.75	0.4731558528	-0.2159489241	
684.375	0.01985335299	-0.03735519538	
685.0	0.5356164467	0.04546299307	
685.625	0.3444899955	-0.1364010396	
686.25	0.1105927538	-0.004224103198	
686.875	0.557153361	-0.04286590541	
687.5	0.1208420816	-0.2479766944	
688.125	0.1061114177	-0.3225132985	
688.75	-0.4965821136	-0.3616432087	
689.375	-0.2010380265	0.4899224415	
690.0	-0.01798522897	0.2290302776	
690.625	0.3613738423	0.44061754	
691.25	0.3357260698	0.08812477697	
691.875	0.2317329332	0.4708291242	
692.5	0.9570322087	0.2273083306	
693.125	0.4145424546	-0.1841218271	
693.75	0.6667473489	-0.0004695698871	
694.375	0.5073540821	-0.663695873	
695.0	0.2361434224	-0.3907987379	
695.625	0.7775402289	0.04261094089	
696.25	0.6977423282	0.0005173655632	
696.875	0.2828378519	0.2478476815	
697.5	0.4631426475	0.4626272715	
698.125	0.7126517381	0.2234321202	
698.75	0.2512776716	-0.3384822225	
699.375	-0.2705577755	-0.5582312672	
700.0	-0.316680061	0.4997188429	
700.625	0.2996529925	0.2014272134	
701.25	0.1579950597	0.3700593897	
701.875	0.4484341415	0.118376713	
702.5	0.1731328506	0.1999443297	
703.125	0.5018749389	0.2807741358	
703.75	0.4248186089	-0.2713523193	
704.375	0.1334343196	-0.06881240646	
705.0	0.3985845795	-0.1996625578	
705.625	0.2479758171	-0.1618393185	
706.25	0.3222320218	0.2950136893	
706.875	0.3781242766	0.3981530695	
707.5	0.3331196432	0.1387757316	
708.125	0.3639333037	0.2805729258	
708.75	0.3093476555	-0.2125708917	
709.375	-0.3171426017	-0.2477852185	
710.0	-0.1957968639	0.01382164025	
710.625	-0.09605019963	0.3098522093	
711.25	0.1927920902	-0.1133473198	
711.875	0.1670029223	0.2437367388	
712.5	0.4047658879	-0.1233149937	
713.125	0.1353658478	-0.09722342406	
713.75	0.305604146	-0.2181765298	
714.375	-0.07767608229	-0.3148137469	
715.0	-0.001301973643	-0.08014189314	
715.625	0.1072799909	-0.3116145881	
716.25	0.0006572643997	-0.3126016474	
716.875	0.2532689256	-0.10352148	
717.5	0.7152283466	0.02204054555	
718.125	0.6217015586	-0.2827396829	
718.75	0.6062369343	0.1590631988	
719.375	1.008312055	-0.3701480926	
720.0	0.2163827755	-1.136648432	
720.625	0.4932633066	-0.6931078593	
721.25	0.03831404452	-1.416718587	
721.875	-1.133676297	-0.5075832165	
722.5	-0.2812909143	-0.8844017314	
723.125	-1.06087598	-0.1544776897	
723.75	-0.2002020477	0.4468221052	
724.375	-0.3213323587	0.3283133657	
725.0	0.3999098508	0.5023691778	
725.625	0.09612608131	0.216189284	
726.25	-0.19451672	0.8099177019	
726.875	0.1524645402	1.166536114	
727.5	0.1410107475	0.905672105	
728.125	-0.7283306896	2.179307131	
728.75	0.7662201203	3.042115627	
729.375	-0.08621235148	1.997096158	
730.0	-2.303252087	4.188670117	
730.625	1.768279239	4.97415672	
731.25	-0.9228142524	1.954926028	
731.875	-4.150366302	1.2917295	
732.5	-3.324257707	2.358318853	
733.125	-0.06490308682	0.3916113989	
733.75	-1.570900065	1.444511022	
734.375	1.151430795	0.06999669861	
735.0	0.05368667884	-0.1243309526	
735.625	-0.7964791685	-0.1404512904	
736.25	0.3479817788	0.4753503312	
736.875	-0.2204761174	0.6336702252	
737.5	1.6730361	0.3703810439	
738.125	1.101144741	-0.9317315577	
738.75	1.16576406	0.04526420406	
739.375	5.097685717	-1.846533796	
740.0	0.7757786922	-3.325862808	
740.625	-0.111091185	2.809864659	
741.25	2.091465743	6.841618783	
741.875	1.084633676	0.1296720939	
742.5	0.8398869484	-3.995530122	
743.125	-0.9330810323	-2.980882753	
743.75	-0.3883205996	-0.4334461054	
744.375	-0.412444816	-0.4880744118	
745.0	0.2256068072	0.1921476224	
745.625	-0.03698493451	0.1725702136	
746.25	-0.05588523574	-0.2503017871	
746.875	-0.1459030882	0.0493637959	
747.5	-0.2623152361	0.2822351836	
748.125	0.2016649544	0.6676702377	
748.75	0.2509521946	0.2619827213	
749.375	-0.04589210795	0.5004725542	
750.0	-0.4556116357	0.3185200315	
