!Created with skrf (http://scikit-rf.org).
# GHz S MA R 50.0 
!freq magS11 angS11
500.0 0.0134664908292 148.647578262
500.625 0.0116041700309 94.9339784914
501.25 0.00847815924441 -59.2941414311
501.875 0.0369392292936 -173.766922815
502.5 0.00933096827154 140.455864915
503.125 0.0124083294635 31.8323349773
503.75 0.0180872527941 132.591754766
504.375 0.0058981949203 171.266520335
505.0 0.0129043318002 -84.4041262894
505.625 0.0431332503765 -79.6953838761
506.25 0.0444284192334 -105.195339969
506.875 0.0530837938834 -107.464121825
507.5 0.0425621827855 -122.267416843
508.125 0.0682112419674 -79.5665566057
508.75 0.0560920012288 -147.150780964
509.375 0.044868817163 -155.067433677
510.0 0.0335628456913 -113.340628879
510.625 0.056486756456 -154.178460452
511.25 0.0443820964934 168.586881154
511.875 0.0478901965936 145.71648523
512.5 0.0390297135886 96.7515735017
513.125 0.0647390890614 59.5601088611
513.75 0.0495110261511 24.761718855
514.375 0.0492067666489 33.150794203
515.0 0.0576745840785 11.8216634038
515.625 0.0872827925898 50.1874158807
516.25 0.0882280484068 30.1634800993
516.875 0.11267129256 72.9543320978
517.5 0.117387878412 23.6994974812
518.125 0.213166473151 76.931733508
518.75 0.0779154748945 9.92226967979
519.375 0.0689144936018 16.6690920252
520.0 0.113231662506 1.12046590248
520.625 0.104094186518 -5.27485946371
521.25 0.0837157953186 -22.3430383465
521.875 0.0677241443808 4.05749525102
522.5 0.0951784850823 -30.6902629866
523.125 0.186951821115 -29.7204324322
523.75 0.200869526919 -60.657415879
524.375 0.191575296501 -55.0690840329
525.0 0.0703426956952 -38.9790542278
525.625 0.031982478269 -64.5579930208
526.25 0.0374826238832 -13.3770288072
526.875 0.0463647926837 -24.8132743664
527.5 0.0542032590287 -21.4342706662
528.125 0.0326192520576 -63.8379896413
528.75 0.0641185228692 -69.5345065466
529.375 0.0812593409169 -111.241970907
530.0 0.0574701078286 -121.987293514
530.625 0.0273652883418 -122.362293055
531.25 0.106120924091 -126.806803696
531.875 0.15572093705 -146.724176921
532.5 0.157164575483 -167.953893567
533.125 0.0854401189079 176.155119345
533.75 0.109618421404 172.199828689
534.375 0.104577023331 179.627994988
535.0 0.0902572674705 166.15634847
535.625 0.0616169682867 179.641701436
536.25 0.0510199006462 167.999070693
536.875 0.0775862704358 -154.580641563
537.5 0.107985928828 -143.232082551
538.125 0.0890351180158 -170.468645684
538.75 0.0922631522466 -178.653943915
539.375 0.0670854732705 -162.743457898
540.0 0.105282764044 -154.488098066
540.625 0.103537832909 -149.899023643
541.25 0.11249994318 -136.81952971
541.875 0.0986519054075 -140.224464137
542.5 0.119376091647 -141.844526072
543.125 0.11638927076 -163.237587231
543.75 0.116859148723 161.661240393
544.375 0.0903765877222 136.52405824
545.0 0.0908930920128 95.2012921617
545.625 0.095139373362 88.3099101984
546.25 0.0872249768032 71.2699732259
546.875 0.0909916062441 58.5056559282
547.5 0.121112210056 60.8100872179
548.125 0.0892804108411 79.3197277162
548.75 0.075928097799 93.6173269102
549.375 0.0871868270234 87.8732334366
550.0 0.091131828716 130.840400113
550.625 0.0411695475399 164.521066468
551.25 0.0421620628117 -134.004155545
551.875 0.064573973155 -154.658696662
552.5 0.121877973009 -164.004062507
553.125 0.0812702263201 -158.708730644
553.75 0.0892233585791 -164.714839623
554.375 0.108627067804 168.551363718
555.0 0.131271451117 165.219938927
555.625 0.0995633873712 160.061618948
556.25 0.0955958836993 167.044771112
556.875 0.116719410973 169.597375872
557.5 0.109768788291 169.805808247
558.125 0.102438585432 166.039085249
558.75 0.0782588874244 -178.004347968
559.375 0.0601554592897 -170.142161876
560.0 0.0499844469627 -145.971767022
560.625 0.0602287725376 -134.858628821
561.25 0.0898716866942 -146.588659577
561.875 0.108304266864 -161.416303301
562.5 0.0938381851183 176.3324534
563.125 0.101263199685 151.509834551
563.75 0.125584273075 136.24588596
564.375 0.0964112393889 123.497009548
565.0 0.0913757391453 120.948025535
565.625 0.0786748417138 122.123874032
566.25 0.091885476762 159.006624364
566.875 0.0758669600603 -176.933044726
567.5 0.0736165612274 -173.613263092
568.125 0.0861274504132 -169.368221411
568.75 0.0535499113559 -131.27718104
569.375 0.0473437243477 -96.9907903558
570.0 0.0605569109311 -102.039087181
570.625 0.0960302017407 -116.516119903
571.25 0.090352561107 -115.229149913
571.875 0.0886121608041 -120.149597278
572.5 0.114634838338 -153.452285049
573.125 0.145720930602 -173.978316507
573.75 0.0894313120797 170.069199665
574.375 0.0821227901705 153.694144301
575.0 0.106330554159 158.177313926
575.625 0.113002672585 155.726980411
576.25 0.0870503452838 149.543976387
576.875 0.0728221255141 128.996428148
577.5 0.0848143959293 139.983640507
578.125 0.0571743236496 165.545296665
578.75 0.0466604196397 170.760465908
579.375 0.0564205196994 167.66512725
580.0 0.0694913082891 -170.469946055
580.625 0.0801831791167 -151.826606514
581.25 0.0925715671192 -156.514695458
581.875 0.116301320462 -169.042899185
582.5 0.109898932109 -169.187257905
583.125 0.0961022054899 -170.829037246
583.75 0.0785671353784 -154.089513514
584.375 0.10251470811 -151.139574638
585.0 0.0939164412682 -141.826869902
585.625 0.0747081335249 -149.911609011
586.25 0.0664235084484 -119.608308102
586.875 0.0811388973975 -122.867882265
587.5 0.0683496677571 -137.701322791
588.125 0.0605227117435 -178.795553708
588.75 0.0695208603046 -139.582501134
589.375 0.0868063328037 -144.133575519
590.0 0.0915482675758 -164.224587343
590.625 0.105029582934 163.95210019
591.25 0.118823876836 163.850444979
591.875 0.090481658162 161.549286516
592.5 0.0639461296306 145.768129619
593.125 0.0611104106475 149.986980903
593.75 0.0638899308728 -163.817497956
594.375 0.0561623861282 -139.110684205
595.0 0.042895684494 -105.041470168
595.625 0.058189021801 -101.520545215
596.25 0.0747735675969 -77.0074901374
596.875 0.0680403586959 -65.2777936692
597.5 0.0575364198763 -62.463538496
598.125 0.0592575576861 -65.5914634889
598.75 0.0886447998941 -51.8161953836
599.375 0.0962265400694 -56.7768043288
600.0 0.104415104159 -57.5770020859
600.625 0.0967754724135 -72.4486565323
601.25 0.0817906928873 -60.500975614
601.875 0.0680767621938 -79.193979668
602.5 0.0582081000615 -86.7985331078
603.125 0.0420913854754 -61.9235044662
603.75 0.0273733754381 -45.0201014778
604.375 0.0492633619306 -9.13861052015
605.0 0.0685618597378 -7.65998194369
605.625 0.0516386804202 9.86148609801
606.25 0.0188018743123 -13.5362114061
606.875 0.0587180570513 59.4185437898
607.5 0.0715333979439 48.974144625
608.125 0.0743722555513 31.3794210346
608.75 0.0582373860769 18.5903286238
609.375 0.0720247882578 37.4980389879
610.0 0.0791398454372 48.4164488422
610.625 0.0674949737301 43.950119418
611.25 0.0425001487556 17.1402264687
611.875 0.048741516306 78.460078866
612.5 0.0290376578815 106.716533504
613.125 0.0249099712539 145.432106974
613.75 0.0338639719651 130.818742984
614.375 0.0385788268922 123.059611896
615.0 0.0356630838914 120.462155033
615.625 0.0244157860751 134.992531433
616.25 0.049507504362 138.153942538
616.875 0.03312457053 128.126965202
617.5 0.039503049499 122.634187979
618.125 0.0215451875568 145.336310138
618.75 0.0315404332511 143.926997709
619.375 0.0112918042479 138.336860363
620.0 0.0103133010033 148.365898056
620.625 0.0215078761994 -117.686724691
621.25 0.0541054560713 -78.685987858
621.875 0.0699438929834 -111.058762243
622.5 0.0744651926394 -166.319482078
623.125 0.0672455666745 173.792390839
623.75 0.0610535708549 166.131532675
624.375 0.0357747787163 -166.980578117
625.0 0.051262146769 -147.938101836
625.625 0.0439974307501 -157.344304455
626.25 0.0264660294274 178.152735017
626.875 0.0245728150407 -2.76096848042
627.5 0.0255662402015 -85.6410282745
628.125 0.0371292765553 -37.1304039652
628.75 0.0360155695532 -31.2730826987
629.375 0.0661976220313 3.9993891305
630.0 0.068224475191 -14.0630533365
630.625 0.0667822494928 -2.99628286928
631.25 0.0648373559279 2.76578766701
631.875 0.0745656228533 13.1686795326
632.5 0.0696435528842 -24.9949577446
633.125 0.0481602448598 -3.46162504799
633.75 0.0426907066603 14.2128775032
634.375 0.0515806158198 30.271948015
635.0 0.0395745898012 39.2894149323
635.625 0.030206671961 29.8390117079
636.25 0.0456527244735 41.4204041296
636.875 0.0625058551255 37.9614631312
637.5 0.0561415185275 59.5543045326
638.125 0.0251370251796 37.3464352279
638.75 0.0653345502686 73.3919570017
639.375 0.0951486656993 91.8934001969
640.0 0.0772876861953 112.901097526
640.625 0.0525918968236 88.947177422
641.25 0.0652962498442 125.135499136
641.875 0.0569063396306 149.48365128
642.5 0.0667107114398 167.705995049
643.125 0.0447338594286 150.008946407
643.75 0.0570419055223 173.299250187
644.375 0.0651290663726 -175.952834289
645.0 0.0919069420805 -175.723572746
645.625 0.0773702063893 162.315708389
646.25 0.0835317579657 165.597782764
646.875 0.0759790079102 -173.367816704
647.5 0.0715081247268 -170.125670548
648.125 0.0817501530145 -174.961710181
648.75 0.0710698077155 -160.658913859
649.375 0.0497290429854 -140.57085538
650.0 0.0473106163617 -110.032236976
650.625 0.079690734088 -82.3159067418
651.25 0.0613831417998 -63.1315523718
651.875 0.0620453370124 -35.887816606
652.5 0.0860171306076 -20.7920767356
653.125 0.136100332641 2.17779388393
653.75 0.108839716773 8.09665027173
654.375 0.109131129565 7.64361509584
655.0 0.125325643098 17.444511413
655.625 0.0952407011307 31.3534294551
656.25 0.056190025429 21.0189357129
656.875 0.0646255448538 13.5258145736
657.5 0.0740972314731 27.4540173349
658.125 0.0826014069576 54.5688251964
658.75 0.0396090436754 74.8970561015
659.375 0.0768286383321 47.1576676124
660.0 0.117306481927 25.1388970721
660.625 0.122312482898 21.4741228518
661.25 0.0943037951717 7.12298637468
661.875 0.122989054932 -9.42184906761
662.5 0.115323343822 -19.7056196583
663.125 0.11436463083 -12.194614963
663.75 0.0745481415124 3.45118275469
664.375 0.0838614257273 57.8550752548
665.0 0.0737074636255 97.186592403
665.625 0.0639921193109 117.977431969
666.25 0.0826104370152 136.674850863
666.875 0.117103429489 174.740612204
667.5 0.100182605417 -164.805064895
668.125 0.108399887234 -177.148466432
668.75 0.128304909534 172.042544472
669.375 0.121914694403 -175.535016722
670.0 0.0843818109626 -165.21438249
670.625 0.0962171974522 -168.846148708
671.25 0.0902291819326 -179.10120949
671.875 0.08927458302 175.556798969
672.5 0.0686324831414 159.940307145
673.125 0.0931037440085 155.886039324
673.75 0.113577338291 164.726344902
674.375 0.122682638281 171.133559024
675.0 0.119393805627 -172.070770345
675.625 0.137947983144 -147.288246306
676.25 0.119885003504 -120.770479241
676.875 0.117232557187 -116.959402813
677.5 0.124242735618 -123.532423533
678.125 0.136712083455 -111.833131067
678.75 0.0481127723847 -85.2015674316
679.375 0.0464322189476 -61.1919645595
680.0 0.0785055213359 -73.0409408148
680.625 0.135575249471 -74.9086871966
681.25 0.0990240962317 -67.5867988177
681.875 0.100971018067 -88.0346522826
682.5 0.144829078318 -117.014529655
683.125 0.168427018805 -117.53612838
683.75 0.145669327871 -103.108450246
684.375 0.0994290858495 -70.9932143628
685.0 0.127526321674 -34.2187218405
685.625 0.125690249047 2.36357914803
686.25 0.117949554429 22.8088365347
686.875 0.063024429566 58.9631208066
687.5 0.0681092966422 96.7600161264
688.125 0.0790435713331 115.07756823
688.75 0.109990668549 111.911125943
689.375 0.125514824972 135.388401832
690.0 0.131058769574 138.786607157
690.625 0.117949712062 128.91962954
691.25 0.149381473627 98.9361800491
691.875 0.192684233971 71.9417787135
692.5 0.133734966578 43.4738981654
693.125 0.0861889068194 -8.12464895624
693.75 0.0913587673611 -32.683381154
694.375 0.148489718911 -29.9279027528
695.0 0.110327823695 28.0820850788
695.625 0.100990583026 61.2209900118
696.25 0.114347156687 116.228576455
696.875 0.141862816136 177.389042888
697.5 0.149230612214 -144.948121786
698.125 0.135179927603 -126.286848594
698.75 0.135047803634 -129.715546422
699.375 0.114874321968 -125.345232137
700.0 0.0839198930858 -96.3467294416
700.625 0.10750971468 -76.969576506
701.25 0.0957535288123 -57.893190335
701.875 0.0851514485731 -60.4446594923
702.5 0.103925406972 -71.2200032111
703.125 0.17049702458 -116.248919966
703.75 0.183761864087 -149.047956292
704.375 0.126970132577 175.02383622
705.0 0.115269576088 156.789431118
705.625 0.132497449864 -151.483522304
706.25 0.133798124635 -101.085949157
706.875 0.0823995136242 -52.2387968847
707.5 0.0788983856055 -39.3337362131
708.125 0.0895828232968 37.110263131
708.75 0.115255131076 73.4169374275
709.375 0.103106841022 113.091977094
710.0 0.104765711903 131.32933394
710.625 0.10990796616 152.828802644
711.25 0.124034052013 179.326653294
711.875 0.151000848171 172.535462813
712.5 0.155718115451 140.671349602
713.125 0.109646685038 115.45930588
713.75 0.098946608143 53.9060150563
714.375 0.116073172124 24.0552851742
715.0 0.115205289373 35.895304096
715.625 0.0846247225914 46.6681749889
716.25 0.0938772242856 95.6489807649
716.875 0.130499259805 116.674918144
717.5 0.138547190004 156.706901749
718.125 0.117501039989 167.041669383
718.75 0.102708873933 -178.826215459
719.375 0.118332108511 -165.064541952
720.0 0.134213321019 -118.293731028
720.625 0.113398197624 -70.6535749653
721.25 0.0959864970414 -15.5770048227
721.875 0.0826561509308 46.3155466311
722.5 0.0733674297827 92.034999435
723.125 0.0694454686878 60.8308958071
723.75 0.127427283055 56.0164637044
724.375 0.115118954858 2.72039209474
725.0 0.0895475924605 -42.4161080505
725.625 0.104765760149 -61.2614120226
726.25 0.104100664515 -76.4599942813
726.875 0.105792595008 -31.6291053794
727.5 0.086950208239 -19.0687040359
728.125 0.0882216964725 16.6587534095
728.75 0.0752581067764 12.4280897307
729.375 0.0947996395796 36.6293057358
730.0 0.0698730273451 8.42957174247
730.625 0.0732916452826 28.2265665569
731.25 0.0767833313596 69.9062902266
731.875 0.0565737532701 105.889213589
732.5 0.0931579435331 165.624913928
733.125 0.0966401507405 -173.390741638
733.75 0.0744843368609 175.658366658
734.375 0.0564987783176 -168.859420913
735.0 0.0586221180041 162.069540957
735.625 0.0452355826619 155.343096378
736.25 0.0449608998293 151.231285268
736.875 0.0431171862436 -177.975299823
737.5 0.0804681282885 178.953190629
738.125 0.100837813975 -173.085496916
738.75 0.0795608980822 -174.972171599
739.375 0.0281567398731 172.881567095
740.0 0.0931429723422 -132.247253889
740.625 0.0677023408072 -143.203717739
741.25 0.0628289905365 -143.591476737
741.875 0.0218127918281 -87.6579897825
742.5 0.0239079243791 10.9191838966
743.125 0.0428661799968 55.2806069359
743.75 0.0596963107947 103.819950331
744.375 0.0433767126324 178.845353709
745.0 0.0930830548772 111.323720292
745.625 0.0769262332403 106.29938662
746.25 0.0833173610216 87.7783661447
746.875 0.0609424955791 44.2608493623
747.5 0.0397290311645 14.6823551831
748.125 0.0232403708054 -6.8907713345
748.75 0.0321756866475 -24.9037149015
749.375 0.0401093891751 -37.3685828349
750.0 0.0432316789799 -39.5271175042
