!Created with skrf (http://scikit-rf.org).
# GHz S RI R (50+0j) 
!freq	ReS11	ImS11	
500.0	-0.1862879166	-3.666601601	
500.625	-0.5707533217	-1.571553869	
501.25	-0.03803039729	-2.410285302	
501.875	-2.251279248	-1.331575488	
502.5	-0.1868824048	-0.02517668089	
503.125	-0.3579884944	-0.05417495768	
503.75	0.3133602611	0.1228702657	
504.375	0.1059027919	0.09064053891	
505.0	-0.04665998678	-0.1851051696	
505.625	0.2655517367	0.002537399856	
506.25	-0.6982246469	-0.3248322711	
506.875	0.5453129912	0.1370068071	
507.5	0.3747751342	-2.140921208	
508.125	-1.270993196	-2.672964071	
508.75	1.993611724	-0.7135955454	
509.375	-1.961886712	-6.25657537	
510.0	-0.9310157844	0.2044102764	
510.625	-0.6296556696	-1.542428308	
511.25	-0.3556585644	0.2473853838	
511.875	-0.305063573	-0.5528182531	
512.5	-0.1231498485	0.1445707218	
513.125	-0.02433560702	-0.4128884289	
513.75	-0.1815620652	0.09043041845	
514.375	-0.2244646279	-0.4760861255	
515.0	-0.7863181728	1.053977732	
515.625	0.4506326492	-3.450763217	
516.25	-2.437938969	0.1142025424	
516.875	1.054050352	-1.651629457	
517.5	-0.9433485148	-1.130641827	
518.125	0.3196654159	0.06450496307	
518.75	-0.6174749722	-0.8790630591	
519.375	-0.03828053325	0.148933446	
520.0	0.2957600015	0.3766034595	
520.625	0.6044409213	-0.3681987439	
521.25	-0.1694921157	-0.4258189772	
521.875	-0.4541235597	-0.4171407559	
522.5	-0.005543887316	0.2174508075	
523.125	-0.4058688994	0.02131474553	
523.75	-0.0194440599	0.05917542027	
524.375	-0.8042931742	-0.09461863202	
525.0	0.3437785451	0.2773556006	
525.625	-0.1701341172	0.1360309556	
526.25	0.2146939795	-0.111571699	
526.875	-0.3863071715	0.2508751546	
527.5	0.2592651028	0.5240628305	
528.125	-0.3078312035	0.6121090608	
528.75	0.246263723	1.1431312	
529.375	-0.05468893638	-0.03090298575	
530.0	0.5580687766	0.6113951602	
530.625	-0.2584432829	0.6098955821	
531.25	1.946343648	0.4385463721	
531.875	0.06984575392	-0.3984430929	
532.5	0.131053565	-0.6632393077	
533.125	-0.2067188463	0.3467470358	
533.75	0.488353783	-1.023928383	
534.375	-0.4517134479	-0.1903535128	
535.0	-0.5167944725	-0.7983788577	
535.625	-0.4171892377	0.6639164276	
536.25	-0.01877439578	0.1180445804	
536.875	0.3096911777	0.1664851692	
537.5	0.1161903401	-0.2147257758	
538.125	0.3538536692	0.09204206287	
538.75	0.2968685537	-0.541501486	
539.375	-0.05482031031	-0.2578054947	
540.0	-0.3924833748	-0.6318365063	
540.625	-0.4778871836	0.1272444146	
541.25	-0.1399683319	-0.0014795076	
541.875	-0.058013736	-0.138538195	
542.5	-0.294857847	-0.10024057	
543.125	0.04298004698	-0.08407127331	
543.75	-0.4334675246	-0.09189098701	
544.375	0.1244336161	0.07991079347	
545.0	-0.1808906665	0.2775796135	
545.625	0.2607113175	-0.05549428254	
546.25	0.03069218015	0.3745358774	
546.875	0.468864673	-0.3511009885	
547.5	0.06356902516	-0.0632793377	
548.125	0.1083689064	-0.5334609954	
548.75	-0.4966625185	-0.2878134419	
549.375	-0.09568270314	-0.0716903171	
550.0	-0.3378219699	-0.1008354557	
550.625	0.005960742352	0.0911400689	
551.25	-0.323028728	-0.04114609344	
551.875	-0.09584145543	0.2912099056	
552.5	-0.1474514097	0.08131158207	
553.125	-0.06289984167	0.2082058644	
553.75	0.1224802851	0.1028893542	
554.375	0.2281175723	0.0474071973	
555.0	0.2716332604	-0.1868641898	
555.625	0.2094209692	-0.2499449046	
556.25	0.1995157178	-0.3448154027	
556.875	-0.07905243573	-0.4169665586	
557.5	-0.2388137036	-0.2611599594	
558.125	-0.2658369712	-0.1216579967	
558.75	-0.2898042617	-0.03541985266	
559.375	-0.262247447	0.07277601357	
560.0	-0.2284327016	0.1249819812	
560.625	-0.1819260375	0.3041586161	
561.25	0.09365763605	0.2117232961	
561.875	-0.02638425719	0.1648684299	
562.5	0.1157899932	0.0511753649	
563.125	0.06633541625	0.2821437204	
563.75	0.4651476779	-0.06171067423	
564.375	0.1331138341	-0.1824283912	
565.0	0.3537960812	-0.2847882452	
565.625	-0.1452764305	-0.480800507	
566.25	-0.2462354511	-0.1307058556	
566.875	-0.2400466195	-0.3463278827	
567.5	-0.5239396898	-0.2442366438	
568.125	-0.1107733687	-0.3162195464	
568.75	-0.7267240106	-0.3628631412	
569.375	-0.4239704659	0.3306381026	
570.0	-0.4767673115	0.2274074893	
570.625	-0.2634801968	0.7759888076	
571.25	0.2130483582	-0.01256887481	
571.875	-0.05381509912	0.5244738309	
572.5	0.3743445825	-0.333321943	
573.125	0.1478865508	0.07472209206	
573.75	0.3879483123	-0.5160191555	
574.375	-0.2631343328	-0.06256545374	
575.0	0.4247942457	-0.09673821895	
575.625	-0.2278261253	-0.2537279553	
576.25	0.3375814428	0.04954022444	
576.875	0.02091152127	-0.6480253698	
577.5	-0.2521440684	-0.3024231477	
578.125	0.1087204095	-0.2399464209	
578.75	-0.1570195974	-0.5586221631	
579.375	-0.3918203456	0.01382535972	
580.0	0.1356440613	-0.1404560216	
580.625	-0.4367392034	-0.003778213992	
581.25	0.01343381965	0.01303509199	
581.875	-0.3716946557	0.466703072	
582.5	0.4606998663	0.5500501962	
583.125	0.02644389172	-0.2340443624	
583.75	0.09344109217	0.5857665888	
584.375	0.01489829663	-0.3625427989	
585.0	0.2464653472	0.6107872023	
585.625	0.4900069451	-0.3365286396	
586.25	0.06454491773	0.1433364109	
586.875	0.5181160744	-0.50027298	
587.5	-0.3231323642	-0.258649967	
588.125	0.2334405429	-0.162951523	
588.75	0.236253414	-0.6180625052	
589.375	-0.08245105131	-0.3192054607	
590.0	0.1377078849	-0.3918640854	
590.625	-0.6155506428	-0.1922621335	
591.25	-0.1948374053	0.2295676954	
591.875	-0.2558483738	0.2018933855	
592.5	0.1358604987	0.2238063294	
593.125	-0.2791500932	0.03177711643	
593.75	0.2739061643	0.407320072	
594.375	0.3081664842	-0.01523471108	
595.0	0.03050488286	0.4802965486	
595.625	0.9548120126	0.3825926247	
596.25	0.01903922387	-0.1505355147	
596.875	0.5261001204	0.5217015905	
597.5	0.5050977129	-0.1128236291	
598.125	-0.03615008001	0.5828700149	
598.75	0.8088900353	0.1246398331	
599.375	0.2017536289	-0.0008331872806	
600.0	0.6642653242	-0.1479758515	
600.625	0.4088540389	-0.628609794	
601.25	0.03039389953	-0.3079677247	
601.875	-0.04717438898	-0.3987125598	
602.5	-0.2926619717	-0.09458741461	
603.125	-0.3084750717	0.1758911247	
603.75	-0.1942145858	0.05344315051	
604.375	-0.3865608845	0.1542673486	
605.0	-0.04657567888	0.2152397371	
605.625	-0.3509648252	0.0239488571	
606.25	-0.1569028851	0.3333453681	
606.875	-0.3461080793	-0.1919606328	
607.5	-0.745729824	0.8293633266	
608.125	0.1645110748	0.2021804984	
608.75	0.1045330046	0.7831583526	
609.375	0.748190292	-0.4131132903	
610.0	0.2680442874	0.1270910688	
610.625	0.437477561	-0.6203218875	
611.25	-0.1623812536	-0.1206368968	
611.875	0.01120514629	-0.6622575486	
612.5	-0.4179770048	0.147864401	
613.125	-0.4209036982	-0.2578114517	
613.75	-0.2877462399	0.5955471976	
614.375	-0.05080632014	-0.06360966485	
615.0	0.3574127468	0.3650950064	
615.625	-0.1919909883	-0.123420164	
616.25	-0.2838179307	0.6646540027	
616.875	0.1897905639	0.3096783892	
617.5	-0.5744430632	0.3940625444	
618.125	0.1007364787	0.7687561227	
618.75	0.02281286408	0.1814245414	
619.375	0.1327758037	0.6786858882	
620.0	0.3941340965	-0.02247572744	
620.625	0.4477673366	-0.2363509108	
621.25	-0.2924419303	-0.4204794602	
621.875	-0.3217342123	-0.3365663195	
622.5	-0.6374614279	0.2221811449	
623.125	-0.1343404641	0.2123573524	
623.75	0.4192295459	0.3751232856	
624.375	-0.1830451329	-0.2825163641	
625.0	0.5571876871	0.09409073115	
625.625	-0.3617804538	-0.2173353011	
626.25	0.3045974712	-0.3331001146	
626.875	-0.6387052242	-0.2917220075	
627.5	-0.07378305881	0.1139665991	
628.125	-0.2850017967	-0.5595876476	
628.75	-0.3146155548	-0.03696863578	
629.375	0.07231569798	-0.4507620833	
630.0	-0.6049996495	-0.3807593356	
630.625	-0.4039793984	0.319271306	
631.25	-0.4035437677	0.2067797667	
631.875	-0.1876985318	0.6770918768	
632.5	0.3448237152	0.5603253353	
633.125	0.4302257003	0.050751667	
633.75	0.4755427488	0.1168942413	
634.375	-0.0009096507929	-0.4333618722	
635.0	0.1662507513	-0.2690900641	
635.625	-0.488422654	-0.3451717909	
636.25	-0.1019584537	0.2186450576	
636.875	-0.5505530893	0.1059198788	
637.5	0.1415530484	0.5692315705	
638.125	-0.1135325186	-0.2922335488	
638.75	-0.5122381655	0.7053888531	
639.375	0.3115281709	0.5823912045	
640.0	-0.05199295496	0.359232423	
640.625	0.7258341375	0.696708664	
641.25	0.5218268594	-0.2724060046	
641.875	0.6363173667	0.0164159777	
642.5	-0.3321544465	-0.8687157695	
643.125	-0.04099376093	0.01564108543	
643.75	-0.2627004966	-0.6331514369	
644.375	-0.5987190217	0.2683088296	
645.0	-0.05817138265	0.2285820987	
645.625	-0.3566353161	0.5135681845	
646.25	0.7773747143	0.2755723693	
646.875	-0.1155010764	-0.2416305819	
647.5	0.4921330119	0.4518125091	
648.125	-0.1272271485	-0.2323469376	
648.75	1.034307	0.3381663768	
649.375	0.4729854024	-1.110367588	
650.0	-0.06034584439	-0.193558231	
650.625	1.264760491	-0.469106372	
651.25	0.1949640024	-1.409725391	
651.875	0.09613762595	0.13451379	
652.5	1.256406749	0.08411834359	
653.125	0.52190274	-0.7251390554	
653.75	0.4650011795	0.1302211794	
654.375	-0.08481488407	-1.255685231	
655.0	-0.6913716171	0.1459137846	
655.625	-0.3504496393	-0.1498564793	
656.25	-0.1790177442	0.9219640418	
656.875	0.3696004501	-0.2892905238	
657.5	-0.1744329912	0.5831015	
658.125	0.5776037702	0.3559086389	
658.75	0.4231315047	0.04128307232	
659.375	1.089038311	0.1542905272	
660.0	0.4058153077	-1.138416367	
660.625	0.22082858	-0.3367315755	
661.25	0.8706596434	-0.6146107941	
661.875	0.4334789444	-1.201779717	
662.5	0.0588169585	0.007512759311	
663.125	1.343745615	-0.3456308656	
663.75	-0.03008468422	-0.902884708	
664.375	0.3653947581	-0.4265645771	
665.0	-1.034873704	-0.8605347448	
665.625	-0.2744362005	0.2659822709	
666.25	-0.7011800337	0.4673267071	
666.875	0.4511343343	0.7596158189	
667.5	0.3313064081	-0.105109871	
668.125	0.4598401751	0.4440381004	
668.75	0.6288547836	-0.5954004878	
669.375	0.08448775365	-0.4123140213	
670.0	0.2734882	-0.4450968836	
670.625	-0.1475848272	-0.6786221662	
671.25	0.2501848904	-0.1168016172	
671.875	0.4356351717	-0.5619916912	
672.5	0.3374914672	-0.4626693207	
673.125	0.3492292119	-0.0470367417	
673.75	0.9991020902	-0.5447560432	
674.375	-0.4131219856	-0.908916993	
675.0	0.3051257639	-0.1120509719	
675.625	-0.6184298944	-0.8386991905	
676.25	-0.4286238435	0.5171320435	
676.875	-0.3053430998	-0.7203407186	
677.5	-0.434645968	0.6581594445	
678.125	-0.2458184563	-0.2412703259	
678.75	-0.2313511839	1.114118928	
679.375	0.6907390329	-0.2791917185	
680.0	0.05184390112	0.1086780628	
680.625	0.5508479142	-0.1228667277	
681.25	0.1693757912	-0.3414443939	
681.875	0.04767687225	0.2763975022	
682.5	0.7108714196	0.4471232736	
683.125	0.5649197272	-0.01130730298	
683.75	0.3670829936	0.202874439	
684.375	1.007395174	0.395971986	
685.0	0.4436159843	-0.3576892481	
685.625	0.6132311296	0.6802517929	
686.25	1.302460302	-0.4669406036	
686.875	-0.1422008586	-0.2366687129	
687.5	1.633220865	-0.1455628801	
688.125	-0.9011694226	-1.627666767	
688.75	0.08014075106	-0.5205078585	
689.375	-1.546194936	0.9789682616	
690.0	0.6669604385	0.4814140224	
690.625	-0.09456145024	1.24861831	
691.25	1.213925057	0.283875353	
691.875	0.6180663924	0.7607545	
692.5	1.490729137	0.847122622	
693.125	1.665465586	-0.2056699617	
693.75	1.363839586	-0.3666057109	
694.375	0.97702037	-1.022803583	
695.0	1.153332528	-0.2864824589	
695.625	1.531135974	-0.5699556379	
696.25	0.6226617063	0.3665842721	
696.875	1.233672947	1.760101745	
697.5	1.094406355	0.3925009869	
698.125	0.8952562317	1.513736234	
698.75	1.608473519	-1.648098364	
699.375	-0.322035707	-0.1723024521	
700.0	-1.737847732	0.6147584351	
700.625	0.8152995019	0.5574454004	
701.25	-0.1347527029	0.8214105667	
701.875	1.244332186	0.3923346024	
702.5	0.2632849552	0.5862777244	
703.125	1.369666801	0.6177132797	
703.75	0.5062412252	-0.5625114644	
704.375	1.096626445	0.03036727724	
705.0	0.4654061416	-0.873690145	
705.625	0.1440683062	0.4370956307	
706.25	1.340613307	0.7417066519	
706.875	0.253192572	0.1276059287	
707.5	0.3865960947	1.401261937	
708.125	1.513422376	0.04792799645	
708.75	0.7112268621	-0.2034559875	
709.375	-0.767269914	-1.363845201	
710.0	-0.1877125616	0.6365772277	
710.625	-0.2278818974	0.4796153907	
711.25	0.390604758	0.2943151236	
711.875	0.4298977074	0.3866875175	
712.5	0.7476330033	-0.07566323965	
713.125	0.6833651714	-0.06126722193	
713.75	0.4832798352	-0.9285803768	
714.375	-0.1950880011	-0.109044603	
715.0	0.30216091	-0.9652612199	
715.625	-0.4471732243	-0.290110001	
716.25	0.9276398812	-0.06559818822	
716.875	1.296219319	-1.407666995	
717.5	-0.235556807	0.1477224223	
718.125	2.941745395	1.410356137	
718.75	2.428622711	-1.670907127	
719.375	0.5653177712	0.390831894	
720.0	3.610681642	-3.057208337	
720.625	-0.7879102097	-2.108683237	
721.25	1.088244327	-2.53119128	
721.875	-0.7021942303	-3.809738509	
722.5	-1.387133439	-0.9628376674	
723.125	-1.755764115	-1.480619007	
723.75	-1.212858229	1.502998997	
724.375	0.1855586571	0.8595540365	
725.0	0.1186474748	0.7252724479	
725.625	0.3407345403	1.774969134	
726.25	1.132863696	1.11375863	
726.875	-1.334802385	1.756054175	
727.5	-0.5156529296	5.822447034	
728.125	2.345818167	3.101073901	
728.75	-7.341247733	4.284852607	
729.375	2.61286482	12.53866962	
730.0	1.668389933	1.746169262	
730.625	-9.723445972	17.19998296	
731.25	6.332595028	15.29327402	
731.875	-5.401777518	-2.450421075	
732.5	-13.94233623	0.4647550458	
733.125	-8.011618953	2.712740353	
733.75	-1.638804733	0.4610157636	
734.375	3.300690385	2.766992491	
735.0	-0.3634429908	-0.8887420823	
735.625	-0.8491886155	-0.5097735472	
736.25	-0.5120400463	2.3168712	
736.875	1.788774897	0.4753094747	
737.5	0.9359884194	1.370203845	
738.125	6.101622553	0.3083291751	
738.75	3.888976415	-6.786268697	
739.375	-0.7335942437	1.453353891	
740.0	21.36963895	-4.887454078	
740.625	-2.370668917	-12.89176261	
741.25	-10.67002629	15.65826799	
741.875	-5.371041362	30.72389093	
742.5	13.2675219	0.3936156409	
743.125	3.144531965	-9.569807794	
743.75	-1.885623469	-2.701457023	
744.375	0.02818404808	0.06940033166	
745.0	-0.373479947	0.8564530457	
745.625	-0.2136034695	-0.2393640836	
746.25	0.1753385686	-0.5345071355	
746.875	-0.2879498062	0.4523594268	
747.5	-0.1904775692	0.3022469154	
748.125	-0.2212692924	1.724896699	
748.75	1.270709231	0.9356905147	
749.375	-0.03281507716	1.262905843	
750.0	-0.5987780983	-0.1906045285	
