!Created with skrf (http://scikit-rf.org).
# GHz S MA R 50.0 
!freq magS11 angS11
600.0 0.0957182409238 -110.810788899
600.125 0.0536733887816 -154.327478361
600.25 0.0561047671685 60.572703184
600.375 0.08529827059 -13.4660147876
600.5 0.142329334239 -75.970635745
600.625 0.115735308814 -129.704247614
600.75 0.078503738782 -140.766492683
600.875 0.0418504337208 54.5219463695
601.0 0.0541411570092 -20.1989423978
601.125 0.129619471375 -96.5782516576
601.25 0.111468604221 -140.977062419
601.375 0.0834569700403 -151.393817447
601.5 0.0386521157596 39.527414949
601.625 0.06748056606 -56.9519861402
601.75 0.0716731372402 -114.307062931
601.875 0.102026099675 -175.499901519
602.0 0.0734357978379 -175.1048845
602.125 0.0249889740135 38.033331206
602.25 0.0673814803413 -82.7922558524
602.375 0.0693251847571 -151.870942567
602.5 0.0902414105102 162.998021113
602.625 0.0691601616383 171.243699854
602.75 0.0389456644815 23.201704757
602.875 0.0816973107545 -93.4342253562
603.0 0.0565571184911 -149.135778118
603.125 0.0534931266108 155.748588872
603.25 0.0469155918916 111.135295421
603.375 0.0432086613637 103.626888783
603.5 0.0680495960707 -104.833727215
603.625 0.0408379651915 -153.752291586
603.75 0.0700279215277 115.396063636
603.875 0.0326662870312 114.399220362
604.0 0.0322770561109 97.491973662
604.125 0.0557799657633 -129.340224694
604.25 0.0357475251348 163.546923793
604.375 0.0904824498567 87.5327248089
604.5 0.040906737214 18.4963550191
604.625 0.0194590499939 46.126903404
604.75 0.0706684911002 -144.834787553
604.875 0.0665169321682 153.577594101
605.0 0.0079882499769 89.9932219467
605.125 0.0852385067034 -13.4726839329
605.25 0.0393154443821 -93.5894840756
605.375 0.0782705095781 -168.270003156
605.5 0.0514094035607 141.204826333
605.625 0.0172388453095 59.9391452744
605.75 0.0612610263112 -32.8487220234
605.875 0.0446768444266 -127.344772808
606.0 0.110195494518 176.311039901
606.125 0.0533471188571 127.616523159
606.25 0.00789689579728 154.809353488
606.375 0.0552310691792 -34.9326491483
606.5 0.107521894089 -119.097401292
606.625 0.118606756737 164.393240231
606.75 0.113050866928 100.965941149
606.875 0.0172573273879 74.10067599
607.0 0.0383827341725 -68.8454979596
607.125 0.0728907791429 -144.253816771
607.25 0.134602029507 149.808412372
607.375 0.13296007094 81.3771229101
607.5 0.0427489382507 22.4106558245
607.625 0.0674322295318 -95.7825778476
607.75 0.0705835972808 173.244244088
607.875 0.0866983133393 114.027571116
608.0 0.122392859778 52.7144936127
608.125 0.10078348482 -20.4658218486
608.25 0.0908294999589 -111.829646054
608.375 0.0852476983827 153.73285666
608.5 0.07565290517 80.1943590024
608.625 0.0875410246892 26.1105402507
608.75 0.115006022234 -38.9443742462
608.875 0.0903232486125 -122.366688019
609.0 0.0649194300192 148.273598782
609.125 0.126193084002 74.7137231307
609.25 0.109690738813 11.7769860067
609.375 0.0982526979203 -46.2944915501
609.5 0.0860057500136 -122.038189893
609.625 0.0661549879257 146.494706093
609.75 0.0989792455914 82.6038417885
609.875 0.138191249712 17.802086498
610.0 0.0975917703543 -50.938184104
610.125 0.0828862431422 -131.926098929
610.25 0.0690757737022 137.211924198
610.375 0.103686801301 64.7182940408
610.5 0.127444060276 5.69770247788
610.625 0.12057604891 -58.7244497861
610.75 0.0983524697011 -142.092148647
610.875 0.0675116363095 138.717316132
611.0 0.105713088643 56.4484077674
611.125 0.128899641468 -10.4629179288
611.25 0.106548190619 -65.7025867308
611.375 0.10339654294 -134.246426373
611.5 0.089480272869 137.290233734
611.625 0.094032951883 53.4337997975
611.75 0.127857737923 -17.2211104983
611.875 0.113397027131 -72.9529701411
612.0 0.0931237434492 -135.554076215
612.125 0.0755838579686 151.990544346
612.25 0.0765379042034 68.013284739
612.375 0.12523170999 -10.8224064722
612.5 0.126699492497 -77.8069524832
612.625 0.112067566218 -148.77552632
612.75 0.074000346148 150.071249306
612.875 0.0648391376729 70.9930922807
613.0 0.106258821349 -14.180084396
613.125 0.12058456679 -82.9264505155
613.25 0.133914305668 -158.586988253
613.375 0.0992231897811 126.109415844
613.5 0.0752237546305 51.8366244187
613.625 0.0877102270373 -25.8471689364
613.75 0.102950698749 -95.810405594
613.875 0.105237272108 -159.141498025
614.0 0.135323213232 115.609949511
614.125 0.0951750078447 42.9900563281
614.25 0.0850014096354 -42.4324468016
614.375 0.0804455977581 -105.213338271
614.5 0.0893842594393 -175.36501593
614.625 0.1110012462 108.83146479
614.75 0.106394729569 37.768716478
614.875 0.111214272271 -61.4264795466
615.0 0.0888982809789 -135.687638504
615.125 0.073365896446 175.858380853
615.25 0.084105805238 94.8259937901
615.375 0.105132975543 18.5893024344
615.5 0.135467125107 -63.6663700154
615.625 0.127355578975 -151.31924961
615.75 0.086546312762 166.239519932
615.875 0.0781641386885 69.029533769
616.0 0.0756945640472 -0.0771306130299
616.125 0.107648403374 -82.0993341776
616.25 0.129295739295 -160.081108734
616.375 0.0970133285209 154.753431403
616.5 0.0955307120913 42.7305638187
616.625 0.0640621989994 -13.7585831253
616.75 0.0629474315656 -92.7041020703
616.875 0.0933635743471 -178.152825788
617.0 0.0769062178819 144.4906867
617.125 0.0920475512091 72.7101332827
617.25 0.0860022458582 -43.9369080668
617.375 0.0579938786786 -113.697569274
617.5 0.0469957495227 179.807685378
617.625 0.0851821517726 98.7705478024
617.75 0.105802075599 25.6839990925
617.875 0.11723433946 -64.9816970136
618.0 0.0768134846043 -139.808700386
618.125 0.0487594392884 -156.168975168
618.25 0.0788921983539 72.0030807911
618.375 0.0736537150559 27.3334678365
618.5 0.107463606388 -68.079219049
618.625 0.0706276711198 -141.931861105
618.75 0.0425844536338 169.993605054
618.875 0.0745902578034 53.3805220236
619.0 0.0729400826535 -8.86959634168
619.125 0.0807777271975 -83.7454598973
619.25 0.0663568160234 -164.507266981
619.375 0.034326999126 -159.83016435
619.5 0.0769860958907 42.4504627582
619.625 0.0973513266692 -43.4584989912
619.75 0.0437887100168 -76.0269860987
619.875 0.0301028700286 -105.255358132
620.0 0.00968951764988 -173.377389931
620.125 0.106557222495 11.5278748557
620.25 0.0686789778583 -16.7106184882
620.375 0.0587115928449 -116.871652728
620.5 0.0495082574513 -85.9217027544
620.625 0.00350708857574 -136.949000349
620.75 0.0582053344758 -8.17391564332
620.875 0.0525298903806 -7.8200528311
621.0 0.0624034381005 -128.525107093
621.125 0.0280709141659 140.053384862
621.25 0.0815865872888 8.78691588183
621.375 0.095785743188 -40.4259354761
621.5 0.0414556452091 -32.6596434913
621.625 0.0839963887322 -142.875603122
621.75 0.0247256116134 -170.638045641
621.875 0.0830662422572 -2.75840908047
622.0 0.0870039856563 -66.0934270502
622.125 0.0477212349905 -97.5718237344
622.25 0.0749661321871 -154.817894432
622.375 0.0392776475488 90.8469409017
622.5 0.0293266486333 -124.763639537
622.625 0.101157051919 -127.546059226
622.75 0.0286642517792 -173.838669487
622.875 0.0552826657683 143.598822467
623.0 0.0503817709311 62.6569806313
623.125 0.0208721183919 -120.648151321
623.25 0.0866830677949 -147.763424761
623.375 0.028333050423 130.063600194
623.5 0.0841586859272 114.941946783
623.625 0.0648417951007 43.0398058429
623.75 0.0199430665638 -163.95909555
623.875 0.0508867733678 176.69332146
624.0 0.0787065474208 151.876556171
624.125 0.0421672543724 117.820659788
624.25 0.0765734983612 39.1409354376
624.375 0.013127606329 -75.3846576206
624.5 0.0647622519227 -156.556397428
624.625 0.0650781659447 152.753879298
624.75 0.0279304343656 119.244003187
624.875 0.072749883814 50.5621173001
625.0 0.0187054761117 -69.6468503626
625.125 0.0982767153561 -133.127541208
625.25 0.1007661764 157.730319158
625.375 0.0533046004136 110.778649748
625.5 0.076764517135 30.730435967
625.625 0.0532332025783 -56.2947336249
625.75 0.0455482074938 152.142994622
625.875 0.141263549783 144.021753612
626.0 0.102168535341 83.3126509734
626.125 0.0877655525925 6.40102191556
626.25 0.0324258379148 -85.8290858688
626.375 0.0478553285949 148.373310098
626.5 0.114918580428 125.923818007
626.625 0.0957061715186 72.8310668013
626.75 0.11637916189 -0.489170856314
626.875 0.0603852993347 -86.2207038684
627.0 0.0353013739918 110.225948895
627.125 0.0784829119851 103.856009561
627.25 0.116830327058 65.0047260645
627.375 0.101878390861 7.46533555975
627.5 0.098597136302 -73.0938959374
627.625 0.0238609466935 127.475942103
627.75 0.0818145351724 105.137672593
627.875 0.110181386283 56.4540400879
628.0 0.104066398209 3.25736903026
628.125 0.0978919016731 -61.8819349034
628.25 0.0273485536643 166.689572457
628.375 0.120625649153 112.289007448
628.5 0.10995675784 49.3260749522
628.625 0.0785802626222 -9.09342390298
628.75 0.0775215007458 -72.1929061381
628.875 0.0536135797545 -172.108074961
629.0 0.0659077219061 102.471661807
629.125 0.140809670309 43.4046960913
629.25 0.081560924651 -13.6274085425
629.375 0.071416651524 -84.1127517054
629.5 0.0298858379666 174.953069789
629.625 0.0695622531149 103.314989653
629.75 0.142596382661 52.7627986924
629.875 0.116454962662 -13.5814561412
630.0 0.093844249427 -85.1547443275
630.125 0.0201068935088 173.661028812
630.25 0.0534006063845 90.3069726933
630.375 0.114095867407 53.082857142
630.5 0.132425988719 -1.28495012875
630.625 0.0807744668344 -63.7623534862
630.75 0.0420676101353 -154.953302599
630.875 0.0935977201202 104.715728053
631.0 0.0934481903526 37.2947595487
631.125 0.111621494597 -10.6559192269
631.25 0.123232803875 -68.2629715749
631.375 0.073427138176 -149.255661791
631.5 0.0926703646353 114.012412262
631.625 0.0743096100294 27.1299065367
631.75 0.11158100902 -29.1300967017
631.875 0.108883750596 -84.0763050125
632.0 0.0876550083041 -152.326992182
632.125 0.0937744307302 113.822632831
632.25 0.081993208856 26.0397988674
632.375 0.109363179982 -39.5618259102
632.5 0.125597966344 -105.509900985
632.625 0.0795495585679 -169.765169135
632.75 0.0717538516544 113.482213191
632.875 0.0959393345634 27.0146022704
633.0 0.0963371873091 -43.9650172107
633.125 0.134603504566 -104.391805122
633.25 0.096343812201 -172.441264906
633.375 0.0864208401838 97.8509331224
633.5 0.07683642228 15.1782259536
633.625 0.0999632264896 -55.3344928237
633.75 0.130030210575 -125.112874263
633.875 0.105478402095 173.451142722
634.0 0.0890004684782 94.980141745
634.125 0.113543441717 4.64205793379
634.25 0.116977746394 -63.1604448308
634.375 0.143024371386 -130.592900066
634.5 0.116222822932 157.140065162
634.625 0.069827009919 87.5554959949
634.75 0.108222354153 0.123118077691
634.875 0.124938941962 -83.9415032895
635.0 0.139952144214 -153.993459638
635.125 0.120857186645 142.022380248
635.25 0.0880535903201 64.6775226157
635.375 0.0828970885946 -23.6417617129
635.5 0.0948642678463 -96.2404352926
635.625 0.153729401059 -167.507260009
635.75 0.13123984929 123.168763771
635.875 0.0950984701494 56.3608774617
636.0 0.0994231156356 -29.6064906309
636.125 0.0917236806165 -109.180794454
636.25 0.112665470803 -174.88973758
636.375 0.144074976932 116.918381892
636.5 0.107877164174 47.0593036907
636.625 0.120733353905 -33.862557915
636.75 0.111864574272 -108.17710549
636.875 0.114212892232 178.293872966
637.0 0.107015707048 111.136617639
637.125 0.0933315668743 42.727534234
637.25 0.137152616429 -40.4751853137
637.375 0.144197523677 -114.921240095
637.5 0.131166916734 167.567667093
637.625 0.101405186224 101.066593559
637.75 0.0696511415279 28.415158581
637.875 0.100109808852 -55.5706819884
638.0 0.139325177486 -130.535938399
638.125 0.148260616612 164.539437239
638.25 0.131589710115 93.5327930537
638.375 0.0881909937656 19.0221093798
638.5 0.078926411151 -65.0160211744
638.625 0.110814440128 -142.779714133
638.75 0.146694894383 155.596524837
638.875 0.141110380764 102.515445081
639.0 0.142489993403 18.512045563
639.125 0.0797286933195 -59.3023497233
639.25 0.0854238391433 -139.185171082
639.375 0.115195023533 158.578692918
639.5 0.125622327562 104.990444485
639.625 0.154847318761 43.8254324448
639.75 0.11743799471 -30.0127130937
639.875 0.0939344280259 -127.277419938
640.0 0.0935341117715 158.196067801
640.125 0.095553622772 105.892794592
640.25 0.119083706136 41.6296676219
640.375 0.133791950925 -33.7341354966
640.5 0.112050418015 -119.418289612
640.625 0.105107554192 144.629129464
640.75 0.0801350036831 92.2169442399
640.875 0.100569106494 14.0939191786
641.0 0.114973453623 -59.2659426444
641.125 0.109776129761 -136.707246621
641.25 0.115311095228 135.728487458
641.375 0.0843473763556 87.7110432098
641.5 0.079397568686 -2.45738801224
641.625 0.0834853827779 -86.2309663625
641.75 0.0844441797361 -160.556959547
641.875 0.0684056722281 165.346089061
642.0 0.0910626626845 29.8289298899
642.125 0.0736309372659 -49.2158152382
642.25 0.0533413470106 -83.60570557
642.375 0.0510805956733 174.102648981
642.5 0.0497313423712 135.351423084
642.625 0.0520760801031 71.4299775185
642.75 0.0717916971166 -86.154838352
642.875 0.0360611348257 -137.897826864
643.0 0.0410009528043 -128.081779749
643.125 0.0556407650583 34.194968227
643.25 0.0461581117546 -25.4562044207
643.375 0.0756589793456 -137.677227109
643.5 0.0432327342624 145.044679112
643.625 0.0121166031257 -103.619673448
643.75 0.0548416198285 -16.9035912624
643.875 0.0304203807442 -64.4683860694
644.0 0.0889744576639 -168.364318673
644.125 0.0440809765745 107.855888676
644.25 0.0294824953465 -25.6846807731
644.375 0.0780831682819 -73.2141443611
644.5 0.0692939794656 -133.153479136
644.625 0.0955433986857 159.252894192
644.75 0.0797068895112 76.5082469782
644.875 0.0263110458276 -114.967132133
645.0 0.0770545230401 -113.663588042
645.125 0.0960609186476 -174.068482925
645.25 0.0797415520589 126.354255602
645.375 0.0807627248141 60.6512667896
645.5 0.0171205067509 -114.241957476
645.625 0.093929024342 -117.869997422
645.75 0.119491052889 168.274786859
645.875 0.0854215392736 93.1392655478
646.0 0.0905731273857 36.4941589722
646.125 0.0498471946601 -42.9189398068
646.25 0.0374271861298 -159.301267273
646.375 0.110408198419 152.51902842
646.5 0.087153653961 80.8760094545
646.625 0.11058838793 14.1790683505
646.75 0.0501972998778 -52.6659171565
646.875 0.0466367200224 -146.807914865
647.0 0.10341016191 138.625697648
647.125 0.0826167409877 63.9204231344
647.25 0.117731245957 1.92532905706
647.375 0.0550730531961 -76.7234479754
647.5 0.0586646799721 -152.951523822
647.625 0.102847007155 133.961528085
647.75 0.0747834050017 57.6786763163
647.875 0.0629074905142 -15.0589867103
648.0 0.0936565574246 -81.6731586968
648.125 0.0887883988148 -160.203297893
648.25 0.128362775993 126.805047077
648.375 0.106324726352 63.5244842641
648.5 0.0758606429272 -5.95304711126
648.625 0.0695532684315 -87.665973234
648.75 0.0654959798269 -170.503160432
648.875 0.123027753226 133.220491228
649.0 0.113993045819 68.5693932377
649.125 0.103626424735 2.43482343669
649.25 0.0857331154649 -74.8846863175
649.375 0.0676369570616 -165.356385258
649.5 0.10064999226 121.64724964
649.625 0.125315964859 68.7390013008
649.75 0.087920325783 11.0114628827
649.875 0.106990071606 -64.4678933018
650.0 0.0818457579707 -154.288911954
