!Created with skrf (http://scikit-rf.org).
# GHz S RI R (50+0j) 
!freq	ReS11	ImS11	
500.0	0.2818683598	-2.409059967	
500.625	-0.4259108178	-1.077056569	
501.25	-0.1210574908	-1.206269452	
501.875	-0.7277898123	-0.5401452524	
502.5	-0.05098473857	-0.09875104517	
503.125	-0.1333241144	-0.01362045155	
503.75	0.08857872353	0.09375630322	
504.375	0.02496554148	0.03470335179	
505.0	0.02527170068	-0.08016324499	
505.625	0.02222624881	0.006786393372	
506.25	-0.1108902222	-0.2136022277	
506.875	0.1550941941	0.1586740303	
507.5	0.07793347787	-0.8931981109	
508.125	-0.2427077708	-1.135409305	
508.75	0.3836614155	-0.7051224007	
509.375	0.9521999139	-2.277136196	
510.0	-0.8832057713	-0.46375323	
510.625	0.0124566558	-0.09084834493	
511.25	-0.2523323184	-0.08551954254	
511.875	-0.1428801156	0.06509388873	
512.5	-0.08769328955	0.05275872574	
513.125	-0.04218122016	-0.1457330435	
513.75	-0.04253956957	0.006718187038	
514.375	-0.09040603193	-0.1527009453	
515.0	-0.1344387663	0.5068400801	
515.625	0.3764290718	-1.130648146	
516.25	-1.171081857	-0.7927279597	
516.875	-0.02859848034	-0.1317403266	
517.5	-0.1510708649	-0.4076223746	
518.125	-0.08808942123	0.07212845088	
518.75	-0.03707861188	-0.3386923795	
519.375	-0.07572760669	0.08295075677	
520.0	0.1108711291	0.03714129816	
520.625	0.2297246897	0.006834637629	
521.25	-0.0747870629	-0.4046449267	
521.875	-0.1181617015	0.1060747953	
522.5	-0.0005574100636	0.0008049143341	
523.125	-0.03294195525	0.1967032167	
523.75	-0.007224793065	-0.1573679055	
524.375	-0.4075284521	0.1178173626	
525.0	0.1707742015	0.1052096641	
525.625	-0.07912661489	0.04928028628	
526.25	0.1000401493	-0.03922027778	
526.875	-0.1739681786	0.06756026026	
527.5	0.06012104438	0.2928975599	
528.125	0.06547408413	0.1336220053	
528.75	-0.0418300681	0.4136366389	
529.375	0.1227397297	0.03293910155	
530.0	-0.1683702388	0.2129269335	
530.625	0.409646441	0.4995022691	
531.25	0.3740938751	-0.05531771241	
531.875	0.2526037305	-0.1307864007	
532.5	-0.2565632621	-0.2238172283	
533.125	0.2020829081	0.09409239185	
533.75	0.1641743953	-0.4577964005	
534.375	-0.1657193429	-0.1714086002	
535.0	-0.24981522	-0.2560122732	
535.625	-0.2018520917	0.2601580923	
536.25	0.006819320497	0.0706373865	
536.875	0.1450456144	0.07101050625	
537.5	0.06093127719	-0.1047515135	
538.125	0.1264206835	0.01713069911	
538.75	0.2150571492	-0.2294570165	
539.375	-0.1129353439	-0.1542090141	
540.0	-0.1415770144	-0.2017046666	
540.625	-0.3129459362	-0.02873757334	
541.25	-0.06217392034	0.06044399426	
541.875	0.004256812621	-0.06017510216	
542.5	-0.09684259015	0.00224393106	
543.125	-0.03190753035	-0.111022537	
543.75	-0.2011808015	-0.02446723555	
544.375	0.03660583397	0.06009577229	
545.0	-0.1222216305	0.09629731347	
545.625	0.1334881585	0.03383274483	
546.25	0.04173622277	0.07842857559	
546.875	0.2288897165	-0.06543243088	
547.5	-0.004005548103	-0.1477054873	
548.125	0.01966340545	-0.2093669653	
548.75	-0.2245640077	-0.1915533328	
549.375	-0.1383356033	0.001420544491	
550.0	-0.09976456266	-0.06677165311	
550.625	-0.06719805149	0.07330794602	
551.25	-0.08798860245	-0.01125032145	
551.875	-0.1215076169	0.130241176	
552.5	-0.01260329037	0.08539455061	
553.125	-0.0373677395	0.09798806561	
553.75	0.08243392847	0.05155875731	
554.375	0.1134219396	0.002592662741	
555.0	0.1385248107	-0.09792663075	
555.625	0.09742342266	-0.1475639693	
556.25	0.08222938859	-0.1829773019	
556.875	-0.05321933889	-0.2147978532	
557.5	-0.1390196053	-0.1325508099	
558.125	-0.149839182	-0.04332789249	
558.75	-0.141603507	-0.007919761869	
559.375	-0.1515414009	0.03784940551	
560.0	-0.1073504225	0.09642577105	
560.625	-0.08754080137	0.1376460393	
561.25	0.03314075775	0.1579301899	
561.875	0.0172484784	0.02712966648	
562.5	0.04219395597	0.1215447364	
563.125	0.07068520645	0.04477329952	
563.75	0.1914973316	0.05354840471	
564.375	0.1653213616	-0.188080825	
565.0	0.05031628635	-0.1363971019	
565.625	0.00293974166	-0.2452325567	
566.25	-0.2319047684	-0.09535824561	
566.875	-0.1133701138	-0.1108567145	
567.5	-0.2441286946	-0.2381805492	
568.125	-0.2258323534	-0.1070504843	
568.75	-0.2456054443	-0.1765413969	
569.375	-0.3859410385	0.2286728777	
570.0	-0.008684876176	0.2046561291	
570.625	-0.1755078545	0.1782993889	
571.25	0.08638062397	0.2331577281	
571.875	-0.03042174641	0.04943222851	
572.5	0.3021088157	0.01269431486	
573.125	-0.01054080988	-0.1872349847	
573.75	0.1197498937	-0.03984314048	
574.375	0.02037633944	-0.2200174332	
575.0	-0.01597827176	0.08168255262	
575.625	0.136186388	-0.1697454611	
576.25	-0.0610723757	-0.1584684012	
576.875	0.06614590277	-0.09807371555	
577.5	0.05111404042	-0.3473603531	
578.125	-0.1796033599	-0.1538257328	
578.75	-0.0006105227578	-0.1132274138	
579.375	-0.1693003405	-0.1896394985	
580.0	-0.09770894017	0.1854563563	
580.625	-0.09049870845	-0.1908498345	
581.25	-0.1035297215	0.2259440917	
581.875	0.001144397516	0.0175171751	
582.5	-0.04511104489	0.3214948078	
583.125	0.2716371377	0.05763912486	
583.75	-0.09180057943	-0.009307459889	
584.375	0.2061811656	0.106167697	
585.0	0.05876476606	-0.02957226601	
585.625	0.2247119971	0.1187569407	
586.25	0.2306607649	-0.210510571	
586.875	0.01590273506	-0.0730114818	
587.5	0.05539870645	-0.2644887593	
588.125	-0.144801965	-0.1924904708	
588.75	0.06769666618	-0.05912240497	
589.375	0.1668565063	-0.2986359286	
590.0	-0.1827409217	-0.1424987612	
590.625	-0.1108294957	-0.1263881863	
591.25	-0.2823879972	0.2181337336	
591.875	0.1261726606	0.1198836187	
592.5	-0.1095683387	0.03909379199	
593.125	0.1712861665	0.04796076037	
593.75	-0.06713746085	0.1424165263	
594.375	0.3914133927	0.1420434581	
595.0	0.1666404525	-0.0244700673	
595.625	0.1998213262	0.2542238257	
596.25	0.3288001609	0.03308449956	
596.875	0.1167635996	-0.04183236241	
597.5	0.1594102142	0.2166390748	
598.125	0.2876326759	0.0529916465	
598.75	0.1323768134	0.05537146115	
599.375	0.3337945537	-0.02875113142	
600.0	0.1733936474	-0.2714029644	
600.625	0.1006821478	-0.13596699	
601.25	0.183265009	-0.2714086581	
601.875	-0.2244025533	-0.1873901597	
602.5	-0.04712246163	-0.01429908456	
603.125	-0.3485804281	0.0992734188	
603.75	-0.01019370503	0.1848684973	
604.375	-0.1183006962	-0.02146175115	
605.0	-0.1564852473	0.2166456669	
605.625	0.03569379976	-0.06020500276	
606.25	-0.289765933	0.03191589124	
606.875	-0.1683464563	0.2639531923	
607.5	-0.2762654227	0.1639080514	
608.125	0.01671217681	0.3743846566	
608.75	0.3507834873	0.1126222025	
609.375	0.1616962332	0.01318396541	
610.0	0.3364011405	-0.1773972673	
610.625	0.06499020041	-0.2574182821	
611.25	0.08732780882	-0.09355069421	
611.875	-0.2167450524	-0.2739572165	
612.5	-0.2155411817	0.06366149517	
613.125	-0.2329939851	-0.09385056237	
613.75	-0.1740250716	0.3476235229	
614.375	0.1440879831	-0.005243739704	
615.0	-0.03487649001	0.2118558908	
615.625	0.1500488079	0.06069776482	
616.25	-0.1639677796	0.1607731022	
616.875	-0.1729567797	0.3952261285	
617.5	0.001081684671	0.1909929164	
618.125	-0.1423558638	0.1848248321	
618.75	0.03545755036	0.1175986504	
619.375	0.1632536582	0.0877950854	
620.0	0.1918776427	-0.009857895506	
620.625	0.1629652622	-0.2849536084	
621.25	-0.2115091692	-0.1139418785	
621.875	-0.2293429525	-0.1753474626	
622.5	-0.4001074236	0.117908406	
623.125	0.06303124994	0.1582327011	
623.75	0.02245847187	0.169270894	
624.375	0.0583122726	-0.1868917247	
625.0	0.05091844862	0.07621416567	
625.625	0.0927035356	-0.2200620139	
626.25	-0.1447328463	-0.0827673251	
626.875	-0.08513044643	-0.177135644	
627.5	-0.3015526876	-0.05662335788	
628.125	-0.1218799436	-0.0170866356	
628.75	-0.03676344942	-0.2176738993	
629.375	-0.2362426309	-0.191726853	
630.0	-0.1618274982	-0.08874282769	
630.625	-0.2791920452	0.05146197749	
631.25	-0.2243093129	0.3461481952	
631.875	0.02398786207	0.2218200478	
632.5	0.1721763031	0.3494180704	
633.125	0.4500574856	0.002423453924	
633.75	0.1168253024	-0.06748988478	
634.375	0.2518956335	-0.2033263188	
635.0	-0.1628180442	-0.1928166186	
635.625	-0.07185159041	-0.1432801516	
636.25	-0.307605387	0.1511914466	
636.875	0.07040858884	0.2026991464	
637.5	-0.110092969	0.0237609176	
638.125	-0.05435031121	0.2580769973	
638.75	0.007739294717	0.07379925484	
639.375	-0.09422305268	0.3935971014	
640.0	0.3509116064	0.3142505006	
640.625	0.2178251069	0.06118250278	
641.25	0.3912046997	0.104728037	
641.875	0.1864891578	-0.4110135985	
642.5	-0.0459085211	-0.1274374575	
643.125	-0.1524186543	-0.3053741331	
643.75	-0.4106267844	0.03527097977	
644.375	-0.0152247031	-0.09226460507	
645.0	-0.3002975046	0.3256811808	
645.625	0.2617573917	0.2060805837	
646.25	-0.07577881277	0.09872835353	
646.875	0.3316489694	-0.02109145272	
647.5	-0.2759723979	-0.07472215097	
648.125	0.3622328479	0.2054749223	
648.75	0.2608302461	-0.2862049281	
649.375	0.2017883352	-0.131549561	
650.0	0.5132773137	-0.4807223519	
650.625	-0.03074015593	-0.5002401322	
651.25	0.2226417067	-0.1028662587	
651.875	0.506818362	-0.3077748224	
652.5	0.2113820879	-0.3552615557	
653.125	0.294379096	0.02608751347	
653.75	0.2960949747	-0.4985353121	
654.375	-0.2703905285	-0.2283140418	
655.0	-0.136649135	-0.1638520522	
655.625	-0.3844757191	0.3707584216	
656.25	0.2029949829	0.08645394968	
656.875	-0.08463954898	0.1386111665	
657.5	0.3510962416	0.1587777392	
658.125	-0.03363536442	0.07231571278	
658.75	0.5121048298	0.2662928236	
659.375	0.2675213831	-0.5067544665	
660.0	0.1857624378	-0.2251295593	
660.625	0.3283831463	-0.5269062914	
661.25	0.02599253592	-0.5505934078	
661.875	0.206956148	-0.1248881849	
662.5	0.4840090034	-0.3601053464	
663.125	0.1850127699	-0.388695987	
663.75	0.1796128709	-0.2242201832	
664.375	-0.07843570486	-0.5955360488	
665.0	-0.4152325166	-0.05392797604	
665.625	-0.3195015743	0.01734802819	
666.25	-0.1866380676	0.4705270803	
666.875	0.2629833736	0.1385211882	
667.5	0.04773857591	0.2298481282	
668.125	0.4190586642	-0.1018034064	
668.75	0.0774140057	-0.1918352763	
669.375	0.244727374	-0.2130717174	
670.0	-0.1682458925	-0.5361413874	
670.625	-0.06943671197	-0.04107696883	
671.25	0.1961769399	-0.2740961077	
671.875	0.04892031445	-0.3400148179	
672.5	0.151341259	-0.05628623691	
673.125	0.4286698506	-0.2596937973	
673.75	0.007091107947	-0.3734953899	
674.375	0.07956910738	-0.2030106577	
675.0	-0.1461985196	-0.4440728977	
675.625	-0.3886261499	-0.01368546338	
676.25	-0.0686419838	-0.1205742205	
676.875	-0.3624958586	0.01954306525	
677.5	-0.07068266705	0.1364378625	
678.125	-0.2325316727	0.05034578309	
678.75	0.1525638383	0.460892112	
679.375	0.2055136356	-0.1591365287	
680.0	0.2027422972	0.1382502047	
680.625	0.2023777055	-0.3367832153	
681.25	-0.1735619687	0.005830357642	
681.875	0.5189553107	0.281327789	
682.5	0.3384466524	-0.1383498	
683.125	0.08093192609	0.2921411572	
683.75	0.5007168884	0.2652584822	
684.375	0.4332816382	-0.2667528964	
685.0	0.2903543094	0.3490956112	
685.625	0.5347131336	-0.1937274724	
686.25	0.2502814532	-0.2292567426	
686.875	0.3250332634	0.01166409041	
687.5	0.3209525474	-0.647241815	
688.125	-0.189169455	-0.3507093686	
688.75	-0.4952526882	-0.302346553	
689.375	-0.4193299174	0.6414010572	
690.0	0.3248849573	0.2556157287	
690.625	0.1155603667	0.5064097951	
691.25	0.7765894036	0.2456554746	
691.875	0.3808037372	0.1934480899	
692.5	0.7867841025	0.5383713478	
693.125	1.010740775	-0.320758409	
693.75	0.4483714642	-0.04688875435	
694.375	0.7842357861	-0.453567993	
695.0	0.5362933767	-0.6519150537	
695.625	0.5172202249	0.04944879021	
696.25	0.8203597841	0.4677902479	
696.875	0.2811189681	0.3902100633	
697.5	0.3844271025	0.4773546445	
698.125	0.9099254295	0.3099661108	
698.75	0.2806005523	-0.9106135348	
699.375	-0.4180425628	-0.1819037122	
700.0	-0.5285280192	0.5854607664	
700.625	0.4315606512	0.4162294444	
701.25	0.09176795176	0.1839216432	
701.875	0.4530772125	0.5640644618	
702.5	0.4954566689	0.02504663465	
703.125	0.3753725612	0.2758412565	
703.75	0.6814290634	-0.1609162323	
704.375	0.1362216316	-0.3221013043	
705.0	0.3035679671	0.05326548209	
705.625	0.531252703	-0.140429443	
706.25	0.2120117119	0.1981068981	
706.875	0.3184138615	0.4727033645	
707.5	0.3506363059	0.4118495866	
708.125	0.3911987146	-0.01489985507	
708.75	0.1928268127	-0.4699729712	
709.375	-0.536023623	-0.346988386	
710.0	0.03697575646	0.6556848969	
710.625	-0.04737582282	0.2702161052	
711.25	0.4368107027	0.1135923433	
711.875	0.04238067577	0.1007605492	
712.5	0.6112021098	-0.01421877749	
713.125	0.2257658016	-0.387611773	
713.75	0.1494771327	-0.1301832479	
714.375	0.06340229918	-0.4698716124	
715.0	-0.1716159317	-0.2346809518	
715.625	0.1543902021	-0.17074969	
716.25	0.2628931016	-0.5192834283	
716.875	0.2081095064	-0.2894067642	
717.5	0.6603697841	0.1320268693	
718.125	1.065922138	0.008347993436	
718.75	0.5378856705	-0.373103943	
719.375	1.352134855	-0.3316923591	
720.0	0.2742372762	-1.777956799	
720.625	-0.6350973519	-0.9389055866	
721.25	0.1125678503	-1.450759388	
721.875	-1.041617945	-1.903899249	
722.5	-0.6320561698	-0.2764917919	
723.125	-1.305833088	-0.3645719508	
723.75	-0.3482162637	0.8856290197	
724.375	0.09114538985	0.2983526814	
725.0	0.1381779158	0.7426073201	
725.625	0.6412914245	0.426309259	
726.25	-0.1782476186	0.6364051681	
726.875	-0.1740433872	1.558762712	
727.5	0.5899075917	1.831533091	
728.125	-0.1276345968	1.652468494	
728.75	-0.5241803222	4.787003485	
729.375	1.816423312	4.820499816	
730.0	-0.6003025764	2.902819303	
730.625	1.182141767	8.316686282	
731.25	3.138276997	5.244336443	
731.875	-3.30208282	2.26448494	
732.5	-5.369430009	2.757604234	
733.125	-2.217755046	3.513567505	
733.75	-0.9112774954	0.2234803259	
734.375	1.801601433	0.5027067413	
735.0	-0.6023858432	-0.3625805042	
735.625	-0.5700044004	-0.0976476987	
736.25	0.2020690154	1.379011495	
736.875	0.5277617428	-0.0001894440055	
737.5	1.422759496	0.9186831969	
738.125	2.367526566	-1.55941376	
738.75	0.6698557794	-1.79138234	
739.375	3.330788753	0.08050853926	
740.0	6.340171945	-5.299714044	
740.625	-1.970079284	-3.008862363	
741.25	-0.9267040953	6.460057896	
741.875	-1.663885504	7.102323062	
742.5	1.655009199	-1.971009943	
743.125	-0.1696412999	-3.745045815	
743.75	-0.9952883698	-1.164660156	
744.375	-0.06630261012	-0.1164359169	
745.0	0.09242196976	0.3036023691	
745.625	-0.185838184	-0.03110371341	
746.25	0.06180474592	-0.2680066846	
746.875	-0.3423810199	0.2228934742	
747.5	0.001967500975	0.2799970045	
748.125	0.1035997788	0.7561398094	
748.75	0.6529777986	0.5967697462	
749.375	0.09442285838	0.4669126012	
750.0	-0.7521544232	0.2670852268	
