!Created with skrf (http://scikit-rf.org).
# GHz S RI R (50+0j) 
!freq	ReS11	ImS11	
500.0	2.140794932	-5.214697216	
500.625	-0.4863803307	-3.569256672	
501.25	-0.593175033	-0.305866191	
501.875	-0.8090126921	-2.397493613	
502.5	-0.4893203657	-0.1186491705	
503.125	-0.217656585	-0.06406995012	
503.75	0.2657036352	0.27927247	
504.375	0.02333470792	0.05977611116	
505.0	0.07380450076	-0.1995194058	
505.625	0.02205625756	0.1229327916	
506.25	-0.2727193683	-0.6739488298	
506.875	0.04046823094	0.8146210909	
507.5	0.8988656731	-1.024030079	
508.125	-0.2516357469	-3.067467528	
508.75	-0.3521991981	-1.08447936	
509.375	0.4875084237	-6.340637722	
510.0	-1.897979093	0.9500522602	
510.625	0.05646245618	-0.9221136255	
511.25	-0.7475451567	0.01952769566	
511.875	-0.2166853332	0.02769297243	
512.5	-0.06131779112	0.1138488842	
513.125	-0.005151093088	-0.4227982642	
513.75	-0.391783636	0.01764269112	
514.375	-0.01562753014	-0.2831872477	
515.0	-0.9357674772	0.2880693928	
515.625	1.899225407	-1.86538858	
516.25	-3.605361571	-1.8874776	
516.875	0.4929018648	0.07614341405	
517.5	-0.01963438541	-1.15782323	
518.125	-0.01085994604	0.3320218111	
518.75	-0.07506578344	-0.9066058818	
519.375	-0.1011710225	0.2489306807	
520.0	0.1025398396	0.193089027	
520.625	0.7241564724	-0.2449708691	
521.25	-0.3879444493	-0.5511813257	
521.875	-0.1729448742	-0.2099896969	
522.5	-0.1649390143	0.2178123943	
523.125	-0.2071039329	-0.06834113657	
523.75	-0.1488439063	0.2637453472	
524.375	-0.3996740563	-0.2051933269	
525.0	0.1447952236	0.6725457578	
525.625	-0.05808468961	-0.0970946475	
526.25	0.1071371871	0.08036091495	
526.875	-0.2682397707	-0.0003035271159	
527.5	0.09746161137	0.8306603595	
528.125	0.08892626847	0.2737763458	
528.75	-0.138947771	0.9859373882	
529.375	0.2167511285	-0.06767917483	
530.0	0.1242075305	0.8470941258	
530.625	0.2546788037	0.2956942831	
531.25	1.190330773	0.6735000476	
531.875	0.30236968	-0.8372625904	
532.5	0.1016107543	-0.2205365245	
533.125	-0.3328540861	-0.1969394044	
533.75	0.6118776122	-0.5955481005	
534.375	-0.8261262283	-0.5042411437	
535.0	-0.224176692	-0.3641697971	
535.625	-0.6629102874	0.429538607	
536.25	0.1285355777	0.1764735782	
536.875	0.1936860423	0.1689874824	
537.5	0.1836746287	-0.2190095178	
538.125	0.1432825192	0.03366820212	
538.75	0.4800300202	-0.4757663951	
539.375	-0.2231707123	-0.1822305691	
540.0	-0.2106938263	-0.4600869775	
540.625	-0.542465947	-0.0306073401	
541.25	-0.166579884	0.08173200621	
541.875	-0.01725514267	-0.04141099482	
542.5	-0.2105879015	-0.1913863303	
543.125	-0.09479882457	0.08373779508	
543.75	-0.2776799159	-0.1363625173	
544.375	0.01852212024	0.2066517344	
545.0	-0.1773256505	0.09025800556	
545.625	0.3344713872	0.1122845609	
546.25	-0.06998540206	0.06789059808	
546.875	0.5904394431	-0.03185848801	
547.5	-0.1028985304	-0.2819759767	
548.125	0.09692046977	-0.3114925847	
548.75	-0.4145960825	-0.4047338775	
549.375	-0.2501155731	0.0396693814	
550.0	-0.1933449404	-0.157692331	
550.625	-0.08990460714	0.163736453	
551.25	-0.1835282456	-0.07283042648	
551.875	-0.2092883831	0.2980502322	
552.5	-0.0165078634	0.1155341576	
553.125	-0.0800977375	0.1639323313	
553.75	0.1455430753	0.09311655699	
554.375	0.196219421	0.003030199888	
555.0	0.2457431782	-0.1756058776	
555.625	0.173559783	-0.264360215	
556.25	0.1495507042	-0.3257097281	
556.875	-0.09699268099	-0.3898013389	
557.5	-0.2512078077	-0.2306841846	
558.125	-0.2607716781	-0.07683210687	
558.75	-0.2513664145	-0.02556104025	
559.375	-0.2739173676	0.07660054369	
560.0	-0.1704781431	0.1603328916	
560.625	-0.170334736	0.2475371032	
561.25	0.09949340232	0.2598880314	
561.875	-0.02926929488	0.06582878766	
562.5	0.1467130116	0.1486248949	
563.125	0.03402040492	0.143545769	
563.75	0.4351341633	0.05562232925	
564.375	0.1829615004	-0.3522726449	
565.0	0.1625701466	-0.1849850632	
565.625	-0.0326543474	-0.4749625941	
566.25	-0.3501732158	-0.1352597906	
566.875	-0.1731502381	-0.207099234	
567.5	-0.4599259383	-0.3298476342	
568.125	-0.2789034066	-0.1683150969	
568.75	-0.5543403688	-0.3890078231	
569.375	-0.5413121095	0.4317361833	
570.0	-0.1527451929	0.2609468139	
570.625	-0.4633881535	0.4288537362	
571.25	0.3897857973	0.3663509842	
571.875	-0.2100657974	0.2194024089	
572.5	0.5952934697	-0.1294059508	
573.125	-0.1082102971	-0.09352440382	
573.75	0.4500124205	-0.2320906251	
574.375	-0.2752116219	-0.3000480066	
575.0	0.2492560277	0.152436605	
575.625	0.01026727086	-0.4500921798	
576.25	-0.1178512187	0.008551002495	
576.875	0.2847801854	-0.4410443376	
577.5	-0.2002141653	-0.5258624623	
578.125	-0.1260742646	-0.1211000991	
578.75	-0.02470474715	-0.4142714005	
579.375	-0.4451499974	-0.1565619714	
580.0	0.1027297596	0.02688797615	
580.625	-0.3609586869	-0.1801076489	
581.25	0.01180355324	0.2953725236	
581.875	-0.2109075122	0.1168926255	
582.5	0.06147874186	0.7048646833	
583.125	0.4807292091	-0.171404033	
583.75	-0.2954069905	0.2681548565	
584.375	0.4799273043	-0.1163796544	
585.0	-0.1365360216	0.3483724788	
585.625	0.7221177613	-0.1513354369	
586.25	-0.03035591568	-0.2085790962	
586.875	0.4938291082	-0.1508661339	
587.5	-0.241848663	-0.5429742294	
588.125	-0.0904372475	0.002067004896	
588.75	0.3632351344	-0.3681414056	
589.375	0.04445888808	-0.5607025733	
590.0	-0.03661456062	-0.2096885077	
590.625	-0.4784010643	-0.2646909735	
591.25	-0.1497225677	0.3698245408	
591.875	-0.1493559393	0.137289284	
592.5	0.05820311648	0.2548445165	
593.125	-0.1008151922	-0.05165123484	
593.75	0.1001777827	0.494749972	
594.375	0.5598067799	0.02685934298	
595.0	0.05677531728	0.0610702454	
595.625	0.4524599878	0.6716525804	
596.25	0.4547634548	-0.3549310802	
596.875	0.1099693201	0.4199999808	
597.5	0.7013750743	0.115991573	
598.125	-0.02243074967	0.05637188897	
598.75	0.7189616996	0.5123765384	
599.375	0.2817656236	-0.3578537938	
600.0	0.3475814823	-0.09287263585	
600.625	0.4993407191	-0.4387644575	
601.25	-0.01484171981	-0.5355576189	
601.875	-0.09844075626	-0.2431870598	
602.5	-0.309596806	-0.06755884134	
603.125	-0.2777998505	0.09950408376	
603.75	-0.1608802997	0.1482727473	
604.375	-0.2490948287	0.1051727159	
605.0	-0.1432932478	0.2489328016	
605.625	-0.1605365147	0.001342437183	
606.25	-0.3689751071	0.3349180975	
606.875	-0.07062709486	0.09443116505	
607.5	-0.7803120084	0.297278608	
608.125	0.3889443919	0.6889442258	
608.75	0.0191972359	0.3373573464	
609.375	0.9171618273	-0.1115267501	
610.0	-0.03970845657	-0.2985754311	
610.625	0.5354498201	-0.2821667609	
611.25	-0.2649719877	-0.4062123266	
611.875	0.1192864135	-0.2538868494	
612.5	-0.6434299383	-0.1212931621	
613.125	-0.1562974242	-0.01903611385	
613.75	-0.4403328133	0.4523141391	
614.375	0.2663266795	0.07837281674	
615.0	-0.05647230249	0.4512518572	
615.625	0.2024799926	-0.0717407488	
616.25	-0.3872804012	0.3300927439	
616.875	-0.00506203229	0.6996229405	
617.5	-0.1126099813	0.1136796949	
618.125	-0.188318243	0.7419499142	
618.75	0.2932729581	0.3080266748	
619.375	-0.0126764233	0.3974063695	
620.0	0.5838754502	-0.008342423973	
620.625	0.1935350644	-0.2049543889	
621.25	-0.2567296064	-0.5120147335	
621.875	-0.3869621591	-0.08441398121	
622.5	-0.576503375	0.07065801023	
623.125	0.09071982956	0.365251797	
623.75	0.1669014077	0.288407832	
624.375	0.0794376453	-0.4072511612	
625.0	0.1630071188	0.3088201164	
625.625	0.04784936862	-0.6168365862	
626.25	0.01079311931	0.05636035763	
626.875	-0.3874466641	-0.5041317736	
627.5	-0.3827919972	0.2202561987	
628.125	0.06240522759	-0.2973668368	
628.75	-0.5345208637	-0.3479033359	
629.375	0.003844626268	-0.1416428392	
630.0	-0.4777781011	-0.4244136062	
630.625	-0.5965061149	0.3170830976	
631.25	-0.1327383411	0.3783966431	
631.875	-0.1600617167	0.5041004294	
632.5	0.3555860994	0.499219249	
633.125	0.4976503255	0.01377132638	
633.75	0.2818075698	-0.06065115735	
634.375	0.1398983114	-0.4845736389	
635.0	0.0140367625	-0.1888344151	
635.625	-0.3825125099	-0.3251535733	
636.25	-0.3059327445	0.357279309	
636.875	-0.05654250619	-0.02778016989	
637.5	-0.3825851526	0.5807182812	
638.125	0.3061886362	0.03542333332	
638.75	-0.5453886257	0.2158891832	
639.375	0.2201657596	0.865272845	
640.0	0.3622567427	0.1877468852	
640.625	0.4461291817	0.6808189816	
641.25	0.7912457079	-0.3627493343	
641.875	0.2521391424	-0.06073566404	
642.5	0.1841936794	-0.8665819761	
643.125	-0.529472401	0.1695839095	
643.75	0.03577759874	-0.3257430089	
644.375	-0.727473982	-0.000265881274	
645.0	-0.1210222251	0.5139372801	
645.625	0.00924094043	0.1410123982	
646.25	0.5233166456	0.5581564246	
646.875	0.1286556015	-0.4007279846	
647.5	0.07480815634	0.4374264738	
648.125	0.507260671	-0.33923557	
648.75	0.2623984875	0.3960300427	
649.375	0.9633099479	-0.9085114753	
650.0	-0.2749356027	-0.8737227104	
650.625	0.4256394302	0.05107006697	
651.25	1.040876979	-1.049228529	
651.875	-0.1878430713	-0.6944592417	
652.5	0.6629202808	0.3373785499	
653.125	0.8936105508	-0.741934171	
653.75	-0.0481850277	-0.2616533798	
654.375	0.3328015748	-0.9660640439	
655.0	-1.02467895	0.09717109737	
655.625	0.03464724386	0.3121206778	
656.25	-0.3845465376	0.4182328907	
656.875	0.5664068382	0.2455745819	
657.5	-0.3606167668	0.1039289618	
658.125	0.6241205262	0.5259000397	
658.75	0.5815072541	-0.08916885008	
659.375	0.5406737607	-0.04703611227	
660.0	0.8658907415	-0.9702465818	
660.625	-0.2406762165	-0.7001263049	
661.25	0.54387425	-0.2575016402	
661.875	0.8089099529	-0.8882582891	
662.5	0.08933942276	-0.8302071738	
663.125	0.6353502025	0.1612572118	
663.75	0.2958920376	-1.236897405	
664.375	-0.2017626197	-0.2386208295	
665.0	-0.5429279899	-0.93303953	
665.625	-0.6425364883	0.7456740903	
666.25	-0.2407345019	0.1694160594	
666.875	0.1889980915	0.7420510255	
667.5	0.6653662373	0.01900421477	
668.125	0.1343366597	-0.02769135022	
668.75	0.7640222221	-0.2583358992	
669.375	-0.06187394253	-0.6212116856	
670.0	0.09611619054	-0.3111617717	
670.625	0.05052399221	-0.6687780634	
671.25	-0.1364780088	-0.2025998746	
671.875	0.5540168386	-0.4088689428	
672.5	0.3818303508	-0.5491480169	
673.125	0.1729072749	-0.4171275579	
673.75	0.4538333608	-0.1002092744	
674.375	0.2440187277	-1.15650531	
675.0	-0.5687274024	0.06895481966	
675.625	-0.1140125453	-0.73461282	
676.25	-0.8075814697	0.263708468	
676.875	0.2882608105	-0.1821271505	
677.5	-0.9677003757	0.3224065163	
678.125	0.2555407675	0.1592696063	
678.75	-0.3589835667	0.5621955622	
679.375	0.9524517127	0.240542957	
680.0	-0.01487742295	-0.5426903676	
680.625	0.2632632639	0.2292599431	
681.25	0.4027660692	-0.2537968465	
681.875	0.1574487833	-0.08875650596	
682.5	0.3732868883	0.4665659389	
683.125	0.8295326694	-0.04951817822	
683.75	0.3915758847	0.133684141	
684.375	0.5834826759	0.2852814358	
685.0	0.9449628989	-0.244559397	
685.625	0.01963923995	0.05012290568	
686.25	1.362950375	0.1854906125	
686.875	0.1754662467	-1.155280476	
687.5	0.5764676933	0.1002918056	
688.125	0.008223937859	-1.845055621	
688.75	-0.7066776271	0.6114667943	
689.375	-1.316920837	0.2063013114	
690.0	0.940745664	0.9972103507	
690.625	-0.066318913	0.2128571249	
691.25	1.319126424	1.056696883	
691.875	0.9117943923	0.171247739	
692.5	1.215266883	0.6566988521	
693.125	1.621720977	-0.1065479504	
693.75	1.245288793	-0.7123914659	
694.375	0.9212867379	-0.9649469609	
695.0	0.7520009172	-0.6415513318	
695.625	1.479067924	-0.1472638816	
696.25	1.051386484	-0.1272730355	
696.875	0.5680887896	1.14746192	
697.5	1.683873711	0.8197336787	
698.125	0.5619444645	0.2660467402	
698.75	1.664293528	-1.215271428	
699.375	-1.601275652	-0.2305014362	
700.0	-0.7786561661	-0.04421508082	
700.625	0.8050377987	1.133416604	
701.25	0.1247640269	0.02318631566	
701.875	0.8791218566	1.114857367	
702.5	0.7227265486	-0.07970939334	
703.125	0.847482208	0.6824334433	
703.75	1.043643629	-0.6209892423	
704.375	0.2510782226	-0.1158290677	
705.0	1.006214175	-0.5583086463	
705.625	0.1250969456	-0.2966740566	
706.25	0.5318367682	0.8953637023	
706.875	1.173338116	0.3211876967	
707.5	0.08413084236	0.7594825378	
708.125	1.607670368	0.2607344938	
708.75	0.000832438081	-0.9354758672	
709.375	-0.3491940436	-0.9991851513	
710.0	-0.3487471798	1.03369197	
710.625	0.03168232885	0.02415433793	
711.25	0.3739777231	0.446946023	
711.875	0.4085519699	0.2043025848	
712.5	0.8043318163	-0.2010777679	
713.125	0.3870442444	-0.3386842695	
713.75	0.5324255707	-0.6273449483	
714.375	-0.3336662247	-0.6138814174	
715.0	0.3314527267	-0.2513802604	
715.625	-0.267440359	-0.8729613661	
716.25	0.1077716561	0.01011994136	
716.875	1.561782949	-0.335302041	
717.5	1.018554908	-1.498976942	
718.125	0.5317367637	1.603837353	
718.75	3.426070881	-1.085311697	
719.375	0.4142107998	-1.58499527	
720.0	2.233549085	-0.6657385519	
720.625	-0.6402380007	-3.854158871	
721.25	0.2987355892	-1.010905162	
721.875	-0.7836310904	-3.256242363	
722.5	-2.359337197	-1.397800371	
723.125	-1.03322889	-0.01710179844	
723.75	-1.494446798	1.111868987	
724.375	0.597838564	1.159931685	
725.0	0.3810259216	0.5594379194	
725.625	0.04207646181	1.061954779	
726.25	0.6096541993	2.270979284	
726.875	0.2958020397	0.8376831971	
727.5	-1.450240591	3.98923953	
728.125	2.405638306	5.777605376	
728.75	-0.8528504411	1.951559064	
729.375	-6.402956098	15.15294272	
730.0	8.563488091	6.562610636	
730.625	-6.302289776	7.108937604	
731.25	-5.891746519	17.84903694	
731.875	3.829541907	9.263729031	
732.5	-10.34605136	-2.396921587	
733.125	-7.343213318	4.041023476	
733.75	-0.02794228473	3.130216083	
734.375	1.49162377	2.368228939	
735.0	-1.319201717	-1.989667328	
735.625	-0.3137545211	-0.01440935684	
736.25	-0.7372284233	1.447808083	
736.875	1.815000534	1.639242335	
737.5	2.055223367	-1.419131431	
738.125	2.895637205	1.521843889	
738.75	6.559992968	-6.189953936	
739.375	0.3618997469	-6.287239268	
740.0	10.09275501	8.704663733	
740.625	17.98639928	-9.698303448	
741.25	-20.7996722	-5.866228637	
741.875	-17.42084531	3.339922233	
742.5	-7.679656556	4.275278298	
743.125	8.383438952	-3.690692995	
743.75	-0.7888024739	-5.14482303	
744.375	-0.6720910986	0.7527151059	
745.0	-0.2296490692	0.2513911783	
745.625	0.2155996446	-0.341470069	
746.25	0.2408701136	-0.2539262017	
746.875	-0.6652698666	0.7693231964	
747.5	0.1644588176	0.8731142363	
748.125	-0.08963887374	1.122369257	
748.75	1.326460146	1.76253024	
749.375	0.2660265989	1.10469882	
750.0	-0.7570738369	0.1402195361	
