!Created with skrf (http://scikit-rf.org).
# GHz S RI R (50+0j) 
!freq	ReS11	ImS11	
500.0	1.252231686	-1.267143637	
500.625	0.7003946962	-4.707277595	
501.25	-2.419820945	-0.9488081105	
501.875	-0.9985746873	-0.1544476533	
502.5	-0.09537801771	-0.6374305941	
503.125	-0.1772660199	0.255384296	
503.75	-0.151584431	0.1094105969	
504.375	0.1402862764	-0.1139310364	
505.0	0.04240173397	0.09144450219	
505.625	-0.118350811	-0.3695080422	
506.25	0.1135349714	0.2432624601	
506.875	-1.247825399	-0.4869385659	
507.5	-1.311979851	0.1037881739	
508.125	1.209781771	-0.8140014126	
508.75	1.755565542	-4.686679635	
509.375	-1.682989031	-1.820167962	
510.0	-0.8005236987	-1.704858969	
510.625	-0.8072703568	-0.3165304009	
511.25	-0.3512363634	-0.4881492575	
511.875	-0.5876287231	-0.0818361189	
512.5	-0.02554820453	0.1910197452	
513.125	0.02598646484	-0.2178472175	
513.75	-0.1754843677	-0.3125770354	
514.375	-0.4171223266	0.3538476869	
515.0	0.9266781542	-1.222993194	
515.625	-1.656086911	0.09054611743	
516.25	1.493603264	-2.37765678	
516.875	-2.192559994	-1.717624786	
517.5	0.005201173175	0.419860052	
518.125	-0.3175409959	-0.3889508799	
518.75	-0.08261122998	0.2102736662	
519.375	-0.24728664	0.07427356322	
520.0	0.4739659378	0.08796064835	
520.625	0.2479701995	-0.1719244622	
521.25	0.1839233636	-0.8415846412	
521.875	-0.4145070648	0.1949090553	
522.5	-0.1138927326	-0.1081101863	
523.125	-0.03942031326	0.2439793839	
523.75	-0.3434307771	-0.2718381065	
524.375	-0.1757919228	0.3768454241	
525.0	-0.3296953014	0.145423647	
525.625	0.3299854845	0.2677352918	
526.25	-0.280730135	-0.05473231042	
526.875	0.06011557863	0.1779988151	
527.5	-0.3675727411	0.2668756204	
528.125	0.4220477392	1.138104962	
528.75	0.2936872614	0.143679634	
529.375	0.131603188	0.4001449152	
530.0	0.02981164278	0.05503396555	
530.625	0.7147097599	1.323018122	
531.25	0.5674143984	-0.1073587945	
531.875	0.8946979487	-0.3609632882	
532.5	-0.5251787277	-0.07551923795	
533.125	0.6023261297	-0.4335278769	
533.75	-0.1910623501	-0.290836135	
534.375	0.02642518941	-1.036092013	
535.0	-0.8676639645	0.2697205303	
535.625	-0.2962813	0.0228258087	
536.25	-0.0608917606	0.3413706586	
536.875	0.2545080304	-0.106085114	
537.5	0.1782736321	0.03404791524	
538.125	0.3126621493	-0.313748642	
538.75	0.1760701969	-0.1296831265	
539.375	-0.1561412844	-0.5745239922	
540.0	-0.5099716203	-0.08310666265	
540.625	-0.2380379403	-0.1962288796	
541.25	-0.3081419484	0.01905621137	
541.875	-0.1082101815	0.02169627998	
542.5	-0.001891754562	-0.1091347497	
543.125	-0.3534978444	-0.2051168946	
543.75	-0.02708539623	0.191912331	
544.375	-0.2754508853	0.0266210392	
545.0	0.2003144151	0.1155596721	
545.625	-0.09234843725	0.2686808722	
546.25	0.446102403	-0.08390705037	
546.875	0.03284813657	0.07663621783	
547.5	0.3970994329	-0.4094994935	
548.125	-0.3362624709	-0.2990661725	
548.75	-0.09245091073	-0.2050455011	
549.375	-0.3362187198	-0.3017160934	
550.0	-0.1301578029	0.1720882199	
550.625	-0.1946263014	-0.1247250975	
551.25	-0.09238306152	0.1994971087	
551.875	-0.2164803168	0.05231314611	
552.5	-0.09463836829	0.2973363044	
553.125	-0.009874927531	0.09566085638	
553.75	0.1085240797	0.1400628241	
554.375	0.2347033898	-0.02829689711	
555.0	0.2008220615	-0.1613677273	
555.625	0.2047391016	-0.2496036698	
556.25	0.1359517564	-0.3486759955	
556.875	-0.09188326095	-0.3633194949	
557.5	-0.2337214994	-0.2384567974	
558.125	-0.2863934194	-0.0805867653	
558.75	-0.2345685702	0.01189440371	
559.375	-0.2516261404	0.01800225582	
560.0	-0.2388366564	0.2175201468	
560.625	-0.05230132077	0.229237129	
561.25	-0.05231650601	0.2179188565	
561.875	0.165282983	0.1077937859	
562.5	-0.08659447727	0.1023339909	
563.125	0.292451929	0.130319231	
563.75	0.169371572	0.04604214587	
564.375	0.4302745978	-0.2424430192	
565.0	0.004027118844	-0.4103915982	
565.625	0.02487049825	-0.2387185625	
566.25	-0.2732624007	-0.3680573418	
566.875	-0.4136305606	-0.03132624316	
567.5	-0.1451249803	-0.2346617468	
568.125	-0.4531230164	-0.5338726727	
568.75	-0.4593825041	0.04576351328	
569.375	-0.6226486308	-0.01153677029	
570.0	-0.2013953299	0.7026090252	
570.625	0.00471131203	0.16126527	
571.25	-0.3092658707	0.4324616158	
571.875	0.3781616812	-0.1426543566	
572.5	0.1840873937	0.3466645578	
573.125	0.3159346588	-0.5384232323	
573.75	-0.2032413297	-0.1301121054	
574.375	0.3560792722	-0.133152871	
575.0	-0.2688747712	-0.1771739812	
575.625	0.347024996	-0.04975586083	
576.25	0.04307197829	-0.5274931149	
576.875	-0.1553644094	-0.05202279711	
577.5	0.3067230205	-0.3919438213	
578.125	-0.2946892029	-0.5425511535	
578.75	-0.2479056054	-0.07467841098	
579.375	0.02068647816	-0.239305784	
580.0	-0.3690241069	-0.09039502662	
580.625	0.1256987441	-0.1059299507	
581.25	-0.4604258187	0.2772592951	
581.875	0.2946867351	0.2901636192	
582.5	-0.1328443511	0.08310926342	
583.125	0.1965341796	0.6070096561	
583.75	0.1453611396	-0.4623192049	
584.375	-0.01386692374	0.5389750521	
585.0	0.4462507308	-0.2140370259	
585.625	0.07334601472	0.2493659584	
586.25	0.6498903447	-0.3296654983	
586.875	-0.1200769983	-0.1567302529	
587.5	0.2669265595	-0.3750304529	
588.125	-0.288931031	-0.4747768093	
588.75	-0.04223433749	-0.007280985516	
589.375	0.474705615	-0.3977213287	
590.0	-0.3245096316	-0.4310350022	
590.625	-0.2706182999	-0.02518960602	
591.25	-0.378057742	0.118582405	
591.875	-0.02220254386	0.4695205296	
592.5	-0.05494491169	-0.05321618218	
593.125	0.02395278868	0.2134145476	
593.75	-0.007548685002	0.1570167885	
594.375	0.4242942587	0.4830573474	
595.0	0.6346704757	-0.01532991533	
595.625	-0.03125003459	0.1315031062	
596.25	0.6177814069	0.4535085139	
596.875	0.317955843	-0.3403762092	
597.5	0.1081262274	0.4159433007	
598.125	0.6565516398	0.1975180958	
598.75	0.07665535554	0.1335264471	
599.375	0.8168169593	0.01419763544	
600.0	0.1080435094	-0.4616108984	
600.625	0.3359809662	-0.1752922193	
601.25	0.302441348	-0.5475074378	
601.875	-0.3360110999	-0.2730874919	
602.5	-0.2163675229	-0.07408816312	
603.125	-0.2230635555	0.07242046896	
603.75	-0.3482406949	0.23822854	
604.375	-0.009963059739	0.1725100394	
605.0	-0.324828737	0.1100074615	
605.625	-0.003154359249	0.2652321151	
606.25	-0.3422959084	-0.06415203354	
606.875	-0.4778512809	0.5296092182	
607.5	-0.1445941109	0.1227472842	
608.125	-0.4461341076	0.7731835665	
608.75	0.6929841173	0.0003418126933	
609.375	0.3713725247	0.3010606747	
610.0	0.5740894833	-0.5063603019	
610.625	-0.08687270645	-0.1767682673	
611.25	0.2618254376	-0.5749192403	
611.875	-0.2801859919	0.0060433934	
612.5	-0.25637819	-0.351183017	
613.125	-0.554141398	0.2996006501	
613.75	-0.1880925658	0.009051829901	
614.375	0.1717374671	0.4763322046	
615.0	-0.01148487652	-0.1487635031	
615.625	0.04834027369	0.5411447984	
616.25	0.06534727893	0.005201654402	
616.875	-0.4811440651	0.4769848484	
617.5	0.1073808284	0.6978914989	
618.125	-0.1498441283	0.1431552255	
618.75	0.104422461	0.7106576438	
619.375	0.2794684298	0.1318317016	
620.0	0.3997410968	0.2880936927	
620.625	0.1367234622	-0.4440270756	
621.25	-0.08547787438	-0.418595965	
621.875	-0.5552006987	-0.08780603944	
622.5	-0.3740082203	0.09133564345	
623.125	-0.1538499758	0.5765033311	
623.75	0.1710939032	-0.1417518612	
624.375	0.3528744793	-0.002833277159	
625.0	-0.2760934342	-0.02771103322	
625.625	0.4361732255	-0.1436023876	
626.25	-0.4476180184	-0.4008119269	
626.875	0.02850725534	-0.01689452896	
627.5	-0.5564386759	-0.3164362983	
628.125	-0.2915086697	0.08451090278	
628.75	0.06885850336	-0.3653207756	
629.375	-0.505931897	-0.3638996597	
630.0	-0.1528163061	-0.1994553176	
630.625	-0.6633377643	0.08824058909	
631.25	-0.2457687573	0.6117152163	
631.875	0.02562308034	0.3865214155	
632.5	0.2288361985	0.4515436837	
633.125	0.5689001002	0.1763543446	
633.75	0.2892610785	-0.314078606	
634.375	0.2108488496	-0.1288122266	
635.0	-0.1632650832	-0.5564255813	
635.625	-0.02653817411	-0.04708811484	
636.25	-0.5819103601	0.1459395326	
636.875	0.08033903352	0.3813481108	
637.5	-0.211107539	-0.1230798233	
638.125	-0.09767594335	0.7450286911	
638.75	0.06722756305	-0.08527824209	
639.375	-0.3753148272	0.7137004613	
640.0	0.6731559286	0.6294666655	
640.625	0.4286258519	0.01866142625	
641.25	0.6620336859	0.3948099135	
641.875	0.2051545793	-0.7346429285	
642.5	0.1821689676	-0.1670540778	
643.125	-0.4710843427	-0.6359966397	
643.75	-0.1616473588	0.3615501744	
644.375	-0.4212627541	-0.4264278579	
645.0	-0.4157908739	0.6306148723	
645.625	0.346377488	0.3628919875	
646.25	0.03609338263	0.03352518643	
646.875	0.6679521464	0.2183692912	
647.5	-0.333088069	-0.1789719068	
648.125	0.6824053108	0.3935034544	
648.75	0.3686179626	-0.646059596	
649.375	0.5491878227	0.1503245436	
650.0	0.658207443	-1.344006273	
650.625	-0.37102162	-0.56723014	
651.25	0.7693081336	0.1316016693	
651.875	1.015427898	-0.9754290757	
652.5	-0.01123150172	-0.464051211	
653.125	0.815564886	0.1782259607	
653.75	0.3406372755	-1.022713804	
654.375	-0.1160122158	-0.1669223797	
655.0	-0.7459685497	-0.7329526108	
655.625	-0.164564224	0.8881486585	
656.25	0.05464621693	-0.03738292749	
656.875	-0.01681021271	0.5277369688	
657.5	0.3398697751	-0.06283204335	
658.125	-0.07863091432	0.4467551489	
658.75	1.049341991	0.2144226954	
659.375	0.4700133142	-0.5231738999	
660.0	0.4494415514	-0.318285166	
660.625	0.568839402	-1.20582971	
661.25	-0.2472691321	-0.4827969193	
661.875	0.8346929214	-0.2565701352	
662.5	0.7387754238	-0.9269460696	
663.125	0.03057112236	-0.5213593072	
663.75	0.8422003682	-0.3730004365	
664.375	-0.5821110915	-0.9973426578	
665.0	-0.2114773027	-0.1960212487	
665.625	-1.079994387	0.07960515883	
666.25	0.2234058184	0.7373858799	
666.875	-0.1266303379	0.3992476853	
667.5	0.6652979581	0.3226880972	
668.125	0.3936136515	-0.3419235157	
668.75	0.3037622788	-0.02586237476	
669.375	0.4333483857	-0.7083920489	
670.0	-0.2920811208	-0.4552113869	
670.625	0.1504086466	-0.2946844471	
671.25	0.1709284114	-0.5878898872	
671.875	-0.001233935076	-0.2830134357	
672.5	0.7124238757	-0.2648484097	
673.125	0.3314407028	-0.6472266315	
673.75	0.08009979319	-0.3110793963	
674.375	0.4954458287	-0.4922540529	
675.0	-0.6690511037	-0.9394976685	
675.625	-0.06290127469	0.2919732916	
676.25	-0.6577434248	-0.5444331204	
676.875	-0.3109256026	0.5305731442	
677.5	-0.2248231449	-0.4890983133	
678.125	-0.3490907173	0.9443853858	
678.75	0.0009112581296	-0.02686676602	
679.375	0.4565142486	0.5364566025	
680.0	0.5700677245	-0.5685074192	
680.625	-0.3426300593	-0.05933798331	
681.25	0.5946145253	0.2030274006	
681.875	0.4360980059	-0.1585596274	
682.5	0.3189673225	0.05651243513	
683.125	0.4310136924	0.4300220167	
683.75	0.9222892695	-0.1270878677	
684.375	0.3212791752	0.01814307461	
685.0	0.806113623	0.3716160914	
685.625	0.7258705912	-0.5666142916	
686.25	0.2296955043	0.5230468216	
686.875	1.413908734	-0.9675963259	
687.5	-0.4119005713	-0.5186774155	
688.125	0.6425107776	-0.9780292623	
688.75	-1.764024396	-0.3460156543	
689.375	0.1020798099	0.3329397968	
690.0	-0.1526913218	1.385305228	
690.625	0.8009274474	0.01409772762	
691.25	0.2563164518	0.9264072845	
691.875	1.63292291	0.584316451	
692.5	0.9766622539	0.2802613219	
693.125	1.556278045	0.06490395275	
693.75	1.347394793	-0.6424957666	
694.375	0.9506893872	-0.9291768633	
695.0	0.8705552828	-0.8946783192	
695.625	0.994007899	0.06606743567	
696.25	1.722038216	0.1919067086	
696.875	0.5784777462	0.2766032795	
697.5	1.010934333	1.654646694	
698.125	1.500173314	-0.542641241	
698.75	1.065608162	-0.3051921075	
699.375	-1.610421683	-1.219924405	
700.0	0.2234989414	0.7449046539	
700.625	-0.2488959871	1.165810212	
701.25	0.8575447117	-0.04167858728	
701.875	0.1637320125	0.7067752955	
702.5	1.39629176	0.5395788183	
703.125	0.4711273143	0.1134120538	
703.75	1.256501291	-0.1123406516	
704.375	0.2723813958	-0.7511748147	
705.0	0.6474258056	0.1315255247	
705.625	0.8222706205	-0.6541450599	
706.25	0.09210066422	0.398122783	
706.875	0.8735630844	1.108283142	
707.5	0.7750384919	0.02084419565	
708.125	1.044124678	0.7163393471	
708.75	0.5795264466	-1.391344223	
709.375	-0.4668514773	-0.2009165354	
710.0	-0.7442799591	0.5510341558	
710.625	0.5439465937	0.1521897169	
711.25	0.02791185881	0.451656481	
711.875	0.6556134703	0.1257646001	
712.5	0.749143253	-0.0009570145641	
713.125	0.4539371786	-0.6043311615	
713.75	0.3281449971	-0.3349264633	
714.375	-0.002544337345	-0.9079114641	
715.0	-0.3111166875	-0.04508035692	
715.625	0.5415449457	-0.7434641926	
716.25	-0.4194171459	-0.8114115066	
716.875	0.8468779007	0.3438974656	
717.5	2.272725405	-0.5035219034	
718.125	-0.07373078491	-1.105369275	
718.75	3.078224998	1.466966016	
719.375	1.329574821	-3.033303787	
720.0	0.4731799784	-1.021257139	
720.625	1.808727976	-2.827461324	
721.25	-1.832428213	-2.465949218	
721.875	0.3842303485	-2.225541443	
722.5	-2.114409217	-2.083741854	
723.125	-1.8818813	0.5378524616	
723.75	-0.8777509787	0.42190472	
724.375	0.1512018765	1.596765567	
725.0	0.6682488368	0.5562464886	
725.625	0.1587497868	0.7564069062	
726.25	-0.2653502398	1.961770448	
726.875	1.317737276	2.994800801	
727.5	-1.08842616	1.202233767	
728.125	-0.4376135493	7.46313209	
728.75	5.55219924	5.606875716	
729.375	-7.583396615	3.904086997	
730.0	6.444214289	19.60711029	
730.625	2.779585618	0.2745248577	
731.25	-9.276598073	8.822453833	
731.875	-4.107623063	14.44448202	
732.5	-1.105233412	1.901413681	
733.125	-8.745193776	-1.077027736	
733.75	-0.6185275374	4.5581132	
734.375	1.42088696	-0.06867677193	
735.0	0.7828895965	-2.237195759	
735.625	-0.4027111029	1.289703186	
736.25	-0.8750143524	0.921885096	
736.875	1.531011548	1.930210992	
737.5	3.212164041	-0.7926340987	
738.125	0.8696058175	-1.144543106	
738.75	8.649558399	0.2632220713	
739.375	5.801518659	-11.47492119	
740.0	-5.796756408	-0.901198484	
740.625	20.96863212	3.860280015	
741.25	11.22465305	-16.95305362	
741.875	-8.642789189	-16.71463906	
742.5	-11.76131743	-5.402686741	
743.125	1.539883994	2.043850867	
743.75	1.830022789	-5.158665964	
744.375	-2.271343345	1.035369939	
745.0	-0.08402150158	-0.295162977	
745.625	0.3357552328	-0.004172871254	
746.25	-0.3570672177	-0.1560651291	
746.875	-0.5559023623	-0.005018257654	
747.5	-0.2234301946	0.9688598968	
748.125	0.6077942451	0.5946808825	
748.75	0.4605762416	1.71302599	
749.375	0.6740863199	1.535856577	
750.0	0.08986943949	0.5863799746	
