!Created with skrf (http://scikit-rf.org).
# GHz S RI R (50+0j) 
!freq	ReS11	ImS11	
500.0	-0.4943485415	-1.490860797	
500.625	1.993624619	-1.837496903	
501.25	-3.761477354	-3.347135046	
501.875	-0.9494935206	0.2366973694	
502.5	-0.1073120514	-0.8618940643	
503.125	-0.1238015634	0.1695473532	
503.75	-0.09894211117	0.2809718208	
504.375	0.1044806698	-0.1157826903	
505.0	0.08239346087	0.1298466226	
505.625	-0.09249636104	-0.4382182393	
506.25	-0.1180539418	0.2541263591	
506.875	-0.5748144952	-0.8936572864	
507.5	-1.797684502	-0.3898495611	
508.125	1.687028731	-1.105794902	
508.75	1.195814217	-5.203853549	
509.375	-1.7277256	-1.386414139	
510.0	-1.938460337	-2.239421093	
510.625	-0.9452418982	0.3671899158	
511.25	-0.526507917	-0.3058480774	
511.875	-0.5817947457	-0.1487727461	
512.5	-0.04474985444	0.1075434351	
513.125	-0.04992034879	-0.1390809061	
513.75	-0.1695813007	-0.4712453086	
514.375	-0.422482989	0.4211409136	
515.0	0.8197442744	-1.309210792	
515.625	-1.577440849	0.2748775474	
516.25	2.060442193	-3.166037553	
516.875	-2.753037085	-1.642662049	
517.5	0.08385022472	0.4090367316	
518.125	-0.3259947368	-0.4569421447	
518.75	0.01251829229	0.284893054	
519.375	-0.3783534559	0.09642658538	
520.0	0.5079450527	0.07407952208	
520.625	0.2546045056	-0.1312782149	
521.25	0.2780351639	-1.035418812	
521.875	-0.4192019551	0.1641273598	
522.5	-0.1453471581	-0.07037780577	
523.125	0.01083887976	0.1814343461	
523.75	-0.5065534168	-0.2555104921	
524.375	-0.1198812044	0.3639614899	
525.0	-0.332000131	0.1505780314	
525.625	0.2987242022	0.29057578	
526.25	-0.2841952678	-0.0738301885	
526.875	0.08037848453	0.156046014	
527.5	-0.4700515988	0.3199380693	
528.125	0.5011654034	1.215651947	
528.75	0.03757758026	0.1813809051	
529.375	0.2654666176	0.4172455072	
530.0	-0.1542121142	0.03249556009	
530.625	0.5530584051	1.431017536	
531.25	0.7786905115	-0.03068757687	
531.875	0.9632388478	-0.2902450327	
532.5	-0.5330936111	-0.1580067051	
533.125	0.6097637873	-0.3926227218	
533.75	-0.289315604	-0.1965325983	
534.375	0.3239254922	-1.42323288	
535.0	-0.97202619	0.09679796348	
535.625	-0.2646165591	0.07391539572	
536.25	-0.09598067771	0.3529790914	
536.875	0.2233362982	-0.1292799522	
537.5	0.2944916519	0.02876912414	
538.125	0.2262314778	-0.3401712259	
538.75	0.2797624612	-0.04721718634	
539.375	-0.1931651304	-0.6489502917	
540.0	-0.5182037	-0.1382783363	
540.625	-0.3296795075	-0.1029571422	
541.25	-0.1877392922	-0.04743914086	
541.875	-0.242444296	-0.0286156661	
542.5	0.04537297962	-0.0854934215	
543.125	-0.3666066573	-0.1834422116	
543.75	-0.03888951058	0.07739374023	
544.375	-0.2946547198	0.1075788065	
545.0	0.1558033471	0.07716676322	
545.625	-0.09113172633	0.3242518288	
546.25	0.498084199	-0.09383298896	
546.875	0.03317189402	0.08457828862	
547.5	0.4469076248	-0.3650320381	
548.125	-0.3283381227	-0.3707558504	
548.75	-0.06834835971	-0.2616146349	
549.375	-0.3876332749	-0.3238540447	
550.0	-0.09005297052	0.1586401153	
550.625	-0.2500710482	-0.1266225021	
551.25	-0.08858342139	0.1922394161	
551.875	-0.2329059624	0.03099122466	
552.5	-0.1472661128	0.2863907055	
553.125	-0.006479257477	0.1315377561	
553.75	0.09523961089	0.1629977189	
554.375	0.2553814799	-0.01343681568	
555.0	0.2395866322	-0.1438880366	
555.625	0.2439967133	-0.2635568659	
556.25	0.1733704741	-0.3615038938	
556.875	-0.0673337898	-0.3975987616	
557.5	-0.2218936799	-0.275470834	
558.125	-0.3014158666	-0.1061434128	
558.75	-0.2511506509	0.002837619751	
559.375	-0.2696120387	0.00195924427	
560.0	-0.2641785435	0.2236415514	
560.625	-0.07931759518	0.2244523446	
561.25	-0.07043651805	0.2798387909	
561.875	0.1638424383	0.06622216782	
562.5	-0.1061504341	0.1661024437	
563.125	0.3004022453	0.1459437177	
563.75	0.1630936132	0.03522637319	
564.375	0.4737592197	-0.1816491549	
565.0	0.09378226548	-0.4618407121	
565.625	-0.01655865263	-0.2505331251	
566.25	-0.2621218423	-0.4210770682	
566.875	-0.3885587287	-0.03504970388	
567.5	-0.1786399038	-0.350724717	
568.125	-0.5171602511	-0.4849675275	
568.75	-0.4014363285	-0.05797177201	
569.375	-0.7259984487	-0.04449815031	
570.0	-0.2929623029	0.7876414112	
570.625	0.08461195305	0.1719845231	
571.25	-0.4114051034	0.4378494446	
571.875	0.3852613725	-0.09418248669	
572.5	0.2154080511	0.394384245	
573.125	0.2897620594	-0.6112851168	
573.75	-0.1509063427	-0.0004326040333	
574.375	0.4099586662	-0.2695158089	
575.0	-0.2899471267	-0.1448736252	
575.625	0.3707369414	-0.004547438867	
576.25	0.1268910429	-0.5804301454	
576.875	-0.1708804556	-0.08359878499	
577.5	0.2970387536	-0.3732625533	
578.125	-0.2861327722	-0.5756078601	
578.75	-0.1973768666	-0.08248571715	
579.375	-0.03443565056	-0.3525610374	
580.0	-0.3743922064	-0.007002792123	
580.625	0.1285048628	-0.1722159249	
581.25	-0.5517813539	0.2342274166	
581.875	0.3348702178	0.4044638221	
582.5	-0.1194148025	-0.02780832465	
583.125	0.1342846137	0.7260065544	
583.75	0.140814235	-0.4737158074	
584.375	0.04989884415	0.5945428253	
585.0	0.3478083508	-0.3072279884	
585.625	0.1769091427	0.4438496301	
586.25	0.6847613185	-0.4056493855	
586.875	-0.1055472251	-0.1820580006	
587.5	0.2891834934	-0.2844790186	
588.125	-0.1544774011	-0.6218916847	
588.75	-0.127169087	-0.09116570427	
589.375	0.4858253764	-0.3249771531	
590.0	-0.275993062	-0.4805008181	
590.625	-0.235984951	-0.1541477794	
591.25	-0.5226610518	0.2404663724	
591.875	0.09795319044	0.2951303251	
592.5	-0.1367768965	0.06145996438	
593.125	0.02396053185	0.2318419291	
593.75	0.01564598338	0.04827596985	
594.375	0.2412911038	0.648284723	
595.0	0.9083914483	0.05859602466	
595.625	-0.07803631948	0.1049511229	
596.25	0.6874163607	0.4779942515	
596.875	0.1969770997	-0.3313200697	
597.5	0.218501808	0.6602661075	
598.125	0.6895615511	0.07034012256	
598.75	0.0336804356	0.223722391	
599.375	0.8582952272	0.0938166325	
600.0	0.2734817623	-0.5062545039	
600.625	0.2663199431	-0.2088041207	
601.25	0.3564562676	-0.4735735867	
601.875	-0.2600527776	-0.3449985553	
602.5	-0.2769307526	-0.08545913917	
603.125	-0.282961334	0.09204132972	
603.75	-0.2931669042	0.1621666224	
604.375	-0.1580199656	0.1569497055	
605.0	-0.2806248716	0.1411638087	
605.625	-0.03427691676	0.2675164704	
606.25	-0.3948926275	-0.1623380739	
606.875	-0.5088059264	0.6327505715	
607.5	-0.1294010723	0.07276206081	
608.125	-0.5966100113	0.8789283744	
608.75	0.6923433504	0.04634592714	
609.375	0.4309327939	0.3894352472	
610.0	0.6336778226	-0.5482523923	
610.625	-0.07245118211	-0.05120364018	
611.25	0.305139644	-0.7092609847	
611.875	-0.2577690684	-0.02113687838	
612.5	-0.2756678817	-0.4439665745	
613.125	-0.5628995719	0.3864643029	
613.75	-0.2945468833	0.003426730625	
614.375	0.2052864984	0.526023803	
615.0	-0.09150304876	-0.1895100126	
615.625	0.1608163866	0.5963781651	
616.25	0.04643758632	0.008230913322	
616.875	-0.5791096563	0.5038531133	
617.5	0.1043931698	0.7903885981	
618.125	-0.2278364978	0.1745789842	
618.75	0.02760879969	0.769838136	
619.375	0.2375919947	0.1456461816	
620.0	0.4675539527	0.3941055418	
620.625	0.168078753	-0.39548501	
621.25	-0.01743716484	-0.461728536	
621.875	-0.5884618942	-0.1897729135	
622.5	-0.3977143764	0.004955779494	
623.125	-0.2139224623	0.663860265	
623.75	0.1975631419	-0.1969026217	
624.375	0.513720162	0.1318266134	
625.0	-0.3307747882	-0.05642433199	
625.625	0.5107437077	-0.1271702828	
626.25	-0.505384716	-0.3928095476	
626.875	0.1492757928	-0.1811948869	
627.5	-0.7150634046	-0.2417759613	
628.125	-0.1634468278	0.1516254832	
628.75	0.07441440113	-0.5699503888	
629.375	-0.5291599209	-0.3612649875	
630.0	-0.1533380599	-0.1801189146	
630.625	-0.6393770968	-0.06202452639	
631.25	-0.3888298763	0.5410873936	
631.875	-0.04282503869	0.573436719	
632.5	0.1803183978	0.4579462869	
633.125	0.5922487653	0.2045726911	
633.75	0.321995863	-0.1647875748	
634.375	0.2823256512	-0.2642874325	
635.0	-0.1618786811	-0.4031525165	
635.625	-0.06652568315	-0.2504372485	
636.25	-0.6597356018	0.08289123949	
636.875	0.0886607384	0.4991452692	
637.5	-0.1405850943	-0.2785900886	
638.125	-0.3540020001	0.6850856635	
638.75	0.139087333	0.05282520542	
639.375	-0.4430648264	0.6499439531	
640.0	0.6596168881	0.6682577452	
640.625	0.1854734306	0.1764697671	
641.25	1.055696222	0.3414893248	
641.875	0.115497961	-0.6322046252	
642.5	0.2692942617	-0.1776314439	
643.125	-0.3050873151	-0.7777501787	
643.75	-0.4604827288	0.2672143263	
644.375	-0.1946757782	-0.3912838187	
645.0	-0.6160826662	0.4468359088	
645.625	0.3621070431	0.5168148314	
646.25	-0.0379959861	0.122840928	
646.875	0.7697139186	0.04515796998	
647.5	-0.3154744333	0.04971932359	
648.125	0.7205821118	0.3443704258	
648.75	0.354386831	-0.6149664525	
649.375	0.5952917319	0.2659737795	
650.0	0.959060207	-1.391213381	
650.625	-0.4113333925	-0.7015998557	
651.25	0.8094925561	0.2038298429	
651.875	1.117563942	-0.9231188288	
652.5	0.01950674234	-0.3637972341	
653.125	1.002570153	0.264436146	
653.75	0.4401596041	-1.014832361	
654.375	-0.06657635203	-0.197202763	
655.0	-0.5619019018	-0.9305457089	
655.625	-0.4283383902	0.9351327983	
656.25	0.07555955072	-0.0191420221	
656.875	-0.07690618284	0.526298943	
657.5	0.3216750058	-0.052847314	
658.125	-0.1116300881	0.6355824099	
658.75	1.056614119	0.1903386632	
659.375	0.5427762624	-0.4081568803	
660.0	0.5835981604	-0.2254196441	
660.625	0.8190672013	-1.232599384	
661.25	-0.2935757259	-0.7056334899	
661.875	0.8784555254	0.01327236456	
662.5	0.9823022129	-0.9273836092	
663.125	0.06783261561	-0.4471228808	
663.75	1.090188368	-0.4521280889	
664.375	-0.6104974813	-0.8704333082	
665.0	-0.0703972166	-0.4597994013	
665.625	-1.191642299	-0.03248675892	
666.25	0.006627656171	0.8748246448	
666.875	-0.01284006503	0.1827889938	
667.5	0.520539884	0.5813214617	
668.125	0.5638256162	-0.2808563729	
668.75	0.3325519873	-0.01838907185	
669.375	0.4848447267	-0.7775634266	
670.0	-0.1421385214	-0.2826589901	
670.625	0.2624841378	-0.4820490974	
671.25	0.01924103348	-0.622947935	
671.875	0.1260647444	-0.1404187114	
672.5	0.8055116036	-0.1861733439	
673.125	0.6159616148	-0.7858459442	
673.75	-0.04755934723	-0.3679358843	
674.375	0.6307607313	-0.3799292022	
675.0	-0.5556157407	-1.07894672	
675.625	0.1001955897	0.1650207659	
676.25	-0.8925930061	-0.5052421806	
676.875	-0.1726352047	0.5528590072	
677.5	-0.410312544	-0.7087981837	
678.125	-0.3768498629	0.9829188769	
678.75	0.006594430753	0.04101466713	
679.375	0.2448753467	0.5239747104	
680.0	0.805797404	-0.2822373942	
680.625	-0.2852595745	-0.3415167585	
681.25	0.4463810814	0.3161685894	
681.875	0.4367821606	-0.08440611983	
682.5	0.2787400096	0.1448428038	
683.125	0.6847865808	0.4948933983	
683.75	0.5970653084	-0.1315107617	
684.375	0.486636947	0.2305324071	
685.0	0.8452345223	0.4710850282	
685.625	0.9349515944	-0.6304433837	
686.25	-0.07984331063	0.6270135428	
686.875	1.907131351	-0.6348205708	
687.5	-0.4077430131	-0.5979857716	
688.125	0.9679130369	-1.039644394	
688.75	-1.853802143	-0.5812975782	
689.375	-0.05156179898	0.03734588275	
690.0	-0.1894678584	1.719116113	
690.625	0.6827614167	0.0511885657	
691.25	0.2211000518	1.059270155	
691.875	1.559583827	0.8191589324	
692.5	1.143199202	0.3806059173	
693.125	1.631794726	0.1824025331	
693.75	1.404352789	-0.5836039229	
694.375	1.21332404	-0.8322376784	
695.0	0.968925463	-0.8095781213	
695.625	1.082051986	0.1829976817	
696.25	1.800489552	0.3073353586	
696.875	0.5401267874	0.5454804493	
697.5	0.8320544016	2.110225851	
698.125	1.569149326	-0.2304621562	
698.75	1.394594225	0.1718642546	
699.375	-1.364968156	-1.737020976	
700.0	0.01283556222	0.7497888908	
700.625	-0.4255988374	1.391202239	
701.25	0.744695593	-0.08769535019	
701.875	0.07578868897	0.9238930625	
702.5	1.426820328	0.5810439613	
703.125	0.3880171793	0.3409284436	
703.75	1.424319817	-0.07832084846	
704.375	0.2688862148	-0.7301955631	
705.0	0.8956437723	0.3290939018	
705.625	0.8422433699	-0.6323596253	
706.25	0.01063620128	0.4742688637	
706.875	1.023936214	1.380608593	
707.5	0.6292143352	0.1185324897	
708.125	1.047417057	1.167089894	
708.75	0.8881942943	-1.401055318	
709.375	-0.1602304688	-0.4773049482	
710.0	-1.030739922	0.3666993387	
710.625	0.4694317755	0.26675171	
711.25	0.02919151422	0.4807045001	
711.875	0.4783441049	0.1760350294	
712.5	0.9584848796	0.2345647834	
713.125	0.5263831018	-0.5802330028	
713.75	0.4791033762	-0.3083413709	
714.375	0.005281791498	-0.8900404682	
715.0	-0.1608316052	-0.09366325928	
715.625	0.5299722624	-0.9736135668	
716.25	-0.3952526669	-0.6998013839	
716.875	0.9613399336	0.5092373399	
717.5	2.613344447	-0.3060690161	
718.125	0.3964788609	-1.218057605	
718.75	2.571028613	1.946910274	
719.375	2.116627855	-2.532878158	
720.0	0.9180031593	-1.005751446	
720.625	2.593678475	-3.470505258	
721.25	-1.649264362	-1.882245775	
721.875	0.9066788527	-2.792097312	
722.5	-1.755950543	-2.754764431	
723.125	-2.135242572	0.119620557	
723.75	-0.8489257151	0.5592101808	
724.375	-0.4334215795	1.450418031	
725.0	0.8283666895	0.8743495199	
725.625	0.1238738037	0.7227864289	
726.25	-0.4863562817	2.24754736	
726.875	1.314166501	2.419801763	
727.5	-2.012384743	1.991501676	
728.125	-0.8662014161	7.781373319	
728.75	4.738632473	5.602301668	
729.375	-11.14175046	3.299875024	
730.0	7.30117996	27.4475987	
730.625	3.382355576	2.67082714	
731.25	-10.78892172	5.462927003	
731.875	-7.846956968	13.68824129	
732.5	-1.966216486	0.8596237645	
733.125	-9.877557289	-2.395100523	
733.75	-1.676625883	3.825745043	
734.375	0.8554012156	0.7884986712	
735.0	1.398164774	-2.302958279	
735.625	-0.982749041	1.323465992	
736.25	-0.863464502	0.510790013	
736.875	0.9544545211	2.123389675	
737.5	4.052192924	0.2302515018	
738.125	0.6994217394	-1.621835083	
738.75	8.8582806	-0.5248592927	
739.375	3.773680648	-9.864721642	
740.0	-1.55607193	3.011442037	
740.625	52.33176967	13.89260405	
741.25	7.509657168	-24.62530704	
741.875	-12.757936	-26.8826629	
742.5	-15.97402131	-8.78746909	
743.125	-1.348332168	2.363575326	
743.75	4.37409247	-3.651222621	
744.375	-2.202246823	0.07820472683	
745.0	0.06524262712	-0.1676234483	
745.625	0.4287046903	0.0260291236	
746.25	-0.02982122572	0.07179892374	
746.875	-0.7137273459	-0.4597641268	
747.5	0.02743326104	0.8883368797	
748.125	0.3646385826	1.082423921	
748.75	0.4563685376	1.373527899	
749.375	0.9048938745	1.07413793	
750.0	1.197845782	2.969468673	
