!Created with skrf (http://scikit-rf.org).
# GHz S RI R (50+0j) 
!freq	ReS11	ImS11	
500.0	1.846280781	-1.699760605	
500.625	-0.9354804052	-3.974367762	
501.25	-1.269412555	-1.142676982	
501.875	-1.036238784	-2.250651524	
502.5	-0.4402484797	-0.2829495204	
503.125	-0.1107450239	-0.06149726074	
503.75	0.09644653797	0.4633395097	
504.375	-0.0591618252	-0.05417399763	
505.0	0.2424886769	-0.09366255201	
505.625	-0.2227493675	-0.02906744049	
506.25	0.2457798268	-0.3969247892	
506.875	-0.4118106655	0.9784977506	
507.5	0.9125681164	-0.8361526507	
508.125	0.2536132678	-3.062893596	
508.75	-0.7035884406	-2.436624112	
509.375	1.993450739	-3.361791676	
510.0	-2.536474438	-0.6858227271	
510.625	-0.2987924442	-0.2004749827	
511.25	-0.4341360253	-0.1927630989	
511.875	-0.4755752502	-0.02511306562	
512.5	-0.01234329396	0.1150927144	
513.125	0.03269610754	-0.3393581978	
513.75	-0.4359742834	-0.1179146853	
514.375	0.1556481332	-0.01581063449	
515.0	-0.8956372661	-0.6811998973	
515.625	1.824569033	0.1928900686	
516.25	-2.424599393	-4.573975707	
516.875	-0.6776693375	0.7705620218	
517.5	0.5911134922	-0.7785064758	
518.125	-0.3694169544	0.2554919567	
518.75	0.31447588	-0.7183632016	
519.375	-0.1647948417	0.2738302229	
520.0	0.2168391569	0.02160893286	
520.625	0.5912019755	0.004493110639	
521.25	-0.3418162679	-0.8398990458	
521.875	-0.1366994982	-0.06087873584	
522.5	-0.2520652056	0.1040512534	
523.125	-0.00788435783	-0.08747597672	
523.75	-0.4469127466	0.1846120464	
524.375	-0.1410222391	-0.1019891836	
525.0	-0.2542230539	0.6328018897	
525.625	0.1568710777	-0.1799247387	
526.25	0.003015468544	0.1788914374	
526.875	-0.1452195002	-0.09434633361	
527.5	-0.2559395638	0.9086079463	
528.125	0.4381887278	0.3612985288	
528.75	-0.3761517262	0.6543566463	
529.375	0.3509147136	0.09540346612	
530.0	-0.3888983576	0.6365432053	
530.625	0.6894696152	0.5389180018	
531.25	0.8023724195	0.6199959022	
531.875	0.6772935493	-1.041939609	
532.5	0.1469752015	0.07712825407	
533.125	-0.2622184133	-0.6901823888	
533.75	0.700661446	-0.003120970833	
534.375	-0.9843528331	-1.038033543	
535.0	-0.2432579537	-0.02853181352	
535.625	-0.7040852736	0.1884518326	
536.25	0.1666387198	0.2510168986	
536.875	0.107027562	0.1495356181	
537.5	0.2590768276	-0.1801774515	
538.125	0.09315435989	-0.160492481	
538.75	0.5073966855	-0.1650820317	
539.375	-0.3604116737	-0.3893478172	
540.0	-0.2097434324	-0.2742142727	
540.625	-0.448120134	-0.1431425544	
541.25	-0.2109180063	0.1057197236	
541.875	-0.06041066579	-0.05701102801	
542.5	-0.1638083233	-0.1874915652	
543.125	-0.1986832911	0.04755920745	
543.75	-0.1245613573	-0.1627391127	
544.375	-0.1357518265	0.2967754174	
545.0	-0.05809183018	-0.08410883167	
545.625	0.2717201863	0.3664832401	
546.25	0.07381239378	-0.1761205612	
546.875	0.405620065	0.2258384162	
547.5	-0.02106730508	-0.510532894	
548.125	0.05607778536	-0.1879960839	
548.75	-0.2981259204	-0.4748916696	
549.375	-0.3937937234	-0.03058145066	
550.0	-0.03084193861	-0.07734033367	
550.625	-0.2599848873	0.1002289198	
551.25	-0.05167312986	-0.003829668146	
551.875	-0.2936735076	0.187047725	
552.5	-0.005938173629	0.2128081615	
553.125	-0.08748777667	0.133287228	
553.75	0.1459667568	0.1117204107	
554.375	0.1991180893	-0.002037454156	
555.0	0.2478828222	-0.1523120761	
555.625	0.1968377196	-0.2705063148	
556.25	0.1431438369	-0.3303277682	
556.875	-0.07374365144	-0.3841304204	
557.5	-0.2383851068	-0.2500773896	
558.125	-0.2760105641	-0.08088543017	
558.75	-0.231481348	-0.02223736678	
559.375	-0.2912115449	0.04944229732	
560.0	-0.1700384913	0.1854572595	
560.625	-0.1686024073	0.2099767066	
561.25	0.05257034456	0.3047356538	
561.875	0.05331220196	0.002625771465	
562.5	0.01380336581	0.2388770913	
563.125	0.1666115747	0.02537373056	
563.75	0.2937062261	0.1508908331	
564.375	0.3452376968	-0.3653526704	
565.0	0.04707118372	-0.2212474487	
565.625	0.04710398117	-0.4431416999	
566.25	-0.3863763775	-0.1806461518	
566.875	-0.1785281522	-0.1496333948	
567.5	-0.3765136281	-0.3992112827	
568.125	-0.4687608299	-0.2420452499	
568.75	-0.2928459843	-0.2886135812	
569.375	-0.8045881551	0.2662624875	
570.0	-0.01491244408	0.522878149	
570.625	-0.3267804614	0.1160962788	
571.25	0.1129195481	0.6671735778	
571.875	-0.1691091019	-0.06795081024	
572.5	0.6207078629	0.1239045001	
573.125	-0.1459207741	-0.3836861005	
573.75	0.3046980337	0.04441954398	
574.375	0.04718944153	-0.5136030231	
575.0	-0.08259381331	0.1804471768	
575.625	0.3302531052	-0.3448984373	
576.25	-0.2023097499	-0.3172790015	
576.875	0.2753819058	-0.1351385782	
577.5	-0.01625763334	-0.6606566017	
578.125	-0.2850087409	-0.2027874913	
578.75	0.03448719593	-0.2384232572	
579.375	-0.2975704912	-0.3622900551	
580.0	-0.1563520194	0.1893019392	
580.625	-0.1219722151	-0.3392475418	
581.25	-0.2776319844	0.4471590875	
581.875	0.09153734171	0.02912590145	
582.5	-0.2333930759	0.4953149575	
583.125	0.640540562	0.2050745792	
583.75	-0.342898714	-0.03995147176	
584.375	0.5163193025	0.2931226793	
585.0	-0.1912101824	-0.07154864678	
585.625	0.6073083288	0.3101241294	
586.25	0.2840615975	-0.467416959	
586.875	0.09954314097	-0.01379634799	
587.5	0.116064614	-0.5634378045	
588.125	-0.3392807246	-0.2302064013	
588.75	0.3510556038	-0.1296141348	
589.375	0.1951545194	-0.6284959771	
590.0	-0.1342018685	-0.1186130157	
590.625	-0.4011702	-0.3282845684	
591.25	-0.3488320582	0.4371777816	
591.875	0.03402582032	0.1591678119	
592.5	-0.1566051501	0.08767501216	
593.125	0.1352904763	0.1613540444	
593.75	-0.1912907616	0.2501732931	
594.375	0.6686260197	0.3855548021	
595.0	0.2559354424	-0.1219790352	
595.625	0.1860460304	0.534649331	
596.25	0.8048859288	-0.1232684659	
596.875	-0.1241465237	0.1711231714	
597.5	0.6616153231	0.464755401	
598.125	0.3671017048	-0.08557480645	
598.75	0.1894313973	0.4567813458	
599.375	0.6859405451	-0.2042695347	
600.0	0.1698111519	-0.2968319451	
600.625	0.4573698077	-0.2400727329	
601.25	0.1629467257	-0.6349499449	
601.875	-0.1311729831	-0.1315038908	
602.5	-0.3690668631	-0.1595423096	
603.125	-0.1993462024	0.1641792486	
603.75	-0.2451380837	0.1570763704	
604.375	-0.1953051154	0.07550897651	
605.0	-0.2912612864	0.278917628	
605.625	0.09624789075	0.04774042037	
606.25	-0.6226486183	0.1009769198	
606.875	-0.07282022631	0.4420879116	
607.5	-0.5031167248	-0.04234586848	
608.125	0.03754769543	1.068351192	
608.75	0.144189423	0.005184528924	
609.375	0.7938847791	0.2449298762	
610.0	0.2161323551	-0.6311002327	
610.625	0.34909172	0.02193419082	
611.25	-0.1071874746	-0.65301413	
611.875	-0.02270056098	-0.07656898261	
612.5	-0.4962464791	-0.3819384342	
613.125	-0.1323116578	0.2842902615	
613.75	-0.4624425075	0.1877838383	
614.375	0.3484372021	0.322684328	
615.0	-0.2629662435	0.05771509962	
615.625	0.3830818324	0.2517702306	
616.25	-0.2658830019	0.02464205981	
616.875	-0.3336777023	0.7398784473	
617.5	0.2100344059	0.347486007	
618.125	-0.3828999625	0.5118498484	
618.75	0.3005945554	0.5405890707	
619.375	0.03717074725	0.2143419526	
620.0	0.6110691735	0.2013657151	
620.625	0.1306427355	-0.2845836983	
621.25	-0.1333071429	-0.5286627418	
621.875	-0.4740777588	-0.06898999892	
622.5	-0.4766740637	-0.05302774836	
623.125	0.07847904158	0.6173500788	
623.75	-0.01721236874	0.03953446113	
624.375	0.3909210833	-0.3008918518	
625.0	-0.1143509903	0.2260769468	
625.625	0.3844891095	-0.4785048484	
626.25	-0.3644924076	0.08113521073	
626.875	-0.05877445081	-0.5463141461	
627.5	-0.6256305133	0.04570567908	
628.125	0.001714648745	0.01268111609	
628.75	-0.1019423721	-0.5559079454	
629.375	-0.4108657865	-0.1637679977	
630.0	-0.232016143	-0.3020636349	
630.625	-0.6606631467	0.1148593585	
631.25	-0.151703414	0.5358261574	
631.875	-0.1763630383	0.3959575192	
632.5	0.4233833963	0.5763411454	
633.125	0.4464673665	0.03414431754	
633.75	0.3062070198	-0.1127718937	
634.375	0.2999432099	-0.3159122976	
635.0	-0.2882758987	-0.3082261599	
635.625	-0.03657104008	-0.3326745489	
636.25	-0.6364597823	0.2762740525	
636.875	0.1980626974	0.3011407842	
637.5	-0.5169041022	-0.09361840841	
638.125	0.2730137484	0.5451261993	
638.75	-0.3711161577	-0.06942827701	
639.375	-0.02570818064	1.028696366	
640.0	0.5653787829	0.1785931885	
640.625	0.126963647	0.515845197	
641.25	1.011208312	-0.05013158285	
641.875	0.03094424226	-0.5315985913	
642.5	0.2813657173	-0.2584874666	
643.125	-0.6288681597	-0.5901464038	
643.75	0.02340676266	0.2236342674	
644.375	-0.6233952528	-0.2916952377	
645.0	-0.2129360223	0.6038314023	
645.625	0.1310579925	0.2004797407	
646.25	0.2365926922	0.5177723257	
646.875	0.4291846286	-0.3871033103	
647.5	-0.2050696469	0.2607253264	
648.125	0.7922242368	0.1234735344	
648.75	0.04792771604	-0.4650224484	
649.375	1.026556216	0.06202140763	
650.0	0.2942851084	-1.446098865	
650.625	-0.2400542916	-0.1682292546	
651.25	1.162429978	-0.2894621134	
651.875	0.4013148598	-1.200066789	
652.5	0.1265224704	0.2507953271	
653.125	1.15398885	-0.2495416673	
653.75	-0.01417525896	-0.8182390077	
654.375	0.1689444088	-0.2684178239	
655.0	-1.058016964	-0.6325226353	
655.625	-0.04575968332	0.7103040674	
656.25	-0.1698958875	0.0238854734	
656.875	0.2678486193	0.5545280581	
657.5	-0.00267039898	-0.2004735435	
658.125	0.2685959331	0.7881000535	
658.75	0.8560880458	-0.07328957554	
659.375	0.4553622984	-0.3495043463	
660.0	0.7548154095	-0.2882786719	
660.625	0.2371513288	-1.37014123	
661.25	-0.06999345745	-0.2251058323	
661.875	0.9814526267	-0.4391878443	
662.5	0.5124090277	-0.977280298	
663.125	0.1064812391	-0.04621706112	
663.75	0.8908231095	-0.9851270979	
664.375	-0.5998344951	-0.5111596761	
665.0	-0.1464480301	-0.5524110381	
665.625	-1.090906287	0.2385230714	
666.25	0.1813212479	0.6242812719	
666.875	-0.07693025967	0.4635306166	
667.5	0.6893785211	0.3087494487	
668.125	0.247415786	-0.2720553281	
668.75	0.6338775242	-0.0003908026995	
669.375	0.05588471405	-0.8539581443	
670.0	-0.01017125148	-0.2264058209	
670.625	0.1941225432	-0.4946716347	
671.25	0.004512157518	-0.602448354	
671.875	0.06587488898	-0.1401284212	
672.5	0.7917340062	-0.2794392434	
673.125	0.3238990935	-0.7297304465	
673.75	0.1275334324	-0.1934567089	
674.375	0.5706826717	-0.7609296167	
675.0	-0.862766483	-0.4407024162	
675.625	0.2363052312	-0.3219764937	
676.25	-0.9499069635	-0.1636929702	
676.875	0.03190075288	0.4747137414	
677.5	-0.5703116461	-0.4954603352	
678.125	-0.1291016383	0.8824261611	
678.75	-0.01014415591	0.1430802327	
679.375	0.4107654871	0.5050917936	
680.0	0.5473485881	-0.6059791143	
680.625	-0.2335899222	0.1575849258	
681.25	0.6153655937	-0.07120041771	
681.875	0.214213753	-0.1693939278	
682.5	0.2150116184	0.3735831634	
683.125	0.8526755614	0.2601358523	
683.75	0.5082934983	-0.137017736	
684.375	0.3644529615	0.1450961937	
685.0	0.9553118404	0.436321474	
685.625	0.6307405197	-0.7834760363	
686.25	0.3494419107	0.8192825054	
686.875	1.241014748	-1.262137714	
687.5	-0.1705048889	-0.1014686397	
688.125	0.6572847473	-1.418657553	
688.75	-1.772388727	0.2373778984	
689.375	-0.3462325152	-0.1811705127	
690.0	0.3368299875	1.618951216	
690.625	0.5490933669	0.005786596034	
691.25	0.4129539819	0.9911539618	
691.875	1.482821769	0.5754531447	
692.5	1.054669802	0.3409770773	
693.125	1.593588065	0.04482464878	
693.75	1.316774466	-0.7260343847	
694.375	0.966539947	-0.8098047999	
695.0	0.9264177615	-0.8295608538	
695.625	1.058446832	0.0444549415	
696.25	1.624878021	-0.01675430892	
696.875	0.4749067923	0.5080027205	
697.5	1.287973235	1.806128876	
698.125	1.165362473	-0.5314608139	
698.75	1.493446629	-0.319127117	
699.375	-1.75864109	-1.055174532	
700.0	0.124966913	0.3957055355	
700.625	0.0751560994	1.485170212	
701.25	0.5651786871	-0.1757281371	
701.875	0.1995633375	0.925953461	
702.5	1.374169806	0.3107689101	
703.125	0.4327742929	0.3371147867	
703.75	1.319947565	-0.2684525075	
704.375	0.1985558862	-0.6639688013	
705.0	0.9547894875	0.1821076676	
705.625	0.6188608664	-0.6447856867	
706.25	0.02538417159	0.5427657004	
706.875	1.23792933	1.077073682	
707.5	0.3955677153	0.02497796608	
708.125	1.278149303	0.7889004495	
708.75	0.3990833703	-1.449306374	
709.375	-0.3155548017	-0.4584603505	
710.0	-0.7640387593	0.604736356	
710.625	0.42194351	0.153020834	
711.25	0.1209711866	0.4366141341	
711.875	0.5520481716	0.129209708	
712.5	0.8030541987	-0.009770118137	
713.125	0.5001734425	-0.4819194612	
713.75	0.368450183	-0.4114702227	
714.375	-0.08946779975	-0.8303127188	
715.0	-0.1748642224	-0.0226360506	
715.625	0.5189983268	-0.9639117053	
716.25	-0.4775660342	-0.6598904877	
716.875	0.9761628896	0.4290697454	
717.5	2.381314662	-0.6610561801	
718.125	-0.158294928	-0.9048211415	
718.75	3.40273153	1.094526413	
719.375	0.908558676	-2.885918932	
720.0	0.777708744	-0.6160566938	
720.625	1.484679028	-4.207809558	
721.25	-1.662974814	-1.601873578	
721.875	0.3883126907	-2.374145842	
722.5	-1.942684277	-2.139504557	
723.125	-2.055291568	0.4846392258	
723.75	-0.8289767526	0.536446382	
724.375	0.05344423438	1.595599388	
725.0	0.6327902832	0.5452771306	
725.625	0.1715813541	0.8788210925	
726.25	-0.1075978403	2.07407069	
726.875	1.335019131	2.231914687	
727.5	-1.754589291	1.708873961	
728.125	-0.6990958349	8.016314513	
728.75	6.772256735	2.703872059	
729.375	-9.84451884	4.949671316	
730.0	9.279487837	25.00753062	
730.625	3.526571501	0.3556722431	
731.25	-7.968480911	13.38141439	
731.875	-2.650941098	15.05444897	
732.5	-2.073667897	-1.560977589	
733.125	-9.505735341	0.8139522322	
733.75	-0.478019102	4.047674887	
734.375	1.274089329	0.1298582762	
735.0	0.9780151633	-2.104554624	
735.625	-0.7935902157	1.494789685	
736.25	-0.797938207	0.6196441871	
736.875	1.343546933	1.925885669	
737.5	3.203045804	-0.6834343877	
738.125	1.109342567	-0.3275466755	
738.75	8.131968771	-2.37840027	
739.375	3.935254371	-11.16683022	
740.0	-2.222014949	1.735453945	
740.625	18.48341257	8.291408786	
741.25	14.48664214	-11.68396436	
741.875	-18.61697134	-15.6480745	
742.5	-12.86092011	-5.8076864	
743.125	-1.019058365	2.699769129	
743.75	2.28535289	-4.91502196	
744.375	-1.951094948	1.251398812	
745.0	-0.08425466594	-0.2422816716	
745.625	0.4050855365	-0.1616274417	
746.25	-0.1727504951	0.07317773076	
746.875	-0.7964628709	-0.414204316	
747.5	0.1230133473	1.231289091	
748.125	0.7711829041	1.025240936	
748.75	0.0449191709	1.418966157	
749.375	0.1866233164	1.702928351	
750.0	-3.379114015	-1.09559223	
