!Created with skrf (http://scikit-rf.org).
# GHz S RI R (50+0j) 
!freq	ReS11	ImS11	
500.0	-0.1188735684	-0.6735365282	
500.625	1.694844466	-3.136098235	
501.25	-2.312758997	-1.415273485	
501.875	-1.13569638	-0.5631149313	
502.5	0.0931004367	-0.3439516909	
503.125	-0.3607875536	0.1769748026	
503.75	0.03838102021	-0.05837714243	
504.375	0.1881648744	-0.003254267086	
505.0	-0.1085884467	0.01331691628	
505.625	0.127333111	-0.3756327231	
506.25	-0.2650610531	0.3389515383	
506.875	-0.6990943163	-0.9603822449	
507.5	-1.650658751	-0.6001113546	
508.125	0.2134998008	-0.1651718869	
508.75	2.71789428	-4.056396521	
509.375	-3.137241611	-3.045521428	
510.0	-0.6861333663	-0.4815855193	
510.625	-0.985521853	-0.3493264488	
511.25	0.07928333124	-0.1811401982	
511.875	-0.5603705312	-0.1684739929	
512.5	-0.03122441338	0.142947677	
513.125	0.0003600472189	-0.1782231116	
513.75	-0.0577200669	-0.2873602869	
514.375	-0.6177238876	-0.04664280733	
515.0	1.608660994	0.2450427511	
515.625	-2.268737193	-1.4438443	
516.25	1.156822206	0.00707602754	
516.875	-0.920013191	-2.707919044	
517.5	-0.7956143445	0.2209589979	
518.125	0.02955835052	-0.463925251	
518.75	-0.6143295507	0.1261020504	
519.375	-0.1730920626	0.01841080009	
520.0	0.4910151257	0.1984474951	
520.625	0.3218907137	-0.3002420898	
521.25	0.2517541922	-0.5552676144	
521.875	-0.6022065042	0.05695381673	
522.5	0.01707411591	-0.02919284458	
523.125	-0.2134034314	0.2496181575	
523.75	-0.06316566184	-0.1965291934	
524.375	-0.4967087959	0.4275863635	
525.0	-0.1136629024	-0.009101592672	
525.625	0.1087620395	0.3597279016	
526.25	-0.1756793152	-0.2607275943	
526.875	0.008343082828	0.3092840429	
527.5	-0.1153273517	0.1534112916	
528.125	-0.01672241116	1.092380919	
528.75	0.5713690708	0.4274803693	
529.375	-0.06454190237	0.3174155861	
530.0	0.3023569229	0.1055364057	
530.625	0.1200374904	1.261352056	
531.25	0.9146104568	-0.5418221692	
531.875	0.6630090529	-0.03435634445	
532.5	-0.6987527181	-0.4599038206	
533.125	0.7159025763	0.0497024808	
533.75	-0.2866879752	-0.6860373405	
534.375	0.2050116135	-0.5404415761	
535.0	-1.160695138	-0.1182566575	
535.625	-0.06969550867	0.1699953711	
536.25	-0.1064240128	0.2747505986	
536.875	0.3333621333	-0.03160554955	
537.5	0.04861709531	-0.03572868041	
538.125	0.4432559863	-0.1942404567	
538.75	0.1166003066	-0.3007724721	
539.375	-0.01558200284	-0.4250296486	
540.0	-0.6347868506	-0.3192242735	
540.625	-0.138642176	0.002944868813	
541.25	-0.2937520482	-0.06693825556	
541.875	-0.1346637545	0.03576481112	
542.5	-0.04484954787	-0.03852282942	
543.125	-0.2058293353	-0.2628776579	
543.75	-0.2639689865	0.2508022595	
544.375	-0.135183502	-0.1397159154	
545.0	0.1252526114	0.308361718	
545.625	-0.09747256257	-0.008572617019	
546.25	0.5082147281	0.2012542407	
546.875	-0.005963861366	-0.1672052926	
547.5	0.3920203661	-0.1927335027	
548.125	-0.3083385567	-0.5234086137	
548.75	-0.2084591002	-0.06412303422	
549.375	-0.1738744081	-0.2996246388	
550.0	-0.275037706	0.1447497069	
550.625	-0.02822976255	-0.1012651514	
551.25	-0.2549040506	0.2023317108	
551.875	-0.07595473879	0.05711981398	
552.5	-0.1803455216	0.2494814545	
553.125	0.03643459077	0.1280449404	
553.75	0.0895484596	0.1235821279	
554.375	0.2461877462	-0.01520821771	
555.0	0.1982313218	-0.178580537	
555.625	0.1862223582	-0.2438306384	
556.25	0.1414076449	-0.3483855456	
556.875	-0.1073134744	-0.3655619801	
557.5	-0.2284099242	-0.2226481623	
558.125	-0.277051391	-0.09034159043	
558.75	-0.2494054658	0.02539748393	
559.375	-0.2196063412	0.03291953142	
560.0	-0.2607277154	0.1877489245	
560.625	-0.048247649	0.282724111	
561.25	-0.009825516787	0.1478528447	
561.875	0.1072579516	0.1875700087	
562.5	-0.009169619193	0.01143963123	
563.125	0.230974792	0.260110352	
563.75	0.2085913845	-0.1207913733	
564.375	0.3783891932	-0.09368885627	
565.0	0.1081363386	-0.496113967	
565.625	-0.1024492488	-0.1859340505	
566.25	-0.1778221564	-0.3286505459	
566.875	-0.4683764589	-0.1700005188	
567.5	-0.2260391604	-0.06505874752	
568.125	-0.2400454372	-0.5421160976	
568.75	-0.6874475875	-0.0002337861498	
569.375	-0.3242596726	0.07444362348	
570.0	-0.4720682893	0.6487486151	
570.625	0.1584860733	0.3674154469	
571.25	-0.2867708456	0.1473085918	
571.875	0.5193599551	0.2108269475	
572.5	-0.08202777675	0.1049881488	
573.125	0.5167938635	-0.3321948242	
573.75	-0.1553199808	-0.4244414683	
574.375	0.1300363298	0.1368537563	
575.0	0.05141872089	-0.4138397089	
575.625	0.08749988977	0.1487112972	
576.25	0.2862153417	-0.4637544492	
576.875	-0.3023236558	-0.2712959079	
577.5	0.1827875759	-0.110764486	
578.125	-0.042766768	-0.6172694722	
578.75	-0.3996440484	-0.1641262663	
579.375	-0.02156508935	-0.003859936165	
580.0	-0.2050719474	-0.3105768216	
580.625	-0.02393935381	0.1801457511	
581.25	-0.4445946348	-0.03629269369	
581.875	0.2135053194	0.5474735018	
582.5	0.1749731462	-0.03394793325	
583.125	-0.1601848449	0.4103858936	
583.75	0.5482571344	-0.1532282215	
584.375	-0.3544444334	0.2995228709	
585.0	0.6236518616	0.08041324283	
585.625	0.0002314044799	-0.1450326686	
586.25	0.5847404016	0.07436856564	
586.875	-0.1027239006	-0.5062293263	
587.5	0.1517827786	-0.1104674651	
588.125	-0.04016131715	-0.5946097385	
588.75	-0.2245047955	-0.2496318161	
589.375	0.3773824324	-0.06920346731	
590.0	-0.2619285578	-0.600961803	
590.625	-0.3645044896	0.05893068883	
591.25	-0.2106878611	0.1096038037	
591.875	-0.2471108099	0.3610728684	
592.5	0.219981692	-0.001994226863	
593.125	-0.1492458373	0.2588371185	
593.75	0.1575249384	0.1102373198	
594.375	0.1644835933	0.3873051835	
595.0	0.7176093556	0.3041865493	
595.625	0.1926870942	-0.2072988693	
596.25	0.2660704222	0.500387325	
596.875	0.7047117104	-0.1729429218	
597.5	0.007792571175	0.09225243024	
598.125	0.4864280689	0.4998360029	
598.75	0.3216324204	-0.08562164111	
599.375	0.4917563815	0.2022900055	
600.0	0.3580739513	-0.6125452748	
600.625	0.1221390765	-0.2208153616	
601.25	0.3385769796	-0.3966970538	
601.875	-0.3097900437	-0.4297649493	
602.5	-0.1565477947	-0.004477467293	
603.125	-0.2152995172	0.1072038327	
603.75	-0.3390624996	0.09792817237	
604.375	-0.1284971835	0.3810028995	
605.0	-0.1850144535	-0.0842027456	
605.625	-0.2141654471	0.3917635817	
606.25	-0.05645017433	-0.05617650327	
606.875	-0.7304976629	0.2489399624	
607.5	0.03325240648	0.4336466925	
608.125	-0.4083629401	0.3895807288	
608.75	0.8817901582	0.4835881974	
609.375	0.07477662556	-0.02981184035	
610.0	0.6804595218	-0.2419449367	
610.625	-0.05505644526	-0.4754623496	
611.25	0.3284043677	-0.2198873544	
611.875	-0.5066794464	-0.2175845053	
612.5	-0.1467959553	-0.1805174623	
613.125	-0.6742551436	0.08257277248	
613.75	0.1481418057	0.2173334249	
614.375	-0.08931773661	0.4340000336	
615.0	0.2835099825	-0.1759886658	
615.625	-0.3009042148	0.3751949605	
616.25	0.2635446436	0.3493966423	
616.875	-0.4055615545	0.1566082859	
617.5	-0.1231511074	0.8086611177	
618.125	0.1769373245	0.2262129877	
618.75	-0.1726171396	0.5685016054	
619.375	0.4319171281	0.269658546	
620.0	0.2681547275	0.1671754647	
620.625	0.2554263858	-0.4859571666	
621.25	-0.1027443806	-0.2940281246	
621.875	-0.595295709	-0.2256132186	
622.5	-0.3029329829	0.1654472152	
623.125	-0.2455573486	0.4186417289	
623.75	0.434056149	-0.09069756842	
624.375	0.08038843524	0.1758471399	
625.0	-0.1312893933	-0.3976572233	
625.625	0.2672751826	0.09745891204	
626.25	-0.2119108754	-0.6229124213	
626.875	-0.3058690262	0.1726277523	
627.5	-0.1516815597	-0.3816813231	
628.125	-0.4760843684	-0.09273757065	
628.75	-0.01246642219	-0.1215340773	
629.375	-0.2365133746	-0.5358332916	
630.0	-0.4068999755	0.07127151167	
630.625	-0.5306186841	-0.04685801714	
631.25	-0.3705787307	0.5923134701	
631.875	0.1509809066	0.4901784369	
632.5	0.2474394339	0.3567035692	
633.125	0.437788387	0.207962176	
633.75	0.5080325648	-0.3466285626	
634.375	-0.01959936687	-0.1164874458	
635.0	0.1180250205	-0.5037543798	
635.625	-0.4835777484	0.1340514651	
636.25	-0.3891309329	-0.1651021511	
636.875	-0.08936369555	0.5725363275	
637.5	0.07612489016	-0.07301572323	
638.125	-0.541180026	0.4047172358	
638.75	0.4073304422	0.3264156017	
639.375	-0.4101827851	0.3144145772	
640.0	0.4324095657	0.8848757154	
640.625	0.7126934272	0.03318271407	
641.25	0.2420912106	0.02622190464	
641.875	0.7364431914	-0.6663716097	
642.5	-0.30049418	-0.2135104931	
643.125	-0.05068109485	-0.5459861969	
643.75	-0.6946438966	0.09356200637	
644.375	0.07925639483	-0.2365707069	
645.0	-0.6663240128	0.5095891195	
645.625	0.3911505149	0.4899685412	
646.25	0.2832278387	-0.1001776287	
646.875	0.1020581799	0.3971857861	
647.5	0.3399843121	-0.5011527307	
648.125	0.158467838	0.6032559772	
648.75	0.9384826453	-0.5616671241	
649.375	-0.1042940578	-0.3507773778	
650.0	1.09144613	-0.4866460841	
650.625	-0.1202975941	-1.28624276	
651.25	0.01598699652	0.104511138	
651.875	1.261965127	-0.2679583081	
652.5	0.415743587	-0.893426786	
653.125	0.191877403	0.1368649245	
653.75	0.7694926106	-0.7934579187	
654.375	-0.6264366002	-0.4631116534	
655.0	-0.187770385	-0.3593969579	
655.625	-0.8409102559	0.7282201062	
656.25	0.4962184743	0.0717416271	
656.875	-0.2450541626	0.2334614307	
657.5	0.4226807661	0.277334273	
658.125	0.1468227711	0.04565602931	
658.75	0.6424547238	0.5720003449	
659.375	0.7844476793	-0.7481958037	
660.0	0.1940191544	-0.4666873731	
660.625	0.6526837051	-0.6120300024	
661.25	0.0212930769	-1.194502092	
661.875	0.2440587073	-0.0003166311667	
662.5	1.079164213	-0.5592055642	
663.125	0.268588599	-0.8872100926	
663.75	0.2200792237	-0.1243686415	
664.375	0.007076565665	-1.174862375	
665.0	-0.7217992485	0.04628252378	
665.625	-0.661258656	-0.1618786416	
666.25	-0.1451061729	0.9815257579	
666.875	0.216215646	0.0233531456	
667.5	0.4721273677	0.5211732347	
668.125	0.6127118459	-0.3037500106	
668.75	0.1150720322	-0.2576992655	
669.375	0.4410163128	-0.3666521904	
670.0	-0.048403709	-0.7632659464	
670.625	-0.1749038659	-0.1886874406	
671.25	0.3204345112	-0.3889381381	
671.875	0.1820691214	-0.6134969608	
672.5	0.2289157187	-0.07362713245	
673.125	0.6440430404	-0.6372839594	
673.75	-0.009642988172	-0.5435967352	
674.375	0.2526367766	-0.2542165025	
675.0	-0.1559415183	-0.9875838081	
675.625	-0.8249092305	0.2534513648	
676.25	0.09085762374	-0.3888153819	
676.875	-0.8143188379	0.2567456615	
677.5	0.1032135831	0.08076375739	
678.125	-0.768421539	0.3421043081	
678.75	0.6623634551	0.3237679952	
679.375	0.1314542029	0.3365888822	
680.0	0.6718979482	-0.2258218353	
680.625	-0.1747851162	-0.5146552732	
681.25	0.1073232166	0.4801778975	
681.875	0.7065923504	-0.06520009033	
682.5	0.3666979914	-0.0070956488	
683.125	0.3118505748	0.08427111339	
683.75	0.7575611425	0.5182204769	
684.375	0.6768049965	-0.4956532477	
685.0	0.296267024	0.4558913768	
685.625	1.126894779	-0.1470211773	
686.25	-0.04940106539	-0.4675010357	
686.875	1.42949572	0.1547521486	
687.5	-0.1561619383	-1.528770909	
688.125	0.3306549466	-0.1736035363	
688.75	-1.450529987	-0.9475645241	
689.375	0.01465636118	1.240301777	
690.0	-0.3864314237	0.5213489164	
690.625	1.190279317	0.5643963049	
691.25	0.3494004981	0.3220857461	
691.875	1.124460868	1.024988197	
692.5	1.420365981	-0.0767935169	
693.125	1.268467914	0.08601955984	
693.75	1.376519449	-0.6366874318	
694.375	0.8258352817	-0.8816058006	
695.0	1.094098742	-0.8774669893	
695.625	0.7295592356	-0.366898444	
696.25	1.423037109	0.8357549305	
696.875	1.343801573	0.09264219508	
697.5	0.3557410009	1.104656288	
698.125	2.260327927	0.1190199863	
698.75	0.08205217613	-0.6101397	
699.375	-1.011668464	-1.539208135	
700.0	-0.1091103743	1.421113928	
700.625	-0.2228200685	0.2263637577	
701.25	1.210068725	0.5031809445	
701.875	0.185367846	0.2040449819	
702.5	0.9099417254	0.9260443561	
703.125	0.9032720636	-0.4145504313	
703.75	0.8563196598	0.2448580215	
704.375	0.6965179205	-0.839875388	
705.0	0.09522959659	-0.07077291624	
705.625	1.310587233	0.08048935478	
706.25	0.3164891138	-0.1545101387	
706.875	0.2876797089	1.056208949	
707.5	1.422310534	0.5440379549	
708.125	0.5153217612	0.1709471407	
708.75	0.9137847777	-1.163737793	
709.375	-0.9594312147	-0.2109760784	
710.0	-0.4589717416	0.2956502023	
710.625	0.4063902276	0.5361087132	
711.25	0.0139391039	0.1092466051	
711.875	0.624434735	0.3501614323	
712.5	0.5886454808	-0.1343980163	
713.125	0.7051162647	-0.5918327438	
713.75	-0.04057530766	-0.4167673515	
714.375	0.4364438915	-0.6639068613	
715.0	-0.5362062354	-0.5037795552	
715.625	0.3741759611	-0.03260395766	
716.25	0.57291323	-1.403761411	
716.875	-0.1500043068	-0.1405755967	
717.5	2.004389855	0.5084921041	
718.125	2.105204749	-1.665414425	
718.75	0.1625408461	1.138370795	
719.375	3.629680513	-2.597391067	
720.0	-0.8726093188	-1.553807999	
720.625	0.9250079837	-1.742246497	
721.25	-0.3510771987	-3.55191627	
721.875	-1.667167263	-1.158391529	
722.5	-1.224080365	-2.406920337	
723.125	-2.328814781	0.2760906825	
723.75	-0.2496920189	0.9779297282	
724.375	-0.334186137	1.094469179	
725.0	0.9038234851	0.9602708087	
725.625	0.5003905381	0.6109869123	
726.25	-0.4394546952	1.394290203	
726.875	-0.2236198074	3.36283019	
727.5	2.241540159	2.168612468	
728.125	-3.794484162	5.693336662	
728.75	2.706337273	10.71749944	
729.375	2.599628618	2.214728293	
730.0	-7.256593144	15.83065969	
730.625	15.62733713	6.927493507	
731.25	-7.393388264	1.532704083	
731.875	-9.845277662	13.3532753	
732.5	-4.857566037	9.410336254	
733.125	-2.813578225	-0.6469022974	
733.75	-3.037776467	5.225707904	
734.375	2.091141101	-0.281946675	
735.0	0.2094518645	-0.6542215401	
735.625	-2.142043989	0.9227329929	
736.25	0.2993804511	0.04070850694	
736.875	0.7934083004	2.159299981	
737.5	3.416760276	-0.1421737325	
738.125	2.59897287	-3.341746014	
738.75	0.8417953972	0.519715716	
739.375	14.92288537	-4.008127726	
740.0	-1.226866359	-16.95785587	
740.625	-6.312722984	12.14982142	
741.25	18.26266895	23.12665615	
741.875	5.847548525	-15.20339599	
742.5	-10.0682198	-11.22336674	
743.125	-6.345984967	-0.3388318234	
743.75	3.078879547	-0.2909965767	
744.375	-2.69925555	-0.4011789509	
745.0	0.3887101357	-0.1357977935	
745.625	0.2023815157	0.2363332058	
746.25	-0.2448392569	-0.3850057665	
746.875	-0.5534316451	0.2361253323	
747.5	-0.2925910468	1.137943337	
748.125	0.7214069431	1.024479272	
748.75	0.4649280218	1.305124966	
749.375	-0.04715315307	1.934567818	
750.0	0.101603973	0.5138573214	
