!Created with skrf (http://scikit-rf.org).
# GHz S RI R (50+0j) 
!freq	ReS11	ImS11	
500.0	2.080687882	-2.616725157	
500.625	0.1957362001	-3.561651755	
501.25	-0.5472518369	-0.7494678405	
501.875	-1.382976173	-3.294069925	
502.5	-0.39239363	-0.1792624816	
503.125	-0.1452684044	-0.07109078645	
503.75	0.1201635192	0.4854696735	
504.375	-0.06567600614	-0.04524304065	
505.0	0.2532509426	-0.1091908137	
505.625	-0.2239585411	-0.03771722287	
506.25	0.2569354577	-0.4476731099	
506.875	-0.4344901724	1.005312355	
507.5	1.049529436	-1.004453735	
508.125	0.06271750908	-3.277449503	
508.75	-0.8510836204	-2.254912939	
509.375	0.8738691949	-4.798312396	
510.0	-3.044464765	-0.7608288063	
510.625	-0.1178590806	-0.5227363199	
511.25	-0.6259180066	-0.4629080497	
511.875	-0.457520794	0.06721522037	
512.5	-0.0974772315	0.09142091479	
513.125	0.08278305552	-0.3534530166	
513.75	-0.4969849171	-0.0870994675	
514.375	0.2693444998	-0.08963454896	
515.0	-1.009869034	-0.6313157447	
515.625	2.819244942	-0.09194952567	
516.25	-3.220323932	-4.461650014	
516.875	-0.6304135947	0.7518218728	
517.5	0.5393169009	-0.9819600878	
518.125	-0.3370541158	0.3444316179	
518.75	0.3057940509	-0.9743592799	
519.375	-0.1852493239	0.2774560545	
520.0	0.1809358758	0.01962009569	
520.625	0.673952952	-0.01455456664	
521.25	-0.3305107617	-0.8262385421	
521.875	-0.1636883596	-0.07906472055	
522.5	-0.2638080625	0.1517480172	
523.125	-0.06794570739	-0.1866840134	
523.75	-0.4304681611	0.1882726191	
524.375	-0.1610991081	-0.1418373969	
525.0	-0.2521236885	0.7041718718	
525.625	0.1241991128	-0.1814127573	
526.25	0.03672542812	0.1865022379	
526.875	-0.1807842293	-0.0940504741	
527.5	-0.1918742955	0.9757582942	
528.125	0.3757668355	0.3387370401	
528.75	-0.3758375744	0.7889071154	
529.375	0.3532389079	0.07087763904	
530.0	-0.4058921415	0.7107715763	
530.625	0.7009600297	0.6109724362	
531.25	0.8487053141	0.7652290772	
531.875	0.6722049902	-1.002345457	
532.5	0.2122357958	0.03303104348	
533.125	-0.361125052	-0.7147040818	
533.75	0.9546311522	-0.01129443517	
534.375	-0.952216886	-1.059875367	
535.0	-0.2338626073	-0.1072093277	
535.625	-0.7503334296	0.1805642506	
536.25	0.172253593	0.2442663809	
536.875	0.1291882471	0.1785998877	
537.5	0.2572523917	-0.1975024847	
538.125	0.09172196253	-0.1255789729	
538.75	0.5655694453	-0.2055844102	
539.375	-0.376519643	-0.3800240889	
540.0	-0.2090335569	-0.3195080732	
540.625	-0.4604037596	-0.1487418873	
541.25	-0.2335885625	0.07734111729	
541.875	-0.04434888188	-0.0264831761	
542.5	-0.1562501578	-0.2186797872	
543.125	-0.2138866499	0.05116534913	
543.75	-0.1557767963	-0.2029146919	
544.375	-0.1288896704	0.30199822	
545.0	-0.1044966872	-0.08299946162	
545.625	0.3198331887	0.3621898733	
546.25	0.04225476732	-0.1461639865	
546.875	0.4582414213	0.2343375893	
547.5	-0.03602798011	-0.5012039548	
548.125	0.06654520691	-0.2133919799	
548.75	-0.2995764281	-0.492385632	
549.375	-0.4103933928	-0.05190943813	
550.0	-0.02896505804	-0.09269631621	
550.625	-0.2705339028	0.1114298302	
551.25	-0.06565996954	-0.02167447377	
551.875	-0.3142888024	0.2017398437	
552.5	-0.01138494949	0.1988386534	
553.125	-0.1060335106	0.1504485143	
553.75	0.1486902877	0.1253150601	
554.375	0.2102307281	0.01072447635	
555.0	0.2722902201	-0.1534765595	
555.625	0.2184365918	-0.2742180528	
556.25	0.1644029511	-0.3397985498	
556.875	-0.06225367058	-0.4032680619	
557.5	-0.2338865852	-0.2801176126	
558.125	-0.288919855	-0.09179309261	
558.75	-0.2464789826	-0.03346582869	
559.375	-0.305905596	0.04633503335	
560.0	-0.1804040182	0.1817317903	
560.625	-0.189952546	0.2240779686	
561.25	0.05803350042	0.314807494	
561.875	0.04070745246	0.006362607518	
562.5	0.01963213392	0.2566196817	
563.125	0.1585198763	0.03076525215	
563.75	0.3172655828	0.1751395872	
564.375	0.3655896702	-0.3679964155	
565.0	0.07234831253	-0.2222628127	
565.625	0.05889838333	-0.4663489853	
566.25	-0.3853453535	-0.1874117825	
566.875	-0.1815415262	-0.1851836331	
567.5	-0.415231812	-0.4122856577	
568.125	-0.452600088	-0.2265286196	
568.75	-0.3271052257	-0.3605981681	
569.375	-0.8430723369	0.2918919303	
570.0	-0.01913503284	0.5055126283	
570.625	-0.3838269876	0.1222775133	
571.25	0.1388222139	0.6875252649	
571.875	-0.1866457089	-0.05108155478	
572.5	0.6501777209	0.1347659866	
573.125	-0.1431166723	-0.3681312281	
573.75	0.3475863823	0.03123708864	
574.375	-0.0156327872	-0.5305314136	
575.0	-0.02381140335	0.2155534448	
575.625	0.3056288255	-0.4096489777	
576.25	-0.2225813211	-0.2736680958	
576.875	0.3094663947	-0.1752312684	
577.5	-0.02807428673	-0.6731617699	
578.125	-0.2804682089	-0.236437006	
578.75	0.02994889153	-0.2274764608	
579.375	-0.28681882	-0.3972571573	
580.0	-0.1694966545	0.2062129082	
580.625	-0.1363939793	-0.3640536198	
581.25	-0.2606009028	0.4574957885	
581.875	0.02350478599	0.02078213135	
582.5	-0.1979431886	0.5908158306	
583.125	0.6517328512	0.1173164329	
583.75	-0.3650700287	0.02286571295	
584.375	0.5674193433	0.2659344477	
585.0	-0.1923150749	-0.03504779798	
585.625	0.6119737912	0.3278007267	
586.25	0.3287835912	-0.4577169884	
586.875	0.1130329674	-0.01337517033	
587.5	0.1247277771	-0.5969420346	
588.125	-0.3338397118	-0.1993763677	
588.75	0.3993894707	-0.1943139056	
589.375	0.154463118	-0.652688157	
590.0	-0.07976031652	-0.1242207759	
590.625	-0.4426505746	-0.3764201093	
591.25	-0.3587348909	0.4376687999	
591.875	0.02388120349	0.1731246521	
592.5	-0.1820594361	0.07805767375	
593.125	0.1652444365	0.1782708451	
593.75	-0.2326577385	0.2703000812	
594.375	0.7300660217	0.3921093051	
595.0	0.2223884225	-0.1050255302	
595.625	0.2352235831	0.5998770421	
596.25	0.7964454342	-0.2149830595	
596.875	-0.1098912544	0.2687579764	
597.5	0.7168058192	0.4489910327	
598.125	0.3251457913	-0.07597182721	
598.75	0.2143272365	0.499366625	
599.375	0.7114696318	-0.1853558066	
600.0	0.1965964697	-0.292694489	
600.625	0.4864484399	-0.2462837116	
601.25	0.1595715876	-0.6516424671	
601.875	-0.08008617411	-0.1652010176	
602.5	-0.3763926776	-0.1703458499	
603.125	-0.1963297026	0.1374049198	
603.75	-0.2731016382	0.1623956363	
604.375	-0.2223129425	0.08464196314	
605.0	-0.2947535306	0.2902965674	
605.625	0.07481454886	0.002879975071	
606.25	-0.6667683284	0.1473876822	
606.875	-0.05801395002	0.4164662492	
607.5	-0.6165368364	-0.07860003052	
608.125	0.09962811559	1.093143504	
608.75	0.08800328275	0.07192921398	
609.375	0.8253719425	0.2722281059	
610.0	0.1982324413	-0.620505584	
610.625	0.4512827401	0.01171250722	
611.25	-0.1269988183	-0.652487087	
611.875	0.0003515700202	-0.09866003897	
612.5	-0.6094617361	-0.4063108424	
613.125	-0.16243343	0.2290395294	
613.75	-0.5370782289	0.2509641984	
614.375	0.395362984	0.283334928	
615.0	-0.3028149294	0.1527124989	
615.625	0.3852671991	0.2010674065	
616.25	-0.3522097558	0.07667045172	
616.875	-0.3085647371	0.776034383	
617.5	0.1723189884	0.296487537	
618.125	-0.4311707817	0.5608143887	
618.75	0.2925091208	0.5294561294	
619.375	-0.003497788172	0.269067547	
620.0	0.6326114754	0.2185865613	
620.625	0.1585196377	-0.2712008573	
621.25	-0.1402234184	-0.5810426474	
621.875	-0.4142487446	-0.08198262551	
622.5	-0.5772724429	-0.1170175341	
623.125	0.07103349665	0.6439909154	
623.75	-0.08561072428	0.1075255591	
624.375	0.3963098205	-0.3696235006	
625.0	-0.08174967963	0.2473506877	
625.625	0.3851207458	-0.5351002069	
626.25	-0.2744793171	0.137802963	
626.875	-0.1376265154	-0.6044449272	
627.5	-0.6234357257	0.07826883997	
628.125	0.02223927584	-0.03749841548	
628.75	-0.1104054014	-0.5767457507	
629.375	-0.4100116071	-0.2045172306	
630.0	-0.2253072796	-0.3221353327	
630.625	-0.7053812749	0.0649007234	
631.25	-0.1975860161	0.5217854412	
631.875	-0.2388979452	0.4262711786	
632.5	0.4205110808	0.6099322176	
633.125	0.4507546102	0.08037635678	
633.75	0.3505312119	-0.07077659297	
634.375	0.3475651754	-0.347309647	
635.0	-0.2654654699	-0.2758046009	
635.625	-0.04473393513	-0.3887437294	
636.25	-0.6834005341	0.2731691719	
636.875	0.2017549007	0.2909984704	
637.5	-0.5916118468	-0.06924221714	
638.125	0.2721825534	0.5319562902	
638.75	-0.4342920077	-0.0623221507	
639.375	-0.05883724573	1.055509652	
640.0	0.5206689565	0.2084378079	
640.625	0.1295597246	0.6281930052	
641.25	1.037937446	-0.02935126584	
641.875	0.05993419649	-0.460812092	
642.5	0.362242092	-0.2965720604	
643.125	-0.6566642985	-0.6111378263	
643.75	0.06100746873	0.1769481299	
644.375	-0.6202078359	-0.3230980341	
645.0	-0.3038274725	0.5845937844	
645.625	0.1695982359	0.2230440947	
646.25	0.171432885	0.5806070444	
646.875	0.4695243717	-0.3844380879	
647.5	-0.2162305872	0.3069164661	
648.125	0.8258519409	0.09555381429	
648.75	0.002457991764	-0.3513067682	
649.375	1.200013951	-0.05963087899	
650.0	0.2072629514	-1.452362067	
650.625	-0.1409154139	-0.08886789336	
651.25	1.259575992	-0.3404173506	
651.875	0.4302174711	-1.158478682	
652.5	0.1566614214	0.2444697073	
653.125	1.180162653	-0.09873725005	
653.75	0.1253854983	-0.8487422715	
654.375	0.2756050564	-0.2819203035	
655.0	-1.117647127	-0.6928319415	
655.625	-0.08971187651	0.6378453153	
656.25	-0.2725318885	0.0566184389	
656.875	0.3329142541	0.586216765	
657.5	-0.09454535871	-0.2023848925	
658.125	0.2782677029	0.8468713746	
658.75	0.8968044355	0.01153536262	
659.375	0.4690104983	-0.3558119617	
660.0	0.8223970473	-0.2026702205	
660.625	0.3517955463	-1.453585983	
661.25	-0.02684429472	-0.1917159988	
661.875	1.080989772	-0.4654431611	
662.5	0.5351596408	-0.9723466597	
663.125	0.2213827719	0.09035956936	
663.75	0.9426129531	-1.084335913	
664.375	-0.5078216807	-0.493394578	
665.0	-0.1159534307	-0.6648104336	
665.625	-1.153084471	0.1556244118	
666.25	0.1060064122	0.6738785575	
666.875	-0.1241448965	0.4655667677	
667.5	0.6937006272	0.3906435653	
668.125	0.249962055	-0.2325670121	
668.75	0.7159023097	0.02752545941	
669.375	0.04960469488	-0.8346833161	
670.0	0.06337708178	-0.2506692919	
670.625	0.2247149718	-0.5437192261	
671.25	-0.01259845811	-0.608763809	
671.875	0.1369912294	-0.09449818982	
672.5	0.8545372879	-0.28265537	
673.125	0.3723613971	-0.7382185676	
673.75	0.1663288324	-0.1498305003	
674.375	0.686487299	-0.7711539603	
675.0	-0.8594524793	-0.4791740104	
675.625	0.2823675617	-0.4021794838	
676.25	-0.9697522848	-0.1946172138	
676.875	0.06007036265	0.4372460045	
677.5	-0.6655782072	-0.5576825365	
678.125	-0.1163765094	0.8460518476	
678.75	-0.1298008461	0.1724620613	
679.375	0.4341351028	0.6172597116	
680.0	0.5742871813	-0.6183312318	
680.625	-0.2008948186	0.1990013249	
681.25	0.6139174847	-0.07302234763	
681.875	0.2630567192	-0.1081683165	
682.5	0.2246179889	0.3285483698	
683.125	0.8165125513	0.3834128546	
683.75	0.585057369	-0.1169909224	
684.375	0.3437313482	0.2027369641	
685.0	1.042189268	0.5077605475	
685.625	0.520596071	-0.7211916876	
686.25	0.5839529225	0.933365922	
686.875	1.201749588	-1.223454368	
687.5	-0.0362939743	0.03394926067	
688.125	0.849171788	-1.496944605	
688.75	-1.739423185	0.07329833921	
689.375	-0.4394579625	-0.1930132285	
690.0	0.2065844358	1.597991236	
690.625	0.5589811627	0.154045131	
691.25	0.4261044283	1.102170361	
691.875	1.465742377	0.5608592461	
692.5	1.073944131	0.5305865405	
693.125	1.697727661	0.1339126097	
693.75	1.367578928	-0.6982353336	
694.375	1.083007381	-0.7734147518	
695.0	0.9749016653	-0.8131180522	
695.625	1.226127456	0.2443454909	
696.25	1.682181323	-0.006397124405	
696.875	0.238092296	0.672555635	
697.5	1.276394263	2.104472508	
698.125	1.155619613	-0.3253627177	
698.75	1.747955595	-0.05264927771	
699.375	-1.582429554	-1.327285444	
700.0	0.006779522038	0.2335010138	
700.625	0.1349472719	1.617951629	
701.25	0.5506040222	-0.1156908099	
701.875	0.2443081298	1.080154432	
702.5	1.365880502	0.2372488037	
703.125	0.4805498566	0.5108784871	
703.75	1.366659173	-0.2888719351	
704.375	0.1204843033	-0.5818284108	
705.0	1.10060181	0.122112487	
705.625	0.5443826564	-0.6601364364	
706.25	0.02339152596	0.7037836236	
706.875	1.279696716	1.099275116	
707.5	0.1894588237	0.1565175707	
708.125	1.368949081	1.023221512	
708.75	0.5909600133	-1.319556048	
709.375	-0.1598644355	-0.5828020084	
710.0	-0.8913678854	0.4901007004	
710.625	0.3648953103	0.2154779569	
711.25	0.1036502554	0.459971724	
711.875	0.4688503952	0.1999642501	
712.5	0.9280992147	0.06332138701	
713.125	0.5004102373	-0.4632273822	
713.75	0.5088088269	-0.3831665698	
714.375	-0.076159353	-0.8560679167	
715.0	-0.07244114173	0.007738370016	
715.625	0.4345118214	-1.083952014	
716.25	-0.4228357537	-0.5179267193	
716.875	1.188236258	0.4315290885	
717.5	2.478821028	-0.7254317902	
718.125	-0.3373037812	-0.4866568677	
718.75	3.613377166	1.187083205	
719.375	1.307291496	-2.50132545	
720.0	0.9611079848	-0.6686071216	
720.625	2.028535901	-3.641673094	
721.25	-1.419481914	-2.175428051	
721.875	0.7555488474	-2.433075519	
722.5	-1.78912005	-2.708962842	
723.125	-1.96933011	0.205938073	
723.75	-1.145542475	0.3109419139	
724.375	0.1486606385	1.62775903	
725.0	0.4694419785	0.5439576773	
725.625	0.08454580523	0.9977304375	
726.25	-0.1778803172	2.286753397	
726.875	1.429601603	2.361025044	
727.5	-2.360517365	1.604863795	
728.125	0.5242657813	9.186916004	
728.75	4.722392001	4.50244722	
729.375	-9.039490417	2.28227849	
730.0	9.356317186	19.43847675	
730.625	1.644148847	0.2757731225	
731.25	-9.694545071	8.943832613	
731.875	-2.136313145	15.71596612	
732.5	-3.414088081	-4.9957571	
733.125	-10.92353764	0.623880415	
733.75	-1.682221008	3.924063363	
734.375	1.266643461	0.3207725999	
735.0	1.508951563	-1.791469894	
735.625	-1.192244717	1.326407063	
736.25	-0.8597462635	0.5338317461	
736.875	1.180864079	2.081948843	
737.5	3.317552396	-0.697451248	
738.125	1.699483833	0.8460523277	
738.75	8.897494981	-3.75351799	
739.375	3.299307245	-9.250341283	
740.0	-2.456238985	3.664498743	
740.625	22.91866434	9.688690531	
741.25	20.50882766	-9.44345349	
741.875	-15.14598304	-9.79035	
742.5	-12.61010318	-5.792057068	
743.125	-0.3409013956	1.92369341	
743.75	2.825282004	-4.533674328	
744.375	-1.840193187	0.7890035522	
745.0	-0.1913407169	-0.2720386236	
745.625	0.3657548832	-0.09573713822	
746.25	-0.009619881884	-0.0200155642	
746.875	-1.261194881	-0.7338028879	
747.5	-0.2637891729	1.225513085	
748.125	0.4652452292	0.9317969846	
748.75	0.07251573217	1.193032889	
749.375	1.205443754	1.662223916	
750.0	-0.5726849599	0.5384221649	
