!Created with skrf (http://scikit-rf.org).
# GHz S RI R (50+0j) 
!freq	ReS11	ImS11	
500.0	-0.2931605964	-1.210073685	
500.625	-0.2128341267	-0.4143882284	
501.25	-0.1735623431	-0.946894258	
501.875	-0.4027754124	-0.1671950133	
502.5	0.003343204234	-0.06645073058	
503.125	-0.1069532962	0.01702740087	
503.75	0.04172928767	0.01679294383	
504.375	0.04156212078	0.01764860226	
505.0	-0.008492467992	-0.04067519312	
505.625	0.0375916298	-0.01436466616	
506.25	-0.1009053666	-0.106001611	
506.875	0.1385923265	-0.01557184776	
507.5	-0.0167851379	-0.5615338576	
508.125	-0.2190741604	-0.3483281271	
508.75	0.7216006188	-0.4900470523	
509.375	0.1143406756	-1.447346407	
510.0	-0.3829743859	-0.01755023937	
510.625	-0.01326753963	-0.1648605448	
511.25	-0.1614305868	-0.02267687985	
511.875	-0.03808690878	0.01765932041	
512.5	-0.03339166938	0.0273918922	
513.125	-0.04847834293	-0.06131890895	
513.75	0.006474180696	-0.001171123972	
514.375	-0.105153492	-0.07515054711	
515.0	0.01075475206	0.2201664262	
515.625	-0.02648897077	-0.6600149406	
516.25	-0.209766828	0.08088571928	
516.875	0.1092317006	-0.3267017082	
517.5	-0.07529211915	-0.2395404365	
518.125	0.006553933185	0.03423334565	
518.75	-0.1248144593	-0.1528072356	
519.375	-0.02648039786	0.05298891818	
520.0	0.06746579507	0.04686442751	
520.625	0.16776721	-0.02287728896	
521.25	-0.001076223034	-0.1802939905	
521.875	-0.06295694015	0.01216577227	
522.5	-0.08937347745	-0.0206364425	
523.125	0.02348525158	0.09745757304	
523.75	-0.04100938817	-0.1059533706	
524.375	-0.2148036718	0.1362895286	
525.0	0.04765126344	0.02274522634	
525.625	-0.04285909971	0.08254016716	
526.25	0.01223723192	-0.08664241603	
526.875	-0.09065833972	0.09219489376	
527.5	0.05313177998	0.1298936666	
528.125	-0.01863885763	0.1198524819	
528.75	0.1252964887	0.1660759368	
529.375	0.0453601992	0.004871582546	
530.0	0.08948036989	0.07315012134	
530.625	0.08232333389	0.2754684669	
531.25	0.2212668054	0.04017823591	
531.875	0.2294954183	-0.1152772691	
532.5	-0.1213722097	-0.2292475452	
533.125	0.1610185926	-0.01692056994	
533.75	0.00997150015	-0.3281170707	
534.375	-0.0579024519	-0.1280072413	
535.0	-0.2372299458	-0.1432315979	
535.625	-0.09442278908	0.155828655	
536.25	-0.01459753372	0.05184853393	
536.875	0.1098848088	0.02521147865	
537.5	0.02264795153	-0.0542743345	
538.125	0.1269299819	-0.008085584935	
538.75	0.09203727802	-0.1472075611	
539.375	-0.05092905903	-0.100649102	
540.0	-0.1204059002	-0.1513631198	
540.625	-0.179006705	-0.02255723773	
541.25	-0.03263745631	0.03332222771	
541.875	-0.06006216142	-0.05689356981	
542.5	-0.1051171482	0.007631226867	
543.125	-0.0273427381	-0.06739988194	
543.75	-0.1550705375	0.02691800739	
544.375	0.01521412526	0.004145416443	
545.0	-0.0136533577	0.09332319585	
545.625	0.05886930932	-0.0001660160681	
546.25	0.03860097336	0.09131961103	
546.875	0.142289211	-0.0698832277	
547.5	0.009835028983	-0.07243181679	
548.125	0.01159642919	-0.1562087926	
548.75	-0.1631562907	-0.09366181284	
549.375	-0.05879274166	-0.01494413914	
550.0	-0.09686145534	-0.0193742181	
550.625	-0.01879963577	0.03511179822	
551.25	-0.07187648965	-0.001055822567	
551.875	-0.0618769406	0.08618226298	
552.5	-0.01516601813	0.05066370048	
553.125	-0.0140514739	0.06781205788	
553.75	0.05156589503	0.02361725306	
554.375	0.07811679299	4.340255919e-05	
555.0	0.08565924686	-0.07145159567	
555.625	0.0645221094	-0.09877789443	
556.25	0.05156201048	-0.1243043028	
556.875	-0.04169360246	-0.1391319656	
557.5	-0.09674119618	-0.08358664309	
558.125	-0.1019337377	-0.0262393812	
558.75	-0.1007193563	-0.002150577381	
559.375	-0.1008858067	0.03163544596	
560.0	-0.07402885409	0.06487423637	
560.625	-0.05665890061	0.1025836504	
561.25	0.03505798053	0.09675013536	
561.875	0.003285651937	0.02632673517	
562.5	0.0397704459	0.06372041953	
563.125	0.0400381687	0.04127379533	
563.75	0.1422782746	0.03107204684	
564.375	0.1014540796	-0.129696368	
565.0	0.04178026928	-0.08736407283	
565.625	-0.02688050086	-0.1808882475	
566.25	-0.146307053	-0.02634326063	
566.875	-0.07560261661	-0.09280803347	
567.5	-0.1826090447	-0.1114751951	
568.125	-0.1016143664	-0.02485097453	
568.75	-0.1987186121	-0.1453116765	
569.375	-0.2103910846	0.1853396078	
570.0	-0.04240040427	0.1082999912	
570.625	-0.1287209835	0.1624218146	
571.25	0.1053651616	0.1235017361	
571.875	-0.02371756668	0.06961210617	
572.5	0.1840679643	-0.04134644307	
573.125	-0.02939665196	-0.05525999197	
573.75	0.1319199449	-0.06616814258	
574.375	-0.05250723507	-0.1342339701	
575.0	0.03577769418	0.04814861979	
575.625	0.05292083405	-0.1439549995	
576.25	-0.04794598818	-0.07945787772	
576.875	0.07778771035	-0.08061492812	
577.5	-0.02641226929	-0.2185864921	
578.125	-0.09600434029	-0.06546833526	
578.75	0.04413457009	-0.1177418581	
579.375	-0.1679920491	-0.1221439244	
580.0	0.02419915867	0.0791549307	
580.625	-0.1803405142	-0.1294887864	
581.25	0.02989255242	0.1594869396	
581.875	-0.08635233085	0.04342728183	
582.5	0.02094087239	0.2421892437	
583.125	0.15784278	-0.0162820331	
583.75	-0.05938748665	0.04747834213	
584.375	0.145564631	0.002038115617	
585.0	-0.009391643516	0.02645814694	
585.625	0.2380828663	0.04718159297	
586.25	0.09305775616	-0.1455854939	
586.875	0.07430670679	-0.0328457312	
587.5	0.003101032191	-0.1973243065	
588.125	-0.09057787145	-0.08906784647	
588.75	0.09736010439	-0.06463298449	
589.375	0.07635501206	-0.2384949463	
590.0	-0.09708616437	-0.05495280471	
590.625	-0.1241438532	-0.1265197917	
591.25	-0.1596100171	0.1962600823	
591.875	0.06271649361	-0.01735044295	
592.5	-0.0999849853	0.09902231494	
593.125	0.06270789749	-0.01026382647	
593.75	-0.03427027074	0.1619076831	
594.375	0.2362488961	-0.02856609353	
595.0	0.05641139408	0.04040612132	
595.625	0.1400717389	0.1515922146	
596.25	0.1984422528	-0.0193819243	
596.875	0.05535095765	0.06664957297	
597.5	0.1846734988	0.1335355276	
598.125	0.1420964503	0.02786433885	
598.75	0.1122513852	0.09896010967	
599.375	0.213376242	-0.03179300463	
600.0	0.09333427649	-0.1733007062	
600.625	0.1074766623	-0.08609859338	
601.25	0.1083418935	-0.2204083677	
601.875	-0.1613528063	-0.07677897241	
602.5	-0.03024195443	-0.0850767724	
603.125	-0.170120403	0.1129855813	
603.75	0.01738010308	0.03682683612	
604.375	-0.1841744714	0.01053642984	
605.0	-0.0389959927	0.1680246738	
605.625	-0.04815922922	-0.0605607897	
606.25	-0.1057907115	0.1637841174	
606.875	-0.07080058035	0.07917643212	
607.5	-0.2228126866	0.2158804707	
608.125	-0.01092027745	0.2842860809	
608.75	0.1584253555	0.07236151511	
609.375	0.2173390149	-0.01670278937	
610.0	0.197731833	-0.1596773406	
610.625	0.01022186648	-0.1301917955	
611.25	0.01838917772	-0.07056002182	
611.875	-0.1477344329	-0.1589801444	
612.5	-0.06495250509	0.05372194073	
613.125	-0.2081276318	-0.06133792087	
613.75	-0.05195134557	0.2377959326	
614.375	0.003251237746	-0.0230230131	
615.0	0.1252408266	0.1370903609	
615.625	0.02701168193	-0.03105273854	
616.25	-0.1375075919	0.1200277789	
616.875	0.002204353195	0.2241070919	
617.5	-0.1495842302	0.1867044373	
618.125	-0.03917566402	0.2221140456	
618.75	0.09292473659	0.2207249007	
619.375	0.09841501206	0.1029630912	
620.0	0.01310959376	-0.004959467346	
620.625	0.09880522139	-0.1887813615	
621.25	-0.1187268739	-0.09399258967	
621.875	-0.1956026073	-0.1343402154	
622.5	-0.3021287431	0.1456055586	
623.125	0.01363646203	0.09518773056	
623.75	0.1362567748	0.1103545651	
624.375	0.001062554728	-0.1234486883	
625.0	0.0624331301	0.04840318783	
625.625	0.02523129651	-0.1547705097	
626.25	-0.03971858183	-0.04320213018	
626.875	-0.1150177315	-0.1245718705	
627.5	-0.1777728773	0.003418861043	
628.125	-0.08475275818	-0.03618811239	
628.75	-0.07297928033	-0.1504720269	
629.375	-0.1169213821	-0.1548049123	
630.0	-0.1208960837	-0.09177499795	
630.625	-0.2149361104	-0.009616141886	
631.25	-0.08025081781	0.2232694395	
631.875	0.06648450796	0.1076579554	
632.5	0.1030836225	0.2612931476	
633.125	0.2726978315	-0.09613198323	
633.75	0.06615826975	-0.01680772422	
634.375	0.108543569	-0.1824613447	
635.0	-0.1097544745	-0.06937126177	
635.625	-0.05098629415	-0.1509922272	
636.25	-0.193448758	0.1363156611	
636.875	0.02775715468	0.09112582145	
637.5	-0.1041201158	0.03493023254	
638.125	0.01554555683	0.1571849302	
638.75	-0.07046444879	0.04079006657	
639.375	-0.01832194293	0.3102532323	
640.0	0.216216122	0.1534014074	
640.625	0.118460905	0.115866441	
641.25	0.2946248027	0.06779602146	
641.875	0.1092044167	-0.2650599042	
642.5	-0.05014037524	-0.02095160221	
643.125	-0.08172559164	-0.252989127	
643.75	-0.2310053236	0.1604513034	
644.375	-0.07384907507	-0.1495260533	
645.0	-0.2187112805	0.3403115873	
645.625	0.1351676456	0.06677496162	
646.25	0.002345038427	0.2715447417	
646.875	0.2586121067	-0.1585587376	
647.5	-0.09159070194	0.08141433233	
648.125	0.2959856235	0.03619691575	
648.75	0.109518588	-0.1654487783	
649.375	0.203272128	-0.06780027241	
650.0	0.2043899776	-0.4218053904	
650.625	-0.09289296929	-0.2323894679	
651.25	0.2593398449	-0.08028198337	
651.875	0.2933921242	-0.2923869151	
652.5	0.08112926651	-0.1480242466	
653.125	0.2811958701	0.03032271136	
653.75	0.1929584504	-0.3842926226	
654.375	-0.1623438703	-0.1312889612	
655.0	-0.1761049786	-0.1997136673	
655.625	-0.2161861704	0.3588148445	
656.25	0.1354180491	-0.03400769084	
656.875	-0.04637103309	0.1670833173	
657.5	0.200978564	-0.03608834161	
658.125	-0.07587207082	0.2217263065	
658.75	0.4504505544	0.05826216778	
659.375	0.06675665801	-0.212211225	
660.0	0.2330243646	-0.1436949383	
660.625	0.1727457053	-0.413188586	
661.25	-0.04330656181	-0.2875906221	
661.875	0.2680926761	-0.0834255658	
662.5	0.2792418553	-0.3120964446	
663.125	0.07310793343	-0.1882780049	
663.75	0.2138210995	-0.1837122365	
664.375	-0.1626322339	-0.3779760021	
665.0	-0.1916544459	-0.05879300995	
665.625	-0.2925358266	0.002667699993	
666.25	-0.09527668875	0.369129733	
666.875	0.159091411	0.03199487664	
667.5	0.1445718448	0.1777967042	
668.125	0.243816894	-0.1554358952	
668.75	0.03702668601	-0.01982446108	
669.375	0.1998850675	-0.243461623	
670.0	-0.1690575477	-0.2120048832	
670.625	0.1329997066	-0.07130395854	
671.25	0.0698763859	-0.2851584131	
671.875	-0.01082512652	-0.1639798386	
672.5	0.1922503941	-0.01267345178	
673.125	0.2337313669	-0.3072154746	
673.75	0.008346584037	-0.1523436619	
674.375	0.1034970866	-0.1864961945	
675.0	-0.1365359389	-0.3052997504	
675.625	-0.1287741359	0.03527918849	
676.25	-0.190632547	-0.1306217268	
676.875	-0.2033286096	0.1048561359	
677.5	-0.01814872404	0.03613330605	
678.125	-0.2289859449	0.07015207544	
678.75	0.1930010526	0.2818233525	
679.375	0.02792399088	-0.05227148815	
680.0	0.2507958727	0.04529470162	
680.625	-0.01817661332	-0.2926720667	
681.25	-0.0430539914	0.1566904881	
681.875	0.4372798647	-0.1470125027	
682.5	0.04359004188	-0.086834739	
683.125	0.1503773172	0.2171908171	
683.75	0.4542909152	-0.09423701727	
684.375	0.03517724835	-0.09743632935	
685.0	0.4463275554	0.1147476359	
685.625	0.3266331827	-0.1050836787	
686.25	0.1218519678	-0.08986200967	
686.875	0.3703245357	0.01411270475	
687.5	0.09468663913	-0.3602589698	
688.125	-0.008396673809	-0.2374805865	
688.75	-0.3949669621	-0.2213022497	
689.375	-0.1870652221	0.4662001428	
690.0	0.1210572809	0.1135442778	
690.625	0.2463278075	0.4150315534	
691.25	0.4016334855	0.04025415528	
691.875	0.1837179947	0.2607214395	
692.5	0.8800625271	0.2306620814	
693.125	0.4826243379	-0.3080334398	
693.75	0.5085217126	-0.02747219379	
694.375	0.3726879189	-0.6391018831	
695.0	0.2112649953	-0.3970016391	
695.625	0.6570650256	-0.01815293303	
696.25	0.5710681182	-0.01413440386	
696.875	0.3258791729	0.1171308909	
697.5	0.4461572055	0.2950157154	
698.125	0.543661352	0.16754894	
698.75	0.1924265645	-0.4339570312	
699.375	-0.2924887548	-0.2599929086	
700.0	-0.265102298	0.4407547495	
700.625	0.3153609333	0.1708999338	
701.25	0.09752923365	0.221226618	
701.875	0.4264511402	0.1857031686	
702.5	0.2063149104	0.05546617467	
703.125	0.4249135395	0.2174629594	
703.75	0.4219241352	-0.2213734007	
704.375	0.07369771711	-0.1638498272	
705.0	0.3094310829	-0.2107987457	
705.625	0.2538320004	-0.1452153384	
706.25	0.2752884157	0.2370174777	
706.875	0.2928832967	0.2539563872	
707.5	0.3157302837	0.1786966486	
708.125	0.3072939082	0.1227775999	
708.75	0.169248878	-0.04807880668	
709.375	-0.32219313	-0.2607688976	
710.0	-0.03881357371	0.1084057201	
710.625	-0.0752425028	0.2205988595	
711.25	0.2823675247	-0.1325185835	
711.875	0.1025202735	0.1731146637	
712.5	0.3988762258	-0.1136108209	
713.125	0.08676293235	-0.1847176144	
713.75	0.2007095845	-0.1790732393	
714.375	-0.06142168279	-0.2979703052	
715.0	-0.07107685674	-0.07441056775	
715.625	0.08714423239	-0.2017237874	
716.25	0.0589759556	-0.3200598542	
716.875	0.1776391637	-0.1573253888	
717.5	0.4871945996	0.002759528009	
718.125	0.6293749667	-0.2562009272	
718.75	0.4089962046	-0.04326413815	
719.375	0.613792351	-0.01309357791	
720.0	0.1634161918	-0.9406756561	
720.625	0.1051465851	-0.5180495281	
721.25	-0.01273875348	-1.070832418	
721.875	-1.270847458	-0.6988166592	
722.5	-0.1544885354	-0.3997481611	
723.125	-1.037936258	-0.1167684066	
723.75	-0.1268601015	0.5300219068	
724.375	-0.102402677	0.2151904812	
725.0	0.2814873743	0.5147376471	
725.625	0.2256324389	0.1453709577	
726.25	-0.1372020557	0.5618266259	
726.875	0.09614381112	1.006681651	
727.5	0.3412618051	0.8605307069	
728.125	-0.4324226448	1.323823828	
728.75	0.3028866605	2.9033837	
729.375	0.6458212627	2.234669298	
730.0	-0.7257636824	2.227159157	
730.625	1.167552171	4.225469004	
731.25	0.5586354835	1.945699569	
731.875	-2.499795658	0.7804696821	
732.5	-3.592589917	2.400372872	
733.125	0.03619292872	1.435151526	
733.75	-1.24968045	0.9408404803	
734.375	1.172141014	0.06159429198	
735.0	-0.1074237837	-0.05774813783	
735.625	-0.5797333756	-0.1700132175	
736.25	0.3148075387	0.6299187447	
736.875	-0.05595186869	0.2183168538	
737.5	1.353854695	0.3380967915	
738.125	1.045969053	-1.016821824	
738.75	0.5721938078	-0.5596958202	
739.375	3.708354414	-0.2316924142	
740.0	1.941313554	-3.943277486	
740.625	-1.095970387	0.7798479274	
741.25	0.4734346067	5.456225058	
741.875	0.670668696	2.145722952	
742.5	0.6021594162	-2.474560279	
743.125	-0.3066517912	-2.886042302	
743.75	-0.6101301428	-0.493114856	
744.375	-0.07079177912	-0.3349757391	
745.0	0.1931784178	0.2188323906	
745.625	-0.05530598966	0.1127753496	
746.25	-0.01453315914	-0.1776300017	
746.875	-0.1651721446	0.1394602422	
747.5	-0.07456430368	0.1283920869	
748.125	0.1868928693	0.54776019	
748.75	0.3525846749	0.2551938392	
749.375	-0.00443868187	0.3958143685	
750.0	-0.328437506	0.3051360728	
