!Created with skrf (http://scikit-rf.org).
# GHz S RI R (50+0j) 
!freq	ReS11	ImS11	
500.0	0.2820757061	-0.4552875716	
500.625	0.721939438	-1.353318093	
501.25	-0.6176087596	-0.3735199412	
501.875	-0.03693587535	-0.537496738	
502.5	-0.1035065343	-0.1771745366	
503.125	-0.0372434561	0.01037427681	
503.75	-0.03211747976	0.1125291313	
504.375	0.02156196586	-0.04087786414	
505.0	0.03857520364	0.01411063801	
505.625	-0.04082146959	-0.08911300864	
506.25	-0.0005075177608	0.02988210718	
506.875	-0.4170465145	0.01235562157	
507.5	0.01015342136	0.05741686078	
508.125	0.5529486764	-0.6293639615	
508.75	0.4594136906	-1.471789072	
509.375	-0.4310947476	-0.7206568837	
510.0	-0.3644521711	-0.6822583472	
510.625	-0.1903895045	-0.06128274368	
511.25	-0.02846622863	0.009859399434	
511.875	-0.1629195198	-0.06938516546	
512.5	0.004531822229	0.07369809512	
513.125	0.0250602966	-0.02126729506	
513.75	-0.1249277242	-0.08312862347	
514.375	0.002212386309	0.06142001296	
515.0	-0.1002548791	-0.4551783902	
515.625	-0.08736017289	0.1547783758	
516.25	0.213421728	-0.9313436747	
516.875	-0.4833908947	-0.5348258098	
517.5	0.06274367174	-0.02571385686	
518.125	-0.04341522649	-0.1075233164	
518.75	0.003195677383	-0.03739757469	
519.375	-0.07260221384	0.01285589422	
520.0	0.1435343244	0.06194617707	
520.625	0.1141338984	-0.1006050467	
521.25	0.02228822238	-0.2207760771	
521.875	-0.254604647	-0.09629322297	
522.5	-0.07094618568	0.05653674992	
523.125	-0.1542305931	-0.04359390821	
523.75	-0.1198558129	0.1239199203	
524.375	-0.0287402754	-0.08690723682	
525.0	-0.1903043039	0.2347538268	
525.625	0.1320665233	-0.01190429138	
526.25	-0.07237484816	0.05783003104	
526.875	0.01545992024	0.01508755448	
527.5	-0.1401055688	0.2081825438	
528.125	0.1557452941	0.3830034984	
528.75	0.04690553485	0.09302942792	
529.375	0.02681496085	0.1173952895	
530.0	0.1361343608	0.05200846319	
530.625	-0.09466674144	0.2898938958	
531.25	0.5512065189	0.1446451573	
531.875	0.166543355	-0.2529363295	
532.5	0.08717471281	-0.1171059843	
533.125	-0.08956173309	-0.1197014247	
533.75	0.127132928	-0.01392357498	
534.375	-0.1601216119	-0.4028664116	
535.0	-0.2049179928	0.01948566457	
535.625	-0.2011422368	0.05304310521	
536.25	0.01359913298	0.1331674966	
536.875	0.05023764793	-0.01110331663	
537.5	0.1119702748	-0.02997314577	
538.125	0.07632180914	-0.1186797475	
538.75	0.1270502728	-0.05582159575	
539.375	-0.09362087709	-0.2214956928	
540.0	-0.1897023145	-0.1054783067	
540.625	-0.1047742147	-0.0818902667	
541.25	-0.1422157644	-0.006921344333	
541.875	-0.05435745178	0.02515085917	
542.5	-0.05797450347	-0.1107840849	
543.125	-0.09418676052	0.02657282044	
543.75	-0.01054770745	-0.0317722968	
544.375	-0.1008557687	0.08952034931	
545.0	0.07463277607	-0.02061217431	
545.625	0.03153507995	0.1269888269	
546.25	0.1250530411	-0.02659525257	
546.875	0.08501848385	0.02946235383	
547.5	0.1257055423	-0.1803747014	
548.125	-0.08740837924	-0.1176908594	
548.75	-0.05759163165	-0.1301127966	
549.375	-0.1622857804	-0.1088602723	
550.0	-0.0380046636	0.05710775838	
550.625	-0.08723422802	-0.03256417805	
551.25	-0.05164602579	0.06595817397	
551.875	-0.08084021599	0.03103043573	
552.5	-0.05872169344	0.1077429071	
553.125	-0.006768759573	0.0475261743	
553.75	0.04032149097	0.06225132547	
554.375	0.09705250466	-0.01250505643	
555.0	0.09576372748	-0.06663588511	
555.625	0.09487900229	-0.1151122023	
556.25	0.06371773444	-0.1487124536	
556.875	-0.03637950028	-0.1622768441	
557.5	-0.1027058072	-0.1104263139	
558.125	-0.1259069263	-0.0415168004	
558.75	-0.1101997901	0.001791014949	
559.375	-0.1166910904	0.01338605071	
560.0	-0.1091711619	0.09202555175	
560.625	-0.03694618849	0.1087223128	
561.25	-0.02472699884	0.1049386144	
561.875	0.0614245972	0.04750197872	
562.5	-0.03666473278	0.04470877222	
563.125	0.1153824346	0.08918745214	
563.75	0.1018405793	-0.01692599797	
564.375	0.1736765803	-0.06900452153	
565.0	0.05596327215	-0.2036764858	
565.625	-0.02750978122	-0.1130718607	
566.25	-0.1022380812	-0.1822414298	
566.875	-0.1687904749	-0.02562448454	
567.5	-0.04716169295	-0.1091046879	
568.125	-0.1932941166	-0.2248696355	
568.75	-0.2084201741	-0.01076552533	
569.375	-0.2459434646	-0.01861656733	
570.0	-0.1494786024	0.3300316972	
570.625	0.02413158646	0.1244305431	
571.25	-0.08408983609	0.138712369	
571.875	0.1413228809	0.03282136856	
572.5	0.04606984795	0.0912952347	
573.125	0.1715492072	-0.1788620335	
573.75	-0.05369288339	-0.1210416114	
574.375	0.08683894643	-0.001869244651	
575.0	-0.04048329647	-0.1456614369	
575.625	0.05860359484	0.02182698505	
576.25	0.1077833177	-0.1864810786	
576.875	-0.09055830984	-0.1271221527	
577.5	0.05523382126	-0.0706701298	
578.125	-0.02171704036	-0.2698542158	
578.75	-0.1591394963	-0.05766443066	
579.375	0.01034324718	-0.05981471495	
580.0	-0.1734244817	-0.1315441517	
580.625	0.01961721409	0.05380002881	
581.25	-0.209421925	0.0293875928	
581.875	0.151459158	0.223965939	
582.5	0.01031116573	-0.005924926242	
583.125	0.03922503802	0.2080752009	
583.75	0.1325670867	-0.06829666298	
584.375	-0.05475522238	0.1653641876	
585.0	0.2153369143	0.03692532896	
585.625	0.05919134027	-0.03288012744	
586.25	0.2100572765	0.02160963557	
586.875	0.01815892457	-0.2399512054	
587.5	0.01816696683	-0.05095505191	
588.125	0.02825914951	-0.2208011613	
588.75	-0.06144254771	-0.1754923695	
589.375	0.09179838835	-0.04908160257	
590.0	-0.08327909811	-0.2847669851	
590.625	-0.1654115336	0.07418946358	
591.25	-0.1342113984	0.003558538062	
591.875	-0.08690660571	0.2313767319	
592.5	0.08750198337	-0.03194816024	
593.125	-0.08206147968	0.2285828607	
593.75	0.1055868794	0.01714040348	
594.375	0.07278654547	0.2349449835	
595.0	0.2886124089	0.1188862491	
595.625	0.04838710036	0.001437840111	
596.25	0.1485747537	0.1477659036	
596.875	0.2424816925	-0.0104657853	
597.5	0.08221533667	0.02338184069	
598.125	0.175790977	0.2137392845	
598.75	0.2529839198	0.0170250892	
599.375	0.170282089	0.009558601517	
600.0	0.2283650574	-0.1623634591	
600.625	0.09028681769	-0.2610939622	
601.25	0.03725422884	-0.1038313203	
601.875	-0.03910063779	-0.2367488413	
602.5	-0.1579022206	0.07523944142	
603.125	-0.04744861215	-0.07060864215	
603.75	-0.2240478756	0.1264128683	
604.375	0.00698516823	0.115987023	
605.0	-0.1499145792	-0.0003147708934	
605.625	-0.02232961645	0.1957410248	
606.25	-0.03197230726	-0.01618244725	
606.875	-0.3038638491	0.06811030042	
607.5	-0.06830998157	0.1507640832	
608.125	-0.1065586004	0.2502819657	
608.75	0.2282514079	0.2580056129	
609.375	0.2348722813	-0.150964225	
610.0	0.1338622841	-0.02316878505	
610.625	0.1209534222	-0.1916621875	
611.25	-0.09749991671	-0.1153341569	
611.875	0.02213794704	-0.1653104996	
612.5	-0.2556624712	-0.1158902963	
613.125	-0.0706606453	0.08138321052	
613.75	-0.2030522927	0.05531048258	
614.375	0.1343299999	0.1966465098	
615.0	-0.03449168479	-0.0664843415	
615.625	-0.00561099881	0.2364929041	
616.25	0.01710113626	0.0390341563	
616.875	-0.1801872193	0.1222054418	
617.5	-0.01805740639	0.3316624334	
618.125	0.1071806229	0.1508358165	
618.75	0.1107210654	0.227645344	
619.375	0.1855317584	0.1939182015	
620.0	0.2322430574	0.03298066693	
620.625	0.1586112687	-0.1299236808	
621.25	-0.1316799086	-0.2834831538	
621.875	-0.1498539638	-0.03161640099	
622.5	-0.2097696125	-0.03280367879	
623.125	0.007364056388	0.2748258667	
623.75	0.1060809557	-0.1116014746	
624.375	0.1260175698	-0.00242150067	
625.0	-0.06075490342	-0.04594655453	
625.625	0.1284190408	-0.05421453807	
626.25	-0.1035346421	-0.2093624215	
626.875	-0.1094590822	0.003328265851	
627.5	-0.1282599154	-0.141400051	
628.125	-0.1793372341	-0.04866071184	
628.75	-0.03466715641	-0.06974870093	
629.375	-0.07648733078	-0.2269318462	
630.0	-0.2388651265	-0.03902818789	
630.625	-0.1921643102	0.08410922311	
631.25	-0.1948364257	0.1497578602	
631.875	0.04009261968	0.277486338	
632.5	0.08230793818	0.1478907822	
633.125	0.1790193251	0.1995396031	
633.75	0.1437358258	-0.1542156062	
634.375	0.04597151251	0.01372533327	
635.0	0.01188230406	-0.2431440509	
635.625	-0.1548798654	0.007221810377	
636.25	-0.1562209725	-0.04192997989	
636.875	-0.1300035266	0.244944224	
637.5	0.05559937035	0.03580987148	
638.125	-0.1657610608	0.08750099096	
638.75	0.01061869946	0.2727767132	
639.375	-0.04563040233	0.1409565664	
640.0	0.1084737927	0.3800599165	
640.625	0.3323771677	0.07278559633	
641.25	0.1692648545	0.01328126611	
641.875	0.3159303361	-0.1729341628	
642.5	-0.126645916	-0.2395663048	
643.125	-0.001282828085	-0.08983387055	
643.75	-0.1714699216	-0.2727391654	
644.375	-0.1500997923	0.1725455704	
645.0	-0.2323056604	0.01024502276	
645.625	0.09773146631	0.3760974292	
646.25	0.1754016512	-0.1598372036	
646.875	0.07591968691	0.1277674195	
647.5	0.2045211812	-0.221639952	
648.125	0.008043476286	0.1894641321	
648.75	0.4294491934	-0.1313228995	
649.375	0.07473471347	-0.2923311986	
650.0	0.2052146471	-0.1232695654	
650.625	0.2946228319	-0.4315524694	
651.25	0.01892530363	-0.266666293	
651.875	0.3016233687	0.01671077715	
652.5	0.4411831558	-0.2180375461	
653.125	0.1115120559	-0.1601029952	
653.75	0.343871658	-0.1316592894	
654.375	-0.1643067268	-0.4334088997	
655.0	-0.2341381992	0.08085431537	
655.625	-0.2357969026	0.02975205239	
656.25	0.114266068	0.3260528805	
656.875	0.003676659093	-0.09426063064	
657.5	0.02500658627	0.3316258282	
658.125	0.2372566371	0.002470259649	
658.75	0.1253974929	0.1624089267	
659.375	0.6339742517	-0.2034056481	
660.0	0.06968980032	-0.3646245248	
660.625	0.2768794727	-0.1809618135	
661.25	0.2630136201	-0.4181743611	
661.875	0.0674435475	-0.3138921003	
662.5	0.303689756	-0.03258718046	
663.125	0.3642192134	-0.3090768164	
663.75	0.04364752677	-0.2611439596	
664.375	0.1134953314	-0.3380348175	
665.0	-0.4144295185	-0.2683945107	
665.625	-0.21289678	0.143935417	
666.25	-0.2138808345	0.2070575964	
666.875	0.2001720794	0.2875269502	
667.5	0.1233440349	-0.0515361532	
668.125	0.2795366568	0.1318823611	
668.75	0.1800441524	-0.263211086	
669.375	0.06155313127	-0.1095639215	
670.0	0.1802262294	-0.3314333264	
670.625	-0.1603342464	-0.259790348	
671.25	0.1167207696	-0.04756197272	
671.875	0.2024390033	-0.3121817025	
672.5	0.08263867675	-0.1954947608	
673.125	0.2154058947	-0.04919974902	
673.75	0.253229837	-0.3407270396	
674.375	-0.07039005018	-0.2149403602	
675.0	0.03710836456	-0.2998863863	
675.625	-0.2954059061	-0.2115958817	
676.25	-0.1120851823	0.1026341785	
676.875	-0.134624778	-0.1524104948	
677.5	-0.1950812876	0.147636849	
678.125	-0.0384900613	0.06339553701	
678.75	-0.1142901823	0.2872346845	
679.375	0.4090914488	0.04735041927	
680.0	-0.06669022452	-0.0617295688	
680.625	0.2654924884	-0.02278768637	
681.25	0.0384174178	-0.2214479814	
681.875	-0.01124515585	0.2951009276	
682.5	0.4370576424	0.1461825856	
683.125	-0.01983136188	-0.1181640551	
683.75	0.1868749934	0.2601071508	
684.375	0.4835875367	0.06124036863	
685.0	0.02200470168	-0.05075505951	
685.625	0.4353387218	0.2255762196	
686.25	0.3672812093	-0.1914931179	
686.875	0.1565415705	-0.1170840589	
687.5	0.4298686429	-0.2458915749	
688.125	-0.1917895662	-0.5272008709	
688.75	-0.2745377901	-0.1707248672	
689.375	-0.4923040804	0.2714957138	
690.0	0.2307247183	0.4308455337	
690.625	0.06307710914	0.1297550127	
691.25	0.3895188961	0.5617997024	
691.875	0.5499860641	0.09403234888	
692.5	0.4080563597	0.292776731	
693.125	0.8927256821	0.08807634496	
693.75	0.3720247067	-0.4921230664	
694.375	0.4397650045	-0.1300792819	
695.0	0.6655465667	-0.4083705492	
695.625	0.3253318564	-0.1409388097	
696.25	0.2905153952	0.3090803488	
696.875	0.467352461	0.1336446987	
697.5	0.3268101688	0.2422061463	
698.125	0.4867201149	0.419756209	
698.75	0.6011156034	-0.516934479	
699.375	-0.5105016307	-0.3440341766	
700.0	-0.3659777356	0.1103500569	
700.625	0.08347147205	0.4539886179	
701.25	0.1670657194	0.02944253991	
701.875	0.09419133664	0.3597573849	
702.5	0.5415137106	0.2374987298	
703.125	0.2595239883	0.02087782552	
703.75	0.4749498262	0.04839357806	
704.375	0.2896137775	-0.3536735243	
705.0	0.07255205168	-0.08901557308	
705.625	0.4112713191	0.1454414683	
706.25	0.2103193535	0.07001065217	
706.875	0.1416421888	0.3006027443	
707.5	0.2714465416	0.290036337	
708.125	0.475047999	-0.01226428908	
708.75	0.2672864039	-0.3709193418	
709.375	-0.273108101	-0.4156231487	
710.0	-0.4626552857	0.374564655	
710.625	0.00948773842	0.06016405078	
711.25	0.1111268205	0.3188514047	
711.875	0.1966069584	-0.06773469246	
712.5	0.3297138721	0.1950685948	
713.125	0.3492556613	-0.2665122777	
713.75	-0.004156609303	-0.225444854	
714.375	0.1656502254	-0.2250540405	
715.0	-0.09591526545	-0.2913270039	
715.625	-0.004616215854	-0.09172175088	
716.25	0.3272409668	-0.2410958906	
716.875	0.3150481024	-0.3485690077	
717.5	0.32132642	0.07686248546	
718.125	0.6941915938	0.2237615397	
718.75	0.7466448779	-0.4044416636	
719.375	0.5434852925	0.03153033517	
720.0	0.8601383335	-0.9807829315	
720.625	-0.08068991235	-1.329972221	
721.25	0.1638042611	-0.8220449867	
721.875	0.07153952623	-1.482893021	
722.5	-0.963369853	-0.5251027155	
723.125	-0.472920117	-0.4688638919	
723.75	-0.6384183901	0.5638704242	
724.375	0.1831219179	0.3534212303	
725.0	-0.04431225685	0.3933927735	
725.625	0.4169320101	0.7027722049	
726.25	0.09821173394	0.3696313642	
726.875	-0.4062578823	0.9865033423	
727.5	0.01138527233	1.787335414	
728.125	0.4210085745	1.413935134	
728.75	-1.362618355	2.205696133	
729.375	-0.220457166	4.89252227	
730.0	0.6707926865	2.374715759	
730.625	-1.782492333	4.043493861	
731.25	-0.3324997651	5.572649139	
731.875	-1.680061618	1.400130919	
732.5	-4.30266262	0.4767823259	
733.125	-3.498897677	1.228345707	
733.75	0.1485760486	0.8508294233	
734.375	0.6434222091	1.040229631	
735.0	-0.3685304158	-0.9204490136	
735.625	-0.2399066314	-0.03653766351	
736.25	-0.4773832445	0.8601926015	
736.875	0.8459301224	0.408317908	
737.5	0.4120025599	0.4399594552	
738.125	2.351316168	-0.2459807118	
738.75	1.002024073	-2.098745849	
739.375	1.056070112	-0.1267221759	
740.0	5.268408108	-0.3985545925	
740.625	1.952970392	-4.68926733	
741.25	-4.485999951	1.566635843	
741.875	-7.835024175	3.4952573	
742.5	-0.7875555861	0.1637897566	
743.125	1.867251045	-1.835770069	
743.75	-0.3949358752	-1.337267723	
744.375	-0.2954370822	0.192423315	
745.0	-0.1439892083	0.1358668111	
745.625	0.01961107428	-0.1891126377	
746.25	0.08664571526	-0.1258230931	
746.875	-0.3841240702	0.05427065599	
747.5	-0.006798998999	0.317609702	
748.125	-0.03357547825	0.4541764478	
748.75	0.3559069403	0.6338961229	
749.375	0.1612260591	0.359091125	
750.0	-0.439758825	0.2556486389	
