!Created with skrf (http://scikit-rf.org).
# GHz S RI R (50+0j) 
!freq	ReS11	ImS11	
500.0	0.2992243125	-1.078433132	
500.625	-0.1727062029	-0.5185922728	
501.25	-0.0692701537	-0.5706109172	
501.875	-0.3850314576	-0.3698670052	
502.5	-0.03386991442	-0.02599139956	
503.125	-0.07217729374	-0.02624709281	
503.75	0.07496150611	0.06970717426	
504.375	0.006967762006	0.01626666276	
505.0	0.004794477901	-0.05726754279	
505.625	0.01871751143	0.008091277668	
506.25	-0.09039657443	-0.1213330709	
506.875	0.06843659485	0.1005306663	
507.5	0.08332011259	-0.4744588774	
508.125	-0.0806564023	-0.7731886236	
508.75	0.2127867569	-0.3631437835	
509.375	0.2360699039	-1.059351318	
510.0	-0.6852309082	-0.07648383281	
510.625	-0.008332978785	-0.04805882605	
511.25	-0.08685807727	-0.05538907547	
511.875	-0.06609082279	0.02923923158	
512.5	-0.02069574309	0.02918693159	
513.125	-0.04412744066	-0.08387951431	
513.75	-0.02566100684	0.01425662352	
514.375	-0.02676884368	-0.1166117028	
515.0	-0.1891426191	0.1511828959	
515.625	0.3689259502	-0.4840051366	
516.25	-0.6313371213	-0.4330946581	
516.875	0.1268590897	-0.1976106928	
517.5	0.03423977916	-0.2308302277	
518.125	-0.04769435803	0.04223988314	
518.75	0.04287058025	-0.1740491607	
519.375	-0.01739537664	0.03737240116	
520.0	0.06819235335	0.01646814442	
520.625	0.1251419018	0.00429310601	
521.25	-0.04116843555	-0.3109698173	
521.875	-0.1337544519	0.007518669102	
522.5	-0.04355000369	-0.0282379932	
523.125	-0.03562180701	0.1339719913	
523.75	0.008846936293	-0.04614622346	
524.375	-0.2716778037	0.01189051338	
525.0	0.09903173867	0.1130586941	
525.625	-0.05563318387	0.02194129598	
526.25	0.05840412539	0.008041688386	
526.875	-0.09675952301	0.06114049081	
527.5	0.04548877928	0.2146484128	
528.125	0.01624612302	0.1200387623	
528.75	-0.06664435017	0.2287258979	
529.375	-0.01751665803	0.02474919739	
530.0	-0.06425849463	0.0964823845	
530.625	0.01451155391	0.2261637176	
531.25	0.3978788064	-0.009584276165	
531.875	0.06203271007	-0.07247333385	
532.5	-0.07172465034	-0.1815558236	
533.125	0.01425434601	0.09363261327	
533.75	0.05514312801	-0.2612971003	
534.375	-0.1450558635	-0.08523735035	
535.0	-0.1838542033	-0.1515927047	
535.625	-0.1269870188	0.1609586206	
536.25	0.009214442773	0.04626045976	
536.875	0.08403865509	0.04580439285	
537.5	0.05571113793	-0.07202857944	
538.125	0.07064673443	-0.02779788647	
538.75	0.1514942862	-0.1309596238	
539.375	-0.09505970908	-0.1189180209	
540.0	-0.09870167957	-0.1395758224	
540.625	-0.1590207238	-0.02544626039	
541.25	-0.05236846232	0.03179678888	
541.875	-0.04035590435	-0.06906819662	
542.5	-0.08262707772	-0.00746882979	
543.125	0.008007480768	0.02611845428	
543.75	-0.1251563251	-0.05123145521	
544.375	0.0476739973	0.100666957	
545.0	-0.05520339334	0.03611489649	
545.625	0.1014594477	0.03992900004	
546.25	0.01654001531	0.03127573508	
546.875	0.1767005559	-0.03425363059	
547.5	-0.005774258546	-0.09847683852	
548.125	0.02073827647	-0.1210625543	
548.75	-0.14508841	-0.1426819101	
549.375	-0.1130087157	0.003498007577	
550.0	-0.04773349765	-0.0293878636	
550.625	-0.06549213545	0.04237889988	
551.25	-0.04173089246	0.004754353529	
551.875	-0.09362860205	0.05933677118	
552.5	-0.01112366312	0.06436261923	
553.125	-0.02649771108	0.05232129658	
553.75	0.05265492988	0.03042279535	
554.375	0.06775675289	-0.00291982896	
555.0	0.09192915675	-0.06661884116	
555.625	0.06549459606	-0.1020700167	
556.25	0.04893610667	-0.1216504423	
556.875	-0.03702739693	-0.1390957601	
557.5	-0.095936223	-0.0866334294	
558.125	-0.1045175704	-0.02546515914	
558.75	-0.09645936408	-0.00275850966	
559.375	-0.1069384428	0.03076753614	
560.0	-0.06945856571	0.07175228156	
560.625	-0.05691478404	0.09419411774	
561.25	0.02251397904	0.1079925364	
561.875	0.01974970383	0.006143224096	
562.5	0.01540124862	0.08021672408	
563.125	0.06248727795	0.02392118373	
563.75	0.1288086268	0.03491158734	
564.375	0.1277331687	-0.133759841	
565.0	0.02443473428	-0.1024822239	
565.625	-0.001355634173	-0.1679280863	
566.25	-0.1546385962	-0.06668243788	
566.875	-0.05262670237	-0.03415709238	
567.5	-0.1478336635	-0.1484600986	
568.125	-0.1765687609	-0.07170739455	
568.75	-0.1068774091	-0.1234247584	
569.375	-0.2747369277	0.1401492251	
570.0	-0.01240548386	0.1528919739	
570.625	-0.115912567	0.1175979749	
571.25	0.07506292423	0.1646835843	
571.875	-0.02844974987	0.01967953118	
572.5	0.1879001319	0.02103086038	
573.125	0.001676572484	-0.152721648	
573.75	0.05944585009	0.005715974815	
574.375	0.05146422403	-0.1497250407	
575.0	-0.0412925815	0.0266729016	
575.625	0.09940013458	-0.1076211808	
576.25	-0.04391285726	-0.1108304202	
576.875	0.04888161346	-0.05468796814	
577.5	0.02217649402	-0.2243019959	
578.125	-0.1244063601	-0.1099045115	
578.75	0.004878876648	-0.03223189397	
579.375	-0.06858975021	-0.1905644075	
580.0	-0.1148700696	0.07619654474	
580.625	-0.01359826706	-0.1376350947	
581.25	-0.08700266692	0.2133993255	
581.875	0.03582478931	0.02259203877	
582.5	-0.04211020856	0.2125488732	
583.125	0.1988366432	0.04520260069	
583.75	-0.08060693798	0.01325552752	
584.375	0.1196577078	0.09553409263	
585.0	0.01803307734	-0.034883066	
585.625	0.116662365	0.0963246931	
586.25	0.185639661	-0.1418996009	
586.875	-0.01013176303	-0.07601443617	
587.5	0.05205094172	-0.1501147292	
588.125	-0.09120843889	-0.1548786367	
588.75	0.04078081092	-0.03815978846	
589.375	0.1100909272	-0.2048505912	
590.0	-0.1480059728	-0.09518796609	
590.625	-0.06965209878	-0.07355342656	
591.25	-0.2196667513	0.1175357831	
591.875	0.08495754491	0.1343548527	
592.5	-0.1377692125	-0.002432671532	
593.125	0.0780914177	0.07988651501	
593.75	-0.07527265873	0.08093899917	
594.375	0.2144995629	0.1481214521	
595.0	0.05243041048	-0.01871292439	
595.625	0.1033329841	0.1444153745	
596.25	0.2212057413	0.02437650578	
596.875	0.07967587564	-0.02396244799	
597.5	0.1202294308	0.1478538339	
598.125	0.2098928051	0.0824208007	
598.75	0.1057113539	0.05215263398	
599.375	0.2176751453	0.01633260447	
600.0	0.1419444473	-0.1748545069	
600.625	0.06997762759	-0.09827766684	
601.25	0.1221559423	-0.1752822963	
601.875	-0.1515262264	-0.124313194	
602.5	0.006680644957	0.008556411816	
603.125	-0.205327869	0.01047784949	
603.75	-0.03589768526	0.1453473362	
604.375	-0.1109350843	-0.05264251288	
605.0	-0.1149661395	0.1740864518	
605.625	0.0174531736	-0.03038523968	
606.25	-0.1951565904	0.03289582254	
606.875	-0.0441233446	0.1033274212	
607.5	-0.1067911566	0.072257834	
608.125	-0.04704993722	0.2766736402	
608.75	0.2482965822	0.1036976145	
609.375	0.1854729946	-0.02318271274	
610.0	0.1614063162	-0.08694208747	
610.625	0.06291357899	-0.1960769051	
611.25	0.01477607863	-0.06130551199	
611.875	-0.04879008761	-0.1807539515	
612.5	-0.1325009502	0.0480833091	
613.125	-0.1056246639	-0.07923687762	
613.75	-0.124250965	0.2159936475	
614.375	0.1010914754	-3.354968047e-07	
615.0	-0.0309957065	0.1343625393	
615.625	0.07607042801	-0.007951627654	
616.25	-0.08004766564	0.04708368887	
616.875	-0.1398752088	0.2387416333	
617.5	0.06277791251	0.2188822821	
618.125	0.02971706168	0.2749783325	
618.75	0.04018519276	0.2145926783	
619.375	0.1317599194	0.07219232996	
620.0	0.1245737944	0.09301188518	
620.625	0.2222650534	-0.06715700168	
621.25	-0.1318490078	-0.1181193382	
621.875	-0.1317781362	-0.1238769555	
622.5	-0.2598770724	0.08181924665	
623.125	0.08360062475	0.1832324302	
623.75	0.04511516687	0.0710653647	
624.375	0.06826860322	-0.125636996	
625.0	-0.003958479933	0.04787128376	
625.625	0.09054587099	-0.1384450878	
626.25	-0.1056310112	-0.06710836332	
626.875	-0.05492571338	-0.1020615337	
627.5	-0.1742092181	-0.04116243572	
628.125	-0.09468658971	0.01168886624	
628.75	-0.05194384959	-0.08682051392	
629.375	-0.1258840598	-0.1505561918	
630.0	-0.1381272422	-0.04178637064	
630.625	-0.2101244615	0.02103810263	
631.25	-0.1203648847	0.2332963556	
631.875	0.0338700567	0.1848531424	
632.5	-0.007005562581	0.1656276534	
633.125	0.2578124522	0.009583684509	
633.75	0.0006895616866	-0.1082094738	
634.375	0.1330053257	-0.09153941869	
635.0	-0.09367002507	-0.1699791188	
635.625	-0.03137645418	-0.02039239712	
636.25	-0.2403229055	0.04102061767	
636.875	0.03256350706	0.1597023441	
637.5	-0.0630091739	-0.0001114316435	
638.125	-0.06970275065	0.1872123478	
638.75	-0.001312860574	0.05886906962	
639.375	-0.09965010258	0.2444476256	
640.0	0.2170937672	0.2465177227	
640.625	0.1980290486	0.03938803565	
641.25	0.2081931236	0.080273086	
641.875	0.2962019478	-0.2476241674	
642.5	-0.09789430026	-0.1099065046	
643.125	0.04731454991	-0.1729134684	
643.75	-0.2287812382	0.003111950304	
644.375	0.06511402074	-0.06974542789	
645.0	-0.2748099446	0.1940227976	
645.625	0.2146580991	0.1554994728	
646.25	0.01231466994	0.03988301936	
646.875	0.2732538257	0.07402892186	
647.5	-0.07264280149	-0.1279159215	
648.125	0.2048575216	0.1760277432	
648.75	0.236656457	-0.2362002905	
649.375	0.07488107578	-0.1182028504	
650.0	0.3033170268	-0.2956780995	
650.625	-0.02889717582	-0.366837562	
651.25	0.1246984412	-0.02640773124	
651.875	0.3750053382	-0.1984899358	
652.5	0.1746062401	-0.2472631427	
653.125	0.1359204559	0.01391384435	
653.75	0.3166449187	-0.2526659245	
654.375	-0.2747869021	-0.3000803588	
655.0	-0.0946865731	-0.04795710671	
655.625	-0.3024176485	0.1923336203	
656.25	0.2607807565	0.1208166365	
656.875	-0.1488119859	0.04764459848	
657.5	0.2156639714	0.122903067	
658.125	-0.02133602392	-0.001203208997	
658.75	0.3909047104	0.2516208575	
659.375	0.2629352308	-0.3182271098	
660.0	0.1223398117	-0.09212216307	
660.625	0.2268343131	-0.3040870041	
661.25	0.06435242876	-0.4071348493	
661.875	0.07085989591	-0.100656835	
662.5	0.3862601477	-0.2133382986	
663.125	0.1507595692	-0.2849077409	
663.75	0.12029994	-0.1371283359	
664.375	0.002359490204	-0.3957501977	
665.0	-0.3113135778	-0.06820942352	
665.625	-0.204184144	0.01156832793	
666.25	-0.1520384078	0.3054243935	
666.875	0.2471767972	0.135849951	
667.5	0.03900640203	0.1093644143	
668.125	0.2987889975	-0.0509127462	
668.75	0.0367716629	-0.1665389056	
669.375	0.1755889027	-0.09516576807	
670.0	-0.03587195598	-0.3346640043	
670.625	-0.08314623973	-0.03929822186	
671.25	0.1799457715	-0.2478548927	
671.875	0.03294227732	-0.2422546573	
672.5	0.09690749744	-0.03200609289	
673.125	0.3051201413	-0.1531984144	
673.75	0.02542404979	-0.2845129948	
674.375	0.07643100226	-0.1339857961	
675.0	-0.03861989912	-0.2880615533	
675.625	-0.2783141718	-0.06609589494	
676.25	-0.03065853879	0.003984550103	
676.875	-0.2366181944	-0.03197024386	
677.5	-0.07939641768	0.1360141586	
678.125	-0.1314890673	0.009575158707	
678.75	0.03589746894	0.364125892	
679.375	0.1655859367	-0.1138879856	
680.0	0.1171313586	0.09184022476	
680.625	0.1641240562	-0.2282946049	
681.25	-0.1099077161	-0.02259013107	
681.875	0.2436962639	0.2218792875	
682.5	0.2154284151	-0.2308111924	
683.125	0.05463448439	0.07913421003	
683.75	0.2877043067	0.1822219767	
684.375	0.2499143155	-0.1938792545	
685.0	0.0291103529	0.0755333161	
685.625	0.4045320375	-0.02889346351	
686.25	0.1917191395	-0.1411299586	
686.875	0.2545556054	-0.008609712757	
687.5	0.3260202279	-0.4411829642	
688.125	-0.1199850062	-0.260201446	
688.75	-0.2668493239	-0.2397651337	
689.375	-0.3483813964	0.3551514661	
690.0	0.2651115401	0.2176160711	
690.625	-0.05916714305	0.2795692301	
691.25	0.531295241	0.2244036757	
691.875	0.3054702972	0.08382320641	
692.5	0.539747085	0.3506132818	
693.125	0.6987220587	-0.3457650389	
693.75	0.2912287179	-0.0505644898	
694.375	0.5479542846	-0.3662509928	
695.0	0.2549872608	-0.4204611471	
695.625	0.2447167937	-0.1041316698	
696.25	0.6194978031	-0.02262463902	
696.875	0.4733025052	0.1864081133	
697.5	0.2595456612	0.3019633377	
698.125	0.4454895253	0.163022125	
698.75	0.4180000624	-0.4196695092	
699.375	-0.2697405767	-0.1897036986	
700.0	-0.3153147374	0.2146433459	
700.625	0.2757495304	0.2342062983	
701.25	0.07278591475	0.02528019739	
701.875	0.3084197735	0.3203465598	
702.5	0.3801801941	0.00221128494	
703.125	0.2407804554	0.1484970258	
703.75	0.4617503032	-0.146514341	
704.375	0.135514575	-0.2947178375	
705.0	0.1817331975	0.02118252356	
705.625	0.2787953696	-0.09979116692	
706.25	0.1783289022	0.02593346299	
706.875	0.3258986522	0.2101593116	
707.5	0.3085383255	0.2776898356	
708.125	0.3374942955	0.007334693623	
708.75	0.3106647169	-0.2373039583	
709.375	-0.08111520423	-0.4548302511	
710.0	-0.08738744931	0.2625618958	
710.625	-0.06821773595	0.137092855	
711.25	0.2220050286	0.05035213225	
711.875	-0.01720030482	0.07097268434	
712.5	0.3566989607	0.02832611518	
713.125	0.1802708511	-0.2939068965	
713.75	0.05378003467	-0.118683849	
714.375	0.06075420119	-0.2669478858	
715.0	-0.1452134701	-0.1588936287	
715.625	0.07402749218	-0.1056163037	
716.25	0.1656393337	-0.2944050696	
716.875	0.1325002753	-0.2204377647	
717.5	0.3291113732	-0.02234576468	
718.125	0.6873678497	-0.03800244207	
718.75	0.396072538	-0.3024959632	
719.375	0.4863026241	-0.1537519056	
720.0	0.7506340202	-0.917044045	
720.625	-0.1503762636	-0.5845180379	
721.25	0.1876790672	-0.8442269239	
721.875	-0.5323796296	-1.01310326	
722.5	-0.5204544488	0.2111000825	
723.125	-0.6656131733	-0.3871417149	
723.75	-0.2602588673	0.6068522652	
724.375	0.0975185017	0.1836865368	
725.0	0.04353370611	0.5058448993	
725.625	0.4120021278	0.3167131749	
726.25	-0.02649266739	0.3283755222	
726.875	-0.2113408699	0.9471430797	
727.5	0.3175323557	1.328429617	
728.125	0.2706014196	0.9402191155	
728.75	-0.7390922887	2.517579131	
729.375	0.6295655325	3.415238383	
730.0	0.09333237769	1.797465581	
730.625	-1.58900911	3.975602596	
731.25	1.009450022	2.95122606	
731.875	-1.925070568	1.080889834	
732.5	-4.205343532	0.3956808717	
733.125	-1.728946111	1.425792253	
733.75	-0.4903577789	0.3973552225	
734.375	1.006983522	0.661016777	
735.0	-0.3592611403	-0.4313370776	
735.625	-0.2717367499	-0.2314958155	
736.25	-0.05414345378	0.7648216821	
736.875	0.460875527	0.03237908686	
737.5	0.7077586931	0.6575236616	
738.125	1.649179301	-0.9045134363	
738.75	0.4966203455	-1.311151087	
739.375	1.545083691	0.08657052811	
740.0	5.159283537	-2.146730124	
740.625	-0.07022272129	-2.582221974	
741.25	-2.809674976	3.119871108	
741.875	-3.620563178	2.903734692	
742.5	0.4367119387	-0.4412230375	
743.125	0.645619371	-2.564146988	
743.75	-0.7054127783	-1.133890323	
744.375	-0.06884395631	0.1496703478	
745.0	-0.09095069692	0.2410761833	
745.625	-0.06381643195	-0.06938471785	
746.25	0.07359787525	-0.1774931911	
746.875	-0.2305398255	0.1198884553	
747.5	-0.04131641583	0.203057781	
748.125	0.07344018215	0.5042161938	
748.75	0.4241496937	0.4376650932	
749.375	0.03367620837	0.2805666025	
750.0	-0.4428012505	-0.0006530803377	
