!Created with skrf (http://scikit-rf.org).
# GHz S MA R 50.0 
!freq magS11 angS11
500.0 0.0148730116348 141.042652784
500.625 0.0144998167327 148.046698883
501.25 0.0193181145187 -169.091976817
501.875 0.0325811760145 -175.695607785
502.5 0.0185928059619 150.796545879
503.125 0.0174767406831 111.291789123
503.75 0.00618167487935 116.204458682
504.375 0.0230521582272 -58.9501189729
505.0 0.00617462566175 -55.8040326542
505.625 0.0230915792166 -70.9792516564
506.25 0.0453343151477 -101.448048594
506.875 0.0757791810099 -92.8822943342
507.5 0.0390571875018 -151.08253808
508.125 0.0386021176798 -111.035577383
508.75 0.055899314784 -133.026665534
509.375 0.063051694237 -125.800169656
510.0 0.029414140426 -150.677414315
510.625 0.0265498630233 -165.837952624
511.25 0.0483889349561 175.939380903
511.875 0.0627684725587 154.136287642
512.5 0.0344549174603 86.9322782865
513.125 0.0469588031661 40.9245053623
513.75 0.0503194664375 34.2474963059
514.375 0.0504762118958 29.6105051731
515.0 0.0535758017599 7.23803945202
515.625 0.0950733276342 53.1849355369
516.25 0.0885227055796 32.147179087
516.875 0.126727111999 70.1045421747
517.5 0.099483369267 15.5503830692
518.125 0.192999239749 71.7649478016
518.75 0.0907678852716 14.9893662241
519.375 0.0609148571627 14.7955397089
520.0 0.0883731835723 -2.75285034965
520.625 0.107622080476 -1.43794295747
521.25 0.0867845698125 -20.5266260886
521.875 0.0751805981823 3.22622429868
522.5 0.0936435511389 -33.3933066004
523.125 0.180458181411 -34.0417280402
523.75 0.207461128603 -58.5075099089
524.375 0.223762132725 -46.7063696262
525.0 0.068718883873 -44.0843861095
525.625 0.0356582337138 -45.8057185156
526.25 0.0571376050251 -4.78251955578
526.875 0.0399292651364 -38.2102573135
527.5 0.0455357642855 -28.4696579412
528.125 0.0425235122313 -59.3060748803
528.75 0.0626336689416 -70.4103206418
529.375 0.0721858499296 -114.42443609
530.0 0.0349097292187 -138.706559483
530.625 0.0337924729083 -136.816997841
531.25 0.140422291773 -139.891271024
531.875 0.134005446279 -148.790484714
532.5 0.128127127884 -171.007373179
533.125 0.1005906474 174.96871475
533.75 0.129190827093 168.539662809
534.375 0.0951821681807 178.347107373
535.0 0.0872355718014 162.953644963
535.625 0.0703569502455 179.064159525
536.25 0.072749599198 163.153335029
536.875 0.0594556546878 -157.075592756
537.5 0.0862309229448 -141.02888176
538.125 0.0990533155171 -172.621431231
538.75 0.116168348456 -179.066756449
539.375 0.0565858867236 -166.28286875
540.0 0.0891191826788 -153.498262818
540.625 0.116575822248 -156.915951768
541.25 0.141638933955 -141.819129345
541.875 0.0850571192141 -141.099756324
542.5 0.101508534918 -138.414054026
543.125 0.128829586612 -167.347478
543.75 0.141752403185 159.801715369
544.375 0.0872328804902 134.560524953
545.0 0.0879868602753 92.1398624666
545.625 0.105365872096 83.9008349795
546.25 0.0907401518563 68.9721197913
546.875 0.096427218453 54.5736112176
547.5 0.10858983796 59.7671225873
548.125 0.101477093369 78.4124132897
548.75 0.100359353901 90.2168066253
549.375 0.078770549826 85.6820822235
550.0 0.0864485967948 126.557076227
550.625 0.0522033122377 155.30936798
551.25 0.041204097645 -138.462606207
551.875 0.0606941030451 -153.622826013
552.5 0.106247352851 -160.529474528
553.125 0.0877332117313 -165.47134432
553.75 0.0959206609988 -172.768041246
554.375 0.10486345579 168.267164085
555.0 0.124873078537 164.476610925
555.625 0.0987110075059 158.598753039
556.25 0.0992576800103 163.592882393
556.875 0.126454798599 164.015649764
557.5 0.0972813750742 168.539908229
558.125 0.0863805265157 166.637683096
558.75 0.0811487329317 179.326253938
559.375 0.0580886180175 -171.636285057
560.0 0.0422052719855 -143.454240937
560.625 0.0600951294844 -139.76242753
561.25 0.0899597810514 -148.872339595
561.875 0.104051774729 -162.355546867
562.5 0.0923875570658 174.111075666
563.125 0.107226070525 144.480710323
563.75 0.136042319803 130.000303174
564.375 0.0957083276917 123.982425035
565.0 0.0827924395369 121.779238713
565.625 0.0865446427362 117.753101935
566.25 0.0970715055985 154.319817953
566.875 0.0790833596524 177.562157191
567.5 0.0652512535588 -172.375728237
568.125 0.0728965657929 -165.637462313
568.75 0.0608788276863 -145.013382765
569.375 0.053684522612 -118.711845948
570.0 0.0590698279459 -95.3542692904
570.625 0.0921545778883 -112.469317978
571.25 0.0907146265077 -118.45833461
571.875 0.0910309969318 -131.660136631
572.5 0.108284774271 -150.268223812
573.125 0.131859152061 -169.276486752
573.75 0.096154982792 163.990720231
574.375 0.0875245041723 145.625849439
575.0 0.104181323623 155.604853202
575.625 0.108655370157 156.915209597
576.25 0.0884464248076 145.855608902
576.875 0.0714527139866 130.992272354
577.5 0.0829363180804 136.90463846
578.125 0.0627526033114 157.965184815
578.75 0.0485049929755 164.460672771
579.375 0.058074658702 156.180691201
580.0 0.0650015807743 -162.878900803
580.625 0.0783930421612 -142.919877076
581.25 0.091257678905 -162.456194407
581.875 0.11695124415 176.588505363
582.5 0.107378172809 -166.2029
583.125 0.0917178824289 -165.370366826
583.75 0.0766601560987 -165.617562358
584.375 0.105628407705 -164.451435277
585.0 0.0945701446369 -141.987809307
585.625 0.0710813482979 -140.815482416
586.25 0.0657226133358 -131.717809179
586.875 0.0848309471279 -144.687833918
587.5 0.0675938530567 -130.751384421
588.125 0.0585458287703 -169.477393092
588.75 0.0644023533228 -158.407768821
589.375 0.0811801912128 -161.778899764
590.0 0.0933455844701 -164.712227645
590.625 0.105371179748 165.928426077
591.25 0.118817880021 153.345670478
591.875 0.0952283309761 159.947244006
592.5 0.065307724171 143.789447321
593.125 0.062847440078 151.653480094
593.75 0.0556483499865 170.021320505
594.375 0.0602151244098 -161.54614601
595.0 0.0464797308323 -102.677931861
595.625 0.0588695553393 -99.8751022643
596.25 0.0730730938733 -90.2091716259
596.875 0.0691338905017 -69.737399103
597.5 0.0575124228023 -67.8573875101
598.125 0.0698124278302 -55.2038796097
598.75 0.0815178262842 -58.8678508298
599.375 0.0805112981288 -73.6162479201
600.0 0.111437797137 -54.7167423356
600.625 0.101493403232 -58.1331367879
601.25 0.0808877350633 -73.130032583
601.875 0.0677214041207 -97.5903966097
602.5 0.0613576951416 -83.5774316502
603.125 0.0420803040037 -57.9059542913
603.75 0.0315170441735 -36.4453660983
604.375 0.0432720086735 -20.1691883228
605.0 0.050883735308 -33.4383402692
605.625 0.0627314813928 15.0876336645
606.25 0.0338902081386 30.9930417076
606.875 0.0449533963331 55.8716117603
607.5 0.0438994134556 37.2786806598
608.125 0.0865832264829 37.3425836726
608.75 0.0594663359091 20.0413532849
609.375 0.0670925074286 30.5117846719
610.0 0.060537987667 33.2606673609
610.625 0.0795637655254 52.8049221041
611.25 0.0638393975178 48.7249549986
611.875 0.0400332974454 60.5507633944
612.5 0.0103052991854 25.9866154418
613.125 0.0320592918864 125.878536103
613.75 0.0459712568632 126.596286931
614.375 0.0409189252169 120.296972452
615.0 0.0376447932551 116.898021563
615.625 0.0237466202659 138.461478747
616.25 0.0591779430249 136.024867875
616.875 0.0545147756917 127.625987829
617.5 0.0311502805256 112.125430721
618.125 0.0323132913884 135.123516203
618.75 0.0335145325703 148.979204792
619.375 0.0158755864234 131.962939185
620.0 0.0119891982105 -18.0193388954
620.625 0.0201932705456 -154.010053894
621.25 0.040664040557 -114.236530461
621.875 0.0612071133197 -100.754641625
622.5 0.0692890460675 -161.909056495
623.125 0.0632287069269 -178.718465603
623.75 0.0632823279686 164.767248221
624.375 0.0398366516012 -175.147787625
625.0 0.041709411687 -151.905809843
625.625 0.0219891078484 -132.961048373
626.25 0.0486760048351 -174.962268024
626.875 0.0162554947843 174.27017742
627.5 0.0218290318801 -50.5777649525
628.125 0.0540563743839 -3.90981384303
628.75 0.0357102901366 -59.0954007033
629.375 0.0388771698191 -18.5312046493
630.0 0.0761320862434 1.14110722368
630.625 0.083558802155 21.7076075091
631.25 0.0684578375385 -6.38432654516
631.875 0.0693313297829 -21.4198448964
632.5 0.0632134492158 -14.8863629519
633.125 0.0527982861925 28.921728209
633.75 0.0434470623373 0.420713457581
634.375 0.0428858616315 13.9085478244
635.0 0.035910297977 31.2744294292
635.625 0.0341711270398 42.9466614606
636.25 0.0673370497062 50.1309532287
636.875 0.057712892677 10.6773667846
637.5 0.0383197485468 35.9723236825
638.125 0.0372973551335 55.9482842577
638.75 0.0984695490683 79.2139411943
639.375 0.0883098044555 86.2427953566
640.0 0.0668929372393 100.627774755
640.625 0.0613529405324 100.69096055
641.25 0.0621095257446 123.85457464
641.875 0.0535680043003 136.505378687
642.5 0.0449828861312 148.115261335
643.125 0.0533730390877 156.907990917
643.75 0.0884519482329 177.958540916
644.375 0.0544872055165 170.255533763
645.0 0.0702337102356 174.405336941
645.625 0.0946429004888 164.826937944
646.25 0.102040643813 169.532447826
646.875 0.0737608246269 179.649734949
647.5 0.0660082931505 -175.167441612
648.125 0.0922022218147 -172.548263096
648.75 0.0739018034849 -162.41309359
649.375 0.0573740837434 -143.66282047
650.0 0.0449266242535 -120.599549779
650.625 0.0540315155729 -89.8993711889
651.25 0.0679240942287 -62.8386327824
651.875 0.0761630594643 -42.5104360837
652.5 0.0641249124701 -24.7738433843
653.125 0.102071637853 -2.25822222326
653.75 0.109607473364 7.12241279674
654.375 0.103285389606 5.78302703189
655.0 0.113238684654 11.39652299
655.625 0.0978252364014 28.755078912
656.25 0.0601910638021 23.2330023794
656.875 0.0801718116038 9.51827899582
657.5 0.0566188087311 11.5610066046
658.125 0.0619908709664 49.4804651887
658.75 0.0504773988991 60.8588446627
659.375 0.0960404258339 35.8452189733
660.0 0.108852082718 24.1549145911
660.625 0.111433473347 19.6133646865
661.25 0.108357267988 2.04477765548
661.875 0.120843723912 -11.3638943568
662.5 0.10385466895 -21.3488669415
663.125 0.0917655017417 -15.7211489643
663.75 0.0911446661465 1.65398493378
664.375 0.115426882028 55.1435189297
665.0 0.0639024414287 93.8358217452
665.625 0.0714932297943 111.494552671
666.25 0.087895892829 131.523052249
666.875 0.107558108133 165.725262207
667.5 0.095819841518 -168.763698603
668.125 0.104936337909 -178.480236682
668.75 0.127321682525 168.451527438
669.375 0.141905464453 177.251411619
670.0 0.0815779809232 -172.303812376
670.625 0.0844098798544 -169.201808202
671.25 0.104417327059 173.921061804
671.875 0.116872471945 167.327994757
672.5 0.0569014730152 159.738495885
673.125 0.0739396364068 159.485495224
673.75 0.111482721482 160.094783041
674.375 0.117191452812 169.044090856
675.0 0.116027137538 -174.496591279
675.625 0.127328549163 -148.327410176
676.25 0.127889086579 -125.883711296
676.875 0.122338689092 -121.39995974
677.5 0.123611591009 -127.191371943
678.125 0.113403731102 -114.256622557
678.75 0.0586917043345 -92.5880085047
679.375 0.0614832679967 -80.6229461489
680.0 0.0632287252157 -66.6993817286
680.625 0.115047070064 -72.9780443012
681.25 0.110056539017 -75.1265726
681.875 0.103913586718 -94.0501493953
682.5 0.144063450782 -122.626814427
683.125 0.150163975605 -120.128963848
683.75 0.128897329814 -103.423735552
684.375 0.107796379669 -77.7498717995
685.0 0.144867081818 -42.5084303904
685.625 0.111427143399 0.974891903267
686.25 0.102426687413 22.6995701161
686.875 0.0787563747355 45.2419637584
687.5 0.0888450765661 76.5555157183
688.125 0.071079578729 121.873034477
688.75 0.101806365102 116.423696936
689.375 0.131035597407 122.24886694
690.0 0.138098651293 132.696327677
690.625 0.115362253549 127.622922779
691.25 0.141517526185 99.3386765883
691.875 0.194925244204 67.5655803231
692.5 0.140277791981 41.0212788232
693.125 0.097094031468 -18.4198883348
693.75 0.0789797245854 -26.4528713179
694.375 0.124461262689 -21.3859533046
695.0 0.118656968393 13.4938408799
695.625 0.104389941509 52.3074592825
696.25 0.110786536705 115.20296827
696.875 0.138637938849 172.913988962
697.5 0.141409448735 -140.569148379
698.125 0.140637717943 -132.393359226
698.75 0.133188549583 -131.584824681
699.375 0.104990367415 -121.123926785
700.0 0.0890460360507 -109.962119096
700.625 0.122186212156 -98.8412623898
701.25 0.0934893019205 -60.0333900708
701.875 0.0824571043602 -55.6456673076
702.5 0.0972881998856 -83.0043570524
703.125 0.171861621551 -121.278754098
703.75 0.193920360176 -158.087092811
704.375 0.127262863357 172.547052895
705.0 0.106747361842 165.893064431
705.625 0.140240691568 -168.016773901
706.25 0.156622830886 -120.345306669
706.875 0.0799125107333 -50.4487041898
707.5 0.0741890738982 -30.6150377074
708.125 0.0858678045929 18.2490582974
708.75 0.111814958314 57.2252199149
709.375 0.106532905493 113.775939195
710.0 0.103478839283 130.974213792
710.625 0.109391479554 156.114297706
711.25 0.119835183207 168.187951867
711.875 0.144989933047 177.946953563
712.5 0.150068463522 147.895244028
713.125 0.116594569565 102.661121829
713.75 0.105780333785 43.3702814992
714.375 0.115711941485 13.0438252305
715.0 0.111156392124 30.6678872221
715.625 0.0871835255584 58.7421884922
716.25 0.0817583137685 85.5660775955
716.875 0.106796839775 91.2257803331
717.5 0.149890901397 160.768925041
718.125 0.118043026779 167.231778476
718.75 0.0977425520765 166.81850142
719.375 0.118488085357 -169.608971354
720.0 0.12661358683 -138.372499376
720.625 0.115211001682 -69.1322688562
721.25 0.0984224485219 -29.6165209503
721.875 0.0858791337769 14.4734084453
722.5 0.0841889272185 96.4418782567
723.125 0.0933065466631 83.297309758
723.75 0.0996128842529 42.2801696598
724.375 0.113780632686 0.253572470224
725.0 0.0915760797073 -44.4576112281
725.625 0.103646476535 -61.3503320093
726.25 0.127554462407 -55.956945934
726.875 0.105055064125 -45.8191122499
727.5 0.0760443841621 -50.9877851852
728.125 0.105539780846 19.4500843067
728.75 0.0971093318567 24.2897881688
729.375 0.0734330795631 19.1416650447
730.0 0.0713894131007 4.85837099284
730.625 0.0515302050414 7.45851200954
731.25 0.0736849765895 70.2462999218
731.875 0.0768214930763 115.575708503
732.5 0.0786303946197 155.508539796
733.125 0.0607525623022 158.491367212
733.75 0.0868450944682 -177.408808566
734.375 0.0487948835286 147.274155296
735.0 0.0484509747668 142.523039979
735.625 0.0574690919854 147.122981116
736.25 0.0462394913799 151.662441534
736.875 0.0475821045521 166.716708181
737.5 0.0807203964918 176.698353626
738.125 0.0674558739427 -179.481790602
738.75 0.0869754645636 -171.501134882
739.375 0.0600408604332 -164.229754257
740.0 0.0626029224415 -142.639085545
740.625 0.0229197733326 -121.999098489
741.25 0.0847232788127 -151.20279275
741.875 0.0410825780833 -106.64330043
742.5 0.0291050769244 -21.6812659569
743.125 0.0247520953059 94.9674223643
743.75 0.0594201818791 86.4231897286
744.375 0.0472950754181 101.873881661
745.0 0.0640522328165 123.298875546
745.625 0.0684859926676 147.423518853
746.25 0.0869832248264 78.4767435394
746.875 0.067785291068 38.9660437708
747.5 0.0338182216989 15.5385749051
748.125 0.0197177301698 -9.45206611457
748.75 0.0278570118989 59.4624062227
749.375 0.0548326384113 -63.7114187003
750.0 0.0335727280409 -107.051951776
