!Created with skrf (http://scikit-rf.org).
# GHz S RI R (50+0j) 
!freq	ReS11	ImS11	
500.0	1.493375152	-3.512891667	
500.625	-1.519767061	-2.310324526	
501.25	-1.739736015	-2.661223168	
501.875	-1.053096685	-0.4310328123	
502.5	-0.2001044065	-0.3998140971	
503.125	-0.2193612999	0.1577138937	
503.75	0.1099978446	-0.006232624725	
504.375	0.1381517515	0.0804514473	
505.0	-0.03893950234	-0.1750396299	
505.625	0.1121083487	0.02388787923	
506.25	-0.4034640473	-0.3876430558	
506.875	0.4518600475	-0.143939674	
507.5	-1.480452076	-1.541469115	
508.125	0.50170411	0.004642571451	
508.75	2.765235789	-4.151790797	
509.375	-2.78918535	-3.745781292	
510.0	-0.483741599	-0.2312928286	
510.625	-0.453242281	-0.8684531224	
511.25	-0.4687802802	0.1307854639	
511.875	-0.3147897284	0.0588568716	
512.5	-0.1331794931	0.1309628693	
513.125	-0.1416350265	-0.2405136382	
513.75	-0.1432437068	-0.1410547162	
514.375	-0.3502593019	-0.03155105451	
515.0	0.54170646	0.5954902607	
515.625	-1.875080351	-2.726793448	
516.25	-0.3902817899	1.050159477	
516.875	0.4610978797	-2.365483409	
517.5	-0.9652836956	-0.4882040912	
518.125	0.2985600935	-0.1510397685	
518.75	-0.8530342549	-0.3698744833	
519.375	-0.04684017089	-0.02908046942	
520.0	0.439509202	0.3178228098	
520.625	0.3489452809	-0.4152813911	
521.25	0.0599549986	-0.3516614882	
521.875	-0.5990503804	-0.1457143704	
522.5	0.03878778374	0.05531381173	
523.125	-0.2789772173	0.2542087307	
523.75	-0.0008687740882	-0.06549578715	
524.375	-0.6830674483	0.126040722	
525.0	0.2345188086	0.1722379889	
525.625	-0.09424819185	0.1876295628	
526.25	0.1127595224	-0.2348130268	
526.875	-0.1734648837	0.3724320871	
527.5	0.123367018	0.2328134869	
528.125	-0.2158535183	0.8677326027	
528.75	0.5367724653	0.6689882098	
529.375	-0.09217470589	0.164626616	
530.0	0.4705040356	0.3718134993	
530.625	0.028625612	0.5746677162	
531.25	1.582730852	0.03476100924	
531.875	0.2245469433	-0.1856386042	
532.5	-0.2638523324	-0.741128078	
533.125	0.3565917009	0.5697819746	
533.75	-0.07550352145	-1.134161727	
534.375	-0.1384144271	-0.1128567755	
535.0	-0.8371677087	-0.6124826074	
535.625	-0.08544199849	0.5375122148	
536.25	-0.1288383113	0.1840326546	
536.875	0.3996433774	-0.03075669535	
537.5	-0.004182520914	-0.03322763641	
538.125	0.4920816656	-0.09102890405	
538.75	0.1361867508	-0.4400542057	
539.375	-0.07619069931	-0.292035859	
540.0	-0.3997649171	-0.4032831424	
540.625	-0.407220589	-0.00188590566	
541.25	-0.1494342309	0.03812575092	
541.875	-0.1732478132	-0.06539313127	
542.5	-0.04966535041	-0.0747423904	
543.125	-0.2167861381	-0.1478545088	
543.75	-0.217284418	0.1192482919	
544.375	-0.03272786535	-0.04558287785	
545.0	-0.02624163661	0.3199848268	
545.625	0.115637919	-0.1549644109	
546.25	0.2098910875	0.4056563499	
546.875	0.2637524136	-0.3473452237	
547.5	0.1657039604	-0.05879512176	
548.125	-0.1256903797	-0.6152674246	
548.75	-0.3188158327	0.01099189916	
549.375	-0.126904318	-0.2908592702	
550.0	-0.306217451	0.1069995505	
550.625	0.02498952947	-0.007128927498	
551.25	-0.3158040417	0.07049581811	
551.875	-0.05008596738	0.2288335163	
552.5	-0.129577436	0.1259243786	
553.125	0.005121391504	0.1975421196	
553.75	0.08881450333	0.09266449625	
554.375	0.2436200652	-0.01338672438	
555.0	0.1979301231	-0.181414571	
555.625	0.1821400975	-0.2453649858	
556.25	0.1427987441	-0.3486102344	
556.875	-0.1100624098	-0.3769715903	
557.5	-0.2355252987	-0.2150435057	
558.125	-0.2542602042	-0.08492343987	
558.75	-0.2722809161	0.009677291953	
559.375	-0.2114047285	0.07284253348	
560.0	-0.249119417	0.1494818319	
560.625	-0.05895227991	0.3157828799	
561.25	-0.006456898824	0.1259548349	
561.875	0.09825347889	0.2016948529	
562.5	0.04683242334	0.00334427253	
563.125	0.09283194909	0.25686002	
563.75	0.4106890471	-0.101482746	
564.375	0.1432728256	-0.1656856532	
565.0	0.2757549714	-0.3661455069	
565.625	-0.2187797356	-0.3104049848	
566.25	-0.1267603138	-0.2587522905	
566.875	-0.4540565023	-0.1795821021	
567.5	-0.2406757252	-0.08247055054	
568.125	-0.2461193534	-0.4950368902	
568.75	-0.6992826871	-0.09053846436	
569.375	-0.2732409563	0.306670716	
570.0	-0.4878102905	0.2382824134	
570.625	-0.009586045617	0.7736089185	
571.25	0.02235109462	-0.07241477567	
571.875	0.2593437998	0.5104441091	
572.5	-0.0562133927	-0.2442761926	
573.125	0.5598328176	-0.0992344129	
573.75	-0.110544874	-0.5603184304	
574.375	-0.0623907762	0.1650101791	
575.0	0.3102952235	-0.2778867467	
575.625	-0.2480766681	-0.09267431289	
576.25	0.3825045306	-0.1094877567	
576.875	-0.1653710136	-0.53551003	
577.5	-0.1262340791	-0.09797386407	
578.125	0.131242058	-0.4801162059	
578.75	-0.4717997709	-0.3098530313	
579.375	-0.08158231533	0.04443990175	
580.0	-0.05054851671	-0.2768855309	
580.625	-0.2860321663	0.1727519085	
581.25	-0.05455666062	-0.09638379119	
581.875	-0.2127857891	0.6284520768	
582.5	0.5187331184	0.2124771692	
583.125	-0.2151162474	-0.01575729211	
583.75	0.5175646551	0.2899228255	
584.375	-0.3920568341	-0.0551294886	
585.0	0.6164334094	0.3221065353	
585.625	0.1664329226	-0.3682867923	
586.25	0.2342438668	0.1909633316	
586.875	0.3397733681	-0.5233898002	
587.5	-0.3030700006	-0.1482067984	
588.125	0.2259712824	-0.2692287079	
588.75	-0.06725487212	-0.5795144884	
589.375	0.0605327419	-0.02394384065	
590.0	-0.1186803424	-0.7127269975	
590.625	-0.3456882346	0.1699615582	
591.25	-0.2977100051	0.04089850826	
591.875	-0.1692286815	0.3699706055	
592.5	0.2017709448	0.1959185676	
593.125	-0.3113835088	-0.07692603925	
593.75	0.4252100687	0.4398391555	
594.375	0.1222968263	-0.08452229926	
595.0	0.3075055864	0.6373500191	
595.625	0.684361763	-0.2132765442	
596.25	0.05818389084	0.3609288977	
596.875	0.7381405306	0.05746542343	
597.5	0.02721295392	-0.1866296533	
598.125	0.3001376697	0.6795033551	
598.75	0.6280010162	0.03620794655	
599.375	0.2508827561	-0.1149608656	
600.0	0.51534151	-0.2115430544	
600.625	0.2286700596	-0.5971942288	
601.25	0.1283391822	-0.2354653457	
601.875	-0.1873835417	-0.4777806899	
602.5	-0.1846794163	0.1368514788	
603.125	-0.3569929749	-0.01364563007	
603.75	-0.1692325932	0.2912665175	
604.375	-0.2320993903	0.1185450625	
605.0	-0.03060617677	0.1159191263	
605.625	-0.4384000655	0.2051677324	
606.25	0.092280739	0.2734285854	
606.875	-0.5830556272	-0.2505281831	
607.5	-0.1911561178	0.9295003979	
608.125	-0.147067325	0.1349353984	
608.75	0.5462316186	0.7954950007	
609.375	0.1813472937	-0.4838322051	
610.0	0.5655617628	0.0899085371	
610.625	0.04901737299	-0.6841015283	
611.25	0.03558194594	0.02150014571	
611.875	-0.3748863141	-0.5643336186	
612.5	-0.1417578234	0.06571679194	
613.125	-0.6059027537	-0.08421478668	
613.75	0.03248425397	0.5248588623	
614.375	-0.2462394522	0.1761832911	
615.0	0.4381197355	0.08297286478	
615.625	-0.3076081648	0.04463542501	
616.25	0.01347611978	0.6983488313	
616.875	0.03638938787	0.05309876974	
617.5	-0.4351910307	0.6523137918	
618.125	0.2709154682	0.5086353723	
618.75	-0.1481152001	0.247017428	
619.375	0.4306493864	0.4637479388	
620.0	0.2440499991	0.004605452513	
620.625	0.3530743133	-0.4048317583	
621.25	-0.2819165669	-0.2655776938	
621.875	-0.4500277602	-0.3156600185	
622.5	-0.3813060783	0.3771834383	
623.125	-0.2127825932	0.2026556356	
623.75	0.5934728041	0.1641367904	
624.375	-0.2703744126	-0.02264667674	
625.0	0.4298509698	-0.4128324525	
625.625	-0.06891369375	0.1676449513	
626.25	0.04987252021	-0.624958755	
626.875	-0.5678450034	0.1190868855	
627.5	0.1167813128	-0.240434231	
628.125	-0.5855845273	-0.3092899575	
628.75	-0.1842955833	-0.03207650812	
629.375	-0.04387937834	-0.354841922	
630.0	-0.5941784887	-0.2839375376	
630.625	-0.2924448413	0.2647002515	
631.25	-0.4474634682	0.3837757071	
631.875	0.1269513405	0.6342514975	
632.5	0.2355250904	0.277689597	
633.125	0.5895475707	0.2365720296	
633.75	0.2712525807	-0.3158425044	
634.375	0.08855930993	-0.2099220112	
635.0	0.08697403225	-0.3553395334	
635.625	-0.6015661563	-0.1695213885	
636.25	0.09927629281	0.2726820973	
636.875	-0.6445473712	0.1789227441	
637.5	0.3072583729	0.4609983719	
638.125	-0.4102986368	-0.1655245404	
638.75	0.05830395806	0.8172708685	
639.375	-0.06821739805	-0.02173694868	
640.0	0.2890051134	1.003843362	
640.625	0.8252604161	-0.1356825304	
641.25	0.206537846	0.1213138442	
641.875	0.7606654036	-0.2842865967	
642.5	-0.394979719	-0.7674152308	
643.125	-0.09047448324	0.04920347045	
643.75	-0.3505030511	-0.419145219	
644.375	-0.4073532234	0.322136229	
645.0	-0.4150940434	-0.02143712293	
645.625	0.3595874284	0.692985366	
646.25	0.2139547971	-0.07336163445	
646.875	0.1637071215	0.2131920019	
647.5	0.4106140788	-0.2536024938	
648.125	-0.157422948	0.2947780035	
648.75	1.111918786	-0.01320645783	
649.375	0.1298239917	-1.115510583	
650.0	0.1012278889	0.03102984374	
650.625	1.003707383	-0.969401536	
651.25	-0.365476846	-0.7671876277	
651.875	0.7438062555	0.2672822984	
652.5	0.9685492399	-0.8652031984	
653.125	-0.0909125245	-0.1536659532	
653.75	0.9429297227	-0.5005673176	
654.375	-0.59423762	-0.8772672443	
655.0	-0.3482827233	0.2418209544	
655.625	-0.6310403939	0.02874960208	
656.25	0.3700100037	0.8038534519	
656.875	-0.1408605475	-0.2225018401	
657.5	0.2410837143	0.5013205102	
658.125	0.40414882	0.03503956517	
658.75	0.3504702881	0.3409142626	
659.375	1.11705513	-0.4913083221	
660.0	0.02730486688	-0.8085757684	
660.625	0.3343554237	-0.3582717105	
661.25	0.7306774868	-0.8885721915	
661.875	-0.1757085376	-0.8993306375	
662.5	0.7569737592	0.1208803739	
663.125	0.6575240224	-1.020557528	
663.75	-0.09987765111	-0.3358736867	
664.375	0.3378526307	-0.9665419819	
665.0	-1.086067375	-0.1724663527	
665.625	-0.2670670386	0.1727858585	
666.25	-0.4687318816	0.5549391132	
666.875	0.5817862467	0.5582947011	
667.5	0.08743454961	-0.02305444633	
668.125	0.8278795013	0.009329301276	
668.75	0.1409507957	-0.4668246775	
669.375	0.3417824369	-0.2363240272	
670.0	-0.07212118317	-0.8563164411	
670.625	-0.2230971837	-0.1437861127	
671.25	0.3315016698	-0.3403260067	
671.875	0.3997138806	-0.5662302127	
672.5	0.1549406652	-0.5798736276	
673.125	0.2984581043	0.03373707834	
673.75	0.5534809679	-1.016361457	
674.375	-0.2577519723	-0.1839396729	
675.0	0.1041269084	-0.7536013509	
675.625	-0.9775524554	-0.08801239414	
676.25	0.2972478052	-0.05167513933	
676.875	-0.9750566045	-0.08828084722	
677.5	0.04660442901	0.4842506828	
678.125	-0.3487606836	-0.03702797508	
678.75	0.05667334875	0.8812469903	
679.375	0.6327213319	-0.3062073124	
680.0	0.1682857305	0.1086137489	
680.625	0.4021916218	-0.4074851231	
681.25	-0.2472557075	-0.07236983759	
681.875	0.8105719419	0.3512997606	
682.5	0.3315265003	-0.1889952218	
683.125	0.3748648679	0.2603005798	
683.75	0.65678975	0.2987864876	
684.375	0.9480277948	-0.1574582045	
685.0	0.03491645733	-0.2665489381	
685.625	0.9757813114	0.7146607136	
686.25	0.8144981519	-0.9887951235	
686.875	0.07892328014	0.3005883297	
687.5	1.224557273	-1.561190217	
688.125	-0.6930822204	0.03552316529	
688.75	-0.8453046288	-1.121848572	
689.375	-0.5162653861	1.644421031	
690.0	0.04857312129	-0.1005823898	
690.625	0.8175140643	1.243080807	
691.25	0.8598964316	0.09303667476	
691.875	0.7681378859	0.7067381293	
692.5	1.534607232	0.5025975743	
693.125	1.298567505	-0.3445570633	
693.75	1.386289586	-0.5262336582	
694.375	0.7780300595	-1.004068648	
695.0	1.013360361	-0.5697076155	
695.625	1.076980954	-0.5135958136	
696.25	0.8089861753	0.481611037	
696.875	1.706118895	0.8014674882	
697.5	0.5342512296	0.2615803481	
698.125	1.801140879	0.979115891	
698.75	0.1113810014	-1.850774052	
699.375	-0.09249552579	-0.8171830603	
700.0	-0.844419779	1.580989905	
700.625	0.4771591326	-0.04359949497	
701.25	0.6727820953	1.144239245	
701.875	0.7289336561	-0.1776714035	
702.5	0.4406606189	0.8519114635	
703.125	1.429515538	0.01239096187	
703.75	0.226351064	-0.1218922993	
704.375	1.174389021	-0.5090540847	
705.0	0.09184472224	-0.6427134504	
705.625	0.5575311831	0.6562935226	
706.25	1.204373445	-0.1801701762	
706.875	-0.02448913633	0.6003014493	
707.5	1.23643164	1.205912868	
708.125	0.5795167218	-0.5788381889	
708.75	1.080021312	-0.6807228082	
709.375	-1.234341626	-0.4873549836	
710.0	-0.04730286295	0.3776768999	
710.625	0.1898588781	0.4924622761	
711.25	0.2322018245	0.1489159483	
711.875	0.5046746898	0.2353176324	
712.5	0.6974994546	-0.2118785243	
713.125	0.6595647073	-0.3441893332	
713.75	0.09570005983	-0.660234103	
714.375	0.1765415154	-0.3625327371	
715.0	-0.2652191788	-0.7803233774	
715.625	-0.1662176938	-0.01135341728	
716.25	1.118051056	-0.5320311679	
716.875	0.3916695747	-1.602389309	
717.5	0.3830939641	0.9445422241	
718.125	2.912833394	-0.1610931917	
718.75	0.5996664986	-1.840518993	
719.375	3.063247433	0.6150590413	
720.0	-0.7409289643	-3.944929908	
720.625	0.8895200246	-1.211875551	
721.25	0.1305613165	-3.382316917	
721.875	-2.14845142	-2.545914915	
722.5	-1.024773356	-0.7121933251	
723.125	-2.283416318	-0.5985349455	
723.75	-0.5723164525	1.497535988	
724.375	0.2305511448	0.778203261	
725.0	0.1059352799	1.008614344	
725.625	0.968601114	0.9087674001	
726.25	-0.0953540424	1.055934294	
726.875	-0.4981632645	2.771098091	
727.5	1.643539408	4.040504332	
728.125	-0.4264815586	0.8903410232	
728.75	-3.920667086	13.1653936	
729.375	7.917972759	8.344888913	
730.0	-2.345267643	1.647142703	
730.625	2.784725395	25.06499992	
731.25	8.860537671	1.70394087	
731.875	-11.45475886	5.433275277	
732.5	-9.250219339	8.805101308	
733.125	-1.014267717	1.408110607	
733.75	-3.906068693	3.728582088	
734.375	3.372590066	-0.415417256	
735.0	-0.5760359152	-0.6631688826	
735.625	-1.026130341	-0.2549825679	
736.25	0.2078179494	2.081999076	
736.875	0.5429462017	0.01888374902	
737.5	3.415398661	1.10127553	
738.125	3.770894875	-2.784890957	
738.75	0.9398877046	-2.071116517	
739.375	12.4554696	-0.8143754466	
740.0	7.716073619	-17.36754523	
740.625	-6.888132192	-1.140299377	
741.25	-1.092017432	26.78541578	
741.875	8.87969915	28.85346972	
742.5	11.17199376	-8.32717675	
743.125	-1.843966483	-11.07116589	
743.75	-2.103762964	-0.5916962465	
744.375	-1.123901942	-1.713372734	
745.0	1.02382981	0.09463592865	
745.625	0.1891484262	0.3545744397	
746.25	-0.278289492	-0.4858442024	
746.875	-0.2963137698	0.5501056198	
747.5	-0.2420069034	0.683648603	
748.125	0.469596623	1.993144683	
748.75	1.078879157	0.998653397	
749.375	-0.5174717125	2.321131105	
750.0	-0.5339269594	-0.2248641583	
