!Created with skrf (http://scikit-rf.org).
# GHz S RI R (50+0j) 
!freq	ReS11	ImS11	
500.0	-1.331793092	-2.527036076	
500.625	2.001837806	-2.823066601	
501.25	-2.024748617	-0.680011791	
501.875	-0.8169794088	-1.382967833	
502.5	-0.3765217488	-0.3847038237	
503.125	-0.1069657702	0.1673896864	
503.75	-0.1620682051	0.1196390505	
504.375	0.1732346815	-0.06639732705	
505.0	-0.06183790646	0.01325406965	
505.625	0.1172841448	-0.261933282	
506.25	-0.3274693283	0.1632585201	
506.875	-0.9264886748	-0.6347889918	
507.5	-0.08479299491	0.9147548106	
508.125	1.568134234	-2.84184832	
508.75	-0.3121128444	-4.219450781	
509.375	-1.771421494	-1.504877163	
510.0	-1.006435859	-1.426108139	
510.625	-0.7157838431	-0.412636551	
511.25	-0.6197900481	-0.1385305755	
511.875	-0.3057266811	-0.1016499902	
512.5	-0.05329760707	0.1909724281	
513.125	-0.01114804504	-0.2014032404	
513.75	-0.2438371247	-0.2050352194	
514.375	-0.2019232195	0.1926689181	
515.0	0.4680932472	-1.029300945	
515.625	-1.753722232	0.383986052	
516.25	1.908208683	-2.17560506	
516.875	-2.096758185	-2.123594716	
517.5	-0.2043397519	0.4242482931	
518.125	-0.20049545	-0.4069160829	
518.75	-0.003588371399	0.3080229313	
519.375	-0.3091942736	0.09683172055	
520.0	0.4934093656	-0.004483923164	
520.625	0.1943335753	-0.126725823	
521.25	0.172478333	-0.9470632457	
521.875	-0.3891380752	0.1987249082	
522.5	-0.1284983583	-0.06854630353	
523.125	0.03272909495	0.2360347818	
523.75	-0.3456186376	-0.2568370925	
524.375	-0.2690909609	0.4448243742	
525.0	-0.2084648822	0.08429323067	
525.625	0.2513851329	0.3025531345	
526.25	-0.2935313367	-0.05249252915	
526.875	0.08558342033	0.154513794	
527.5	-0.3983205526	0.2839459064	
528.125	0.4631765129	1.071254786	
528.75	0.1564852466	0.1529185973	
529.375	0.1485144403	0.3835047011	
530.0	0.1187372359	0.0161305873	
530.625	0.3462650169	1.172269959	
531.25	0.7167271886	-0.2899049118	
531.875	0.9081434979	-0.3191091116	
532.5	-0.6961258471	0.1018922651	
533.125	0.7232567197	-0.4991976184	
533.75	-0.4528681236	-0.1732495264	
534.375	0.2312519452	-1.106257695	
535.0	-0.9473569638	0.2517734292	
535.625	-0.2604182907	0.02661012885	
536.25	-0.02539613898	0.3933095025	
536.875	0.1178486325	-0.156393139	
537.5	0.255337681	0.0193856895	
538.125	0.2936199839	-0.3287485421	
538.75	0.145227784	-0.1804807883	
539.375	-0.1202095437	-0.4594977547	
540.0	-0.4632402985	-0.2838890608	
540.625	-0.3232002083	-0.03131197708	
541.25	-0.2574058434	-0.006518472985	
541.875	-0.02528427197	0.03526390352	
542.5	-0.1271546288	-0.1801716485	
543.125	-0.2530287696	-0.02496797896	
543.75	-0.06484256396	0.05588133628	
544.375	-0.2789779625	0.04570073388	
545.0	0.2308912925	0.1474553643	
545.625	-0.179390914	0.2039708369	
546.25	0.5114793912	-0.001838161996	
546.875	0.01280614687	-0.03096535925	
547.5	0.39252613	-0.3792405866	
548.125	-0.3551157525	-0.1863347683	
548.75	-0.06478043916	-0.3344134876	
549.375	-0.4210957068	-0.2235690321	
550.0	-0.07663669278	0.1536985526	
550.625	-0.1706358689	-0.1282232486	
551.25	-0.1432417974	0.2164468744	
551.875	-0.129721993	0.07301526905	
552.5	-0.1291457812	0.2492362044	
553.125	0.007884881114	0.1091736881	
553.75	0.1246843371	0.1347249907	
554.375	0.2096745886	-0.03842393639	
555.0	0.210780718	-0.1567759059	
555.625	0.1894440558	-0.2636949314	
556.25	0.1231704191	-0.342642432	
556.875	-0.1077876531	-0.3536229286	
557.5	-0.2276406502	-0.2264969591	
558.125	-0.2826499885	-0.08552573937	
558.75	-0.2353511879	0.0288859265	
559.375	-0.2421143038	0.02797966319	
560.0	-0.219746923	0.2335150966	
560.625	-0.05671273962	0.1903467328	
561.25	-0.04268282307	0.281524265	
561.875	0.1635566875	0.05755032967	
562.5	-0.08256307768	0.1038700738	
563.125	0.2832065625	0.2067607809	
563.75	0.1810560479	-0.0829938184	
564.375	0.3807241282	-0.147907954	
565.0	0.0465597675	-0.4454519251	
565.625	-0.0005537342295	-0.2204905564	
566.25	-0.353902248	-0.349571238	
566.875	-0.275842147	-0.007319315508	
567.5	-0.2187221877	-0.3305554807	
568.125	-0.5041060168	-0.4237306914	
568.75	-0.4397503323	0.04734465872	
569.375	-0.5084083729	-0.04206198756	
570.0	-0.3290152762	0.7956432041	
570.625	0.1694017688	0.2171953076	
571.25	-0.3478474556	0.3589790197	
571.875	0.4093223421	-0.1261234669	
572.5	0.227662389	0.375302014	
573.125	0.2275624672	-0.6155780899	
573.75	-0.2009481708	-0.01361861339	
574.375	0.3577581673	-0.1406523887	
575.0	-0.2123535225	-0.2886108409	
575.625	0.277906698	0.06662586945	
576.25	0.1296253807	-0.5291799804	
576.875	-0.1955518863	-0.06036731226	
577.5	0.2941350963	-0.3762154826	
578.125	-0.3594356486	-0.506278488	
578.75	-0.1733460656	-0.03666690426	
579.375	-0.01964340557	-0.2694840778	
580.0	-0.3576877772	-0.1002430812	
580.625	0.1217200156	0.0231794617	
581.25	-0.545169861	0.1338559658	
581.875	0.3509490917	0.4289407171	
582.5	-0.08383963452	-0.01220079556	
583.125	0.1832585518	0.6192672372	
583.75	0.05857316124	-0.4388332402	
584.375	0.08787219986	0.5485873039	
585.0	0.3842144586	-0.3115211014	
585.625	0.04116500845	0.2540893408	
586.25	0.6404757418	-0.1445696144	
586.875	-0.1296622593	-0.403767168	
587.5	0.1722411992	-0.1475378318	
588.125	-0.1386606946	-0.5770829038	
588.75	-0.1051188451	-0.03910969406	
589.375	0.425879416	-0.4989862998	
590.0	-0.3790518128	-0.2774844318	
590.625	-0.1714192312	-0.2158103369	
591.25	-0.4581895272	0.3018286999	
591.875	0.05441038541	0.4003746894	
592.5	0.07087483262	-0.1274968026	
593.125	-0.1659897212	0.3749027102	
593.75	0.1972914251	-0.06799509165	
594.375	0.1682745361	0.562626166	
595.0	0.7321315775	0.001370129558	
595.625	0.02384756659	0.1791482056	
596.25	0.6580902439	0.2777150476	
596.875	0.1283369698	-0.3491728227	
597.5	0.1870792055	0.6137234626	
598.125	0.7027814085	0.1661200003	
598.75	0.2592173668	-0.01521022094	
599.375	0.5063270489	0.121241197	
600.0	0.3712059228	-0.5360597403	
600.625	0.1714203116	-0.2342760765	
601.25	0.3072852915	-0.4955673991	
601.875	-0.3420741218	-0.1751180495	
602.5	-0.2020301319	-0.218648277	
603.125	-0.2886054646	0.279091645	
603.75	-0.161348239	0.08152921795	
604.375	-0.1713076601	0.198009581	
605.0	-0.3072729359	0.07261364106	
605.625	0.011746676	0.401749419	
606.25	-0.2455168052	-0.310247663	
606.875	-0.5963286425	0.660140376	
607.5	-0.02436734993	0.09958600278	
608.125	-0.4603112069	0.775832305	
608.75	0.7044845058	-0.05364646369	
609.375	0.3562956337	0.3141776658	
610.0	0.6066602015	-0.5737684866	
610.625	-0.1674137883	-0.09644299221	
611.25	0.2689577454	-0.6324842722	
611.875	-0.3060822304	-0.009357670655	
612.5	-0.2753829201	-0.3662201064	
613.125	-0.5436972808	0.381125467	
613.75	-0.1790477968	-0.01512163263	
614.375	0.1839892968	0.5282394305	
615.0	-0.01557587916	-0.226150927	
615.625	-0.004287819788	0.5920783237	
616.25	0.1613685053	0.02306076993	
616.875	-0.5234066922	0.4271901589	
617.5	0.127021233	0.7251639005	
618.125	-0.1236636751	0.1433844676	
618.75	0.1114780881	0.7086018842	
619.375	0.2569687582	0.1243487838	
620.0	0.4394972607	0.2446844399	
620.625	0.09877303037	-0.440766387	
621.25	-0.0816585443	-0.4084609057	
621.875	-0.5875334852	-0.05625688178	
622.5	-0.3080967093	0.01837223349	
623.125	-0.2067713481	0.6359072072	
623.75	0.2375639999	-0.262805507	
624.375	0.4326391527	0.1037037817	
625.0	-0.2882028031	-0.04705785037	
625.625	0.4359638555	-0.1713901411	
626.25	-0.5415569593	-0.3265948559	
626.875	0.1771672146	-0.1375232602	
627.5	-0.6404258732	-0.3057071334	
628.125	-0.2735462046	0.1091097558	
628.75	0.03362560197	-0.2538281673	
629.375	-0.3012910476	-0.5300986385	
630.0	-0.3472981696	0.0249730079	
630.625	-0.5367678559	0.01891845417	
631.25	-0.2369444793	0.6224430616	
631.875	0.01145938135	0.3187947282	
632.5	0.3560999179	0.6543720977	
633.125	0.4782503531	-0.1161703694	
633.75	0.2857165326	-0.1131865419	
634.375	0.1871587374	-0.2260561321	
635.0	-0.1308509398	-0.5790684335	
635.625	-0.1716874296	0.230747905	
636.25	-0.5897024815	-0.2123454835	
636.875	0.0295967185	0.6667938135	
637.5	-0.02032629126	-0.2509326904	
638.125	-0.2582947391	0.721008628	
638.75	-0.006795380419	-0.1310017134	
639.375	-0.2803104139	0.928675355	
640.0	0.8126443326	0.3140571654	
640.625	0.03165366552	0.168300972	
641.25	0.9556179003	0.2427498502	
641.875	0.2875456509	-0.7976447703	
642.5	-0.2421621532	-0.1402786378	
643.125	-0.1186430392	-0.5392229303	
643.75	-0.5824135001	0.1008120306	
644.375	-0.2087586953	-0.3604763379	
645.0	-0.3488069594	0.6741922673	
645.625	0.2113807355	0.1619303765	
646.25	0.1860135693	0.4526060272	
646.875	0.5168212204	-0.2887444286	
647.5	-0.2516337161	0.03385752213	
648.125	0.6322448872	0.450565101	
648.75	0.576788511	-0.7541385839	
649.375	0.005363430228	0.03659567764	
650.0	1.123897365	-0.9860400534	
650.625	-0.4343801627	-0.8746181324	
651.25	0.6460193814	0.1565330897	
651.875	0.9482667545	-1.069537618	
652.5	-0.1981499391	-0.1889965419	
653.125	1.067877829	0.03312601732	
653.75	0.1596520257	-1.041609603	
654.375	-0.2986951329	-0.156832505	
655.0	-0.4637104715	-0.6199025163	
655.625	-0.4433193975	0.9897008293	
656.25	0.188687015	-0.02930957775	
656.875	-0.04312219413	0.4567893224	
657.5	0.3372824334	-0.06746232186	
658.125	-0.04163441102	0.5175153301	
658.75	1.027939006	0.07130427125	
659.375	0.4446626725	-0.5261351786	
660.0	0.3746456506	-0.3431003979	
660.625	0.7158807727	-1.039224358	
661.25	-0.3618108764	-0.7866493591	
661.875	0.7103131962	-0.07122130046	
662.5	0.7417325453	-0.9396825751	
663.125	-0.02198780066	-0.4491278559	
663.75	0.8956102616	-0.497100243	
664.375	-0.7112095081	-0.8572323214	
665.0	-0.2443625598	-0.1277169666	
665.625	-0.8832449742	-0.01341120819	
666.25	-0.04119260031	0.912453821	
666.875	0.1027748337	0.09696286906	
667.5	0.5895749991	0.4108402036	
668.125	0.3721989713	-0.3531993535	
668.75	0.4296508616	0.01642769536	
669.375	0.2103585082	-0.911595315	
670.0	-0.184825204	-0.1986589087	
670.625	0.1804312738	-0.3762275797	
671.25	0.1852397634	-0.5675690794	
671.875	-0.0229389165	-0.5682124057	
672.5	0.3549368616	0.1143293227	
673.125	0.6932294701	-0.8115771298	
673.75	-0.06168339202	-0.3476273822	
674.375	0.4629509724	-0.5384816273	
675.0	-0.8195109104	-0.6302097136	
675.625	0.1475222864	-0.03427724552	
676.25	-0.8650530327	-0.3924548462	
676.875	-0.2485560282	0.5768680617	
677.5	-0.08297644339	-0.3274129652	
678.125	-0.592618743	0.6421605271	
678.75	0.4825419576	0.2909504433	
679.375	0.1696579519	0.2479884346	
680.0	0.6792676622	-0.3402689526	
680.625	-0.3609804995	-0.1462475232	
681.25	0.6381763916	0.06038989819	
681.875	0.2460477238	-0.2198570581	
682.5	0.1348760358	0.3154095439	
683.125	0.8640646319	0.2906461805	
683.75	0.7164235402	-0.1777126597	
684.375	0.2524924114	-0.1046262268	
685.0	0.6838666537	0.6123540185	
685.625	1.132676663	-0.6488823188	
686.25	-0.2949305899	0.1816235195	
686.875	1.67133837	-0.7685734268	
687.5	-0.4794321594	-0.4605327616	
688.125	0.5961937228	-1.135956041	
688.75	-1.926262064	0.03431620119	
689.375	0.188737876	0.03214592097	
690.0	0.005229212155	1.587659649	
690.625	0.8538128003	0.03663075217	
691.25	0.3622326599	0.595775598	
691.875	1.30202118	0.8277954413	
692.5	1.21173374	0.1064695189	
693.125	1.48779105	0.03695008884	
693.75	1.271111176	-0.7522316126	
694.375	0.826054746	-0.7652577476	
695.0	1.03125046	-0.8316972318	
695.625	0.8625855461	-0.1211720164	
696.25	1.658621112	0.2319489418	
696.875	0.6974601503	0.1618101349	
697.5	0.9390262807	1.724488027	
698.125	1.67896153	-0.7656751481	
698.75	0.8780685986	-0.2054022876	
699.375	-1.705620236	-1.061199676	
700.0	0.3039400494	0.8099934812	
700.625	-0.1345434386	1.338312525	
701.25	0.8357411059	-0.215063489	
701.875	0.1064542166	0.7063485506	
702.5	1.415099966	0.5622728288	
703.125	0.346396121	0.0757878304	
703.75	1.297506642	-0.04895734554	
704.375	0.2452170917	-0.8664916978	
705.0	0.6075139828	0.3690988043	
705.625	0.9691264384	-0.652921571	
706.25	0.0160158388	0.3220404274	
706.875	1.025766853	1.234372048	
707.5	0.7137216679	-0.1985206711	
708.125	1.105953035	0.7655721501	
708.75	0.3529028241	-1.461160085	
709.375	-0.5064338838	-0.1676413859	
710.0	-0.5909749834	0.5466851993	
710.625	0.4360460326	0.2771473366	
711.25	0.1550713581	0.3049241637	
711.875	0.6006312438	0.09777421935	
712.5	0.7436419342	-0.03228375884	
713.125	0.5085365274	-0.4867365292	
713.75	0.2916922446	-0.4665795368	
714.375	-0.01684654997	-0.7768974435	
715.0	-0.3161583219	-0.09429978871	
715.625	0.6722016531	-0.698822408	
716.25	-0.3860585173	-1.14238975	
716.875	0.5469483613	0.4966541575	
717.5	2.293321264	-0.2267935424	
718.125	0.4462247271	-1.609889907	
718.75	2.793076656	1.392119893	
719.375	0.9624395711	-3.284569559	
720.0	0.5584930222	-0.5107247628	
720.625	1.434241973	-4.12388103	
721.25	-2.070341149	-1.927117144	
721.875	0.0225006375	-1.513416127	
722.5	-1.980169729	-2.162452987	
723.125	-2.094819919	0.5022171086	
723.75	-0.5111052626	0.7874946366	
724.375	-0.1015793951	1.43476379	
725.0	0.6796793134	0.4579352497	
725.625	0.1674532267	0.9246943249	
726.25	0.01341251759	1.963812233	
726.875	1.243721957	2.407912485	
727.5	-1.180423616	1.215447558	
728.125	-1.032621049	7.837584743	
728.75	6.21684234	5.552462018	
729.375	-4.140537457	0.6370787785	
730.0	1.737272102	18.63890447	
730.625	5.996276959	-0.09194988237	
731.25	-8.083984006	9.471425625	
731.875	-1.550431639	15.38425745	
732.5	-1.747359483	-2.707176824	
733.125	-9.682297442	2.757364192	
733.75	0.07848907832	3.996865093	
734.375	1.684373858	-0.3493276117	
735.0	0.7638768837	-1.243947156	
735.625	-1.556132051	1.302012795	
736.25	-0.2224024696	0.257288495	
736.875	1.272787047	1.861385522	
737.5	3.002293969	-0.9737189626	
738.125	1.659355347	0.3678943886	
738.75	7.305577456	-4.408058849	
739.375	3.308555815	-9.078869711	
740.0	-2.674771404	0.9448620923	
740.625	19.92586446	9.893832254	
741.25	23.34648791	-1.494473846	
741.875	-7.707549422	-14.27833004	
742.5	-11.98350672	-10.10017071	
743.125	-3.039971276	1.023778818	
743.75	0.9841540886	-4.068905491	
744.375	-1.506238004	1.517832232	
745.0	-0.3105178725	-0.09943676124	
745.625	0.347014594	-0.2412240016	
746.25	-0.1848495331	0.1082864649	
746.875	-0.8006035835	-0.2296944608	
747.5	-0.1616489478	1.307482048	
748.125	0.5719335044	1.022441792	
748.75	0.7816172632	1.202132134	
749.375	0.525108449	1.157737097	
750.0	-0.05971311278	1.859755471	
