!Created with skrf (http://scikit-rf.org).
# GHz S MA R 50.0 
!freq magS11 angS11
500.0 0.0161412674523 162.650040548
500.625 0.00787824649328 122.024668745
501.25 0.00990280270524 -58.315885905
501.875 0.0356628071198 -172.864884133
502.5 0.0151046437064 141.999443887
503.125 0.0127391587092 40.8297571296
503.75 0.0201989309283 125.897386529
504.375 0.0062571815288 124.737400585
505.0 0.00891253276706 -67.9547499053
505.625 0.0416390492702 -81.8476860734
506.25 0.0430815676598 -110.324284078
506.875 0.0517624940915 -110.210052875
507.5 0.0406360386567 -128.180134723
508.125 0.067128886124 -82.2997069478
508.75 0.0526520082683 -147.000779998
509.375 0.0442503457189 -158.039468486
510.0 0.0326988408282 -115.242127828
510.625 0.0539467457 -157.324177957
511.25 0.0420543096069 167.182931622
511.875 0.0498814248047 142.230254098
512.5 0.0400630157248 94.4835433442
513.125 0.0643689354146 55.7711105049
513.75 0.0543502860351 20.9842794666
514.375 0.0480833746755 30.4208171229
515.0 0.0570608754167 7.64893162941
515.625 0.0839112881537 48.0303353098
516.25 0.086291494853 27.7090604492
516.875 0.110888453835 71.1535508243
517.5 0.118361318395 20.6141164328
518.125 0.215330107271 73.4383713362
518.75 0.0801564242599 7.71624394005
519.375 0.0666295650493 15.6186155545
520.0 0.112340202636 -1.46342892489
520.625 0.102962163681 -5.96327225897
521.25 0.0823113414728 -24.787766775
521.875 0.0702953843533 1.66937709901
522.5 0.0947942111298 -32.7452693716
523.125 0.190089155402 -33.6002506358
523.75 0.203270685436 -62.1215343126
524.375 0.195047083354 -55.7768528046
525.0 0.0737562111346 -41.2543796961
525.625 0.0339910991408 -67.2276920665
526.25 0.0388535539662 -19.067980901
526.875 0.0466691189511 -28.9193459415
527.5 0.0562374872861 -26.1625971826
528.125 0.0322939193894 -66.7653385924
528.75 0.0644569153446 -73.3965309945
529.375 0.0849541942033 -117.122065632
530.0 0.0594269640512 -128.805591758
530.625 0.0237186344463 -134.813208868
531.25 0.10263687963 -130.447886053
531.875 0.154687780662 -149.856126406
532.5 0.158713631424 -171.524850711
533.125 0.0851513996302 172.075417631
533.75 0.108758204102 167.417780819
534.375 0.104678325449 175.827543408
535.0 0.0926973847159 163.21929684
535.625 0.0615397636856 175.506307054
536.25 0.0510502086067 162.089086531
536.875 0.0761879334384 -161.211971618
537.5 0.107148568728 -147.062173085
538.125 0.0896230761851 -173.550038056
538.75 0.0944145376529 177.592617456
539.375 0.0681874852251 -168.109517032
540.0 0.104320549824 -159.441068051
540.625 0.102514163395 -155.010472058
541.25 0.114548741083 -142.345618739
541.875 0.0983203186976 -144.011640673
542.5 0.116555347586 -145.65173548
543.125 0.11628518474 -166.578669178
543.75 0.119476310129 158.289316001
544.375 0.092050420333 133.235069657
545.0 0.0929282997747 89.7783582846
545.625 0.0968832337971 81.6375353002
546.25 0.0903494158173 66.7994271865
546.875 0.0931987332156 53.7952965933
547.5 0.122024454962 56.1059874382
548.125 0.0932872402085 75.1770466737
548.75 0.0795205388262 89.636453525
549.375 0.0898153556086 83.1771235439
550.0 0.0960047614406 124.500389322
550.625 0.041866622203 153.227807082
551.25 0.040175249049 -141.478686376
551.875 0.0598312536804 -160.897321856
552.5 0.120036430084 -169.74072296
553.125 0.0801393090283 -162.410936105
553.75 0.0874867956087 -166.891058518
554.375 0.107632621605 166.224353884
555.0 0.132591203909 160.908545988
555.625 0.100576203176 156.602588655
556.25 0.0948986923718 162.722928768
556.875 0.118701064587 165.854243563
557.5 0.111730366808 165.7559532
558.125 0.10527429398 162.325398628
558.75 0.0811467215129 177.178869065
559.375 0.0621716686513 -179.048714886
560.0 0.0502824862693 -154.698213751
560.625 0.0578297758558 -140.566746971
561.25 0.088895972418 -150.906481262
561.875 0.107620764518 -165.949510157
562.5 0.0935236885998 172.587439836
563.125 0.100299056209 147.785207385
563.75 0.126499604059 131.847913695
564.375 0.100309769594 119.724107549
565.0 0.0941055357923 117.068836271
565.625 0.0794884368538 117.58281354
566.25 0.0932522770947 151.22892442
566.875 0.0774693479733 177.340040341
567.5 0.07466231052 -178.785018045
568.125 0.0872978714897 -175.275165459
568.75 0.0551085439751 -139.602832681
569.375 0.0466031629399 -104.564877336
570.0 0.0587205970328 -107.166542523
570.625 0.0938678782457 -122.171152989
571.25 0.0875679143138 -120.805341227
571.875 0.0871086590762 -124.607912377
572.5 0.11289681289 -157.354289495
573.125 0.146592748656 -177.995402213
573.75 0.0922017588107 166.339695843
574.375 0.0826083120194 148.450554337
575.0 0.106106279233 152.491574527
575.625 0.11430389632 150.98781602
576.25 0.0889965992582 145.053308395
576.875 0.0742828215006 126.441569727
577.5 0.087335097925 132.87644683
578.125 0.058882677457 158.408409974
578.75 0.0473752489105 163.605357652
579.375 0.0564049904958 160.438038467
580.0 0.0684140343112 -178.249160243
580.625 0.0781189320685 -157.641885633
581.25 0.0892875188322 -160.508192024
581.875 0.114400409071 -173.114706607
582.5 0.111616761154 -173.626551342
583.125 0.0987871968555 -175.701924949
583.75 0.0789849432106 -158.406956323
584.375 0.102563816463 -156.175964294
585.0 0.0952108598485 -146.779810561
585.625 0.0766798482307 -154.914913072
586.25 0.0668833076961 -126.04266183
586.875 0.0812055714975 -129.066383456
587.5 0.069756973607 -143.79741902
588.125 0.0613706016146 176.106874813
588.75 0.068251235922 -147.256617923
589.375 0.0832176994419 -149.924324619
590.0 0.0901361836668 -168.084548205
590.625 0.103276714886 160.200846872
591.25 0.119298301142 159.421617472
591.875 0.0964398414941 156.569115735
592.5 0.06641733628 139.693114435
593.125 0.0611746099172 142.652577839
593.75 0.0665844377335 -171.666248546
594.375 0.0573682046318 -148.02557178
595.0 0.0409864901038 -112.60874267
595.625 0.0554763796451 -108.850250596
596.25 0.0741338742173 -81.8648094748
596.875 0.0673937184711 -71.7355346016
597.5 0.0565691602334 -69.6752463516
598.125 0.0569008134629 -71.6833924422
598.75 0.0870635531142 -57.161335134
599.375 0.0953993228874 -60.9817351667
600.0 0.10556245993 -62.0877715493
600.625 0.0975251085082 -76.0012182403
601.25 0.086254046509 -63.7725776387
601.875 0.0707119789565 -83.8969238233
602.5 0.0598024439932 -92.309471449
603.125 0.0458849431101 -70.0706068544
603.75 0.0285277347866 -54.6364184317
604.375 0.0485213013318 -18.0799820098
605.0 0.067541813744 -15.1176196252
605.625 0.0567603264066 0.0639514751805
606.25 0.0197363811651 -23.1145195359
606.875 0.0549247217796 53.0342013569
607.5 0.0686422091459 45.0960365602
608.125 0.0725638911876 27.1667839287
608.75 0.0576240806645 15.9001757695
609.375 0.0711909297312 31.2190399224
610.0 0.0772336519722 44.2523158944
610.625 0.0651623357316 40.6180272704
611.25 0.0436158065962 14.7354960735
611.875 0.050709318625 70.208958468
612.5 0.0298788522514 97.7140050033
613.125 0.0224015908606 129.297776034
613.75 0.0308988657032 123.597883004
614.375 0.0387586446045 118.754417179
615.0 0.0353899989653 115.884979155
615.625 0.0237120210122 133.261755929
616.25 0.0487277958485 132.245448904
616.875 0.032402646593 124.171579996
617.5 0.0389677131859 120.022045859
618.125 0.0216210191047 145.410819178
618.75 0.0320764652477 137.956569408
619.375 0.0140831466661 133.547511871
620.0 0.0112807754789 131.038083729
620.625 0.0222569237321 -121.718189229
621.25 0.0530997646062 -79.2105732686
621.875 0.0698822805444 -113.930554137
622.5 0.073183523932 -167.444237974
623.125 0.0696871042501 175.133261094
623.75 0.0610051538369 164.324622106
624.375 0.0381827240791 -167.391091894
625.0 0.0512572100819 -152.999876239
625.625 0.0444773850204 -162.841355526
626.25 0.0279450214404 174.968486306
626.875 0.0217098884012 -4.92494771564
627.5 0.0235232176423 -92.5870814899
628.125 0.0359299365254 -41.4406440138
628.75 0.0356179365776 -36.5888349322
629.375 0.0641803571127 0.237940993789
630.0 0.0632673977238 -18.2393420446
630.625 0.0678291745249 -6.03510903359
631.25 0.0674700391804 1.57934952281
631.875 0.0761406814046 9.08318273664
632.5 0.0700680802325 -28.0472027686
633.125 0.0477798476057 -8.02426540945
633.75 0.0478277217759 7.71082831349
634.375 0.0500520867642 25.6671034303
635.0 0.0403703821217 31.893270355
635.625 0.0310399465564 25.1298364376
636.25 0.0455628531167 37.98818139
636.875 0.0611124498921 33.2734896754
637.5 0.0570274361649 52.8811280092
638.125 0.0232937704778 28.1865945272
638.75 0.0620215243747 70.5726093594
639.375 0.0977019946064 86.7314173811
640.0 0.0799598927244 109.830593595
640.625 0.0522232809947 85.1497582772
641.25 0.0654775735667 120.456675578
641.875 0.0582377612413 142.29697377
642.5 0.0673255607131 162.157458143
643.125 0.0453541598428 146.654200028
643.75 0.0578408182742 164.562500645
644.375 0.0641710713252 178.559808751
645.0 0.0917004997818 179.732616077
645.625 0.0793317848986 156.195521409
646.25 0.0845839271372 161.834466088
646.875 0.0780861835494 -179.163421725
647.5 0.0723759150092 -174.73569984
648.125 0.0806405708117 -179.960884952
648.75 0.0751091739662 -166.525527987
649.375 0.0526722493294 -147.723448152
650.0 0.0468632709832 -118.334895579
650.625 0.078056425252 -88.8944602308
651.25 0.0614273292557 -67.932409272
651.875 0.0614631772749 -41.3142086186
652.5 0.0825897244029 -25.0775372895
653.125 0.135493981915 -2.62198323444
653.75 0.108498261242 4.64797523975
654.375 0.109698782557 3.56828871185
655.0 0.128394360815 12.353043119
655.625 0.0994908266963 26.2346472255
656.25 0.0576611358379 18.2985524654
656.875 0.0668102793859 8.08522757386
657.5 0.0765640576556 19.4229903384
658.125 0.0833566580741 45.6331052996
658.75 0.0374887495495 67.9371927794
659.375 0.0739918301002 43.3845869712
660.0 0.112587775759 21.0035403299
660.625 0.122405616518 16.1121845651
661.25 0.0937011497343 3.64024705484
661.875 0.121802201966 -13.833569629
662.5 0.115212321515 -24.843958388
663.125 0.117147726047 -16.9687676847
663.75 0.0768965732534 -1.11341822688
664.375 0.0866873391342 50.0482284201
665.0 0.0771629112271 89.4034035981
665.625 0.0629487623027 109.280207579
666.25 0.082341317502 131.24677437
666.875 0.112233673499 165.805042554
667.5 0.0994861984152 -170.176627803
668.125 0.106686212256 177.79692293
668.75 0.126311106542 166.319566658
669.375 0.126094103816 177.406190333
670.0 0.0878150785729 -170.975121376
670.625 0.09570633578 -174.660846754
671.25 0.0923230055335 173.744914179
671.875 0.0930936756154 167.645844834
672.5 0.0686754167848 152.678415939
673.125 0.0911374411443 149.125474936
673.75 0.110346877822 157.660734196
674.375 0.12120820859 165.45432053
675.0 0.11970975774 -177.632544107
675.625 0.138325689188 -153.449792131
676.25 0.120220902918 -125.062511467
676.875 0.11915800807 -121.930140966
677.5 0.126785166976 -128.916630012
678.125 0.141857906127 -119.676678507
678.75 0.0529301966088 -94.8730426444
679.375 0.0468099599143 -70.0599841767
680.0 0.0752915343165 -80.1072599632
680.625 0.132148290331 -83.2030430719
681.25 0.102176284353 -70.8975970247
681.875 0.0984867673971 -92.206307155
682.5 0.141534989267 -121.978827432
683.125 0.167236479443 -123.493439779
683.75 0.148905839211 -108.869044819
684.375 0.101242584801 -76.364240216
685.0 0.129613249611 -38.2616755194
685.625 0.129343190578 -3.83166984948
686.25 0.122041043979 16.638450289
686.875 0.0672347820844 50.1964732138
687.5 0.0695876908053 87.6049749818
688.125 0.0783398993564 109.155330016
688.75 0.105754544845 105.895665818
689.375 0.123804154343 128.912990049
690.0 0.13220691048 133.101070688
690.625 0.118551077572 124.727093825
691.25 0.14644235381 93.5452371976
691.875 0.192436521621 65.1356127673
692.5 0.144595157695 39.0394884735
693.125 0.0903200418261 -15.7427779327
693.75 0.0925901078034 -39.8163823174
694.375 0.145049262719 -37.9458781971
695.0 0.111910478417 20.8590274487
695.625 0.0996186780002 55.2257158987
696.25 0.111170389569 110.220498975
696.875 0.13819399959 170.853689843
697.5 0.148261380431 -150.897136824
698.125 0.136890260381 -132.72902299
698.75 0.137020991506 -135.538116657
699.375 0.117648661783 -131.510651135
700.0 0.0850518274891 -103.547264488
700.625 0.108637789408 -86.8348498105
701.25 0.0966480494205 -65.2540701369
701.875 0.083937712754 -68.4598213798
702.5 0.0990181133771 -76.6929269169
703.125 0.165742795588 -123.496447548
703.75 0.186684774552 -155.984054395
704.375 0.131040997536 169.790941885
705.0 0.115087731466 151.7251366
705.625 0.13307875381 -159.152192715
706.25 0.137955772923 -109.548205447
706.875 0.0847823102119 -60.8742436252
707.5 0.0814398610991 -47.2393493906
708.125 0.0881334450546 29.8381947082
708.75 0.114276675171 66.0021867307
709.375 0.101927189889 106.908632954
710.0 0.102672788062 124.849329936
710.625 0.10780140324 146.212660677
711.25 0.120796175417 173.247088927
711.875 0.145849996145 166.833058695
712.5 0.157380042168 135.350102887
713.125 0.115096571711 109.957269986
713.75 0.100468646687 48.0143632406
714.375 0.112943206798 15.1845636398
715.0 0.114669108737 24.8899245357
715.625 0.0859303363512 38.5180953253
716.25 0.0896990878939 88.8110628578
716.875 0.12491426745 109.007012258
717.5 0.140918225773 149.991006602
718.125 0.117295405184 160.5956795
718.75 0.101910729029 175.573152954
719.375 0.118024273442 -172.528731804
720.0 0.138458409489 -126.766680588
720.625 0.117595675988 -76.7282740907
721.25 0.0986512333463 -21.0071470063
721.875 0.0837409578133 39.2036520373
722.5 0.0703265161608 81.2490560277
723.125 0.0681251940221 50.2689448322
723.75 0.121218184846 50.2268086985
724.375 0.10853978148 -2.14998645608
725.0 0.0879244520311 -49.1214764115
725.625 0.103948701652 -67.4161522159
726.25 0.103824254768 -81.7527351832
726.875 0.107273182652 -37.6667697713
727.5 0.0892278862814 -26.2567794432
728.125 0.085495665729 5.07595033172
728.75 0.0724908733246 3.19682193367
729.375 0.0989656422627 27.1696982822
730.0 0.068258825077 2.2309450437
730.625 0.0678234099571 20.7132945312
731.25 0.0743312834562 60.545927249
731.875 0.0553096125615 99.2477289561
732.5 0.0922905405456 157.695577399
733.125 0.101410084519 177.009810508
733.75 0.0775854064874 168.774923749
734.375 0.0571205058456 -172.629992565
735.0 0.0598129406536 151.675957151
735.625 0.0437013371485 152.139805172
736.25 0.0417191194892 139.944963117
736.875 0.0393033296348 172.033366433
737.5 0.0779155434371 -179.631911072
738.125 0.098050037933 -178.229473618
738.75 0.0794063590914 -177.616234206
739.375 0.03025155187 166.609143214
740.0 0.088186767963 -141.025076764
740.625 0.0675801149644 -156.260315146
741.25 0.0624437694227 -150.328457764
741.875 0.0181313538943 -105.998547892
742.5 0.0224561461436 -4.40782964519
743.125 0.0413377295479 49.5900556643
743.75 0.0475524343167 96.8434503001
744.375 0.040701172785 173.470010698
745.0 0.0888711422486 103.227648613
745.625 0.0762147443471 101.711008129
746.25 0.0778029473945 83.1489610259
746.875 0.0603778538559 42.2009870591
747.5 0.0404848372852 11.9680636835
748.125 0.0261549967555 1.77398575439
748.75 0.03210241885 -28.7938703033
749.375 0.0423584708532 -45.9471210654
750.0 0.0418647156619 -47.6639260297
