!Created with skrf (http://scikit-rf.org).
# GHz S RI R (50+0j) 
!freq	ReS11	ImS11	
500.0	-0.1330843672	-2.0319579	
500.625	0.3488505327	-0.5976544488	
501.25	-0.6541250068	-1.416414221	
501.875	-0.6615847539	-0.2465722128	
502.5	0.03576294958	-0.1542832689	
503.125	-0.148945746	0.0365719578	
503.75	0.03797698491	0.001843071164	
504.375	0.06130652264	0.02467032415	
505.0	-0.04996675637	-0.03927785581	
505.625	0.07288969347	-0.04304882067	
506.25	-0.2013324113	-0.1277493385	
506.875	0.1496005345	-0.008658831872	
507.5	-0.316730279	-0.9191803449	
508.125	-0.3616858536	-0.6550136298	
508.75	1.192391551	-0.9315852536	
509.375	-0.5478924767	-2.126786036	
510.0	-0.5205223068	0.1381840851	
510.625	-0.07645177495	-0.3922991594	
511.25	-0.133259291	-0.006606563402	
511.875	-0.05329588398	-0.0005538900181	
512.5	-0.06663781938	0.07179115685	
513.125	-0.08099944333	-0.0796775097	
513.75	0.007465894853	-0.04249183807	
514.375	-0.2408064323	-0.1299589617	
515.0	0.1558088096	0.3520990929	
515.625	-0.04867559254	-1.319040265	
516.25	-0.4187532667	0.0006113114476	
516.875	0.1999495303	-0.9661173922	
517.5	-0.2227419059	-0.3733104128	
518.125	0.04355666205	0.06144693616	
518.75	-0.127435754	-0.3450800252	
519.375	-0.04610742802	0.02023850404	
520.0	0.08272610767	0.0837764774	
520.625	0.2952611826	-0.05023369314	
521.25	-0.2147878783	-0.3613103916	
521.875	-0.1542078331	-0.01859001389	
522.5	-0.1583479585	0.01918646027	
523.125	0.1260810245	0.04642526236	
523.75	-0.163573275	-0.1313063468	
524.375	-0.2612706756	0.2180511754	
525.0	0.01767708705	0.008457961302	
525.625	-0.03160002389	0.1595127409	
526.25	0.04994087203	-0.1210415073	
526.875	-0.09085483914	0.167699101	
527.5	0.1143351951	0.2032354091	
528.125	-0.09603043511	0.2761412064	
528.75	0.03546768081	0.5015632884	
529.375	-0.01768678958	0.1335694495	
530.0	-0.02343910932	0.428916257	
530.625	0.1322969159	0.3664441345	
531.25	0.4812857832	0.0657303168	
531.875	0.2848015412	-0.1262910423	
532.5	-0.2141776312	-0.0477504002	
533.125	0.266603788	-0.05750998689	
533.75	-0.09294127673	-0.2533675811	
534.375	-0.03704200525	-0.1225155808	
535.0	-0.4243508095	-0.1765595641	
535.625	-0.09921501463	0.1907204749	
536.25	-0.04216973674	0.1027957839	
536.875	0.1810713327	0.02137705277	
537.5	0.02746424016	-0.05987994176	
538.125	0.2190310777	-0.01089867813	
538.75	0.1124731113	-0.2459845104	
539.375	-0.05494937516	-0.1656427661	
540.0	-0.2212023841	-0.2890670329	
540.625	-0.2297148443	0.002945889764	
541.25	-0.06318398072	0.004635701865	
541.875	-0.1379999753	-0.04630493692	
542.5	-0.007811503531	0.0005334443053	
543.125	-0.03498392539	-0.1116353513	
543.75	-0.1566019989	0.07022184862	
544.375	0.07011161773	-0.05347316486	
545.0	-0.01005054096	0.1342318476	
545.625	0.04267756992	0.000863726107	
546.25	0.1092007539	0.1396128282	
546.875	0.1882556865	-0.1416635289	
547.5	0.05985271673	-0.08719667001	
548.125	0.008371268463	-0.2696684516	
548.75	-0.2369744439	-0.1074304394	
549.375	-0.05117356145	-0.04031215176	
550.0	-0.1616443997	-0.02193836031	
550.625	-0.01380149317	0.0402191806	
551.25	-0.1375034188	0.001923473892	
551.875	-0.08009364454	0.1373472883	
552.5	-0.0598107734	0.06567533551	
553.125	-0.02238081279	0.1101424805	
553.75	0.05561020105	0.04302951274	
554.375	0.1184813619	0.01154670312	
555.0	0.1240787788	-0.1050215391	
555.625	0.1034654965	-0.1400324282	
556.25	0.08776055242	-0.1854701408	
556.875	-0.05542568114	-0.212912776	
557.5	-0.1325823917	-0.1270340708	
558.125	-0.1502778356	-0.04937952997	
558.75	-0.1482718583	-0.005954357517	
559.375	-0.1380903588	0.04565821109	
560.0	-0.1203542152	0.08378835109	
560.625	-0.07949985997	0.1617557101	
561.25	0.03994569818	0.1181792408	
561.875	-0.01201672822	0.06651477251	
562.5	0.06510970412	0.06534683127	
563.125	0.04160405688	0.09343388514	
563.75	0.2335659356	0.004485355186	
564.375	0.1110225459	-0.1707325851	
565.0	0.1186562525	-0.1416312198	
565.625	-0.08079675706	-0.2557009381	
566.25	-0.1286429066	-0.07492444397	
566.875	-0.1290383289	-0.1759421646	
567.5	-0.263100572	-0.1063437311	
568.125	-0.1137673012	-0.1470410099	
568.75	-0.3678142659	-0.2196622084	
569.375	-0.2563253354	0.2402848553	
570.0	-0.1491379801	0.1239143234	
570.625	-0.1487614808	0.3020159687	
571.25	0.1274948039	0.1042881959	
571.875	-0.0251379898	0.1735231216	
572.5	0.2319900783	-0.1025451944	
573.125	0.02511403471	-0.05789067338	
573.75	0.2202001608	-0.1821688966	
574.375	-0.1325150356	-0.1442302558	
575.0	0.1160158114	0.04956676341	
575.625	0.003281473411	-0.2092229585	
576.25	0.001827915759	-0.03253199265	
576.875	0.1107528529	-0.2316624938	
577.5	-0.08614193193	-0.2813449723	
578.125	-0.05858118453	-0.08937803858	
578.75	-0.001879607225	-0.2348881291	
579.375	-0.3041443268	-0.1180557687	
580.0	0.07349017358	0.02865891327	
580.625	-0.2150943347	-0.09911520482	
581.25	0.07748526847	0.1494174409	
581.875	-0.1252172211	0.1238492069	
582.5	0.1982190941	0.3439871678	
583.125	0.1470450232	-0.06990788987	
583.75	-0.03131389786	0.167301748	
584.375	0.1524452356	-0.01406752978	
585.0	-0.006091997588	0.1628137633	
585.625	0.3384640641	0.01263845027	
586.25	0.06698759206	-0.1742659508	
586.875	0.1455539601	-0.06885769241	
587.5	-0.07503319397	-0.2905179126	
588.125	-0.08546764557	-0.06033625921	
588.75	0.1533036487	-0.1926969029	
589.375	0.02131313576	-0.2991987041	
590.0	-0.05854319955	-0.08711254323	
590.625	-0.2588289154	-0.1793624258	
591.25	-0.12799746	0.2874600024	
591.875	-0.003750282103	0.02550526629	
592.5	-0.09152261155	0.2312448889	
593.125	0.06165292021	-0.05958284108	
593.75	-0.003867526918	0.3095199829	
594.375	0.3194733685	0.04300532314	
595.0	0.0132190858	0.1958382502	
595.625	0.2926090783	0.2324717633	
596.25	0.2498254764	-0.07046934446	
596.875	0.102984133	0.1296151751	
597.5	0.3110841763	0.09210534958	
598.125	0.1799780711	0.02213334755	
598.75	0.2128629015	0.1870221917	
599.375	0.3664522346	-0.1057624637	
600.0	0.1386072444	-0.1829877382	
600.625	0.2310656133	-0.1446404057	
601.25	0.1051574329	-0.3381969107	
601.875	-0.149014402	-0.08486870774	
602.5	-0.09695203703	-0.1625696301	
603.125	-0.1877252952	0.1969268993	
603.75	-0.02841996166	0.03402132606	
604.375	-0.2979588213	0.0751289813	
605.0	0.04321769682	0.2291899059	
605.625	-0.2323652828	-0.06188047959	
606.25	-0.2328744276	0.2225397108	
606.875	-0.09095875503	0.003418884591	
607.5	-0.305973524	0.1170963214	
608.125	0.05052165708	0.4031397183	
608.75	0.193951912	0.05239074486	
609.375	0.348116151	-0.02969002783	
610.0	0.2064006692	-0.2133216246	
610.625	0.05621173724	-0.1948683344	
611.25	0.1217620166	-0.2745202225	
611.875	-0.1879728323	-0.1858772958	
612.5	-0.06305243105	-0.09665177861	
613.125	-0.335844874	-0.06985551601	
613.75	-0.02169029919	0.3024199991	
614.375	-0.04708066485	0.02065690998	
615.0	0.1461739433	0.1898352189	
615.625	-0.04041060603	-0.03834579773	
616.25	-0.2084879311	0.2282115052	
616.875	0.0249576135	0.3857941124	
617.5	-0.05356919312	0.09733319265	
618.125	0.0626339276	0.3519924334	
618.75	0.1911908567	0.228265764	
619.375	0.01125596368	0.1032888027	
620.0	0.3703035389	0.1370659315	
620.625	0.2735624054	-0.3380903902	
621.25	-0.0602907882	-0.199571677	
621.875	-0.3548226821	-0.161684206	
622.5	-0.2176360131	0.2001375846	
623.125	0.002655435824	0.07682417524	
623.75	0.2517082251	0.1158514884	
624.375	-0.06113769671	-0.1052420597	
625.0	0.1564756679	0.03794741883	
625.625	-0.02608330348	-0.2028387508	
626.25	0.005549202705	-0.08526072355	
626.875	-0.2085860479	-0.2113473801	
627.5	-0.2384392167	0.02762401652	
628.125	-0.02447698837	-0.07416735618	
628.75	-0.1183585883	-0.2080997288	
629.375	-0.1300865314	-0.08054029624	
630.0	-0.1878461174	-0.1899430025	
630.625	-0.3510823538	0.158592079	
631.25	-0.06164159325	0.2461552126	
631.875	-0.08360382365	0.2930278752	
632.5	0.2149822902	0.3812244766	
633.125	0.2211024158	-0.03046499601	
633.75	0.1074388736	0.0542721755	
634.375	0.09876662814	-0.2884587985	
635.0	-0.03237216466	-0.06476044834	
635.625	-0.1594846608	-0.2709724646	
636.25	-0.221592073	0.2599131893	
636.875	-0.008650723654	0.04919654747	
637.5	-0.1702343563	0.1610030572	
638.125	0.07871691708	0.1390022458	
638.75	-0.1844299603	0.1417641418	
639.375	0.03874337678	0.4838197478	
640.0	0.2666199504	0.1531655432	
640.625	0.1896664129	0.2564677093	
641.25	0.5071566685	-0.07572499279	
641.875	0.07067634267	-0.3526091848	
642.5	0.09729303445	-0.2294484658	
643.125	-0.2622236	-0.3269413453	
643.75	-0.03992827973	0.02400445305	
644.375	-0.2507208478	-0.2431092796	
645.0	-0.1788097538	0.373493545	
645.625	0.07063205355	0.07217181248	
646.25	0.2277374453	0.275644515	
646.875	0.2341925826	-0.3753054423	
647.5	-0.08252275936	0.2096582228	
648.125	0.3544996162	-0.04733289694	
648.75	0.09110369312	-0.08710278848	
649.375	0.5206793716	-0.1512235067	
650.0	0.1373150805	-0.6263177201	
650.625	0.01108377342	-0.2202797943	
651.25	0.4645163109	-0.1954967927	
651.875	0.3284932379	-0.4972121308	
652.5	0.101474256	-0.04302319744	
653.125	0.5292784084	-0.1160168024	
653.75	0.04763908211	-0.4644309142	
654.375	-0.05264687907	-0.1586708201	
655.0	-0.4716078269	-0.238589844	
655.625	-0.06957985843	0.3955627789	
656.25	0.05433228127	-0.01932530468	
656.875	-0.01292995947	0.3324899472	
657.5	0.1749619358	-0.1353411505	
658.125	-0.002504935605	0.3618222569	
658.75	0.6250354365	-0.06646603195	
659.375	0.2232508039	-0.2300567811	
660.0	0.5282110299	-0.2417679518	
660.625	0.1012519455	-0.687835009	
661.25	0.02678600093	-0.2144128583	
661.875	0.448780051	-0.3001201171	
662.5	0.2590184544	-0.4663636708	
663.125	0.1503148331	-0.2136800287	
663.75	0.3732665335	-0.3585857309	
664.375	-0.2566251347	-0.4639024264	
665.0	-0.2214284485	-0.1629397551	
665.625	-0.5107751884	0.06535847375	
666.25	0.01786055257	0.4406177209	
666.875	0.0541386685	0.1207281335	
667.5	0.3160136289	0.2136821981	
668.125	0.2370301943	-0.1568374027	
668.75	0.1824393882	-0.03887967851	
669.375	0.2588869755	-0.474370033	
670.0	-0.166562081	-0.2195413518	
670.625	0.1290757633	-0.1625807204	
671.25	0.02644163524	-0.4448897369	
671.875	-0.04447415664	-0.1409400998	
672.5	0.5366688486	-0.1266704506	
673.125	0.2161128156	-0.4344078821	
673.75	0.07715912067	-0.1710961646	
674.375	0.1552777391	-0.3779976341	
675.0	-0.2928172	-0.3812038061	
675.625	-0.1306100863	0.004838855336	
676.25	-0.2970670796	-0.1736197816	
676.875	-0.1869372425	0.1952307367	
677.5	-0.06421804995	-0.06044374056	
678.125	-0.3165119579	0.2991136635	
678.75	0.2495686625	0.2164065928	
679.375	0.09624767192	0.09843805266	
680.0	0.4171341457	-0.0931478821	
680.625	-0.09184691637	-0.3088683046	
681.25	0.1126442461	0.2192157737	
681.875	0.3948565638	-0.06560956505	
682.5	-0.07640553241	-0.01770123562	
683.125	0.3137506278	0.3649821114	
683.75	0.6135687238	-0.1127387784	
684.375	-0.06176720131	0.2220671061	
685.0	0.5379318424	0.2497932079	
685.625	0.3431002819	-0.2090298774	
686.25	0.1528283798	0.01026311178	
686.875	0.6424970579	-0.3037427631	
687.5	-0.01007591796	-0.5558548192	
688.125	0.04532108612	-0.5113461691	
688.75	-0.7063822571	-0.3124872694	
689.375	-0.1371528949	0.5857044085	
690.0	-0.07466210537	0.2875183568	
690.625	0.4349552545	0.4529276564	
691.25	0.3972224961	0.09960157044	
691.875	0.402433567	0.5434395441	
692.5	1.106975799	0.2481628747	
693.125	0.5091002107	-0.2547277628	
693.75	0.9313363887	-0.05646572419	
694.375	0.7105044725	-0.7463044666	
695.0	0.257150261	-0.3523728661	
695.625	0.6513473055	0.2316415948	
696.25	0.5326778151	-0.1895197512	
696.875	0.3520987264	0.2929025273	
697.5	0.5194291709	0.6919705966	
698.125	0.7528813731	0.05685175649	
698.75	0.4645465638	-0.6558323002	
699.375	-0.5780429873	-0.5813342425	
700.0	-0.3495228814	0.6303601975	
700.625	0.2315567785	0.1496188752	
701.25	0.1033889574	0.3161079818	
701.875	0.5424438321	0.1501352079	
702.5	0.228586979	0.2473127702	
703.125	0.6376175077	0.299400432	
703.75	0.5028148865	-0.3674882148	
704.375	0.1947574064	-0.07495636287	
705.0	0.5324689857	-0.1912090099	
705.625	0.2445971717	-0.1483601078	
706.25	0.1167134862	0.2751354692	
706.875	0.3679460857	0.2360074029	
707.5	0.3700190846	0.1169355538	
708.125	0.5370233163	0.2222440446	
708.75	0.3501643996	-0.7173135013	
709.375	-0.6961595182	-0.4928204192	
710.0	-0.239617218	0.1839993354	
710.625	0.3124164882	0.3032397892	
711.25	-0.006879968517	0.0454198588	
711.875	0.2530469885	0.3936192772	
712.5	0.5049081559	-0.2035062618	
713.125	0.1081825651	-0.1631126277	
713.75	0.3268902218	-0.3473558801	
714.375	-0.1332110659	-0.4111420679	
715.0	-0.01279345072	-0.09828800131	
715.625	0.1455686766	-0.4295927659	
716.25	0.02264663846	-0.3785083713	
716.875	0.3763511637	-0.02820441066	
717.5	0.8526401835	0.01799792898	
718.125	0.6408026595	-0.4394431886	
718.75	0.8228783066	0.289015873	
719.375	1.122174277	-1.044516689	
720.0	0.1068239152	-1.157196945	
720.625	0.5930638291	-1.03263568	
721.25	-0.7523272773	-1.744120736	
721.875	-0.3476042605	-0.719134431	
722.5	-0.000373228303	-1.277834528	
723.125	-1.28867617	0.01169113625	
723.75	-0.1644812444	0.563042338	
724.375	-0.2881548573	0.5665228952	
725.0	0.7030183303	0.6571697775	
725.625	0.09558795009	0.3013067501	
726.25	-0.222160932	1.046433647	
726.875	0.3526733407	1.502398413	
727.5	0.1198865941	1.098564098	
728.125	-0.798520216	3.013076599	
728.75	1.500126079	4.132042354	
729.375	0.1967312894	2.667470536	
730.0	-1.624269547	7.215478529	
730.625	4.281295664	5.328488706	
731.25	-1.2417961	2.747256333	
731.875	-3.951384604	4.628791143	
732.5	-4.525386092	4.36869122	
733.125	-2.176616074	0.1281867744	
733.75	-1.302801348	2.460779842	
734.375	1.239270137	-0.1636978884	
735.0	-0.005702235242	-0.4418258415	
735.625	-1.396790122	-0.02122790834	
736.25	0.5038348718	0.4660461725	
736.875	0.1473774144	0.8559280097	
737.5	2.129256762	0.1089016558	
738.125	1.092336525	-1.46805663	
738.75	1.758464444	0.0244673975	
739.375	5.20075124	-3.152602479	
740.0	-0.3087833473	-5.126884868	
740.625	0.9111651479	3.524390216	
741.25	6.073870277	8.440653631	
741.875	2.546088208	0.531976614	
742.5	-0.1542187992	-5.724515303	
743.125	-3.665966536	-2.395122349	
743.75	-0.4803165737	-0.2225693144	
744.375	-0.6816042998	-0.4647784108	
745.0	0.4001892631	0.09300908633	
745.625	0.05759346482	0.09106088468	
746.25	-0.1522071575	-0.3199688679	
746.875	-0.1427660739	0.1397763665	
747.5	-0.1819475196	0.4174522012	
748.125	0.4170024636	0.8552054292	
748.75	0.3997824019	0.3729099407	
749.375	-0.1091351271	0.7387454428	
750.0	-0.7116013941	0.4530790458	
