!Created with skrf (http://scikit-rf.org).
# GHz S RI R (50+0j) 
!freq	ReS11	ImS11	
500.0	0.3938556634	-0.6605491116	
500.625	0.9520309762	-2.018609694	
501.25	-0.8688424701	-0.4912833734	
501.875	0.119390294	-0.6573934396	
502.5	-0.152742869	-0.2389461383	
503.125	-0.05637424709	0.02314036305	
503.75	-0.06572945576	0.1755452774	
504.375	0.03709370901	-0.04846403345	
505.0	0.03850367931	0.0150820709	
505.625	-0.0447203171	-0.1262998684	
506.25	0.02532529101	0.03686090248	
506.875	-0.442281458	-0.1503609049	
507.5	-0.1623123358	0.04648565464	
508.125	0.7092467704	-0.7643745785	
508.75	0.3045819223	-1.86353676	
509.375	-0.5918894644	-1.162788895	
510.0	-0.5972654438	-0.6314075029	
510.625	-0.657744537	-0.197302412	
511.25	-0.154111034	-0.04880053434	
511.875	-0.2810741156	-0.1080267323	
512.5	0.01250292648	0.05869639322	
513.125	0.05077268335	-0.04718208641	
513.75	-0.1505233746	-0.1861775668	
514.375	-0.03319351773	0.1401765449	
515.0	0.01782898611	-0.6241762174	
515.625	-0.1039994804	0.344946856	
516.25	0.504225501	-1.983609985	
516.875	-0.8334102257	-0.7177707445	
517.5	0.006954411139	0.004685644422	
518.125	-0.08023911861	-0.1219382969	
518.75	-0.1073738616	0.002065445487	
519.375	-0.09612327255	-0.0001738163152	
520.0	0.1974678338	0.09118891476	
520.625	0.1649559153	-0.1069289738	
521.25	0.07755693208	-0.2067965064	
521.875	-0.3012413848	-0.1099004544	
522.5	-0.04827994533	0.07590758369	
523.125	-0.1505435163	-0.06644435503	
523.75	-0.2551359138	0.097452274	
524.375	-0.03832174302	-0.06522806768	
525.0	-0.2205110572	0.2774174983	
525.625	0.1880234309	-0.02048016112	
526.25	-0.1183688228	0.04923031518	
526.875	0.02707886096	0.04056591391	
527.5	-0.2266690345	0.1997974962	
528.125	0.2338455386	0.4079187102	
528.75	0.1199981267	0.1183403166	
529.375	-0.03876005724	0.202732537	
530.0	0.2574627289	0.08226972892	
530.625	0.4199911065	0.3202912399	
531.25	0.7717273687	0.1333148033	
531.875	0.03744963953	-0.3086769113	
532.5	0.1134747281	-0.1694211286	
533.125	-0.001646168448	-0.2746826616	
533.75	0.2631066886	-0.1405739345	
534.375	-0.3050664632	-0.4652593007	
535.0	-0.2706530617	0.009167028581	
535.625	-0.2349275499	0.06380749701	
536.25	0.01698070448	0.1693928897	
536.875	0.07052523635	-0.01224408244	
537.5	0.1379703629	-0.02771609817	
538.125	0.1243283443	-0.1434904817	
538.75	0.1542985321	-0.05136300732	
539.375	-0.1031835448	-0.3045273072	
540.0	-0.2370820889	-0.0976610689	
540.625	-0.1751613665	-0.003462373092	
541.25	-0.1841113164	0.01405769654	
541.875	-0.03845732544	0.03906156351	
542.5	-0.07824600375	-0.1567152279	
543.125	-0.23582114	-0.04110528447	
543.75	-0.05025502176	-0.03583219654	
544.375	-0.09284543389	0.1214140737	
545.0	0.07456935992	0.006832004344	
545.625	0.01556020025	0.1668609006	
546.25	0.1755823836	-0.04749486904	
546.875	0.09706720884	0.02441223264	
547.5	0.146756484	-0.2187855275	
548.125	-0.1565618089	-0.1660456386	
548.75	-0.07533002773	-0.148758726	
549.375	-0.1980245387	-0.1267996222	
550.0	-0.05828126934	0.07116206445	
550.625	-0.1013692806	-0.04368091816	
551.25	-0.06787766401	0.08731687255	
551.875	-0.1029301347	0.04215439888	
552.5	-0.06581807969	0.1418577669	
553.125	0.004498221625	0.06675730292	
553.75	0.06479239042	0.07225505773	
554.375	0.1203970738	-0.01942202792	
555.0	0.1207036125	-0.08635530317	
555.625	0.1174542278	-0.1445857307	
556.25	0.07422860512	-0.1944201949	
556.875	-0.05005612111	-0.2028396888	
557.5	-0.1274534743	-0.1394121589	
558.125	-0.157117496	-0.05010461173	
558.75	-0.1362424933	0.00539814495	
559.375	-0.1427139011	0.01748703726	
560.0	-0.1376304862	0.1128076211	
560.625	-0.04305586077	0.1358059965	
561.25	-0.02374982021	0.1284799608	
561.875	0.07715848138	0.06486925755	
562.5	-0.03669560184	0.04928753637	
563.125	0.146249848	0.1133894954	
563.75	0.1273228263	-0.02509788389	
564.375	0.2106194637	-0.08964317938	
565.0	0.07306981279	-0.2513889823	
565.625	-0.05235208008	-0.1341364535	
566.25	-0.1381499543	-0.2063017594	
566.875	-0.2328637308	-0.04556227441	
567.5	-0.08050222694	-0.12910059	
568.125	-0.2333292169	-0.2701481507	
568.75	-0.2777561955	0.06133854496	
569.375	-0.2783586913	0.007166895333	
570.0	-0.1826942176	0.3687517931	
570.625	0.02886426416	0.1710760126	
571.25	-0.1417916306	0.1791181872	
571.875	0.1909972757	0.05922004443	
572.5	0.05217578911	0.07819631411	
573.125	0.2112233513	-0.2065563817	
573.75	-0.1095988175	-0.1670706111	
574.375	0.1082898852	0.01902372593	
575.0	-0.03802232359	-0.1907342365	
575.625	0.0704432614	0.03137110418	
576.25	0.1352454227	-0.2265679651	
576.875	-0.1126741227	-0.1597464518	
577.5	0.05175718384	-0.08837833993	
578.125	0.001391345576	-0.3373813613	
578.75	-0.259385551	-0.08235916883	
579.375	0.01762067196	-0.02596795293	
580.0	-0.1655628192	-0.1567472069	
580.625	-0.001727463568	0.05863798691	
581.25	-0.3911611081	-0.01339051114	
581.875	0.1460463457	0.3061041092	
582.5	0.06763413296	0.03401077248	
583.125	0.01018354066	0.2449210288	
583.75	0.1700686047	-0.1172599842	
584.375	-0.0887028936	0.1481743747	
585.0	0.27008282	0.0531731378	
585.625	0.08621571412	-0.0692664679	
586.25	0.3052702708	0.02931419332	
586.875	0.0490026061	-0.3097733092	
587.5	-0.0110494563	-0.0573945667	
588.125	0.04888682169	-0.2669275278	
588.75	-0.06180923893	-0.2143233456	
589.375	0.1031707324	-0.06377491341	
590.0	-0.09119800986	-0.3498537496	
590.625	-0.2218718758	0.08479236514	
591.25	-0.1463471212	-0.01490027184	
591.875	-0.1353282943	0.2763621614	
592.5	0.14227656	-0.01509613536	
593.125	-0.1525582405	0.2204541701	
593.75	0.1268476682	-0.02718931724	
594.375	0.05505986099	0.1991293293	
595.0	0.3245284745	0.2200708651	
595.625	0.1168386439	-0.03161840629	
596.25	0.1949223849	0.1969029403	
596.875	0.2845112761	-0.03960161959	
597.5	0.1082532589	0.02759035608	
598.125	0.1770607438	0.2668899121	
598.75	0.2306920441	0.002776320168	
599.375	0.1697413676	-0.007118948276	
600.0	0.3097473276	-0.1686996577	
600.625	0.1290012429	-0.3257812046	
601.25	0.03477571076	-0.1584502874	
601.875	-0.03815803747	-0.2823393458	
602.5	-0.2115938333	0.08660635773	
603.125	-0.05041154392	-0.0450192801	
603.75	-0.280585772	0.1340763064	
604.375	0.1223558164	0.08712788113	
605.0	-0.1632879527	-0.04085832048	
605.625	-0.1321770135	0.2136908433	
606.25	-0.01256566228	0.002548632417	
606.875	-0.3005904724	0.2972588327	
607.5	-0.07215123529	0.3336061304	
608.125	-0.09358261319	0.2217169201	
608.75	0.2818724874	0.2710701688	
609.375	0.2655427207	0.008387195047	
610.0	0.158754169	-0.04871869445	
610.625	0.2099403911	-0.2910767415	
611.25	-0.1377589962	-0.1593680072	
611.875	-0.04901152336	-0.05030919101	
612.5	-0.3438880413	-0.09866118994	
613.125	-0.1015398245	0.1205266174	
613.75	-0.2136603137	0.06331092713	
614.375	0.1515532548	0.2637042998	
615.0	-0.03652432992	-0.08553152918	
615.625	-0.04478548581	0.2948666959	
616.25	0.05382308974	0.07913553586	
616.875	-0.2043152098	0.1310639251	
617.5	-0.1332704247	0.4453392629	
618.125	0.1472204994	0.1970299868	
618.75	0.04547768349	0.3041724163	
619.375	0.193732815	0.2274562457	
620.0	0.1621917394	-0.01646639884	
620.625	0.2346830949	-0.1454796	
621.25	-0.1834984452	-0.3010624946	
621.875	-0.2556174283	-0.001828371673	
622.5	-0.3226636084	-0.01551630909	
623.125	-0.01929240954	0.3288385249	
623.75	0.1505382981	-0.1067636693	
624.375	0.1510595162	0.01863844112	
625.0	-0.07280416319	-0.1211550234	
625.625	0.1366565185	-0.0437495145	
626.25	-0.125014374	-0.256804042	
626.875	-0.1618870012	0.008998394311	
627.5	-0.1286570438	-0.1364401027	
628.125	-0.2557164593	-0.0781756888	
628.75	-0.04844837937	-0.05342608531	
629.375	-0.07733156762	-0.2917536543	
630.0	-0.2815185433	-0.09939357351	
630.625	-0.2232117068	0.03499505862	
631.25	-0.226868563	0.2162033921	
631.875	0.07917055849	0.3416822615	
632.5	0.2524584396	0.05849472663	
633.125	0.2892449113	0.139277318	
633.75	0.1892127327	-0.2083234424	
634.375	0.02830452826	-0.03584589918	
635.0	0.01342583231	-0.3142833478	
635.625	-0.2345198197	0.08766421657	
636.25	-0.1521787999	-0.03414221456	
636.875	-0.1228312953	0.2873040545	
637.5	0.07807460345	0.05202947404	
638.125	-0.2128593249	0.09368621268	
638.75	0.02706491482	0.3145381876	
639.375	-0.02720707468	0.1704688913	
640.0	0.1447947035	0.4423686898	
640.625	0.4404950895	0.09688092706	
641.25	0.2015363334	-0.03443780823	
641.875	0.3861980857	-0.2447708067	
642.5	-0.2029620587	-0.2832860185	
643.125	-0.06576030503	0.06826635687	
643.75	-0.2367328881	-0.2029947592	
644.375	-0.1182733071	0.1581490151	
645.0	-0.2674891813	0.04666485993	
645.625	0.1208932682	0.5687989338	
646.25	0.222696645	-0.08921193395	
646.875	0.03425817922	0.1544004402	
647.5	0.286612425	-0.2072892093	
648.125	-0.03389505267	0.2116886078	
648.75	0.6079987913	-0.1590649942	
649.375	0.06773719529	-0.4197976142	
650.0	0.2252917124	-0.1652454606	
650.625	0.3439221252	-0.5270185447	
651.25	-0.09042244214	-0.4094959915	
651.875	0.3314433986	0.01148789508	
652.5	0.5190828358	-0.2854627732	
653.125	0.1085188941	-0.2344151979	
653.75	0.3614058563	-0.1411377876	
654.375	-0.2688147089	-0.5077738547	
655.0	-0.3150530201	0.1190420537	
655.625	-0.2574514536	0.04753113549	
656.25	0.09128828439	0.5799047813	
656.875	0.0804819515	-0.151090252	
657.5	0.05363291783	0.3075236547	
658.125	0.3176784361	0.01982693164	
658.75	0.07122404405	0.2136533086	
659.375	0.6805522912	-0.2031843204	
660.0	0.06655884681	-0.4857660903	
660.625	0.2691287268	-0.2150912943	
661.25	0.3007445298	-0.5479349599	
661.875	0.06300058641	-0.4224315573	
662.5	0.3183588723	-0.09065383675	
663.125	0.431763892	-0.3946905798	
663.75	-0.0170078156	-0.3258235585	
664.375	0.07368512505	-0.3731624122	
665.0	-0.5201141451	-0.2981378364	
665.625	-0.2415461451	0.2088281649	
666.25	-0.2261843294	0.2806647373	
666.875	0.2718686086	0.333710067	
667.5	0.173534877	-0.06797708867	
668.125	0.3241027917	0.1350475665	
668.75	0.2331809591	-0.3781461971	
669.375	0.007713817971	-0.1513904641	
670.0	0.1940415586	-0.3478231688	
670.625	-0.1526478949	-0.3379787509	
671.25	0.2381995959	0.05628069847	
671.875	0.2929226413	-0.3786389478	
672.5	0.1238592113	-0.284616488	
673.125	0.2355677615	-0.08380609833	
673.75	0.2807065611	-0.4620623057	
674.375	-0.1420381918	-0.2560534148	
675.0	0.0217014834	-0.3249631842	
675.625	-0.3708278073	-0.2338963418	
676.25	-0.1872861053	0.1526675607	
676.875	-0.1636698207	-0.1667199474	
677.5	-0.2473684256	0.2178449757	
678.125	-0.02337744036	0.09399582466	
678.75	-0.09607641344	0.3411569818	
679.375	0.4838488595	0.0186589148	
680.0	-0.01993638087	-0.09502047713	
680.625	0.2925665383	0.004044191411	
681.25	0.04651419304	-0.3208602566	
681.875	-0.02846610458	0.2071578521	
682.5	0.5943268809	0.2305209845	
683.125	0.1286174085	-0.154548015	
683.75	0.1803617618	0.2534700776	
684.375	0.613374781	-0.1713182341	
685.0	0.1845699198	-0.2359826978	
685.625	0.3761613971	0.2942957684	
686.25	0.4783734164	-0.3195545389	
686.875	0.2611678984	-0.1446998509	
687.5	0.479948145	-0.3182206297	
688.125	-0.3452173439	-0.7319510616	
688.75	-0.3368150438	-0.06894923829	
689.375	-0.4454800981	0.4370813344	
690.0	0.3791593723	0.5107175376	
690.625	0.1358262769	0.1249334355	
691.25	0.4750651512	0.6337069621	
691.875	0.7296758026	0.10241472	
692.5	0.4731648474	0.3574716096	
693.125	1.091859699	0.1341652419	
693.75	0.6673951711	-0.648182083	
694.375	0.4208849624	-0.1932850667	
695.0	0.7157252825	-0.7028758488	
695.625	0.4996136318	-0.37444459	
696.25	0.3841835338	0.3274304278	
696.875	0.7806798682	0.241005639	
697.5	0.5392351767	0.1112151467	
698.125	0.9468283358	-0.07296490354	
698.75	0.5271631956	-0.7772207532	
699.375	-0.7087002974	-0.2146593689	
700.0	-0.1952565845	0.3765544003	
700.625	0.3400589757	0.5407643474	
701.25	0.242778417	0.01989240841	
701.875	0.1756672004	0.4057976099	
702.5	0.6881541246	0.3530976282	
703.125	0.3157402626	-0.02739694895	
703.75	0.5462536122	0.05994784914	
704.375	0.3847180462	-0.4388279664	
705.0	0.07735581845	-0.1812699046	
705.625	0.5348133876	0.03828204048	
706.25	0.4659124729	-0.01356177117	
706.875	0.1377729944	0.2498393842	
707.5	0.4881491264	0.4496134688	
708.125	0.5898250674	0.07899553809	
708.75	0.2717845521	-0.3089855698	
709.375	-0.5364807056	-0.4770793091	
710.0	-0.3691679417	0.4602969504	
710.625	0.009848861573	0.07495605786	
711.25	0.3002469298	0.2736666596	
711.875	0.1489231801	-0.03241430316	
712.5	0.3825565887	0.1357167273	
713.125	0.4926691649	-0.3771409874	
713.75	-0.005656904723	-0.2963365957	
714.375	0.1773816556	-0.2356802359	
715.0	-0.1362772456	-0.3857932044	
715.625	-0.02755360995	-0.1159327954	
716.25	0.3533090808	-0.2537655341	
716.875	0.3798121507	-0.5302068174	
717.5	0.3318930973	0.03372198696	
718.125	1.005764381	0.1376435122	
718.75	1.024754149	-0.542022163	
719.375	0.5099284441	-0.6206761572	
720.0	0.7447205073	-1.577587774	
720.625	-0.5264226775	-1.465606297	
721.25	0.001739739591	-0.8833505169	
721.875	-0.4648150664	-1.569624163	
722.5	-1.063195062	-0.4321033695	
723.125	-0.7305115665	-0.3006854071	
723.75	-0.8643838211	0.9204924481	
724.375	0.3819697951	0.4260394635	
725.0	-0.039540446	0.3838207377	
725.625	0.4492138257	0.9097791443	
726.25	0.2595835009	0.4934759738	
726.875	-0.5314522813	1.126368849	
727.5	0.1697807317	2.339945862	
728.125	0.7911351194	1.776049054	
728.75	-1.276434324	2.797965497	
729.375	0.7386552524	7.194559483	
730.0	1.903300277	2.914255449	
730.625	-1.094529924	5.551099404	
731.25	0.4455586971	7.394478193	
731.875	-1.557060351	1.848873012	
732.5	-4.939890837	-0.5169678184	
733.125	-3.411186874	2.107276623	
733.75	0.2069559784	1.252504552	
734.375	0.8090928782	1.166255556	
735.0	-0.7096570058	-0.8736084087	
735.625	-0.2385747195	0.06094517228	
736.25	-0.4806265141	1.097663228	
736.875	1.151143424	0.418396813	
737.5	0.3356414408	0.5637790285	
738.125	3.114591169	-0.390132011	
738.75	1.442788112	-3.129851442	
739.375	1.189623885	-0.4903322401	
740.0	8.231101188	0.7271625212	
740.625	4.699282623	-4.733212953	
741.25	-3.567785619	0.2706742265	
741.875	-8.430541698	1.57192838	
742.5	-1.244057291	0.3649074605	
743.125	1.76718218	-3.064582454	
743.75	-1.030620113	-1.591998927	
744.375	-0.3761508877	0.2928070516	
745.0	-0.2351953782	0.1691371924	
745.625	0.02781394809	-0.1843376396	
746.25	0.07721240253	-0.1725716933	
746.875	-0.4616536161	0.1082942317	
747.5	0.06174417876	0.4498359306	
748.125	-0.161111891	0.5265059483	
748.75	0.4761141311	0.8239696143	
749.375	0.3186499152	0.5420888623	
750.0	-0.5768697397	0.2545994754	
