!Created with skrf (http://scikit-rf.org).
# GHz S RI R (50+0j) 
!freq	ReS11	ImS11	
500.0	1.458296634	-4.572446288	
500.625	-0.3687584994	-4.216077425	
501.25	-1.102339679	-0.916772195	
501.875	-0.600670979	-2.448111246	
502.5	-0.4536253523	-0.1712480183	
503.125	-0.1443243016	-0.06294790822	
503.75	0.1019936333	0.4750432588	
504.375	-0.06685595122	-0.0520458336	
505.0	0.2540348497	-0.1102737005	
505.625	-0.2132666326	-0.01791731571	
506.25	0.2503639668	-0.4799804815	
506.875	-0.4013604527	0.9484148704	
507.5	1.053586635	-0.8759441387	
508.125	0.2096294136	-3.355010865	
508.75	-0.9039948431	-2.222517023	
509.375	2.058675153	-4.710008452	
510.0	-2.483994297	-0.9404651541	
510.625	-0.1136679968	-0.1836031126	
511.25	-0.5620614793	-0.2263294254	
511.875	-0.4006116458	0.1378773654	
512.5	-9.450857272e-05	0.1272566118	
513.125	0.03495638788	-0.2513880021	
513.75	-0.5060266989	-0.196255542	
514.375	0.215436807	-0.1176658769	
515.0	-1.092817152	-0.7632661047	
515.625	2.412269001	-0.3118804205	
516.25	-3.295084961	-4.58893678	
516.875	-0.7075983449	0.7977721556	
517.5	0.5623126155	-0.9555485602	
518.125	-0.3459149327	0.3194959479	
518.75	0.3240486936	-0.9389388837	
519.375	-0.168927254	0.3069731614	
520.0	0.2135917911	0.07809343848	
520.625	0.6681807093	-0.006108327468	
521.25	-0.3827705447	-0.8302030082	
521.875	-0.1635997446	-0.07568832215	
522.5	-0.2695510991	0.1365622051	
523.125	-0.06298195556	-0.1987593985	
523.75	-0.4349479363	0.1965919923	
524.375	-0.1422247458	-0.1242921868	
525.0	-0.2610768384	0.6788175669	
525.625	0.1426977079	-0.1746481163	
526.25	0.03405588589	0.186731056	
526.875	-0.1742841989	-0.09869709542	
527.5	-0.2310482117	0.9771358026	
528.125	0.4246288571	0.3859647901	
528.75	-0.3992113006	0.7964659093	
529.375	0.3823169173	0.08773080894	
530.0	-0.3340340068	0.8126338089	
530.625	0.6330582792	0.6060848274	
531.25	0.8409621966	0.7890718346	
531.875	0.6954323076	-1.043532401	
532.5	0.2225886978	0.028345804	
533.125	-0.3036511359	-0.6900706553	
533.75	0.9692076227	-0.008379597946	
534.375	-0.9401026761	-1.086950919	
535.0	-0.235965254	-0.1088161825	
535.625	-0.7662431678	0.1753456711	
536.25	0.1646024772	0.2474479609	
536.875	0.1164612864	0.1780477995	
537.5	0.2716169354	-0.1829518916	
538.125	0.0955315484	-0.1396115217	
538.75	0.5664629711	-0.1858117406	
539.375	-0.3744180266	-0.3913728498	
540.0	-0.1999828075	-0.3200265629	
540.625	-0.4821355293	-0.1647490473	
541.25	-0.2135895047	0.09870520191	
541.875	-0.04362315556	-0.03865300184	
542.5	-0.1681233112	-0.2283481249	
543.125	-0.2171155198	0.04902812408	
543.75	-0.1289185035	-0.214151371	
544.375	-0.1494890304	0.3133308596	
545.0	-0.08422754465	-0.0924088679	
545.625	0.3035329565	0.3796525187	
546.25	0.04755117399	-0.1533798114	
546.875	0.4468028648	0.2485742334	
547.5	-0.03520770042	-0.5044215159	
548.125	0.09101354846	-0.2089285881	
548.75	-0.2993483299	-0.5105298871	
549.375	-0.4052889076	-0.05228501913	
550.0	-0.03218245887	-0.09306513736	
550.625	-0.2739670215	0.1005579265	
551.25	-0.05639815037	-0.01354967576	
551.875	-0.3191265193	0.1884375424	
552.5	-0.0152792548	0.2033115126	
553.125	-0.1127131479	0.1477556036	
553.75	0.1435010255	0.12809763	
554.375	0.2107965897	0.01628271123	
555.0	0.2688962467	-0.1494505083	
555.625	0.220232849	-0.2714870504	
556.25	0.1690554002	-0.3345163873	
556.875	-0.05738757229	-0.4044647018	
557.5	-0.2359981046	-0.2728199777	
558.125	-0.2775771446	-0.09627442816	
558.75	-0.2422791338	-0.04100917884	
559.375	-0.3084701856	0.0410804121	
560.0	-0.1887066533	0.181443432	
560.625	-0.1903047389	0.218064941	
561.25	0.05238462846	0.3173185101	
561.875	0.03639478481	0.006729328537	
562.5	0.02645468271	0.2533996449	
563.125	0.144834963	0.03598784266	
563.75	0.3271814388	0.180676504	
564.375	0.3614259404	-0.3666599547	
565.0	0.0756577491	-0.2220055315	
565.625	0.0655803982	-0.458070245	
566.25	-0.3957729974	-0.2099046456	
566.875	-0.1764905056	-0.1651670996	
567.5	-0.38387086	-0.4347019965	
568.125	-0.4648908939	-0.2483146837	
568.75	-0.3154324312	-0.3627663563	
569.375	-0.8408518642	0.2834696746	
570.0	-0.03772383706	0.4826919899	
570.625	-0.406884052	0.1319709985	
571.25	0.1429695081	0.6837253075	
571.875	-0.1945574932	-0.04889344158	
572.5	0.6467975937	0.143960913	
573.125	-0.1227217017	-0.3905397315	
573.75	0.3066257643	0.05020648804	
574.375	0.04652572809	-0.5314786045	
575.0	-0.04837189908	0.2027463131	
575.625	0.3196105983	-0.4076406425	
576.25	-0.2165621977	-0.260981975	
576.875	0.3395772131	-0.1924720593	
577.5	-0.04217635178	-0.6785150998	
578.125	-0.2669264265	-0.2124717372	
578.75	0.04450424661	-0.2499003392	
579.375	-0.2762953589	-0.4078635234	
580.0	-0.1935988701	0.1961908524	
580.625	-0.09800995404	-0.3787816245	
581.25	-0.3038915305	0.4612044488	
581.875	0.05566737796	0.01870275172	
582.5	-0.2386793453	0.5719421217	
583.125	0.6488785446	0.1465595884	
583.75	-0.35959876	0.01922346996	
584.375	0.5643910446	0.2551186527	
585.0	-0.2211116474	-0.0198088191	
585.625	0.6483303859	0.3303062141	
586.25	0.3167275994	-0.4517100568	
586.875	0.116681396	-0.009607237296	
587.5	0.1556997394	-0.5884792847	
588.125	-0.3391881995	-0.2377093935	
588.75	0.3915208903	-0.148613229	
589.375	0.1981140013	-0.6457953132	
590.0	-0.08797832604	-0.1312318829	
590.625	-0.4279169063	-0.3861046196	
591.25	-0.3503396143	0.4402420311	
591.875	-0.005427451997	0.1535949278	
592.5	-0.171076494	0.1115594651	
593.125	0.1421479956	0.1554791608	
593.75	-0.225355092	0.2820182993	
594.375	0.7186732067	0.4134237088	
595.0	0.2390935264	-0.1210013673	
595.625	0.184200511	0.5958027907	
596.25	0.830586844	-0.1577328811	
596.875	-0.1207635725	0.2430547101	
597.5	0.6891924339	0.489597672	
598.125	0.323032634	-0.06937004895	
598.75	0.2086867906	0.5524981322	
599.375	0.6990397324	-0.2218681775	
600.0	0.2072207133	-0.251671122	
600.625	0.5103870463	-0.2396993683	
601.25	0.1875827906	-0.6456737453	
601.875	-0.08082982046	-0.1754735915	
602.5	-0.3560936198	-0.1712216169	
603.125	-0.2318091833	0.1165433534	
603.75	-0.2687744479	0.191588187	
604.375	-0.2204169797	0.05806396036	
605.0	-0.303388094	0.2809652432	
605.625	0.05862713888	0.01417669862	
606.25	-0.6404650233	0.1417628937	
606.875	-0.09033393235	0.3980421596	
607.5	-0.6322539192	-0.06739795799	
608.125	0.06865802808	1.105077276	
608.75	0.08410856129	0.07060828758	
609.375	0.8241810761	0.2961787917	
610.0	0.2389656898	-0.6106534179	
610.625	0.4314740666	0.01533253133	
611.25	-0.1231610442	-0.6518790808	
611.875	-0.002635922949	-0.1053906029	
612.5	-0.6109734899	-0.4293090994	
613.125	-0.1512081675	0.2375412347	
613.75	-0.5059747525	0.2149857977	
614.375	0.3890084699	0.3041608215	
615.0	-0.3043376825	0.145968468	
615.625	0.3779095268	0.2328543663	
616.25	-0.3560182119	0.04901928824	
616.875	-0.327499216	0.7760151914	
617.5	0.1670087271	0.3151189081	
618.125	-0.4361146858	0.5463939238	
618.75	0.2907878968	0.5428721999	
619.375	-0.009519681321	0.2686920068	
620.0	0.6256805065	0.2373814643	
620.625	0.1593290151	-0.2767310083	
621.25	-0.1000016636	-0.5732701891	
621.875	-0.4402662243	-0.1063422705	
622.5	-0.5669834031	-0.1195509405	
623.125	0.04892732696	0.6322849917	
623.75	-0.0683772166	0.09276541485	
624.375	0.4174702416	-0.3720231137	
625.0	-0.101464948	0.2543889808	
625.625	0.402935813	-0.5196967745	
626.25	-0.3050762905	0.1191718816	
626.875	-0.1086680313	-0.6090800981	
627.5	-0.6315548064	0.05777724094	
628.125	0.02984185506	-0.03580200027	
628.75	-0.1275701423	-0.6074043806	
629.375	-0.3815541596	-0.1626028679	
630.0	-0.2343254068	-0.3577097391	
630.625	-0.7126054498	0.06727208248	
631.25	-0.2041966757	0.5208352475	
631.875	-0.2270216707	0.4157950609	
632.5	0.3719178468	0.618209394	
633.125	0.4911974276	0.09890923118	
633.75	0.3206151474	-0.08841621122	
634.375	0.3583769189	-0.3125731069	
635.0	-0.2758477636	-0.2929504051	
635.625	-0.04304570749	-0.3915040646	
636.25	-0.6528105619	0.2748436042	
636.875	0.178547164	0.2647651661	
637.5	-0.6039772998	-0.03087155376	
638.125	0.2928744813	0.4937545262	
638.75	-0.4566820209	-0.06367792366	
639.375	-0.07352274141	1.059117489	
640.0	0.5300149683	0.2579998605	
640.625	0.1052039487	0.5268729462	
641.25	1.035892043	0.06656667098	
641.875	0.08321534465	-0.5166283648	
642.5	0.3693378137	-0.2867509466	
643.125	-0.6827589236	-0.5903976551	
643.75	0.1201515275	0.1164451663	
644.375	-0.6796979674	-0.3206171711	
645.0	-0.2383190077	0.5883359587	
645.625	0.1075401154	0.2159719465	
646.25	0.1669646125	0.5915639211	
646.875	0.5199342536	-0.3710508983	
647.5	-0.2773674079	0.2651324026	
648.125	0.8601671877	0.1694788008	
648.75	0.0262711027	-0.4389419365	
649.375	1.158666538	0.02851254405	
650.0	0.2366027601	-1.446577518	
650.625	-0.1202661456	-0.06749334808	
651.25	1.295902389	-0.3756053232	
651.875	0.341179407	-1.199497717	
652.5	0.2020365435	0.3564225054	
653.125	1.223068073	-0.1693615224	
653.75	0.1234436682	-0.8480465252	
654.375	0.2287934864	-0.2475546376	
655.0	-1.021352083	-0.7786573818	
655.625	-0.1216180015	0.695938493	
656.25	-0.230482308	0.03316847452	
656.875	0.292156948	0.5919856534	
657.5	-0.0971960532	-0.2051662368	
658.125	0.3202334236	0.8492679784	
658.75	0.8328675463	-0.02175015752	
659.375	0.4975760228	-0.2882200858	
660.0	0.8860721834	-0.2697551321	
660.625	0.2698132679	-1.414056748	
661.25	-0.003485325122	-0.193638111	
661.875	1.089956643	-0.4454911657	
662.5	0.5811876509	-0.9850533856	
663.125	0.1567161487	0.02980800441	
663.75	0.9875090752	-0.9922478575	
664.375	-0.5208268208	-0.5325449616	
665.0	-0.1055149318	-0.6772775938	
665.625	-1.176910875	0.2230553383	
666.25	0.1379909849	0.5495088736	
666.875	-0.1177816296	0.5588688517	
667.5	0.7025585896	0.3550718554	
668.125	0.2457874897	-0.2288122886	
668.75	0.6801642655	0.04018681897	
669.375	0.1373719408	-0.8564247429	
670.0	0.0005726119353	-0.2683889073	
670.625	0.2290790183	-0.4766603511	
671.25	0.04453668684	-0.640113164	
671.875	0.1214310728	-0.1001633542	
672.5	0.830270646	-0.321896245	
673.125	0.3415652686	-0.669968781	
673.75	0.2207252997	-0.148050501	
674.375	0.6629105175	-0.8300814427	
675.0	-0.8359325386	-0.4620216608	
675.625	0.2871386551	-0.397425638	
676.25	-0.9584573832	-0.26158488	
676.875	-0.02592278407	0.4489242558	
677.5	-0.5351188567	-0.5290401308	
678.125	-0.2057624938	0.8471489232	
678.75	-0.08534935055	0.1679833553	
679.375	0.4530836483	0.6196566145	
680.0	0.490191788	-0.650114052	
680.625	-0.09957148911	0.2732720088	
681.25	0.5970962945	-0.1392222511	
681.875	0.2032591276	-0.1334264371	
682.5	0.2226236547	0.4188432628	
683.125	0.8407340373	0.3707340489	
683.75	0.6595213447	-0.1374789935	
684.375	0.2372314046	0.1985756694	
685.0	1.063169657	0.5899678729	
685.625	0.621280592	-0.8147480129	
686.25	0.4280862429	0.9657724906	
686.875	1.258196401	-1.205115789	
687.5	-0.01158131713	0.02550468371	
688.125	0.8546079027	-1.542842285	
688.75	-1.751077842	0.1534663911	
689.375	-0.5067337995	-0.3167542879	
690.0	0.292905373	1.670545052	
690.625	0.5263914291	0.1138665995	
691.25	0.4177556308	1.010881105	
691.875	1.439898296	0.6668635508	
692.5	1.10858445	0.4688029371	
693.125	1.649324582	0.1281647328	
693.75	1.376798949	-0.6565589528	
694.375	1.117265589	-0.7935226454	
695.0	1.003277598	-0.7982862382	
695.625	1.196388525	0.1797175899	
696.25	1.639763741	0.1045390145	
696.875	0.3532672375	0.7077244026	
697.5	1.272179413	2.03293747	
698.125	1.161793774	-0.2728574203	
698.75	1.714284744	-0.06837791848	
699.375	-1.603163962	-1.349173454	
700.0	0.008859398097	0.3038839873	
700.625	0.09793132295	1.607852429	
701.25	0.5389867972	-0.1100703642	
701.875	0.2307904145	1.053799879	
702.5	1.351904051	0.2622037923	
703.125	0.4612911526	0.5209444367	
703.75	1.385059384	-0.2556331955	
704.375	0.1510223066	-0.5755080013	
705.0	1.126519931	0.1382361083	
705.625	0.5718403792	-0.6327022084	
706.25	0.02467871484	0.704489618	
706.875	1.238751514	1.145248123	
707.5	0.3042030235	0.1764464808	
708.125	1.274868514	1.014306155	
708.75	0.6587323178	-1.269666423	
709.375	-0.1814456405	-0.5680572437	
710.0	-0.9163083588	0.5418101247	
710.625	0.3647558204	0.194842614	
711.25	0.08754779028	0.4925366165	
711.875	0.5190954118	0.208413098	
712.5	0.8318226927	0.04039810726	
713.125	0.5385787278	-0.4471129008	
713.75	0.5380238036	-0.358984972	
714.375	-0.07622284421	-0.9017412518	
715.0	-0.1166847773	0.0496878935	
715.625	0.5437138163	-1.123169644	
716.25	-0.4839127834	-0.6102270785	
716.875	1.150784736	0.4546731604	
717.5	2.487358944	-0.7043604768	
718.125	-0.3080115729	-0.4681352112	
718.75	3.90073391	1.217141707	
719.375	1.277279513	-2.62434598	
720.0	1.279138219	-0.1514762728	
720.625	2.025057479	-4.231826873	
721.25	-1.382303146	-2.009386324	
721.875	0.6710686284	-2.251725523	
722.5	-1.634186159	-2.661363993	
723.125	-2.091402407	0.1651178348	
723.75	-0.9572745489	0.4507054944	
724.375	-0.03621163127	1.661218895	
725.0	0.47854133	0.5186803265	
725.625	0.136536332	1.033470568	
726.25	0.02917739907	2.25875584	
726.875	1.206479251	2.025019178	
727.5	-2.356882821	2.189787676	
728.125	-0.5727823274	7.665544786	
728.75	3.059940531	5.244230733	
729.375	-9.289302422	2.731919194	
730.0	3.04837066	18.99873526	
730.625	2.1347338	0.7501155784	
731.25	-9.008634679	14.25340674	
731.875	-7.22028372	17.74006098	
732.5	-2.635485261	-3.015471594	
733.125	-10.60588438	-0.05769439929	
733.75	-1.536164197	3.821455594	
734.375	0.9801509483	0.5226849421	
735.0	1.361698724	-2.341517103	
735.625	-0.8448632685	1.29287251	
736.25	-0.9546895426	0.66321266	
736.875	1.224447942	2.071800017	
737.5	3.63294648	-0.5027578411	
738.125	0.9405804349	-0.3448248167	
738.75	8.803996729	-1.799606241	
739.375	5.903126673	-10.36291992	
740.0	-2.81628078	3.205052705	
740.625	24.38601008	7.575500307	
741.25	20.39931268	-7.257892779	
741.875	-14.86949968	-10.62413866	
742.5	-18.90335252	-9.443234247	
743.125	2.353026912	2.179580335	
743.75	3.209442308	-5.206268026	
744.375	-2.230534773	0.5705259882	
745.0	-0.1170778	-0.06823117858	
745.625	0.4359116918	-0.002716862714	
746.25	-0.08646495072	0.02543922171	
746.875	-1.324162818	-0.04837569007	
747.5	-0.2133482358	1.18701544	
748.125	0.481779356	1.197967203	
748.75	0.1300908023	1.290405615	
749.375	0.7776193078	2.289052248	
750.0	-0.6312607943	1.921654453	
