!Created with skrf (http://scikit-rf.org).
# GHz S RI R (50+0j) 
!freq	ReS11	ImS11	
500.0	-0.902258834	-1.446547043	
500.625	2.165568955	-3.137864011	
501.25	-1.041929443	-2.814187439	
501.875	-1.879354978	-0.5680706467	
502.5	0.07128736062	-0.1807852832	
503.125	-0.4388636976	0.05298089305	
503.75	0.211413032	-0.03815412385	
504.375	0.168116074	0.08167150475	
505.0	-0.1096510585	-0.09384496861	
505.625	0.2893463827	-0.2357961636	
506.25	-0.6254139239	0.1795925582	
506.875	0.06347060314	-0.8940471289	
507.5	-1.40527305	-1.983539013	
508.125	-1.084125311	-0.6960801689	
508.75	3.190480846	-2.290548977	
509.375	-2.87931053	-4.20528688	
510.0	-0.6412407122	-0.2328848982	
510.625	-0.8214528975	-1.000561914	
511.25	-0.09284816091	0.2017983804	
511.875	-0.5375722041	-0.2573335787	
512.5	-0.1153172257	0.1959019025	
513.125	-0.1178448043	-0.2430781163	
513.75	0.03268734456	-0.1861671036	
514.375	-0.6095156345	-0.40040044	
515.0	0.807009761	1.390735223	
515.625	-1.364561305	-3.496423347	
516.25	-0.3502845913	0.688240416	
516.875	0.04380515136	-2.719377281	
517.5	-1.087548206	-0.3349676627	
518.125	0.2695178233	-0.3780904624	
518.75	-0.8440685731	-0.3273926346	
519.375	-0.07492358588	-0.01692324995	
520.0	0.4499180519	0.3579716549	
520.625	0.4415659737	-0.3961838083	
521.25	0.1032227356	-0.4045433257	
521.875	-0.6807181493	-0.1990967501	
522.5	0.07713420616	0.07234543849	
523.125	-0.3715921833	0.2249437133	
523.75	-0.02838223809	-0.0433176252	
524.375	-0.776590422	0.2329009214	
525.0	0.1333267418	-0.004059004697	
525.625	-0.0710556464	0.3159267507	
526.25	0.03968613397	-0.3134078858	
526.875	-0.1768435592	0.4015317831	
527.5	0.1079156893	0.2345335081	
528.125	-0.2953154087	0.986502051	
528.75	0.5484334284	0.8951892765	
529.375	-0.168300646	0.1648161812	
530.0	0.4435005697	0.3282085711	
530.625	-0.2302730284	1.007621703	
531.25	1.672106973	-0.3794258632	
531.875	0.3381102482	0.05116853979	
532.5	-0.2939839435	-0.8340425753	
533.125	0.4411613536	0.52449604	
533.75	-0.0007180041405	-1.049125819	
534.375	0.020632395	-0.2509937523	
535.0	-1.053609376	-0.6938393111	
535.625	-0.04279075877	0.434332184	
536.25	-0.1268397433	0.1954160373	
536.875	0.3723516381	0.07490929668	
537.5	0.04015940615	-0.1248998328	
538.125	0.4894155461	-0.05345776027	
538.75	0.1516744194	-0.4330756466	
539.375	0.009122416616	-0.3583324357	
540.0	-0.5905507965	-0.5270089092	
540.625	-0.259363464	0.1429959661	
541.25	-0.1983495423	-0.09237328389	
541.875	-0.1720247771	-0.07709669963	
542.5	-0.1583135289	0.01199671268	
543.125	-0.05141643693	-0.2588361618	
543.75	-0.4435407136	0.1293020352	
544.375	0.03225145907	-0.1145394177	
545.0	-0.01987764658	0.356683578	
545.625	0.03526467678	-0.1071771345	
546.25	0.3433522111	0.400231793	
546.875	0.1397633025	-0.3392604704	
547.5	0.297314422	-0.0485684285	
548.125	-0.07711125318	-0.6370539955	
548.75	-0.4156813612	-0.1172384657	
549.375	-0.06723089448	-0.2050664137	
550.0	-0.3558054401	0.01803002218	
550.625	0.02899253704	-0.01433497618	
551.25	-0.3462987894	0.1012346225	
551.875	-0.03412901322	0.1378021459	
552.5	-0.2376767184	0.1811678202	
553.125	0.01650797003	0.184291429	
553.75	0.08016331829	0.1167756872	
554.375	0.2556189882	0.02954394386	
555.0	0.2442599643	-0.1883660897	
555.625	0.206788089	-0.2422340031	
556.25	0.190182297	-0.3520197302	
556.875	-0.09590636206	-0.4080981137	
557.5	-0.2319758354	-0.2546260912	
558.125	-0.2785138596	-0.1241411779	
558.75	-0.282225256	-0.0002388632951	
559.375	-0.226898463	0.04268852144	
560.0	-0.2817364798	0.1430599036	
560.625	-0.1063362749	0.3252519041	
561.25	0.04443918265	0.1562956411	
561.875	0.02132261206	0.2029299406	
562.5	0.07434726747	0.01489744097	
563.125	0.1270047726	0.3118012067	
563.75	0.3573865295	-0.1393128616	
564.375	0.2643974572	-0.03787651845	
565.0	0.2789687196	-0.4992989866	
565.625	-0.191051687	-0.2695340427	
566.25	-0.1212554578	-0.2825027729	
566.875	-0.4306418929	-0.3040588461	
567.5	-0.3745465189	-0.06825263728	
568.125	-0.1197514733	-0.4969681028	
568.75	-0.78171146	-0.2199149483	
569.375	-0.3191826972	0.22929972	
570.0	-0.6286766014	0.3708631956	
570.625	0.07030890352	0.6627690689	
571.25	-0.1201762498	-0.04930101079	
571.875	0.3415769298	0.537768872	
572.5	-0.040988412	-0.1925538983	
573.125	0.538771361	-0.05426041947	
573.75	0.008358710242	-0.5727881579	
574.375	-0.06101066728	0.153484192	
575.0	0.2857234052	-0.3652808669	
575.625	-0.1614065482	0.07478693409	
576.25	0.4522725418	-0.2616915648	
576.875	-0.2177478276	-0.5416627045	
577.5	-0.07814022376	-0.09094098326	
578.125	0.1464126127	-0.4599263686	
578.75	-0.3989142602	-0.4499753921	
579.375	-0.1564881548	0.06691538567	
580.0	-0.01472230215	-0.3308646923	
580.625	-0.2117415112	0.1936308845	
581.25	-0.2831244344	-0.1516388432	
581.875	0.0008547040134	0.6754767197	
582.5	0.3993935026	0.1300618557	
583.125	-0.2528621386	0.1008893714	
583.75	0.5576577865	0.3259493865	
584.375	-0.3453324056	-0.1210416365	
585.0	0.5392367266	0.4371201994	
585.625	0.2553631289	-0.3171019581	
586.25	0.3695124037	0.2415327004	
586.875	0.1791433095	-0.6673798227	
587.5	0.009253543783	-0.01539856369	
588.125	0.1927407346	-0.5321699821	
588.75	-0.162243117	-0.5036266599	
589.375	0.1237259051	0.003869334111	
590.0	0.03256756234	-0.6852042387	
590.625	-0.5326804925	-0.02155260511	
591.25	-0.1621266586	0.2050749512	
591.875	-0.3009952226	0.1935303868	
592.5	0.2235135485	0.2264204504	
593.125	-0.2910561109	0.1590447669	
593.75	0.2485564276	0.2089166908	
594.375	0.1122179836	0.2286202047	
595.0	0.5300228397	0.5985465986	
595.625	0.6222696772	-0.2228583837	
596.25	-0.03629481596	0.3995732914	
596.875	0.7962274501	0.1993882405	
597.5	0.1794922788	-0.1109274647	
598.125	0.2478123695	0.6065298587	
598.75	0.5733074043	-0.01387391944	
599.375	0.3006956102	0.1667040186	
600.0	0.6731068557	-0.4553394154	
600.625	0.1117661086	-0.4624997808	
601.25	0.3045349689	-0.2350915502	
601.875	-0.1628363244	-0.5305331236	
602.5	-0.2493592343	0.04322991335	
603.125	-0.2516805822	0.1009079723	
603.75	-0.2741650185	0.03977927363	
604.375	-0.3450390538	0.3351134558	
605.0	0.004957060118	-0.02344963217	
605.625	-0.4309606306	0.2578398243	
606.25	0.01629442	0.1502926996	
606.875	-0.7026718686	-0.106958067	
607.5	-0.16167662	0.8180317025	
608.125	-0.2601290716	0.1617293765	
608.75	0.5872522209	0.9072627881	
609.375	0.2337625424	-0.3780426368	
610.0	0.654457744	0.0548742518	
610.625	0.115925729	-0.6412576786	
611.25	0.1289634404	-0.02636269381	
611.875	-0.4071176055	-0.5755041947	
612.5	-0.1129400089	-0.01795614042	
613.125	-0.6289185512	-0.1357280295	
613.75	-0.001650855235	0.5231984895	
614.375	-0.2938696303	0.245072707	
615.0	0.4242271671	0.05367112465	
615.625	-0.3733327854	0.1189196024	
616.25	0.1118148951	0.688517922	
616.875	-0.1636917969	0.01954021388	
617.5	-0.4389129335	0.7699861189	
618.125	0.2875297574	0.4840214282	
618.75	-0.2639471088	0.3004594317	
619.375	0.398602884	0.5359355659	
620.0	0.2543770318	0.08512944674	
620.625	0.437975726	-0.4081973162	
621.25	-0.1902474132	-0.2950127091	
621.875	-0.5319361466	-0.428872126	
622.5	-0.3982459191	0.2663816041	
623.125	-0.2714354143	0.2982516771	
623.75	0.5399081602	0.134612387	
624.375	-0.1729864133	0.07681930758	
625.0	0.319776122	-0.4402172154	
625.625	-0.004019313008	0.2016796576	
626.25	0.1067431106	-0.6619860177	
626.875	-0.5706121993	0.0115901199	
627.5	0.01261275276	-0.1577551285	
628.125	-0.4888295976	-0.3517346921	
628.75	-0.1345496188	-0.05950510161	
629.375	-0.0688960459	-0.5539328683	
630.0	-0.6392367094	-0.1427769623	
630.625	-0.2997280985	-0.05949671034	
631.25	-0.5781982773	0.4519055333	
631.875	0.04088388607	0.6629426853	
632.5	0.286838075	0.4068311937	
633.125	0.3487626577	0.1853277221	
633.75	0.640827413	-0.07979659461	
634.375	-0.07922987434	-0.2628177449	
635.0	0.257513347	-0.361662217	
635.625	-0.6035381096	-0.1821965365	
636.25	-0.06752852451	-0.1156826265	
636.875	-0.4556254046	0.5232086103	
637.5	0.2553835423	0.1455659438	
638.125	-0.5565286572	-0.03479063364	
638.75	0.06058381328	0.8591751884	
639.375	-0.01138443865	0.03558018195	
640.0	0.01234676319	0.8807197662	
640.625	0.8796699423	0.3496418873	
641.25	0.3409409542	-0.1165454226	
641.875	0.9019067658	-0.227687008	
642.5	-0.3724369835	-0.4572470481	
643.125	0.1436911861	-0.2798269387	
643.75	-0.6868105074	-0.3973729375	
644.375	-0.07651062977	0.3212750452	
645.0	-0.5988143811	-0.04068453137	
645.625	0.1466566925	0.8151986072	
646.25	0.5460138659	-0.0488640672	
646.875	-0.1704489704	0.1402423446	
647.5	0.7064497746	-0.07438371853	
648.125	-0.1979706598	0.4099773106	
648.75	1.159606732	-0.181850352	
649.375	0.01002124931	-0.7732888849	
650.0	0.6628605371	0.0446494596	
650.625	0.7962483485	-1.453655207	
651.25	-0.3682722311	-0.5121975331	
651.875	0.8316831063	0.346011747	
652.5	1.1384136	-0.6188393834	
653.125	0.1445116989	-0.4019060812	
653.75	1.009957169	-0.2124595544	
654.375	-0.4747797892	-0.9212640634	
655.0	-0.1802096484	-0.07409008819	
655.625	-0.9772489078	0.1158306879	
656.25	0.5743523835	0.6639403133	
656.875	-0.282458445	-0.09793109866	
657.5	0.2278584389	0.5461422692	
658.125	0.4402199806	0.1393917644	
658.75	0.2361485956	0.3326706909	
659.375	1.312909015	-0.3026068874	
660.0	0.1209180582	-0.7806797396	
660.625	0.5309544214	-0.3918740492	
661.25	0.7435144256	-1.142431243	
661.875	-0.1730693326	-0.4978706857	
662.5	1.042009656	0.06630502588	
663.125	0.8240901112	-0.9790062241	
663.75	-0.03530610864	-0.3607329274	
664.375	0.4721180689	-0.9185807693	
665.0	-1.059317787	-0.3698830321	
665.625	-0.3814963559	-0.101086309	
666.25	-0.5993476143	0.8219114547	
666.875	0.5587934936	0.3431831987	
667.5	0.004232019947	0.3719207573	
668.125	0.8694336266	-0.006735948853	
668.75	0.2395154544	-0.476257888	
669.375	0.2902140503	-0.2372936582	
670.0	0.2157850625	-0.7229314143	
670.625	-0.2802606996	-0.3889253639	
671.25	0.3556492599	-0.2834705662	
671.875	0.3648887864	-0.5919379124	
672.5	0.1815976928	-0.3330739626	
673.125	0.8262114002	-0.1340136067	
673.75	0.3206831636	-0.9506900194	
674.375	-0.1116530987	-0.1719272344	
675.0	0.3179425371	-0.7932149517	
675.625	-0.9799330407	-0.4448742175	
676.25	0.1845499848	0.1587974407	
676.875	-0.9056890326	-0.3476068101	
677.5	0.029719202	0.3883834052	
678.125	-0.7194336307	-0.1384550886	
678.75	0.4820037094	0.9839032061	
679.375	0.02896646377	-0.02182911044	
680.0	0.5294521929	0.1128106132	
680.625	0.3918289122	-0.5173835523	
681.25	-0.271603605	-0.02175682306	
681.875	0.5261330593	0.485685345	
682.5	0.6564841331	0.05182236471	
683.125	0.4881098033	0.02689880313	
683.75	0.38225299	0.5110916135	
684.375	1.089897664	-0.1510217063	
685.0	0.1515405807	0.1604913937	
685.625	1.036117969	0.2971172376	
686.25	0.6262863601	-0.7059571433	
686.875	0.4796028543	0.6580547272	
687.5	1.41334913	-1.580833694	
688.125	-0.6932486602	-0.1689818286	
688.75	-0.5128760055	-1.339433199	
689.375	-0.8994506086	1.327845309	
690.0	0.1300874543	0.2041025446	
690.625	0.763734556	1.31914595	
691.25	0.5647843485	0.1588740603	
691.875	0.7962627857	1.185567731	
692.5	1.819984575	0.4203169887	
693.125	1.157557355	-0.03104882643	
693.75	1.565289227	-0.4250925652	
694.375	0.9446685973	-0.9131474986	
695.0	1.399618597	-0.5661848131	
695.625	0.9826367195	-0.595172099	
696.25	0.7362696725	1.024075215	
696.875	1.870494445	0.9862413964	
697.5	0.2341688124	0.5912230903	
698.125	1.835689844	1.484282764	
698.75	0.4750131958	-1.520224524	
699.375	0.194623758	-1.24895083	
700.0	-1.127821565	1.430720604	
700.625	0.3428726062	0.04696458855	
701.25	0.638974719	1.260410301	
701.875	0.597393029	0.008619666265	
702.5	0.5150844512	1.03225283	
703.125	1.434194626	0.07055763156	
703.75	0.3907605603	0.1623753652	
704.375	1.176953271	-0.6350469729	
705.0	0.09746824099	-0.4626159386	
705.625	0.8800740932	0.7178322398	
706.25	0.9837349033	-0.2589475157	
706.875	-0.07474122195	0.7652259321	
707.5	1.044472139	1.437144038	
708.125	0.7436487065	-0.1780304303	
708.75	1.293686818	-0.4550807634	
709.375	-1.095300897	-0.8444752174	
710.0	-0.2519595041	0.2048983453	
710.625	0.04121221107	0.6564648326	
711.25	0.2659861116	0.08241415787	
711.875	0.4433552987	0.4517101466	
712.5	0.7236761402	-0.1005942939	
713.125	0.9094675789	-0.2675926315	
713.75	0.04975413691	-0.7993945868	
714.375	0.4215411827	-0.1944125948	
715.0	-0.3487104917	-0.8937086186	
715.625	-0.02429008911	0.02110614279	
716.25	1.133658065	-0.8729552613	
716.875	-0.05607069536	-1.096164812	
717.5	1.153687347	1.260996543	
718.125	3.130800722	-0.1957564537	
718.75	0.1857765866	-1.397486674	
719.375	3.443682596	1.152361306	
720.0	0.8100006579	-3.885213597	
720.625	0.6536095215	-1.276009108	
721.25	0.9559450033	-2.845338846	
721.875	-1.838858067	-2.476153307	
722.5	-0.1846461262	-2.014668903	
723.125	-2.586929502	-0.5765032422	
723.75	-0.65168952	1.321395968	
724.375	-0.2616338737	0.772875451	
725.0	0.1816088483	1.31184632	
725.625	1.096328195	1.150970347	
726.25	-0.02029254677	0.6865553854	
726.875	-1.218867291	2.901785066	
727.5	1.752467665	5.0112042	
728.125	-1.285569903	0.7568504427	
728.75	-1.753066336	10.4482643	
729.375	4.356523498	9.103470012	
730.0	-8.563139987	6.033933689	
730.625	7.385860317	20.10602415	
731.25	0.7954348842	-1.655557392	
731.875	-14.45029137	6.296116002	
732.5	-12.46257554	5.006545676	
733.125	-3.871373734	3.349133783	
733.75	-4.455914602	0.7149789839	
734.375	3.322014927	0.9508996313	
735.0	-0.0409215311	-0.8556297123	
735.625	-1.758402292	-0.7475580903	
736.25	1.197927178	1.361882529	
736.875	-0.3855622365	1.49133086	
737.5	3.726440074	1.169769377	
738.125	4.325262107	-2.512288904	
738.75	0.1995511335	-4.181475787	
739.375	10.43146856	7.154500418	
740.0	15.74284665	-20.45004609	
740.625	-8.494877762	-2.310369673	
741.25	-4.212531759	17.393004	
741.875	7.163612191	8.607413782	
742.5	-2.977790187	-18.97784165	
743.125	-6.439717918	-5.326083572	
743.75	-1.01950686	0.7684793205	
744.375	-0.6845468668	-2.070714826	
745.0	0.5991623743	0.8443893762	
745.625	-0.0373993041	0.3588004803	
746.25	0.07117844068	-0.5318722143	
746.875	-0.5075084581	0.06642924527	
747.5	-0.5467065657	0.664235134	
748.125	0.5019280662	1.894175756	
748.75	0.6174216179	0.6468082921	
749.375	-0.4862867153	2.298449197	
750.0	1.095848615	4.181144691	
