!Created with skrf (http://scikit-rf.org).
# GHz S RI R (50+0j) 
!freq	ReS11	ImS11	
500.0	1.129096464	-3.158514188	
500.625	-0.2969562503	-4.944107099	
501.25	-0.7065000516	-1.299152513	
501.875	-1.518492324	-1.57063634	
502.5	-0.4280954152	-0.2633174717	
503.125	-0.1175346107	-0.05957140942	
503.75	0.1003026347	0.477734106	
504.375	-0.06484411428	-0.05114556819	
505.0	0.2389875047	-0.1060009802	
505.625	-0.2230035117	-0.03135525649	
506.25	0.2597659815	-0.4788059679	
506.875	-0.34491192	1.018835952	
507.5	0.9551029231	-1.075276225	
508.125	0.1323533494	-3.235202718	
508.75	-0.7995920121	-2.37410518	
509.375	1.634189774	-4.271865826	
510.0	-2.848792574	-0.5883826224	
510.625	-0.2071160931	-0.1503679076	
511.25	-0.6077765693	-0.1559195592	
511.875	-0.3872023056	0.01947753879	
512.5	-0.08012563756	0.1187567703	
513.125	0.09444353449	-0.3606590082	
513.75	-0.4542154699	-0.1480274164	
514.375	0.143403517	-0.08925940185	
515.0	-1.00656057	-0.6582761312	
515.625	2.157145685	0.1538665711	
516.25	-3.220981244	-4.93086827	
516.875	-0.7427336892	0.8102722072	
517.5	0.51117425	-0.9367804833	
518.125	-0.3496113452	0.3173679559	
518.75	0.3060446414	-0.8014222039	
519.375	-0.1636011106	0.2838316731	
520.0	0.2155678096	0.02826647594	
520.625	0.6660678599	-0.002628693093	
521.25	-0.3523440511	-0.8598324831	
521.875	-0.1485860948	-0.03983617713	
522.5	-0.270373993	0.1171680911	
523.125	-0.06044598101	-0.1607952501	
523.75	-0.4367302934	0.1219145415	
524.375	-0.1627076842	-0.1102606433	
525.0	-0.2301401199	0.6469851707	
525.625	0.1461978991	-0.1902120881	
526.25	0.02012025868	0.1792408527	
526.875	-0.1622571838	-0.09223981364	
527.5	-0.246645763	0.9547467798	
528.125	0.3949753164	0.3564512332	
528.75	-0.4068292513	0.7617246101	
529.375	0.3906709384	0.1155974996	
530.0	-0.3956844822	0.7063285741	
530.625	0.7323922912	0.6542949077	
531.25	0.792361907	0.66496515	
531.875	0.6815462678	-1.04047291	
532.5	0.1209543601	0.06274295431	
533.125	-0.354634928	-0.723344511	
533.75	0.8196616035	-0.01227909282	
534.375	-0.8998793794	-1.054534732	
535.0	-0.2510705685	-0.0380116681	
535.625	-0.7534350812	0.1920630096	
536.25	0.167897274	0.2429493236	
536.875	0.1234346536	0.176458632	
537.5	0.2636811413	-0.1858254358	
538.125	0.09340424936	-0.1426852829	
538.75	0.538771062	-0.1796044677	
539.375	-0.3708804028	-0.3917408685	
540.0	-0.2112108308	-0.286303245	
540.625	-0.4680467998	-0.1575797378	
541.25	-0.2102678636	0.1046388819	
541.875	-0.04526320797	-0.05223517457	
542.5	-0.1723962688	-0.1923009544	
543.125	-0.19560727	0.02984718551	
543.75	-0.1517493633	-0.1762035148	
544.375	-0.1343539286	0.2876490308	
545.0	-0.06937055014	-0.07886308513	
545.625	0.3019782601	0.3692254968	
546.25	0.07558910915	-0.1615037857	
546.875	0.4190653586	0.2348471888	
547.5	-0.02016976232	-0.5134720851	
548.125	0.07355306721	-0.2012042225	
548.75	-0.3117193519	-0.4906707007	
549.375	-0.3896075305	-0.02920715148	
550.0	-0.04432710131	-0.09635261719	
550.625	-0.2641410302	0.1135919203	
551.25	-0.05735299349	-0.01522784993	
551.875	-0.3093810483	0.1916449259	
552.5	-0.008402450057	0.2090802068	
553.125	-0.09955856903	0.1394222123	
553.75	0.1445092927	0.1225727392	
554.375	0.2060490971	0.005459513441	
555.0	0.2615902405	-0.1516339693	
555.625	0.2074763072	-0.2732177636	
556.25	0.1564677316	-0.3414783602	
556.875	-0.06524463647	-0.3960988047	
557.5	-0.2396538762	-0.2681246373	
558.125	-0.2777361102	-0.08747814155	
558.75	-0.2407803517	-0.03167756448	
559.375	-0.2999081337	0.04799892874	
560.0	-0.1791902521	0.1846661057	
560.625	-0.177300147	0.2191055197	
561.25	0.05635731343	0.3144887491	
561.875	0.04573020346	0.005574817181	
562.5	0.02249395055	0.2509042015	
563.125	0.1491975516	0.02881938818	
563.75	0.3202249747	0.1644774778	
564.375	0.3508076641	-0.3763771832	
565.0	0.0698524232	-0.2085013111	
565.625	0.05205702743	-0.4703922737	
566.25	-0.3851672383	-0.1832514467	
566.875	-0.1789316298	-0.1667115791	
567.5	-0.3947662247	-0.4104663571	
568.125	-0.4670752388	-0.2368189352	
568.75	-0.3066372958	-0.32785464	
569.375	-0.8293454355	0.2769930818	
570.0	-0.01969586989	0.501603462	
570.625	-0.375399529	0.1369552902	
571.25	0.1466041044	0.6644861051	
571.875	-0.1977312765	-0.03737209509	
572.5	0.6493862836	0.1060717587	
573.125	-0.1585987449	-0.3587239679	
573.75	0.3435918374	0.03293717104	
574.375	0.02641861607	-0.5259729595	
575.0	-0.06336929129	0.1945222687	
575.625	0.3209764901	-0.3809556672	
576.25	-0.2164650934	-0.291344582	
576.875	0.3064221303	-0.1635423629	
577.5	-0.04240555996	-0.6736736781	
578.125	-0.2708590876	-0.1875399366	
578.75	0.04852895168	-0.2732335182	
579.375	-0.323683225	-0.3694088504	
580.0	-0.12867715	0.1979766235	
580.625	-0.1469175927	-0.3506612714	
581.25	-0.2718029911	0.4487906308	
581.875	0.06390539203	0.02271222904	
582.5	-0.2410422809	0.539317857	
583.125	0.6495248002	0.1855576262	
583.75	-0.3627999718	-0.007200024182	
584.375	0.5433114442	0.2785518968	
585.0	-0.2049933754	-0.04674344673	
585.625	0.652282952	0.3086832552	
586.25	0.2641440146	-0.4642229957	
586.875	0.1446567445	0.002418300335	
587.5	0.104461756	-0.5983379227	
588.125	-0.3307744915	-0.2110804557	
588.75	0.3840369523	-0.1621630854	
589.375	0.1936178796	-0.6392679007	
590.0	-0.119603297	-0.1321844073	
590.625	-0.4023263575	-0.3554794186	
591.25	-0.3581347604	0.4318458252	
591.875	0.02014211061	0.1544495405	
592.5	-0.163680248	0.1118545316	
593.125	0.1332469165	0.1365922352	
593.75	-0.2031310023	0.2992800019	
594.375	0.6914216845	0.3545702	
595.0	0.2349005037	-0.09053831628	
595.625	0.2056043068	0.5722606904	
596.25	0.8110474165	-0.1765656589	
596.875	-0.1201996641	0.2012016154	
597.5	0.6709632374	0.4847755879	
598.125	0.3594654638	-0.07250573749	
598.75	0.1958157153	0.496641779	
599.375	0.6960834005	-0.2144636342	
600.0	0.190632978	-0.2573142755	
600.625	0.4934160481	-0.2538802352	
601.25	0.1347387513	-0.6464246709	
601.875	-0.09930538055	-0.1430087038	
602.5	-0.3663257299	-0.1953702451	
603.125	-0.2113531771	0.1617953129	
603.75	-0.255969772	0.176221109	
604.375	-0.2214529131	0.07413779837	
605.0	-0.2937298864	0.2890296955	
605.625	0.08989101443	0.01773141012	
606.25	-0.6279017286	0.1271990075	
606.875	-0.07970243254	0.4239018977	
607.5	-0.5687770628	-0.04653095718	
608.125	0.10049652	1.087303416	
608.75	0.08509407867	0.06056674892	
609.375	0.7998560804	0.2977634393	
610.0	0.2202631195	-0.6353488968	
610.625	0.4204777346	0.01813853828	
611.25	-0.1022728807	-0.6575797987	
611.875	-0.03562100759	-0.09007552083	
612.5	-0.539308726	-0.396918248	
613.125	-0.2259824174	0.2669084164	
613.75	-0.4579650316	0.1888466646	
614.375	0.3749243982	0.2932596737	
615.0	-0.2519452679	0.09423343368	
615.625	0.34960888	0.2639025197	
616.25	-0.3399916292	0.04588427428	
616.875	-0.3143107691	0.7543640996	
617.5	0.1891009045	0.317221053	
618.125	-0.4317790454	0.5302414451	
618.75	0.2857729678	0.5356296675	
619.375	0.01829608353	0.2530879689	
620.0	0.6205523827	0.2198247577	
620.625	0.1333418323	-0.2817334202	
621.25	-0.09849343614	-0.5561932641	
621.875	-0.4447715619	-0.09540562394	
622.5	-0.5128877797	-0.07779837522	
623.125	0.02815944446	0.6138724531	
623.75	-0.02733199355	0.08679289696	
624.375	0.3796505276	-0.3467124302	
625.0	-0.1123360673	0.2117384942	
625.625	0.3984255659	-0.4910945076	
626.25	-0.3242026587	0.1136552257	
626.875	-0.07576639342	-0.56630417	
627.5	-0.6305886136	0.03759380514	
628.125	0.01023146291	-0.01046171936	
628.75	-0.1163645982	-0.5863777198	
629.375	-0.3849649183	-0.1534311306	
630.0	-0.2355576893	-0.3463443977	
630.625	-0.7005193104	0.1074098421	
631.25	-0.1638677432	0.521207755	
631.875	-0.2314348404	0.4112552038	
632.5	0.4170220718	0.6027900685	
633.125	0.4613401047	0.07052963136	
633.75	0.3293970361	-0.1009291701	
634.375	0.3266415442	-0.31140625	
635.0	-0.288113184	-0.2979463451	
635.625	-0.04498878891	-0.3481774653	
636.25	-0.6495958189	0.2674906784	
636.875	0.1874713687	0.2726780487	
637.5	-0.5571862778	-0.05252379034	
638.125	0.3078110596	0.4870328507	
638.75	-0.4372232336	-0.05969245288	
639.375	-0.03713705291	1.063889728	
640.0	0.540229203	0.192452105	
640.625	0.1230368466	0.5661581522	
641.25	1.030838545	-0.008394411176	
641.875	0.05926357301	-0.5133364738	
642.5	0.3286114536	-0.276747416	
643.125	-0.65227466	-0.5959122618	
643.75	0.07147678523	0.1703057027	
644.375	-0.6550742776	-0.3055209191	
645.0	-0.2082110573	0.5952331494	
645.625	0.09299253308	0.1961317326	
646.25	0.2679001101	0.5714250753	
646.875	0.4076313653	-0.3821551095	
647.5	-0.2011951564	0.2852772222	
648.125	0.8195380932	0.1068794278	
648.75	0.03600582346	-0.4264634083	
649.375	1.104294218	0.02562549768	
650.0	0.2614410885	-1.466139181	
650.625	-0.1841928626	-0.1197675912	
651.25	1.233498911	-0.3271631167	
651.875	0.3648710354	-1.200905495	
652.5	0.1869258808	0.3233353041	
653.125	1.221372218	-0.2293465496	
653.75	0.0225064369	-0.7790289253	
654.375	0.2603403124	-0.3079523703	
655.0	-1.083784033	-0.6800302026	
655.625	-0.07695861331	0.6770564718	
656.25	-0.2135089311	0.03252258492	
656.875	0.2792248163	0.5755410083	
657.5	-0.03492698372	-0.2031163687	
658.125	0.2740067019	0.8216026505	
658.75	0.8501799908	-0.03751305078	
659.375	0.4837332405	-0.3063955682	
660.0	0.8416450387	-0.3041566873	
660.625	0.2045866418	-1.359158041	
661.25	0.0396492358	-0.1804486688	
661.875	1.02514243	-0.4935411622	
662.5	0.5364007183	-0.9841871238	
663.125	0.1515404876	0.01248219257	
663.75	0.9478166518	-1.013561817	
664.375	-0.5606101521	-0.5266301515	
665.0	-0.1305111412	-0.628742672	
665.625	-1.143966808	0.2259705729	
666.25	0.1606552773	0.5712590665	
666.875	-0.09794304665	0.5404205182	
667.5	0.7070444959	0.3120107706	
668.125	0.2266515695	-0.2293646116	
668.75	0.6937882752	0.01477532401	
669.375	0.06133188561	-0.8496390297	
670.0	0.02397682481	-0.2478728101	
670.625	0.2165431461	-0.5024920121	
671.25	0.01130861943	-0.6140701812	
671.875	0.1070347805	-0.111273121	
672.5	0.8185726757	-0.3079883336	
673.125	0.3291987834	-0.696905953	
673.75	0.1845217866	-0.1677758034	
674.375	0.623628745	-0.8037608468	
675.0	-0.8439555588	-0.4291706144	
675.625	0.2540418275	-0.3933923092	
676.25	-0.9638535012	-0.1978950275	
676.875	0.02836838382	0.455887209	
677.5	-0.6093126257	-0.528126946	
678.125	-0.1305342388	0.8607772199	
678.75	-0.07977454333	0.1612061216	
679.375	0.4400137792	0.5728462732	
680.0	0.5236405924	-0.6284692562	
680.625	-0.1919918907	0.2117705334	
681.25	0.6058231965	-0.1157437048	
681.875	0.2047044835	-0.1541546706	
682.5	0.2195614997	0.4249038613	
683.125	0.8674174327	0.2674371552	
683.75	0.5132414605	-0.1048236946	
684.375	0.3732670902	0.1925980738	
685.0	1.010893591	0.4608900207	
685.625	0.5606622144	-0.7847381422	
686.25	0.4425842619	0.8739831689	
686.875	1.217149905	-1.252107885	
687.5	-0.07748075468	-0.03749592592	
688.125	0.7555243574	-1.489264224	
688.75	-1.782944046	0.1228521855	
689.375	-0.4830433021	-0.2859367405	
690.0	0.318495022	1.657064921	
690.625	0.5303190304	0.02062558286	
691.25	0.4014452908	1.079218502	
691.875	1.487312025	0.5202040035	
692.5	1.067641625	0.4144682043	
693.125	1.641610984	0.1125361192	
693.75	1.3459024	-0.7001954024	
694.375	1.020397434	-0.7994184565	
695.0	0.9400060031	-0.8423340926	
695.625	1.141128434	0.1298855746	
696.25	1.626357447	0.08242316889	
696.875	0.3893581337	0.6307512881	
697.5	1.257620171	1.893865225	
698.125	1.238289964	-0.3566268981	
698.75	1.603142517	-0.156745981	
699.375	-1.625000877	-1.307592769	
700.0	0.03234139078	0.266141185	
700.625	0.06307860174	1.559084319	
701.25	0.6184835887	-0.1362115275	
701.875	0.1891273732	0.9726165545	
702.5	1.359489691	0.2204358013	
703.125	0.4533833821	0.4094408979	
703.75	1.362600772	-0.2333866492	
704.375	0.1307443682	-0.6175605815	
705.0	1.000036289	0.1548931299	
705.625	0.5355703763	-0.6498144929	
706.25	0.03289800569	0.6431199054	
706.875	1.23291955	1.124969276	
707.5	0.3560586179	0.09849840298	
708.125	1.33179108	0.8912228488	
708.75	0.5397428405	-1.395837025	
709.375	-0.1979858619	-0.5002203334	
710.0	-0.8730852713	0.5809509356	
710.625	0.3893035512	0.1812343313	
711.25	0.0988297054	0.4731774896	
711.875	0.5263398053	0.175661009	
712.5	0.7928314268	0.04274949391	
713.125	0.5200006218	-0.4438424011	
713.75	0.4324903265	-0.4070670993	
714.375	-0.04888819808	-0.8468830763	
715.0	-0.1196731339	0.002663957307	
715.625	0.4829384189	-1.051055628	
716.25	-0.4587120357	-0.5844362934	
716.875	1.083251199	0.4356377678	
717.5	2.459411292	-0.6908381881	
718.125	-0.2572598571	-0.6950661747	
718.75	3.668399493	1.160110243	
719.375	1.074158075	-2.832161838	
720.0	1.067094293	-0.3837060865	
720.625	1.621885261	-4.169389335	
721.25	-1.42020538	-1.689472868	
721.875	0.513768558	-2.591567221	
722.5	-1.949881762	-2.393264566	
723.125	-1.960024117	0.3221984078	
723.75	-0.9970230704	0.4403138614	
724.375	0.07939123345	1.648769739	
725.0	0.5274551013	0.5567333213	
725.625	0.1032250786	0.9000026914	
726.25	-0.1263171574	2.196069098	
726.875	1.278093699	2.161718799	
727.5	-1.996482192	1.876861171	
728.125	0.2813482549	8.01503991	
728.75	3.489143007	4.571410429	
729.375	-9.031637985	2.751197251	
730.0	6.559892298	19.61587568	
730.625	1.648010113	0.3812017246	
731.25	-12.42374015	8.902695092	
731.875	-1.909398761	17.58907557	
732.5	-2.597111993	-2.850550377	
733.125	-10.28567828	0.3793175003	
733.75	-1.326131331	3.830716258	
734.375	1.154117379	0.3049388983	
735.0	1.220880551	-2.234270394	
735.625	-0.75965918	1.346438039	
736.25	-0.9379764766	0.728418265	
736.875	1.360573996	2.013315348	
737.5	3.084031169	-0.6295192648	
738.125	1.328302094	0.1500766054	
738.75	8.807483775	-2.450792428	
739.375	4.276561564	-10.53761012	
740.0	-2.62439499	2.923623304	
740.625	24.34203726	20.15346513	
741.25	13.10456365	-6.400766642	
741.875	-6.004381618	-22.89297156	
742.5	-19.13108944	-2.642074678	
743.125	0.373472828	2.563605597	
743.75	1.955736976	-5.529128372	
744.375	-1.985005177	1.023642061	
745.0	-0.2048441399	-0.1737047305	
745.625	0.4691194069	-0.03986035251	
746.25	-0.06323889681	0.02529054365	
746.875	-0.5985502091	-0.1268316143	
747.5	-0.06114559039	1.002801085	
748.125	0.5985528583	0.8742412557	
748.75	0.1863368351	1.438508314	
749.375	0.7808008901	1.571548069	
750.0	-0.4929871611	0.008795933291	
