!Created with skrf (http://scikit-rf.org).
# GHz S RI R (50+0j) 
!freq	ReS11	ImS11	
500.0	0.65674704	-0.1196355622	
500.625	0.5521455878	-1.159859488	
501.25	-0.264065691	-0.2731043278	
501.875	-0.006639313867	-0.5117104127	
502.5	-0.1054734146	-0.08632180722	
503.125	-0.03003008751	-0.005228273579	
503.75	-0.01174101624	0.1033296314	
504.375	0.01372685439	-0.02290327303	
505.0	0.04646508409	-0.004032795445	
505.625	-0.03507945687	-0.06989394906	
506.25	0.01995684118	0.009486788599	
506.875	-0.3142298275	-0.06455057045	
507.5	-0.03828464945	-0.01610714622	
508.125	0.6782162076	-0.4798049602	
508.75	0.7554544265	-0.9594831264	
509.375	0.1296682469	-0.6149952914	
510.0	0.01031358624	-0.5074095509	
510.625	-0.2423249487	-0.2630671344	
511.25	0.006982533916	-0.08469738236	
511.875	-0.1489789676	-0.08119447352	
512.5	0.0004933142131	0.0314636542	
513.125	0.03733327666	-0.02734564929	
513.75	-0.07150913534	-0.06661632396	
514.375	0.05685772697	-0.04035030016	
515.0	-0.0746909393	-0.2018905412	
515.625	0.007641487477	0.05604331449	
516.25	0.306059969	-0.6825571037	
516.875	-0.1387111438	-0.2968458108	
517.5	-0.02263429326	-0.02083891916	
518.125	0.00595206495	-0.1140773971	
518.75	-0.04891508902	-0.01313779909	
519.375	-0.05825881664	-0.00559829887	
520.0	0.1092664033	0.09901039658	
520.625	0.1076263294	-0.05831995762	
521.25	0.1244809283	-0.1272882727	
521.875	-0.1812206776	-0.1451453131	
522.5	0.01098128291	0.06425430711	
523.125	-0.1484235808	-0.071959529	
523.75	-0.1206124625	0.07544269538	
524.375	-0.089811257	-0.1595026155	
525.0	-0.1278750408	0.1960517786	
525.625	0.08896306613	0.01415526933	
526.25	-0.06057768892	0.01909678648	
526.875	-0.01644873606	0.01799090651	
527.5	-0.1755113672	0.068851927	
528.125	-0.06493820706	0.3738603164	
528.75	0.03378458213	0.1178855564	
529.375	-0.04876798342	0.005274770467	
530.0	0.1378385319	0.1230588008	
530.625	-0.1971276903	0.1952595696	
531.25	0.3572683574	0.4280793851	
531.875	0.115167199	-0.1572978536	
532.5	0.1255629847	-0.09748146732	
533.125	-0.05774328525	-0.1157011518	
533.75	0.2213106583	-0.002181701256	
534.375	-0.03843533713	-0.3509538186	
535.0	-0.1218823475	-0.0791598457	
535.625	-0.1912952847	-0.03357204108	
536.25	-0.02926586281	0.104178721	
536.875	0.03651180409	0.02405127491	
537.5	0.09825021552	0.02299379405	
538.125	0.1079850304	-0.04301749941	
538.75	0.1171799265	-0.001900362594	
539.375	0.02877930825	-0.2068271756	
540.0	-0.1270419271	-0.1295284791	
540.625	-0.05607616119	-0.07963324832	
541.25	-0.09926843359	-0.09670665153	
541.875	-0.01808824276	0.03207728626	
542.5	-0.008954473577	-0.1253325786	
543.125	-0.1011988307	-0.01200287554	
543.75	0.003466187533	-0.05142920539	
544.375	-0.1004116437	0.05007853909	
545.0	0.01414762487	0.006833668835	
545.625	-0.01027697763	0.1139971711	
546.25	0.1070155343	0.02749752956	
546.875	0.03899912875	0.0365164321	
547.5	0.1488348995	-0.09138173028	
548.125	-0.02013246745	-0.1318360558	
548.75	-0.01364143014	-0.1125103093	
549.375	-0.07060038159	-0.1376126504	
550.0	-0.06120915482	0.01660343216	
550.625	-0.04762933705	-0.0514830843	
551.25	-0.07315701712	0.02785180689	
551.875	-0.04992095616	0.0002913367239	
552.5	-0.08503701656	0.06402781543	
553.125	-0.01659446615	0.03967330353	
553.75	0.007284502138	0.06454220323	
554.375	0.08398308394	0.02254609607	
555.0	0.09909307534	-0.01147295078	
555.625	0.117325048	-0.04916197621	
556.25	0.1119236783	-0.08165131564	
556.875	0.0459286939	-0.1341095039	
557.5	-0.0274552112	-0.1246880316	
558.125	-0.07468585547	-0.08413880195	
558.75	-0.08406561187	-0.04643671244	
559.375	-0.08920700277	-0.03971597327	
560.0	-0.1161984507	0.02157833404	
560.625	-0.07215135809	0.06728370839	
561.25	-0.05347495437	0.07000016851	
561.875	0.01926292023	0.07306874906	
562.5	-0.02339805279	0.01594906211	
563.125	0.04549555197	0.1135390375	
563.75	0.09766234252	0.01501281182	
564.375	0.1409856627	0.02012004974	
565.0	0.1203937427	-0.133737938	
565.625	0.009390017865	-0.09669635648	
566.25	-0.01459462599	-0.1653550628	
566.875	-0.1671175685	-0.07807736598	
567.5	-0.004067163941	-0.1056957255	
568.125	-0.03413987288	-0.239734653	
568.75	-0.16244667	-0.1049165748	
569.375	-0.1601431041	-0.0877232685	
570.0	-0.2371542849	0.1324955822	
570.625	-0.05212688736	0.1162965363	
571.25	-0.09904951659	0.04053623138	
571.875	0.08125957124	0.1139443372	
572.5	0.01733203703	0.03628121909	
573.125	0.1906712886	-0.03598856354	
573.75	0.04048489444	-0.1331070499	
574.375	0.00851979357	0.03654489021	
575.0	0.1087305369	-0.08173771814	
575.625	0.005857106547	0.02207209947	
576.25	0.1576931358	-0.05723881418	
576.875	-0.016885045	-0.1565786011	
577.5	0.04617021132	-0.0287628818	
578.125	0.114183093	-0.1753267876	
578.75	-0.1046461129	-0.1515765301	
579.375	0.06672689184	0.00141796436	
580.0	-0.03247947608	-0.1452568265	
580.625	-0.04024121511	0.03442614524	
581.25	-0.1226373541	-0.08326332071	
581.875	-0.03703947838	0.214836989	
582.5	0.04805442737	0.07207627795	
583.125	-0.06224690729	0.0922798164	
583.75	0.1113605728	0.06927506763	
584.375	-0.0855908318	0.01882360925	
585.0	0.1259415738	0.1364090541	
585.625	0.1019979314	-0.01689037105	
586.25	0.09397005414	0.07644427366	
586.875	0.1996542651	-0.1304678405	
587.5	-0.02918805752	-0.07120554444	
588.125	0.1201877794	-0.1040346417	
588.75	0.06703340659	-0.1875872851	
589.375	0.03358804117	0.004503216956	
590.0	0.1139217065	-0.2535546062	
590.625	-0.1791281689	-0.04767422743	
591.25	-0.07611728852	-0.01460654368	
591.875	-0.1561218583	0.07530748783	
592.5	0.08767478422	0.02023634543	
593.125	-0.1322760272	0.007331272642	
593.75	0.05929114019	0.1132066453	
594.375	0.007942502866	0.1000512999	
595.0	0.04929396218	0.228147759	
595.625	0.1575111317	0.09776307982	
596.25	0.007019319027	0.099152252	
596.875	0.1440467179	0.1583065923	
597.5	0.09580388108	0.08966656674	
598.125	-0.0137331229	0.159850207	
598.75	0.169568861	0.1771915885	
599.375	0.1097380157	-0.009616228726	
600.0	0.2012280681	0.01860906983	
600.625	0.2137299567	-0.145349935	
601.25	0.03490780047	-0.1074845931	
601.875	0.08528713889	-0.161977772	
602.5	-0.1505994407	-0.004293995604	
603.125	-0.02477310511	0.003803503507	
603.75	-0.1638288404	-0.04501193219	
604.375	-0.1069497372	0.1005120557	
605.0	-0.1409138076	0.01008198607	
605.625	-0.1488089537	0.03171146425	
606.25	-0.03920795727	0.04861327756	
606.875	-0.1557162	-0.1004110172	
607.5	-0.256869769	0.1221870796	
608.125	-0.06691019045	0.1467292473	
608.75	-0.01405402544	0.2425763133	
609.375	0.2809374452	0.04526067106	
610.0	0.07835984969	-0.08587269219	
610.625	0.2095908276	-0.02959036091	
611.25	0.0006000787467	-0.2000854416	
611.875	0.03146147666	-0.046131384	
612.5	-0.1562021546	-0.2101986158	
613.125	-0.1386126971	0.04509405508	
613.75	-0.09301342146	-0.02686112464	
614.375	-0.05501586619	0.1887345747	
615.0	0.08592954713	-0.02393433265	
615.625	-0.005507871258	0.06925234644	
616.25	-0.09164069176	0.1213939433	
616.875	-0.08060110095	0.03576260035	
617.5	-0.2229087689	0.1138395019	
618.125	-0.09486291153	0.2566253299	
618.75	-0.01303576586	0.069850614	
619.375	-0.04499566454	0.2495651921	
620.0	0.2013021335	0.05405126078	
620.625	0.1155980713	-0.008512871214	
621.25	0.009511895827	-0.263770657	
621.875	-0.1828217206	-0.06309615956	
622.5	-0.1258653096	-0.08257597285	
623.125	-0.143530472	0.1690505862	
623.75	0.1334207131	0.02223572614	
624.375	0.02179762667	0.04832388327	
625.0	0.05420741808	-0.08883001664	
625.625	0.04897224108	-0.06094185698	
626.25	0.04295165873	-0.1633427242	
626.875	-0.1431585761	-0.08501817193	
627.5	-0.03492117994	-0.06943973073	
628.125	-0.005183467829	-0.1398343348	
628.75	-0.05102702797	-0.1044280256	
629.375	0.07612558143	-0.1253805957	
630.0	-0.1086479188	-0.2243919614	
630.625	-0.2139179362	0.07144930996	
631.25	-0.1839961074	-0.02085431801	
631.875	-0.1339472274	0.2464643061	
632.5	0.08843494283	0.1615526129	
633.125	0.06986475953	0.1459575102	
633.75	0.2443093066	-0.01243232123	
634.375	0.02915438775	-0.05309925221	
635.0	0.1162546741	-0.1272491021	
635.625	-0.1475668485	-0.1347462967	
636.25	-0.08689343913	0.04124257019	
636.875	-0.1685047764	0.01810895593	
637.5	-0.01549221848	0.1251704132	
638.125	-0.07896773343	-0.03186101092	
638.75	-0.1909383591	0.1014102768	
639.375	-0.01337055437	0.1807841344	
640.0	-0.09317580838	0.2208578052	
640.625	0.16121821	0.2932523002	
641.25	0.2223210386	-0.001386630703	
641.875	0.1721594504	0.01938996997	
642.5	0.08431211106	-0.3038877431	
643.125	-0.109528458	-0.02331605045	
643.75	0.05025306506	-0.2233983352	
644.375	-0.2588266085	-0.006422978442	
645.0	-0.05316175209	0.0133924511	
645.625	-0.1876055516	0.2337708581	
646.25	0.2377689672	0.1092984055	
646.875	-0.02599831689	-0.004396197527	
647.5	0.1047462706	0.1397229377	
648.125	0.06131174487	-0.02019159358	
648.75	0.2111185189	0.2345867404	
649.375	0.3799736469	-0.1840640717	
650.0	0.1342593881	-0.1339983444	
650.625	0.307220789	-0.04586864423	
651.25	0.3199915789	-0.2413471276	
651.875	0.01146708005	-0.1531173591	
652.5	0.2944418491	0.1829814709	
653.125	0.2974844944	-0.1411131332	
653.75	0.1070569389	-0.05684829997	
654.375	0.1647652436	-0.3527385732	
655.0	-0.3153589418	-0.08091985809	
655.625	-0.07273805619	0.04070776795	
656.25	-0.1601457154	0.1806694683	
656.875	0.2321182464	0.05075579017	
657.5	-0.1983359728	0.08966998951	
658.125	0.1091069774	0.2582530055	
658.75	0.1598569373	0.1048190729	
659.375	0.2109215713	0.1923014442	
660.0	0.4317507344	-0.1684285592	
660.625	0.1276675875	-0.1657720737	
661.25	0.29908705	-0.04888569453	
661.875	0.3357373853	-0.1733539828	
662.5	0.1756357613	-0.1092111803	
663.125	0.3277566851	0.04972064323	
663.75	0.2532453594	-0.2837617192	
664.375	-0.0006923231357	-0.1636912061	
665.0	-0.04653937601	-0.346608798	
665.625	-0.3926327935	0.03559288315	
666.25	-0.06972090925	0.09273231926	
666.875	-0.06780541005	0.2617612821	
667.5	0.1949336333	0.1152357801	
668.125	0.0621137508	0.07925992674	
668.75	0.318276219	0.01536454004	
669.375	0.05894493004	-0.1371638159	
670.0	0.1279993767	-0.08356619698	
670.625	0.1650142049	-0.1919741427	
671.25	0.02338354981	-0.1482745871	
671.875	0.2526501988	0.04733485448	
672.5	0.2914225799	-0.08502142394	
673.125	0.1622266983	-0.0746123055	
673.75	0.2223549564	-0.012982055	
674.375	0.1786808979	-0.2974427629	
675.0	-0.05670289864	-0.1209623198	
675.625	-0.03417141757	-0.2235181595	
676.25	-0.2672967456	-0.07481331896	
676.875	-0.000977408665	0.05978948546	
677.5	-0.1904933899	-0.1382418969	
678.125	-0.1431108315	0.1799848207	
678.75	-0.06645515549	0.05246755465	
679.375	0.1793893289	0.372877893	
680.0	0.1672838613	-0.1784799737	
680.625	-0.02477306168	0.0603002832	
681.25	0.1968538077	0.0537237418	
681.875	0.05626383152	0.002756748908	
682.5	-0.01970023753	0.2462817585	
683.125	0.275489343	0.2194086656	
683.75	0.1141785419	0.01574059921	
684.375	0.1195640951	0.253518679	
685.0	0.3715293269	0.1286734079	
685.625	0.1090529773	-0.04467953308	
686.25	0.3225228512	0.2160715273	
686.875	0.3132171921	-0.2515473802	
687.5	0.09674447728	-0.07992355775	
688.125	0.2981480993	-0.4359821453	
688.75	-0.4369485117	-0.2559379179	
689.375	-0.1704367517	0.02350807977	
690.0	-0.1998194942	0.4765594514	
690.625	0.2259562223	0.2568782507	
691.25	-0.04667805692	0.2639497205	
691.875	0.2522592687	0.6237989089	
692.5	0.3247361838	0.3187357151	
693.125	0.5117248325	0.4190012873	
693.75	0.5906265212	0.143751714	
694.375	0.4308133746	-0.2780833702	
695.0	0.3782667574	0.08700334296	
695.625	0.5339240541	0.09078215384	
696.25	0.3799558006	0.08457463181	
696.875	0.1003645483	0.3940439812	
697.5	0.4064860034	0.6003512826	
698.125	0.3647881697	0.07344083191	
698.75	0.5169403285	-0.08308539192	
699.375	-0.2660305299	-0.5323995803	
700.0	-0.2207779186	0.2687005313	
700.625	-0.2055003231	0.3459745346	
701.25	0.22976223	0.3247643117	
701.875	0.02318753642	0.1598134168	
702.5	-0.01251333705	0.4392926135	
703.125	0.2744615462	0.3249701244	
703.75	0.3119272683	0.1652538528	
704.375	0.3329294039	0.1187548629	
705.0	0.2967400008	-0.1067266234	
705.625	0.1145638238	0.03756036701	
706.25	-0.003528915592	0.2280976125	
706.875	0.2908532778	0.3192490865	
707.5	0.05983917548	0.2729264175	
708.125	0.3892250954	0.2715788062	
708.75	0.2695955444	-0.4248332573	
709.375	-0.05185488206	-0.1539773284	
710.0	-0.363581372	0.1373655612	
710.625	0.1214291326	0.1169404501	
711.25	-0.07462164928	0.1390319231	
711.875	0.171742929	0.234430396	
712.5	0.1348843062	0.02939205251	
713.125	0.2656587638	0.1583154851	
713.75	0.2666301448	-0.1185778902	
714.375	0.06298594369	-0.1472590675	
715.0	0.1865005132	-0.1060246735	
715.625	0.05781813474	-0.2528361574	
716.25	0.1128961277	-0.05600382253	
716.875	0.2304195059	0.1815645768	
717.5	0.5420364306	0.03098154669	
718.125	0.2374599525	0.1668830428	
718.75	0.7577560997	0.2362668771	
719.375	0.6150816198	-0.5752678829	
720.0	0.2451197996	-0.04218888823	
720.625	0.7287735476	-1.058907516	
721.25	-0.180015467	-0.7352899645	
721.875	0.6767609647	-0.5588083735	
722.5	0.03498911325	-1.075622824	
723.125	-0.4768035785	-0.4100840639	
723.75	-0.3482124699	-0.1697811591	
724.375	-0.3934019634	0.4238496915	
725.0	0.04592534201	0.232399503	
725.625	-0.2322972835	0.3485930116	
726.25	-0.2466108437	0.6786939289	
726.875	-0.1352501341	0.5334843941	
727.5	-0.6094932172	0.4820797694	
728.125	-0.5401163683	1.840991325	
728.75	0.258768637	1.444738957	
729.375	-1.232242288	1.740136171	
730.0	-0.125210442	5.111674505	
730.625	1.251506767	1.325304878	
731.25	-2.636453807	2.285563649	
731.875	-3.15883428	3.112065536	
732.5	-1.393355826	-0.03847919033	
733.125	-2.493388502	-2.263415565	
733.75	-1.429815698	0.7042331106	
734.375	0.2021184812	0.4795095848	
735.0	0.6123923084	-0.04618955586	
735.625	-0.5930848946	-0.1288169729	
736.25	-0.253291091	0.02674176791	
736.875	-0.2377596978	0.7115133107	
737.5	0.8176528364	0.6472516887	
738.125	0.4347394963	0.07922245146	
738.75	2.169252526	0.305529185	
739.375	1.999919901	-1.787582707	
740.0	0.4118345973	-0.1573808963	
740.625	2.299877306	4.109336051	
741.25	5.30927934	0.734709587	
741.875	-1.387163321	-3.040709022	
742.5	-1.358129922	-3.523669659	
743.125	-0.9360457795	-0.7357705461	
743.75	1.122098514	-0.01946378519	
744.375	-0.4944883533	-0.4681414242	
745.0	0.07809107989	0.05134437067	
745.625	0.09098641348	0.1310099757	
746.25	-0.008184323832	-0.113386583	
746.875	-0.05266603558	-0.1518658311	
747.5	-0.3141381142	0.1401426727	
748.125	-0.07555876346	0.3598676919	
748.75	-0.004188950448	0.2926728992	
749.375	-0.05014427222	0.4387825505	
750.0	-0.189899696	0.2282092405	
