!Created with skrf (http://scikit-rf.org).
# GHz S RI R (50+0j) 
!freq	ReS11	ImS11	
500.0	0.1906082952	-0.8148132182	
500.625	0.2744795145	-0.7462091451	
501.25	-0.2494366842	-0.5918182262	
501.875	-0.1883674693	-0.4052299624	
502.5	-0.02679148187	-0.1000708506	
503.125	-0.06210431231	0.001232246571	
503.75	0.007733811441	0.0711941055	
504.375	0.02200206955	-0.004218528434	
505.0	0.01839087781	-0.01812160669	
505.625	8.87678315e-05	-0.04227082283	
506.25	-0.05416934904	-0.04855229365	
506.875	-0.1016366048	0.005988884911	
507.5	-0.06962141497	-0.2962186277	
508.125	0.1463156664	-0.5263542052	
508.75	0.4979985753	-0.8066379407	
509.375	-0.07259485027	-1.050601892	
510.0	-0.259537338	-0.2790233445	
510.625	-0.06874594434	-0.1875699554	
511.25	-0.112283595	-0.0524089959	
511.875	-0.09631264084	-0.05139405935	
512.5	-0.01972394987	0.03808411498	
513.125	-0.01048951453	-0.0455398776	
513.75	-0.04847020236	-0.03551183952	
514.375	-0.04043181348	-0.01783849081	
515.0	-0.002088269238	-0.02011042848	
515.625	0.04204602605	-0.273823498	
516.25	-0.09161941895	-0.5145977105	
516.875	-0.1849090823	-0.3233466752	
517.5	-0.03083375213	-0.1238914312	
518.125	-0.0212714284	-0.02652091002	
518.75	-0.04325228895	-0.1039960992	
519.375	-0.0458651572	0.03002250471	
520.0	0.0915070565	0.04937798741	
520.625	0.1334772423	-0.0444772453	
521.25	-0.01049693673	-0.2169860264	
521.875	-0.1234132028	-0.02393452935	
522.5	-0.04039529835	0.02040569446	
523.125	-0.05154708448	0.02310433448	
523.75	-0.0941679809	-0.0127232512	
524.375	-0.1354062919	0.02431057981	
525.0	-0.03891957043	0.116838333	
525.625	0.02892978483	0.03903749374	
526.25	-0.01204731868	-0.01105854953	
526.875	-0.04438737044	0.0446979636	
527.5	-0.03856268242	0.1574973942	
528.125	0.04711536056	0.215845856	
528.75	0.02862302902	0.1851202872	
529.375	0.03658226936	0.04914719297	
530.0	0.01546047996	0.1331326371	
530.625	0.07508604188	0.2501859053	
531.25	0.339875692	0.1029283078	
531.875	0.1977645251	-0.1413724908	
532.5	-0.03983927875	-0.09338461352	
533.125	0.04538079912	-0.04282034938	
533.75	0.09528678089	-0.1452972299	
534.375	-0.05901312298	-0.2373880408	
535.0	-0.2039199973	-0.09298161871	
535.625	-0.1442959511	0.08650551737	
536.25	-0.002452117322	0.08282080827	
536.875	0.08063641229	0.01484121175	
537.5	0.05759422646	-0.03663280681	
538.125	0.0987333847	-0.0516878587	
538.75	0.1102405546	-0.1047049111	
539.375	-0.06502500396	-0.1451493199	
540.0	-0.1413804079	-0.1298730897	
540.625	-0.1436599417	-0.02455245508	
541.25	-0.07673226467	0.001966523775	
541.875	-0.03857708527	-0.02009778587	
542.5	-0.03988864525	-0.04846977769	
543.125	-0.06889390672	-0.04026640964	
543.75	-0.0748429486	-0.006023016793	
544.375	-0.04110821004	0.0373167237	
545.0	-0.004731834461	0.05231811768	
545.625	0.0456641927	0.05757040983	
546.25	0.08451028171	0.03462117329	
546.875	0.1052165837	-0.02173672224	
547.5	0.06274226822	-0.1081673111	
548.125	-0.0368882584	-0.1430050623	
548.75	-0.1078263109	-0.1030633002	
549.375	-0.09893058356	-0.06231563085	
550.0	-0.06807192135	0.00493120275	
550.625	-0.04798408363	0.005989268	
551.25	-0.06913699083	0.02235226428	
551.875	-0.06718692752	0.05871732702	
552.5	-0.04170987692	0.06594057859	
553.125	-0.01451238697	0.05650299999	
553.75	0.04058287316	0.04410527086	
554.375	0.08532854498	0.0008008971897	
555.0	0.09134452953	-0.06235237678	
555.625	0.07994217701	-0.09615837567	
556.25	0.06115469694	-0.126499414	
556.875	-0.02968616679	-0.1453376605	
557.5	-0.08823900149	-0.09516328734	
558.125	-0.1068217151	-0.03857700538	
558.75	-0.1010188846	-0.003313300952	
559.375	-0.1026235763	0.01808209494	
560.0	-0.08854911086	0.06962327471	
560.625	-0.0508075473	0.1013009962	
561.25	0.005002935517	0.09074289312	
561.875	0.02653417946	0.04127867024	
562.5	0.008235673531	0.0486257533	
563.125	0.06320564612	0.06812485447	
563.75	0.1291968866	0.005601432817	
564.375	0.1198681476	-0.08636234959	
565.0	0.06920759814	-0.1342173647	
565.625	-0.02686618387	-0.1435850066	
566.25	-0.1030826462	-0.09961607059	
566.875	-0.1247807785	-0.07148062747	
567.5	-0.124489709	-0.09807028573	
568.125	-0.1283266053	-0.1397029024	
568.75	-0.2011064328	-0.07257502028	
569.375	-0.2109298897	0.08326388807	
570.0	-0.1100694422	0.1778253154	
570.625	-0.0505311634	0.1555143137	
571.25	0.002371768103	0.1041258818	
571.875	0.05071333327	0.06755188909	
572.5	0.1132484092	0.0008829366935	
573.125	0.08117480855	-0.09888909095	
573.75	0.03881310939	-0.1003105296	
574.375	0.01141796574	-0.0624729327	
575.0	0.02565826411	-0.0344532308	
575.625	0.03548703527	-0.06438664481	
576.25	0.04132049133	-0.09952387234	
576.875	-0.002169465312	-0.1290672798	
577.5	-0.001197798291	-0.1432289038	
578.125	-0.03960612561	-0.1427351368	
578.75	-0.07580847381	-0.1113175955	
579.375	-0.07727027154	-0.0599869827	
580.0	-0.04659464427	-0.02884854275	
580.625	-0.06265139595	-0.02756540943	
581.25	-0.09481977639	0.06522392234	
581.875	0.002561498739	0.1408557383	
582.5	0.04953928114	0.1259616124	
583.125	0.06841282886	0.06993061023	
583.75	0.0351861333	0.01931469634	
584.375	0.03088587584	0.05259904271	
585.0	0.09783682256	0.05548879176	
585.625	0.1403225237	0.00342863468	
586.25	0.1371364976	-0.0538451424	
586.875	0.07044225404	-0.1184048996	
587.5	-0.007179594396	-0.1269819867	
588.125	-0.01463999006	-0.12552095	
588.75	0.02923477684	-0.1295147253	
589.375	0.05740721516	-0.1384315389	
590.0	-0.04731600166	-0.157796759	
590.625	-0.1636480426	-0.04441189337	
591.25	-0.1197345114	0.09559511702	
591.875	-0.03167970958	0.1068133642	
592.5	0.007016755541	0.0445026934	
593.125	-0.02714202743	0.0447224647	
593.75	0.04704759576	0.1076137685	
594.375	0.1338365627	0.09002776169	
595.0	0.151518979	0.08718410607	
595.625	0.151642279	0.06876345866	
596.25	0.1423207888	0.03598642702	
596.875	0.1404329464	0.0325765157	
597.5	0.1316128215	0.07398085734	
598.125	0.1315123968	0.102482128	
598.75	0.1583371481	0.07838038348	
599.375	0.190760038	-0.02719725355	
600.0	0.1503512658	-0.1276648745	
600.625	0.1234811568	-0.1587021365	
601.25	0.056529851	-0.1709682081	
601.875	-0.068039476	-0.127914859	
602.5	-0.1153232053	-0.01842128848	
603.125	-0.09977198992	0.04003756735	
603.75	-0.09689063307	0.06203432768	
604.375	-0.08931973036	0.06604628873	
605.0	-0.06340768744	0.06828940313	
605.625	-0.06490774094	0.05423092985	
606.25	-0.1009404423	0.05585729882	
606.875	-0.1531476474	0.07668769968	
607.5	-0.1508418314	0.1614975272	
608.125	-0.03154879456	0.222036254	
608.75	0.1593095803	0.1592250445	
609.375	0.2135208707	-0.02266404075	
610.0	0.1533224193	-0.1063961335	
610.625	0.07939735292	-0.1424497439	
611.25	0.007792139559	-0.1444819101	
611.875	-0.0773564898	-0.1142034955	
612.5	-0.1470817909	-0.06142125767	
613.125	-0.1736003913	0.02935322559	
613.75	-0.08358911755	0.131084282	
614.375	0.04110017251	0.09952676427	
615.0	0.03574584275	0.03988487202	
615.625	-0.001494333733	0.07675115733	
616.25	-0.03811073336	0.1306873906	
616.875	-0.07338370873	0.1690495686	
617.5	-0.0610316284	0.199694871	
618.125	-0.01866365379	0.1940916921	
618.75	0.01755866592	0.1730486954	
619.375	0.07980040371	0.1510226384	
620.0	0.1704978515	0.04959152374	
620.625	0.1071022919	-0.1385499108	
621.25	-0.07414197076	-0.1715193373	
621.875	-0.1837327131	-0.08367214827	
622.5	-0.1974021415	0.04950812295	
623.125	-0.04131941782	0.1691702118	
623.75	0.1185619374	0.04327579993	
624.375	0.03797186828	-0.04702841554	
625.0	0.0383253005	-0.0235884779	
625.625	0.04843201322	-0.08021494094	
626.25	-0.04086353386	-0.1268130023	
626.875	-0.1252318802	-0.07956325946	
627.5	-0.1337069811	-0.03821783431	
628.125	-0.101455491	-0.06264896653	
628.75	-0.0666232667	-0.1123772752	
629.375	-0.08226527797	-0.1401549712	
630.0	-0.1689756615	-0.09533553551	
630.625	-0.2056751913	0.05197391898	
631.25	-0.1368650121	0.173958324	
631.875	-0.02837790124	0.2239676978	
632.5	0.124584222	0.1840590929	
633.125	0.1912242246	0.05594150638	
633.75	0.1569649624	-0.05548766915	
634.375	0.06450489907	-0.1216335459	
635.0	-0.00542358517	-0.1375393115	
635.625	-0.1282607399	-0.08949533653	
636.25	-0.1465359487	0.05953866599	
636.875	-0.06302631133	0.1143359979	
637.5	-0.03534589442	0.08148041104	
638.125	-0.06292906494	0.07897029882	
638.75	-0.06986940903	0.1493786839	
639.375	-0.007765137127	0.2272511969	
640.0	0.1204285368	0.2253261429	
640.625	0.213524581	0.1417870541	
641.25	0.253158636	0.00704356576	
641.875	0.1661168431	-0.1602817207	
642.5	0.003484406242	-0.1963343663	
643.125	-0.1049561712	-0.1165927415	
643.75	-0.1191209753	-0.07342779818	
644.375	-0.1620957611	-0.006939037458	
645.0	-0.1393948465	0.1361448818	
645.625	0.04407517305	0.1986587596	
646.25	0.15040694	0.07363434508	
646.875	0.09068341142	-0.01410309054	
647.5	0.04968591923	0.03211116107	
648.125	0.1431982716	0.05221125664	
648.75	0.2397399498	-0.05618349449	
649.375	0.2077464431	-0.2159695077	
650.0	0.1494603305	-0.271324613	
650.625	0.140409357	-0.2559030358	
651.25	0.1813877985	-0.2095899027	
651.875	0.2295578657	-0.1454702054	
652.5	0.2524833935	-0.08006947085	
653.125	0.2499020031	-0.08694514739	
653.75	0.1929276362	-0.1943755877	
654.375	-0.02655662773	-0.2821057616	
655.0	-0.2522544413	-0.110336711	
655.625	-0.1745739078	0.1545257557	
656.25	0.01871017146	0.1617413544	
656.875	0.0439426676	0.06486440377	
657.5	0.02705714156	0.09655074598	
658.125	0.1247034224	0.1523265031	
658.75	0.2632364408	0.08178049723	
659.375	0.2991341888	-0.1183245607	
660.0	0.2107133917	-0.2606058239	
660.625	0.1309471647	-0.2962971862	
661.25	0.1477980364	-0.2630162814	
661.875	0.1969953955	-0.2230872601	
662.5	0.2398102786	-0.1757481974	
663.125	0.2432559514	-0.1662483379	
663.75	0.1579648041	-0.248834204	
664.375	-0.01885902822	-0.3022884328	
665.0	-0.2313182607	-0.2053059971	
665.625	-0.2928742144	0.0627628396	
666.25	-0.1076379222	0.2409725865	
666.875	0.09463478199	0.1956755497	
667.5	0.1638887818	0.09461822995	
668.125	0.2000073795	-0.002534581974	
668.75	0.1795816151	-0.1207437321	
669.375	0.09506655109	-0.1988997876	
670.0	0.01136162183	-0.2013987227	
670.625	0.008455536012	-0.1739167914	
671.25	0.05513792801	-0.1596748124	
671.875	0.125255875	-0.1517478339	
672.5	0.1862323261	-0.1310667978	
673.125	0.1943863472	-0.1499668696	
673.75	0.1555413512	-0.1913467608	
674.375	0.06203567544	-0.233858276	
675.0	-0.06601866309	-0.2231089484	
675.625	-0.1640940301	-0.1298316638	
676.25	-0.1634022852	-0.03485740097	
676.875	-0.1339517704	-0.003071486954	
677.5	-0.1395735464	0.01354948583	
678.125	-0.1381668172	0.1175100882	
678.75	0.01216653883	0.2072315022	
679.375	0.1837659006	0.08292921124	
680.0	0.1385141072	-0.07463705074	
680.625	0.06403227544	-0.06967873748	
681.25	0.08330152357	-0.01126417803	
681.875	0.1382350315	0.04509340214	
682.5	0.1832950014	0.08294984298	
683.125	0.2185326343	0.07542164225	
683.75	0.2371741858	0.06957803085	
684.375	0.2485207108	0.0475052609	
685.0	0.2547864372	0.04524360783	
685.625	0.263456516	0.01589410412	
686.25	0.2724154305	-0.02028854055	
686.875	0.2846987758	-0.1123937068	
687.5	0.2547149375	-0.2458268348	
688.125	0.01557026771	-0.3967839109	
688.75	-0.35584668	-0.2106040537	
689.375	-0.2885835522	0.258095683	
690.0	0.0659627999	0.3270337145	
690.625	0.2020941771	0.237018569	
691.25	0.2797762067	0.2523763072	
691.875	0.4060188259	0.2843930537	
692.5	0.5417314597	0.1969874783	
693.125	0.5986352571	-0.01406071639	
693.75	0.5317241409	-0.2129285941	
694.375	0.3955795241	-0.3466263508	
695.0	0.4079030092	-0.2526167642	
695.625	0.454237193	-0.06979134668	
696.25	0.4370763852	0.1629665062	
696.875	0.3407180816	0.3624354069	
697.5	0.3182989192	0.4236910749	
698.125	0.4848601101	0.2532168687	
698.75	0.4393060654	-0.3120849188	
699.375	-0.2919998014	-0.3957820245	
700.0	-0.2851589538	0.2704758276	
700.625	0.1010272933	0.2731360312	
701.25	0.1950653339	0.1697816494	
701.875	0.2310200437	0.209354968	
702.5	0.307455935	0.2145138517	
703.125	0.3737518367	0.1083735921	
703.75	0.3475434319	-0.08659914803	
704.375	0.2499924723	-0.1698322757	
705.0	0.2145275125	-0.1219509951	
705.625	0.2326045889	0.00126183688	
706.25	0.2233269953	0.1602063414	
706.875	0.1976017494	0.2646132068	
707.5	0.219726767	0.3197032558	
708.125	0.3789311167	0.1570996778	
708.75	0.2970111998	-0.2674391464	
709.375	-0.1956954903	-0.2842356463	
710.0	-0.1898571758	0.1602280466	
710.625	0.04251089426	0.1394942214	
711.25	0.07269927424	0.1104500361	
711.875	0.1789491139	0.1133837537	
712.5	0.2761287942	-0.009395821811	
713.125	0.2383042067	-0.1481720402	
713.75	0.1256385086	-0.2183184131	
714.375	0.01533002647	-0.2119638773	
715.0	-0.02099388647	-0.181243599	
715.625	0.01425315255	-0.191234672	
716.25	0.1328976806	-0.2095944546	
716.875	0.2891661334	-0.1563092362	
717.5	0.439173893	-0.02052115209	
718.125	0.5618352703	0.06685840439	
718.75	0.6575548148	-0.05311037982	
719.375	0.6641588136	-0.3017016908	
720.0	0.4724657922	-0.6503326426	
720.625	0.2633771408	-0.77311895	
721.25	0.03515312835	-0.8397468692	
721.875	-0.1565578957	-0.8579071247	
722.5	-0.4900072418	-0.6975505823	
723.125	-0.6720849458	-0.1598048472	
723.75	-0.3767408438	0.3581593628	
724.375	0.01507070573	0.4047207973	
725.0	0.1485289618	0.3190231007	
725.625	0.1512980545	0.3919481833	
726.25	0.05168187295	0.5774018165	
726.875	-0.06698929918	0.795002111	
727.5	-0.1140627514	1.152906148	
728.125	-0.06397966242	1.605574496	
728.75	-0.3086442949	2.110492912	
729.375	-0.8471580532	2.822005696	
730.0	-0.2054348348	3.184166701	
730.625	-0.1171029937	3.302389531	
731.25	-1.06253143	3.169449704	
731.875	-2.304711045	2.031747521	
732.5	-2.803861197	0.5889128363	
733.125	-2.097369727	0.2132751823	
733.75	-0.8582264845	1.034716955	
734.375	0.6475518372	0.4780096485	
735.0	0.06874740922	-0.530280028	
735.625	-0.4184484824	0.05282932683	
736.25	-0.08368893827	0.4499131077	
736.875	0.3393846358	0.4855933262	
737.5	0.8659956705	0.1862120959	
738.125	1.223210576	-0.3087402904	
738.75	1.420268008	-0.9747460658	
739.375	1.846747241	-1.227470839	
740.0	2.197302928	-0.9927760955	
740.625	2.300478321	-0.03006360997	
741.25	0.6082280864	1.709720715	
741.875	-2.019999637	-0.3220767436	
742.5	-0.8408984095	-1.970035834	
743.125	0.3060695194	-1.640939253	
743.75	0.09004954403	-0.8691581865	
744.375	-0.3663004061	-0.1632349657	
745.0	0.04023469676	0.1014782278	
745.625	0.0389124748	-0.002738602387	
746.25	-0.01452327791	-0.1226182276	
746.875	-0.1955395596	-0.004315585936	
747.5	-0.09615504817	0.273311732	
748.125	0.08727994554	0.4515573181	
748.75	0.2384432009	0.3902493782	
749.375	0.1087054687	0.406284966	
750.0	-0.2999171786	0.2170476539	
