!Created with skrf (http://scikit-rf.org).
# GHz S RI R (50+0j) 
!freq	ReS11	ImS11	
500.0	0.001405903775	-1.055969331	
500.625	-0.1880771301	-0.6101782386	
501.25	-0.1033926678	-0.7920484721	
501.875	-0.4406051319	-0.3449312262	
502.5	-0.03466305168	-0.06724167316	
503.125	-0.0750019536	-0.0156120135	
503.75	0.0864818501	0.04365170417	
504.375	0.01259563183	0.01940181149	
505.0	0.01561476122	-0.0481489003	
505.625	0.005326954287	0.003138862113	
506.25	-0.1212008901	-0.1131260845	
506.875	0.05916634223	0.1248158234	
507.5	0.05337756895	-0.5639786541	
508.125	-0.1506209201	-0.7519432953	
508.75	0.1624409054	-0.3937459202	
509.375	0.206271835	-0.9628189437	
510.0	-0.3895252999	-0.01148305218	
510.625	-0.02543697933	-0.07000017427	
511.25	-0.1872887436	-0.02479123773	
511.875	-0.06810817633	0.0109974778	
512.5	-0.04334257403	0.01313790577	
513.125	-0.03225791109	-0.0590560992	
513.75	-0.02489138369	0.01776178419	
514.375	-0.02007516699	-0.05909971004	
515.0	-0.1580273618	0.09872638456	
515.625	0.217428537	-0.7020950513	
516.25	-0.7513116819	-0.3913236578	
516.875	0.0344500546	-0.1275220078	
517.5	-0.1367503764	-0.2677940039	
518.125	0.0231466923	0.03285758693	
518.75	0.01310793401	-0.1792953455	
519.375	-0.05138723811	0.05619535222	
520.0	0.08405980856	-0.001635762443	
520.625	0.1224357357	-0.03950880357	
521.25	-0.01864309295	-0.3016855335	
521.875	-0.09317892595	0.07589865468	
522.5	-0.04683492606	-0.02396921631	
523.125	-0.04316002718	0.08785398324	
523.75	-0.04844365891	-0.1071136916	
524.375	-0.231251389	0.1144964395	
525.0	0.0894635327	0.07211355174	
525.625	-0.06062395108	0.04435903057	
526.25	0.05994331487	0.0146060475	
526.875	-0.09683896534	0.03486720344	
527.5	0.01113900571	0.2533193947	
528.125	-0.03210941508	0.1870260505	
528.75	-0.04420164769	0.2301444556	
529.375	0.08026192349	0.005941503231	
530.0	-0.05212999158	0.1705959327	
530.625	0.1320410103	0.2349084634	
531.25	0.2370480104	-0.02058896772	
531.875	0.132784455	-0.08734020469	
532.5	-0.1209207307	-0.184978704	
533.125	-0.09579551021	0.1323770608	
533.75	0.08375362484	-0.2540846272	
534.375	-0.08724257042	-0.1087256645	
535.0	-0.1920363587	-0.168242424	
535.625	-0.149577819	0.173840649	
536.25	0.002664872642	0.05028481535	
536.875	0.0947774324	0.04042007859	
537.5	0.04153120129	-0.0727045491	
538.125	0.07053470904	-0.006452498516	
538.75	0.1460841872	-0.155013113	
539.375	-0.08857305276	-0.1047308182	
540.0	-0.08288047447	-0.1466759169	
540.625	-0.168678309	-0.03117495884	
541.25	-0.03652990867	0.03738457505	
541.875	0.004025249794	-0.03436971464	
542.5	-0.08365800184	-0.02156671052	
543.125	0.02162970855	0.01309992411	
543.75	-0.1238495302	-0.02789794686	
544.375	0.01590373515	0.04409779616	
545.0	-0.05115916618	0.06515890067	
545.625	0.1207516435	0.02671301665	
546.25	0.03169281259	0.0529225157	
546.875	0.152413807	-0.05273468432	
547.5	0.003754976594	-0.09212133836	
548.125	0.01333716131	-0.1202314688	
548.75	-0.1438851094	-0.1346285889	
549.375	-0.1078293639	-0.0009703673439	
550.0	-0.05282569901	-0.03350119373	
550.625	-0.06032251674	0.04476955208	
551.25	-0.0534064056	-0.005274611022	
551.875	-0.0752992557	0.09275607199	
552.5	-0.014515591	0.04801309967	
553.125	-0.02944455447	0.0549113547	
553.75	0.05013724331	0.0316237341	
554.375	0.07702111601	0.001301797859	
555.0	0.09080885296	-0.06902390196	
555.625	0.0671715141	-0.1045997563	
556.25	0.05142423457	-0.1224204492	
556.875	-0.03640293237	-0.1412536243	
557.5	-0.09887245165	-0.08596927214	
558.125	-0.1044759826	-0.02597362768	
558.75	-0.0999425263	-0.001278750408	
559.375	-0.1015991095	0.03411329793	
560.0	-0.07349295981	0.06925195172	
560.625	-0.06082914724	0.09642710011	
561.25	0.02149748329	0.109327602	
561.875	0.02447211243	0.01320504946	
562.5	0.00823581297	0.0802683536	
563.125	0.07016238085	0.02527678324	
563.75	0.1320000874	0.03397735502	
564.375	0.1024956208	-0.1328878153	
565.0	0.05477150768	-0.09092007316	
565.625	-0.008054600466	-0.1850239664	
566.25	-0.1423694013	-0.05460777985	
566.875	-0.07824788333	-0.07310503951	
567.5	-0.1640644087	-0.1640375526	
568.125	-0.1885429115	-0.05938908822	
568.75	-0.1085228744	-0.1185197418	
569.375	-0.2797904723	0.1334658573	
570.0	0.004119621807	0.1601952346	
570.625	-0.1307521324	0.1377495647	
571.25	0.08481453956	0.1401853044	
571.875	-0.02873929771	0.04875342794	
572.5	0.2094578081	-0.01645081439	
573.125	-0.02058649212	-0.125300629	
573.75	0.09635123473	0.0006333251311	
574.375	0.04281789808	-0.1506624371	
575.0	-0.03791147825	0.03068290338	
575.625	0.1027147553	-0.1071704694	
576.25	-0.04441749604	-0.1128858885	
576.875	0.05421826276	-0.07594290506	
577.5	-0.003121171199	-0.2253566114	
578.125	-0.143054157	-0.09446341802	
578.75	0.0004010606609	-0.0721001724	
579.375	-0.1090976112	-0.1402248824	
580.0	-0.1003742873	0.1310488831	
580.625	-0.04143577176	-0.1536784712	
581.25	-0.07647699099	0.1891316407	
581.875	0.02643261595	0.01436188494	
582.5	-0.02139063415	0.2283526432	
583.125	0.1821285222	0.04996658645	
583.75	-0.0932266705	0.04447086094	
584.375	0.1301019587	0.08615618829	
585.0	0.04712454151	-0.02627238136	
585.625	0.1255789438	0.0853228102	
586.25	0.1618109166	-0.1631935504	
586.875	-0.006792046534	-0.0626404657	
587.5	0.0420275583	-0.1772426784	
588.125	-0.1080162749	-0.1377137599	
588.75	0.06390032833	-0.06465773596	
589.375	0.08229709256	-0.2167184263	
590.0	-0.1172514113	-0.09037384873	
590.625	-0.09154682512	-0.07265016487	
591.25	-0.243369098	0.1498825109	
591.875	0.09241323277	0.1251159553	
592.5	-0.06782922416	-0.002024539403	
593.125	0.06435761517	0.08471590898	
593.75	-0.1054806207	0.1548477071	
594.375	0.254574641	0.1127942025	
595.0	0.1005470303	-0.01989457351	
595.625	0.1207379934	0.1392142357	
596.25	0.2006958914	-0.04109007478	
596.875	0.07715279059	-0.03367578385	
597.5	0.0888414113	0.1318381813	
598.125	0.2259898523	0.08912394673	
598.75	0.1087927208	0.03728799652	
599.375	0.2283259569	0.006714766793	
600.0	0.1127303177	-0.1830722997	
600.625	0.08345217055	-0.08868167893	
601.25	0.0763179819	-0.1924961634	
601.875	-0.148709406	-0.09679438344	
602.5	-0.03389349098	-0.02066926185	
603.125	-0.194236465	0.02950758118	
603.75	0.01953921595	0.140909563	
604.375	-0.09151572984	-0.02596554042	
605.0	-0.1355049726	0.1327682055	
605.625	0.03205364782	-0.01540693245	
606.25	-0.1889089513	0.007577690483	
606.875	-0.0327953081	0.09751655708	
607.5	-0.148035573	0.06967154979	
608.125	0.03808222277	0.2652743846	
608.75	0.1663763457	0.1034416333	
609.375	0.1540151991	-0.01039083086	
610.0	0.2230164097	-0.1048360667	
610.625	0.05983835105	-0.1953047923	
611.25	0.02143337963	-0.05520551623	
611.875	-0.06329227818	-0.1860472755	
612.5	-0.1271201925	0.04244813597	
613.125	-0.1650312139	-0.0628570551	
613.75	-0.0909179959	0.2354832699	
614.375	0.09157938091	-0.01977639303	
615.0	-0.01436965422	0.1437398331	
615.625	0.104127184	0.04238913049	
616.25	-0.1188731804	0.1074301472	
616.875	-0.07327952831	0.2500269667	
617.5	0.06052848399	0.1900804665	
618.125	-0.08306928741	0.09939023709	
618.75	0.06142945221	0.1981498614	
619.375	0.09152561398	0.1554430384	
620.0	0.1622018368	0.0821187327	
620.625	0.09244645821	-0.2176959785	
621.25	-0.0886986844	-0.0774693874	
621.875	-0.08296745592	-0.07632185408	
622.5	-0.2541238696	0.08371624024	
623.125	0.05449883876	0.1406429332	
623.75	0.03690301701	0.08316969455	
624.375	0.08188010631	-0.1317749573	
625.0	0.02477255051	0.05481435913	
625.625	0.06498364154	-0.1508303508	
626.25	-0.09430893408	-0.05289682496	
626.875	-0.06490214017	-0.124550593	
627.5	-0.1899898481	-0.04068340883	
628.125	-0.08246937338	0.008396325865	
628.75	-0.01874949761	-0.1301677713	
629.375	-0.1688446937	-0.1538198322	
630.0	-0.2084426947	-0.03353279356	
630.625	-0.2177448341	0.03866751852	
631.25	-0.1654714076	0.2252353569	
631.875	0.001288981755	0.15790596	
632.5	0.02974697371	0.2182370088	
633.125	0.249300895	0.01206268897	
633.75	0.08600277725	-0.04118258256	
634.375	0.1241844625	-0.1213962301	
635.0	-0.120987904	-0.1797432057	
635.625	-0.03437765749	-0.04979937277	
636.25	-0.2286164426	0.0534472	
636.875	0.03474006486	0.1617613188	
637.5	-0.07138099674	0.01407593357	
638.125	-0.07482298498	0.200513809	
638.75	-0.0193271787	0.0528785163	
639.375	-0.06775735499	0.2835126278	
640.0	0.2329729189	0.2179790398	
640.625	0.194077455	0.04233929903	
641.25	0.2491104779	0.08728181118	
641.875	0.1742112242	-0.2775351358	
642.5	-0.06489492704	-0.1105396799	
643.125	0.005280164949	-0.1962062024	
643.75	-0.2386168941	-0.00312989312	
644.375	-0.0230821204	-0.08830932323	
645.0	-0.2062157544	0.2197762175	
645.625	0.2873459579	0.1191222305	
646.25	-0.01438046591	0.04985424755	
646.875	0.2298184577	0.01951538553	
647.5	-0.09609398129	-0.0824363953	
648.125	0.2508013091	0.2053870957	
648.75	0.2241110366	-0.2114735396	
649.375	0.1154939311	-0.1016615061	
650.0	0.3219147621	-0.3126713323	
650.625	-0.03442033063	-0.3519077516	
651.25	0.1598656959	-0.04198599176	
651.875	0.3709475348	-0.1976195994	
652.5	0.1601724292	-0.2384954887	
653.125	0.1743231329	0.03560436825	
653.75	0.284059052	-0.2872242624	
654.375	-0.1798694801	-0.2117096847	
655.0	-0.1344316725	-0.1198403582	
655.625	-0.3683610754	0.2094054262	
656.25	0.1779033114	0.07764679967	
656.875	-0.08514954421	0.08132781049	
657.5	0.2439250895	0.1071207129	
658.125	0.005562083829	0.05732669055	
658.75	0.4423381191	0.295288026	
659.375	0.2742943337	-0.3306125062	
660.0	0.1071770906	-0.1665482825	
660.625	0.2354104168	-0.295353832	
661.25	0.04340908087	-0.4177578079	
661.875	0.1151449042	-0.08728623725	
662.5	0.3453675111	-0.2232529696	
663.125	0.1428081912	-0.2597491904	
663.75	0.1722625843	-0.1153391346	
664.375	-0.01388663779	-0.4198096239	
665.0	-0.307217032	-0.07073971334	
665.625	-0.1869677729	0.01166277913	
666.25	-0.1675276169	0.2964333703	
666.875	0.190117253	0.1247398949	
667.5	0.04039115383	0.1339401508	
668.125	0.3260309044	-0.06760802471	
668.75	0.0606960048	-0.1271027299	
669.375	0.1869759743	-0.1331248786	
670.0	-0.1146180153	-0.3787055672	
670.625	-0.04590092155	-0.003951310112	
671.25	0.1742668725	-0.2474600618	
671.875	0.05839059616	-0.2507961102	
672.5	0.08288875306	-0.07212431327	
673.125	0.3135442821	-0.1410111019	
673.75	0.03260767919	-0.2731747689	
674.375	0.07394092569	-0.1375994274	
675.0	-0.05916045028	-0.3074961213	
675.625	-0.256253753	-0.006566268092	
676.25	-0.02573689335	-0.0629468731	
676.875	-0.2512782601	-0.02548214095	
677.5	-0.07588028131	0.1163030358	
678.125	-0.1329209989	0.003986940368	
678.75	0.01193064634	0.3694978509	
679.375	0.1858524521	-0.1035755837	
680.0	0.1132470568	0.1068954897	
680.625	0.1526280528	-0.1902256986	
681.25	-0.1915835654	0.05143113651	
681.875	0.3035834088	0.2123899549	
682.5	0.2432922225	-0.1062258909	
683.125	0.02775596858	0.21744241	
683.75	0.3660117706	0.1856180146	
684.375	0.159383589	-0.2099483574	
685.0	0.0563366633	0.1589201894	
685.625	0.3957720868	-0.07553618664	
686.25	0.1977549855	-0.1661491067	
686.875	0.3160022722	-0.00101616586	
687.5	0.3294277865	-0.4472006211	
688.125	-0.08589456754	-0.2513515927	
688.75	-0.2580892832	-0.2864481028	
689.375	-0.332611822	0.324097298	
690.0	0.2276449267	0.2010819341	
690.625	0.03793123847	0.3216630983	
691.25	0.4872913845	0.2207219842	
691.875	0.2289432304	0.1023059496	
692.5	0.5229462099	0.3741375186	
693.125	0.7293229439	-0.234021014	
693.75	0.2840414485	-0.02351990896	
694.375	0.5606937062	-0.3075698023	
695.0	0.1277142937	-0.3999420668	
695.625	0.2533061387	-0.03333191749	
696.25	0.4780705797	0.3704465287	
696.875	0.3864814642	0.2057459378	
697.5	0.2754800602	0.3812568406	
698.125	0.4873276481	0.2302746771	
698.75	0.3435516129	-0.5421072331	
699.375	-0.1605309243	-0.2193369746	
700.0	-0.2320937677	0.133237319	
700.625	0.2467659691	0.2390997308	
701.25	0.05814144375	0.1249526817	
701.875	0.3094112174	0.3467800943	
702.5	0.3831136768	-0.0124606148	
703.125	0.2288941331	0.1583022194	
703.75	0.4751602207	-0.07358818547	
704.375	0.09802341342	-0.2399820263	
705.0	0.1899244425	0.03566482165	
705.625	0.2065051638	-0.1225241425	
706.25	0.1266704112	0.05795605653	
706.875	0.185726763	0.3604209303	
707.5	0.4115716641	0.3204849855	
708.125	0.5109667139	0.1298961489	
708.75	0.3012978812	-0.2693499053	
709.375	-0.3202141756	-0.2952563631	
710.0	-0.08507463186	0.2642860152	
710.625	-0.06493391449	0.04098479307	
711.25	0.2003193035	0.08038208237	
711.875	0.02014312194	0.0288543491	
712.5	0.3646864086	-0.003369624766	
713.125	0.1569658218	-0.3344312606	
713.75	0.09574546701	-0.1015991031	
714.375	0.06522037741	-0.3121108993	
715.0	-0.1236818355	-0.1584302407	
715.625	0.07640108652	-0.106651348	
716.25	0.1899742673	-0.2705594434	
716.875	0.1372130017	-0.2120833909	
717.5	0.3926484141	0.1332945734	
718.125	0.7442780144	-0.0113266826	
718.75	0.6167989702	-0.2344811218	
719.375	0.8220893847	-0.09488687341	
720.0	0.3143611966	-0.9301920961	
720.625	-0.3622290132	-0.7066984844	
721.25	0.4095010996	-0.6630510437	
721.875	-0.4032914906	-1.108216467	
722.5	-0.4297970868	-0.2307406215	
723.125	-0.7412291075	-0.3180481264	
723.75	-0.3128251346	0.6967733543	
724.375	0.07537200689	0.2169198612	
725.0	0.04756724161	0.4833539235	
725.625	0.4447401649	0.2915603764	
726.25	-0.1044820778	0.3877530721	
726.875	-0.1925031001	1.003647997	
727.5	0.2956949485	1.21975422	
728.125	-0.09814789094	0.9750339664	
728.75	-0.7915945465	2.732631851	
729.375	0.2912329361	3.806277711	
730.0	-0.2966843485	1.697414346	
730.625	-0.373899971	4.62882597	
731.25	0.6444383188	4.190760469	
731.875	-1.572281314	0.7061784888	
732.5	-4.120830007	0.3612508185	
733.125	-1.873250823	1.393723689	
733.75	-0.4494046339	-0.05707178195	
734.375	1.224246489	0.9231326996	
735.0	-0.3396378324	-0.4251323507	
735.625	-0.3291326706	-0.113888854	
736.25	-0.02419797901	0.8657675535	
736.875	0.3529895843	-0.101115457	
737.5	0.7947666495	0.6499110211	
738.125	1.636950864	-0.9022781524	
738.75	0.5055645455	-1.139147614	
739.375	1.591875381	0.2185006199	
740.0	5.276500666	-2.7041739	
740.625	0.2011762761	-2.539129703	
741.25	-2.206614147	3.022170594	
741.875	-2.436701434	3.851003905	
742.5	1.075359248	-0.3943769828	
743.125	0.5008317351	-2.614376101	
743.75	-0.5113911833	-0.8209922354	
744.375	-0.1164446472	-0.07529384875	
745.0	-0.1021133533	0.3418785437	
745.625	-0.07167228501	-0.06951135157	
746.25	0.04534146371	-0.1443369179	
746.875	-0.2515125325	0.09612714892	
747.5	-0.009517395406	0.1786523655	
748.125	-0.02214991754	0.5085220431	
748.75	0.3853958296	0.3875639631	
749.375	0.07407334845	0.2752148909	
750.0	-0.3913934313	0.2549349855	
