!Created with skrf (http://scikit-rf.org).
# GHz S RI R (50+0j) 
!freq	ReS11	ImS11	
500.0	0.6162245058	-0.9435118992	
500.625	-0.05951552107	-1.168383664	
501.25	0.04182123462	-0.2986800274	
501.875	-0.3371109472	-0.5781909713	
502.5	-0.0603474426	-0.05430716823	
503.125	-0.05461900818	-0.02846916039	
503.75	0.03539958325	0.09865679087	
504.375	-0.008226769725	0.01841045432	
505.0	0.04320148613	-0.03566957363	
505.625	-0.03639240618	-0.01471436108	
506.25	0.01056159644	-0.1178491888	
506.875	-0.05279386615	0.2347972094	
507.5	0.2330664981	-0.2300873488	
508.125	0.06015807602	-0.8457080138	
508.75	0.006913393058	-0.6900056519	
509.375	0.3451479396	-1.070696475	
510.0	-0.5771684863	-0.3487963852	
510.625	-0.1199228855	-0.03856863441	
511.25	-0.03334614237	-0.09959827487	
511.875	-0.1117921535	-0.001790780653	
512.5	-0.006100952663	0.005158034771	
513.125	0.01137100005	-0.07941697031	
513.75	-0.06605784474	0.009290714622	
514.375	0.01869476355	-0.04788841871	
515.0	-0.2240309184	-0.05194059666	
515.625	0.5154451295	-0.2191855945	
516.25	-0.4879923063	-0.7223662454	
516.875	-0.1574082879	-0.05225751189	
517.5	0.1036876211	-0.13786361	
518.125	-0.06293364301	0.02804807013	
518.75	0.03917293425	-0.1499589549	
519.375	-0.06652847323	0.04053713557	
520.0	0.1060738747	0.009304735131	
520.625	0.09922875549	-0.01522009379	
521.25	0.003249854953	-0.243660367	
521.875	-0.1605059342	0.03755985822	
522.5	-0.001916465599	-0.02994918491	
523.125	-0.121805837	0.04867718891	
523.75	0.0195032848	0.02441631391	
524.375	-0.2098410658	-0.1111358698	
525.0	0.05803000832	0.211209937	
525.625	-0.008154365918	-0.03474210452	
526.25	0.05656126445	0.02917857547	
526.875	-0.06357582564	-0.02164843244	
527.5	-0.08250296241	0.2514334909	
528.125	0.1351929869	0.1368067654	
528.75	-0.04822843151	0.1891024471	
529.375	0.08758851236	0.08423261961	
530.0	0.01373135354	0.09865666027	
530.625	0.06276132908	0.388514757	
531.25	0.4762377044	0.1887306635	
531.875	0.1428125694	-0.05559225961	
532.5	-0.02719171077	-0.1951219892	
533.125	-0.01931474716	0.07436821908	
533.75	0.2334672511	-0.1801844655	
534.375	-0.1467481634	-0.1797234945	
535.0	-0.1224552899	-0.1222580357	
535.625	-0.1974003802	0.1052888481	
536.25	0.03866071996	0.07512024935	
536.875	0.05776751855	0.04354819415	
537.5	0.0752380753	-0.06425142489	
538.125	0.04143471014	-0.03279118114	
538.75	0.1492977435	-0.1029124768	
539.375	-0.1182783744	-0.1273880751	
540.0	-0.07430303578	-0.09189061233	
540.625	-0.1759983651	-0.07934768196	
541.25	-0.1253787438	8.945907858e-07	
541.875	0.003047026624	-0.03336426223	
542.5	-0.06758489722	-0.1061644732	
543.125	-0.01535983577	-0.008258227249	
543.75	-0.04930518242	-0.1207201005	
544.375	-0.01539869374	0.07969657001	
545.0	-0.04658057299	0.03096512479	
545.625	0.09794866855	0.08741048489	
546.25	0.03709371827	-0.01247399743	
546.875	0.1423768758	0.02411569941	
547.5	0.02242237967	-0.1451776729	
548.125	-0.01760717232	-0.09244005614	
548.75	-0.08312654526	-0.1614531734	
549.375	-0.1397248026	-0.03564472579	
550.0	-0.02706234672	-0.01434712011	
550.625	-0.08303106611	0.02436547989	
551.25	-0.03324083221	0.01734900011	
551.875	-0.09443749271	0.05525910746	
552.5	-0.01172505243	0.08220831821	
553.125	-0.02495785203	0.04340010817	
553.75	0.04975324033	0.05241274119	
554.375	0.07542285464	-0.005517595633	
555.0	0.09251365097	-0.05951686675	
555.625	0.07647703311	-0.103958852	
556.25	0.05361123106	-0.1239374391	
556.875	-0.0284773481	-0.1400838823	
557.5	-0.09187675936	-0.09440076204	
558.125	-0.1063697231	-0.02893470798	
558.75	-0.09276844328	-0.003127675391	
559.375	-0.1059480506	0.01646892805	
560.0	-0.07861102888	0.07646012477	
560.625	-0.04679051646	0.08162039186	
561.25	-0.004520140911	0.1143997033	
561.875	0.03989146961	0.01563152526	
562.5	-0.01138243691	0.07401149532	
563.125	0.0880361593	0.03515162797	
563.75	0.09350603673	0.02526519552	
564.375	0.1505829719	-0.1027483508	
565.0	0.02030955467	-0.1325335283	
565.625	0.01129522774	-0.1139085851	
566.25	-0.1521420382	-0.1464644996	
566.875	-0.09390728801	-0.01356361241	
567.5	-0.09148144315	-0.1474965173	
568.125	-0.219948619	-0.1206930563	
568.75	-0.1346892355	-0.05337083597	
569.375	-0.3276776928	0.0640391802	
570.0	-0.03733462499	0.2354579774	
570.625	-0.06358071498	0.05082743989	
571.25	-0.0232935255	0.1809636364	
571.875	0.06120189068	-0.04058848706	
572.5	0.1260395864	0.08462688905	
573.125	0.06260510571	-0.1994353759	
573.75	-0.01523373717	-0.03172264434	
574.375	0.101572428	-0.1102400615	
575.0	-0.07080996716	-0.0315500455	
575.625	0.1137753805	-0.04504277882	
576.25	0.0130925179	-0.1776952806	
576.875	-0.0399000669	-0.05682315363	
577.5	0.07874583396	-0.1439682792	
578.125	-0.1146283036	-0.2219739686	
578.75	-0.08695728587	-0.003304584999	
579.375	0.000776173704	-0.1342574013	
580.0	-0.1588210851	-0.005332692364	
580.625	0.07455373915	-0.0946682906	
581.25	-0.1736135798	0.1286113504	
581.875	0.1331748839	0.02886252904	
582.5	-0.0601110909	0.08165737899	
583.125	0.1058116957	0.1622345832	
583.75	0.02338156738	-0.08940525697	
584.375	0.04216620747	0.1655000184	
585.0	0.1425293536	-0.03191014531	
585.625	0.05708659774	0.03763387798	
586.25	0.2252047523	-0.04757708826	
586.875	-0.03217921749	-0.101369324	
587.5	0.06056224099	-0.08637885905	
588.125	-0.03780576403	-0.2021623209	
588.75	-0.04586211613	-0.07375397666	
589.375	0.1539147836	-0.09493865908	
590.0	-0.1338126509	-0.1960476691	
590.625	-0.09314249342	0.007653439179	
591.25	-0.1846480828	0.02947803729	
591.875	0.0285877716	0.222495488	
592.5	-0.009288983991	-0.06000100907	
593.125	-0.0008256483447	0.1291096292	
593.75	0.008696580332	0.02263526687	
594.375	0.1768659638	0.1998993818	
595.0	0.2407325117	0.02394643129	
595.625	0.05961205562	0.02643550534	
596.25	0.1934167521	0.09090561657	
596.875	0.1477683234	-0.0510118898	
597.5	0.05346512596	0.0772878272	
598.125	0.189025284	0.1624714554	
598.75	0.1522071887	-0.01134164836	
599.375	0.2034421464	0.003604665295	
600.0	0.1880566432	-0.1760349637	
600.625	0.04177085046	-0.1831639713	
601.25	0.09343715937	-0.09788119805	
601.875	-0.1059605715	-0.2121138158	
602.5	-0.07934424461	0.065806029	
603.125	-0.1092141509	-0.04069191474	
603.75	-0.08641189718	0.2196916055	
604.375	0.0006642069994	0.02483887974	
605.0	-0.1760576845	0.1260790136	
605.625	0.02551946703	0.1274150668	
606.25	-0.1160411298	-0.04597261952	
606.875	-0.2400814699	0.1501526413	
607.5	-0.1196425811	0.0884737942	
608.125	-0.09193707427	0.1984657623	
608.75	0.1811185382	0.129377784	
609.375	0.14589926	-0.1010223213	
610.0	0.1449436558	-0.1102744683	
610.625	0.07275894525	-0.2233726747	
611.25	-0.04513266624	-0.07776695572	
611.875	-0.02710371299	-0.1952080954	
612.5	-0.2569846405	-0.03905589139	
613.125	-0.06767187231	0.004164672316	
613.75	-0.1813550857	0.1287064783	
614.375	0.1612892139	0.100617202	
615.0	-0.08432561877	0.01584968212	
615.625	0.07528318381	0.1720064836	
616.25	0.001729829343	0.02863474657	
616.875	-0.1201928211	0.2275701327	
617.5	0.01902835016	0.2075906793	
618.125	0.01050179675	0.08539983355	
618.75	-0.03708254387	0.2298438796	
619.375	0.04927018816	0.1666612737	
620.0	0.2016530525	-0.02091174733	
620.625	0.1523946059	-0.1351056217	
621.25	-0.1755005504	-0.1451593719	
621.875	-0.1148502636	-0.01779077722	
622.5	-0.2278889514	-0.03187063901	
623.125	0.04295586996	0.2352972236	
623.75	0.04062626664	0.006767723547	
624.375	0.1374755899	-0.0377275977	
625.0	-0.04212587853	-0.0006443777194	
625.625	0.1140058535	-0.07289784308	
626.25	-0.1147698494	-0.1488473799	
626.875	-0.06380809851	-0.02077090496	
627.5	-0.1474816152	-0.1184610625	
628.125	-0.121093832	-0.03891799054	
628.75	-0.01067630903	-0.08174651901	
629.375	-0.10109645	-0.211733745	
630.0	-0.180640848	-0.03831473306	
630.625	-0.1157947644	0.08264248193	
631.25	-0.1608896007	0.1937505656	
631.875	0.04624949468	0.2420041347	
632.5	0.0625723361	0.1511761986	
633.125	0.2330948979	0.1951107912	
633.75	0.1102530595	-0.1268140007	
634.375	0.09573928151	-0.06697069521	
635.0	-0.03638151334	-0.258470243	
635.625	-0.1036018672	0.008269438409	
636.25	-0.1715765121	-0.04571626036	
636.875	-0.05570042364	0.2071444392	
637.5	0.008859065818	0.007799873739	
638.125	-0.137035915	0.1086025337	
638.75	0.04275168407	0.2013912754	
639.375	-0.06436617617	0.1415282204	
640.0	0.1450742675	0.3143825465	
640.625	0.2658515281	0.04781700037	
641.25	0.1550232179	0.007626544727	
641.875	0.2495031833	-0.193512714	
642.5	-0.117640795	-0.2007607189	
643.125	-0.005764714354	-0.1141811568	
643.75	-0.2379946998	-0.2395204761	
644.375	-0.08190331217	0.1253149667	
645.0	-0.2308727558	0.04853416291	
645.625	0.1545050178	0.3145722783	
646.25	0.06474497979	-0.1283672315	
646.875	0.09553825992	0.1244043275	
647.5	0.08796689528	-0.1297726439	
648.125	0.05583000996	0.2220829417	
648.75	0.366874681	-0.1624396869	
649.375	0.04557049387	-0.2111559033	
650.0	0.2151457934	-0.1397497954	
650.625	0.2177475202	-0.4401259803	
651.25	0.004077655392	-0.1982187535	
651.875	0.3045771687	0.00957557623	
652.5	0.3435125058	-0.1981521439	
653.125	0.09149352216	-0.1272793353	
653.75	0.2954651341	-0.1227435546	
654.375	-0.1649146594	-0.3612755344	
655.0	-0.1505579898	-0.008282797685	
655.625	-0.261089403	-0.0316873372	
656.25	0.1185066421	0.2906741524	
656.875	-0.05505456006	-0.1310310145	
657.5	0.05979767675	0.2507965458	
658.125	0.1699665539	0.0246049627	
658.75	0.1358269752	0.1536049199	
659.375	0.511738435	-0.2539031643	
660.0	0.02952492337	-0.2857193151	
660.625	0.1864527632	-0.1892320395	
661.25	0.197386961	-0.3708201504	
661.875	0.02357784558	-0.2560160673	
662.5	0.2798336754	-0.03932653486	
663.125	0.2950177252	-0.295926287	
663.75	0.03762870055	-0.2165266004	
664.375	0.07267031582	-0.3045088496	
665.0	-0.356437753	-0.2173638357	
665.625	-0.1696778789	0.1223830443	
666.25	-0.1909721809	0.1842476415	
666.875	0.1899386315	0.2362730159	
667.5	0.09006594951	-0.01071425968	
668.125	0.2976018106	0.141178428	
668.75	0.1320104169	-0.2561517603	
669.375	0.06321477774	-0.04436548821	
670.0	0.1199702649	-0.2698676407	
670.625	-0.1973010957	-0.1786552463	
671.25	0.1066170947	-0.03864702058	
671.875	0.1219350452	-0.3162943313	
672.5	0.07394093508	-0.161137485	
673.125	0.2099421837	-0.0442297346	
673.75	0.2067526039	-0.3191759251	
674.375	-0.06452020044	-0.1724976948	
675.0	0.02524223909	-0.2097461031	
675.625	-0.2701821696	-0.1593546787	
676.25	-0.09545678361	0.08361508585	
676.875	-0.1354773486	-0.1208978666	
677.5	-0.1899335729	0.1388157472	
678.125	-0.02422620745	0.05139037246	
678.75	-0.08275631266	0.2558535924	
679.375	0.4026364157	-0.006076064657	
680.0	-0.04687497264	-0.04197625967	
680.625	0.1890901048	-0.02558432774	
681.25	0.006889812056	-0.2168967977	
681.875	-0.02641147047	0.2798091948	
682.5	0.419202198	0.07919439489	
683.125	0.07056034096	-0.1132767947	
683.75	0.2457359299	0.2261417114	
684.375	0.4200251529	0.05978231145	
685.0	0.04275217779	-0.04068710281	
685.625	0.3058040774	0.2161633736	
686.25	0.3697091437	-0.1880587336	
686.875	0.1200079884	-0.1045079635	
687.5	0.3614191339	-0.2616215901	
688.125	-0.186961854	-0.5124287333	
688.75	-0.2019093697	-0.04738090415	
689.375	-0.4075641087	0.2269683228	
690.0	0.2156127043	0.3945428952	
690.625	0.07725194706	0.08367217977	
691.25	0.3539797713	0.4326380347	
691.875	0.4807289343	-0.0213487688	
692.5	0.3252982187	0.2924842856	
693.125	0.8766865864	-0.03675050441	
693.75	0.3924210264	-0.4527098032	
694.375	0.3894574697	-0.1183859427	
695.0	0.5543841579	-0.3380323734	
695.625	0.2860769744	-0.1043107218	
696.25	0.2738708016	0.2236700789	
696.875	0.5202071604	0.4633330748	
697.5	0.2890255307	0.334041847	
698.125	0.4159617106	0.3096929935	
698.75	0.4872064777	-0.4338340837	
699.375	-0.454188248	-0.1921792419	
700.0	-0.264247433	0.08455935998	
700.625	0.05214552137	0.4175965555	
701.25	0.1720059538	0.01773509322	
701.875	0.1323855374	0.2991315344	
702.5	0.4796228874	0.2312042564	
703.125	0.2275981849	-0.01359367587	
703.75	0.438302357	0.01559833509	
704.375	0.3031807472	-0.3040689738	
705.0	0.07679555244	-0.08738996578	
705.625	0.3034196034	0.1537196841	
706.25	0.1440833765	0.1022188261	
706.875	0.09724308796	0.2322269256	
707.5	0.2163020906	0.4369406567	
708.125	0.4288809338	0.05214848571	
708.75	0.1706103232	-0.3838541634	
709.375	-0.2229796778	-0.3296893582	
710.0	-0.1279590333	0.2673809231	
710.625	0.1251676674	-0.0364701852	
711.25	0.05342160388	0.279685818	
711.875	0.1578748721	-0.03145092037	
712.5	0.277188379	0.09655545279	
713.125	0.2966169102	-0.2278296334	
713.75	-0.008687458103	-0.2239570138	
714.375	0.108933522	-0.1681032202	
715.0	-0.08168119918	-0.2795240825	
715.625	-0.0362907712	-0.1092063703	
716.25	0.2578078909	-0.1729778761	
716.875	0.3084871556	-0.2341010012	
717.5	0.2497814529	-0.001951095366	
718.125	0.6731618948	0.2175899304	
718.75	0.7312521131	-0.2070849949	
719.375	0.3475699305	-0.3256138575	
720.0	0.7743309767	-0.1018995363	
720.625	-0.04725904621	-0.9341695493	
721.25	-0.02250156414	-0.3249156806	
721.875	0.09220479147	-1.214745842	
722.5	-0.8176028771	-0.5258173419	
723.125	-0.4392348845	-0.2345494739	
723.75	-0.5981934614	0.4965581626	
724.375	0.2609019455	0.3271674024	
725.0	-0.01365269447	0.2585596633	
725.625	0.2230529162	0.6025342136	
726.25	0.240447624	0.3786863257	
726.875	-0.3078416182	0.6873837893	
727.5	-0.1817690004	1.508252549	
728.125	0.5338140365	1.350517793	
728.75	-0.8837212498	1.662254894	
729.375	-0.876766656	4.152714704	
730.0	1.217191647	2.57112306	
730.625	-0.8714805212	1.859090302	
731.25	-1.012677401	4.727890632	
731.875	0.04406411423	2.696643398	
732.5	-3.119910432	-0.04123664792	
733.125	-3.163677385	0.9515437035	
733.75	-0.0186057943	1.128949501	
734.375	0.1725016212	0.8680598708	
735.0	-0.2954566984	-1.003601176	
735.625	-0.1318792403	0.08783013738	
736.25	-0.3323051636	0.5370570925	
736.875	0.7649453279	0.3943553264	
737.5	0.2743851897	0.008015757087	
738.125	1.884787175	0.2102329303	
738.75	1.27310749	-1.944359019	
739.375	0.3846623455	-0.9319589831	
740.0	3.669653441	0.7594341305	
740.625	4.922743049	-2.784786799	
741.25	-2.051216984	-1.063542932	
741.875	-4.774913639	1.197545195	
742.5	-2.219226237	0.2129419571	
743.125	1.370634391	-0.836614069	
743.75	-0.1561250657	-1.358979507	
744.375	-0.3012818341	0.1425025475	
745.0	-0.1219305837	0.03995708331	
745.625	0.1084722811	-0.1616510279	
746.25	0.06011458249	-0.04694502488	
746.875	-0.2723793586	-0.0007025002473	
747.5	0.0557791322	0.299738398	
748.125	0.05393290105	0.3043897677	
748.75	0.2540794862	0.5481938557	
749.375	0.237914276	0.3232576786	
750.0	-0.2906884096	0.1329083835	
