!Created with skrf (http://scikit-rf.org).
# GHz S RI R (50+0j) 
!freq	ReS11	ImS11	
500.0	0.6317624265	-0.8621459823	
500.625	-0.13988305	-1.062450365	
501.25	-0.009340373943	-0.3780260156	
501.875	-0.3399982598	-0.5442198447	
502.5	-0.06321143024	-0.0444054645	
503.125	-0.0572929921	-0.0276234463	
503.75	0.05309039649	0.1045045111	
504.375	-0.004496290319	0.01104986379	
505.0	0.04233110946	-0.03817918542	
505.625	-0.03564602633	-0.01552282209	
506.25	0.00808797795	-0.1286977927	
506.875	-0.09699558509	0.2022350963	
507.5	0.2209558919	-0.2196187431	
508.125	0.1497774212	-0.8321574436	
508.75	0.004881203025	-0.7754774081	
509.375	0.3028221104	-1.069039952	
510.0	-0.5775850459	-0.3831232026	
510.625	-0.0413591183	-0.002521422072	
511.25	-0.09741433789	-0.1206612656	
511.875	-0.1328737261	0.009098853071	
512.5	-0.006675966541	0.02401439485	
513.125	0.01272782657	-0.09189706743	
513.75	-0.05912327589	0.00178267489	
514.375	0.02646508617	-0.1003092472	
515.0	-0.2223186564	-0.04985582476	
515.625	0.5084706995	-0.3776811058	
516.25	-0.3393412721	-0.8085933001	
516.875	0.04833976519	-0.07876936529	
517.5	0.09404994915	-0.132718971	
518.125	-0.08445044491	-0.01057691312	
518.75	0.05545757135	-0.1020370996	
519.375	-0.06345898338	0.04132798615	
520.0	0.1075681152	0.006666053417	
520.625	0.1125223068	-0.02417100485	
521.25	0.06830538516	-0.3006224765	
521.875	-0.1672549326	-0.04005236591	
522.5	0.00319313647	-0.02844920073	
523.125	-0.1341398152	0.08794842838	
523.75	0.03112851883	0.02418035154	
524.375	-0.2339520485	-0.1131235353	
525.0	0.06400109694	0.2135513794	
525.625	-0.02693329463	-0.02762996373	
526.25	0.04389245517	0.03895709433	
526.875	-0.06276365174	-0.02071331357	
527.5	-0.07126264687	0.2612078565	
528.125	0.05355092542	0.1268286496	
528.75	-0.07263860067	0.1004878528	
529.375	0.0718506707	0.07716986908	
530.0	-0.03784994791	-0.01091650903	
530.625	0.04272200893	0.376105905	
531.25	0.4634053953	0.1080989306	
531.875	0.1392758163	-0.004733727511	
532.5	-0.0480823745	-0.2323909636	
533.125	-0.09554319024	0.006121417171	
533.75	0.1961773444	-0.2238396503	
534.375	-0.1562823676	-0.1708126919	
535.0	-0.1118782851	-0.1287923536	
535.625	-0.2098741336	0.09753179521	
536.25	0.03431782715	0.07027511644	
536.875	0.06348047178	0.04898609391	
537.5	0.07226366174	-0.07098836664	
538.125	0.04520673779	-0.0321072726	
538.75	0.1608576831	-0.105926777	
539.375	-0.1309001933	-0.1288525032	
540.0	-0.07853042923	-0.09777426618	
540.625	-0.1634657987	-0.06942374716	
541.25	-0.1178728387	0.008371879503	
541.875	0.01120834292	-0.04822056468	
542.5	-0.1098132835	-0.04614341131	
543.125	-0.02800829448	0.01271526823	
543.75	-0.07328808881	-0.09016764452	
544.375	-0.000377314763	0.0903272087	
545.0	-0.04535211248	0.02547580317	
545.625	0.1020771646	0.09428461476	
546.25	0.03318749555	0.005005969136	
546.875	0.1381827703	0.04973831488	
547.5	0.02754451375	-0.1507393308	
548.125	-0.01289987485	-0.08958187633	
548.75	-0.09330149909	-0.1601659381	
549.375	-0.1374939573	-0.03019552566	
550.0	-0.02744608826	-0.01672797521	
550.625	-0.08346464055	0.01645484302	
551.25	-0.03247019149	0.01134612425	
551.875	-0.09705274126	0.04871036883	
552.5	-0.01730018617	0.08240739329	
553.125	-0.0183112079	0.0360752957	
553.75	0.04941729477	0.05118920866	
554.375	0.07404870521	-0.007002182118	
555.0	0.09628118159	-0.05874109407	
555.625	0.08033911915	-0.1024822289	
556.25	0.05843460616	-0.1241331867	
556.875	-0.02509475395	-0.1447720208	
557.5	-0.09219735358	-0.0984072705	
558.125	-0.1094336193	-0.03369075843	
558.75	-0.09568397051	-0.004660075116	
559.375	-0.1100771769	0.01666996106	
560.0	-0.08297593678	0.0781938253	
560.625	-0.04961937207	0.0809283928	
561.25	2.219687515e-05	0.1122786594	
561.875	0.04068674024	0.01303146686	
562.5	-0.01187340296	0.07426142074	
563.125	0.09085691864	0.04343134263	
563.75	0.09576985713	0.02759369792	
564.375	0.1604041033	-0.1006123027	
565.0	0.0266719205	-0.1388736755	
565.625	0.01975671504	-0.1101012198	
566.25	-0.1504788696	-0.1245570167	
566.875	-0.08779167235	0.01571887705	
567.5	-0.1019868332	-0.1502316734	
568.125	-0.1826280242	-0.1133723705	
568.75	-0.1169729098	-0.05917259134	
569.375	-0.3123035863	0.05689137735	
570.0	-0.05342797784	0.2248632523	
570.625	-0.05621629566	0.08273831079	
571.25	-0.02149312151	0.1711847074	
571.875	0.06388637475	-0.03361764849	
572.5	0.127456269	0.08215689611	
573.125	0.06738945342	-0.1775006954	
573.75	-0.01259555548	-0.02079958019	
574.375	0.1019468589	-0.1130168837	
575.0	-0.06391793474	-0.03934933343	
575.625	0.1103934961	-0.03754121551	
576.25	0.01515269842	-0.1738367023	
576.875	-0.03320297055	-0.04427999618	
577.5	0.08608961653	-0.1432742024	
578.125	-0.1180628969	-0.2304812214	
578.75	-0.07023969374	-0.02892210465	
579.375	0.03281004665	-0.1742545156	
580.0	-0.1469972919	-0.006309252356	
580.625	0.02528116928	-0.06615348412	
581.25	-0.1748581348	0.1248440854	
581.875	0.1123881844	0.07040490837	
582.5	-0.04015569461	0.0853255953	
583.125	0.110639658	0.1664493733	
583.75	-0.005600512624	-0.1016347243	
584.375	0.02797548267	0.1573432042	
585.0	0.1235493586	-0.05325712832	
585.625	0.06182795437	0.04317724553	
586.25	0.2332350253	-0.04852641395	
586.875	-0.01449974412	-0.1334074457	
587.5	0.0586513814	-0.07868017325	
588.125	-0.02626357645	-0.2065085225	
588.75	-0.05595894119	-0.08435651104	
589.375	0.1623277043	-0.09764645591	
590.0	-0.1480104155	-0.2099131722	
590.625	-0.0868735522	0.003313284555	
591.25	-0.223807642	0.01888387327	
591.875	0.001673628531	0.1933760873	
592.5	-0.09509306492	-0.1112486988	
593.125	0.0003966037865	0.1391852499	
593.75	-0.03639261062	0.02642965085	
594.375	0.1321523362	0.1863215238	
595.0	0.2330568409	0.03581841192	
595.625	0.05790848426	0.03652405107	
596.25	0.2042070086	0.0920883416	
596.875	0.1692520606	-0.04384617876	
597.5	0.07922678439	0.1318952698	
598.125	0.1916313514	0.1723487477	
598.75	0.1550155869	0.005566856134	
599.375	0.175240743	0.03142364273	
600.0	0.210647135	-0.1692884188	
600.625	0.04475605086	-0.1833303035	
601.25	0.107641638	-0.08075506619	
601.875	-0.1061430536	-0.2150440501	
602.5	-0.05516297302	0.08300422932	
603.125	-0.1171371607	-0.05497299114	
603.75	-0.1228928339	0.1668017839	
604.375	-0.009391492413	0.0173039762	
605.0	-0.1676029706	0.1249365082	
605.625	-0.002493308932	0.1308476989	
606.25	-0.08500736324	-0.04276904671	
606.875	-0.2082826498	0.1436481081	
607.5	-0.09474056501	0.1317404523	
608.125	-0.1097572991	0.177156966	
608.75	0.2151815946	0.2027667631	
609.375	0.1448566237	-0.1059639743	
610.0	0.1342080438	-0.09010626779	
610.625	0.09076851458	-0.2391929979	
611.25	-0.04276087573	-0.0499790122	
611.875	-0.0185728652	-0.1837222488	
612.5	-0.2423020955	-0.000451911731	
613.125	-0.04525313601	-0.02222861035	
613.75	-0.1924142807	0.1323441203	
614.375	0.1529322449	0.1038025698	
615.0	-0.07451777404	-0.004137721326	
615.625	0.1156252561	0.0385649467	
616.25	0.004920526494	0.03312953712	
616.875	-0.1725053731	0.1486515047	
617.5	-0.01995976317	0.3075550139	
618.125	-0.0172012669	0.2252271603	
618.75	-0.05824600332	0.2339066416	
619.375	0.1280508107	0.153712697	
620.0	0.1282721833	0.02057401022	
620.625	0.1899869488	-0.09125708119	
621.25	-0.1646852188	-0.1571132666	
621.875	-0.1123304058	-0.02131772126	
622.5	-0.2709458729	0.010126187	
623.125	0.01568069491	0.2733070068	
623.75	0.041665661	0.009725341318	
624.375	0.1324593025	-0.04802121203	
625.0	-0.04267978671	0.001276244086	
625.625	0.1180758058	-0.07066878829	
626.25	-0.1179244487	-0.1442399946	
626.875	-0.05080863583	-0.03076419543	
627.5	-0.1637426283	-0.1092162503	
628.125	-0.1326053993	-0.02944291959	
628.75	-0.009511706476	-0.07312376765	
629.375	-0.09241998166	-0.2170277775	
630.0	-0.2192110241	-0.08472543566	
630.625	-0.1489081421	0.04069374714	
631.25	-0.1820807903	0.1997210047	
631.875	0.04249681316	0.2181842044	
632.5	0.05426370144	0.1316089079	
633.125	0.2706165757	0.1472624136	
633.75	0.09350162565	-0.1781837526	
634.375	0.1030349728	-0.05948309591	
635.0	-0.033928927	-0.2209849354	
635.625	-0.09334614088	-0.003598687125	
636.25	-0.1578699147	-0.05735571193	
636.875	-0.05984270121	0.2026981539	
637.5	0.01512137603	0.01346697272	
638.125	-0.1564033271	0.09202297394	
638.75	0.02428844141	0.1874515162	
639.375	-0.06938712713	0.1411244234	
640.0	0.1374347968	0.3235691661	
640.625	0.2716844313	0.09025421184	
641.25	0.1551498939	0.07279470796	
641.875	0.2932121289	-0.1671694288	
642.5	-0.1095199286	-0.1633693039	
643.125	0.02248254975	-0.085927862	
643.75	-0.233791696	-0.1952800141	
644.375	-0.05435990319	0.08156487004	
645.0	-0.2516892458	0.04470889335	
645.625	0.1739106993	0.3663327455	
646.25	0.08654468516	-0.0615159324	
646.875	0.1360967993	0.1792555595	
647.5	0.09683692034	-0.1242907375	
648.125	0.06245366851	0.2245306152	
648.75	0.3473208508	-0.144592758	
649.375	0.04413540998	-0.2153276158	
650.0	0.2323724506	-0.1426380991	
650.625	0.1857009683	-0.4146745881	
651.25	0.0195938102	-0.1832737252	
651.875	0.2963056787	0.01585446267	
652.5	0.3529072436	-0.1803496032	
653.125	0.09929284177	-0.1014724077	
653.75	0.32640739	-0.1167574912	
654.375	-0.1263263939	-0.4416956396	
655.0	-0.1687484449	-0.004726792081	
655.625	-0.2693710685	0.01603257521	
656.25	0.1207678174	0.2677370684	
656.875	-0.09016579267	-0.1564402248	
657.5	0.0639572656	0.222288776	
658.125	0.1604918721	0.02058581021	
658.75	0.1150282255	0.2402857782	
659.375	0.4895451028	-0.1907594162	
660.0	0.03082074618	-0.2601498797	
660.625	0.201008707	-0.1818458505	
661.25	0.236079916	-0.3648856638	
661.875	0.0693590239	-0.2549587994	
662.5	0.3122054483	-0.03540187102	
663.125	0.2973594174	-0.2692446294	
663.75	0.0576778415	-0.1912135241	
664.375	0.09138422081	-0.3004080012	
665.0	-0.3419644013	-0.2442664259	
665.625	-0.1826459866	0.1156668656	
666.25	-0.1966686264	0.1908660068	
666.875	0.1935615658	0.2965803034	
667.5	0.1022093702	-0.004869000174	
668.125	0.2718420609	0.1139086052	
668.75	0.1535521608	-0.2077507159	
669.375	0.08384162398	-0.04652619077	
670.0	0.1164298362	-0.2752150193	
670.625	-0.1053473873	-0.1853108668	
671.25	0.1612566617	-0.06106792885	
671.875	0.1442886502	-0.2771115477	
672.5	0.1056844701	-0.1620060702	
673.125	0.1881806434	-0.04542317769	
673.75	0.24996318	-0.2700912207	
674.375	-0.04538742407	-0.1331022072	
675.0	0.04741939187	-0.2114932113	
675.625	-0.2415517572	-0.1948465545	
676.25	-0.1226890806	0.07470485353	
676.875	-0.148087037	-0.1323865605	
677.5	-0.2091959091	0.1194872556	
678.125	-0.05297819781	0.03747993938	
678.75	-0.1379871516	0.2524462325	
679.375	0.3946964781	0.02034376917	
680.0	-0.02088267653	-0.04502133887	
680.625	0.210404525	-0.01243169574	
681.25	-0.0217888705	-0.1981964547	
681.875	-0.01126530264	0.1595853602	
682.5	0.5054332286	-0.06082420051	
683.125	0.1153563567	-0.0905226163	
683.75	0.1454069526	0.1882205409	
684.375	0.4137816888	0.03505032908	
685.0	0.1178439566	-0.1001650296	
685.625	0.2597450494	0.2440898571	
686.25	0.3856781491	-0.1582565137	
686.875	0.1692336519	-0.08652008823	
687.5	0.3944570029	-0.1546889078	
688.125	-0.1038996916	-0.5580011518	
688.75	-0.2059338058	-0.07886860512	
689.375	-0.4137855807	0.1464472647	
690.0	0.1933354146	0.4159479905	
690.625	0.006034345009	0.03679390139	
691.25	0.3438539686	0.4821186276	
691.875	0.4650254923	0.07497025689	
692.5	0.3744057259	0.2506986214	
693.125	0.8971332928	-0.04616731199	
693.75	0.4532284713	-0.417170819	
694.375	0.3473497182	-0.1290954511	
695.0	0.4342253061	-0.4330797622	
695.625	0.4104512628	-0.2165557066	
696.25	0.4998965518	0.2189436443	
696.875	0.4702084262	0.5532334354	
697.5	0.3913766518	0.2009000495	
698.125	0.3533463233	0.36182947	
698.75	0.5149378	-0.1802463437	
699.375	-0.4201734661	-0.2693593143	
700.0	-0.2316914505	0.1202553079	
700.625	0.1263882856	0.4325054707	
701.25	0.1792022854	-0.009256380301	
701.875	0.1242747481	0.3186819124	
702.5	0.5024535377	0.2171923498	
703.125	0.2596548972	-0.02097623749	
703.75	0.4669405389	-0.00451198808	
704.375	0.3202483397	-0.2933467857	
705.0	0.06653100707	-0.135533346	
705.625	0.3200715834	0.002721485623	
706.25	0.239846361	0.09680199026	
706.875	0.08905897428	0.212798228	
707.5	0.2080856232	0.4427743335	
708.125	0.4182521981	0.2189738599	
708.75	0.2196976773	-0.1722384224	
709.375	-0.04410732765	-0.3405939928	
710.0	-0.1834889617	0.2574866202	
710.625	-0.00589093185	0.01832044211	
711.25	0.1217213932	0.2568601511	
711.875	0.1269799431	-0.02388655039	
712.5	0.2684327534	0.1213347117	
713.125	0.3304032268	-0.2215391216	
713.75	0.02115144537	-0.211267059	
714.375	0.07770259432	-0.1952856996	
715.0	-0.08618118052	-0.2793038328	
715.625	-0.01964619939	-0.07795978949	
716.25	0.2498470011	-0.1869262244	
716.875	0.2968007308	-0.2482486623	
717.5	0.2908917944	-0.04430537372	
718.125	0.671589854	0.244806645	
718.75	0.8887230328	-0.04151176837	
719.375	0.3216734117	-0.1119646607	
720.0	0.8184464523	-0.1085808962	
720.625	-0.04142196459	-0.8949780968	
721.25	0.1889863803	-0.379089606	
721.875	0.08154084423	-1.251224431	
722.5	-0.7637720266	-0.4435124812	
723.125	-0.4140297422	-0.3123369734	
723.75	-0.680330936	0.4737665579	
724.375	0.1579097377	0.342438643	
725.0	-0.03718808587	0.283478973	
725.625	0.2206241744	0.587872279	
726.25	0.2155493848	0.3790610333	
726.875	-0.3385642703	0.6632319954	
727.5	-0.2537089142	1.497275336	
728.125	0.4223284058	1.400070551	
728.75	-0.8518939436	1.792665105	
729.375	-1.551526635	3.969150122	
730.0	0.7432999589	2.343632499	
730.625	-1.184117863	1.661541967	
731.25	-1.007710625	4.140879818	
731.875	-0.7520356988	1.226377987	
732.5	-2.986901066	-0.8739717136	
733.125	-3.007295142	0.7315584963	
733.75	-0.3033595371	0.991550761	
734.375	0.1767467819	0.8674328225	
735.0	-0.1033486042	-0.7950153301	
735.625	0.01785516773	-0.02579126894	
736.25	-0.3478637706	0.5169121189	
736.875	0.6546487747	0.4792374418	
737.5	0.3748548228	0.1304624972	
738.125	1.850096409	0.2861125567	
738.75	1.388024284	-1.809554472	
739.375	0.6127758883	-0.6420901723	
740.0	3.777814356	1.070549974	
740.625	4.438381924	-3.063742428	
741.25	-2.212454535	-0.6357682277	
741.875	-4.7572227	0.100611694	
742.5	-2.068499798	-0.3078855915	
743.125	1.143183013	-0.9335677366	
743.75	-0.004800776927	-1.617074122	
744.375	-0.3787618641	0.102033957	
745.0	-0.1601902171	-0.03704814484	
745.625	0.1071052798	-0.1290694578	
746.25	0.1232233616	-0.04023232922	
746.875	-0.2760023802	-0.02550428386	
747.5	-0.01705357966	0.306230939	
748.125	0.01253288444	0.3354981438	
748.75	0.2142202146	0.5427616047	
749.375	0.2103667858	0.371601831	
750.0	-0.2472488983	0.1251081203	
