!Created with skrf (http://scikit-rf.org).
# GHz S RI R (50+0j) 
!freq	ReS11	ImS11	
500.0	0.6444510067	-1.339288453	
500.625	2.136509079	-3.78546294	
501.25	-3.004773119	-1.856598499	
501.875	-0.8234106771	-0.07023860219	
502.5	0.004068447579	-0.7336660017	
503.125	-0.1517351548	0.2502494725	
503.75	-0.1493486074	0.174615154	
504.375	0.1169308654	-0.111052837	
505.0	0.06614258385	0.09766770645	
505.625	-0.1313294742	-0.3799254796	
506.25	0.1064444046	0.2467901183	
506.875	-1.041774383	-0.5516149628	
507.5	-1.581884205	-0.09790255929	
508.125	1.361352804	-0.6754842199	
508.75	1.335438663	-4.988650552	
509.375	-2.501241825	-2.178213052	
510.0	-1.039936781	-2.454974417	
510.625	-0.9525647598	0.3436825708	
511.25	-0.1771376448	-0.3543014325	
511.875	-0.5814947601	-0.02019132185	
512.5	-0.04463646403	0.1629782022	
513.125	-0.06116219847	-0.149785646	
513.75	-0.1238764623	-0.30876795	
514.375	-0.5590139296	0.371483486	
515.0	0.9605558536	-0.9987572234	
515.625	-1.726722719	0.1642463724	
516.25	1.35050487	-2.492543596	
516.875	-2.370795098	-1.777750482	
517.5	0.07774071001	0.4291820469	
518.125	-0.3700180706	-0.4088644683	
518.75	0.04953241961	0.2286551155	
519.375	-0.2822418807	0.08091911959	
520.0	0.5308263754	0.05227279537	
520.625	0.2301901431	-0.125795003	
521.25	0.2017447693	-0.9965198784	
521.875	-0.4207960831	0.219482964	
522.5	-0.128961034	-0.1080117594	
523.125	0.03622754261	0.2494583951	
523.75	-0.3960298402	-0.2477191043	
524.375	-0.1186940136	0.4147498826	
525.0	-0.3530132589	0.1301888685	
525.625	0.3116892336	0.2786389003	
526.25	-0.2946219712	-0.05133615871	
526.875	0.07644943952	0.1631415626	
527.5	-0.4020863694	0.2657508284	
528.125	0.4262771763	1.152741786	
528.75	0.1526815941	0.1723402438	
529.375	0.2082346707	0.3971972912	
530.0	-0.1241677034	0.05226974597	
530.625	0.6235319085	1.342779408	
531.25	0.5480580585	-0.1616926097	
531.875	0.9625482053	-0.3305665312	
532.5	-0.5444689059	-0.09522656103	
533.125	0.5632595135	-0.3806236894	
533.75	-0.280975093	-0.2170084495	
534.375	0.1576044411	-1.20565422	
535.0	-0.8967463936	0.2922772871	
535.625	-0.2813127289	0.04741565256	
536.25	-0.06187136559	0.3286855734	
536.875	0.2499668057	-0.1067066503	
537.5	0.2066738534	0.02961259488	
538.125	0.2676746331	-0.328217786	
538.75	0.2122418575	-0.1005544297	
539.375	-0.1856764373	-0.5900524791	
540.0	-0.49527417	-0.08140170574	
540.625	-0.2547774354	-0.1800616155	
541.25	-0.2607416275	-0.005097964886	
541.875	-0.177782259	0.01006874701	
542.5	0.03350707953	-0.08527955602	
543.125	-0.3518003411	-0.1985401956	
543.75	-0.0224168171	0.1602487239	
544.375	-0.2880545604	0.05527438699	
545.0	0.1791293771	0.09232247842	
545.625	-0.07292217445	0.2847598564	
546.25	0.4541975191	-0.09528354622	
546.875	0.02629109738	0.08601337677	
547.5	0.4036371236	-0.4052746204	
548.125	-0.3320515333	-0.3112090042	
548.75	-0.09255895531	-0.2258754574	
549.375	-0.3523392145	-0.2934497565	
550.0	-0.1066664293	0.1641587423	
550.625	-0.2141037696	-0.1165302817	
551.25	-0.08150086897	0.1928937668	
551.875	-0.2176174371	0.04571524622	
552.5	-0.1082357541	0.2979769865	
553.125	-0.002034162582	0.1015258287	
553.75	0.1027195101	0.1399573322	
554.375	0.2378483426	-0.03236415651	
555.0	0.2091083122	-0.1582090531	
555.625	0.2057656926	-0.2608990455	
556.25	0.1387922412	-0.3517052881	
556.875	-0.09019324085	-0.3666167719	
557.5	-0.2260036093	-0.2453603363	
558.125	-0.2857755406	-0.08497559018	
558.75	-0.2361834338	0.014624753	
559.375	-0.2504350529	0.01969812011	
560.0	-0.2402444685	0.2160433981	
560.625	-0.05660433883	0.2276221887	
561.25	-0.05489329768	0.2338664908	
561.875	0.1635808622	0.08371266503	
562.5	-0.09056303038	0.1319348023	
563.125	0.2879316354	0.1225526246	
563.75	0.1628022581	0.0348572285	
564.375	0.4389127118	-0.2163974485	
565.0	0.03044675844	-0.4342979564	
565.625	-0.008896114238	-0.2322413339	
566.25	-0.2526677646	-0.3755240288	
566.875	-0.4085145389	-0.03289243542	
567.5	-0.1580095515	-0.2687582338	
568.125	-0.4800050914	-0.4936123201	
568.75	-0.419261784	0.00441244038	
569.375	-0.6571679854	0.007894125763	
570.0	-0.2117061931	0.715769422	
570.625	0.04917298765	0.1674546581	
571.25	-0.3567013089	0.4085641107	
571.875	0.3943512969	-0.1198273266	
572.5	0.1826215065	0.347338991	
573.125	0.296457563	-0.5640165147	
573.75	-0.1839805075	-0.0704414956	
574.375	0.3711675468	-0.2036232511	
575.0	-0.2745403729	-0.1398935178	
575.625	0.3506665095	-0.03552653858	
576.25	0.07300583827	-0.5444446658	
576.875	-0.1836173275	-0.05670790007	
577.5	0.2895360463	-0.3640029767	
578.125	-0.2866952687	-0.5422645817	
578.75	-0.2254365489	-0.06941612683	
579.375	-0.01607930044	-0.2873133251	
580.0	-0.3626223989	-0.02670120095	
580.625	0.1044223851	-0.1558700362	
581.25	-0.4578987876	0.2789154595	
581.875	0.3085524368	0.3183267489	
582.5	-0.1099621262	0.02526884181	
583.125	0.1305576194	0.6506019152	
583.75	0.1814198799	-0.4608529582	
584.375	0.004862927375	0.5558086757	
585.0	0.4149543166	-0.2599825061	
585.625	0.1133342698	0.349692982	
586.25	0.6440731546	-0.4083153833	
586.875	-0.1131066745	-0.1209941489	
587.5	0.2708370333	-0.3667729761	
588.125	-0.2438801153	-0.5130116919	
588.75	-0.1135925049	-0.04216372094	
589.375	0.4711756106	-0.3485485237	
590.0	-0.2956687605	-0.4520161551	
590.625	-0.267439083	-0.04031024104	
591.25	-0.4136942083	0.1682799442	
591.875	0.05694451544	0.3943454813	
592.5	-0.1088795987	0.03426328882	
593.125	0.03855763999	0.1645911315	
593.75	-0.00314973932	0.1486943336	
594.375	0.3624876285	0.5333502283	
595.0	0.7522739568	0.02308891698	
595.625	-0.06771206916	0.0780878008	
596.25	0.6215499469	0.4645931276	
596.875	0.2870832346	-0.3373674909	
597.5	0.1292279973	0.4871913033	
598.125	0.6808764958	0.1113307295	
598.75	0.0488062617	0.1649469993	
599.375	0.8638332478	-0.00770316227	
600.0	0.1160316587	-0.4502982877	
600.625	0.3074840056	-0.1801094943	
601.25	0.3309330246	-0.5090449566	
601.875	-0.3150714837	-0.2580109097	
602.5	-0.2489861133	-0.0806182089	
603.125	-0.2215515315	0.08008851897	
603.75	-0.3355151145	0.1958623214	
604.375	-0.06583549791	0.1653767631	
605.0	-0.285613315	0.1117432758	
605.625	-0.03315071782	0.2701049809	
606.25	-0.3161953111	-0.09728090091	
606.875	-0.4890626598	0.5443536647	
607.5	-0.1246484348	0.07842340307	
608.125	-0.4742776583	0.8304736155	
608.75	0.6733526701	-0.04339477739	
609.375	0.3713264185	0.3055316038	
610.0	0.5755886033	-0.5344042793	
610.625	-0.09911566091	-0.1025944888	
611.25	0.2689578071	-0.649036348	
611.875	-0.2892447104	-0.01200301387	
612.5	-0.2502019044	-0.4016417904	
613.125	-0.5791875279	0.3750255855	
613.75	-0.1918728722	-0.02498017786	
614.375	0.2001311879	0.5338847454	
615.0	-0.05285312867	-0.2061403392	
615.625	0.08839373015	0.5958330895	
616.25	0.0544906485	-0.03377635488	
616.875	-0.5241518491	0.5101337393	
617.5	0.151022747	0.7061057824	
618.125	-0.1695826944	0.1519502345	
618.75	0.09689950447	0.6975181892	
619.375	0.2490324244	0.14753127	
620.0	0.444975843	0.2712234268	
620.625	0.1206750485	-0.4200755179	
621.25	-0.0735044957	-0.4171614649	
621.875	-0.5534664477	-0.1171643846	
622.5	-0.3677047237	0.0764592254	
623.125	-0.1652656844	0.5725053907	
623.75	0.1674660503	-0.1623289032	
624.375	0.4334692574	0.05098329294	
625.0	-0.2983759823	-0.06549893723	
625.625	0.4634598953	-0.1185306765	
626.25	-0.4754594643	-0.405466305	
626.875	0.07497917767	-0.04776690354	
627.5	-0.6012755182	-0.2984710582	
628.125	-0.225047989	0.1280470245	
628.75	0.06953848247	-0.4760099636	
629.375	-0.5459101956	-0.2608078253	
630.0	-0.1371930627	-0.2314840288	
630.625	-0.6381107868	0.06262542293	
631.25	-0.2880445974	0.6107450694	
631.875	0.02958749907	0.4568989198	
632.5	0.2389346287	0.3903067073	
633.125	0.576989912	0.2284232976	
633.75	0.2817962485	-0.3071026689	
634.375	0.2264006861	-0.1702509673	
635.0	-0.1987570287	-0.4947336234	
635.625	-0.07490149054	-0.1525371415	
636.25	-0.5607740334	0.1755826628	
636.875	0.09622876419	0.3829435636	
637.5	-0.1914241304	-0.158037758	
638.125	-0.1850519149	0.7638383648	
638.75	0.1193937647	-0.06784149419	
639.375	-0.3824200488	0.6683159586	
640.0	0.6558739231	0.6391585359	
640.625	0.3848608333	0.03527020524	
641.25	0.7722867002	0.3849185813	
641.875	0.1416631734	-0.6981861618	
642.5	0.2253355443	-0.1989448022	
643.125	-0.4435952363	-0.6407163661	
643.75	-0.236023263	0.3865288804	
644.375	-0.3628651534	-0.4492501945	
645.0	-0.4500617819	0.5917231761	
645.625	0.3554979482	0.3973672258	
646.25	-0.001134124537	0.03759838655	
646.875	0.6989573216	0.1592842479	
647.5	-0.3301457307	-0.1042091369	
648.125	0.6937926703	0.3595914064	
648.75	0.3608548803	-0.6345404186	
649.375	0.5222660171	0.1692438773	
650.0	0.740968002	-1.347640255	
650.625	-0.4166875507	-0.6113635041	
651.25	0.7521858966	0.1387315752	
651.875	1.011933144	-0.9945077879	
652.5	-0.05881106538	-0.3823579587	
653.125	0.9133099009	0.1478121948	
653.75	0.2959122118	-1.020262964	
654.375	-0.1282016348	-0.1757476923	
655.0	-0.6458577811	-0.7604772515	
655.625	-0.269145174	0.9487434217	
656.25	0.1049259597	-0.03465921703	
656.875	-0.03871267888	0.507627949	
657.5	0.3249834224	-0.06962933024	
658.125	-0.06249246888	0.5328847187	
658.75	1.022335277	0.09089379609	
659.375	0.4626292021	-0.4301646357	
660.0	0.5196551037	-0.3269807312	
660.625	0.5526859717	-1.21425416	
661.25	-0.2864741316	-0.5485924927	
661.875	0.8104517285	-0.1384087581	
662.5	0.8217173349	-0.9290619929	
663.125	0.01696511662	-0.5430000063	
663.75	0.8473813246	-0.3785743763	
664.375	-0.6481150988	-0.9108934668	
665.0	-0.1357488802	-0.2964590993	
665.625	-1.161541612	0.1195442798	
666.25	0.2433889073	0.7102590283	
666.875	-0.101440116	0.3361171972	
667.5	0.6186934414	0.4037252677	
668.125	0.4669178703	-0.3548261052	
668.75	0.2671017144	-0.06319379122	
669.375	0.4459593524	-0.6699344936	
670.0	-0.274556268	-0.3995803388	
670.625	0.1829994537	-0.3724071955	
671.25	0.07322358871	-0.5962404036	
671.875	0.08051837763	-0.1710453431	
672.5	0.7063328728	-0.3588219179	
673.125	0.3622744932	-0.6627381305	
673.75	0.01593844825	-0.3193329842	
674.375	0.5121422126	-0.4364325209	
675.0	-0.6145876554	-0.9844226835	
675.625	-0.04348849094	0.3089256907	
676.25	-0.7702888731	-0.535006569	
676.875	-0.2380915828	0.5527357154	
677.5	-0.3405020831	-0.5725095871	
678.125	-0.2329103678	1.003175577	
678.75	-0.02676458889	-0.04675526714	
679.375	0.4460340713	0.5275959052	
680.0	0.6266820571	-0.507397785	
680.625	-0.3521885207	-0.1635038862	
681.25	0.5624973285	0.2537787437	
681.875	0.4030171943	-0.136123853	
682.5	0.3161564267	0.08180105761	
683.125	0.494848271	0.4312251824	
683.75	0.7836592039	-0.1509495931	
684.375	0.4030460207	0.1014063557	
685.0	0.7695000956	0.366344591	
685.625	0.7802794507	-0.5924564718	
686.25	0.1274950586	0.5237362539	
686.875	1.53234604	-0.9170115554	
687.5	-0.4882542772	-0.5209640702	
688.125	0.7120532269	-1.03014942	
688.75	-1.846836001	-0.3052920232	
689.375	0.09955143642	0.2004276414	
690.0	-0.03551707722	1.583230787	
690.625	0.7456645691	-0.06059548181	
691.25	0.2614038853	0.9603139807	
691.875	1.633022951	0.5765693928	
692.5	1.00768519	0.246732748	
693.125	1.548290707	0.07844671829	
693.75	1.312632411	-0.7065383071	
694.375	0.9763468278	-0.8181426793	
695.0	0.9026682441	-0.8938283803	
695.625	0.9000629441	0.07514977558	
696.25	1.751848355	0.2139129103	
696.875	0.5944473655	0.3388622684	
697.5	1.019099194	1.738446534	
698.125	1.539794152	-0.5270449429	
698.75	1.126088678	-0.1881545911	
699.375	-1.615857916	-1.241175453	
700.0	0.2225231717	0.7608031846	
700.625	-0.1876656684	1.306650843	
701.25	0.8087963197	-0.1478590165	
701.875	0.1252806673	0.7671740062	
702.5	1.429362624	0.5203321137	
703.125	0.3837626019	0.1714684854	
703.75	1.307273727	-0.1084945942	
704.375	0.2229658449	-0.7782049209	
705.0	0.7297658393	0.2996117382	
705.625	0.8632379234	-0.6813869056	
706.25	0.02369107833	0.3778870556	
706.875	0.9393349644	1.210717139	
707.5	0.7539435174	-0.03105785693	
708.125	1.107536727	0.8046235901	
708.75	0.4820384414	-1.411572972	
709.375	-0.3026468947	-0.2519498275	
710.0	-0.8022897707	0.6014024775	
710.625	0.5029587131	0.1458113598	
711.25	0.0802099051	0.4032822401	
711.875	0.5829487411	0.1403899719	
712.5	0.8181442123	0.07255263699	
713.125	0.4489949931	-0.6472581755	
713.75	0.3746189479	-0.258408582	
714.375	-0.01456321943	-0.8897520935	
715.0	-0.2497553691	-0.0504262297	
715.625	0.5198663375	-0.8559795133	
716.25	-0.3691661427	-0.7362296892	
716.875	0.8857483791	0.3799188034	
717.5	2.403749983	-0.5401731009	
718.125	0.02345786763	-1.261683878	
718.75	2.911131049	1.462210135	
719.375	1.552319475	-3.107642094	
720.0	0.590887121	-1.11278942	
720.625	1.823114677	-3.009751421	
721.25	-1.878922299	-2.16983292	
721.875	0.3006553531	-2.411711773	
722.5	-2.095430017	-2.143023719	
723.125	-1.966742268	0.5441863849	
723.75	-0.8087394563	0.4543435295	
724.375	0.01365845232	1.571465394	
725.0	0.7893242718	0.627674552	
725.625	0.2236497706	0.6465290343	
726.25	-0.3954687545	1.972762434	
726.875	1.334379141	2.804433967	
727.5	-1.53487415	1.568956861	
728.125	-0.2512837079	7.315315082	
728.75	2.707990867	5.381682121	
729.375	-8.271140484	3.689231898	
730.0	11.35370998	17.05679148	
730.625	3.15745922	0.05394514485	
731.25	-9.170522849	11.56371946	
731.875	-5.204527539	16.03020124	
732.5	-1.081464881	2.574667606	
733.125	-8.508797909	-0.6934568614	
733.75	-0.6320797304	4.302741085	
734.375	1.21244806	0.1555206973	
735.0	0.6727596986	-2.456447357	
735.625	-0.4089554146	1.304112597	
736.25	-0.8754033843	0.8240432054	
736.875	1.405151544	1.91474326	
737.5	3.506785498	-0.4596534203	
738.125	0.8052514069	-1.784831348	
738.75	8.251393491	0.7376416603	
739.375	5.333782292	-9.850810801	
740.0	-3.319501322	1.108054515	
740.625	19.90908312	7.691848375	
741.25	15.7974817	-12.92223883	
741.875	-21.45240149	-26.65819066	
742.5	-14.4997106	-4.27353106	
743.125	0.5760104119	2.482211616	
743.75	2.638062045	-3.996021044	
744.375	-1.967916482	0.8079692177	
745.0	-0.1210408764	-0.2219859228	
745.625	0.3779236374	0.08326716476	
746.25	-0.1657267004	-0.0379532599	
746.875	-0.7633055281	-0.06704671997	
747.5	-0.07292576941	0.967358132	
748.125	-0.03299031049	1.162298028	
748.75	0.3224176572	1.439142404	
749.375	0.7540587636	0.6391151675	
750.0	-0.7336660825	0.7494856368	
