!Created with skrf (http://scikit-rf.org).
# GHz S MA R 50.0 
!freq magS11 angS11
500.0 0.0209098325918 -163.687634259
500.625 0.00769713090025 118.65186904
501.25 0.0229340059704 -152.683097776
501.875 0.0131395243545 -97.0181764459
502.5 0.0282004838943 168.589348492
503.125 0.0115196396649 65.7598194265
503.75 0.00854660039056 -10.6398831582
504.375 0.00484570219476 -121.17990168
505.0 0.0114421965789 -57.2161580485
505.625 0.0316858385922 -71.8531231752
506.25 0.0368731505082 -106.021501531
506.875 0.0648394572085 -98.5925272967
507.5 0.0381260359559 -130.823547375
508.125 0.0476323313912 -106.5840662
508.75 0.0834619352677 -113.365602558
509.375 0.0508284983417 -179.169257109
510.0 0.0294357537732 -141.154644923
510.625 0.0397585780853 -163.681630407
511.25 0.0684842300442 -170.076525947
511.875 0.0535804938363 148.22517454
512.5 0.0400869132128 104.717235894
513.125 0.059549840528 54.3115865426
513.75 0.0701746052104 47.349661267
514.375 0.0348507257264 7.11650322057
515.0 0.0388571111208 5.68027084706
515.625 0.0841684128713 49.6741483798
516.25 0.109905842918 30.6554720338
516.875 0.0865088508245 62.7507110852
517.5 0.113437664252 18.3403115156
518.125 0.188589851484 65.9975097331
518.75 0.0904939074881 15.8952039948
519.375 0.0684201363712 21.8341145227
520.0 0.100010711581 -1.79745173236
520.625 0.0986059789494 -4.54727245971
521.25 0.0935205390198 -20.3906244696
521.875 0.0549177309936 -7.91316732273
522.5 0.0853665470207 -37.1152660241
523.125 0.174714992986 -37.580597722
523.75 0.230260728534 -53.5356062959
524.375 0.192124233427 -65.985036424
525.0 0.066467146063 -50.2029619034
525.625 0.0391717264813 -25.9390970437
526.25 0.0435732078858 -12.9723426357
526.875 0.054935508198 -18.7994747973
527.5 0.0500780793652 -24.0614048856
528.125 0.040490830464 -55.0082558579
528.75 0.0745356086852 -70.4318323034
529.375 0.0880021621911 -108.593350775
530.0 0.0424067161201 -140.890955798
530.625 0.0487119018463 -148.767872837
531.25 0.0828496677838 -127.806577224
531.875 0.17532803441 -146.364301539
532.5 0.142851817191 -171.629110157
533.125 0.0997355288042 176.708504876
533.75 0.125312550688 168.788120696
534.375 0.111591391764 -178.682886174
535.0 0.0828054379453 162.709521661
535.625 0.0637702357364 179.413412428
536.25 0.0563419050666 164.891059363
536.875 0.0759949729659 -158.626917581
537.5 0.0889443501102 -145.025559615
538.125 0.116015109462 -174.085004937
538.75 0.0995196149695 178.440007626
539.375 0.07762735461 -161.988234558
540.0 0.097163537793 -154.058207692
540.625 0.143382058022 -158.046156019
541.25 0.101073097389 -141.018375415
541.875 0.0930016190801 -141.398664839
542.5 0.10131567939 -139.757208721
543.125 0.145660579043 -165.801775481
543.75 0.121811669246 159.924006572
544.375 0.0948394473084 137.68444174
545.0 0.0825549148638 94.2233367051
545.625 0.0982564540364 85.9715295793
546.25 0.1024323935 68.4524222335
546.875 0.0732199418814 56.1091696712
547.5 0.115298593595 59.7139679015
548.125 0.126822464959 79.6677754561
548.75 0.0766048972595 89.2035675407
549.375 0.0969129426678 87.8759744428
550.0 0.0844051805527 128.33860941
550.625 0.0470029090925 158.540174593
551.25 0.0457697061989 -148.362500022
551.875 0.0659552666313 -159.989306988
552.5 0.116090937136 -164.935009302
553.125 0.0948462904215 -168.79225717
553.75 0.0898347938912 -170.581651687
554.375 0.107330631829 168.66460231
555.0 0.125704215584 164.738593147
555.625 0.0960631293247 159.114899538
556.25 0.105857688758 159.808237325
556.875 0.101002082393 169.880152976
557.5 0.11062430383 168.201955107
558.125 0.0894360780088 163.728167992
558.75 0.0900767904959 177.215403973
559.375 0.0628242215411 -170.018271445
560.0 0.046309696309 -146.082656669
560.625 0.0587646890635 -137.154879529
561.25 0.0933193091611 -153.217129203
561.875 0.100612293977 -159.31622735
562.5 0.0881281240649 177.516412869
563.125 0.105927171945 146.983016247
563.75 0.135725658444 130.926101117
564.375 0.103636967471 122.531895854
565.0 0.0887595717853 120.616877023
565.625 0.0817314821156 119.768373087
566.25 0.101931243297 151.575433287
566.875 0.0648209780816 -172.470691833
567.5 0.0700985055515 -174.081859448
568.125 0.0716990992339 -168.495899337
568.75 0.0735233678963 -149.66992473
569.375 0.0474187012167 -102.972183785
570.0 0.0612951187993 -105.863456448
570.625 0.089870092704 -111.033006703
571.25 0.0945288567355 -123.898069303
571.875 0.0840490875948 -118.427882169
572.5 0.111350979584 -153.342376038
573.125 0.130036443591 -171.691803951
573.75 0.107136591314 160.175661367
574.375 0.0732410706379 158.418403257
575.0 0.100455363713 161.382381457
575.625 0.106141583325 157.935676297
576.25 0.093114499936 144.326169014
576.875 0.0800233602001 129.401594621
577.5 0.0804255130544 141.887107759
578.125 0.0591488188086 162.037602284
578.75 0.0520452689871 155.595418904
579.375 0.0503385464413 179.216662607
580.0 0.0684533489232 -171.97279398
580.625 0.074570864001 -144.677706162
581.25 0.0884291139394 -169.333797904
581.875 0.114076053285 -173.1985905
582.5 0.115729484161 -173.038388783
583.125 0.095836135674 -170.422935482
583.75 0.0820803521999 -166.661103192
584.375 0.103689615601 -158.737766096
585.0 0.0923469087129 -141.274434983
585.625 0.0723981140134 -147.285822377
586.25 0.0711405019553 -144.938245736
586.875 0.0800995625751 -128.210740233
587.5 0.0725699547088 -140.606461983
588.125 0.0599018586528 -178.377510134
588.75 0.0678510377867 -165.889496441
589.375 0.0846850173051 -151.864057159
590.0 0.0925509904369 -163.900513571
590.625 0.105999319245 165.924458777
591.25 0.122963162522 155.899793809
591.875 0.100938520774 153.318021728
592.5 0.0594121802807 154.38923034
593.125 0.0620173340218 152.786561422
593.75 0.0766283107691 174.25886486
594.375 0.0585236618051 -153.407289406
595.0 0.0427167252289 -115.61134008
595.625 0.0639697278734 -96.9640325629
596.25 0.0760153815328 -82.6787377888
596.875 0.0647746483563 -81.1134715148
597.5 0.0632180690036 -51.4916802085
598.125 0.0626608358995 -63.2985474471
598.75 0.0712708706407 -71.4603439996
599.375 0.0904373204454 -60.4126992095
600.0 0.102665096245 -63.6528273628
600.625 0.0986484288914 -63.8452079402
601.25 0.0845858113724 -74.1199801779
601.875 0.06847727427 -89.3869417447
602.5 0.0643834387797 -79.2435421772
603.125 0.0451152021838 -53.7379281043
603.75 0.0318179144342 -26.6470532916
604.375 0.0301429740968 -40.5452583722
605.0 0.0776355009019 -0.464243686468
605.625 0.052696633307 -1.94024797241
606.25 0.0265911846 20.6086588179
606.875 0.0219968312023 45.6822057103
607.5 0.0569058717912 43.7599381505
608.125 0.0765925780437 31.7197550175
608.75 0.0654039180907 24.4612641366
609.375 0.0475939602485 20.7615447851
610.0 0.0904380021019 56.9764462989
610.625 0.0684986603972 41.1112343975
611.25 0.0516730020113 43.2306561688
611.875 0.0291390072013 19.1066388235
612.5 0.0217886845057 86.4650236133
613.125 0.030913413988 133.37255145
613.75 0.0423524620329 122.755302983
614.375 0.0512083630966 122.901221524
615.0 0.0207443005504 103.674072055
615.625 0.0458053941899 134.711105619
616.25 0.0656258202329 135.419471211
616.875 0.055435276869 135.531645011
617.5 0.0237009989072 109.634618752
618.125 0.0328983056396 131.675751443
618.75 0.0483998151107 144.737729373
619.375 0.0259927033322 143.501274932
620.0 0.00553455113605 2.85174951323
620.625 0.0183739135288 -98.0403192821
621.25 0.0438855616276 -89.1138962714
621.875 0.0614488571066 -112.406550374
622.5 0.0682755087988 -154.381916677
623.125 0.0934595856584 161.635424206
623.75 0.0769355224885 161.247895557
624.375 0.0482008703826 -179.318327054
625.0 0.0282558164802 -109.043156115
625.625 0.0688691116398 -156.492798933
626.25 0.0270608561836 174.966153173
626.875 0.00465758319509 -112.184685352
627.5 0.0478686292202 -8.7997809008
628.125 0.0386070484197 -21.9269664682
628.75 0.0397060588336 -16.1661263014
629.375 0.0551422855474 -2.9115596383
630.0 0.064028540016 -2.49646552377
630.625 0.0727029309588 0.784055927459
631.25 0.0676153428928 -9.30484243419
631.875 0.073677315993 -8.61284089941
632.5 0.0667318456096 12.2170294055
633.125 0.0447326759243 7.37511185806
633.75 0.039990630055 1.15732893198
634.375 0.0416467402568 18.2762476163
635.0 0.0314079885338 17.1864223911
635.625 0.0538990374417 50.7990191303
636.25 0.0415239888437 9.95179255034
636.875 0.0570515577368 37.5560950445
637.5 0.0475845332713 53.6835861824
638.125 0.04432041249 72.9867104905
638.75 0.073627625806 73.0537360629
639.375 0.0917156247039 91.6877973336
640.0 0.0721722300342 108.453027863
640.625 0.0534466752329 104.729766599
641.25 0.0774789552623 130.50249661
641.875 0.0641979271365 151.368303627
642.5 0.0545111112534 150.144613719
643.125 0.0717526933035 164.878828627
643.75 0.0679093936407 169.700549135
644.375 0.0755364586128 -172.394297872
645.0 0.0816190181289 179.324783187
645.625 0.0892078481428 169.200198168
646.25 0.0975853525142 169.850125393
646.875 0.0649776336993 172.488144228
647.5 0.0597605834524 -175.546076598
648.125 0.081899442279 -173.459338264
648.75 0.0886573394579 -156.367740683
649.375 0.0373510784192 -168.355171328
650.0 0.0343002928806 -119.597064358
650.625 0.0567503366432 -91.1925156878
651.25 0.0824919244682 -64.1904873881
651.875 0.0459048059294 -44.995037623
652.5 0.0853563056821 -20.7575782291
653.125 0.116179507166 -5.32557688589
653.75 0.122293552171 7.23312907002
654.375 0.105766727099 6.18843152495
655.0 0.118613872721 14.2336070357
655.625 0.090592044556 27.2351585029
656.25 0.0720341835045 24.3394130619
656.875 0.0483950986608 -5.29244228713
657.5 0.0748303819237 24.4470334668
658.125 0.0767035338494 52.1055503359
658.75 0.0639417746698 63.6383943943
659.375 0.0811362495487 41.5682901731
660.0 0.112899832342 26.7620120579
660.625 0.11705466942 19.6719465331
661.25 0.108700993368 6.66821580429
661.875 0.133772364663 -12.1797347919
662.5 0.123206947375 -18.7510160605
663.125 0.0994762716413 -19.7666577705
663.75 0.10727370406 6.77348109651
664.375 0.0912502314137 53.8067993463
665.0 0.0652329316655 86.974467642
665.625 0.0652289752402 115.295672453
666.25 0.0927233862083 131.142122254
666.875 0.110927094363 173.792041148
667.5 0.090001168775 -166.132466273
668.125 0.102551148848 -176.662195453
668.75 0.139295319272 166.751876075
669.375 0.100279124324 177.265032729
670.0 0.0762358598615 -167.643952545
670.625 0.0794928100821 -171.347611761
671.25 0.125265616181 174.14486168
671.875 0.081388369248 170.156077877
672.5 0.0795426744381 158.809547347
673.125 0.0718704958294 156.448130244
673.75 0.121201218828 157.523287397
674.375 0.10729492792 170.387164971
675.0 0.113829978873 -172.134621458
675.625 0.118864840057 -148.073506737
676.25 0.131349849329 -125.337017408
676.875 0.101086806382 -118.697912287
677.5 0.11413295488 -125.155057279
678.125 0.106499550738 -112.465022916
678.75 0.0774964977072 -93.467879106
679.375 0.0435168485369 -63.8299131798
680.0 0.0772640967073 -75.5946766776
680.625 0.132135661335 -77.4426472396
681.25 0.105829924861 -71.2290691413
681.875 0.105473235794 -94.3262379325
682.5 0.124031617681 -114.436329263
683.125 0.153893300234 -118.691174286
683.75 0.125927698617 -102.038781031
684.375 0.124906519398 -80.7347845341
685.0 0.136943784813 -38.7384286939
685.625 0.12634446767 1.14703338303
686.25 0.11302951402 21.5954185777
686.875 0.0969682558297 45.2083373815
687.5 0.0646006251934 84.915736791
688.125 0.0798583743997 111.975084217
688.75 0.106510212838 111.643573259
689.375 0.14822836973 119.146283794
690.0 0.140497438754 132.169192057
690.625 0.119142657843 128.128179208
691.25 0.145025961551 98.3563296697
691.875 0.188419924035 70.8514270591
692.5 0.151775423875 39.1357306712
693.125 0.0702794259461 -7.1311285214
693.75 0.093156305163 -35.4911006753
694.375 0.123599745001 -26.690082891
695.0 0.134636476326 10.9390369102
695.625 0.106597074659 51.579261091
696.25 0.114852407653 114.39826191
696.875 0.135916862017 178.099947958
697.5 0.136257206531 -139.534725187
698.125 0.147112827635 -137.150587049
698.75 0.126586100122 -129.661376038
699.375 0.112458800163 -125.363664273
700.0 0.0983520059063 -115.432735696
700.625 0.10949562293 -85.4237599378
701.25 0.0982533141477 -62.2831372642
701.875 0.0839489557751 -60.6661778561
702.5 0.10043194207 -82.6186043865
703.125 0.17306405894 -125.8744561
703.75 0.164739904175 -144.171061223
704.375 0.122080728339 177.252292684
705.0 0.102594026322 162.561489795
705.625 0.145927710127 -174.850832911
706.25 0.139802650138 -107.981840783
706.875 0.090817312869 -61.3423211469
707.5 0.0800219254692 -38.1091512644
708.125 0.090802036591 19.5678578794
708.75 0.113816717282 63.3856968622
709.375 0.108068680606 105.671577391
710.0 0.105213840825 134.263530064
710.625 0.10512547199 158.35345529
711.25 0.119770343544 168.41961838
711.875 0.14562128329 169.544631447
712.5 0.156168266929 140.679999552
713.125 0.129377743217 98.0249234247
713.75 0.105994726789 41.8380336929
714.375 0.113267521578 36.8258786279
715.0 0.113447685718 40.035217304
715.625 0.0834052998356 62.6255802218
716.25 0.0753511654176 68.2031116464
716.875 0.124177827486 116.714998176
717.5 0.14427216027 146.730317701
718.125 0.120319567629 168.555974768
718.75 0.103196389192 173.047437391
719.375 0.110962460573 179.914976736
720.0 0.137340984345 -111.785725328
720.625 0.114500340663 -66.3526034579
721.25 0.0989720068048 -21.0847710793
721.875 0.0819825101718 35.3280057904
722.5 0.0723211152186 71.8900749059
723.125 0.0791377217118 71.1689237407
723.75 0.114959303211 43.034895283
724.375 0.101458565978 -9.22531583802
725.0 0.101432063484 -32.8498066128
725.625 0.116091135503 -55.7639143414
726.25 0.117029529386 -59.6304730018
726.875 0.0967965585981 -63.8508507194
727.5 0.0914218090636 -12.6052511199
728.125 0.0741644667188 -0.134974169275
728.75 0.0858268048186 19.3914680288
729.375 0.0861377864225 20.6078067958
730.0 0.0604799398054 -9.38556608247
730.625 0.0940484543217 41.322850108
731.25 0.0933718618343 77.4659728971
731.875 0.0760118688052 121.522997345
732.5 0.0537090321011 141.092459309
733.125 0.0882163746114 176.12154698
733.75 0.0901595920193 -174.267763533
734.375 0.0635968612114 172.644615534
735.0 0.0391355060225 132.862936874
735.625 0.0594087760534 146.542667332
736.25 0.0639067955251 149.50173139
736.875 0.0562093731567 167.715229052
737.5 0.0549427323181 -175.887523105
738.125 0.128949108295 -166.503697438
738.75 0.0958336878902 -165.675847721
739.375 0.0642799122391 -155.29318199
740.0 0.0124408911694 -103.027037871
740.625 0.0535228047344 -143.878509503
741.25 0.0456957555737 -153.959272178
741.875 0.0388834177281 -112.949266366
742.5 0.038899784152 -22.3787638855
743.125 0.0220093156215 76.752266686
743.75 0.0331137200118 105.258275572
744.375 0.0287502613056 152.047829318
745.0 0.0497900428699 153.57589973
745.625 0.0707349520016 111.761406162
746.25 0.0792186098614 84.3836856174
746.875 0.0799725071347 35.2519109956
747.5 0.0412296326304 6.39630282842
748.125 0.0153652578354 68.9133850697
748.75 0.0434260855205 -25.6763693191
749.375 0.0273916157524 -24.9946541405
750.0 0.0309854681853 -59.9232328523
