!Created with skrf (http://scikit-rf.org).
# GHz S RI R (50+0j) 
!freq	ReS11	ImS11	
500.0	0.2103732349	-0.8219703046	
500.625	0.2640978671	-0.7762878064	
501.25	-0.4337454118	-0.620217378	
501.875	-0.1874756409	-0.3662381095	
502.5	-0.04100461204	-0.1143240794	
503.125	-0.06101533101	0.002216857273	
503.75	0.01063077715	0.06813256044	
504.375	0.02256146421	-0.005402636093	
505.0	0.01835020657	-0.01770976263	
505.625	-0.001334032556	-0.04349567942	
506.25	-0.05186478874	-0.05063168499	
506.875	-0.1109115128	0.01056500009	
507.5	-0.09591779142	-0.2735656463	
508.125	0.1495090634	-0.5642453527	
508.75	0.4079098393	-0.7863189761	
509.375	-0.1218988398	-0.8187616114	
510.0	-0.3758079244	-0.3968904304	
510.625	-0.06064719489	-0.1102407992	
511.25	-0.10766764	-0.04421412231	
511.875	-0.08228279673	-0.04039872895	
512.5	-0.007748518297	0.02536917781	
513.125	0.00390395556	-0.06216085299	
513.75	-0.04668178855	-0.0465523052	
514.375	-0.04390801716	-0.003296383706	
515.0	0.003313456816	-0.03788818773	
515.625	-0.04262198826	-0.2734204865	
516.25	-0.1418586866	-0.6176881002	
516.875	-0.1517763378	-0.3327091745	
517.5	-0.04193974745	-0.1195314178	
518.125	-0.02215228112	-0.0205860239	
518.75	-0.03536899902	-0.1058425383	
519.375	-0.04573837094	0.03236179763	
520.0	0.08887473971	0.04655527242	
520.625	0.1332695864	-0.05004300051	
521.25	-0.008057864921	-0.2133524895	
521.875	-0.1228017748	-0.02524508957	
522.5	-0.04087933179	0.02558495281	
523.125	-0.04863138406	0.01578723295	
523.75	-0.09444084244	-0.009752467538	
524.375	-0.1291601175	0.02772699975	
525.0	-0.04042931426	0.1140256498	
525.625	0.02914437919	0.04265417993	
526.25	-0.01237229973	-0.01307896377	
526.875	-0.04295452376	0.0464907129	
527.5	-0.03345751696	0.150561662	
528.125	0.04913706554	0.20900269	
528.75	0.03139335291	0.1713051189	
529.375	0.0457465977	0.05135396397	
530.0	0.01745605746	0.1277334499	
530.625	0.09041161794	0.2380763142	
531.25	0.3229418051	0.1007210851	
531.875	0.2047255407	-0.139322101	
532.5	-0.04805996815	-0.0946241967	
533.125	0.05421666331	-0.03628193015	
533.75	0.09628691314	-0.1488980644	
534.375	-0.06184024899	-0.2325145599	
535.0	-0.1939053144	-0.09970075538	
535.625	-0.1420441769	0.08680922111	
536.25	-0.0003961639037	0.08327289086	
536.875	0.08112992295	0.01396982065	
537.5	0.05809160959	-0.03932473641	
538.125	0.09780600149	-0.05764312882	
538.75	0.1067223635	-0.1061945433	
539.375	-0.06729814155	-0.1448961299	
540.0	-0.1434682269	-0.1296944873	
540.625	-0.1435844617	-0.02029729335	
541.25	-0.07627289477	0.001516206199	
541.875	-0.03754061227	-0.01863815187	
542.5	-0.03902253116	-0.04842538457	
543.125	-0.06767624986	-0.04107971768	
543.75	-0.07396704498	-0.006941121197	
544.375	-0.04320664539	0.03587264911	
545.0	-0.00297378694	0.05136717026	
545.625	0.0432748965	0.05758504205	
546.25	0.0868940753	0.03312189368	
546.875	0.1032329294	-0.02256870774	
547.5	0.0608820214	-0.1096550662	
548.125	-0.04053022148	-0.1434379169	
548.75	-0.1100409895	-0.09721433836	
549.375	-0.09619154862	-0.06155021503	
550.0	-0.06992870753	0.007773578178	
550.625	-0.0464169624	0.004686040179	
551.25	-0.06824180522	0.02654627215	
551.875	-0.06479737118	0.05900926647	
552.5	-0.04104771532	0.0669561267	
553.125	-0.01198168671	0.05715849096	
553.75	0.03898297814	0.04381379145	
554.375	0.08622746644	-0.0008107531728	
555.0	0.08962518136	-0.06306184261	
555.625	0.08076025171	-0.09728192537	
556.25	0.05693322032	-0.1250612994	
556.875	-0.02875133934	-0.1448582943	
557.5	-0.09094946993	-0.09698187509	
558.125	-0.1084809966	-0.03635152431	
558.75	-0.1023893268	-0.002002942329	
559.375	-0.1012508493	0.0194222452	
560.0	-0.08875873866	0.07031033774	
560.625	-0.04564195555	0.1010520971	
561.25	0.005979849883	0.09133953855	
561.875	0.02751967547	0.04166088514	
562.5	0.008542291617	0.04931119598	
563.125	0.064845365	0.06718195456	
563.75	0.128443078	0.004704271831	
564.375	0.1193653367	-0.08710384007	
565.0	0.06708755373	-0.1337510464	
565.625	-0.02785736341	-0.1440943491	
566.25	-0.104713802	-0.09798212923	
566.875	-0.1247573785	-0.07111195284	
567.5	-0.1275366609	-0.09584246948	
568.125	-0.1302901933	-0.1345030627	
568.75	-0.2034591291	-0.06854104482	
569.375	-0.2070975028	0.09121232726	
570.0	-0.1060737416	0.1779086952	
570.625	-0.04458980179	0.1585130117	
571.25	0.007389795459	0.1020097342	
571.875	0.05229461181	0.06897644618	
572.5	0.1120320882	-0.004077079244	
573.125	0.08024943601	-0.09752548125	
573.75	0.03830161825	-0.1037212352	
574.375	0.008268267743	-0.05960809369	
575.0	0.02765855859	-0.03782918569	
575.625	0.02987671473	-0.06484029987	
576.25	0.04230852703	-0.1002469304	
576.875	-0.006602035982	-0.1286141539	
577.5	-0.002118649877	-0.1404537489	
578.125	-0.04213584473	-0.1447654287	
578.75	-0.07902198421	-0.1069228348	
579.375	-0.07572346575	-0.05966141504	
580.0	-0.05013465439	-0.02744085467	
580.625	-0.06081906878	-0.02778538603	
581.25	-0.09525932454	0.06946241064	
581.875	0.005885254937	0.1384099146	
582.5	0.04858750976	0.1267841933	
583.125	0.07205893506	0.06839292177	
583.75	0.03249128215	0.02025698836	
584.375	0.03265065291	0.05285402074	
585.0	0.09497926774	0.05600503267	
585.625	0.1420326889	0.002479757486	
586.25	0.1340960085	-0.05504629751	
586.875	0.07096439887	-0.1186693785	
587.5	-0.009360337661	-0.1277443599	
588.125	-0.01254409982	-0.1235077462	
588.75	0.02707720748	-0.1327920052	
589.375	0.05276371766	-0.1372877269	
590.0	-0.04706909546	-0.1582015359	
590.625	-0.1654395921	-0.04236756615	
591.25	-0.1172617203	0.09563216475	
591.875	-0.03153019504	0.1075193679	
592.5	0.01007823689	0.04303025639	
593.125	-0.02875236703	0.04607911755	
593.75	0.05066099221	0.1066832848	
594.375	0.1330799081	0.08624697997	
595.0	0.1517366569	0.08708430558	
595.625	0.1560353597	0.06252416616	
596.25	0.1398113026	0.03414181299	
596.875	0.1426598233	0.03168745526	
597.5	0.1317236931	0.06883644658	
598.125	0.1312944417	0.09918348796	
598.75	0.1581384956	0.07977335705	
599.375	0.1911069984	-0.02993311177	
600.0	0.1468567122	-0.1273634651	
600.625	0.1219738771	-0.1595431639	
601.25	0.05416843088	-0.1733182999	
601.875	-0.0708510305	-0.1254966149	
602.5	-0.1137297551	-0.01882422258	
603.125	-0.1013346139	0.04084881493	
603.75	-0.09380178599	0.06376399098	
604.375	-0.0891413433	0.06407945088	
605.0	-0.06427866321	0.07067884911	
605.625	-0.06147595264	0.0558280586	
606.25	-0.1045246874	0.05416196389	
606.875	-0.1533695333	0.08004087073	
607.5	-0.1433374256	0.1567731213	
608.125	-0.03332554078	0.2230418399	
608.75	0.162346464	0.1597214565	
609.375	0.2106046093	-0.02194489845	
610.0	0.1561439581	-0.1043321327	
610.625	0.07605157096	-0.1476227573	
611.25	0.007987786007	-0.1409118397	
611.875	-0.07706119307	-0.1176861042	
612.5	-0.1465661586	-0.05598468161	
613.125	-0.1728921038	0.02711493763	
613.75	-0.084309838	0.1346778616	
614.375	0.04219567244	0.09615555534	
615.0	0.03266290786	0.04415598173	
615.625	0.001954939836	0.07611509027	
616.25	-0.04004834458	0.1287584873	
616.875	-0.07161826549	0.1746396413	
617.5	-0.05502640487	0.1982431744	
618.125	-0.02161883298	0.1920590809	
618.75	0.02307107589	0.1792749749	
619.375	0.08153661332	0.1477642965	
620.0	0.171346358	0.05200528221	
620.625	0.1081206187	-0.141731709	
621.25	-0.07463242698	-0.1679286793	
621.875	-0.183559606	-0.08491021605	
622.5	-0.2003065835	0.05453336271	
623.125	-0.03712595985	0.1674610757	
623.75	0.1163870999	0.04524173683	
624.375	0.03890300155	-0.04997832293	
625.0	0.03676476473	-0.02017803607	
625.625	0.04982868955	-0.08278684977	
626.25	-0.044080267	-0.1247271844	
626.875	-0.1236462568	-0.07864109519	
627.5	-0.1355082865	-0.03893989847	
628.125	-0.1017575308	-0.05939492816	
628.75	-0.0647622696	-0.1116302	
629.375	-0.08466190543	-0.1393099945	
630.0	-0.1681326606	-0.09197900853	
630.625	-0.2051366886	0.05186116551	
631.25	-0.1354688948	0.176314821	
631.875	-0.02646034415	0.2222297053	
632.5	0.1262594369	0.183787723	
633.125	0.1928078339	0.05537210541	
633.75	0.1539604272	-0.05616287577	
634.375	0.06697792333	-0.1221239421	
635.0	-0.008558514747	-0.1383699303	
635.625	-0.1263107979	-0.08875980669	
636.25	-0.1479114031	0.05816166415	
636.875	-0.06203533802	0.1154734205	
637.5	-0.03527911139	0.07877911519	
638.125	-0.06410789327	0.08057516376	
638.75	-0.067217408	0.1492011498	
639.375	-0.00972680739	0.2274312455	
640.0	0.1215598037	0.2288175795	
640.625	0.21444867	0.1398248621	
641.25	0.2500233068	0.01047462504	
641.875	0.1697716795	-0.1612002783	
642.5	0.001440645155	-0.1954934255	
643.125	-0.1011216797	-0.1169142672	
643.75	-0.1222846415	-0.07515494741	
644.375	-0.1610806375	-0.005563893701	
645.0	-0.1423327894	0.1340213646	
645.625	0.0427853135	0.2015202891	
646.25	0.1483530009	0.07028102924	
646.875	0.08994210194	-0.01053292444	
647.5	0.05192863199	0.02998740276	
648.125	0.1411789105	0.05502329469	
648.75	0.2441842566	-0.05535972766	
649.375	0.2048069156	-0.2174502737	
650.0	0.1525277919	-0.2670641395	
650.625	0.1461088	-0.2574801408	
651.25	0.1776835265	-0.2100598982	
651.875	0.2342704623	-0.1392786453	
652.5	0.2576161956	-0.07948149588	
653.125	0.245780255	-0.08279115106	
653.75	0.2002578854	-0.1918643959	
654.375	-0.02610677405	-0.2841443445	
655.0	-0.2478329665	-0.11336324	
655.625	-0.1826113637	0.1557179431	
656.25	0.02041339153	0.1563460101	
656.875	0.03962867815	0.0693947999	
657.5	0.02905255229	0.09294582131	
658.125	0.1198557234	0.1570135401	
658.75	0.2667152192	0.08091707752	
659.375	0.2969934681	-0.1123715826	
660.0	0.2198981723	-0.259549055	
660.625	0.127952154	-0.2925780478	
661.25	0.1558519407	-0.2599737591	
661.875	0.1984078268	-0.2260794615	
662.5	0.2386897964	-0.170229531	
663.125	0.24926039	-0.1673996612	
663.75	0.157849394	-0.2469865771	
664.375	-0.01200011648	-0.3022587778	
665.0	-0.2351485117	-0.2072698642	
665.625	-0.2868374281	0.05914832185	
666.25	-0.114060478	0.24100784	
666.875	0.09669123112	0.1957652106	
667.5	0.1579545711	0.09682317159	
668.125	0.2044354	0.002021815385	
668.75	0.1797548996	-0.1210795611	
669.375	0.09981803025	-0.1927560059	
670.0	0.01709726983	-0.2050584534	
670.625	0.006206700578	-0.1729289478	
671.25	0.05985638188	-0.1546901908	
671.875	0.1305551135	-0.15292594	
672.5	0.1852326485	-0.1322781164	
673.125	0.1940427855	-0.1435620521	
673.75	0.160925937	-0.1884772319	
674.375	0.06212445725	-0.237317929	
675.0	-0.06407757819	-0.2201297303	
675.625	-0.1591969583	-0.1335533257	
676.25	-0.1668007363	-0.03675140974	
676.875	-0.1326260791	-0.000773782197	
677.5	-0.1425347137	0.008244657534	
678.125	-0.1418433238	0.114947286	
678.75	0.01058868035	0.2077918653	
679.375	0.1807845441	0.08657638726	
680.0	0.1418499089	-0.0726010983	
680.625	0.06607454468	-0.07127850667	
681.25	0.08194113036	-0.008871683157	
681.875	0.1361430058	0.04671667232	
682.5	0.1835013996	0.08406354834	
683.125	0.2190842407	0.07749669887	
683.75	0.2352155924	0.07218713723	
684.375	0.2475528226	0.04827634014	
685.0	0.2524131903	0.04669992397	
685.625	0.2648974758	0.01911182747	
686.25	0.2757258308	-0.02182636608	
686.875	0.281778084	-0.1087696673	
687.5	0.2609830333	-0.2377616844	
688.125	0.0177653134	-0.3975814038	
688.75	-0.3485039394	-0.2156451068	
689.375	-0.2963300471	0.253241963	
690.0	0.06313867067	0.3274618171	
690.625	0.1942371657	0.2400485374	
691.25	0.2807668046	0.2593318107	
691.875	0.4012202331	0.2829652103	
692.5	0.540090912	0.2047578472	
693.125	0.600347876	-0.01308289102	
693.75	0.5300249743	-0.2088323879	
694.375	0.4038621595	-0.3429260094	
695.0	0.4077079578	-0.2551238089	
695.625	0.4503457385	-0.06095349037	
696.25	0.4433026129	0.1692184568	
696.875	0.3327842415	0.3597626149	
697.5	0.3035134567	0.4327619799	
698.125	0.4856666953	0.2673405923	
698.75	0.4410988015	-0.3015100773	
699.375	-0.27361745	-0.4000886431	
700.0	-0.2981615854	0.2663986991	
700.625	0.1033693214	0.2736242605	
701.25	0.1867118941	0.1733072697	
701.875	0.2341004926	0.2142742509	
702.5	0.3070638543	0.2116119309	
703.125	0.3699424887	0.1139133803	
703.75	0.3521352395	-0.08442737101	
704.375	0.247692065	-0.1726449775	
705.0	0.213336164	-0.1180723559	
705.625	0.2363284081	0.003383550969	
706.25	0.2251093632	0.1591236951	
706.875	0.1928778766	0.2660439243	
707.5	0.2136381948	0.3228472085	
708.125	0.3817877978	0.1601377322	
708.75	0.2987885605	-0.2600771137	
709.375	-0.1833961181	-0.289726211	
710.0	-0.1987430174	0.1560877518	
710.625	0.04214596488	0.139973354	
711.25	0.06579177727	0.111970586	
711.875	0.1798950635	0.1217710116	
712.5	0.2765472101	-0.009617384975	
713.125	0.236377555	-0.142680633	
713.75	0.1312264026	-0.2161872641	
714.375	0.01598797789	-0.2162937752	
715.0	-0.02352886604	-0.176804838	
715.625	0.02056151429	-0.189845208	
716.25	0.137127807	-0.2149467403	
716.875	0.2829572612	-0.1584540459	
717.5	0.434852047	-0.00549606721	
718.125	0.5745389179	0.08269598006	
718.75	0.6628780638	-0.04427171105	
719.375	0.6565478777	-0.2834922719	
720.0	0.5202785987	-0.6359087046	
720.625	0.2485185611	-0.7710359975	
721.25	0.04511409429	-0.8307918452	
721.875	-0.09825339125	-0.8823833187	
722.5	-0.483001879	-0.7153665994	
723.125	-0.6545472467	-0.172110538	
723.75	-0.3915159473	0.3376661013	
724.375	0.00575748706	0.4104419861	
725.0	0.1466236095	0.3175424377	
725.625	0.1421888799	0.3962000486	
726.25	0.04948074377	0.583779743	
726.875	-0.06268173385	0.79002621	
727.5	-0.148631297	1.13791675	
728.125	-0.08041036603	1.615364806	
728.75	-0.02140524503	2.268529452	
729.375	-0.7269095776	2.724026763	
730.0	-0.2138393264	3.258308372	
730.625	-0.1481254308	3.457356387	
731.25	-0.9665677578	2.794070389	
731.875	-2.281446942	2.156625032	
732.5	-2.812389285	0.5414430173	
733.125	-2.061050489	0.1418067288	
733.75	-0.8910246781	1.024416169	
734.375	0.6362650625	0.4934928508	
735.0	0.08528367423	-0.5173927869	
735.625	-0.4252873662	0.05492524511	
736.25	-0.08242501337	0.4398321474	
736.875	0.3265720171	0.5017485835	
737.5	0.8730777246	0.1970676665	
738.125	1.197928447	-0.2900969365	
738.75	1.439570037	-0.8749110007	
739.375	1.864535067	-1.203286471	
740.0	2.276429003	-0.9451297243	
740.625	1.96003996	0.05462878613	
741.25	0.5921370894	2.086671271	
741.875	-1.631747962	-0.1070117646	
742.5	-0.6488432328	-1.910021172	
743.125	0.2727058201	-1.553070389	
743.75	0.07128994676	-0.8202581685	
744.375	-0.3478455264	-0.1200267568	
745.0	0.0712654637	0.09647452719	
745.625	0.04868155461	0.00273425909	
746.25	0.0005503876572	-0.1144077024	
746.875	-0.2105355438	-0.004405859191	
747.5	-0.08823017527	0.2859754886	
748.125	0.08438639109	0.4348345737	
748.75	0.2177962346	0.3893862723	
749.375	0.08311020141	0.4051793512	
750.0	-0.2948291146	0.288573586	
