!Created with skrf (http://scikit-rf.org).
# GHz S MA R 50.0 
!freq magS11 angS11
500.0 0.0147665469742 172.189817821
500.625 0.012848028959 151.067142854
501.25 0.0124446011079 -140.203036132
501.875 0.01606382707 -110.209856831
502.5 0.0215699700532 162.632521043
503.125 0.0103703313711 119.092669632
503.75 0.0161291436455 -29.4085547146
504.375 0.0118906684937 145.734087639
505.0 0.0159879745386 -59.9235658583
505.625 0.0369505547045 -76.7248234815
506.25 0.0382003235596 -105.794677718
506.875 0.0549890306096 -109.504220703
507.5 0.0386168056101 -134.722548359
508.125 0.0456191341251 -107.624802504
508.75 0.0869022969492 -113.657809182
509.375 0.0511165529801 -175.238024452
510.0 0.0255737834621 -148.543197313
510.625 0.0332170087667 -167.622827601
511.25 0.0754770848943 -167.78833869
511.875 0.0506548005932 138.967408851
512.5 0.0393342139176 101.693392848
513.125 0.0549589183551 46.3312917941
513.75 0.0727497450678 50.1083193075
514.375 0.0380504635977 24.6927773337
515.0 0.0526631860582 12.011576737
515.625 0.0853915683907 51.9446701279
516.25 0.10786487135 33.3521177542
516.875 0.0998743805785 68.1990287522
517.5 0.105832978102 18.9445449877
518.125 0.193056588062 71.380532739
518.75 0.0849776727281 10.1657431325
519.375 0.072172676642 21.5174948515
520.0 0.0997486035178 -0.69058392428
520.625 0.101210153738 -3.58152633205
521.25 0.0914676222156 -19.9188517101
521.875 0.0622917799351 -2.21525978629
522.5 0.0917266535794 -33.7660057117
523.125 0.178003062893 -33.5008487746
523.75 0.227506253195 -52.4781604085
524.375 0.189874360123 -63.2608474115
525.0 0.0680589368316 -40.9356067312
525.625 0.0428552098291 -19.5160649864
526.25 0.0357917556536 -19.8899753909
526.875 0.0511852566341 -20.0831613997
527.5 0.0555075257494 -21.5952226576
528.125 0.0454275853391 -51.2432030564
528.75 0.0741648002218 -68.4923996928
529.375 0.0889458489296 -106.116763201
530.0 0.0387593806575 -139.054201652
530.625 0.0507093735094 -147.200052757
531.25 0.0851061491788 -126.523053416
531.875 0.168739972227 -144.699810391
532.5 0.132181500207 -172.285151653
533.125 0.106869141425 177.281967232
533.75 0.112582147533 169.436906945
534.375 0.112781710857 -178.343694421
535.0 0.0886674745091 166.028438293
535.625 0.0636711214184 -179.742235115
536.25 0.0461772066877 166.532207003
536.875 0.0719100181707 -157.636526339
537.5 0.0862914020201 -139.684613646
538.125 0.117287787811 -173.228895114
538.75 0.0886271171677 177.930239187
539.375 0.0745368079695 -158.53004853
540.0 0.101087233883 -154.476657903
540.625 0.148921148995 -157.026654968
541.25 0.100410465931 -139.601558306
541.875 0.0900206567184 -138.071094734
542.5 0.104181735943 -140.279614774
543.125 0.152080314018 -166.360905658
543.75 0.110707375336 159.004004194
544.375 0.095863081375 137.531544378
545.0 0.0896612082914 94.1923633567
545.625 0.0976475508086 86.9297494116
546.25 0.0999861778395 70.360020533
546.875 0.0822035312601 58.149389983
547.5 0.121167517646 59.5296973748
548.125 0.129934939156 80.1226526258
548.75 0.069144159005 89.922664576
549.375 0.0933625364902 89.7142608358
550.0 0.090740839423 129.379660887
550.625 0.0481926011349 163.664462384
551.25 0.0462420334466 -143.711119599
551.875 0.0689563182241 -158.660477121
552.5 0.109588370589 -162.861960419
553.125 0.0983162510433 -168.737200401
553.75 0.0862555212633 -164.638166262
554.375 0.111008788114 168.57445
555.0 0.131750930098 165.061391869
555.625 0.0966606692617 160.499252141
556.25 0.106399109929 161.672595229
556.875 0.106621800316 169.694874186
557.5 0.108770610798 169.876494728
558.125 0.0876031642257 166.202953108
558.75 0.088743233265 179.122497004
559.375 0.0648174478301 -169.725572341
560.0 0.048370729657 -145.419102134
560.625 0.0593780052607 -134.888003292
561.25 0.0937326856821 -152.105833896
561.875 0.10291062785 -159.833883292
562.5 0.0906797757857 177.463864185
563.125 0.106848115983 147.240372117
563.75 0.125438454731 133.38850392
564.375 0.104285948966 122.973940509
565.0 0.0855987861743 122.129206229
565.625 0.081102598675 121.482466016
566.25 0.0999965879907 154.250676535
566.875 0.0706220293675 -174.505417814
567.5 0.067694173097 -170.787281183
568.125 0.073897303511 -166.069006002
568.75 0.0774048047998 -149.803784407
569.375 0.0446731782191 -92.8656195007
570.0 0.0625968891525 -103.586570432
570.625 0.0928656483357 -112.796262806
571.25 0.094613986675 -121.553226847
571.875 0.0844631512245 -117.139956149
572.5 0.111541613896 -150.484904291
573.125 0.134711859908 -169.903459922
573.75 0.11057720034 160.248279484
574.375 0.0758606704194 156.846355719
575.0 0.102480908676 160.438700828
575.625 0.108363403555 157.752172109
576.25 0.091728606409 145.599627322
576.875 0.0797386224189 131.145672637
577.5 0.0861471324705 138.776506039
578.125 0.0579838349455 164.482935219
578.75 0.0510315538912 159.61735824
579.375 0.051690000668 172.873140979
580.0 0.0674429218498 -166.108457634
580.625 0.0785670489545 -142.211644965
581.25 0.0893874731706 -168.217449055
581.875 0.112765400206 -167.033793119
582.5 0.115178920571 -171.659951304
583.125 0.0931410923909 -170.03362869
583.75 0.0830453319515 -168.990068794
584.375 0.101076425808 -151.821282129
585.0 0.0926858585226 -141.117755443
585.625 0.0690661641748 -140.956303996
586.25 0.0731618667207 -146.542543602
586.875 0.0785289270499 -120.241429917
587.5 0.0713762378387 -136.947543215
588.125 0.0567168095769 -173.197440407
588.75 0.0679262407919 -169.074338265
589.375 0.0825836892009 -142.453374789
590.0 0.09351328581 -165.301988845
590.625 0.104159290521 163.631184157
591.25 0.122352742011 154.048934524
591.875 0.0997834539867 154.605909611
592.5 0.0598408647827 150.9046842
593.125 0.060255377417 146.783619662
593.75 0.0739606796134 168.531720096
594.375 0.058176055599 -142.157019305
595.0 0.0445678126918 -112.558970526
595.625 0.0600801859847 -101.824612962
596.25 0.0761702102681 -81.4015847473
596.875 0.0661030866783 -77.4190070759
597.5 0.0604117195554 -56.2981369785
598.125 0.0636695588335 -59.4072508137
598.75 0.0715497578429 -70.3966284124
599.375 0.0977348707518 -54.2013377902
600.0 0.105398348554 -62.1118014384
600.625 0.0964712311286 -58.9135281317
601.25 0.0837507616767 -78.8718201505
601.875 0.06625796958 -80.1064703077
602.5 0.0600119056406 -79.6741716679
603.125 0.0447200516836 -64.2940722896
603.75 0.0310601862195 -32.1438035921
604.375 0.0305862427677 -38.4815092458
605.0 0.0762516228802 0.18184274131
605.625 0.0520034750156 0.877505544283
606.25 0.0279977147961 32.7697795935
606.875 0.0186019079617 46.6379815372
607.5 0.0698095155004 49.850709645
608.125 0.0825965495989 35.510762876
608.75 0.0639866180688 22.8926069146
609.375 0.0493263508032 22.6235978733
610.0 0.085753600937 55.4402891743
610.625 0.0672096003756 45.2880786386
611.25 0.0547054550738 48.1620049468
611.875 0.0276466477501 13.7107366758
612.5 0.0302081224404 112.723660061
613.125 0.0278967883408 128.096813164
613.75 0.0317439963868 129.861256147
614.375 0.0486304227674 125.351228106
615.0 0.0211592706778 104.910118487
615.625 0.0363825038274 135.713571601
616.25 0.0653866523611 136.222958858
616.875 0.0498613532604 130.116623213
617.5 0.0277222701352 117.356715273
618.125 0.026851841501 137.22124823
618.75 0.0354299034158 139.452749069
619.375 0.0221103989899 144.878758684
620.0 0.00720463437721 -178.668612792
620.625 0.0198384101268 -97.0580037117
621.25 0.0492058703035 -96.4902775991
621.875 0.0629570616744 -111.326012438
622.5 0.0696500399578 -158.188226385
623.125 0.079724230044 168.188824307
623.75 0.0639659909077 163.147215174
624.375 0.0445601184381 -176.604883806
625.0 0.0273627189398 -111.543380852
625.625 0.0610768014203 -155.970475334
626.25 0.027458641199 177.950945223
626.875 0.00811954369539 -140.303816599
627.5 0.0527013837574 -7.9089787808
628.125 0.038922301706 -45.137159632
628.75 0.0339138223227 -21.3259890651
629.375 0.0520907122694 -15.8747605639
630.0 0.0708595959504 3.87517987353
630.625 0.0727770686883 -10.7963011851
631.25 0.0665629400765 -9.10984418087
631.875 0.0723317144235 -14.7692975943
632.5 0.0691605352934 16.5685794645
633.125 0.0487184844621 -7.41358729477
633.75 0.0405904163785 7.76316763866
634.375 0.0494499837422 31.3793391037
635.0 0.0341993852278 25.1613782284
635.625 0.0530811452369 52.7270521973
636.25 0.0427845894732 20.9782470233
636.875 0.0616330093474 33.3358861391
637.5 0.0503753426483 44.1653976066
638.125 0.0517138665057 72.9535731738
638.75 0.0611220917961 67.0531422088
639.375 0.0929582588134 94.6286051544
640.0 0.077166597004 111.865032626
640.625 0.0584731575498 112.987785515
641.25 0.0773632891908 132.559504138
641.875 0.0649875662385 152.703287534
642.5 0.0464409449229 154.039354985
643.125 0.0735143117325 166.113289093
643.75 0.0591572262462 158.616172884
644.375 0.0720007641904 -170.898913177
645.0 0.0747919131715 173.894708849
645.625 0.0974286658976 172.482022218
646.25 0.0883011422041 163.640842108
646.875 0.0679305940939 178.232680615
647.5 0.0688215329387 -170.736897179
648.125 0.0828610667037 -172.652313914
648.75 0.0854457631496 -155.104472285
649.375 0.0420899524082 -151.240115299
650.0 0.0437874876109 -113.512068731
650.625 0.0610253265896 -87.7010399486
651.25 0.0823980922542 -62.5820893951
651.875 0.0506676626777 -41.4200487794
652.5 0.0844536420447 -19.8514836393
653.125 0.107952424401 -2.92804544836
653.75 0.120627662989 8.52788685546
654.375 0.108598726011 8.58143804
655.0 0.126865758174 16.0126668607
655.625 0.090612094378 29.1856497124
656.25 0.0700999733827 26.5585000731
656.875 0.0541033853469 2.28843283384
657.5 0.0695208717335 25.5887999064
658.125 0.0671325277067 47.4949344252
658.75 0.0680823202269 63.0106157961
659.375 0.0698167321704 45.1681414054
660.0 0.118110436629 29.7631460036
660.625 0.123217542531 20.0300983398
661.25 0.113332646752 6.42592336649
661.875 0.133732120093 -10.7248507021
662.5 0.120616807234 -16.989045788
663.125 0.0927846097489 -15.6377195539
663.75 0.112886644221 7.17218324656
664.375 0.0772809750573 52.0600970203
665.0 0.0624343210974 95.1423765247
665.625 0.0640545150109 116.230465044
666.25 0.0886321480247 133.875543098
666.875 0.114258975234 174.184126078
667.5 0.097866348892 -164.911578053
668.125 0.103646566522 -176.244624308
668.75 0.139348322635 168.274303494
669.375 0.107025914308 -179.594209225
670.0 0.0762849675944 -164.93903893
670.625 0.0876150884029 -168.017950771
671.25 0.127290236458 175.061030707
671.875 0.0786542027404 170.961919976
672.5 0.0736706258496 160.215115144
673.125 0.078261231634 156.970051027
673.75 0.121492025646 158.990926529
674.375 0.112834286505 172.081224398
675.0 0.120068532331 -173.282637339
675.625 0.128360064077 -147.46408133
676.25 0.125734194034 -123.470775076
676.875 0.11180618568 -118.290462833
677.5 0.12328823825 -124.588344513
678.125 0.118544302374 -113.118004421
678.75 0.0793062677526 -91.9683615651
679.375 0.0388165117489 -59.2283988127
680.0 0.0776272127694 -70.05857093
680.625 0.116014754098 -75.7595196612
681.25 0.105426813199 -70.4991511108
681.875 0.102417397344 -91.6465795762
682.5 0.138852217712 -116.116924574
683.125 0.155075563908 -116.512528234
683.75 0.133434269875 -101.478534457
684.375 0.12665069709 -80.4843328501
685.0 0.123073390758 -37.8433704385
685.625 0.119437832188 2.36280204086
686.25 0.100604619615 20.9123694088
686.875 0.101478811989 44.6644136407
687.5 0.0618454364968 99.0908164716
688.125 0.0811258992927 117.190914068
688.75 0.0996915328822 115.148643162
689.375 0.15230395002 118.126440642
690.0 0.135945493236 134.539987183
690.625 0.121735416956 128.373201386
691.25 0.147519893374 96.7311093266
691.875 0.18864798303 72.0642916073
692.5 0.149005000219 40.5378823239
693.125 0.075223677822 -8.19747271861
693.75 0.0905867092519 -31.27446518
694.375 0.123098376966 -21.6273183725
695.0 0.137928280401 10.5603483293
695.625 0.101963541344 55.887883682
696.25 0.116245158691 114.402644997
696.875 0.142916010265 175.169204859
697.5 0.141274778922 -140.7928867
698.125 0.146188302872 -134.939100837
698.75 0.130736749778 -128.755186095
699.375 0.103240563995 -120.972508369
700.0 0.101717892351 -116.596491583
700.625 0.098024032607 -77.9117594557
701.25 0.10055069527 -62.0083129132
701.875 0.0831799143605 -61.3906198538
702.5 0.101274888175 -85.5846360772
703.125 0.175253978292 -124.772800413
703.75 0.172534252348 -147.556368881
704.375 0.122149368017 176.403315779
705.0 0.105514712971 167.171118437
705.625 0.151585862649 -175.976692333
706.25 0.126521642495 -100.20387905
706.875 0.0887102134175 -58.3820052375
707.5 0.0787846205487 -39.1407558218
708.125 0.0925732799763 14.2230609773
708.75 0.11314908852 71.2367631303
709.375 0.104813286615 107.783506718
710.0 0.103785711476 131.058048136
710.625 0.109239837753 156.885195239
711.25 0.118990532586 175.468664653
711.875 0.139306615528 174.023753229
712.5 0.14647562326 145.921367966
713.125 0.131185894492 95.5593355317
713.75 0.102009970986 48.0818008824
714.375 0.112859295227 27.5350148534
715.0 0.115266569612 33.8255010897
715.625 0.0842880858464 57.8588324327
716.25 0.0744556476099 67.0347359703
716.875 0.13397896604 121.092501264
717.5 0.145935272021 151.579062923
718.125 0.116073636109 164.65291876
718.75 0.102325535561 172.633855233
719.375 0.113599178726 -176.634050118
720.0 0.136854729107 -112.039524754
720.625 0.112515362649 -64.961570867
721.25 0.0961975603327 -19.5685278236
721.875 0.075870592978 51.399410819
722.5 0.0770366855926 79.7482791817
723.125 0.0822037274027 85.2332868443
723.75 0.104082268218 39.5101760265
724.375 0.102443927597 -7.6589561011
725.0 0.098591392532 -38.3682552827
725.625 0.116144668142 -56.8490984991
726.25 0.116724739982 -55.1052624332
726.875 0.0953919914591 -64.4602846808
727.5 0.0903268804065 -10.8221081363
728.125 0.0853201839461 4.16503452444
728.75 0.0758434752118 10.2300624225
729.375 0.080350988942 12.6923693613
730.0 0.0591539220371 -7.03554289408
730.625 0.0884278105564 35.912419647
731.25 0.0865456143972 76.1999987596
731.875 0.0737112281904 114.628848701
732.5 0.0515078156023 141.128540052
733.125 0.100335674888 -170.199995423
733.75 0.0975068322481 -175.229225587
734.375 0.0665324925132 169.019152479
735.0 0.0456044204269 146.079202562
735.625 0.0498273722164 150.232850961
736.25 0.0514774933479 145.451280133
736.875 0.0534579905721 168.700633032
737.5 0.0565905331481 -176.304824837
738.125 0.12011280469 -168.260575798
738.75 0.0941797540766 -166.998933112
739.375 0.053123615883 -166.574548738
740.0 0.0108294685241 -71.5066446501
740.625 0.0722882284322 -141.50059933
741.25 0.0533881447333 -153.966136554
741.875 0.0241488413346 -97.6948751554
742.5 0.0370214717005 -17.5320032634
743.125 0.0362949187638 61.911158952
743.75 0.0324715744436 90.6640086936
744.375 0.0511666402998 131.517718346
745.0 0.05469350228 174.746683806
745.625 0.0892061383444 103.350577362
746.25 0.0747130586151 89.0458169172
746.875 0.0630213187252 38.2415197614
747.5 0.0409556124221 10.0389387237
748.125 0.0122693260643 56.4311827112
748.75 0.0475549385862 -25.7921703944
749.375 0.0331731467865 -38.8241534895
750.0 0.0436111346947 -80.5664301235
