!Created with skrf (http://scikit-rf.org).
# GHz S RI R (50+0j) 
!freq	ReS11	ImS11	
500.0	-0.03737121061	-3.851641311	
500.625	0.5896823306	-1.441126708	
501.25	-0.1254105988	-2.604481248	
501.875	-2.52471424	-0.6491938992	
502.5	-0.00901430032	-0.172580686	
503.125	-0.392803635	0.09465752029	
503.75	0.07868316565	0.009200624197	
504.375	0.1621402159	0.01864277858	
505.0	-0.08347908849	-0.05821488185	
505.625	0.2781612085	-0.2249818307	
506.25	-0.6320131748	0.07045005864	
506.875	0.3348259558	-0.4082397956	
507.5	-0.6766023797	-2.19946423	
508.125	-1.206738287	-1.124496598	
508.75	2.773253062	-2.086658152	
509.375	-3.033482987	-5.396568668	
510.0	-0.1003891932	-0.4596180796	
510.625	-0.5875869093	-1.112716345	
511.25	-0.1248762865	0.1153021577	
511.875	-0.4278765867	-0.1869312203	
512.5	-0.1151446017	0.1896397564	
513.125	-0.1283094472	-0.3387743781	
513.75	-0.01558483295	-0.0984205092	
514.375	-0.5291476728	-0.2665259373	
515.0	0.7385782843	1.063395541	
515.625	-1.688576818	-2.999811506	
516.25	-0.4319980476	0.5813678129	
516.875	0.1606943216	-2.729180409	
517.5	-1.156424623	-0.2659258486	
518.125	0.2829194942	-0.3155058085	
518.75	-0.6755425561	-0.5152709986	
519.375	-0.09233551042	0.05515536059	
520.0	0.408473375	0.3489981623	
520.625	0.4116469178	-0.4021088989	
521.25	0.07252317928	-0.4273270627	
521.875	-0.5032384416	-0.2488158902	
522.5	-0.006974074713	0.07725012839	
523.125	-0.2993952224	0.2283752296	
523.75	-0.1657391853	-0.1749655334	
524.375	-0.6583270445	0.2937989377	
525.0	0.06021768622	0.03964364596	
525.625	-0.05704576173	0.2718477542	
526.25	0.04908039053	-0.2577395354	
526.875	-0.1900714017	0.3819039408	
527.5	0.06342184367	0.2630131262	
528.125	-0.2886560323	0.9876953051	
528.75	0.5220772545	0.9259213518	
529.375	-0.116321643	0.2046476688	
530.0	0.4158791736	0.3599905869	
530.625	-0.1142894103	0.9020616923	
531.25	1.615032418	0.05810776625	
531.875	0.3795669988	-0.1624144442	
532.5	-0.1353599821	-0.538246134	
533.125	0.3148184543	0.381557644	
533.75	0.08887071756	-0.9439129172	
534.375	-0.002330439959	-0.2936210758	
535.0	-0.9243777641	-0.6000236566	
535.625	-0.1562612521	0.4820765876	
536.25	-0.09265512946	0.1697667123	
536.875	0.3653036704	0.09052843084	
537.5	0.04043480096	-0.1029582708	
538.125	0.5009971238	-0.09283750497	
538.75	0.1355610016	-0.3666396688	
539.375	0.02146239175	-0.3860819945	
540.0	-0.569673765	-0.5260274065	
540.625	-0.3048176264	0.1114577635	
541.25	-0.1661140882	-0.03007462974	
541.875	-0.1324155925	-0.1599035679	
542.5	-0.1911776414	0.01939156191	
543.125	-0.06641005264	-0.2443751168	
543.75	-0.3590631953	0.1135531842	
544.375	-0.02832183858	-0.06571496736	
545.0	0.0001209964038	0.2890583917	
545.625	0.03260623173	-0.08034601228	
546.25	0.317498556	0.369267506	
546.875	0.1975733003	-0.3192949295	
547.5	0.2418296925	-0.06179983718	
548.125	-0.03291276925	-0.6213097563	
548.75	-0.3882352854	-0.1151481135	
549.375	-0.08720401746	-0.2445512086	
550.0	-0.3384321804	0.04312843744	
550.625	0.02125555705	-0.04624986627	
551.25	-0.340117556	0.09339484785	
551.875	-0.03836683056	0.1584513031	
552.5	-0.2130959876	0.1436326341	
553.125	-0.01821920782	0.1992679141	
553.75	0.08530706205	0.1038157296	
554.375	0.2516309413	0.03458584102	
555.0	0.2420620549	-0.1791983945	
555.625	0.2184924421	-0.240547312	
556.25	0.1846976971	-0.3544073719	
556.875	-0.08487268996	-0.402613304	
557.5	-0.2197847594	-0.2516031184	
558.125	-0.2704380109	-0.1244083629	
558.75	-0.2861380427	-0.01438831915	
559.375	-0.23247394	0.04900494194	
560.0	-0.2691248471	0.1300566187	
560.625	-0.1200059723	0.3221780138	
561.25	0.02242232205	0.1521382173	
561.875	0.06830945224	0.2099096217	
562.5	0.01311546451	0.01009823143	
563.125	0.1659684121	0.3129242566	
563.75	0.3574784287	-0.1317901954	
564.375	0.2219364162	-0.05566441255	
565.0	0.3179708882	-0.4232284089	
565.625	-0.1878537137	-0.3603067602	
566.25	-0.1279597109	-0.2070211666	
566.875	-0.4021773644	-0.3262415873	
567.5	-0.352222719	-0.07720626152	
568.125	-0.1656070029	-0.5513256852	
568.75	-0.7202296079	-0.1599465975	
569.375	-0.3618775778	0.1447456279	
570.0	-0.6274439012	0.4032392355	
570.625	0.02459983603	0.6936625953	
571.25	-0.06308737085	-0.05909960699	
571.875	0.254540357	0.5527324504	
572.5	0.03194589592	-0.2147850219	
573.125	0.5099200629	-0.01676310898	
573.75	0.01484013356	-0.5723892321	
574.375	-0.03163043556	0.1641200624	
575.0	0.264090419	-0.3734923006	
575.625	-0.1539635351	0.06812141807	
576.25	0.4539633201	-0.2124885951	
576.875	-0.1679588969	-0.5556379386	
577.5	-0.09354419648	-0.1213037406	
578.125	0.155957023	-0.4509354181	
578.75	-0.3962813796	-0.4429824654	
579.375	-0.1244863306	0.04601172341	
580.0	-0.04632639899	-0.3283932229	
580.625	-0.2059949762	0.1789984615	
581.25	-0.2286315626	-0.1585607405	
581.875	-0.1096304757	0.6888197952	
582.5	0.4654084718	0.1990773739	
583.125	-0.2354617742	0.007803871538	
583.75	0.5423596865	0.3584107517	
584.375	-0.3624766844	-0.09451527539	
585.0	0.5694585727	0.3934772195	
585.625	0.1545328337	-0.3055775708	
586.25	0.4411725034	0.2939041984	
586.875	0.1902680088	-0.6652056054	
587.5	-0.08088440616	-0.03433497194	
588.125	0.2592654736	-0.3832639079	
588.75	-0.03741212696	-0.6057881623	
589.375	0.05732808809	-0.09458723495	
590.0	0.119214781	-0.5775111385	
590.625	-0.5267192305	-0.01110997428	
591.25	-0.2543695812	0.09219557483	
591.875	-0.2626800187	0.3452676211	
592.5	0.1907544959	0.03696407507	
593.125	-0.2443941469	0.2166960143	
593.75	0.2709470346	0.2446837002	
594.375	0.0748920786	0.1096343729	
595.0	0.3296354327	0.7083720053	
595.625	0.7789350186	-0.1055400998	
596.25	-0.07307635567	0.3111046529	
596.875	0.742349464	0.2463826244	
597.5	0.1372188689	-0.0984915662	
598.125	0.3122771394	0.722423402	
598.75	0.524421265	-0.07658200487	
599.375	0.2985955243	0.2144571261	
600.0	0.6784170287	-0.3938163899	
600.625	0.2342498733	-0.5494661715	
601.25	0.232377982	-0.2145755761	
601.875	-0.08658520971	-0.4517827601	
602.5	-0.3490576531	-0.05153357243	
603.125	-0.1904443681	0.09595785028	
603.75	-0.2772570095	0.07019291471	
604.375	-0.2695768817	0.2689456494	
605.0	-0.1005270843	0.05039785547	
605.625	-0.3464224235	0.2093679826	
606.25	-0.0417114381	0.1105894249	
606.875	-0.6954652597	-0.1154802538	
607.5	-0.1917946657	0.8270041256	
608.125	-0.2533409567	0.153033558	
608.75	0.5357486563	0.8950600758	
609.375	0.3621756293	-0.3416174748	
610.0	0.5571576039	0.07049753407	
610.625	0.1532319543	-0.6363635277	
611.25	0.06842013718	-0.04219866256	
611.875	-0.3190806614	-0.5775717557	
612.5	-0.173523318	-0.01017649314	
613.125	-0.5311431295	-0.09672084265	
613.75	-0.143455626	0.4262107694	
614.375	-0.278323503	0.2490632502	
615.0	0.3341086404	0.03954679314	
615.625	-0.2696106296	0.1744701744	
616.25	0.08991208759	0.6521647343	
616.875	-0.1363413885	0.02828740915	
617.5	-0.4457624902	0.7118689794	
618.125	0.2063115754	0.5300344775	
618.75	-0.2026733013	0.2729392128	
619.375	0.3691461715	0.5355279797	
620.0	0.2530090813	0.07892584721	
620.625	0.459572349	-0.344748335	
621.25	-0.2521380935	-0.3566686833	
621.875	-0.4533846385	-0.3856767361	
622.5	-0.4841054348	0.1972579528	
623.125	-0.1817986168	0.3186398922	
623.75	0.5146131916	0.1609631621	
624.375	-0.2387608156	0.02800237101	
625.0	0.3790530782	-0.3313210041	
625.625	-0.07306383242	0.1169000483	
626.25	0.125214655	-0.6200204185	
626.875	-0.5461852256	-0.008815466126	
627.5	0.03926566954	-0.2419604358	
628.125	-0.5906436019	-0.2572993691	
628.75	-0.03765107692	-0.02129918902	
629.375	-0.08123101235	-0.6088111946	
630.0	-0.6359123513	-0.1321312989	
630.625	-0.2617236072	0.06198323822	
631.25	-0.5481380834	0.3389525223	
631.875	-0.06801698833	0.639822398	
632.5	0.3542592132	0.4506666099	
633.125	0.3363083273	0.1682995152	
633.75	0.5564420217	-0.1398589432	
634.375	0.08192360048	-0.2161224411	
635.0	0.1276494421	-0.4074142992	
635.625	-0.4562454277	-0.1328015544	
636.25	-0.2095051887	-0.09102010597	
636.875	-0.4406474453	0.4991301414	
637.5	0.2488447404	0.2234390285	
638.125	-0.5336528804	-0.1406978447	
638.75	-0.109424067	0.7939754704	
639.375	0.1574894065	0.2111764561	
640.0	-0.02388668972	0.7897720033	
640.625	0.8621746736	0.2860256527	
641.25	0.3008792635	0.004668896321	
641.875	0.9231979882	-0.4687594265	
642.5	-0.3484834864	-0.3690142482	
643.125	0.1349553321	-0.2629728511	
643.75	-0.6265383518	-0.4575836268	
644.375	-0.2437938331	0.3355301582	
645.0	-0.3686173396	-0.04257240284	
645.625	0.0112149371	0.8423201079	
646.25	0.567785283	-0.04330717982	
646.875	-0.1223751154	0.1515914776	
647.5	0.6090111043	-0.1505604844	
648.125	-0.08860405512	0.4722481347	
648.75	1.077250912	-0.2014171102	
649.375	0.06767660259	-0.7714265857	
650.0	0.5485385873	0.04497770785	
650.625	0.9240860382	-1.365383094	
651.25	-0.321590253	-0.6282655374	
651.875	0.7712353836	0.3285240016	
652.5	1.116064584	-0.6499160774	
653.125	0.09401802687	-0.3259836439	
653.75	1.017280691	-0.2848395853	
654.375	-0.4651615164	-0.9460157142	
655.0	-0.2483703879	0.02366937265	
655.625	-0.8795872291	0.01521464767	
656.25	0.4461066597	0.8075741368	
656.875	-0.2103831025	-0.160233327	
657.5	0.2096144247	0.5481711075	
658.125	0.3908700007	0.106071284	
658.75	0.3227946685	0.4875730591	
659.375	1.186734596	-0.4904272538	
660.0	0.1688157116	-0.672506414	
660.625	0.5262941588	-0.412649633	
661.25	0.807425359	-1.051170906	
661.875	-0.152637249	-0.7443167417	
662.5	0.8354145584	0.2124587255	
663.125	0.9033875799	-0.9381027212	
663.75	-0.03763541853	-0.3612917784	
664.375	0.4848328136	-1.016397632	
665.0	-1.001170389	-0.1452119029	
665.625	-0.404767454	-0.2065645478	
666.25	-0.5905919047	0.8202752158	
666.875	0.5617947228	0.4664587069	
667.5	0.006297148438	0.1378441743	
668.125	0.8525104783	0.1784446297	
668.75	0.3163043961	-0.5194580041	
669.375	0.2252561323	-0.2563529771	
670.0	0.1785771121	-0.7589837685	
670.625	-0.2073675798	-0.21092389	
671.25	0.3742752575	-0.4467984433	
671.875	0.2499138661	-0.5721387179	
672.5	0.2155614885	-0.2493624755	
673.125	0.7752893363	-0.06397473069	
673.75	0.5169890314	-1.01883613	
674.375	-0.2751558219	-0.2425800595	
675.0	0.3339963675	-0.7205593075	
675.625	-0.9657287719	-0.4469096106	
676.25	0.2384779505	0.08453785678	
676.875	-0.9589412595	-0.2119196004	
677.5	0.09273356863	0.3352535272	
678.125	-0.7986473927	-0.1342402256	
678.75	0.5068220944	0.9743933201	
679.375	0.1310896212	-0.1113767115	
680.0	0.4004290959	0.1578908516	
680.625	0.4730346256	-0.4039995472	
681.25	-0.1966457277	-0.1470723262	
681.875	0.4404054053	0.4878967809	
682.5	0.6905681731	0.006147495905	
683.125	0.4623598888	0.102700712	
683.75	0.5607357128	0.4887670467	
684.375	0.8734078321	-0.2034965757	
685.0	0.2347486606	0.2392174659	
685.625	1.058238522	0.3581441489	
686.25	0.6520779741	-0.7304816738	
686.875	0.2752370293	0.6229501609	
687.5	1.530397499	-1.396493675	
688.125	-0.7155948472	-0.2099486536	
688.75	-0.53461824	-1.270245292	
689.375	-0.8105841976	1.459138009	
690.0	0.01833517888	0.1004096233	
690.625	0.7614175405	1.325833029	
691.25	0.6673289448	0.1797626677	
691.875	0.7697145623	1.091343865	
692.5	1.655456658	0.6829479827	
693.125	1.392022656	-0.2267612663	
693.75	1.489891673	-0.4471494352	
694.375	0.9946226413	-0.8405022045	
695.0	1.383152561	-0.5670292883	
695.625	0.9833703492	-0.455886511	
696.25	1.02587468	0.8276454383	
696.875	1.626533249	0.8601574881	
697.5	0.3417266798	0.7002615173	
698.125	1.776160185	1.301101203	
698.75	0.5979421813	-1.533398703	
699.375	0.07209586041	-1.029108095	
700.0	-1.117213507	1.38873151	
700.625	0.3914387784	0.1288331915	
701.25	0.4622968333	1.122758669	
701.875	0.7343871887	0.1273135093	
702.5	0.5017627573	1.025177376	
703.125	1.352349621	0.1774670843	
703.75	0.4989732352	-0.04025700583	
704.375	1.134731682	-0.5782173386	
705.0	0.1794023845	-0.4534948456	
705.625	0.8305296839	0.7505225201	
706.25	1.045380594	-0.1239338821	
706.875	0.01350543782	0.7292143086	
707.5	0.9164612402	1.324622683	
708.125	0.7137808018	-0.2101677206	
708.75	1.314093611	-0.5025862399	
709.375	-1.095025837	-0.8164357683	
710.0	-0.1987460886	0.2138848221	
710.625	0.03573328335	0.6771633311	
711.25	0.2870228324	0.09202149293	
711.875	0.4653323248	0.3993262188	
712.5	0.7309972767	-0.1065404606	
713.125	0.9395643414	-0.264347456	
713.75	0.09367791064	-0.7713620563	
714.375	0.2965798116	-0.3131825426	
715.0	-0.2812019009	-0.7836315405	
715.625	-0.007244945511	-0.04666285905	
716.25	1.083279852	-0.8751434786	
716.875	0.06356808538	-1.124411311	
717.5	0.9357769749	1.153398619	
718.125	3.055297344	0.0323104022	
718.75	0.5531667921	-1.539973959	
719.375	2.89196607	1.010875566	
720.0	0.5824942433	-3.825565594	
720.625	0.8732710255	-1.311486542	
721.25	0.9080014053	-3.238327441	
721.875	-1.767900494	-2.335752587	
722.5	-0.3009778916	-1.893303526	
723.125	-2.621673927	-0.7060381936	
723.75	-0.7497401487	1.370804234	
724.375	-0.0511455987	0.790038379	
725.0	0.08833992761	1.124898932	
725.625	1.081790705	1.211364995	
726.25	-0.06198295862	0.8577618168	
726.875	-0.9969458084	2.965172982	
727.5	1.418995072	5.065725865	
728.125	-1.9744374	1.782946703	
728.75	-1.986796609	13.15896601	
729.375	5.540563499	6.638436533	
730.0	-8.536240559	1.99386887	
730.625	2.195575961	29.80947968	
731.25	4.939810071	1.744672833	
731.875	-14.17651503	2.507164078	
732.5	-12.07235238	4.637199549	
733.125	-3.172730124	3.125230377	
733.75	-5.195156159	2.585549633	
734.375	2.728928662	0.3216887673	
735.0	0.05533039454	-0.8510733246	
735.625	-1.715941375	-0.7332055894	
736.25	0.906261062	1.779149189	
736.875	-0.08730895361	0.6348605955	
737.5	2.928709203	1.775040214	
738.125	5.304727184	-2.442116035	
738.75	0.1652999375	-4.571341632	
739.375	10.73947834	2.794239894	
740.0	11.30678595	-15.19471156	
740.625	-5.824553168	4.837133599	
741.25	20.85735262	14.32035587	
741.875	11.20825583	3.433727323	
742.5	0.05184116276	-17.55808853	
743.125	-3.490180568	-10.01271721	
743.75	-1.674133495	-0.5207595213	
744.375	-0.2707083769	-1.560825071	
745.0	0.5127445128	0.856895029	
745.625	-0.03931278191	0.2285456795	
746.25	-0.1270854563	-0.4254311025	
746.875	-0.5233621019	0.06698886845	
747.5	-0.4386342452	0.8617537767	
748.125	0.9157959209	1.715968301	
748.75	0.5921265904	0.7592032624	
749.375	-0.4191796478	0.7463079181	
750.0	-1.526222158	1.109084521	
