!Created with skrf (http://scikit-rf.org).
# GHz S RI R (50+0j) 
!freq	ReS11	ImS11	
500.0	-0.7871666019	-1.679044475	
500.625	2.183111945	-2.007984977	
501.25	-2.371349476	-3.920209018	
501.875	-1.149845603	-0.1511101795	
502.5	-0.05858615737	-0.6579173252	
503.125	-0.1220882391	0.181318905	
503.75	-0.1164051839	0.2651075597	
504.375	0.1040845558	-0.1090392255	
505.0	0.07967297458	0.1211843003	
505.625	-0.08281181249	-0.4097753819	
506.25	-0.07389118308	0.2190905313	
506.875	-0.5405401812	-0.8437928806	
507.5	-1.69485255	-0.6084916542	
508.125	1.342101604	-0.759507629	
508.75	1.611570826	-4.796885063	
509.375	-1.946127892	-2.048187215	
510.0	-1.984666709	-1.681713642	
510.625	-0.7892435363	0.172744646	
511.25	-0.3285544184	-0.4468717766	
511.875	-0.6568122606	-0.1835060469	
512.5	0.01736665904	0.2292201023	
513.125	-0.03333994958	-0.1235905148	
513.75	-0.1497278	-0.4093842138	
514.375	-0.4885352027	0.2200350754	
515.0	0.8555910754	-1.336545205	
515.625	-1.41611628	0.2253276697	
516.25	2.058652554	-3.127918333	
516.875	-2.745932216	-1.885450922	
517.5	0.02306704699	0.3265664776	
518.125	-0.2735067496	-0.4554054962	
518.75	-0.07197330339	0.1624937619	
519.375	-0.338431734	0.1020381101	
520.0	0.5423737275	0.1013692835	
520.625	0.2885558481	-0.1983233306	
521.25	0.2542530369	-0.8359013054	
521.875	-0.4129565187	0.1622830058	
522.5	-0.1208622645	-0.03354556344	
523.125	-0.06863800922	0.08305454637	
523.75	-0.4577725715	-0.1912682585	
524.375	-0.1359093999	0.3685428449	
525.0	-0.3578098731	0.1772740846	
525.625	0.2854363206	0.28371604	
526.25	-0.2669180748	-0.03810857828	
526.875	0.05948071171	0.1448512658	
527.5	-0.4638703735	0.3147621404	
528.125	0.4305886007	1.194892456	
528.75	0.1834726267	0.2394221576	
529.375	0.2292625946	0.4090273329	
530.0	-0.001629514699	0.1140922159	
530.625	0.4847183122	1.425289878	
531.25	0.8101505427	-0.02742793663	
531.875	0.8037918145	-0.3097081431	
532.5	-0.4703250009	-0.2333649116	
533.125	0.5376353402	-0.3220945159	
533.75	-0.1340084562	-0.3022100555	
534.375	0.3132584398	-1.348872868	
535.0	-0.9156351924	0.1349293545	
535.625	-0.2993544859	0.1054456713	
536.25	-0.08159630895	0.3353999978	
536.875	0.2220389955	-0.07909156388	
537.5	0.2622445391	0.01950672688	
538.125	0.2443679563	-0.3217443912	
538.75	0.2751529156	-0.07729030211	
539.375	-0.1667955355	-0.6145914562	
540.0	-0.5135612805	-0.132833582	
540.625	-0.2966408019	-0.1312389423	
541.25	-0.2134685375	-0.03888230304	
541.875	-0.166468006	-0.01007305285	
542.5	0.005502482386	-0.1133790337	
543.125	-0.3534961844	-0.1707150152	
543.75	-0.05886978326	0.06393004748	
544.375	-0.2850298692	0.09401304419	
545.0	0.1381751045	0.08761039561	
545.625	-0.06478171734	0.2843647986	
546.25	0.4707146315	-0.0556818887	
546.875	0.02968896217	0.08453912796	
547.5	0.432401496	-0.358963353	
548.125	-0.3083338131	-0.3568309909	
548.75	-0.07147495231	-0.2668263766	
549.375	-0.3699514533	-0.3177516339	
550.0	-0.09915912427	0.1430627576	
550.625	-0.2309428793	-0.1246652371	
551.25	-0.09921435283	0.1853963523	
551.875	-0.2275077995	0.02702179444	
552.5	-0.1495053639	0.2761461788	
553.125	-0.008472506298	0.1261911122	
553.75	0.09268149308	0.1573241455	
554.375	0.2504397072	-0.009636048682	
555.0	0.2376909612	-0.1440759484	
555.625	0.2317062137	-0.2619245928	
556.25	0.1682397029	-0.3556057635	
556.875	-0.06645988388	-0.3929641963	
557.5	-0.2204091542	-0.2751967494	
558.125	-0.2915124991	-0.1140496136	
558.75	-0.2477666154	-0.002951897318	
559.375	-0.2631706685	-0.0005266189318	
560.0	-0.2671007966	0.2094346628	
560.625	-0.07827524411	0.2288509957	
561.25	-0.07213718296	0.2643557309	
561.875	0.1610458596	0.06655843259	
562.5	-0.100470349	0.1544690234	
563.125	0.2891653296	0.1424920799	
563.75	0.166094779	0.03877196516	
564.375	0.470130647	-0.1834894758	
565.0	0.08342337681	-0.4479897259	
565.625	-0.01071792727	-0.2471626118	
566.25	-0.2445903699	-0.4082001849	
566.875	-0.3861016298	-0.04319617531	
567.5	-0.1623776012	-0.3370488709	
568.125	-0.4830971403	-0.5122145371	
568.75	-0.4023477206	-0.06549814723	
569.375	-0.7042443205	-0.05657628088	
570.0	-0.3057476235	0.7318881007	
570.625	0.04760244757	0.1800097864	
571.25	-0.4143457258	0.4020351813	
571.875	0.3816670107	-0.09372541532	
572.5	0.1962794932	0.3740296279	
573.125	0.313994958	-0.5721811074	
573.75	-0.1574986534	-0.03199691706	
574.375	0.4083965837	-0.2206532094	
575.0	-0.2585174156	-0.1745565517	
575.625	0.3543907392	0.006364624478	
576.25	0.1434498574	-0.5541978365	
576.875	-0.1608028514	-0.06129047535	
577.5	0.3194176081	-0.3839421747	
578.125	-0.2836623638	-0.5574712829	
578.75	-0.1809681724	-0.08158897713	
579.375	-0.02319897826	-0.3449054167	
580.0	-0.3685680427	-0.04488381584	
580.625	0.1357000457	-0.1368522736	
581.25	-0.5517847094	0.2004128624	
581.875	0.3112273095	0.4168556772	
582.5	-0.09935783034	-0.02186072341	
583.125	0.09405023546	0.7027137597	
583.75	0.1502819896	-0.4603837967	
584.375	0.03872537182	0.5757565488	
585.0	0.3486346657	-0.3108315364	
585.625	0.1622693634	0.4414430166	
586.25	0.6848746346	-0.3906800602	
586.875	-0.09335339194	-0.1856048998	
587.5	0.2674690662	-0.2591876905	
588.125	-0.1190820292	-0.6106702617	
588.75	-0.1366003911	-0.1085298966	
589.375	0.4916152559	-0.2706219903	
590.0	-0.2573427058	-0.4794186391	
590.625	-0.2261725124	-0.1529032189	
591.25	-0.5211626689	0.2205939118	
591.875	0.09199637441	0.3031696985	
592.5	-0.1509490844	0.07230765142	
593.125	0.01338887414	0.2151446742	
593.75	0.005993935856	0.06386903264	
594.375	0.2174218962	0.6354212868	
595.0	0.8831599554	0.1283474726	
595.625	-0.0758214587	0.07235710682	
596.25	0.6183880834	0.5071039765	
596.875	0.2555065054	-0.2872787043	
597.5	0.1587160617	0.6540657055	
598.125	0.6671318209	0.1167043035	
598.75	0.02087991396	0.2233261681	
599.375	0.8384470065	0.1075396612	
600.0	0.297965455	-0.4684338885	
600.625	0.2579505246	-0.2007045833	
601.25	0.3952399732	-0.4252413705	
601.875	-0.2365987441	-0.3878257832	
602.5	-0.2710630031	-0.09686679079	
603.125	-0.2787063593	0.04980107299	
603.75	-0.2878074446	0.2003765944	
604.375	-0.1576542457	0.1378917496	
605.0	-0.277057926	0.1299588886	
605.625	-0.0283759268	0.2318990707	
606.25	-0.3893129249	-0.1404701839	
606.875	-0.5215151749	0.5810801993	
607.5	-0.1579151336	0.07233004447	
608.125	-0.5598163202	0.789011435	
608.75	0.6678313943	0.1320806116	
609.375	0.3835324158	0.3486909106	
610.0	0.6469206049	-0.4870904406	
610.625	-0.04857338784	-0.1724447538	
611.25	0.3231635582	-0.5921836842	
611.875	-0.2697166103	-0.03428342264	
612.5	-0.2453040638	-0.3384144862	
613.125	-0.5872279219	0.3765693121	
613.75	-0.2560999352	0.04004426871	
614.375	0.1634474523	0.4196938514	
615.0	-0.05232559327	-0.08075945976	
615.625	0.1302591986	0.6075961339	
616.25	-0.02282986211	0.04556975022	
616.875	-0.4991483381	0.5048743913	
617.5	0.05859472033	0.6966961652	
618.125	-0.2090484873	0.1659359387	
618.75	0.03111081396	0.7322848062	
619.375	0.2437942143	0.190535848	
620.0	0.3968595558	0.3665191602	
620.625	0.1815566521	-0.4128270422	
621.25	-0.02197953604	-0.4119571053	
621.875	-0.551694728	-0.2616651009	
622.5	-0.4062125335	0.06856332916	
623.125	-0.2241574784	0.6316566581	
623.75	0.2151499334	-0.1352364804	
624.375	0.3767321443	0.101690326	
625.0	-0.2977000763	-0.09185677725	
625.625	0.4955934827	-0.1066646392	
626.25	-0.4277203779	-0.4158858942	
626.875	0.1137443784	-0.15459766	
627.5	-0.6956868589	-0.260403924	
628.125	-0.1728949069	0.1143089685	
628.75	0.08966858918	-0.5592557031	
629.375	-0.5081932862	-0.3442306355	
630.0	-0.1707174684	-0.1873884045	
630.625	-0.6119375596	-0.06609446054	
631.25	-0.3987993735	0.5499073451	
631.875	-0.04455425532	0.5355573215	
632.5	0.1760485896	0.4477207845	
633.125	0.5639837219	0.1892604489	
633.75	0.3123658249	-0.1683103613	
634.375	0.2636702915	-0.2667309071	
635.0	-0.138513348	-0.3717520533	
635.625	-0.09759258711	-0.2539752345	
636.25	-0.6259412788	0.1033395163	
636.875	0.0544357018	0.4585991562	
637.5	-0.1210815506	-0.2344506963	
638.125	-0.3511837873	0.6845388923	
638.75	0.1427691063	0.06303324653	
639.375	-0.436274327	0.6429911416	
640.0	0.6290961362	0.6636295888	
640.625	0.222141945	0.155134328	
641.25	0.9858522233	0.3440086891	
641.875	0.1016223822	-0.6236576107	
642.5	0.2625134833	-0.1964377929	
643.125	-0.3255351314	-0.7505425229	
643.75	-0.4229431969	0.2919508218	
644.375	-0.2180157889	-0.4155217583	
645.0	-0.5738716686	0.4676591546	
645.625	0.3467561655	0.4894881248	
646.25	-0.01117104978	0.1117179127	
646.875	0.7459959252	0.06683014364	
647.5	-0.2971539795	0.02902381492	
648.125	0.6954895228	0.3275163156	
648.75	0.358481756	-0.5734555467	
649.375	0.6007203046	0.2327294221	
650.0	0.8882468396	-1.32425698	
650.625	-0.3761004425	-0.6917018998	
651.25	0.7878079016	0.1926476648	
651.875	1.083039709	-0.9398344469	
652.5	0.0188333725	-0.3678942065	
653.125	0.9545528326	0.2397832433	
653.75	0.4147796904	-0.9916355224	
654.375	-0.06983676393	-0.1895601982	
655.0	-0.5683763147	-0.8742772443	
655.625	-0.4038430625	0.9094934515	
656.25	0.07775868026	-0.0224501561	
656.875	-0.06487431397	0.5407755234	
657.5	0.3047837847	-0.07170549519	
658.125	-0.09554058844	0.6306233713	
658.75	1.036134844	0.1625083074	
659.375	0.5214410044	-0.4107594442	
660.0	0.5614326968	-0.2498637383	
660.625	0.7472601114	-1.21468263	
661.25	-0.2780668999	-0.6808410112	
661.875	0.8237992398	-0.02814341197	
662.5	0.9206057249	-0.915489789	
663.125	0.06320968798	-0.4585406245	
663.75	1.042955572	-0.4523769457	
664.375	-0.6030398641	-0.8721900126	
665.0	-0.1012786531	-0.4201731462	
665.625	-1.169684731	-0.01505938713	
666.25	0.02795126656	0.8451919203	
666.875	-0.03415816591	0.2011521236	
667.5	0.5135449782	0.5527428046	
668.125	0.5572485818	-0.2985464688	
668.75	0.3108796081	-0.01990366871	
669.375	0.4737960425	-0.7736074956	
670.0	-0.1752983913	-0.2928816836	
670.625	0.2578397636	-0.4624140932	
671.25	0.004634459317	-0.6122048452	
671.875	0.1269564794	-0.1378821403	
672.5	0.7741526992	-0.2420117605	
673.125	0.5586427428	-0.7636310612	
673.75	-0.02925208374	-0.3623854466	
674.375	0.6060114385	-0.3905912943	
675.0	-0.562695483	-1.04676197	
675.625	0.04593970309	0.1765878806	
676.25	-0.8520619694	-0.5069570387	
676.875	-0.1809470493	0.547752956	
677.5	-0.3848377157	-0.666297758	
678.125	-0.3546985877	0.9665257155	
678.75	-0.003490371481	0.01762704205	
679.375	0.267801902	0.4924822075	
680.0	0.7784157323	-0.2868449753	
680.625	-0.3035074098	-0.3265353794	
681.25	0.4554050615	0.3413199595	
681.875	0.4679824394	-0.12168798	
682.5	0.2685115662	0.1523599073	
683.125	0.6903347699	0.518922668	
683.75	0.6175629806	-0.1715599623	
684.375	0.4974313754	0.2128411211	
685.0	0.873121729	0.433652201	
685.625	0.8686892207	-0.6002807087	
686.25	-0.02268754154	0.6021941517	
686.875	1.829368142	-0.7018629839	
687.5	-0.3950762575	-0.6161123611	
688.125	0.866790079	-0.9987310293	
688.75	-1.814791154	-0.522751328	
689.375	-0.03853651023	0.08035619365	
690.0	-0.1864610119	1.585952288	
690.625	0.6823945031	0.007394033853	
691.25	0.2490055458	0.9764615986	
691.875	1.461786631	0.8973553253	
692.5	1.211107957	0.2772213461	
693.125	1.579609186	0.1614461251	
693.75	1.417209872	-0.5305032735	
694.375	1.099043103	-0.8876885048	
695.0	0.9446716742	-0.7842082291	
695.625	1.169191679	0.1097305227	
696.25	1.747717627	0.2723180818	
696.875	0.5150527645	0.5934390803	
697.5	0.942506365	1.925574435	
698.125	1.53401405	-0.2300173654	
698.75	1.332096397	0.04405640528	
699.375	-1.377174724	-1.583865688	
700.0	0.01281344895	0.7510580028	
700.625	-0.348085982	1.183835132	
701.25	0.7492155887	-0.09337684125	
701.875	0.1228988657	0.7835608113	
702.5	1.314629981	0.6428022498	
703.125	0.5696169397	0.214076679	
703.75	1.361873747	-0.08033126394	
704.375	0.4101856003	-0.6231528306	
705.0	0.778625602	0.2226633925	
705.625	0.8136378015	-0.5829975882	
706.25	0.1198390454	0.4374923011	
706.875	0.9279985927	1.296151984	
707.5	0.6376776336	0.1511611369	
708.125	1.067947114	0.9729778111	
708.75	0.789186875	-1.33500278	
709.375	-0.185200863	-0.4146513	
710.0	-0.9382349889	0.4374352632	
710.625	0.4727575546	0.2878632937	
711.25	0.01349731422	0.404773089	
711.875	0.5653632393	0.2364084105	
712.5	0.8696021879	0.1721638222	
713.125	0.5359780081	-0.5521664108	
713.75	0.3822842406	-0.3959356652	
714.375	0.001389442298	-0.8649886165	
715.0	-0.1696071587	-0.1453344978	
715.625	0.4530576246	-0.8542233621	
716.25	-0.3619828615	-0.7089945953	
716.875	0.8847453829	0.4211261815	
717.5	2.538642075	-0.3557228584	
718.125	0.3859685324	-1.222235015	
718.75	2.587050364	1.704440023	
719.375	2.13324403	-2.682109107	
720.0	0.8112856007	-1.034005413	
720.625	2.297387482	-3.216140332	
721.25	-1.590737265	-1.889292878	
721.875	0.7143567139	-2.530915611	
722.5	-1.748289104	-2.485253698	
723.125	-2.128721208	0.2432036694	
723.75	-0.85049855	0.5059846376	
724.375	-0.2427585108	1.508556366	
725.0	0.8030321779	0.8022138317	
725.625	0.1678354433	0.7684158856	
726.25	-0.4550658375	2.088174863	
726.875	1.181691541	2.555191052	
727.5	-1.811070873	2.232310994	
728.125	0.4306876526	8.02706957	
728.75	5.638715791	8.751153262	
729.375	-8.418039956	4.951084313	
730.0	7.683137967	23.3090146	
730.625	4.024465767	1.102104334	
731.25	-9.66543353	6.324115793	
731.875	-8.429055882	14.81308429	
732.5	-1.897108123	0.9101782826	
733.125	-10.18637042	-1.338184564	
733.75	-1.563697389	4.105372599	
734.375	0.9012621827	0.6530075008	
735.0	1.231536037	-2.346888365	
735.625	-0.8448101879	1.317002155	
736.25	-0.8624818394	0.5512192663	
736.875	1.089286357	2.061115846	
737.5	3.744852585	-0.02042594702	
738.125	0.7678026621	-1.585111691	
738.75	8.881878448	-0.507726476	
739.375	4.640711172	-9.43882747	
740.0	-2.254948181	4.389215836	
740.625	20.30126166	4.957437673	
741.25	9.287084599	-9.49495717	
741.875	-18.79360309	-6.156650279	
742.5	-18.10006847	-4.81617457	
743.125	-1.355181272	2.13441794	
743.75	3.178823416	-4.079716768	
744.375	-2.193335662	0.6809289496	
745.0	-0.03446915791	-0.2345937047	
745.625	0.294338026	-0.135964498	
746.25	0.04264487351	-0.02698416095	
746.875	-0.8990693317	-0.3604414017	
747.5	-0.0740722063	1.327403364	
748.125	0.02827405413	0.8529387595	
748.75	0.02530755191	1.515364004	
749.375	0.5511375184	1.043117254	
750.0	-0.09668857757	-1.092069234	
