!Created with skrf (http://scikit-rf.org).
# GHz S RI R (50+0j) 
!freq	ReS11	ImS11	
500.0	0.7962535119	-1.204023367	
500.625	0.9943338592	-3.818685076	
501.25	-1.804281496	-2.020300555	
501.875	-1.171203832	-0.2116762582	
502.5	0.1079696372	-0.3906332038	
503.125	-0.3533552915	0.2071210721	
503.75	-0.005359016587	-0.05408780029	
504.375	0.2023535085	-0.02008224802	
505.0	-0.09461493176	0.03443971202	
505.625	0.1183223296	-0.4149072174	
506.25	-0.2181231926	0.3570381139	
506.875	-0.790579541	-0.9642204501	
507.5	-1.800982972	-0.622372194	
508.125	0.383195416	-0.1686004633	
508.75	2.545526756	-4.12197317	
509.375	-3.272114671	-2.629261949	
510.0	-0.5365695885	-0.5742803519	
510.625	-1.05214194	-0.5316820895	
511.25	-0.0530282758	-0.05971881497	
511.875	-0.6043834381	-0.2014947856	
512.5	-0.01191723644	0.1190537222	
513.125	-0.03658801351	-0.1933526136	
513.75	-0.08787575582	-0.3358601204	
514.375	-0.6774889359	0.04129996535	
515.0	1.616794682	0.02247604121	
515.625	-2.402547775	-1.415542085	
516.25	1.29026075	-0.3488721783	
516.875	-1.159544348	-2.805273927	
517.5	-0.7751310736	0.3049844473	
518.125	-0.02591846346	-0.4949586351	
518.75	-0.5919921113	0.1585421628	
519.375	-0.2018500247	0.002238788974	
520.0	0.5495810634	0.200183096	
520.625	0.3060783192	-0.2914158564	
521.25	0.2763158334	-0.557704163	
521.875	-0.6306275186	0.04823699562	
522.5	0.001944253258	-0.06235275431	
523.125	-0.2207445279	0.2763500389	
523.75	-0.1072844798	-0.2503026828	
524.375	-0.4815584852	0.4394449361	
525.0	-0.1650430398	-0.01483951726	
525.625	0.1293940448	0.382274728	
526.25	-0.2160811353	-0.2632390204	
526.875	0.02351791682	0.315339675	
527.5	-0.1658677778	0.1579738448	
528.125	0.005681626486	1.204852797	
528.75	0.5461633265	0.4233934564	
529.375	-0.1205150833	0.4043286796	
530.0	0.3007154086	0.1221058548	
530.625	0.1513099909	1.421398173	
531.25	1.002598244	-0.4766934898	
531.875	0.7179457982	0.05123254017	
532.5	-0.6502012243	-0.4927441763	
533.125	0.7587053992	0.03025211209	
533.75	-0.2359975138	-0.7263514619	
534.375	0.2717242213	-0.5985587618	
535.0	-1.20338318	-0.1229025856	
535.625	-0.1052924764	0.1208961181	
536.25	-0.1221538815	0.2890204501	
536.875	0.3484647414	-0.03200094659	
537.5	0.06365533782	-0.01672056405	
538.125	0.4562180947	-0.2186165481	
538.75	0.1196059294	-0.2795347799	
539.375	-0.02059208698	-0.4862762451	
540.0	-0.6587182596	-0.2958365349	
540.625	-0.1394295987	-0.05910031097	
541.25	-0.3174658511	-0.05698956538	
541.875	-0.1283239654	0.02027241819	
542.5	-0.04623367243	-0.0370559705	
543.125	-0.2159310155	-0.2994284822	
543.75	-0.2735953236	0.2808510281	
544.375	-0.152751331	-0.1564017616	
545.0	0.1478583833	0.3190595002	
545.625	-0.1352873924	0.01491458451	
546.25	0.5362119701	0.1905925061	
546.875	-0.007460326024	-0.1333953533	
547.5	0.4396234316	-0.2222326935	
548.125	-0.3368543183	-0.5115429732	
548.75	-0.1793330274	-0.08894900368	
549.375	-0.1958411958	-0.3283073112	
550.0	-0.2775621557	0.1499486729	
550.625	-0.03337326598	-0.1207805902	
551.25	-0.2639101992	0.2055229795	
551.875	-0.09394384062	0.04722888612	
552.5	-0.1937518246	0.2643435844	
553.125	0.02368831339	0.1270112581	
553.75	0.08729546271	0.1384315905	
554.375	0.2545802408	-0.00253116565	
555.0	0.213979357	-0.1748304063	
555.625	0.2141908508	-0.2441629109	
556.25	0.1658344954	-0.3576544049	
556.875	-0.09920353396	-0.3906605081	
557.5	-0.2237356315	-0.2437040145	
558.125	-0.2856533845	-0.1079634019	
558.75	-0.2579967137	0.01874926085	
559.375	-0.2329969052	0.02005440364	
560.0	-0.2769336414	0.1911625291	
560.625	-0.05811696645	0.284110972	
561.25	-0.02613187768	0.1634371317	
561.875	0.1254006474	0.1865182557	
562.5	-0.0371065509	0.02232389771	
563.125	0.2524153712	0.268135502	
563.75	0.2031003421	-0.09881966441	
564.375	0.4132661804	-0.09543853908	
565.0	0.1253907773	-0.5064817507	
565.625	-0.08419986707	-0.2030400809	
566.25	-0.1724899288	-0.3492841897	
566.875	-0.4833882702	-0.1806273818	
567.5	-0.2084732635	-0.09195071288	
568.125	-0.2667896444	-0.590371782	
568.75	-0.6731091586	-0.005968195115	
569.375	-0.3905517641	0.01133264595	
570.0	-0.487165609	0.6918465934	
570.625	0.1381665328	0.3535418593	
571.25	-0.328706535	0.1694801939	
571.875	0.5421351564	0.1979465221	
572.5	-0.06526400591	0.1391017946	
573.125	0.5375931858	-0.3446987674	
573.75	-0.1558491562	-0.4281325551	
574.375	0.1858600743	0.1251954531	
575.0	-0.01366978651	-0.432120827	
575.625	0.1625746025	0.1468008015	
576.25	0.2733275599	-0.5036348693	
576.875	-0.3006279924	-0.2476437402	
577.5	0.2343455139	-0.1467334253	
578.125	-0.05485537904	-0.6414559977	
578.75	-0.4014671387	-0.1845224522	
579.375	-0.009601434714	-0.008864077895	
580.0	-0.2261667154	-0.329757512	
580.625	-0.004839171757	0.1722715972	
581.25	-0.4964629027	-0.02658562557	
581.875	0.2208035223	0.5505107416	
582.5	0.1241925885	-0.02918100365	
583.125	-0.1329245556	0.4798286619	
583.75	0.533046322	-0.2292885161	
584.375	-0.3440842059	0.3690067462	
585.0	0.6361959609	0.05684540384	
585.625	-0.01177982216	-0.09428274839	
586.25	0.6276394966	0.06072832367	
586.875	-0.09170440112	-0.4982422048	
587.5	0.1828394544	-0.1228957261	
588.125	-0.0396634735	-0.6198559305	
588.75	-0.2199064483	-0.235246174	
589.375	0.4427912474	-0.09873111397	
590.0	-0.2679740901	-0.6153843459	
590.625	-0.3593739074	0.0263886248	
591.25	-0.2625375004	0.08759881783	
591.875	-0.2523783392	0.399148808	
592.5	0.1919826317	-0.03747637795	
593.125	-0.1433315101	0.2681324098	
593.75	0.1433880455	0.1108742458	
594.375	0.1707495929	0.4337554529	
595.0	0.7553709506	0.306595239	
595.625	0.1424292373	-0.1962163845	
596.25	0.3140014483	0.5454804848	
596.875	0.696503023	-0.2110550562	
597.5	-0.005279703311	0.1707423038	
598.125	0.5385912719	0.5223063433	
598.75	0.2876864029	-0.0554258565	
599.375	0.5594875044	0.2544793514	
600.0	0.373108509	-0.6135697981	
600.625	0.1518430206	-0.2231163977	
601.25	0.3646838197	-0.4108819719	
601.875	-0.3171905238	-0.449653466	
602.5	-0.1744518953	-0.03316267459	
603.125	-0.2208105713	0.09631905128	
603.75	-0.3669630562	0.09250076484	
604.375	-0.1047471361	0.371551992	
605.0	-0.2285321799	-0.06356469297	
605.625	-0.2086205627	0.3878887981	
606.25	-0.09427319462	-0.07438455539	
606.875	-0.7594681164	0.2985635809	
607.5	0.01180246586	0.4182101885	
608.125	-0.4883146848	0.4026362362	
608.75	0.9223039827	0.4829472795	
609.375	0.1083183252	0.05361095816	
610.0	0.7205956331	-0.2441761884	
610.625	-0.06004812967	-0.4805970974	
611.25	0.3668227807	-0.246668888	
611.875	-0.4963851755	-0.1978015339	
612.5	-0.1268590586	-0.2100801635	
613.125	-0.7101080887	0.08169272418	
613.75	0.120805488	0.1664802688	
614.375	-0.09717469349	0.482057026	
615.0	0.2505665142	-0.1743550741	
615.625	-0.2999048167	0.4397611574	
616.25	0.296864131	0.2895942595	
616.875	-0.4682964815	0.1755623576	
617.5	-0.1294400198	0.8630266098	
618.125	0.1436660666	0.2005917637	
618.75	-0.2026278857	0.6408558185	
619.375	0.4299561107	0.2713611336	
620.0	0.247635472	0.2363218686	
620.625	0.2912046644	-0.5049985567	
621.25	-0.07571350226	-0.3191552779	
621.875	-0.6319787368	-0.2559521113	
622.5	-0.3390940007	0.161083383	
623.125	-0.2970356773	0.4423749036	
623.75	0.4374743547	-0.1125011375	
624.375	0.1084973519	0.2149969662	
625.0	-0.1732738673	-0.381384963	
625.625	0.3077040827	0.1078783974	
626.25	-0.2462354321	-0.661324359	
626.875	-0.2628064145	0.1813904928	
627.5	-0.2172711444	-0.4372686145	
628.125	-0.484011115	-0.05482317033	
628.75	0.03469641379	-0.1601914162	
629.375	-0.2788415355	-0.57902367	
630.0	-0.3573329354	0.04779114698	
630.625	-0.5773786415	-0.0780633479	
631.25	-0.4213997432	0.5984486392	
631.875	0.09972211846	0.4942192406	
632.5	0.2317610355	0.3942275254	
633.125	0.4396039804	0.2599522904	
633.75	0.532237577	-0.3284051845	
634.375	0.03320076189	-0.100501072	
635.0	0.1477129874	-0.5410006865	
635.625	-0.4273154929	0.129243347	
636.25	-0.4643553804	-0.1767388338	
636.875	-0.107356602	0.5730584832	
637.5	0.05291762468	-0.08525451966	
638.125	-0.5838122129	0.4548211124	
638.75	0.397783826	0.2926735665	
639.375	-0.4651700702	0.3519907649	
640.0	0.4121735035	0.9343351815	
640.625	0.6995294545	0.08455137204	
641.25	0.2613859933	0.1303967584	
641.875	0.7458100474	-0.7145527878	
642.5	-0.2297570305	-0.1885104911	
643.125	-0.05341202915	-0.6179346072	
643.75	-0.6973720601	0.1131597593	
644.375	0.05570385967	-0.3107261613	
645.0	-0.6964844927	0.4998862761	
645.625	0.3574804595	0.5355310741	
646.25	0.2862979386	-0.09660434338	
646.875	0.145874207	0.4603412334	
647.5	0.2577874754	-0.5493238348	
648.125	0.2264290223	0.6626115424	
648.75	0.93527708	-0.5886539332	
649.375	-0.06041409101	-0.2529709009	
650.0	1.218592325	-0.6267484203	
650.625	-0.1652148214	-1.257524303	
651.25	0.1213517114	0.1698698011	
651.875	1.361896796	-0.3184038948	
652.5	0.4230331981	-0.8491456731	
653.125	0.2557509931	0.2194666551	
653.75	0.8679536275	-0.7608795919	
654.375	-0.5593057344	-0.488033356	
655.0	-0.1680251443	-0.4853270505	
655.625	-0.9199400393	0.7422090526	
656.25	0.4381996067	0.07502184642	
656.875	-0.2733111536	0.2709003118	
657.5	0.4179329627	0.280262673	
658.125	0.09525645831	0.09047793235	
658.75	0.7171794628	0.6669960614	
659.375	0.8030524354	-0.7073685964	
660.0	0.2665426573	-0.4397180413	
660.625	0.7834229845	-0.6464019781	
661.25	-0.0006403685078	-1.205388996	
661.875	0.3416671154	0.03702372314	
662.5	1.160871091	-0.5791653898	
663.125	0.3147580991	-0.8799704805	
663.75	0.3396783902	-0.08086001388	
664.375	0.03371391717	-1.271808833	
665.0	-0.6454683004	-0.01149510326	
665.625	-0.7652277518	-0.2430826653	
666.25	-0.1912762204	1.001616235	
666.875	0.1642172985	0.06104275382	
667.5	0.4718837191	0.5714669068	
668.125	0.6564738524	-0.2717167517	
668.75	0.1533447377	-0.2241065286	
669.375	0.5083806954	-0.3857448952	
670.0	-0.06663747324	-0.7893912788	
670.625	-0.08195678251	-0.1784933421	
671.25	0.3395921134	-0.4388213236	
671.875	0.1748313468	-0.5976762366	
672.5	0.3355792779	-0.02510727244	
673.125	0.6924517183	-0.6331792371	
673.75	0.03998334767	-0.5381634677	
674.375	0.3334548579	-0.2348180469	
675.0	-0.09315068862	-1.074438191	
675.625	-0.8095574276	0.2392465149	
676.25	0.06127414484	-0.4885635371	
676.875	-0.8173712194	0.2635726629	
677.5	0.1094474023	-0.009645924578	
678.125	-0.8911769277	0.3782055739	
678.75	0.586757566	0.2906294855	
679.375	0.1365144942	0.4231268854	
680.0	0.7282091373	-0.1939712898	
680.625	-0.1810610164	-0.5188088011	
681.25	0.1562119219	0.5244463147	
681.875	0.7161243526	-0.05374662757	
682.5	0.3802453098	0.03961992676	
683.125	0.3059933539	0.1267583567	
683.75	0.8336063654	0.5523727985	
684.375	0.5941367547	-0.4511670622	
685.0	0.386478801	0.5111840585	
685.625	1.185518583	-0.0927016756	
686.25	-0.05356604607	-0.3496902581	
686.875	1.591781058	0.2056153481	
687.5	-0.05362397426	-1.539258141	
688.125	0.4827695442	-0.1970522217	
688.75	-1.417126225	-1.163071651	
689.375	-0.09602713058	1.163711871	
690.0	-0.5048210001	0.6098108101	
690.625	1.167369155	0.5887697305	
691.25	0.2939352443	0.4374496495	
691.875	1.194572681	1.156897736	
692.5	1.423861682	0.02453785406	
693.125	1.342727797	0.1912228384	
693.75	1.49418713	-0.5978025032	
694.375	0.9111549922	-0.8717147671	
695.0	1.150637189	-0.8919649023	
695.625	0.7836165764	-0.2631062061	
696.25	1.502582253	0.9669598069	
696.875	1.269528153	0.1884651865	
697.5	0.1621610932	1.287493322	
698.125	2.258071393	0.3549178428	
698.75	0.2779399164	-0.4452949413	
699.375	-0.789960361	-1.870822281	
700.0	-0.3251945998	1.395916516	
700.625	-0.3897658477	0.2673340931	
701.25	1.213996292	0.5336137054	
701.875	0.134119246	0.3015483531	
702.5	0.9618407436	1.054914127	
703.125	0.8654763948	-0.302739078	
703.75	0.9397112519	0.2985511297	
704.375	0.6997932247	-0.8851980725	
705.0	0.1182396897	0.007328185881	
705.625	1.384633209	-0.04348341701	
706.25	0.2679900261	-0.1373450902	
706.875	0.2327615383	1.246525557	
707.5	1.386784442	0.6156051754	
708.125	0.5032641194	0.4295979109	
708.75	1.209517707	-1.092661986	
709.375	-0.8978202692	-0.3293934787	
710.0	-0.6199305259	0.2143832077	
710.625	0.4187147801	0.6033981449	
711.25	-0.06418013671	0.1769287862	
711.875	0.6505752731	0.4206688935	
712.5	0.6069650452	-0.009857548162	
713.125	0.7804223909	-0.6050696444	
713.75	-0.0003579534953	-0.4118975103	
714.375	0.4853658848	-0.7399124455	
715.0	-0.5552243726	-0.451345986	
715.625	0.4919221363	-0.07283395609	
716.25	0.4161503843	-1.466863887	
716.875	-0.04419395088	0.06610419835	
717.5	2.205624253	0.6326576105	
718.125	2.07860215	-1.696495691	
718.75	0.3795672256	1.707969907	
719.375	3.907344884	-2.466000215	
720.0	-0.3934068543	-1.453220799	
720.625	1.252403005	-1.671079787	
721.25	0.1052236063	-3.900431156	
721.875	-1.028875727	-1.380864202	
722.5	-1.07933433	-2.664947289	
723.125	-2.392131787	-0.122895453	
723.75	-0.4323558237	0.8379592511	
724.375	-0.4353939656	1.199052054	
725.0	0.8637512789	0.9955931458	
725.625	0.4434196865	0.6483182389	
726.25	-0.4503154625	1.39565022	
726.875	-0.1525747555	3.527081695	
727.5	1.9437792	2.099001317	
728.125	-4.766925454	4.679658679	
728.75	4.487610728	11.89213037	
729.375	1.210182728	1.215983566	
730.0	-8.308701008	21.41865543	
730.625	14.12761143	4.0939436	
731.25	-9.023995626	2.467036872	
731.875	-10.820372	10.65995707	
732.5	-6.711337972	7.804567354	
733.125	-3.554369632	-2.26073264	
733.75	-3.842920503	5.209009635	
734.375	2.134680401	0.3764791797	
735.0	0.6186262552	-0.6613207494	
735.625	-2.295606157	0.8218122227	
736.25	0.03804818218	0.0427446336	
736.875	0.7384515146	2.277991404	
737.5	3.480926162	0.1193106875	
738.125	2.67187278	-3.102373602	
738.75	1.545488553	1.400152141	
739.375	14.84280967	-6.047459959	
740.0	-1.8271733	-13.10026757	
740.625	1.795621443	18.05514044	
741.25	25.65275274	5.085375186	
741.875	7.901053819	-11.36926054	
742.5	-5.993054259	-11.74528816	
743.125	-7.593227341	-0.6280529794	
743.75	3.129693004	-0.8583657259	
744.375	-2.649327694	-0.8856540427	
745.0	0.6210079231	-0.1517573859	
745.625	0.2127179228	0.2414688744	
746.25	-0.2062493954	-0.4394035371	
746.875	0.04470909565	-0.2624821056	
747.5	-0.5575982232	1.284332634	
748.125	0.7708222978	1.057692933	
748.75	0.5587558194	1.047286081	
749.375	0.1512058769	1.621696639	
750.0	-0.00633731071	2.749362213	
