!Created with skrf (http://scikit-rf.org).
# GHz S RI R (50+0j) 
!freq	ReS11	ImS11	
500.0	1.583654618	-2.087883927	
500.625	-0.7692772904	-3.147378213	
501.25	-1.122009448	-1.021512115	
501.875	-0.7875775266	-1.746270781	
502.5	-0.4309676014	-0.2380074526	
503.125	-0.103997292	-0.05465009567	
503.75	0.1082531398	0.4272333311	
504.375	-0.06035805882	-0.06681206719	
505.0	0.2271166147	-0.08891988565	
505.625	-0.2222252324	-0.02630426806	
506.25	0.2345506576	-0.3830641281	
506.875	-0.398659648	0.9777737547	
507.5	0.8624237283	-0.801662291	
508.125	0.08379849138	-2.934472689	
508.75	-1.105034417	-2.566094867	
509.375	1.982950885	-3.674870851	
510.0	-2.917251064	-0.226285421	
510.625	0.0648396772	-0.2021051646	
511.25	-0.5055215885	-0.2667159067	
511.875	-0.4513726473	0.1101474856	
512.5	-0.08594941172	0.2115089333	
513.125	0.0191189078	-0.2954826359	
513.75	-0.374438033	-0.1405973492	
514.375	0.1210126471	-0.06607990356	
515.0	-0.9883337828	-0.5548870154	
515.625	1.870145854	-0.0749429027	
516.25	-2.405734136	-4.554803647	
516.875	-0.9228927242	0.8596523048	
517.5	0.5310437873	-0.7941825864	
518.125	-0.3437074878	0.2913124757	
518.75	0.2460116658	-0.8344300296	
519.375	-0.151252403	0.2707045693	
520.0	0.1811143699	0.002267866579	
520.625	0.585663847	-0.02042297482	
521.25	-0.4270400725	-0.7814173067	
521.875	-0.1232724967	-0.03464753603	
522.5	-0.2598087563	0.1459434631	
523.125	-0.01578616776	-0.1598354711	
523.75	-0.4424196071	0.2080036788	
524.375	-0.09555487003	-0.07760639389	
525.0	-0.2543285166	0.6297735322	
525.625	0.1683198228	-0.188820274	
526.25	0.004978584269	0.1849348247	
526.875	-0.1233173658	-0.07809933771	
527.5	-0.2091977248	0.8603346437	
528.125	0.4541789912	0.3267234725	
528.75	-0.2624479083	0.6391665898	
529.375	0.3119388006	0.1007904139	
530.0	-0.2613812135	0.6152492118	
530.625	0.7128303117	0.4206434533	
531.25	0.7940643446	0.5350627208	
531.875	0.5487788803	-1.097962564	
532.5	0.1647981352	0.1122405448	
533.125	-0.3251028903	-0.7117537299	
533.75	0.7460066358	0.03995230848	
534.375	-0.9805396773	-0.991307715	
535.0	-0.1950481224	0.005971256839	
535.625	-0.6577976943	0.205305333	
536.25	0.1937554879	0.2445313849	
536.875	0.1065978423	0.1338652226	
537.5	0.2417062594	-0.1849731648	
538.125	0.08022154501	-0.1784767465	
538.75	0.4714928831	-0.1680927922	
539.375	-0.3709557141	-0.3812111025	
540.0	-0.2247939884	-0.228351503	
540.625	-0.4257633088	-0.1181784463	
541.25	-0.2127076937	0.1019747463	
541.875	-0.04670270941	-0.02864905021	
542.5	-0.1630612059	-0.1912682937	
543.125	-0.2053626514	0.05597376915	
543.75	-0.1134330107	-0.1618934966	
544.375	-0.1356365597	0.2878859484	
545.0	-0.04548673937	-0.09357796055	
545.625	0.2784701977	0.3640658402	
546.25	0.07781119433	-0.1922289313	
546.875	0.3709666625	0.2034067216	
547.5	-0.04014134683	-0.5164395645	
548.125	0.02085207027	-0.1664872533	
548.75	-0.3040081144	-0.43442701	
549.375	-0.3927879809	-0.01797021203	
550.0	-0.0304613872	-0.06306884618	
550.625	-0.2529152714	0.1110719066	
551.25	-0.04322493415	0.01114148944	
551.875	-0.2719150376	0.1925101863	
552.5	0.01084078643	0.2165961365	
553.125	-0.06567313394	0.127581893	
553.75	0.1480637421	0.1029064072	
554.375	0.193357181	-0.02063680707	
555.0	0.2322145049	-0.166618885	
555.625	0.1736084848	-0.275176816	
556.25	0.118301074	-0.3279659914	
556.875	-0.09632570503	-0.3626711684	
557.5	-0.2400306937	-0.2290211986	
558.125	-0.275561789	-0.05515258968	
558.75	-0.2274378887	-0.002193858269	
559.375	-0.2804268795	0.06253056502	
560.0	-0.1576471797	0.2025572311	
560.625	-0.1431941731	0.2059779648	
561.25	0.05483687684	0.2986157704	
561.875	0.06760504696	-0.001432257279	
562.5	0.01554975329	0.2327534649	
563.125	0.1719247981	0.01484370075	
563.75	0.2910472444	0.1281033657	
564.375	0.3199248903	-0.3699697303	
565.0	0.02492742916	-0.2243507724	
565.625	0.0316548546	-0.4176800327	
566.25	-0.395668819	-0.1723437499	
566.875	-0.1851846447	-0.1075396971	
567.5	-0.3662092752	-0.3765924692	
568.125	-0.4949463056	-0.2127559965	
568.75	-0.2920620775	-0.2177807938	
569.375	-0.7617520455	0.305982822	
570.0	0.04045276535	0.5220594393	
570.625	-0.2837897869	0.1371377689	
571.25	0.1474159178	0.6486710633	
571.875	-0.1535423629	-0.08356234503	
572.5	0.6039891222	0.0993889938	
573.125	-0.1527315935	-0.4065104229	
573.75	0.2449482956	0.04764074985	
574.375	0.06636687405	-0.495940854	
575.0	-0.1070256537	0.1641507377	
575.625	0.315088585	-0.3364046301	
576.25	-0.211525586	-0.317366268	
576.875	0.2483362148	-0.1148059074	
577.5	-0.0341157699	-0.6466021434	
578.125	-0.2974607202	-0.1884816319	
578.75	0.01749746145	-0.2175718648	
579.375	-0.2923627003	-0.3399451678	
580.0	-0.1726749328	0.1921451919	
580.625	-0.1077692346	-0.3197770636	
581.25	-0.2767151226	0.4510184814	
581.875	0.1395118991	0.02687488539	
582.5	-0.2273505991	0.4500248167	
583.125	0.6404338232	0.2299037506	
583.75	-0.3340521851	-0.06779265724	
584.375	0.5028826568	0.3028413515	
585.0	-0.1665804571	-0.1176789377	
585.625	0.5893029915	0.2872882113	
586.25	0.265424803	-0.4836044378	
586.875	0.07498508611	-0.02287573653	
587.5	0.09483042624	-0.5466856031	
588.125	-0.3521135574	-0.2370177398	
588.75	0.31155758	-0.1112223318	
589.375	0.1701340323	-0.619437578	
590.0	-0.1799072936	-0.1152285047	
590.625	-0.3919105256	-0.2706580797	
591.25	-0.3240476727	0.4394127773	
591.875	0.05459399081	0.1649016538	
592.5	-0.1336021846	0.09073233799	
593.125	0.131721055	0.1587291192	
593.75	-0.1628919188	0.2338252876	
594.375	0.66360861	0.3629238731	
595.0	0.2856657034	-0.1514141495	
595.625	0.1709266632	0.492074126	
596.25	0.8217810378	-0.1197862531	
596.875	-0.1283953482	0.1090702667	
597.5	0.6319275221	0.4584800984	
598.125	0.3779933326	-0.1069008698	
598.75	0.1908210976	0.4138813453	
599.375	0.6604145111	-0.2544294587	
600.0	0.1376392895	-0.2993058164	
600.625	0.4234136123	-0.2661073867	
601.25	0.1161922697	-0.6296341479	
601.875	-0.1352038109	-0.1136891685	
602.5	-0.3622693017	-0.1317865736	
603.125	-0.1773408419	0.1615139036	
603.75	-0.2430152044	0.1977281281	
604.375	-0.1615749935	0.08277233306	
605.0	-0.2867506333	0.2691648096	
605.625	0.1107223675	0.07037454259	
606.25	-0.5991817332	0.08687664367	
606.875	-0.05956390906	0.4690595271	
607.5	-0.4707294872	-0.01684458953	
608.125	0.1044458626	1.054324491	
608.75	0.1455576661	-0.03036811874	
609.375	0.7693702204	0.1979182889	
610.0	0.1897755659	-0.6428365694	
610.625	0.3275145139	0.02169465043	
611.25	-0.1526390239	-0.6498190181	
611.875	-0.03873488548	-0.05024057801	
612.5	-0.5390696192	-0.3679924417	
613.125	-0.1463136003	0.3389078114	
613.75	-0.4683086688	0.1909320903	
614.375	0.3910532496	0.3094713167	
615.0	-0.2929904175	0.02595492201	
615.625	0.3979863579	0.2952576857	
616.25	-0.2761856341	0.00597512895	
616.875	-0.3220130383	0.7132316025	
617.5	0.2385454919	0.353568205	
618.125	-0.3541424284	0.4745098059	
618.75	0.3161671116	0.5076541451	
619.375	0.07348343885	0.2115530642	
620.0	0.5916796983	0.1375586437	
620.625	0.09230667589	-0.2992884288	
621.25	-0.1810364141	-0.5040110365	
621.875	-0.4408724034	-0.02103233557	
622.5	-0.4755688615	-0.02524194422	
623.125	0.1026481564	0.6170318085	
623.75	-0.04641224888	0.02544781148	
624.375	0.3865023071	-0.3330415373	
625.0	-0.1214818458	0.2161732165	
625.625	0.374173229	-0.4692974571	
626.25	-0.4023827419	0.0865778846	
626.875	-0.03177330544	-0.5079627206	
627.5	-0.6177169102	0.02993306542	
628.125	-0.0291121637	0.03107889081	
628.75	-0.09003085481	-0.5150848215	
629.375	-0.432821576	-0.1608552526	
630.0	-0.2366535084	-0.2559186262	
630.625	-0.6337331349	0.1517948977	
631.25	-0.1059919135	0.5537807654	
631.875	-0.1135481019	0.384413751	
632.5	0.4377627181	0.5344859602	
633.125	0.4657342527	-0.00588439783	
633.75	0.2678101476	-0.1558140268	
634.375	0.2809254639	-0.2989150149	
635.0	-0.3481008304	-0.3133062047	
635.625	-0.0312891661	-0.2820306992	
636.25	-0.6141197688	0.3032547768	
636.875	0.2145895703	0.2928520756	
637.5	-0.4791942457	-0.07921576177	
638.125	0.2930322301	0.5452125431	
638.75	-0.3421411682	-0.05908149609	
639.375	0.003486977632	1.00398928	
640.0	0.5987217474	0.1610472614	
640.625	0.1455923703	0.3953928506	
641.25	0.9814505727	-0.07028887783	
641.875	0.01074316943	-0.5785404451	
642.5	0.2229549456	-0.236285446	
643.125	-0.6188981396	-0.551261338	
643.75	0.01386238781	0.2560249799	
644.375	-0.6091069492	-0.2646882197	
645.0	-0.1798548309	0.6134558875	
645.625	0.1715743721	0.186985779	
646.25	0.1975540828	0.4734026605	
646.875	0.4693691433	-0.373442903	
647.5	-0.2288550727	0.2303864051	
648.125	0.7871411595	0.1267875104	
648.75	0.0687479227	-0.528393689	
649.375	0.9024915781	0.08980347022	
650.0	0.2844841823	-1.455283324	
650.625	-0.290806894	-0.2023610737	
651.25	1.082322919	-0.260603267	
651.875	0.4101298876	-1.206100128	
652.5	0.07746100226	0.1866696085	
653.125	1.098178264	-0.2668817427	
653.75	-0.05511870693	-0.8432169637	
654.375	0.0746127986	-0.243106776	
655.0	-1.032076625	-0.5543006092	
655.625	0.01505756347	0.7358309143	
656.25	-0.1196671838	0.01728040535	
656.875	0.2653667965	0.5310568278	
657.5	0.04442707187	-0.2008995301	
658.125	0.2544418806	0.7346383932	
658.75	0.8596669325	-0.1185692677	
659.375	0.4149120539	-0.3972260579	
660.0	0.6426291236	-0.3112600175	
660.625	0.2457275891	-1.345603035	
661.25	-0.140525022	-0.2535085424	
661.875	0.9219997631	-0.4429082263	
662.5	0.4841977927	-0.9815406315	
663.125	0.04652040347	-0.1183418463	
663.75	0.839391631	-0.9421549134	
664.375	-0.6667362079	-0.4976403752	
665.0	-0.180289395	-0.4682311498	
665.625	-1.042047789	0.2871434574	
666.25	0.2317644423	0.6247573436	
666.875	-0.04307398606	0.4336980468	
667.5	0.687951529	0.2584138464	
668.125	0.2363273596	-0.3058831462	
668.75	0.5663742097	-0.02226908295	
669.375	0.05050574981	-0.8559069068	
670.0	-0.05844349794	-0.2215302561	
670.625	0.1668727925	-0.4553793315	
671.25	0.01846305118	-0.5972672876	
671.875	0.01191362701	-0.1822602379	
672.5	0.741370937	-0.262192785	
673.125	0.2875057258	-0.7464022647	
673.75	0.08003142086	-0.214092234	
674.375	0.493890296	-0.7353162149	
675.0	-0.894293692	-0.4306973859	
675.625	0.2222812223	-0.2409070897	
676.25	-0.9432376233	-0.1429445956	
676.875	0.01285808991	0.491997814	
677.5	-0.527812807	-0.4414520775	
678.125	-0.08849018781	0.8900223256	
678.75	0.02907854928	0.1130868977	
679.375	0.4329047932	0.4393520225	
680.0	0.5079611072	-0.6160232583	
680.625	-0.2506593955	0.1408945074	
681.25	0.6043989159	-0.07788040383	
681.875	0.2190960089	-0.1706716103	
682.5	0.2155120715	0.3073906015	
683.125	0.7865179094	0.2709807472	
683.75	0.5694357916	-0.1882625673	
684.375	0.3379503454	0.07583047793	
685.0	0.9034172177	0.4018477675	
685.625	0.6395369095	-0.8195922404	
686.25	0.2867090341	0.7201809703	
686.875	1.158717442	-1.283530649	
687.5	-0.256256858	-0.1199755373	
688.125	0.4859791102	-1.398089999	
688.75	-1.755620575	0.385408457	
689.375	-0.2385693383	-0.1133767945	
690.0	0.4175750767	1.558331828	
690.625	0.5941868642	-0.052643923	
691.25	0.4327245767	0.9070253873	
691.875	1.498777786	0.4850240737	
692.5	1.028670205	0.281269	
693.125	1.563443851	-0.01686018912	
693.75	1.229001718	-0.7774632996	
694.375	0.9178499109	-0.7923907611	
695.0	0.8621423191	-0.8854089254	
695.625	0.9687866204	0.04923996936	
696.25	1.659499638	-0.05614130177	
696.875	0.4740094582	0.3859265717	
697.5	1.408069864	1.664428971	
698.125	1.153527051	-0.7069974372	
698.75	1.294287378	-0.4475919618	
699.375	-1.817793912	-0.7832016192	
700.0	0.2432814533	0.4141684476	
700.625	0.183254711	1.449522709	
701.25	0.5871980446	-0.2454840125	
701.875	0.2333815916	0.8585714372	
702.5	1.391901386	0.2490493393	
703.125	0.3908333053	0.2978599481	
703.75	1.300446478	-0.2623331465	
704.375	0.1157450785	-0.7049154584	
705.0	0.9077198058	0.2507725123	
705.625	0.6618969819	-0.7057798717	
706.25	0.02651501211	0.4928172513	
706.875	1.207912307	1.058089033	
707.5	0.4545615815	-0.09186583437	
708.125	1.30575997	0.6170612311	
708.75	0.2112914525	-1.41468243	
709.375	-0.3688440454	-0.3192881899	
710.0	-0.5980409183	0.6436763394	
710.625	0.4495660984	0.1458160247	
711.25	0.1695555324	0.3666696832	
711.875	0.5470471236	0.08466105096	
712.5	0.7940020726	-0.06581911541	
713.125	0.4297273511	-0.5220901133	
713.75	0.3625651308	-0.3963694821	
714.375	-0.09719706794	-0.8274873419	
715.0	-0.2069636689	-0.004667646434	
715.625	0.5513906803	-0.9125303169	
716.25	-0.4901463815	-0.7528517952	
716.875	0.8783758969	0.4158427096	
717.5	2.334491604	-0.6602808708	
718.125	-0.1607777438	-1.110455571	
718.75	3.303309833	0.947174612	
719.375	0.7713503157	-2.988048266	
720.0	0.5771477699	-0.828656378	
720.625	1.189240617	-3.810336578	
721.25	-1.890209116	-1.684617653	
721.875	0.06160994356	-2.099548398	
722.5	-2.082748256	-1.953744306	
723.125	-1.933555116	0.6978856679	
723.75	-0.6585789244	0.5914690211	
724.375	0.06682136219	1.552208908	
725.0	0.67608676	0.4771120277	
725.625	0.1789616111	0.8119489017	
726.25	-0.1336286518	1.944275953	
726.875	1.386253049	2.419469918	
727.5	-1.502589609	1.514501431	
728.125	-0.0849263449	7.701044804	
728.75	6.757414792	4.300199714	
729.375	-7.39400777	1.380502407	
730.0	5.871325804	16.38250855	
730.625	3.953123362	0.1070972324	
731.25	-7.156845287	8.795791803	
731.875	-3.903679341	15.87675245	
732.5	-1.304966112	-0.5641786943	
733.125	-9.193987285	1.550318006	
733.75	-0.05080104514	4.189726885	
734.375	1.409654558	-0.2838088159	
735.0	0.7702267768	-1.930120118	
735.625	-0.8560717427	1.613173971	
736.25	-0.6608342833	0.524782629	
736.875	1.429870379	1.81076818	
737.5	3.197653791	-0.864090383	
738.125	0.9988753565	-0.5630468458	
738.75	7.779225744	-1.914157345	
739.375	4.802576219	-10.48793521	
740.0	-4.016571832	0.6900229325	
740.625	22.2253059	13.31514798	
741.25	22.62645326	-6.238351188	
741.875	-17.12245077	-15.20985229	
742.5	-12.71217639	-4.741980264	
743.125	-0.60504388	1.699640667	
743.75	1.759736015	-4.804310315	
744.375	-1.881940966	1.323720304	
745.0	-0.1552283034	-0.1266373085	
745.625	0.4285344099	-0.1559189764	
746.25	-0.2400946991	-0.02014856968	
746.875	-0.3688704576	-0.167867089	
747.5	0.1650411581	0.924576395	
748.125	0.7247387258	0.8752459438	
748.75	0.6184743887	1.039988601	
749.375	-0.2569892306	1.74911461	
750.0	-0.8462624305	1.015454146	
