!Created with skrf (http://scikit-rf.org).
# GHz S RI R (50+0j) 
!freq	ReS11	ImS11	
500.0	-0.4237607524	-2.338061958	
500.625	2.13534556	-1.772990868	
501.25	-1.290306242	-3.283842951	
501.875	-2.006769554	-0.7454166688	
502.5	0.04069733042	-0.1659920928	
503.125	-0.4247709315	0.06416949723	
503.75	0.1646883402	-0.01917373992	
504.375	0.1680534077	0.04471167024	
505.0	-0.1136869524	-0.0781142797	
505.625	0.2787220158	-0.2528424536	
506.25	-0.5934010112	0.152539437	
506.875	0.1604602336	-0.6989999874	
507.5	-1.211192699	-2.182226787	
508.125	-1.158991982	-0.8622149247	
508.75	3.105438381	-2.249796034	
509.375	-2.897838625	-3.665400583	
510.0	-0.3828616691	-0.279543897	
510.625	-0.9001561508	-0.9423972577	
511.25	-0.1430030853	0.07098718411	
511.875	-0.5880113414	-0.2577110339	
512.5	-0.0393934783	0.2037432388	
513.125	-0.126635272	-0.286882084	
513.75	-0.02682249201	-0.1053728199	
514.375	-0.5518599397	-0.3831543804	
515.0	0.7583173199	1.200974591	
515.625	-1.798855802	-2.857863306	
516.25	-0.4485874039	0.6926718734	
516.875	0.1654382108	-2.810432972	
517.5	-1.174225967	-0.2154579202	
518.125	0.236944924	-0.3249628968	
518.75	-0.865161724	-0.3049944342	
519.375	-0.1181781842	0.0365749276	
520.0	0.4288713696	0.3390547699	
520.625	0.4415135771	-0.3707246017	
521.25	0.1134325141	-0.4185026905	
521.875	-0.5476951504	-0.2280192131	
522.5	0.0216089349	0.07390462046	
523.125	-0.2622478568	0.1738416406	
523.75	-0.131393813	-0.1141043087	
524.375	-0.6136089254	0.3145076257	
525.0	0.05140918504	0.004221053542	
525.625	-0.0133955049	0.3122389359	
526.25	0.008195691586	-0.2780074533	
526.875	-0.1758722534	0.395630226	
527.5	0.06043527367	0.2534254139	
528.125	-0.2468475132	0.9818004942	
528.75	0.5840503535	0.8485019323	
529.375	-0.1780878065	0.2553134799	
530.0	0.4260021123	0.3351601049	
530.625	-0.0759213295	0.9358680112	
531.25	1.508434011	0.02810777832	
531.875	0.3810188643	0.01124339613	
532.5	-0.2407292131	-0.6457566865	
533.125	0.248086685	0.2167566103	
533.75	0.09660512004	-0.9218737179	
534.375	0.05740443736	-0.2266786636	
535.0	-0.9741965252	-0.556436536	
535.625	-0.1478928833	0.4408978125	
536.25	-0.0990101938	0.1862227336	
536.875	0.3706876084	0.08230499884	
537.5	0.04183572244	-0.1259548947	
538.125	0.4882420317	-0.06928206392	
538.75	0.1528498847	-0.4120619833	
539.375	0.01268199712	-0.3788237521	
540.0	-0.590078598	-0.5128904788	
540.625	-0.2820949271	0.1335966468	
541.25	-0.1950394234	-0.08717251514	
541.875	-0.1651683488	-0.1205061472	
542.5	-0.1683450403	0.00898836227	
543.125	-0.0858984845	-0.229102242	
543.75	-0.3910154728	0.100036805	
544.375	0.02634582525	-0.1183208419	
545.0	-0.01479166135	0.3214023262	
545.625	0.05433079626	-0.07876412314	
546.25	0.3491400323	0.401027528	
546.875	0.1693718097	-0.320678553	
547.5	0.2725957825	-0.07695676833	
548.125	-0.09122064259	-0.6298532749	
548.75	-0.3916488764	-0.1051575488	
549.375	-0.08197553767	-0.2448723862	
550.0	-0.3472023425	0.039377136	
550.625	0.02282719758	-0.02607121405	
551.25	-0.3539878438	0.1017741323	
551.875	-0.02988486806	0.1569269408	
552.5	-0.2162554835	0.1595239312	
553.125	0.003194097664	0.2020251579	
553.75	0.08537890998	0.1121914684	
554.375	0.2583796892	0.03461607038	
555.0	0.244440256	-0.1845215381	
555.625	0.21917643	-0.2461584589	
556.25	0.1832701204	-0.3537153831	
556.875	-0.08707413817	-0.4034113316	
557.5	-0.2281448609	-0.2604106102	
558.125	-0.27937335	-0.1224926449	
558.75	-0.2888517047	-0.002057282998	
559.375	-0.234150452	0.05192885511	
560.0	-0.2693792737	0.145746217	
560.625	-0.1173110519	0.3275927865	
561.25	0.03655363543	0.1529807267	
561.875	0.05652035228	0.2118694891	
562.5	0.02923137882	0.008591647257	
563.125	0.1615144275	0.3137573893	
563.75	0.3486508671	-0.1401731051	
564.375	0.2452986805	-0.04417371157	
565.0	0.3072588411	-0.4538828892	
565.625	-0.1952970121	-0.3412046186	
566.25	-0.1303316432	-0.2181739162	
566.875	-0.4126769475	-0.3305600583	
567.5	-0.385808922	-0.06019638783	
568.125	-0.1639242645	-0.5260869467	
568.75	-0.7488100774	-0.1535662662	
569.375	-0.3536112323	0.1726286057	
570.0	-0.6172469818	0.4568180458	
570.625	0.08799692652	0.6573375918	
571.25	-0.1054886713	-0.05570274196	
571.875	0.304390808	0.530920728	
572.5	0.01432018439	-0.2130210934	
573.125	0.4917800378	-0.02515481716	
573.75	0.04877014963	-0.5812464198	
574.375	-0.06003755276	0.1436203199	
575.0	0.2741482334	-0.3830295125	
575.625	-0.140934355	0.07331287913	
576.25	0.4502442561	-0.277194156	
576.875	-0.2215357928	-0.5424740462	
577.5	-0.0785936988	-0.1043763979	
578.125	0.1443333877	-0.460677966	
578.75	-0.4123959176	-0.4442402078	
579.375	-0.1525282896	0.07116155207	
580.0	-0.02326101837	-0.3360929192	
580.625	-0.2225247621	0.1995261052	
581.25	-0.2460816455	-0.1584013319	
581.875	-0.05462911882	0.7021824739	
582.5	0.4537101422	0.1510254513	
583.125	-0.243684135	0.06317575236	
583.75	0.5389155054	0.3240880035	
584.375	-0.3629612205	-0.08377798517	
585.0	0.5907308329	0.3971937672	
585.625	0.1822448934	-0.3097824922	
586.25	0.4099264937	0.2486559983	
586.875	0.1781379496	-0.6605642078	
587.5	-0.044148279	-0.02333642049	
588.125	0.2322841178	-0.4415405496	
588.75	-0.08166441406	-0.5861970572	
589.375	0.06328122614	-0.07232508441	
590.0	0.06940765944	-0.6147288909	
590.625	-0.560252993	-0.01867830434	
591.25	-0.1908753387	0.1430863266	
591.875	-0.269625035	0.3052748559	
592.5	0.2167531443	0.07967728498	
593.125	-0.2486635697	0.2284551279	
593.75	0.2749731234	0.1991639551	
594.375	0.08297220009	0.1720241655	
595.0	0.4491912484	0.6876732923	
595.625	0.7308576949	-0.1974426421	
596.25	-0.03877255139	0.3064729816	
596.875	0.7736608623	0.1986082224	
597.5	0.1699890905	-0.09659922951	
598.125	0.3101616001	0.658033839	
598.75	0.5247345278	-0.08140443062	
599.375	0.3242201142	0.1938535814	
600.0	0.6691518897	-0.4891100829	
600.625	0.1541594278	-0.523390461	
601.25	0.1955178042	-0.2359495798	
601.875	-0.1172961765	-0.484740527	
602.5	-0.3189609919	-0.03061885219	
603.125	-0.1698039922	0.1258977028	
603.75	-0.3101391114	0.03310236501	
604.375	-0.2844481097	0.3403601365	
605.0	-0.08650161852	-0.008007502552	
605.625	-0.372172965	0.2501931381	
606.25	-0.0278816205	0.1077677215	
606.875	-0.7113292643	-0.020764567	
607.5	-0.1552843904	0.8011699257	
608.125	-0.276291862	0.1619246703	
608.75	0.5540737507	0.8821200593	
609.375	0.3044993422	-0.3522833676	
610.0	0.5410801339	0.02752880127	
610.625	0.1207075435	-0.6409877144	
611.25	0.09752974921	-0.05782615646	
611.875	-0.2933881813	-0.5479205291	
612.5	-0.1893258407	-0.01881637546	
613.125	-0.6184706809	-0.1031604634	
613.75	-0.1284993782	0.4224348176	
614.375	-0.2036654301	0.2560729792	
615.0	0.4078309	0.02664407951	
615.625	-0.3066910872	0.1795038952	
616.25	0.1519269739	0.6712411398	
616.875	-0.1758104268	0.0624568375	
617.5	-0.4281084952	0.7637182477	
618.125	0.2399970838	0.5146079036	
618.75	-0.2209972965	0.310864477	
619.375	0.3896604483	0.5361542581	
620.0	0.265366604	0.09127237252	
620.625	0.4330179655	-0.4099336062	
621.25	-0.2399076301	-0.3523212445	
621.875	-0.4624471989	-0.3673846256	
622.5	-0.4331946211	0.2321472963	
623.125	-0.181822488	0.3326357286	
623.75	0.5292450046	0.1280473196	
624.375	-0.1777723676	0.04366939508	
625.0	0.3594328743	-0.3917318555	
625.625	-0.04410161806	0.1057278633	
626.25	0.1078559418	-0.6360775224	
626.875	-0.5531531786	-0.02109969767	
627.5	-0.01314501561	-0.1599074613	
628.125	-0.536289761	-0.3020249872	
628.75	-0.06375713795	-0.03772552609	
629.375	-0.1062954645	-0.6093533792	
630.0	-0.6202808416	-0.09087677899	
630.625	-0.3001334868	-0.01952238094	
631.25	-0.5780315124	0.4099504439	
631.875	-0.008400912	0.6619539369	
632.5	0.3524068292	0.4464802486	
633.125	0.3252206499	0.1415390108	
633.75	0.66157426	-0.07807644817	
634.375	-0.003373265286	-0.2433175663	
635.0	0.195526951	-0.3953608366	
635.625	-0.531329778	-0.1437776059	
636.25	-0.2155554131	-0.09578886227	
636.875	-0.3999951147	0.5347387289	
637.5	0.2091720109	0.1530686797	
638.125	-0.5142586318	-0.05885946257	
638.75	-0.03010013045	0.8286699733	
639.375	0.08798905485	0.1346674808	
640.0	-0.02151485502	0.7824803151	
640.625	0.877109934	0.3951478648	
641.25	0.3328311548	-0.1099425857	
641.875	0.9444059785	-0.3119558528	
642.5	-0.3557418041	-0.412543819	
643.125	0.1490559966	-0.3122183903	
643.75	-0.6797783821	-0.403521133	
644.375	-0.1106282226	0.332291605	
645.0	-0.5224778766	-0.04743592259	
645.625	0.0928906529	0.8277334133	
646.25	0.580536057	-0.04862298483	
646.875	-0.1699698582	0.1443447614	
647.5	0.6754348696	-0.08536417851	
648.125	-0.1706600522	0.4145681276	
648.75	1.162457764	-0.1756188874	
649.375	0.05489386326	-0.7899021278	
650.0	0.6300267912	0.05378439903	
650.625	0.8547772571	-1.431520295	
651.25	-0.3406590564	-0.5450968877	
651.875	0.823598626	0.3230334842	
652.5	1.130441601	-0.6638154216	
653.125	0.105059101	-0.3357133331	
653.75	1.061495481	-0.2634355616	
654.375	-0.4541373965	-0.971434123	
655.0	-0.2406786002	0.004919301622	
655.625	-0.9240673794	0.03073715021	
656.25	0.4813000128	0.7940861606	
656.875	-0.2083529377	-0.1608951236	
657.5	0.1900586577	0.5509917447	
658.125	0.4350145115	0.134002711	
658.75	0.294190892	0.4403541261	
659.375	1.235854335	-0.4626693013	
660.0	0.1720390226	-0.6667943976	
660.625	0.5623537281	-0.4341086822	
661.25	0.7450437695	-1.120341627	
661.875	-0.1903398758	-0.5933947782	
662.5	0.9457963612	0.1893897043	
663.125	0.9195094027	-0.9458248257	
663.75	-0.02599221256	-0.4225290713	
664.375	0.4710387395	-0.921210293	
665.0	-1.042962902	-0.256239618	
665.625	-0.4219256097	-0.1900534518	
666.25	-0.5799323915	0.8954934984	
666.875	0.5629680014	0.3451351191	
667.5	-0.002489145736	0.3134552907	
668.125	0.8838337792	0.09343198532	
668.75	0.2962232763	-0.5018467764	
669.375	0.2153594406	-0.2668686863	
670.0	0.2498645138	-0.6851518289	
670.625	-0.2848665811	-0.3744798154	
671.25	0.3847311793	-0.3270898063	
671.875	0.3129817179	-0.5992905395	
672.5	0.2112213319	-0.2602520624	
673.125	0.8508432319	-0.1729920748	
673.75	0.3589054464	-0.9835862688	
674.375	-0.165634107	-0.1881004483	
675.0	0.3350297347	-0.760466946	
675.625	-0.9692422552	-0.4726676977	
676.25	0.1771911408	0.1486134576	
676.875	-0.8743293762	-0.3303345169	
677.5	0.04663544659	0.3589794507	
678.125	-0.7577480112	-0.1367029685	
678.75	0.4440376184	0.9868899635	
679.375	0.07998892368	-0.05780569828	
680.0	0.5061953853	0.1361871609	
680.625	0.4353900528	-0.4797183255	
681.25	-0.2479950389	-0.08597323612	
681.875	0.506176284	0.4794397884	
682.5	0.728061024	0.04217879313	
683.125	0.4874566991	0.04209245594	
683.75	0.448778319	0.5446874219	
684.375	1.071306374	-0.2029042625	
685.0	0.132791348	0.2082582164	
685.625	1.085485035	0.3606494295	
686.25	0.6228761027	-0.7282674404	
686.875	0.4346386858	0.6023975811	
687.5	1.442945483	-1.475215491	
688.125	-0.6554620773	-0.1677871054	
688.75	-0.5018874472	-1.285637739	
689.375	-0.9433668984	1.29659259	
690.0	0.01057604303	0.1331658784	
690.625	0.8109459336	1.349894071	
691.25	0.6829733363	0.2217729851	
691.875	0.7740174927	1.09115684	
692.5	1.769985018	0.5631706031	
693.125	1.391474958	-0.237242007	
693.75	1.552142492	-0.4486592409	
694.375	0.99337913	-0.8401658196	
695.0	1.355799933	-0.7068734101	
695.625	0.9919343657	-0.5404176707	
696.25	0.89143292	0.966632893	
696.875	1.735810637	0.9463166821	
697.5	0.2715493231	0.7283395611	
698.125	1.852551415	1.391515365	
698.75	0.5718311598	-1.459966289	
699.375	0.115404551	-1.145586045	
700.0	-1.223500974	1.264577423	
700.625	0.3787309442	0.1489436033	
701.25	0.6255689033	1.202526686	
701.875	0.7110711781	0.2026743105	
702.5	0.5282638287	0.9017429948	
703.125	1.437094972	0.04231745832	
703.75	0.5449694634	-0.05202193884	
704.375	1.171572098	-0.6600150333	
705.0	0.1703088866	-0.4531700766	
705.625	0.8085731749	0.4883380367	
706.25	0.9684029239	-0.1030490142	
706.875	-0.02761417302	0.7665460822	
707.5	0.8977560573	1.307217496	
708.125	0.8529978948	-0.09693812791	
708.75	1.297249577	-0.4608521765	
709.375	-1.052420976	-0.8550957263	
710.0	-0.2491620971	0.2287473485	
710.625	0.01271078115	0.6981048599	
711.25	0.2732873792	0.07826804737	
711.875	0.4459116643	0.4446346811	
712.5	0.7699590305	-0.0952615632	
713.125	0.8649334974	-0.2617670886	
713.75	0.02854191216	-0.8256216607	
714.375	0.3333924266	-0.2522309398	
715.0	-0.3368400038	-0.873400118	
715.625	-0.01720074775	-0.006077756427	
716.25	1.018629069	-0.8105472746	
716.875	0.1418364097	-1.043500202	
717.5	1.145755205	1.266576424	
718.125	3.117618182	-0.04062751694	
718.75	0.4118941357	-1.379880406	
719.375	3.327837021	1.142912817	
720.0	0.6977745864	-4.055299144	
720.625	0.7858812431	-1.299996838	
721.25	1.093647786	-2.917585655	
721.875	-1.833667319	-2.699937271	
722.5	-0.1434227378	-1.995978656	
723.125	-2.655567079	-0.7283667446	
723.75	-0.7569946587	1.320908988	
724.375	-0.1644439394	0.7861208211	
725.0	0.120935765	1.237229447	
725.625	1.098915771	1.135578137	
726.25	-0.1064970068	0.8067671985	
726.875	-1.107967467	2.871947977	
727.5	1.348870733	4.29950285	
728.125	-1.827969502	0.828270642	
728.75	0.1925239367	12.11027726	
729.375	4.235184276	8.429534743	
730.0	-11.97864334	3.558739467	
730.625	-0.9732087034	27.01651574	
731.25	3.177299769	-0.720081208	
731.875	-15.12522791	4.234721084	
732.5	-12.29231294	5.41195556	
733.125	-3.924611668	3.354785782	
733.75	-5.176965647	1.422654928	
734.375	2.987798352	0.747651031	
735.0	0.05448216581	-0.8540007025	
735.625	-1.816603591	-0.7910122744	
736.25	1.08475762	1.56214171	
736.875	-0.3216926678	1.056321174	
737.5	3.419840584	1.661322387	
738.125	5.134934762	-2.192201816	
738.75	-0.1583118515	-4.527067937	
739.375	12.09969996	4.899425077	
740.0	15.15408867	-15.07978862	
740.625	-7.038306068	-0.244694983	
741.25	-0.04643050684	29.03800935	
741.875	14.99401119	10.60261989	
742.5	1.292308999	-17.62538937	
743.125	-0.3968980767	-13.61182758	
743.75	-1.144110669	0.07489322815	
744.375	-0.4324391495	-1.71378036	
745.0	0.5536522506	0.9406365731	
745.625	-0.160954439	0.2503552265	
746.25	-0.1514694537	-0.5834691345	
746.875	-0.4493939041	0.07184532092	
747.5	-0.7044167012	0.6383862108	
748.125	1.391128558	1.286532858	
748.75	0.8407764401	0.9395351342	
749.375	-0.7788839197	1.968372229	
750.0	0.5567950284	0.5320230989	
