!Created with skrf (http://scikit-rf.org).
# GHz S RI R (50+0j) 
!freq	ReS11	ImS11	
500.0	-2.275822106	-3.045834368	
500.625	1.377931046	-1.857397597	
501.25	-2.192178899	-3.855570739	
501.875	-1.614586992	-1.195172703	
502.5	-0.1586084407	-0.04112884378	
503.125	-0.306468831	-0.1006148013	
503.75	0.3457460463	0.1991586037	
504.375	0.04956828047	0.1008408993	
505.0	-0.02098397951	-0.2309220102	
505.625	0.2271884496	0.01658808325	
506.25	-0.6678856463	-0.2892533461	
506.875	0.6056475796	-0.5126408099	
507.5	-0.5294201499	-2.102449283	
508.125	-1.42844311	-2.103650322	
508.75	1.615807591	-0.8705654783	
509.375	-1.390489168	-5.847989717	
510.0	-1.628776342	0.7884178663	
510.625	-0.2232477027	-0.5994582919	
511.25	-0.4238273352	0.2058573536	
511.875	-0.2797987026	-0.1897680526	
512.5	-0.09447777787	0.1587960825	
513.125	-0.1143148823	-0.2873874905	
513.75	-0.07667918657	-0.01060796118	
514.375	-0.2354961879	-0.4283217511	
515.0	-0.6771563844	1.163185962	
515.625	0.9046899623	-3.278642029	
516.25	-2.767600802	0.2258791213	
516.875	1.109262022	-1.276845948	
517.5	-0.7760511281	-1.089798375	
518.125	0.3483561608	0.1181625658	
518.75	-0.7255933843	-0.9443221721	
519.375	-0.02743579666	0.1335003556	
520.0	0.225645179	0.3454287518	
520.625	0.5561782677	-0.3573302857	
521.25	-0.219780491	-0.4165620046	
521.875	-0.4176771917	-0.3240315936	
522.5	-0.04416790418	0.2188292166	
523.125	-0.3199021813	-0.06196710516	
523.75	-0.07866864612	0.1555601037	
524.375	-0.6131581598	-0.1158218653	
525.0	0.3087508551	0.315319877	
525.625	-0.1519642107	0.1195255432	
526.25	0.1993901831	-0.08683865219	
526.875	-0.3601956342	0.2435626721	
527.5	0.2549395841	0.5252903609	
528.125	-0.230738878	0.4793839668	
528.75	0.1481715719	1.094689678	
529.375	-0.01770060002	-0.07403117435	
530.0	0.4020839369	0.712401623	
530.625	-0.1133405319	0.5501089086	
531.25	1.820691544	0.3096021846	
531.875	-0.09064265033	-0.320783667	
532.5	0.159415148	-0.6793918613	
533.125	-0.2674181313	0.4211903596	
533.75	0.4785464576	-0.9794636969	
534.375	-0.4802544926	-0.1648382943	
535.0	-0.5242715176	-0.6710464682	
535.625	-0.3389834065	0.6905983006	
536.25	-0.03328104078	0.09172235119	
536.875	0.3057574034	0.1488374106	
537.5	0.1175659283	-0.2158267383	
538.125	0.2621241919	0.05738425184	
538.75	0.3454953744	-0.4988702149	
539.375	-0.1119992237	-0.2186452521	
540.0	-0.3632776667	-0.5531032845	
540.625	-0.4651334941	0.1746331241	
541.25	-0.07474385522	-0.09058112579	
541.875	-0.1828682393	-0.07401976154	
542.5	-0.1834180671	-0.06046914981	
543.125	0.003470544179	-0.08782970917	
543.75	-0.415415893	-0.1024897153	
544.375	0.1800335652	0.1131668807	
545.0	-0.2128484516	0.2445855337	
545.625	0.3009494577	-0.05091395593	
546.25	0.006968809689	0.3172257724	
546.875	0.4395216803	-0.342929879	
547.5	0.06315239226	-0.02956228172	
548.125	0.05735439767	-0.5601232558	
548.75	-0.4972852321	-0.219582547	
549.375	-0.1099837733	-0.03685715634	
550.0	-0.3005295385	-0.10327015	
550.625	-0.01659932176	0.1165233146	
551.25	-0.2780663196	-0.03614892745	
551.875	-0.08089148892	0.2861672405	
552.5	-0.1445461058	0.07961122057	
553.125	-0.02440075245	0.2184275368	
553.75	0.1016396169	0.08557627679	
554.375	0.2256188441	0.02496883353	
555.0	0.2447662072	-0.1894188389	
555.625	0.1791926593	-0.2558061828	
556.25	0.1610496486	-0.3298505738	
556.875	-0.0941921641	-0.3977585242	
557.5	-0.2408070369	-0.232534	
558.125	-0.2580847496	-0.09338361395	
558.75	-0.2774124129	-0.01120191628	
559.375	-0.2358981299	0.08358980804	
560.0	-0.2210977135	0.1244266882	
560.625	-0.1563518977	0.3086974565	
561.25	0.1035026882	0.2074552712	
561.875	-0.03184263866	0.1155375725	
562.5	0.143545877	0.09788353461	
563.125	0.04903290119	0.224711195	
563.75	0.4454558101	-0.06720792182	
564.375	0.1197392791	-0.1702491899	
565.0	0.3501292292	-0.3359323327	
565.625	-0.2246295718	-0.396314352	
566.25	-0.1766771844	-0.1401017881	
566.875	-0.2828231914	-0.3187021227	
567.5	-0.5089030504	-0.2115351941	
568.125	-0.1553364019	-0.2056119752	
568.75	-0.6724336704	-0.3919954918	
569.375	-0.4155107211	0.4372877625	
570.0	-0.3704764286	0.2060252055	
570.625	-0.1884692879	0.7245984714	
571.25	0.1662778245	-0.01392536262	
571.875	0.01941242231	0.5130100002	
572.5	0.2972096414	-0.3925029406	
573.125	0.1707180324	0.09060790169	
573.75	0.3513130641	-0.4947216019	
574.375	-0.2752016705	-0.1230348875	
575.0	0.3840511796	-0.02514103626	
575.625	-0.2128340846	-0.2789807112	
576.25	0.3075978201	0.03312551063	
576.875	-0.0376028429	-0.6211437668	
577.5	-0.2721828059	-0.2474061017	
578.125	0.1349963738	-0.2379481987	
578.75	-0.2121486613	-0.5191650896	
579.375	-0.3817156684	0.02601016055	
580.0	0.1245595591	-0.1137612397	
580.625	-0.4293721758	-0.009908335883	
581.25	0.02867566745	0.02781626135	
581.875	-0.3019540848	0.4784048116	
582.5	0.4592883444	0.4353954854	
583.125	-0.004705461906	-0.1880821107	
583.75	0.1131151268	0.5180058755	
584.375	0.06065209571	-0.367309961	
585.0	0.1882721703	0.5568553372	
585.625	0.5292455949	-0.3003933634	
586.25	0.03375580104	0.03029129929	
586.875	0.4662680798	-0.4735447436	
587.5	-0.3217719406	-0.1578181461	
588.125	0.2379952814	-0.2561233713	
588.75	0.08220285151	-0.6220623913	
589.375	-0.1257419777	-0.2381685034	
590.0	0.1578183821	-0.4421528071	
590.625	-0.6063808	-0.1491899807	
591.25	-0.159537372	0.3340814401	
591.875	-0.1446056705	0.09226669326	
592.5	0.03437527803	0.3219513841	
593.125	-0.2218398256	-0.04940789276	
593.75	0.2870017111	0.32316487	
594.375	0.232833022	0.08124990948	
595.0	0.1973938156	0.4850983269	
595.625	0.8459638676	0.1958613078	
596.25	-0.03919164914	-0.1595124862	
596.875	0.5121983676	0.4786083083	
597.5	0.5425370844	-0.06331940977	
598.125	0.0175273116	0.3231957233	
598.75	0.7207412083	0.2011136	
599.375	0.2008981406	-0.1046495988	
600.0	0.6470598789	-0.2053179369	
600.625	0.2049514812	-0.6566220358	
601.25	0.061244851	-0.2035493837	
601.875	-0.02645135372	-0.458529864	
602.5	-0.3522516474	0.04281548112	
603.125	-0.2545189306	0.13559543	
603.75	-0.1642599058	0.06910857915	
604.375	-0.4339684613	0.1564262102	
605.0	0.08919450446	0.2519695815	
605.625	-0.4067318726	-0.0265827247	
606.25	-0.1199874018	0.368497239	
606.875	-0.3234100399	-0.1119299219	
607.5	-0.6107947179	0.7387851051	
608.125	0.1736698247	0.2198587445	
608.75	0.126921231	0.7083794619	
609.375	0.7139803832	-0.4908635307	
610.0	0.2015864621	0.07840586815	
610.625	0.388568922	-0.6054303739	
611.25	-0.1810066275	-0.1557258096	
611.875	-0.02952932322	-0.5951693392	
612.5	-0.4282776608	0.1644307406	
613.125	-0.4099262937	-0.2185213748	
613.75	-0.2591843955	0.5812898746	
614.375	0.04538012217	-0.05036650374	
615.0	0.2717911842	0.3801560013	
615.625	-0.132694178	-0.1302804904	
616.25	-0.3074239607	0.5699282553	
616.875	0.2211170613	0.3902077321	
617.5	-0.4749746291	0.3268876342	
618.125	0.1493209727	0.7270434771	
618.75	0.07789639601	0.1330634157	
619.375	0.1534410733	0.6561643213	
620.0	0.4132139665	-0.09951231415	
620.625	0.3776634245	-0.2725842874	
621.25	-0.3333809377	-0.3814700603	
621.875	-0.3083695631	-0.2661596264	
622.5	-0.6197396122	0.2585921559	
623.125	-0.07664963689	0.2205987712	
623.75	0.3630885852	0.2874366243	
624.375	-0.1483400976	-0.2449966204	
625.0	0.4929620893	-0.002264176494	
625.625	-0.3487304062	-0.1685892356	
626.25	0.2884951628	-0.329408213	
626.875	-0.6119448437	-0.2929804918	
627.5	-0.1666580665	0.1389271629	
628.125	-0.1185466393	-0.4290142841	
628.75	-0.3886737934	-0.1432709406	
629.375	0.0242867076	-0.3285111071	
630.0	-0.6254205873	-0.3211997764	
630.625	-0.2657902909	0.2793554784	
631.25	-0.5069513493	0.2432123043	
631.875	-0.03311762014	0.7460565181	
632.5	0.3704043281	0.3712492252	
633.125	0.4185806727	0.04831009399	
633.75	0.3949742965	0.08940401833	
634.375	0.02658421294	-0.5987569934	
635.0	0.1122431338	-0.08727391153	
635.625	-0.5177387731	-0.4032846377	
636.25	-0.09425514121	0.3383089205	
636.875	-0.5098688136	0.1076311403	
637.5	0.1815785851	0.4458566203	
638.125	-0.2321379269	-0.1766687903	
638.75	-0.3911100201	0.7919031494	
639.375	0.4724025212	0.3247344062	
640.0	-0.09457167203	0.4295150302	
640.625	0.6961764619	0.6361042693	
641.25	0.657446303	-0.3663469602	
641.875	0.3128863161	-0.03075697513	
642.5	-0.1723239236	-0.9685589255	
643.125	-0.05650897911	0.03996846123	
643.75	-0.3998734073	-0.5569138161	
644.375	-0.4352662257	0.4333569028	
645.0	-0.1509492747	-0.07457808439	
645.625	-0.1107018252	0.7804263845	
646.25	0.6852088736	0.1099252883	
646.875	-0.08963269018	-0.2453793775	
647.5	0.3713831512	0.5031677311	
648.125	0.08838391386	-0.4689065703	
648.75	0.8370106956	0.4825598882	
649.375	0.4781503921	-1.14104327	
650.0	-0.07404146824	-0.2192994432	
650.625	1.147588024	-0.5753557661	
651.25	-0.06252355133	-1.305511438	
651.875	0.1443245683	0.2382147776	
652.5	1.275813076	-0.09188801944	
653.125	0.4024515094	-0.7612390803	
653.75	0.2852445279	0.02445997636	
654.375	-0.1565713542	-1.211284639	
655.0	-0.6737280518	0.2297866226	
655.625	-0.354941171	-0.08161396683	
656.25	-0.03088673823	0.9124523375	
656.875	0.2607469138	-0.3634505617	
657.5	-0.07407218658	0.6010358753	
658.125	0.5816600499	0.2539024819	
658.75	0.4386381129	-0.01748323977	
659.375	0.9122277972	0.1161983521	
660.0	0.410433147	-1.194528488	
660.625	0.1254970655	-0.3511554817	
661.25	0.7443403442	-0.6454026509	
661.875	0.2787113943	-1.138600743	
662.5	0.1685959538	0.08829493907	
663.125	1.217417849	-0.5046610114	
663.75	-0.1260869182	-0.8734688817	
664.375	0.2112309016	-0.3723898134	
665.0	-0.8800781331	-0.8290978216	
665.625	-0.310766067	0.4527405443	
666.25	-0.5969441025	0.4562015911	
666.875	0.5643015347	0.6172400305	
667.5	0.166950671	-0.05951651323	
668.125	0.682713535	0.3472434203	
668.75	0.4194165146	-0.6569973615	
669.375	0.04898664107	-0.3363760115	
670.0	0.2115947791	-0.4147315459	
670.625	-0.01595303612	-0.6977682904	
671.25	-0.07348257946	-0.1264091584	
671.875	0.524721728	-0.4639724599	
672.5	0.3268092762	-0.5470343516	
673.125	0.3544157475	-0.1006277127	
673.75	0.6973813587	-0.769524629	
674.375	-0.4021524563	-0.556399818	
675.0	0.2711677793	-0.2435056761	
675.625	-0.6791005746	-0.723871205	
676.25	-0.4802174914	0.4945167021	
676.875	-0.1103684164	-0.4782054125	
677.5	-0.6159941516	0.558590929	
678.125	-0.1153851807	-0.0595679641	
678.75	-0.1826164985	0.9507532864	
679.375	0.6177904248	-0.3942189995	
680.0	0.2307403118	0.2127772051	
680.625	0.4657431716	-0.3000385948	
681.25	-0.01510229051	-0.3456662358	
681.875	0.06252310959	0.4364983647	
682.5	0.759383475	0.3176947167	
683.125	0.5564063475	-0.09083682968	
683.75	0.304632539	0.07661866186	
684.375	0.9112097977	0.525874833	
685.0	0.590993093	-0.5925306773	
685.625	0.5796532781	0.5775588498	
686.25	1.096233067	-0.5091576042	
686.875	-0.06564830507	-0.2317152551	
687.5	1.520919565	-0.4507249589	
688.125	-1.189186546	-1.366263369	
688.75	0.02730716727	-0.4185756683	
689.375	-1.387944208	0.9965034961	
690.0	0.7616123142	0.5461560839	
690.625	-0.01810681119	0.9091067487	
691.25	1.270570221	0.3436179551	
691.875	0.5857615758	0.6187573236	
692.5	1.570810861	0.7360475574	
693.125	1.514553972	-0.4176926843	
693.75	1.22223109	-0.3213870253	
694.375	0.9777897024	-1.038629576	
695.0	0.9717994481	-0.4884185261	
695.625	1.430214875	-0.521400481	
696.25	0.6112767725	0.1678671667	
696.875	1.197741251	1.560036159	
697.5	1.274559229	0.2403371005	
698.125	0.9731764623	1.199070683	
698.75	1.225892728	-1.829919849	
699.375	-0.4868612828	-0.0660126703	
700.0	-1.526880629	0.7450789845	
700.625	0.9514418921	0.4939268695	
701.25	-0.09309915474	0.729774333	
701.875	1.277268372	0.3985773062	
702.5	0.2653617624	0.4081889238	
703.125	1.325315363	0.5435780497	
703.75	0.5100769615	-0.6552213653	
704.375	0.897120123	0.06435893633	
705.0	0.4806937799	-0.8606602818	
705.625	0.1504329437	0.3347265621	
706.25	1.287867667	0.6813393741	
706.875	0.2078339377	0.00829431681	
707.5	0.4650320586	1.300184457	
708.125	1.544018837	-0.1551491458	
708.75	0.4033491545	-0.3781804785	
709.375	-0.8011370124	-1.089159393	
710.0	-0.0949745347	0.7378241005	
710.625	-0.1999404693	0.4045220899	
711.25	0.5119353224	0.1789489122	
711.875	0.314695105	0.2587701781	
712.5	0.8130362849	-0.0453264588	
713.125	0.5609460937	-0.2569719602	
713.75	0.4031760338	-0.8593256285	
714.375	-0.2627307406	-0.1522293648	
715.0	0.4074557704	-0.8398654464	
715.625	-0.5661038236	-0.3832039804	
716.25	0.781757746	0.01418007581	
716.875	1.323273833	-1.321442132	
717.5	-0.2583875862	0.05875403967	
718.125	2.85505597	1.015273149	
718.75	1.996318013	-2.196486273	
719.375	0.632931388	0.9546409008	
720.0	2.999097819	-4.077384777	
720.625	-1.323899602	-1.817167987	
721.25	0.8334721074	-2.383828649	
721.875	-0.9538699106	-3.564697322	
722.5	-1.877872204	-0.7395796233	
723.125	-1.805859415	-1.180840605	
723.75	-0.8564514086	1.600732478	
724.375	0.2597760226	0.6970970317	
725.0	0.1442934679	0.9030731829	
725.625	0.6292514986	1.488755158	
726.25	0.9481490356	1.059312492	
726.875	-1.182957749	1.580800487	
727.5	-0.06468346035	5.311356763	
728.125	3.409675498	3.360649322	
728.75	-5.70181255	5.309389119	
729.375	3.697478039	16.03453338	
730.0	1.766894952	1.56604552	
730.625	-8.2180557	15.89640067	
731.25	9.191782446	12.78872211	
731.875	-7.574082356	-1.923144015	
732.5	-13.18252462	4.548175757	
733.125	-5.939325364	4.261245518	
733.75	-0.517718685	1.477937714	
734.375	2.934007688	2.612292275	
735.0	-0.8652641656	-0.9026287808	
735.625	-0.8538234878	-0.299915226	
736.25	-0.1235829581	2.322237167	
736.875	1.054176248	-0.1302520351	
737.5	2.322572698	2.074108095	
738.125	5.296810382	-1.567988617	
738.75	3.452961101	-6.11656215	
739.375	-1.398201078	0.2167066593	
740.0	20.09358967	2.822189872	
740.625	1.181825119	-26.58842082	
741.25	-20.67117877	7.635842714	
741.875	-11.39484269	26.16282274	
742.5	11.1961956	-6.61718291	
743.125	-0.1507053339	-13.60029771	
743.75	-2.987174789	-1.135302387	
744.375	0.3987845326	-0.5351281396	
745.0	-0.04116004375	0.7981533945	
745.625	-0.2083802251	-0.2493637752	
746.25	0.07878442218	-0.4150526303	
746.875	-0.465877707	0.001954496645	
747.5	0.07914896701	0.5504836083	
748.125	0.03378937679	1.491142826	
748.75	1.190515091	0.9454843203	
749.375	0.07630245041	1.411539226	
750.0	-1.052183146	-0.7335712023	
