!Created with skrf (http://scikit-rf.org).
# GHz S MA R 50.0 
!freq magS11 angS11
500.0 0.0177055965745 -173.576330247
500.625 0.00246176004717 47.1802708978
501.25 0.00764777449708 -50.6454349789
501.875 0.0445800246229 -170.625489438
502.5 0.0374215617782 170.965721508
503.125 0.0169197037109 91.6867108814
503.75 0.0125940019566 -26.5636330777
504.375 0.00709949222916 -73.6582195182
505.0 0.00857666825578 -46.0489521089
505.625 0.0286629538715 -72.3255358317
506.25 0.0589423733387 -101.606446784
506.875 0.0606207517799 -107.078178617
507.5 0.051474072105 -116.633111443
508.125 0.0604512015754 -83.668992312
508.75 0.0584929035691 -139.306085713
509.375 0.0456501273443 -146.469883029
510.0 0.0388155531016 -127.679331288
510.625 0.04064615711 -154.792944378
511.25 0.061535130038 -170.286449729
511.875 0.0513466064495 145.419681664
512.5 0.0385261243771 105.998727519
513.125 0.0495693971122 47.706584968
513.75 0.0510448872605 25.9273312628
514.375 0.0317608161601 8.88408805815
515.0 0.0460707041349 2.39369204269
515.625 0.113065805908 55.7004623433
516.25 0.0677374121759 21.1255672293
516.875 0.10133107898 70.1308790744
517.5 0.127071214811 20.8182412932
518.125 0.221396755934 77.398867622
518.75 0.080667329255 7.01990512376
519.375 0.0664997423821 22.3480524298
520.0 0.0935487358941 -0.773033974004
520.625 0.115261634061 0.864151952186
521.25 0.0722695025517 -31.7437269336
521.875 0.0628197105583 -0.660734252746
522.5 0.0892610223533 -36.0281723836
523.125 0.197587095227 -30.3211467011
523.75 0.204629024369 -63.2202910198
524.375 0.194667655563 -53.1584363439
525.0 0.0671986142237 -48.0605969406
525.625 0.0428755722744 -19.5958636738
526.25 0.0424950581503 -6.90221713043
526.875 0.0579344968646 -13.433517636
527.5 0.0472185329688 -24.1537850632
528.125 0.0498041677255 -52.5257504269
528.75 0.0454278041759 -79.0238692467
529.375 0.0852980352801 -107.102221752
530.0 0.0509661675355 -123.49000256
530.625 0.0346677807749 -134.465155697
531.25 0.11903433363 -132.497142899
531.875 0.185417887197 -144.21663203
532.5 0.138273094405 -168.397449374
533.125 0.112236555183 177.387972152
533.75 0.11196576247 169.807606056
534.375 0.110525179925 -177.156775817
535.0 0.083092829458 163.150028938
535.625 0.0746744219849 -179.590935336
536.25 0.0589100539763 167.545160219
536.875 0.0867222180314 -158.687846392
537.5 0.103138011655 -142.771684349
538.125 0.0969768363228 -171.357553622
538.75 0.101560413822 -177.64173996
539.375 0.0855887416423 -159.318112037
540.0 0.0947822257465 -151.330499633
540.625 0.130526885253 -152.377040876
541.25 0.124917410722 -139.190682041
541.875 0.0977034352648 -142.948343591
542.5 0.117012423741 -142.038246059
543.125 0.144949254129 -165.148443366
543.75 0.128074950429 161.505001309
544.375 0.09351070055 138.465944719
545.0 0.0838723289451 94.0775673499
545.625 0.111075569949 86.0157079427
546.25 0.0721247249813 69.1447335969
546.875 0.0817392841935 58.8853078806
547.5 0.112222878074 61.5530507787
548.125 0.115849635103 78.8815576825
548.75 0.08789723994 93.7332997591
549.375 0.0987101907422 91.3273685472
550.0 0.081499041016 130.249434486
550.625 0.0575890764292 158.896188496
551.25 0.0327953254513 -114.446485944
551.875 0.0663241740194 -154.555463092
552.5 0.110551479435 -159.417697867
553.125 0.0990242491273 -169.062544777
553.75 0.0902578345146 -167.356870465
554.375 0.104827261283 172.133801653
555.0 0.125779318716 167.038993343
555.625 0.10357278988 157.794947431
556.25 0.0897564644932 168.212087601
556.875 0.116859077328 169.316586347
557.5 0.119671909617 168.034938848
558.125 0.0979868972646 166.870948344
558.75 0.0653447299223 -177.515542895
559.375 0.0595108273289 -165.827038842
560.0 0.0456403052542 -141.492487848
560.625 0.062881388221 -142.706865303
561.25 0.0805930375641 -139.375572433
561.875 0.0981839573932 -155.578706436
562.5 0.0889784087185 176.93886603
563.125 0.111345841278 144.777611277
563.75 0.124512908224 135.198685355
564.375 0.10242370316 124.302318197
565.0 0.0842306284731 122.73382717
565.625 0.0894054593321 117.020752742
566.25 0.07881241028 163.910079859
566.875 0.0702689587667 -174.883948139
567.5 0.0716585259568 -177.148728423
568.125 0.0847571788522 -170.218096829
568.75 0.0722890550595 -145.428809163
569.375 0.0502815650634 -106.697623547
570.0 0.0642641779418 -112.708546703
570.625 0.0967854065914 -119.184916403
571.25 0.0837321685127 -108.58284157
571.875 0.089590616283 -124.50685979
572.5 0.11124706466 -155.499881096
573.125 0.144849926609 -174.410466792
573.75 0.106277240322 162.538990592
574.375 0.0826390693386 153.845673556
575.0 0.0986118805065 159.648925822
575.625 0.114712889783 153.367094019
576.25 0.0777270482311 153.591800121
576.875 0.0798932325671 134.889021166
577.5 0.079247880004 143.50683447
578.125 0.0635078724978 157.313480441
578.75 0.0424635013314 -178.381437975
579.375 0.054222411982 170.502091158
580.0 0.0676890416576 -178.380846796
580.625 0.0802884519703 -151.041222029
581.25 0.0911355569682 -157.876110212
581.875 0.116773684851 -174.989768836
582.5 0.120385468425 -175.605523935
583.125 0.0915678294467 -165.781333621
583.75 0.0843559944927 -170.257905663
584.375 0.102595187936 -153.7462523
585.0 0.0891858916848 -135.126788515
585.625 0.0711590798561 -143.038265949
586.25 0.0714600030035 -138.843454333
586.875 0.0825248845128 -132.802316641
587.5 0.0742406391179 -145.612859061
588.125 0.0589489342881 -169.647610506
588.75 0.0687482875279 -170.653932118
589.375 0.0840482079363 -149.017596459
590.0 0.0958594497282 -160.587400302
590.625 0.105677785478 166.484596231
591.25 0.123391220995 149.459496673
591.875 0.0833567210771 171.399413041
592.5 0.060225841164 158.646610701
593.125 0.062036606923 155.463364255
593.75 0.0724270819913 164.51193534
594.375 0.0558070886754 -144.659025963
595.0 0.0447570442826 -115.497997562
595.625 0.0622715242294 -94.7856831872
596.25 0.0710177304443 -93.7892103838
596.875 0.07345969963 -53.9559095945
597.5 0.0651576033888 -50.7237997024
598.125 0.069896018281 -56.4736638638
598.75 0.087131143035 -54.7008910153
599.375 0.0891973225763 -63.0038591029
600.0 0.0980991119229 -70.1548428509
600.625 0.100315498913 -64.4955927367
601.25 0.0833952134255 -81.1748787468
601.875 0.0673456798099 -83.0054981954
602.5 0.0646173109612 -66.1653152781
603.125 0.0441896784777 -47.8240192393
603.75 0.025209280612 -59.2382493916
604.375 0.0476417575691 -12.633013677
605.0 0.0655590959189 -13.4271495218
605.625 0.0469838481062 -19.7573879055
606.25 0.0247943269138 17.9449800387
606.875 0.0356968893759 53.2406900852
607.5 0.0676517644012 47.6702914588
608.125 0.0667872600668 29.5707477973
608.75 0.0469024562482 12.7595519
609.375 0.0798993085538 38.1491826236
610.0 0.0761610244829 46.3355941982
610.625 0.0558840177582 26.6930375498
611.25 0.049714716404 29.3891803158
611.875 0.0340315003767 56.932419951
612.5 0.0237109061288 101.610427785
613.125 0.041232136469 130.020381394
613.75 0.0470273685945 126.125952049
614.375 0.0232587681939 118.435453894
615.0 0.0586882212451 131.553535236
615.625 0.0502048151337 135.122118756
616.25 0.0544185657293 141.086815524
616.875 0.0252045387642 132.294367705
617.5 0.0533268982369 130.454809325
618.125 0.0427535531668 134.831763026
618.75 0.0458892687085 150.915738437
619.375 0.00301437447665 -19.8441865623
620.0 0.0063503166029 160.521773631
620.625 0.0157906666291 -96.2355199496
621.25 0.0409241742742 -104.42464908
621.875 0.0659370203615 -92.5574153434
622.5 0.0853884565529 -177.591841008
623.125 0.0829981458847 164.652987701
623.75 0.0753082711298 165.206406189
624.375 0.0296537207438 -146.734686605
625.0 0.0600320095883 -152.359217508
625.625 0.042865710017 -155.659153075
626.25 0.00412317246006 174.496448476
626.875 0.0117938448549 14.4452432004
627.5 0.0305324583055 -35.4563727467
628.125 0.0369146313937 -26.3136433181
628.75 0.0377040051223 -8.95736980254
629.375 0.0453565429966 -8.70386672833
630.0 0.0805564932683 10.3507194399
630.625 0.0699594974753 9.7431539387
631.25 0.0686192635716 -3.27510421847
631.875 0.0661297824041 4.06419737611
632.5 0.064040538173 -6.91261455491
633.125 0.0478412859285 4.29440358606
633.75 0.0398978097311 -11.9900720156
634.375 0.0407791873531 16.005273217
635.0 0.0507477339904 45.8872427698
635.625 0.0284144105164 13.1104539617
636.25 0.0486401651693 40.5452312616
636.875 0.0750010797275 51.6724346864
637.5 0.0393367174722 44.3720553293
638.125 0.0536325899347 74.7172345201
638.75 0.0758902633356 77.529665946
639.375 0.0841177146255 90.3360501576
640.0 0.0678489187495 106.581197364
640.625 0.0641276202671 114.299598753
641.25 0.0497944874012 99.4936962318
641.875 0.063542215773 153.79207097
642.5 0.0605912635548 165.503459683
643.125 0.0562658374758 152.732922918
643.75 0.0673194070582 176.777001271
644.375 0.0804935920772 -166.838970024
645.0 0.0755965870224 -177.119143435
645.625 0.104847133923 172.984102743
646.25 0.0855423834206 165.020554277
646.875 0.0562579586183 173.041253813
647.5 0.0603851729789 -174.269765297
648.125 0.100098973341 -170.282330669
648.75 0.0606719360935 -179.354727963
649.375 0.0400193258425 -152.619986001
650.0 0.038050679786 -123.836791826
650.625 0.0782920000211 -84.9933942591
651.25 0.0552994339899 -63.8137568044
651.875 0.0634662503406 -38.335443348
652.5 0.105291073554 -22.3518457472
653.125 0.125294934993 1.51556022256
653.75 0.0911781835766 2.97695754152
654.375 0.100291639447 7.15038407895
655.0 0.114042618259 15.5952170147
655.625 0.107959137583 32.676343389
656.25 0.0451880609257 15.2373327228
656.875 0.0634861628627 10.1607807404
657.5 0.0914594475769 27.9825999127
658.125 0.0666129236889 56.2313562669
658.75 0.0687769901647 64.0503077905
659.375 0.0841912254971 44.5173216694
660.0 0.107621238719 30.4058152968
660.625 0.1140252452 21.4834467614
661.25 0.118900845083 5.71076362876
661.875 0.0977324344283 -11.968617036
662.5 0.12460240539 -16.8912826209
663.125 0.110596071461 -12.6103532338
663.75 0.110104376302 7.8813766572
664.375 0.0965719975695 56.6255074344
665.0 0.0692020690881 87.6349205285
665.625 0.0744411332562 113.571407124
666.25 0.0672342491753 140.870416184
666.875 0.102535682347 177.416746016
667.5 0.0895464773379 -166.185296717
668.125 0.112922003618 179.622179688
668.75 0.102897314665 171.870054939
669.375 0.122105521459 -178.863388518
670.0 0.0795228856885 -167.899974892
670.625 0.0976118386363 -171.818559862
671.25 0.109139740523 177.740946227
671.875 0.102167285179 171.301504156
672.5 0.0826292618831 159.745065277
673.125 0.0914841936297 153.693066408
673.75 0.0912771952986 167.518422336
674.375 0.104386905702 174.868154269
675.0 0.112075083133 -171.074237173
675.625 0.141424276374 -150.418087761
676.25 0.110933804979 -121.896548558
676.875 0.106006098005 -116.44386949
677.5 0.114249975074 -124.437006982
678.125 0.139016676833 -114.183150782
678.75 0.0681197144198 -89.1657875667
679.375 0.0549825408786 -71.2214579091
680.0 0.0855007740333 -78.8526905238
680.625 0.121080159043 -71.8558788384
681.25 0.113364806119 -73.7134218002
681.875 0.096331314995 -86.112771108
682.5 0.131378263172 -114.141210254
683.125 0.156084863 -118.435843383
683.75 0.147140991883 -105.124767063
684.375 0.117097145707 -77.813897899
685.0 0.129260590359 -36.689408124
685.625 0.129782793667 -1.72629570229
686.25 0.106290999341 24.4662898407
686.875 0.0975534476022 46.6073751306
687.5 0.0765245566674 84.9386747252
688.125 0.087295667167 107.3038653
688.75 0.105219539426 116.668864082
689.375 0.152974066574 118.426302283
690.0 0.124014920065 140.358174122
690.625 0.117810420889 131.976750254
691.25 0.14456059729 100.833722206
691.875 0.203733240947 67.1375252768
692.5 0.112554148867 46.8520184408
693.125 0.084440126646 -11.5238026288
693.75 0.101700622156 -41.7058120473
694.375 0.143118946999 -28.981428833
695.0 0.137885974704 10.1911592828
695.625 0.0943785254506 63.4142330704
696.25 0.116559882502 119.714493965
696.875 0.133324720797 179.922904292
697.5 0.15060284606 -147.002483654
698.125 0.128922427238 -123.071711666
698.75 0.123811467638 -124.331255229
699.375 0.106449479376 -121.235030228
700.0 0.100996094565 -115.221500886
700.625 0.111618537333 -86.0859550266
701.25 0.0948632933122 -57.6988223283
701.875 0.0825648161302 -56.1594111181
702.5 0.101315654958 -87.7015904718
703.125 0.168084221246 -107.752986149
703.75 0.179065205488 -148.932193291
704.375 0.118501107928 174.631726947
705.0 0.111982470934 158.003674865
705.625 0.151401800032 -173.154921468
706.25 0.143266282977 -107.966153984
706.875 0.0936874625251 -63.7675724928
707.5 0.0770860200368 -33.3594018327
708.125 0.0949704604338 11.1296415741
708.75 0.112358432711 68.9420362927
709.375 0.106777693329 106.533289094
710.0 0.102700810746 135.587506272
710.625 0.108080899778 148.435335968
711.25 0.121317613015 178.697683224
711.875 0.144090048156 165.270167789
712.5 0.151131891548 147.689770911
713.125 0.130455156987 96.4920533747
713.75 0.0936800966972 56.6360132871
714.375 0.109618007023 35.471373622
715.0 0.110876484272 42.3440934638
715.625 0.0853681216189 42.1067208318
716.25 0.0818803001001 79.0331740386
716.875 0.116840682647 105.296809262
717.5 0.149750422426 148.544436978
718.125 0.11795650524 171.596290941
718.75 0.0980653103695 165.139197024
719.375 0.128899760594 -152.113453138
720.0 0.132118923755 -122.441027204
720.625 0.102779526874 -70.9443887077
721.25 0.0967781712905 -32.4982645949
721.875 0.0807138777527 36.3339375469
722.5 0.0733787301031 68.5957399028
723.125 0.0862615248125 79.0916404853
723.75 0.0970544078041 34.3003829363
724.375 0.130999900435 15.7918622822
725.0 0.105192180795 -29.9041968928
725.625 0.106537339137 -59.3969099758
726.25 0.111586322724 -71.2860962565
726.875 0.105974119803 -44.1259423721
727.5 0.077280396211 -30.3054646201
728.125 0.0752008827912 -3.94119150128
728.75 0.0936575613364 26.6359056015
729.375 0.0717182739058 7.83204731218
730.0 0.0886168152758 23.4428808497
730.625 0.0741042661761 29.923574491
731.25 0.0762407615031 76.794275972
731.875 0.0480313753473 100.471402618
732.5 0.0778722582151 157.354214388
733.125 0.0861441808533 177.683359772
733.75 0.0718709991116 -175.118307755
734.375 0.0411469316196 147.533880684
735.0 0.0842460562891 167.175230251
735.625 0.0746926429006 153.116741711
736.25 0.0608948922455 157.093724302
736.875 0.0278068753034 -158.403431084
737.5 0.11988830675 -178.288889699
738.125 0.0973645171905 -170.86907966
738.75 0.0849535390228 -171.58803629
739.375 0.0187290155738 157.463876439
740.0 0.0520107009694 -131.67235945
740.625 0.0561027812817 -143.455739187
741.25 0.0380258174023 -153.065011753
741.875 0.0402786935768 -107.73533509
742.5 0.0191547788211 59.9305153915
743.125 0.0400528439734 61.8308046846
743.75 0.0278153606984 85.8687524736
744.375 0.0399318581183 115.895632806
745.0 0.0498957291763 166.605134252
745.625 0.0644122905235 120.337763239
746.25 0.0772436088532 77.150744249
746.875 0.0797833890156 40.69022282
747.5 0.0232033254724 44.5881504285
748.125 0.0482169437248 -11.2457392403
748.75 0.0203741173745 15.8156825078
749.375 0.0269751581749 -20.4336275119
750.0 0.0272137320857 -87.2266398238
