!Created with skrf (http://scikit-rf.org).
# GHz S RI R (50+0j) 
!freq	ReS11	ImS11	
500.0	1.958665466	-1.409739913	
500.625	0.429860222	-4.295323298	
501.25	-1.707173489	-1.35154052	
501.875	-0.5410165875	-0.3392070998	
502.5	-0.04808094676	-0.6689080951	
503.125	-0.1915045239	0.2564868792	
503.75	-0.1509857064	0.09914765304	
504.375	0.1433135829	-0.1136653023	
505.0	0.0240096856	0.1050633026	
505.625	-0.1077459834	-0.3643806122	
506.25	0.1268326554	0.2603366863	
506.875	-1.375449953	-0.3923063249	
507.5	-1.240729402	0.2219216171	
508.125	1.395162687	-0.7391029854	
508.75	1.735365673	-4.171750902	
509.375	-2.517267889	-2.607771499	
510.0	-0.9657213035	-1.346349016	
510.625	-1.161556543	0.1501729879	
511.25	-0.2141802171	-0.326115959	
511.875	-0.591340151	0.1020512333	
512.5	-0.00793833919	0.06459920211	
513.125	0.05929117499	-0.1575190256	
513.75	-0.166769336	-0.3123882013	
514.375	-0.6221880058	0.3755904905	
515.0	0.9738365152	-1.040864061	
515.625	-1.398880344	0.1640751088	
516.25	1.372557998	-2.143635762	
516.875	-2.210141344	-1.610428272	
517.5	0.08952997992	0.434621416	
518.125	-0.3381257034	-0.4092811294	
518.75	-0.001109308582	0.2430721747	
519.375	-0.2747583404	0.06751689914	
520.0	0.453296452	0.07291752448	
520.625	0.2350656569	-0.1674103801	
521.25	0.1774018317	-0.9439437922	
521.875	-0.4059095626	0.2256483987	
522.5	-0.1278296683	-0.1246266951	
523.125	-0.0158313555	0.2953095516	
523.75	-0.2643331079	-0.242484981	
524.375	-0.2153692076	0.3939688063	
525.0	-0.3269390302	0.1180677889	
525.625	0.3244555722	0.2841487227	
526.25	-0.2927148776	-0.0445971571	
526.875	0.08607650277	0.1614031935	
527.5	-0.3340476607	0.2403019245	
528.125	0.3795142444	1.147356395	
528.75	0.2292260646	0.1435160713	
529.375	0.150571204	0.3986720874	
530.0	-0.02678977192	0.03447297192	
530.625	0.6422626454	1.250170823	
531.25	0.4812993823	-0.232804035	
531.875	1.114884282	-0.3067167058	
532.5	-0.6603078979	0.01520806151	
533.125	0.6423431236	-0.4413334792	
533.75	-0.3282786851	-0.2216593641	
534.375	0.0939476509	-1.127288952	
535.0	-0.8671239223	0.2619188163	
535.625	-0.2994016242	0.001045395033	
536.25	-0.04722651805	0.3542839446	
536.875	0.246134518	-0.1119315046	
537.5	0.1696453026	0.0278723143	
538.125	0.3108167909	-0.3243299489	
538.75	0.1576960659	-0.1534920452	
539.375	-0.1396092328	-0.5610316413	
540.0	-0.5227088318	-0.08874532724	
540.625	-0.2400975019	-0.1953935859	
541.25	-0.3259697983	0.0403279724	
541.875	-0.0894695752	0.02785228827	
542.5	0.004541075146	-0.1049859262	
543.125	-0.3477865537	-0.1920401563	
543.75	-0.01825349114	0.2129969688	
544.375	-0.3040155768	0.006991945358	
545.0	0.2178504087	0.1274418343	
545.625	-0.1077869074	0.2616816882	
546.25	0.4620708984	-0.08769983663	
546.875	0.02572714323	0.07134814712	
547.5	0.3942395525	-0.4191910371	
548.125	-0.3494198814	-0.2845925653	
548.75	-0.0968065525	-0.205206083	
549.375	-0.3431305744	-0.2861859542	
550.0	-0.1149076118	0.1761175941	
550.625	-0.195366178	-0.1213994651	
551.25	-0.0869003395	0.2031840604	
551.875	-0.2087607954	0.05496813642	
552.5	-0.08880905958	0.2969546554	
553.125	-0.006848840765	0.09319267571	
553.75	0.1092144844	0.1366263891	
554.375	0.2351871196	-0.03570208917	
555.0	0.1957372808	-0.16415624	
555.625	0.198668223	-0.2532141179	
556.25	0.1284061965	-0.3502952172	
556.875	-0.09999158714	-0.3591588889	
557.5	-0.234979925	-0.231612229	
558.125	-0.2817395718	-0.07468768785	
558.75	-0.232645732	0.01630482269	
559.375	-0.2492405073	0.02565551005	
560.0	-0.2368964974	0.2203734319	
560.625	-0.04652311998	0.2356490333	
561.25	-0.04453109796	0.203689165	
561.875	0.1660604379	0.1167479592	
562.5	-0.08214564117	0.09279347456	
563.125	0.2895729526	0.1245643843	
563.75	0.1724943063	0.05224079845	
564.375	0.420787837	-0.2607621706	
565.0	-0.006693446216	-0.4031825502	
565.625	0.02750140962	-0.2344564291	
566.25	-0.2618288716	-0.3617331377	
566.875	-0.4340018411	-0.04282593813	
567.5	-0.1393348625	-0.1889232887	
568.125	-0.4320544658	-0.5499525101	
568.75	-0.4840817975	0.07396387275	
569.375	-0.6006546194	-0.004523451089	
570.0	-0.164615495	0.7021369203	
570.625	-0.01281143095	0.1575335805	
571.25	-0.2585972826	0.4555196323	
571.875	0.3627615106	-0.165101842	
572.5	0.1932515137	0.3450274953	
573.125	0.3262001287	-0.5306768408	
573.75	-0.2209260073	-0.1822675325	
574.375	0.333983149	-0.06993334687	
575.0	-0.2480748552	-0.2255547096	
575.625	0.3418487651	-0.04153764713	
576.25	0.0008942604471	-0.5226459539	
576.875	-0.1285074174	-0.02607830832	
577.5	0.3058111221	-0.433003884	
578.125	-0.3326530971	-0.514129974	
578.75	-0.2370547561	-0.06108476465	
579.375	0.02446782552	-0.2184100876	
580.0	-0.3754903911	-0.1225294643	
580.625	0.1339348942	-0.04637845341	
581.25	-0.4843803955	0.2525056762	
581.875	0.3129135735	0.3093049153	
582.5	-0.1281964126	0.07497866594	
583.125	0.2157259603	0.5884053324	
583.75	0.1246153592	-0.450440875	
584.375	0.01303349998	0.5553193986	
585.0	0.4334804558	-0.2475864098	
585.625	0.06885528357	0.2499355178	
586.25	0.6557080852	-0.3060115903	
586.875	-0.1361577367	-0.1772617346	
587.5	0.2556451987	-0.3626659383	
588.125	-0.2970898726	-0.4779972162	
588.75	-0.04776714644	-0.009995900876	
589.375	0.4641102329	-0.4231306383	
590.0	-0.3498069079	-0.4012998026	
590.625	-0.2586128213	-0.02218479111	
591.25	-0.3680673529	0.1342232771	
591.875	-0.01661344952	0.4626202046	
592.5	-0.05187981533	-0.05358572694	
593.125	0.02655403899	0.2083061599	
593.75	-0.004085816996	0.1628952631	
594.375	0.4240216179	0.4668086777	
595.0	0.6326962854	-0.02533243297	
595.625	-0.02380850866	0.1185033048	
596.25	0.6148092858	0.4403089917	
596.875	0.3174858065	-0.3507899592	
597.5	0.1007162856	0.3970000885	
598.125	0.6693990871	0.1962579124	
598.75	0.08519849836	0.1059596707	
599.375	0.828737187	-0.01226657113	
600.0	0.06031102874	-0.4281157298	
600.625	0.3601287263	-0.1644977455	
601.25	0.2771680062	-0.5651998453	
601.875	-0.3485074435	-0.226841009	
602.5	-0.2183650267	-0.08632368041	
603.125	-0.2061550895	0.07741414981	
603.75	-0.3738546094	0.2332096802	
604.375	-0.007136384733	0.1790771308	
605.0	-0.3179006024	0.1014865725	
605.625	-0.001437007721	0.2970942687	
606.25	-0.3048607589	-0.06230309236	
606.875	-0.4696060236	0.4735811075	
607.5	-0.1343968939	0.1161367688	
608.125	-0.4362725695	0.8121289085	
608.75	0.7023064814	-0.03327810945	
609.375	0.3100913304	0.2677952163	
610.0	0.5852806765	-0.5147439148	
610.625	-0.09510609769	-0.1318887571	
611.25	0.2554337077	-0.6214576854	
611.875	-0.3107860007	0.01544316201	
612.5	-0.2511612999	-0.399958793	
613.125	-0.5783692053	0.3927732513	
613.75	-0.1551496984	-0.0187970438	
614.375	0.1703314535	0.5270638238	
615.0	-0.01368380216	-0.2103404159	
615.625	0.01913299913	0.5672261137	
616.25	0.08409705603	-0.02180155726	
616.875	-0.4908109396	0.4687951962	
617.5	0.1597161278	0.6949074854	
618.125	-0.1570111436	0.1254899628	
618.75	0.1330081696	0.6962239345	
619.375	0.280583907	0.1138695308	
620.0	0.4236662736	0.2578988069	
620.625	0.09752173168	-0.4300581635	
621.25	-0.07200609625	-0.415035594	
621.875	-0.5647376296	-0.05094992089	
622.5	-0.348720761	0.03923901435	
623.125	-0.1601135696	0.5927598049	
623.75	0.162094628	-0.1685124515	
624.375	0.3818738293	0.007415149879	
625.0	-0.2613619953	-0.05137100999	
625.625	0.4483032699	-0.1397775298	
626.25	-0.5115637692	-0.3838039034	
626.875	0.06264724956	-0.01486966577	
627.5	-0.5275802433	-0.3432056354	
628.125	-0.2954696617	0.0786820685	
628.75	0.04872445056	-0.3469303256	
629.375	-0.5135394851	-0.3745752177	
630.0	-0.1482677004	-0.1713223562	
630.625	-0.6616021961	0.1071906362	
631.25	-0.2262546159	0.6165695162	
631.875	0.03136672397	0.3654365683	
632.5	0.2363943646	0.4629908931	
633.125	0.5743892046	0.176640488	
633.75	0.2814424908	-0.3513281079	
634.375	0.1882450993	-0.1048846502	
635.0	-0.150761732	-0.5951296935	
635.625	-0.05377611079	0.01649689923	
636.25	-0.5902302704	0.1284780405	
636.875	0.1130051591	0.3881139953	
637.5	-0.2150665727	-0.1247316448	
638.125	-0.0619552097	0.7235266107	
638.75	0.03541180759	-0.1137050591	
639.375	-0.3757205991	0.7545325705	
640.0	0.705222529	0.6141064841	
640.625	0.4430982624	-0.001012829937	
641.25	0.593648705	0.3885529871	
641.875	0.2404464202	-0.7641119218	
642.5	0.1443037033	-0.1432612901	
643.125	-0.4809877604	-0.6099830367	
643.75	-0.1375342736	0.3738746094	
644.375	-0.4555011794	-0.4232248494	
645.0	-0.3795232092	0.6598672541	
645.625	0.3379667103	0.3285263714	
646.25	0.02229285906	0.01630396827	
646.875	0.6514736891	0.2428284198	
647.5	-0.3269633355	-0.2323266328	
648.125	0.6723129796	0.4290571545	
648.75	0.3987378192	-0.6800770322	
649.375	0.4947365991	0.1582051946	
650.0	0.6386678064	-1.355430184	
650.625	-0.3984974464	-0.5463313958	
651.25	0.7493191779	0.1092982911	
651.875	1.013921632	-0.9962710046	
652.5	-0.030878584	-0.4536041391	
653.125	0.8052354115	0.1762014222	
653.75	0.333826641	-1.036534904	
654.375	-0.1467884635	-0.1608102025	
655.0	-0.7393207646	-0.7109514161	
655.625	-0.1372386703	0.8925455392	
656.25	0.04820412463	-0.02493228863	
656.875	-0.007886930144	0.5184277643	
657.5	0.3409995034	-0.05885473167	
658.125	-0.06945459168	0.4144343431	
658.75	1.04626121	0.2368693532	
659.375	0.4632583826	-0.5603074564	
660.0	0.4225503001	-0.320620916	
660.625	0.5525939468	-1.192961069	
661.25	-0.2360916611	-0.4644455819	
661.875	0.8371108646	-0.2940566844	
662.5	0.6972126913	-0.9376198456	
663.125	-0.000172217271	-0.5218384606	
663.75	0.790727917	-0.3484714915	
664.375	-0.5620248683	-1.018177096	
665.0	-0.2463041334	-0.1469154617	
665.625	-1.043634613	0.07413815838	
666.25	0.2488110452	0.7207268807	
666.875	-0.1376988401	0.4339870646	
667.5	0.6902843202	0.2683910273	
668.125	0.347413644	-0.3324737888	
668.75	0.3202237542	-0.01208760532	
669.375	0.4238909596	-0.7163842727	
670.0	-0.2957657277	-0.4872575127	
670.625	0.1116432481	-0.2544760405	
671.25	0.2146141278	-0.5659814311	
671.875	-0.02421438965	-0.3609146207	
672.5	0.6819281153	-0.2061706478	
673.125	0.3088341755	-0.6298619007	
673.75	0.1081870143	-0.3096555788	
674.375	0.4752401081	-0.5326715925	
675.0	-0.7154997173	-0.8927440322	
675.625	-0.02178360474	0.3122638129	
676.25	-0.6449352072	-0.5638761414	
676.875	-0.3529557932	0.526825698	
677.5	-0.173077877	-0.4103730294	
678.125	-0.3949653162	0.9212179643	
678.75	0.0806920066	-0.02530251947	
679.375	0.4537196522	0.5332204205	
680.0	0.5044154754	-0.6346473146	
680.625	-0.3195683591	0.04602031259	
681.25	0.6287574109	0.1274190858	
681.875	0.362300958	-0.1921694022	
682.5	0.2902920784	0.09371404442	
683.125	0.4105521925	0.4039504365	
683.75	0.9667639612	-0.06391537014	
684.375	0.2610772077	-0.0444068891	
685.0	0.7620657826	0.4581233996	
685.625	0.8056269177	-0.6336566625	
686.25	0.1869776146	0.4642965728	
686.875	1.341560113	-0.9707738249	
687.5	-0.418861181	-0.4738263465	
688.125	0.6627607244	-1.037110013	
688.75	-1.822498775	-0.2961584032	
689.375	0.1665007347	0.3411811619	
690.0	-0.08334722601	1.469219914	
690.625	0.8142627965	-0.025088713	
691.25	0.2422531098	0.896968731	
691.875	1.650290351	0.5666043377	
692.5	0.928119785	0.2506459754	
693.125	1.587315597	0.07196603247	
693.75	1.288099122	-0.751853827	
694.375	0.9164228434	-0.8297036982	
695.0	0.8844403961	-0.885478436	
695.625	0.8385378908	0.06988043724	
696.25	1.778610414	0.235700146	
696.875	0.5815582635	0.2325927674	
697.5	0.9983301788	1.656838266	
698.125	1.552981627	-0.5256043378	
698.75	0.9932001225	-0.311723684	
699.375	-1.655064525	-1.19599442	
700.0	0.2657434677	0.8169851351	
700.625	-0.1872482306	1.292828676	
701.25	0.8600448539	-0.1405944876	
701.875	0.1178755965	0.7034176533	
702.5	1.412561303	0.5388460007	
703.125	0.3656497745	0.1018167952	
703.75	1.291803671	-0.08202705989	
704.375	0.2321591183	-0.7768567908	
705.0	0.678652452	0.2673448671	
705.625	0.8633124443	-0.6666913521	
706.25	0.005629819289	0.3627726429	
706.875	0.9713211112	1.206219963	
707.5	0.8297827032	-0.02780779745	
708.125	0.9696038006	0.6405793242	
708.75	0.498922415	-1.362415622	
709.375	-0.4730119141	-0.20974353	
710.0	-0.7017905169	0.5534594892	
710.625	0.5469340278	0.132598588	
711.25	0.07518437394	0.4653534927	
711.875	0.6345353379	0.1201520234	
712.5	0.7009585263	-0.01216589139	
713.125	0.4604814413	-0.6008537421	
713.75	0.3364934778	-0.2204514855	
714.375	0.02137928664	-0.9598501487	
715.0	-0.3609971597	-0.01223125782	
715.625	0.6879988032	-0.728156194	
716.25	-0.4303169426	-0.9458979063	
716.875	0.8107607125	0.3979996445	
717.5	2.33903764	-0.6347946819	
718.125	-0.1763625936	-1.033441891	
718.75	3.304424938	1.257365723	
719.375	1.042161366	-3.224548269	
720.0	0.4465671649	-0.7399965252	
720.625	1.449844733	-2.834742729	
721.25	-1.915176304	-2.743467395	
721.875	0.1908658977	-1.729613807	
722.5	-2.053369593	-2.159277004	
723.125	-1.805717275	0.5440599637	
723.75	-0.8230742526	0.4592982969	
724.375	0.2214633697	1.599533474	
725.0	0.6211436498	0.4428864171	
725.625	0.1726144306	0.8246368508	
726.25	-0.2478880025	1.974732455	
726.875	1.26565645	2.899582521	
727.5	-0.928190118	1.053820231	
728.125	-1.024024856	8.120030303	
728.75	5.163674095	3.743774243	
729.375	-8.750145276	4.460128175	
730.0	7.172703083	17.8714385	
730.625	2.778878572	-0.1837224522	
731.25	-8.355539639	10.35362599	
731.875	-3.334644349	15.39790268	
732.5	-0.9962963165	1.621784839	
733.125	-8.481171882	-0.3913970587	
733.75	-0.4928406865	4.618214324	
734.375	1.492117189	-0.1549029114	
735.0	0.678073662	-2.2137579	
735.625	-0.3474937208	1.307284109	
736.25	-0.8319352824	0.917153318	
736.875	1.537943149	1.859126294	
737.5	3.08796629	-0.8728284413	
738.125	0.7476815092	-1.424943984	
738.75	7.804034947	0.6818505676	
739.375	6.597414244	-10.55037588	
740.0	-4.550157471	-1.251624088	
740.625	21.28903017	13.11275946	
741.25	14.19647213	-8.166789754	
741.875	-19.23736081	-9.115857835	
742.5	-12.41125671	-7.552480121	
743.125	1.452588868	2.042213808	
743.75	1.622271029	-5.31077166	
744.375	-1.825476915	1.196443745	
745.0	0.07469922347	-0.2261968525	
745.625	0.3729854934	-0.001007711653	
746.25	-0.2188244082	-0.06584189484	
746.875	-0.5017999135	0.0993989279	
747.5	0.3009456588	1.107008593	
748.125	0.715571874	0.7500143081	
748.75	0.1964055766	2.551740215	
749.375	0.3220773059	0.7791120348	
750.0	-0.4459051442	1.02027368	
