!Created with skrf (http://scikit-rf.org).
# GHz S RI R (50+0j) 
!freq	ReS11	ImS11	
500.0	0.2736118991	-0.9947538891	
500.625	0.218198372	-0.9233853392	
501.25	-0.3629452286	-0.6700674469	
501.875	-0.2547786204	-0.4674619669	
502.5	-0.05664907222	-0.1279547867	
503.125	-0.06837686253	0.007321249746	
503.75	0.01292807724	0.07889709828	
504.375	0.02798002675	-0.004929035535	
505.0	0.01962944466	-0.02452935947	
505.625	-0.002480393798	-0.0472879648	
506.25	-0.05591258994	-0.05463278631	
506.875	-0.1337937636	0.0183305446	
507.5	-0.07515362668	-0.3072727327	
508.125	0.1741872178	-0.5906739453	
508.75	0.5843586866	-0.9688681908	
509.375	-0.1117991427	-1.077940589	
510.0	-0.4589831976	-0.3538738351	
510.625	-0.1250451144	-0.1909569695	
511.25	-0.1064426529	-0.06957228295	
511.875	-0.1268048487	-0.035071848	
512.5	-0.02056600674	0.0294312595	
513.125	0.004209773818	-0.07755127552	
513.75	-0.04823622058	-0.04290047984	
514.375	-0.05649542373	0.002951873753	
515.0	0.004648338273	-0.03834637974	
515.625	0.01988183754	-0.437490746	
516.25	-0.1361552262	-0.6361359329	
516.875	-0.1872601872	-0.4586010808	
517.5	-0.04525446621	-0.1535099177	
518.125	-0.03013841265	-0.02773230815	
518.75	-0.06001462224	-0.1276834461	
519.375	-0.05319513495	0.04168041616	
520.0	0.1032840454	0.05030627983	
520.625	0.1523744748	-0.06540368508	
521.25	-0.0352566331	-0.2609236996	
521.875	-0.1420014551	-0.01692209504	
522.5	-0.04923386097	0.0238069256	
523.125	-0.05646505882	0.03134302467	
523.75	-0.100780551	-0.0105828085	
524.375	-0.1593591534	0.0397317777	
525.0	-0.02933765335	0.1354057821	
525.625	0.03041376906	0.04332891772	
526.25	-0.01013172022	-0.01528830738	
526.875	-0.05604207534	0.04966968546	
527.5	-0.05068288961	0.1889670255	
528.125	0.05380448299	0.2578767447	
528.75	0.02314751779	0.2186812986	
529.375	0.0432117218	0.06489186684	
530.0	0.02702247132	0.155777142	
530.625	0.1104928744	0.3207253611	
531.25	0.4164629656	0.09702248899	
531.875	0.2127228036	-0.1931928009	
532.5	-0.05236604858	-0.1094426222	
533.125	0.042407735	-0.05948227913	
533.75	0.08983172291	-0.1797536027	
534.375	-0.1003615598	-0.2763012615	
535.0	-0.2496625533	-0.08778121596	
535.625	-0.1544297722	0.122224235	
536.25	-0.0006841203811	0.09524457534	
536.875	0.09559673088	0.02080698883	
537.5	0.068110421	-0.04290737514	
538.125	0.1127771319	-0.05640514456	
538.75	0.1326245188	-0.1136016227	
539.375	-0.06933302161	-0.1698467119	
540.0	-0.1663133637	-0.1507556035	
540.625	-0.163890176	-0.01549972203	
541.25	-0.08204822443	0.005794992481	
541.875	-0.0475856927	-0.02522658832	
542.5	-0.05176800727	-0.04852314195	
543.125	-0.07868032363	-0.03570283141	
543.75	-0.083239645	-0.00316570617	
544.375	-0.04621526679	0.04628785755	
545.0	0.002922702868	0.05787105941	
545.625	0.05169670738	0.05635825802	
546.25	0.09630864471	0.03940253593	
546.875	0.1240661695	-0.03168630945	
547.5	0.06384886509	-0.1277014742	
548.125	-0.04280424268	-0.1566417777	
548.75	-0.1164023997	-0.1200329382	
549.375	-0.1159344465	-0.07613708869	
550.0	-0.08219608721	0.01229603328	
550.625	-0.04741899198	0.007893310014	
551.25	-0.07898248216	0.02488582094	
551.875	-0.07336433915	0.07954017927	
552.5	-0.03515554702	0.0798034138	
553.125	-0.01712344634	0.0620499549	
553.75	0.05297311999	0.04753090533	
554.375	0.09537603178	-0.01145848248	
555.0	0.09497160807	-0.07238254328	
555.625	0.08674134223	-0.1157705503	
556.25	0.06475260464	-0.15319794	
556.875	-0.04254999344	-0.163459941	
557.5	-0.09703487249	-0.1086122326	
558.125	-0.1248258843	-0.04555901143	
558.75	-0.1133335221	-0.0006598121236	
559.375	-0.1127143665	0.01804247461	
560.0	-0.108108942	0.07717297186	
560.625	-0.05025925387	0.1169826301	
561.25	0.008826685469	0.09733387795	
561.875	0.02741344572	0.05061686736	
562.5	0.01772991364	0.05292476644	
563.125	0.06901320648	0.07365152265	
563.75	0.1501614287	-0.0003145533964	
564.375	0.123989465	-0.109849325	
565.0	0.06802281341	-0.1491952527	
565.625	-0.03449077644	-0.165035468	
566.25	-0.1268924261	-0.1058849327	
566.875	-0.1382127846	-0.07360191629	
567.5	-0.1407182383	-0.1192482933	
568.125	-0.1465448044	-0.1685906083	
568.75	-0.2239931205	-0.08442471189	
569.375	-0.2418769549	0.08830440356	
570.0	-0.1333246447	0.2049420637	
570.625	-0.06176080033	0.1728224685	
571.25	-0.01045041586	0.1162608367	
571.875	0.06137836614	0.08089123165	
572.5	0.1243380746	-0.004748152064	
573.125	0.09071266553	-0.1112443118	
573.75	0.04355263455	-0.1190219065	
574.375	0.008663778059	-0.07028063487	
575.0	0.0323898811	-0.03702484109	
575.625	0.03920423526	-0.07713141128	
576.25	0.04799077545	-0.1112760087	
576.875	-0.00125961966	-0.1452715486	
577.5	0.0008432430132	-0.1629135879	
578.125	-0.04182655955	-0.1615202973	
578.75	-0.08167074146	-0.1260003048	
579.375	-0.0867523785	-0.07108547434	
580.0	-0.05312103193	-0.03081905758	
580.625	-0.06827493608	-0.03294939771	
581.25	-0.1077446794	0.07680759718	
581.875	0.01065239993	0.1614295806	
582.5	0.06105167284	0.1380335362	
583.125	0.07224872233	0.07515540774	
583.75	0.03996540904	0.02699283705	
584.375	0.04088373818	0.05491045172	
585.0	0.1080652213	0.05157327887	
585.625	0.1542329475	-0.00159131325	
586.25	0.1569146836	-0.06557274225	
586.875	0.07036779898	-0.1454063565	
587.5	-0.02185479001	-0.1401894145	
588.125	-0.01488358274	-0.1350974324	
588.75	0.04359919772	-0.1464648199	
589.375	0.07622615963	-0.1621346428	
590.0	-0.06034667329	-0.1765630641	
590.625	-0.1803393442	-0.03970779481	
591.25	-0.1322448796	0.1068606083	
591.875	-0.04317311546	0.123231889	
592.5	0.01236269716	0.05369747841	
593.125	-0.03401289875	0.04608322122	
593.75	0.05728232214	0.1268800164	
594.375	0.1577715813	0.09679113061	
595.0	0.1660968226	0.09978639982	
595.625	0.1700207899	0.09025201253	
596.25	0.1667184045	0.04785558389	
596.875	0.1577234461	0.03841700923	
597.5	0.1435459962	0.08995249859	
598.125	0.1503993806	0.1194897479	
598.75	0.1779740831	0.08664106511	
599.375	0.2152021099	-0.03203477558	
600.0	0.1672537336	-0.1495026166	
600.625	0.1379779476	-0.1781030363	
601.25	0.07081555229	-0.191938212	
601.875	-0.08072995093	-0.1453760088	
602.5	-0.1287518399	-0.0136535278	
603.125	-0.1114742025	0.0500373916	
603.75	-0.1047542904	0.07911811541	
604.375	-0.09586726038	0.07519213047	
605.0	-0.07257903644	0.07909221684	
605.625	-0.06972326248	0.06887045956	
606.25	-0.1140840134	0.06014261624	
606.875	-0.1799037996	0.0917008163	
607.5	-0.1653904825	0.1889245007	
608.125	-0.02904692943	0.2453810501	
608.75	0.1879190138	0.1748764301	
609.375	0.2425976106	-0.0431225945	
610.0	0.1628738639	-0.1257240193	
610.625	0.09169249978	-0.1584392862	
611.25	0.005815020056	-0.1683798992	
611.875	-0.0920500687	-0.1218208775	
612.5	-0.1620811351	-0.06493658953	
613.125	-0.1980903498	0.03324594332	
613.75	-0.09237895726	0.1541542131	
614.375	0.05363160883	0.1077818994	
615.0	0.03500591757	0.04294032498	
615.625	-0.0003158291845	0.09407239032	
616.25	-0.0347780465	0.1479340399	
616.875	-0.07494596517	0.1884477045	
617.5	-0.06631780407	0.2212367666	
618.125	-0.01375485124	0.2232866559	
618.75	0.03767022907	0.1982621426	
619.375	0.1032503985	0.1595410528	
620.0	0.1908709713	0.04182686314	
620.625	0.1127038005	-0.1616096099	
621.25	-0.09870088908	-0.1894257075	
621.875	-0.2144355805	-0.07643246339	
622.5	-0.2140417553	0.06843981416	
623.125	-0.03308221114	0.1893640711	
623.75	0.1369454823	0.03886610986	
624.375	0.03757704518	-0.06085283068	
625.0	0.03734860031	-0.02731086194	
625.625	0.0502447462	-0.09493165502	
626.25	-0.05873544954	-0.1405703828	
626.875	-0.1466835515	-0.07745233308	
627.5	-0.1465362638	-0.03954560146	
628.125	-0.1158649715	-0.07232164643	
628.75	-0.07970527922	-0.125465679	
629.375	-0.09518346613	-0.1518574204	
630.0	-0.1936260434	-0.1017148884	
630.625	-0.2283220654	0.07390351243	
631.25	-0.1402814172	0.2030451388	
631.875	-0.02134418672	0.2536070927	
632.5	0.1558478725	0.1983805198	
633.125	0.2176544367	0.04541603174	
633.75	0.1701255321	-0.07402690118	
634.375	0.05829369519	-0.1449269304	
635.0	-0.02426800247	-0.150843138	
635.625	-0.1536863067	-0.08552178921	
636.25	-0.1573095007	0.08439007274	
636.875	-0.05839769762	0.132200451	
637.5	-0.034544561	0.09297468448	
638.125	-0.06176538401	0.09391844103	
638.75	-0.06692058068	0.1717358835	
639.375	0.01155172107	0.2568325912	
640.0	0.1541016271	0.2401866918	
640.625	0.2496169066	0.1412206091	
641.25	0.2867692064	-0.01733688187	
641.875	0.1642365292	-0.1968837489	
642.5	-0.01724885538	-0.217719131	
643.125	-0.1349954484	-0.1166388812	
643.75	-0.1373613472	-0.06502900241	
644.375	-0.1857724392	0.007258513459	
645.0	-0.1372255232	0.1714675918	
645.625	0.06839050033	0.2117601893	
646.25	0.1747317155	0.0732172747	
646.875	0.1029104781	-0.02856915543	
647.5	0.05331709732	0.03497678537	
648.125	0.1716977865	0.04915304159	
648.75	0.2610128649	-0.0839863032	
649.375	0.2217606915	-0.2452834708	
650.0	0.1675195615	-0.31117589	
650.625	0.1470418656	-0.2985396654	
651.25	0.1860828841	-0.2397730946	
651.875	0.254170796	-0.172915124	
652.5	0.2830340614	-0.1168444362	
653.125	0.2621762355	-0.1403290261	
653.75	0.1719730526	-0.2436629252	
654.375	-0.07852910947	-0.3085673029	
655.0	-0.3081493391	-0.07410101966	
655.625	-0.1620697882	0.2104169419	
656.25	0.04806464123	0.1651616297	
656.875	0.04788836454	0.07403626968	
657.5	0.05294446086	0.1068247633	
658.125	0.1509261166	0.1449595971	
658.75	0.295738446	0.07430769017	
659.375	0.3371358867	-0.1545704894	
660.0	0.2154087795	-0.3213093377	
660.625	0.1164788641	-0.3340654352	
661.25	0.1562319333	-0.293274958	
661.875	0.220511994	-0.2670018359	
662.5	0.2546907056	-0.2253490452	
663.125	0.2438840123	-0.2118173378	
663.75	0.1514778679	-0.2878737121	
664.375	-0.05595066348	-0.3413832308	
665.0	-0.2872487916	-0.1981731814	
665.625	-0.3105797795	0.0993492338	
666.25	-0.1029885117	0.2726392297	
666.875	0.126522521	0.2170446186	
667.5	0.1936649416	0.08467358867	
668.125	0.2179607309	-0.01664415159	
668.75	0.1982623414	-0.1512484181	
669.375	0.08719438302	-0.236250363	
670.0	-0.003173360122	-0.220230501	
670.625	0.006217664878	-0.193253026	
671.25	0.05420869649	-0.1880371281	
671.875	0.1251604786	-0.1795605527	
672.5	0.1955875281	-0.1582225611	
673.125	0.204158146	-0.1858778382	
673.75	0.1507797532	-0.2346044705	
674.375	0.03568706114	-0.2691329653	
675.0	-0.09781803884	-0.2384099323	
675.625	-0.1907275001	-0.1288629583	
676.25	-0.187337189	-0.02770431022	
676.875	-0.155619757	0.01175363088	
677.5	-0.155717525	0.0398616713	
678.125	-0.1270965869	0.1478740798	
678.75	0.04063397461	0.2231709202	
679.375	0.2161600189	0.07416209778	
680.0	0.1592144538	-0.1019536086	
680.625	0.06578854807	-0.09797214915	
681.25	0.079669044	-0.01960603407	
681.875	0.1412874974	0.05575313017	
682.5	0.2078405528	0.1007292283	
683.125	0.2634542045	0.08217167172	
683.75	0.2824605963	0.06195324912	
684.375	0.2825265842	0.02166913011	
685.0	0.2713910566	0.02718728848	
685.625	0.2762585441	0.009841542765	
686.25	0.3003549704	-0.02380429433	
686.875	0.3263999057	-0.1453527951	
687.5	0.2628422219	-0.3254539355	
688.125	-0.0632523705	-0.4594750704	
688.75	-0.434740524	-0.1518191699	
689.375	-0.2569795612	0.3275608818	
690.0	0.100060565	0.3445275464	
690.625	0.2416317387	0.2644054232	
691.25	0.3476681331	0.2769617461	
691.875	0.4833600365	0.2895116454	
692.5	0.6090699984	0.185602029	
693.125	0.6536719207	-0.02483951907	
693.75	0.5975027522	-0.2308254904	
694.375	0.4604438623	-0.3895046086	
695.0	0.465720735	-0.2966593079	
695.625	0.5085186483	-0.09970264072	
696.25	0.4919763132	0.1532917992	
696.875	0.4141060381	0.3714910118	
697.5	0.4281400024	0.4280683924	
698.125	0.6036572464	0.1654115189	
698.75	0.3958872492	-0.4717686681	
699.375	-0.4390323933	-0.3477661039	
700.0	-0.2462844126	0.3782259584	
700.625	0.1636240125	0.2831884446	
701.25	0.2235480151	0.1767311492	
701.875	0.2644475663	0.2445730499	
702.5	0.3626373989	0.2469522962	
703.125	0.4342031454	0.1068040725	
703.75	0.3845821089	-0.1069694567	
704.375	0.2736370678	-0.1800778952	
705.0	0.244049103	-0.1172703218	
705.625	0.272485405	0.0177879323	
706.25	0.2669506251	0.1833251532	
706.875	0.2571477825	0.2888941711	
707.5	0.3111541933	0.3115937905	
708.125	0.456606889	0.06612759256	
708.75	0.2390687827	-0.3780001875	
709.375	-0.2949717934	-0.2431651218	
710.0	-0.1637971483	0.2177548329	
710.625	0.06488604914	0.1517364426	
711.25	0.09315621376	0.127248701	
711.875	0.2159742347	0.1239161968	
712.5	0.3255766766	-0.02352476974	
713.125	0.2779205696	-0.1768268392	
713.75	0.1464134747	-0.2589527656	
714.375	0.01741593857	-0.2517020023	
715.0	-0.01952748565	-0.2157526616	
715.625	0.02393043416	-0.2259507116	
716.25	0.1624130754	-0.2405864443	
716.875	0.338514206	-0.1803505204	
717.5	0.5168275412	-0.04771185738	
718.125	0.6678233295	0.01405553703	
718.75	0.7596135644	-0.1567117475	
719.375	0.7142066541	-0.4624758008	
720.0	0.4049568998	-0.840468489	
720.625	0.1500212537	-0.9371080526	
721.25	-0.1298602098	-1.010942494	
721.875	-0.3280922907	-1.028742781	
722.5	-0.6916504213	-0.7318144814	
723.125	-0.8036052733	-0.07392017924	
723.75	-0.3872630583	0.4697106253	
724.375	0.03562790467	0.4655178875	
725.0	0.1637358326	0.3728580462	
725.625	0.1457726637	0.468177556	
726.25	0.01919682964	0.6751303903	
726.875	-0.1058661932	0.9314174365	
727.5	-0.1578784721	1.346844099	
728.125	-0.07670431796	1.947738764	
728.75	-0.09778839201	2.520149722	
729.375	-0.6643798891	3.627648659	
730.0	-0.1534876804	4.05588618	
730.625	-0.008513038712	3.720713961	
731.25	-0.7731166221	3.687558363	
731.875	-2.473739683	2.400223847	
732.5	-3.129892261	1.224032621	
733.125	-2.393017272	0.7221634916	
733.75	-0.7402423857	1.402724908	
734.375	0.9038287662	0.3430888472	
735.0	-0.05764796726	-0.6396983121	
735.625	-0.5072122458	0.1209009557	
736.25	-0.04234176321	0.5675072474	
736.875	0.4738987077	0.5557930674	
737.5	1.093811898	0.1372458261	
738.125	1.427461068	-0.4466876136	
738.75	1.635515449	-1.176892832	
739.375	2.114669765	-1.363695875	
740.0	2.396652665	-1.115147701	
740.625	2.137501974	0.4629222161	
741.25	-0.3915888946	2.195437486	
741.875	-3.398705516	-0.3170456593	
742.5	-1.687651196	-2.715972771	
743.125	0.1815917083	-2.272908569	
743.75	-0.1869524047	-0.9584309176	
744.375	-0.3599875168	-0.0419312291	
745.0	0.07629487336	0.07755837405	
745.625	0.06327616028	0.02682786109	
746.25	-0.007994255792	-0.1805148097	
746.875	-0.2311015246	0.03763015717	
747.5	-0.08180722768	0.3635332374	
748.125	0.08687186532	0.4973432785	
748.75	0.2038345388	0.4397727949	
749.375	-0.008146491826	0.5199504117	
750.0	-0.5265027734	0.2709107011	
