!Created with skrf (http://scikit-rf.org).
# GHz S MA R 50.0 
!freq magS11 angS11
500.0 0.0153292774337 168.824370493
500.625 0.00776090725452 77.1348277385
501.25 0.00665741093884 -77.8219672257
501.875 0.0378394869777 -168.450705019
502.5 0.0354314828706 171.052647972
503.125 0.015743371534 98.3673592735
503.75 0.0142048768555 -22.9478816882
504.375 0.00451893729018 -60.4802828954
505.0 0.00517332814255 -24.698232762
505.625 0.026181076893 -69.219833896
506.25 0.0592086639659 -103.841183929
506.875 0.0581117432977 -117.616345178
507.5 0.0534061271952 -106.160102071
508.125 0.0546114586173 -85.6153347957
508.75 0.0656576585181 -127.85718038
509.375 0.0538410934202 -139.604695214
510.0 0.0431154420251 -113.574931884
510.625 0.0377467451619 -157.559351061
511.25 0.0690115011778 -168.117333576
511.875 0.0503999906776 139.207019343
512.5 0.0364403371686 100.109503104
513.125 0.0524533711215 48.5350750454
513.75 0.0552117829695 37.2835592016
514.375 0.0380332733802 11.6678097706
515.0 0.0434689420489 -3.34754259081
515.625 0.115054933888 54.2810330302
516.25 0.0778069180999 23.2173600523
516.875 0.105738819735 70.457490568
517.5 0.135903793914 23.6171565952
518.125 0.224541026218 74.7054088641
518.75 0.0730491607271 1.09155650666
519.375 0.0601682663531 19.1029358421
520.0 0.093874957414 -1.1332438414
520.625 0.11982949001 -0.203364365833
521.25 0.0717689970664 -34.1309141432
521.875 0.0645776008392 -0.546989059993
522.5 0.0944352104459 -36.1939420296
523.125 0.197207090888 -31.6169046672
523.75 0.209050468053 -58.1693896047
524.375 0.205984583609 -51.750909378
525.0 0.0695622640168 -53.5193231166
525.625 0.0440994907027 -21.0812214816
526.25 0.0444072572682 -10.5690190709
526.875 0.0546637615325 -15.7539659824
527.5 0.044846640724 -28.0164655457
528.125 0.0513096440472 -54.2243829862
528.75 0.045637913711 -79.7154438481
529.375 0.0777227347653 -112.199828484
530.0 0.0476658236107 -127.830420727
530.625 0.0423605961764 -140.678866175
531.25 0.124040812353 -135.431671764
531.875 0.180396942188 -144.893632035
532.5 0.140758070045 -168.920328602
533.125 0.113835400244 175.753606793
533.75 0.0991651428337 168.290966828
534.375 0.102584413553 -179.705908964
535.0 0.0793506456304 160.340956277
535.625 0.0759848175685 179.477960914
536.25 0.0594507819473 165.61307686
536.875 0.0907736571532 -159.563492788
537.5 0.10009063851 -142.199809189
538.125 0.105833724983 -173.002024871
538.75 0.0999823311487 -177.366989254
539.375 0.0801147273442 -159.440106114
540.0 0.0916312476828 -151.958890379
540.625 0.142047094606 -156.046076823
541.25 0.128710682332 -139.576895676
541.875 0.106421954189 -144.253087676
542.5 0.114626589477 -142.142756138
543.125 0.149918442186 -166.3489618
543.75 0.127646401285 160.317624588
544.375 0.0892017674886 136.862412219
545.0 0.0789827400671 91.2868334805
545.625 0.113288276916 84.3147820063
546.25 0.0785474845109 69.2292354432
546.875 0.0854760898624 57.5890990835
547.5 0.108236318727 59.9141443477
548.125 0.126421414289 79.8998341241
548.75 0.0883096609714 90.8282316586
549.375 0.0904878794707 89.3975179939
550.0 0.0759756533072 127.734376778
550.625 0.0598767340805 155.014884589
551.25 0.033664782036 -118.376231435
551.875 0.0615947654302 -154.146637878
552.5 0.111862751566 -161.411493695
553.125 0.0992867961346 -170.128096488
553.75 0.0892373815682 -167.214821029
554.375 0.103024765784 171.711512124
555.0 0.121310128434 165.05500867
555.625 0.104006338472 156.861057128
556.25 0.0952162345961 164.695459098
556.875 0.11767800912 166.266129604
557.5 0.119907525739 166.882850743
558.125 0.0954015161503 166.019643409
558.75 0.0703411873708 -178.865773908
559.375 0.0569941552277 -168.038661152
560.0 0.0440221249586 -142.538243597
560.625 0.0623252219318 -144.745562441
561.25 0.0799394938027 -140.365566801
561.875 0.0993110192716 -158.222514619
562.5 0.0904364273579 173.786265001
563.125 0.111481711321 142.679966605
563.75 0.118303966858 135.608120466
564.375 0.0985055905698 123.712834474
565.0 0.0857001743549 122.079030623
565.625 0.090405796626 115.035361523
566.25 0.0756571150189 164.257829065
566.875 0.0733999319403 -176.806672227
567.5 0.0783774282389 179.721920474
568.125 0.084344759518 -170.450173418
568.75 0.0763273759322 -149.787000412
569.375 0.0494326676533 -107.554235402
570.0 0.06382601611 -110.68227849
570.625 0.0954610559505 -119.477341684
571.25 0.0857828566397 -113.060389546
571.875 0.0899292751018 -126.882844257
572.5 0.11613104193 -159.392155118
573.125 0.142440966201 -174.553172659
573.75 0.109824144521 160.673901607
574.375 0.0825290911274 151.223805406
575.0 0.10008043037 155.859673777
575.625 0.114240382327 152.061615929
576.25 0.0782582854091 153.569554058
576.875 0.0782294196294 135.517963584
577.5 0.0753711258839 141.435742186
578.125 0.0647320501587 155.383791921
578.75 0.043258533439 172.192324539
579.375 0.0542266120551 166.874561947
580.0 0.0714264015489 178.650037856
580.625 0.0788322036796 -150.95962083
581.25 0.0897495860988 -162.129414652
581.875 0.116011464007 -175.49867087
582.5 0.119386355287 -175.969108359
583.125 0.0924799220699 -166.913568902
583.75 0.0840045523416 -171.802404105
584.375 0.102334831827 -151.839841587
585.0 0.0899369137902 -136.505304573
585.625 0.0712488150844 -144.831062688
586.25 0.0728338155889 -145.163283405
586.875 0.081847574938 -134.652711319
587.5 0.0754488893437 -146.240307139
588.125 0.0594671717656 -172.561691171
588.75 0.0676874717432 -172.727703064
589.375 0.0838077688859 -149.18117657
590.0 0.0961015647162 -160.169169726
590.625 0.10465875801 167.599824006
591.25 0.123363189069 147.963109113
591.875 0.0851150684722 170.810148073
592.5 0.0616895296802 154.899047321
593.125 0.0576570923509 156.242832604
593.75 0.0726811875995 162.033165413
594.375 0.0565668341982 -137.824248624
595.0 0.0463636038398 -109.267059892
595.625 0.0636950999498 -91.3169260462
596.25 0.0696757699416 -96.4519386508
596.875 0.0715379614218 -57.0310204113
597.5 0.0628991471291 -54.2100343707
598.125 0.0682610519157 -57.9115710496
598.75 0.077908948367 -59.2507246067
599.375 0.0900040609836 -63.141501369
600.0 0.102529761404 -66.4791336609
600.625 0.0995905593187 -63.8505850003
601.25 0.0837567892032 -82.9854317475
601.875 0.0666226122429 -78.7944473267
602.5 0.0635075997828 -67.5879646985
603.125 0.0431243479042 -42.4874157995
603.75 0.0258398540279 -58.5404383634
604.375 0.0415159070337 -21.3352906215
605.0 0.0566996737114 -17.5760885581
605.625 0.0521283759691 -10.366033062
606.25 0.0269590088767 16.6345271139
606.875 0.025111845818 46.2707309974
607.5 0.0719201004749 48.1191194885
608.125 0.058034130689 22.1801887476
608.75 0.0469561789076 13.3257620152
609.375 0.066211044771 35.7727893976
610.0 0.0708373018289 45.0894329242
610.625 0.0608974158002 33.549369383
611.25 0.0531963378108 36.0072343371
611.875 0.0331274601147 36.9207324318
612.5 0.024349691085 93.806811071
613.125 0.0426662805632 128.131814739
613.75 0.05001782028 130.973313621
614.375 0.0239451196473 118.893646195
615.0 0.0582089295614 129.565993287
615.625 0.0426780915966 132.52679639
616.25 0.0470484603144 147.530359919
616.875 0.0280918131883 131.479564291
617.5 0.059065423071 133.24655714
618.125 0.0444557861215 135.186417911
618.75 0.0379229203359 158.102413831
619.375 0.00254880664086 -8.49820665746
620.0 0.0186223343758 153.64744503
620.625 0.0102744758781 -149.102542871
621.25 0.0420961330254 -100.417186587
621.875 0.0678465251688 -90.8754819315
622.5 0.0908348265058 -179.87438711
623.125 0.0778561604911 168.440292619
623.75 0.0691138693056 168.246248076
624.375 0.0305700134226 -147.993714384
625.0 0.0472308857527 -144.004475215
625.625 0.0358494062258 -152.83189219
626.25 0.0140999046099 163.305377939
626.875 0.00402067832474 42.2444866252
627.5 0.0362768690656 -11.9554885748
628.125 0.0343300769143 -25.9284032257
628.75 0.0319647207338 -12.5188728714
629.375 0.0456695867019 -7.25163155083
630.0 0.0847971148449 10.4217213206
630.625 0.0710363383558 7.90754916359
631.25 0.0715066158407 5.60230327918
631.875 0.0650415432232 -3.6628719169
632.5 0.0638504940295 5.16556375819
633.125 0.0467124309902 0.935913631707
633.75 0.0412318100321 -15.5021479045
634.375 0.0444998337658 10.662212806
635.0 0.0506158940805 44.3783980275
635.625 0.0331207579675 33.9515355879
636.25 0.0528351839737 42.6644765426
636.875 0.0665244405768 47.4247393006
637.5 0.0417822527997 48.605691767
638.125 0.0548356339332 74.6979396697
638.75 0.0755109366405 76.7183456598
639.375 0.0809917943784 86.9236932076
640.0 0.0672792764999 103.406278753
640.625 0.0660278722193 114.036644054
641.25 0.0506487456562 96.886626484
641.875 0.056543837925 146.249907041
642.5 0.0550941811309 165.358451582
643.125 0.0628359665376 160.534318571
643.75 0.0670582595466 177.096699777
644.375 0.0768221463923 -167.406044333
645.0 0.077128702007 -178.628392326
645.625 0.10720737074 172.031468999
646.25 0.0785324203377 157.959187181
646.875 0.0603507290337 175.190341351
647.5 0.0579763542494 178.225018226
648.125 0.102048610222 -171.503643382
648.75 0.0647632275498 -172.965219433
649.375 0.0444814480671 -149.257990226
650.0 0.0425035271115 -122.308801639
650.625 0.0747624916025 -84.9673086198
651.25 0.0653046552698 -63.3740551666
651.875 0.0673064884351 -40.2199108523
652.5 0.0979502643766 -20.7456973778
653.125 0.119623690327 0.983458712721
653.75 0.0983397706128 4.16896837315
654.375 0.0973215146885 6.74686188417
655.0 0.111915731056 12.6802964495
655.625 0.109398478241 31.598800767
656.25 0.0541517734942 19.7893034528
656.875 0.0650950637501 9.80531260449
657.5 0.0879434327814 27.600805332
658.125 0.0700290778732 53.6087243301
658.75 0.0687032028922 62.295872587
659.375 0.081804650297 40.5518824463
660.0 0.103834785642 29.8602590109
660.625 0.108896301708 20.035188048
661.25 0.120284406381 4.50680909566
661.875 0.0979020399541 -13.0377432432
662.5 0.116284004145 -18.8073787467
663.125 0.107881334913 -13.0302722454
663.75 0.111897446564 6.68950967815
664.375 0.0947187385905 58.0865277417
665.0 0.0780069350116 92.2858060267
665.625 0.0754014934023 112.027730896
666.25 0.0588779723412 139.61720376
666.875 0.0985386988727 175.180202346
667.5 0.0923627499288 -170.673123569
668.125 0.112481812778 179.262273402
668.75 0.104084673686 171.252184812
669.375 0.12708423811 178.843642061
670.0 0.0877656963316 -171.473080081
670.625 0.0954177404913 -171.483931337
671.25 0.118316349166 175.965589891
671.875 0.103952344659 170.743146823
672.5 0.0767480785571 160.003966146
673.125 0.0899659006826 154.551107233
673.75 0.0912619393691 166.618994541
674.375 0.108180474595 173.424152029
675.0 0.105729557047 -171.234417301
675.625 0.139244396844 -150.935620567
676.25 0.104671145019 -120.669650163
676.875 0.111686517218 -117.740168138
677.5 0.117735366805 -127.109509272
678.125 0.134299798033 -115.212740982
678.75 0.0776848672292 -92.2883401544
679.375 0.053889775899 -72.4452123559
680.0 0.0871716745125 -81.3333040605
680.625 0.124014258703 -73.5793344002
681.25 0.115070893734 -75.6576500604
681.875 0.0928184324785 -83.5111421021
682.5 0.137005408698 -116.657848057
683.125 0.168441798349 -121.966978474
683.75 0.144487226964 -105.013459562
684.375 0.124290362436 -79.7956080123
685.0 0.126467944718 -35.8416651172
685.625 0.138588862515 -2.35114933027
686.25 0.108147692002 23.5958946013
686.875 0.100104980154 44.6454567595
687.5 0.0783817674635 86.2382538684
688.125 0.0861698810967 108.352068408
688.75 0.105527506849 114.799123371
689.375 0.15207253987 116.373611531
690.0 0.120266633199 140.886696939
690.625 0.116817270296 131.497857492
691.25 0.14077860346 100.880244397
691.875 0.203884560914 65.2065621609
692.5 0.11524225069 45.6731565085
693.125 0.0868197205474 -13.8532401968
693.75 0.100663038018 -40.0502845506
694.375 0.13784079028 -27.1827978789
695.0 0.139372470046 9.18204500345
695.625 0.0935872484078 66.7361474768
696.25 0.113979753154 119.969879584
696.875 0.133406967035 176.693003692
697.5 0.148257235761 -146.701787741
698.125 0.136994990359 -127.933791805
698.75 0.12634064536 -125.841056186
699.375 0.10944234688 -122.753763196
700.0 0.101446046756 -116.802532032
700.625 0.109601365365 -88.0694647814
701.25 0.0943085652345 -56.5250226909
701.875 0.0825648965497 -55.753541812
702.5 0.100470082011 -89.5411004928
703.125 0.165871988043 -108.300800715
703.75 0.182169039816 -151.851567519
704.375 0.123754009685 173.384483475
705.0 0.111599508643 158.34594778
705.625 0.151842290127 -175.778474073
706.25 0.139771108896 -109.620266068
706.875 0.0935670545188 -63.0154495555
707.5 0.0763743133072 -32.0762613118
708.125 0.09492697683 8.78217948588
708.75 0.11142258554 74.1932475141
709.375 0.107163059577 110.152350506
710.0 0.0982778170657 137.162188454
710.625 0.107758508713 147.909202692
711.25 0.122444083144 -178.430983043
711.875 0.147262198221 162.649485848
712.5 0.152184468914 145.5021506
713.125 0.130341567199 95.7590417535
713.75 0.0946508782098 61.7918924002
714.375 0.105129398303 29.1013532914
715.0 0.102974735314 35.9216200562
715.625 0.0861918459106 45.1454476828
716.25 0.077112270487 70.9586245815
716.875 0.118157336614 103.361360261
717.5 0.150456269416 150.767128039
718.125 0.119080071375 173.338453682
718.75 0.0964228390207 162.479939601
719.375 0.128513821739 -154.519627221
720.0 0.129328735037 -128.437492695
720.625 0.107857156852 -73.7192012764
721.25 0.0973630255691 -34.3095052483
721.875 0.0832482536836 33.4065462804
722.5 0.0745608174705 70.2978386721
723.125 0.0850678088313 74.9245328041
723.75 0.0938029506389 30.0973484739
724.375 0.130321966439 14.5114924425
725.0 0.101782710258 -34.0728312876
725.625 0.0981193508934 -61.3851254957
726.25 0.114899469872 -66.8771744686
726.875 0.10004792351 -52.4795692999
727.5 0.075614126048 -35.0128527409
728.125 0.0804860578023 -3.52236868773
728.75 0.0974708024096 26.0597013489
729.375 0.0698724499849 2.46795004388
730.0 0.0893552838599 22.1847370209
730.625 0.0692918200666 28.2229691384
731.25 0.067739983082 71.4258622224
731.875 0.0514793758628 103.040269569
732.5 0.0679732526713 151.72032193
733.125 0.0814658042344 178.10281799
733.75 0.0624883889397 170.894655785
734.375 0.0378372506569 138.232496697
735.0 0.0959610438518 170.850457976
735.625 0.0800966813385 151.815379607
736.25 0.0507367305373 163.620965862
736.875 0.0277053955825 -161.575581667
737.5 0.117573691857 179.895099379
738.125 0.0928112023111 -174.983567714
738.75 0.0665269515941 -175.125096265
739.375 0.0285096754176 167.362179454
740.0 0.0294890861536 -144.846366843
740.625 0.0589676029777 -145.258608739
741.25 0.0527289809546 -158.118056007
741.875 0.0461947478679 -103.331934436
742.5 0.0183381369738 56.1013638847
743.125 0.0547040336907 61.8784261057
743.75 0.0392121054555 88.3791548065
744.375 0.0388115299353 118.857975144
745.0 0.0469871256582 169.44310253
745.625 0.0663853869133 116.74799884
746.25 0.0864513756813 74.2801494963
746.875 0.0858552464993 38.293726511
747.5 0.0244712692522 46.6562395103
748.125 0.0354765054039 -0.293337763022
748.75 0.0231727170609 14.7341247664
749.375 0.0290507833235 -37.2025417188
750.0 0.0261465616102 -84.8804702581
