!Created with skrf (http://scikit-rf.org).
# GHz S RI R (50+0j) 
!freq	ReS11	ImS11	
500.0	-0.2386576829	-1.078817754	
500.625	0.304459917	-0.3904181098	
501.25	-0.5344184103	-0.8676151343	
501.875	-0.2417494114	-0.1245908468	
502.5	0.009880258076	-0.141012728	
503.125	-0.06881215272	0.0446050471	
503.75	-0.01508726923	0.02140422229	
504.375	0.04762758767	-0.0008575117058	
505.0	-0.0227450124	-0.01022397069	
505.625	0.04042577736	-0.04112917669	
506.25	-0.1434241998	-0.0004937555054	
506.875	0.04294397001	-0.09452037062	
507.5	-0.3801757054	-0.4163470279	
508.125	0.1797188849	-0.1539632676	
508.75	0.811606478	-0.8273253284	
509.375	-0.5178059564	-0.9678530793	
510.0	-0.1911115292	-0.08526509601	
510.625	-0.1097758412	-0.1930905587	
511.25	-0.1320119633	0.002523279959	
511.875	-0.03130804308	-0.04391918557	
512.5	-0.0336160022	0.04213513783	
513.125	-0.03555159646	-0.01675345433	
513.75	-0.002516477273	-0.05050388108	
514.375	-0.1226692816	0.01971005159	
515.0	0.2186578355	-0.008555541167	
515.625	-0.6413277489	-0.2480586463	
516.25	0.0001204092947	-0.06046001935	
516.875	0.03857789352	-0.5241070035	
517.5	-0.1589009053	-0.1427753494	
518.125	0.02446799141	-0.04935333117	
518.75	-0.1209587282	-0.1573336142	
519.375	-0.03107322148	0.01678022839	
520.0	0.06981675325	0.06845226866	
520.625	0.09304410076	-0.07113290366	
521.25	-0.08734883961	-0.1598535228	
521.875	-0.04456845313	-0.06781699502	
522.5	-0.1085119714	0.05166210732	
523.125	0.03007442117	0.04667231222	
523.75	-0.1770273281	-0.07260012583	
524.375	-0.08492342249	0.157092304	
525.0	-0.07248383843	-0.0005688989397	
525.625	0.05554021678	0.1314297841	
526.25	-0.04225125329	-0.08434374729	
526.875	-0.004981989169	0.09930093701	
527.5	0.03256375403	0.07616372883	
528.125	0.03750425463	0.2850395227	
528.75	0.09829652411	0.2457805558	
529.375	0.02513765306	0.04456348514	
530.0	0.05995410872	0.1335793605	
530.625	0.1305371833	0.09319797363	
531.25	0.283746333	0.2146792481	
531.875	0.244916433	-0.09664010988	
532.5	-0.1188221855	-0.04693614152	
533.125	0.2218674329	-0.009291178688	
533.75	-0.02626788823	-0.1401106778	
534.375	0.02589582408	-0.1621567835	
535.0	-0.2921171864	-0.09414593316	
535.625	-0.05517225694	0.1243796097	
536.25	-0.02773969972	0.08525825775	
536.875	0.1088110079	-0.01714964239	
537.5	0.0271581017	-0.006125503297	
538.125	0.1486198945	-0.08397478423	
538.75	0.0378630819	-0.1204666211	
539.375	-0.04161011827	-0.1288684877	
540.0	-0.1738907366	-0.1802336874	
540.625	-0.1590946736	0.03806942573	
541.25	-0.02716835463	-0.02468921897	
541.875	-0.07989737842	-0.03877008618	
542.5	-0.02220460354	0.00562758722	
543.125	-0.109385857	-0.08257277792	
543.75	-0.04277515295	0.04107553487	
544.375	-0.05822335802	-0.03532991027	
545.0	0.04006595878	0.07300557449	
545.625	-0.005802075358	-0.03699731886	
546.25	0.1052418936	0.08676268938	
546.875	0.09396005262	-0.08519859785	
547.5	0.05032084546	-0.05780985533	
548.125	-0.0433758099	-0.1937550977	
548.75	-0.1269230635	-0.03781135144	
549.375	-0.04700471629	-0.08841874544	
550.0	-0.09944183886	0.0388592551	
550.625	-0.0001189104266	-0.01191430163	
551.25	-0.1016643211	0.0384635678	
551.875	-0.03363499147	0.08228737452	
552.5	-0.04381772614	0.04418293224	
553.125	-0.01325157756	0.07378862427	
553.75	0.03830031618	0.02807532052	
554.375	0.08813839093	0.003634976436	
555.0	0.07923381248	-0.07356705563	
555.625	0.06794997577	-0.09019765306	
556.25	0.0540954181	-0.1295348641	
556.875	-0.04305465866	-0.1386982002	
557.5	-0.09360328914	-0.08381474877	
558.125	-0.1040275788	-0.03129489945	
558.75	-0.1044618288	0.003672473919	
559.375	-0.09152046617	0.0335116088	
560.0	-0.08799314678	0.06284280993	
560.625	-0.04415829461	0.123357862	
561.25	0.02402594538	0.06751665144	
561.875	0.0150444491	0.06564558931	
562.5	0.03169849296	0.01841481993	
563.125	0.03826486054	0.09233067288	
563.75	0.1605500535	-0.02127144957	
564.375	0.06590191431	-0.09834837398	
565.0	0.1008971614	-0.1176762139	
565.625	-0.08305635921	-0.1854306484	
566.25	-0.07046486044	-0.05538813131	
566.875	-0.1536379746	-0.1051241523	
567.5	-0.1658600434	-0.02109837154	
568.125	-0.03757658957	-0.145194653	
568.75	-0.2825146153	-0.05799029883	
569.375	-0.1297438971	0.1406122015	
570.0	-0.1530186484	0.09870754678	
570.625	-0.0532533464	0.2597866446	
571.25	0.06003018332	0.02882343593	
571.875	0.03945906668	0.1354916244	
572.5	0.08355082054	-0.09882027227	
573.125	0.1114987432	0.001546200582	
573.75	0.05113451613	-0.1981010253	
574.375	-0.06660040192	-0.0174895338	
575.0	0.1116287415	-0.02056116087	
575.625	-0.03567459361	-0.1176513614	
576.25	0.00600393235	-0.01826692881	
576.875	0.06629654272	-0.1782191106	
577.5	-0.09058834099	-0.1538205991	
578.125	0.01854365066	-0.05004273667	
578.75	-0.09006764469	-0.2021163581	
579.375	-0.1073485086	0.041416373	
580.0	0.04397128236	-0.1007119395	
580.625	-0.1697585712	0.06299432704	
581.25	0.00752027602	0.01925422265	
581.875	-0.102694277	0.1598130723	
582.5	0.1798720046	0.1984643687	
583.125	0.07483704919	-0.03889254834	
583.75	0.02094163845	0.1343834938	
584.375	0.06364910862	-0.05241388566	
585.0	0.06140464822	0.1462650729	
585.625	0.1773382345	-0.09295506305	
586.25	0.05011963789	-0.0202973368	
586.875	0.1456170958	-0.1260016711	
587.5	-0.10868068	-0.1358887129	
588.125	-0.009307915613	-0.03371649324	
588.75	0.1001616598	-0.1536778486	
589.375	-0.0196542968	-0.2096511261	
590.0	-0.008864883826	-0.06032708982	
590.625	-0.2362560303	-0.095212935	
591.25	0.01733326901	0.1643660692	
591.875	-0.08984239938	0.03102508441	
592.5	0.05659311568	0.1241281615	
593.125	-0.07184010379	-0.04207700142	
593.75	0.1941388415	0.1947248968	
594.375	0.1267152051	-0.02829336005	
595.0	0.07716373714	0.143922166	
595.625	0.213073689	0.1177611653	
596.25	0.07358250661	-0.03951050691	
596.875	0.11658852	0.1069386208	
597.5	0.2070043663	0.03088900809	
598.125	0.07313356303	0.05189452178	
598.75	0.1817316752	0.1323198577	
599.375	0.1920141304	-0.1174135741	
600.0	0.1097459696	-0.1001098255	
600.625	0.1693033397	-0.1454195654	
601.25	0.03244843901	-0.2370828646	
601.875	-0.06776930762	-0.03017925477	
602.5	-0.1597301164	-0.09721377734	
603.125	-0.05441591139	0.128487564	
603.75	-0.08936085371	-0.04828396492	
604.375	-0.162427306	0.1269325106	
605.0	0.04804836147	0.07423778194	
605.625	-0.1985916627	0.08400407104	
606.25	-0.04649685769	0.1445533801	
606.875	-0.09061409883	0.01942848042	
607.5	-0.2137681996	0.1818229351	
608.125	0.04804042416	0.1980911101	
608.75	0.1510977161	0.1689489237	
609.375	0.278329914	-0.01504416136	
610.0	0.08599956699	-0.1904420204	
610.625	0.0470435893	-0.1348710652	
611.25	0.02055857	-0.2002221311	
611.875	-0.1373187227	-0.02851394199	
612.5	-0.07096079448	-0.1006377419	
613.125	-0.2753089333	0.0454361518	
613.75	0.04115867105	0.1503672708	
614.375	-0.08014833393	0.1083711949	
615.0	0.145627688	0.04783529925	
615.625	-0.08430477074	0.005162009317	
616.25	-0.02987610834	0.2427678348	
616.875	-0.00752679861	0.0821771724	
617.5	-0.1277255586	0.1500020916	
618.125	-0.003533411722	0.2479536035	
618.75	0.1164660824	0.1426077603	
619.375	0.1345403168	0.09309963114	
620.0	0.2215382176	0.0510147023	
620.625	0.06681004738	-0.2047011341	
621.25	-0.03073623904	-0.1844799017	
621.875	-0.2544943124	-0.1959324772	
622.5	-0.1181296973	0.08896701411	
623.125	-0.1074274231	0.171992275	
623.75	0.2009853403	0.02101836399	
624.375	-0.06123968711	-0.06011522788	
625.0	0.1146799685	-0.02953313626	
625.625	-0.04133993604	-0.09884242578	
626.25	0.01297955928	-0.09128817147	
626.875	-0.1816832911	-0.1131266098	
627.5	-0.1077753495	0.03992290202	
628.125	-0.05859836651	-0.121593723	
628.75	-0.1284316882	-0.09498018951	
629.375	-0.04657298084	-0.08950592867	
630.0	-0.1353557348	-0.08640793117	
630.625	-0.219720558	0.1156437043	
631.25	-0.0493580412	0.1855360382	
631.875	-0.07461974119	0.1732856594	
632.5	0.2152041926	0.2016227478	
633.125	0.1489541375	-0.02207390885	
633.75	0.1842893065	0.0122321296	
634.375	-0.01990810907	-0.1787648991	
635.0	0.06769813685	-0.01966189813	
635.625	-0.2012817542	-0.1237061835	
636.25	-0.07903822945	0.1253587645	
636.875	-0.05963431647	0.02102496015	
637.5	-0.07442394528	0.1738579903	
638.125	0.05580428995	0.038267053	
638.75	-0.1482883454	0.1364965046	
639.375	0.07672565732	0.2937967909	
640.0	0.1118452824	0.105296303	
640.625	0.18705442	0.2141199154	
641.25	0.3004186182	-0.1018150175	
641.875	0.05613985977	-0.1268288725	
642.5	0.09141250857	-0.1967049964	
643.125	-0.2415628013	-0.08108116715	
643.75	0.000321311717	0.002476819605	
644.375	-0.2745772095	-0.1514070491	
645.0	-0.02758962442	0.2707163741	
645.625	-0.09689139634	-0.02522546277	
646.25	0.2706204935	0.2098771903	
646.875	-0.005945449688	-0.1351650921	
647.5	0.09932494194	0.1518477982	
648.125	0.1253011328	-0.1632095837	
648.75	0.1032257595	0.05301325641	
649.375	0.3464731273	-0.2704368947	
650.0	-0.004568902944	-0.3807320119	
650.625	0.07964162832	-0.08166404529	
651.25	0.3084661105	-0.2406692865	
651.875	0.1080618627	-0.2951037036	
652.5	0.1772744397	0.06749849101	
653.125	0.3686640108	-0.1912228936	
653.75	0.01918431195	-0.2143429448	
654.375	0.07879210265	-0.2184488754	
655.0	-0.4102708431	-0.1151862613	
655.625	0.001097494956	0.2961751808	
656.25	-0.05451452011	0.04401619334	
656.875	0.1175239867	0.1840525724	
657.5	-0.05405493319	-0.1607915688	
658.125	0.1634649211	0.3102263768	
658.75	0.2830839202	-0.145628378	
659.375	0.1676924713	-0.02732974699	
660.0	0.3566877951	-0.3334745402	
660.625	-0.04752200769	-0.3686710686	
661.25	0.1877733484	-0.07606683512	
661.875	0.2988578286	-0.2930334119	
662.5	0.1524905981	-0.3033091504	
663.125	0.1428459801	-0.06951654487	
663.75	0.2367126418	-0.3598977184	
664.375	-0.1631965979	-0.2278563733	
665.0	-0.1496611504	-0.2266818369	
665.625	-0.3762577975	0.1356890028	
666.25	0.04120562719	0.2330469663	
666.875	0.008075370268	0.1704037969	
667.5	0.2736264527	0.1084622767	
668.125	0.09651298102	-0.1461621508	
668.75	0.206160003	0.000958068083	
669.375	0.06458557868	-0.3316418325	
670.0	-0.04405647506	-0.05157085625	
670.625	0.1254651554	-0.2462985682	
671.25	-0.06630830095	-0.2310593546	
671.875	0.09956889562	-0.008888637902	
672.5	0.312358289	-0.2584393391	
673.125	0.05974660802	-0.2069811325	
673.75	0.1186117425	-0.1115139347	
674.375	0.1205625828	-0.279715882	
675.0	-0.2239041327	-0.1947463347	
675.625	-0.03293427193	-0.1387310594	
676.25	-0.270928234	-0.04534388292	
676.875	-0.07387360067	0.1113489339	
677.5	-0.1370882588	-0.0941318069	
678.125	-0.1293898123	0.2592112388	
678.75	0.1029478665	0.0788021899	
679.375	0.08792507168	0.162688219	
680.0	0.3306628584	-0.1928993525	
680.625	-0.1352994567	-0.08886460729	
681.25	0.3485117509	0.1493517955	
681.875	0.1558379754	-0.1569992598	
682.5	0.02458617202	0.09009026466	
683.125	0.4646801713	0.1717977091	
683.75	0.07147097695	-0.2123520568	
684.375	0.2066875589	0.247228771	
685.0	0.3936723094	-0.005359952616	
685.625	0.161675938	-0.1024083526	
686.25	0.1585595815	0.1211440975	
686.875	0.3470694809	-0.2819819151	
687.5	0.035053908	-0.2393824447	
688.125	0.03636788386	-0.3977196427	
688.75	-0.54162978	-0.1785952367	
689.375	-0.1395317442	0.2634759847	
690.0	-0.040478096	0.3995359057	
690.625	0.3830145635	0.1779143088	
691.25	0.1456266079	0.1142318202	
691.875	0.4253420823	0.5361780215	
692.5	0.7093561605	-0.04161068184	
693.125	0.3815659633	-0.03532183162	
693.75	0.7542818571	-0.2153098012	
694.375	0.2779294872	-0.5556452607	
695.0	0.4164050902	0.01787761837	
695.625	0.6609001494	-0.08715411471	
696.25	0.3824769728	-0.02318411409	
696.875	0.2436479651	0.3129373272	
697.5	0.4479400536	0.3230015271	
698.125	0.5008569468	-0.04458842964	
698.75	0.3357389543	-0.2016471304	
699.375	-0.3851422648	-0.441292673	
700.0	-0.2781436655	0.4572283471	
700.625	0.05534668198	0.1158041235	
701.25	0.2762670534	0.3088884185	
701.875	0.2288274542	0.01535105563	
702.5	0.1473596332	0.2914010257	
703.125	0.5134237803	0.09381376414	
703.75	0.2063618073	-0.200621028	
704.375	0.3093270745	-0.03688216945	
705.0	0.2549089559	-0.2437553045	
705.625	0.1408855344	0.02957020199	
706.25	0.2047739607	0.2625637205	
706.875	0.1989302746	0.1836790357	
707.5	0.1680459304	0.1674479768	
708.125	0.3028940155	-0.0853544712	
708.75	0.2239390393	-0.3757142118	
709.375	-0.3228676973	-0.1592653608	
710.0	-0.2839208683	0.1371791011	
710.625	0.132814372	0.3038514183	
711.25	-0.004006244494	0.04285689285	
711.875	0.2545991743	0.2553912011	
712.5	0.2176828275	-0.1611817524	
713.125	0.18341689	0.01439408919	
713.75	0.1826250876	-0.2996674947	
714.375	-0.09898734389	-0.1793923744	
715.0	0.07438860587	-0.1306909431	
715.625	-0.01585201046	-0.2915250088	
716.25	0.01295552389	-0.1593769163	
716.875	0.3451535016	-0.05257850689	
717.5	0.5423509098	-0.1308780126	
718.125	0.3144186782	-0.09923481677	
718.75	0.4648508612	-0.008090642285	
719.375	0.6374993252	-0.5891199437	
720.0	0.1389102936	-0.4595517671	
720.625	0.4412943316	-0.7037099816	
721.25	-0.5509056465	-1.487927712	
721.875	-0.1435673535	-0.5182837337	
722.5	-0.4225360221	-1.012087499	
723.125	-0.8050760781	0.1380153512	
723.75	0.01291597387	0.1534767863	
724.375	-0.1502332518	0.5379535358	
725.0	0.3318751861	0.2026062413	
725.625	-0.03581267595	0.3082111162	
726.25	0.05587186255	0.7933940913	
726.875	0.2579891682	0.6901939218	
727.5	-0.3626540352	0.8610335654	
728.125	-0.02955036822	2.139122407	
728.75	0.8267271978	1.881093227	
729.375	-0.9506223656	1.439994799	
730.0	0.09839966617	4.294548191	
730.625	1.542682839	2.505618292	
731.25	-0.8751413326	1.627354772	
731.875	-3.759285146	2.658863849	
732.5	-1.320129141	2.062120626	
733.125	-1.701344373	-0.4625228779	
733.75	-0.7987511667	1.7897631	
734.375	0.6750667305	-0.26603459	
735.0	0.2904792483	-0.3605122679	
735.625	-0.6687232371	0.3729521746	
736.25	0.07325420642	0.06148861384	
736.875	0.166408158	0.8767021543	
737.5	1.222617584	-0.1413217474	
738.125	0.57644422	-0.5853392455	
738.75	1.92767996	0.01259260169	
739.375	2.225665589	-3.420506667	
740.0	-0.09520983301	-0.7653682847	
740.625	3.071450956	2.680158272	
741.25	4.837460265	1.642287737	
741.875	-0.8896983259	-2.791214004	
742.5	-2.224510279	-3.176491415	
743.125	-0.9184485233	-1.327436122	
743.75	0.1601621729	-0.2062081455	
744.375	-0.6070573229	-0.2785511121	
745.0	0.2521860456	-0.01220428702	
745.625	0.08431261285	0.09333253641	
746.25	-0.1147257673	-0.1342023589	
746.875	-0.1058935645	-0.02968112929	
747.5	-0.1469681436	0.4000380989	
748.125	0.2487677728	0.3949527606	
748.75	0.1849377248	0.2834678432	
749.375	0.07826753781	0.5155953428	
750.0	-0.2408445735	0.3085406142	
