!Created with skrf (http://scikit-rf.org).
# GHz S RI R (50+0j) 
!freq	ReS11	ImS11	
500.0	-0.9659174434	-1.202296031	
500.625	1.874720277	-2.952938349	
501.25	-2.829318024	-1.602352321	
501.875	-1.961985116	-0.4989816593	
502.5	0.009531888351	-0.1587552988	
503.125	-0.3906436366	0.04483655683	
503.75	0.2359846492	-0.01337555463	
504.375	0.1490868244	0.07518721179	
505.0	-0.1151067758	-0.1082559249	
505.625	0.2639005533	-0.2083973231	
506.25	-0.6079033941	0.1511294808	
506.875	0.07841777082	-0.8928640553	
507.5	-1.200687009	-1.918232614	
508.125	-1.121919093	-0.7033804392	
508.75	3.065409706	-1.894868132	
509.375	-2.490289109	-4.011926198	
510.0	-0.6672419513	-0.1350652361	
510.625	-0.4316944319	-1.00034141	
511.25	-0.1394160332	0.1340837543	
511.875	-0.5403462788	-0.3367773053	
512.5	-0.03340286897	0.1093337746	
513.125	-0.09142400458	-0.178648436	
513.75	-0.005586368674	-0.128995564	
514.375	-0.5194044858	-0.3148752024	
515.0	0.7037581019	1.260208572	
515.625	-1.74514107	-2.978967303	
516.25	-0.7460468171	0.801222641	
516.875	0.2925432696	-2.366369209	
517.5	-1.108024144	-0.2733657402	
518.125	0.2812799515	-0.3008222671	
518.75	-0.8782642967	-0.362720441	
519.375	-0.08084890247	0.01087811595	
520.0	0.428930503	0.3111780647	
520.625	0.3671741477	-0.4017053421	
521.25	0.04739971374	-0.351697857	
521.875	-0.6121436968	-0.1865249008	
522.5	0.08242427666	0.08594374997	
523.125	-0.3609778604	0.2162230697	
523.75	0.001016264591	-0.02804880258	
524.375	-0.7190179595	0.2044108873	
525.0	0.1603315117	0.003304095679	
525.625	-0.07516859928	0.2761681567	
526.25	0.06732275624	-0.2873416229	
526.875	-0.1821671088	0.3777180319	
527.5	0.1324010317	0.2500146461	
528.125	-0.2535924371	0.84485927	
528.75	0.5571923543	0.8238727394	
529.375	-0.1354707875	0.13889883	
530.0	0.4598556748	0.302552399	
530.625	-0.168427827	0.9514284036	
531.25	1.612692015	-0.417775662	
531.875	0.2418570478	0.03444321302	
532.5	-0.3208434718	-0.7957097921	
533.125	0.3714322192	0.5104810026	
533.75	-0.04197215823	-1.011489123	
534.375	-0.03343277552	-0.1719998522	
535.0	-1.008766729	-0.589453658	
535.625	-0.004100926056	0.4721815722	
536.25	-0.1089063316	0.1804630342	
536.875	0.3467963651	0.06631609463	
537.5	0.03866410116	-0.1448768158	
538.125	0.4315848992	-0.02344476532	
538.75	0.1589561432	-0.436115056	
539.375	-0.01195332715	-0.3125031484	
540.0	-0.5498463077	-0.4961627376	
540.625	-0.2615981183	0.173409383	
541.25	-0.196991037	-0.1064524663	
541.875	-0.1755614813	-0.04383588417	
542.5	-0.1408706954	0.008484814283	
543.125	-0.06068040759	-0.2232465263	
543.75	-0.4264616404	0.1189399965	
544.375	0.06777404077	-0.1027391145	
545.0	-0.03450499914	0.3461717498	
545.625	0.07386131932	-0.1246838182	
546.25	0.3019917817	0.3844949569	
546.875	0.1521382336	-0.3553562417	
547.5	0.2592383105	-0.05277072784	
548.125	-0.1075142978	-0.6082567267	
548.75	-0.3903150939	-0.07417114344	
549.375	-0.08195449912	-0.1957893192	
550.0	-0.3335337366	0.03876874548	
550.625	0.02539782773	-0.004027428968	
551.25	-0.3225709025	0.09753608419	
551.875	-0.01370083729	0.1622303883	
552.5	-0.199358429	0.1643572157	
553.125	0.02120571308	0.1835977305	
553.75	0.08988446271	0.09809829432	
554.375	0.241396556	0.01076534	
555.0	0.2170335179	-0.1923621797	
555.625	0.1838799644	-0.2440319024	
556.25	0.1534067943	-0.3406375781	
556.875	-0.1037769381	-0.3761970423	
557.5	-0.2311346563	-0.2241151748	
558.125	-0.266217784	-0.09711502676	
558.75	-0.2711037553	0.00986553086	
559.375	-0.2163492028	0.05953677719	
560.0	-0.2471664803	0.1440008705	
560.625	-0.1033487168	0.3146351875	
561.25	0.06351098153	0.1555675877	
561.875	0.02446832974	0.1846525814	
562.5	0.07559624399	0.01630097779	
563.125	0.1370935946	0.2788701083	
563.75	0.3335065663	-0.1490692735	
564.375	0.2230575594	-0.05852826616	
565.0	0.2609621411	-0.4711999007	
565.625	-0.2112785927	-0.2760317766	
566.25	-0.1322959028	-0.2151627999	
566.875	-0.3855776471	-0.291784869	
567.5	-0.4200358387	-0.06507723951	
568.125	-0.1111161654	-0.4157775142	
568.75	-0.7484557906	-0.1881483769	
569.375	-0.2930267009	0.2613589723	
570.0	-0.539876531	0.3955573323	
570.625	0.08797732192	0.6113301208	
571.25	-0.08717858372	-0.03994179363	
571.875	0.3057846032	0.4998891787	
572.5	-0.01395308502	-0.2395775756	
573.125	0.4366553066	-0.01116608483	
573.75	0.06523971548	-0.5636572098	
574.375	-0.1343843947	0.1053561674	
575.0	0.2972886475	-0.3068326481	
575.625	-0.1801278548	0.03814949407	
576.25	0.4116988386	-0.2477542485	
576.875	-0.2267511577	-0.5088423311	
577.5	-0.09686953149	-0.07594341404	
578.125	0.1343992073	-0.4469398186	
578.75	-0.3910691189	-0.4170387821	
579.375	-0.1763609983	0.07827259564	
580.0	0.02109127215	-0.2808737491	
580.625	-0.2575861925	0.187519728	
581.25	-0.1884161955	-0.1283993991	
581.875	-0.03730036053	0.6512561134	
582.5	0.4225382598	0.1478775742	
583.125	-0.2174663421	0.0506821781	
583.75	0.4986704697	0.3370410561	
584.375	-0.331068272	-0.1451600515	
585.0	0.534418751	0.4063447066	
585.625	0.2315049582	-0.3397720928	
586.25	0.3208351854	0.2121326321	
586.875	0.1700341075	-0.64446566	
587.5	-0.05756391783	-0.01060676699	
588.125	0.1855801898	-0.4634269563	
588.75	-0.1430198206	-0.5220637679	
589.375	0.05098804691	-0.02916997149	
590.0	0.0242934828	-0.6255522382	
590.625	-0.517128794	0.02677911111	
591.25	-0.1430550228	0.2152164801	
591.875	-0.2482730455	0.209614272	
592.5	0.1996987463	0.1947185502	
593.125	-0.2403403339	0.1660701566	
593.75	0.2419283769	0.192569801	
594.375	0.1345016644	0.1770028118	
595.0	0.4556453341	0.5790802897	
595.625	0.680257658	-0.1988018466	
596.25	-0.07493352797	0.2863782376	
596.875	0.7426600605	0.2091801766	
597.5	0.2338317956	-0.1464131374	
598.125	0.2456277998	0.5577823031	
598.75	0.5602485212	-0.0764717301	
599.375	0.2767205936	0.1320522833	
600.0	0.6236759584	-0.4931896217	
600.625	0.05160429602	-0.4556188919	
601.25	0.2592794196	-0.2226966692	
601.875	-0.1683672624	-0.4905285669	
602.5	-0.2511911642	0.0588749123	
603.125	-0.2152987095	0.1479093849	
603.75	-0.23395254	0.03568807146	
604.375	-0.3481343345	0.3356160026	
605.0	0.03610956427	0.01471791233	
605.625	-0.4061173988	0.2269872589	
606.25	-0.001542155817	0.1739506996	
606.875	-0.6012382471	-0.05478386119	
607.5	-0.163230362	0.8023327429	
608.125	-0.1811925066	0.1618306145	
608.75	0.5631308322	0.8226867301	
609.375	0.233948205	-0.4314044269	
610.0	0.5388836437	0.0332969456	
610.625	0.09904287023	-0.6258375253	
611.25	0.06786779987	-0.02413466856	
611.875	-0.3941718079	-0.5540614458	
612.5	-0.1110453143	0.04173991162	
613.125	-0.6096774527	-0.1199856686	
613.75	0.01706815701	0.5454018848	
614.375	-0.2761754599	0.1696418021	
615.0	0.4350338957	0.07626882762	
615.625	-0.3282244717	0.08808448287	
616.25	0.07688409695	0.671714737	
616.875	-0.07669109199	0.03051895856	
617.5	-0.4005705017	0.7141799906	
618.125	0.2778515556	0.4821253163	
618.75	-0.1675911107	0.2691842298	
619.375	0.4139791883	0.4877768074	
620.0	0.259908649	0.01840022839	
620.625	0.3646145629	-0.4089038223	
621.25	-0.2410459086	-0.2604006137	
621.875	-0.4899906475	-0.3464159062	
622.5	-0.3868638983	0.3025862205	
623.125	-0.1876558797	0.2917806692	
623.75	0.5111571363	0.1135967854	
624.375	-0.19061485	0.04542554547	
625.0	0.3451921656	-0.4287686383	
625.625	-0.06371242332	0.1719537348	
626.25	0.0993690713	-0.6058631799	
626.875	-0.5679643849	0.0002267276168	
627.5	-0.004325054314	-0.08512214418	
628.125	-0.4484066855	-0.357748928	
628.75	-0.1561484253	-0.03959010248	
629.375	-0.08327071072	-0.5195825367	
630.0	-0.6269845878	-0.08131781505	
630.625	-0.2721979796	-0.01036233705	
631.25	-0.5005989218	0.4700565054	
631.875	0.1053430701	0.6448862115	
632.5	0.3427834047	0.3518099051	
633.125	0.3363056064	0.08351916872	
633.75	0.6133523351	-0.07836451586	
634.375	-0.1497889447	-0.2988520007	
635.0	0.2092211495	-0.3244717186	
635.625	-0.5980491113	-0.1401052492	
636.25	-0.05454327371	-0.03633192096	
636.875	-0.3799606169	0.5137292286	
637.5	0.2461100036	0.1282891402	
638.125	-0.4829262263	0.006419588996	
638.75	0.09949534056	0.8402874621	
639.375	0.05904968706	0.017342276	
640.0	0.05393981979	0.7780593378	
640.625	0.8686605573	0.3271299905	
641.25	0.3442125311	-0.2418261651	
641.875	0.7431744411	-0.1779411629	
642.5	-0.4454913456	-0.4499336759	
643.125	0.1026124162	-0.2479305308	
643.75	-0.6722359317	-0.3065721019	
644.375	-0.01673866112	0.3263013736	
645.0	-0.6106677857	-0.002384106433	
645.625	0.2535348962	0.7519956782	
646.25	0.5201951286	-0.07987251314	
646.875	-0.1685753511	0.07220738012	
647.5	0.6949515451	0.0470207394	
648.125	-0.2832046619	0.200680397	
648.75	1.137638111	-0.1039122441	
649.375	-0.002069682429	-0.8639947818	
650.0	0.4792182852	0.01650409488	
650.625	0.7534973383	-1.373151038	
651.25	-0.4017477628	-0.5018599195	
651.875	0.800502916	0.2717455917	
652.5	1.03750511	-0.7655393562	
653.125	0.04254992303	-0.3837490067	
653.75	0.8737638374	-0.2877218074	
654.375	-0.5626293092	-0.8832060811	
655.0	-0.2509273469	0.108026551	
655.625	-0.8025803516	0.1206282637	
656.25	0.5491242698	0.719766428	
656.875	-0.2264279697	-0.1515216678	
657.5	0.2473543951	0.5103137816	
658.125	0.4371145842	0.07409648079	
658.75	0.2927508842	0.2737739692	
659.375	1.166649672	-0.4434465006	
660.0	0.05968835569	-0.7533957695	
660.625	0.4336952216	-0.4354634867	
661.25	0.6449074357	-1.056599774	
661.875	-0.235779258	-0.6103961691	
662.5	0.8697488704	0.06681999487	
663.125	0.7703090325	-0.9955703058	
663.75	-0.1339170641	-0.4131542766	
664.375	0.3443571759	-0.8284851059	
665.0	-1.081439562	-0.2609588522	
665.625	-0.3202244823	-0.02578347441	
666.25	-0.4807726873	0.8527942562	
666.875	0.5887799065	0.2516039551	
667.5	0.03717643082	0.309148021	
668.125	0.8305100795	-0.06617776665	
668.75	0.1905350856	-0.5127622391	
669.375	0.1854136046	-0.2618417822	
670.0	0.1876049332	-0.6299307584	
670.625	-0.3057229477	-0.4562315131	
671.25	0.2913295164	-0.2256659083	
671.875	0.3171380772	-0.5780045034	
672.5	0.1525691727	-0.3660619563	
673.125	0.7251377473	-0.2348655347	
673.75	0.191107543	-0.9052579138	
674.375	-0.1500321566	-0.1823930904	
675.0	0.21544993	-0.7320755972	
675.625	-0.9757824933	-0.3514080193	
676.25	0.1230285868	0.2619015591	
676.875	-0.7758730298	-0.3305620672	
677.5	0.01723083814	0.4384304267	
678.125	-0.5667845011	-0.05327097119	
678.75	0.5087437854	0.9321502481	
679.375	0.02665879648	-0.1135459339	
680.0	0.5245729165	0.04363543003	
680.625	0.3093808886	-0.5226367885	
681.25	-0.276893189	-0.01156793842	
681.875	0.5848829271	0.450930965	
682.5	0.6229587272	-0.05034098612	
683.125	0.4714168354	0.0175931266	
683.75	0.3556469496	0.383624524	
684.375	1.107705125	-0.1072318343	
685.0	0.07213777863	-0.02990294462	
685.625	1.010753186	0.260106759	
686.25	0.6058729684	-0.7772065711	
686.875	0.3678854432	0.4822575893	
687.5	1.129031705	-1.630517068	
688.125	-0.8223083694	-0.05559562858	
688.75	-0.6532001208	-1.146059513	
689.375	-0.666490511	1.461869078	
690.0	0.2281796357	0.1070263245	
690.625	0.810195694	1.212899243	
691.25	0.6475614455	0.04382116247	
691.875	0.7875358812	0.9895383972	
692.5	1.75367353	0.3408710086	
693.125	1.123642768	-0.2516896559	
693.75	1.437015619	-0.5044698827	
694.375	0.7937619061	-0.9594540486	
695.0	1.216196369	-0.5882666264	
695.625	0.9616087794	-0.6732962794	
696.25	0.7251273585	0.7383992714	
696.875	1.823623593	0.8357062218	
697.5	0.4517658687	0.3870155138	
698.125	1.90130096	0.9846553512	
698.75	0.1171292698	-1.616567568	
699.375	-0.1067385943	-1.079583702	
700.0	-0.8282452405	1.540265332	
700.625	0.4339661943	-0.005842888099	
701.25	0.6675560432	1.136598155	
701.875	0.6617068573	-0.09132554195	
702.5	0.4843798638	0.8644933645	
703.125	1.408498127	-0.004794854863	
703.75	0.3202686819	-0.04327211385	
704.375	1.110918584	-0.5878818618	
705.0	0.07079079121	-0.5380627687	
705.625	0.7291201919	0.6376337263	
706.25	1.090360683	-0.3030551808	
706.875	-0.01973081797	0.6561506375	
707.5	1.121795302	1.197702367	
708.125	0.7759398521	-0.3931485379	
708.75	0.9382114363	-0.6640521223	
709.375	-1.179076552	-0.5731682008	
710.0	-0.1164795147	0.3217196586	
710.625	0.1509100194	0.5745410787	
711.25	0.3074284361	0.01644533055	
711.875	0.4381474196	0.379099006	
712.5	0.7424179566	-0.1978096603	
713.125	0.7563886539	-0.3313679658	
713.75	0.009296989897	-0.8003867144	
714.375	0.2864386744	-0.143604521	
715.0	-0.321439168	-0.9298531842	
715.625	-0.1439780217	0.03890074236	
716.25	1.110066226	-0.6901777447	
716.875	0.01941410942	-1.275458657	
717.5	0.9417298629	1.103870733	
718.125	2.990779766	-0.4619106627	
718.75	0.001242476587	-1.60666417	
719.375	3.355947795	0.4847327543	
720.0	-0.3983627591	-3.938093125	
720.625	0.3854648364	-1.192605025	
721.25	0.4121233951	-2.825195321	
721.875	-2.212454506	-2.688392722	
722.5	-0.6060653065	-1.311634527	
723.125	-2.575262517	-0.2883056387	
723.75	-0.4905341019	1.401885902	
724.375	-0.0517364696	0.7083959373	
725.0	0.1855229266	1.182247216	
725.625	1.007518919	1.024886365	
726.25	0.05496252232	0.7609270595	
726.875	-1.015366162	2.683477744	
727.5	1.472577311	4.395384932	
728.125	-0.5307168861	0.7611025316	
728.75	1.556476767	9.964914431	
729.375	5.438192673	7.66948974	
730.0	-8.455745375	3.784071437	
730.625	0.687846796	21.47574233	
731.25	5.301192847	-0.05919042297	
731.875	-12.24956939	5.711449526	
732.5	-11.10971499	6.682902317	
733.125	-2.9101894	4.210879123	
733.75	-3.846428059	1.886328559	
734.375	3.304998391	-0.1659774104	
735.0	-0.2667248383	-0.791897083	
735.625	-1.659085542	-0.3592266166	
736.25	1.290697353	1.402299041	
736.875	-0.2397328081	1.077140234	
737.5	3.673526134	0.9187829556	
738.125	4.357688534	-2.60423823	
738.75	0.2261871468	-4.867970042	
739.375	8.138073198	6.160671367	
740.0	15.17688771	-15.85885728	
740.625	-8.960994353	-0.6008981907	
741.25	-1.549153465	19.70891373	
741.875	8.296763952	8.91465545	
742.5	6.817055721	-17.87233736	
743.125	-4.921621281	-8.011408522	
743.75	-0.9405243047	0.5514274721	
744.375	-0.8879549368	-1.628899288	
745.0	0.5609383841	0.6693673521	
745.625	-0.08987907728	0.2093576381	
746.25	-0.1091264825	-0.5165755031	
746.875	-0.3555077207	0.2091670823	
747.5	-0.3409128862	0.8254086117	
748.125	0.9056545554	1.582535934	
748.75	1.03995995	0.6089328596	
749.375	0.1321468494	1.111409217	
750.0	0.0719863045	0.8178188606	
