!Created with skrf (http://scikit-rf.org).
# GHz S RI R (50+0j) 
!freq	ReS11	ImS11	
500.0	0.1676034161	-1.24356645	
500.625	-0.1789230991	-0.7381679778	
501.25	0.01260121851	-0.5979912894	
501.875	-0.560512699	-0.4038630888	
502.5	-0.03485188413	-0.05605795476	
503.125	-0.0915402922	-0.01689447098	
503.75	0.07255803001	0.04505288872	
504.375	0.0122134122	0.01857062833	
505.0	0.02176468287	-0.04919398899	
505.625	0.01275259736	0.01150185333	
506.25	-0.03848819247	-0.129702843	
506.875	0.0009598170042	0.1811097496	
507.5	0.132755204	-0.4382662565	
508.125	-0.1256038313	-0.7146888848	
508.75	0.6003347537	-0.2943016123	
509.375	0.2815162331	-1.540308254	
510.0	-0.5458715062	-0.1571006215	
510.625	-0.0394577253	-0.06499505386	
511.25	-0.1578490134	-0.09349893663	
511.875	-0.09895274452	0.01651265508	
512.5	-0.02855785295	0.02350285831	
513.125	-0.01748086137	-0.09282687517	
513.75	-0.01168344835	0.02090383695	
514.375	-0.03350507922	-0.07955607416	
515.0	-0.07095350311	0.2299482542	
515.625	0.3022614968	-0.5101445981	
516.25	-0.6523807735	0.09533211962	
516.875	0.004476252093	-0.09922373593	
517.5	0.06538129267	-0.2042091291	
518.125	-0.06877390866	0.02770009986	
518.75	0.02362194233	-0.1604974253	
519.375	-0.04552975354	0.06100220596	
520.0	0.07016348537	0.04452156743	
520.625	0.1435467345	0.00336717634	
521.25	-0.04667056592	-0.229467155	
521.875	-0.08490249944	0.05140866737	
522.5	-0.03536488735	-0.0338009606	
523.125	-0.05150421763	0.1358572166	
523.75	0.02453549465	-0.02599543446	
524.375	-0.278943771	0.01350563858	
525.0	0.1062086792	0.09622938792	
525.625	-0.05493783412	0.0357555253	
526.25	0.0664559999	-0.01334008888	
526.875	-0.1122714981	0.02838607104	
527.5	0.06514296531	0.1669551096	
528.125	0.03322428022	0.1113194813	
528.75	0.08417497873	0.2344818216	
529.375	0.1074838863	0.03550302401	
530.0	-0.06259493798	0.08557845789	
530.625	0.04692898636	0.2422220912	
531.25	0.2523207914	0.005137253293	
531.875	0.2737396842	-0.04478558119	
532.5	-0.08649714431	-0.1611796805	
533.125	0.06749914883	0.08154463287	
533.75	0.0757121774	-0.2748405938	
534.375	-0.08869970042	-0.1283623519	
535.0	-0.1388937221	-0.1511118781	
535.625	-0.1649968766	0.1544096894	
536.25	0.0102944512	0.04811863298	
536.875	0.09901075017	0.04292536811	
537.5	0.03707676107	-0.07126219414	
538.125	0.08376670395	0.0005489272176	
538.75	0.1395880791	-0.170413032	
539.375	-0.09006990828	-0.07898383856	
540.0	-0.1254456719	-0.116873073	
540.625	-0.1498042476	-0.04786635388	
541.25	-0.05792419738	0.0390176773	
541.875	-0.02991321514	-0.08701786614	
542.5	-0.07202722529	0.0001260403499	
543.125	-0.001872171377	-0.006801744484	
543.75	-0.1313529351	-0.004639378117	
544.375	0.01040018074	0.02914723309	
545.0	-0.07151103198	0.06368574897	
545.625	0.0934924941	0.02624897835	
546.25	-0.003312541751	0.02712946525	
546.875	0.1603770749	-0.01460105366	
547.5	-0.007984660617	-0.1350746419	
548.125	0.01296381976	-0.1094185558	
548.75	-0.1492040461	-0.1335980861	
549.375	-0.09482460839	-0.003025077827	
550.0	-0.06597171413	-0.04294269533	
550.625	-0.04453398383	0.04896256368	
551.25	-0.05002816809	-0.002940402026	
551.875	-0.08210588375	0.08430062753	
552.5	-0.01008840607	0.07561594546	
553.125	-0.02785967724	0.04949509984	
553.75	0.05280541676	0.03510229601	
554.375	0.07503583135	-0.001274535034	
555.0	0.09690601143	-0.0641403215	
555.625	0.06989152938	-0.1014542727	
556.25	0.05190326629	-0.1228860314	
556.875	-0.03574658947	-0.1450683598	
557.5	-0.09581162932	-0.08891421403	
558.125	-0.1041905236	-0.02725254304	
558.75	-0.09751092879	-0.006506821161	
559.375	-0.1064223158	0.02705221573	
560.0	-0.07011471671	0.07482362452	
560.625	-0.05932990793	0.09326648893	
561.25	0.02723575044	0.113965158	
561.875	0.01366440555	0.01361919675	
562.5	0.02616103552	0.07934828207	
563.125	0.05191866573	0.02950496834	
563.75	0.1319001085	0.03683205504	
564.375	0.1248710563	-0.1283624424	
565.0	0.01357763941	-0.1135867683	
565.625	0.006605665991	-0.1633126908	
566.25	-0.1758448478	-0.07554176288	
566.875	-0.07141360785	-0.05063546523	
567.5	-0.1618603212	-0.128752128	
568.125	-0.1522179005	-0.07126882876	
568.75	-0.1336567478	-0.1468309714	
569.375	-0.2617707383	0.1417533292	
570.0	-0.03331438087	0.1647954974	
570.625	-0.09978351403	0.1150973868	
571.25	0.06640900029	0.1890054808	
571.875	-0.01001222612	0.004360113263	
572.5	0.1805059425	0.02256831378	
573.125	-0.001248905025	-0.1370593654	
573.75	0.09247361383	-0.004212996658	
574.375	0.01579273275	-0.16318251	
575.0	-0.01862023637	0.03955811525	
575.625	0.09669711386	-0.1079310836	
576.25	-0.03902610253	-0.1341546938	
576.875	0.02549764313	-0.05074676836	
577.5	0.05559623116	-0.2203245216	
578.125	-0.1238851909	-0.1227852508	
578.75	0.03296587883	-0.02945738866	
579.375	-0.1011336525	-0.159553772	
580.0	-0.06038098734	0.06901521143	
580.625	-0.05837263663	-0.1358413802	
581.25	-0.06298759103	0.2166762071	
581.875	0.02928833904	0.03524550982	
582.5	-0.03610669048	0.1615824313	
583.125	0.2097997429	0.0699927917	
583.75	-0.06420067693	-0.02939440612	
584.375	0.1115646726	0.1126911779	
585.0	0.04353398398	-0.03560073093	
585.625	0.165794675	0.1050020767	
586.25	0.1485288153	-0.1642383475	
586.875	0.008160085601	-0.05589896793	
587.5	0.05881260715	-0.1586717718	
588.125	-0.08978779866	-0.1485921529	
588.75	0.01520242368	-0.03336961429	
589.375	0.1283510646	-0.1898518851	
590.0	-0.1493028443	-0.1268626394	
590.625	-0.0511629089	-0.07628356556	
591.25	-0.2170889528	0.1331883065	
591.875	0.1429777103	0.07035977134	
592.5	-0.1028963678	0.0217103788	
593.125	0.1102093569	0.03092483592	
593.75	-0.07338270143	0.105497496	
594.375	0.2267488069	0.1345795505	
595.0	0.1580792998	-0.02586285272	
595.625	0.1009142279	0.1408182037	
596.25	0.2252291527	0.04037828247	
596.875	0.06046485074	-0.004365107408	
597.5	0.1075503356	0.1506452724	
598.125	0.1833312714	0.0319297492	
598.75	0.09803501555	0.07801380484	
599.375	0.2349684016	0.01358351083	
600.0	0.1329577648	-0.2065952513	
600.625	0.05460452785	-0.11359069	
601.25	0.1310292039	-0.1668676164	
601.875	-0.1555055516	-0.1427641411	
602.5	-0.02196265748	0.01189885047	
603.125	-0.2322224213	0.02584614904	
603.75	-0.02406987347	0.1415355167	
604.375	-0.1308454066	-0.050663278	
605.0	-0.118270648	0.1633718768	
605.625	0.04468718041	0.03996256326	
606.25	-0.2040003341	0.05906980634	
606.875	-0.05966448449	0.1257536208	
607.5	-0.1206044281	0.09256673843	
608.125	-0.1016776401	0.2658829307	
608.75	0.2625172939	0.1101700717	
609.375	0.2183779443	-0.02414088046	
610.0	0.2183416424	-0.1130473574	
610.625	-0.008729790542	-0.2006103743	
611.25	0.02545158053	-0.06644572753	
611.875	-0.07721909049	-0.1853135035	
612.5	-0.1243559176	0.05459846886	
613.125	-0.1419120737	-0.06157315088	
613.75	-0.1358289732	0.2298192712	
614.375	0.1154726559	0.005971418806	
615.0	0.01862716128	0.1831095758	
615.625	0.1172196707	0.03151459324	
616.25	-0.08973809112	0.0386503201	
616.875	-0.1388580494	0.263329756	
617.5	-0.0533753791	0.1409618699	
618.125	-0.09151857882	0.1493540178	
618.75	0.04509850968	0.2201624436	
619.375	0.1355317688	0.06832435418	
620.0	0.1080062647	0.03746068075	
620.625	0.1231732981	-0.2050792951	
621.25	-0.1877077318	-0.1541856259	
621.875	-0.1543666599	-0.1361200056	
622.5	-0.3241615585	0.05902589913	
623.125	0.04058663271	0.146415156	
623.75	0.05002154369	0.09933626944	
624.375	0.06133207828	-0.1296004927	
625.0	-0.005945003238	0.04624065466	
625.625	0.09537222755	-0.1384636594	
626.25	-0.1110130115	-0.0647836546	
626.875	-0.05689389406	-0.1147716717	
627.5	-0.1916350907	-0.04093920576	
628.125	-0.0812462395	0.008302775656	
628.75	-0.01270690658	-0.1584565672	
629.375	-0.1159595492	-0.144923435	
630.0	-0.1292543469	-0.05588400959	
630.625	-0.2311909321	0.02095893419	
631.25	-0.1140643043	0.2423631315	
631.875	0.04602867882	0.1836257299	
632.5	0.01110884533	0.1759347525	
633.125	0.2700672226	0.004753303032	
633.75	0.07715644078	-0.07798298386	
634.375	0.1719682203	-0.09812561004	
635.0	-0.09822239665	-0.1409812832	
635.625	0.002373453723	-0.06167696251	
636.25	-0.2338758016	0.05666090677	
636.875	0.01928279837	0.1420366726	
637.5	-0.05505268045	-0.003424110845	
638.125	-0.09000783428	0.1802569985	
638.75	-8.29040524e-05	0.06749945029	
639.375	-0.09182249311	0.2507034799	
640.0	0.2136356664	0.2572820615	
640.625	0.1724721675	0.05340649609	
641.25	0.1948676648	0.09159977455	
641.875	0.1588447497	-0.2560503366	
642.5	-0.0673137391	-0.08850500726	
643.125	0.02666079662	-0.1878486037	
643.75	-0.2280236605	0.01313789262	
644.375	-0.04256781482	-0.05514725415	
645.0	-0.3216528037	0.1763119784	
645.625	0.2109805398	0.1793401124	
646.25	-0.02742633581	0.06558289184	
646.875	0.2557634358	0.06763501475	
647.5	-0.1250723381	-0.08751270107	
648.125	0.2313649203	0.1581878599	
648.75	0.1835054679	-0.2416839377	
649.375	0.1098121405	-0.09929551992	
650.0	0.3120756181	-0.3022412559	
650.625	-0.002134521549	-0.3704476184	
651.25	0.112457074	-0.02392744543	
651.875	0.3768338479	-0.1686513199	
652.5	0.1775952472	-0.2262358281	
653.125	0.1618312449	0.03209517344	
653.75	0.3385161114	-0.25273546	
654.375	-0.1855458536	-0.2533169874	
655.0	-0.05658643177	-0.08112419862	
655.625	-0.2954988524	0.2084667387	
656.25	0.2712393589	0.1101385574	
656.875	-0.1179420248	0.04090068766	
657.5	0.1590171479	0.1206797722	
658.125	-0.07097603932	-0.009201819189	
658.75	0.3829660879	0.2754001931	
659.375	0.2708391548	-0.2925775875	
660.0	0.1148384609	-0.1283733035	
660.625	0.2537496431	-0.3230078475	
661.25	0.07160726683	-0.404241694	
661.875	0.09038552907	-0.0399569507	
662.5	0.3700275792	-0.1847733157	
663.125	0.1590342087	-0.2760307303	
663.75	0.1423253208	-0.1320371104	
664.375	-0.0004988477052	-0.4110956278	
665.0	-0.2887031711	-0.08636262643	
665.625	-0.2213638834	-0.0007050243034	
666.25	-0.1816642621	0.3070497802	
666.875	0.2157166813	0.1493949944	
667.5	0.04455447541	0.1166227252	
668.125	0.3011309138	-0.02534265341	
668.75	-0.003845708855	-0.1557726425	
669.375	0.1814508097	-0.1010091003	
670.0	-0.02981177213	-0.3166058699	
670.625	-0.05286468449	-0.04980263176	
671.25	0.1829639637	-0.2482153848	
671.875	0.05515400684	-0.2436506587	
672.5	0.09112459211	-0.06350789198	
673.125	0.3130220832	-0.1228747586	
673.75	0.00836589058	-0.2747288195	
674.375	0.06288317871	-0.1216306259	
675.0	-0.03314478314	-0.3059063842	
675.625	-0.2724429873	-0.06408915417	
676.25	-0.04258084541	-0.08881566949	
676.875	-0.2560688765	-0.02036775898	
677.5	-0.06783367912	0.1083691915	
678.125	-0.1539348874	0.00884809515	
678.75	0.02435686767	0.3674436304	
679.375	0.1852764158	-0.09133984166	
680.0	0.1000251478	0.05878078298	
680.625	0.2080644885	-0.2684615372	
681.25	-0.110038912	-0.04284836878	
681.875	0.3755899898	0.2384186186	
682.5	0.2617091836	-0.1592522804	
683.125	0.06494506289	0.07089667684	
683.75	0.3202309368	0.2145154691	
684.375	0.2146193713	-0.2164594611	
685.0	0.08467620403	0.1970508329	
685.625	0.4501860502	0.06001544543	
686.25	0.1984018952	-0.1053399882	
686.875	0.2259360007	0.02000262585	
687.5	0.3959974593	-0.4009704019	
688.125	-0.1909233124	-0.2705402605	
688.75	-0.3040715864	-0.2381249185	
689.375	-0.3664774373	0.3481976882	
690.0	0.2413478621	0.2487284482	
690.625	0.01419663323	0.3215357447	
691.25	0.542493587	0.2266942099	
691.875	0.2850673409	0.1184295425	
692.5	0.6428884302	0.5112365228	
693.125	0.7606428424	-0.2396169895	
693.75	0.2907619323	-0.1928624777	
694.375	0.5954508879	-0.3596292853	
695.0	0.2791708367	-0.4345717968	
695.625	0.428342228	0.1279683226	
696.25	0.5692657594	0.3253369209	
696.875	0.4794191063	0.2129094416	
697.5	0.2125606691	0.3507770321	
698.125	0.4366601616	0.185662375	
698.75	0.3946160246	-0.4986377183	
699.375	-0.3466037462	-0.2675269056	
700.0	-0.3430916655	0.232584828	
700.625	0.2641763015	0.2557070491	
701.25	0.06759942281	0.1245614077	
701.875	0.2821548428	0.3645202292	
702.5	0.3690338846	0.0276970773	
703.125	0.2541077482	0.246875434	
703.75	0.4898745106	-0.08431064781	
704.375	0.1546229349	-0.3038352608	
705.0	0.2094697194	0.01582838939	
705.625	0.2981852683	-0.09523709924	
706.25	0.1542203534	0.04594224101	
706.875	0.1170899978	0.3429406523	
707.5	0.2004006375	0.2464779543	
708.125	0.3116113455	0.05680981949	
708.75	0.2256169352	-0.2775346209	
709.375	-0.2723605812	-0.3010187282	
710.0	-0.09757197448	0.3091702783	
710.625	-0.09103937773	0.1561452414	
711.25	0.3346132441	0.1450716372	
711.875	0.05920686193	0.1326953726	
712.5	0.4009100289	0.08605337384	
713.125	0.1860771793	-0.2753338099	
713.75	0.1192177624	-0.07983523312	
714.375	0.07536777809	-0.3018542201	
715.0	-0.1276290661	-0.149593843	
715.625	0.0936664872	-0.1057588527	
716.25	0.1828186943	-0.3044225111	
716.875	0.1215173021	-0.2182655938	
717.5	0.4083871176	0.1215299371	
718.125	0.664701664	0.07979251813	
718.75	0.4124654894	-0.2542703966	
719.375	0.2097205071	-0.1576090936	
720.0	0.4252865165	-0.8752506591	
720.625	0.1119881683	-0.4604691579	
721.25	0.2112460315	-0.9447918221	
721.875	-0.5040820428	-1.07387333	
722.5	-0.422947766	-0.3198006341	
723.125	-0.6510739749	-0.5650347455	
723.75	-0.3381864169	0.580850486	
724.375	0.07987711598	0.133431775	
725.0	0.005814578141	0.4778318131	
725.625	0.3656778479	0.2994659747	
726.25	-0.1006091135	0.3854678989	
726.875	-0.2052171918	1.016019198	
727.5	0.3146720366	1.220515806	
728.125	-0.1812681588	1.006739616	
728.75	-0.7794264275	2.819925241	
729.375	0.3040549117	3.362704139	
730.0	0.5966864573	1.903010876	
730.625	-1.436830724	4.170490192	
731.25	0.9759300647	3.112432311	
731.875	-1.961396807	1.017876776	
732.5	-4.054346556	0.1081314097	
733.125	-1.735673958	1.348756492	
733.75	-0.9150471343	0.5547799623	
734.375	0.9995969684	0.6076800381	
735.0	-0.4362868833	-0.2564415589	
735.625	-0.2558419604	-0.1927099309	
736.25	-0.07390818324	0.7561275983	
736.875	0.4423428823	0.09466222688	
737.5	0.6953997078	0.848890029	
738.125	1.758743253	-0.733148164	
738.75	0.6090356175	-1.281128799	
739.375	1.653063333	0.1952294595	
740.0	5.229289075	-2.896454059	
740.625	-0.3883213957	-2.27250267	
741.25	-2.00277073	3.306900612	
741.875	-4.072578367	3.969448209	
742.5	0.5168178745	-0.7847918703	
743.125	0.6524405058	-2.453196864	
743.75	-0.5176886993	-1.065616635	
744.375	0.009436170444	0.1031036896	
745.0	-0.1084029988	0.266177506	
745.625	-0.06614099779	-0.05825943401	
746.25	0.078226949	-0.1644735863	
746.875	-0.2425109486	0.07499665198	
747.5	-0.01255291724	0.2146117805	
748.125	-0.06398816626	0.4957012444	
748.75	0.3509169454	0.4138085721	
749.375	0.1042707959	0.2565520781	
750.0	-0.3629809959	0.2540403498	
