!Created with skrf (http://scikit-rf.org).
# GHz S RI R (50+0j) 
!freq	ReS11	ImS11	
500.0	0.2264530853	-3.717074634	
500.625	-0.8760591824	-2.862590595	
501.25	-0.3489929688	-1.10499035	
501.875	-0.65713205	-2.741310509	
502.5	-0.4719545799	-0.01756367508	
503.125	-0.1791686499	-0.09762958962	
503.75	0.2742364497	0.3522850939	
504.375	-0.005152080292	0.05510978842	
505.0	0.08721727258	-0.2117100568	
505.625	0.0297291781	0.1197628492	
506.25	-0.2868686992	-0.6651363599	
506.875	0.3074241256	0.6986170909	
507.5	0.8324405025	-1.163226345	
508.125	-0.1147948427	-2.958298523	
508.75	-0.5987051467	-1.473762585	
509.375	1.120091386	-5.296985448	
510.0	-1.644742612	0.6285236786	
510.625	0.04241773996	-0.5389968329	
511.25	-0.8919302	0.273045623	
511.875	-0.1646762854	-0.09668602684	
512.5	-0.09261132002	0.1587343998	
513.125	-0.02163890675	-0.3694459361	
513.75	-0.3525588491	0.05706947966	
514.375	0.06541902032	-0.261912509	
515.0	-1.163441477	-0.09913639824	
515.625	1.700333715	-1.662647336	
516.25	-3.539114222	-1.815201712	
516.875	0.5614828488	0.08146184239	
517.5	-0.04854874729	-1.236980077	
518.125	-0.02729815909	0.3235333029	
518.75	-0.1492308046	-0.9363676793	
519.375	-0.06921867879	0.2486828414	
520.0	0.160276565	0.1724388231	
520.625	0.6459931853	-0.1569976345	
521.25	-0.3823432286	-0.6158089846	
521.875	-0.1642973391	-0.2339633741	
522.5	-0.2010144987	0.1708330335	
523.125	-0.1449863559	-0.05530564653	
523.75	-0.1923019641	0.2284139699	
524.375	-0.3920069138	-0.2291137289	
525.0	0.13835918	0.6473441545	
525.625	-0.05372562301	-0.08811363126	
526.25	0.1097313497	0.085507656	
526.875	-0.2906443452	-0.01617330875	
527.5	0.06597211682	0.8379356559	
528.125	0.1245099055	0.2830881969	
528.75	-0.2604151018	0.9124301055	
529.375	0.1918016829	-0.06026050076	
530.0	0.131439753	0.8652148981	
530.625	0.258262765	0.2661300089	
531.25	1.286361661	0.7516896674	
531.875	0.1391764391	-0.9019202344	
532.5	0.1856459956	-0.2362315989	
533.125	-0.3190687061	-0.2035390725	
533.75	0.5916073053	-0.5408093945	
534.375	-0.879594763	-0.4686476442	
535.0	-0.2583323163	-0.3518487774	
535.625	-0.6639862794	0.4524450439	
536.25	0.1220515701	0.1666013865	
536.875	0.1821847633	0.1614339216	
537.5	0.2067952381	-0.204543775	
538.125	0.1160738935	-0.007913888783	
538.75	0.5147095991	-0.4205525389	
539.375	-0.2422102701	-0.1919766239	
540.0	-0.2122540719	-0.4722964599	
540.625	-0.5763142774	-0.01103889083	
541.25	-0.1103302535	0.08116451306	
541.875	-0.05713280648	-0.07459004837	
542.5	-0.2115075642	-0.1809832685	
543.125	-0.09754763366	0.1008488432	
543.75	-0.2513864705	-0.1745826932	
544.375	0.03369688942	0.2741299752	
545.0	-0.1816552975	0.0613464652	
545.625	0.3258654844	0.1378401951	
546.25	-0.04878398144	0.05571802309	
546.875	0.6048143198	-0.04255678107	
547.5	-0.1133988131	-0.2664403338	
548.125	0.1109081649	-0.3233676487	
548.75	-0.4042707967	-0.410656366	
549.375	-0.2667882914	0.03584562158	
550.0	-0.1694183427	-0.1625263931	
550.625	-0.1126422194	0.1659501075	
551.25	-0.1708294173	-0.06998010528	
551.875	-0.211471543	0.3036120271	
552.5	-0.02152598237	0.108281366	
553.125	-0.08397517423	0.1770634107	
553.75	0.1421448773	0.09770609472	
554.375	0.1967568409	0.005298697442	
555.0	0.2473229424	-0.1685099952	
555.625	0.1805337577	-0.2678069968	
556.25	0.1475176018	-0.3307226051	
556.875	-0.09068143827	-0.3901401495	
557.5	-0.240746468	-0.2378410291	
558.125	-0.2577757121	-0.08127334363	
558.75	-0.2525288816	-0.02929243967	
559.375	-0.2762983204	0.07893272736	
560.0	-0.1715492792	0.1571032807	
560.625	-0.1711551557	0.238876817	
561.25	0.08343565063	0.273439445	
561.875	-0.01651462337	0.04894180012	
562.5	0.1344511499	0.1699961931	
563.125	0.0334949598	0.1407602434	
563.75	0.4416750059	0.04879806838	
564.375	0.1662028992	-0.3444966385	
565.0	0.1918209754	-0.1708578522	
565.625	-0.04972057233	-0.4871893692	
566.25	-0.3470070878	-0.1403999079	
566.875	-0.1658361445	-0.1940063744	
567.5	-0.4483979333	-0.3631624129	
568.125	-0.3206713168	-0.1574220044	
568.75	-0.5115859064	-0.4204290875	
569.375	-0.5682828262	0.4272164899	
570.0	-0.1728284764	0.2553367936	
570.625	-0.4484409847	0.4561074162	
571.25	0.3652854843	0.3541601247	
571.875	-0.2166323008	0.2343896305	
572.5	0.6035736499	-0.1129937387	
573.125	-0.1090533853	-0.1298186346	
573.75	0.4304286666	-0.1637988701	
574.375	-0.236915655	-0.3429222492	
575.0	0.2282995814	0.1666740095	
575.625	0.00678222971	-0.4483671131	
576.25	-0.08532284841	0.02418166858	
576.875	0.2872215574	-0.4811815275	
577.5	-0.2036751581	-0.5269282937	
578.125	-0.1290817172	-0.1236131414	
578.75	0.002103562399	-0.3935803145	
579.375	-0.4345160086	-0.2116004515	
580.0	0.08691035787	0.07847246829	
580.625	-0.3517813862	-0.2132824759	
581.25	0.009506524064	0.2903234227	
581.875	-0.228286258	0.1421496901	
582.5	0.1013689486	0.7000303667	
583.125	0.4473933863	-0.1564701575	
583.75	-0.2881007353	0.2620692423	
584.375	0.4949462063	-0.09591216392	
585.0	-0.1518009844	0.3171585871	
585.625	0.7252900266	-0.09288111127	
586.25	-0.002819776419	-0.2364325877	
586.875	0.4880981605	-0.139662581	
587.5	-0.2722744262	-0.5255667503	
588.125	-0.030397555	0.002727712739	
588.75	0.3623234326	-0.39184845	
589.375	0.03813746065	-0.5683902099	
590.0	-0.006175121352	-0.2138048436	
590.625	-0.4424441095	-0.286388455	
591.25	-0.2242366804	0.4115318815	
591.875	-0.0870968358	0.1117282828	
592.5	-0.005363022758	0.2530222319	
593.125	-0.08407963595	-0.06405887197	
593.75	0.1357990862	0.4850990315	
594.375	0.4908611555	0.02971788369	
595.0	0.04854892041	0.1025323471	
595.625	0.4476385507	0.6437683258	
596.25	0.4951321547	-0.3301435529	
596.875	0.0789550914	0.3731150805	
597.5	0.6883748973	0.1747775943	
598.125	0.03634326617	0.03804427294	
598.75	0.6763046989	0.5316732078	
599.375	0.2970947938	-0.3531950504	
600.0	0.392072868	-0.06520627957	
600.625	0.5165931234	-0.4811753369	
601.25	-0.002440866672	-0.5244646872	
601.875	-0.05406747171	-0.2294750976	
602.5	-0.3256476303	-0.05695557671	
603.125	-0.2976058069	0.1121338951	
603.75	-0.125839007	0.1501809532	
604.375	-0.285193373	0.06264708553	
605.0	-0.1434611988	0.2904577747	
605.625	-0.1318676962	-0.04059961645	
606.25	-0.3777926984	0.3212961805	
606.875	-0.09815116227	0.09455241656	
607.5	-0.7736507663	0.2965706288	
608.125	0.3832559718	0.7068900126	
608.75	0.01757250696	0.3152781371	
609.375	0.9109301551	-0.0662060592	
610.0	-0.02028190788	-0.2992827743	
610.625	0.5451256847	-0.2871195962	
611.25	-0.2586554112	-0.412011587	
611.875	0.1205650096	-0.258525249	
612.5	-0.6446741752	-0.1547092348	
613.125	-0.1031650917	-0.05827967082	
613.75	-0.4261600036	0.4026503008	
614.375	0.2523975177	0.1207872567	
615.0	-0.06090309038	0.3610187892	
615.625	0.2218992216	-0.09262217547	
616.25	-0.3678774741	0.3038871564	
616.875	-0.02493976196	0.7044800765	
617.5	-0.09664728217	0.1292449406	
618.125	-0.1662161379	0.7740909742	
618.75	0.3053006531	0.3247353632	
619.375	-0.04383463417	0.3869167691	
620.0	0.5962370817	0.008162433792	
620.625	0.2362259444	-0.2073377757	
621.25	-0.25123966	-0.5228229752	
621.875	-0.3956911407	-0.08672983553	
622.5	-0.563908885	0.04363771313	
623.125	0.09858026806	0.358839262	
623.75	0.1750519406	0.2270529993	
624.375	0.09181216525	-0.3665644357	
625.0	0.1696025239	0.2842743414	
625.625	0.03825501151	-0.6312165149	
626.25	0.03426349653	0.0832301634	
626.875	-0.3641223574	-0.5196610324	
627.5	-0.4135896742	0.1824296848	
628.125	0.05723515546	-0.2352878428	
628.75	-0.5080092867	-0.3796558375	
629.375	-0.005155599786	-0.1312943429	
630.0	-0.4800704838	-0.4463081539	
630.625	-0.558258957	0.3366089803	
631.25	-0.1259755408	0.3240165611	
631.875	-0.2104300871	0.546280664	
632.5	0.3621834343	0.4980571889	
633.125	0.5183445952	0.02059103729	
633.75	0.2225712312	-0.05249003379	
634.375	0.2383836996	-0.499089374	
635.0	-0.05297830908	-0.1383909201	
635.625	-0.3586507993	-0.3800924522	
636.25	-0.3139720478	0.3623141701	
636.875	-0.09273782068	-0.04015695772	
637.5	-0.2983016956	0.5757842351	
638.125	0.2469008545	-0.01317310111	
638.75	-0.5911276753	0.2602325868	
639.375	0.2643695324	0.8582706294	
640.0	0.3829192766	0.1953979092	
640.625	0.3434833083	0.6443708398	
641.25	0.8738444986	-0.2625814605	
641.875	0.1692239187	-0.1355837481	
642.5	0.2223367108	-0.8488016212	
643.125	-0.4686439312	0.1921557815	
643.75	0.00488532273	-0.3784622336	
644.375	-0.7724829351	0.06766016156	
645.0	-0.06394778062	0.4612572706	
645.625	-0.04013316697	0.1898907808	
646.25	0.4835203802	0.5737727139	
646.875	0.1804922215	-0.4480579968	
647.5	0.004340485132	0.4508400299	
648.125	0.5825259243	-0.3058021932	
648.75	0.1852416942	0.3619190784	
649.375	0.9711733904	-0.9124488989	
650.0	-0.2489435895	-0.8325015675	
650.625	0.4807910067	0.04048570072	
651.25	1.039357811	-1.084645902	
651.875	-0.215135977	-0.662615446	
652.5	0.6754030828	0.3540234787	
653.125	0.9265072959	-0.6976263386	
653.75	-0.06845183042	-0.325863967	
654.375	0.3540594974	-0.9393764156	
655.0	-1.027223925	0.0994851318	
655.625	0.02542081015	0.2903016951	
656.25	-0.3981670539	0.437063283	
656.875	0.5828051727	0.2267709811	
657.5	-0.3692893257	0.1155938075	
658.125	0.6091035786	0.5502653119	
658.75	0.6050988305	-0.08915684355	
659.375	0.5194383921	-0.06357546531	
660.0	0.9093946821	-0.9600663552	
660.625	-0.221938045	-0.6942176824	
661.25	0.5597479733	-0.2988311132	
661.875	0.7746899956	-0.8972264884	
662.5	0.04556543093	-0.8062843515	
663.125	0.6314435717	0.1786287445	
663.75	0.360458958	-1.22050141	
664.375	-0.2570179647	-0.2586089668	
665.0	-0.4875768295	-0.8939484743	
665.625	-0.688156415	0.7317331551	
666.25	-0.2649392206	0.1677472802	
666.875	0.2490249531	0.7696877051	
667.5	0.6143226688	-0.02791066324	
668.125	0.1335579681	0.03252996105	
668.75	0.7826446053	-0.2759404838	
669.375	-0.05654985329	-0.6391038921	
670.0	0.05868504317	-0.2992927584	
670.625	0.1166237253	-0.6145461311	
671.25	-0.1768928016	-0.3242047258	
671.875	0.5560504551	-0.338582106	
672.5	0.3913461573	-0.5432643197	
673.125	0.2030276983	-0.3833003973	
673.75	0.5164641651	-0.1527253178	
674.375	0.1576855153	-1.179859219	
675.0	-0.5388595166	0.05906939843	
675.625	-0.07430695707	-0.7305084052	
676.25	-0.8400952649	0.1966164403	
676.875	0.2751377049	-0.07771853502	
677.5	-0.9600907152	0.1795855343	
678.125	0.259898216	0.1986985654	
678.75	-0.3615290802	0.5573915893	
679.375	1.003095922	0.1719676567	
680.0	-0.1355819744	-0.4331272236	
680.625	0.3487605702	0.1761917334	
681.25	0.4020731786	-0.2802113862	
681.875	0.1300880465	-0.08921376608	
682.5	0.3539450391	0.4377546147	
683.125	0.8913947643	0.04724137606	
683.75	0.3897220075	0.04229024711	
684.375	0.5201250201	0.3332607973	
685.0	1.024239467	-0.2062238289	
685.625	0.0353917063	0.04987155804	
686.25	1.325912324	0.1132729587	
686.875	0.1972995021	-1.043513556	
687.5	0.6000031104	0.09212475136	
688.125	-0.012583473	-1.910473435	
688.75	-0.7827345713	0.6058703947	
689.375	-1.213711484	0.1369386934	
690.0	0.8701865668	1.082429604	
690.625	-0.03138360923	0.2117029522	
691.25	1.224997441	1.090014976	
691.875	0.9182276928	0.1598600641	
692.5	1.202714315	0.6595812758	
693.125	1.665180662	-0.1208474063	
693.75	1.139884144	-0.7056011678	
694.375	0.9699636771	-0.9318445201	
695.0	0.8098105887	-0.6243957714	
695.625	1.42781807	-0.1467263893	
696.25	1.068530629	-0.2313991542	
696.875	0.5826453572	1.151477781	
697.5	1.763325813	0.8420695555	
698.125	0.6007963474	0.2419997103	
698.75	1.67621509	-1.262904185	
699.375	-1.627610857	-0.2767450281	
700.0	-0.6968408693	-0.008622827368	
700.625	0.7973289415	1.189284518	
701.25	0.08894573161	0.04607995027	
701.875	0.7734898639	1.104110615	
702.5	0.8112393271	-0.03756977131	
703.125	0.8144950586	0.6353558073	
703.75	1.06900152	-0.6235057508	
704.375	0.2734150596	-0.1990570018	
705.0	1.052033169	-0.5399705668	
705.625	0.1594504281	-0.2763311563	
706.25	0.5074036058	0.8914377415	
706.875	1.243468865	0.1824264147	
707.5	0.1049374671	0.6896696802	
708.125	1.561816795	0.30928304	
708.75	0.01385582954	-0.9948998974	
709.375	-0.3956764396	-0.9701943319	
710.0	-0.4000950101	1.039391303	
710.625	0.03044792022	0.0134005201	
711.25	0.4072037495	0.48448484	
711.875	0.4580822431	0.1679941224	
712.5	0.772079997	-0.1366036647	
713.125	0.4178283945	-0.3743863121	
713.75	0.5292718751	-0.5751256895	
714.375	-0.375360446	-0.6414044069	
715.0	0.2899812578	-0.1984930292	
715.625	-0.2625991411	-0.9597697463	
716.25	0.08754495804	0.008664871153	
716.875	1.564299943	-0.3190058879	
717.5	0.8568882406	-1.607516236	
718.125	0.6175344147	1.585284896	
718.75	3.410627393	-1.285014091	
719.375	0.3289357084	-1.592647258	
720.0	2.479877361	-0.771410509	
720.625	-0.3542436029	-4.062576705	
721.25	-0.03344468954	-0.963233774	
721.875	-0.5522991266	-3.262075925	
722.5	-2.603941728	-1.554756023	
723.125	-1.036292047	-0.08115672439	
723.75	-1.514550778	1.212862317	
724.375	0.6132340886	1.08864083	
725.0	0.3552322362	0.5910485133	
725.625	0.09469383782	1.075347302	
726.25	0.5354579787	2.380535604	
726.875	0.4650490678	0.8071491217	
727.5	-1.501024366	4.077510758	
728.125	2.877045319	6.132661345	
728.75	-0.05080284007	1.251728265	
729.375	-7.457523336	15.21236909	
730.0	9.407718534	6.275349591	
730.625	-5.628249118	3.229372516	
731.25	-4.685785285	19.25441688	
731.875	5.826832907	7.747331428	
732.5	-9.055345569	-2.14483071	
733.125	-7.676238414	4.046764195	
733.75	-0.1751036871	3.672842831	
734.375	1.14982688	2.042985008	
735.0	-1.324878422	-2.131025012	
735.625	-0.352376805	-0.06711346237	
736.25	-0.6848800235	1.470920076	
736.875	1.998456257	1.442519191	
737.5	1.705423577	-1.162451165	
738.125	3.63915577	1.380454398	
738.75	7.016569726	-5.245409273	
739.375	0.6366411825	-7.671947505	
740.0	8.863107686	8.541644839	
740.625	21.6855771	-11.30045464	
741.25	-10.14561404	-4.805440139	
741.875	-24.05894658	10.10267355	
742.5	-3.673589403	6.556925874	
743.125	8.680444649	-2.762493414	
743.75	-1.688647584	-4.94569208	
744.375	-0.6449564788	0.9998931296	
745.0	-0.2367480564	0.189108718	
745.625	0.2379147775	-0.3492255997	
746.25	0.2264372066	-0.236727676	
746.875	-1.110990724	0.0169461001	
747.5	0.2163359348	0.69688612	
748.125	0.04658481775	1.340892449	
748.75	0.7987478637	1.378775704	
749.375	0.5840724326	0.4185944299	
750.0	-0.3331138335	-0.1623821314	
