!Created with skrf (http://scikit-rf.org).
# GHz S RI R (50+0j) 
!freq	ReS11	ImS11	
500.0	-0.2932274112	-0.8526764172	
500.625	0.7205192904	-0.4982915484	
501.25	-0.4273871188	-0.6977408334	
501.875	-0.1209747754	-0.1987275738	
502.5	0.04133029135	-0.2026025865	
503.125	-0.06543274805	0.02564844928	
503.75	-0.02379275533	0.03067492113	
504.375	0.04688060694	-0.007129460228	
505.0	-0.00509358062	0.007268758834	
505.625	0.04116359935	-0.07231027782	
506.25	-0.1306549519	-0.02256074397	
506.875	0.005965490409	-0.1877383579	
507.5	-0.3015912668	-0.4716738851	
508.125	0.2139576884	-0.1509699672	
508.75	1.214205327	-0.5154363106	
509.375	0.0782641449	-1.063759917	
510.0	-0.08631009311	-0.2310025053	
510.625	-0.019814403	-0.3075715709	
511.25	-0.07788323448	-0.01239232703	
511.875	-0.06208278342	-0.1198713545	
512.5	-0.03655863675	0.06555386028	
513.125	-0.01570018756	-0.02403267632	
513.75	0.01044998604	-0.08350143081	
514.375	-0.1340028223	0.1022986909	
515.0	0.2913587283	-0.0460705081	
515.625	-0.1636666017	-0.6160447601	
516.25	0.1595655224	-0.1693048449	
516.875	-0.02639541803	-0.751561791	
517.5	-0.1024915799	-0.212683815	
518.125	0.06244502615	-0.005513646718	
518.75	-0.06681515295	-0.186337644	
519.375	-0.04707794478	-0.001543218581	
520.0	0.04480237469	0.1209662481	
520.625	0.2044845197	-0.04106771356	
521.25	-0.0501921475	-0.1710889314	
521.875	-0.05341212616	-0.03771622197	
522.5	-0.1135829699	0.01646544804	
523.125	0.05549557455	-0.06840328146	
523.75	-0.1881913934	-0.09702174028	
524.375	-0.05302304064	0.1112886891	
525.0	-0.1419945463	-0.03013928838	
525.625	0.01489135699	0.1447588542	
526.25	-0.03048606022	-0.09744761177	
526.875	-0.06472020285	0.08346490103	
527.5	-0.06363800288	0.05349550004	
528.125	-0.2190173089	0.2394135297	
528.75	-0.0126735576	0.3462257849	
529.375	-0.007520993859	0.05176343832	
530.0	-0.03776683801	0.3431240807	
530.625	0.03116061542	0.2076690088	
531.25	0.117949623	0.2297982154	
531.875	0.3638460821	-0.1541713063	
532.5	-0.03618012025	0.03578907417	
533.125	0.1630765353	-0.1227220577	
533.75	0.02281591437	-0.04810550477	
534.375	0.1575887611	-0.2682634861	
535.0	-0.2462211813	-0.1474319191	
535.625	-0.1028390654	0.0124323712	
536.25	-0.07284599828	0.07439720712	
536.875	0.09578369093	0.03149307952	
537.5	0.03547549617	0.02596865459	
538.125	0.1687831375	0.009176389647	
538.75	0.1042159883	-0.05611268742	
539.375	0.06858571817	-0.1333538025	
540.0	-0.104825181	-0.2379915365	
540.625	-0.1115230832	-0.02795074118	
541.25	-0.02041279412	-0.01805184169	
541.875	-0.08280883012	-0.0254951239	
542.5	0.0454033708	-0.04840741915	
543.125	-0.0804248412	-0.1085799022	
543.75	-0.06551414948	0.05783153375	
544.375	-0.07467572226	-0.04408857864	
545.0	0.01244866287	0.08838961586	
545.625	-0.02397598197	0.03149084168	
546.25	0.08956144935	0.1146804127	
546.875	0.09463251011	-0.04547477169	
547.5	0.1241401826	-0.01791763645	
548.125	0.03026691851	-0.1940450389	
548.75	-0.07264823007	-0.08009062004	
549.375	-0.0103290182	-0.120713213	
550.0	-0.1034379094	-0.01405271881	
550.625	-0.005562454476	-0.01795751121	
551.25	-0.1047438203	-0.01235025803	
551.875	-0.06156336751	0.04539880807	
552.5	-0.08477528217	0.01997318795	
553.125	-0.03606582119	0.06006160724	
553.75	0.008949187882	0.04436235719	
554.375	0.08286003695	0.04722191818	
555.0	0.0987169837	-0.02111282649	
555.625	0.1122154488	-0.04199016408	
556.25	0.1195137604	-0.07739549987	
556.875	0.04458603842	-0.139963258	
557.5	-0.02415715662	-0.123477408	
558.125	-0.06762219297	-0.08661343493	
558.75	-0.08826634084	-0.05344293189	
559.375	-0.08724782174	-0.02906499615	
560.0	-0.1140304648	0.005425728876	
560.625	-0.08920402135	0.07898869643	
561.25	-0.02661805904	0.06019611979	
561.875	-0.01246219861	0.07311650042	
562.5	0.01038529235	0.02369868891	
563.125	0.001637805412	0.1057954001	
563.75	0.1421998769	0.03795683776	
564.375	0.09614450051	-0.02389956664	
565.0	0.1625871714	-0.08649994962	
565.625	-0.004259694584	-0.1542354013	
566.25	-0.007186339326	-0.1043965499	
566.875	-0.08976634333	-0.2094891467	
567.5	-0.1020929418	-0.07880040875	
568.125	0.03292815579	-0.1965821223	
568.75	-0.1950724019	-0.191663414	
569.375	-0.1343587996	0.007566838297	
570.0	-0.2177014702	0.0305677722	
570.625	-0.1245115068	0.1715552728	
571.25	-0.01504598804	0.02479316502	
571.875	-0.0170264957	0.1703606346	
572.5	0.0907877131	-0.03235243209	
573.125	0.1192787354	0.03757773925	
573.75	0.1389190811	-0.1321704755	
574.375	-0.05129955374	-0.0224166819	
575.0	0.1174515775	0.01120927418	
575.625	-9.408116841e-05	-0.08383514983	
576.25	0.09145170667	0.01751083221	
576.875	0.09643539201	-0.1830551658	
577.5	-0.01928115537	-0.1166009069	
578.125	0.08701238977	-0.0744178039	
578.75	0.001623260255	-0.2227539082	
579.375	-0.1506560934	0.04767047342	
580.0	0.08892714492	-0.0792274541	
580.625	-0.1217558743	-0.02761383952	
581.25	-0.01109689373	-0.02330513541	
581.875	-0.1800515887	0.1691731783	
582.5	0.06941937379	0.1775303702	
583.125	-0.004122019733	0.005802374647	
583.75	0.02037895494	0.128349254	
584.375	0.01389635844	-0.04629234481	
585.0	0.03277828704	0.1939536802	
585.625	0.1855870043	0.01752260017	
586.25	0.05815896393	0.0049239971	
586.875	0.1805127552	-0.04315568335	
587.5	-0.007655586941	-0.1697742578	
588.125	0.06008209823	-0.03249720614	
588.75	0.1649966296	-0.1308988817	
589.375	0.02844558736	-0.1430732144	
590.0	0.1170479389	-0.08249852989	
590.625	-0.2052355543	-0.1406102814	
591.25	-0.06169676069	0.08205516968	
591.875	-0.1115836252	-0.001901511408	
592.5	0.0328843729	0.1679428978	
593.125	-0.04890228689	-0.06569254948	
593.75	0.02226010658	0.2083686848	
594.375	0.05968700354	0.05457156304	
595.0	-0.00782833967	0.1697386383	
595.625	0.1390023432	0.2004660258	
596.25	0.06643729915	0.02151614122	
596.875	0.06082887931	0.1812144883	
597.5	0.1130018592	0.07945740926	
598.125	0.01272129368	0.09007824548	
598.75	0.09015647049	0.2065247767	
599.375	0.1977436942	0.003465950018	
600.0	0.1269098065	-0.005824715171	
600.625	0.2451378699	-0.0713129393	
601.25	0.09146814719	-0.1937092505	
601.875	0.03372694799	-0.04015075208	
602.5	-0.1736925754	-0.1400095252	
603.125	-0.07150438913	0.06576103612	
603.75	-0.08421604425	-0.07076983126	
604.375	-0.1921965826	0.05789020311	
605.0	-0.01482706671	-0.1075759416	
605.625	-0.1529281372	-0.0334344379	
606.25	-0.120842395	0.08637530278	
606.875	-0.104378687	-0.06314918574	
607.5	-0.2652363638	0.05351871437	
608.125	-0.09455670303	0.1854858024	
608.75	-0.01340257088	0.1626114361	
609.375	0.2599881606	0.1250057178	
610.0	0.2385809601	-0.04980049615	
610.625	0.1057770739	-0.009399776405	
611.25	0.1081441403	-0.2221421384	
611.875	-0.06534791339	-0.05029679045	
612.5	-0.02051083508	-0.1806226427	
613.125	-0.2744324858	-0.01793607955	
613.75	-0.0196820104	0.05509418773	
614.375	-0.1173544219	0.1140707078	
615.0	0.1199593331	0.06800705052	
615.625	-0.1206326711	0.05307780433	
616.25	-0.07256594333	0.1645521555	
616.875	-0.03334529846	0.1053921915	
617.5	-0.1913220695	0.07168048052	
618.125	-0.1380460828	0.2058014211	
618.75	0.0002935907144	0.1434521665	
619.375	-0.08612726815	0.1633975898	
620.0	0.1747290342	0.1541951025	
620.625	0.07519254172	-0.05598254715	
621.25	0.06968537016	-0.216842733	
621.875	-0.2155296276	-0.1443427145	
622.5	-0.1055740831	0.001784119813	
623.125	-0.1939700139	0.0877763305	
623.75	0.1723258627	0.07889455922	
624.375	-0.02646604502	-0.01166089873	
625.0	0.1236425381	-0.03342117867	
625.625	0.02070552873	-0.04940172026	
626.25	0.08076475139	-0.127874769	
626.875	-0.1439688169	-0.1504034233	
627.5	-0.06532904791	-0.02595280847	
628.125	-0.02856629332	-0.1278341269	
628.75	-0.05549470804	-0.1394419474	
629.375	0.03970376636	-0.08735623152	
630.0	-0.06627726493	-0.2103920202	
630.625	-0.2956585797	-0.06458758527	
631.25	-0.1070495632	0.06560117453	
631.875	-0.1883962788	0.2140854433	
632.5	0.09767781371	0.2246089724	
633.125	0.07271912895	0.04822427513	
633.75	0.2249889654	0.07188352802	
634.375	0.024945688	-0.1231074152	
635.0	0.1048055262	-0.06229565986	
635.625	-0.1315550108	-0.1840531238	
636.25	-0.128250402	0.05355079756	
636.875	-0.09718798542	-0.01859128664	
637.5	-0.08818472915	0.1459332581	
638.125	-0.01550357456	-0.01712914725	
638.75	-0.213445452	0.08657876382	
639.375	-0.03744285417	0.2437461971	
640.0	-0.04698869042	0.1473796993	
640.625	0.1032282772	0.2887739271	
641.25	0.2802215724	0.03441414254	
641.875	0.1222495763	-0.03351421226	
642.5	0.1732514514	-0.2432903342	
643.125	-0.1684213683	-0.1113221811	
643.75	0.1017556218	-0.03504818982	
644.375	-0.2714757625	-0.1316460695	
645.0	-0.05770467514	0.1052584641	
645.625	-0.174253061	0.08594773003	
646.25	0.2541262319	0.2656535255	
646.875	0.001645535127	-0.09111851457	
647.5	0.03601479521	0.1706390244	
648.125	0.1485012408	0.009391583518	
648.75	0.09943183807	0.182628485	
649.375	0.4727455874	-0.08181682914	
650.0	0.1328494856	-0.2165811567	
650.625	0.2362472841	-0.0171468951	
651.25	0.3747394785	-0.1648746288	
651.875	0.1399349629	-0.1924398327	
652.5	0.1983852585	0.1470491302	
653.125	0.3667777211	-0.09202128162	
653.75	0.09539437845	-0.1419098373	
654.375	0.1856792294	-0.2346656	
655.0	-0.34596888	-0.160440681	
655.625	-0.07540042236	0.1536350721	
656.25	-0.1475815173	0.08492468806	
656.875	0.1961402331	0.2462865649	
657.5	-0.169229808	-0.0843945098	
658.125	0.05543113831	0.3068509839	
658.75	0.2197199465	0.09164952359	
659.375	0.1820866506	0.1758823381	
660.0	0.4520058502	-0.07647243812	
660.625	0.143927048	-0.247837642	
661.25	0.2385855883	-0.007666223538	
661.875	0.3732176633	-0.1280496034	
662.5	0.2175407472	-0.146207475	
663.125	0.2482298095	0.06014546347	
663.75	0.3124049847	-0.2558941192	
664.375	-0.009310613168	-0.2091145447	
665.0	-0.04266240719	-0.2908739329	
665.625	-0.3895354033	-0.04535566257	
666.25	-0.04751470176	0.1901122853	
666.875	-0.09129051213	0.2009843549	
667.5	0.1909911974	0.1688944876	
668.125	0.08408720087	0.007285917207	
668.75	0.2783447312	0.09231686487	
669.375	0.07986166515	-0.291757391	
670.0	0.09223406878	-0.05082715175	
670.625	0.1886793076	-0.1588363881	
671.25	0.05018541531	-0.1918106779	
671.875	0.2093207918	0.1089147344	
672.5	0.3298376769	-0.06108602512	
673.125	0.1747392418	-0.1024560953	
673.75	0.1899615951	-0.01936512937	
674.375	0.2310272655	-0.2619604083	
675.0	-0.09936578261	-0.166116239	
675.625	-0.005929488283	-0.1859391055	
676.25	-0.2368234554	-0.09935650304	
676.875	-0.0832396624	0.05806546002	
677.5	-0.1308470826	-0.1516681274	
678.125	-0.215775693	0.1760466989	
678.75	0.0009884399023	0.07229700542	
679.375	-0.03390781204	0.3409162914	
680.0	0.3189326253	-0.1297967048	
680.625	-0.06161215739	0.001013093773	
681.25	0.2316682824	0.1377259869	
681.875	0.06540881567	-0.06022380128	
682.5	-0.09392294381	0.2135122509	
683.125	0.2794838613	0.2780695644	
683.75	0.1722602095	-0.01556821333	
684.375	0.09767460713	0.2587072931	
685.0	0.3113854948	0.1277490715	
685.625	0.1578820437	-0.05825696325	
686.25	0.2286392347	0.2283938979	
686.875	0.3758055387	-0.2351836686	
687.5	0.2397318893	-0.1440226087	
688.125	0.2335182255	-0.3524484814	
688.75	-0.4315424302	-0.3275320019	
689.375	-0.1519153725	0.1121562847	
690.0	-0.2793042299	0.3552776714	
690.625	0.2345582954	0.3184032786	
691.25	-0.0114104724	0.2173446107	
691.875	0.1496179965	0.6954360469	
692.5	0.4213517503	0.2814172335	
693.125	0.3273082383	0.5233283977	
693.75	0.7030781952	0.1597314935	
694.375	0.4910972705	-0.281646702	
695.0	0.3475110962	0.1161879766	
695.625	0.5112704817	-0.006070379898	
696.25	0.3715512283	0.102466687	
696.875	0.1057679939	0.3640362279	
697.5	0.3329234004	0.6232943401	
698.125	0.42778775	0.06480019637	
698.75	0.4716643004	-0.05621985114	
699.375	-0.2404732636	-0.5637640673	
700.0	-0.2625473695	0.2839275054	
700.625	-0.1308839494	0.09357901868	
701.25	0.1942648696	0.3816891308	
701.875	0.05144629396	0.1430872906	
702.5	-0.06149423546	0.4121932947	
703.125	0.3275515217	0.3704024206	
703.75	0.1968116722	0.1163278751	
704.375	0.3069430355	0.1512130216	
705.0	0.3168234116	-0.1099233717	
705.625	0.08816515679	0.05034755302	
706.25	0.1576659025	0.07050885623	
706.875	0.1613350153	0.2699585572	
707.5	0.05321495807	0.2449791791	
708.125	0.3638425012	0.2357692883	
708.75	0.4794422165	-0.35399645	
709.375	-0.1436218851	-0.1517567428	
710.0	-0.3737677588	0.09828182632	
710.625	0.1151948991	0.1621370817	
711.25	-0.1270143066	0.04824039027	
711.875	0.2003448123	0.2968671642	
712.5	0.1507674727	0.02007122418	
713.125	0.2391261057	0.1661037851	
713.75	0.3045894279	-0.1248539075	
714.375	0.0447024888	-0.143071547	
715.0	0.1836676568	-0.0941275935	
715.625	0.06179048728	-0.2653557891	
716.25	0.1016106254	-0.05125788701	
716.875	0.2833864313	0.04049844052	
717.5	0.4612947086	0.01825388069	
718.125	0.2294208939	0.1605216451	
718.75	0.7064848676	0.1527254398	
719.375	0.7102263765	-0.4497078655	
720.0	0.07035229784	-0.2868791989	
720.625	0.7665973347	-0.9817342567	
721.25	-0.1276462763	-0.8994187064	
721.875	0.6224171409	-0.1533264902	
722.5	0.1469238528	-1.190454304	
723.125	-0.4871027099	-0.4260991352	
723.75	-0.2992440607	-0.181540597	
724.375	-0.4274878573	0.4538617546	
725.0	0.05413738086	0.2308176974	
725.625	-0.2477744936	0.3473038792	
726.25	-0.2450755786	0.6934258757	
726.875	-0.1368331504	0.5130860073	
727.5	-0.7610612037	0.5926652453	
728.125	-0.4677371935	1.835693195	
728.75	0.3477810209	1.450688998	
729.375	-1.518279344	1.923328931	
730.0	-0.149374892	4.056882419	
730.625	0.716791454	2.612811012	
731.25	-2.674050816	2.839608276	
731.875	-3.603003977	2.577679213	
732.5	-1.469717638	-0.07237381603	
733.125	-1.709443383	-2.900362213	
733.75	-1.481464433	0.6801725071	
734.375	0.240789424	0.4060419301	
735.0	0.7885396674	0.0500493126	
735.625	-0.6376600959	-0.1063777979	
736.25	-0.2618850924	0.01063972916	
736.875	-0.2587373396	0.7766934215	
737.5	0.7892603687	0.6004956208	
738.125	0.4397995361	0.1575006828	
738.75	2.210530801	0.2874406285	
739.375	1.687728554	-1.872872948	
740.0	0.5172062105	0.07797865657	
740.625	3.425434142	2.114677994	
741.25	3.542451292	0.5884240441	
741.875	-2.420767329	-3.39477033	
742.5	-1.777717726	-2.982605452	
743.125	-1.073758317	-1.178621331	
743.75	0.8072357782	0.07050919422	
744.375	-0.4196687433	-0.4771072467	
745.0	0.1032664784	0.06714701132	
745.625	0.07852662881	0.1834593755	
746.25	-0.02143292076	-0.09485848607	
746.875	-0.05918211641	-0.1727533767	
747.5	-0.343998767	0.168289218	
748.125	-0.0688540198	0.3464466671	
748.75	-0.05713418568	0.3313726273	
749.375	-0.001370420084	0.4671944025	
750.0	-0.1587010595	0.2218709598	
