!Created with skrf (http://scikit-rf.org).
# GHz S MA R 50.0 
!freq magS11 angS11
500.0 0.0144025163401 -172.492424344
500.625 0.0123554346629 39.6062916527
501.25 0.0242441556291 -169.240987417
501.875 0.0381865815544 -175.568448528
502.5 0.0276873352901 167.33471529
503.125 0.0151249113392 59.384544688
503.75 0.00608225592698 46.4513620346
504.375 0.0113846312661 -46.0400759306
505.0 0.014888126849 -50.3573498845
505.625 0.0399297178807 -77.5311818996
506.25 0.0238910772666 -142.107572337
506.875 0.0588800114586 -101.59269515
507.5 0.0537940748829 -111.421535228
508.125 0.0429893491455 -106.31122059
508.75 0.0552886621828 -133.984695961
509.375 0.0541051008342 -150.356019114
510.0 0.0522285207478 -107.334857956
510.625 0.0393122078078 -155.948008051
511.25 0.05954089089 -174.205945714
511.875 0.0516425698624 147.622293314
512.5 0.0390550030769 102.48495052
513.125 0.0604823630446 54.5297634036
513.75 0.0508420129359 31.9587681896
514.375 0.0372480411611 16.5426043396
515.0 0.0723695222113 10.2995338513
515.625 0.0571071088791 34.68614683
516.25 0.0808988030778 28.8195376395
516.875 0.101119020031 64.5331290651
517.5 0.131757500607 23.1176525149
518.125 0.166634377516 56.1343879795
518.75 0.0782457382027 8.05177252469
519.375 0.068621982354 22.8077688391
520.0 0.108300273915 1.24720996824
520.625 0.0883742983389 -14.2474828588
521.25 0.0720533228528 -28.602212705
521.875 0.0622326640934 -5.57570600279
522.5 0.112526781658 -30.3006602368
523.125 0.160922465774 -46.4824521947
523.75 0.205037958842 -59.6169145364
524.375 0.204771426485 -56.2193913943
525.0 0.0800136220435 -34.8709566475
525.625 0.0371525545401 -35.4397138926
526.25 0.0488902051669 -3.75510912293
526.875 0.0536168934696 -18.7484775558
527.5 0.0563877081802 -23.6531432168
528.125 0.036420758111 -59.2611632736
528.75 0.0514344326533 -75.1899030605
529.375 0.0871742469797 -108.623389504
530.0 0.0429255419507 -135.472174345
530.625 0.0361373124168 -138.771248382
531.25 0.119833750145 -137.811099684
531.875 0.174897885135 -145.870756016
532.5 0.146422971587 -169.55885662
533.125 0.0953476934255 175.010320807
533.75 0.110414837262 170.939300145
534.375 0.110965302686 -179.369438886
535.0 0.098432983573 164.267148367
535.625 0.0530357280409 171.245251883
536.25 0.0663915559882 165.356826935
536.875 0.0885152330711 -160.202759531
537.5 0.0905786147726 -143.982502451
538.125 0.100615278825 -173.235769018
538.75 0.107093154181 -178.687276159
539.375 0.0780975741684 -161.357889526
540.0 0.103834276113 -157.012828665
540.625 0.130099630074 -156.112552629
541.25 0.127779955742 -142.092351395
541.875 0.104665775282 -144.754321317
542.5 0.100013557954 -139.793278429
543.125 0.139145107317 -165.667646014
543.75 0.135899848816 160.595493425
544.375 0.0958201406844 136.711205331
545.0 0.099268039436 90.4162715348
545.625 0.0818640817084 82.3368557368
546.25 0.0848668277507 68.2954015601
546.875 0.0798257029381 52.8967095809
547.5 0.122769922424 58.1005591021
548.125 0.116259941068 78.4229706144
548.75 0.094377380087 90.9913554637
549.375 0.0965616303795 88.5348735777
550.0 0.100618753646 126.602132304
550.625 0.0367162085629 159.41081446
551.25 0.0356014042708 -130.96070637
551.875 0.0672348409745 -160.17723729
552.5 0.11819209217 -166.049644355
553.125 0.0909981078496 -166.714808642
553.75 0.0931772972181 -169.060089105
554.375 0.110283745739 168.464756082
555.0 0.135159922187 162.496888802
555.625 0.083185577341 162.113242538
556.25 0.0964257864259 164.746737478
556.875 0.11303717187 166.475600559
557.5 0.119828975051 166.403462175
558.125 0.0933452380328 165.815172757
558.75 0.0756285634384 179.211288261
559.375 0.0660715775324 -171.404553173
560.0 0.0502150429889 -150.662246546
560.625 0.0509083188684 -124.977743912
561.25 0.0840728366182 -144.215435457
561.875 0.100947344947 -160.663702521
562.5 0.0992868387323 169.942709539
563.125 0.0992297372018 149.059489508
563.75 0.126032588704 133.302800161
564.375 0.105399851897 121.864131194
565.0 0.0918807189195 119.096536876
565.625 0.0693292175965 123.093001934
566.25 0.0846488452859 159.847860304
566.875 0.0677501150859 -177.810578613
567.5 0.0775024922632 178.710288359
568.125 0.0705768004322 -166.81691559
568.75 0.0704377748683 -146.12736758
569.375 0.0520383982634 -114.279235088
570.0 0.0631981885224 -112.2203591
570.625 0.082312620121 -104.82021104
571.25 0.0877889026053 -116.123466636
571.875 0.085958706845 -128.656536324
572.5 0.114933402619 -159.587112651
573.125 0.130251908282 -169.703559196
573.75 0.103296733491 162.089720131
574.375 0.0782332482352 152.943565747
575.0 0.11310872093 147.191795849
575.625 0.0961720951621 164.33001067
576.25 0.0816198547101 150.031951531
576.875 0.0813285490787 129.587186044
577.5 0.0923504489694 129.521778602
578.125 0.0508399513879 171.780510989
578.75 0.0461807100944 168.209816368
579.375 0.0506764168891 168.460423714
580.0 0.0699043069235 177.257577562
580.625 0.076927515418 -144.210883054
581.25 0.0920704248173 -161.534096145
581.875 0.117652870547 179.165989566
582.5 0.117794491205 -176.43817466
583.125 0.0972753518427 -172.567676667
583.75 0.0811676276293 -165.268294202
584.375 0.10401300965 -157.048474948
585.0 0.0940408465884 -140.844357471
585.625 0.0744405162477 -149.697886815
586.25 0.0696374795733 -139.495551864
586.875 0.0839697089711 -141.900637547
587.5 0.074944146321 -146.065481243
588.125 0.0606591073525 -179.168303225
588.75 0.0674597214341 -161.125228685
589.375 0.082979958175 -153.875307523
590.0 0.0943509631558 -166.563338412
590.625 0.103723951932 160.141934379
591.25 0.120486455631 158.426542667
591.875 0.0906702273564 166.438154038
592.5 0.0620746426073 152.093159704
593.125 0.0643235119497 141.662250288
593.75 0.0776684916028 172.756064871
594.375 0.0597127555025 -147.641363218
595.0 0.0437832780869 -116.519060245
595.625 0.0536124680899 -112.828533567
596.25 0.07875902242 -74.4009872055
596.875 0.0698391991595 -63.2873026977
597.5 0.0618381418791 -53.804519962
598.125 0.0620471423732 -67.0016602962
598.75 0.0838885596069 -59.3976822205
599.375 0.086760452343 -67.9224598218
600.0 0.102943695703 -67.8883986642
600.625 0.0962714768683 -66.1419136284
601.25 0.0843056332188 -74.1141925826
601.875 0.0701086054171 -87.6637311918
602.5 0.0641841668973 -77.9529431002
603.125 0.0454372274944 -77.6508403471
603.75 0.0413356559075 -9.04082275127
604.375 0.0453599568064 -19.901262827
605.0 0.057552548992 -13.8766382805
605.625 0.0504568281908 -11.4080153856
606.25 0.0249760885173 13.7603472824
606.875 0.0346178128101 49.5702851889
607.5 0.0606547631783 43.1623184373
608.125 0.0600158518274 25.6880687175
608.75 0.0811494305219 33.6868852071
609.375 0.070672009051 31.7819123832
610.0 0.0734083432904 49.1039725468
610.625 0.0603353006577 32.0443047174
611.25 0.0515272922903 40.5526614168
611.875 0.0366725305887 50.0096125119
612.5 0.0177832107563 77.5678657329
613.125 0.0295923157043 122.173935224
613.75 0.0283477022332 124.904308951
614.375 0.0757417456639 134.411282287
615.0 0.0510836032827 123.401313778
615.625 0.0400253198999 139.694014662
616.25 0.0246314492111 151.010322994
616.875 0.0802840162322 138.233094375
617.5 0.0514636044046 124.500769014
618.125 0.0314164838992 128.333234556
618.75 0.00598525160561 -166.365190878
619.375 0.0517655300986 160.36494213
620.0 0.0127290078461 122.635871512
620.625 0.0158607179011 -98.7682613699
621.25 0.0481785358139 -83.2098894174
621.875 0.0709546774517 -126.55832885
622.5 0.0795825896351 -177.95161063
623.125 0.0876738192627 164.693189379
623.75 0.0449679695381 -172.96203225
624.375 0.074011984912 178.309598077
625.0 0.0479227849379 -152.12363533
625.625 0.0470681612001 -148.216060329
626.25 0.0137661221675 162.169098204
626.875 0.000216350278657 -176.197930211
627.5 0.0261871707073 -24.8216801888
628.125 0.0393861038465 -11.4376279596
628.75 0.0352171164559 -15.6405576816
629.375 0.0545227779454 -0.721963067751
630.0 0.0658305195936 -13.742528785
630.625 0.0746349314976 14.759917128
631.25 0.0757036021502 14.8618224676
631.875 0.0669450849086 -7.28326850581
632.5 0.0632151768362 -4.96633270702
633.125 0.0442537430387 13.6257841171
633.75 0.0369018301214 4.53029200724
634.375 0.0505790490582 33.6304918369
635.0 0.0427286893052 -24.3687415204
635.625 0.0291991077235 35.293276727
636.25 0.0504497296397 32.9366933396
636.875 0.0696316930105 44.1987721293
637.5 0.0520295115249 54.6147103561
638.125 0.038471902883 65.3451684216
638.75 0.0848811858056 79.275789405
639.375 0.090334800687 94.8653111326
640.0 0.0776853845816 110.356601543
640.625 0.0540814658703 99.2909516209
641.25 0.0517339524409 107.19679463
641.875 0.0627394738081 152.25760327
642.5 0.0552028514644 150.319457056
643.125 0.0553319169804 156.950115744
643.75 0.0759308544833 177.331072891
644.375 0.074303600592 -170.255750331
645.0 0.08141699894 -179.810863187
645.625 0.0849099744915 166.941151815
646.25 0.0849744790997 164.097019387
646.875 0.0658199834003 175.678671672
647.5 0.0805993519035 -173.489642178
648.125 0.0678673200959 174.84568013
648.75 0.0687173660597 -169.444091724
649.375 0.0428420357302 -160.954045198
650.0 0.0639183634637 -118.92687482
650.625 0.0517461910941 -93.4407224367
651.25 0.0635619669696 -63.4662338931
651.875 0.060542587601 -45.7151042411
652.5 0.0959946459374 -22.1623525967
653.125 0.117718090991 -1.34737180878
653.75 0.102382475609 5.99384477445
654.375 0.108973422971 8.16778332679
655.0 0.128095165075 14.694525506
655.625 0.0728940703386 11.0834334513
656.25 0.0562962753266 22.3367377879
656.875 0.0636132159942 2.58435230048
657.5 0.089000969656 24.9347823961
658.125 0.0798811334112 50.0443961473
658.75 0.0576700345653 65.7021057558
659.375 0.089833629734 39.3356225306
660.0 0.117809132152 28.0609346192
660.625 0.123280890408 17.9941837055
661.25 0.102199885144 4.38936029265
661.875 0.106072043888 -11.8636119843
662.5 0.12386613416 -19.4195077551
663.125 0.097573644657 -19.2404696998
663.75 0.0998559472415 5.00552463894
664.375 0.107647070008 56.749322369
665.0 0.0862612488881 91.138555021
665.625 0.0470750521197 111.786935412
666.25 0.0691194485352 137.171659776
666.875 0.113957858549 171.480203915
667.5 0.109690570448 -172.119617933
668.125 0.0833089954096 -174.559138111
668.75 0.113850389547 170.820102676
669.375 0.120072692421 174.200762886
670.0 0.0975704968743 -171.081011525
670.625 0.0691513895051 -168.497279213
671.25 0.112867851973 175.357734039
671.875 0.105716647386 168.26627131
672.5 0.0790401926685 157.589899272
673.125 0.070985099176 162.311647106
673.75 0.0997118168811 163.712214006
674.375 0.110527856118 168.780905021
675.0 0.125255293845 -177.732065907
675.625 0.101628781628 -145.49801427
676.25 0.115504748104 -122.204775259
676.875 0.104956050108 -120.333505353
677.5 0.137650528743 -130.930166947
678.125 0.102413804815 -118.147376299
678.75 0.0711537248866 -93.0090256841
679.375 0.0589566245062 -78.2830728426
680.0 0.0832428234608 -82.7286859382
680.625 0.130046467367 -79.0389991136
681.25 0.0972769348232 -67.9369285085
681.875 0.0953458269782 -88.626695446
682.5 0.127714197626 -116.946961885
683.125 0.177254444721 -124.796536269
683.75 0.119821608693 -101.333823199
684.375 0.11869863204 -78.2542761693
685.0 0.137230934868 -38.7575544336
685.625 0.137081131498 -3.18860295544
686.25 0.116518566736 20.6312661424
686.875 0.0890739058593 46.1605832304
687.5 0.0866970926269 81.5140787116
688.125 0.0850075053904 105.932146867
688.75 0.106950142522 109.323438962
689.375 0.139591325746 120.92935076
690.0 0.127774213534 137.117539985
690.625 0.121873645865 126.635171375
691.25 0.147287374013 95.1905960192
691.875 0.159301568487 77.3012873287
692.5 0.125803958009 43.7625021171
693.125 0.0807856489277 -15.263079121
693.75 0.101781515654 -41.7579651842
694.375 0.127173102446 -27.3749136205
695.0 0.127862317183 12.0988452673
695.625 0.0992656315921 60.374268249
696.25 0.118376372294 112.839720143
696.875 0.145680708423 165.842061319
697.5 0.135068281116 -137.754193759
698.125 0.137841245464 -129.98758228
698.75 0.12954414289 -129.296747294
699.375 0.114381252602 -127.588685622
700.0 0.0972926743231 -112.209365185
700.625 0.117516309293 -94.5783583097
701.25 0.101361302262 -65.1156210048
701.875 0.0848437118823 -65.0174023057
702.5 0.09601110361 -82.3715648396
703.125 0.169560760644 -114.118892602
703.75 0.172253690646 -152.449396943
704.375 0.136308416241 165.906159427
705.0 0.108097188794 164.091028163
705.625 0.143024951548 -169.780476433
706.25 0.151816998539 -115.846173538
706.875 0.0927220409136 -63.4028259443
707.5 0.0799209019474 -43.152451084
708.125 0.0901976435899 18.9164652583
708.75 0.114027853445 66.2173468006
709.375 0.107453937201 104.801752638
710.0 0.104013206754 123.206976756
710.625 0.106663656687 168.884839896
711.25 0.123657522972 175.248393736
711.875 0.14525321072 162.959307624
712.5 0.15729467512 140.26932429
713.125 0.12512096464 101.341639496
713.75 0.100310280325 54.1684679119
714.375 0.109919225194 32.7801233094
715.0 0.119534288677 13.0970000917
715.625 0.0870906908147 67.5613503064
716.25 0.0788211477847 77.0033799891
716.875 0.109821392145 96.6431442809
717.5 0.145865318893 146.938041969
718.125 0.117410530645 159.503595282
718.75 0.103980429737 179.641445331
719.375 0.122696562166 -161.744200386
720.0 0.126283128072 -124.12878989
720.625 0.114064261814 -85.8441157425
721.25 0.0981604197773 -10.2105659231
721.875 0.0895624853431 25.4530758966
722.5 0.073277898488 70.6541329902
723.125 0.0786286594347 66.7322036339
723.75 0.10933940442 48.3675250448
724.375 0.124800882811 8.79522582943
725.0 0.0954789880528 -36.1412642867
725.625 0.0863450835621 -78.147728548
726.25 0.112772548325 -61.7124897838
726.875 0.104744704957 -47.1170241666
727.5 0.0749073387294 -38.745061377
728.125 0.0804969372562 -1.60896616299
728.75 0.0765574696647 4.89778574427
729.375 0.0859007198765 26.2590548179
730.0 0.0826453298647 15.4115945649
730.625 0.0649297952075 32.0664482523
731.25 0.0462766263004 46.2353322954
731.875 0.0990337474298 128.691646228
732.5 0.0766179942267 154.231805744
733.125 0.0746024045203 169.419924993
733.75 0.0563973355892 150.568061152
734.375 0.0869190243051 -174.146730489
735.0 0.083860469879 159.40050543
735.625 0.0550603524936 143.81391401
736.25 0.00591721753836 149.500605818
736.875 0.0916160553053 167.324678035
737.5 0.104145101208 177.625077491
738.125 0.0958158824857 -167.664024157
738.75 0.0469072799806 170.983812959
739.375 0.093233309005 -151.05052793
740.0 0.0450732755361 -135.314354419
740.625 0.046495289348 -151.704800309
741.25 0.0486881459184 -157.568864685
741.875 0.0145228242215 -90.6322980513
742.5 0.0822124266905 -20.5630002986
743.125 0.0339359376209 50.0731445609
743.75 0.0311550937559 95.0420702577
744.375 0.0295245081205 153.47832584
745.0 0.0573030396199 135.192788992
745.625 0.0611910700705 128.191037836
746.25 0.0696033334883 83.2870644399
746.875 0.0540321374183 66.6204555429
747.5 0.0722967244323 2.27875292709
748.125 0.0288041687609 -13.4609710653
748.75 0.024432090079 30.6974264967
749.375 0.0287010240149 -32.8840941667
750.0 0.0312215894325 -57.8137714819
