!Created with skrf (http://scikit-rf.org).
# GHz S RI R (50+0j) 
!freq	ReS11	ImS11	
500.0	-0.3211890401	-0.5084875947	
500.625	0.4278160523	-1.233751151	
501.25	0.2201689014	-0.4330733844	
501.875	-0.3552633038	-0.1470746302	
502.5	-0.03493431812	-0.1785191103	
503.125	-0.02629620371	-0.01701979216	
503.75	0.07737344034	0.05180383187	
504.375	0.04923280417	0.0016105437	
505.0	0.03666009922	0.02911194549	
505.625	-0.03126919789	0.006004778073	
506.25	-0.1627121184	-0.1415251327	
506.875	-0.1659402318	-0.3099571682	
507.5	0.01460611782	0.1535183559	
508.125	-0.007597048463	-1.074150521	
508.75	0.8197166433	-0.1229049266	
509.375	-0.844099422	-0.7869695098	
510.0	-0.7207697993	-0.6216466705	
510.625	0.02481739853	0.004032001138	
511.25	-0.1255224594	0.08110837717	
511.875	-0.1319341426	-0.1010465396	
512.5	-0.02580772459	-0.01927670589	
513.125	-0.04306780614	-0.04236095471	
513.75	-0.059234983	-0.122849672	
514.375	0.03807889453	-0.01205389411	
515.0	-0.2718787242	0.189023073	
515.625	-0.3853079461	-0.5481851431	
516.25	0.3896012591	-0.3812333817	
516.875	-0.4632256724	-0.03657809855	
517.5	0.04674422533	-0.2679830784	
518.125	0.09527852077	-0.01168799254	
518.75	-0.07685659554	0.03974895066	
519.375	-0.06973106672	0.08014774979	
520.0	0.04315412376	0.06455852571	
520.625	0.08416876968	-0.1467408229	
521.25	0.1101640635	-0.2918432601	
521.875	0.01681860915	0.08244726103	
522.5	-0.104077313	0.1120909561	
523.125	-0.2094736286	-0.1266836035	
523.75	0.1176820499	-0.0256576104	
524.375	-0.2648342034	0.1792695895	
525.0	-0.2327305287	-0.0351822752	
525.625	0.1189116562	-0.07271647951	
526.25	0.09169510496	0.06177789196	
526.875	-0.09047802239	0.1393501199	
527.5	-0.1307480355	0.003653520248	
528.125	0.2233294212	0.1304743937	
528.75	-0.1204268984	0.3089418504	
529.375	-0.1076867787	0.008253870512	
530.0	0.1435590783	0.01140241774	
530.625	0.1213826361	0.6272291716	
531.25	0.0536625956	0.2076333134	
531.875	0.2430430866	-0.4137457925	
532.5	0.1373128959	-0.2252362281	
533.125	0.07904911283	0.1323572768	
533.75	-0.1368503967	-0.09619373731	
534.375	-0.09938187313	-0.3742856735	
535.0	-0.05378217199	-0.1424244152	
535.625	-0.08896922737	0.1501327225	
536.25	-0.03458760542	0.1298679673	
536.875	0.03198933095	0.03509427615	
537.5	0.03984678398	-0.08663437444	
538.125	0.1831221832	-0.04373262097	
538.75	0.05330287071	-0.007505270704	
539.375	-0.1420632578	-0.1627891897	
540.0	-0.03467580148	-0.1999306738	
540.625	-0.09558014179	0.08937448032	
541.25	-0.1554047419	-0.03520650131	
541.875	0.0631101983	-0.1114462289	
542.5	-0.002864062279	0.04103222541	
543.125	-0.2016933444	-0.02097578816	
543.75	-0.09064601791	-0.1067933353	
544.375	0.05708624629	-0.004841135205	
545.0	0.06862742251	0.09389903034	
545.625	-0.004461707209	0.1483148392	
546.25	-0.0236291075	-0.008837820536	
546.875	0.1710182536	-0.08677693866	
547.5	0.1509666336	-0.00535791439	
548.125	-0.1006125792	-0.08893213349	
548.75	-0.06968836553	-0.2184699441	
549.375	0.004744027404	-0.02406142756	
550.0	-0.1332138813	0.03778413028	
550.625	-0.1302887774	-0.05065118207	
551.25	-0.02791389555	-0.03593869852	
551.875	0.004392971652	0.08805643312	
552.5	-0.07973903261	0.0992586608	
553.125	-0.05701012157	0.02602188946	
553.75	0.0344886293	0.01787561461	
554.375	0.1077404416	-0.0009847862323	
555.0	0.09222020197	-0.03598236596	
555.625	0.0631219922	-0.1009503403	
556.25	0.08034469314	-0.122426446	
556.875	-0.02071007648	-0.1333556027	
557.5	-0.08191973161	-0.1111017052	
558.125	-0.08289419206	-0.04539635835	
558.75	-0.1057943293	-0.0008967320939	
559.375	-0.1125558245	-0.01354729904	
560.0	-0.06547676837	0.04277592393	
560.625	-0.04672179302	0.1326842133	
561.25	-0.05333208989	0.08318307186	
561.875	0.02236755445	-0.02201998918	
562.5	0.07322099699	0.05147063315	
563.125	0.03728457823	0.1471317622	
563.75	0.03467991665	-0.009409460706	
564.375	0.1720147698	-0.1471004886	
565.0	0.1335834209	-0.03818002991	
565.625	-0.0862945341	-0.1036390276	
566.25	-0.1340963829	-0.2095560618	
566.875	-0.03408055108	-0.0981624554	
567.5	-0.1815926935	-0.008272234655	
568.125	-0.140291343	-0.246031102	
568.75	-0.04765453323	-0.1028486148	
569.375	-0.1889626425	0.1416764536	
570.0	-0.2394150044	0.1175638904	
570.625	-0.009275784232	0.04162094957	
571.25	-0.003901045705	0.1961743986	
571.875	-0.06289854115	0.1668720694	
572.5	0.01638328287	-0.02764860228	
573.125	0.1511960357	-0.2110909095	
573.75	0.1258792336	0.004058907067	
574.375	-0.1159301028	-0.0494797602	
575.0	0.02165017664	-0.155962271	
575.625	0.1733714432	-0.03923826945	
576.25	0.01114766689	0.03160758609	
576.875	-0.09576114532	-0.2118901432	
577.5	0.1429529179	-0.1560300272	
578.125	-0.1349779953	-0.05520438784	
578.75	-0.1031971793	-0.2689610508	
579.375	0.02857096372	0.004936290869	
580.0	-0.2096776473	0.03344028997	
580.625	-0.1505016714	-0.1543822914	
581.25	0.03140761741	-0.02365817146	
581.875	0.1293225211	0.2636149742	
582.5	-0.106142753	0.1297331647	
583.125	0.1549800656	-0.1121230831	
583.75	0.1619058616	0.1098880486	
584.375	-0.06111548874	0.2445887138	
585.0	-0.03616189752	0.008714626909	
585.625	0.2774487838	-0.1146843959	
586.25	0.2130799661	0.07775108876	
586.875	-0.08454462006	-0.1365739646	
587.5	-0.01669449949	-0.3052923428	
588.125	0.06241715107	-0.02353310664	
588.75	-0.1611240864	-0.168800524	
589.375	0.1594550522	-0.1794612267	
590.0	-0.01162952549	0.01337151363	
590.625	-0.232202865	0.0612693708	
591.25	-0.1959191269	-0.01387279364	
591.875	0.06151911289	0.006968850938	
592.5	0.05098736928	0.1780661042	
593.125	-0.1038674358	0.156679695	
593.75	-0.07063741737	0.03496225289	
594.375	0.1924672401	-0.04480663536	
595.0	0.1447047381	0.195425179	
595.625	0.01764794557	-0.03346317144	
596.25	0.2663122218	0.01219021677	
596.875	0.0688868152	0.1829121742	
597.5	0.105236581	-0.06705536053	
598.125	0.2230372361	0.2262440264	
598.75	0.0144817507	0.1188148814	
599.375	0.1802456082	-0.1703246682	
600.0	0.304633423	-0.1184725884	
600.625	0.03258934425	-0.04105810067	
601.25	0.006410962116	-0.3315348677	
601.875	0.08333568835	-0.1862734506	
602.5	-0.04099106513	0.1445795474	
603.125	-0.2133525692	0.1493053385	
603.75	-0.05118634448	-0.09073618731	
604.375	0.06884295093	0.1957525774	
605.0	-0.1980941714	0.05110552347	
605.625	0.06214127883	-0.1455035913	
606.25	-0.02720300119	0.1821264852	
606.875	-0.3465901697	-0.03095432906	
607.5	-0.04179416823	0.02274443893	
608.125	0.07837451668	0.3855152863	
608.75	0.1037300138	0.2917513325	
609.375	0.05538398914	-0.1212635166	
610.0	0.2212796825	-0.2630749686	
610.625	0.1613306629	0.03338252758	
611.25	-0.1707901506	-0.06443379994	
611.875	-0.09850793334	-0.2803870358	
612.5	0.05594240584	-0.1106975429	
613.125	-0.183486778	0.2007923513	
613.75	-0.2751375267	0.04775801748	
614.375	0.07338384834	-0.09943653733	
615.0	0.2290656022	0.127691985	
615.625	-0.1843706496	0.2381275174	
616.25	0.01125339104	-0.06079597464	
616.875	0.03018690834	0.3854754322	
617.5	-0.2587104061	0.1583525391	
618.125	0.1540023317	0.004267290465	
618.75	0.1122141839	0.3346692819	
619.375	-0.1585766721	0.1314465645	
620.0	0.1275609459	-0.1677060759	
620.625	0.3012064241	-0.1520333113	
621.25	0.0426242749	0.02581413348	
621.875	-0.3331590251	-0.06764445076	
622.5	-0.1492985525	-0.1830212207	
623.125	0.09957314295	0.136203176	
623.75	0.1913468285	0.2305676515	
624.375	0.00543459922	0.1324272706	
625.0	-0.135398103	-0.06211817545	
625.625	0.006125265658	-0.2496075902	
626.25	0.1132818916	-0.08688015929	
626.875	-0.1220165085	0.09441142667	
627.5	-0.1999829267	-0.1487070204	
628.125	0.08763392076	-0.0427999428	
628.75	-0.1643344286	-0.07504290662	
629.375	0.03390688029	-0.2871434143	
630.0	-0.04884760449	-0.02756902846	
630.625	-0.3404836946	0.09246355879	
631.25	-0.2042665817	0.02763333905	
631.875	0.1010197127	0.2249335446	
632.5	0.1441469393	0.3451380043	
633.125	0.04542368593	0.03959043036	
633.75	0.1466841753	-0.2246356027	
634.375	0.2010634265	-0.1255937536	
635.0	0.02082532168	0.05316467134	
635.625	-0.2504253563	-0.00900369814	
636.25	-0.2114662437	-0.1054864867	
636.875	0.1245194398	0.03053987167	
637.5	-0.09444445881	0.2444079215	
638.125	-0.2159742566	-0.1060460647	
638.75	0.1072146835	0.0964049397	
639.375	-0.1495901987	0.4322325031	
640.0	-0.04049617663	0.07669820534	
640.625	0.4363003107	0.120563085	
641.25	0.2944290887	0.2413257465	
641.875	-0.08092353878	-0.184501217	
642.5	-0.1389761726	-0.4343734228	
643.125	0.1518630932	-0.1454876601	
643.75	-0.00545251162	0.2443504765	
644.375	-0.3701477743	-0.03787299729	
645.0	-0.1474618793	-0.1941863441	
645.625	0.2318635381	0.177220907	
646.25	0.06981802254	0.3312596822	
646.875	-0.1400542369	-0.06300345733	
647.5	0.2190151242	-0.1765531233	
648.125	0.3515029715	0.2479020689	
648.75	-0.03819227862	0.008428766451	
649.375	0.160770229	-0.5181791856	
650.0	0.3627013174	-0.1252518785	
650.625	-0.1489453357	-0.1401532648	
651.25	0.2598510914	-0.4408937324	
651.875	0.2735574101	0.1709300435	
652.5	-0.01009309473	-0.2624139545	
653.125	0.5518821193	-0.0958388487	
653.75	0.08265849333	0.1174326551	
654.375	-0.2774853452	-0.4255270654	
655.0	-0.06692598704	-0.393567358	
655.625	0.0802518812	0.2200055968	
656.25	-0.1242983873	0.4519979925	
656.875	-0.2253741364	0.004041148343	
657.5	0.1965606807	-0.1808793787	
658.125	0.4152737472	0.2552866085	
658.75	-0.02079157503	0.1825153903	
659.375	0.08673986249	-0.3872285353	
660.0	0.450281451	-0.2165262152	
660.625	-0.04459148106	0.03053080241	
661.25	0.1428676904	-0.51104507	
661.875	0.3417801781	0.07775501037	
662.5	0.01159679218	-0.2980379223	
663.125	0.4927972694	-0.1554235573	
663.75	0.06236519772	-0.00211089353	
664.375	-0.2143097262	-0.4315190626	
665.0	-0.135879202	-0.4224471033	
665.625	-0.1073855027	0.1628695044	
666.25	-0.09345337125	0.5042311487	
666.875	-0.05180354932	0.1935290093	
667.5	0.1664368035	-0.1639354739	
668.125	0.3428857413	-0.05291890368	
668.75	0.1019137625	0.0649263977	
669.375	-0.1040757751	-0.2564911036	
670.0	0.1909432378	-0.2727601389	
670.625	-0.0503363803	0.06043660782	
671.25	0.006934936238	-0.3582562218	
671.875	0.3138305969	0.02728443505	
672.5	-0.02063351022	-0.189959658	
673.125	0.3917326676	-0.2826588129	
673.75	0.1790991425	0.008533463928	
674.375	-0.2070240776	-0.3023995914	
675.0	-0.02323231594	-0.4686371628	
675.625	0.04798695303	0.07051185444	
676.25	-0.3897545379	0.2039978179	
676.875	-0.131700445	-0.2390848198	
677.5	0.2016610131	0.1482553418	
678.125	-0.2132063455	0.3404546894	
678.75	-0.1994287765	-0.04605536836	
679.375	0.2771521073	-0.2204086722	
680.0	0.3276541609	0.1776308579	
680.625	-0.2731470192	0.1709677625	
681.25	0.2426979277	-0.3014477324	
681.875	0.3391925204	0.4325243106	
682.5	-0.05465198762	-0.117223178	
683.125	0.6171853857	-0.09852190514	
683.75	0.1014194756	0.3422523967	
684.375	0.005224562272	-0.3217278695	
685.0	0.6011258762	0.08799608917	
685.625	-0.06792787531	0.2864506719	
686.25	0.1720791426	-0.4146047412	
686.875	0.6364006981	0.0207316258	
687.5	-0.06525335152	0.04484496504	
688.125	-0.2645364605	-0.6253080681	
688.75	-0.0986205292	-0.431741039	
689.375	0.1167848004	0.3403868022	
690.0	0.02653044814	0.7244949772	
690.625	-0.2329798015	0.2708884437	
691.25	0.4996258495	-0.1278249782	
691.875	0.7462072194	0.6214950884	
692.5	0.1226062296	0.1421752332	
693.125	0.766093508	-0.4895707349	
693.75	0.6566965161	0.1556921766	
694.375	-0.1864890822	-0.4375554977	
695.0	0.740738568	-0.3869198068	
695.625	-0.067371054	0.239077214	
696.25	0.6062886506	-0.3157566964	
696.875	0.123577227	0.7446544513	
697.5	0.06616352782	-0.1458082014	
698.125	0.9377034887	0.1974807195	
698.75	0.510600369	0.1736012514	
699.375	-0.6046942433	0.002691814465	
700.0	-0.7409089444	0.4183999056	
700.625	-0.09824763	-0.01550060778	
701.25	0.5748999656	-0.04586649997	
701.875	0.3013978497	0.5660569153	
702.5	0.06563224341	-0.07278861517	
703.125	0.739041812	0.003878597487	
703.75	0.194892019	0.1890939972	
704.375	0.03819916382	-0.5013847039	
705.0	0.4599786441	-0.04939182053	
705.625	-0.1499375232	-0.003831523311	
706.25	0.4234859866	-0.05697043642	
706.875	0.02064381625	0.5228038672	
707.5	0.02867634837	-0.04443005689	
708.125	0.7486211987	-0.01784868758	
708.75	0.5049200901	-0.02720967153	
709.375	-0.4485830742	0.09346473956	
710.0	-0.5259780553	0.3869803753	
710.625	-0.1578159876	-0.09686444649	
711.25	0.2932481406	-0.2395983142	
711.875	0.4060001005	0.2963726902	
712.5	-0.07314977757	0.05689285836	
713.125	0.2927498431	-0.4720965796	
713.75	0.2844208863	0.0499951947	
714.375	-0.3300202508	-0.1129740596	
715.0	0.08500376551	-0.4280509386	
715.625	0.194796004	0.1737389834	
716.25	-0.1194563079	-0.3449858435	
716.875	0.7459067849	-0.02842779459	
717.5	-0.01622151783	0.1607361029	
718.125	1.033347075	-0.5463280603	
718.75	1.054352663	0.5197466181	
719.375	-0.3442974986	-0.5365598439	
720.0	0.3486863284	-1.874395539	
720.625	0.8067451464	-0.09887821155	
721.25	-1.09675592	-0.3280127641	
721.875	-0.04140211	-1.462303421	
722.5	0.00381641447	0.05479752017	
723.125	-1.08978651	0.2754017422	
723.75	-0.6062070366	-0.06618321319	
724.375	0.3755155673	0.04791519225	
725.0	0.3100612965	0.7037905659	
725.625	-0.3812612635	0.3288911047	
726.25	0.5146549758	0.3001351001	
726.875	-0.4283034819	1.409446007	
727.5	-0.1689603027	0.1529703158	
728.125	1.021794235	2.801869206	
728.75	-2.067093353	2.103330278	
729.375	2.865114674	2.347241625	
730.0	-0.02259211422	7.717484191	
730.625	-0.676430098	-0.8527328371	
731.25	4.510833605	5.619157667	
731.875	-5.050768749	0.7611665986	
732.5	2.189308379	1.28286855	
733.125	-3.391491805	1.803983929	
733.75	-1.486205299	-0.6398493791	
734.375	0.6655063241	-0.5553988347	
735.0	0.3692532641	-1.296638955	
735.625	0.06795522621	-0.4575779247	
736.25	0.6757370152	0.8188190676	
736.875	0.04299244123	1.3742306	
737.5	0.1025181869	-0.7951815849	
738.125	3.056098386	-0.6452184122	
738.75	0.01038906827	0.9351927851	
739.375	2.092328257	-5.20534625	
740.0	5.761366336	3.790401575	
740.625	-3.839280074	-4.386240759	
741.25	8.94277245	6.023058377	
741.875	-7.343675927	-5.96406032	
742.5	1.655112771	4.12320925	
743.125	-1.125496837	-3.331056131	
743.75	1.483533322	-0.5274012436	
744.375	-0.2328560263	0.5114456245	
745.0	-0.03962955426	0.4910580337	
745.625	0.07161270147	0.2267819333	
746.25	-0.1462749619	0.06308481317	
746.875	-0.3746707082	0.0288647057	
747.5	-0.0576134837	0.02628530737	
748.125	0.4002018673	0.5698189722	
748.75	-0.1161292168	0.4926867647	
749.375	0.2720980453	0.08206883876	
750.0	-0.384379303	0.3815914355	
