!Created with skrf (http://scikit-rf.org).
# GHz S MA R 50.0 
!freq magS11 angS11
600.0 0.100382825671 -121.109456768
600.125 0.0668831029592 -154.945942451
600.25 0.0240774877674 101.925216269
600.375 0.0868356432615 -9.85020147645
600.5 0.0917965850899 -53.9908990135
600.625 0.124434246159 -136.955249546
600.75 0.0694380714102 -171.986417028
600.875 0.0254872923231 91.9207963418
601.0 0.0602735302969 -21.2882236061
601.125 0.072193110494 -64.2867428237
601.25 0.124041409197 -146.669228606
601.375 0.0856022472179 153.655673759
601.5 0.043066604352 129.40806386
601.625 0.0585564220443 -44.238908704
601.75 0.0997755489942 -114.609332198
601.875 0.113287423348 -179.037722901
602.0 0.0843180430549 123.669061756
602.125 0.0587563749289 131.625402995
602.25 0.0793856755262 -81.7108416293
602.375 0.0773217301212 -134.549849962
602.5 0.10519262939 157.671575098
602.625 0.073049752395 108.929276784
602.75 0.0487367502661 108.791011285
602.875 0.047302513896 -79.3648257583
603.0 0.0925519828734 -160.155621969
603.125 0.0587138993815 -179.762928495
603.25 0.0648674449974 89.9130310777
603.375 0.0538062627773 105.337588214
603.5 0.0166543722697 -63.3766183954
603.625 0.0974536881661 -179.247203723
603.75 0.062123275955 131.162689009
603.875 0.06062161356 57.3151486893
604.0 0.0568343937338 100.999996322
604.125 0.0232917150686 -101.023918874
604.25 0.0746988473276 171.173070781
604.375 0.0770382577011 87.8441341933
604.5 0.0664727355594 26.2579574758
604.625 0.0245394680283 81.2892453042
604.75 0.0132818043578 -14.2880962692
604.875 0.063552756873 163.258637786
605.0 0.0361551035631 102.288899429
605.125 0.0428277686187 10.3320338188
605.25 0.0378844391272 -77.1272182182
605.375 0.00584272108434 -9.70657386204
605.5 0.057561038148 143.616868154
605.625 0.0138639379308 145.885653895
605.75 0.0537179976357 -17.416130829
605.875 0.0268669764754 -122.598035016
606.0 0.0237710511561 172.895332482
606.125 0.075692170149 125.08348567
606.25 0.0317493033969 85.2926166465
606.375 0.0121099547123 -44.6240468232
606.5 0.0902644871326 -113.464662777
606.625 0.0963132148616 175.76462492
606.75 0.126989901408 103.238289878
606.875 0.0605169896545 39.2250274745
607.0 0.0109148253658 -172.213281632
607.125 0.0629185790569 -140.944692581
607.25 0.0722151341249 147.237513617
607.375 0.134377789008 85.4367060918
607.5 0.0833124439834 13.3246967348
607.625 0.026730230392 -101.867418932
607.75 0.0663114417821 176.493971811
607.875 0.0860441601615 118.87494263
608.0 0.100175386057 53.8546452337
608.125 0.0523230884999 -12.2413687674
608.25 0.0848746779069 -106.921982508
608.375 0.0872845233833 156.2811556
608.5 0.0971434024061 85.0959454304
608.625 0.0608405984074 22.7190599851
608.75 0.0767099990765 -30.6623573382
608.875 0.0937240607467 -120.044258253
609.0 0.0869222257566 155.481886491
609.125 0.0979410092912 72.5370915066
609.25 0.101712304975 13.2422806067
609.375 0.06896197443 -41.6962641088
609.5 0.0894640701312 -120.544548651
609.625 0.093331514501 152.164578384
609.75 0.0811386823663 79.6828019901
609.875 0.125424077076 20.2371852026
610.0 0.10689250902 -52.8598447645
610.125 0.0767467382683 -131.705755111
610.25 0.0882670455255 139.163591852
610.375 0.0833854034803 61.6330701712
610.5 0.126021266042 6.14053388676
610.625 0.127553251302 -58.9238016774
610.75 0.101097786017 -143.231793472
610.875 0.0878801631244 136.230673696
611.0 0.0866753685675 56.2395437256
611.125 0.126836835679 -8.91294610429
611.25 0.114110217996 -66.6986708463
611.375 0.0994222220696 -130.449322982
611.5 0.0935125543405 135.355568855
611.625 0.0908190858265 53.7323607092
611.75 0.111234954848 -14.3155366715
611.875 0.120394424336 -74.4781789005
612.0 0.0881966569163 -131.381841714
612.125 0.0853822279259 151.633366034
612.25 0.0741809075891 69.4431488027
612.375 0.113780698527 -6.92961078523
612.5 0.139344495936 -81.2488313817
612.625 0.106597627686 -145.202218105
612.75 0.0832037198513 142.54632731
612.875 0.0594439155509 72.5371557359
613.0 0.100627331914 -13.4149651814
613.125 0.138036804599 -87.3026245676
613.25 0.126140354254 -159.206499273
613.375 0.103963749646 120.212346622
613.5 0.0752992326857 52.1044182823
613.625 0.0692676121407 -20.0280193199
613.75 0.108535454472 -95.991956058
613.875 0.113462719871 -161.469361477
614.0 0.132326414439 118.091352157
614.125 0.0980009650187 40.6010589225
614.25 0.0723601667009 -27.3086107994
614.375 0.0861818942953 -107.738423507
614.5 0.0900508014726 -171.243236464
614.625 0.119179916825 105.129816273
614.75 0.109806703371 37.4000481008
614.875 0.0978319714144 -45.0344146866
615.0 0.0937850081914 -137.096750751
615.125 0.079145329042 167.110218517
615.25 0.0740758822436 108.935516384
615.375 0.108221611415 19.4934680474
615.5 0.115262988631 -55.8316059009
615.625 0.138515834427 -154.720670707
615.75 0.0964173599285 139.342869838
615.875 0.0700916996795 86.6267375086
616.0 0.0752987218832 0.619624147211
616.125 0.0761463451017 -66.2387338942
616.25 0.144540027713 -160.580662693
616.375 0.120551962106 129.256561226
616.5 0.0892759599683 60.4461534884
616.625 0.0643638067005 -14.3152574388
616.75 0.0691614345811 -96.676606847
616.875 0.107166378836 -177.444055895
617.0 0.12988185044 111.133865109
617.125 0.0997224513952 77.0835777246
617.25 0.0808724540787 -21.4298304029
617.375 0.0661925776991 -121.28548656
617.5 0.0568293811668 -171.844622581
617.625 0.0869701712091 95.9911510635
617.75 0.110856102059 31.1478099379
617.875 0.0847505357904 -17.8858696849
618.0 0.0800640710717 -137.942324707
618.125 0.0590625441553 157.927497629
618.25 0.0625524229639 92.6037418952
618.375 0.0832249243613 29.9959364449
618.5 0.0674049485485 -13.9486718113
618.625 0.0878020952911 -146.934224232
618.75 0.0579144713433 165.213482035
618.875 0.0712430918552 63.1187284236
619.0 0.076275954674 -4.86686768459
619.125 0.0608795722005 -33.4190432349
619.25 0.0819332250127 -164.469074508
619.375 0.0894838677394 109.544403196
619.5 0.079647845967 48.3240754149
619.625 0.0762775535206 24.9397639696
619.75 0.0414831162507 -54.3915034772
619.875 0.0436931017827 178.72160498
620.0 0.0265697393534 -147.950045359
620.125 0.0717347831494 24.1433614071
620.25 0.111985046691 -46.5457261606
620.375 0.052840448348 -97.9052668508
620.5 0.0294506849676 146.155479756
620.625 0.00931245708908 -133.313196753
620.75 0.0902550392769 -19.8103040552
620.875 0.0926246181126 -65.40974187
621.0 0.0615628016865 -58.9990297564
621.125 0.0260463311139 149.281901977
621.25 0.0023074630019 -85.4960395689
621.375 0.100486289763 -39.371863095
621.5 0.0866751829635 -76.3615007533
621.625 0.0425378359877 -95.5048380573
621.75 0.0300929137244 -156.46154639
621.875 0.036264676282 -127.353349699
622.0 0.0971815936925 -66.1625616323
622.125 0.064815737123 -95.5067780771
622.25 0.0578725836491 -98.9105237195
622.375 0.0423877697941 101.272113895
622.5 0.0480790315948 -58.4560053552
622.625 0.103505396971 -131.628702324
622.75 0.114026856638 -179.796922016
622.875 0.0481492126506 -152.020840985
623.0 0.0474264917901 74.2941266856
623.125 0.0231824393767 -73.4672559421
623.25 0.106572310026 -145.891426505
623.375 0.116406245168 160.085362706
623.5 0.0288644644317 178.09643335
623.625 0.0417173286682 75.0013452917
623.75 0.0497578699961 -71.3918422691
623.875 0.0409665472074 156.90774526
624.0 0.0974208841032 153.425467219
624.125 0.0326942677916 122.740235563
624.25 0.0140794388426 101.574781371
624.375 0.0541952558748 -62.4819120174
624.5 0.0482522183668 -172.452551685
624.625 0.100215682995 157.530381337
624.75 0.00946239171781 127.039599082
624.875 0.0305859981951 59.3629058746
625.0 0.0638384759406 -52.7720695956
625.125 0.0747691015973 -146.986996245
625.25 0.100966879539 157.292934839
625.375 0.0431498303209 103.748951351
625.5 0.02342058932 70.891832234
625.625 0.0632435197836 -60.9510903517
625.75 0.0652856271374 -156.983394309
625.875 0.0900099854597 137.180826338
626.0 0.0935599625513 79.0654534475
626.125 0.0223081603243 60.4617028186
626.25 0.039744627776 -93.5700162087
626.375 0.0425534570003 150.578688645
626.5 0.0989750826063 124.110977727
626.625 0.0933296910416 60.2289540682
626.75 0.0315019204629 33.5667481938
626.875 0.0670166092488 -94.0204448146
627.0 0.0524611504378 166.992490972
627.125 0.0552665551106 72.1524323602
627.25 0.12289351812 61.9820627998
627.375 0.112552583126 8.59365883486
627.5 0.111508296872 -83.8636503942
627.625 0.0814945052051 179.46098646
627.75 0.0516965661939 75.8375708361
627.875 0.106132219015 53.3645583315
628.0 0.0807867847855 6.59979702605
628.125 0.110398065792 -67.4228451545
628.25 0.087112373843 -164.447211872
628.375 0.0707060806716 94.8950337732
628.5 0.102009150935 47.027077269
628.625 0.0908075359504 -7.04340746315
628.75 0.083087993287 -77.9163940046
628.875 0.0831169162133 -160.968796621
629.0 0.0537137756172 83.1579547776
629.125 0.107380685846 39.3658215534
629.25 0.102094394609 -22.7249984203
629.375 0.0531399106868 -92.7726269967
629.5 0.0615286034914 -172.209006661
629.625 0.0533380264315 81.4759420318
629.75 0.125765964849 48.2180634203
629.875 0.135574593292 -18.6296588733
630.0 0.0896565785314 -92.3115208913
630.125 0.064003620287 -178.36814011
630.25 0.0488910919233 77.2804739349
630.375 0.0942392735597 42.3562364545
630.5 0.139493052462 -7.48251631812
630.625 0.118806358916 -75.9993772351
630.75 0.019407323792 -166.36147339
630.875 0.0661740919982 101.124853729
631.0 0.0868123482928 31.3599351614
631.125 0.121187318111 -12.7722953944
631.25 0.112086807406 -69.6249449624
631.375 0.0917570712306 -153.096363791
631.5 0.100246454433 107.958254858
631.625 0.122717292516 30.1542426933
631.75 0.0786048992292 -33.4138961484
631.875 0.109232607595 -86.6028808792
632.0 0.0879984521487 -150.522802709
632.125 0.0764625940661 105.968137998
632.25 0.115452846022 26.4885394477
632.375 0.10295192877 -42.0805892037
632.5 0.0843468817367 -103.447944005
632.625 0.088134398269 -174.619395504
632.75 0.0588809667197 108.976168453
632.875 0.116124616607 23.883653144
633.0 0.0873470220763 -46.4135555006
633.125 0.108511908305 -106.516868648
633.25 0.116434195453 179.69022511
633.375 0.0710507810168 94.0046613533
633.5 0.0986935815657 17.4050705025
633.625 0.0839504348918 -60.6541720011
633.75 0.11367074199 -126.479765222
633.875 0.111179505047 169.867822729
634.0 0.0795595777318 90.6513041102
634.125 0.0868049188485 0.77235884534
634.25 0.11151247025 -67.2036112659
634.375 0.106684991783 -129.961143835
634.5 0.111525679111 151.835153003
634.625 0.0743857540035 83.8804302568
634.75 0.0966801409311 -6.98636741335
634.875 0.121808943752 -86.9312699976
635.0 0.103567080243 -152.567914627
635.125 0.121737335312 138.259146496
635.25 0.0784174248232 64.3198365908
635.375 0.0854971126295 -27.9258122525
635.5 0.0921118920101 -101.442004673
635.625 0.116774815173 -168.588099765
635.75 0.138707444408 116.277680382
635.875 0.105364312849 48.8837118888
636.0 0.0843660332088 -32.8076722579
636.125 0.0888581151629 -113.862611927
636.25 0.110552073103 -178.118336263
636.375 0.149807302315 113.048241622
636.5 0.132562265342 39.4035188046
636.625 0.0985769523543 -30.9576279768
636.75 0.109709557947 -110.539732813
636.875 0.0955171738448 179.126394214
637.0 0.107186206356 108.331454998
637.125 0.113799822823 37.677513325
637.25 0.118276382745 -41.0965641088
637.375 0.138273034823 -117.868056681
637.5 0.107973545742 171.982181984
637.625 0.100517089176 97.0896202431
637.75 0.0882251721874 20.750027611
637.875 0.0807293302609 -57.4239972222
638.0 0.131688841236 -130.021906859
638.125 0.165700500508 161.394325101
638.25 0.123592637498 93.3874409526
638.375 0.0893768977622 16.0124453852
638.5 0.0772639214076 -67.5005498536
638.625 0.0931590883567 -143.399463234
638.75 0.14788811435 155.000821819
638.875 0.164619100157 98.4961493163
639.0 0.126946460325 23.8148001025
639.125 0.0779132604469 -57.8562152814
639.25 0.0669168195717 -136.973647627
639.375 0.114538010145 158.452439422
639.5 0.131526673879 104.893672281
639.625 0.146098129822 47.5227075393
639.75 0.118825389392 -29.3599322581
639.875 0.0852489289806 -119.092217823
640.0 0.0961866895396 159.867801942
640.125 0.118474550591 101.845531536
640.25 0.106469741605 49.7283091743
640.375 0.136051684897 -26.9392497391
640.5 0.126199872555 -116.252551224
640.625 0.116779001314 149.291894548
640.75 0.102602043593 79.5654974072
640.875 0.0898019914249 29.109586333
641.0 0.116302100772 -53.7431002156
641.125 0.108567067639 -121.159395909
641.25 0.134180552315 139.36967533
641.375 0.107033560047 60.158334462
641.5 0.0809724832433 14.7674904193
641.625 0.0891210370029 -73.2046451917
641.75 0.0980796228751 -147.89033294
641.875 0.0994089285227 145.866524886
642.0 0.0917308265572 68.9984572358
642.125 0.0734847209635 -8.37857267319
642.25 0.0773367301436 -107.037254288
642.375 0.0606572856304 -163.750023133
642.5 0.0756090077199 107.499975308
642.625 0.0637969469051 93.300803041
642.75 0.0623111028676 13.6074898141
642.875 0.058465454671 -145.01578455
643.0 0.0497199845237 156.601968284
643.125 0.0337968123975 113.370136319
643.25 0.0496332063382 7.2398352198
643.375 0.0468591011435 -15.4671497566
643.5 0.0526142012598 175.178699968
643.625 0.00547682446736 127.098100059
643.75 0.0243130269269 0.0843495383097
643.875 0.0274614187605 -60.9050995864
644.0 0.0280090251796 -22.6051457961
644.125 0.0564941171117 107.748981344
644.25 0.0160360554194 -50.7945091247
644.375 0.0182557742806 -101.503042418
644.5 0.0557999846088 -126.083468575
644.625 0.0207837703466 -168.145142822
644.75 0.092417838704 84.7070525747
644.875 0.0750882735838 -9.05184675441
645.0 0.0350579145696 178.892613968
645.125 0.0944654898764 -168.247455262
645.25 0.06416991861 136.089367857
645.375 0.090394103374 61.4903694421
645.5 0.0638669408466 -26.4970106778
645.625 0.0499895525316 -157.314129376
645.75 0.114003657392 168.34027091
645.875 0.108673105821 99.258556755
646.0 0.089787922544 33.2543432852
646.125 0.0761609998685 -39.8601357181
646.25 0.0297770679211 168.949768816
646.375 0.078614619981 135.51887671
646.5 0.121694634147 81.6691049896
646.625 0.0887423660758 10.3439676466
646.75 0.0879858974645 -57.3600398612
646.875 0.0259403442092 -175.06245772
647.0 0.0835160575435 133.735721235
647.125 0.10371287697 70.1667720285
647.25 0.112862758939 -0.875495709137
647.375 0.113794092224 -76.6574269316
647.5 0.0469227562954 -161.940932994
647.625 0.0661871495662 127.695728967
647.75 0.10448439268 53.8383383658
647.875 0.0648771622759 -17.9957140753
648.0 0.0824966582047 -87.9327405407
648.125 0.0870954610643 -167.611942347
648.25 0.0691700703174 120.624312727
648.375 0.112930558825 58.5773618135
648.5 0.0640950971566 -10.8091894872
648.625 0.0808756288334 -91.1781301488
648.75 0.0610162246387 -177.740425543
648.875 0.0867336394134 125.627743823
649.0 0.135497238988 65.1873639249
649.125 0.0870107150654 0.377075956139
649.25 0.0646937051872 -78.7517784101
649.375 0.0668388473387 -175.022609507
649.5 0.0920323541908 117.927641098
649.625 0.133599167899 65.0701802937
649.75 0.123625956945 4.33352378766
649.875 0.0701377740652 -59.0682236836
650.0 0.0774738598732 -156.859707203
