!Created with skrf (http://scikit-rf.org).
# GHz S RI R (50+0j) 
!freq	ReS11	ImS11	
500.0	-0.09477989996	-0.8472806321	
500.625	0.4474519412	-0.2761562761	
501.25	-0.5025968722	-1.03003258	
501.875	-0.2479963385	-0.1234882462	
502.5	0.03193442498	-0.1136048914	
503.125	-0.0860598893	0.02490555408	
503.75	0.006177318727	0.01123665453	
504.375	0.05638846074	0.003687620572	
505.0	-0.02170310084	-0.008706404319	
505.625	0.0443802856	-0.05779394107	
506.25	-0.134241663	-0.001345387077	
506.875	0.02351635167	-0.1915179888	
507.5	-0.3767873025	-0.4417587988	
508.125	-0.03185123013	-0.1548388104	
508.75	0.924215648	-0.5846994508	
509.375	-0.3371069723	-1.264819769	
510.0	-0.1858809876	-0.128279256	
510.625	-0.04810394955	-0.2395134635	
511.25	-0.09589817155	0.02160656515	
511.875	-0.07541464302	-0.05566240482	
512.5	-0.0339114414	0.051121918	
513.125	-0.03539795109	-0.03576504408	
513.75	0.002744099783	-0.05015867473	
514.375	-0.1370091934	-0.01593418489	
515.0	0.3788619388	0.009686435637	
515.625	-0.4626697949	-0.5210140477	
516.25	-0.03580303693	-0.007535220844	
516.875	0.08573213662	-0.5618526245	
517.5	-0.1811945093	-0.07696526202	
518.125	0.04112393168	-0.03373035229	
518.75	-0.1138872061	-0.06048440853	
519.375	-0.03478787332	0.01845136469	
520.0	0.06797285499	0.06445917975	
520.625	0.1412313009	-0.08386610086	
521.25	-0.0216524435	-0.2041713828	
521.875	-0.05353212615	-0.05796178848	
522.5	-0.0575321591	-0.02410022078	
523.125	0.02337599235	0.0172851326	
523.75	-0.1712835294	-0.07563866423	
524.375	-0.1078177439	0.1500248727	
525.0	-0.06600875883	-0.01716295075	
525.625	0.01820314662	0.1266721229	
526.25	-0.05236550119	-0.08995338257	
526.875	-0.01556742282	0.1042869147	
527.5	-0.01057376773	0.06781620093	
528.125	-0.04822628025	0.2617457572	
528.75	0.1042522489	0.1640951083	
529.375	0.02404792612	0.05515698063	
530.0	0.06221202305	0.177940843	
530.625	0.1620300919	0.1277483729	
531.25	0.2848044985	0.1274121837	
531.875	0.257224517	-0.06389284312	
532.5	-0.1041245805	-0.02621338971	
533.125	0.125343637	-0.05962892793	
533.75	-0.0611616731	-0.2231290084	
534.375	0.03785084869	-0.1742937886	
535.0	-0.3042026378	-0.1109555826	
535.625	-0.07333236177	0.1175720366	
536.25	-0.02775505996	0.07190618342	
536.875	0.1134362215	0.005339500777	
537.5	0.01990749011	-0.02125968373	
538.125	0.1551526658	-0.0473586925	
538.75	0.06105721492	-0.122609725	
539.375	-0.04115479716	-0.1280406226	
540.0	-0.1601445966	-0.1627581991	
540.625	-0.1267024813	0.03973726613	
541.25	-0.04833888688	-0.01146820213	
541.875	-0.0679058946	-0.08158063175	
542.5	-0.0457794631	0.003999505068	
543.125	-0.07844978113	-0.07102205079	
543.75	-0.1201129214	0.07087522965	
544.375	-0.02788430712	-0.040444283	
545.0	0.02047000214	0.1263944264	
545.625	0.02522122244	-0.01658230947	
546.25	0.1088107811	0.08735163532	
546.875	0.09149185202	-0.07959211309	
547.5	0.0573299427	-0.05203353625	
548.125	-0.02830423818	-0.1855976375	
548.75	-0.1481850029	-0.05560194173	
549.375	-0.0385835885	-0.06350030232	
550.0	-0.1097836018	0.01015476773	
550.625	-0.008999502193	0.01157549141	
551.25	-0.09715602531	0.01667098274	
551.875	-0.04348142964	0.08072856716	
552.5	-0.04587630821	0.04534448392	
553.125	-0.00782128231	0.06595956276	
553.75	0.04000115654	0.02286101087	
554.375	0.08627576203	0.003353430625	
555.0	0.08143408401	-0.07524761642	
555.625	0.06611297659	-0.09274061916	
556.25	0.05418188174	-0.1253328532	
556.875	-0.04063502111	-0.1389321603	
557.5	-0.09333972407	-0.08452055356	
558.125	-0.1018559436	-0.03542095917	
558.75	-0.1034915267	-0.0004639560185	
559.375	-0.09375731248	0.02923701255	
560.0	-0.08702983437	0.05773229248	
560.625	-0.05113464787	0.1181403974	
561.25	0.03060543051	0.06776938849	
561.875	0.004017376125	0.05805458067	
562.5	0.04326251857	0.0238530396	
563.125	0.03348601162	0.07842320131	
563.75	0.1631787489	-0.008600957934	
564.375	0.06971914136	-0.0999848728	
565.0	0.09654511808	-0.107169441	
565.625	-0.07025541606	-0.1833184467	
566.25	-0.0769845541	-0.0304487833	
566.875	-0.1205652541	-0.1169400335	
567.5	-0.1996997403	-0.03556642043	
568.125	-0.0275790421	-0.1102707217	
568.75	-0.2605345858	-0.1057374846	
569.375	-0.1242917846	0.1556113007	
570.0	-0.1591235554	0.08165889192	
570.625	-0.08162618374	0.2498793865	
571.25	0.06123381681	0.03681030303	
571.875	0.01554387511	0.139575667	
572.5	0.1181720356	-0.1089955512	
573.125	0.05411733376	0.01013039226	
573.75	0.1164163741	-0.163178477	
574.375	-0.08713200019	-0.05159209857	
575.0	0.1247684264	-0.01257259687	
575.625	-0.0362458492	-0.1184936782	
576.25	0.02659312299	-0.009199398294	
576.875	0.06349142181	-0.1823234283	
577.5	-0.1086652014	-0.1786528986	
578.125	-0.003112769751	-0.03573420253	
578.75	-0.02925953151	-0.1935872946	
579.375	-0.184306589	-0.01525717427	
580.0	0.1058459755	-0.04705854345	
580.625	-0.2044412844	-0.002419355088	
581.25	0.03004069103	0.04725556354	
581.875	-0.1448595355	0.1727000433	
582.5	0.1785787612	0.1890669364	
583.125	0.03689635223	-0.04981516919	
583.75	0.03003560336	0.1341198718	
584.375	0.05344447557	-0.07090088144	
585.0	0.02291158182	0.1386261696	
585.625	0.2300449367	-0.03873832699	
586.25	0.03765391533	-0.07966867389	
586.875	0.1519517826	-0.08978811849	
587.5	-0.08375833019	-0.1631917378	
588.125	-0.009541508454	-0.03517598843	
588.75	0.1102428762	-0.1586934169	
589.375	-0.01445403375	-0.198632574	
590.0	0.006525878456	-0.06534270703	
590.625	-0.247306491	-0.1326827309	
591.25	-0.02370846656	0.1888701955	
591.875	-0.06609146684	-0.01753537347	
592.5	-0.01149947983	0.1585876514	
593.125	-0.06252393267	-0.1147873973	
593.75	0.1092876791	0.2258642052	
594.375	0.08532959245	-0.04676048976	
595.0	0.05825202814	0.1637542061	
595.625	0.2400161742	0.07382649732	
596.25	0.09180579377	-0.04525115851	
596.875	0.1086741054	0.1195330292	
597.5	0.2145338509	0.05546060635	
598.125	0.06586391745	0.0417034653	
598.75	0.148279654	0.147512343	
599.375	0.1968002878	-0.08240129493	
600.0	0.1047105263	-0.09676909795	
600.625	0.188593961	-0.1226242285	
601.25	0.04024191867	-0.2296138191	
601.875	-0.07930060073	-0.01613193349	
602.5	-0.1461603556	-0.1146948351	
603.125	-0.03785721689	0.1546557462	
603.75	-0.05722726794	-0.04960718604	
604.375	-0.1905126954	0.08373858463	
605.0	0.06680341704	0.08859079498	
605.625	-0.1989280599	0.04850387177	
606.25	-0.07285854825	0.1575769853	
606.875	-0.0695658091	-0.004237154611	
607.5	-0.1562601515	0.2491219641	
608.125	0.003739818592	0.1778859041	
608.75	0.1088632511	0.1524615113	
609.375	0.2788055566	0.01543740033	
610.0	0.1125716705	-0.1701781401	
610.625	0.03942990928	-0.1361927733	
611.25	0.03761330125	-0.1992132881	
611.875	-0.124505924	-0.03376859027	
612.5	-0.04369442638	-0.06282706682	
613.125	-0.2632884773	0.02555225115	
613.75	0.06057863385	0.1501562434	
614.375	-0.07824331348	0.08642335601	
615.0	0.1482277411	0.04237131045	
615.625	-0.0659932252	-0.01863417793	
616.25	0.005009450142	0.2279022962	
616.875	0.0322715748	0.0949093389	
617.5	-0.1168155452	0.2310853088	
618.125	0.02113545969	0.2604107385	
618.75	-0.07881312706	0.2310102978	
619.375	0.1092810338	0.1526960474	
620.0	0.0896761966	0.1140799833	
620.625	0.0818241052	-0.1965914782	
621.25	-0.0224813808	-0.1261160021	
621.875	-0.1951399984	-0.1452800633	
622.5	-0.1608931544	0.1828874964	
623.125	-0.07552969491	0.1251526193	
623.75	0.2239950344	0.0910903751	
624.375	-0.04626446969	-0.07863441596	
625.0	0.1058916199	-0.02136109977	
625.625	-0.03112114392	-0.09964450443	
626.25	0.01675752756	-0.09643914327	
626.875	-0.1799313226	-0.1121650858	
627.5	-0.1188132498	0.0414116056	
628.125	-0.07044525032	-0.08471272066	
628.75	-0.1053857231	-0.1148768196	
629.375	-0.06380836984	-0.08872893716	
630.0	-0.1558542608	-0.08556710102	
630.625	-0.2510870446	0.04754111655	
631.25	-0.0450136871	0.2326515781	
631.875	-0.05753313887	0.1871264617	
632.5	0.1721811769	0.1911431416	
633.125	0.1471493372	-0.09658006903	
633.75	0.1449271795	0.01603715077	
634.375	0.0007284564679	-0.2578300135	
635.0	0.001251921521	-0.001369307157	
635.625	-0.1605963074	-0.1473068882	
636.25	-0.1093510569	0.152696737	
636.875	-0.03515357366	0.02952833722	
637.5	-0.09941285028	0.1530474671	
638.125	0.04507801405	0.04958555238	
638.75	-0.1573149096	0.1209302095	
639.375	0.07029729395	0.2966731782	
640.0	0.1394475191	0.110259126	
640.625	0.1703342206	0.1907428553	
641.25	0.3229158401	-0.05198730833	
641.875	0.04309614561	-0.1778725295	
642.5	0.06977093514	-0.1534599505	
643.125	-0.2102502692	-0.1187126078	
643.75	0.0330117302	0.08976059764	
644.375	-0.2605952078	-0.1450645191	
645.0	-0.06112508899	0.2736010009	
645.625	-0.02833051139	-0.01351266929	
646.25	0.291808428	0.3023120829	
646.875	0.06249726028	-0.1990702491	
647.5	0.0810278016	0.2580393196	
648.125	0.1978270601	-0.1362917912	
648.75	0.07814129488	0.0003420598119	
649.375	0.3630318077	-0.2207888534	
650.0	-0.04356578838	-0.4244103546	
650.625	0.0605450771	-0.08349570395	
651.25	0.3130404833	-0.2272487914	
651.875	0.1266418211	-0.3201694311	
652.5	0.1381274162	0.03269409324	
653.125	0.3723011048	-0.1367929593	
653.75	0.03649075906	-0.2665994508	
654.375	0.02747462004	-0.1547104489	
655.0	-0.4032776513	-0.2272196303	
655.625	-0.0164600942	0.3192855788	
656.25	-0.01993773322	0.02375751218	
656.875	0.08659822365	0.2368144298	
657.5	-0.04718747589	-0.1650540924	
658.125	0.1324938639	0.3389965643	
658.75	0.360788741	-0.1270928888	
659.375	0.1309612937	-0.006659836501	
660.0	0.3594866517	-0.2682044175	
660.625	-0.06822706962	-0.4352943124	
661.25	0.09600563731	-0.08077391488	
661.875	0.3014137162	-0.2800088883	
662.5	0.1468830378	-0.3127321875	
663.125	0.1310051086	-0.07360877463	
663.75	0.2417251115	-0.3412227037	
664.375	-0.1829013255	-0.227383622	
665.0	-0.136300683	-0.1908047595	
665.625	-0.3745023431	0.0870929279	
666.25	0.04598815605	0.2920680724	
666.875	0.005277866571	0.1245084601	
667.5	0.3031059211	0.1596068977	
668.125	0.1034026747	-0.1529704077	
668.75	0.1949928953	0.0101583495	
669.375	0.08680083966	-0.3729805924	
670.0	-0.06439982308	0.003527721322	
670.625	0.1316678556	-0.2272241968	
671.25	-0.05460952486	-0.2755428322	
671.875	0.06343566097	0.01750244285	
672.5	0.3217786572	-0.2252580965	
673.125	0.05811163843	-0.2398910143	
673.75	0.1092781977	-0.110409507	
674.375	0.1245062499	-0.2783745119	
675.0	-0.2522068691	-0.1423274083	
675.625	-0.02029979466	-0.1040220152	
676.25	-0.2687248936	-0.04424598441	
676.875	-0.082695967	0.1304781335	
677.5	-0.1087759699	-0.06782353612	
678.125	-0.1698047094	0.2600538724	
678.75	0.1347983206	0.08798213386	
679.375	0.04789977244	0.1560177128	
680.0	0.3306851814	-0.1873427732	
680.625	-0.1857344352	-0.09750460605	
681.25	0.2963146563	0.1637641977	
681.875	0.1362819921	-0.2523888715	
682.5	-0.02620015361	0.07462296265	
683.125	0.4816066716	0.1749967304	
683.75	0.1739996477	-0.2629359202	
684.375	0.08343152311	0.227957612	
685.0	0.3641101411	-0.08459688414	
685.625	0.1731156294	-0.1104599597	
686.25	0.1785853085	0.117329966	
686.875	0.4089527232	-0.3098925374	
687.5	0.09776978644	-0.2123884755	
688.125	0.02806723108	-0.3881404515	
688.75	-0.4936862374	-0.1729506328	
689.375	-0.06272817135	0.3003539643	
690.0	-0.03719813968	0.2833173252	
690.625	0.3928093339	0.2145332738	
691.25	0.1525700655	0.01449430164	
691.875	0.396453469	0.496837279	
692.5	0.7248510886	-0.09785214991	
693.125	0.3164254017	-0.030841805	
693.75	0.7409776721	-0.2447301628	
694.375	0.2699446875	-0.603779568	
695.0	0.2304830783	-0.04970664449	
695.625	0.6422622222	-0.2685763459	
696.25	0.3580681909	-0.09907952374	
696.875	0.488452524	0.460326133	
697.5	0.4448029712	0.3728087134	
698.125	0.5411815042	-0.05629667946	
698.75	0.3421007944	-0.2537436423	
699.375	-0.3403338091	-0.3924974363	
700.0	-0.1894526058	0.400005191	
700.625	0.1646210189	0.1059829902	
701.25	0.2559767533	0.2590306328	
701.875	0.3133741702	-0.02609933202	
702.5	0.1883814673	0.2216114223	
703.125	0.5135175653	0.09953762237	
703.75	0.2347143399	-0.251954432	
704.375	0.3437702618	-0.07015724757	
705.0	0.2783071702	-0.2541947456	
705.625	0.09336000491	-0.04787688864	
706.25	0.3480260522	0.1456694335	
706.875	0.2341444854	0.1721907847	
707.5	0.2657108282	0.3156164546	
708.125	0.4302174684	0.002381285915	
708.75	0.36457186	-0.2080650057	
709.375	-0.3378860868	-0.1992195521	
710.0	0.02764270126	-0.05780120322	
710.625	0.06188203887	0.2725596214	
711.25	-0.01517667713	-0.1036433585	
711.875	0.2426844919	0.244498106	
712.5	0.2533358297	-0.2055071571	
713.125	0.128699923	-0.057178437	
713.75	0.1807701071	-0.298346435	
714.375	-0.1091488677	-0.2158336528	
715.0	0.03978152221	-0.1243918609	
715.625	-0.01822908553	-0.295347707	
716.25	-0.00119300601	-0.1655962806	
716.875	0.2863605714	-0.07883789974	
717.5	0.5247645093	-0.1356931779	
718.125	0.6051821398	-0.1534799995	
718.75	0.528022727	-0.1172524248	
719.375	0.6109019144	-0.541086903	
720.0	0.1042020873	-0.7537707416	
720.625	0.4780686353	-0.3174150482	
721.25	-0.2738841343	-1.404847458	
721.875	-0.3046908634	0.02138875299	
722.5	-0.4410587384	-0.9328392279	
723.125	-0.846401732	0.1320928478	
723.75	0.02962048829	0.267654412	
724.375	-0.1641798801	0.5295353753	
725.0	0.4243515147	0.2468240296	
725.625	-0.01530865035	0.2644612262	
726.25	0.02788980385	0.7658356336	
726.875	0.3169655895	0.7898931775	
727.5	-0.1586423277	0.6860495265	
728.125	-0.1735353897	2.069076974	
728.75	0.8882958039	2.333826862	
729.375	-0.6028078411	1.595280341	
730.0	-0.3378319363	4.363973092	
730.625	1.850379371	3.006777692	
731.25	-0.345348082	1.299584076	
731.875	-3.576477309	2.372402421	
732.5	-2.170886775	2.350770149	
733.125	-0.87949569	-1.048646219	
733.75	-0.9791938697	2.084219419	
734.375	0.795724391	-0.2729728229	
735.0	0.2923252423	-0.2100808828	
735.625	-0.8421699054	0.2381466837	
736.25	0.1993979127	-0.1100767179	
736.875	0.1586825581	0.8539436014	
737.5	1.286579217	-0.1915447153	
738.125	0.4893813053	-0.7012395626	
738.75	1.6029736	0.2550957241	
739.375	2.747630167	-2.995652855	
740.0	-0.138648396	-1.630692721	
740.625	2.031187629	3.338797907	
741.25	3.788643813	3.014449771	
741.875	0.7883191477	-2.293460552	
742.5	-1.866917959	-3.766593684	
743.125	-1.482541976	-1.745411785	
743.75	0.03278524669	-0.1136035417	
744.375	-0.643497259	-0.330636854	
745.0	0.2490649394	0.03216418279	
745.625	0.1113144226	0.1319775121	
746.25	-0.134062019	-0.1424699452	
746.875	-0.02606623529	-0.03917262232	
747.5	-0.1816231068	0.3399702433	
748.125	0.2961671666	0.3910742586	
748.75	0.2021115297	0.2482853773	
749.375	0.1622561807	0.4388312522	
750.0	-0.60726106	0.2458742432	
