!Created with skrf (http://scikit-rf.org).
# GHz S RI R (50+0j) 
!freq	ReS11	ImS11	
500.0	0.05637085385	-0.6771225281	
500.625	0.2235328559	-0.7761401847	
501.25	-0.3051466255	-0.5192854088	
501.875	-0.2188747205	-0.326680348	
502.5	-0.02900643884	-0.1001175455	
503.125	-0.05824847135	0.005161608526	
503.75	0.01300630844	0.06494005598	
504.375	0.0221773714	-0.005323488445	
505.0	0.01520860081	-0.01789083399	
505.625	-0.003352747477	-0.03999541142	
506.25	-0.04898381021	-0.04586133756	
506.875	-0.09538179762	0.01608766355	
507.5	-0.08546816352	-0.2747927101	
508.125	0.0851911999	-0.5054049997	
508.75	0.3722163309	-0.7702224671	
509.375	-0.00574035022	-0.9380244786	
510.0	-0.3222484581	-0.2324972682	
510.625	-0.1029174362	-0.09623736992	
511.25	-0.05059323729	-0.04862203024	
511.875	-0.07009139791	-0.04671061921	
512.5	-0.02257256041	0.04498224656	
513.125	-0.01223167212	-0.05398782789	
513.75	-0.04658290312	-0.04122796146	
514.375	-0.03925726228	-7.750874736e-05	
515.0	0.001442002143	-0.05936420644	
515.625	0.06578313403	-0.2425751633	
516.25	-0.2175650031	-0.394949676	
516.875	-0.1932562661	-0.3282851676	
517.5	-0.05496273374	-0.1199740786	
518.125	-0.02083550132	-0.02429679039	
518.75	-0.04593513745	-0.1064162406	
519.375	-0.04072810273	0.03277115242	
520.0	0.08518754333	0.03360295301	
520.625	0.1235971059	-0.0531198809	
521.25	-0.02384089724	-0.2071034695	
521.875	-0.1216493659	-0.01025942981	
522.5	-0.03720273238	0.02496676389	
523.125	-0.04710987614	0.02585016608	
523.75	-0.08818090903	1.122268108e-05	
524.375	-0.1271671798	0.03614755638	
525.0	-0.02644620182	0.1141456698	
525.625	0.03215779739	0.03779899899	
526.25	-0.01057593655	-0.01027022957	
526.875	-0.03835979971	0.04581798067	
527.5	-0.02523962111	0.1480654648	
528.125	0.05498667418	0.1984980033	
528.75	0.03938104309	0.1654224199	
529.375	0.02865769955	0.04120760925	
530.0	0.02035610588	0.1162995143	
530.625	0.106689891	0.2114738266	
531.25	0.3288234907	0.05981688425	
531.875	0.1718211341	-0.158874959	
532.5	-0.05389923291	-0.08633027767	
533.125	0.03974965482	-0.04921495854	
533.75	0.07162455361	-0.1495527847	
534.375	-0.08321294612	-0.2194559754	
535.0	-0.201591586	-0.07799800791	
535.625	-0.1295344333	0.09784644657	
536.25	0.004118137071	0.0819622539	
536.875	0.07988375894	0.006662552294	
537.5	0.05231428351	-0.04084645734	
538.125	0.09099879944	-0.05853807732	
538.75	0.09767215493	-0.1108791167	
539.375	-0.07167575792	-0.1345210344	
540.0	-0.1466186413	-0.1178633567	
540.625	-0.1401380343	-0.01455187967	
541.25	-0.07247426527	0.007559032078	
541.875	-0.038871461	-0.01588532099	
542.5	-0.04120734664	-0.04301214075	
543.125	-0.06961937558	-0.03440452614	
543.75	-0.07347307262	-0.0003430279372	
544.375	-0.0375976494	0.03784771929	
545.0	-0.001376510882	0.0506504729	
545.625	0.04766943348	0.05210665808	
546.25	0.0842094411	0.0270694605	
546.875	0.1009439205	-0.03060980846	
547.5	0.04951842886	-0.1107210861	
548.125	-0.04898096577	-0.1346997246	
548.75	-0.1114838404	-0.09081747634	
549.375	-0.1008997085	-0.05220874547	
550.0	-0.06617934657	0.01209176705	
550.625	-0.04560846772	0.0104385943	
551.25	-0.06236235175	0.0279736809	
551.875	-0.0584732777	0.06475738001	
552.5	-0.0306993791	0.070515775	
553.125	-0.008737399411	0.05507171509	
553.75	0.04307461133	0.03776582554	
554.375	0.08266209849	-0.007095072521	
555.0	0.08262239596	-0.06801984785	
555.625	0.0696765441	-0.09926528431	
556.25	0.04902764021	-0.127884544	
556.875	-0.03793876672	-0.1380419108	
557.5	-0.0963519613	-0.08635882509	
558.125	-0.106834032	-0.02765011853	
558.75	-0.09906241186	0.006675093851	
559.375	-0.09803965296	0.02803126262	
560.0	-0.08129597206	0.07613550857	
560.625	-0.0391041204	0.1034796235	
561.25	0.01390788988	0.08954387492	
561.875	0.02959639228	0.03907774199	
562.5	0.01303486268	0.04733961998	
563.125	0.06697131253	0.06065955765	
563.75	0.1258411456	-0.0066356827	
564.375	0.1095571273	-0.09421196116	
565.0	0.05458261103	-0.1359315977	
565.625	-0.03921806282	-0.1380298633	
566.25	-0.1092098712	-0.08898366984	
566.875	-0.12821784	-0.0582721817	
567.5	-0.1296905059	-0.08348713216	
568.125	-0.1387963705	-0.1202282151	
568.75	-0.2020689809	-0.04509644167	
569.375	-0.1923446398	0.1073268255	
570.0	-0.0821982742	0.1874052143	
570.625	-0.02655641754	0.1577464645	
571.25	0.01776813645	0.100642362	
571.875	0.0580638116	0.05834206817	
572.5	0.1090646117	-0.01233995785	
573.125	0.06769142835	-0.1044529765	
573.75	0.02724085589	-0.1026541753	
574.375	0.003534250383	-0.06147173696	
575.0	0.02189182426	-0.0371924579	
575.625	0.0289681167	-0.0675287616	
576.25	0.03102533357	-0.09925125034	
576.875	-0.01335601244	-0.124694794	
577.5	-0.01473597379	-0.1392402298	
578.125	-0.05193982715	-0.1353172747	
578.75	-0.08491157115	-0.09954949583	
579.375	-0.0825054918	-0.04866915827	
580.0	-0.0488062908	-0.02124993801	
580.625	-0.06387726844	-0.01809742167	
581.25	-0.08339956861	0.07462689243	
581.875	0.01818616162	0.1357007344	
582.5	0.06043648753	0.1178454535	
583.125	0.07380439346	0.06094553274	
583.75	0.03726912514	0.01454998744	
584.375	0.03368531675	0.04779285297	
585.0	0.09983063482	0.04374966343	
585.625	0.1354323706	-0.01284130203	
586.25	0.1256439135	-0.06790081076	
586.875	0.05280152667	-0.1237256699	
587.5	-0.02238776048	-0.1215923932	
588.125	-0.02691072019	-0.1198016458	
588.75	0.01560996329	-0.1285441698	
589.375	0.03915854575	-0.1395343647	
590.0	-0.06655950497	-0.1465111861	
590.625	-0.1639514915	-0.02044762929	
591.25	-0.1023204635	0.1094841594	
591.875	-0.01622619193	0.1073408077	
592.5	0.01365019896	0.04183392653	
593.125	-0.02086863074	0.046330313	
593.75	0.05550005871	0.09985143656	
594.375	0.1376575232	0.07513057502	
595.0	0.1541151349	0.07096939004	
595.625	0.1541114001	0.0525736517	
596.25	0.1409736548	0.02173237275	
596.875	0.139610256	0.01683560077	
597.5	0.1345098155	0.05478770719	
598.125	0.1406558738	0.08084501931	
598.75	0.1623900542	0.05335148567	
599.375	0.1797333614	-0.05195600373	
600.0	0.1302289619	-0.1411592817	
600.625	0.1002855794	-0.1688215379	
601.25	0.03274456426	-0.1730935033	
601.875	-0.08356425635	-0.1153474627	
602.5	-0.1143119445	-0.0007527319967	
603.125	-0.09025169562	0.05157414609	
603.75	-0.0863349454	0.07171935553	
604.375	-0.07784910856	0.07414017332	
605.0	-0.05312194187	0.07275923923	
605.625	-0.05831670667	0.0610752034	
606.25	-0.09372806067	0.06414860078	
606.875	-0.1394030759	0.09085940445	
607.5	-0.1237775934	0.1688007275	
608.125	-0.00228447048	0.2172904505	
608.75	0.1749819774	0.1306564489	
609.375	0.2018574807	-0.05045300484	
610.0	0.1348597908	-0.1225063724	
610.625	0.05842389612	-0.1485036169	
611.25	-0.0101146305	-0.1404499793	
611.875	-0.08667283832	-0.1036100418	
612.5	-0.1483904452	-0.04373468785	
613.125	-0.1660548702	0.0475213388	
613.75	-0.06831736202	0.1362812439	
614.375	0.04940434688	0.09450871096	
615.0	0.03916161371	0.03605559843	
615.625	0.002827902838	0.07508376903	
616.25	-0.02959579795	0.1278021713	
616.875	-0.05929035586	0.1695305738	
617.5	-0.04536586962	0.1976317949	
618.125	0.0001406867352	0.190355848	
618.75	0.03645142925	0.1659882298	
619.375	0.09787487505	0.1346736331	
620.0	0.1730753701	0.02168112969	
620.625	0.08314755534	-0.1505773197	
621.25	-0.0961246067	-0.1550333169	
621.875	-0.1880371224	-0.05836002084	
622.5	-0.186056077	0.07314309641	
623.125	-0.01899174274	0.169545885	
623.75	0.1205735546	0.02691184017	
624.375	0.03176136889	-0.05113355965	
625.0	0.03343954026	-0.02678097105	
625.625	0.03858749139	-0.08232802549	
626.25	-0.05166473615	-0.1191635091	
626.875	-0.1276944451	-0.06822023162	
627.5	-0.1320257261	-0.0303977224	
628.125	-0.1021822721	-0.05469456769	
628.75	-0.07388586077	-0.1040979657	
629.375	-0.09243230603	-0.1261768343	
630.0	-0.1743581944	-0.07277823379	
630.625	-0.1913817688	0.07686078937	
631.25	-0.1097052215	0.1869764413	
631.875	0.001030966576	0.2224507557	
632.5	0.146089014	0.1641030862	
633.125	0.19163887	0.0312279969	
633.75	0.1449963787	-0.07469371284	
634.375	0.0450967386	-0.1283234756	
635.0	-0.02360838494	-0.131296302	
635.625	-0.1362789983	-0.06918949674	
636.25	-0.1347467277	0.07513922801	
636.875	-0.04925192033	0.118233041	
637.5	-0.02599234833	0.08318984342	
638.125	-0.0521558585	0.08297999939	
638.75	-0.05081946967	0.1526287225	
639.375	0.0158825094	0.22107959	
640.0	0.1430823351	0.2051867495	
640.625	0.2228898223	0.1133916365	
641.25	0.244562078	-0.02381822688	
641.875	0.1392348738	-0.1778266397	
642.5	-0.02217861297	-0.1901946733	
643.125	-0.1173416443	-0.09950550941	
643.75	-0.1251786044	-0.05587084889	
644.375	-0.1583371488	0.01153182456	
645.0	-0.1214046482	0.1475190364	
645.625	0.06451094115	0.1888877853	
646.25	0.1532211199	0.05654522848	
646.875	0.08831962319	-0.02393308761	
647.5	0.05086721079	0.02549683041	
648.125	0.1440625875	0.03711589783	
648.75	0.2287185241	-0.07529137251	
649.375	0.1841766926	-0.2274924608	
650.0	0.1232155847	-0.2768318506	
650.625	0.1159621753	-0.2598753905	
651.25	0.1578171435	-0.2200536805	
651.875	0.20879075	-0.1648515635	
652.5	0.2384667678	-0.106922338	
653.125	0.22940908	-0.1160009698	
653.75	0.1567590198	-0.2185851714	
654.375	-0.07273152596	-0.2670218482	
655.0	-0.2619448165	-0.06410448014	
655.625	-0.1461023906	0.1769628796	
656.25	0.04099514575	0.1531534835	
656.875	0.05179382125	0.05639259717	
657.5	0.0395082818	0.0882439049	
658.125	0.1372687602	0.1325399182	
658.75	0.2649765951	0.05019249821	
659.375	0.278046288	-0.1458120849	
660.0	0.1789553091	-0.2727815937	
660.625	0.100728963	-0.2974523945	
661.25	0.1210277221	-0.2693996349	
661.875	0.1738792754	-0.234208098	
662.5	0.2143985419	-0.1959853084	
663.125	0.2163578804	-0.1899529834	
663.75	0.1220169254	-0.2611519302	
664.375	-0.05755051376	-0.2883019744	
665.0	-0.2510742896	-0.1663490832	
665.625	-0.274009237	0.100087238	
666.25	-0.07116277784	0.2476196754	
666.875	0.1196288765	0.1750765299	
667.5	0.1702723098	0.06838918293	
668.125	0.192296248	-0.02792247788	
668.75	0.1596505006	-0.1393338829	
669.375	0.07131369583	-0.2027565989	
670.0	-0.007174479304	-0.1971282432	
670.625	-0.004986961118	-0.168532531	
671.25	0.04280573825	-0.1587731942	
671.875	0.1115195946	-0.1560710244	
672.5	0.1699334381	-0.1424565171	
673.125	0.1720883713	-0.1653305235	
673.75	0.1256428052	-0.2041266826	
674.375	0.02608570606	-0.2351989014	
675.0	-0.09417579812	-0.2035919156	
675.625	-0.1750755049	-0.1022297079	
676.25	-0.1631335947	-0.008595846503	
676.875	-0.1305333851	0.02026803037	
677.5	-0.131139537	0.037105375	
678.125	-0.1115832979	0.1347847925	
678.75	0.04814572192	0.196481941	
679.375	0.1894923493	0.05108400051	
680.0	0.1270855951	-0.08929615348	
680.625	0.05588093161	-0.0765262297	
681.25	0.08009862061	-0.01610033549	
681.875	0.1350319822	0.03561517285	
682.5	0.1809077564	0.06826849465	
683.125	0.2208823392	0.05664454716	
683.75	0.2351479914	0.04731441064	
684.375	0.2471658049	0.02338433457	
685.0	0.2502415166	0.01852515087	
685.625	0.2569717326	-0.01547075528	
686.25	0.2599604243	-0.05789249496	
686.875	0.2556124845	-0.1527809895	
687.5	0.195594629	-0.2841883595	
688.125	-0.06140476239	-0.3807299416	
688.75	-0.3821046295	-0.1305085519	
689.375	-0.2265375181	0.3048885422	
690.0	0.1190525165	0.3046406712	
690.625	0.2275450969	0.2031635926	
691.25	0.2965981321	0.2168262698	
691.875	0.4165007339	0.2429819112	
692.5	0.5416648983	0.1492634398	
693.125	0.581850323	-0.05947731331	
693.75	0.502900233	-0.2462394118	
694.375	0.3606306836	-0.3695128306	
695.0	0.3753646734	-0.27867946	
695.625	0.4337922061	-0.1083114708	
696.25	0.4409623748	0.1103960269	
696.875	0.3733688751	0.3017911086	
697.5	0.3726504932	0.3495487092	
698.125	0.5071390164	0.1350402085	
698.75	0.3335009825	-0.3963262198	
699.375	-0.3671002201	-0.300352285	
700.0	-0.2111810985	0.3225746714	
700.625	0.1470842397	0.2442257807	
701.25	0.2083804649	0.1397560279	
701.875	0.2418313122	0.183866033	
702.5	0.3175221942	0.1855119394	
703.125	0.3740587201	0.07606432435	
703.75	0.3320880934	-0.1117517864	
704.375	0.2337132177	-0.1821571375	
705.0	0.2044012135	-0.13177658	
705.625	0.232121984	-0.01459590517	
706.25	0.2267757778	0.1381136494	
706.875	0.2168216256	0.2374782217	
707.5	0.2562874962	0.2772674579	
708.125	0.3897285164	0.07453676867	
708.75	0.2221328129	-0.3181122725	
709.375	-0.2511987433	-0.2213716643	
710.0	-0.1445877531	0.1968125409	
710.625	0.07193295061	0.1257117454	
711.25	0.08881303393	0.09184975845	
711.875	0.1890025694	0.08430673318	
712.5	0.2668161682	-0.04179243756	
713.125	0.2175232497	-0.1684182088	
713.75	0.1034510382	-0.2253191069	
714.375	-0.002363817329	-0.210176495	
715.0	-0.03250801569	-0.1767113076	
715.625	0.00428035204	-0.1874259622	
716.25	0.1176046213	-0.2117077095	
716.875	0.2705681584	-0.172692748	
717.5	0.4233028154	-0.06612792783	
718.125	0.5490710056	-0.01671837762	
718.75	0.6125481699	-0.1564787898	
719.375	0.5847751631	-0.4246121006	
720.0	0.3160318207	-0.6989477244	
720.625	0.0802357067	-0.7778776948	
721.25	-0.1231471561	-0.8008872534	
721.875	-0.2977241343	-0.7961142771	
722.5	-0.5752826695	-0.5670172521	
723.125	-0.6695220033	-0.04343504133	
723.75	-0.3117796413	0.4040062726	
724.375	0.05965000303	0.3941052887	
725.0	0.1712630446	0.3105583208	
725.625	0.1678469901	0.3746513376	
726.25	0.0753252013	0.5609310563	
726.875	-0.01142343161	0.7759666236	
727.5	-0.008153895393	1.117126981	
728.125	0.1329608881	1.53531729	
728.75	0.1744790206	2.074857806	
729.375	-0.1916053311	2.828759035	
730.0	0.2026872583	3.100737859	
730.625	0.7115293891	3.310262235	
731.25	-0.5089175224	2.880035011	
731.875	-1.741348868	2.359657474	
732.5	-2.514134446	0.952444929	
733.125	-1.916363293	0.608713996	
733.75	-0.5739788659	1.140471219	
734.375	0.7380627487	0.2902167958	
735.0	-0.0669157963	-0.5140552084	
735.625	-0.3885412685	0.1287805297	
736.25	-0.02154400394	0.4449047313	
736.875	0.3846464403	0.4340162272	
737.5	0.8628146503	0.07898050202	
738.125	1.142899904	-0.4525759507	
738.75	1.269366147	-1.051840875	
739.375	1.656688742	-1.385892765	
740.0	2.365158489	-1.330815662	
740.625	2.055671088	0.02584307296	
741.25	0.8689721051	1.611228407	
741.875	-1.979364846	0.5080987092	
742.5	-1.283845241	-1.763681864	
743.125	-0.03092776274	-1.533594174	
743.75	-0.05641099137	-0.8399790416	
744.375	-0.3566988165	-0.0291078551	
745.0	0.06502934673	0.08240367253	
745.625	0.04414018203	0.005978539734	
746.25	-0.00012584064	-0.1010132792	
746.875	-0.17827877	0.02837215653	
747.5	-0.05641270545	0.2776566813	
748.125	0.1497769702	0.4212870436	
748.75	0.2471184433	0.3448370563	
749.375	0.1383496294	0.3953869249	
750.0	-0.2938406499	0.2350755621	
