!Created with skrf (http://scikit-rf.org).
# GHz S RI R (50+0j) 
!freq	ReS11	ImS11	
500.0	0.5665351994	-1.146856928	
500.625	-0.2496357652	-1.162032006	
501.25	0.01847847688	-0.5948433555	
501.875	-0.4110779686	-0.6535052095	
502.5	-0.04599804285	-0.04850487123	
503.125	-0.0791888949	-0.03444254998	
503.75	0.07924890301	0.1128466779	
504.375	0.003002226897	0.006528213546	
505.0	0.03720528616	-0.06892553999	
505.625	-0.0319281089	-0.0006731036717	
506.25	0.003143110102	-0.1440048973	
506.875	-0.1099761431	0.2372128873	
507.5	0.2534313533	-0.5043226518	
508.125	0.1404867873	-1.044755129	
508.75	0.22336521	-0.4473927311	
509.375	0.3712094503	-1.184443751	
510.0	-0.6866609002	-0.1887842683	
510.625	-0.1130241624	-0.07397271497	
511.25	-0.1508133424	-0.1789979051	
511.875	-0.1646184391	0.04205349495	
512.5	-0.0442923803	-0.006843513487	
513.125	0.01093377755	-0.102336742	
513.75	-0.06394703185	0.02492252434	
514.375	0.007844212454	-0.1137816325	
515.0	-0.3314848444	0.009527731044	
515.625	0.4214564358	-0.3822194309	
516.25	-1.037840101	-0.692614714	
516.875	-0.02798387706	-0.05216674987	
517.5	0.08185252964	-0.2662100764	
518.125	-0.1119546392	0.01570656185	
518.75	0.09738132179	-0.1364038019	
519.375	-0.04486573486	0.06018791634	
520.0	0.1014256921	0.01132056723	
520.625	0.1169225311	0.01004874327	
521.25	0.03308243325	-0.3803436884	
521.875	-0.1550263428	0.02888752054	
522.5	-0.01882131777	-0.05049892976	
523.125	-0.1170039528	0.1449305821	
523.75	0.003671661858	0.02310344083	
524.375	-0.2877126799	-0.07535422689	
525.0	0.09715733591	0.2011806865	
525.625	-0.03944829478	-0.02086765524	
526.25	0.05184693505	0.04211160697	
526.875	-0.1365475528	0.0302573971	
527.5	-0.0478531064	0.322281025	
528.125	0.1499826181	0.1310556637	
528.75	-0.1011062815	0.1985921229	
529.375	0.02959345679	0.006607611808	
530.0	-0.09278958118	0.05169095092	
530.625	0.08636446173	0.2890719399	
531.25	0.4046163431	-0.01487977597	
531.875	-0.001567821589	-0.2348285453	
532.5	-0.08871173278	-0.2277763876	
533.125	0.04364106536	0.1242947363	
533.75	0.1488767617	-0.3297817139	
534.375	-0.2513675006	-0.213842274	
535.0	-0.168498871	-0.1707513511	
535.625	-0.2174269505	0.1740074867	
536.25	0.01980435524	0.06301497725	
536.875	0.08353635799	0.06397189042	
537.5	0.0773281315	-0.08141520858	
538.125	0.05877484656	-0.02266408656	
538.75	0.2111939537	-0.1340897602	
539.375	-0.1015972379	-0.1516780987	
540.0	-0.08126865435	-0.1430325477	
540.625	-0.1833875095	-0.06082129156	
541.25	-0.08236044919	0.0561410947	
541.875	0.007875280841	-0.04256869631	
542.5	-0.1039047578	-0.02758262203	
543.125	-0.03278492098	0.008300211947	
543.75	-0.1527876891	-0.03644803651	
544.375	0.005484119291	0.15280606	
545.0	-0.05576007828	0.04581113728	
545.625	0.1170615846	0.05704783913	
546.25	0.02876950941	-0.002050511392	
546.875	0.1791444609	0.03119418217	
547.5	0.01846888777	-0.1613262224	
548.125	-0.002090202706	-0.1060935031	
548.75	-0.1415114109	-0.1763594464	
549.375	-0.1670255766	-0.01325047114	
550.0	-0.04216067086	-0.03416633099	
550.625	-0.08283781775	0.04737225361	
551.25	-0.0449564906	0.003019458184	
551.875	-0.1096874291	0.06508554885	
552.5	-0.01452409928	0.08522394462	
553.125	-0.03426203738	0.05481404282	
553.75	0.06159051401	0.04630734163	
554.375	0.08605450306	-0.007921982704	
555.0	0.1093590597	-0.07235258219	
555.625	0.08377883245	-0.1161057239	
556.25	0.06231756931	-0.143136424	
556.875	-0.0333757083	-0.1660435522	
557.5	-0.10822566	-0.1093887697	
558.125	-0.1222071239	-0.03624361126	
558.75	-0.11023736	-0.007726820712	
559.375	-0.1284947647	0.02166876918	
560.0	-0.08988707441	0.086295989	
560.625	-0.06673216736	0.1023123205	
561.25	0.008666167018	0.1302804466	
561.875	0.03702629729	0.007189041858	
562.5	0.001510030672	0.09311875371	
563.125	0.08168099695	0.03426795217	
563.75	0.1304597532	0.04704843545	
564.375	0.1737271128	-0.1310417578	
565.0	0.03063894296	-0.138609304	
565.625	0.02137465147	-0.1770156266	
566.25	-0.179322396	-0.1154691609	
566.875	-0.09090502494	-0.02454109211	
567.5	-0.140182952	-0.1949547345	
568.125	-0.2101639929	-0.1248138069	
568.75	-0.1209354151	-0.09472913239	
569.375	-0.3196234456	0.1018527926	
570.0	-0.006565560487	0.2378804104	
570.625	-0.09754853056	0.1001758022	
571.25	0.01238972806	0.2281282729	
571.875	0.022846631	-0.01403891029	
572.5	0.2029346095	0.07497441951	
573.125	0.04306140631	-0.1990546985	
573.75	0.02501387226	0.004735652565	
574.375	0.09716518997	-0.1624721077	
575.0	-0.06524376715	-0.004751249441	
575.625	0.1316760305	-0.0775049299	
576.25	-0.01138801656	-0.1848933376	
576.875	-0.0094991805	-0.04838765315	
577.5	0.08068878738	-0.2133395751	
578.125	-0.1391373769	-0.175713414	
578.75	-0.04108573016	-0.004611482515	
579.375	-0.03736826215	-0.1903185934	
580.0	-0.1681221967	0.06606027317	
580.625	0.02709301737	-0.1153953522	
581.25	-0.191806925	0.2294366575	
581.875	0.08715226581	0.09135316119	
582.5	-0.1087100902	0.1896884382	
583.125	0.1743546634	0.1747214968	
583.75	-0.0229181628	-0.07931849491	
584.375	0.07137912806	0.1595406445	
585.0	0.08742352022	-0.06506735171	
585.625	0.09789884745	0.09089424442	
586.25	0.2525189982	-0.1362325274	
586.875	-0.02237049215	-0.125898449	
587.5	0.0832708285	-0.1592081091	
588.125	-0.0709187757	-0.2231542197	
588.75	-0.02412922673	-0.06111222928	
589.375	0.1729410053	-0.1677815694	
590.0	-0.1713905051	-0.2034588067	
590.625	-0.08655640783	-0.02291460344	
591.25	-0.2269796233	0.08702843115	
591.875	0.06941560143	0.208180022	
592.5	-0.1063902339	-0.06416530675	
593.125	0.04285040493	0.1410989648	
593.75	-0.01029429489	0.0424055168	
594.375	0.1680858758	0.2074095378	
595.0	0.1892516877	-0.06556452999	
595.625	0.05889819928	0.0880194892	
596.25	0.2341520437	0.1087279486	
596.875	0.1354067779	-0.0460352512	
597.5	0.09163213197	0.154817311	
598.125	0.2506713196	0.1531401891	
598.75	0.1181930866	0.03887509541	
599.375	0.2215766146	0.04904033124	
600.0	0.1643160703	-0.1768051851	
600.625	0.04696594665	-0.1673103514	
601.25	0.1417964048	-0.1503869229	
601.875	-0.148824655	-0.2060902703	
602.5	-0.05812673305	0.06268240185	
603.125	-0.1695665298	-0.04561237497	
603.75	-0.1009339733	0.1894218013	
604.375	-0.0485377951	-0.05343919441	
605.0	-0.1841581995	0.1151110751	
605.625	0.1104481395	-0.004197593669	
606.25	-0.1784061032	-0.05397312092	
606.875	-0.1377241449	0.1953243654	
607.5	-0.05345383137	0.1359287751	
608.125	-0.05877576284	0.3312776277	
608.75	0.300800779	0.1963326767	
609.375	0.2221693848	-0.02189777573	
610.0	0.2221915997	-0.09550135477	
610.625	0.145989216	-0.1667693882	
611.25	-0.005862040332	-0.05960079157	
611.875	-0.03033013273	-0.1982063011	
612.5	-0.2202049436	0.05706402415	
613.125	-0.07412845092	-0.01441177589	
613.75	-0.2004972667	0.1970985757	
614.375	0.1656527644	0.07100080745	
615.0	-0.1030399766	0.07161263244	
615.625	0.1435375972	0.1040441039	
616.25	-0.05715780996	0.03654412872	
616.875	-0.2033587401	0.2232776754	
617.5	0.03500759526	0.3113789046	
618.125	-0.07578828278	0.218621254	
618.75	-0.03125634248	0.2950477693	
619.375	0.2001638442	0.1243794917	
620.0	0.08953173738	0.07590910278	
620.625	0.1357854134	-0.05333574163	
621.25	-0.1539520943	-0.1324965966	
621.875	-0.1286110827	-0.1424039146	
622.5	-0.3121665937	0.04755052138	
623.125	0.0414166515	0.2547595389	
623.75	0.03835892224	0.06043837678	
624.375	0.1260147692	-0.1185018263	
625.0	-0.05068421332	0.01568322231	
625.625	0.1365922092	-0.1162417963	
626.25	-0.1357245285	-0.1482503003	
626.875	-0.04803619002	-0.05926750547	
627.5	-0.2037218064	-0.1059509184	
628.125	-0.1505936329	0.01129179593	
628.75	-0.04198447192	-0.1105750888	
629.375	-0.1620510293	-0.2184849322	
630.0	-0.1556272203	-0.01149443418	
630.625	-0.2424391689	-0.01413180857	
631.25	-0.202072376	0.2486626575	
631.875	0.03251459447	0.2357983563	
632.5	0.06577519511	0.1341977089	
633.125	0.3133296383	0.04818543288	
633.75	0.08643433345	-0.1895378602	
634.375	0.1232068091	-0.08784233103	
635.0	-0.08122278732	-0.218387536	
635.625	-0.06013943672	0.02488179889	
636.25	-0.2536485751	-0.008859080145	
636.875	-0.007192082732	0.2481415307	
637.5	-0.02008610006	-0.002928343488	
638.125	-0.1417566091	0.1706101064	
638.75	0.04053650916	0.1337325776	
639.375	-0.1151754982	0.1892947099	
640.0	0.2114789444	0.3497765662	
640.625	0.2526968508	0.03397220708	
641.25	0.2044908424	0.08867326966	
641.875	0.3140865304	-0.2255431312	
642.5	-0.09697076558	-0.1623219195	
643.125	0.0237737623	-0.1125775877	
643.75	-0.2766949869	-0.05201173616	
644.375	0.05902687641	0.1734906216	
645.0	-0.28661155	0.1116291237	
645.625	0.1925013997	0.2413862848	
646.25	0.05714046798	0.006341803257	
646.875	0.2109665717	0.211634233	
647.5	0.02072100452	-0.1561933499	
648.125	0.1697308994	0.2156528773	
648.75	0.3763295335	-0.2590545967	
649.375	0.06418750647	-0.1821387343	
650.0	0.3246714321	-0.2241643507	
650.625	0.1381606784	-0.4896738271	
651.25	0.00120178852	-0.1161108399	
651.875	0.4242647369	-0.06931956229	
652.5	0.3149543835	-0.2973486299	
653.125	0.1178410807	-0.0431676533	
653.75	0.3743640233	-0.2162046459	
654.375	-0.2241139465	-0.4040567875	
655.0	-0.1626546128	-0.03192502173	
655.625	-0.3398424442	0.144541732	
656.25	0.2585376507	0.3426748099	
656.875	-0.1104043504	-0.0431321391	
657.5	0.1904150768	0.2953662337	
658.125	0.1426687945	-0.01606248249	
658.75	0.2432598334	0.2767622725	
659.375	0.4400544655	-0.2794191033	
660.0	0.02457293447	-0.1764966253	
660.625	0.2804032046	-0.2567965987	
661.25	0.18678579	-0.4464934128	
661.875	0.04096181575	-0.2075066796	
662.5	0.4374712893	-0.08817956204	
663.125	0.2837387429	-0.3425837781	
663.75	0.07883155051	-0.1977503747	
664.375	0.07597651245	-0.4011335911	
665.0	-0.40115758	-0.1525909707	
665.625	-0.2127793825	0.05158123873	
666.25	-0.2236483626	0.2943204477	
666.875	0.2454508113	0.2486089683	
667.5	0.07307013795	0.06667388676	
668.125	0.3387020498	0.03871509543	
668.75	0.1087158523	-0.2616760391	
669.375	0.11845132	-0.08586941255	
670.0	0.06907865495	-0.378568864	
670.625	-0.1512527262	-0.1556128877	
671.25	0.253573372	-0.1250141337	
671.875	0.1575729002	-0.2939831113	
672.5	0.06465569612	-0.08627028301	
673.125	0.296336244	-0.05597127769	
673.75	0.1515084332	-0.3819369553	
674.375	0.0163248474	-0.1264820647	
675.0	0.01811810978	-0.2995286141	
675.625	-0.315425277	-0.1614632038	
676.25	-0.07050230053	0.05752179053	
676.875	-0.2483293184	-0.1255322779	
677.5	-0.1630707735	0.1647235812	
678.125	-0.08930308847	0.01808026597	
678.75	-0.07523649648	0.3595687487	
679.375	0.3166795484	-0.05074836516	
680.0	-0.03304830664	0.05353961319	
680.625	0.2591792681	-0.09698171205	
681.25	-0.02325243335	-0.1400612155	
681.875	0.1011275711	0.2845552561	
682.5	0.4867225024	-0.08944323835	
683.125	0.009779850259	0.03849510888	
683.75	0.2399259308	0.2668138878	
684.375	0.4487292461	-0.09970753523	
685.0	0.06421148811	-0.0997435494	
685.625	0.5237172826	0.0491170481	
686.25	0.3136809649	-0.2247420465	
686.875	0.1816746517	-0.05318243174	
687.5	0.4868657207	-0.2786520044	
688.125	-0.1460765871	-0.3572589147	
688.75	-0.2073334617	-0.2170364627	
689.375	-0.4801904378	0.339335789	
690.0	0.2717268674	0.3729386374	
690.625	0.03385098925	0.1738880629	
691.25	0.5023898023	0.4547730105	
691.875	0.4553030328	0.1036848544	
692.5	0.4328687142	0.3902293678	
693.125	0.9580434304	-0.03489803508	
693.75	0.1927657165	-0.2448680133	
694.375	0.5717963206	-0.1407842377	
695.0	0.5921535024	-0.4308872048	
695.625	0.3495100382	-0.1759649759	
696.25	0.6508696253	0.3322770904	
696.875	0.6957032002	0.4420940307	
697.5	0.2636629174	0.265474622	
698.125	0.6141059597	0.1860152243	
698.75	0.5163390424	-0.4208017523	
699.375	-0.4179322027	-0.1864129309	
700.0	-0.417622451	0.176628743	
700.625	0.3113165011	0.4127047575	
701.25	0.2040961183	0.01305588742	
701.875	0.2072234854	0.4042291369	
702.5	0.5452506242	0.1643671465	
703.125	0.2348984181	0.07606373185	
703.75	0.5208455248	0.01108707511	
704.375	0.2798880535	-0.3443216123	
705.0	0.08303492331	-0.03412167487	
705.625	0.4315895513	0.09150964676	
706.25	0.3246043528	0.01271050035	
706.875	0.3204136117	0.3965672689	
707.5	0.3767826727	0.4759111217	
708.125	0.4770726197	-0.0898873331	
708.75	0.3318287095	-0.1391348672	
709.375	-0.06767916729	-0.3201961581	
710.0	-0.122407754	0.2870725581	
710.625	-0.05546464411	0.07103523842	
711.25	0.2636777287	0.2029057266	
711.875	0.08651889421	-0.1845273918	
712.5	0.3586923101	0.1006195086	
713.125	0.3185814632	-0.283109206	
713.75	0.01983748073	-0.1784006235	
714.375	0.1625979761	-0.2473964839	
715.0	-0.1409330494	-0.2740397613	
715.625	0.02093212266	-0.08436117874	
716.25	0.3082991171	-0.2589718423	
716.875	0.2593184374	-0.3791676831	
717.5	0.397280622	-0.02145824549	
718.125	0.9100643102	0.1767218837	
718.75	0.7193897026	-0.494824913	
719.375	0.5343042826	-0.26144019	
720.0	0.8299554869	-1.165494476	
720.625	-0.2158466266	-0.9742585095	
721.25	0.353257658	-0.9148923855	
721.875	-0.3652516873	-1.346165673	
722.5	-1.309524274	-0.3163578708	
723.125	-0.5554428751	-0.3705452749	
723.75	-0.5027617582	0.6278268239	
724.375	0.2174937703	0.3227493379	
725.0	-0.128633795	0.3883018466	
725.625	0.4078899992	0.6119405578	
726.25	0.1146690479	0.3614879054	
726.875	-0.4335168595	0.9775553453	
727.5	0.06849396026	1.752330406	
728.125	0.5957816078	1.409469634	
728.75	-1.155614226	2.756335423	
729.375	0.0121091165	4.861248585	
730.0	0.8765942507	2.215335085	
730.625	-1.855898875	3.620132617	
731.25	0.4133408317	5.36058043	
731.875	-1.524211249	1.207747242	
732.5	-4.02542903	-0.6367772399	
733.125	-2.61132158	1.340041621	
733.75	-0.06301746485	0.7073332749	
734.375	0.9327180312	0.934012167	
735.0	-0.4353715506	-0.780262967	
735.625	-0.06895931349	-0.1488403279	
736.25	-0.3008682455	0.7572601033	
736.875	0.7604927086	0.3451013345	
737.5	0.2730063547	0.5655316466	
738.125	2.342695048	-0.1881488524	
738.75	1.102162972	-2.017156594	
739.375	0.9975379854	-0.2282731656	
740.0	5.473018937	0.4224379898	
740.625	2.277526016	-3.856835518	
741.25	-3.6210562	0.02246691307	
741.875	-4.671753638	2.353902565	
742.5	-0.6687579433	0.06674916376	
743.125	1.560204806	-1.934785587	
743.75	-0.3620533029	-1.731769796	
744.375	-0.2614337158	0.1385124163	
745.0	-0.1348064927	0.1585681309	
745.625	0.01155723195	-0.09412319623	
746.25	0.1707811263	-0.09717907827	
746.875	-0.3115025666	0.01753725397	
747.5	-0.03132265566	0.323471182	
748.125	-0.1485788109	0.3939782726	
748.75	0.2887573824	0.609793137	
749.375	0.1855725344	0.3078989574	
750.0	-0.4714585567	0.06560803351	
