!Created with skrf (http://scikit-rf.org).
# GHz S RI R (50+0j) 
!freq	ReS11	ImS11	
500.0	-1.181803597	-4.350447854	
500.625	1.688597797	-1.306441737	
501.25	-0.7647880204	-3.779312509	
501.875	-3.047011774	-1.920657481	
502.5	-0.2045149642	-0.01342205566	
503.125	-0.3318716539	-0.1064523613	
503.75	0.3549170083	0.2164335143	
504.375	0.05615289574	0.127320567	
505.0	-0.01613937716	-0.2336291583	
505.625	0.2553177783	0.02337081178	
506.25	-0.7184652007	-0.3237563015	
506.875	0.6183741591	-0.4499560349	
507.5	-0.1897547488	-2.131865348	
508.125	-1.17053146	-2.442294744	
508.75	1.362487689	-1.183499108	
509.375	-1.564757317	-6.810826085	
510.0	-1.362483628	0.5850706156	
510.625	-0.2608780534	-0.7124221577	
511.25	-0.4720720663	0.136188467	
511.875	-0.2004488143	-0.3205772887	
512.5	-0.08867277143	0.2176085318	
513.125	-0.1530817451	-0.2519368149	
513.75	-0.09246359566	0.04307967949	
514.375	-0.2010904915	-0.5772185513	
515.0	-0.6071436182	1.461449955	
515.625	0.4195798814	-3.713722608	
516.25	-2.788254502	-0.01147943464	
516.875	0.9358759449	-1.551688983	
517.5	-0.9158420038	-1.1255338	
518.125	0.3232356914	0.04226544636	
518.75	-0.6854787434	-0.7733590408	
519.375	-0.05865629817	0.1907633427	
520.0	0.2595112364	0.3626551097	
520.625	0.6115349867	-0.2836900838	
521.25	-0.1767910764	-0.5640899886	
521.875	-0.3648888784	-0.321438754	
522.5	-0.003039982428	0.2237622076	
523.125	-0.3279865638	-0.008412190203	
523.75	-0.1532585499	0.03393799583	
524.375	-0.682000596	-0.0750659914	
525.0	0.3481908803	0.2888853587	
525.625	-0.176553394	0.1447499857	
526.25	0.2191180817	-0.1404824548	
526.875	-0.3754521304	0.2564729306	
527.5	0.2464008883	0.5296194196	
528.125	-0.2890972602	0.59563145	
528.75	0.1830999066	1.21684142	
529.375	-0.007233335484	-0.07088575723	
530.0	0.319834812	0.7647834988	
530.625	-0.04532074593	0.6694038723	
531.25	1.986395274	0.4066799645	
531.875	0.1158424176	-0.3187945108	
532.5	0.1350450707	-0.752435785	
533.125	-0.2323659841	0.4817720763	
533.75	0.4884999768	-1.050369895	
534.375	-0.401466484	-0.3476408294	
535.0	-0.5411137409	-0.8097192847	
535.625	-0.3506431369	0.6825000234	
536.25	-0.0690462328	0.1134374389	
536.875	0.3120695032	0.1618302469	
537.5	0.135843062	-0.2054330593	
538.125	0.285593449	0.05518909055	
538.75	0.3801422587	-0.5039856256	
539.375	-0.1070654964	-0.2540817411	
540.0	-0.3566400718	-0.609400207	
540.625	-0.4902571774	0.1461283577	
541.25	-0.09134925458	-0.08550826095	
541.875	-0.1603466504	-0.1075085687	
542.5	-0.1884895214	-0.0693434398	
543.125	0.01738057644	-0.102743371	
543.75	-0.4619038259	-0.131054091	
544.375	0.1437807471	0.1181880009	
545.0	-0.2425952202	0.2718319968	
545.625	0.3024930636	-0.04628862075	
546.25	0.02563989901	0.3184590017	
546.875	0.4724228829	-0.3109499312	
547.5	0.08137070935	-0.02870458691	
548.125	0.09938875569	-0.5589628379	
548.75	-0.499514984	-0.2980477204	
549.375	-0.1274613247	-0.04468301765	
550.0	-0.3154877738	-0.1406502571	
550.625	-0.01944850105	0.1187906081	
551.25	-0.2970559464	-0.05498345605	
551.875	-0.107865274	0.2877978972	
552.5	-0.1636253615	0.074000598	
553.125	-0.05198631485	0.2273333113	
553.75	0.1093369695	0.09871074787	
554.375	0.2327615588	0.04549764843	
555.0	0.276722998	-0.1799431153	
555.625	0.2090017997	-0.2561797217	
556.25	0.1910139561	-0.3362095377	
556.875	-0.07377292806	-0.419360327	
557.5	-0.234172825	-0.2606834425	
558.125	-0.2729775438	-0.1172736485	
558.75	-0.2920315816	-0.03077192943	
559.375	-0.2548896228	0.07053478083	
560.0	-0.2405663035	0.1187928553	
560.625	-0.1843141066	0.3077618478	
561.25	0.09467966371	0.2406136474	
561.875	-0.03967214104	0.1084026225	
562.5	0.1502802981	0.114123736	
563.125	0.03640740275	0.2466234042	
563.75	0.4659466903	-0.05281493912	
564.375	0.1486804666	-0.1485594691	
565.0	0.3956618626	-0.3588890481	
565.625	-0.2067095962	-0.4264514371	
566.25	-0.19004958	-0.1561439525	
566.875	-0.2568525064	-0.3489796312	
567.5	-0.5414179039	-0.2793531201	
568.125	-0.1655905065	-0.1970055398	
568.75	-0.6727583246	-0.4914758094	
569.375	-0.4808273856	0.4387000859	
570.0	-0.4286494375	0.1830819981	
570.625	-0.2265336928	0.7500769684	
571.25	0.1388144165	-0.005788378082	
571.875	0.004300812519	0.5627612468	
572.5	0.3140921769	-0.3782402584	
573.125	0.1518592276	0.07185595625	
573.75	0.4258278621	-0.4571849887	
574.375	-0.2791724046	-0.1801406953	
575.0	0.3991749902	0.0223656086	
575.625	-0.1916603134	-0.3305280633	
576.25	0.3148463463	0.04772457639	
576.875	0.003304426021	-0.6476975758	
577.5	-0.2592441151	-0.2569892245	
578.125	0.1525526362	-0.2650529595	
578.75	-0.1660210555	-0.5630281094	
579.375	-0.4285105371	-0.02211638222	
580.0	0.1642468536	-0.08504127964	
580.625	-0.4720380151	-0.08142226507	
581.25	0.05007806398	0.05182170654	
581.875	-0.3928486428	0.4580261357	
582.5	0.4553832171	0.5169064189	
583.125	-0.001721800406	-0.2132171634	
583.75	0.1023282201	0.5695471077	
584.375	0.04486367066	-0.3685091862	
585.0	0.164507729	0.5791084436	
585.625	0.5612244629	-0.2614108851	
586.25	0.05662857596	0.03733653493	
586.875	0.5186918284	-0.4441617025	
587.5	-0.3119440464	-0.2408651677	
588.125	0.2601674841	-0.2224857554	
588.75	0.1758485019	-0.6402466089	
589.375	-0.107021628	-0.2727260097	
590.0	0.175724197	-0.4011286891	
590.625	-0.6028499387	-0.239132139	
591.25	-0.211975379	0.3502636426	
591.875	-0.1719031243	0.05896734461	
592.5	0.01363964261	0.3627180145	
593.125	-0.2390716701	-0.07653674366	
593.75	0.2831890388	0.3916615122	
594.375	0.2410853486	0.06000737017	
595.0	0.1410836551	0.5457197801	
595.625	0.9334679046	0.3039542685	
596.25	-0.0307023504	-0.1427819104	
596.875	0.4577698661	0.5145916122	
597.5	0.5586896789	0.03939871153	
598.125	0.005921552139	0.3997371092	
598.75	0.7126734566	0.2802577243	
599.375	0.2361965181	-0.04147552488	
600.0	0.6784609956	-0.1607248675	
600.625	0.3322615017	-0.6271823138	
601.25	0.07413598672	-0.2484610413	
601.875	0.01342639361	-0.4510617016	
602.5	-0.3657384862	-0.08908891778	
603.125	-0.328554471	0.1859739948	
603.75	-0.1432361313	-0.01476118725	
604.375	-0.5109614877	0.1659099552	
605.0	0.1063958441	0.238392977	
605.625	-0.46296578	-0.01383571286	
606.25	-0.1073694701	0.3523969339	
606.875	-0.3900093304	-0.176477927	
607.5	-0.6835115463	0.7932458581	
608.125	0.1199383282	0.2086096982	
608.75	0.1061626799	0.7724893896	
609.375	0.7747495405	-0.3306550027	
610.0	0.2563358381	0.05096507463	
610.625	0.4194249486	-0.5345212019	
611.25	-0.109982568	-0.2538859683	
611.875	-0.01606658308	-0.5597966721	
612.5	-0.3902658715	0.1138300934	
613.125	-0.4264849699	-0.1397453795	
613.75	-0.3025876497	0.6168101564	
614.375	-0.02548773405	0.01524523256	
615.0	0.2712980913	0.2702579291	
615.625	-0.164501087	-0.05023469312	
616.25	-0.3145195324	0.6436840827	
616.875	0.1304009454	0.3337901953	
617.5	-0.5265242509	0.4155220469	
618.125	0.0827919185	0.7319908301	
618.75	0.009451371427	0.1815719889	
619.375	0.1209420752	0.6769136625	
620.0	0.4261439202	-0.01679428093	
620.625	0.4094654003	-0.2114465014	
621.25	-0.29481521	-0.3940280821	
621.875	-0.3203081391	-0.3694104712	
622.5	-0.6222785232	0.2048505106	
623.125	-0.129611608	0.2314975343	
623.75	0.4259641802	0.3697090994	
624.375	-0.1389414318	-0.2288968965	
625.0	0.4625774603	0.02708557426	
625.625	-0.3271125736	-0.1623293554	
626.25	0.288918851	-0.3380253523	
626.875	-0.5885866543	-0.3120341504	
627.5	-0.1894988594	0.1080534933	
628.125	-0.1327163525	-0.4482610932	
628.75	-0.3717988166	-0.1868011465	
629.375	0.02812569983	-0.3591458734	
630.0	-0.5775471031	-0.4073613603	
630.625	-0.3395055524	0.2776487263	
631.25	-0.5272573817	0.1912329556	
631.875	-0.1423007673	0.7624342823	
632.5	0.3350275257	0.468336765	
633.125	0.4301228701	0.0736085866	
633.75	0.4230369772	0.1174258913	
634.375	0.05610547659	-0.6322613122	
635.0	0.1644502797	-0.1176194209	
635.625	-0.4922842228	-0.4525461811	
636.25	-0.11482426	0.3163141323	
636.875	-0.5517729978	0.08571770924	
637.5	0.1702464482	0.5029329884	
638.125	-0.2205104594	-0.2263918229	
638.75	-0.4751049813	0.7938552769	
639.375	0.3968624316	0.4767862725	
640.0	-0.09764866032	0.4041645838	
640.625	0.6277612752	0.7411013044	
641.25	0.7293113858	-0.2866453157	
641.875	0.3814824234	0.01518755253	
642.5	-0.1329166375	-0.9883318004	
643.125	-0.05965191359	0.02087340539	
643.75	-0.3281098677	-0.6360522713	
644.375	-0.5269785552	0.3660814705	
645.0	-0.1107614236	0.01236396635	
645.625	-0.2805739316	0.6797866796	
646.25	0.7583621741	0.2747608545	
646.875	-0.07357627852	-0.2921959086	
647.5	0.3940725903	0.5710203643	
648.125	0.0343851735	-0.4381135818	
648.75	0.9163414551	0.4957687371	
649.375	0.5297941502	-1.136125134	
650.0	-0.0293808089	-0.1729012784	
650.625	1.223873013	-0.5472995146	
651.25	0.1064605207	-1.355344114	
651.875	0.1194057174	0.1901361813	
652.5	1.23852409	0.1220353599	
653.125	0.6483465079	-0.7196241435	
653.75	0.2750507051	0.04172592111	
654.375	0.03480807004	-1.26525713	
655.0	-0.6961473572	0.1527578529	
655.625	-0.4080230765	-0.1627966709	
656.25	-0.1126746017	0.9659530457	
656.875	0.312982546	-0.3338215637	
657.5	-0.1723379482	0.5835342416	
658.125	0.5796275525	0.3933526065	
658.75	0.5039533309	-0.04328852949	
659.375	0.8858832944	0.2870769879	
660.0	0.6150975074	-1.243203354	
660.625	0.154912155	-0.3266033106	
661.25	0.8776106178	-0.6329644162	
661.875	0.3480505416	-1.150409275	
662.5	0.2312288421	0.1237882934	
663.125	1.298010398	-0.4216523923	
663.75	-0.009732515459	-0.9063179932	
664.375	0.2691445078	-0.3959336003	
665.0	-0.7639375394	-0.9600460888	
665.625	-0.4281161433	0.4200541829	
666.25	-0.6363874507	0.416387497	
666.875	0.4872314339	0.7252629982	
667.5	0.1899363425	-0.04812148627	
668.125	0.6708225662	0.434066688	
668.75	0.5304658352	-0.6264627219	
669.375	0.09184745875	-0.3716470625	
670.0	0.2414336257	-0.3947892576	
670.625	0.07091967043	-0.7613835249	
671.25	-0.1016885954	-0.1312821662	
671.875	0.614113874	-0.4308026038	
672.5	0.3857108226	-0.5724284747	
673.125	0.3691928987	-0.03405050627	
673.75	0.8547938043	-0.7403229823	
674.375	-0.3607448975	-0.6372779251	
675.0	0.3644440806	-0.2337630578	
675.625	-0.619652708	-0.8223289312	
676.25	-0.5453927885	0.4034141754	
676.875	-0.07042845178	-0.4619361204	
677.5	-0.6690454922	0.4908162097	
678.125	-0.1371513421	-0.02177327719	
678.75	-0.3146912833	0.9332811185	
679.375	0.674639109	-0.27543363	
680.0	0.1754922003	0.1760240899	
680.625	0.5288436517	-0.2367496333	
681.25	0.04937866451	-0.382972888	
681.875	0.02335813713	0.387074402	
682.5	0.7232872967	0.4798877444	
683.125	0.690236426	-0.04480562418	
683.75	0.2126913359	0.1433781579	
684.375	0.9836671071	0.6602520436	
685.0	0.6013847526	-0.6248947502	
685.625	0.5559464865	0.7694109121	
686.25	1.276398104	-0.4675132335	
686.875	-0.0925995788	-0.1620291732	
687.5	1.725044622	-0.2584567177	
688.125	-0.9071793879	-1.570052561	
688.75	0.06977294008	-0.5000760968	
689.375	-1.499827001	0.846737086	
690.0	0.5719591275	0.7441588434	
690.625	-0.02696395283	0.8503135496	
691.25	1.198945941	0.3951324564	
691.875	0.6972144182	0.7173589717	
692.5	1.425363746	0.8392999393	
693.125	1.653155486	-0.2391716583	
693.75	1.301570184	-0.38386714	
694.375	1.02134865	-0.9018318774	
695.0	1.217886431	-0.3101106282	
695.625	1.469900319	-0.6154826907	
696.25	0.5714728915	0.4147602451	
696.875	1.236507288	1.93572111	
697.5	1.065057816	0.4041235682	
698.125	0.9186520817	1.493456644	
698.75	1.569415581	-1.526968394	
699.375	-0.2443729972	-0.2478460131	
700.0	-1.679084352	0.5905000721	
700.625	0.7953329057	0.5884146851	
701.25	-0.004780893948	0.6529490813	
701.875	1.245358233	0.3941595936	
702.5	0.3358535409	0.5876083632	
703.125	1.216790467	0.5659301592	
703.75	0.5853727346	-0.5334549892	
704.375	1.083533044	0.02879105351	
705.0	0.5004596075	-0.7022185488	
705.625	0.2442539591	0.4024545804	
706.25	1.360357026	0.6980546707	
706.875	0.2506787814	0.2334855619	
707.5	0.3816884893	1.443973749	
708.125	1.483047374	0.144233517	
708.75	0.6567880411	-0.4128931519	
709.375	-0.5571021699	-1.26334045	
710.0	-0.2844127232	0.6604700413	
710.625	-0.1721883548	0.3921791752	
711.25	0.4400993255	0.3096046405	
711.875	0.3076365972	0.3323651951	
712.5	0.8235701491	0.03994646647	
713.125	0.6581729	-0.1764516069	
713.75	0.4687795367	-0.8508241881	
714.375	-0.2175778981	-0.1831243793	
715.0	0.4973714892	-0.9716972169	
715.625	-0.4635716827	-0.421280622	
716.25	0.8562324386	0.01701796735	
716.875	1.414879341	-1.39121529	
717.5	-0.02878261981	0.04086012995	
718.125	3.031461928	1.302750577	
718.75	2.33377456	-1.824312221	
719.375	0.6861183396	0.7948587174	
720.0	3.448416263	-3.646907955	
720.625	-0.7312176341	-2.237782983	
721.25	0.9991421186	-2.19558566	
721.875	-0.2703313915	-3.784202745	
722.5	-1.952749695	-1.129785432	
723.125	-1.695371048	-1.46459535	
723.75	-1.250326569	1.511689942	
724.375	0.182969421	0.7697670907	
725.0	0.1118803156	0.8668202184	
725.625	0.4580682457	1.784163344	
726.25	0.9898098972	1.133817282	
726.875	-1.3911462	1.549353492	
727.5	-1.047185013	5.451739739	
728.125	3.100019386	4.367257134	
728.75	-10.0224941	7.190345132	
729.375	0.8279302836	19.64130298	
730.0	1.391381181	1.867468761	
730.625	-13.22974161	21.86868704	
731.25	12.71792945	11.01162717	
731.875	-6.603723408	-1.818695357	
732.5	-12.97858509	1.180425638	
733.125	-8.010655709	2.577673662	
733.75	-0.7618474162	1.46611604	
734.375	2.434457483	3.534852761	
735.0	-0.6142836397	-1.132414741	
735.625	-0.8174178339	-0.5146566921	
736.25	-0.4072800865	2.521141633	
736.875	1.111362857	0.01655113716	
737.5	1.857243849	2.204990541	
738.125	6.01893552	-0.6130131969	
738.75	4.006877888	-6.748817119	
739.375	-1.651182497	-0.09480136827	
740.0	20.62577493	6.470996448	
740.625	-1.650525703	-18.05151965	
741.25	-13.89243468	14.45034624	
741.875	-5.198081384	31.29079571	
742.5	9.174072503	1.658954937	
743.125	3.790574588	-14.91103282	
743.75	-2.916409552	-2.387337977	
744.375	0.2604808017	-0.2782059882	
745.0	-0.5302528754	0.5815546669	
745.625	-0.07321923708	-0.3255128551	
746.25	0.09256448223	-0.4189971975	
746.875	-0.8696058432	0.2812925065	
747.5	-0.08974279271	0.596293918	
748.125	-0.02923522301	1.976942833	
748.75	0.9193385533	0.8243548667	
749.375	0.648706876	0.6982837629	
750.0	-1.776588341	-0.04916733814	
