!Created with skrf (http://scikit-rf.org).
# GHz S RI R (50+0j) 
!freq	ReS11	ImS11	
500.0	0.5731937206	-1.061547962	
500.625	-0.1599976584	-0.9770886309	
501.25	-0.02049433761	-0.3885463798	
501.875	-0.324261571	-0.4035480183	
502.5	-0.05996296103	-0.05586032379	
503.125	-0.06373840671	-0.02379779167	
503.75	0.05352907606	0.09269813369	
504.375	-0.002974462772	0.0148185358	
505.0	0.03825283403	-0.04972670716	
505.625	-0.02819038489	0.005144295378	
506.25	-0.01136843852	-0.1386542404	
506.875	-0.002235886491	0.2247441948	
507.5	0.2028443122	-0.425647376	
508.125	0.02291684353	-0.8841714903	
508.75	0.05554177635	-0.5525313461	
509.375	0.5350539066	-1.040229987	
510.0	-0.5219430389	-0.178438532	
510.625	-0.03113942431	-0.1124527105	
511.25	-0.112045153	-0.1048912202	
511.875	-0.1032547787	0.01078415341	
512.5	-0.0114970622	0.02515289643	
513.125	0.008113032776	-0.07838474788	
513.75	-0.05526074443	-0.001176539359	
514.375	-0.004797131074	-0.06283290658	
515.0	-0.3316607209	0.02838133219	
515.625	0.4716484358	-0.3282961028	
516.25	-0.6009719662	-0.7796416468	
516.875	-0.1549152892	-0.01349056091	
517.5	0.02854703646	-0.2743813793	
518.125	-0.06546703471	0.04360745808	
518.75	0.002102596458	-0.2028574698	
519.375	-0.0486408367	0.05349980804	
520.0	0.08309007263	0.01069579735	
520.625	0.1089986626	-0.01267489238	
521.25	-0.04591195384	-0.231764262	
521.875	-0.1299558522	0.0776977518	
522.5	-0.01744863252	0.05653738218	
523.125	-0.06192067226	0.09576318213	
523.75	0.02137017539	-0.03291371989	
524.375	-0.2542878026	-0.01805046977	
525.0	0.09064845271	0.2162944115	
525.625	-0.02327884078	-0.03013078113	
526.25	0.04711894707	0.03795794181	
526.875	-0.08899886154	-0.009965744497	
527.5	-0.009750668963	0.2414136338	
528.125	0.1200222364	0.08271544637	
528.75	-0.04528249207	0.2062623622	
529.375	0.08626282088	0.03141214999	
530.0	-0.08282167732	0.1112669336	
530.625	0.1992098998	0.3908824975	
531.25	0.3035094151	-0.0320447064	
531.875	0.09445195867	-0.1693827494	
532.5	-0.07292516984	-0.1755004892	
533.125	-0.008304346912	0.04193399095	
533.75	0.2385896733	-0.1943867203	
534.375	-0.1949411074	-0.1683691538	
535.0	-0.1002346785	-0.09509435664	
535.625	-0.1765386084	0.1379282087	
536.25	0.03590800454	0.05751471505	
536.875	0.06936830854	0.04898541609	
537.5	0.06287823103	-0.07175334307	
538.125	0.04530836864	-0.01974579532	
538.75	0.1697692258	-0.1162328549	
539.375	-0.1054680688	-0.1171778863	
540.0	-0.1039624833	-0.1014122894	
540.625	-0.1903084294	-0.05836105396	
541.25	-0.0768322507	0.05066251992	
541.875	0.004179805501	-0.002862023236	
542.5	-0.07084676249	-0.03512321082	
543.125	-0.02253802238	-0.03484552179	
543.75	-0.09390061294	-0.05071427668	
544.375	-0.002259785069	0.09048340731	
545.0	-0.07587924656	-0.001855972636	
545.625	0.1059303556	0.07376718567	
546.25	0.0316637839	-0.0006930381923	
546.875	0.145132168	0.002683380638	
547.5	0.004863460886	-0.1535113356	
548.125	-0.01196181636	-0.09473169451	
548.75	-0.1137798302	-0.1512915596	
549.375	-0.1422483423	-0.01017620811	
550.0	-0.02548907552	-0.02844129475	
550.625	-0.0730464533	0.04708616654	
551.25	-0.03595368492	0.002393769119	
551.875	-0.09017360703	0.07412535002	
552.5	-0.005327487905	0.07367217315	
553.125	-0.0220162495	0.04808356397	
553.75	0.05469157819	0.04168906206	
554.375	0.0737925911	-0.01139903928	
555.0	0.08763949838	-0.06236894015	
555.625	0.06666959156	-0.1068098407	
556.25	0.04716543229	-0.1257040524	
556.875	-0.04030174696	-0.1380678473	
557.5	-0.09892101255	-0.09117108737	
558.125	-0.1085290835	-0.02269062891	
558.75	-0.09412324924	0.001856401478	
559.375	-0.107236038	0.02498732408	
560.0	-0.07336257304	0.07867923489	
560.625	-0.04675309837	0.08344763886	
561.25	0.006952906005	0.1161055036	
561.875	0.03840805797	0.01183342778	
562.5	-0.005060416141	0.08610182815	
563.125	0.08206595559	0.02190184441	
563.75	0.1083816939	0.03441928133	
564.375	0.1333540542	-0.1288477748	
565.0	0.01615583101	-0.1160418115	
565.625	0.005562693579	-0.1414757625	
566.25	-0.1688461053	-0.1027564786	
566.875	-0.09011329728	-0.03489970803	
567.5	-0.1068729456	-0.1655988517	
568.125	-0.2094213865	-0.1120692205	
568.75	-0.1274612309	-0.0474111391	
569.375	-0.2993580043	0.08130860877	
570.0	0.005920549698	0.2282396721	
570.625	-0.07634647026	0.05916364137	
571.25	0.01244850587	0.1910763623	
571.875	0.01197940528	-0.02104254389	
572.5	0.1894680429	0.05281935157	
573.125	0.01051427645	-0.1801629792	
573.75	0.01754158935	-0.008890704261	
574.375	0.08078862803	-0.1223490223	
575.0	-0.0809677572	0.01219119176	
575.625	0.112909956	-0.05726888957	
576.25	-0.01227795459	-0.1671494943	
576.875	-0.01599691754	-0.04655110522	
577.5	0.080293237	-0.1770012272	
578.125	-0.130957586	-0.1668183786	
578.75	-0.04383206026	-0.02979481838	
579.375	-0.053366883	-0.1348454968	
580.0	-0.1526742576	0.06276021392	
580.625	0.03466045908	-0.1085030734	
581.25	-0.1476833531	0.1508908859	
581.875	0.1186587502	0.03169672487	
582.5	-0.09526117463	0.1236413986	
583.125	0.1595286494	0.1546727	
583.75	-0.0203940452	-0.09100354665	
584.375	0.09490311203	0.154375201	
585.0	0.1038080194	-0.05523634345	
585.625	0.08939945543	0.07241637581	
586.25	0.2119041993	-0.112887169	
586.875	-0.03215164424	-0.08066028125	
587.5	0.07112673553	-0.1446189052	
588.125	-0.08709715802	-0.1754249815	
588.75	-0.01837542217	-0.05085189075	
589.375	0.1374430178	-0.1419958186	
590.0	-0.1434150588	-0.1693424312	
590.625	-0.06895937219	0.006622925033	
591.25	-0.1948814357	0.05866122835	
591.875	0.05967357871	0.1955440658	
592.5	-0.03880097726	-0.050991102	
593.125	0.0798547898	0.1405605295	
593.75	-0.03469170889	0.02759681321	
594.375	0.244696877	0.2086314459	
595.0	0.1953336856	-0.05370324428	
595.625	0.04754873459	0.1466041888	
596.25	0.230088825	0.06555199029	
596.875	0.122119628	-0.05612034242	
597.5	0.05726472139	0.09240158464	
598.125	0.2219377516	0.1087313093	
598.75	0.1285841947	-0.01383501422	
599.375	0.2167423348	-0.002982616472	
600.0	0.1242119048	-0.1850198059	
600.625	0.04202419906	-0.1327624789	
601.25	0.1130955315	-0.1468984072	
601.875	-0.1169197208	-0.1575375572	
602.5	-0.05397871187	0.04320205877	
603.125	-0.153719352	-0.053650454	
603.75	-0.08708945274	0.1944656037	
604.375	-0.001578280763	0.01296618854	
605.0	-0.1650406803	0.0812396151	
605.625	0.08221077864	0.06980997363	
606.25	-0.1385080539	-0.04616251997	
606.875	-0.1984687515	0.201222602	
607.5	-0.1419398738	0.03674318692	
608.125	-0.008462777373	0.3146761252	
608.75	0.2346611255	0.08354496645	
609.375	0.1009021695	-0.0545696666	
610.0	0.2071589045	-0.07814433254	
610.625	0.06420868801	-0.1471688965	
611.25	-0.01912658944	-0.06518802123	
611.875	-0.0565767966	-0.190616582	
612.5	-0.2393604974	-0.0282029591	
613.125	-0.08181770054	-0.004621482602	
613.75	-0.1860556734	0.1516874821	
614.375	0.1497106062	0.08293369872	
615.0	-0.0858879677	0.05044212047	
615.625	0.1134962096	0.1256529737	
616.25	-0.08488727294	0.03423342769	
616.875	-0.1646232284	0.2308724242	
617.5	0.07031789503	0.1813549905	
618.125	-0.02647807863	0.07123611821	
618.75	0.1183447756	0.1200904235	
619.375	0.120353717	0.08665107217	
620.0	0.2197611455	-0.03706352559	
620.625	0.08747723539	-0.1423833045	
621.25	-0.1784185422	-0.1570057161	
621.875	-0.1520760227	-0.04729123582	
622.5	-0.2371636989	-0.01207051394	
623.125	0.04967699792	0.1744953039	
623.75	-0.04228029381	-0.04142905986	
624.375	0.108868649	-0.08370577102	
625.0	-0.02174259727	0.0253771783	
625.625	0.1056369745	-0.1032344516	
626.25	-0.1301129216	-0.1305230574	
626.875	-0.04844678166	-0.02674888864	
627.5	-0.1755881042	-0.1072807902	
628.125	-0.1277870202	-0.01166283771	
628.75	-0.01241548727	-0.09600461183	
629.375	-0.1487795706	-0.1786690192	
630.0	-0.1339400226	-0.02723135468	
630.625	-0.1801574603	0.05956799832	
631.25	-0.1534704338	0.1892690699	
631.875	0.04858918936	0.2006758898	
632.5	0.09387041284	0.1708136325	
633.125	0.2722616807	0.1484538762	
633.75	0.09525635972	-0.129575458	
634.375	0.1086153495	-0.02001619334	
635.0	-0.0607060881	-0.2289971244	
635.625	-0.0798352369	0.0104760655	
636.25	-0.1999340303	0.01641866083	
636.875	0.01912848452	0.2244403281	
637.5	-0.02512348311	-0.01315147018	
638.125	-0.1026627338	0.1649136904	
638.75	0.07848342199	0.1194248482	
639.375	-0.07690874723	0.1916956928	
640.0	0.2141258141	0.2955381745	
640.625	0.2351250335	0.003500605651	
641.25	0.1711219193	0.0295876602	
641.875	0.214328375	-0.2373300328	
642.5	-0.1107676757	-0.1504373134	
643.125	-0.04382687644	-0.1445077823	
643.75	-0.2765727467	-0.1245570575	
644.375	-0.005424230809	0.07716850688	
645.0	-0.2346703875	0.1462736662	
645.625	0.1944069424	0.2612558222	
646.25	-0.01143841149	-0.1119379492	
646.875	0.1475175556	0.1130273016	
647.5	-0.006938673625	-0.2556143985	
648.125	0.09832543563	0.2282767622	
648.75	0.3310265331	-0.2041932024	
649.375	0.02708078871	-0.1978166408	
650.0	0.247068306	-0.147102649	
650.625	0.1046130856	-0.4551007893	
651.25	0.02130129152	-0.1219677492	
651.875	0.3567905144	-0.1050610286	
652.5	0.2224617393	-0.3128464703	
653.125	0.09744128023	-0.02624979231	
653.75	0.2639444702	-0.2763172996	
654.375	-0.2314769383	-0.2728584291	
655.0	-0.1292578944	0.05461964335	
655.625	-0.2436711229	0.07354291121	
656.25	0.1670199938	0.2210901969	
656.875	-0.0381797246	-0.04610985988	
657.5	0.1562589854	0.2551534603	
658.125	0.132751584	-0.05594510806	
658.75	0.1948515574	0.2236094075	
659.375	0.3785504784	-0.4265348641	
660.0	0.008868325018	-0.1979384056	
660.625	0.2656025405	-0.2778432835	
661.25	0.09632447925	-0.4333221599	
661.875	0.004625218458	-0.1767514985	
662.5	0.3213215425	-0.09863466806	
663.125	0.2205282231	-0.3369812237	
663.75	0.01471362465	-0.1875972689	
664.375	0.03042124057	-0.3549965427	
665.0	-0.3840785457	-0.06840113229	
665.625	-0.1618017907	0.06009460177	
666.25	-0.1456679558	0.302350167	
666.875	0.2240651139	0.1452402673	
667.5	0.04529444337	0.03132009161	
668.125	0.2996952268	0.02231298543	
668.75	0.09120447268	-0.2449539673	
669.375	0.05308306554	-0.08846234757	
670.0	0.0865029839	-0.3527609331	
670.625	-0.2005249174	-0.1381684098	
671.25	0.1432810307	-0.06623706017	
671.875	0.08550994561	-0.3051750619	
672.5	0.02351862934	-0.09825894477	
673.125	0.2887041954	-0.0954668633	
673.75	0.03475316494	-0.3442341138	
674.375	-0.02772682616	-0.1099886225	
675.0	-0.05461349005	-0.2832546111	
675.625	-0.2955983482	-0.09101248119	
676.25	-0.04428731323	0.0732880348	
676.875	-0.1741371415	-0.09333194807	
677.5	-0.09284830726	0.1509117209	
678.125	-0.06093136306	0.03861714832	
678.75	0.01317358131	0.2999250375	
679.375	0.2509472327	-0.09411079357	
680.0	0.02658876204	0.02127613445	
680.625	0.1994895561	-0.1327646346	
681.25	-0.08579289437	-0.1481366924	
681.875	0.1136462709	0.31955902	
682.5	0.4147805089	-0.004251515846	
683.125	-0.06530643029	-0.02126872712	
683.75	0.2440906143	0.2379844575	
684.375	0.4396669965	-0.05667900126	
685.0	-0.03098248263	0.04290594162	
685.625	0.4937132524	0.03111092608	
686.25	0.2047273802	-0.2210882784	
686.875	0.1699099326	-0.06039617202	
687.5	0.25295329	-0.4133140733	
688.125	-0.2077668115	-0.2512107748	
688.75	-0.2886245882	-0.1478225644	
689.375	-0.3111448668	0.3876181171	
690.0	0.2514959401	0.2726980412	
690.625	0.06666719819	0.1296936939	
691.25	0.4251825504	0.4055667366	
691.875	0.463449793	0.003990293481	
692.5	0.3767776898	0.2378574783	
693.125	0.796614882	-0.05985570077	
693.75	0.170889929	-0.3913164968	
694.375	0.4729705811	-0.1703357418	
695.0	0.4537705917	-0.500560484	
695.625	0.1855669827	-0.04636937645	
696.25	0.4109755695	0.32589745	
696.875	0.3287160314	-0.0480753213	
697.5	0.2336906419	0.2486430929	
698.125	0.5402653871	0.1967200548	
698.75	0.3002689745	-0.5530929025	
699.375	-0.4583692072	-0.1195738999	
700.0	-0.2562141802	0.2308722162	
700.625	0.1122480542	0.3530203595	
701.25	0.1425097204	0.03244127972	
701.875	0.1354171748	0.2946653581	
702.5	0.4452046029	0.1024298972	
703.125	0.2102295906	0.0327272086	
703.75	0.4286357816	-0.03839613589	
704.375	0.1870390591	-0.3315051582	
705.0	0.05060412969	-0.0576998612	
705.625	0.3915611303	0.0785754508	
706.25	0.1520722937	0.05143540634	
706.875	0.1751753422	0.253858623	
707.5	0.2758770645	0.1695293924	
708.125	0.3202596816	-0.06078429152	
708.75	0.1018318262	-0.425026677	
709.375	-0.3118062212	-0.169690665	
710.0	-0.2567022943	0.40655469	
710.625	0.08005103825	0.05688328695	
711.25	0.1522902331	0.2750938557	
711.875	0.1683234335	-0.1492037361	
712.5	0.297739105	0.09179253312	
713.125	0.272178041	-0.2721407304	
713.75	-0.05525481454	-0.2063440678	
714.375	0.1043432173	-0.1927390085	
715.0	-0.1228190233	-0.2340832981	
715.625	-0.006953784107	-0.07255696073	
716.25	0.2482866793	-0.256177612	
716.875	0.1722366305	-0.3160619895	
717.5	0.3034527531	0.05098867093	
718.125	0.6567135563	0.0396961172	
718.75	0.4635693306	-0.4108733555	
719.375	0.4996349441	-0.1426966614	
720.0	0.419585025	-0.9285190985	
720.625	-0.3972414181	-1.146788355	
721.25	-0.1839386339	-0.5256297011	
721.875	-0.1377917126	-1.204535838	
722.5	-0.9550721218	-0.2422061657	
723.125	-0.4982651148	-0.2088261471	
723.75	-0.4314527179	0.6299020728	
724.375	0.2382035043	0.2606018572	
725.0	-0.008088275471	0.3279991088	
725.625	0.4784942714	0.5549444009	
726.25	0.1502635677	0.2702603898	
726.875	-0.2373095204	0.8142103116	
727.5	0.1959606089	1.495283982	
728.125	0.6778483379	1.13041297	
728.75	-0.6138761913	1.674518107	
729.375	0.5440169386	4.067510046	
730.0	1.126943466	1.673695175	
730.625	-0.7065999429	3.933829034	
731.25	1.260455163	4.17385556	
731.875	-1.026522543	1.372063459	
732.5	-3.014591978	1.493075183	
733.125	-2.327087353	1.783509425	
733.75	0.4246553886	0.6666816329	
734.375	0.5757519226	0.6835950188	
735.0	-0.6111877696	-0.7314431634	
735.625	-0.1051372061	0.1076389867	
736.25	-0.2993903894	0.7671514059	
736.875	0.8641450843	0.1633829307	
737.5	0.2954090795	0.3206982308	
738.125	1.956307317	-0.6033899293	
738.75	0.2328458827	-1.873194684	
739.375	0.9981095298	0.09632350975	
740.0	4.603680261	-1.20158837	
740.625	1.718111573	-4.015525698	
741.25	-2.449469817	0.4228677887	
741.875	-6.016595386	1.722210125	
742.5	-1.009238679	0.2891162574	
743.125	1.000975533	-1.358217207	
743.75	-0.5582773704	-1.132006926	
744.375	-0.1924156229	0.2177326476	
745.0	-0.1053368621	0.126781126	
745.625	-0.02272897658	-0.136533676	
746.25	0.03461792359	-0.1279181486	
746.875	-0.2812662459	0.1144219365	
747.5	0.1006140686	0.2449661117	
748.125	0.04771706701	0.337196584	
748.75	0.3376367713	0.497943413	
749.375	0.2513459717	0.2583822049	
750.0	-0.2846315178	0.0819998073	
