!Created with skrf (http://scikit-rf.org).
# GHz S RI R (50+0j) 
!freq	ReS11	ImS11	
500.0	-0.03378109228	-0.4102383292	
500.625	0.5327440662	-1.07759644	
501.25	-0.6118492432	-0.3030389683	
501.875	-0.003436728694	-0.2598829427	
502.5	-0.07534174789	-0.1658249422	
503.125	-0.01944536141	0.02233775354	
503.75	-0.0366304067	0.08788128554	
504.375	0.02658416162	-0.03083940182	
505.0	0.03267845492	0.01686046562	
505.625	-0.01948216087	-0.08204676076	
506.25	0.02055964072	0.03419913008	
506.875	-0.2607157986	-0.1110893455	
507.5	-0.150711616	0.0319068237	
508.125	0.4506432492	-0.5635527846	
508.75	0.3443961564	-1.159384028	
509.375	-0.2884485065	-0.6291964877	
510.0	-0.1772626187	-0.4162382342	
510.625	-0.1721904634	-0.1096428824	
511.25	-0.03127900419	-0.03164485498	
511.875	-0.1235761743	-0.06651797878	
512.5	0.01215564228	0.03369133469	
513.125	0.01303653567	-0.02791108217	
513.75	-0.06621975411	-0.07363908704	
514.375	-0.01644329823	0.07292966494	
515.0	0.08524710886	-0.2383163251	
515.625	0.02022819988	0.3394589153	
516.25	0.2565754209	-0.74618885	
516.875	-0.3807605255	-0.4987622465	
517.5	-0.01505039658	-0.0003109539914	
518.125	-0.07931087222	-0.05591356789	
518.75	-0.07556946404	-0.01245990617	
519.375	-0.06201021477	0.03133697748	
520.0	0.1131021982	0.05578720345	
520.625	0.1172949738	-0.01923442512	
521.25	0.003936922757	-0.1350043859	
521.875	-0.1734532938	-0.09218125242	
522.5	0.00100803963	0.08352883304	
523.125	-0.02641062199	-0.0596737314	
523.75	-0.1426282437	0.07896610534	
524.375	-0.00715695859	-0.0280456038	
525.0	-0.1525647706	0.171294018	
525.625	0.1212295026	0.0002223519801	
526.25	-0.07834305253	0.02077596411	
526.875	0.006031148255	0.00677149905	
527.5	-0.1059132193	0.09676382432	
528.125	0.1291648198	0.2046129646	
528.75	0.07748958205	0.08790999011	
529.375	0.04576914051	0.0711015918	
530.0	0.01459837757	0.1144927116	
530.625	-0.00445928158	0.1938138815	
531.25	0.4738451411	0.154569447	
531.875	0.2727817473	-0.2748310961	
532.5	0.008011835811	0.01956697707	
533.125	0.03843623272	-0.2188392829	
533.75	0.1098502054	-0.04708777687	
534.375	-0.07140270526	-0.3614689548	
535.0	-0.1763821446	0.005822880985	
535.625	-0.1251485125	0.03093685066	
536.25	0.008953585176	0.1108424166	
536.875	0.05096783052	-0.02129829273	
537.5	0.08355934142	-0.01329162383	
538.125	0.08209874022	-0.1082414102	
538.75	0.08217579419	-0.05405097378	
539.375	-0.06511352559	-0.1595570492	
540.0	-0.1863889922	-0.07153329133	
540.625	-0.08551707771	-0.03576424132	
541.25	-0.1242392146	-0.01166414914	
541.875	-0.04307333929	0.03701959628	
542.5	0.01802459537	-0.06336297241	
543.125	-0.1258229546	0.002052642445	
543.75	-0.01045478707	-0.02039541653	
544.375	-0.1214735802	0.04712783541	
545.0	0.03073708766	0.01280034262	
545.625	-0.01547460295	0.1216008897	
546.25	0.1356293739	-0.009106631725	
546.875	0.05414338665	0.005375942377	
547.5	0.09924265643	-0.1367188049	
548.125	-0.09374298766	-0.1167079162	
548.75	-0.05129205903	-0.08892782189	
549.375	-0.1243648633	-0.1032696498	
550.0	-0.04913756166	0.04855826231	
550.625	-0.05075743532	-0.02961487532	
551.25	-0.06168493946	0.06155085686	
551.875	-0.04527655645	0.03514618214	
552.5	-0.05409963655	0.08391930896	
553.125	0.007080466692	0.04709256005	
553.75	0.03813228171	0.04715718775	
554.375	0.08884237855	-0.01502096038	
555.0	0.07972422577	-0.0613664967	
555.625	0.07974293502	-0.09702563528	
556.25	0.04881664787	-0.1308786934	
556.875	-0.0411010781	-0.1370660582	
557.5	-0.09066770768	-0.08839751551	
558.125	-0.1108506959	-0.03177139459	
558.75	-0.09644067986	0.007277086235	
559.375	-0.0943741443	0.01473615618	
560.0	-0.09340956593	0.07774207606	
560.625	-0.02099835274	0.09980813862	
561.25	-0.01378905572	0.0793755845	
561.875	0.05456348675	0.05221343281	
562.5	-0.01245861314	0.02811805883	
563.125	0.09419444622	0.08612618369	
563.75	0.1002636999	-0.03429340532	
564.375	0.1219981263	-0.0470197809	
565.0	0.05680840732	-0.1800056561	
565.625	-0.0659252859	-0.08153230022	
566.25	-0.07213519	-0.1327881818	
566.875	-0.1716872881	-0.03137108588	
567.5	-0.04928053134	-0.06081227794	
568.125	-0.1482928379	-0.2263188379	
568.75	-0.2018362192	0.01760048285	
569.375	-0.168403382	0.01792988951	
570.0	-0.1615695707	0.2684221512	
570.625	0.04830803023	0.1193202722	
571.25	-0.08076687486	0.08440980325	
571.875	0.1299546377	0.05538298978	
572.5	0.01820099651	0.03041082724	
573.125	0.1748761693	-0.1375885482	
573.75	-0.04765727197	-0.1359849076	
574.375	0.04197823337	0.01837240664	
575.0	0.02535207903	-0.1251754084	
575.625	0.01554366001	0.01902233229	
576.25	0.1079357021	-0.1341242144	
576.875	-0.08969527528	-0.1449225352	
577.5	0.01761048784	-0.06140479114	
578.125	0.04671139503	-0.2271226592	
578.75	-0.1893321206	-0.08914233242	
579.375	0.003749906257	-0.006781036068	
580.0	-0.0996712938	-0.1423652766	
580.625	0.00974835636	0.1066163453	
581.25	-0.1682648449	-0.03037262973	
581.875	0.08168624424	0.2242342398	
582.5	0.04242997655	-0.01903118626	
583.125	-0.01507375583	0.1366648062	
583.75	0.1360199067	-0.05409067462	
584.375	-0.07196517686	0.09022523738	
585.0	0.1982997118	0.05129349724	
585.625	0.05961846319	-0.05967110535	
586.25	0.1425610244	0.0324814442	
586.875	0.07400285377	-0.210233589	
587.5	-0.02588205509	-0.04492515951	
588.125	0.05687593914	-0.1541143327	
588.75	-0.02993775733	-0.1756360558	
589.375	0.0398713248	-0.03616435462	
590.0	-0.03099128227	-0.2597165276	
590.625	-0.1698420135	0.05566305362	
591.25	-0.07207986888	-0.02828849191	
591.875	-0.1250557678	0.1684010263	
592.5	0.1101202986	0.006492628306	
593.125	-0.115261612	0.1029498162	
593.75	0.09637517366	-0.01356862919	
594.375	0.0389518361	0.1186922539	
595.0	0.2480359796	0.1208577026	
595.625	0.1557114107	-0.03332417144	
596.25	0.1475489672	0.1341032156	
596.875	0.207931374	0.00334173763	
597.5	0.09103944311	0.005966051613	
598.125	0.09019563953	0.1617631914	
598.75	0.2265890777	0.04266898476	
599.375	0.1143511655	-0.03475941061	
600.0	0.1768465569	-0.1120723939	
600.625	0.1271320757	-0.2135471701	
601.25	-0.01372918495	-0.1179949667	
601.875	-0.004958299408	-0.1884216013	
602.5	-0.1671368439	0.06287401097	
603.125	-0.02675366019	-0.01098572128	
603.75	-0.234094899	0.0932830355	
604.375	0.002135521088	0.1344421282	
605.0	-0.08355028535	-0.01917754776	
605.625	-0.01811100827	0.1755770184	
606.25	-0.04077952657	-0.02483132136	
606.875	-0.2319903507	0.04203753189	
607.5	-0.08447534418	0.2122645146	
608.125	-0.05707332246	0.1815590744	
608.75	0.194180222	0.1259838223	
609.375	0.2327020953	-0.09817606808	
610.0	0.07076440281	-0.04752894929	
610.625	0.1002812425	-0.1205444289	
611.25	-0.05960865129	-0.1671131163	
611.875	0.01101326947	-0.09146712383	
612.5	-0.228272607	-0.09850408802	
613.125	-0.1032767925	0.1313972321	
613.75	-0.1333777059	0.0381915183	
614.375	0.1161484022	0.1900836207	
615.0	0.008334709536	-0.0722602023	
615.625	-0.04477850193	0.1829876469	
616.25	0.05707296935	0.09797831514	
616.875	-0.1336284313	0.1710767591	
617.5	-0.07305746875	0.2734277238	
618.125	0.02401824847	0.1553368223	
618.75	-0.05310793615	0.1224999666	
619.375	0.02850295232	0.1030626501	
620.0	0.1650916221	-0.006453213928	
620.625	0.0355533392	-0.08636995802	
621.25	-0.107177073	-0.226680911	
621.875	-0.2887665762	0.05701907954	
622.5	-0.163036943	-0.01912473593	
623.125	-0.03231166336	0.2443658865	
623.75	0.1014349535	-0.04425397392	
624.375	0.07100476105	0.05118665183	
625.0	-0.02433868945	-0.08687298155	
625.625	0.09380750199	-0.02339522924	
626.25	-0.0682094516	-0.1856153698	
626.875	-0.1312541689	0.005842078562	
627.5	-0.07729078748	-0.09312451223	
628.125	-0.161729326	-0.06948145713	
628.75	-0.08123559306	-0.09082188866	
629.375	-0.0498748111	-0.1458209775	
630.0	-0.1898455588	-0.1541967018	
630.625	-0.1413368658	0.07504674689	
631.25	-0.1647170928	0.1334573759	
631.875	-0.006374480908	0.2876656335	
632.5	0.1190694095	0.1001049348	
633.125	0.1594106394	0.1163517304	
633.75	0.2058855164	-0.1620748214	
634.375	0.02672540471	-0.04648906796	
635.0	0.06652591368	-0.2283702381	
635.625	-0.1850697062	-0.009184161494	
636.25	-0.07728077696	0.001165734608	
636.875	-0.156611161	0.1632160659	
637.5	0.06738833067	0.07533007817	
638.125	-0.1352792924	0.03304234538	
638.75	-0.01077403749	0.2369806109	
639.375	0.03021674787	0.1096182733	
640.0	0.07474561348	0.2933411426	
640.625	0.3095356409	0.1216354476	
641.25	0.1667408585	-0.05806451938	
641.875	0.191553109	-0.05724773048	
642.5	-0.06585127078	-0.3212127378	
643.125	-0.0458516158	-0.005805339964	
643.75	-0.1237044543	-0.1897259685	
644.375	-0.2243548215	0.2183675245	
645.0	-0.07307675783	-0.05141344171	
645.625	0.04414730793	0.4643536509	
646.25	0.2020812193	-0.1058762472	
646.875	0.002942773962	0.09563231959	
647.5	0.1799995771	-0.04326768828	
648.125	-0.08068096216	0.09247200068	
648.75	0.4025488869	-0.03885638945	
649.375	0.07109584176	-0.3228018591	
650.0	0.1076456599	-0.1348861825	
650.625	0.3001445253	-0.3164641073	
651.25	0.01122018328	-0.3260276112	
651.875	0.1750396301	-0.008693702359	
652.5	0.3939482396	-0.1210513387	
653.125	0.1509267303	-0.2263814809	
653.75	0.1726630408	-0.05463734665	
654.375	-0.0773494262	-0.4396834941	
655.0	-0.2412205098	0.06706375665	
655.625	-0.1040950383	-0.04401799273	
656.25	0.007651381416	0.3294859766	
656.875	0.07021436055	-0.1055441641	
657.5	-0.02997873681	0.3063512291	
658.125	0.2521188242	0.03784931881	
658.75	0.06728702568	0.07296160087	
659.375	0.4505174377	-0.06563402008	
660.0	0.03449411436	-0.4132860747	
660.625	0.09740058473	-0.1558586716	
661.25	0.2213702132	-0.3457682624	
661.875	0.07660240817	-0.3360312676	
662.5	0.1803785834	-0.01473909883	
663.125	0.343470927	-0.2697142123	
663.75	-9.942930796e-06	-0.2539108466	
664.375	0.03906208883	-0.2260635237	
665.0	-0.3050617229	-0.2646330015	
665.625	-0.2214560868	0.2130850056	
666.25	-0.1178515623	0.1328379016	
666.875	0.152105862	0.2814255487	
667.5	0.1490023352	-0.03762688877	
668.125	0.1904258259	0.1698229212	
668.75	0.1797543198	-0.2793964423	
669.375	0.007271671602	-0.1202097359	
670.0	0.1176565381	-0.2255987925	
670.625	-0.167704156	-0.278332884	
671.25	0.03156785937	-0.01597622507	
671.875	0.21365099	-0.2212842251	
672.5	0.06599366614	-0.1896203641	
673.125	0.1461943536	-0.06725543514	
673.75	0.2439747605	-0.257158067	
674.375	-0.1020534734	-0.2259300894	
675.0	0.01561959359	-0.1623191979	
675.625	-0.2502566616	-0.1724431747	
676.25	-0.165622034	0.1026186203	
676.875	-0.04366372643	-0.08493782349	
677.5	-0.2518439236	0.09293597866	
678.125	0.01399847724	0.1227567969	
678.75	-0.09126942554	0.1762159506	
679.375	0.3526934667	0.08161771179	
680.0	-0.1087346009	-0.1338963953	
680.625	0.2002102097	0.02627895317	
681.25	0.01969460897	-0.2902646113	
681.875	-0.06006935943	0.1386440044	
682.5	0.3489520119	0.1888675925	
683.125	0.1052048409	-0.1746789022	
683.75	0.1783979823	0.2574904089	
684.375	0.3907779248	0.063284624	
685.0	0.2002699706	-0.1641348507	
685.625	0.2571575752	0.1850640969	
686.25	0.3917838055	-0.1619751778	
686.875	0.1516308641	-0.1394842716	
687.5	0.2953060485	-0.1531050875	
688.125	-0.1581118782	-0.4616329386	
688.75	-0.2603989874	0.01577058477	
689.375	-0.2924297544	0.1997767514	
690.0	0.2206181622	0.4208096323	
690.625	0.1546563527	0.01213117012	
691.25	0.2781230663	0.4348931118	
691.875	0.5989268442	-0.01896150472	
692.5	0.3267733919	0.1677139734	
693.125	0.7001819532	0.05176609782	
693.75	0.2867541632	-0.5034148071	
694.375	0.3593247118	-0.1089722715	
695.0	0.4688889046	-0.4767332077	
695.625	0.3476958436	-0.2176263373	
696.25	0.3629489082	0.1713427258	
696.875	0.4389060895	0.4874420033	
697.5	0.317792217	0.334282773	
698.125	0.3942206583	0.2072495355	
698.75	0.4766288299	-0.4002278468	
699.375	-0.4805390522	-0.2388943699	
700.0	-0.1080600221	0.2294107623	
700.625	0.1584620679	0.4061190743	
701.25	0.2501504696	-0.01975197965	
701.875	0.1201063046	0.2619724449	
702.5	0.5184467468	0.2538863116	
703.125	0.2885506859	-0.07645827059	
703.75	0.3279596716	0.03019923336	
704.375	0.2875053121	-0.2975713677	
705.0	0.07171234284	-0.09515703518	
705.625	0.3405165314	0.03156122483	
706.25	0.2933298182	0.05071336573	
706.875	0.2063320124	0.2995960042	
707.5	0.2211480417	0.3809701905	
708.125	0.3896878297	0.2629955073	
708.75	0.1538491917	-0.29134671	
709.375	-0.08423398043	-0.1789709031	
710.0	-0.1464148095	0.306145287	
710.625	0.158922584	-0.04203408148	
711.25	0.1009405894	0.2236292377	
711.875	0.2375765883	-0.1398341293	
712.5	0.232807121	0.08095753558	
713.125	0.3183422037	-0.2624933552	
713.75	-0.004645692515	-0.2374012542	
714.375	0.08228016115	-0.1425300176	
715.0	-0.07694261925	-0.2776867141	
715.625	-0.06500727417	-0.1216666275	
716.25	0.2132622799	-0.1525152506	
716.875	0.3037953076	-0.3118868832	
717.5	0.3318641149	-0.1047587685	
718.125	0.6312104462	0.1736215492	
718.75	0.8228379402	-0.05687888301	
719.375	0.3745410903	-0.3670572317	
720.0	0.762872087	-0.7228337424	
720.625	-0.1528028809	-1.198668851	
721.25	-0.1441409129	0.01405620143	
721.875	-0.09089539174	-1.064673351	
722.5	-1.062055903	-0.5111818997	
723.125	-0.3043492082	-0.0843953395	
723.75	-0.7146424768	0.561083981	
724.375	0.2801635733	0.3460620642	
725.0	0.01134102121	0.2552559376	
725.625	0.2553221303	0.5675404314	
726.25	0.3033788087	0.3841613372	
726.875	-0.2556549467	0.6531371468	
727.5	-0.0165936978	1.476302061	
728.125	0.6621195181	1.497002203	
728.75	-0.5429854127	1.514392138	
729.375	-1.281160555	4.024885004	
730.0	1.297243758	2.606301132	
730.625	-0.9141436423	2.560366401	
731.25	-0.832336534	4.643098715	
731.875	0.2886575341	2.737910127	
732.5	-2.989999951	-0.05133863936	
733.125	-2.709309601	1.065790538	
733.75	0.1659113247	1.033980881	
734.375	0.0343478302	0.9142647919	
735.0	-0.2394294373	-0.9450814099	
735.625	-0.05820162818	0.1024612424	
736.25	-0.2507098567	0.5631105592	
736.875	0.7950150146	0.3220427486	
737.5	0.259190698	-0.04938823213	
738.125	1.709769779	-0.03867911631	
738.75	1.196008127	-1.969862329	
739.375	0.3547981262	-0.9060482221	
740.0	3.356768923	0.6442708991	
740.625	4.644548667	-2.788214651	
741.25	-2.276439031	-0.9056583629	
741.875	-4.382285069	0.7782820379	
742.5	-2.357016691	0.4399568016	
743.125	0.9573297015	-0.8310047846	
743.75	-0.09255953027	-1.519525138	
744.375	-0.3042614827	0.2291997973	
745.0	-0.1756069976	0.05721721093	
745.625	0.07678477024	-0.1587365403	
746.25	0.1047687057	-0.03262041478	
746.875	-0.2438131828	0.04709807165	
747.5	0.1485466303	0.3017342823	
748.125	0.06487339281	0.3150857787	
748.75	0.1512126514	0.422443436	
749.375	0.320208768	0.2787819503	
750.0	-0.4159511972	-0.05871898688	
