!Created with skrf (http://scikit-rf.org).
# GHz S RI R (50+0j) 
!freq	ReS11	ImS11	
500.0	-0.2494833813	-0.6427056082	
500.625	0.4584931168	-0.5329038805	
501.25	-0.6208706613	-0.7319339243	
501.875	-0.1699657355	-0.1148702904	
502.5	-0.001604193958	-0.1867187771	
503.125	-0.04479031924	0.0502174055	
503.75	-0.02978449973	0.03806312683	
504.375	0.04787358883	-0.0138142478	
505.0	-0.0004540008688	0.01574528726	
505.625	0.02672975943	-0.0759277667	
506.25	-0.1071791931	0.04443880764	
506.875	-0.02002082555	-0.1830312599	
507.5	-0.4123473888	-0.2768363134	
508.125	0.363791291	-0.244358327	
508.75	0.7028651827	-1.052140662	
509.375	-0.5807871996	-1.023246718	
510.0	-0.07043434962	-0.158777459	
510.625	-0.09898406783	-0.1956429969	
511.25	-0.07127990253	0.02466838973	
511.875	-0.05824040277	-0.06010078458	
512.5	-0.02379297753	0.07146175171	
513.125	-0.01187150236	-0.01737317026	
513.75	-0.01329401093	-0.08444641206	
514.375	-0.1061639104	0.08746127794	
515.0	0.2314843253	-0.1036451327	
515.625	-0.421906961	0.07305094779	
516.25	0.2736514158	-0.2493903418	
516.875	-0.1465282288	-0.6006387061	
517.5	-0.157443637	-0.1010973518	
518.125	-0.01284511788	-0.08721223285	
518.75	-0.1339554821	-0.1091007992	
519.375	-0.05379365897	0.0195782252	
520.0	0.09442349633	0.06910316294	
520.625	0.09684606925	-0.05557561852	
521.25	-0.0294171253	-0.1383065931	
521.875	-0.09606704341	-0.07982806176	
522.5	-0.07164138078	0.08430438394	
523.125	0.06264044658	-0.000416453375	
523.75	-0.1954216296	-0.03968096026	
524.375	-0.04625073909	0.1373130083	
525.0	-0.1163001193	0.008570271284	
525.625	0.09051862801	0.1073739228	
526.25	-0.08479165098	-0.05475703226	
526.875	0.01872550018	0.06544954087	
527.5	-0.06467580221	0.06858384052	
528.125	0.04019994972	0.2732355546	
528.75	0.1250413018	0.1585960385	
529.375	0.06061751836	0.07416854249	
530.0	-0.02863093238	0.08831536372	
530.625	0.1002093242	0.1637213235	
531.25	0.3453575667	0.2218737223	
531.875	0.2784045885	-0.1793892807	
532.5	-0.131670942	0.01343453432	
533.125	0.1101854052	-0.1735389523	
533.75	0.0137455124	-0.07711809686	
534.375	0.05833585698	-0.2636326646	
535.0	-0.2675748596	-0.01816396776	
535.625	-0.07069328297	0.07017382138	
536.25	-0.02235233028	0.09602047018	
536.875	0.09690142192	-0.02506590132	
537.5	0.0485963134	-0.0008914302083	
538.125	0.1304421653	-0.1017089655	
538.75	0.04348807297	-0.08344871685	
539.375	-0.0414522777	-0.1497833568	
540.0	-0.1799754347	-0.125644144	
540.625	-0.1111353054	0.0209982293	
541.25	-0.07755455721	-0.04696245203	
541.875	-0.0800297361	0.001262386018	
542.5	0.01767919501	0.02119438272	
543.125	-0.1169522385	-0.05688325493	
543.75	-0.02804012798	0.02841938519	
544.375	-0.09978587945	-0.03659324168	
545.0	0.04203479801	0.06067865218	
545.625	-0.03733331	0.03329873478	
546.25	0.1376178968	0.05923632713	
546.875	0.05904751117	-0.06610871914	
547.5	0.08512006902	-0.06408924489	
548.125	-0.0648206397	-0.1867950068	
548.75	-0.09503326002	-0.04226551254	
549.375	-0.06982158663	-0.10690631	
550.0	-0.08781787849	0.04839779859	
550.625	-0.01944739095	-0.01841403292	
551.25	-0.08718766457	0.04433828247	
551.875	-0.03254925003	0.07339249034	
552.5	-0.05117665884	0.04677475648	
553.125	0.002962491855	0.06626933584	
553.75	0.03428221854	0.03463580869	
554.375	0.09453668277	0.0008052419486	
555.0	0.07678654864	-0.06985726778	
555.625	0.07271631599	-0.08866392543	
556.25	0.05167989291	-0.1304809482	
556.875	-0.04151219917	-0.1359176346	
557.5	-0.08989994968	-0.08508154557	
558.125	-0.10674304	-0.03351048003	
558.75	-0.1029104392	0.004840865493	
559.375	-0.08889798996	0.0267065874	
560.0	-0.09163097227	0.06183973769	
560.625	-0.03377615881	0.1212142855	
561.25	0.01144446611	0.06308751331	
561.875	0.02915217915	0.07112671518	
562.5	0.01545402684	0.01522655792	
563.125	0.05844516031	0.09503488305	
563.75	0.1413440439	-0.03314304897	
564.375	0.06041338574	-0.07196465756	
565.0	0.1076535062	-0.1371988379	
565.625	-0.1032255961	-0.1508943636	
566.25	-0.05575935889	-0.06119059435	
566.875	-0.160889284	-0.107197063	
567.5	-0.1351314298	-0.0191618023	
568.125	-0.04956924258	-0.204868132	
568.75	-0.2685786467	-0.03275073108	
569.375	-0.1215605262	0.08904341359	
570.0	-0.1876341804	0.150943292	
570.625	0.01142983703	0.2438683105	
571.25	0.007009607585	0.01472559256	
571.875	0.07244547091	0.1307609089	
572.5	0.05989179012	-0.08417338534	
573.125	0.1509653668	-0.01206371432	
573.75	0.03504754486	-0.1910157751	
574.375	-0.04774850055	0.008796808259	
575.0	0.1013104952	-0.07307341603	
575.625	-0.05360317686	-0.070979073	
576.25	0.07815771652	-0.01993670031	
576.875	0.008247575905	-0.229502178	
577.5	-0.08015564693	-0.1089413396	
578.125	0.06286402633	-0.0826044524	
578.75	-0.1088327429	-0.2211304625	
579.375	-0.1002874767	0.04501821447	
580.0	0.03096383744	-0.1203249496	
580.625	-0.1244132953	0.1210589452	
581.25	-0.0309710716	-0.0548441042	
581.875	-0.06720056377	0.2279772307	
582.5	0.1683858398	0.1009586107	
583.125	-0.02122966841	-0.004605297221	
583.75	0.09026413132	0.1094429195	
584.375	-0.002472941549	-0.05921272262	
585.0	0.1346065605	0.1656486395	
585.625	0.1519436253	-0.1045774767	
586.25	0.0566858682	0.001198816969	
586.875	0.1441986064	-0.155014407	
587.5	-0.09549107757	-0.1075733166	
588.125	0.04255992425	-0.06347732125	
588.75	0.07279353517	-0.1971916357	
589.375	-0.03983158066	-0.1465854609	
590.0	0.07324926149	-0.1160455149	
590.625	-0.2786356147	-0.04740759498	
591.25	0.008643311963	0.09618096932	
591.875	-0.1392817282	0.03646613652	
592.5	0.1083207748	0.126236977	
593.125	-0.128522711	-0.02179943127	
593.75	0.1535396642	0.1068641478	
594.375	0.05760233645	0.00495272241	
595.0	0.145656271	0.1840767713	
595.625	0.2382428311	0.06789454471	
596.25	0.04052141333	0.01835546171	
596.875	0.1780918472	0.1146188114	
597.5	0.16533251	0.0009443163065	
598.125	0.06753754512	0.1070980986	
598.75	0.2144207794	0.1089128664	
599.375	0.1499706331	-0.1029358996	
600.0	0.1336265515	-0.07448351242	
600.625	0.1811414284	-0.1667392993	
601.25	-0.009768873043	-0.215309948	
601.875	0.001920422569	-0.04770180533	
602.5	-0.2356217113	-0.04374137805	
603.125	-0.01844341104	0.107367279	
603.75	-0.1933059544	-0.05532502906	
604.375	-0.1319642704	0.1863666836	
605.0	0.04774736582	0.0163821865	
605.625	-0.159148292	0.1264030419	
606.25	0.008165794917	0.04101180507	
606.875	-0.1500757883	-0.01403819061	
607.5	-0.193031872	0.2241981578	
608.125	0.04379570814	0.1743599651	
608.75	0.2171669563	0.1772638262	
609.375	0.2623467677	-0.05106892073	
610.0	0.06810538494	-0.1536595473	
610.625	0.08756999795	-0.08797016844	
611.25	0.03350221054	-0.1944027723	
611.875	-0.07441408329	-0.02622874766	
612.5	-0.1187836833	-0.1393705782	
613.125	-0.2679824519	0.1182367837	
613.75	0.02452223313	0.04934848537	
614.375	0.006355374291	0.2210234734	
615.0	0.135574726	-0.03828988981	
615.625	-0.1110507938	0.08977803459	
616.25	0.01108421428	0.259260245	
616.875	-0.1528060047	0.1167477654	
617.5	-0.1256230967	0.2385398487	
618.125	0.01842494161	0.1348881712	
618.75	0.04511454642	0.08269645498	
619.375	0.08792590822	-0.003927538309	
620.0	0.2015732424	0.01870657603	
620.625	-0.004469461262	-0.2054215114	
621.25	-0.01536865655	-0.1593899686	
621.875	-0.3331349238	-0.1066094783	
622.5	-0.1099840412	0.07508017323	
623.125	-0.09743996448	0.1855879348	
623.75	0.1734033207	-0.01021877438	
624.375	-0.04138315194	0.008837218791	
625.0	0.1016293048	-0.08663950554	
625.625	-0.02276067688	-0.02665062168	
626.25	0.0111958757	-0.1540432337	
626.875	-0.1794795136	-0.05845459552	
627.5	-0.06141847082	0.006660296806	
628.125	-0.1163700814	-0.1356722919	
628.75	-0.07960589294	-0.1125099247	
629.375	-0.07763138014	-0.1002773102	
630.0	-0.1444761132	-0.1406792282	
630.625	-0.1790728398	0.105473183	
631.25	-0.1135468958	0.1253002273	
631.875	-0.1377351743	0.2302686839	
632.5	0.2052153277	0.1618527803	
633.125	0.1163284465	0.001959482696	
633.75	0.2643251934	-0.0009373528634	
634.375	-0.0416623921	-0.1514094943	
635.0	0.1106922171	-0.08620507364	
635.625	-0.2316657221	-0.09776202447	
636.25	-0.0600629394	0.0936625645	
636.875	-0.1155978852	0.035847998	
637.5	-0.0009350842049	0.1897341574	
638.125	-0.02930012978	-0.01728415303	
638.75	-0.1229127972	0.2137467972	
639.375	0.09749339918	0.231759608	
640.0	0.05674138911	0.1552371451	
640.625	0.2284862912	0.2068574676	
641.25	0.2768561231	-0.08363049569	
641.875	0.02024532205	-0.1060504484	
642.5	0.1268243971	-0.2593968541	
643.125	-0.2104801292	-0.03147370415	
643.75	-0.0121035679	-0.07766377806	
644.375	-0.3813016248	0.0008977837509	
645.0	0.0896358731	0.1688834483	
645.625	-0.1641468736	0.1900596185	
646.25	0.351178363	0.09214485823	
646.875	-0.07922799203	-0.0925578407	
647.5	0.157609618	0.140013302	
648.125	0.0990057976	-0.1195317729	
648.75	0.1864512915	0.104990543	
649.375	0.2782183744	-0.3584953488	
650.0	-0.03686744722	-0.2612002365	
650.625	0.2267177716	-0.1218412997	
651.25	0.2393443897	-0.3636757643	
651.875	0.04219686855	-0.1630277905	
652.5	0.2670706586	0.04340961088	
653.125	0.3381296813	-0.2255235542	
653.75	0.009422055722	-0.2065972993	
654.375	0.1522391536	-0.2550300889	
655.0	-0.4134666645	-0.04623857083	
655.625	0.09640505453	0.1627127051	
656.25	-0.1578284869	0.1088922524	
656.875	0.1954664682	0.1032468663	
657.5	-0.1939386886	0.01994071307	
658.125	0.3171488858	0.2335942415	
658.75	0.1997755857	-0.1002890373	
659.375	0.2558796183	0.01984066223	
660.0	0.305947061	-0.4300646595	
660.625	-0.07971362313	-0.2749719682	
661.25	0.2274198906	-0.1523907955	
661.875	0.2444510361	-0.3456406671	
662.5	0.06070717108	-0.2276729868	
663.125	0.2827169647	-0.05050111889	
663.75	0.1184428632	-0.3891303329	
664.375	-0.09243122634	-0.1731054951	
665.0	-0.1971950064	-0.249080097	
665.625	-0.3787183385	0.1656956533	
666.25	0.04681295706	0.1852683894	
666.875	-0.01435448604	0.241584546	
667.5	0.2757021385	0.05320275551	
668.125	-0.001983729008	-0.02571438387	
668.75	0.3259567944	-0.07786967494	
669.375	-0.02652621255	-0.2896584494	
670.0	0.03622150841	-0.07384077418	
670.625	0.0423116479	-0.3192974015	
671.25	-0.1127222115	-0.1552831154	
671.875	0.1809132346	-0.02974476414	
672.5	0.1756772548	-0.298156816	
673.125	0.07443081816	-0.1405096306	
673.75	0.1661670253	-0.1140292881	
674.375	0.03971099971	-0.3704465555	
675.0	-0.1644744904	-0.07391623642	
675.625	-0.122734714	-0.2069274568	
676.25	-0.2617294229	0.02812021705	
676.875	-0.03021517791	0.06239449269	
677.5	-0.1966524681	-0.06633853668	
678.125	-0.06632477431	0.2838015147	
678.75	0.03903397136	0.06242406432	
679.375	0.169541599	0.2008145221	
680.0	0.1672588401	-0.3203280365	
680.625	-0.06682873206	0.1449153977	
681.25	0.3366794769	-0.1718153379	
681.875	-0.02134674139	-0.1281522543	
682.5	0.06162265892	0.2475978637	
683.125	0.4703165965	-0.007855247513	
683.75	-0.04685118661	0.02326695618	
684.375	0.2717096953	0.1984110384	
685.0	0.3638465459	-0.05441506803	
685.625	0.09979260854	-0.08625780396	
686.25	0.4146850056	0.09206733345	
686.875	0.2299191824	-0.3427764417	
687.5	0.1284178358	-0.1437736939	
688.125	0.01324715924	-0.4606368348	
688.75	-0.498780165	-0.04758598691	
689.375	-0.1028504475	0.1778462664	
690.0	0.01252788425	0.4384364714	
690.625	0.4076189236	0.0857343619	
691.25	0.07989386174	0.1670895206	
691.875	0.7924787951	0.3945479092	
692.5	0.4622786289	-0.1664289644	
693.125	0.4374874814	0.08532304448	
693.75	0.6905722268	-0.4135633528	
694.375	0.07999496708	-0.2717128987	
695.0	0.473052524	-0.1218602061	
695.625	0.4952251747	-0.3265606689	
696.25	0.3464811385	0.1778698418	
696.875	0.2602055963	0.3755507894	
697.5	0.3575672396	0.3144428302	
698.125	0.4089509216	0.044290326	
698.75	0.3314862195	-0.2996981502	
699.375	-0.4010454464	-0.3824177665	
700.0	-0.09333573669	0.3825082329	
700.625	-0.01076555576	0.2374356291	
701.25	0.4076163632	0.2115057652	
701.875	0.1428305778	0.06755432466	
702.5	0.3040301103	0.3505044994	
703.125	0.5314821592	-0.03552137514	
703.75	0.1445900286	-0.1370753217	
704.375	0.375176816	-0.08758722618	
705.0	0.1105863112	-0.1853940682	
705.625	0.1229151737	0.05495611925	
706.25	0.3489452956	0.2210699827	
706.875	0.145898512	0.2631914619	
707.5	0.1960633622	0.3219704588	
708.125	0.2873593894	0.1254517263	
708.75	0.2297510823	-0.345669755	
709.375	-0.3330877574	-0.006304777587	
710.0	-0.2313850821	0.2355594656	
710.625	0.3479943368	0.18334313	
711.25	-0.03660324533	0.07105726024	
711.875	0.3658019125	0.1182153716	
712.5	0.1161672221	-0.1178098377	
713.125	0.2962988852	-0.0916636563	
713.75	0.09109751428	-0.3359576755	
714.375	-0.07648513659	-0.1201763788	
715.0	0.08347844854	-0.213146901	
715.625	-0.06221766954	-0.2415532596	
716.25	0.08073523572	-0.08772847789	
716.875	0.4249428812	-0.1409118994	
717.5	0.4677308327	-0.09457339341	
718.125	0.3776870527	0.1412192266	
718.75	0.5256334938	0.1638214159	
719.375	0.6921996899	-0.4976331614	
720.0	0.4244572313	-0.4609770949	
720.625	0.3640571475	-1.05427372	
721.25	-1.217433967	-0.6823712872	
721.875	-0.005470477859	-0.5811563717	
722.5	-0.8685706856	-0.945371536	
723.125	-0.6599530081	0.3595494124	
723.75	-0.3468381541	0.08660134853	
724.375	0.1137492996	0.6634166827	
725.0	0.2067703853	0.08997240043	
725.625	0.002302599328	0.4380754241	
726.25	0.2187387683	0.7353008982	
726.875	0.1560783567	0.5071074047	
727.5	-0.3704680613	1.172955662	
728.125	0.2029950389	2.101858833	
728.75	0.6094266174	1.316567303	
729.375	-1.437857807	2.19846648	
730.0	0.2933377983	4.244705573	
730.625	0.3923045265	2.151440968	
731.25	-1.315598446	2.721764077	
731.875	-2.877311825	4.879115827	
732.5	-0.9942860021	0.9988702977	
733.125	-2.418153798	-0.1965430632	
733.75	-0.2825689793	1.720303442	
734.375	0.2140968175	-0.1440873578	
735.0	0.443933984	-0.6694729859	
735.625	-0.4153788754	0.6335708476	
736.25	-0.1507780525	0.1110306574	
736.875	0.5946106835	0.718125578	
737.5	0.9348936325	-0.3536303058	
738.125	0.6020942144	-0.01212937444	
738.75	2.453086183	-1.028135447	
739.375	0.7012192468	-2.943450288	
740.0	0.5748033308	0.349602514	
740.625	4.31506129	1.910899297	
741.25	4.014246224	-1.082337178	
741.875	-3.143941418	-2.316793343	
742.5	-2.372898156	-3.017399111	
743.125	-1.229041545	-0.8588203742	
743.75	0.8396962428	-0.7216678221	
744.375	-0.7415095802	0.05866574954	
745.0	0.1044440666	-0.08774437439	
745.625	0.1566643219	0.03516710702	
746.25	-0.08153727649	0.02914097851	
746.875	-0.1486852642	-0.04378515489	
747.5	-0.04482059606	0.4794658058	
748.125	0.2324739381	0.2973300341	
748.75	0.1160082956	0.3541685373	
749.375	0.1444332967	0.5763688888	
750.0	-0.3272130819	0.3128814786	
