!Created with skrf (http://scikit-rf.org).
# GHz S MA R 50.0 
!freq magS11 angS11
600.0 0.081988019139 -72.6424780307
600.125 0.0623922812972 -118.329180916
600.25 0.0501106615734 58.50935449
600.375 0.0602085006603 -13.7634506677
600.5 0.0813451467704 -67.382256881
600.625 0.0817354149709 -116.690048826
600.75 0.0710350910167 -122.176091805
600.875 0.0346828611789 39.5170172797
601.0 0.0251686287548 -17.1692303534
601.125 0.0896928054453 -98.2325740655
601.25 0.0619067189411 -126.385739222
601.375 0.052073510566 -166.722741485
601.5 0.043188287254 -3.85812362138
601.625 0.0757009804649 -75.4685508773
601.75 0.0260762228349 -57.9460330534
601.875 0.094444237152 163.569805868
602.0 0.0491512208307 112.471795475
602.125 0.0806105837293 -37.6305789135
602.25 0.0704398443508 -111.270285205
602.375 0.0149468359449 -152.19925793
602.5 0.0795433767223 140.423842095
602.625 0.0320676691728 117.173758641
602.75 0.0820056523693 -48.9800669158
602.875 0.0906636288047 -135.865630328
603.0 0.00775095218807 163.376441864
603.125 0.0274856713469 127.928632627
603.25 0.0474250758683 47.7461949711
603.375 0.0327058361657 -81.9567929253
603.5 0.100335298058 -147.249784763
603.625 0.0190184062335 113.677241796
603.75 0.0482047991417 76.1485670372
603.875 0.0493007431511 5.7855922051
604.0 0.048268376475 -99.7541575832
604.125 0.0853977718453 -156.851490973
604.25 0.0328538354522 94.6227750295
604.375 0.0857071608526 45.3108886464
604.5 0.0662275716076 -34.2211843546
604.625 0.0392256853989 -118.433915289
604.75 0.0527940409645 -174.468641256
604.875 0.0664487543761 120.235524927
605.0 0.0449475703244 26.7753310711
605.125 0.104316758235 -52.9528235194
605.25 0.0611291742538 -131.613602938
605.375 0.0720008131573 170.852348455
605.5 0.0450034963116 102.451657306
605.625 0.0394400599218 29.7931523536
605.75 0.109290033279 -51.273821335
605.875 0.100774600895 -138.059043943
606.0 0.116689885158 155.680924831
606.125 0.050538646834 98.6460724132
606.25 0.0338061241004 25.1241978513
606.375 0.0757374621051 -56.2892430288
606.5 0.12277888407 -134.104503655
606.625 0.110357553766 153.293788576
606.75 0.116752169508 85.0104730174
606.875 0.0566678269943 11.7661368158
607.0 0.058304703567 -82.3270190351
607.125 0.0880929793054 -153.521274183
607.25 0.119339210252 138.01948031
607.375 0.130938182056 70.7967023371
607.5 0.085431501391 -2.69333250439
607.625 0.0736208457584 -108.300995739
607.75 0.0803577732823 169.123509961
607.875 0.0913445999037 108.865297944
608.0 0.128074983832 47.4408860208
608.125 0.122231374491 -31.2835038379
608.25 0.0899155856639 -117.860066778
608.375 0.0821009039446 150.440858905
608.5 0.106130011884 79.4719886664
608.625 0.115072286255 25.8735627363
608.75 0.100177408034 -40.0915438979
608.875 0.0862917379496 -124.388507204
609.0 0.0842357438667 151.492924746
609.125 0.127112861814 73.8261824313
609.25 0.109250432564 12.4563879443
609.375 0.0920937911401 -44.6070359483
609.5 0.0879452981965 -122.230811834
609.625 0.0901024199558 150.423123741
609.75 0.117513605132 82.5759526774
609.875 0.13795208531 18.7365472089
610.0 0.0958024213908 -39.3230327376
610.125 0.0814821877729 -129.017626434
610.25 0.0869967980352 141.213267696
610.375 0.121276382581 65.5743075435
610.5 0.126136662412 5.67777874917
610.625 0.102577685802 -45.57730649
610.75 0.0971478456726 -138.264141719
610.875 0.0779049122032 140.911892209
611.0 0.112533728044 56.9187115682
611.125 0.123200836526 -6.79487371113
611.25 0.0990667025361 -56.0311645758
611.375 0.0975226902197 -126.816593639
611.5 0.0877856192624 139.892425418
611.625 0.0895657303786 60.8611231863
611.75 0.123239920324 -15.0666526095
611.875 0.102604899763 -56.0190764466
612.0 0.0906263505301 -124.568406368
612.125 0.080815182502 154.760665393
612.25 0.0811169890943 68.6041015963
612.375 0.117662326068 -8.51388276941
612.5 0.103317735446 -56.3589198592
612.625 0.102766541758 -137.510240005
612.75 0.0794922647989 149.088862098
612.875 0.0728732101393 68.4628268606
613.0 0.0961897338568 -12.3231400478
613.125 0.0843422309661 -61.7650337416
613.25 0.108451440776 -144.266438574
613.375 0.0945602427526 127.228115382
613.5 0.0638481251671 71.4865204924
613.625 0.0690796357092 -19.0009408271
613.75 0.0779940734777 -85.4618223378
613.875 0.0819761191712 -141.504465838
614.0 0.123401503535 117.511346361
614.125 0.0841222137949 60.9412536373
614.25 0.0727519879253 -38.0594671251
614.375 0.0612551682022 -78.6156122535
614.5 0.0699170707392 -158.549838772
614.625 0.110004367247 105.402813723
614.75 0.0908443862017 36.6203515615
614.875 0.0963573928653 -60.7375113634
615.0 0.0752548858945 -115.702300256
615.125 0.0643872599499 -160.657312668
615.25 0.0927138385569 85.4954796089
615.375 0.0809210177672 20.6233806858
615.5 0.0740115248384 -34.3418985617
615.625 0.0983607679303 -143.125854904
615.75 0.0707254328687 169.766809878
615.875 0.0720673607024 70.7382352258
616.0 0.055798206879 12.8263461546
616.125 0.0618294223659 -64.3022453577
616.25 0.085851759723 -156.35038483
616.375 0.0734465271989 165.516967814
616.5 0.0733934125763 42.8744750343
616.625 0.0542259952846 15.6427585988
616.75 0.0445091356351 -34.9044963539
616.875 0.0843693945045 175.75575
617.0 0.0860760673178 122.04865147
617.125 0.0619552455383 27.4874543356
617.25 0.0659156013565 -49.1872949771
617.375 0.0447964319908 -55.638489214
617.5 0.0324194381974 -138.621085755
617.625 0.0845870587457 84.0262473368
617.75 0.0787965246887 36.0930363038
617.875 0.052529326866 -27.6946288501
618.0 0.037404561539 -126.545718352
618.125 0.0340565994396 -134.865296736
618.25 0.0684839743767 65.6148675353
618.375 0.0477554920491 44.2621996338
618.5 0.0570520115881 -59.4004870481
618.625 0.0296934579514 -105.942434475
618.75 0.0262708846666 -124.142826927
618.875 0.0685601135426 38.4184479389
619.0 0.0526459215833 -2.90844130486
619.125 0.0284047991772 -29.4389302648
619.25 0.066732583767 178.75322011
619.375 0.0636429981225 102.202290219
619.5 0.0437850261657 38.9096772697
619.625 0.0485912106917 -25.0964003189
619.75 0.0268121489856 -54.5560125193
619.875 0.0343676398971 154.635947604
620.0 0.0728018302982 50.8633904575
620.125 0.106725859896 5.53159660429
620.25 0.0419047677069 41.2626789212
620.375 0.0314244900658 -117.180029817
620.5 0.0288045599599 119.50894458
620.625 0.0307951932032 0.495583483048
620.75 0.0103874523066 -85.8048132998
620.875 0.0564727209964 -53.1204440193
621.0 0.0825781890848 -149.229445053
621.125 0.0116161840479 166.424969804
621.25 0.0416340099064 -38.9835108074
621.375 0.0728367488416 -48.2027940902
621.5 0.044745603072 -70.6891869316
621.625 0.0739699909398 -148.005562585
621.75 0.0180577735277 -106.581827083
621.875 0.0431057876951 -24.0830776384
622.0 0.0693773954265 -80.80947954
622.125 0.0362562580005 -107.471946508
622.25 0.11020720986 -173.693219156
622.375 0.0389474649042 117.138002027
622.5 0.0631547770138 -164.370977623
622.625 0.10371093271 -124.874969753
622.75 0.114580020805 -175.988715208
622.875 0.123068585798 126.048237798
623.0 0.0656925507684 66.6662873747
623.125 0.0499826714038 168.900324655
623.25 0.0846807922405 -139.443310897
623.375 0.0923061610386 167.404035682
623.5 0.137346530134 107.542142399
623.625 0.0810025486691 51.4720328644
623.75 0.0391781441094 157.430554779
623.875 0.0534542684804 166.456268685
624.0 0.102142926358 160.162660944
624.125 0.0806954706747 110.694212922
624.25 0.0927853521696 50.3180887828
624.375 0.0218372757613 172.334894451
624.5 0.0553829405168 -146.101341098
624.625 0.10167232734 166.315799553
624.75 0.0816567500874 113.900553249
624.875 0.0849845418858 65.5180867363
625.0 0.0180246982878 -149.500032675
625.125 0.0766185898787 -124.291584034
625.25 0.127466833915 171.000635123
625.375 0.0739030988004 109.686175664
625.5 0.04864792104 49.7617539205
625.625 0.0325483103754 -41.0983773511
625.75 0.0455158091016 -169.999403931
625.875 0.132277538132 161.021729453
626.0 0.0990045498177 91.8602902064
626.125 0.0794114963954 29.8243966429
626.25 0.0188253116017 -43.5915602437
626.375 0.0365328963236 149.60058132
626.5 0.10813294191 143.337363427
626.625 0.105586438098 81.2344897058
626.75 0.135718648273 18.5340200068
626.875 0.0572723725747 -58.2880595751
627.0 0.0298028054711 166.593190026
627.125 0.105077920878 128.798753717
627.25 0.121478943691 79.3794212308
627.375 0.0717388798897 24.3980102274
627.5 0.116551601252 -44.505908377
627.625 0.0628422868839 -146.001548732
627.75 0.106335251598 127.738151875
627.875 0.101743052579 70.5835215552
628.0 0.076376620236 17.211886105
628.125 0.0923224257904 -37.9224805313
628.25 0.0625778763189 -130.826640952
628.375 0.132217429736 135.377427411
628.5 0.106144201821 65.2354927771
628.625 0.0596295846722 10.7064799014
628.75 0.0848417661155 -51.9700218978
628.875 0.0756434213373 -131.174392154
629.0 0.102766312266 138.886318473
629.125 0.151605833093 66.9656398359
629.25 0.0735550843242 4.67590385461
629.375 0.0746547555284 -59.6561922362
629.5 0.0629218523829 -140.222552376
629.625 0.0863457239218 137.927504156
629.75 0.138329868865 73.9411057752
629.875 0.0906464177943 8.63551607776
630.0 0.114323540587 -62.0261891167
630.125 0.0671745639842 -141.092900696
630.25 0.0650337544601 127.309484369
630.375 0.109963298719 69.901300047
630.5 0.109566266764 15.5410605365
630.625 0.131626530054 -49.7061926681
630.75 0.0925777749043 -128.155023563
630.875 0.0598525885286 131.576857181
631.0 0.0813647142713 54.1484611222
631.125 0.119927880806 2.70446954914
631.25 0.131982295589 -49.0227086459
631.375 0.0634581303966 -111.734501172
631.5 0.089298377273 144.599473034
631.625 0.106991934554 59.0422865849
631.75 0.141344747905 -11.3499638456
631.875 0.11995090113 -67.3910098449
632.0 0.0766817050975 -121.765119819
632.125 0.0839747258888 147.114218172
632.25 0.108409920202 52.2134241174
632.375 0.115943666843 -19.020067869
632.5 0.141984700083 -86.0271538865
632.625 0.0801661620453 -145.258524011
632.75 0.0654728750167 140.920236331
632.875 0.10363291653 54.1473915754
633.0 0.117327467154 -25.2404145926
633.125 0.141434053988 -85.3261151695
633.25 0.0994329696012 -146.781972701
633.375 0.0937704053651 123.302547249
633.5 0.0936240160896 40.4212123784
633.625 0.119778195446 -32.8418549995
633.75 0.14505774562 -105.590774539
633.875 0.0997196015249 -165.106452133
634.0 0.0905860301364 120.617946966
634.125 0.115446573416 28.3698936803
634.25 0.110570469207 -46.9827221461
634.375 0.128872489349 -111.261892002
634.5 0.118125964262 179.435692193
634.625 0.0794881592267 109.936719633
634.75 0.105661250359 22.2006161479
634.875 0.120906413095 -60.6810384573
635.0 0.142392733735 -138.541915033
635.125 0.117088786398 161.308828194
635.25 0.0933120429558 88.2589173593
635.375 0.0944618491646 -2.97158901685
635.5 0.100767776235 -79.4779341856
635.625 0.15279356189 -153.419142643
635.75 0.126563015845 139.21524434
635.875 0.109778028482 69.6965017322
636.0 0.10356619385 -12.5290724451
636.125 0.0897728327408 -89.0501530417
636.25 0.101556808623 -163.063349543
636.375 0.149971890564 125.969851378
636.5 0.128846623945 54.224819405
636.625 0.13509364144 -25.7481914613
636.75 0.111066457923 -97.8179565488
636.875 0.099287586558 -167.300441558
637.0 0.111802055912 120.272592233
637.125 0.101622712433 46.8284070808
637.25 0.13576083568 -40.4863737379
637.375 0.133489722083 -109.035476827
637.5 0.117024895177 173.540120579
637.625 0.0928034201235 108.55759061
637.75 0.0822510953033 27.1787555481
637.875 0.125752735255 -69.9555220561
638.0 0.137141175614 -143.025347105
638.125 0.116394008103 172.499292423
638.25 0.108209012211 99.2145950106
638.375 0.0736587701547 2.78290920584
638.5 0.070141679396 -79.2399024875
638.625 0.0857618905133 -157.254583221
638.75 0.121563491532 136.652390572
638.875 0.118611043304 96.022020368
639.0 0.0730348841517 -7.41593415681
639.125 0.0402785203745 -66.825552161
639.25 0.0571446654821 -172.075751786
639.375 0.0873086961983 134.86213979
639.5 0.0914364265717 100.431690263
639.625 0.0707584158006 -6.16794315635
639.75 0.036395398795 -29.7891561783
639.875 0.0227024629538 -142.171827507
640.0 0.053232655203 104.960003786
640.125 0.0740689868811 48.2782427378
640.25 0.0739595171218 -48.7099865168
640.375 0.0400642046912 -135.341075001
640.5 0.0389000650921 -76.2303771089
640.625 0.0524779847813 44.8612940651
640.75 0.0351847417228 8.73798842831
640.875 0.0712014496057 -93.0481768185
641.0 0.037871406127 -170.658460708
641.125 0.0115472260138 -47.0259822065
641.25 0.0447465293168 6.26579094687
641.375 0.00702841263203 -49.9989360722
641.5 0.0660547689246 -130.815653881
641.625 0.0679842229626 153.978242535
641.75 0.0492966297136 40.6781176241
641.875 0.0117846770544 -83.3933064976
642.0 0.0620547779131 -97.9837503816
642.125 0.0596263503545 -164.714954784
642.25 0.0192075131122 6.98363213117
642.375 0.0573981887745 49.1220081535
642.5 0.0888214301296 -28.4135277701
642.625 0.0816854526953 -119.038509747
642.75 0.0727662088342 175.802217333
642.875 0.0241646554437 63.189270137
643.0 0.030334672518 23.7050420212
643.125 0.0983004570451 -29.1831244144
643.25 0.0634092658951 -111.408603382
643.375 0.0693190065955 161.605298544
643.5 0.057173842666 75.0075841482
643.625 0.0370560229218 -10.2078544468
643.75 0.0909230222473 -46.0062043695
643.875 0.0602159003639 -121.901459291
644.0 0.0925927891341 161.020648885
644.125 0.0453193536877 63.8938879003
644.25 0.0537238154513 -28.2909196145
644.375 0.0973284291313 -80.0794514184
644.5 0.0830740261206 -143.021813219
644.625 0.0750560481293 149.2402228
644.75 0.093877688075 69.1060929675
644.875 0.0812784422664 -17.0243499662
645.0 0.130007876692 -98.8750342162
645.125 0.110750731819 -167.389210436
645.25 0.0674790823322 130.899609687
645.375 0.0949375160558 64.2931328663
645.5 0.0563369703632 -24.430939921
645.625 0.105698606969 -103.15166678
645.75 0.117853510317 -177.211696192
645.875 0.0701101613609 107.722738114
646.0 0.103641468151 46.5910442196
646.125 0.0877900657993 -23.9180054995
646.25 0.0815633589694 -123.246409759
646.375 0.108346329111 168.182830459
646.5 0.0734534629729 96.1531175262
646.625 0.111315941561 35.4243019259
646.75 0.105124529339 -37.2402157048
646.875 0.0963769371574 -118.993449237
647.0 0.113107650664 163.279268473
647.125 0.0617674632381 82.7340500901
647.25 0.110537436505 24.791607667
647.375 0.117453124429 -46.1778775491
647.5 0.0949753554394 -131.250318721
647.625 0.111831711677 157.412861011
647.75 0.063046036646 80.6328127501
647.875 0.0621871354333 11.6733569785
648.0 0.0879190272124 -59.276217322
648.125 0.0830754262884 -132.938004656
648.25 0.129403863943 154.008987281
648.375 0.0908844390385 88.1267979377
648.5 0.0763252584358 20.7324120493
648.625 0.0870866385409 -59.1289485711
648.75 0.0659457527208 -139.748094553
648.875 0.109309612252 157.275253003
649.0 0.0936435882386 92.435108101
649.125 0.110273035717 31.5684954963
649.25 0.0993548754392 -42.5187769821
649.375 0.0568881649742 -130.256683128
649.5 0.072055927472 142.606211108
649.625 0.109539533496 88.6729869559
649.75 0.111584462082 34.944019306
649.875 0.126804431757 -33.2690483907
650.0 0.0829913630085 -111.75491503
