!Created with skrf (http://scikit-rf.org).
# GHz S MA R 50.0 
!freq magS11 angS11
500.0 0.0231698310566 -157.861718243
500.625 0.00656293771367 57.5083955647
501.25 0.00935566495541 -138.757433756
501.875 0.0140225116703 -135.343247871
502.5 0.0492104908617 177.626176702
503.125 0.0155522760657 84.9836697889
503.75 0.00542860825212 44.619769654
504.375 0.0181411148726 -56.6354364682
505.0 0.00550115719701 -26.1984400038
505.625 0.0192969155379 -72.0936435479
506.25 0.0281747449172 -122.090086953
506.875 0.0728597242564 -91.3647163571
507.5 0.0465369343618 -118.382986279
508.125 0.0597058144785 -88.4559563928
508.75 0.0714154767122 -120.710148436
509.375 0.0511968764142 -154.200634401
510.0 0.0316152828885 -126.67851298
510.625 0.0427223112896 -156.869921623
511.25 0.0568739941397 -173.314344807
511.875 0.0599543834008 151.713566971
512.5 0.0393769358807 102.153809319
513.125 0.0508498425782 45.4094354445
513.75 0.062892099022 41.1497026515
514.375 0.0328115221873 -14.150747309
515.0 0.0397791982793 -6.64408216037
515.625 0.0712286118745 41.8054511311
516.25 0.108794391726 29.8683336584
516.875 0.0855637508867 61.7714105445
517.5 0.124114211917 19.9272638127
518.125 0.188068581568 64.1780245453
518.75 0.0936776168124 15.4485848856
519.375 0.0632180664882 15.7549097465
520.0 0.0858865191474 -5.88806463919
520.625 0.0978845828255 -10.4989460204
521.25 0.0974305023329 -21.9392982558
521.875 0.0546674623329 -9.11698268293
522.5 0.0889559063131 -34.0328177613
523.125 0.17521905368 -41.1492737524
523.75 0.22037992506 -55.7135359899
524.375 0.2002867153 -58.9313582581
525.0 0.0645000246992 -56.5229354528
525.625 0.0370963897483 -33.1508581806
526.25 0.0543093443532 -5.03168354142
526.875 0.0538736490969 -22.0159812041
527.5 0.0405242882636 -33.1358687594
528.125 0.0414324623292 -56.0639232853
528.75 0.0787614541894 -72.3600724246
529.375 0.0822518678663 -114.207542495
530.0 0.0544209081635 -128.130346354
530.625 0.0438436771127 -144.02336916
531.25 0.114741657053 -136.006498288
531.875 0.174238029763 -147.68839799
532.5 0.147622377229 -170.655866066
533.125 0.101813455219 175.629004769
533.75 0.130737948924 166.913185115
534.375 0.106156857266 177.234981405
535.0 0.0769988879805 160.0566094
535.625 0.061446568196 176.0501444
536.25 0.0704110544274 164.343304124
536.875 0.0822682543253 -161.500436133
537.5 0.10500706589 -145.680288308
538.125 0.109332852417 -173.677881474
538.75 0.113451581857 -178.84821057
539.375 0.0778182982214 -163.554294018
540.0 0.0837432511278 -151.629882838
540.625 0.132835332036 -155.916165035
541.25 0.123637765479 -141.594570514
541.875 0.0990968368156 -142.491928782
542.5 0.111401826566 -143.040113724
543.125 0.139147092253 -165.583591766
543.75 0.136029041355 160.892765514
544.375 0.0915653296872 135.679826775
545.0 0.0773084798196 91.8890577918
545.625 0.0938231379456 83.7141455935
546.25 0.103234965651 67.278502032
546.875 0.0708855855307 54.8066423298
547.5 0.102332039327 59.5913791359
548.125 0.11698784541 79.1328641187
548.75 0.0917307635861 89.5439469813
549.375 0.094812074165 86.3969684531
550.0 0.0745216358502 124.845158272
550.625 0.0448816393745 156.201292891
551.25 0.0455920933666 -151.816779794
551.875 0.0590744878306 -156.427166614
552.5 0.10845484648 -162.526200853
553.125 0.0928925805606 -168.401082434
553.75 0.0948387523836 -174.713525365
554.375 0.098701094575 170.858662286
555.0 0.116761285821 165.650823029
555.625 0.0900318984278 158.072782909
556.25 0.104196937355 160.406831745
556.875 0.108608750285 167.65417205
557.5 0.116207845784 166.958476974
558.125 0.102535510446 163.984274954
558.75 0.0910527306729 175.771152926
559.375 0.0564054318117 -170.760972743
560.0 0.0414073008749 -139.944850695
560.625 0.0526745502149 -132.139592551
561.25 0.0932746325721 -155.97307628
561.875 0.0915700522989 -156.446669982
562.5 0.0916777234244 174.216220927
563.125 0.104531479986 146.270349531
563.75 0.138312344426 128.387398131
564.375 0.100457832052 121.632219099
565.0 0.0829461497697 121.596854071
565.625 0.0762747226265 118.847934064
566.25 0.104273167898 148.584417172
566.875 0.0642131534441 -172.515962745
567.5 0.0737062254614 -177.411004441
568.125 0.0804779914314 -173.228009683
568.75 0.0699514341359 -146.676625275
569.375 0.0518855277103 -114.946047621
570.0 0.0612254781499 -110.318594684
570.625 0.0873734997585 -113.675563993
571.25 0.0941244330082 -125.461779729
571.875 0.0874506778442 -126.790841949
572.5 0.112181903066 -157.293778551
573.125 0.139259457577 -176.261567627
573.75 0.1044971547 161.789517272
574.375 0.0781075279912 154.636650836
575.0 0.10572863774 156.895506898
575.625 0.102970768846 157.92093013
576.25 0.0946711961471 142.373308712
576.875 0.0800042463629 133.827676992
577.5 0.0767263632641 141.488813286
578.125 0.0556488111678 166.279343995
578.75 0.0519879865368 154.757600654
579.375 0.0502460868132 177.281142648
580.0 0.0688508515583 -178.939461766
580.625 0.0763775105667 -152.667652104
581.25 0.0890495676765 -167.37370547
581.875 0.115880713358 178.076557101
582.5 0.11630058721 -176.436773585
583.125 0.0901235444495 -166.978300661
583.75 0.0821997328798 -168.337039897
584.375 0.105742612643 -164.272281557
585.0 0.0863574397806 -134.893154561
585.625 0.0725862745844 -146.573750638
586.25 0.0717018555335 -139.390108507
586.875 0.0828625523417 -140.515074612
587.5 0.073213405475 -145.225904625
588.125 0.0594294942666 -172.794965212
588.75 0.0677004934394 -164.704114731
589.375 0.0822822771382 -160.792013362
590.0 0.0970418174742 -160.075696042
590.625 0.106233062364 169.317638619
591.25 0.122221448747 154.556204066
591.875 0.103689278286 149.280339472
592.5 0.0578915656929 162.526790204
593.125 0.0616458229298 161.317095575
593.75 0.0713520222301 170.731554199
594.375 0.0593268542852 -161.310911656
595.0 0.0445579086192 -115.295647208
595.625 0.0662594231491 -91.5695654256
596.25 0.0755446133249 -82.0301131887
596.875 0.0637921922797 -84.1303982068
597.5 0.0673720358727 -45.8295708442
598.125 0.0685465629322 -56.2924622928
598.75 0.0751160606695 -67.4608607217
599.375 0.0841857672284 -70.7153604798
600.0 0.102573930011 -66.7932714194
600.625 0.101719526965 -68.6239459226
601.25 0.08530760821 -76.1283484646
601.875 0.0693257382976 -96.8675909011
602.5 0.0670146214255 -61.9617299492
603.125 0.0484977584913 -40.4431331106
603.75 0.0326158309164 -24.3970355202
604.375 0.0355069689953 -31.8821898155
605.0 0.0632084964983 -11.4893059603
605.625 0.049525308978 -8.28906216326
606.25 0.0251469500099 1.85497627319
606.875 0.033887779809 46.654244531
607.5 0.0467780691674 37.4847302012
608.125 0.0676158571218 27.223315383
608.75 0.0707527062446 28.7467072406
609.375 0.0550312959639 21.8459624917
610.0 0.0790406013869 51.1550638764
610.625 0.0615895966505 37.124747092
611.25 0.0473553976156 25.0191391821
611.875 0.0355975033437 38.5212155799
612.5 0.012851631239 44.2224218936
613.125 0.0450659654232 127.341960929
613.75 0.0592461496703 126.346475874
614.375 0.0580925894112 129.508830186
615.0 0.0129691489689 102.375977755
615.625 0.0589769859903 135.786944213
616.25 0.0543942687717 135.28905934
616.875 0.0577763938977 136.475244401
617.5 0.0179780951395 107.240295916
618.125 0.0486212911352 136.45904917
618.75 0.0427833989398 147.882569798
619.375 0.0337357233195 159.782998104
620.0 0.0123025515888 -16.152848788
620.625 0.0139824724811 -116.632984068
621.25 0.0384361313175 -113.287385086
621.875 0.0628489819251 -116.337388121
622.5 0.0696391005215 -150.150710739
623.125 0.0998238095436 160.194198458
623.75 0.0705527916321 162.287686139
624.375 0.0578599961286 -175.639751014
625.0 0.031262138033 -127.994176242
625.625 0.0536006965048 -153.243686764
626.25 0.0188964140444 -176.603624511
626.875 0.013206403971 7.25132091898
627.5 0.0320533946528 -14.7482703774
628.125 0.0492315564536 -4.47743135308
628.75 0.0359208399004 -19.5438441523
629.375 0.0468488144437 -4.4228911088
630.0 0.0644534587563 -2.65429668383
630.625 0.077953062754 18.1918662129
631.25 0.0639309512797 -2.41081273604
631.875 0.0699831382153 2.89107360154
632.5 0.0621513501459 -0.750252017415
633.125 0.0493678014783 24.7918096666
633.75 0.0452676528265 -21.7509214723
634.375 0.0431804699777 -8.94303060125
635.0 0.0378226789 -1.0786474195
635.625 0.046625882623 47.5328847803
636.25 0.0465744993278 25.8783406552
636.875 0.0657144928435 40.2977598305
637.5 0.038502252775 39.7714168544
638.125 0.038912769803 70.7347074059
638.75 0.0927200906759 80.1094817392
639.375 0.0846790241573 84.1557039357
640.0 0.0637205634526 97.2785219528
640.625 0.0549125550927 104.749587669
641.25 0.084931844649 129.500100621
641.875 0.0634935829169 144.856605683
642.5 0.0626161669726 163.902642046
643.125 0.0630449674069 162.870901219
643.75 0.0835938869202 178.084095578
644.375 0.075824883931 -174.514585655
645.0 0.0824030953596 -177.997577996
645.625 0.0910710541351 169.327586568
646.25 0.103479850833 169.579337844
646.875 0.0540330911449 157.092061289
647.5 0.0541106723845 176.218345225
648.125 0.0772060242885 -177.080476536
648.75 0.0903198411477 -157.697980878
649.375 0.0366066871265 -175.711207481
650.0 0.0390234245739 -120.634782128
650.625 0.0679484865246 -89.4771845459
651.25 0.0772527231037 -64.6477713601
651.875 0.0556176294494 -43.9716790523
652.5 0.0917592338556 -24.1909899432
653.125 0.128149338379 -1.56160002835
653.75 0.123329652261 6.45412904771
654.375 0.097682815044 2.59909645758
655.0 0.103404407129 9.15289209738
655.625 0.0820400223242 18.2387314536
656.25 0.0702212121662 22.5036641286
656.875 0.0543685410554 -1.40878888069
657.5 0.0831561399642 22.8267173531
658.125 0.0668996230468 52.1146504221
658.75 0.0597800193735 64.713210339
659.375 0.0939846162365 36.8027435607
660.0 0.101234103161 27.4861899725
660.625 0.103926601376 19.224223067
661.25 0.109643985219 4.9802167485
661.875 0.137549485843 -14.1749353957
662.5 0.121470321729 -21.2495704429
663.125 0.110580730801 -15.4881219194
663.75 0.101115412761 5.65953302328
664.375 0.112287734013 55.5268041235
665.0 0.069814647626 92.4217317913
665.625 0.0570173968278 111.637278398
666.25 0.0948154634534 128.397038843
666.875 0.0910760955721 172.768729635
667.5 0.0940322246091 -169.770093536
668.125 0.0944462132512 179.089975594
668.75 0.142047989577 164.693180855
669.375 0.1136578463 175.514736329
670.0 0.083112383349 -169.603232652
670.625 0.0814173568638 -172.92390372
671.25 0.118119751279 175.078027494
671.875 0.102597759955 167.22467914
672.5 0.0760074655338 156.813745581
673.125 0.0816015632105 152.34402995
673.75 0.123288291074 154.807284749
674.375 0.0952390680779 173.264073745
675.0 0.105451951557 -171.227034659
675.625 0.120596734747 -148.423635056
676.25 0.13304511212 -127.182430801
676.875 0.0962294116581 -118.342572732
677.5 0.116248088139 -125.982411271
678.125 0.119237934471 -114.743042864
678.75 0.0710462812699 -91.7079404409
679.375 0.056216213302 -75.2382554161
680.0 0.0794353739542 -79.7741616797
680.625 0.122501931367 -75.2937271167
681.25 0.103588892784 -72.2568558318
681.875 0.105411312138 -96.4260957409
682.5 0.1199990604 -112.337608691
683.125 0.160797008917 -120.862646383
683.75 0.134149377813 -103.90259149
684.375 0.119666674928 -78.8184149803
685.0 0.143530210341 -42.2833671268
685.625 0.130703833738 -2.76351873214
686.25 0.113064081338 22.1835394703
686.875 0.0900609786094 46.1130099307
687.5 0.0836950432113 79.4019192424
688.125 0.083332777699 108.774789399
688.75 0.104095750566 115.121225885
689.375 0.143825109106 119.933782412
690.0 0.142061264577 130.121275371
690.625 0.113533722421 130.976478681
691.25 0.136433448702 101.772602454
691.875 0.172974701782 71.4562279776
692.5 0.157870975793 36.740553131
693.125 0.0747371122063 -12.9831669825
693.75 0.0953896411348 -40.6002092945
694.375 0.14330499585 -33.4353051673
695.0 0.131378641592 12.2878615704
695.625 0.106529584771 49.7922922691
696.25 0.111397422071 120.046068745
696.875 0.132625206375 176.770887452
697.5 0.138934123438 -144.513474902
698.125 0.145623091546 -136.929460039
698.75 0.116442697468 -123.710325942
699.375 0.109816678577 -123.754144565
700.0 0.0973837105042 -113.675957829
700.625 0.120812094976 -96.9438626149
701.25 0.0930431152435 -59.0079986926
701.875 0.0818658343563 -54.338995809
702.5 0.101186686976 -85.1301795653
703.125 0.17151754633 -129.936826042
703.75 0.169179243192 -147.116110898
704.375 0.127457401136 172.517993494
705.0 0.110570128971 156.564754066
705.625 0.147342677204 -170.873164111
706.25 0.15445368589 -118.434900586
706.875 0.0928749127251 -63.3894681462
707.5 0.0739701643653 -29.8914606822
708.125 0.0932902796367 16.096960322
708.75 0.114266330446 57.628121254
709.375 0.103520923074 106.776504465
710.0 0.10360962348 138.329902784
710.625 0.102853685874 158.979904218
711.25 0.119595290391 166.13992654
711.875 0.144060408861 165.527316943
712.5 0.156172114969 144.313151282
713.125 0.126807527944 100.173923704
713.75 0.106934885994 39.1189135485
714.375 0.107678051075 42.6932379482
715.0 0.111017954593 37.8171033348
715.625 0.0778868121692 52.9259016738
716.25 0.0807861651581 74.9396523133
716.875 0.115078392521 101.003963986
717.5 0.140207504264 147.170455162
718.125 0.120919079452 175.153527532
718.75 0.103173350657 173.353970856
719.375 0.108683095494 176.611411045
720.0 0.127812467731 -122.934703691
720.625 0.113598013508 -72.2378742879
721.25 0.0984979207568 -19.8652955204
721.875 0.086533084746 18.5589069274
722.5 0.0715736838938 71.3699008696
723.125 0.0791607477262 66.8793903618
723.75 0.108895316006 41.7222856219
724.375 0.0954862154427 -15.6505025015
725.0 0.111421141673 -26.89527534
725.625 0.105323297356 -63.9560175171
726.25 0.106519789538 -74.8636761552
726.875 0.100406409545 -56.0156051441
727.5 0.0787568609321 -31.5633997142
728.125 0.0823589803074 -3.18350641859
728.75 0.108925727038 31.8731035919
729.375 0.0852117320208 18.4114755654
730.0 0.052989300769 -16.4925581207
730.625 0.0830012111822 39.5138821133
731.25 0.0785020813854 66.7428040074
731.875 0.0746502427779 118.150024266
732.5 0.0658906559478 147.199671764
733.125 0.0679592476672 162.480491085
733.75 0.0825441319845 176.892872133
734.375 0.0737155252886 170.542359299
735.0 0.0294696090476 126.240649487
735.625 0.0851473799511 154.347495103
736.25 0.0540929579218 151.23750091
736.875 0.0703949338463 171.024668581
737.5 0.0477561433026 -168.893463045
738.125 0.109879001347 -168.400058165
738.75 0.0832219824989 -174.048779188
739.375 0.0539594128021 -163.863862894
740.0 0.0324316869396 -143.035890411
740.625 0.0278280519264 -142.285613953
741.25 0.0512189353796 -154.304879629
741.875 0.0658212784278 -113.305335663
742.5 0.0548517970622 -19.0273476837
743.125 0.0169429514545 102.623050188
743.75 0.0260032332913 67.7740290974
744.375 0.0339208873242 121.478623691
745.0 0.048491146921 135.174036503
745.625 0.0616734100927 140.345661146
746.25 0.0915923233357 74.6443270079
746.875 0.0825642489197 32.5737971005
747.5 0.0551200672919 8.77775881314
748.125 0.0149169078021 59.7562514282
748.75 0.0219294646666 7.89511054802
749.375 0.0337930721613 -31.6986408199
750.0 0.0248000569776 -78.7492348175
