!Created with skrf (http://scikit-rf.org).
# GHz S RI R (50+0j) 
!freq	ReS11	ImS11	
500.0	-0.02416118247	-0.3520536709	
500.625	0.5339642084	-0.8891337479	
501.25	-0.8402981026	-0.3911680505	
501.875	0.04387001382	-0.2151207337	
502.5	-0.08708221042	-0.1985925583	
503.125	-0.008647769204	0.02589766033	
503.75	-0.05888218359	0.0981836	
504.375	0.02614198912	-0.04213978741	
505.0	0.02746625404	0.02076474244	
505.625	-0.03154941217	-0.08661940716	
506.25	-0.005821370354	0.04777149234	
506.875	-0.3246756743	-0.1296831731	
507.5	-0.1479062562	0.1317358884	
508.125	0.4885426248	-0.5250756817	
508.75	0.2358350377	-1.142856567	
509.375	-0.1718149945	-0.5463698317	
510.0	-0.2585484588	-0.4722193239	
510.625	-0.1703137188	-0.1136812338	
511.25	-0.03482826812	-0.03200765015	
511.875	-0.1065730438	-0.073591978	
512.5	0.0004263450149	0.05957863428	
513.125	0.01934174816	-0.01225235572	
513.75	-0.07855355688	-0.100907523	
514.375	-0.003119972988	0.1096194887	
515.0	0.07593748047	-0.3808966165	
515.625	-0.1220627432	0.2693179347	
516.25	0.2149261599	-0.9550484076	
516.875	-0.5412657872	-0.2571193507	
517.5	0.04125120836	0.009391984683	
518.125	-0.06052485989	-0.07386608337	
518.75	-0.001042688012	-0.004673368334	
519.375	-0.06672476858	0.02221724227	
520.0	0.09812860249	0.02230028452	
520.625	0.10645411	-0.03609099756	
521.25	-0.02263643144	-0.2095678193	
521.875	-0.07562953953	-0.02275913859	
522.5	-0.06607544792	0.05414058821	
523.125	-0.01562863989	-0.05875136759	
523.75	-0.1931878494	0.04349592833	
524.375	0.02132241948	0.01696124773	
525.0	-0.1822350572	0.1488753915	
525.625	0.1401029014	-0.002700209796	
526.25	-0.07388252445	0.04902922785	
526.875	0.01469362421	0.007989705399	
527.5	-0.1274875824	0.1877691189	
528.125	0.1634641252	0.1947837138	
528.75	-0.02680984503	0.1069138194	
529.375	0.07245453769	0.07495020075	
530.0	-0.09777687538	0.1193509841	
530.625	0.2591678544	0.2271555785	
531.25	0.1139789535	0.1439736747	
531.875	0.2997192733	-0.244097556	
532.5	-0.08013881045	0.1179227494	
533.125	0.1086435252	-0.2239047656	
533.75	0.00193465496	-0.009713724456	
534.375	-0.03843462831	-0.361658789	
535.0	-0.2228252609	0.03616596065	
535.625	-0.1135863911	0.0360678668	
536.25	-0.006022196804	0.1150638045	
536.875	0.05919747609	-0.03001670988	
537.5	0.07913491283	-0.01169346603	
538.125	0.08656639366	-0.08822420316	
538.75	0.09168272707	-0.08215684214	
539.375	-0.06682936993	-0.150601381	
540.0	-0.1578986869	-0.132395515	
540.625	-0.1391206465	0.02639264887	
541.25	-0.03822994344	-0.04577780371	
541.875	-0.1102204167	0.01629508094	
542.5	0.04605003122	-0.03655869222	
543.125	-0.1857688453	-0.07642357108	
543.75	0.04100961241	0.05713667584	
544.375	-0.1312082065	0.02281769515	
545.0	0.07942624398	0.0285465697	
545.625	-0.02655382808	0.09907700648	
546.25	0.1571668	-0.001624992826	
546.875	0.02586960787	-0.01927217919	
547.5	0.1235092528	-0.1140270769	
548.125	-0.1192689463	-0.143434266	
548.75	-0.04173351762	-0.0608017404	
549.375	-0.1176972997	-0.10612132	
550.0	-0.06176957169	0.05429480787	
550.625	-0.03855888366	-0.02404784937	
551.25	-0.07960398442	0.05225847146	
551.875	-0.03408278721	0.04806074072	
552.5	-0.06409482549	0.06886530605	
553.125	0.01608806509	0.05818494397	
553.75	0.03003418469	0.04206985944	
554.375	0.09462879536	-0.01470286689	
555.0	0.07068391512	-0.06329145123	
555.625	0.07732277594	-0.0955524198	
556.25	0.04560551164	-0.1350318448	
556.875	-0.04264639626	-0.1330920031	
557.5	-0.09241874838	-0.08428240708	
558.125	-0.1112427008	-0.02896201357	
558.75	-0.09768866579	0.01134038025	
559.375	-0.0912014594	0.01807234204	
560.0	-0.09565146653	0.08000334481	
560.625	-0.01775259798	0.1039448504	
561.25	-0.01544122857	0.07387241663	
561.875	0.05862947309	0.05853493508	
562.5	-0.01015557202	0.02014054809	
563.125	0.08557921277	0.09150378362	
563.75	0.1157184848	-0.04424043684	
564.375	0.1021065282	-0.04192920346	
565.0	0.08090239796	-0.1880434102	
565.625	-0.079540853	-0.08842536431	
566.25	-0.0494183251	-0.1264994233	
566.875	-0.2234218874	-0.05007505506	
567.5	-0.03647190082	-0.02514953698	
568.125	-0.1427119168	-0.2365930299	
568.75	-0.2250493342	0.06503454433	
569.375	-0.1462295597	-0.004328980346	
570.0	-0.1687640368	0.2625247072	
570.625	0.0630770609	0.1412451421	
571.25	-0.0859581826	0.06640862111	
571.875	0.1613592868	0.06310823742	
572.5	-0.007075679558	0.01504777026	
573.125	0.1864933338	-0.1283249443	
573.75	-0.06703179341	-0.1563164307	
574.375	0.05320416348	0.04344420917	
575.0	0.02521349298	-0.1307672036	
575.625	-0.008864241311	0.01016268911	
576.25	0.1178588914	-0.112850664	
576.875	-0.09429629346	-0.1664546275	
577.5	-0.008712159326	-0.03875377349	
578.125	0.05596905297	-0.2033191406	
578.75	-0.232175683	-0.1163033992	
579.375	0.03383306344	0.05997390159	
580.0	-0.09760117523	-0.1826577385	
580.625	0.006140901475	0.1351736809	
581.25	-0.1933109005	-0.07226657696	
581.875	0.112756632	0.2610648501	
582.5	0.0757948204	-0.01918470732	
583.125	-0.02494863917	0.1661361049	
583.75	0.1576358797	-0.04354391603	
584.375	-0.09583048188	0.08626741175	
585.0	0.2212249315	0.05035381708	
585.625	0.03553874532	-0.07826441524	
586.25	0.1592951991	0.03922596283	
586.875	0.05618613923	-0.2110819511	
587.5	-0.04925368307	-0.04979842711	
588.125	0.05289429934	-0.1409974689	
588.75	-0.02016497922	-0.1955973507	
589.375	0.004060121852	-0.03808904076	
590.0	-0.01120331891	-0.2658119744	
590.625	-0.1951435338	0.09467744734	
591.25	-0.04784296762	-0.02020707481	
591.875	-0.1526542384	0.1874073449	
592.5	0.1753491252	-0.02893553216	
593.125	-0.1518398963	0.1647784949	
593.75	0.1293200081	-0.02191777548	
594.375	0.02238596451	0.1396812433	
595.0	0.2397000387	0.1324586676	
595.625	0.1248235717	-0.05558280163	
596.25	0.1114094565	0.1296725885	
596.875	0.2151553213	-0.02648461612	
597.5	0.05133713277	0.0260526433	
598.125	0.1508383289	0.1620428081	
598.75	0.1887520081	0.01247829915	
599.375	0.1404966086	-0.03028354584	
600.0	0.1656156903	-0.1076482018	
600.625	0.1473065558	-0.1949869213	
601.25	-0.04248868139	-0.1372741529	
601.875	0.02295953568	-0.1751812182	
602.5	-0.1931006558	0.08492182101	
603.125	0.01006753671	-0.02532515972	
603.75	-0.2527862897	0.07439567024	
604.375	0.09737911809	0.1318245894	
605.0	-0.1916273916	-0.02210812322	
605.625	-0.02497780291	0.1957461127	
606.25	-0.08637004208	-0.09260146549	
606.875	-0.236926296	0.1590225578	
607.5	-0.03770459503	0.1624231344	
608.125	-0.07179845033	0.2072043726	
608.75	0.216761075	0.1300588914	
609.375	0.1728942657	-0.01979573796	
610.0	0.1638256963	-0.1574392626	
610.625	0.05968655542	-0.1196801666	
611.25	0.008126990648	-0.2350612344	
611.875	-0.05575184331	-0.01182505688	
612.5	-0.1844981849	-0.1454269999	
613.125	-0.1341765342	0.1851294658	
613.75	-0.1295686236	0.006404116274	
614.375	0.112371496	0.2082105649	
615.0	-0.01405698429	-0.08433409948	
615.625	0.02907248972	0.220076237	
616.25	0.02806723331	0.01906802857	
616.875	-0.1612616572	0.1748459416	
617.5	0.01960935044	0.2527055444	
618.125	-0.07122515164	0.1217827443	
618.75	0.09458402168	0.2100055031	
619.375	0.04127605865	0.07868100503	
620.0	0.2480023332	0.0600333534	
620.625	-0.01803670404	-0.1216347165	
621.25	0.02449370961	-0.2535108364	
621.875	-0.2977934371	0.03289332734	
622.5	-0.07580112631	-0.008634978735	
623.125	-0.10560149	0.2628545078	
623.75	0.1496520582	-0.07539066478	
624.375	0.04431940344	0.05048671261	
625.0	0.002087195917	-0.1102229896	
625.625	0.0554976368	-0.009842680861	
626.25	-0.05815811678	-0.1857060269	
626.875	-0.1497418812	-0.005027478536	
627.5	-0.08955625076	-0.06752596687	
628.125	-0.1311878183	-0.05680803008	
628.75	-0.07785268447	-0.1059203058	
629.375	-0.06719621812	-0.06807440507	
630.0	-0.1744241952	-0.1483325939	
630.625	-0.196812075	0.1739498818	
631.25	-0.09454433073	0.05624893677	
631.875	-0.04880422755	0.3460905515	
632.5	0.2291814681	0.04416553759	
633.125	0.07336280806	0.1316835666	
633.75	0.2763960414	-0.1884494535	
634.375	-0.04981927801	-0.01046045757	
635.0	0.0751765502	-0.2217752229	
635.625	-0.1999931316	0.02259167917	
636.25	-0.04106044455	0.03944307512	
636.875	-0.1649107926	0.1327408081	
637.5	0.092058215	0.1245380246	
638.125	-0.1275608096	0.0003560251421	
638.75	-0.02854388803	0.2519843103	
639.375	0.07024796794	0.1240551364	
640.0	0.05953103648	0.2455331262	
640.625	0.3017403174	0.1469166439	
641.25	0.2031373138	-0.1165799279	
641.875	0.1356720955	-0.04793683474	
642.5	-0.02321964911	-0.3891912321	
643.125	-0.1254271913	0.09920400458	
643.75	-0.03437613231	-0.2508146699	
644.375	-0.2722365413	0.2203234919	
645.0	0.02415820604	-0.1052168196	
645.625	-0.03191394084	0.4691600639	
646.25	0.2656109961	-0.1608723374	
646.875	-0.0739927493	0.1492745395	
647.5	0.2166504774	-0.04193331079	
648.125	-0.06473553694	0.004756992932	
648.75	0.4180017482	0.02502162211	
649.375	0.06526727417	-0.4083970358	
650.0	0.06138992964	-0.09975926606	
650.625	0.3108875912	-0.2908187176	
651.25	0.003507596158	-0.3867089172	
651.875	0.1246086606	0.01168039583	
652.5	0.3888132564	-0.0943849006	
653.125	0.1874772047	-0.2741571116	
653.75	0.06452389518	-0.03792295765	
654.375	-0.0003117217886	-0.4696769156	
655.0	-0.3387529975	0.142285524	
655.625	-0.03684451398	-0.02745867338	
656.25	-0.0714110075	0.3930348823	
656.875	0.1823359113	-0.2223851968	
657.5	-0.07134270643	0.3221778557	
658.125	0.3220580676	-0.01716668414	
658.75	0.02812566548	0.05267821484	
659.375	0.4688103658	-0.05191693337	
660.0	0.03339988195	-0.4733122779	
660.625	0.06400726518	-0.1095664736	
661.25	0.2489164166	-0.3116491809	
661.875	0.09831602084	-0.3803253531	
662.5	0.1092260061	-0.03014035078	
663.125	0.367313028	-0.2689211577	
663.75	-0.0335182189	-0.2794306428	
664.375	0.0368495491	-0.2269570034	
665.0	-0.3023076717	-0.2520420782	
665.625	-0.2389157759	0.2359149911	
666.25	-0.07372114847	0.1040206647	
666.875	0.1287344346	0.3208596753	
667.5	0.2031603663	-0.09189969631	
668.125	0.1165757578	0.1546349762	
668.75	0.236682612	-0.3273833885	
669.375	-0.07221658808	-0.06482849668	
670.0	0.1626687512	-0.2073471645	
670.625	-0.1654583929	-0.3063587855	
671.25	0.04272630959	0.06277122047	
671.875	0.2544061285	-0.2816837707	
672.5	0.05893784821	-0.2086400961	
673.125	0.1271826538	-0.0757680583	
673.75	0.2619121107	-0.2401348403	
674.375	-0.1602938277	-0.2291438233	
675.0	0.03336777473	-0.1571102446	
675.625	-0.2534898243	-0.1726435918	
676.25	-0.1546800984	0.1044464508	
676.875	-0.05660528751	-0.06931979258	
677.5	-0.2369561555	0.08821270149	
678.125	0.0305047403	0.1500634326	
678.75	-0.09657521241	0.1357446571	
679.375	0.4005124663	0.1260614176	
680.0	-0.1212098233	-0.2022255042	
680.625	0.2568150853	0.12457244	
681.25	0.08516840134	-0.2942964509	
681.875	-0.1369992931	0.1429383054	
682.5	0.5311278651	0.2329686679	
683.125	0.09029382036	-0.2738774869	
683.75	0.1604995182	0.2997292762	
684.375	0.3982205588	-0.01629808294	
685.0	0.1723141155	-0.1575386604	
685.625	0.2313347986	0.2034453057	
686.25	0.2997814463	-0.254158286	
686.875	0.1462698542	-0.1038935565	
687.5	0.289540039	-0.2444367153	
688.125	-0.1734947359	-0.4540717129	
688.75	-0.3221884271	-0.0402056267	
689.375	-0.2290022796	0.2182150826	
690.0	0.177244323	0.4485130448	
690.625	0.241510632	-0.05529506055	
691.25	0.1984936822	0.5134329853	
691.875	0.698382314	-0.008484084151	
692.5	0.2173253304	0.1694700186	
693.125	0.8900221397	0.05828199623	
693.75	0.32661618	-0.5808210285	
694.375	0.5017975036	0.01249721926	
695.0	0.5093213487	-0.5679798674	
695.625	0.2075665454	-0.1596516211	
696.25	0.4936225887	0.2683177387	
696.875	0.502105523	0.1963698231	
697.5	0.2482555554	0.3391028069	
698.125	0.6330819355	0.05875921929	
698.75	0.2534498921	-0.3058667164	
699.375	-0.4613845745	-0.3805697311	
700.0	-0.0557059521	0.3551212669	
700.625	0.006400518118	0.3109941119	
701.25	0.3637571568	-0.004467997005	
701.875	0.06451795281	0.2043825477	
702.5	0.4955213193	0.2999630835	
703.125	0.257754493	-0.1441334251	
703.75	0.4235947974	0.04018120763	
704.375	0.2334782991	-0.3316644346	
705.0	0.1044030115	-0.02148972195	
705.625	0.3841047973	-0.03028655733	
706.25	0.1631605005	0.03413921004	
706.875	0.1972261628	0.3339178378	
707.5	0.337503345	0.1392017679	
708.125	0.3255362706	0.2353175035	
708.75	0.183034406	-0.5055898522	
709.375	-0.1172400454	-0.02527761764	
710.0	-0.3858478075	0.2738191577	
710.625	0.2422441113	-0.05787886226	
711.25	-0.0280951871	0.2703383858	
711.875	0.3371727697	-0.1450348135	
712.5	0.1168647203	0.1075930894	
713.125	0.3446908717	-0.2341600711	
713.75	-0.02446638327	-0.27786513	
714.375	0.06538530277	-0.1476383471	
715.0	-0.03198521893	-0.2497843793	
715.625	-0.07231190327	-0.155817345	
716.25	0.1579378761	-0.1410741026	
716.875	0.3118125351	-0.242336847	
717.5	0.3866045682	-0.1090555341	
718.125	0.4458070688	0.00965277911	
718.75	0.7712648182	-0.01529076213	
719.375	0.3651964068	-0.8228598208	
720.0	0.398381926	0.03805409311	
720.625	0.04853833661	-1.719821936	
721.25	-0.3999864115	-0.005004064995	
721.875	0.1326737882	-1.1326303	
722.5	-1.172552118	-0.5518212688	
723.125	-0.03984029712	0.1168802465	
723.75	-0.721198878	0.4845029543	
724.375	0.3934611891	0.364743202	
725.0	-0.03278822952	0.200852181	
725.625	0.200361153	0.5864966876	
726.25	0.365462975	0.5277266261	
726.875	-0.1913089724	0.4684467728	
727.5	-0.21634	1.474587605	
728.125	0.8166586523	1.633641874	
728.75	-0.2805255745	1.293109353	
729.375	-1.154559004	3.632905892	
730.0	1.474364738	3.200166181	
730.625	0.1268059376	1.291332428	
731.25	-1.363808547	4.610309509	
731.875	0.582256762	3.760226064	
732.5	-2.005683751	-1.160650816	
733.125	-3.11376501	1.231811868	
733.75	0.4739797961	1.292793652	
734.375	0.01723003185	0.6300798389	
735.0	-0.3347551526	-1.170252335	
735.625	0.1498527136	0.1766259125	
736.25	-0.3732126471	0.6204735845	
736.875	0.783200712	0.3835589214	
737.5	0.2810310862	-0.2263378761	
738.125	1.758755222	0.3508417369	
738.75	1.349655371	-2.302000273	
739.375	0.1060943012	-1.185937257	
740.0	2.772038943	1.436479455	
740.625	5.753785046	-2.684165317	
741.25	-1.252834208	-1.970874231	
741.875	-4.965972507	0.02012985651	
742.5	-2.993050805	-0.2550592562	
743.125	0.8518509445	-0.1831416729	
743.75	0.09256137037	-1.590132119	
744.375	-0.3489715874	0.4313541722	
745.0	-0.1564888116	-0.01468060215	
745.625	0.1213648835	-0.1729794583	
746.25	0.09916732519	-0.0008699665971	
746.875	-0.3006556132	0.01830688525	
747.5	0.07900210123	0.3260063453	
748.125	0.0353362509	0.3111346665	
748.75	0.2393643095	0.5075883231	
749.375	0.228072617	0.3221058833	
750.0	-0.2334309883	0.1048449646	
