!Created with skrf (http://scikit-rf.org).
# GHz S MA R 50.0 
!freq magS11 angS11
500.0 0.0184636231104 175.88704563
500.625 0.00603284856011 76.7506966161
501.25 0.00829515595792 -75.9307721603
501.875 0.0427546696231 -174.484203837
502.5 0.0421602206829 170.705576743
503.125 0.015882244497 100.689574973
503.75 0.0141857849668 -16.1436666939
504.375 0.00291031370049 -67.2447771066
505.0 0.00472829335821 -18.7273869403
505.625 0.0272879925209 -69.6592280193
506.25 0.0591289319013 -100.957628424
506.875 0.0615847897656 -113.827486698
507.5 0.0546543244608 -108.99741312
508.125 0.0561829445431 -85.0970026101
508.75 0.0639162298272 -132.215115917
509.375 0.049123133311 -142.133899049
510.0 0.0405670927864 -118.886440989
510.625 0.0359624354918 -155.821372456
511.25 0.0641779449476 -167.214488608
511.875 0.0524928026907 142.910947747
512.5 0.035801769643 102.87461233
513.125 0.0499826343462 46.9658113813
513.75 0.0494999467939 34.1489223377
514.375 0.0366625609578 10.8379430807
515.0 0.0402981874466 -4.87688609034
515.625 0.11389360161 54.9421882491
516.25 0.0716725719351 23.7337278746
516.875 0.103185228604 71.3244841946
517.5 0.135274748771 24.2443212281
518.125 0.220057773002 75.9225626462
518.75 0.0771559372224 3.67085929085
519.375 0.0606918389423 20.4803218067
520.0 0.0937309099015 1.53369543167
520.625 0.117083345457 2.05955045156
521.25 0.0712184629469 -34.2970487708
521.875 0.0628717679519 1.77397492026
522.5 0.0921928168722 -35.6390415565
523.125 0.196061997129 -30.2797106719
523.75 0.210283134107 -60.1256633264
524.375 0.201260540131 -52.7820633471
525.0 0.0672545489991 -53.8762024505
525.625 0.0432164738437 -20.8811261932
526.25 0.0427735300296 -10.1575191286
526.875 0.0558428835088 -15.2159099056
527.5 0.0450763810193 -25.8432909075
528.125 0.0502297206941 -53.2797060538
528.75 0.0443745207756 -81.1394243584
529.375 0.0801265460862 -111.674649529
530.0 0.0482444142467 -124.792523608
530.625 0.0381177607235 -138.204057182
531.25 0.123416518918 -133.966879719
531.875 0.181953817852 -144.377321602
532.5 0.137729102054 -168.279451375
533.125 0.112496922957 177.205591004
533.75 0.101123326821 170.062119651
534.375 0.103185134587 -178.480676662
535.0 0.0781762112777 162.544296775
535.625 0.0753601379307 179.520467273
536.25 0.0586674142395 165.780016256
536.875 0.0917435823925 -158.752296549
537.5 0.101396082834 -142.739560165
538.125 0.101970134838 -173.077810009
538.75 0.100125843605 179.493444882
539.375 0.0803029502043 -160.140530337
540.0 0.0934254892157 -152.411742225
540.625 0.136955641974 -155.23084323
541.25 0.126936317058 -139.796655078
541.875 0.103582437909 -144.289955598
542.5 0.115575504015 -142.62482449
543.125 0.149021009332 -166.812165623
543.75 0.127166510918 160.198549601
544.375 0.0900944913736 136.056519155
545.0 0.0790438063407 90.8440442763
545.625 0.11200482603 84.2167752966
546.25 0.0739678456535 67.8199533694
546.875 0.0836586869512 57.108352685
547.5 0.109403881736 60.7905748292
548.125 0.121023372691 79.8530245487
548.75 0.0873382126089 92.20453367
549.375 0.0914461372254 90.6043119289
550.0 0.0804724081703 126.204969872
550.625 0.0584722501936 156.950206303
551.25 0.0319652751035 -114.924406663
551.875 0.062263038812 -154.535892983
552.5 0.110372943445 -160.48450929
553.125 0.0987961043652 -169.272834151
553.75 0.0894632942334 -166.111233594
554.375 0.102588033646 172.759200148
555.0 0.121493027312 166.719961688
555.625 0.103545944911 157.312136561
556.25 0.0916038911281 166.212136984
556.875 0.115257473276 167.829002712
557.5 0.119966247994 167.25278369
558.125 0.0957705053534 166.047790761
558.75 0.0653050616352 -178.376835993
559.375 0.0554854440877 -166.757676179
560.0 0.0442253170918 -142.379833232
560.625 0.0626190834342 -143.50934503
561.25 0.0790772342475 -138.741867064
561.875 0.0974981196839 -156.034473292
562.5 0.090204519149 175.413819678
563.125 0.111484234606 143.80954882
563.75 0.117902298037 135.31535708
564.375 0.0986349421539 124.38437372
565.0 0.085214891141 122.399983385
565.625 0.0896468494797 116.303415786
566.25 0.0750591679068 165.305352279
566.875 0.0716598213795 -175.939793385
567.5 0.0750229665159 -179.751587071
568.125 0.083703710705 -170.015873182
568.75 0.0752580854082 -148.210168674
569.375 0.0492270174851 -107.279221449
570.0 0.0639920430514 -110.216411408
570.625 0.0962447326064 -119.533260669
571.25 0.0845761256928 -110.184650114
571.875 0.0884432443948 -126.043895095
572.5 0.113825223998 -157.707295228
573.125 0.143063049523 -173.918473201
573.75 0.108831257804 161.452237052
574.375 0.0804619476444 152.372100274
575.0 0.0974674657235 158.732078054
575.625 0.114484653781 152.889921392
576.25 0.077067766828 154.395265364
576.875 0.0788962174903 136.140131764
577.5 0.0747222059458 145.298876292
578.125 0.0640872792901 156.332152456
578.75 0.0425304765497 177.114673488
579.375 0.054460419351 168.586927824
580.0 0.0711300055951 -179.32450864
580.625 0.0788577555361 -150.738224393
581.25 0.0898161341848 -159.959987698
581.875 0.116896212037 -174.609753416
582.5 0.119652818768 -175.861647783
583.125 0.0923953159951 -166.580290255
583.75 0.08443177688 -170.521535832
584.375 0.102662393842 -152.853742577
585.0 0.08889797646 -134.644483816
585.625 0.0720276214307 -142.898390367
586.25 0.072978972689 -142.478667286
586.875 0.0839661613788 -133.429961341
587.5 0.0740489844774 -145.902313548
588.125 0.0596386799065 -170.981214934
588.75 0.0687595925242 -170.808937821
589.375 0.0831321112265 -148.829891301
590.0 0.0967794732564 -159.871993203
590.625 0.105661371375 167.662505279
591.25 0.123221559855 148.744295056
591.875 0.0835350595564 171.535171934
592.5 0.0597767273043 156.585443734
593.125 0.0577527482993 154.965602989
593.75 0.0723118729919 163.910983288
594.375 0.058481942166 -139.99061796
595.0 0.0463966226998 -109.637816642
595.625 0.0626173599939 -94.2357085428
596.25 0.0701163370672 -95.2927130744
596.875 0.0734615112016 -54.3043747312
597.5 0.0648339370178 -52.8037795638
598.125 0.0693094809596 -57.1730108648
598.75 0.0785066715778 -55.9366836604
599.375 0.090797243976 -62.0165327235
600.0 0.102315927028 -67.1211530481
600.625 0.10163341 -62.9076363199
601.25 0.0835693971815 -81.879756096
601.875 0.068203955738 -81.248468406
602.5 0.0647726510528 -64.879018915
603.125 0.0443649295011 -46.556624726
603.75 0.025408632545 -58.5737970117
604.375 0.0422277008167 -14.6723924078
605.0 0.0608540990177 -14.7865296064
605.625 0.0496555793999 -10.1079580468
606.25 0.0285299809921 19.7137226331
606.875 0.030046700195 49.2406895641
607.5 0.0676006432779 49.3881522108
608.125 0.0589924436757 22.598915434
608.75 0.0471760221725 12.7818886861
609.375 0.0718805301439 37.8650280961
610.0 0.0751635230978 47.6715639371
610.625 0.0604122159209 32.7506581982
611.25 0.0520675795567 35.1455645623
611.875 0.0336172977404 49.6421595685
612.5 0.0210946862871 104.287950911
613.125 0.0436039516774 128.114130746
613.75 0.0511347433138 126.985733113
614.375 0.0238079244457 118.32830409
615.0 0.0596245792538 131.429578112
615.625 0.0468965698091 134.62048638
616.25 0.0522586187027 143.737155898
616.875 0.0274702623154 131.749623294
617.5 0.0577049078935 134.590483597
618.125 0.0460464368733 134.357224989
618.75 0.0401377715896 159.52476004
619.375 0.00225346580297 -9.20187097222
620.0 0.0166495241695 152.976019187
620.625 0.0129359050592 -141.035648857
621.25 0.0417315930299 -102.139812475
621.875 0.0668304584135 -92.0010396932
622.5 0.0906006479501 -179.347461736
623.125 0.080373196498 167.077206636
623.75 0.0713350811502 169.767514549
624.375 0.0298195643901 -147.966800766
625.0 0.0537255998427 -147.572796603
625.625 0.0423511565023 -157.471717013
626.25 0.0129945406617 155.736185138
626.875 0.0054759090321 34.2082024986
627.5 0.0305409206732 -17.8388005887
628.125 0.0397071738222 -26.5013697671
628.75 0.0351114463358 -11.5452204298
629.375 0.0441193836584 -9.18114752784
630.0 0.0823714881112 10.3561396855
630.625 0.0728317817161 5.51240427319
631.25 0.0722274967787 0.670040115421
631.875 0.0664772428692 -3.11972900486
632.5 0.0643310170454 1.65012432647
633.125 0.0477269041687 5.87428022062
633.75 0.0387564180726 -17.5662361965
634.375 0.0389267616512 10.5390224498
635.0 0.0502100492216 44.7500510034
635.625 0.0312574171641 20.2002272466
636.25 0.0478109073843 41.1295917012
636.875 0.0679671848822 47.6227900987
637.5 0.0428802504359 45.7943922645
638.125 0.0538818409014 74.8978861497
638.75 0.0770777889084 75.6578749994
639.375 0.0793657505176 86.6533636015
640.0 0.0675155052564 104.583350554
640.625 0.0637716631261 114.109652049
641.25 0.0512422805627 94.5263889819
641.875 0.0587595614837 147.28939398
642.5 0.0580224451781 164.113985585
643.125 0.058387544867 158.731337689
643.75 0.0669781688089 174.192948536
644.375 0.0785714588837 -167.888370542
645.0 0.0763376091535 -179.12026284
645.625 0.104506544245 172.410733186
646.25 0.0806996570686 158.312131225
646.875 0.0574066335398 171.630718975
647.5 0.0593240523264 179.001899628
648.125 0.100903998705 -170.604019572
648.75 0.0611162269698 -178.366265377
649.375 0.0435460370962 -151.246207035
650.0 0.042439202413 -124.438197108
650.625 0.074276426704 -84.9714665333
651.25 0.0612091447613 -65.8192401897
651.875 0.0636472164649 -41.7646204059
652.5 0.099487070798 -20.3119049511
653.125 0.119427404874 1.78353403162
653.75 0.0935439743954 2.96738258837
654.375 0.0980896188445 5.40281286182
655.0 0.111049751382 15.5904830397
655.625 0.108586697116 32.8873531243
656.25 0.0495218915737 18.9490639538
656.875 0.0641280478239 10.5064723095
657.5 0.0891647059427 27.2586190426
658.125 0.0666030977301 54.5831760446
658.75 0.0688162504887 63.2737831267
659.375 0.0828623013051 41.9365536457
660.0 0.103644655768 30.4080963617
660.625 0.110861703731 21.2151085002
661.25 0.11906484173 5.40385643279
661.875 0.0956278146392 -13.4490097013
662.5 0.117012022625 -17.6818668023
663.125 0.108702182372 -13.1638600557
663.75 0.111466869776 7.51556379232
664.375 0.0937393922717 57.2868642251
665.0 0.0749868797509 87.9199729951
665.625 0.0752266211121 112.661048176
666.25 0.0597391765995 139.904536991
666.875 0.0983280621373 178.820545797
667.5 0.0905770627492 -169.185798288
668.125 0.112664827753 179.68193715
668.75 0.101756623088 171.407503288
669.375 0.123120604438 -178.936589135
670.0 0.0824171882355 -172.947157114
670.625 0.0956586482361 -172.284802776
671.25 0.113377664159 175.636133278
671.875 0.103794305672 170.883124464
672.5 0.0788054036537 160.669610782
673.125 0.0883525027974 153.951873835
673.75 0.0891817827611 167.288342162
674.375 0.105253360777 175.305042884
675.0 0.105087718663 -171.854789721
675.625 0.140542145351 -150.452556519
676.25 0.104864881272 -120.585847131
676.875 0.10854525972 -117.083959236
677.5 0.114972841663 -126.498908774
678.125 0.135531210262 -112.458990952
678.75 0.073368913737 -91.1601554936
679.375 0.0532957501722 -71.857689696
680.0 0.0870993440217 -80.8822957626
680.625 0.121340163542 -71.322832336
681.25 0.11389048613 -74.5315916845
681.875 0.0924617680627 -83.5390838675
682.5 0.134339411418 -114.758932989
683.125 0.164084484258 -120.291354135
683.75 0.14412859704 -104.872362302
684.375 0.120663763377 -78.704228191
685.0 0.128437925228 -36.8773976543
685.625 0.137776148417 -2.10168800006
686.25 0.106098823724 24.8048832079
686.875 0.0994196136428 46.3124628482
687.5 0.0777965075022 87.5518853334
688.125 0.0857433431859 108.509240949
688.75 0.10520678815 116.483742636
689.375 0.152866104036 117.843585687
690.0 0.120829109047 141.767015927
690.625 0.11601363915 132.226683201
691.25 0.141840659714 101.241298931
691.875 0.203600025339 66.2302983658
692.5 0.111135268066 46.35944074
693.125 0.0851228557705 -10.9503083772
693.75 0.10167294344 -39.8395252658
694.375 0.139691573861 -27.3389272352
695.0 0.137483880831 10.191300591
695.625 0.0943338031223 66.7931512688
696.25 0.114718593098 121.412173871
696.875 0.131944186629 177.922486872
697.5 0.148605106124 -145.858718416
698.125 0.129234489647 -125.799142426
698.75 0.121870965914 -124.164817363
699.375 0.106828958666 -121.124946814
700.0 0.101399626644 -115.758134984
700.625 0.111695628152 -84.9027101569
701.25 0.0928437444092 -55.5013130366
701.875 0.0829088561772 -55.9216105229
702.5 0.101220538581 -87.996556921
703.125 0.164510679952 -106.360049246
703.75 0.180995378406 -150.885546067
704.375 0.120850191961 173.514712667
705.0 0.113985517223 158.690491373
705.625 0.151338134376 -174.58909515
706.25 0.141237475067 -108.617877901
706.875 0.0940837402764 -63.2686128913
707.5 0.0769709873234 -31.4655689205
708.125 0.0955554678498 11.1868091608
708.75 0.111703712999 73.7783501361
709.375 0.106838859372 110.344810052
710.0 0.101369880885 136.673389395
710.625 0.107854201315 148.294552725
711.25 0.121209493692 -178.678685075
711.875 0.146640578439 162.614211948
712.5 0.150935252784 147.420490434
713.125 0.129445129132 96.9026500964
713.75 0.0943026478196 61.6266151868
714.375 0.106435797398 33.0083161758
715.0 0.104304760591 42.0051210658
715.625 0.0848864362133 45.2388843113
716.25 0.0790742011164 74.9206723631
716.875 0.11732181994 104.80998327
717.5 0.149545839028 149.911816999
718.125 0.116258361968 172.567195155
718.75 0.0973544174891 163.759633413
719.375 0.128822971435 -152.057309473
720.0 0.132338546948 -125.363539899
720.625 0.102633136147 -73.6157511718
721.25 0.0977324081924 -33.0054626238
721.875 0.0830819339167 36.6116749925
722.5 0.0714442476627 70.477830557
723.125 0.0873845290059 76.6084952909
723.75 0.0976122068364 32.8676023224
724.375 0.131082821226 16.5653527038
725.0 0.103910050756 -30.0008823052
725.625 0.105043047059 -61.5265355894
726.25 0.113501269828 -68.1599270853
726.875 0.0994162569898 -47.5363725411
727.5 0.0773714890316 -32.9744163481
728.125 0.0797456575961 -3.56848395386
728.75 0.0950534996984 27.9920073037
729.375 0.0722203937747 6.04440143812
730.0 0.09000580109 24.6802091844
730.625 0.0710056454254 28.6495404438
731.25 0.0752663486637 76.4276206733
731.875 0.0508135959944 101.131129103
732.5 0.0720189259564 157.138690756
733.125 0.0863628247067 177.575265052
733.75 0.0655977172072 176.060259595
734.375 0.0396091519555 142.110782025
735.0 0.0950403715104 171.362696864
735.625 0.080719793429 152.903683224
736.25 0.0534903302445 158.138204031
736.875 0.0277629724034 -160.889342214
737.5 0.12055633435 -178.644265922
738.125 0.100800953533 -174.055704948
738.75 0.0672023881079 -163.986322704
739.375 0.0227374142319 170.836214894
740.0 0.0423451581259 -135.397932771
740.625 0.0568537773569 -143.92983789
741.25 0.0502780481131 -159.099050833
741.875 0.0466264528276 -110.469998442
742.5 0.0185875350451 56.6688921743
743.125 0.049384903145 55.50273547
743.75 0.0348713571021 82.185757179
744.375 0.0346970687246 114.670497795
745.0 0.046254631645 167.33732864
745.625 0.0667586329951 116.51056736
746.25 0.0873963518917 74.2716964911
746.875 0.0849296759825 38.8138685147
747.5 0.0242832907905 47.1573306741
748.125 0.0405115036056 -12.6950694105
748.75 0.023147073858 14.0777509498
749.375 0.0285560476146 -29.9592278628
750.0 0.0273103853913 -89.4596666132
