!Created with skrf (http://scikit-rf.org).
# GHz S MA R 50.0 
!freq magS11 angS11
500.0 0.019021497118 -169.337576219
500.625 0.00747563525945 103.612468032
501.25 0.0122012026228 -54.462189806
501.875 0.0535252889333 -173.922962242
502.5 0.0374691854894 171.108694974
503.125 0.0179108738099 98.0573924908
503.75 0.00977036481596 -18.7699068928
504.375 0.00543103334864 -59.750118371
505.0 0.0118415363746 -46.3668298465
505.625 0.0273353235258 -69.6861296071
506.25 0.0564998550577 -101.152434909
506.875 0.0571747002591 -106.975972796
507.5 0.049602792433 -119.108764084
508.125 0.0620114128149 -85.0306927659
508.75 0.051940624837 -141.679429388
509.375 0.0481426532299 -148.962756758
510.0 0.0356768532208 -131.895017988
510.625 0.0414350019879 -156.242831525
511.25 0.0578928774783 -171.841400823
511.875 0.0505596476459 142.319862598
512.5 0.0393135567775 106.57617847
513.125 0.0499225316631 46.0180518643
513.75 0.0511865953152 21.9969810637
514.375 0.0332547617563 7.15918201507
515.0 0.0480402841668 2.91606559425
515.625 0.112865609865 54.4198663942
516.25 0.0660544986535 18.9259249803
516.875 0.100718136758 69.0838314085
517.5 0.123558461548 19.6399909134
518.125 0.226465325473 75.7196015954
518.75 0.08385546478 8.95695424903
519.375 0.067481889138 24.6589193773
520.0 0.092443828922 -0.463792608933
520.625 0.116233441519 0.267408666483
521.25 0.0734602059094 -30.413778461
521.875 0.0604912158595 0.509635502521
522.5 0.088038434209 -36.9202813227
523.125 0.199088608074 -31.1547615289
523.75 0.202645660674 -64.2835685092
524.375 0.200486775948 -54.6111893091
525.0 0.0687220987683 -48.3508178157
525.625 0.0432762675979 -23.1501058174
526.25 0.0443327930089 -10.5634953824
526.875 0.0590352579141 -15.193340596
527.5 0.0481488048281 -25.9499111528
528.125 0.0496763368853 -54.6961943792
528.75 0.0464812917951 -79.4527201581
529.375 0.088837003251 -108.090133134
530.0 0.0534673836059 -128.461709402
530.625 0.0317664273007 -132.758706872
531.25 0.114078054212 -132.765094964
531.875 0.187290583588 -145.78116538
532.5 0.141379000832 -169.28721101
533.125 0.112372182142 176.358417993
533.75 0.112103934769 168.435091552
534.375 0.113692069836 -178.392915094
535.0 0.0847594254304 162.130417755
535.625 0.0748661861758 178.171304942
536.25 0.0599195521125 163.532527451
536.875 0.0844452744409 -162.656841686
537.5 0.103485853605 -144.369515115
538.125 0.0945760199708 -173.930781583
538.75 0.102930713904 -179.954536516
539.375 0.0872939034785 -163.205396949
540.0 0.0944382356257 -153.998524189
540.625 0.127460998582 -155.219934863
541.25 0.123066444044 -140.936221274
541.875 0.0957899706799 -145.790686428
542.5 0.117071560209 -145.113208347
543.125 0.143002909293 -167.812293817
543.75 0.129246814539 159.375450745
544.375 0.0961024690164 136.135568817
545.0 0.0847106393525 91.0036148192
545.625 0.111149373908 83.0363326182
546.25 0.0727377513749 66.4344131363
546.875 0.0809689825372 55.1272666517
547.5 0.112957568943 59.4120493475
548.125 0.114620979612 77.5578567832
548.75 0.0896252946287 90.8366586878
549.375 0.100299551623 87.9476522672
550.0 0.0857372326575 127.230703794
550.625 0.0579273459105 154.874349936
551.25 0.0313046694943 -117.544316027
551.875 0.0663200766169 -157.670026349
552.5 0.109063840651 -162.553971148
553.125 0.0980053055119 -170.983475871
553.75 0.0905150372556 -167.705739913
554.375 0.105463676419 170.213107688
555.0 0.126143218632 164.145866
555.625 0.104008014461 155.909528931
556.25 0.0884089155544 167.399592478
556.875 0.117067633735 167.275989488
557.5 0.118832002016 165.709790446
558.125 0.0996383008303 163.870791071
558.75 0.0662456195004 -179.842865137
559.375 0.0622101422093 -169.493535034
560.0 0.0454203685203 -144.956517331
560.625 0.0617758336787 -145.154561426
561.25 0.0805602889347 -142.139962578
561.875 0.0980710426133 -157.995676915
562.5 0.0881617179321 175.502455499
563.125 0.110897566187 143.059291417
563.75 0.125523293781 132.168209772
564.375 0.104655052199 121.902738866
565.0 0.0855568992349 121.432873253
565.625 0.0894782485106 115.129569505
566.25 0.0813323970406 159.58441657
566.875 0.0710499062732 -176.595239159
567.5 0.0712288360129 -177.752265743
568.125 0.0862378586908 -173.926811902
568.75 0.0717191575864 -148.08568432
569.375 0.050332465224 -110.15888563
570.0 0.0628881051566 -115.52768052
570.625 0.0956845713108 -121.940725847
571.25 0.083310596016 -110.531232862
571.875 0.088561809586 -125.729639082
572.5 0.109278142126 -155.83943442
573.125 0.145866830439 -176.695562274
573.75 0.105521247333 161.332310065
574.375 0.0824053124885 152.012033439
575.0 0.098338543858 158.215288471
575.625 0.115094439898 151.182743899
576.25 0.0791231782059 150.757663091
576.875 0.0814359733327 132.009870034
577.5 0.0809914609233 139.158343494
578.125 0.0641336623546 155.181042564
578.75 0.0424193065139 178.959081937
579.375 0.0530933400801 168.700537569
580.0 0.0656913941268 -179.560534539
580.625 0.0792726504829 -154.705412966
581.25 0.089295211542 -158.142263641
581.875 0.114755532308 -176.916609199
582.5 0.120088721963 -178.473795838
583.125 0.093139502351 -167.704747225
583.75 0.0843506168508 -172.156824205
584.375 0.101824302361 -156.064106278
585.0 0.0903347442404 -137.314897832
585.625 0.0720955721815 -144.923726496
586.25 0.0725724694124 -139.626731855
586.875 0.0821955109874 -135.765913644
587.5 0.0742076489077 -146.813696434
588.125 0.0592906448173 -172.525639414
588.75 0.0685125017319 -174.062698392
589.375 0.0813986197349 -151.806485254
590.0 0.0945495626995 -163.128026718
590.625 0.10492764862 165.027819626
591.25 0.123476349894 148.377015425
591.875 0.0859484188449 169.358402993
592.5 0.0605281704883 156.546123882
593.125 0.0627025420274 152.197299745
593.75 0.073446158176 161.868665326
594.375 0.0576296903223 -148.047979299
595.0 0.0439302717595 -119.432866443
595.625 0.0615832912787 -98.9108314073
596.25 0.0706403257232 -94.8501951101
596.875 0.0734321357306 -55.8716843968
597.5 0.0655968898699 -51.6519455983
598.125 0.0683601093306 -58.78303415
598.75 0.0876588499715 -56.1238273095
599.375 0.0874332160493 -64.8171522173
600.0 0.0976073713266 -72.3222533477
600.625 0.0990552516409 -67.5149581953
601.25 0.0843452065584 -82.5442669896
601.875 0.069402576789 -84.2652161568
602.5 0.0656968051114 -69.3038105042
603.125 0.044775649772 -53.6779664012
603.75 0.0257935975033 -63.1695335989
604.375 0.0490080955627 -13.0061342944
605.0 0.0644759214636 -15.6018648156
605.625 0.0458311609338 -23.7649739173
606.25 0.023832340854 7.90160201278
606.875 0.0374091071459 45.4952142102
607.5 0.0647008615239 45.7981680884
608.125 0.0670632381325 28.3671016424
608.75 0.0474302480831 10.586529207
609.375 0.0804539025801 38.2153050214
610.0 0.0763122530475 45.1701508743
610.625 0.0560209393265 27.5193111518
611.25 0.0490023812217 26.443972106
611.875 0.0404190185835 57.287223425
612.5 0.0230906361038 89.4700879353
613.125 0.0390395023412 123.715584944
613.75 0.0449013910982 124.275749137
614.375 0.0240445269645 117.625386111
615.0 0.0581261086849 128.427182553
615.625 0.0490753321486 133.389350998
616.25 0.0569260255804 137.759183138
616.875 0.0248347832476 130.139334173
617.5 0.0501023664915 129.176395365
618.125 0.0412045250759 129.883295808
618.75 0.0470785426186 147.252663987
619.375 0.00189068558962 -2.29187119851
620.0 0.00672746729219 131.644582233
620.625 0.0155153892434 -85.5412045116
621.25 0.040657576674 -104.434287713
621.875 0.0649354644416 -93.5515930909
622.5 0.0833712261952 -176.96446349
623.125 0.0847175547023 164.44822791
623.75 0.0764475944515 163.209019373
624.375 0.030452937465 -148.964219939
625.0 0.0641676422418 -154.619870052
625.625 0.043014853844 -157.801545631
626.25 0.00644112979468 160.478737023
626.875 0.011672742702 4.71591160797
627.5 0.0198232376912 -32.5314947209
628.125 0.0354473119257 -26.229772361
628.75 0.0377612287008 -5.92812615756
629.375 0.0441606663801 -9.9779210385
630.0 0.0797495780865 8.8010300596
630.625 0.0709967852927 9.20107844197
631.25 0.0687406200147 -5.70929756648
631.875 0.0688824995464 2.0820750235
632.5 0.0695716622057 -10.6793648035
633.125 0.0452160316893 4.59362362863
633.75 0.0397511731826 -8.92737785058
634.375 0.0428038595008 16.5292062379
635.0 0.0501516616973 42.898795791
635.625 0.0262737100181 2.33054931235
636.25 0.0487653984812 39.2691443356
636.875 0.0753830998862 46.9967546385
637.5 0.0406493774711 42.742683666
638.125 0.0526752015785 72.6099289889
638.75 0.0747778166417 77.8893887727
639.375 0.0832068043757 90.0342723219
640.0 0.0695582246669 105.281721559
640.625 0.064223052572 112.439861558
641.25 0.0486628478005 100.418079939
641.875 0.0658785734266 152.449614365
642.5 0.0616010951082 163.697343379
643.125 0.0511104551329 152.264619196
643.75 0.0689515778325 172.785827797
644.375 0.0825298707555 -167.703536234
645.0 0.0779764425387 -179.47655854
645.625 0.104075946499 170.889599221
646.25 0.0885232330701 163.424754807
646.875 0.0564144438627 170.533981887
647.5 0.0628181188919 -176.745188143
648.125 0.0989488195734 -172.430864498
648.75 0.0614367151262 178.645473178
649.375 0.0398857015283 -156.182653665
650.0 0.0374055479343 -127.846500172
650.625 0.079337930469 -87.6113221879
651.25 0.0526851030835 -66.8488834204
651.875 0.0625157826805 -40.9876934844
652.5 0.102639940647 -24.3932110279
653.125 0.12689946045 -1.05079661814
653.75 0.0910704825533 1.7798589715
654.375 0.100891936331 6.75096881674
655.0 0.115462198915 14.2301974562
655.625 0.109904034762 30.4878493925
656.25 0.0460427569201 10.9720375896
656.875 0.0634097078306 8.14260824935
657.5 0.0906915813802 22.4466722421
658.125 0.0671165792141 51.2442115494
658.75 0.0673152960402 60.9889534499
659.375 0.0840702819206 42.2362014559
660.0 0.107625224445 28.497629867
660.625 0.114321344178 19.4997599828
661.25 0.11886001501 4.05463340908
661.875 0.0992356693047 -13.3287806313
662.5 0.127709641432 -19.453759502
663.125 0.112036469961 -14.9516312375
663.75 0.10848607529 5.49119312039
664.375 0.0976412218652 55.0621524767
665.0 0.0681835359337 85.170984279
665.625 0.0747437050072 110.993330872
666.25 0.0695561923469 138.004364823
666.875 0.103853104336 173.671661495
667.5 0.0893104586683 -168.731020436
668.125 0.112091497944 178.185730381
668.75 0.102804012061 170.575409506
669.375 0.124502334055 178.813332664
670.0 0.0804948570083 -176.3489198
670.625 0.0976527949779 -174.10160617
671.25 0.10635266281 174.765542994
671.875 0.102016088819 170.748228028
672.5 0.0836482732851 154.794835337
673.125 0.0921271061767 151.086526944
673.75 0.091904855972 164.737432659
674.375 0.105575561941 172.824276435
675.0 0.112183185024 -173.739085112
675.625 0.141389392451 -152.762687553
676.25 0.114098635952 -123.383580985
676.875 0.10556753592 -118.841733611
677.5 0.118416681033 -127.421860612
678.125 0.142416334169 -117.486670312
678.75 0.0687139167776 -92.2653731963
679.375 0.0536486052837 -74.8764014639
680.0 0.081980152481 -81.4065329061
680.625 0.120912319921 -74.6636000582
681.25 0.113292703031 -76.1574892593
681.875 0.0943015004565 -89.5696163201
682.5 0.130353287317 -115.119059511
683.125 0.156097139987 -121.795114586
683.75 0.149620979975 -107.454611164
684.375 0.116765068538 -77.9552895948
685.0 0.128763721395 -38.9908679401
685.625 0.129060760406 -3.30352873237
686.25 0.108705448676 23.1194850847
686.875 0.0961917461548 45.1329319172
687.5 0.0783327280935 83.1529648164
688.125 0.083830362583 104.903748913
688.75 0.10434650749 114.727553923
689.375 0.151532170324 115.816401181
690.0 0.124837066737 137.207607063
690.625 0.118946245992 129.459071591
691.25 0.143716441856 98.3207576825
691.875 0.203030164464 64.4350925855
692.5 0.117564688518 44.6144322621
693.125 0.0869426774467 -13.1497049081
693.75 0.0991476675261 -43.5912112065
694.375 0.141459930968 -32.6769973231
695.0 0.139049881151 7.79633138446
695.625 0.097335921474 60.8140016247
696.25 0.116173768977 116.968749873
696.875 0.132344408332 176.642548281
697.5 0.14991452969 -149.780658875
698.125 0.126395920465 -123.891682512
698.75 0.124479047916 -126.652050137
699.375 0.108219355666 -122.929391712
700.0 0.0997385362015 -116.757034283
700.625 0.113097634221 -91.0193571672
701.25 0.0979089991914 -60.591124493
701.875 0.0831788223808 -58.5733704163
702.5 0.0996161371836 -89.8989086977
703.125 0.165768571349 -111.226458929
703.75 0.180089669166 -151.029787504
704.375 0.120820357318 173.679897822
705.0 0.1128222936 155.60766789
705.625 0.149395659516 -174.592630031
706.25 0.145568073734 -112.056322766
706.875 0.0968961075893 -66.6847951349
707.5 0.0753108197861 -35.736518215
708.125 0.0940790013479 7.81891149638
708.75 0.112910304137 66.9367744277
709.375 0.107385083768 103.427152094
710.0 0.104303635077 132.37692847
710.625 0.10763873953 145.817760337
711.25 0.123545151299 174.394717181
711.875 0.140408312051 164.031893848
712.5 0.153029785228 145.564741024
713.125 0.131161986839 95.4383360424
713.75 0.0983033524588 52.6663315448
714.375 0.112025417878 33.4363675961
715.0 0.107268459864 35.0233127161
715.625 0.0851639433853 38.00438563
716.25 0.0781637248707 78.5608010787
716.875 0.116536181338 101.797488808
717.5 0.148668510869 144.766356263
718.125 0.11873906737 168.344189961
718.75 0.0979932035115 163.851333956
719.375 0.128591908863 -154.541651909
720.0 0.130700560863 -125.049862463
720.625 0.108508237069 -71.6915160135
721.25 0.0983315529147 -33.1928858331
721.875 0.083449129251 31.9564457051
722.5 0.0685656365657 63.424640118
723.125 0.0838502111355 72.7619755955
723.75 0.096233546051 31.7975578618
724.375 0.128566249409 12.4259173958
725.0 0.104891324139 -32.5183957272
725.625 0.101369917214 -58.8468831534
726.25 0.109503427685 -74.0277384526
726.875 0.0959601255955 -42.5435608405
727.5 0.0851573099574 -31.5841997721
728.125 0.0777804312242 -13.5432454644
728.75 0.0948117678754 19.5163623826
729.375 0.0724691945965 4.4169486479
730.0 0.0884301590423 19.8659396495
730.625 0.0745923254854 25.3235482313
731.25 0.0777277326161 78.1860904995
731.875 0.0474372323344 97.514779593
732.5 0.0828988094097 155.314667185
733.125 0.0849265988635 174.333695915
733.75 0.0746230134841 -178.142743703
734.375 0.0438568579661 144.802770489
735.0 0.081778017159 160.7923046
735.625 0.0706451288971 149.441246684
736.25 0.0618624897597 150.989311482
736.875 0.0268119016953 -161.33456445
737.5 0.118337858749 179.263434215
738.125 0.0976707314012 -174.768152464
738.75 0.081212453574 -166.939529525
739.375 0.0194486890547 151.78921807
740.0 0.0568720645707 -140.471096134
740.625 0.0532787633024 -149.677177339
741.25 0.0331879702913 -157.351244849
741.875 0.0372558949759 -111.60450294
742.5 0.0184378574089 54.4192589304
743.125 0.0390889103221 69.3649822498
743.75 0.0252391470152 89.1848734415
744.375 0.0402856463911 115.516727116
745.0 0.0481343630752 158.825523312
745.625 0.0597160597104 119.798132701
746.25 0.0744674955003 77.8256965864
746.875 0.0754116960997 43.8528523415
747.5 0.0252824897002 40.5922852475
748.125 0.049954050696 -13.938465573
748.75 0.0231969104187 6.33153357031
749.375 0.0273949000466 -17.7789583224
750.0 0.028786011083 -87.1432671264
