!Created with skrf (http://scikit-rf.org).
# GHz S RI R (50+0j) 
!freq	ReS11	ImS11	
500.0	2.73082933	-6.199278662	
500.625	-1.158746447	-3.125911059	
501.25	-0.2330540765	-1.07936408	
501.875	-1.41251649	-3.660649092	
502.5	-0.4806525009	-0.1370447236	
503.125	-0.2221057068	-0.1010085985	
503.75	0.2635371201	0.3242634663	
504.375	0.007152961123	0.07729713626	
505.0	0.08490239682	-0.2247989736	
505.625	0.0392693747	0.1154252372	
506.25	-0.3555520216	-0.6952550731	
506.875	0.2002446861	0.7156351352	
507.5	1.021038775	-1.262821367	
508.125	-0.468488465	-3.371029384	
508.75	-0.2349195361	-1.509951168	
509.375	-0.2055492197	-5.681369129	
510.0	-1.498775097	0.4570395592	
510.625	-0.1233623261	-0.6477123446	
511.25	-0.6006470718	-0.1489888694	
511.875	-0.2182925408	-0.1092196836	
512.5	-0.08407719546	0.1331272692	
513.125	0.01926663093	-0.4513219091	
513.75	-0.4374154813	0.07579687788	
514.375	-0.01440388281	-0.3959678986	
515.0	-1.013046176	0.05389265553	
515.625	1.982016369	-2.068327116	
516.25	-3.55784863	-1.517072972	
516.875	0.5111362874	-0.1393719696	
517.5	-0.2108035493	-1.318676807	
518.125	0.040314757	0.3101112031	
518.75	-0.1916066948	-1.194886546	
519.375	-0.1094111772	0.2380882688	
520.0	0.2103390385	0.1699866866	
520.625	0.7055969387	-0.1972794765	
521.25	-0.3673718237	-0.5641278378	
521.875	-0.1943145109	-0.167093485	
522.5	-0.1995757127	0.1622699825	
523.125	-0.2463099315	-0.1012432372	
523.75	-0.1571578432	0.1375554947	
524.375	-0.5218895726	-0.2093665317	
525.0	0.1668885886	0.6108412168	
525.625	-0.07496307347	-0.04650125941	
526.25	0.1609081896	0.08357275398	
526.875	-0.3210100424	0.01548634694	
527.5	0.08328890226	0.8374532484	
528.125	0.06153035565	0.3317631198	
528.75	-0.2142916087	1.088366433	
529.375	0.2194579331	-0.07377141799	
530.0	0.1979182445	0.9333951069	
530.625	0.2811740062	0.4853960896	
531.25	1.385207054	0.8356589475	
531.875	0.2695261738	-0.8414635569	
532.5	0.1578062744	-0.2698318322	
533.125	-0.1868714842	-0.2131126336	
533.75	0.8304412978	-0.6848256137	
534.375	-0.7389636949	-0.5590814596	
535.0	-0.3356954183	-0.418193925	
535.625	-0.7154690432	0.456841282	
536.25	0.1048863826	0.1656475347	
536.875	0.2033634347	0.1757875236	
537.5	0.2164052493	-0.2148080755	
538.125	0.1403440254	0.01074693882	
538.75	0.5370207914	-0.4662854554	
539.375	-0.2236779311	-0.2090166876	
540.0	-0.2280971314	-0.5319436517	
540.625	-0.5884207528	-0.008561281684	
541.25	-0.1375911407	0.06009616141	
541.875	-0.02145961262	-0.06703153031	
542.5	-0.2355830426	-0.2368784688	
543.125	-0.1139555554	0.06194142052	
543.75	-0.3009852258	-0.2337433785	
544.375	0.02106942051	0.2582180392	
545.0	-0.183858792	0.08691989723	
545.625	0.3445385205	0.1337352661	
546.25	-0.05685049997	0.09776523548	
546.875	0.586989943	-0.02830578457	
547.5	-0.0730388385	-0.2816849898	
548.125	0.1192079814	-0.3416444869	
548.75	-0.4202846654	-0.4498148413	
549.375	-0.2746509616	0.01456590623	
550.0	-0.1880620445	-0.1758280642	
550.625	-0.1102504779	0.1649797	
551.25	-0.1926212351	-0.09177746409	
551.875	-0.2311112953	0.3066889711	
552.5	-0.04401560132	0.1080641397	
553.125	-0.09541041067	0.183919264	
553.75	0.146071147	0.1142703473	
554.375	0.2116659393	0.02164551857	
555.0	0.276893778	-0.1642692948	
555.625	0.2035677047	-0.2689280074	
556.25	0.1749082952	-0.3350626847	
556.875	-0.06841030955	-0.4165206733	
557.5	-0.2433493969	-0.2599918099	
558.125	-0.2692098409	-0.0994272237	
558.75	-0.2667680206	-0.04387118215	
559.375	-0.2940800908	0.06497633957	
560.0	-0.194495308	0.1581454853	
560.625	-0.1897878902	0.2511455631	
561.25	0.0881340719	0.2832380258	
561.875	-0.02992509298	0.06302467662	
562.5	0.1413202682	0.1676505289	
563.125	0.02444423852	0.1700553614	
563.75	0.4737519722	0.06762541683	
564.375	0.1915793942	-0.34457301	
565.0	0.2138431293	-0.1822934623	
565.625	-0.01753963726	-0.5088448098	
566.25	-0.3691148619	-0.1650042775	
566.875	-0.1663494852	-0.2224084592	
567.5	-0.4747078575	-0.3915765619	
568.125	-0.2925901971	-0.1773858047	
568.75	-0.5654770102	-0.4491740821	
569.375	-0.5842790253	0.4228346016	
570.0	-0.224906761	0.2402345635	
570.625	-0.5163582394	0.5060131699	
571.25	0.3853089881	0.3461665407	
571.875	-0.2263258167	0.2553522812	
572.5	0.6237601177	-0.09902472112	
573.125	-0.08137217102	-0.1288728842	
573.75	0.4625813425	-0.1785782355	
574.375	-0.2535887158	-0.3299877996	
575.0	0.2870487621	0.162619106	
575.625	-0.03033444164	-0.4612824783	
576.25	-0.0502500306	0.06951363246	
576.875	0.2929213892	-0.5099983544	
577.5	-0.1868092144	-0.5501434976	
578.125	-0.1368696832	-0.1525978115	
578.75	0.02802702587	-0.4017866051	
579.375	-0.4550407141	-0.2544557183	
580.0	0.102605781	0.07935758992	
580.625	-0.3809292387	-0.2344015749	
581.25	0.005853601667	0.2709378465	
581.875	-0.2891988667	0.1637735207	
582.5	0.1308297646	0.7494222674	
583.125	0.4230491632	-0.1741920623	
583.75	-0.2881476501	0.2990952642	
584.375	0.4830073775	-0.1632679829	
585.0	-0.1327890945	0.332491171	
585.625	0.7418786261	-0.07108271425	
586.25	0.03425000679	-0.2296929637	
586.875	0.5527469771	-0.1613858628	
587.5	-0.2534436758	-0.5520061499	
588.125	-0.0207668274	-0.008456504533	
588.75	0.3877918378	-0.4086924785	
589.375	0.01603800555	-0.5653813465	
590.0	-0.006989097056	-0.2349737722	
590.625	-0.4414351035	-0.3491725894	
591.25	-0.2590131295	0.4091133415	
591.875	-0.1163976718	0.1193405915	
592.5	-0.02392094694	0.2879378016	
593.125	-0.0918652648	-0.09400084735	
593.75	0.1180611583	0.5466243914	
594.375	0.5353588266	0.04243906171	
595.0	0.03331517308	0.1384806859	
595.625	0.4959290051	0.6790921551	
596.25	0.447478629	-0.3223043985	
596.875	0.1194785106	0.4412096756	
597.5	0.6873610662	0.2072753669	
598.125	0.02138629923	0.09755991356	
598.75	0.6662263868	0.5637708312	
599.375	0.2881672267	-0.2911560215	
600.0	0.417087289	-0.05432372271	
600.625	0.5716293043	-0.453166664	
601.25	0.05397790915	-0.5611073751	
601.875	-0.03547422635	-0.3175256871	
602.5	-0.2916648664	-0.1359962182	
603.125	-0.3402283512	0.14215554	
603.75	-0.1417097083	0.1487632139	
604.375	-0.344286496	0.094696032	
605.0	-0.1284001938	0.2780950967	
605.625	-0.1951056615	-0.04777272006	
606.25	-0.3690701633	0.3508096422	
606.875	-0.1365974882	0.04669061329	
607.5	-0.9608773441	0.3205546233	
608.125	0.3618422487	0.681448922	
608.75	-0.02105886547	0.4402829385	
609.375	0.9240607351	-0.0005990710937	
610.0	0.04302260631	-0.2817674522	
610.625	0.5897791916	-0.3179160686	
611.25	-0.2379119332	-0.4131602071	
611.875	0.08172143066	-0.246850076	
612.5	-0.7420777014	-0.05352900222	
613.125	-0.2423287667	-0.02220628775	
613.75	-0.3723397575	0.3916931876	
614.375	0.2858118491	0.04893309049	
615.0	-0.01979876618	0.475323776	
615.625	0.1079118836	-0.01659662212	
616.25	-0.4092358668	0.3781750621	
616.875	0.06061552016	0.727880454	
617.5	-0.2547236263	0.09315053497	
618.125	-0.2229327251	0.78464529	
618.75	0.2818766771	0.3348047496	
619.375	-0.05623181037	0.4679111024	
620.0	0.544366581	0.01557712086	
620.625	0.2848271857	-0.1771144325	
621.25	-0.2081707393	-0.5756034888	
621.875	-0.3553797228	-0.1671782261	
622.5	-0.6852452019	0.05043739922	
623.125	-0.02490166434	0.4080324801	
623.75	0.1921607834	0.2720807451	
624.375	0.06243035406	-0.4185292405	
625.0	0.1860483166	0.2639188801	
625.625	0.02218662481	-0.6057804466	
626.25	0.07466171518	0.03608822777	
626.875	-0.3852193713	-0.523841876	
627.5	-0.4332957749	0.1346463273	
628.125	0.02826120117	-0.3036578418	
628.75	-0.4867310838	-0.3911842832	
629.375	0.004937943821	-0.1778039546	
630.0	-0.4788648195	-0.4873921221	
630.625	-0.6274826658	0.2998921839	
631.25	-0.187043867	0.300282043	
631.875	-0.2699909852	0.5678119229	
632.5	0.3311935037	0.545844754	
633.125	0.5623685884	0.04693069717	
633.75	0.2741033771	-0.01285215574	
634.375	0.2666382724	-0.4930197903	
635.0	-0.006054848317	-0.108970242	
635.625	-0.3450243302	-0.4228388126	
636.25	-0.350706433	0.3439280497	
636.875	-0.133984773	-0.07539335549	
637.5	-0.3285409169	0.5724274073	
638.125	0.2255103742	-0.002639257404	
638.75	-0.6792236954	0.2960890097	
639.375	0.1764208159	0.8969323195	
640.0	0.3487680357	0.2390430077	
640.625	0.3431207596	0.7451690477	
641.25	0.9093331271	-0.2084452772	
641.875	0.2349359232	-0.08521801739	
642.5	0.3185322419	-0.8901643368	
643.125	-0.48553032	0.1295405617	
643.75	0.06336042526	-0.4064450281	
644.375	-0.7793319101	-0.005670098644	
645.0	-0.1400105673	0.477548548	
645.625	-0.08076264842	0.1816715614	
646.25	0.5368164981	0.6619727053	
646.875	0.1680459328	-0.4045637852	
647.5	0.04760670145	0.4868086584	
648.125	0.5510787025	-0.3463397366	
648.75	0.2814026225	0.4745751868	
649.375	1.047880498	-0.9047363263	
650.0	-0.2304543704	-0.8615752273	
650.625	0.5763241772	0.111604527	
651.25	1.132496268	-1.040409299	
651.875	-0.1155888695	-0.6629154671	
652.5	0.7080796329	0.4244376657	
653.125	1.009655823	-0.6367391257	
653.75	0.02941196817	-0.2455842767	
654.375	0.4916829755	-1.039968408	
655.0	-1.040011768	-0.03812307166	
655.625	-0.009265937091	0.259647912	
656.25	-0.4537120144	0.4203153045	
656.875	0.5356502262	0.3123081084	
657.5	-0.3632570891	0.05244290339	
658.125	0.5492640247	0.6651532198	
658.75	0.6597119364	-0.02484195105	
659.375	0.5506237162	0.05168143662	
660.0	0.9806904869	-0.9918870084	
660.625	-0.1207249958	-0.6478232955	
661.25	0.683029431	-0.3086263683	
661.875	0.8787483658	-0.9326361447	
662.5	0.1085958902	-0.7805831664	
663.125	0.7124573504	0.251341763	
663.75	0.5204940124	-1.192864248	
664.375	-0.1627946166	-0.2883209383	
665.0	-0.4688914987	-1.038146905	
665.625	-0.7039863546	0.662261125	
666.25	-0.4064491944	0.1614583227	
666.875	0.1892068309	0.8388610251	
667.5	0.6362137087	0.02911360161	
668.125	0.1299716763	0.103606906	
668.75	0.8347796182	-0.2240691515	
669.375	0.03278494912	-0.6678709061	
670.0	0.08042918488	-0.3144367636	
670.625	0.1680211298	-0.6421009597	
671.25	-0.1637307917	-0.3137207011	
671.875	0.6056025785	-0.366983313	
672.5	0.4549449746	-0.5316202668	
673.125	0.2393742654	-0.355928677	
673.75	0.6330201659	-0.07284223923	
674.375	0.2880239263	-1.197677515	
675.0	-0.5083640261	0.004182720878	
675.625	-0.05930722312	-0.8370760136	
676.25	-0.8880512849	0.1464182925	
676.875	0.2296041838	-0.1005774442	
677.5	-1.013319727	0.1465055497	
678.125	0.1861729846	0.120421527	
678.75	-0.4624446363	0.5498129225	
679.375	1.027043813	0.2568732405	
680.0	-0.06523705295	-0.4399656958	
680.625	0.3291464459	0.224389219	
681.25	0.4214868575	-0.2633049915	
681.875	0.1657203488	-0.05224465089	
682.5	0.2685867975	0.5112292521	
683.125	0.902089547	0.110687372	
683.75	0.4297180523	0.07440046998	
684.375	0.6041938593	0.4646981102	
685.0	1.107945986	-0.2063057647	
685.625	0.0009693192894	0.2047992783	
686.25	1.434922922	0.2307533808	
686.875	0.2785579711	-0.9757487824	
687.5	0.7958174856	0.2861651774	
688.125	0.2567782225	-1.967928624	
688.75	-0.8930030941	0.3297112375	
689.375	-1.290559681	0.009713926581	
690.0	0.7786696758	1.077358878	
690.625	-0.01349852947	0.2638530914	
691.25	1.144722566	1.203883761	
691.875	0.8416209028	0.3343675968	
692.5	1.242629676	0.7893361208	
693.125	1.717825575	0.0424488034	
693.75	1.338027977	-0.6114137382	
694.375	1.031053617	-0.9632459181	
695.0	1.005487495	-0.4753009098	
695.625	1.730609979	-0.02760252154	
696.25	1.004495053	0.006422457024	
696.875	0.5045612895	1.447682693	
697.5	1.720934718	1.048250773	
698.125	0.6074532283	0.5874650554	
698.75	1.971675226	-0.8789431908	
699.375	-1.520636403	-0.7367009922	
700.0	-0.7094583269	-0.1202375071	
700.625	0.8169399177	1.165600934	
701.25	0.1683704291	0.1098324046	
701.875	0.7060675659	1.149004922	
702.5	0.7606087026	0.1076768888	
703.125	0.9344192225	0.802220888	
703.75	1.103931006	-0.5120718986	
704.375	0.3552228645	-0.03696665891	
705.0	1.03283368	-0.6184330438	
705.625	0.2488598468	-0.153467255	
706.25	0.5773263404	1.171300861	
706.875	1.122132432	0.360921572	
707.5	0.1065214379	0.8208984407	
708.125	1.531497237	0.660036217	
708.75	0.2421579777	-0.7794542377	
709.375	-0.1501249259	-1.140062732	
710.0	-0.6178534926	0.9579305458	
710.625	-0.05865488341	0.1015640804	
711.25	0.3248052434	0.4691419263	
711.875	0.3848201357	0.3083932099	
712.5	0.8431393708	-0.02930742121	
713.125	0.4898183454	-0.3308719817	
713.75	0.7215312966	-0.661704032	
714.375	-0.2696341232	-0.648404123	
715.0	0.3888622212	-0.2874633163	
715.625	-0.3759293603	-0.9380451666	
716.25	0.2039474156	-0.05966632446	
716.875	1.824080429	-0.4328128311	
717.5	0.9183494661	-1.411905468	
718.125	0.7597237993	1.761666633	
718.75	3.646067335	-0.7125024783	
719.375	0.8744223052	-1.467562325	
720.0	2.490815682	-0.491310146	
720.625	0.4933215806	-4.261618606	
721.25	0.4243504775	-1.175919512	
721.875	0.0316016588	-3.206910889	
722.5	-2.42991397	-1.773328192	
723.125	-1.01246639	-0.5487440577	
723.75	-1.758534229	1.113265158	
724.375	0.4654618073	1.14267478	
725.0	0.3342902558	0.6452487368	
725.625	-0.07912939854	1.202006441	
726.25	0.6314496968	2.536489349	
726.875	0.2987962559	0.9285206074	
727.5	-2.44849429	4.528865212	
728.125	2.503217778	6.405750717	
728.75	-1.469268907	1.629237185	
729.375	-6.21301009	16.68444861	
730.0	7.692788317	6.187013431	
730.625	-8.078440613	3.182371351	
731.25	-7.526681634	21.80387113	
731.875	3.692766838	8.031127659	
732.5	-9.328921733	-4.349551917	
733.125	-8.871418299	1.99469072	
733.75	-1.090726136	3.668906964	
734.375	0.5539543162	2.842881836	
735.0	-0.8292906082	-2.34818876	
735.625	-0.4246357052	-0.2044766675	
736.25	-0.9438766466	1.530530588	
736.875	1.891747814	1.727320453	
737.5	1.778729733	-0.9502856513	
738.125	3.551397213	2.119739005	
738.75	7.693633334	-6.293006706	
739.375	-0.6383228481	-7.680870577	
740.0	7.158576711	7.851351946	
740.625	24.09376308	-13.88034409	
741.25	-11.59478551	-0.6719074859	
741.875	-19.32764965	0.1355171984	
742.5	-4.149896679	6.07347949	
743.125	11.07177698	-2.49652211	
743.75	-0.7337588056	-6.268287467	
744.375	-0.6940397927	0.6839723433	
745.0	-0.3350551262	0.01792307301	
745.625	0.3148055893	-0.303995382	
746.25	0.2065173298	-0.2333337664	
746.875	-0.5714348183	0.2125970575	
747.5	-0.04437646506	0.6650099604	
748.125	0.04574618142	1.304576773	
748.75	1.418065014	1.309229412	
749.375	0.3119136043	1.051938516	
750.0	-1.186000287	0.1061255495	
