!Created with skrf (http://scikit-rf.org).
# GHz S RI R (50+0j) 
!freq	ReS11	ImS11	
500.0	0.2237684248	-0.4785612866	
500.625	0.7574317981	-1.37168813	
501.25	-0.6282380258	-0.3976736393	
501.875	0.0727883515	-0.4621709289	
502.5	-0.1086203722	-0.1934974647	
503.125	-0.03828238804	0.01631439195	
503.75	-0.0480383682	0.1506689895	
504.375	0.02612244204	-0.03805141022	
505.0	0.02904602958	0.0114616985	
505.625	-0.02959421465	-0.09782431125	
506.25	0.0279976238	0.02341961358	
506.875	-0.367600388	-0.08360929243	
507.5	-0.06819852787	0.07939324894	
508.125	0.550750561	-0.6143136551	
508.75	0.3041332311	-1.307657435	
509.375	-0.2360436796	-0.7739756478	
510.0	-0.3966316219	-0.5498179626	
510.625	-0.3452311597	-0.1261626463	
511.25	-0.06416825986	-0.08705492079	
511.875	-0.1663035042	-0.07108519148	
512.5	0.001944421171	0.05246422231	
513.125	0.03632045189	-0.0577861311	
513.75	-0.1047000568	-0.100116961	
514.375	-0.03250052588	0.07349894601	
515.0	0.05505294588	-0.3680908126	
515.625	-0.01711989613	0.2523345584	
516.25	0.280832966	-1.018514411	
516.875	-0.5545680247	-0.5390375406	
517.5	0.04062602887	-0.01767629448	
518.125	-0.06328635779	-0.1015734685	
518.75	-0.06922256848	0.007537870675	
519.375	-0.06806085751	0.003424355178	
520.0	0.1593996543	0.07695894797	
520.625	0.1275495367	-0.06336833973	
521.25	0.06543179585	-0.1603344966	
521.875	-0.2381212875	-0.09123998503	
522.5	-0.03481128714	0.06372550853	
523.125	-0.1188184198	-0.05366396026	
523.75	-0.1832568811	0.09099794041	
524.375	-0.02831799825	-0.06105518615	
525.0	-0.1676762524	0.2350742504	
525.625	0.1346143056	-0.0286999739	
526.25	-0.08003789976	0.04584121232	
526.875	0.01878058932	0.02474485518	
527.5	-0.1609056824	0.1522467343	
528.125	0.1764032925	0.2851897209	
528.75	0.1006320049	0.0697895081	
529.375	-0.02933274647	0.1522534596	
530.0	0.1812939378	0.07474512231	
530.625	0.2094237401	0.2447887652	
531.25	0.5526047809	0.1105132199	
531.875	0.07577651985	-0.226970423	
532.5	0.08680099482	-0.1312804449	
533.125	0.004263663983	-0.2082926317	
533.75	0.1991062521	-0.09235975139	
534.375	-0.1870706533	-0.3662986395	
535.0	-0.2004266316	-0.01928860902	
535.625	-0.1779980121	0.03127620167	
536.25	0.01090093452	0.1298238125	
536.875	0.05262781603	-0.009733070351	
537.5	0.1102545297	-0.02652651176	
538.125	0.08923513276	-0.1113710443	
538.75	0.125883933	-0.04752085822	
539.375	-0.08889360304	-0.233034787	
540.0	-0.1942686418	-0.0776367259	
540.625	-0.1377591915	0.007314476294	
541.25	-0.1351792108	0.004001299851	
541.875	-0.04948403276	0.02967579403	
542.5	-0.05436452755	-0.1160102193	
543.125	-0.2124607411	-0.03558446757	
543.75	-0.03667134745	-0.0307043894	
544.375	-0.07583285315	0.09711660317	
545.0	0.03943364764	0.01153998733	
545.625	0.004340798796	0.1390217887	
546.25	0.1311086664	-0.02874431884	
546.875	0.07773589795	0.01945094645	
547.5	0.1169803507	-0.1696734486	
548.125	-0.1241093969	-0.1306084877	
548.75	-0.06083912684	-0.1222559665	
549.375	-0.1570082323	-0.1005041412	
550.0	-0.04581367501	0.05043163451	
550.625	-0.08155259541	-0.03788128148	
551.25	-0.05717222258	0.06650669663	
551.875	-0.08219838145	0.03116150418	
552.5	-0.05621699967	0.1083806463	
553.125	0.007522835119	0.05651894959	
553.75	0.04496399146	0.05997649938	
554.375	0.09647264848	-0.01079048604	
555.0	0.09894443297	-0.06499542972	
555.625	0.09800110066	-0.1133579163	
556.25	0.0633927561	-0.1514704828	
556.875	-0.03571460261	-0.1631176946	
557.5	-0.1002664806	-0.1123002239	
558.125	-0.1288105035	-0.04318936894	
558.75	-0.1115755279	0.00128905212	
559.375	-0.1166061305	0.01279007984	
560.0	-0.1093056927	0.0895966612	
560.625	-0.03363414408	0.1045112927	
561.25	-0.02042594997	0.1043886847	
561.875	0.06088417393	0.05022187887	
562.5	-0.03362932273	0.04296542037	
563.125	0.1155891262	0.09333819888	
563.75	0.1058738672	-0.01906878776	
564.375	0.1704123111	-0.06737685594	
565.0	0.06167936752	-0.2001617019	
565.625	-0.04116426724	-0.103254368	
566.25	-0.1070581379	-0.1701017205	
566.875	-0.1846220814	-0.03375933671	
567.5	-0.0521280505	-0.1092117754	
568.125	-0.1870931792	-0.2207005871	
568.75	-0.203422304	0.05037000195	
569.375	-0.2275969561	-0.009939678288	
570.0	-0.1621162058	0.2985396827	
570.625	0.02778586106	0.1318030873	
571.25	-0.09788272136	0.1323332337	
571.875	0.1555361725	0.04855821319	
572.5	0.03783172505	0.07870201262	
573.125	0.1742860945	-0.1705103607	
573.75	-0.09169526188	-0.1185610431	
574.375	0.09312772577	0.01085560124	
575.0	-0.02941358211	-0.146135864	
575.625	0.05400003906	0.02506357803	
576.25	0.1148247933	-0.1785910452	
576.875	-0.08988322904	-0.1328576394	
577.5	0.04409488309	-0.07166322536	
578.125	0.002912564008	-0.2803354253	
578.75	-0.1901381488	-0.0602023566	
579.375	0.02237871613	-0.03284249699	
580.0	-0.1582249291	-0.1282038538	
580.625	0.007142360392	0.05137037037	
581.25	-0.2985949937	0.006751909949	
581.875	0.1197063603	0.2434715453	
582.5	0.04351638781	0.01822617365	
583.125	0.007637823371	0.1800834193	
583.75	0.1382788214	-0.09368776652	
584.375	-0.0761525988	0.1314711449	
585.0	0.2182997503	0.04963525475	
585.625	0.06744294477	-0.04837911892	
586.25	0.2528314785	0.01985472916	
586.875	0.03989278068	-0.2461129275	
587.5	-0.0005930321328	-0.04760551812	
588.125	0.05025723826	-0.2112144186	
588.75	-0.04868364151	-0.1750777473	
589.375	0.08572019434	-0.04605170403	
590.0	-0.06812435036	-0.2867971048	
590.625	-0.1760801797	0.06219824902	
591.25	-0.1288242113	-0.02323496231	
591.875	-0.09508196695	0.2147051404	
592.5	0.106322174	-0.02842305801	
593.125	-0.1166317649	0.1792473566	
593.75	0.09514836751	-0.02711816077	
594.375	0.04852515057	0.1706513816	
595.0	0.2636370164	0.1680608497	
595.625	0.1108843695	-0.02801188224	
596.25	0.1740488358	0.1484231833	
596.875	0.2362307191	-0.01493148352	
597.5	0.0803577573	0.02373033377	
598.125	0.1356510352	0.218708881	
598.75	0.1880536231	0.02195763802	
599.375	0.1399637511	0.00194556773	
600.0	0.2470433672	-0.1343038753	
600.625	0.1006006201	-0.2641345244	
601.25	0.02075908652	-0.1193377483	
601.875	-0.03566311621	-0.2343250017	
602.5	-0.1681187574	0.07070273233	
603.125	-0.05009850755	-0.04457722163	
603.75	-0.2389006687	0.1257804791	
604.375	0.07553962157	0.0505228427	
605.0	-0.1503434754	-0.01675741828	
605.625	-0.08039980849	0.1876054463	
606.25	-0.01801678632	-0.007309259157	
606.875	-0.2201906565	0.2344237058	
607.5	-0.05480200798	0.24424928	
608.125	-0.07179386702	0.2175269839	
608.75	0.2185765025	0.2285536752	
609.375	0.2343162697	-0.02042261896	
610.0	0.1434361262	-0.03203314545	
610.625	0.162772828	-0.2199167757	
611.25	-0.1018619712	-0.1275891229	
611.875	-0.01909169149	-0.05363460439	
612.5	-0.2741299173	-0.0774036855	
613.125	-0.07721769634	0.08859816997	
613.75	-0.1820092565	0.0635555749	
614.375	0.1291829596	0.2068315878	
615.0	-0.02882162702	-0.07131429245	
615.625	-0.01480874294	0.2369102733	
616.25	0.03225891916	0.04290544613	
616.875	-0.1647405607	0.1414365139	
617.5	-0.09377645123	0.3597324915	
618.125	0.1116123263	0.1613484462	
618.75	0.04906581685	0.2360877238	
619.375	0.149681682	0.179006909	
620.0	0.139642411	0.01646072232	
620.625	0.2012819626	-0.1089171618	
621.25	-0.1627074082	-0.2410861992	
621.875	-0.2182079594	0.01288952487	
622.5	-0.2600719259	-0.01241664322	
623.125	-0.02395265896	0.2660848494	
623.75	0.1200155164	-0.07833618911	
624.375	0.1208951767	0.01922298547	
625.0	-0.05517842997	-0.08004028055	
625.625	0.113488762	-0.03795123045	
626.25	-0.1011161483	-0.2094154708	
626.875	-0.1207402925	0.005173470744	
627.5	-0.1175216084	-0.1104673585	
628.125	-0.1959406062	-0.04698893604	
628.75	-0.03204282029	-0.05114980963	
629.375	-0.06566387295	-0.2405524363	
630.0	-0.227116808	-0.1091573139	
630.625	-0.1883089185	0.03144450764	
631.25	-0.1895220337	0.1468164933	
631.875	0.03458677514	0.2806707793	
632.5	0.1857535265	0.05293834856	
633.125	0.208290906	0.1384484305	
633.75	0.1566769295	-0.1491812097	
634.375	0.04928714768	-0.03893417659	
635.0	0.03132682379	-0.2546442224	
635.625	-0.1742616683	0.03584074557	
636.25	-0.121321563	-0.03607065444	
636.875	-0.1217349311	0.2298971775	
637.5	0.05157458883	0.04954565625	
638.125	-0.1738932393	0.06431647303	
638.75	0.003254602317	0.2582563419	
639.375	-0.03490082394	0.1396358219	
640.0	0.09880688639	0.3633072449	
640.625	0.3441057995	0.1096069514	
641.25	0.1705978894	0.005759152053	
641.875	0.3247594385	-0.17779774	
642.5	-0.1265508029	-0.2440221932	
643.125	-0.0389253889	0.05232982342	
643.75	-0.1719522595	-0.1986368885	
644.375	-0.1218676828	0.1219543833	
645.0	-0.211156845	0.02470769993	
645.625	0.09363372625	0.4769243149	
646.25	0.1930075052	-0.08255368837	
646.875	0.0360490936	0.123166989	
647.5	0.2203914571	-0.1324945946	
648.125	-0.04043516341	0.1955702884	
648.75	0.4673870122	-0.1132523282	
649.375	0.06745167036	-0.3289495262	
650.0	0.1963002217	-0.1232732295	
650.625	0.2979371569	-0.4240331197	
651.25	-0.04066088922	-0.3061079283	
651.875	0.2791080695	0.02673749204	
652.5	0.4387939588	-0.1853459237	
653.125	0.1304377869	-0.179948679	
653.75	0.3037392885	-0.06806273957	
654.375	-0.1286957767	-0.4488267599	
655.0	-0.2505965689	0.05328873846	
655.625	-0.2174738223	-0.002115723477	
656.25	0.06505009984	0.4544702849	
656.875	0.05537629748	-0.1288459463	
657.5	0.02607612295	0.2795598893	
658.125	0.2398874448	0.050473235	
658.75	0.05843882241	0.2061351746	
659.375	0.5840064975	-0.1198688389	
660.0	0.08958906088	-0.3923744414	
660.625	0.2122011397	-0.1712090899	
661.25	0.2704172732	-0.4149291904	
661.875	0.08430055341	-0.3415082664	
662.5	0.2710177928	-0.04177056891	
663.125	0.3820153221	-0.2932765521	
663.75	0.0241066501	-0.2496827038	
664.375	0.09992172558	-0.310129906	
665.0	-0.3968522094	-0.2888734688	
665.625	-0.2182630205	0.1524886425	
666.25	-0.2030400212	0.1977433178	
666.875	0.1836609406	0.3041249067	
667.5	0.1425333712	-0.05832183905	
668.125	0.2675101898	0.167406592	
668.75	0.1925557437	-0.2742133507	
669.375	0.02913387456	-0.1049835746	
670.0	0.185080287	-0.3092562785	
670.625	-0.1438697403	-0.2698497028	
671.25	0.235936986	0.02802847423	
671.875	0.2426752336	-0.3032807451	
672.5	0.1211488653	-0.2199721391	
673.125	0.1911719527	-0.04664819618	
673.75	0.2890490715	-0.3192192955	
674.375	-0.08805243139	-0.2297356145	
675.0	0.05544050166	-0.2578243695	
675.625	-0.2793758546	-0.2214774644	
676.25	-0.15487034	0.1008839252	
676.875	-0.1219146645	-0.158243687	
677.5	-0.218883646	0.1406508225	
678.125	-0.03460868624	0.06490801524	
678.75	-0.1387772367	0.2667486392	
679.375	0.4036134511	0.06185871428	
680.0	-0.03889683847	-0.08355972454	
680.625	0.2340530634	0.002486844194	
681.25	0.02455362108	-0.2606340761	
681.875	-0.04135187024	0.1846282577	
682.5	0.4807802489	0.1964617007	
683.125	0.02181348864	-0.1540727538	
683.75	0.1487996284	0.23400531	
684.375	0.4991758894	-0.1011195311	
685.0	0.123247327	-0.1736288422	
685.625	0.3370064749	0.2804689064	
686.25	0.4557956438	-0.2084397105	
686.875	0.2384535123	-0.07842987043	
687.5	0.4434567013	-0.1853335457	
688.125	-0.1478921307	-0.6119389727	
688.75	-0.2382271014	-0.09671776829	
689.375	-0.4236228914	0.248075714	
690.0	0.2338107022	0.4590837652	
690.625	0.0873425241	0.1063040554	
691.25	0.3813467362	0.5452947797	
691.875	0.5645913719	0.08833284087	
692.5	0.4007284333	0.3182762147	
693.125	0.9092646332	0.1224995877	
693.75	0.4940408534	-0.4848358452	
694.375	0.3969710709	-0.1146695687	
695.0	0.5712984924	-0.5195556579	
695.625	0.428147751	-0.2486030768	
696.25	0.2692669008	0.2803750693	
696.875	0.534785612	0.2795585964	
697.5	0.3894421915	0.2002838266	
698.125	0.6680493093	0.1933204332	
698.75	0.6030099649	-0.4862776524	
699.375	-0.4744311863	-0.2613807031	
700.0	-0.2477284315	0.2331032805	
700.625	0.20472137	0.447091885	
701.25	0.1672444348	0.04131466797	
701.875	0.1347940743	0.3564481364	
702.5	0.5490690381	0.2971715243	
703.125	0.2749645313	0.002737016901	
703.75	0.4471747899	0.07687838802	
704.375	0.3149487669	-0.3475788935	
705.0	0.06775234619	-0.122465785	
705.625	0.4289742928	0.03086059742	
706.25	0.3228772108	0.01980714492	
706.875	0.08360910731	0.2436076516	
707.5	0.3246270307	0.4416169078	
708.125	0.4586383231	0.1950551496	
708.75	0.3228097552	-0.195221659	
709.375	-0.2842211962	-0.4815078225	
710.0	-0.319455936	0.2953753635	
710.625	0.03162115677	0.04096213239	
711.25	0.1593457402	0.2508887771	
711.875	0.1576201547	-0.01451303654	
712.5	0.3285322398	0.1390452452	
713.125	0.4133466364	-0.2692957315	
713.75	0.03014160958	-0.2304911109	
714.375	0.1553802479	-0.1935268365	
715.0	-0.09162874657	-0.3049787347	
715.625	-0.00719364436	-0.08943626971	
716.25	0.2875350846	-0.1974668876	
716.875	0.3121994314	-0.3677665832	
717.5	0.2707497923	0.07405952018	
718.125	0.7623945185	0.2154450853	
718.75	0.8648996825	-0.2156729079	
719.375	0.4861306051	-0.2778600686	
720.0	0.8295796023	-0.886390188	
720.625	0.005182534195	-1.344190885	
721.25	0.1712039697	-0.5233825955	
721.875	-0.04401706302	-1.275653779	
722.5	-0.7220945149	-0.5127797925	
723.125	-0.5819143404	-0.3941657577	
723.75	-0.7938488608	0.6056914997	
724.375	0.1882864257	0.3606241319	
725.0	-0.05547676057	0.3375317316	
725.625	0.3339070466	0.721406274	
726.25	0.1643677094	0.4160767131	
726.875	-0.4658577456	0.8464124573	
727.5	-0.1064507015	1.818267222	
728.125	0.4364253061	1.404135457	
728.75	-1.334577905	2.19669087	
729.375	-0.8331646475	4.87428709	
730.0	0.714629946	2.601508706	
730.625	-2.020885553	3.622370262	
731.25	-0.6814112204	5.309391498	
731.875	-1.355135084	1.512942731	
732.5	-3.827116888	-1.358010592	
733.125	-3.252130847	0.8024766612	
733.75	0.0133435682	1.004781637	
734.375	0.3718174537	1.183564517	
735.0	-0.2429536617	-0.8518026979	
735.625	-0.2127067403	0.003849678228	
736.25	-0.4927625317	0.8140645364	
736.875	0.8548686666	0.407729714	
737.5	0.3724624952	0.5240573553	
738.125	2.446984745	0.005249756675	
738.75	1.195586639	-2.1635515	
739.375	0.8209120474	-0.2873422187	
740.0	5.587396296	1.417462473	
740.625	3.523327539	-3.860790489	
741.25	-3.162758782	1.401261182	
741.875	-8.025169821	3.47516043	
742.5	-1.004703684	0.457335085	
743.125	2.137972792	-2.015656214	
743.75	-0.2475983292	-1.587242965	
744.375	-0.2896103399	0.1337521528	
745.0	-0.2404286045	0.1000960201	
745.625	0.05652349243	-0.1592891216	
746.25	0.07904733173	-0.1049395716	
746.875	-0.3797315095	0.03094290221	
747.5	0.006474232854	0.3211594021	
748.125	-0.1331419394	0.398977791	
748.75	0.2791945117	0.6759381388	
749.375	0.2407379658	0.3747093662	
750.0	-0.4086433944	0.06757877197	
