!Created with skrf (http://scikit-rf.org).
# GHz S RI R (50+0j) 
!freq	ReS11	ImS11	
500.0	0.5481045586	-1.116427172	
500.625	-0.2643929473	-0.7657137811	
501.25	0.1838591895	-0.5096243741	
501.875	-0.4407712885	-0.4108197648	
502.5	-0.009840837772	-0.06060481506	
503.125	-0.08712539411	-0.01056438278	
503.75	0.05392504608	0.04981289225	
504.375	0.02722251358	0.03867810671	
505.0	0.01281234693	-0.05453412425	
505.625	-0.01278797562	0.004301575214	
506.25	-0.04058120316	-0.1387003976	
506.875	0.04446726642	0.1879845829	
507.5	0.1741656774	-0.4199795726	
508.125	-0.2287645274	-0.6650917641	
508.75	0.4175082502	-0.2841371696	
509.375	-0.263759467	-1.426105582	
510.0	-0.5479606285	0.09404714904	
510.625	-0.006789632828	-0.1226770642	
511.25	-0.1012014555	-0.03739313354	
511.875	-0.1183117366	0.008318227374	
512.5	-0.04098569672	0.01473759004	
513.125	-0.0297707903	-0.07903071828	
513.75	-0.03374739764	0.01549465595	
514.375	-0.04808896631	-0.07891761564	
515.0	-0.1021117679	0.1787752187	
515.625	0.127063531	-0.6898453956	
516.25	-0.899038097	-0.2341849031	
516.875	0.04104825441	-0.1534453191	
517.5	0.0103000893	-0.2708710379	
518.125	-0.01726668316	0.04376867861	
518.75	-0.04643236627	-0.1861937808	
519.375	-0.05124346454	0.05286949333	
520.0	0.06235597566	-0.0006881493799	
520.625	0.1464781665	-0.03144770283	
521.25	-0.05888959355	-0.1958544425	
521.875	-0.08031501488	0.03785210405	
522.5	-0.06299993357	-0.0325551996	
523.125	-0.08319848973	0.08899119875	
523.75	0.003624873659	-0.05876414411	
524.375	-0.2802443019	0.004350439175	
525.0	0.08984113943	0.1061486422	
525.625	-0.04780580852	0.02405634514	
526.25	0.07206844347	-0.03542893399	
526.875	-0.1124214888	0.03543883371	
527.5	0.03242995627	0.2295312789	
528.125	0.03595136476	0.09235835374	
528.75	0.03264289416	0.257754526	
529.375	0.07314665649	0.02157133332	
530.0	0.06163483454	0.1449661228	
530.625	0.2093337786	0.3280100437	
531.25	0.4957695163	0.04776364224	
531.875	0.2009106875	-0.134495112	
532.5	-0.1117107235	-0.1474705311	
533.125	0.1184605019	0.04159541675	
533.75	0.1532605101	-0.3225953285	
534.375	-0.1185604942	-0.1357132116	
535.0	-0.188265931	-0.1406564493	
535.625	-0.1626112252	0.1651903474	
536.25	0.02317450857	0.04613984376	
536.875	0.08656537833	0.04577481949	
537.5	0.04844018427	-0.0699505148	
538.125	0.08608016867	0.006288927512	
538.75	0.1378382394	-0.1530436977	
539.375	-0.07590594727	-0.09257156207	
540.0	-0.08196860301	-0.1529231569	
540.625	-0.1989544856	-0.03101229493	
541.25	-0.1153087379	0.03755117878	
541.875	-0.01216976381	-0.03552637169	
542.5	-0.1144969207	-0.06829740145	
543.125	-0.02649859292	-0.05665357847	
543.75	-0.1575173009	-0.08362072432	
544.375	0.0113069161	0.0485587772	
545.0	-0.031901087	0.07822629799	
545.625	0.1059373993	0.01912153247	
546.25	0.009893283075	0.03525384576	
546.875	0.1602244782	-0.02915678782	
547.5	0.005991043975	-0.1175818615	
548.125	0.004476562983	-0.1128769417	
548.75	-0.1361975867	-0.1619876914	
549.375	-0.1084208588	-0.001573024849	
550.0	-0.06899024102	-0.03254547557	
550.625	-0.04346743701	0.05223620643	
551.25	-0.05792416397	-0.008781273789	
551.875	-0.07976041534	0.08784789778	
552.5	-0.009201752386	0.05879315269	
553.125	-0.02334068321	0.05620796614	
553.75	0.06190259825	0.0379694052	
554.375	0.07271931521	-0.00642381351	
555.0	0.08889459366	-0.07000244167	
555.625	0.06420068626	-0.1058614548	
556.25	0.05154446329	-0.1248988395	
556.875	-0.03571017939	-0.1430559089	
557.5	-0.09564844067	-0.08749105834	
558.125	-0.1023268383	-0.02597770831	
558.75	-0.09767101681	-0.00410629139	
559.375	-0.1084981932	0.0254354871	
560.0	-0.07328272091	0.07268090763	
560.625	-0.06084709643	0.08896569548	
561.25	0.0249839067	0.1134487969	
561.875	0.01367055101	0.01509459205	
562.5	0.02884071675	0.07909951003	
563.125	0.04924005799	0.0251945212	
563.75	0.1325799066	0.03523344397	
564.375	0.1245339515	-0.1318722099	
565.0	0.02473553856	-0.1085671723	
565.625	0.01581736597	-0.1488868169	
566.25	-0.1798793809	-0.087989353	
566.875	-0.06911058735	-0.05251219103	
567.5	-0.1519085316	-0.1565214227	
568.125	-0.171787976	-0.04715998964	
568.75	-0.1590650548	-0.1185955646	
569.375	-0.275844312	0.194910913	
570.0	-0.003083858877	0.1543045208	
570.625	-0.1456063295	0.1040784842	
571.25	0.03996130722	0.1902540289	
571.875	-0.01829362227	-0.01068945564	
572.5	0.1892429496	0.04238843472	
573.125	-0.02247535234	-0.1534999118	
573.75	0.06511192592	-0.01134793456	
574.375	0.005192802944	-0.1724457361	
575.0	-0.01169695479	0.05310188712	
575.625	0.09390576441	-0.1451531063	
576.25	-0.04467225558	-0.1141369188	
576.875	0.02259542142	-0.04468648286	
577.5	0.05145445775	-0.2081655701	
578.125	-0.1502458707	-0.1408448609	
578.75	-0.003002002961	-0.02385825092	
579.375	-0.09709599158	-0.1596762536	
580.0	-0.09015470094	0.1042595411	
580.625	-0.06644202613	-0.1785770661	
581.25	-0.06685318119	0.1834185885	
581.875	-0.02148674243	-0.03969356223	
582.5	-0.05787563075	0.2118917261	
583.125	0.1767418384	0.09418116362	
583.75	-0.05980454005	-0.03889791807	
584.375	0.1422333432	0.1057034185	
585.0	0.05281475557	-0.04359868313	
585.625	0.1325488133	0.09351359568	
586.25	0.1744427182	-0.1503368948	
586.875	0.02527339166	-0.02247568996	
587.5	0.05082647117	-0.1812144486	
588.125	-0.1054726154	-0.148058891	
588.75	0.03736647595	-0.02948366666	
589.375	0.1301617067	-0.1891308403	
590.0	-0.14153238	-0.1107313555	
590.625	-0.08599674555	-0.06122743716	
591.25	-0.2123767051	0.1382598619	
591.875	0.1185634967	0.1022385007	
592.5	-0.08854501647	0.01568172632	
593.125	0.06447479297	0.07115809783	
593.75	-0.04336562677	0.08945479886	
594.375	0.2821324365	0.1141682604	
595.0	0.1315220997	-0.03546048222	
595.625	0.06570815974	0.1192128434	
596.25	0.2281250469	0.01853760931	
596.875	0.0654559249	-0.009292259653	
597.5	0.1105132415	0.1525449279	
598.125	0.2126794401	0.05511455309	
598.75	0.08506027001	0.04143541024	
599.375	0.2257664713	-0.06441418856	
600.0	0.1218986793	-0.197121047	
600.625	0.05677348425	-0.114567541	
601.25	0.1380462897	-0.156332979	
601.875	-0.1510637742	-0.1548545541	
602.5	-0.02831809608	0.009109263329	
603.125	-0.1889383509	0.03224360343	
603.75	0.03710187154	0.1228359959	
604.375	-0.09519081115	-0.03147022839	
605.0	-0.08400504475	0.2074271721	
605.625	0.04866715465	-0.01811463041	
606.25	-0.2041452888	0.06138677096	
606.875	-0.1245776113	0.1889563089	
607.5	-0.189716373	0.1080239336	
608.125	-0.04017604756	0.2687114963	
608.75	0.1597499619	0.1073204998	
609.375	0.1412672721	-0.01503420728	
610.0	0.1319594509	-0.1319263866	
610.625	0.008343993234	-0.1513740548	
611.25	0.01234692356	-0.08932504161	
611.875	-0.1575504384	-0.1690457689	
612.5	-0.2040467516	0.04597464797	
613.125	-0.145663966	-0.04988922496	
613.75	-0.1321442851	0.218529491	
614.375	0.1252913054	-0.005412384418	
615.0	-0.04329457714	0.1392780025	
615.625	0.1120240218	0.06346241805	
616.25	-0.09980278481	0.05215003189	
616.875	-0.03087985473	0.2611849304	
617.5	-0.02547432189	0.1084034243	
618.125	-0.09390169978	0.1721058697	
618.75	0.08016018277	0.2232736052	
619.375	0.08702412588	0.1861574176	
620.0	0.1483177069	-0.06244371163	
620.625	0.1064962644	-0.1662838153	
621.25	-0.1137359865	-0.07414292927	
621.875	-0.1132808775	-0.071015625	
622.5	-0.301914096	0.03647762838	
623.125	0.06828265301	0.1458208462	
623.75	0.07137261301	0.0799088078	
624.375	0.07702997803	-0.150318252	
625.0	0.02091752638	0.04370064177	
625.625	0.07376621743	-0.1499493667	
626.25	-0.110697321	-0.06855351577	
626.875	-0.05918921241	-0.101378255	
627.5	-0.2022708998	-0.05120895314	
628.125	-0.1011674693	-0.01601923185	
628.75	-0.02587036248	-0.1331158056	
629.375	-0.1598932667	-0.1410688569	
630.0	-0.1445622433	-0.0324100167	
630.625	-0.1276629401	0.01937515124	
631.25	-0.1203288684	0.2192430263	
631.875	0.0627268958	0.1849005844	
632.5	0.118369533	0.2079508109	
633.125	0.3361568878	0.01792439753	
633.75	0.07196556786	-0.08319428691	
634.375	0.09609240668	-0.1404847315	
635.0	-0.1730782234	-0.1690122699	
635.625	-0.04094974561	-0.05061254235	
636.25	-0.2416057909	0.07960947132	
636.875	0.03686064525	0.174087185	
637.5	-0.05105638726	0.01231267877	
638.125	-0.06844035802	0.1738601325	
638.75	0.0484756588	0.06451291161	
639.375	-0.07106297588	0.2493708291	
640.0	0.2410166711	0.2126857942	
640.625	0.1617332085	0.02554280021	
641.25	0.2610185549	0.06228092745	
641.875	0.1259968436	-0.282423219	
642.5	-0.1049369806	-0.1064453376	
643.125	-0.07163323408	-0.1687934094	
643.75	-0.3497148918	-0.02731322496	
644.375	0.02418781171	0.02250219443	
645.0	-0.2458450574	0.1920546192	
645.625	0.2189719471	0.1653064518	
646.25	-0.07448915209	0.04488922443	
646.875	0.2513270781	0.0100047274	
647.5	-0.0994402796	-0.04012344153	
648.125	0.2954021788	0.1530800283	
648.75	0.1632365967	-0.2479957756	
649.375	0.1046248116	-0.1039679642	
650.0	0.3039373252	-0.2806443198	
650.625	-0.02607554724	-0.4308011717	
651.25	0.0694928216	-0.07707751762	
651.875	0.3709253484	-0.186286648	
652.5	0.17169919	-0.2731656701	
653.125	0.1652064449	0.009842684508	
653.75	0.2140658492	-0.3544487828	
654.375	-0.2173974698	-0.1558861158	
655.0	-0.1586887765	-0.1098295247	
655.625	-0.3469404747	0.2631788133	
656.25	0.2175715506	0.09220912128	
656.875	-0.1284899998	0.04829185855	
657.5	0.2241061585	0.152516888	
658.125	0.05173070475	0.008600207383	
658.75	0.3186193501	0.2035000938	
659.375	0.1830859601	-0.407437125	
660.0	0.09427485015	-0.1405953051	
660.625	0.2124891788	-0.3200504923	
661.25	-0.006316419332	-0.4022361328	
661.875	0.1194461365	-0.06228380798	
662.5	0.3496788715	-0.2488561787	
663.125	0.1093176954	-0.3024531803	
663.75	0.08621998673	-0.1550128152	
664.375	-0.06313544552	-0.4167136098	
665.0	-0.3156841998	-0.01950035415	
665.625	-0.20570553	0.0205633673	
666.25	-0.116200272	0.3319557156	
666.875	0.2171834367	0.09608244409	
667.5	0.06152177352	0.1180665824	
668.125	0.3398005469	-0.09199078656	
668.75	0.003911969448	-0.1627541391	
669.375	0.1922343075	-0.1194132319	
670.0	-0.08263462742	-0.3639264248	
670.625	-0.04279232875	0.05178261852	
671.25	0.1566841698	-0.1907351895	
671.875	-0.03304589505	-0.2461703959	
672.5	0.07129142499	-0.04332733879	
673.125	0.3061325262	-0.2142268709	
673.75	-0.02762925457	-0.2795778041	
674.375	0.03330808065	-0.1267454714	
675.0	-0.08199119562	-0.2912545971	
675.625	-0.2636863076	0.03989567696	
676.25	-0.05180939776	-0.09061777505	
676.875	-0.2484982371	0.04778719011	
677.5	-0.02532787684	0.1172329619	
678.125	-0.1501149975	0.0537277168	
678.75	0.1183530328	0.3279467686	
679.375	0.1768521693	-0.172435282	
680.0	0.09727189595	0.07803862366	
680.625	0.1594431483	-0.1851592282	
681.25	-0.1664569744	-0.01696390207	
681.875	0.3769913204	0.2436274894	
682.5	0.2605753302	-0.17391049	
683.125	0.02763355236	0.1397095138	
683.75	0.4900734906	0.1307041475	
684.375	0.2817075673	-0.2424508608	
685.0	0.2202581032	0.3021960962	
685.625	0.4411358237	-0.1197636321	
686.25	0.161354616	-0.2113977321	
686.875	0.1890395361	-0.01787164293	
687.5	0.1122142823	-0.4705325886	
688.125	-0.2105419016	-0.200902066	
688.75	-0.2988013179	-0.2109209302	
689.375	-0.24830996	0.4699714043	
690.0	0.2261751546	0.1937157334	
690.625	0.1196051279	0.3355054267	
691.25	0.4991859635	0.1320631662	
691.875	0.2352222213	0.06100033755	
692.5	0.5626355661	0.3813225386	
693.125	0.7008499571	-0.3831114708	
693.75	0.231033912	-0.1484974386	
694.375	0.558685438	-0.3872031047	
695.0	0.3625825568	-0.4794811773	
695.625	0.3655586	0.1071763169	
696.25	0.6049969266	0.2190908187	
696.875	0.4526440513	0.04614745616	
697.5	0.4604791429	0.3849765513	
698.125	0.597615476	0.079059031	
698.75	0.149939228	-0.5934503676	
699.375	-0.238143605	-0.1116979817	
700.0	-0.3135627761	0.4081635322	
700.625	0.2989174166	0.3577623759	
701.25	0.09835712139	0.09559000458	
701.875	0.3366726786	0.3108992448	
702.5	0.3722136672	-0.002378505838	
703.125	0.2411695914	0.1620909521	
703.75	0.467299921	-0.1640507502	
704.375	0.1167843706	-0.2816112266	
705.0	0.2423833688	-0.005215020397	
705.625	0.3748558785	-0.08198054835	
706.25	0.153963736	0.1681774759	
706.875	0.2361524188	0.3249904635	
707.5	0.4582558516	0.2347481421	
708.125	0.3359585349	-0.06065317478	
708.75	0.007684813518	-0.3197330138	
709.375	-0.3132643832	-0.1527200422	
710.0	-0.01127919489	0.2083996632	
710.625	-0.07741462298	-0.0332746655	
711.25	0.3492246454	0.1617848892	
711.875	0.0881928994	0.01559578822	
712.5	0.352560397	-0.05223039201	
713.125	0.1602038725	-0.2699615325	
713.75	0.06592305493	-0.07480989028	
714.375	0.03445193593	-0.3122834962	
715.0	-0.1375664385	-0.1489845854	
715.625	0.06662047969	-0.1123030621	
716.25	0.1731610534	-0.3288010864	
716.875	0.1931205346	-0.2488884926	
717.5	0.4113365578	0.0302596227	
718.125	0.7349624824	-0.1644123643	
718.75	0.4921336456	-0.3824625975	
719.375	0.4598741228	-0.3132037331	
720.0	0.6583886115	-1.10089896	
720.625	-0.2670500601	-0.7033694301	
721.25	0.1413361057	-0.7120181262	
721.875	-0.76191073	-1.264397315	
722.5	-0.6448351986	-0.02773348307	
723.125	-0.7547283939	-0.1118559549	
723.75	-0.193814837	0.6864702314	
724.375	0.1459840107	0.162574057	
725.0	0.06615138897	0.4539008782	
725.625	0.4589178453	0.3755055882	
726.25	-0.06243486831	0.3511738951	
726.875	-0.1140415575	0.9832687648	
727.5	0.4435189414	1.23316222	
728.125	0.09537916803	0.9281949168	
728.75	-0.01012742057	2.924490956	
729.375	1.045687321	3.306305807	
730.0	0.2720080649	1.667734925	
730.625	0.0210810863	4.174937823	
731.25	1.648849066	3.219403716	
731.875	-0.8147057238	0.8489060907	
732.5	-3.12211293	1.648825852	
733.125	-1.35401903	2.370038293	
733.75	-0.2947094349	0.3697627063	
734.375	1.476785053	0.356839932	
735.0	-0.5913277408	-0.1848760851	
735.625	-0.2820638323	-0.0739211144	
736.25	-0.008127782568	0.8249981878	
736.875	0.4482952418	-0.2090702821	
737.5	0.7884960691	0.7112672574	
738.125	1.601171033	-1.211228677	
738.75	0.1847169668	-1.295358386	
739.375	1.743598906	0.2501482492	
740.0	4.14164313	-3.094962598	
740.625	-1.058448614	-2.340352425	
741.25	-2.380493098	3.026629789	
741.875	-2.26909088	3.741116294	
742.5	0.6016141443	-0.06121033657	
743.125	0.7091008241	-2.198035094	
743.75	-0.7086785782	-0.8097861991	
744.375	-0.1160794194	0.06777171173	
745.0	0.0642885023	0.2084845545	
745.625	-0.1458686093	-0.03641978603	
746.25	0.04394974181	-0.1640749874	
746.875	-0.2181243767	0.1382291472	
747.5	0.04186317009	0.130335599	
748.125	0.02562487519	0.4680756493	
748.75	0.4488263297	0.3485893237	
749.375	0.155425094	0.2273471295	
750.0	-0.3534049558	0.1893501153	
