!Created with skrf (http://scikit-rf.org).
# GHz S RI R (50+0j) 
!freq	ReS11	ImS11	
500.0	0.1713880973	-1.081338816	
500.625	0.180249766	-0.8086267037	
501.25	-0.3024345699	-0.5700087622	
501.875	-0.25568006	-0.3740909297	
502.5	-0.05583681371	-0.1109591542	
503.125	-0.05975990193	0.006196168896	
503.75	0.01015195784	0.07051954819	
504.375	0.02360928864	-0.005252904601	
505.0	0.01678842445	-0.01733601293	
505.625	0.001261063385	-0.04376066871	
506.25	-0.05644010915	-0.05049193516	
506.875	-0.09506846011	0.002399200035	
507.5	-0.08195730549	-0.2816606652	
508.125	0.07706760514	-0.5514388364	
508.75	0.3686231235	-0.7795036717	
509.375	-0.0366794781	-0.9599832484	
510.0	-0.3182992839	-0.3648139253	
510.625	-0.1376644294	-0.1702055907	
511.25	-0.07043113985	-0.03919431484	
511.875	-0.1036606297	-0.01691902257	
512.5	-0.01161882788	0.02511361529	
513.125	-0.001751074444	-0.03658237206	
513.75	-0.03457788844	-0.04778918414	
514.375	-0.05292061898	-0.01518957729	
515.0	0.008444739769	-0.03396873638	
515.625	-0.01964105647	-0.3091776372	
516.25	-0.1446613846	-0.5354616926	
516.875	-0.1478836299	-0.3308248891	
517.5	-0.03113491727	-0.132533554	
518.125	-0.02540854414	-0.02467057648	
518.75	-0.04514965332	-0.1033046913	
519.375	-0.04586042207	0.03407964459	
520.0	0.09120218768	0.04389508105	
520.625	0.1300367588	-0.04803976737	
521.25	-0.01284275858	-0.2170007099	
521.875	-0.123348869	-0.01769143689	
522.5	-0.0385277004	0.02417881529	
523.125	-0.04943894312	0.02047512439	
523.75	-0.08953265774	-0.005475950519	
524.375	-0.1311596006	0.02764741779	
525.0	-0.03851461794	0.1167705118	
525.625	0.03256554376	0.03912531897	
526.25	-0.01296011931	-0.01129307481	
526.875	-0.04050206353	0.0483274229	
527.5	-0.02653301869	0.1525276396	
528.125	0.05387006031	0.209510922	
528.75	0.03555353663	0.1803443335	
529.375	0.02248276445	0.05286557693	
530.0	0.0211358697	0.125461699	
530.625	0.08851042741	0.2234508314	
531.25	0.3355474411	0.101943526	
531.875	0.2003502803	-0.1550156925	
532.5	-0.04603466968	-0.08996566494	
533.125	0.05903871749	-0.04417559641	
533.75	0.0845095844	-0.1480042994	
534.375	-0.05832665497	-0.2335400676	
535.0	-0.1949446957	-0.0993801153	
535.625	-0.1415025874	0.09091684672	
536.25	0.001203781384	0.08041588676	
536.875	0.08045974641	0.01348836023	
537.5	0.05770765062	-0.040514247	
538.125	0.09238944998	-0.0585494555	
538.75	0.1040463058	-0.1062840712	
539.375	-0.07231359032	-0.1466816527	
540.0	-0.1485609442	-0.1216316006	
540.625	-0.1406262475	-0.02063647064	
541.25	-0.07583637337	0.002648401176	
541.875	-0.04172595624	-0.01756335344	
542.5	-0.03773877672	-0.04724955913	
543.125	-0.06794685501	-0.04420691497	
543.75	-0.0794018618	-0.00231753426	
544.375	-0.03924631894	0.03541976909	
545.0	-0.006183387106	0.05183869013	
545.625	0.0476493027	0.05697731737	
546.25	0.08384605734	0.03233445041	
546.875	0.1053814124	-0.02127149009	
547.5	0.05878904598	-0.1123678743	
548.125	-0.04260682547	-0.1411928629	
548.75	-0.1101531882	-0.1000712954	
549.375	-0.09918263803	-0.05989013633	
550.0	-0.0678833765	0.009688455918	
550.625	-0.04743052625	0.005727075315	
551.25	-0.06841433539	0.02610311879	
551.875	-0.06392140988	0.06094832271	
552.5	-0.04126866499	0.06703842062	
553.125	-0.01178110149	0.05610159141	
553.75	0.04066978174	0.04310668642	
554.375	0.08649287791	-0.001189403388	
555.0	0.08883208768	-0.0641687202	
555.625	0.08096642399	-0.09746521489	
556.25	0.0592163822	-0.1266277461	
556.875	-0.03125468068	-0.144705725	
557.5	-0.09130823188	-0.09506909293	
558.125	-0.1050287876	-0.03405791817	
558.75	-0.1015751436	-0.001912447985	
559.375	-0.1003409236	0.02074361941	
560.0	-0.08931292648	0.07228264694	
560.625	-0.04288445063	0.1017949607	
561.25	0.007344036397	0.09065163584	
561.875	0.02820984663	0.04190299818	
562.5	0.009284071188	0.04935297618	
563.125	0.06536615073	0.0674181387	
563.75	0.1276618398	0.00293844388	
564.375	0.118147808	-0.08840820712	
565.0	0.06584817623	-0.1346730386	
565.625	-0.02844742762	-0.1425383999	
566.25	-0.1054357555	-0.09930283488	
566.875	-0.1251385657	-0.06890387876	
567.5	-0.1260316945	-0.09593593806	
568.125	-0.1332362376	-0.1342253787	
568.75	-0.2009559054	-0.0666864859	
569.375	-0.2089513919	0.08729280051	
570.0	-0.1056510714	0.1813254082	
570.625	-0.04317814872	0.1554053422	
571.25	0.006756249477	0.1041269524	
571.875	0.05376603832	0.06525324645	
572.5	0.112205561	-0.00139914108	
573.125	0.07965058135	-0.101131415	
573.75	0.0363716509	-0.1012875974	
574.375	0.009659023839	-0.06090197656	
575.0	0.02593941032	-0.03648036374	
575.625	0.03364231606	-0.06584712214	
576.25	0.03959714816	-0.09918449972	
576.875	-0.006277822037	-0.1301690507	
577.5	-0.007551439656	-0.1426654273	
578.125	-0.04267061204	-0.139928658	
578.75	-0.07941638981	-0.1096200904	
579.375	-0.08140482511	-0.05566547685	
580.0	-0.0451780616	-0.02686577925	
580.625	-0.06576574052	-0.02572237158	
581.25	-0.09077937892	0.06834362441	
581.875	0.004137416707	0.1399800423	
582.5	0.05471719772	0.1271120013	
583.125	0.07153216785	0.06403608979	
583.75	0.03576409147	0.02047679186	
584.375	0.03282464513	0.04990398927	
585.0	0.09710859119	0.05542653451	
585.625	0.1424203368	-0.002261190381	
586.25	0.1325131711	-0.05652047236	
586.875	0.06997163634	-0.1210303542	
587.5	-0.01334947216	-0.125778732	
588.125	-0.01299080681	-0.1242874788	
588.75	0.02246085084	-0.1333401441	
589.375	0.05150152647	-0.1365173334	
590.0	-0.05278242053	-0.1589689501	
590.625	-0.1629417203	-0.03832639339	
591.25	-0.1198889429	0.09654735208	
591.875	-0.02502912379	0.1092735574	
592.5	0.006378409338	0.04102207919	
593.125	-0.0221138533	0.04563672414	
593.75	0.04696875228	0.1089204118	
594.375	0.1386128869	0.08267609645	
595.0	0.1503895409	0.08276606356	
595.625	0.1589543577	0.06009188932	
596.25	0.1397442632	0.02979659744	
596.875	0.1449803449	0.02930255707	
597.5	0.1330230981	0.06530063283	
598.125	0.1345375727	0.1017267023	
598.75	0.1614578538	0.06994903987	
599.375	0.1871025803	-0.02944781445	
600.0	0.1492942267	-0.1344178287	
600.625	0.1129516121	-0.1636854515	
601.25	0.05308107963	-0.1704391824	
601.875	-0.07557695253	-0.1285875323	
602.5	-0.1123639189	-0.01307172416	
603.125	-0.102549076	0.03917462838	
603.75	-0.09240065584	0.06862909804	
604.375	-0.0855386086	0.06443943053	
605.0	-0.06332684744	0.07470724991	
605.625	-0.05920002711	0.05603710192	
606.25	-0.1058376452	0.05702163576	
606.875	-0.149431958	0.08680103834	
607.5	-0.14388615	0.1577143262	
608.125	-0.02834875394	0.2292283949	
608.75	0.1644698732	0.1502140813	
609.375	0.2091439564	-0.02101369192	
610.0	0.1552634531	-0.1130012459	
610.625	0.07008494325	-0.1431466128	
611.25	0.01061105297	-0.1445885617	
611.875	-0.08408660246	-0.1119642865	
612.5	-0.1423495391	-0.05856724714	
613.125	-0.1799504413	0.03295051828	
613.75	-0.07404131759	0.1331955429	
614.375	0.0361527717	0.09955354622	
615.0	0.04433668168	0.03784813592	
615.625	-0.008065961491	0.0760643202	
616.25	-0.02972898741	0.1374498882	
616.875	-0.06967285023	0.1652482841	
617.5	-0.06288050734	0.2048699005	
618.125	-0.007069203746	0.1929218598	
618.75	0.01575211825	0.1730306315	
619.375	0.08789897149	0.1520778615	
620.0	0.1658576504	0.04790420708	
620.625	0.1096503369	-0.1426654649	
621.25	-0.07660525101	-0.1645135001	
621.875	-0.1856403429	-0.08656446919	
622.5	-0.1964284983	0.05809027944	
623.125	-0.04192209305	0.1659477004	
623.75	0.1231713009	0.04241640727	
624.375	0.03456279946	-0.04393255609	
625.0	0.03964754093	-0.02796323499	
625.625	0.04741355255	-0.07649834498	
626.25	-0.04246228364	-0.1308579758	
626.875	-0.126873907	-0.0724429335	
627.5	-0.1298695937	-0.04068661026	
628.125	-0.1067599719	-0.06164086076	
628.75	-0.06547329451	-0.1055893957	
629.375	-0.08450634774	-0.1430077606	
630.0	-0.169035126	-0.09023226986	
630.625	-0.203951487	0.05096776329	
631.25	-0.1352878296	0.1794646942	
631.875	-0.02500255582	0.2203524213	
632.5	0.125221361	0.1850189722	
633.125	0.1954839603	0.05256501907	
633.75	0.1521928009	-0.05612649369	
634.375	0.06772476927	-0.1228127113	
635.0	-0.01143187696	-0.1380196666	
635.625	-0.1253013869	-0.08919478375	
636.25	-0.1500596271	0.05949829561	
636.875	-0.05755347138	0.1165451351	
637.5	-0.03635724458	0.07736526465	
638.125	-0.0621493665	0.08375875111	
638.75	-0.06597343863	0.146397929	
639.375	-0.01012340211	0.2285425572	
640.0	0.1272828157	0.2277037176	
640.625	0.2129413674	0.1350618254	
641.25	0.2532391104	0.01163427424	
641.875	0.1666168146	-0.1661460337	
642.5	0.001488033437	-0.190389658	
643.125	-0.1032641237	-0.1223698758	
643.75	-0.1228663657	-0.06743609965	
644.375	-0.1584611874	-0.01242880244	
645.0	-0.1446087979	0.1412274475	
645.625	0.04811429339	0.1944124976	
646.25	0.1448107225	0.07664668024	
646.875	0.09636865344	-0.01597203236	
647.5	0.04363479304	0.0322240348	
648.125	0.1506744838	0.05404543888	
648.75	0.235028392	-0.06016249448	
649.375	0.2107900167	-0.2101089735	
650.0	0.1493775301	-0.2792302274	
650.625	0.1351690171	-0.2513477458	
651.25	0.1860314102	-0.2086715929	
651.875	0.2303492151	-0.1520206182	
652.5	0.2497291638	-0.07594390604	
653.125	0.2570043676	-0.08481028837	
653.75	0.1892981855	-0.1949670942	
654.375	-0.02109184564	-0.279830212	
655.0	-0.2560777068	-0.1122210659	
655.625	-0.1711844214	0.1564599604	
656.25	0.01342331916	0.1559070707	
656.875	0.04656625306	0.07025409298	
657.5	0.02370517559	0.09177330806	
658.125	0.1226095593	0.1581214076	
658.75	0.2669704428	0.07963932387	
659.375	0.2946185224	-0.1139365252	
660.0	0.2182337646	-0.2578792105	
660.625	0.1308706229	-0.300234195	
661.25	0.1449502309	-0.2585784516	
661.875	0.204703701	-0.220415183	
662.5	0.2424630392	-0.181810744	
663.125	0.2371859439	-0.1670367198	
663.75	0.165694448	-0.2438750144	
664.375	-0.01828266204	-0.3083127748	
665.0	-0.2327351909	-0.1994560428	
665.625	-0.2885788636	0.05582896242	
666.25	-0.1142074727	0.2431982427	
666.875	0.09907709947	0.1958161573	
667.5	0.1574824175	0.09533854577	
668.125	0.2050171612	0.003478559799	
668.75	0.1797493971	-0.1237438029	
669.375	0.09602716957	-0.19239613	
670.0	0.01737121401	-0.2053725155	
670.625	0.003992280284	-0.1738312735	
671.25	0.05865806975	-0.1538333686	
671.875	0.1304890947	-0.1556073572	
672.5	0.1808105199	-0.1321115796	
673.125	0.1972709906	-0.141507623	
673.75	0.1588766458	-0.1958792027	
674.375	0.05776504046	-0.2301709192	
675.0	-0.05563374636	-0.2242861307	
675.625	-0.1671920272	-0.1338830074	
676.25	-0.1566751804	-0.03437277747	
676.875	-0.1372249693	-0.01191061239	
677.5	-0.1399514225	0.01812428936	
678.125	-0.1413923712	0.1048959612	
678.75	0.006821053548	0.216334723	
679.375	0.182128122	0.07788685925	
680.0	0.1398215899	-0.06480012502	
680.625	0.06990511661	-0.07705749433	
681.25	0.07598029699	-0.006371350706	
681.875	0.141433645	0.05211683367	
682.5	0.1889069314	0.07471254491	
683.125	0.2121581882	0.07626379883	
683.75	0.2389838135	0.08131081338	
684.375	0.2544139247	0.03986948512	
685.0	0.2437749639	0.04458113325	
685.625	0.2609425362	0.02823534819	
686.25	0.2771622029	-0.02181031948	
686.875	0.2764364063	-0.1112885425	
687.5	0.2636000464	-0.2335795884	
688.125	0.02743394321	-0.4033343678	
688.75	-0.3532613713	-0.2159717961	
689.375	-0.2880368336	0.2513987733	
690.0	0.05468521546	0.3272490555	
690.625	0.2010500594	0.2441145579	
691.25	0.2786914856	0.2531237618	
691.875	0.4003699781	0.2864786351	
692.5	0.5394528221	0.2040376992	
693.125	0.6020734528	-0.008921207013	
693.75	0.535704031	-0.2137145723	
694.375	0.3942570064	-0.3432392924	
695.0	0.4100092232	-0.2443522617	
695.625	0.4622971329	-0.06436374422	
696.25	0.4373429073	0.1626718465	
696.875	0.3259237377	0.3642442076	
697.5	0.30174266	0.4420014905	
698.125	0.484087181	0.2641258345	
698.75	0.4414571904	-0.2938595014	
699.375	-0.2727119932	-0.399515333	
700.0	-0.3009132388	0.2662542127	
700.625	0.1020595008	0.2713804653	
701.25	0.1839078105	0.1759025131	
701.875	0.2363297884	0.2155668732	
702.5	0.3032031108	0.2115097466	
703.125	0.3705602999	0.1164249652	
703.75	0.3512780054	-0.08839689959	
704.375	0.2438572935	-0.1686794126	
705.0	0.2197195555	-0.118164148	
705.625	0.234395534	-0.001697241982	
706.25	0.2165482387	0.1642276603	
706.875	0.2015125267	0.2705949319	
707.5	0.2112529534	0.3207599395	
708.125	0.3762027673	0.1701797683	
708.75	0.30075248	-0.262898009	
709.375	-0.1813548752	-0.2926120627	
710.0	-0.2001052972	0.1550185546	
710.625	0.03794509505	0.1362357472	
711.25	0.07107746295	0.1163393538	
711.875	0.1749658174	0.1134093141	
712.5	0.2755420125	0.0004790548164	
713.125	0.2439273369	-0.1477979805	
713.75	0.1241447188	-0.2160962087	
714.375	0.02136745974	-0.211721832	
715.0	-0.02239735239	-0.1840917776	
715.625	0.01452929689	-0.1870991099	
716.25	0.139247764	-0.2093280857	
716.875	0.2907439161	-0.1594246748	
717.5	0.4309504848	-0.01185421396	
718.125	0.5677458317	0.08724305066	
718.75	0.6649355772	-0.04133058583	
719.375	0.6446855956	-0.2852170029	
720.0	0.5066005311	-0.6236258678	
720.625	0.2805976267	-0.7683130144	
721.25	0.05620573375	-0.8398270597	
721.875	-0.11553467	-0.8544629559	
722.5	-0.4578000527	-0.712119249	
723.125	-0.6746208729	-0.185717566	
723.75	-0.3772192266	0.3516272126	
724.375	-0.001389459303	0.3954337642	
725.0	0.14198815	0.3322242715	
725.625	0.1640020403	0.3885220822	
726.25	0.04397029946	0.5624375993	
726.875	-0.08826955423	0.7937937823	
727.5	-0.1560057049	1.14897143	
728.125	-0.07486864004	1.59445692	
728.75	-0.1837629776	2.212482587	
729.375	-0.8931022911	2.907148154	
730.0	-0.3420220504	3.306443594	
730.625	0.4291932906	3.538209353	
731.25	-0.7825418916	2.874162158	
731.875	-2.309884093	2.02788227	
732.5	-2.875353035	0.5898195543	
733.125	-2.073856288	0.1948434609	
733.75	-0.8731491786	0.9647782086	
734.375	0.6037748558	0.5273316157	
735.0	0.0977068425	-0.5439450191	
735.625	-0.4154491868	0.05736461493	
736.25	-0.0986686218	0.4299158937	
736.875	0.3252658171	0.5200184794	
737.5	0.8801016883	0.1801848839	
738.125	1.170536091	-0.2848926525	
738.75	1.444008606	-0.8226031073	
739.375	1.876467253	-1.258073332	
740.0	2.166635343	-1.115299885	
740.625	2.185001523	0.1806609832	
741.25	0.733791626	2.238248471	
741.875	-1.683129282	0.1440471405	
742.5	-1.406661503	-1.868254157	
743.125	0.1243114707	-1.705841616	
743.75	0.1029718078	-0.8008542993	
744.375	-0.3694965638	-0.1547958274	
745.0	0.04097903487	0.122269829	
745.625	0.06513873238	0.003788666544	
746.25	0.004303965087	-0.1161778512	
746.875	-0.1986747233	-0.005508554819	
747.5	-0.0993154677	0.3009547863	
748.125	0.07528601558	0.3971752637	
748.75	0.2178771883	0.4033501735	
749.375	0.1213765277	0.3769811593	
750.0	-0.2931508622	0.1824647168	
