!Created with skrf (http://scikit-rf.org).
# GHz S RI R 50.0 
!freq ReS11 ImS11
500.0 -0.03382977319 0.02541970285
500.625 -0.001287351975 0.04534531159
501.25 -0.008468984878 0.03348587033
501.875 -0.01636626554 0.05312027232
502.5 -0.03005676059 0.06666217341
503.125 0.004573863589 0.05907736245
503.75 0.02537557008 0.04412290753
504.375 0.04597161575 0.03142420355
505.0 0.05477398514 0.01152850999
505.625 0.06477050621 -0.00379816379
506.25 0.03511312533 0.004532823988
506.875 0.04860314175 0.01484962733
507.5 0.04592771908 0.0127319304
508.125 0.02998407725 0.03472917062
508.75 0.04493804817 0.007863663085
509.375 0.05202431875 0.01080681011
510.0 0.05962133375 0.03003895589
510.625 0.02785226463 -0.03829282621
511.25 0.004261039434 -0.04103433267
511.875 -0.008050283866 -0.02056834856
512.5 -0.002459918474 -0.01003141166
513.125 -0.01673698758 -0.01177669847
513.75 -0.03571720349 -0.01692822031
514.375 -0.05209981439 0.00709693436
515.0 -0.04324356575 0.03768526848
515.625 -0.07731597118 -0.00838271704
516.25 -0.04003365762 0.04737774886
516.875 -0.05728519051 0.04160084105
517.5 0.001810949018 0.04475978874
518.125 0.001685859962 -0.01935196649
518.75 -0.0217988747 -0.006516643604
519.375 -0.0307664489 0.008675804702
520.0 -0.00550433625 0.03023206304
520.625 -0.02257752163 0.004641844982
521.25 -0.01792840268 0.00751129182
521.875 -0.002225329853 0.01569335344
522.5 0.01489764731 0.005460613503
523.125 -0.02057919752 -0.02882429411
523.75 -0.04763090996 -0.06470534405
524.375 -0.06084366196 -0.06930013306
525.0 -0.05506446259 -0.02456939597
525.625 -0.06588382581 0.001581648766
526.25 -0.04881068453 0.006354898923
526.875 -0.03678875549 0.01007061498
527.5 -0.0342094153 0.02641905055
528.125 -0.01415632996 0.05422085632
528.75 -0.003771660833 0.04788636244
529.375 0.01112122226 0.05025147054
530.0 0.05459551873 0.05806621987
530.625 0.09531129219 -0.03095119061
531.25 0.1013719325 -0.07532145281
531.875 0.05347030987 -0.06963348243
532.5 0.03230438309 -0.03872839893
533.125 0.03833205982 -0.0284286375
533.75 0.01814596122 -0.04366339708
534.375 0.02441470843 -0.02915128802
535.0 0.02891986692 -0.01315277356
535.625 0.04766722875 0.003139385824
536.25 0.02983063242 -0.03434225504
536.875 0.04422660979 -0.05204423458
537.5 0.05208178437 -0.03784984878
538.125 0.01145431196 -0.02633154084
538.75 0.01461939849 -0.01461296718
539.375 0.059760178 -0.01263874114
540.0 0.07525235931 -0.03960488346
540.625 0.04955792624 -0.04710038754
541.25 0.03685801389 -0.03769832846
541.875 0.04415292293 -0.04104128786
542.5 0.04030536812 -0.05097475889
543.125 -0.007935389085 -0.04129382236
543.75 -0.01883432216 0.001874245794
544.375 0.01668786747 0.002873940094
545.0 0.006457661038 -0.02545504496
545.625 -0.03739020219 -0.04117328311
546.25 -0.03629814292 -0.02845197592
546.875 -0.02108192915 -0.01360764744
547.5 -0.02195632912 -0.01602232953
548.125 -0.0225532522 -0.02939079505
548.75 -0.001492787354 -0.03802681514
549.375 0.01588313337 -0.04899713395
550.0 0.04323952368 -0.04246018034
550.625 0.05393200917 -0.07970391882
551.25 0.09238836208 -0.05782736563
551.875 0.04968296967 -0.06905610081
552.5 0.02054935733 -0.07306238598
553.125 0.001467839729 -0.0790204819
553.75 -0.003967865379 -0.06389010519
554.375 -0.02458811396 -0.05234887822
555.0 -0.02151676488 -0.03585992727
555.625 -0.01975466407 -0.04861641977
556.25 -0.01315329688 -0.03910536249
556.875 -0.02195870505 -0.02671535376
557.5 -0.00836564133 -0.01528199183
558.125 0.01146574016 -0.008720285952
558.75 0.02202730597 0.004864254299
559.375 0.03654538508 -0.001128284625
560.0 0.06119228853 -0.009056642604
560.625 0.06469515493 -0.04790499961
561.25 0.02574566669 -0.06315201915
561.875 -0.006054995629 -0.05681882874
562.5 -0.01841274015 -0.04783562052
563.125 -0.03269520439 -0.03961689373
563.75 -0.03110359957 -0.006579367921
564.375 -0.01722510923 -0.003135329532
565.0 0.002384457783 -0.01654144649
565.625 -0.006458600728 -0.03741130054
566.25 0.004427270093 -0.04208981263
566.875 0.0130321738 -0.03541490289
567.5 0.01772361308 -0.02502654584
568.125 0.01958230166 -0.02290506967
568.75 0.04600634913 -0.00770821426
569.375 0.05993115858 -0.002327398539
570.0 0.06199548407 -0.01720170138
570.625 0.04236818675 -0.05000972362
571.25 0.04174468065 -0.05993493512
571.875 0.03437468567 -0.05111062959
572.5 -0.006470234752 -0.05850109984
573.125 -0.04294082247 -0.03961708586
573.75 -0.02380562505 -0.01978327334
574.375 -0.0007159569556 -0.02914067896
575.0 -0.01726684694 -0.03458998625
575.625 -0.04097117717 -0.01721584924
576.25 -0.03068482412 -0.009853917425
576.875 -0.008222929203 -0.01227714909
577.5 0.005329801701 -0.01697393702
578.125 -0.003520456556 -0.02656687321
578.75 0.006384870987 -0.03800578098
579.375 0.01350007593 -0.04051034104
580.0 0.01437122774 -0.05384659979
580.625 -0.0002623668169 -0.07285299535
581.25 -0.02116847767 -0.07239699344
581.875 -0.0358764684 -0.04740010194
582.5 -0.0302637622 -0.03717730857
583.125 -0.003679247225 -0.03397660758
583.75 -0.002548227559 -0.03724350064
584.375 -0.002317650189 -0.03531732259
585.0 -0.00338578976 -0.0337039917
585.625 0.01635869973 -0.02253491821
586.25 0.02599581235 -0.01804041502
586.875 0.01448411661 -0.02609402209
587.5 0.007742786392 -0.0283851605
588.125 0.01333589074 -0.02929060078
588.75 0.01800197897 -0.03617619061
589.375 0.005050835525 -0.05648786851
590.0 -0.03536851935 -0.05836882669
590.625 -0.05356667051 -0.03381648926
591.25 -0.05411457917 0.002427320646
591.875 -0.02881453425 0.00927310991
592.5 -0.001914577638 -0.008569909615
593.125 0.002886959939 -0.02143575764
593.75 -0.003345662474 -0.01190849919
594.375 0.02091380626 -0.02127666645
595.0 0.03602880945 -0.01749728065
595.625 0.04413970062 -0.01477374462
596.25 0.02507197076 -0.02333949956
596.875 0.03480064846 -0.0159258756
597.5 0.04184406513 0.01195577464
598.125 0.04818411555 0.00653148434
598.75 0.05579324029 -0.01530316546
599.375 0.06479483119 -0.02237714106
600.0 0.05305467536 -0.02750207907
600.625 0.03314350091 -0.03668868746
601.25 0.0110878037 -0.0377128318
601.875 0.01014147445 -0.01060832285
602.5 0.003928758168 -0.001068561077
603.125 0.005692245053 0.0104611891
603.75 0.001437326066 0.01013740267
604.375 0.0192289308 0.02783972836
605.0 0.02295436445 0.02502048852
605.625 0.01209734561 0.01968594654
606.25 -0.009310322175 0.02193150681
606.875 -0.02111463611 0.04455621724
607.5 0.0007788197934 0.05588396235
608.125 0.02730070391 0.05217914231
608.75 0.01864015262 0.02170256191
609.375 0.01713122794 0.03865682696
610.0 0.01619412914 0.04428365763
610.625 0.01951525629 0.0381005888
611.25 0.01196244021 0.01478025392
611.875 -0.002892367193 0.005765902858
612.5 -0.01894011418 0.0006053851474
613.125 -0.03242247003 0.001253871731
613.75 -0.04356329991 0.01063461042
614.375 -0.0150405909 0.002702514007
615.0 -0.01541370506 0.005463839654
615.625 -0.03409257383 0.002124783841
616.25 -0.04195727883 0.01011115557
616.875 -0.01850684374 0.008661062786
617.5 -0.01708114362 0.009756980645
618.125 -0.01750812156 0.002297121638
618.75 -0.02038494293 0.004161677465
619.375 0.004211561077 -0.006293149032
620.0 -0.003769901654 -0.01061090893
620.625 0.004315282159 -0.03034631369
621.25 -0.004362595103 -0.0431554594
621.875 9.268918054e-05 -0.07069378121
622.5 -0.06830504046 -0.02714415103
623.125 -0.07445896493 0.009152665961
623.75 -0.05464396609 0.01879989433
624.375 -0.02950057331 -0.01086658983
625.0 -0.03352784998 -0.01886988878
625.625 -0.03995382794 -0.01231069327
626.25 -0.02891879491 0.01097500939
626.875 0.002721176153 0.008442986368
627.5 0.01295021192 -0.006276355167
628.125 0.01586597332 -0.01628561453
628.75 0.02074215824 -0.01105295678
629.375 0.03257461956 -0.006667500625
630.0 0.05656360988 0.004058410271
630.625 0.05483747879 -0.01405361675
631.25 0.05767174365 -0.01636227348
631.875 0.05214090992 -0.0123804533
632.5 0.04099583802 -0.02772662014
633.125 0.03804178847 -0.03171558189
633.75 0.0324276598 -0.01897637733
634.375 0.02942849658 -0.01569109138
635.0 0.02117083176 -0.003930556422
635.625 0.01184732764 -0.00599329814
636.25 0.0283936326 -0.002103634522
636.875 0.03687443285 0.003134285896
637.5 0.02310657301 -0.01018470868
638.125 0.01036715011 0.0078550427
638.75 0.01754671217 0.02776582641
639.375 0.01735204588 0.05244838358
640.0 0.02152086686 0.04715227548
640.625 0.01167488585 0.04808266201
641.25 -0.0008936182463 0.03274546048
641.875 -0.004057800604 0.0286267627
642.5 -0.01939547619 0.03300521343
643.125 -0.01505744222 0.02978436699
643.75 -0.01370895053 0.02313545896
644.375 -0.01783837576 0.01432057117
645.0 -0.03547221984 0.02714001655
645.625 -0.05857294101 0.0407893302
646.25 -0.02902797489 0.04417143362
646.875 -0.01387002175 0.03839409449
647.5 -0.01995345289 0.03086981529
648.125 -0.06012952873 0.02628475937
648.75 -0.0439490467 0.02559647517
649.375 -0.02183998191 0.03626533507
650.0 -0.0158638816 0.01587029005
650.625 -0.01574941481 -0.01509964708
651.25 -0.007300209496 -0.01586494154
651.875 -0.003854789405 -0.01179366139
652.5 0.02106346181 -0.01636912231
653.125 0.04684530106 -0.02165016217
653.75 0.06376385589 -0.02973727741
654.375 0.06767362828 -0.0325349364
655.0 0.06522341342 -0.03106878416
655.625 0.05497621525 -0.0400097037
656.25 0.03423561166 -0.04702117688
656.875 0.01748697727 -0.04731094897
657.5 0.0264235893 -0.03313957018
658.125 0.008707579086 -0.03229482606
658.75 0.001560400149 -0.0224052448
659.375 0.006968226617 -0.001945064483
660.0 0.03834131548 0.001397621266
660.625 0.03538064511 -0.01269769777
661.25 0.03906012624 -0.04242319983
661.875 0.03988495556 -0.0582531269
662.5 0.02454049629 -0.06164144967
663.125 0.0192253171 -0.0711783435
663.75 0.03585835479 -0.06106493095
664.375 0.050028028 -0.02786041765
665.0 0.04616148539 -0.00421368132
665.625 0.05675611522 0.01281439974
666.25 0.03105476651 0.02102199484
666.875 0.002747204329 0.02273559289
667.5 -0.009556873862 0.01685630261
668.125 -0.02001685077 0.04267186398
668.75 -0.03242902973 0.05857375022
669.375 -0.01971339773 0.04863601387
670.0 -0.01004753126 0.04609819181
670.625 -0.02105398025 0.05252999324
671.25 -0.01899849569 0.05244955265
671.875 0.00866727171 0.04999384851
672.5 0.03769281695 0.03603674258
673.125 0.03392911233 0.02766265583
673.75 0.006448250043 0.02997010039
674.375 -0.005491979124 0.02985217235
675.0 -0.01708711232 0.03918344904
675.625 -0.0455704712 0.04282757672
676.25 -0.04735227737 0.009850903488
676.875 -0.05427196298 0.005836403428
677.5 -0.07657988124 0.01436482756
678.125 -0.09594092912 0.02589892965
678.75 -0.05549285783 0.02810390816
679.375 -0.03900268993 0.03392756167
680.0 -0.03256750041 0.01812820186
680.625 -0.03125012589 0.003598361762
681.25 -0.02236719861 0.01090605536
681.875 -0.01101208402 0.009266350461
682.5 -0.03015698183 -0.004835057949
683.125 -0.05926003009 -0.004157811768
683.75 -0.06369395739 0.007564381638
684.375 -0.05437954581 -0.02021166335
685.0 -0.02658852988 -0.05647699409
685.625 0.01752453831 -0.07139757051
686.25 0.02983449406 -0.07607978428
686.875 0.03507197367 -0.07630744059
687.5 0.03025018295 -0.04977543393
688.125 0.01849973081 -0.03393837271
688.75 0.01892477224 -0.01862735213
689.375 0.02916584991 0.0007252145406
690.0 0.02486680024 0.02129103
690.625 0.02247965322 0.01937421254
691.25 0.03928128205 0.0247080678
691.875 0.08231202883 -0.01905176129
692.5 0.06426937852 -0.07153783575
693.125 -0.0368001134 -0.07272125219
693.75 -0.06769253488 -0.03022065432
694.375 -0.06438623791 -0.02597560252
695.0 -0.03417496781 -0.04123963621
695.625 -0.007693930037 -0.05372442187
696.25 0.03949935872 -0.01782674912
696.875 0.01275079114 0.02696631422
697.5 -0.006232338877 0.02727367934
698.125 -0.02843175579 0.03607027313
698.75 -0.04897158942 0.04656325422
699.375 -0.0482020421 0.04184375158
700.0 -0.03447704727 0.03979961441
700.625 -0.04966329931 0.02719897213
701.25 -0.06392118865 0.02753989015
701.875 -0.03429693516 0.0314925963
702.5 0.008148948565 0.0367563077
703.125 -0.00207338835 0.01844496982
703.75 -0.03347871996 0.04452599797
704.375 0.009760758659 0.06809722955
705.0 0.04166665844 0.05028347594
705.625 0.0095063691 0.05697160966
706.25 -0.04943859857 0.04263656117
706.875 -0.07492419084 0.004719392444
707.5 -0.07557246002 -0.02510093182
708.125 -0.06030186045 -0.03532622281
708.75 -0.01496289517 -0.03154962768
709.375 0.007316782373 -0.02997894305
710.0 0.03678845113 -0.009217250964
710.625 0.03698783848 -0.008063231123
711.25 0.00932961692 0.007405028657
711.875 0.003941886753 0.02165951221
712.5 0.03216358506 0.04948919856
713.125 0.07997599015 0.01475045671
713.75 0.04577771476 -0.0613149196
714.375 -0.01243183983 -0.08058954537
715.0 -0.04474326021 -0.07280255842
715.625 -0.04981277742 -0.06125988558
716.25 -0.01532453303 -0.05325496322
716.875 0.01303960832 -0.03394150853
717.5 0.02942750376 -0.006870254653
718.125 0.0293600009 0.0173430104
718.75 0.02810456198 -0.002228746895
719.375 0.02270585972 0.01778334278
720.0 -0.02504582353 0.02850678301
720.625 -0.04475471954 -0.002254668603
721.25 -0.03227599847 -0.02475165471
721.875 0.01317293724 -0.08364111991
722.5 0.01636769262 -0.07386361707
723.125 -0.03159720853 -0.05456683265
723.75 -0.04692851458 0.004982683005
724.375 -0.03250897106 0.005664338648
725.0 -0.02412390852 0.00455235684
725.625 -0.01492033356 0.009751665558
726.25 -0.01672019641 0.001836469101
726.875 -0.05121712536 -0.02072316329
727.5 -0.05508870563 -0.04080370293
728.125 -0.05005586132 -0.03920648348
728.75 -0.045592991 -0.03797471825
729.375 -0.0226713631 -0.006732768286
730.0 -0.02941796441 -0.0175389613
730.625 -0.03462181335 -0.03947801819
731.25 -0.008934598052 -0.0370109559
731.875 -0.001816754273 -0.009925900168
732.5 0.02178147606 -0.004957429696
733.125 0.02841625826 0.0356862495
733.75 0.03259843345 0.04725494818
734.375 0.0179224672 0.02347388552
735.0 0.05177077653 0.0008896312728
735.625 0.05772071553 -0.02131311141
736.25 0.0476675448 -0.03475936276
736.875 0.00167543844 -0.02392538399
737.5 -0.009238728096 -0.01789526275
738.125 0.01202611362 0.01574295986
738.75 0.0005553997103 0.05024256822
739.375 0.001291622169 0.0461644028
740.0 0.04187561954 0.03597867672
740.625 0.04245653581 0.02535092057
741.25 0.02360605545 0.03000275292
741.875 0.0002550931115 0.04658851376
742.5 -0.03275842683 -0.00815334677
743.125 -0.03042753136 -0.03471342373
743.75 -0.008161637224 -0.04482755285
744.375 -0.008123820592 -0.05296617381
745.0 -0.01371168937 -0.05209388317
745.625 -0.0370228215 -0.02975876967
746.25 -0.01667234321 0.008159655559
746.875 -0.0009491118697 -0.005316175679
747.5 0.007110336009 -0.04363907869
748.125 -0.02454591946 -0.02585211841
748.75 -0.03739172199 0.01368101784
749.375 -0.02004752703 0.03486169412
750.0 0.01646671639 0.04658697253
