!Created with skrf (http://scikit-rf.org).
# GHz S RI R 50.0 
!freq ReS11 ImS11
500.0 -0.03369844985 0.02255690022
500.625 -9.91326739e-05 0.04647051644
501.25 -0.009389801083 0.03027382457
501.875 -0.02021360758 0.0515852549
502.5 -0.0296200783 0.063321855
503.125 -0.000219001415 0.05748992398
503.75 0.02981071808 0.04305551941
504.375 0.04719364669 0.03179853824
505.0 0.05634585714 0.009049272456
505.625 0.06477046487 -0.003488959392
506.25 0.03843309025 0.0001261267087
506.875 0.05571785379 0.01399064769
507.5 0.04551993758 0.01315182741
508.125 0.02439717025 0.04140901706
508.75 0.03858998714 0.0187403488
509.375 0.05324468864 0.00937488921
510.0 0.06019282417 0.02992601069
510.625 0.03182441356 -0.03361696737
511.25 0.005702297332 -0.03813137427
511.875 -0.01094044257 -0.02402057375
512.5 -0.005707813965 -0.009855062822
513.125 -0.01465857525 -0.01499515346
513.75 -0.03522370195 -0.02761317502
514.375 -0.05179605631 0.003677654522
515.0 -0.04266578836 0.04018495569
515.625 -0.07585237625 0.00253741446
516.25 -0.04046281053 0.05109164219
516.875 -0.05524144341 0.03581610219
517.5 0.00167556821 0.04326314823
518.125 -0.0006095987714 -0.02648493552
518.75 -0.02337847478 0.004309944045
519.375 -0.03061986544 0.01197907995
520.0 -0.009875716564 0.03040732355
520.625 -0.01520997575 0.009463094781
521.25 -0.009230261762 0.01601933696
521.875 -0.005474405138 0.0140973175
522.5 0.01552841914 0.005984125797
523.125 -0.02470218487 -0.02374173058
523.75 -0.06309173272 -0.06489417211
524.375 -0.06149130507 -0.06779442669
525.0 -0.05349582421 -0.02169201703
525.625 -0.05840561674 0.00259389902
526.25 -0.04902459379 0.007789381503
526.875 -0.03439777162 0.01159282513
527.5 -0.03540356631 0.02798550887
528.125 -0.007823030594 0.04928874322
528.75 0.002244204545 0.04537278953
529.375 0.01366332604 0.04548481175
530.0 0.05975091668 0.05953484635
530.625 0.1001746254 -0.02906434592
531.25 0.10147249 -0.07665030583
531.875 0.04930659326 -0.07314473181
532.5 0.04229287125 -0.04023614401
533.125 0.03165358697 -0.0293652575
533.75 0.01196625004 -0.04321587071
534.375 0.01795259642 -0.02943648987
535.0 0.02591280945 -0.01587812472
535.625 0.043339339 0.0009942065233
536.25 0.02856836223 -0.03527660955
536.875 0.04441249369 -0.05347171149
537.5 0.0584999528 -0.0409069916
538.125 0.01613193354 -0.02862779425
538.75 0.0137033319 -0.01597665549
539.375 0.05681020648 -0.01479105064
540.0 0.0784355432 -0.04192649739
540.625 0.05407225175 -0.04997080597
541.25 0.03646987557 -0.03967861379
541.875 0.04560353675 -0.04338664285
542.5 0.04442412978 -0.05495023255
543.125 -0.008209859658 -0.0423533596
543.75 -0.02009653489 0.0009085242497
544.375 0.01375394419 0.003739332969
545.0 0.005008431913 -0.02423404612
545.625 -0.03353814533 -0.03575371283
546.25 -0.0368233384 -0.02385024557
546.875 -0.02573476623 -0.01631292121
547.5 -0.02496372835 -0.01483672882
548.125 -0.02911407201 -0.03053413524
548.75 -0.003846941747 -0.03710636216
549.375 0.01552457787 -0.04576845815
550.0 0.04162062369 -0.04330889915
550.625 0.05320161457 -0.07164064719
551.25 0.08532994405 -0.05489823274
551.875 0.04899176264 -0.06817761572
552.5 0.02087276297 -0.07717716601
553.125 0.0006608781091 -0.07283026374
553.75 -0.004406254488 -0.06508598535
554.375 -0.0247063172 -0.05404319291
555.0 -0.02294665302 -0.03776001278
555.625 -0.02244086592 -0.04833379278
556.25 -0.0145443992 -0.04362420496
556.875 -0.02327749616 -0.0290976312
557.5 -0.009490639688 -0.01723753638
558.125 0.01037590858 -0.01517174443
558.75 0.02099493399 0.003756218288
559.375 0.03555670619 -0.001842806222
560.0 0.06263799834 -0.01260073255
560.625 0.06305347134 -0.04760925745
561.25 0.02325321042 -0.05993005239
561.875 -0.00604931942 -0.0592578191
562.5 -0.02067296488 -0.04880637508
563.125 -0.03014104673 -0.03552257568
563.75 -0.03000436378 -0.003880138641
564.375 -0.01640879269 -0.001671629996
565.0 -0.002197691066 -0.01770758954
565.625 -0.003730876847 -0.03384620163
566.25 0.007356240589 -0.0377273542
566.875 0.00956657318 -0.04107640843
567.5 0.01696306323 -0.02755702818
568.125 0.01609257638 -0.02697367914
568.75 0.04553056636 -0.0103339952
569.375 0.05944101237 -0.004379515335
570.0 0.06256818118 -0.01913474594
570.625 0.0409958908 -0.05234066409
571.25 0.04027811551 -0.05931768383
571.875 0.03379138913 -0.05293364472
572.5 -0.007178133542 -0.06075878071
573.125 -0.04749980959 -0.04147490494
573.75 -0.02651698197 -0.02084764741
574.375 -0.005384658177 -0.03105615488
575.0 -0.0186264493 -0.03507563561
575.625 -0.04417984795 -0.01677834425
576.25 -0.0252950108 -0.01082044867
576.875 -0.007238860288 -0.01156839471
577.5 0.004776137154 -0.01692448848
578.125 -0.001301657601 -0.0266733682
578.75 0.002058795494 -0.0371906607
579.375 0.008634375823 -0.04235126309
580.0 0.01181402629 -0.05450268001
580.625 -0.005905645248 -0.07292820428
581.25 -0.02732926633 -0.07454635782
581.875 -0.03696573345 -0.0478360237
582.5 -0.03200924007 -0.03738158635
583.125 -0.008588753458 -0.03704516828
583.75 0.004794164469 -0.03546978729
584.375 -0.00227613995 -0.03552559644
585.0 -0.005354255467 -0.03612136841
585.625 0.01122750291 -0.02846692566
586.25 0.02490423979 -0.02109563341
586.875 0.01397025396 -0.02684762997
587.5 0.005835935451 -0.02950992253
588.125 0.006818705983 -0.03163042348
588.75 0.02392494132 -0.0371063787
589.375 0.003645580507 -0.05664276339
590.0 -0.03800801792 -0.05867895117
590.625 -0.05711308062 -0.033191552
591.25 -0.04984708578 -0.002986704483
591.875 -0.0258209175 0.004624358778
592.5 -0.006240337335 -0.007615889136
593.125 0.0008274228234 -0.02071234622
593.75 0.0007103594294 -0.02069361011
594.375 0.02209016706 -0.02292699077
595.0 0.03959078686 -0.01879400468
595.625 0.04445174866 -0.01672329587
596.25 0.03281630691 -0.02243216932
596.875 0.03844643455 -0.01207110297
597.5 0.04269644621 0.007162407406
598.125 0.04687505678 0.003005532432
598.75 0.04973114363 -0.02125168172
599.375 0.06522639199 -0.02470601266
600.0 0.05433950641 -0.02894646698
600.625 0.0311307166 -0.04142097639
601.25 0.01814297111 -0.03131787386
601.875 0.0131689431 -0.01075217163
602.5 0.00605636784 -0.003201362541
603.125 0.00645088699 0.009039233989
603.75 -0.001765143404 0.00588296779
604.375 0.01870481154 0.01883569303
605.0 0.02459108342 0.02432808217
605.625 0.0140762425 0.01934977348
606.25 -0.007516342326 0.01545956671
606.875 -0.01803788997 0.04163498468
607.5 0.002416249593 0.0573619171
608.125 0.02889575241 0.0505033801
608.75 0.02087112482 0.02009422028
609.375 0.01885231076 0.03011337609
610.0 0.01848926674 0.04401256377
610.625 0.02205203209 0.03823717972
611.25 0.01542489638 0.01046020975
611.875 0.0007865832193 0.004357759933
612.5 -0.01847098868 0.002199319067
613.125 -0.03140531678 0.003382531442
613.75 -0.04211111594 0.01203429654
614.375 -0.01430750937 0.003890762742
615.0 -0.01947554843 0.008662521526
615.625 -0.03222164919 0.003551518429
616.25 -0.04207871025 0.01186036077
616.875 -0.01651239326 0.006259355606
617.5 -0.02816422519 0.01689689987
618.125 -0.01966288987 0.004108661521
618.75 -0.02247054993 0.005880850908
619.375 0.002290587541 -0.007670992437
620.0 -0.01133062312 -0.007495035521
620.625 -0.002723383297 -0.02752878644
621.25 -0.002482590779 -0.04321992539
621.875 -0.0132901944 -0.06550948817
622.5 -0.07989289259 -0.01843299603
623.125 -0.07038276952 0.008899531253
623.75 -0.05646177915 0.0207674157
624.375 -0.0310137374 -0.01293921422
625.0 -0.0235270376 -0.016790543
625.625 -0.04095015422 -0.01156620451
626.25 -0.03007348193 0.0116233152
626.875 0.006767203339 0.008202963905
627.5 0.01566508863 -0.004126453334
628.125 0.01406721187 -0.01759925535
628.75 0.01602011525 -0.01447829966
629.375 0.0356165404 -0.002640708784
630.0 0.05006411181 -0.005013679452
630.625 0.05408353545 -0.01611608694
631.25 0.05752446331 -0.01777706024
631.875 0.05411089587 -0.009755977393
632.5 0.04166403303 -0.02539915061
633.125 0.03813140216 -0.03396229282
633.75 0.03242218524 -0.02049858247
634.375 0.02977746703 -0.01658342203
635.0 0.02315515633 -0.005718575422
635.625 0.01901800127 -0.0008882250461
636.25 0.02837668726 -0.00294536217
636.875 0.03794968898 0.001679903072
637.5 0.02394812911 -0.007879636925
638.125 0.007977993515 -0.002942491881
638.75 0.01911989589 0.02475185209
639.375 0.02056092996 0.05079506429
640.0 0.02136020272 0.04818340617
640.625 0.02022401599 0.03797508144
641.25 0.008572312999 0.03482419516
641.875 0.001335009337 0.02814401801
642.5 -0.02057459312 0.03716752812
643.125 -0.01895796131 0.03105248336
643.75 -0.01201607927 0.02601283172
644.375 -0.01489434615 0.01540940025
645.0 -0.04106335218 0.03026744216
645.625 -0.04403362288 0.04264214752
646.25 -0.02377184593 0.04931068768
646.875 -0.01463012857 0.03886688798
647.5 -0.0159529717 0.03257396361
648.125 -0.05000132594 0.03231883283
648.75 -0.04316533107 0.03061170516
649.375 -0.02548715038 0.03492052804
650.0 -0.01615085291 0.01909638101
650.625 -0.02248306673 -0.01699484769
651.25 -0.01142015434 -0.02058260488
651.875 -0.005330625641 -0.01186137784
652.5 0.01853512707 -0.01780322867
653.125 0.0474054878 -0.02620146378
653.75 0.05843586335 -0.03324498005
654.375 0.06635659886 -0.0344170993
655.0 0.06771850268 -0.03425439648
655.625 0.05483419517 -0.0420418774
656.25 0.03973147141 -0.05258325918
656.875 0.01932579096 -0.04957392946
657.5 0.02732232893 -0.03711428615
658.125 0.01184819829 -0.0343757254
658.75 -0.005983035889 -0.02404827839
659.375 0.004276506687 -0.005193514619
660.0 0.0367057895 -0.002209751517
660.625 0.03523351494 -0.01576132561
661.25 0.03252408787 -0.03631387157
661.875 0.03082061329 -0.05494904451
662.5 0.01969101105 -0.0604684978
663.125 0.0162802193 -0.07569156363
663.75 0.03171631216 -0.05942633398
664.375 0.05027098059 -0.03227908877
665.0 0.0490066675 -0.005374050068
665.625 0.05523113987 0.006808950627
666.25 0.03521023043 0.01057828719
666.875 0.005279467966 0.02481795161
667.5 -0.006656348828 0.01727968334
668.125 -0.01470528652 0.04353747915
668.75 -0.02038174667 0.05372282463
669.375 -0.01842458114 0.05153597252
670.0 -0.007754242237 0.04869248532
670.625 -0.01572437736 0.05914049849
671.25 -0.01625529995 0.06138027537
671.875 0.01146964304 0.0514575458
672.5 0.04085044801 0.03173246771
673.125 0.04155245983 0.02883427509
673.75 0.01020629155 0.02313709051
674.375 -0.002667082572 0.03255927348
675.0 -0.01264346973 0.03855549994
675.625 -0.04051182295 0.05277638562
676.25 -0.04300695123 0.01008445303
676.875 -0.05645636542 0.01186597907
677.5 -0.07343290259 0.01869367906
678.125 -0.09877523381 0.03617050273
678.75 -0.06022145532 0.02971092186
679.375 -0.03908197129 0.03715856674
680.0 -0.03477108139 0.02323283461
680.625 -0.03978392967 0.01085935957
681.25 -0.02022789983 0.01194924162
681.875 -0.003799754533 0.007612236434
682.5 -0.03253671971 0.00393737885
683.125 -0.0593149155 0.001899054633
683.75 -0.06417466989 0.01387442323
684.375 -0.05917332105 -0.01389483142
685.0 -0.02885227688 -0.05298879957
685.625 0.01331224511 -0.0753030833
686.25 0.02498678891 -0.08347119833
686.875 0.03476425374 -0.07809071631
687.5 0.02991100417 -0.05492834302
688.125 0.019517271 -0.03812538247
688.75 0.02156381478 -0.0259460162
689.375 0.02640987766 0.001705686367
690.0 0.02044158909 0.01856056974
690.625 0.02424623894 0.01687844268
691.25 0.04086707732 0.01765056693
691.875 0.07701307554 -0.02537550597
692.5 0.06020670808 -0.07356885327
693.125 -0.04328181601 -0.07252306281
693.75 -0.07371285688 -0.02635160035
694.375 -0.07596496996 -0.01936347599
695.0 -0.03386803016 -0.03999415474
695.625 -0.007639369592 -0.04720407152
696.25 0.04015320759 -0.02422922134
696.875 0.01825522631 0.02481614706
697.5 0.001053030916 0.03002072772
698.125 -0.01653049887 0.04097715885
698.75 -0.04441363747 0.05395245097
699.375 -0.0455328225 0.05217373167
700.0 -0.03412327851 0.04048859617
700.625 -0.04774388018 0.03233814813
701.25 -0.06448997141 0.03278414716
701.875 -0.03757803459 0.03895235488
702.5 0.007002951656 0.03357590466
703.125 -0.0006607996884 0.01443876992
703.75 -0.02007634159 0.04767851843
704.375 0.01476759721 0.06775697317
705.0 0.04839862545 0.04363430927
705.625 0.01220739757 0.05893374514
706.25 -0.04598941815 0.04837007482
706.875 -0.07542769154 0.008584037627
707.5 -0.08191839578 -0.01814449846
708.125 -0.05555604405 -0.04207004274
708.75 -0.01616785313 -0.03306696615
709.375 0.008669160389 -0.03195136913
710.0 0.03736799104 -0.01554755469
710.625 0.04044814061 -0.01825085617
711.25 0.008630739572 0.008107131542
711.875 0.006996975536 0.01683824177
712.5 0.03496499982 0.03462927105
713.125 0.0852111692 0.01609985385
713.75 0.0495355959 -0.06211082092
714.375 -0.02356576449 -0.07851611474
715.0 -0.05078515594 -0.07229772258
715.625 -0.06274178628 -0.05657570965
716.25 -0.02355955781 -0.057066417
716.875 0.009961615497 -0.03956860094
717.5 0.03483747523 -0.00820143337
718.125 0.03435683533 0.01234012694
718.75 0.02970411216 0.007889112932
719.375 0.02496744923 0.01771700648
720.0 -0.01850410964 0.03243883447
720.625 -0.04442261101 0.002416782952
721.25 -0.03831266424 -0.0326852369
721.875 0.0057155225 -0.08653340112
722.5 0.01516295615 -0.07989632974
723.125 -0.04148212309 -0.05203027722
723.75 -0.05508386763 -0.01075626692
724.375 -0.03751726688 0.002196094852
725.0 -0.02409455306 0.01189345854
725.625 -0.0138050333 0.01388658989
726.25 -0.008221336295 0.003903539986
726.875 -0.04495287584 -0.01033248505
727.5 -0.05919923055 -0.03702853153
728.125 -0.05748781982 -0.0399510712
728.75 -0.05025666774 -0.03061500467
729.375 -0.03420820409 -0.02132699977
730.0 -0.0385563925 -0.01964690163
730.625 -0.04148386887 -0.03257065765
731.25 -0.01614800843 -0.0396726718
731.875 -0.006369209625 -0.008665095945
732.5 0.01563297496 -0.009044955068
733.125 0.03332664693 0.02948278023
733.75 0.03869588748 0.04158288563
734.375 0.03064916922 0.03061362038
735.0 0.06391840421 -0.009001280081
735.625 0.05508097819 -0.02984845013
736.25 0.04998350529 -0.04243243307
736.875 0.002430033455 -0.0260654919
737.5 0.0007576816455 -0.02581948424
738.125 0.0130203981 0.00779567496
738.75 0.005682240831 0.04705987655
739.375 -0.005477279531 0.04558854595
740.0 0.03697570187 0.02760875229
740.625 0.04820384419 0.01950580016
741.25 0.03338246227 0.02814011369
741.875 0.004653002318 0.04445923344
742.5 -0.03513911358 -0.004075076971
743.125 -0.04278253874 -0.03315387068
743.75 -0.0187693119 -0.04638983572
744.375 -0.008393717698 -0.0445976324
745.0 -0.02226441808 -0.05755837682
745.625 -0.04379195426 -0.03165644366
746.25 -0.023822927 0.009794726513
746.875 -0.00552898889 -0.0009706519755
747.5 -0.001823938721 -0.03912331419
748.125 -0.02463046366 -0.02476242979
748.75 -0.03556286644 0.01682014327
749.375 -0.01114154429 0.0413970008
750.0 0.01352701736 0.04703439756
