!Created with skrf (http://scikit-rf.org).
# GHz S RI R 50.0 
!freq ReS11 ImS11
500.0 -0.03351600937 0.02888778198
500.625 0.0008090778723 0.04810272095
501.25 0.002394777618 0.03841738499
501.875 -0.005640028484 0.05734223378
502.5 -0.0208699986 0.07564993259
503.125 0.008502584279 0.06145089809
503.75 0.01779551755 0.04497458367
504.375 0.04216988336 0.0332387662
505.0 0.06022477748 0.007644400812
505.625 0.0638298496 -0.006277184162
506.25 0.03919840221 -0.001113823214
506.875 0.04095882175 0.01446620311
507.5 0.04551588145 0.01194057426
508.125 0.04168831433 0.02870469443
508.75 0.05142489542 0.005113404616
509.375 0.05542348723 0.006151622915
510.0 0.06343177073 0.02709721684
510.625 0.02560949031 -0.04463357107
511.25 0.009730518821 -0.035690157
511.875 -0.003307841281 -0.01814402098
512.5 -0.003429078703 -0.0117791169
513.125 -0.01795369707 -0.007558876766
513.75 -0.04092523881 -0.01124777291
514.375 -0.05472671404 0.01774979037
515.0 -0.04298673814 0.04128676262
515.625 -0.07601369512 0.002576118224
516.25 -0.03224359257 0.06446771682
516.875 -0.06005217461 0.04608292656
517.5 0.001028107549 0.04528846389
518.125 -0.007803987384 -0.008849102098
518.75 -0.02911899264 -0.01256821106
519.375 -0.03340188047 0.01437428017
520.0 -0.004631936402 0.03225261911
520.625 -0.01768444186 0.00972005239
521.25 -0.01803031552 0.01068262771
521.875 -0.001715717367 0.01886605172
522.5 0.01826614113 0.007591278711
523.125 -0.01071519587 -0.02218543685
523.75 -0.03690467017 -0.05734470422
524.375 -0.05730112457 -0.06265382081
525.0 -0.05288545499 -0.02048304364
525.625 -0.07664384704 0.004447636947
526.25 -0.05434687086 0.00509303909
526.875 -0.03735105831 0.01307922707
527.5 -0.03337197056 0.02934009281
528.125 -0.01297242436 0.06043105255
528.75 -6.12526139e-05 0.04769174599
529.375 0.01901392631 0.04635087789
530.0 0.05505418761 0.04535664007
530.625 0.09876179945 -0.03687499626
531.25 0.1003132177 -0.08078035426
531.875 0.05640870409 -0.07603825668
532.5 0.02388236469 -0.04811231563
533.125 0.04519146815 -0.03432155665
533.75 0.02476416998 -0.05172092134
534.375 0.0182261474 -0.03565883474
535.0 0.02513441676 -0.01904157237
535.625 0.04723746419 -0.0004952290842
536.25 0.03171174044 -0.03856297056
536.875 0.04457807115 -0.05930726002
537.5 0.0459447224 -0.04690585675
538.125 0.01130976048 -0.03217711473
538.75 0.01837305759 -0.02064206684
539.375 0.06222105635 -0.01979896563
540.0 0.07662385782 -0.04624374348
540.625 0.05789781402 -0.05336969379
541.25 0.03566603897 -0.04279825641
541.875 0.04490504263 -0.04706864459
542.5 0.03483968938 -0.05457292617
543.125 -0.001532121197 -0.0517128274
543.75 -0.02043935733 -0.004056682405
544.375 0.01098059675 0.0007764031839
545.0 0.003139739179 -0.02398888043
545.625 -0.03946502335 -0.03383041665
546.25 -0.03334830718 -0.01897672557
546.875 -0.02385692217 -0.009617773677
547.5 -0.0256634284 -0.01225227313
548.125 -0.03775869579 -0.02296691204
548.75 -0.007725363809 -0.03611137756
549.375 0.008810976391 -0.04818967367
550.0 0.03848893147 -0.04336063637
550.625 0.04615213808 -0.08036934054
551.25 0.08255996792 -0.05712567985
551.875 0.04401632492 -0.07254470705
552.5 0.01687020501 -0.0750666715
553.125 -0.006711580716 -0.08939661755
553.75 -0.006991520722 -0.07520205888
554.375 -0.02927232175 -0.04969476293
555.0 -0.02609912123 -0.03822965202
555.625 -0.02438519148 -0.04581021358
556.25 -0.01713885739 -0.03770845949
556.875 -0.02603191162 -0.02785860483
557.5 -0.01359637948 -0.02212583947
558.125 0.006116420506 -0.008414939376
558.75 0.01888373493 0.004276264421
559.375 0.03221325667 -0.001544257818
560.0 0.05969427835 -0.01557487743
560.625 0.06135809846 -0.0511640115
561.25 0.02332680819 -0.06536512425
561.875 -0.00913181876 -0.05428429519
562.5 -0.02403817182 -0.04768073006
563.125 -0.04093700991 -0.04215860426
563.75 -0.04095833479 -0.008526997613
564.375 -0.02127736145 0.001197703821
565.0 -0.003942994543 -0.01610140316
565.625 -0.01005341659 -0.03498841324
566.25 -0.00160642709 -0.04421183673
566.875 0.007499413697 -0.03670794715
567.5 0.01445533205 -0.02958662529
568.125 0.01788041249 -0.02222363481
568.75 0.04012263554 -0.02222613307
569.375 0.05876672646 -0.0105476553
570.0 0.06421232188 -0.02485196527
570.625 0.04150356446 -0.04926834451
571.25 0.03902682065 -0.05687774092
571.875 0.03162727524 -0.05630083763
572.5 -0.008990298694 -0.06309925659
573.125 -0.04367538043 -0.03935800582
573.75 -0.04098039605 -0.01938086953
574.375 -0.007311268395 -0.0300776386
575.0 -0.0211624354 -0.03463283271
575.625 -0.04197268862 -0.01655621673
576.25 -0.03562437135 -0.005866341505
576.875 -0.01187930495 -0.01239398207
577.5 0.0008220997121 -0.01649437116
578.125 -0.006615357344 -0.02455391016
578.75 0.005057930415 -0.03663353368
579.375 0.008921550037 -0.0406084733
580.0 0.006870725539 -0.05324358886
580.625 -0.0006059392879 -0.07147417747
581.25 -0.02622376301 -0.07349713063
581.875 -0.04262389553 -0.04839829239
582.5 -0.04106369317 -0.03647325603
583.125 -0.01122571896 -0.03724792001
583.75 -0.01533159235 -0.04565873179
584.375 -0.01156303049 -0.0390448827
585.0 -0.003723764956 -0.03424893177
585.625 0.01430838376 -0.02638704222
586.25 0.01751554382 -0.02996691614
586.875 0.01079337106 -0.02953368803
587.5 -0.001622948929 -0.03124232899
588.125 0.007030202369 -0.03195161368
588.75 0.00347383527 -0.03845861739
589.375 -0.006119293553 -0.05433234334
590.0 -0.03728226365 -0.05846426958
590.625 -0.06194197656 -0.03164951549
591.25 -0.06000982953 0.007856545277
591.875 -0.03038562978 0.006475402097
592.5 -0.005310814757 -0.009358406983
593.125 -0.004026309061 -0.02014722579
593.75 -0.01526525814 -0.006719311374
594.375 0.005944410027 -0.01903089417
595.0 0.03205056769 -0.021039381
595.625 0.04297662315 -0.02009140151
596.25 0.02517664502 -0.02570156582
596.875 0.04158426587 -0.01439667723
597.5 0.04571735032 0.009118208882
598.125 0.04927282181 0.002045261831
598.75 0.05454670753 -0.01982859577
599.375 0.05987418477 -0.03411562948
600.0 0.05285606786 -0.03723080938
600.625 0.03709710553 -0.03785817556
601.25 0.002021138591 -0.04604864468
601.875 0.006523422224 -0.02304914996
602.5 0.01077326875 -0.0005817623926
603.125 0.007343115381 0.00585444139
603.75 0.006619293496 0.009329726507
604.375 0.0234514193 0.02626223456
605.0 0.02716244043 0.02278841947
605.625 0.01563251034 0.01171529173
606.25 -0.004129657469 0.0258419901
606.875 -0.01725427759 0.03412278215
607.5 0.00601573923 0.04813852683
608.125 0.03348704055 0.04744044092
608.75 0.02513012135 0.02669581762
609.375 0.0204272658 0.04444536599
610.0 0.02047197758 0.04563510521
610.625 0.02543086219 0.03361378626
611.25 0.01251013337 0.02642701064
611.875 0.002364625044 0.002915826999
612.5 -0.01056566339 -0.001220026823
613.125 -0.03474972682 0.009927068612
613.75 -0.04100507135 0.01673774214
614.375 -0.01873511686 0.01012707071
615.0 -0.01734401814 0.01277125731
615.625 -0.03859664441 0.01096440734
616.25 -0.04371404964 0.01673801657
616.875 -0.0255814517 0.01883223104
617.5 -0.01266465571 0.01476927276
618.125 -0.02691687461 0.009508739973
618.75 -0.02294365451 0.008623387122
619.375 -0.003727193148 0.0005728007229
620.0 0.00485233719 -0.00908182236
620.625 -0.001128228359 -0.0264609587
621.25 -0.007479908142 -0.04002534544
621.875 -0.009253438847 -0.06465541778
622.5 -0.06685462546 -0.0240726542
623.125 -0.07821887174 0.0152374484
623.75 -0.05716394146 0.02308577227
624.375 -0.03803414626 -0.00312080566
625.0 -0.04707139861 -0.01933619658
625.625 -0.04658582937 -0.01194682249
626.25 -0.02834890994 0.01193583414
626.875 -0.01126944606 0.01032498008
627.5 0.01455825946 -0.008798013506
628.125 0.01883428253 -0.01398898981
628.75 0.01742734936 -0.01350915771
629.375 0.02464335087 -0.01255379735
630.0 0.05907604046 0.001686124372
630.625 0.05397421246 -0.01357158222
631.25 0.0557015058 -0.02445000719
631.875 0.05325353394 -0.02769593171
632.5 0.04302457102 -0.02784660841
633.125 0.03887381856 -0.02763273792
633.75 0.03397344799 -0.03484683922
634.375 0.0312417786 -0.02073829887
635.0 0.02104613917 -0.01248968588
635.625 0.007959178966 -0.01653939359
636.25 0.02659523947 -0.01046851591
636.875 0.03932267464 0.002345773604
637.5 0.02414030555 -0.01609355054
638.125 0.02115828181 0.01021643993
638.75 0.02169861051 0.0282741901
639.375 0.02542595998 0.04628968785
640.0 0.02558180852 0.046618138
640.625 0.01590856869 0.05313226879
641.25 0.005070898941 0.03692253218
641.875 0.002282401983 0.03214398062
642.5 -0.004944412598 0.03371849367
643.125 -0.01181111306 0.03977610646
643.75 -0.01642643944 0.02766702602
644.375 -0.01615552766 0.01860154891
645.0 -0.0244660035 0.02977883137
645.625 -0.05962684981 0.04978618396
646.25 -0.03503011862 0.05063831723
646.875 -0.005091398113 0.04316305582
647.5 -0.01257952484 0.03569807224
648.125 -0.05318518714 0.03803017989
648.75 -0.0381953576 0.03575853564
649.375 -0.0203511439 0.04253821803
650.0 -0.01669511822 0.02403900073
650.625 -0.01939185652 -0.003295413229
651.25 -0.01258965464 -0.009049720803
651.875 -0.009472143293 -0.008413648043
652.5 0.01676168296 -0.02194425564
653.125 0.03612551742 -0.02334406297
653.75 0.05107990467 -0.03135145486
654.375 0.05752001151 -0.0402134853
655.0 0.06638720822 -0.04028485372
655.625 0.05408919926 -0.04551939843
656.25 0.02484841438 -0.05298713503
656.875 0.01137089899 -0.05431607221
657.5 0.03085994206 -0.04297021093
658.125 0.008263699623 -0.03750760089
658.75 0.00423288914 -0.03741154278
659.375 0.00774069576 -0.01328750986
660.0 0.02819234892 -0.007622523815
660.625 0.03255763486 -0.01812026879
661.25 0.03025349256 -0.05129354568
661.875 0.02750821824 -0.0625719442
662.5 0.01538984034 -0.06670395131
663.125 0.00994779108 -0.06755008015
663.75 0.03576088294 -0.07522946351
664.375 0.05677865279 -0.03432738352
665.0 0.05076691117 -0.009758420301
665.625 0.06151341261 0.003376733875
666.25 0.04557779533 0.02372255314
666.875 0.01499857581 0.01893739741
667.5 -0.002671487633 0.01799595204
668.125 -0.01141935027 0.0394236258
668.75 -0.02254070259 0.05480900023
669.375 -0.01291039445 0.05312319383
670.0 -0.003404955141 0.04854786849
670.625 -0.01035201212 0.05356391412
671.25 -0.007799596031 0.06275991844
671.875 0.01561400684 0.05301630911
672.5 0.04950851966 0.03207109209
673.125 0.04116099325 0.01860618142
673.75 0.01693094285 0.02658106098
674.375 0.001228069154 0.02554152985
675.0 -0.006864446284 0.03986390182
675.625 -0.03336576409 0.04947003339
676.25 -0.05366436958 0.01995654435
676.875 -0.049623371 0.0116063547
677.5 -0.07231813587 0.02322749633
678.125 -0.08828820046 0.03766983979
678.75 -0.06695730734 0.03352780894
679.375 -0.03969513592 0.04110883239
680.0 -0.03825814641 0.03143732823
680.625 -0.03447129934 0.01574849847
681.25 -0.02784633696 0.01956625286
681.875 -0.007876719184 0.02263451843
682.5 -0.02211151669 0.001993050502
683.125 -0.055486651 0.006810389819
683.75 -0.06021325783 0.01186247172
684.375 -0.06255222754 -0.004269328715
685.0 -0.04398833976 -0.05297646797
685.625 0.006773636539 -0.07844833594
686.25 0.02287659343 -0.07906664986
686.875 0.02830320155 -0.09725057385
687.5 0.02952246856 -0.06405482337
688.125 0.02223174411 -0.04532260125
688.75 0.01766761821 -0.0281046329
689.375 0.03962063668 -0.02304342672
690.0 0.04024036212 0.0134247738
690.625 0.02161009569 0.01417434347
691.25 0.03987101416 0.01233079368
691.875 0.07171336089 -0.02877677679
692.5 0.05849510131 -0.08381081792
693.125 -0.04490837869 -0.07061039126
693.75 -0.08221042703 -0.01981664476
694.375 -0.06783870566 -0.01761612536
695.0 -0.05856674962 -0.04371228121
695.625 -0.02252228667 -0.05933627176
696.25 0.03419060208 -0.02745107439
696.875 0.02469686474 0.02236383348
697.5 -0.003115723273 0.02839453003
698.125 -0.02277688138 0.03520793676
698.75 -0.04254174544 0.04707917266
699.375 -0.04353131309 0.05062442939
700.0 -0.02721471789 0.05139244488
700.625 -0.04349780475 0.04297883773
701.25 -0.06194177725 0.0381120074
701.875 -0.0389316783 0.04228074202
702.5 0.01778506234 0.04668728707
703.125 0.01158916297 0.01973251415
703.75 -0.01855506856 0.04603020943
704.375 0.01806168079 0.0668167167
705.0 0.04408249849 0.04820159785
705.625 0.03483175142 0.04993214565
706.25 -0.03630966022 0.05626125562
706.875 -0.07509064194 0.01730364814
707.5 -0.08386754612 -0.0150014259
708.125 -0.07993936801 -0.02711372088
708.75 -0.03200487625 -0.04100796455
709.375 0.001560522585 -0.0345165546
710.0 0.03668965292 -0.02172368205
710.625 0.04037337947 -0.01100390802
711.25 0.01844310304 -0.0002735654889
711.875 0.007107376859 0.01028052467
712.5 0.03562436388 0.03835272367
713.125 0.06988166391 -0.01573469432
713.75 0.03305816141 -0.07084472492
714.375 -0.02068256228 -0.07947687631
715.0 -0.05763636964 -0.06913777404
715.625 -0.05216672322 -0.06783149349
716.25 -0.03286895542 -0.0519244815
716.875 0.007032386254 -0.04397338662
717.5 0.03096294213 -0.01978377004
718.125 0.03710868303 0.00768816679
718.75 0.03038751557 -0.01107847363
719.375 0.02911910975 0.01991792897
720.0 -0.01411501171 0.03405053657
720.625 -0.04432894475 0.005314283778
721.25 -0.035695052 -0.02282980321
721.875 -0.009171876046 -0.07848110153
722.5 0.003890348344 -0.0805503316
723.125 -0.03710318644 -0.06066487651
723.75 -0.05071359083 0.01992416591
724.375 -0.04109993781 0.01429346587
725.0 -0.0310028836 0.00948224467
725.625 -0.01330293725 0.01714766264
726.25 -0.0206646154 0.0110542721
726.875 -0.04445869172 -0.006279110882
727.5 -0.06216201036 -0.03354109544
728.125 -0.05729387184 -0.02910606716
728.75 -0.056504553 -0.02794161241
729.375 -0.01918806253 0.004449906595
730.0 -0.03591449212 -0.01292182709
730.625 -0.04504485698 -0.03383933602
731.25 -0.02062345033 -0.04189085118
731.875 0.000337766209 -0.02428107815
732.5 0.01543407289 -0.01189460452
733.125 0.02495299837 0.0171226232
733.75 0.04446323535 0.03893886263
734.375 0.02482843706 0.01987472694
735.0 0.03883798478 -0.007890632096
735.625 0.06376221487 -0.04043692215
736.25 0.04903178192 -0.04951514059
736.875 0.007550289839 -0.03747461541
737.5 -0.002514907386 -0.03311698145
738.125 0.01716794185 0.001550980476
738.75 0.01346757276 0.04560117653
739.375 0.01529317888 0.0455968251
740.0 0.03879539208 0.02618294557
740.625 0.03386225669 0.01300114769
741.25 0.02903948615 0.02579667847
741.875 0.008542340309 0.04434720415
742.5 -0.03489105923 0.01036795045
743.125 -0.03034421828 -0.02700316369
743.75 -0.01620001247 -0.0425774006
744.375 -0.02398239581 -0.05650542783
745.0 -0.003233012114 -0.04681197437
745.625 -0.04259839794 -0.02713564962
746.25 -0.02687542976 0.01032196513
746.875 -0.005784449182 0.003249935398
747.5 -0.002066153389 -0.03476941836
748.125 -0.03128863313 -0.0169686159
748.75 -0.03379516815 0.01910102343
749.375 -0.01375713656 0.03953168302
750.0 0.03150949688 0.04291277626
