!Created with skrf (http://scikit-rf.org).
# GHz S RI R 50.0 
!freq ReS11 ImS11
500.0 -0.01471226324 0.02292259135
500.625 0.02512647234 0.02323349412
501.25 0.03671127658 0.008400947093
501.875 0.03071994258 0.01216852522
502.5 0.01962145366 0.03329283153
503.125 0.03509570953 0.01929561858
503.75 0.04608241956 -0.003917308408
504.375 0.04601595079 -0.01903909754
505.0 0.03525785044 -0.03886561301
505.625 0.03679835823 -0.06524080898
506.25 0.02163654736 -0.075970533
506.875 0.05596431304 -0.08005543223
507.5 0.02414733342 -0.07534877256
508.125 0.06307670255 -0.07740279259
508.75 0.01277547909 -0.09957442385
509.375 -0.003645797634 -0.0785168252
510.0 0.0230044478 -0.07633214234
510.625 -0.05554537702 -0.05662320579
511.25 -0.0698956944 -0.04484486071
511.875 -0.06811455103 0.008865237973
512.5 -0.03615536841 0.0408028311
513.125 0.009244716808 0.07143456052
513.75 0.0219174781 0.07381439087
514.375 0.04177427224 0.05640739663
515.0 0.08028939763 0.04450597145
515.625 0.04100804461 0.122920063
516.25 0.08900258384 0.08395431076
516.875 0.03017626105 0.1424623009
517.5 0.1328477035 0.08600857105
518.125 0.01327622876 0.226372633
518.75 0.08326907636 0.04531138516
519.375 0.07723740863 0.0498639144
520.0 0.1208981011 0.02138880519
520.625 0.1188894156 0.01638110399
521.25 0.09720200676 -0.01971646064
521.875 0.08072567682 0.007384357652
522.5 0.1054622797 -0.05429032631
523.125 0.1805368365 -0.09166211394
523.75 0.141110496 -0.1822056034
524.375 0.1654853575 -0.1681165548
525.0 0.07053077792 -0.05057200721
525.625 0.04764114055 -0.01875220284
526.25 0.058205152 -0.007724966125
526.875 0.06573016077 -0.02796707993
527.5 0.05441216879 -0.0348747451
528.125 0.02559236545 -0.04907796852
528.75 0.01353343286 -0.07608601381
529.375 -0.05298977222 -0.1000373285
530.0 -0.05522226035 -0.04177632402
530.625 -0.04437325411 -0.0119887202
531.25 -0.1109541774 -0.05229860631
531.875 -0.1855688645 -0.05908344174
532.5 -0.1652677945 0.008678150469
533.125 -0.1085226722 0.03446129043
533.75 -0.1059597816 0.06984630159
534.375 -0.1287355055 0.04760002525
535.0 -0.09130007993 0.06092036194
535.625 -0.0702746708 0.03418190845
536.25 -0.04558462267 0.05885865795
536.875 -0.09158999895 0.02370848514
537.5 -0.1002683751 -0.01884505733
538.125 -0.09876534858 0.03209906375
538.75 -0.1142596076 0.06555902925
539.375 -0.1015704041 0.02887116735
540.0 -0.09466023113 0.01592942798
540.625 -0.1158522002 0.024339495
541.25 -0.1418531357 0.005691918422
541.875 -0.104776643 -0.01145163677
542.5 -0.09377696276 -0.01597504133
543.125 -0.1245390313 0.04045485248
543.75 -0.09504007672 0.1242342803
544.375 -0.04511515406 0.1195874079
545.0 0.05739058668 0.08316082197
545.625 0.1026667427 0.07011254979
546.25 0.1105306049 0.04752318877
546.875 0.1055100252 0.02778179975
547.5 0.1220634663 0.03177264963
548.125 0.1427434258 0.07219133773
548.75 0.08961704728 0.09951732137
549.375 0.09199739746 0.08885653616
550.0 0.0624658681 0.1271147674
550.625 0.02781629091 0.1076614633
551.25 -0.02067943201 0.05488624123
551.875 -0.0121331538 0.04131595674
552.5 -0.02055682835 0.07306445614
553.125 -0.04400045819 0.07435696432
553.75 -0.04721717058 0.04902972998
554.375 -0.02892922299 0.06897112539
555.0 -0.01464704511 0.1056490852
555.625 -0.01450919629 0.110877313
556.25 -0.03101440375 0.08252439342
556.875 -0.02740414872 0.09918821197
557.5 -0.03871379998 0.1205200049
558.125 -0.04702198503 0.1189551796
558.75 -0.05992933926 0.08764326067
559.375 -0.03299734005 0.1036829897
560.0 -0.03774873618 0.08113408829
560.625 -0.01909270217 0.05242072531
561.25 -0.02041988748 0.04841222661
561.875 -0.02820798578 0.0717999474
562.5 -0.01853878111 0.08882125561
563.125 0.008802313578 0.08235688823
563.75 0.05311163624 0.0830312025
564.375 0.08870752081 0.1041016721
565.0 0.0710479847 0.10772297
565.625 0.07544601685 0.07226620064
566.25 0.06541529663 0.07809035216
566.875 0.03343464225 0.1109499616
567.5 -0.01728438501 0.09491273017
568.125 -0.01695927926 0.09690183035
568.75 -0.02626782122 0.1084807538
569.375 -0.03213626882 0.08584824476
570.0 -0.03083188816 0.05367611393
570.625 -0.02018424351 0.05352885316
571.25 -0.03306038721 0.06894500246
571.875 -0.03070411796 0.04742791467
572.5 -0.02481865823 0.04992054095
573.125 -0.01195775329 0.08845733822
573.75 0.03898146001 0.1215802908
574.375 0.05163741197 0.08681339252
575.0 0.05269848477 0.05449659578
575.625 0.06887291238 0.06331073733
576.25 0.06431719879 0.09094531133
576.875 0.06615714144 0.0766692307
577.5 0.0771790942 0.05161276541
578.125 0.09574883115 0.05522032813
578.75 0.07462689893 0.07381257324
579.375 0.06757967113 0.05111369204
580.0 0.07547691483 0.03468438139
580.625 0.07460686536 0.03286330404
581.25 0.03813317723 0.03798327954
581.875 0.01278624157 0.04260373107
582.5 0.02934235907 0.06514243743
583.125 0.03465082717 0.09372812901
583.75 0.02532897699 0.08169270129
584.375 0.01357214549 0.06987975988
585.0 0.003424831233 0.08516061294
585.625 -0.005380382511 0.1032158563
586.25 0.002009602051 0.07860705483
586.875 0.01305421436 0.06730675048
587.5 0.01810848431 0.08659765552
588.125 0.04952516103 0.08144285738
588.75 0.058143968 0.05483735414
589.375 0.07205377743 0.01386011289
590.0 0.06474864683 0.01324599306
590.625 0.03665137042 0.0293519199
591.25 0.03493808931 0.0435970576
591.875 0.06360614558 0.04491561271
592.5 0.09472915104 0.04050849301
593.125 0.08096599552 0.0401614145
593.75 0.06916960826 0.03677798528
594.375 0.07028204034 0.05841346022
595.0 0.04832485962 0.08127847257
595.625 0.01814630732 0.07098909309
596.25 0.003076279046 0.05727918782
596.875 -0.01414143292 0.06508675509
597.5 -0.02497576869 0.0653047995
598.125 -0.01040487724 0.06067039294
598.75 0.008762795337 0.04993163346
599.375 0.009648524687 0.036580641
600.0 -0.005882485274 0.01711045099
600.625 -0.0204642641 0.005557900086
601.25 -0.04136548882 0.01362149506
601.875 -0.05143113066 0.02641977128
602.5 -0.04840965002 0.03083466519
603.125 -0.04776736903 0.0346121127
603.75 -0.04486401645 0.04484112791
604.375 -0.04146900523 0.03511290731
605.0 -0.03134786592 0.01756158477
605.625 -0.03874705551 0.00429606658
606.25 -0.05635407372 0.002732820905
606.875 -0.05896355958 0.009273095466
607.5 -0.03541806785 0.02622079594
608.125 -0.01378710443 0.02549235248
608.75 -0.01144308144 0.01757724273
609.375 -0.01020630902 0.0100091706
610.0 0.0009279095761 0.007390119777
610.625 0.007990079875 -0.004405564023
611.25 0.009627268516 -0.01617987123
611.875 0.009740040618 -0.02708843196
612.5 0.004387113091 -0.02771005138
613.125 -0.007456576488 -0.0219776947
613.75 -0.009485718554 -0.007428362656
614.375 0.0005688893571 0.002899650969
615.0 0.0100631489 -0.002611049992
615.625 0.004963984308 -0.003579724682
616.25 -0.001527751332 0.005784269866
616.875 0.007675034684 0.02024726481
617.5 0.02085797319 0.02090451485
618.125 0.02196191217 0.01843017101
618.75 0.02111000615 0.01976829907
619.375 0.02786247884 0.03003155669
620.0 0.04050260844 0.02909223357
620.625 0.04397198449 0.003319713975
621.25 0.03378494608 -0.008023003862
621.875 0.01494063766 -0.01298942649
622.5 -0.01357823098 0.003902681889
623.125 -0.009608923542 0.0336651319
623.75 0.002638711937 0.04949548125
624.375 -0.003000177503 0.05828443288
625.0 -0.02212856624 0.05187095358
625.625 -0.02165953845 0.06567445345
626.25 -0.004228228871 0.08941055666
626.875 0.003985597313 0.09197652779
627.5 0.0006061552898 0.07319344088
628.125 -0.007004619087 0.06656154534
628.75 -0.02243625532 0.07327800486
629.375 -0.03071046926 0.0615318468
630.0 -0.01928113214 0.04474020665
630.625 -0.02336062063 0.03145152016
631.25 -0.03829415852 0.01236906638
631.875 -0.04752856764 -0.01090640274
632.5 -0.04744001582 -0.01422046543
633.125 -0.06442459102 -0.01448026291
633.75 -0.07998665694 -0.011796337
634.375 -0.07862221448 -0.01676121574
635.0 -0.08486377053 -0.002254002434
635.625 -0.0941601556 0.02573869265
636.25 -0.09220791356 0.02071018197
636.875 -0.0705071401 0.0009741824532
637.5 -0.08243058647 -0.002407259526
638.125 -0.1100014555 0.002367945541
638.75 -0.09624220545 0.0001258327773
639.375 -0.05874674579 -0.01342175024
640.0 -0.03935156028 -0.03917812598
640.625 -0.02110789143 -0.08324838105
641.25 -0.002822840564 -0.08104147939
641.875 -0.004831144089 -0.07060488852
642.5 -0.001972335843 -0.08121232913
643.125 0.03441639922 -0.09647278806
643.75 0.05462988594 -0.08160632912
644.375 0.01938601241 -0.08484009195
645.0 -0.0009018182718 -0.1000614307
645.625 0.01958788502 -0.0896303716
646.25 0.03468207698 -0.06759745085
646.875 0.03646590614 -0.06642161554
647.5 0.03349388417 -0.09552532125
648.125 0.0420980696 -0.0763838468
648.75 0.05496250087 -0.04169036524
649.375 0.07820316585 -0.02805488322
650.0 0.1095005681 -0.0162975834
650.625 0.108104305 0.01057352191
651.25 0.09506361875 0.0260194362
651.875 0.09841374481 0.06605323964
652.5 0.06245183327 0.1140551031
653.125 0.04136948132 0.1023211051
653.75 0.03785661601 0.0892084391
654.375 0.009243713995 0.100334827
655.0 -0.04708439252 0.06558526225
655.625 -0.0457449606 0.03632072137
656.25 -0.03958447041 0.05798830206
656.875 -0.04105444676 0.09890123173
657.5 -0.07699430087 0.07702546249
658.125 -0.080955528 0.0530998593
658.75 -0.06610963213 0.0950545283
659.375 -0.04258773742 0.1468396146
660.0 -0.006202674069 0.1386348083
660.625 0.02273975233 0.1136466503
661.25 0.0550054177 0.109970324
661.875 0.07180148297 0.1053568131
662.5 0.06794817545 0.07289843534
663.125 0.05598748761 0.0669722035
663.75 0.00778649098 0.1001008404
664.375 -0.06846840479 0.06351841586
665.0 -0.08060945207 0.01433434817
665.625 -0.09116877112 -0.003486843184
666.25 -0.1220830854 -0.06087995127
666.875 -0.07595106271 -0.1081255471
667.5 -0.06748738674 -0.09769714999
668.125 -0.0968227311 -0.08971392596
668.75 -0.1055346861 -0.1037238331
669.375 -0.05530144772 -0.09091463063
670.0 -0.03706069533 -0.07056724747
670.625 -0.05658777041 -0.09256925192
671.25 -0.0722598673 -0.096306592
671.875 -0.06191886564 -0.07559600318
672.5 -0.07270211051 -0.04898899868
673.125 -0.1122233963 -0.04122527345
673.75 -0.1263132451 -0.05242154215
674.375 -0.1142395171 -0.05877432472
675.0 -0.09478880596 -0.09080753163
675.625 -0.04615872261 -0.1253954295
676.25 0.002552401407 -0.1214997153
676.875 0.001398336507 -0.1124252781
677.5 -0.000505530642 -0.1288172157
678.125 0.04427761247 -0.09209590065
678.75 0.0490374153 -0.04411317676
679.375 0.05905756344 -0.03735250002
680.0 0.08421165832 -0.08004201084
680.625 0.1163987842 -0.08218216561
681.25 0.0777632494 -0.08279836154
681.875 0.03412337531 -0.1149429758
682.5 -0.03012220017 -0.1642912238
683.125 -0.02166459005 -0.1746838273
683.75 0.0130127224 -0.1292919229
684.375 0.05425032046 -0.1068689319
685.0 0.1309129424 -0.04978861343
685.625 0.1218340788 0.03914524292
686.25 0.07221717092 0.0712004257
686.875 0.03054675556 0.08158896434
687.5 -0.02571569485 0.08750392347
688.125 -0.05473521753 0.08034779928
688.75 -0.06981847331 0.09793745876
689.375 -0.1070443958 0.1166937783
690.0 -0.1109946732 0.08419633581
690.625 -0.08873775746 0.09079909494
691.25 -0.03716083623 0.1464985005
691.875 0.04337688218 0.1950914373
692.5 0.09285724781 0.09976710241
693.125 0.08896034911 -0.01443427277
693.75 0.08070163202 -0.06297065395
694.375 0.1310813164 -0.07267139988
695.0 0.1318709752 0.0288332266
695.625 0.06305253569 0.08028110421
696.25 -0.0313634386 0.1159413077
696.875 -0.1402033613 0.03834267624
697.5 -0.1310540554 -0.07357751286
698.125 -0.1048249539 -0.09054909742
698.75 -0.1085261611 -0.08660614197
699.375 -0.08169655794 -0.08295013763
700.0 -0.05735766312 -0.08463597619
700.625 -0.03472592054 -0.1091445596
701.25 0.01319419943 -0.1090028328
701.875 0.01544314488 -0.08101047243
702.5 -0.01460406594 -0.09002766098
703.125 -0.117137754 -0.09786060599
703.75 -0.1979785654 -0.0213472198
704.375 -0.1254849934 0.06043471879
705.0 -0.08403013112 0.07233370679
705.625 -0.1332899919 0.04569574745
706.25 -0.1327670157 -0.09767385884
706.875 -3.437142529e-05 -0.1101907006
707.5 0.02513312245 -0.07772751733
708.125 0.07444411915 -0.04234659221
708.75 0.0934941811 0.04042911745
709.375 0.03231506679 0.09347564475
710.0 -0.008269706106 0.08901874876
710.625 -0.04081733047 0.08604858212
711.25 -0.07670172599 0.06958642261
711.875 -0.0871568949 0.08811488524
712.5 -0.05237592697 0.1407464145
713.125 0.05892121005 0.135229762
713.75 0.1202712522 0.02127569171
714.375 0.0988113143 -0.05973535056
715.0 0.09629090587 -0.08421851898
715.625 0.09256501561 -0.02904928102
716.25 0.06098819478 0.01670092935
716.875 0.050472448 0.04805981597
717.5 0.01447669375 0.1088536405
718.125 -0.04179148253 0.1060508978
718.75 -0.04581139109 0.07262473119
719.375 -0.05589446812 0.05916754787
720.0 -0.09989213001 0.01765971956
720.625 -0.07672501395 -0.08685283966
721.25 0.02585035129 -0.1024070593
721.875 0.07731487215 -0.06514476522
722.5 0.08204132501 -0.03627568783
723.125 0.05487253861 -0.03733910325
723.75 0.04019951167 -0.03986275299
724.375 0.01366482757 -0.06435532268
725.0 -0.02422414141 -0.05253488515
725.625 -0.037299189 -0.04082335748
726.25 -0.04921841888 -0.04873457998
726.875 -0.04252064227 -0.07972019213
727.5 -0.02665315735 -0.07841598679
728.125 -0.007646650761 -0.06626827322
728.75 -0.0007592563131 -0.05559261087
729.375 0.004689871554 -0.05367818573
730.0 0.001365911543 -0.0489712192
730.625 -0.001358374035 -0.03441418534
731.25 0.01365950576 -0.02136422612
731.875 0.0205843692 0.0008670247225
732.5 0.004357263645 0.02513906692
733.125 -0.01015851352 0.031611799
733.75 0.0003232628632 0.04099525613
734.375 0.01474370359 0.03553634489
735.0 0.02494004676 0.01462284255
735.625 0.020651147 8.367306405e-05
736.25 0.01272696082 -0.0135704908
736.875 -0.01116852035 -0.02107754827
737.5 -0.03330078891 -0.01030436057
738.125 -0.04828676281 -0.001046898126
738.75 -0.04135933105 0.01315329526
739.375 -0.01865757648 0.01256950771
740.0 -0.009315008919 -0.002777502701
740.625 -0.02508337449 -0.01281436807
741.25 -0.02888668618 -0.006689083019
741.875 -0.01613702418 -0.02016857169
742.5 0.0197146789 -0.0171317478
743.125 0.02419154995 0.01673922015
743.75 0.01020468379 0.02757691362
744.375 0.006085855102 0.03317302903
745.0 -0.001412948877 0.04094017112
745.625 0.001761549758 0.06301899204
746.25 0.04074700602 0.06383780811
746.875 0.0796797351 0.01715391802
747.5 0.06557480494 -0.02415704858
748.125 0.03597469298 -0.03544300215
748.75 0.01839686854 -0.04137027511
749.375 -0.01399783579 -0.05387429512
750.0 -0.06205531584 -0.01420583463
