!Created with skrf (http://scikit-rf.org).
# GHz S RI R 50.0 
!freq ReS11 ImS11
500.0 -0.03218252844 0.01229393024
500.625 -0.01265172656 0.0318568544
501.25 -0.01388821126 0.03241862259
501.875 -0.03343206323 0.04588336664
502.5 -0.04811941895 0.05320606496
503.125 -0.01153562551 0.05576133361
503.75 0.01265653032 0.04519854493
504.375 0.02643954538 0.03909280955
505.0 0.04630886655 0.02497302885
505.625 0.05426416959 0.01252356757
506.25 0.03699405585 0.003286740329
506.875 0.02485355747 0.02660125903
507.5 0.0288800622 0.0316449812
508.125 0.02397754877 0.04575973982
508.75 0.03668907237 0.0338318826
509.375 0.03533315692 0.03990967389
510.0 0.05007862943 0.05282608815
510.625 0.04043145876 -0.03172620503
511.25 0.0204371521 -0.03008984218
511.875 0.006900838419 -0.01500359475
512.5 0.005805817786 -0.01464568758
513.125 -0.01575561878 -0.02675951027
513.75 -0.04256224047 -0.03912225821
514.375 -0.06354257246 -0.01207458511
515.0 -0.06278547819 0.02899982237
515.625 -0.08471948451 -0.001674432538
516.25 -0.05587229951 0.04726745268
516.875 -0.06040322343 0.01486020325
517.5 -0.01993151085 0.03034797138
518.125 -0.0128475535 -0.02438947197
518.75 -0.03791023059 -0.0207291921
519.375 -0.04356156767 0.002373068675
520.0 -0.02786500077 0.03280088057
520.625 -0.02366321583 0.01446191349
521.25 -0.02882405093 0.01274743832
521.875 -0.0147627967 0.01234610587
522.5 0.003713179493 0.01802602893
523.125 -0.02029353734 -0.01074624901
523.75 -0.07200499823 -0.046832199
524.375 -0.09802527164 -0.06508674509
525.0 -0.07036951299 -0.0146853734
525.625 -0.07828047568 0.009094725366
526.25 -0.06754025972 0.002948553477
526.875 -0.04837177897 0.0181936065
527.5 -0.04463633551 0.04053443737
528.125 -0.009448321762 0.06203899495
528.75 0.002149539546 0.05786603191
529.375 0.02696998772 0.06332117745
530.0 0.07240127145 0.05596341009
530.625 0.1132604175 -0.03675607945
531.25 0.1357956399 -0.08096203266
531.875 0.08459373406 -0.08469733124
532.5 0.05310614468 -0.06053414616
533.125 0.0447151039 -0.03851168414
533.75 0.02702429459 -0.06216234474
534.375 0.03401896131 -0.05058584135
535.0 0.04106119112 -0.03430463951
535.625 0.04906678704 -0.004978630734
536.25 0.03524609206 -0.05055332595
536.875 0.05591596933 -0.07652409405
537.5 0.06468906118 -0.05420350825
538.125 0.02048361172 -0.03939218929
538.75 0.0265928986 -0.03188010118
539.375 0.07582601529 -0.03757242199
540.0 0.09758202641 -0.06303271112
540.625 0.06682089836 -0.06641378647
541.25 0.05874257542 -0.05318097147
541.875 0.06085806956 -0.06270516956
542.5 0.04414019598 -0.06560108973
543.125 0.0002299797539 -0.06159392908
543.75 -0.01403963327 -0.02024047402
544.375 0.01202075791 -0.01417778128
545.0 -0.009020690792 -0.03131025573
545.625 -0.04816354802 -0.02812950372
546.25 -0.05307264473 -0.01848990319
546.875 -0.04304895252 -0.01472941725
547.5 -0.04036203959 -0.005871466725
548.125 -0.05250524834 -0.01742584329
548.75 -0.03228679146 -0.05606182133
549.375 -0.002860153938 -0.06001731241
550.0 0.02530968474 -0.05567628402
550.625 0.03780428831 -0.08224834745
551.25 0.08428390788 -0.07691431703
551.875 0.04718592508 -0.08722011458
552.5 0.01120423837 -0.09074419908
553.125 -0.01273718396 -0.09170703494
553.75 -0.007741629333 -0.08677892841
554.375 -0.03751130588 -0.06588450963
555.0 -0.03740409212 -0.05180124062
555.625 -0.03435541961 -0.04989553187
556.25 -0.02419478583 -0.05142664637
556.875 -0.03768252135 -0.04409078622
557.5 -0.02275102259 -0.03740586345
558.125 0.0009834922828 -0.02585574518
558.75 0.01982066586 -0.007162544621
559.375 0.02759181179 -0.01697265089
560.0 0.05816996803 -0.03653789466
560.625 0.0592813488 -0.05949158466
561.25 0.01943718124 -0.07379540529
561.875 -0.01970216765 -0.06927790055
562.5 -0.04378198712 -0.05971881959
563.125 -0.047756894 -0.04311266817
563.75 -0.05055284037 -0.008187584364
564.375 -0.03816212684 0.002682761415
565.0 -0.02344099911 -0.01631310479
565.625 -0.01873015665 -0.03323012128
566.25 -0.01345151406 -0.04591025569
566.875 -0.01027577042 -0.05283308631
567.5 0.005287453682 -0.0438854062
568.125 0.00746944059 -0.03067871539
568.75 0.0339800941 -0.03361732569
569.375 0.05902837912 -0.03204635169
570.0 0.06632317377 -0.03906315308
570.625 0.03494336004 -0.05557555293
571.25 0.02581491995 -0.07565099001
571.875 0.02573650962 -0.08244648266
572.5 -0.01757560049 -0.07793604631
573.125 -0.05583492532 -0.04119561521
573.75 -0.05583952238 -0.01645985652
574.375 -0.03830546284 -0.03887654478
575.0 -0.04016187636 -0.03702393121
575.625 -0.05111212663 -0.01178899795
576.25 -0.04777067831 -0.0002525467994
576.875 -0.03470016971 -0.005724625532
577.5 -0.0161898069 -0.01304206349
578.125 -0.01358179581 -0.02124339393
578.75 -0.01359029871 -0.0324868424
579.375 -0.01318831423 -0.03908683272
580.0 -0.0140574358 -0.04913101157
580.625 -0.02031345909 -0.06926091207
581.25 -0.04764879862 -0.07299928259
581.875 -0.05819826294 -0.04723126069
582.5 -0.0615314239 -0.02910597799
583.125 -0.03927787759 -0.04090414612
583.75 -0.02172420022 -0.04787657777
584.375 -0.02195546638 -0.04158444936
585.0 -0.03014848532 -0.0393098497
585.625 -0.01389140708 -0.04078661443
586.25 0.007799902958 -0.03869044438
586.875 -0.004271849876 -0.03590787601
587.5 -0.02171815422 -0.03050745375
588.125 -0.02312623803 -0.02584473407
588.75 -0.004194180895 -0.0399611057
589.375 -0.02045957608 -0.04773128532
590.0 -0.05729391561 -0.03820649645
590.625 -0.07932934056 -0.008937073075
591.25 -0.06626067641 0.01267105374
591.875 -0.04211437422 0.02081090515
592.5 -0.02427570711 0.01449677146
593.125 -0.02190820892 -0.001488420363
593.75 -0.01957776525 -0.003874416516
594.375 -0.01166924555 -0.01395950518
595.0 0.006768923298 -0.02283387594
595.625 0.02069067333 -0.02935383235
596.25 0.01801850525 -0.02985550636
596.875 0.01914241276 -0.02958934318
597.5 0.0276399835 -0.01955990784
598.125 0.03469049002 -0.01571826255
598.75 0.0347837234 -0.02987819492
599.375 0.03486836289 -0.04739127983
600.0 0.03351876771 -0.05699350596
600.625 0.02253928226 -0.05613290897
601.25 -0.0001257270711 -0.05216247833
601.875 -0.009580083126 -0.03824745469
602.5 -0.01070838154 -0.02523689416
603.125 -0.008486255367 -0.01337645228
603.75 -0.002053048188 -0.002238454348
604.375 0.0118542999 0.001458829267
605.0 0.01771163901 -0.004557779022
605.625 0.007988377736 -0.01201846814
606.25 -0.005703459673 -0.003488853543
606.875 -0.00983443276 0.01656890375
607.5 0.006116195898 0.03013164543
608.125 0.0225489991 0.01877402972
608.75 0.02372156871 0.01183192685
609.375 0.02322103092 0.01641655264
610.0 0.02561343982 0.0175031867
610.625 0.02853415633 0.006166200178
611.25 0.02454826689 -0.002896955918
611.875 0.01658637914 -0.009770821553
612.5 0.004536562159 -0.01401947087
613.125 -0.01069673389 -0.01324699829
613.75 -0.0162970284 -0.001165972762
614.375 -0.008856919863 0.004597855854
615.0 -0.002823109997 -0.0001637404845
615.625 -0.009798784361 -0.01010591532
616.25 -0.01888614661 -0.002709185899
616.875 -0.01280254299 0.007998625093
617.5 -0.001599290251 0.006222724631
618.125 0.001172186845 -0.005275421577
618.75 -0.0015431749 -0.006167800945
619.375 0.005965605723 -0.004984949966
620.0 0.02008634172 -0.0115999911
620.625 0.01981539437 -0.03597720115
621.25 0.01153332553 -0.05167571662
621.875 -0.002689224497 -0.06760209199
622.5 -0.0578361649 -0.03481024227
623.125 -0.05761195846 -0.004633785642
623.75 -0.04553305656 0.004029190668
624.375 -0.03137944992 -0.01101847799
625.0 -0.01634368083 -0.0197652839
625.625 -0.01941863323 -0.009532345066
626.25 -0.01089285319 0.004786940625
626.875 0.01261779786 0.002371009279
627.5 0.03237215114 -0.00354817586
628.125 0.03335462611 -0.007594054631
628.75 0.03679925845 -0.008099224797
629.375 0.04685766206 -0.002402478073
630.0 0.05918103077 0.001456666723
630.625 0.06592055697 0.001683734858
631.25 0.06917937024 -0.002217431789
631.875 0.06207318765 -0.006722741789
632.5 0.04930384907 -0.01683634493
633.125 0.04753664839 -0.01417948667
633.75 0.04530820274 -0.006332469544
634.375 0.03758201107 0.000247513841
635.0 0.02525508061 -0.009853409645
635.625 0.02547535406 -0.003712342259
636.25 0.0427839395 0.01539979594
636.875 0.04720819636 0.01789184093
637.5 0.0341996886 -0.003502089434
638.125 0.02324647224 0.008683751966
638.75 0.02542182621 0.04648332804
639.375 0.02258950897 0.06468258796
640.0 0.02178269488 0.06190083427
640.625 0.01911477748 0.05349700131
641.25 -3.29155505e-05 0.04598507346
641.875 -0.005528614328 0.04076674977
642.5 -0.01719860191 0.04767055677
643.125 -0.02617457746 0.04457397585
643.75 -0.03173610405 0.0269632928
644.375 -0.02395979982 0.02543220748
645.0 -0.04042096299 0.04467608798
645.625 -0.05669302774 0.05429806115
646.25 -0.04232326404 0.05314459731
646.875 -0.02069317219 0.04977388782
647.5 -0.02745723762 0.05015012716
648.125 -0.05501931433 0.04583371463
648.75 -0.05185215943 0.03590803545
649.375 -0.03828873495 0.0401585507
650.0 -0.03437076188 0.02129061692
650.625 -0.03282696977 -0.009204983229
651.25 -0.02100290485 -0.02052017349
651.875 -0.01401993864 -0.02705074682
652.5 0.01457118722 -0.03843587522
653.125 0.04201866239 -0.03694262966
653.75 0.05682282023 -0.04489851584
654.375 0.07322442278 -0.05179321426
655.0 0.0852526021 -0.0495523652
655.625 0.05679529077 -0.0493890996
656.25 0.03747941447 -0.06649115505
656.875 0.03324336248 -0.06850325343
657.5 0.04785489609 -0.05443360105
658.125 0.01936170245 -0.04305276515
658.75 0.001389609042 -0.04378952725
659.375 0.01916722708 -0.02721606007
660.0 0.04296391234 -0.02426639926
660.625 0.035182372 -0.0305069072
661.25 0.02417671871 -0.05288473996
661.875 0.02049161306 -0.07566129667
662.5 0.01409912846 -0.08206819841
663.125 0.00325122289 -0.08093444945
663.75 0.03110162638 -0.08356419391
664.375 0.07551965015 -0.04522403829
665.0 0.06650233318 -0.008585118493
665.625 0.06702341593 -0.002120542178
666.25 0.05702716321 0.02264010702
666.875 0.02301429838 0.04263690834
667.5 0.003655730839 0.03122586934
668.125 -0.0007103409417 0.04374654641
668.75 -0.008612172623 0.06926404598
669.375 -0.01493854052 0.07557472995
670.0 0.002816990094 0.0633530253
670.625 -0.001494051487 0.06350306809
671.25 0.0007431030481 0.07845821469
671.875 0.01902634387 0.07351688165
672.5 0.06549569714 0.03656463511
673.125 0.06029372888 0.02187689451
673.75 0.03173720742 0.03123347369
674.375 0.01433260796 0.03965773703
675.0 0.008745758957 0.05204713405
675.625 -0.02298726993 0.06272285109
676.25 -0.05429089605 0.02974692458
676.875 -0.05566083841 0.03010793616
677.5 -0.07632109783 0.04588003911
678.125 -0.09488176187 0.05937966377
678.75 -0.07731665787 0.04064176224
679.375 -0.0508802794 0.05596869599
680.0 -0.04945585549 0.04977343503
680.625 -0.05287015576 0.03761737598
681.25 -0.03012257982 0.0266117322
681.875 -0.003131701753 0.03147492431
682.5 -0.02000396365 0.03244985224
683.125 -0.05640142966 0.03637694883
683.75 -0.06097090585 0.0266898117
684.375 -0.06718517403 0.01064495114
685.0 -0.06204218798 -0.04686135323
685.625 -0.01252273245 -0.09203651953
686.25 0.008857815613 -0.09309526144
686.875 0.01718246566 -0.1079743971
687.5 0.03813917409 -0.0896599852
688.125 0.02681635634 -0.0627532776
688.75 0.02094434474 -0.04904710319
689.375 0.03852123619 -0.03521354552
690.0 0.05142616482 -0.001559394013
690.625 0.03386052437 -0.0008585348515
691.25 0.04125928984 -0.01105344156
691.875 0.06209724296 -0.04180159098
692.5 0.04351075326 -0.1042111877
693.125 -0.06962120438 -0.07059136269
693.75 -0.1030646957 -0.00146215823
694.375 -0.09312768889 0.003460586389
695.0 -0.07145562679 -0.04086490245
695.625 -0.03798949647 -0.06155974631
696.25 0.03861242178 -0.06297347599
696.875 0.05542264811 0.01176010156
697.5 0.01275611133 0.03191942199
698.125 0.004094409977 0.04210028741
698.75 -0.01030812541 0.07338716131
699.375 -0.02957734754 0.07676774142
700.0 -0.02263746336 0.05674929492
700.625 -0.02979833003 0.06402179957
701.25 -0.05205694747 0.07761834578
701.875 -0.04169880391 0.074170581
702.5 0.0224463262 0.05106617248
703.125 0.0331404576 0.02142003421
703.75 0.0295081707 0.03539719399
704.375 0.05025908353 0.05326587345
705.0 0.06148836123 0.02944138651
705.625 0.04800991381 0.0442179805
706.25 -0.006205629455 0.07401724935
706.875 -0.06892077934 0.04240454995
707.5 -0.09280982608 0.01844277793
708.125 -0.08943477057 -0.02170525861
708.75 -0.05201462957 -0.04309420962
709.375 -0.01915890623 -0.04606536879
710.0 0.01546786955 -0.05503167235
710.625 0.04347909264 -0.03752171455
711.25 0.02919487732 -0.01465717932
711.875 0.008118187727 -0.01387472652
712.5 0.02377447294 -0.002806012819
713.125 0.06049571977 -0.03553905175
713.75 0.01872016091 -0.0782884039
714.375 -0.04991143731 -0.05635759794
715.0 -0.08053314246 -0.02869230601
715.625 -0.08738897588 -0.0442721402
716.25 -0.05802550107 -0.056081961
716.875 -0.03352947755 -0.05588731774
717.5 0.004579337563 -0.05092646474
718.125 0.0292728624 -0.03178599381
718.75 0.03228751923 -0.02224827142
719.375 0.0365960434 -0.01217871116
720.0 0.02367702784 0.0106496103
720.625 -0.01298663872 0.01764363948
721.25 -0.03360231622 -0.008903952035
721.875 -0.03671108967 -0.04998120573
722.5 -0.03495031948 -0.06831402275
723.125 -0.06503551057 -0.03728746213
723.75 -0.05647963032 0.03037363888
724.375 -0.01846356119 0.0485202035
725.0 0.00890908045 0.03681633311
725.625 0.01966933882 0.01546061528
726.25 0.01223826228 0.002977826287
726.875 -0.008782375528 0.003053000583
727.5 -0.0320841416 0.002838501796
728.125 -0.03875184377 0.002738296958
728.75 -0.03522282905 0.01266807965
729.375 -0.02010577272 0.01732891845
730.0 -0.01971321624 0.008185630545
730.625 -0.02409228408 0.006213975378
731.25 -0.02307562893 0.0009921469625
731.875 -0.01743942309 -0.008312902168
732.5 -0.01157768608 -0.008196463823
733.125 -0.007480273489 0.00226916077
733.75 0.002658599694 0.01491126016
734.375 0.01682904066 0.01193704236
735.0 0.02170838127 -0.005659703409
735.625 0.01752633821 -0.009766632411
736.25 0.01285172377 -0.02189151184
736.875 -0.005391768605 -0.02737358068
737.5 -0.02234380122 -0.01629387893
738.125 -0.03216591164 0.008089408202
738.75 -0.02771663093 0.03154237065
739.375 -0.005656566082 0.03959275888
740.0 0.01140527998 0.02420928134
740.625 0.005335807235 0.01573588077
741.25 -0.001850449283 0.02710356963
741.875 -0.01836034705 0.02623025477
742.5 -0.0310739277 -0.003548873113
743.125 -0.01069994936 -0.02745575245
743.75 0.008810155402 -0.0342567748
744.375 0.01038967916 -0.03788140835
745.0 0.002270454406 -0.03660963577
745.625 -0.01837868139 -0.01558071322
746.25 -0.003174196609 0.001639414922
746.875 0.01433139822 -0.01964288036
747.5 0.0001832846378 -0.04037497555
748.125 -0.02384106077 -0.03088842497
748.75 -0.04090094145 -0.00165348346
749.375 -0.03587697745 0.03175989588
750.0 0.003674016487 0.05692441227
