!Created with skrf (http://scikit-rf.org).
# GHz S RI R 50.0 
!freq ReS11 ImS11
500.0 -0.0353021984 0.02111108078
500.625 -0.0114299936 0.03070634528
501.25 -0.003551421638 0.03881386338
501.875 -0.01846913188 0.05680604241
502.5 -0.03739506474 0.05950673306
503.125 -0.004603469803 0.05437245011
503.75 0.0303658776 0.04647865587
504.375 0.03846690419 0.03225573186
505.0 0.0464077204 0.01601444739
505.625 0.06022826078 0.002456919883
506.25 0.05216185761 -0.01339600417
506.875 0.04169839541 0.01502798653
507.5 0.01979949797 0.03308918164
508.125 0.0279101575 0.03667491523
508.75 0.04082692756 0.01316518749
509.375 0.04156868031 0.01806435706
510.0 0.0404970064 0.05037732679
510.625 0.0324020692 -0.0304410107
511.25 0.006514023408 -0.03902857417
511.875 -0.004457809312 -0.01604529267
512.5 0.007536729279 -0.009526341823
513.125 -0.01026655857 -0.02080474798
513.75 -0.03424271254 -0.02474328438
514.375 -0.0474721521 -0.00254671648
515.0 -0.04494995764 0.03383569852
515.625 -0.07203808298 0.02491955259
516.25 -0.0370051829 0.04920463701
516.875 -0.04815336489 0.03149436567
517.5 -0.01218446212 0.01417852559
518.125 -0.01781650169 0.01379568123
518.75 -0.02033370455 -0.009412435204
519.375 -0.0330129665 -0.002338717971
520.0 -0.01108757993 0.02272442435
520.625 -0.001129418243 0.01796739461
521.25 -0.009908706776 0.007323330365
521.875 -0.004618183569 0.009491779621
522.5 0.005733433389 0.004351431316
523.125 0.01304651791 -0.0230086307
523.75 -0.05377840886 -0.06879521021
524.375 -0.0726983616 -0.08313217158
525.0 -0.05602404659 -0.0268557024
525.625 -0.05787251084 0.002237357261
526.25 -0.05263194905 -0.003092549483
526.875 -0.0504503021 0.005419889314
527.5 -0.03931846588 0.02402925513
528.125 -0.00639654693 0.04429600614
528.75 -0.003096960122 0.04065347556
529.375 0.006276297055 0.06254065676
530.0 0.05010910651 0.0600228358
530.625 0.0972608886 -0.02726123233
531.25 0.1102690368 -0.05936072046
531.875 0.08048825537 -0.05333186747
532.5 0.04714654836 -0.02741640814
533.125 0.0253850315 -0.0272057489
533.75 0.02426583941 -0.03801707771
534.375 0.03827733505 -0.02539063364
535.0 0.02926875085 -0.0096852633
535.625 0.03445046571 0.003044492918
536.25 0.03862812393 -0.03361050778
536.875 0.06949536511 -0.0564422714
537.5 0.05211364201 -0.03408129459
538.125 0.01340998553 -0.0242567086
538.75 0.02398544247 -0.01007603779
539.375 0.08195295017 -0.008864795519
540.0 0.08051828256 -0.03183857998
540.625 0.05129211511 -0.04428432234
541.25 0.04558828886 -0.028451958
541.875 0.06621614769 -0.03861074801
542.5 0.03731228744 -0.04759618635
543.125 -0.01098632443 -0.03705434651
543.75 -0.008429459738 0.002713262699
544.375 0.02351971502 0.0003798960713
545.0 0.01016731803 -0.02573166595
545.625 -0.01539788007 -0.02780259138
546.25 -0.02676474414 -0.02982470921
546.875 -0.02171636288 -0.02141224738
547.5 -0.02330632258 -0.02025957467
548.125 -0.01932932946 -0.03302169426
548.75 0.005082116937 -0.05022544529
549.375 0.01840590927 -0.05734677701
550.0 0.04810802907 -0.04243796246
550.625 0.05944861421 -0.05667152106
551.25 0.08882715217 -0.04534191521
551.875 0.05575785901 -0.07145739158
552.5 0.02618238056 -0.07547999409
553.125 0.003381442275 -0.06738216583
553.75 0.003438465463 -0.06536784706
554.375 -0.01909674796 -0.05650909733
555.0 -0.01720414067 -0.03643437696
555.625 -0.0129339108 -0.02991139934
556.25 -0.009660702434 -0.03681620456
556.875 -0.01587654582 -0.0306458738
557.5 -0.00339126476 -0.02930512744
558.125 0.01554209126 -0.007301692302
558.75 0.02202529246 0.0105493376
559.375 0.04249853548 -0.003849307914
560.0 0.0661120483 -0.00648940909
560.625 0.05703886167 -0.03232666634
561.25 0.02834377928 -0.05547834735
561.875 -0.0008347447797 -0.05960502359
562.5 -0.01773192814 -0.05370735463
563.125 -0.02378396507 -0.02570841548
563.75 -0.02618554564 -0.009691252688
564.375 -0.01860110556 -0.007859960637
565.0 0.004082158395 -0.02051663145
565.625 0.01156902407 -0.02862197587
566.25 0.01452985208 -0.03916929935
566.875 0.01775345473 -0.03980365736
567.5 0.01849749216 -0.03427172757
568.125 0.0240258657 -0.01800485348
568.75 0.04694958048 -0.0007119340826
569.375 0.0664858093 -0.001172228238
570.0 0.06792853602 -0.0224444441
570.625 0.04616761904 -0.03799615131
571.25 0.04609762399 -0.04995130831
571.875 0.04037613906 -0.05098003168
572.5 -0.005968916563 -0.06721463129
573.125 -0.03809324413 -0.03686326946
573.75 -0.01590532359 -0.01788042751
574.375 0.002615863558 -0.03343489595
575.0 -0.01874859764 -0.03756562677
575.625 -0.02515189947 -0.01863845357
576.25 -0.01878832854 -0.01364688425
576.875 -0.01078801865 -0.01722827592
577.5 0.008647122053 -0.01759086582
578.125 0.01534175833 -0.02623716208
578.75 0.0122923219 -0.03821895736
579.375 0.01405648437 -0.04390603906
580.0 0.00162734781 -0.05697443121
580.625 0.007663479086 -0.07106081485
581.25 -0.01783781352 -0.0719418989
581.875 -0.03575774202 -0.04989205246
582.5 -0.04452504769 -0.03847084125
583.125 -0.002160306976 -0.0364474277
583.75 0.0106412409 -0.02969785843
584.375 0.0002162691393 -0.03660577729
585.0 -0.002094505507 -0.03622336991
585.625 0.01557619181 -0.0245693004
586.25 0.0276351508 -0.01393095661
586.875 0.01535505289 -0.02772912294
587.5 -0.006333851009 -0.031327258
588.125 0.01173350191 -0.03109662529
588.75 0.02971572566 -0.03314942689
589.375 0.005165860283 -0.05798129797
590.0 -0.03708970033 -0.05822324434
590.625 -0.05142303049 -0.03513148828
591.25 -0.03784388379 -0.008289773498
591.875 -0.01867751907 0.000362724328
592.5 -0.0023777785 -0.009321755293
593.125 0.00601921189 -0.02090997608
593.75 0.008115623787 -0.02533345787
594.375 0.02418107544 -0.02298905431
595.0 0.03020102725 -0.01942252466
595.625 0.04654017058 -0.01229884885
596.25 0.04624158057 -0.01272028726
596.875 0.04302457188 -0.003429490824
597.5 0.04199068395 0.01147466496
598.125 0.04512193745 0.006095769734
598.75 0.05641257683 -0.01226310455
599.375 0.06354944568 -0.02311783255
600.0 0.04178646292 -0.0410703373
600.625 0.03101522907 -0.03757409289
601.25 0.02043115598 -0.02296632621
601.875 0.01072434658 -0.008981429498
602.5 0.003023057629 -0.002082227195
603.125 0.005341081866 0.01321676408
603.75 0.01152539733 0.03006355855
604.375 0.01784999051 0.03014562891
605.0 0.02215475341 0.02439578077
605.625 0.00585927622 0.0002446435768
606.25 -0.01123098016 0.01832852629
606.875 -0.02417624416 0.04395073563
607.5 -3.554731581e-07 0.05577394353
608.125 0.0175601234 0.02633699686
608.75 0.01811849568 0.04950363912
609.375 0.01496346298 0.03931042394
610.0 0.0155588938 0.04235583375
610.625 0.02201729501 0.01142631844
611.25 0.009818550508 0.01216201764
611.875 -0.003355085316 0.002795349352
612.5 -0.0166244943 -0.001923300034
613.125 -0.02682805981 -0.004751298088
613.75 -0.04229414727 0.007055586431
614.375 -0.03660933324 0.01050866082
615.0 -0.02488473496 0.009910230094
615.625 -0.03068212303 5.440102944e-05
616.25 -0.03021534972 -0.004076466146
616.875 -0.03882147251 0.01735941357
617.5 -0.02587622711 0.014329253
618.125 -0.0101145816 -0.0001884812195
618.75 -0.01600631634 -0.0001577510335
619.375 -0.02318505108 0.0006116290703
620.0 -0.003986706909 -0.01010866636
620.625 0.01471816762 -0.0323153189
621.25 -7.893712637e-05 -0.04475405785
621.875 -0.03039271245 -0.06283815358
622.5 -0.077017622 -0.02202301529
623.125 -0.06865722243 0.006249715918
623.75 -0.05301496112 0.01119516331
624.375 -0.05475079423 -0.0009910065685
625.0 -0.03183883797 -0.02189841323
625.625 -0.03532250007 -0.00985997093
626.25 -0.005245525639 0.006605135631
626.875 0.006613577807 0.007128166343
627.5 0.01701564399 -0.006193541952
628.125 0.01996127605 -0.01104842078
628.75 0.0373456086 -0.0009709937321
629.375 0.04079889787 0.001800383438
630.0 0.04841846805 -0.01090729521
630.625 0.05559871044 -0.006483316836
631.25 0.06379352781 0.002110303394
631.875 0.05284786275 -0.009198645637
632.5 0.04259482097 -0.02441777095
633.125 0.03687978341 -0.02355915355
633.75 0.0321033069 -0.006967583924
634.375 0.02908882416 -0.01169105915
635.0 0.01730567995 -0.02091245955
635.625 0.01228299522 -0.004204063188
636.25 0.02750818094 0.006286528347
636.875 0.03674430274 0.02578738241
637.5 0.02294612565 -0.003642155487
638.125 0.01060310025 -0.00263795721
638.75 0.01207371764 0.03559289541
639.375 0.0111564229 0.05996683372
640.0 0.01700821078 0.04942065364
640.625 0.02437763207 0.03756731623
641.25 0.00568255566 0.03006442122
641.875 -0.0120941194 0.03245241426
642.5 -0.01923197307 0.03573664478
643.125 -0.01935034836 0.03076917592
643.75 -0.0186580827 0.01604370667
644.375 -0.03194073594 0.01715469441
645.0 -0.04938173096 0.02679851408
645.625 -0.03987573078 0.04063398248
646.25 -0.02991055726 0.04074468212
646.875 -0.01868108935 0.03490683153
647.5 -0.01980945652 0.03005875231
648.125 -0.03568079365 0.03310834316
648.75 -0.03936468523 0.02612690492
649.375 -0.02547925677 0.02933331963
650.0 -0.01920716409 0.0105424678
650.625 -0.01455585823 -0.01139273923
651.25 -0.006721202218 -0.01651176108
651.875 0.00147599759 -0.01671265049
652.5 0.03484457617 -0.03060763418
653.125 0.04968741487 -0.02183655321
653.75 0.05982135083 -0.02718778197
654.375 0.07744160353 -0.03087323422
655.0 0.0683637292 -0.02772309211
655.625 0.04285435419 -0.04191361562
656.25 0.03483437457 -0.04402542814
656.875 0.02551086855 -0.04213434071
657.5 0.04710081369 -0.02497765888
658.125 0.01313368768 -0.0299069157
658.75 -0.006878518877 -0.02137938031
659.375 0.01669268258 0.00219496884
660.0 0.04659909981 0.002644768772
660.625 0.03914745498 -0.01259997293
661.25 0.03108654621 -0.02921816482
661.875 0.03743590829 -0.04836962094
662.5 0.03066087455 -0.06779066297
663.125 0.01918954356 -0.0685309617
663.75 0.03081152376 -0.05482545886
664.375 0.05578462706 -0.01936402726
665.0 0.05482147361 0.00166678684
665.625 0.04148856711 0.0009066984466
666.25 0.02437297487 0.01723341067
666.875 -0.003878557609 0.02760181337
667.5 -0.009980159766 0.01945180394
668.125 -0.0195890183 0.02295429668
668.75 -0.03516331153 0.04587175041
669.375 -0.02637197686 0.04993805002
670.0 -0.01277181329 0.05479270534
670.625 -0.01830003048 0.04077377895
671.25 -0.02055165582 0.05412652458
671.875 0.00197364016 0.05354792707
672.5 0.04230314836 0.04623719546
673.125 0.02583024115 0.02301887525
673.75 -0.0002169426827 0.02342250311
674.375 -0.007991001855 0.03458512381
675.0 -0.01967970647 0.03728334844
675.625 -0.03834358099 0.02698879688
676.25 -0.04748818001 0.003911565272
676.875 -0.06060182606 0.005093895322
677.5 -0.07954991884 0.01244347831
678.125 -0.08390007683 0.02093005217
678.75 -0.05520519323 0.0272307598
679.375 -0.04547969735 0.02995337926
680.0 -0.05158339781 0.02132812524
680.625 -0.03845203247 0.002359011317
681.25 -0.01045607394 0.006625644728
681.875 -0.01098899078 0.003131134988
682.5 -0.03813130235 -0.003874578383
683.125 -0.07110547278 0.005235015022
683.75 -0.05954874963 -0.0002690943194
684.375 -0.05394445674 -0.02089732726
685.0 -0.02559685495 -0.06353020505
685.625 0.01403797517 -0.08735335878
686.25 0.03142046308 -0.08299874482
686.875 0.0358080987 -0.06679423823
687.5 0.03854679959 -0.04859849731
688.125 0.02930615388 -0.04166604795
688.75 0.02343205924 -0.0192095091
689.375 0.01918201177 0.009675094322
690.0 0.0183529619 0.02699193042
690.625 0.0276909283 0.01961965015
691.25 0.04216937779 0.02641985592
691.875 0.075087932 0.008755902435
692.5 0.06723380533 -0.06203729371
693.125 -0.03716674872 -0.07837752456
693.75 -0.08829311309 -0.02890641352
694.375 -0.06167618268 -0.02894615264
695.0 -0.02467908541 -0.03677856249
695.625 0.0004621699712 -0.04901715862
696.25 0.04542561937 -0.02241682555
696.875 0.01374803023 0.02786739083
697.5 -0.01331309032 0.02361055645
698.125 -0.03206000206 0.03528062001
698.75 -0.05256216042 0.04995102589
699.375 -0.05084150529 0.04604210748
700.0 -0.03697559709 0.03401157851
700.625 -0.05459224554 0.03095031622
701.25 -0.0701263642 0.03491979744
701.875 -0.03666438633 0.0323605733
702.5 0.002734747867 0.02373687622
703.125 -0.01500063044 0.01228785426
703.75 -0.03137194555 0.05156752968
704.375 0.01687055579 0.06792309403
705.0 0.03683882595 0.05294660412
705.625 -0.0007389755139 0.05890257915
706.25 -0.0510495712 0.04801337387
706.875 -0.07464650933 0.02062147314
707.5 -0.07763177014 -0.02442458547
708.125 -0.03963874701 -0.04028012332
708.75 -0.01226092781 -0.03362796619
709.375 0.003184148876 -0.0359874822
710.0 0.03732029815 -0.005106169079
710.625 0.023445585 0.01454700329
711.25 0.007844763593 0.01078714852
711.875 0.008018774526 0.002480951417
712.5 0.03288670412 0.04144751495
713.125 0.08079961213 0.03071311837
713.75 0.05279366983 -0.06080034538
714.375 -0.01587746168 -0.08020846519
715.0 -0.04381930881 -0.07007373763
715.625 -0.02874836784 -0.06201286791
716.25 -0.01382114218 -0.05266445361
716.875 0.01102775832 -0.03840480227
717.5 0.02282988556 -0.02189225545
718.125 0.03033210254 0.01950923089
718.75 0.02783992932 0.02805064823
719.375 0.01538665185 0.02925695167
720.0 -0.02229982528 0.03049930403
720.625 -0.03386358201 0.004730718373
721.25 -0.04175495584 -0.06027686953
721.875 0.008620124741 -0.08381615868
722.5 -0.006536438279 -0.07049248512
723.125 -0.03872034755 -0.04932926863
723.75 -0.04369139536 -0.03066637956
724.375 -0.03872291248 -0.01480953883
725.0 -0.02281635905 0.007067279368
725.625 -0.002664213369 0.00888373514
726.25 -0.02046077355 -0.0005394259236
726.875 -0.05112468639 -0.02074988907
727.5 -0.0548475798 -0.03755276089
728.125 -0.0384030617 -0.01849448491
728.75 -0.04658282313 -0.03551864684
729.375 -0.03462495135 -0.03608868575
730.0 -0.03848667297 -0.02988936833
730.625 -0.03466036664 -0.03600672884
731.25 -0.01157664193 -0.02121002453
731.875 0.01601931852 -0.02124506825
732.5 0.02101790545 -0.005143043416
733.125 0.02457066432 0.0306644174
733.75 0.01004028692 0.03326865517
734.375 0.04661925998 0.03928348928
735.0 0.06341305113 -0.007168210847
735.625 0.04736934072 -0.01949514857
736.25 0.04381032293 -0.02662725859
736.875 0.02626828382 -0.03860496814
737.5 0.006711687677 -0.02646777365
738.125 0.007510545156 0.01376359365
738.75 -0.02259033902 0.04642853969
739.375 0.01647641604 0.05692312626
740.0 0.03974063284 0.03608600586
740.625 0.03767573373 0.02224859054
741.25 0.002037339494 0.03009124739
741.875 -0.00301604122 0.04597602282
742.5 -0.0508939508 0.02169181709
743.125 -0.03381971081 -0.0329697702
743.75 0.005514425761 -0.03237062086
744.375 0.002900141148 -0.04295151743
745.0 -0.01793163554 -0.06468504127
745.625 -0.0353604424 -0.02416481726
746.25 -0.006669842894 0.007349978518
746.875 0.0007911588633 -0.008349436764
747.5 -0.01739266769 -0.02975232867
748.125 -0.02664422534 -0.02405230352
748.75 -0.03584643114 0.008741937927
749.375 -0.03804319819 0.02239813929
750.0 0.004029666487 0.04947266494
