!Created with skrf (http://scikit-rf.org).
# GHz S RI R 50.0 
!freq ReS11 ImS11
500.0 -0.03314285039 0.03036175302
500.625 0.001399175257 0.04417199035
501.25 0.005638126761 0.04066646464
501.875 -0.004676790605 0.06045055457
502.5 -0.01479685229 0.07774318595
503.125 0.01178167651 0.06174085436
503.75 0.01851367652 0.04629691921
504.375 0.0417905172 0.03103655321
505.0 0.0615973661 0.003487992716
505.625 0.06741955749 -0.009310438547
506.25 0.04231860872 -0.004989824949
506.875 0.04238796057 0.01516054072
507.5 0.04802041006 0.009591693334
508.125 0.04553704435 0.02924779076
508.75 0.05030626494 0.003347021907
509.375 0.05745953881 0.000791080324
510.0 0.06603853476 0.02414631893
510.625 0.02418676492 -0.0467544908
511.25 0.01043155443 -0.03708292877
511.875 -0.005202640901 -0.0196409771
512.5 -0.006207362836 -0.01124749537
513.125 -0.02071191927 -0.00667658241
513.75 -0.04169637534 -0.01089045828
514.375 -0.05351078024 0.02302221121
515.0 -0.04062849015 0.04624191786
515.625 -0.07789492867 0.009494853606
516.25 -0.03136532887 0.07061437372
516.875 -0.06337680489 0.04998877418
517.5 -0.0005035988567 0.04906948636
518.125 -0.01448375627 -0.0008478788384
518.75 -0.03243064701 -0.008998144733
519.375 -0.03315671359 0.01926246161
520.0 -0.00331137804 0.03594699565
520.625 -0.01532636133 0.01609860939
521.25 -0.0140026811 0.01548889757
521.875 -0.001148259349 0.02115566631
522.5 0.02099374394 0.008644386015
523.125 -0.002918749334 -0.01547707977
523.75 -0.0347123432 -0.04854815446
524.375 -0.05269054625 -0.05703366322
525.0 -0.05086233129 -0.017852301
525.625 -0.07653410707 0.009949644762
526.25 -0.05482950285 0.008498927271
526.875 -0.03474101439 0.01589133862
527.5 -0.03034417671 0.03101863907
528.125 -0.008506128859 0.0612577428
528.75 0.005033980518 0.04612236712
529.375 0.02278412864 0.04068532627
530.0 0.05560041768 0.04027806827
530.625 0.1001368826 -0.04001218399
531.25 0.09845735953 -0.08573211741
531.875 0.05335243121 -0.08564521096
532.5 0.01878731148 -0.05339241445
533.125 0.04431763525 -0.03956399472
533.75 0.02147854253 -0.05520408443
534.375 0.01227615743 -0.03923515876
535.0 0.02113982531 -0.02284329378
535.625 0.04633123574 -0.004870370993
536.25 0.03007521319 -0.04107076991
536.875 0.04148527986 -0.06330639995
537.5 0.04300869418 -0.0524047326
538.125 0.01032031003 -0.03662226638
538.75 0.0169546671 -0.02453567638
539.375 0.05749751671 -0.02630353964
540.0 0.07341412131 -0.05316537093
540.625 0.05744528164 -0.0597559158
541.25 0.03317026074 -0.04689867385
541.875 0.04316294841 -0.05280805758
542.5 0.03171761993 -0.05937739753
543.125 -0.004429595888 -0.05750895814
543.75 -0.02230432295 -0.006290493613
544.375 0.006366827142 4.811657453e-05
545.0 -0.0002001935021 -0.0219724692
545.625 -0.04208292769 -0.02719401754
546.25 -0.03445488273 -0.01313973616
546.875 -0.0253885325 -0.005664077997
547.5 -0.02611958841 -0.007930658613
548.125 -0.04194505506 -0.01867466809
548.75 -0.01503162427 -0.03430712063
549.375 0.005251079793 -0.04596170887
550.0 0.0344805693 -0.04208338809
550.625 0.03989239679 -0.07830353795
551.25 0.07711957108 -0.05971401002
551.875 0.04103634595 -0.07294779659
552.5 0.01369635202 -0.07657823794
553.125 -0.01324410862 -0.09057205426
553.75 -0.008822802351 -0.0774848435
554.375 -0.03280853267 -0.04926373993
555.0 -0.03020928608 -0.03841894399
555.625 -0.02981702943 -0.04441455341
556.25 -0.0209353896 -0.03929725238
556.875 -0.02966483102 -0.02787294967
557.5 -0.01794968284 -0.0237311754
558.125 0.002299985323 -0.0104016366
558.75 0.01635667353 0.001950947182
559.375 0.02921434281 -0.002376481654
560.0 0.0560369023 -0.01845198652
560.625 0.05776470981 -0.05445839208
561.25 0.02077722911 -0.06623160947
561.875 -0.0125811955 -0.05476146128
562.5 -0.02875952377 -0.04729739695
563.125 -0.04673745492 -0.04095101931
563.75 -0.04501033932 -0.006722894831
564.375 -0.02246836461 0.004139519101
565.0 -0.007828057256 -0.01358320875
565.625 -0.01353231647 -0.03280923186
566.25 -0.004783217104 -0.04214636797
566.875 0.003153451866 -0.03690962463
567.5 0.01100179674 -0.03225781627
568.125 0.01487133213 -0.02244670056
568.75 0.03547825872 -0.02676192924
569.375 0.05651801637 -0.01630121201
570.0 0.06268352152 -0.02861184989
570.625 0.03928803445 -0.05011959705
571.25 0.03442967707 -0.05869339828
571.875 0.02838982735 -0.05958801886
572.5 -0.01244848452 -0.06613790348
573.125 -0.04604783576 -0.03830404763
573.75 -0.04855432045 -0.01645251388
574.375 -0.01224611099 -0.02940076429
575.0 -0.02462628271 -0.03405334185
575.625 -0.0439682949 -0.01503016927
576.25 -0.03692417866 -0.003604568402
576.875 -0.01454513037 -0.009679131908
577.5 -0.001919774104 -0.0151467731
578.125 -0.009005119993 -0.02214200624
578.75 0.002187469348 -0.0352214861
579.375 0.005521860003 -0.03972011686
580.0 0.00201041866 -0.0520548548
580.625 -0.004009823128 -0.07098443749
581.25 -0.03210460243 -0.07234342463
581.875 -0.04660350932 -0.04734506165
582.5 -0.04497018762 -0.03531925032
583.125 -0.01649096777 -0.03743542294
583.75 -0.02069716171 -0.04548825721
584.375 -0.01505965629 -0.04038868436
585.0 -0.007303928941 -0.03504173716
585.625 0.009828708092 -0.02886240151
586.25 0.01266197451 -0.03308176885
586.875 0.008047645581 -0.03137176667
587.5 -0.005223418469 -0.03139573229
588.125 0.001179059073 -0.03252290574
588.75 -0.002451426205 -0.03785437455
589.375 -0.01084543004 -0.05302716446
590.0 -0.0402631749 -0.05680299131
590.625 -0.06566585974 -0.02905407369
591.25 -0.06165989703 0.01045622865
591.875 -0.03154917503 0.007611856109
592.5 -0.00887414946 -0.007364197802
593.125 -0.007332200361 -0.01943747169
593.75 -0.01685279593 -0.005084316448
594.375 0.001547672437 -0.01783395096
595.0 0.0291578043 -0.02309214309
595.625 0.04106765769 -0.02253967048
596.25 0.02390404357 -0.02724025641
596.875 0.04123374831 -0.01699626718
597.5 0.04627472317 0.004816076842
598.125 0.0493346443 -0.001384174532
598.75 0.05056165897 -0.02336252523
599.375 0.05468329141 -0.03605059262
600.0 0.05236470567 -0.04070423215
600.625 0.03740461733 -0.04014256813
601.25 0.00136028026 -0.04759290944
601.875 0.005462330272 -0.02765045375
602.5 0.01185433013 -0.003760869942
603.125 0.00824999238 0.003423592748
603.75 0.007659739432 0.008204705589
604.375 0.02404636403 0.02169938879
605.0 0.02928957447 0.0206325534
605.625 0.01701727011 0.01026151946
606.25 -0.0007238099642 0.02486412078
606.875 -0.01473064075 0.03129649765
607.5 0.006174734176 0.04612160912
608.125 0.0354585234 0.04320703682
608.75 0.02777024767 0.02721837421
609.375 0.02301923411 0.0431435755
610.0 0.02324515978 0.04562182493
610.625 0.02992944241 0.03272136116
611.25 0.01568972645 0.02758690966
611.875 0.004691981464 0.002930040896
612.5 -0.008233657215 -0.000476017495
613.125 -0.03332466666 0.01364304639
613.75 -0.03950598486 0.02014555801
614.375 -0.01933821957 0.01265075344
615.0 -0.01852202306 0.01591902152
615.625 -0.0371600979 0.01466111072
616.25 -0.04287624095 0.0201922546
616.875 -0.02531816633 0.02280493575
617.5 -0.01323967698 0.01891892037
618.125 -0.02841931981 0.01361566032
618.75 -0.02376576347 0.01166082854
619.375 -0.005804538153 0.003055015181
620.0 0.004844502442 -0.006698900651
620.625 -0.002944091319 -0.02089050498
621.25 -0.00758098289 -0.03812969015
621.875 -0.01182636645 -0.06249004425
622.5 -0.06772695395 -0.01874266259
623.125 -0.07871649006 0.01916862284
623.75 -0.05817503239 0.0260709693
624.375 -0.04139997088 -0.000915800744
625.0 -0.04889965266 -0.01845347272
625.625 -0.04994156467 -0.01049117456
626.25 -0.03035785833 0.01253292963
626.875 -0.01394267253 0.01168933269
627.5 0.01370875838 -0.007516885043
628.125 0.01660727697 -0.01299476934
628.75 0.01370076986 -0.01306049849
629.375 0.02175590575 -0.01344437254
630.0 0.05764928212 -0.002077647482
630.625 0.05354203944 -0.01358913886
631.25 0.05382759338 -0.02723865717
631.875 0.05157259444 -0.03068354924
632.5 0.04451377465 -0.02866285843
633.125 0.03926176818 -0.02922297129
633.75 0.03184192545 -0.04005217469
634.375 0.03089001344 -0.02568794777
635.0 0.01944651046 -0.01572159825
635.625 0.008047540604 -0.01895285241
636.25 0.02434165651 -0.01423026968
636.875 0.0398902187 -0.001508248858
637.5 0.02364282397 -0.01858901955
638.125 0.02313996996 0.006440834099
638.75 0.02132472809 0.02631278037
639.375 0.02850876034 0.04232773667
640.0 0.02836453013 0.04449627025
640.625 0.02077546074 0.05204573364
641.25 0.009984687887 0.03428781388
641.875 0.006148902416 0.0315953679
642.5 -0.0006481462545 0.03559016276
643.125 -0.009456213614 0.04236587612
643.75 -0.01520060314 0.02991506189
644.375 -0.01336252146 0.01975760516
645.0 -0.02028193629 0.03028608235
645.625 -0.05432803755 0.0540551154
646.25 -0.03330295787 0.05258539648
646.875 -0.002510191061 0.04446953661
647.5 -0.009580568696 0.03671207559
648.125 -0.04856417191 0.04274502093
648.75 -0.03644799821 0.03946161254
649.375 -0.01880654091 0.04495552841
650.0 -0.01497218864 0.02778309173
650.625 -0.01982660598 0.001766481914
651.25 -0.01627342803 -0.007126009905
651.875 -0.0114992085 -0.006230406725
652.5 0.01110891544 -0.02248333091
653.125 0.03296306127 -0.02409532566
653.75 0.0469441027 -0.03258989436
654.375 0.05335824212 -0.04156427708
655.0 0.06440380217 -0.04437228959
655.625 0.05277092734 -0.04802887661
656.25 0.02228035366 -0.0551175303
656.875 0.008157054079 -0.05653742257
657.5 0.02929391218 -0.04867418126
658.125 0.007739860095 -0.04026623382
658.75 0.001491303765 -0.04203670528
659.375 0.007460288244 -0.01414078681
660.0 0.0226177629 -0.01045034466
660.625 0.02991175773 -0.01931645122
661.25 0.02511673053 -0.05118790124
661.875 0.02000117895 -0.06047643391
662.5 0.009590353856 -0.0660803966
663.125 0.00575938991 -0.06649898975
663.75 0.03104425105 -0.08071041067
664.375 0.05789517585 -0.0436453665
665.0 0.05221947387 -0.01301871276
665.625 0.06237639328 -0.001638366265
666.25 0.04892179132 0.01845981281
666.875 0.01930650585 0.01637822231
667.5 0.0004530797392 0.01750926817
668.125 -0.006040130008 0.03726628023
668.75 -0.01513078926 0.05357538772
669.375 -0.00903001035 0.05397936499
670.0 -0.0001457148499 0.0489368377
670.625 -0.005444958351 0.05278244296
671.25 0.0005932406725 0.06571098255
671.875 0.01909278025 0.05330881557
672.5 0.05282662356 0.02880261564
673.125 0.04371565972 0.01459958077
673.75 0.01992164179 0.02333400659
674.375 0.004282505925 0.02435077252
675.0 -0.002933140732 0.03892297991
675.625 -0.02683639463 0.0499505938
676.25 -0.05229323491 0.02401997456
676.875 -0.04755119099 0.014027557
677.5 -0.06906060986 0.02646797478
678.125 -0.08482052337 0.04192502621
678.75 -0.07050649495 0.03765352694
679.375 -0.03936850895 0.04564088638
680.0 -0.03819816594 0.03605492209
680.625 -0.03504104918 0.02193023671
681.25 -0.0282176336 0.02394455098
681.875 -0.004858367511 0.02502889065
682.5 -0.0180844615 0.004634160378
683.125 -0.05238125835 0.01159080438
683.75 -0.05803040306 0.01492491206
684.375 -0.06411454541 0.000699304371
685.0 -0.04904261769 -0.0487051641
685.625 0.000686749159 -0.07851710456
686.25 0.01882063047 -0.07994975708
686.875 0.01915095914 -0.1014549924
687.5 0.02877724881 -0.07103687855
688.125 0.02155977231 -0.04922278481
688.75 0.01647357359 -0.0325356328
689.375 0.03749586745 -0.03124231425
690.0 0.04118441709 0.006838482061
690.625 0.0210466494 0.01096625535
691.25 0.03832255906 0.008163493735
691.875 0.0668530155 -0.03141194331
692.5 0.05286803307 -0.08547199692
693.125 -0.0482721354 -0.06863207439
693.75 -0.08540787705 -0.01409667708
694.375 -0.07055330106 -0.01191435064
695.0 -0.06697535675 -0.04057644633
695.625 -0.02720466143 -0.05799692785
696.25 0.03247424182 -0.03064102725
696.875 0.02925768796 0.01973977598
697.5 0.0001326499736 0.02799443649
698.125 -0.01859036018 0.03617807916
698.75 -0.03727351617 0.0491597442
699.375 -0.04048298611 0.05416296991
700.0 -0.02436872365 0.05321165449
700.625 -0.03821172064 0.04665664447
701.25 -0.05858305998 0.04238928742
701.875 -0.03795135717 0.04801396164
702.5 0.02090895318 0.04823979384
703.125 0.01493430648 0.01903076239
703.75 -0.01212312867 0.04421530704
704.375 0.02241434367 0.06478576144
705.0 0.0453586803 0.04453911695
705.625 0.04063111075 0.04518329276
706.25 -0.02954167726 0.06105563643
706.875 -0.07372921264 0.02241187585
707.5 -0.08544490089 -0.009417463126
708.125 -0.08355059096 -0.02255730733
708.75 -0.03816088743 -0.04092960596
709.375 -0.001068456524 -0.03708029247
710.0 0.03410640694 -0.02750078675
710.625 0.04039440712 -0.01524333089
711.25 0.020543027 -0.004858534566
711.875 0.00779381505 0.005697213744
712.5 0.03536369913 0.03171103967
713.125 0.06277686432 -0.02357778345
713.75 0.0291858477 -0.07380359867
714.375 -0.02523068849 -0.07761674454
715.0 -0.06273433941 -0.06497880927
715.625 -0.05701061705 -0.06730254426
716.25 -0.04049937572 -0.05464187068
716.875 0.0004231045562 -0.04733158388
717.5 0.02941483377 -0.02477159224
718.125 0.03916466604 0.00399414898
718.75 0.03105903485 -0.01263375646
719.375 0.03089964943 0.01830114522
720.0 -0.008793820774 0.03447314379
720.625 -0.04240268462 0.008525519692
721.25 -0.03707975371 -0.02153101004
721.875 -0.01645447408 -0.07409798152
722.5 -0.0003248032676 -0.08240202472
723.125 -0.0412452376 -0.06128342156
723.75 -0.05161402653 0.0212980638
724.375 -0.0427121793 0.01802889892
725.0 -0.03139199136 0.01414385919
725.625 -0.01098729905 0.01955506199
726.25 -0.01876435417 0.01350191027
726.875 -0.03965052526 -0.006627571001
727.5 -0.06428014371 -0.02931420636
728.125 -0.05746408234 -0.02656831168
728.75 -0.05992607979 -0.02459436325
729.375 -0.02108009918 0.00596888972
730.0 -0.03912361715 -0.01094751561
730.625 -0.0485565075 -0.02996903058
731.25 -0.02555211298 -0.04090117012
731.875 -0.0006592924565 -0.02745958258
732.5 0.01210929054 -0.01007444282
733.125 0.02291547583 0.01338757561
733.75 0.04722952773 0.03390938829
734.375 0.02699803612 0.01649144416
735.0 0.04192157764 -0.01078952638
735.625 0.06239220297 -0.04683503059
736.25 0.04757787778 -0.05542471963
736.875 0.007717363741 -0.04141188385
737.5 -0.002218399795 -0.03597416195
738.125 0.01702135698 -0.004691310236
738.75 0.01731495997 0.04159002134
739.375 0.02039604517 0.04595598891
740.0 0.03890295873 0.03302393036
740.625 0.0323952356 0.01278021103
741.25 0.03179665946 0.02300814957
741.875 0.01243889742 0.04294262513
742.5 -0.03300466117 0.01438447183
743.125 -0.02974500842 -0.02336429656
743.75 -0.02119989919 -0.04052641319
744.375 -0.02959023873 -0.05385094479
745.0 -0.004667655542 -0.04391504778
745.625 -0.04210615456 -0.02787268782
746.25 -0.03139959974 0.01456345351
746.875 -0.00721766623 0.007291477538
747.5 -0.006854100962 -0.03131780144
748.125 -0.03257756447 -0.01255091019
748.75 -0.0318285634 0.02069958642
749.375 -0.009385085441 0.04088760082
750.0 0.03521982858 0.03810879449
