!Created with skrf (http://scikit-rf.org).
# GHz S RI R 50.0 
!freq ReS11 ImS11
500.0 -0.03197979263 0.009583385436
500.625 -0.01335860229 0.033153363
501.25 -0.01407786183 0.03006401195
501.875 -0.03461129819 0.04930790549
502.5 -0.05186713552 0.05136071013
503.125 -0.01283739268 0.05415907678
503.75 0.01257325474 0.04357059254
504.375 0.02425510691 0.03943538606
505.0 0.04542367933 0.02431362319
505.625 0.05538181959 0.01362273818
506.25 0.03467116375 0.002790330146
506.875 0.02069566498 0.02728461668
507.5 0.02580663162 0.03048396543
508.125 0.01961085707 0.04518654354
508.75 0.03257410591 0.03418557626
509.375 0.03163310578 0.04181388288
510.0 0.04712583705 0.05294423103
510.625 0.04019986926 -0.02906538406
511.25 0.01870862073 -0.02754497668
511.875 0.008686892481 -0.01259309731
512.5 0.00630475544 -0.01382918088
513.125 -0.01442257337 -0.02776321588
513.75 -0.03988114628 -0.03890434243
514.375 -0.06046665884 -0.01472378102
515.0 -0.06210382814 0.02584435043
515.625 -0.08017741379 -0.005258766251
516.25 -0.05471593347 0.0415805997
516.875 -0.05705894763 0.01343976245
517.5 -0.01770089388 0.02643994569
518.125 -0.004994425212 -0.02481366538
518.75 -0.03651306443 -0.02500646801
519.375 -0.04121478873 -0.0003611359941
520.0 -0.02796951338 0.02850527472
520.625 -0.0218279817 0.009153920588
521.25 -0.03006576528 0.008369667055
521.875 -0.01441017671 0.01040741866
522.5 0.001031028786 0.01532008148
523.125 -0.02212690719 -0.01837536087
523.75 -0.07488153848 -0.05360043366
524.375 -0.1004719377 -0.07127015596
525.0 -0.07165848808 -0.01784889024
525.625 -0.07793929702 0.003699579152
526.25 -0.06774629861 -0.0001327094747
526.875 -0.04921960862 0.01488827761
527.5 -0.04695066262 0.03731424736
528.125 -0.01272889461 0.05948573936
528.75 -0.000981921428 0.05783321801
529.375 0.02223949207 0.06494520323
530.0 0.06848593183 0.06046258311
530.625 0.1115345568 -0.03261149161
531.25 0.1378522605 -0.07493925822
531.875 0.08466068124 -0.07685278398
532.5 0.0552084396 -0.05142165767
533.125 0.04325870869 -0.03357597926
533.75 0.03088369938 -0.06048363632
534.375 0.03694457036 -0.04535780639
535.0 0.04376902616 -0.02842513998
535.625 0.04798641803 -0.001240177493
536.25 0.0377208126 -0.0498554785
536.875 0.05930866612 -0.07156009505
537.5 0.06426008855 -0.04786646462
538.125 0.02110786612 -0.0355725008
538.75 0.02878574444 -0.02955397987
539.375 0.07849857778 -0.03089522506
540.0 0.09849887475 -0.05578178022
540.625 0.06720032916 -0.06056642042
541.25 0.06001175202 -0.04815232959
541.875 0.06227293332 -0.05661970375
542.5 0.04451369679 -0.06146438953
543.125 0.002116659167 -0.05629432735
543.75 -0.01013933116 -0.01789819515
544.375 0.01519945104 -0.01118535501
545.0 -0.005933299594 -0.03247553347
545.625 -0.04374746897 -0.03316519979
546.25 -0.0500909936 -0.02356893029
546.875 -0.03940325816 -0.01785827756
547.5 -0.03929996158 -0.009515379605
548.125 -0.04971639711 -0.02407124397
548.75 -0.02608876311 -0.05984254927
549.375 0.002720574903 -0.05960150222
550.0 0.0294329872 -0.05619569927
550.625 0.04427434432 -0.081706985
551.25 0.08851390897 -0.07218156218
551.875 0.04971077098 -0.08358009146
552.5 0.01482356773 -0.08925367258
553.125 -0.007166486382 -0.0904598057
553.75 -0.003991464528 -0.08450573298
554.375 -0.03355725161 -0.06500361591
555.0 -0.03304961108 -0.05126867702
555.625 -0.02878440351 -0.04978756903
556.25 -0.02036860667 -0.04944018514
556.875 -0.03388160142 -0.04416304174
557.5 -0.01772415609 -0.03554535313
558.125 0.005179042885 -0.0231689494
558.75 0.02125208267 -0.004291287392
559.375 0.03069533806 -0.01503903383
560.0 0.06204507476 -0.03271615495
560.625 0.06153357475 -0.05468756439
561.25 0.02168707834 -0.07206198271
561.875 -0.01602771177 -0.06851569933
562.5 -0.03843424179 -0.0604123978
563.125 -0.04192979646 -0.04204885674
563.75 -0.0479969401 -0.0100990564
564.375 -0.03458549051 -0.0005268853023
565.0 -0.01905011901 -0.01843641322
565.625 -0.01358426541 -0.03478076714
566.25 -0.01000329124 -0.04708972886
566.875 -0.005012677459 -0.05312702341
567.5 0.009212456007 -0.04090876779
568.125 0.01047308918 -0.02958248213
568.75 0.03854434257 -0.02995513479
569.375 0.06243434755 -0.02888301245
570.0 0.06696148506 -0.03388558372
570.625 0.03700672801 -0.05412875308
571.25 0.03022533787 -0.07389059589
571.875 0.03003723004 -0.07936874921
572.5 -0.01423565518 -0.07462930181
573.125 -0.05314563573 -0.04104552836
573.75 -0.05063820721 -0.01957460088
574.375 -0.03184169426 -0.04116079616
575.0 -0.03576703796 -0.03756799892
575.625 -0.04784347536 -0.01404087073
576.25 -0.0455788525 -0.002881200376
576.875 -0.03011843743 -0.008816760821
577.5 -0.01295429419 -0.01453021684
578.125 -0.009882912396 -0.02358929615
578.75 -0.01017186798 -0.03421849512
579.375 -0.009563670011 -0.04039777387
580.0 -0.01041223665 -0.05122412387
580.625 -0.01625686648 -0.07090138689
581.25 -0.04244467061 -0.07426132157
581.875 -0.05591403846 -0.04759264732
582.5 -0.05804440134 -0.03152825222
583.125 -0.0338356865 -0.04174907782
583.75 -0.01512932311 -0.04674196866
584.375 -0.02046395227 -0.04080085202
585.0 -0.02651914018 -0.03952921413
585.625 -0.008714621812 -0.03974999668
586.25 0.01194433897 -0.03551704736
586.875 -0.002769012476 -0.03485616897
587.5 -0.0179924418 -0.03107589417
588.125 -0.01867491279 -0.02784888905
588.75 0.001228977874 -0.03981405774
589.375 -0.01855913675 -0.04826745596
590.0 -0.05502298851 -0.04141536492
590.625 -0.07676644054 -0.01270692906
591.25 -0.06299200167 0.009379380535
591.875 -0.04039986359 0.01935896158
592.5 -0.02236514656 0.01133935785
593.125 -0.01901428976 -0.004338557816
593.75 -0.01661834268 -0.006602251148
594.375 -0.009632719405 -0.01406339679
595.0 0.01073831948 -0.0225651036
595.625 0.02349789098 -0.02747824538
596.25 0.02104998041 -0.02824566802
596.875 0.02060485797 -0.02761759739
597.5 0.02935327723 -0.01639561626
598.125 0.03553951357 -0.01323708856
598.75 0.03675919285 -0.02813765272
599.375 0.03540487235 -0.04551159162
600.0 0.0356678995 -0.05404223841
600.625 0.02282975299 -0.05398262723
601.25 0.002443916754 -0.04962851697
601.875 -0.01017599674 -0.03658761531
602.5 -0.009539661228 -0.02275397798
603.125 -0.008209033886 -0.01145538381
603.75 -0.0009887702242 0.0001619901695
604.375 0.01212985714 0.003757507233
605.0 0.01655582498 -0.003322648233
605.625 0.007750575382 -0.01006168818
606.25 -0.006926376267 -0.002475165799
606.875 -0.01064835635 0.01893261282
607.5 0.003986961429 0.02926962482
608.125 0.0222139416 0.02028182744
608.75 0.02385779732 0.01395228858
609.375 0.02196693358 0.01712351141
610.0 0.02424985743 0.01720194264
610.625 0.02769741238 0.00697870818
611.25 0.02334933364 -0.003387222377
611.875 0.01556888053 -0.00915427462
612.5 0.004422478872 -0.01685124756
613.125 -0.01125039739 -0.01345726725
613.75 -0.01651344595 -0.00207497021
614.375 -0.009468368078 0.0050251583
615.0 -0.002467634472 -0.00268936543
615.625 -0.009659895445 -0.01071974958
616.25 -0.01868257517 -0.0030870522
616.875 -0.01260317816 0.008014061482
617.5 -0.0003345255744 0.003193530763
618.125 0.001877890134 -0.005531703389
618.75 -0.0006243480332 -0.006725996019
619.375 0.006587711231 -0.004431733611
620.0 0.02289844073 -0.01412810613
620.625 0.02106445081 -0.035912662
621.25 0.01306223597 -0.05251489105
621.875 -0.001597571715 -0.06628205761
622.5 -0.05584063568 -0.03801460006
623.125 -0.05614783452 -0.005509155525
623.75 -0.0439787076 0.003111337628
624.375 -0.02914156617 -0.01020085082
625.0 -0.01406801551 -0.01839073473
625.625 -0.01713509606 -0.008890059059
626.25 -0.008842950431 0.005718798191
626.875 0.01580920285 0.003055149826
627.5 0.03330063401 -0.0006976192766
628.125 0.03632997283 -0.006364790549
628.75 0.03793785292 -0.005340984608
629.375 0.04845557769 0.0008004112586
630.0 0.05780470276 0.004422985695
630.625 0.06725798981 0.004819710913
631.25 0.06785616809 0.001131049199
631.875 0.06025299725 -0.003259928163
632.5 0.04731626518 -0.01454375207
633.125 0.0479460132 -0.01018134105
633.75 0.04285959203 -0.002496489747
634.375 0.03433509789 0.003122657971
635.0 0.02355055859 -0.007330906912
635.625 0.02521972658 0.0001943340586
636.25 0.04154097936 0.02008010871
636.875 0.04367471348 0.02036100447
637.5 0.03324410593 -0.0006434358929
638.125 0.02041595609 0.01259244173
638.75 0.02243553756 0.05058030451
639.375 0.01896652125 0.06504856196
640.0 0.0183876852 0.06226965037
640.625 0.01432557808 0.0519145791
641.25 -0.004790382955 0.04352961583
641.875 -0.00800256447 0.03923563513
642.5 -0.02085294102 0.04541760486
643.125 -0.02945814558 0.04011388289
643.75 -0.03334599357 0.02194285016
644.375 -0.02563410885 0.02344601062
645.0 -0.04479249897 0.04170172554
645.625 -0.0596552002 0.04781193465
646.25 -0.04394447249 0.04869238968
646.875 -0.02253074367 0.04705504601
647.5 -0.0313837788 0.04655021901
648.125 -0.05659697274 0.03873926166
648.75 -0.05124184261 0.03207355562
649.375 -0.03867244311 0.03624493483
650.0 -0.03305400899 0.01669252852
650.625 -0.02875923434 -0.01342313101
651.25 -0.01771902638 -0.02208234366
651.875 -0.01023288017 -0.02914983796
652.5 0.02068349701 -0.03647986324
653.125 0.04527031182 -0.03408924908
653.75 0.0601854513 -0.04242618985
654.375 0.07631432537 -0.04759759049
655.0 0.08621794092 -0.04195963315
655.625 0.05564421707 -0.04611457712
656.25 0.04061662931 -0.0624705299
656.875 0.03715226983 -0.06320487237
657.5 0.04868601829 -0.0454185006
658.125 0.01844016372 -0.04014056952
658.75 0.004936593715 -0.03906615593
659.375 0.0241905455 -0.02265688478
660.0 0.04623679165 -0.01746502288
660.625 0.03745149544 -0.02783771928
661.25 0.02951416654 -0.05098344055
661.875 0.02755240607 -0.07470588166
662.5 0.01923233897 -0.07872591957
663.125 0.00761861936 -0.08045999184
663.75 0.03623516511 -0.07894797063
664.375 0.0764667258 -0.03755331045
665.0 0.06280961547 -0.005707463855
665.625 0.06401825615 0.002617650561
666.25 0.05178713388 0.02689434319
666.875 0.0150802376 0.0415172607
667.5 -8.79206069e-05 0.02977333087
668.125 -0.006472345316 0.0438839138
668.75 -0.01565465044 0.06983923294
669.375 -0.01984975744 0.07187494326
670.0 -0.001282177604 0.06194427021
670.625 -0.007148757008 0.0617684182
671.25 -0.006662271735 0.07676648943
671.875 0.01442391937 0.07091889333
672.5 0.06065317648 0.03984097381
673.125 0.05388015522 0.02581733187
673.75 0.02607555677 0.03335832187
674.375 0.009846001113 0.03993081779
675.0 0.003382664616 0.05323947705
675.625 -0.03067406487 0.05880107044
676.25 -0.05463874884 0.02454546411
676.875 -0.05815055632 0.02722183732
677.5 -0.07969983769 0.04089407985
678.125 -0.09833341864 0.05073108263
678.75 -0.07254548644 0.03557911167
679.375 -0.05280604334 0.05292437548
680.0 -0.05061446219 0.04308925463
680.625 -0.05355846704 0.02907529166
681.25 -0.02729398702 0.02082238777
681.875 -0.006051037502 0.02955494728
682.5 -0.02619915043 0.0287609859
683.125 -0.06152262893 0.02879347034
683.75 -0.06195687284 0.02180860959
684.375 -0.06784999049 0.00446384574
685.0 -0.05917808048 -0.05184961672
685.625 -0.004923564454 -0.09099046589
686.25 0.01300608723 -0.0917437526
686.875 0.02420119938 -0.1039728774
687.5 0.04102986102 -0.08375452132
688.125 0.02731065115 -0.05738555968
688.75 0.0229328248 -0.04464154145
689.375 0.04066872006 -0.02678780059
690.0 0.04834811565 0.005566478833
690.625 0.03283088592 0.002620402778
691.25 0.04374746953 -0.006110578393
691.875 0.06834787648 -0.03638064457
692.5 0.050674152 -0.09861963489
693.125 -0.06679161359 -0.07244274178
693.75 -0.1003178841 -0.008140731812
694.375 -0.08968615877 -0.00415476554
695.0 -0.06240255243 -0.04324558835
695.625 -0.03463841255 -0.06232147175
696.25 0.04188461575 -0.05571665822
696.875 0.04944799455 0.01753877425
697.5 0.008338971098 0.03051946844
698.125 -0.0006981631829 0.04311423349
698.75 -0.01844690023 0.07243143805
699.375 -0.03510481779 0.07206286111
700.0 -0.02461795868 0.05350355089
700.625 -0.03360808437 0.06219425595
701.25 -0.05774800139 0.07097425025
701.875 -0.04250281888 0.06625638911
702.5 0.01916248797 0.04816396136
703.125 0.02866483977 0.02262014344
703.75 0.02280865025 0.04101399883
704.375 0.04368659614 0.05678326092
705.0 0.05892503876 0.03317018266
705.625 0.04259858026 0.04837798211
706.25 -0.01202973611 0.07332050173
706.875 -0.07007236795 0.03732179382
707.5 -0.09263492909 0.01257393395
708.125 -0.0835390616 -0.02710060632
708.75 -0.04746025888 -0.04266950505
709.375 -0.01560255092 -0.04444368008
710.0 0.01993369029 -0.05087363206
710.625 0.04383307427 -0.02952343309
711.25 0.02635947757 -0.01204570728
711.875 0.008216491057 -0.01048999433
712.5 0.02614608636 0.002186788805
713.125 0.06770383541 -0.02775290911
713.75 0.02142970526 -0.07557869424
714.375 -0.04698640366 -0.05881065872
715.0 -0.07811689231 -0.03427632142
715.625 -0.08057436085 -0.04939483814
716.25 -0.05203002137 -0.05557653456
716.875 -0.03065314504 -0.05443379254
717.5 0.008887191817 -0.04648263566
718.125 0.02979718642 -0.02579519561
718.75 0.03257384045 -0.01696093656
719.375 0.03500213067 -0.009249563835
720.0 0.02005865112 0.01230715793
720.625 -0.01690350523 0.01523093062
721.25 -0.03508837149 -0.01319408836
721.875 -0.03367234773 -0.05058473652
722.5 -0.02954017423 -0.06984003405
723.125 -0.06135252553 -0.0380933049
723.75 -0.05628909424 0.02497453243
724.375 -0.01784385248 0.04498349226
725.0 0.005597633552 0.03383906627
725.625 0.01687708182 0.01435988703
726.25 0.009883350538 0.002109634987
726.875 -0.01258485246 0.001179417859
727.5 -0.03123979928 -0.0002749966468
728.125 -0.03918248785 -0.0005384209082
728.75 -0.03473025289 0.009778044187
729.375 -0.0226193535 0.01332516416
730.0 -0.01751553398 0.006248830843
730.625 -0.02300727118 0.004333044005
731.25 -0.02191392179 -0.0007933711679
731.875 -0.01536161941 -0.008922293931
732.5 -0.009929134584 -0.007486403015
733.125 -0.0100832987 0.004694894933
733.75 0.003082380806 0.01636139025
734.375 0.01909749172 0.01283397846
735.0 0.02017658231 -0.001701918012
735.625 0.01834619732 -0.009067916641
736.25 0.0133946813 -0.02102386716
736.875 -0.004766479289 -0.02783996318
737.5 -0.02294956115 -0.01303692502
738.125 -0.0337774131 0.00993773346
738.75 -0.028637909 0.0317142061
739.375 -0.006561395204 0.03944838727
740.0 0.01087886368 0.0238242545
740.625 0.001376246396 0.0189923095
741.25 -0.003400662706 0.02699272574
741.875 -0.02032069918 0.02493247183
742.5 -0.02958760742 -0.004323775831
743.125 -0.006943749733 -0.02949854453
743.75 0.01030324196 -0.03275010164
744.375 0.01333091862 -0.0357317789
745.0 0.002262887633 -0.03347996372
745.625 -0.01418771611 -0.0154356632
746.25 -0.0004443680928 0.001963325374
746.875 0.01757097585 -0.0207861409
747.5 0.003201456772 -0.04027354466
748.125 -0.02257159235 -0.03248296149
748.75 -0.04185398872 -0.004829633015
749.375 -0.03779723412 0.02805770877
750.0 -0.001074994052 0.05606658298
