!Created with skrf (http://scikit-rf.org).
# GHz S RI R 50.0 
!freq ReS11 ImS11
500.0 -0.03148555552 0.02448393316
500.625 -0.003363677799 0.03938241542
501.25 0.002176886273 0.04166751533
501.875 -0.003509107516 0.06240311765
502.5 -0.02626188019 0.06820127984
503.125 -0.005123155874 0.05836422265
503.75 0.03112197748 0.04460852883
504.375 0.03888182151 0.03058860998
505.0 0.05781946129 0.008773084156
505.625 0.05437039922 0.01255525915
506.25 0.0394189762 -0.007177504782
506.875 0.04496044806 0.01551393945
507.5 0.04092749075 0.01476347939
508.125 0.04555498095 0.02960556304
508.75 0.05675243389 -0.0019892625
509.375 0.04690260069 0.01111762813
510.0 0.05342541562 0.03608115228
510.625 0.03189408168 -0.03937562175
511.25 0.0009946376099 -0.04680681513
511.875 -0.006315958674 -0.01826344373
512.5 -0.004467034801 -0.01027847285
513.125 -0.01396973287 -0.02243543483
513.75 -0.04252812934 -0.005208963642
514.375 -0.05043542852 0.008199838572
515.0 -0.05645532663 0.02649548392
515.625 -0.07238005651 0.007486263516
516.25 -0.03208420094 0.07182783422
516.875 -0.054056307 0.03940779821
517.5 -0.002120330291 0.03716917239
518.125 -0.009885799706 0.001619296221
518.75 -0.02343487032 -0.00481480502
519.375 -0.03018420266 0.01320560833
520.0 -0.0253468786 0.02691050819
520.625 -0.01252746095 0.009775092476
521.25 -0.006455357824 0.01700279388
521.875 -0.003337751138 0.01401173468
522.5 0.00492423563 0.01001184853
523.125 0.0003838182431 -0.02565463675
523.75 -0.02822688695 -0.05264865081
524.375 -0.06579399377 -0.07302972568
525.0 -0.06922999311 -0.02125686371
525.625 -0.05965665238 0.00512380689
526.25 -0.05452090302 0.002407924629
526.875 -0.03559383734 0.01133212565
527.5 -0.04801296755 0.03523793747
528.125 -0.009659688346 0.05182157614
528.75 0.007807039307 0.03837843648
529.375 0.01390016247 0.04473223073
530.0 0.05324858237 0.04692902212
530.625 0.08940101665 -0.03882537766
531.25 0.1062206345 -0.07225901878
531.875 0.05224168181 -0.07369492122
532.5 0.03941021563 -0.04033701212
533.125 0.03416304091 -0.03113983911
533.75 0.01916736806 -0.04636070051
534.375 0.01755125658 -0.03113507152
535.0 0.04263964622 -0.02304701765
535.625 0.04312840071 0.001900170553
536.25 0.03460229067 -0.03817252618
536.875 0.04839734131 -0.05530928925
537.5 0.04318661372 -0.04519245722
538.125 0.005077362453 -0.03044054622
538.75 0.02196398894 -0.01749933091
539.375 0.05939259763 -0.01593402254
540.0 0.09863533284 -0.04953438815
540.625 0.04253628325 -0.05283474889
541.25 0.04167095381 -0.03710313685
541.875 0.05114939716 -0.04595557315
542.5 0.0301343359 -0.05231028969
543.125 -0.01476179446 -0.04399064267
543.75 -0.0132462337 -0.003071851308
544.375 0.01275032504 0.003617107194
545.0 -0.001729010193 -0.03229248374
545.625 -0.03219642814 -0.03491538062
546.25 -0.02661072807 -0.0140819883
546.875 -0.02457690057 -0.01562805964
547.5 -0.03783941986 -0.01298127278
548.125 -0.02034732913 -0.01999965656
548.75 -0.006038239309 -0.04599883325
549.375 0.01396718261 -0.04589546971
550.0 0.03427626014 -0.05553616369
550.625 0.05304634975 -0.0726332278
551.25 0.07589995174 -0.04872568681
551.875 0.04766993036 -0.06896138835
552.5 0.01803548408 -0.08425855086
553.125 -0.003064347919 -0.07512491542
553.75 -0.003345729929 -0.07104075101
554.375 -0.02608551518 -0.05204787314
555.0 -0.02892167733 -0.04954272865
555.625 -0.01962603654 -0.04090550999
556.25 -0.01751015301 -0.03337529072
556.875 -0.02265231549 -0.03111392382
557.5 -0.01112293162 -0.02025979581
558.125 0.006741501536 -0.007519978823
558.75 0.01540634415 0.008991843135
559.375 0.03512187582 -0.001143896528
560.0 0.06490472273 -0.02783502497
560.625 0.06150146104 -0.04481507376
561.25 0.02240579064 -0.05720968
561.875 -0.006451524817 -0.05793796917
562.5 -0.0285335191 -0.0563654588
563.125 -0.03377689482 -0.03608287371
563.75 -0.03399027626 -0.0074886962
564.375 -0.01691294542 -0.0009529621226
565.0 -0.01292372555 -0.02014770734
565.625 -0.003786128748 -0.03444179849
566.25 0.006418842938 -0.03675856273
566.875 0.01029092347 -0.04070826018
567.5 0.01435936995 -0.0310308286
568.125 0.02044009467 -0.01723048609
568.75 0.04182217448 -0.00606709694
569.375 0.06298879519 -0.01022412158
570.0 0.06306271831 -0.02116952196
570.625 0.04342418 -0.04470145811
571.25 0.0391418691 -0.04824035331
571.875 0.03550959216 -0.05677248843
572.5 -0.008646545383 -0.06440107658
573.125 -0.03912124116 -0.03670018634
573.75 -0.02404413163 -0.01595410051
574.375 -0.005504885986 -0.03337901806
575.0 -0.02713997926 -0.03648870244
575.625 -0.03589176867 -0.0175541056
576.25 -0.0240673367 -0.007816035439
576.875 -0.008444988991 -0.01124154049
577.5 -0.007110268141 -0.01561288116
578.125 -0.001652546064 -0.02649443855
578.75 0.01128196707 -0.0343964231
579.375 0.008719057431 -0.04225334293
580.0 0.00638201578 -0.05360334865
580.625 0.005424983175 -0.07053417693
581.25 -0.01998998778 -0.06981491758
581.875 -0.04223011458 -0.04875365455
582.5 -0.03591551597 -0.03664545211
583.125 -0.02629332181 -0.03955855732
583.75 -0.0003114591649 -0.03884322908
584.375 -0.007002478376 -0.03799830259
585.0 -0.004844924309 -0.0359871909
585.625 0.006216883125 -0.03276893332
586.25 0.02533544584 -0.01767492535
586.875 0.01011500294 -0.03034720929
587.5 0.001495476439 -0.02994170816
588.125 -0.007263574434 -0.02798102504
588.75 0.01837495495 -0.0365150421
589.375 -0.002506659215 -0.0555813362
590.0 -0.0375250905 -0.05878223189
590.625 -0.0707240834 -0.01668400458
591.25 -0.05021754911 0.0005403691907
591.875 -0.0210856304 0.001844178404
592.5 -0.00639543629 -0.008710068237
593.125 -0.01232379905 -0.006382965807
593.75 -0.003148787868 -0.01539800783
594.375 0.01402630927 -0.02245907406
595.0 0.03732790518 -0.01938945128
595.625 0.02880010653 -0.0228549746
596.25 0.03205699468 -0.02204076645
596.875 0.0456483803 -0.005018776121
597.5 0.04413747381 0.007407776683
598.125 0.03826879519 -0.00648993844
598.75 0.05920393917 -0.01521348013
599.375 0.05873387104 -0.03252221624
600.0 0.05324372251 -0.03249120076
600.625 0.03104872012 -0.04005625412
601.25 0.01497269814 -0.03499449682
601.875 0.009158424629 -0.01813353468
602.5 0.007517995198 -0.002836630242
603.125 -0.007604241948 -0.00501704235
603.75 0.01010952147 0.01592841143
604.375 0.0230264463 0.03181242115
605.0 0.02561715591 0.02114867026
605.625 0.01441004906 0.01581445969
606.25 -0.01093591203 0.01965083039
606.875 -0.02010212977 0.04757247312
607.5 0.003682974126 0.05101738351
608.125 0.02784885037 0.04361793625
608.75 0.02510190019 0.03416763131
609.375 0.01611754958 0.04585274359
610.0 0.02034874062 0.04286927626
610.625 0.0239061357 0.03441936041
611.25 0.01144555959 0.02052333806
611.875 -0.005189228134 0.009353589938
612.5 -0.01140329767 -0.0003245338146
613.125 -0.03199235635 0.006372422352
613.75 -0.02201484763 -0.003807235473
614.375 -0.02364965479 0.01199065984
615.0 -0.02805490585 0.01566771942
615.625 -0.03359659941 0.00709184716
616.25 -0.0319838498 0.007187859708
616.875 -0.03128382121 0.02080875257
617.5 -0.02487102717 0.01941774735
618.125 -0.02124981764 0.006979776362
618.75 -0.007899782421 -0.002554187968
619.375 -0.008887888469 0.002756298675
620.0 -0.002268357263 -0.005696696705
620.625 -0.002107393422 -0.02618692558
621.25 0.006973445502 -0.05290675295
621.875 -0.01507060946 -0.06097115944
622.5 -0.07833014915 -0.01622862926
623.125 -0.07173634987 0.012215458
623.75 -0.04770223866 0.008728012796
624.375 -0.04288095108 -0.0002593633513
625.0 -0.04851092145 -0.02352735935
625.625 -0.04104001092 -0.009036685927
626.25 -0.02765958894 0.01194850753
626.875 -0.00486820548 0.007437577008
627.5 0.005065670784 -0.01197788924
628.125 0.01873304287 -0.01165829857
628.75 0.01570911856 -0.01332763807
629.375 0.04045512926 -0.004868710312
630.0 0.05085943037 -0.002886212677
630.625 0.05388137737 -0.00810254716
631.25 0.0593622001 -0.008888647654
631.875 0.0539031461 -0.02072048381
632.5 0.04218760618 -0.03565772625
633.125 0.03703304735 -0.02657154891
633.75 0.03156045223 -0.0261118497
634.375 0.03357069567 0.003572064247
635.0 0.01819246498 -0.01460574465
635.625 0.008918785556 -0.01917073477
636.25 0.02580730173 -0.00149833048
636.875 0.03809457187 0.003876985702
637.5 0.03048406652 -0.001480009874
638.125 0.01101983967 -0.001827318914
638.75 0.01521054493 0.03289833441
639.375 0.02107482988 0.04810884937
640.0 0.01648033793 0.0624200603
640.625 0.02136027734 0.0453255176
641.25 0.01660929225 0.03195651233
641.875 0.001770811461 0.02822147934
642.5 -0.005282191557 0.03727212038
643.125 -0.005274945792 0.0369420907
643.75 -0.01742374339 0.02064104321
644.375 -0.01562142668 0.0161977792
645.0 -0.03609472741 0.03366039967
645.625 -0.04816069743 0.04455253883
646.25 -0.02940978939 0.04603230024
646.875 -0.01148438924 0.03883663204
647.5 -0.0326879157 0.04081641706
648.125 -0.04845327753 0.03211414552
648.75 -0.03456912604 0.03854256651
649.375 -0.02336504162 0.03551301211
650.0 -0.02776012743 0.01327949245
650.625 -0.01535170909 -0.0005645330772
651.25 -0.01263966606 -0.006540683993
651.875 -0.003759416305 -0.01292724961
652.5 0.01862599857 -0.02019316267
653.125 0.04017237228 -0.02350138849
653.75 0.04638496732 -0.02971657651
654.375 0.06406916724 -0.03519824939
655.0 0.08577520424 -0.0367394848
655.625 0.05001732918 -0.04239911658
656.25 0.02147380315 -0.05256436902
656.875 0.01949742655 -0.04844717397
657.5 0.03106200937 -0.03844705554
658.125 0.01558768162 -0.03734553058
658.75 -0.007085134108 -0.02881624307
659.375 0.01377815288 -0.006619776368
660.0 0.03367985471 -0.00279210182
660.625 0.04011043895 -0.02539768775
661.25 0.03123287792 -0.04099859003
661.875 0.02263259495 -0.04851096608
662.5 0.01854433237 -0.06146843707
663.125 0.009506766001 -0.06485374746
663.75 0.0266168502 -0.06207063986
664.375 0.05947744187 -0.02938932445
665.0 0.05469843686 -0.002966531954
665.625 0.05580846733 0.0068664273
666.25 0.03435761597 0.01225661699
666.875 0.006532957355 0.02160021542
667.5 -0.005426027565 0.0260668482
668.125 -0.01564716959 0.03398755363
668.75 -0.01994039429 0.04365053778
669.375 -0.02017815721 0.05310752668
670.0 -0.007702109128 0.05559608066
670.625 -0.01481964598 0.04433892472
671.25 -0.008713547243 0.05108880047
671.875 0.009364126797 0.05503389155
672.5 0.04271924323 0.032242062
673.125 0.03239826218 0.01597597686
673.75 0.008790768747 0.01674108204
674.375 -0.002180506633 0.03041006002
675.0 -0.004202912651 0.05214792452
675.625 -0.03512531076 0.03765597905
676.25 -0.04551050724 0.01069527473
676.875 -0.0552274564 0.01055233357
677.5 -0.08114948011 0.03059843409
678.125 -0.08327508443 0.02782756492
678.75 -0.05518858761 0.03326889721
679.375 -0.04477530478 0.03764303777
680.0 -0.03805348161 0.0260702753
680.625 -0.04633144374 0.01672147658
681.25 -0.02132697848 0.01389020218
681.875 -0.006056293038 0.01138209234
682.5 -0.0311332464 0.002277191722
683.125 -0.0622373122 0.01028380879
683.75 -0.05730116279 0.005891652347
684.375 -0.05068920015 -0.01410299936
685.0 -0.03613152006 -0.05728828961
685.625 0.009583611229 -0.07878885958
686.25 0.02141354296 -0.08461346681
686.875 0.02962083586 -0.07736361452
687.5 0.03487450955 -0.06103314219
688.125 0.02083986579 -0.04135683316
688.75 0.02184797891 -0.03525773864
689.375 0.02642687394 -0.005074197415
690.0 0.0247435832 0.01792557901
690.625 0.02308953658 0.01660888399
691.25 0.04585789956 0.001797695397
691.875 0.07752142558 -0.01724112054
692.5 0.05828724752 -0.06505385253
693.125 -0.04388867955 -0.07469858053
693.75 -0.07846596124 -0.02495990835
694.375 -0.06257683233 -0.01888697423
695.0 -0.03751162855 -0.03806961092
695.625 -0.01092331285 -0.05114494919
696.25 0.0384764664 -0.02329822522
696.875 0.0359582134 0.02423361111
697.5 -0.008832220542 0.02398732127
698.125 -0.02852023527 0.03013442281
698.75 -0.04543512484 0.05096240574
699.375 -0.04302454613 0.05814208479
700.0 -0.03215115084 0.04013367988
700.625 -0.04763951359 0.04197393747
701.25 -0.06365309655 0.03341505681
701.875 -0.04155094674 0.05696289683
702.5 0.01007901635 0.03647734647
703.125 -0.005481140032 0.0113098292
703.75 -0.02033418198 0.04938053137
704.375 0.02618412208 0.06265406142
705.0 0.03794036717 0.05070652799
705.625 0.0120520302 0.05492609489
706.25 -0.04049234808 0.05816712906
706.875 -0.07443697288 0.01175534778
707.5 -0.08909165629 0.003943021961
708.125 -0.06123133398 -0.03605230809
708.75 -0.02265800707 -0.03642623497
709.375 0.00692678576 -0.03278562944
710.0 0.02609401709 -0.03890207107
710.625 0.03514755718 0.001147383891
711.25 0.0115697543 0.004125553323
711.875 0.008349821591 0.01206802776
712.5 0.02507086976 0.02251120211
713.125 0.07800813769 0.01365462193
713.75 0.04544657059 -0.06409628504
714.375 -0.02193594005 -0.07929806982
715.0 -0.06667441981 -0.05043904731
715.625 -0.03818469378 -0.06961957391
716.25 -0.01649103141 -0.05433119673
716.875 0.004875728949 -0.04380475431
717.5 0.03342106885 -0.01037027839
718.125 0.02733946298 -0.01387155198
718.75 0.03234781742 0.00350223017
719.375 0.01896308485 0.03124063651
720.0 -0.01461144771 0.03258462685
720.625 -0.03461671016 0.005839278382
721.25 -0.04127128016 -0.03356691794
721.875 -0.003775263434 -0.08121135704
722.5 0.01200687556 -0.078744159
723.125 -0.04253992285 -0.04859870499
723.75 -0.05389085719 -0.003016232495
724.375 -0.04497846188 -0.01112302488
725.0 -0.02712089698 0.01037100228
725.625 -0.001411121471 0.01279916869
726.25 -0.02193083486 0.008585486497
726.875 -0.0576340545 -0.01883757345
727.5 -0.05883026808 -0.03235645501
728.125 -0.0560876495 -0.03637188895
728.75 -0.03015861969 -0.0009750371806
729.375 -0.03096937093 -0.01305637002
730.0 -0.04372025965 -0.02740950693
730.625 -0.04181298103 -0.03175034544
731.25 -0.01799887383 -0.02271083188
731.875 0.007692783866 -0.02551002482
732.5 0.02706496861 -0.01050990512
733.125 0.02255394546 0.02148638041
733.75 0.02454456139 0.02919312231
734.375 0.03320421775 0.02300266582
735.0 0.05906941926 -0.01396927207
735.625 0.05860444341 -0.03286778613
736.25 0.02811708149 -0.02798114875
736.875 0.01272471207 -0.04139424214
737.5 0.00942234454 -0.03327577636
738.125 0.01055600001 0.004305451297
738.75 -0.01055400147 0.03944476433
739.375 0.02114142821 0.05219235046
740.0 0.05213998431 0.03510373811
740.625 0.03480775332 0.01528538668
741.25 0.03142391778 0.02682853434
741.875 -0.02133160784 0.03022247602
742.5 -0.03682830077 0.01601548625
743.125 -0.03292186165 -0.03097116271
743.75 -0.01754850866 -0.04524660628
744.375 0.001174350999 -0.04352877384
745.0 -0.02555601065 -0.05934190612
745.625 -0.03682969932 -0.02084357182
746.25 -0.02419739509 0.01167627845
746.875 0.01342764533 -0.01725204279
747.5 -0.004217275421 -0.03196606424
748.125 -0.03377972335 -0.01705469199
748.75 -0.03371834763 0.01337198988
749.375 -0.01174400815 0.03975217579
750.0 0.01058887762 0.05815859455
