!Created with skrf (http://scikit-rf.org).
# GHz S RI R 50.0 
!freq ReS11 ImS11
500.0 -0.03455503103 0.01945416773
500.625 -0.006779747955 0.04214441988
501.25 -0.01479239995 0.02733873863
501.875 -0.02383267278 0.05135646378
502.5 -0.03490028866 0.06594337908
503.125 -0.005936531015 0.05299303677
503.75 0.02284847825 0.04252219888
504.375 0.04158030738 0.03489181731
505.0 0.05629310572 0.01186228825
505.625 0.05599613623 0.002561949526
506.25 0.03841352629 -0.002600531882
506.875 0.0452357789 0.01784911356
507.5 0.03861947299 0.01721102705
508.125 0.01304242756 0.04057663359
508.75 0.0286854229 0.02164447721
509.375 0.04132402365 0.02164383762
510.0 0.05234860047 0.03444714001
510.625 0.03415649124 -0.02562564455
511.25 0.01053580891 -0.02641288957
511.875 -0.006169622283 -0.01889893822
512.5 -0.001046295431 -0.01003685342
513.125 -0.007195201439 -0.02152749565
513.75 -0.02965126409 -0.0328216485
514.375 -0.04933217571 -0.004054972728
515.0 -0.04418255576 0.03138236811
515.625 -0.06743995439 0.003459797982
516.25 -0.0386843313 0.04461608524
516.875 -0.04619788605 0.02833047068
517.5 0.001089370448 0.03406470377
518.125 0.01547301934 -0.01835896858
518.75 -0.02211957364 -0.006130570198
519.375 -0.0268225432 0.007441288721
520.0 -0.01564381735 0.01796942073
520.625 -0.008384564552 0.00412931282
521.25 -0.009114923939 0.01059002769
521.875 -0.005229969066 0.008145496821
522.5 0.01211364033 0.002151101476
523.125 -0.01967343835 -0.03999463402
523.75 -0.06266215302 -0.08019408284
524.375 -0.07456853991 -0.08359995913
525.0 -0.05727889597 -0.02936117834
525.625 -0.06416481512 -0.006890603283
526.25 -0.04960030931 0.001156794821
526.875 -0.03759173275 0.005532501142
527.5 -0.04242705016 0.02209032719
528.125 -0.01245368516 0.04331672045
528.75 -0.0009057764028 0.03938111227
529.375 0.005821061078 0.0479871427
530.0 0.05145471599 0.07050457395
530.625 0.1044698426 -0.02117147945
531.25 0.106516797 -0.06301731312
531.875 0.05159741309 -0.05817326315
532.5 0.04517157687 -0.02247313729
533.125 0.02864779621 -0.02140605519
533.75 0.01791429734 -0.03786957938
534.375 0.02224850061 -0.02102707269
535.0 0.03249263615 -0.005563129747
535.625 0.0384983182 0.007382835449
536.25 0.03362344787 -0.03197764435
536.875 0.05026635261 -0.04513480065
537.5 0.05653247233 -0.02727529328
538.125 0.01822658124 -0.02125551578
538.75 0.0180577263 -0.01012403042
539.375 0.06098187992 -0.003032610875
540.0 0.08400305367 -0.02756633336
540.625 0.06147402916 -0.03903394068
541.25 0.04040142883 -0.02930698154
541.875 0.04700098391 -0.03241610655
542.5 0.04585142565 -0.04507590111
543.125 -0.001936006126 -0.03393557465
543.75 -0.01394349692 0.006039864618
544.375 0.01845361844 0.009538490415
545.0 0.01210288537 -0.02734674067
545.625 -0.01666974083 -0.03970590475
546.25 -0.02503723658 -0.03020192589
546.875 -0.02059087609 -0.02227392185
547.5 -0.02378288773 -0.02332689303
548.125 -0.02455265855 -0.04464284879
548.75 0.007145652124 -0.04134075178
549.375 0.02386470519 -0.04539274651
550.0 0.05082365261 -0.04433175752
550.625 0.06486019744 -0.0619126157
551.25 0.08765224773 -0.04171481418
551.875 0.05102016864 -0.06163008633
552.5 0.0281677894 -0.0756190257
553.125 0.009563201122 -0.07029841784
553.75 0.0003436467025 -0.06026989732
554.375 -0.01822321159 -0.04799759864
555.0 -0.01600892818 -0.03786127889
555.625 -0.01005557356 -0.04043578179
556.25 -0.008805098522 -0.03770937654
556.875 -0.0162850335 -0.02993499523
557.5 -0.002388478276 -0.01213294683
558.125 0.01817247472 -0.007888245745
558.75 0.02077849092 0.01251259773
559.375 0.04039150726 0.00629586667
560.0 0.06803247187 -0.005953915119
560.625 0.06343392015 -0.03518697736
561.25 0.02673610304 -0.05197843916
561.875 0.0008389108747 -0.05473602326
562.5 -0.01107368202 -0.04410727407
563.125 -0.02177953497 -0.02874552243
563.75 -0.02315220958 -0.005455069481
564.375 -0.007017974538 -0.004017262413
565.0 0.004624820622 -0.02117016912
565.625 0.009579157432 -0.03391478694
566.25 0.01646255982 -0.03433605897
566.875 0.01996203897 -0.03811708951
567.5 0.02121497741 -0.02207299747
568.125 0.02299273252 -0.02403752869
568.75 0.05126872483 -0.005017471619
569.375 0.06129581971 0.004651056995
570.0 0.06171215301 -0.01316952151
570.625 0.04646469858 -0.0477503395
571.25 0.04666075841 -0.04833309462
571.875 0.03811545749 -0.04552997893
572.5 -0.003705932699 -0.05497512224
573.125 -0.04160640939 -0.04127921273
573.75 -0.01841904731 -0.02249765448
574.375 0.003539535807 -0.03191917342
575.0 -0.01128672938 -0.0339776196
575.625 -0.03399173707 -0.02040064203
576.25 -0.01360023051 -0.01069869963
576.875 0.002334358425 -0.01204793614
577.5 0.01063607171 -0.01780838308
578.125 0.01052698292 -0.02712843547
578.75 0.01386824661 -0.03602675018
579.375 0.01510979565 -0.04268209982
580.0 0.01967070571 -0.05406560416
580.625 0.001090596285 -0.07383244742
581.25 -0.02060114753 -0.07226811872
581.875 -0.03120766719 -0.04699751914
582.5 -0.02319299462 -0.03661577009
583.125 -0.001672066677 -0.0340961669
583.75 0.01060333965 -0.02986721255
584.375 0.003074656208 -0.03270274482
585.0 0.004540144951 -0.0311589631
585.625 0.01511695074 -0.02322448379
586.25 0.02577743317 -0.01733172218
586.875 0.01800886384 -0.02316038003
587.5 0.01293658051 -0.02531452644
588.125 0.01293449741 -0.02858898908
588.75 0.02801554649 -0.03332614878
589.375 0.01051041034 -0.05607419457
590.0 -0.02566128218 -0.06197337572
590.625 -0.05048526148 -0.03291546473
591.25 -0.03828837263 -0.007565230476
591.875 -0.01518323369 0.00124495023
592.5 0.001715963338 -0.009866392271
593.125 0.006670474975 -0.01929800886
593.75 0.007065938943 -0.02435481768
594.375 0.02978830176 -0.01858548096
595.0 0.04442720396 -0.01127018028
595.625 0.04457353224 -0.01109086253
596.25 0.04060409247 -0.01329322971
596.875 0.03860296667 0.0005959600019
597.5 0.03996408664 0.01305371721
598.125 0.04400637814 0.006240939472
598.75 0.05091696487 -0.0136200413
599.375 0.0632583698 -0.01489098173
600.0 0.04969485692 -0.02329636802
600.625 0.02682888529 -0.03956665149
601.25 0.0171205347 -0.02422357896
601.875 0.007910628835 -0.00293566012
602.5 0.002283358395 0.003595394515
603.125 0.002063671528 0.01278281517
603.75 0.001267119328 0.01357083166
604.375 0.01373677886 0.02459312598
605.0 0.01841542387 0.02375544936
605.625 0.006817481384 0.0205096962
606.25 -0.01475581841 0.01065464625
606.875 -0.02164929427 0.03448950838
607.5 -0.003615619687 0.057630202
608.125 0.0207645103 0.05110328587
608.75 0.01564645979 0.02925927938
609.375 0.01378018532 0.03319851857
610.0 0.01399255419 0.03762342672
610.625 0.01394773995 0.03385890648
611.25 0.01477796935 0.0003368925608
611.875 0.004410764039 -0.00473960341
612.5 -0.02113758532 -0.004136687557
613.125 -0.03740862435 -0.001706368482
613.75 -0.03780816191 0.003153874751
614.375 -0.01943922622 0.002098299668
615.0 -0.02631793597 0.00477963313
615.625 -0.02976930954 -0.002605929605
616.25 -0.0405553767 0.004647950113
616.875 -0.01699322271 0.005507009857
617.5 0.0001705755401 -0.001459126735
618.125 0.004488730055 -0.01135673708
618.75 0.002519273509 -0.01377187563
619.375 0.01245724407 -0.01181823529
620.0 0.02822317941 -0.01766702558
620.625 0.02531436739 -0.04032364768
621.25 0.01799523894 -0.05800812483
621.875 0.007648623065 -0.07206505241
622.5 -0.05021977349 -0.04318234695
623.125 -0.05236555691 -0.00990663111
623.75 -0.03968248846 -0.004391147407
624.375 -0.01874364662 -0.0160908257
625.0 -0.004059058759 -0.01592706425
625.625 -0.0104147171 -0.006883436945
626.25 0.0007122998422 0.004605426871
626.875 0.02748861582 0.005173188347
627.5 0.04215354902 0.005288169098
628.125 0.04209796327 0.0002241295116
628.75 0.0456357473 0.00288132853
629.375 0.05390007752 0.01178077896
630.0 0.06097858173 0.01363325561
630.625 0.06689255749 0.01582101267
631.25 0.06530812111 0.01467627493
631.875 0.05436389485 0.007807178834
632.5 0.04550844937 -0.005197758749
633.125 0.04305995335 0.0024252312
633.75 0.03523844253 0.01181838259
634.375 0.02505348029 0.01191418329
635.0 0.02157774429 0.003593245721
635.625 0.02520773811 0.01601601183
636.25 0.03392585623 0.0359609552
636.875 0.03461820845 0.02911947219
637.5 0.02922140252 0.01120335126
638.125 0.01520370619 0.02908699059
638.75 0.007967763767 0.05946514728
639.375 0.00709962602 0.06825698561
640.0 0.004604952233 0.06376159744
640.625 -0.003600841538 0.05039407275
641.25 -0.01603711982 0.03191146903
641.875 -0.01949297695 0.03575101352
642.5 -0.03453547106 0.03529054336
643.125 -0.04163385167 0.02434788223
643.75 -0.03243160637 0.006021944649
644.375 -0.03547432924 0.01735224767
645.0 -0.06060884222 0.02712677536
645.625 -0.07076734231 0.02743015568
646.25 -0.04504276296 0.03327527969
646.875 -0.03135915262 0.03700267523
647.5 -0.04683921848 0.0305015339
648.125 -0.06143799978 0.01507209441
648.75 -0.04887285472 0.01868810187
649.375 -0.03829757769 0.01956110926
650.0 -0.02871953118 -0.001547371621
650.625 -0.01349438433 -0.02605697194
651.25 -0.005993047182 -0.02901548731
651.875 0.008154399793 -0.03472519901
652.5 0.0394508323 -0.02877759105
653.125 0.05684493708 -0.02469631285
653.75 0.07321357269 -0.03100054838
654.375 0.08810770637 -0.0297591224
655.0 0.08223492236 -0.01724884948
655.625 0.0566710702 -0.03592644738
656.25 0.05141090494 -0.04349677968
656.875 0.04798490828 -0.04008431943
657.5 0.04377552641 -0.01778901108
658.125 0.02015751259 -0.03030320712
658.75 0.01881343028 -0.02072952199
659.375 0.03775649862 0.003056211922
660.0 0.0527037909 0.005505517143
660.625 0.04740599724 -0.01888950449
661.25 0.05104285349 -0.04378660388
661.875 0.05474715156 -0.06115502273
662.5 0.0344867847 -0.06809077775
663.125 0.02683674666 -0.0762498278
663.75 0.05470525495 -0.06328235397
664.375 0.06901154336 -0.008857471053
665.0 0.05364868767 0.00492919495
665.625 0.05150320404 0.02061725425
666.25 0.02546391632 0.03702523525
666.875 -0.01038319463 0.0322559791
667.5 -0.01468067213 0.02642322971
668.125 -0.02996053386 0.04291693797
668.75 -0.04524466552 0.06111090079
669.375 -0.03500767168 0.05782097172
670.0 -0.01782180987 0.05695632356
670.625 -0.02899028644 0.05307313675
671.25 -0.03398784478 0.06527139502
671.875 -0.0005793313616 0.06252151125
672.5 0.03901148595 0.05036566028
673.125 0.02623562785 0.03640675393
673.75 0.0007489679925 0.03738434696
674.375 -0.007060739173 0.04149824594
675.0 -0.02212234743 0.05405958089
675.625 -0.05637674618 0.03671624694
676.25 -0.05549809369 0.006990458751
676.875 -0.06944891076 0.0109707795
677.5 -0.09194620218 0.01717748441
678.125 -0.1002214394 0.01290038086
678.75 -0.06113565325 0.02536559339
679.375 -0.05729207242 0.03226096609
680.0 -0.0500266345 0.01422713073
680.625 -0.0445911269 -0.005942984972
681.25 -0.02037826246 0.006321356748
681.875 -0.02057547477 0.01374763873
682.5 -0.04919838472 0.006002049949
683.125 -0.07312380691 -0.0005256514409
683.75 -0.06724841459 0.004449545467
684.375 -0.06881647876 -0.0192306959
685.0 -0.03691919862 -0.07333743315
685.625 0.01945434345 -0.08317475594
686.25 0.03181101242 -0.08587232391
686.875 0.04790541695 -0.08383371588
687.5 0.04771988318 -0.05439206991
688.125 0.02832631381 -0.03769250962
688.75 0.02811372269 -0.02338400512
689.375 0.04195696067 0.006481377654
690.0 0.02957477819 0.02833043541
690.625 0.03069953558 0.01898079829
691.25 0.05073617974 0.0185441214
691.875 0.09021548316 -0.009998765128
692.5 0.06823181304 -0.07218479075
693.125 -0.04943210858 -0.0836541561
693.75 -0.08378484008 -0.03411020617
694.375 -0.06772377331 -0.03185396552
695.0 -0.0366993697 -0.04591425637
695.625 -0.00959554372 -0.06309235306
696.25 0.04998280181 -0.02404498753
696.875 0.02155861249 0.03279386309
697.5 -0.006769023178 0.02872498026
698.125 -0.02402477241 0.04492188529
698.75 -0.04981788769 0.06024947074
699.375 -0.05065415722 0.05001605149
700.0 -0.0321086205 0.04589684297
700.625 -0.05200676624 0.04541244153
701.25 -0.07154390722 0.03818553135
701.875 -0.04043589513 0.04050536025
702.5 0.008138854624 0.03791396464
703.125 0.001716415956 0.022891081
703.75 -0.01248353197 0.05472871086
704.375 0.02200436047 0.06629115439
705.0 0.04493800072 0.04912007677
705.625 0.02187466054 0.05922717611
706.25 -0.039360957 0.05934361904
706.875 -0.07396184366 0.01948048485
707.5 -0.08599949156 -0.01100825208
708.125 -0.06206055343 -0.03792001005
708.75 -0.02651711852 -0.03708873626
709.375 -0.00177161674 -0.03711639447
710.0 0.03248187968 -0.02867688857
710.625 0.03585250031 -0.004488681946
711.25 0.01366068992 -0.0008850681119
711.875 0.006465815586 0.00410271846
712.5 0.02978934068 0.02688862871
713.125 0.07667443801 0.0003775274329
713.75 0.0355170625 -0.0644279856
714.375 -0.03120207736 -0.06769372938
715.0 -0.06077167528 -0.05140254555
715.625 -0.05271901178 -0.05667176189
716.25 -0.03650291336 -0.04989910571
716.875 -0.0124853294 -0.04395866934
717.5 0.01613950701 -0.02533761162
718.125 0.02436492506 -0.005786476013
718.75 0.02663858916 -0.002982283598
719.375 0.02326786871 0.005244647629
720.0 0.0002292577915 0.01599960441
720.625 -0.0247569178 0.002784229821
721.25 -0.03124353832 -0.0263471455
721.875 -0.01405655635 -0.05913133383
722.5 -0.01159980517 -0.06382416717
723.125 -0.04583573757 -0.0373726906
723.75 -0.04432097347 0.01481024547
724.375 -0.01591034947 0.02400619883
725.0 0.0006152349753 0.0175003391
725.625 0.01000303837 0.00463480667
726.25 0.0007917390307 -0.006558810138
726.875 -0.01553563484 -0.01328185729
727.5 -0.02999954146 -0.01581561952
728.125 -0.0303456598 -0.01146812957
728.75 -0.02477557182 -0.001181650791
729.375 -0.01203967226 0.002615920139
730.0 -0.01142610099 -0.004556749451
730.625 -0.01571192981 -0.004532148085
731.25 -0.01008370457 -0.001217203187
731.875 -0.007252622181 -0.001005518929
732.5 -0.01047923602 0.004133029527
733.125 -0.01286394067 0.01477200427
733.75 -0.004585725396 0.02586920364
734.375 0.01095925134 0.02372354819
735.0 0.02060709465 0.00995992072
735.625 0.01964624711 0.003215556339
736.25 0.01554913797 -0.01026386277
736.875 -0.002551498276 -0.01679211992
737.5 -0.0234389383 -0.002602348387
738.125 -0.03919175925 0.01790181786
738.75 -0.03864397514 0.0367935095
739.375 -0.01748143878 0.04398754114
740.0 -0.002781741353 0.03052333673
740.625 -0.006583630422 0.02406555961
741.25 -0.01349315036 0.03242405409
741.875 -0.03154486546 0.02122382583
742.5 -0.02895044055 -0.01726622201
743.125 0.001603698844 -0.03130397002
743.75 0.02314921472 -0.02937126018
744.375 0.02648890334 -0.02738231061
745.0 0.01548748643 -0.02304254032
745.625 -0.005463871019 -0.01179693192
746.25 0.012681429 -0.002077994487
746.875 0.03186979699 -0.02788028708
747.5 0.01345763158 -0.0460340712
748.125 -0.01891653987 -0.03885645608
748.75 -0.04169843383 -0.0156469378
749.375 -0.04830033888 0.01390344391
750.0 -0.01632008596 0.05217109423
