!Created with skrf (http://scikit-rf.org).
# GHz S RI R 50.0 
!freq ReS11 ImS11
500.0 -0.007976283062 0.02679480437
500.625 0.02639314138 0.02191615239
501.25 0.0372800272 0.003956031124
501.875 0.03263689126 0.003927025094
502.5 0.01819870247 0.02430228986
503.125 0.0322659463 0.01443949956
503.75 0.04327671323 -0.008816279985
504.375 0.04110030351 -0.02185391623
505.0 0.02998012427 -0.03730455887
505.625 0.03052296782 -0.0657782989
506.25 0.01403943822 -0.07822460664
506.875 0.04665322501 -0.08549622887
507.5 0.0138189029 -0.07426243606
508.125 0.05365063813 -0.08297590323
508.75 0.001729405771 -0.102933697
509.375 -0.01417307631 -0.07687341299
510.0 0.01104331803 -0.07354953474
510.625 -0.05964171279 -0.0478916703
511.25 -0.07644377534 -0.03866143507
511.875 -0.06796832528 0.01508400724
512.5 -0.029314922 0.04399676937
513.125 0.02132852394 0.06786486037
513.75 0.03142931538 0.069264559
514.375 0.04625478073 0.04854361505
515.0 0.08288330439 0.03127231353
515.625 0.05700860844 0.1140417483
516.25 0.09732540502 0.07439518587
516.875 0.03897571174 0.1345739091
517.5 0.1404439946 0.07095679652
518.125 0.0377292419 0.233647599
518.75 0.09433947452 0.03930990468
519.375 0.07950661595 0.03996900889
520.0 0.1235840226 0.003530184061
520.625 0.1252373801 0.004056286367
521.25 0.09693525711 -0.03038344885
521.875 0.0791760592 -0.0006647205925
522.5 0.09855462091 -0.06749212599
523.125 0.1814900134 -0.113423536
523.75 0.1372412642 -0.1999317116
524.375 0.15409163 -0.1937110682
525.0 0.06985719849 -0.06767346321
525.625 0.05099893093 -0.03056245761
526.25 0.05809186552 -0.0185957253
526.875 0.05948035428 -0.04016501059
527.5 0.05085364662 -0.04798068758
528.125 0.01739472158 -0.05490208516
528.75 0.001208211541 -0.07770538597
529.375 -0.07121044675 -0.09028821001
530.0 -0.07001938352 -0.03270479811
530.625 -0.04502037573 0.0005529219253
531.25 -0.1045658452 -0.02735647004
531.875 -0.1864280282 -0.02733406274
532.5 -0.1657790948 0.02981163229
533.125 -0.1046433307 0.04787462583
533.75 -0.09011937732 0.08215946085
534.375 -0.1202509355 0.0696532497
535.0 -0.0870071592 0.07460979995
535.625 -0.06708453535 0.04464838749
536.25 -0.03414075166 0.0677510516
536.875 -0.08376642133 0.0434486545
537.5 -0.1009366025 -0.004860422596
538.125 -0.09155939271 0.04339008691
538.75 -0.1045390527 0.08587373757
539.375 -0.09964101994 0.04729746296
540.0 -0.09139672398 0.03242308553
540.625 -0.1054690616 0.04261877065
541.25 -0.1366615888 0.03255609219
541.875 -0.1055650621 0.004034266124
542.5 -0.09032140167 -0.005006482963
543.125 -0.112839848 0.05381255366
543.75 -0.07898962907 0.1362859004
544.375 -0.03381729865 0.1278150052
545.0 0.06685638948 0.07774898117
545.625 0.1144247612 0.0516954899
546.25 0.1227329603 0.03175025562
546.875 0.1098833524 0.01423132001
547.5 0.1267425355 0.01587902353
548.125 0.1568597161 0.04836523049
548.75 0.1083481116 0.09301334803
549.375 0.1033540511 0.08004475453
550.0 0.08407394245 0.1211954347
550.625 0.04901514633 0.113219851
551.25 -0.01233533752 0.06906864764
551.875 -0.001480743078 0.04488956955
552.5 -0.000193526724 0.07409772749
553.125 -0.02433290953 0.08615762335
553.75 -0.0364964175 0.05558019615
554.375 -0.01756446655 0.06687660428
555.0 0.003609081923 0.1017690585
555.625 0.005032855329 0.1126388485
556.25 -0.01974064923 0.08627489699
556.875 -0.01337988956 0.09651452462
557.5 -0.021324685 0.1226308819
558.125 -0.03310936709 0.1256476761
558.75 -0.05197095667 0.09676530884
559.375 -0.01973518356 0.1080576107
560.0 -0.02642636466 0.09523785238
560.625 -0.009974234715 0.06034977446
561.25 -0.007807929755 0.05201009845
561.875 -0.01358990862 0.07333622391
562.5 -0.001477838944 0.09060334468
563.125 0.01891057224 0.07892046
563.75 0.059768458 0.07194785793
564.375 0.1023126491 0.08849784384
565.0 0.08667365725 0.1014516644
565.625 0.08493808488 0.06515791162
566.25 0.07665628792 0.06809660273
566.875 0.05391877436 0.1041831538
567.5 -0.004300100477 0.1013214106
568.125 -0.00461306017 0.0989206156
568.75 -0.00989507098 0.1154306274
569.375 -0.0199051481 0.09720685697
570.0 -0.02277656456 0.0649041859
570.625 -0.009355660886 0.05769899269
571.25 -0.01492044056 0.07791879315
571.875 -0.01991934513 0.05552848681
572.5 -0.01357454345 0.04999950258
573.125 0.001851372592 0.08256127707
573.75 0.05837902979 0.1099554249
574.375 0.06443142641 0.08226606693
575.0 0.05923828458 0.04613547625
575.625 0.07538048356 0.04677335168
576.25 0.07850036674 0.07893490984
576.875 0.07555110354 0.06999266906
577.5 0.0819752332 0.04317659897
578.125 0.1028625688 0.04010359081
578.75 0.09285692217 0.06552128101
579.375 0.07656758207 0.04576657528
580.0 0.08178378934 0.02624909873
580.625 0.08543389733 0.02079556864
581.25 0.0536872818 0.02945227392
581.875 0.02123151211 0.03755824656
582.5 0.03639041646 0.05547306937
583.125 0.05111582765 0.08522768629
583.75 0.04006057459 0.07793097797
584.375 0.02471547809 0.06624980947
585.0 0.01514421949 0.08021267543
585.625 0.01353424207 0.1039237813
586.25 0.01378484485 0.08009657001
586.875 0.02293605146 0.06389411367
587.5 0.03162675584 0.08244234621
588.125 0.06421609304 0.07493742507
588.75 0.06760944872 0.05016840382
589.375 0.07600087928 0.003572412497
590.0 0.07087993689 -0.001412273621
590.625 0.04427487834 0.01749175528
591.25 0.03854117188 0.03424592649
591.875 0.06342678866 0.03286916453
592.5 0.0970284025 0.02723015262
593.125 0.08863191275 0.0293745771
593.75 0.07358482003 0.0280204515
594.375 0.07632729423 0.04789451661
595.0 0.05951216261 0.07712508904
595.625 0.03047608805 0.07256158864
596.25 0.01229250693 0.05915754669
596.875 -0.001110762602 0.06786397733
597.5 -0.01724118874 0.07132251663
598.125 -0.001424494515 0.06597248202
598.75 0.01906152593 0.0528019955
599.375 0.01872426488 0.03943593535
600.0 -0.0002790390405 0.02177146329
600.625 -0.01350208283 0.009484242198
601.25 -0.03131081952 0.01807343949
601.875 -0.0437430817 0.03186955591
602.5 -0.04515108303 0.03498401114
603.125 -0.04170570669 0.03837797109
603.75 -0.03825170514 0.0492770185
604.375 -0.03550092292 0.04342223169
605.0 -0.03043043664 0.02234928784
605.625 -0.03842022576 0.008181856745
606.25 -0.05444179349 0.009288313887
606.875 -0.05879285546 0.01771979801
607.5 -0.03602197658 0.0309198688
608.125 -0.01436215125 0.02869914513
608.75 -0.01028710228 0.02191358989
609.375 -0.009538004603 0.01568776779
610.0 -0.001282862799 0.009096765309
610.625 0.005238059528 -0.003491177328
611.25 0.008270569867 -0.01336667788
611.875 0.007736988862 -0.02362603722
612.5 0.002575512213 -0.02746326026
613.125 -0.009147101195 -0.02516125074
613.75 -0.01091064037 -0.006695700367
614.375 -0.000252679146 0.002233335056
615.0 0.009218013335 -0.002059569168
615.625 0.00518011275 -0.008189477035
616.25 -0.00140780218 0.003127042555
616.875 0.008160452486 0.01806819359
617.5 0.0220826561 0.01967612979
618.125 0.02416976848 0.01316639312
618.75 0.02296051088 0.01749872945
619.375 0.03082751558 0.0273526018
620.0 0.04466730647 0.02699788911
620.625 0.04781742727 -0.002183795231
621.25 0.03774336457 -0.009714716961
621.875 0.02011733571 -0.014692344
622.5 -0.009147743577 -0.0001096805399
623.125 -0.007277922069 0.0260829855
623.75 0.006808437042 0.04386477456
624.375 0.00421429406 0.05476902922
625.0 -0.01595323673 0.05366495268
625.625 -0.01376707636 0.06319929848
626.25 0.005524175064 0.08451016835
626.875 0.01380506865 0.09347109828
627.5 0.006677752089 0.07745735375
628.125 0.0009413143194 0.06881790306
628.75 -0.009510075455 0.07607403276
629.375 -0.02425418906 0.07211619922
630.0 -0.01614706616 0.0527652609
630.625 -0.01812900611 0.03967894611
631.25 -0.03285935564 0.0248511525
631.875 -0.04834542108 0.002547415113
632.5 -0.04858770036 -0.004827481948
633.125 -0.06162784008 -0.002801122665
633.75 -0.07591218158 0.002807383008
634.375 -0.08016535347 -0.003838719682
635.0 -0.0829094806 0.009478924442
635.625 -0.08964104801 0.03917191654
636.25 -0.08998762198 0.03710103535
636.875 -0.06986888892 0.01305784428
637.5 -0.07979240418 0.01036100183
638.125 -0.1111205221 0.01959347539
638.75 -0.1020271471 0.01449128745
639.375 -0.06423983508 -0.004829244315
640.0 -0.04838876413 -0.02923746373
640.625 -0.04088833635 -0.07574824924
641.25 -0.01752090233 -0.08279009391
641.875 -0.01484395646 -0.06877334937
642.5 -0.01700270443 -0.07748796156
643.125 0.01175936329 -0.103293362
643.75 0.04147214779 -0.09391302748
644.375 0.008908227589 -0.08636132417
645.0 -0.01886735498 -0.1001442894
645.625 -0.0001069424916 -0.09881064122
646.25 0.02019053147 -0.07704472891
646.875 0.02513895983 -0.06935458161
647.5 0.01427155642 -0.09960774836
648.125 0.02737457735 -0.08762439202
648.75 0.04522405394 -0.05280479471
649.375 0.06710307228 -0.03870605671
650.0 0.1014339258 -0.0338475086
650.625 0.1101320466 -0.006581576894
651.25 0.09760606963 0.012680945
651.875 0.1048208463 0.04812961029
652.5 0.08312128359 0.1064891276
653.125 0.05714997293 0.1028709752
653.75 0.05185109003 0.08785743345
654.375 0.03147809586 0.1005374284
655.0 -0.03020051316 0.08569666845
655.625 -0.03758792413 0.04713221168
656.25 -0.02477898166 0.06226732897
656.875 -0.01678657051 0.1008063309
657.5 -0.05790511651 0.09171200116
658.125 -0.07138369728 0.06436795348
658.75 -0.04930139959 0.09718535499
659.375 -0.01689797573 0.1495096768
660.0 0.01410864211 0.1421548436
660.625 0.0392172737 0.1139215885
661.25 0.07383811977 0.1008866637
661.875 0.09682315516 0.0939540067
662.5 0.08438572617 0.06507165191
663.125 0.07107877719 0.05773584702
663.75 0.03427140311 0.09859357635
664.375 -0.05347871499 0.07865748632
665.0 -0.07694294098 0.02888725319
665.625 -0.08542678192 0.01291164867
666.25 -0.1289140263 -0.03164639107
666.875 -0.09386759403 -0.09741828068
667.5 -0.07965876639 -0.08858785041
668.125 -0.1064898822 -0.07251347164
668.75 -0.129376637 -0.08192577776
669.375 -0.07708990312 -0.08630772389
670.0 -0.04880785017 -0.0651243028
670.625 -0.0720746788 -0.07892544287
671.25 -0.09552359323 -0.0808590964
671.875 -0.07971441934 -0.06467061223
672.5 -0.07896856518 -0.03436526736
673.125 -0.112384002 -0.01874788584
673.75 -0.1342720885 -0.0296327092
674.375 -0.122341915 -0.04180386918
675.0 -0.1092304545 -0.07288508722
675.625 -0.06934318686 -0.1190705369
676.25 -0.01819649685 -0.1270484867
676.875 -0.01452086962 -0.1142297504
677.5 -0.02840476987 -0.1298954091
678.125 0.02166142818 -0.113807077
678.75 0.03803623524 -0.05862556886
679.375 0.04748785851 -0.04508790803
680.0 0.06020789017 -0.088596263
680.625 0.09471716273 -0.1093297904
681.25 0.06586467857 -0.09507198402
681.875 0.01840720047 -0.113457421
682.5 -0.05289536963 -0.1511500835
683.125 -0.05570931667 -0.1732006453
683.75 -0.005935047071 -0.1387400895
684.375 0.03773526827 -0.1154602234
685.0 0.1233290234 -0.07480707762
685.625 0.1345776995 0.01824409396
686.25 0.09240867518 0.06006992354
686.875 0.0543597553 0.07567032202
687.5 -0.0006718073911 0.09093504269
688.125 -0.03694748488 0.08609525338
688.75 -0.0479101273 0.101956249
689.375 -0.07756778031 0.1337280112
690.0 -0.09840577629 0.103220353
690.625 -0.07794874196 0.1011288413
691.25 -0.0157622089 0.1462944774
691.875 0.083387277 0.1855851425
692.5 0.1224978072 0.09608563592
693.125 0.09221654347 -0.03002283695
693.75 0.06440290752 -0.07803960999
694.375 0.1061705027 -0.102527742
695.0 0.1448961639 -0.003768346284
695.625 0.07648421048 0.06884194647
696.25 -0.008990226224 0.1140662561
696.875 -0.1263896099 0.06272155801
697.5 -0.1430582538 -0.04940257466
698.125 -0.1191106364 -0.07474827266
698.75 -0.1230221513 -0.06998138464
699.375 -0.1010164263 -0.07072822792
700.0 -0.07488456779 -0.07419476656
700.625 -0.05750324762 -0.0998063263
701.25 -0.01284287685 -0.1161188152
701.875 -0.003993482003 -0.08534474957
702.5 -0.02789596862 -0.08106682097
703.125 -0.1228871578 -0.06935609957
703.75 -0.2014390174 0.01700444689
704.375 -0.124001334 0.07930618354
705.0 -0.07501253149 0.08430666369
705.625 -0.1190161945 0.07025985354
706.25 -0.1581810206 -0.06736718874
706.875 -0.01785483182 -0.1204972097
707.5 0.01091334216 -0.08629741162
708.125 0.06083486754 -0.06300524048
708.75 0.1000777792 0.01319210305
709.375 0.04954782821 0.08687204895
710.0 0.007858873099 0.08748708935
710.625 -0.02219997083 0.09066357947
711.25 -0.06064863551 0.08005785591
711.875 -0.07205871608 0.09641741126
712.5 -0.02967786201 0.1458713277
713.125 0.08286911754 0.1305883108
713.75 0.1297448459 0.004883530583
714.375 0.09189676399 -0.07569116882
715.0 0.07705762487 -0.1096957746
715.625 0.09295393174 -0.05625819646
716.25 0.06796506846 0.0003012215281
716.875 0.05703865526 0.03444707783
717.5 0.03472397384 0.0999723153
718.125 -0.01739300274 0.1154520783
718.75 -0.03323673188 0.08091132244
719.375 -0.0422808729 0.06563879453
720.0 -0.09226560487 0.032932252
720.625 -0.09091898336 -0.07460611744
721.25 0.01227850732 -0.1090202778
721.875 0.07045516494 -0.0781052389
722.5 0.08249708917 -0.05108597572
723.125 0.04975726127 -0.05545043599
723.75 0.02617812669 -0.05202369797
724.375 -0.004262329956 -0.06387576566
725.0 -0.03390616095 -0.04828407992
725.625 -0.04301310529 -0.03210637067
726.25 -0.05358387419 -0.03699388868
726.875 -0.05504333848 -0.06812002351
727.5 -0.0377189283 -0.0777649087
728.125 -0.01502314722 -0.06977279177
728.75 -0.01373324527 -0.05629498144
729.375 -0.0102979387 -0.05308736048
730.0 -0.009572606335 -0.04952119156
730.625 -0.005219204971 -0.03712158255
731.25 0.009833678828 -0.02596038853
731.875 0.02069472429 -0.005639160734
732.5 0.009190722435 0.01879163435
733.125 -0.005541173385 0.0310496829
733.75 0.004982128063 0.0420968156
734.375 0.02046178514 0.03345817425
735.0 0.02796478739 0.01087738834
735.625 0.02590459663 0.001632231434
736.25 0.01469717663 -0.0154620014
736.875 -0.009511789031 -0.02184311074
737.5 -0.03280008615 -0.01165511793
738.125 -0.04688535206 0.003448926026
738.75 -0.04151537047 0.0173380541
739.375 -0.02016637582 0.01573749292
740.0 -0.01066854473 -0.002440957381
740.625 -0.02653488704 -0.008037588139
741.25 -0.02948115497 0.001246054538
741.875 -0.02054906906 -0.01904376473
742.5 0.01549659552 -0.02253976103
743.125 0.02808102523 0.01145892861
743.75 0.01667312278 0.02145660782
744.375 0.01390107934 0.03019271839
745.0 0.007876490653 0.04016310917
745.625 0.01118958476 0.05685880946
746.25 0.04414360263 0.05374984963
746.875 0.08028845075 0.007505837127
747.5 0.06389087422 -0.03404016529
748.125 0.03424663822 -0.04331484115
748.75 0.01057798047 -0.04613880109
749.375 -0.02544028147 -0.04929808948
750.0 -0.06819871111 -0.002944063753
