!Created with skrf (http://scikit-rf.org).
# GHz S RI R 50.0 
!freq ReS11 ImS11
500.0 -0.02847743946 0.00641598589
500.625 -0.0118025281 0.02460475737
501.25 -0.01587803466 0.02156396964
501.875 -0.04155843381 0.03404813807
502.5 -0.0491420386 0.03776047606
503.125 -0.0154380618 0.04428692202
503.75 0.006694606773 0.03737943807
504.375 0.01417285997 0.0348499122
505.0 0.03349898686 0.02383345936
505.625 0.03934572605 0.01382360281
506.25 0.02113884421 0.001333037495
506.875 0.003523717828 0.01818848512
507.5 0.009116234354 0.02888857743
508.125 0.00130758177 0.03518937116
508.75 0.007375191357 0.03275355018
509.375 0.01203475994 0.04059663474
510.0 0.0268463046 0.05330313191
510.625 0.03255145815 -0.01551948781
511.25 0.01179133958 -0.01088992054
511.875 0.007492495402 0.0004060058356
512.5 0.01354459598 -0.008702530704
513.125 0.003531985703 -0.03103012415
513.75 -0.01550335292 -0.04554197408
514.375 -0.04451577754 -0.02493670985
515.0 -0.05574977327 0.006543008996
515.625 -0.05420201134 -0.02384994276
516.25 -0.03589906579 0.01960890316
516.875 -0.03626577534 0.009014752029
517.5 -0.002885163567 0.005689106525
518.125 0.04300151936 -0.02240775832
518.75 -0.01297741189 -0.03950934905
519.375 -0.03096414517 -0.01055436518
520.0 -0.0253412106 0.003602899638
520.625 -0.01768228521 -0.01724942576
521.25 -0.02307814894 -0.01531183231
521.875 -0.009843519916 -0.0001522298775
522.5 -0.00844198326 -0.002683786826
523.125 -0.02659566164 -0.05921461881
523.75 -0.08083361403 -0.09832500446
524.375 -0.09877724049 -0.1107967614
525.0 -0.07328244251 -0.04065458591
525.625 -0.07528969582 -0.02062556059
526.25 -0.06221027154 -0.01955622385
526.875 -0.0500226213 -0.004657918241
527.5 -0.05323217926 0.01766086384
528.125 -0.02737895491 0.04767409211
528.75 -0.02194706494 0.05015116909
529.375 -0.007785287999 0.06971613533
530.0 0.03950330095 0.07254875922
530.625 0.1061452162 -0.01446639266
531.25 0.1347349181 -0.03429217154
531.875 0.07515860053 -0.02935613565
532.5 0.04311261063 -0.003939946694
533.125 0.04078107375 -0.01778350117
533.75 0.04927029766 -0.0359718426
534.375 0.04734457271 -0.01022788564
535.0 0.04535254798 0.005946743954
535.625 0.04245280404 0.01132531378
536.25 0.05464309019 -0.03609727664
536.875 0.07179018051 -0.03837108593
537.5 0.05104972296 -0.01776701347
538.125 0.01997314356 -0.01654894063
538.75 0.04149974173 -0.009505571944
539.375 0.08020555304 0.009894697163
540.0 0.09244090441 -0.01582545701
540.625 0.06557157216 -0.02866813668
541.25 0.05885922834 -0.01952756313
541.875 0.06038317387 -0.02142150386
542.5 0.04401952805 -0.03552930102
543.125 0.007741948291 -0.02834037639
543.75 0.003951183821 0.005064249744
544.375 0.02954499298 0.005099247023
545.0 0.01446359146 -0.03741728727
545.625 -0.01496364906 -0.053457251
546.25 -0.02207925421 -0.04381897883
546.875 -0.02388660209 -0.02885811971
547.5 -0.02823159632 -0.03274219955
548.125 -0.02475975153 -0.05671439312
548.75 0.01572642433 -0.06345912918
549.375 0.02451578248 -0.05504690156
550.0 0.05739512687 -0.05488932232
550.625 0.07901433371 -0.07002796271
551.25 0.09988168497 -0.03895895394
551.875 0.05908906404 -0.06593101974
552.5 0.03597787699 -0.07674237363
553.125 0.02120332569 -0.07477080813
553.75 0.01002530975 -0.06638443589
554.375 -0.01396223114 -0.0568342793
555.0 -0.009363046456 -0.04388950053
555.625 0.001177113402 -0.04045501775
556.25 -0.004985556908 -0.03663225863
556.875 -0.01107330607 -0.03929751408
557.5 0.005585143111 -0.01959957019
558.125 0.02340323546 -0.0008423651333
558.75 0.02589833804 0.01307477383
559.375 0.04628336694 -0.001398079292
560.0 0.07524082301 -0.003922097073
560.625 0.06818263192 -0.03225690029
561.25 0.03440416771 -0.05762859275
561.875 0.002783156687 -0.05996704678
562.5 -0.007309124379 -0.05420018731
563.125 -0.02043788799 -0.03540409409
563.75 -0.02588899408 -0.01739428654
564.375 -0.01003544275 -0.01056424837
565.0 0.007152120228 -0.02410108931
565.625 0.008391769915 -0.03906919956
566.25 0.01630476845 -0.04841595156
566.875 0.02452475735 -0.04308647791
567.5 0.02160796348 -0.02545354337
568.125 0.02740618683 -0.02138090929
568.75 0.05811564116 -0.007102897273
569.375 0.07347746349 0.001677989561
570.0 0.06279391119 -0.01472090385
570.625 0.04988282715 -0.04505582845
571.25 0.05482373665 -0.05343164425
571.875 0.04688945269 -0.05157007609
572.5 -0.003297570588 -0.05752370732
573.125 -0.03748719587 -0.04153037022
573.75 -0.02053473303 -0.02941796325
574.375 0.002918772382 -0.03908680192
575.0 -0.01520049464 -0.03734886353
575.625 -0.0320308421 -0.02157483567
576.25 -0.02495164998 -0.01713551603
576.875 -0.004782500892 -0.0159321251
577.5 0.005682941845 -0.02022093543
578.125 0.009828530119 -0.03003368428
578.75 0.01123575111 -0.0400339929
579.375 0.009169550752 -0.04393907485
580.0 0.01222654749 -0.05785466436
580.625 0.008659668506 -0.07387833934
581.25 -0.01955228955 -0.07246069731
581.875 -0.04078368433 -0.04951624233
582.5 -0.03434523211 -0.04024942629
583.125 -0.003714660232 -0.0374576793
583.75 0.005484044389 -0.03362268938
584.375 -0.006806283816 -0.03866205502
585.0 -0.004537607307 -0.03725772685
585.625 0.01710961327 -0.02387427205
586.25 0.02370377524 -0.01852883844
586.875 0.008669849146 -0.03028720484
587.5 0.002261806709 -0.02982457627
588.125 0.008943817374 -0.02887665748
588.75 0.01988279382 -0.03484012258
589.375 -0.003923913502 -0.05382124154
590.0 -0.03860714786 -0.05603640634
590.625 -0.05740155217 -0.0272865038
591.25 -0.04816502278 0.0001345735492
591.875 -0.02684070778 0.008306489938
592.5 -0.007818029405 -0.003027705932
593.125 -0.001108720607 -0.0137821878
593.75 -0.003460313895 -0.01436302602
594.375 0.009064010763 -0.01813436402
595.0 0.02887673987 -0.01670958822
595.625 0.03517347553 -0.01634270961
596.25 0.03097382347 -0.01910372499
596.875 0.03151636469 -0.01377472916
597.5 0.03439701754 0.0008140343563
598.125 0.03930157993 -0.0005830415839
598.75 0.04497670776 -0.01826623116
599.375 0.0455948795 -0.03399385645
600.0 0.04045882692 -0.03958632457
600.625 0.02501680325 -0.04288696049
601.25 0.006339748443 -0.03806181258
601.875 -0.005286560229 -0.02441775864
602.5 -0.007104631854 -0.01159278831
603.125 -0.006707509673 -0.001910857354
603.75 -4.622423448e-05 0.01029092348
604.375 0.0104681567 0.01384384504
605.0 0.01392423163 0.004457771587
605.625 0.004859335077 -0.002716804632
606.25 -0.01167589354 0.004258655234
606.875 -0.01730496081 0.02333290164
607.5 -0.0003503010133 0.03311792672
608.125 0.01898325246 0.02502987115
608.75 0.01970643504 0.01853082536
609.375 0.01759639635 0.01928947481
610.0 0.02075398318 0.01809412953
610.625 0.02423489369 0.007313083782
611.25 0.0205430802 -0.004281863331
611.875 0.01338665676 -0.0115545187
612.5 0.003812400606 -0.01878864633
613.125 -0.01087553964 -0.01571950519
613.75 -0.01505663803 -0.004200647934
614.375 -0.007600324021 0.002571650815
615.0 0.0005176236921 -0.005005518583
615.625 -0.005697061113 -0.01267868599
616.25 -0.01414809209 -0.005198801178
616.875 -0.007493799396 0.005825219608
617.5 0.006240850771 0.002005810593
618.125 0.008574865365 -0.006079719416
618.75 0.007122386635 -0.007607362836
619.375 0.01558692776 -0.00388495129
620.0 0.03246342262 -0.01072628517
620.625 0.0292151867 -0.03503796999
621.25 0.0232711915 -0.05174405011
621.875 0.01032337523 -0.06228871904
622.5 -0.04309741355 -0.03794409906
623.125 -0.04620903503 -0.007279809272
623.75 -0.03157267255 -0.0005061752208
624.375 -0.01321870708 -0.00599367487
625.0 -0.005266671571 -0.006385500494
625.625 -0.008128068268 0.0002996058126
626.25 0.004413473278 0.01348055761
626.875 0.02950491943 0.01685897306
627.5 0.0387261302 0.01409516936
628.125 0.04145499718 0.008782157717
628.75 0.04226121127 0.01268713294
629.375 0.04749212419 0.02099129945
630.0 0.05428092091 0.01919262851
630.625 0.06033013242 0.02279090561
631.25 0.05446938977 0.01866149179
631.875 0.04411096146 0.009568753979
632.5 0.03733025943 -0.002053786359
633.125 0.03345016651 0.008032758315
633.75 0.02233087034 0.01490825274
634.375 0.01610254855 0.01197225234
635.0 0.01322269117 0.008006685338
635.625 0.01472185719 0.02298993974
636.25 0.02214694365 0.04104484713
636.875 0.02662542407 0.02920944289
637.5 0.02067780549 0.01616920025
638.125 0.001418786044 0.0329542718
638.75 -0.00223190366 0.05832089528
639.375 0.0001276881041 0.06520359755
640.0 -0.004085646896 0.05826054995
640.625 -0.01179531354 0.03826782185
641.25 -0.01577669297 0.0228465307
641.875 -0.02400375494 0.02899706369
642.5 -0.03788412466 0.02424111089
643.125 -0.03950047572 0.009135478863
643.75 -0.02693842707 -0.0002752890258
644.375 -0.03826321669 0.009785592603
645.0 -0.06345962483 0.01341433381
645.625 -0.06600061077 0.01158454192
646.25 -0.04139554934 0.02601665354
646.875 -0.032285945 0.02920069164
647.5 -0.04853508819 0.01615089609
648.125 -0.05358810403 0.003134063519
648.75 -0.04420512774 0.01272581948
649.375 -0.03210993111 0.01207774849
650.0 -0.01974484554 -0.009071207615
650.625 -0.003058757 -0.02588849088
651.25 0.00201410605 -0.02880840595
651.875 0.01995229874 -0.03105928191
652.5 0.04519997152 -0.01894332022
653.125 0.05949195688 -0.01734073289
653.75 0.07601784448 -0.02126112116
654.375 0.08830583044 -0.01531630173
655.0 0.07171536926 -0.009746880662
655.625 0.05476957906 -0.03007094739
656.25 0.04980046991 -0.03084108649
656.875 0.04760050089 -0.02494636228
657.5 0.03170192334 -0.01027275298
658.125 0.01996592757 -0.02447901366
658.75 0.01871501684 -0.00676233514
659.375 0.03643925665 0.01854164842
660.0 0.04824722077 0.01582358808
660.625 0.05016368996 -0.01301778244
661.25 0.05917743116 -0.03277997956
661.875 0.06106759434 -0.04584671476
662.5 0.03796524761 -0.06101151335
663.125 0.03422933203 -0.06858426846
663.75 0.05916982769 -0.04870861561
664.375 0.05705700581 -9.155757803e-06
665.0 0.04836977261 0.007436775123
665.625 0.0399655008 0.02567808951
666.25 0.01159579102 0.03563277461
666.875 -0.01684108119 0.02104283394
667.5 -0.01956872143 0.02154408801
668.125 -0.0402917403 0.03634385898
668.75 -0.05439402679 0.04804281497
669.375 -0.03809872987 0.04910105122
670.0 -0.02415054872 0.0491919766
670.625 -0.03631046909 0.04359908113
671.25 -0.0414728912 0.05020480325
671.875 -0.005889621497 0.05807740275
672.5 0.02578299359 0.04902132695
673.125 0.01245241839 0.03193618168
673.75 -0.009091651447 0.03248044235
674.375 -0.01414126657 0.04001108848
675.0 -0.03422455938 0.04750569449
675.625 -0.05817918163 0.01814061488
676.25 -0.05298959629 0.001888618755
676.875 -0.07156304696 0.001346835154
677.5 -0.09208174065 0.002069199717
678.125 -0.08583838858 -0.003687074241
678.75 -0.05696254335 0.02484963583
679.375 -0.05563702669 0.02180834691
680.0 -0.04235183913 0.000668091961
680.625 -0.02836262697 -0.01664144499
681.25 -0.01527579505 0.003142160362
681.875 -0.02416493761 0.004535500204
682.5 -0.05432197946 -0.01006135814
683.125 -0.06893881478 -0.01571473305
683.75 -0.06608358495 -0.004415782301
684.375 -0.06370674093 -0.02971117664
685.0 -0.02242978965 -0.07825277628
685.625 0.02727890395 -0.07475295478
686.25 0.04053993153 -0.07972178473
686.875 0.05162168862 -0.06863545623
687.5 0.04423574465 -0.04233223692
688.125 0.0256627026 -0.02908829615
688.75 0.02702944603 -0.01266757926
689.375 0.03071070145 0.02287536604
690.0 0.01887451056 0.03173204695
690.625 0.02749098072 0.02704234885
691.25 0.04838675416 0.03150197826
691.875 0.09302796777 0.01130525061
692.5 0.06803664047 -0.06169598635
693.125 -0.04005398082 -0.08686750136
693.75 -0.06954579539 -0.04337851755
694.375 -0.0504111518 -0.03863613685
695.0 -0.02746556649 -0.04151840611
695.625 0.002348106877 -0.05940524987
696.25 0.04812309436 -0.006623714636
696.875 0.005563849493 0.03140715554
697.5 -0.01395499952 0.02687452011
698.125 -0.0376062891 0.04152895047
698.75 -0.06302440162 0.04807701034
699.375 -0.0520288505 0.03716841058
700.0 -0.03693356015 0.04186442402
700.625 -0.05834273363 0.03564245598
701.25 -0.07005954168 0.0192261503
701.875 -0.03576359573 0.03084653896
702.5 0.002912901919 0.03221498342
703.125 -0.01222206901 0.0195633919
703.75 -0.03075112021 0.05352892131
704.375 0.01200941797 0.0685474765
705.0 0.03647594099 0.05554058114
705.625 0.00822983833 0.06374093262
706.25 -0.04809245221 0.04963905392
706.875 -0.07531001643 0.01034503401
707.5 -0.0800960014 -0.02273669865
708.125 -0.04857641397 -0.04135590563
708.75 -0.01940131071 -0.03346724622
709.375 0.00580449222 -0.03301683552
710.0 0.03735285004 -0.01540487523
710.625 0.02841348686 0.007070240068
711.25 0.0103163918 0.002269812892
711.875 0.005954502072 0.01344693075
712.5 0.03119763147 0.04080315215
713.125 0.07819571952 0.016731704
713.75 0.03978125715 -0.06226291419
714.375 -0.02442075554 -0.07418508524
715.0 -0.05110436109 -0.06241495813
715.625 -0.03935898609 -0.05888030333
716.25 -0.02821742265 -0.05076413245
716.875 -0.004293322152 -0.04274093676
717.5 0.02261346521 -0.01421016718
718.125 0.02369654182 0.002603884585
718.75 0.02840390631 0.005599373904
719.375 0.02182753437 0.01434720349
720.0 -0.006393449678 0.02011514221
720.625 -0.030416052 -1.399383245e-05
721.25 -0.03543983331 -0.03361054846
721.875 -0.01064027074 -0.06539132602
722.5 -0.003308809125 -0.06744361599
723.125 -0.04161772559 -0.0422898886
723.75 -0.04637530101 0.005318587765
724.375 -0.02241197525 0.01899473048
725.0 -0.005215257295 0.01654695342
725.625 0.004637077728 0.007202593292
726.25 -0.004106412025 -0.003066457204
726.875 -0.02342633483 -0.01245759307
727.5 -0.03409189147 -0.01524981681
728.125 -0.0369682164 -0.01437203809
728.75 -0.03141516337 -0.004082972284
729.375 -0.01942131454 -0.0002534597039
730.0 -0.01654999841 -0.00339424993
730.625 -0.02073950064 -0.003712343086
731.25 -0.015157955 -0.005484505987
731.875 -0.008423699644 -0.006959738368
732.5 -0.007316870821 -0.001995102727
733.125 -0.01041323292 0.009243729478
733.75 0.001325611663 0.02084993675
734.375 0.01664667416 0.01744000589
735.0 0.01861102075 0.001627047192
735.625 0.01653910135 -0.00539415074
736.25 0.01128760208 -0.01722365368
736.875 -0.007115609273 -0.02368475598
737.5 -0.0282770028 -0.01005737803
738.125 -0.04102276893 0.009012570703
738.75 -0.03547089588 0.02804885832
739.375 -0.01382097881 0.03442945111
740.0 0.0006773900963 0.01890294334
740.625 -0.01007575684 0.01397136103
741.25 -0.01439756493 0.02186048906
741.875 -0.02502613209 0.01224170087
742.5 -0.01889092457 -0.01270321407
743.125 0.005207559383 -0.02246946578
743.75 0.01889273571 -0.0178832581
744.375 0.01893565729 -0.01544396652
745.0 0.005724044927 -0.01380661707
745.625 -0.004150351507 -0.001875952965
746.25 0.01840325551 0.009725512824
746.875 0.03987305897 -0.01680782378
747.5 0.0189792679 -0.03854418196
748.125 -0.01211253952 -0.03784078838
748.75 -0.03295900744 -0.02128306129
749.375 -0.03958468423 0.00212556981
750.0 -0.018768931 0.04142580716
