!Created with skrf (http://scikit-rf.org).
# GHz S RI R 50.0 
!freq ReS11 ImS11
500.0 -0.01017228694 0.02317470992
500.625 0.02621061868 0.02774692281
501.25 0.03852127869 0.01445019417
501.875 0.03431657422 0.01939049757
502.5 0.01904428032 0.03986563248
503.125 0.03809709638 0.02485307971
503.75 0.05056566513 0.001731474932
504.375 0.05129992058 -0.01395578859
505.0 0.04108908062 -0.03764670534
505.625 0.04713893751 -0.06670515058
506.25 0.03254453799 -0.07442047536
506.875 0.06592312163 -0.07246279077
507.5 0.03219867238 -0.0733109498
508.125 0.07548231313 -0.06767012701
508.75 0.03009189809 -0.09553937847
509.375 0.008964516529 -0.07888549812
510.0 0.03589570277 -0.07551460107
510.625 -0.04834937798 -0.06737579081
511.25 -0.06422912822 -0.05254248336
511.875 -0.06646122262 0.002485568194
512.5 -0.03996311656 0.03319528797
513.125 -0.000508874768 0.06914036966
513.75 0.009580512588 0.07266827384
514.375 0.03242514758 0.06459334401
515.0 0.07661689454 0.06173132905
515.625 0.01908413787 0.1313854373
516.25 0.08104147293 0.09650790393
516.875 0.01411854874 0.1475092495
517.5 0.1219376421 0.1050770364
518.125 -0.01571723831 0.2140084203
518.75 0.07642873351 0.05511383175
519.375 0.07145679519 0.0629225494
520.0 0.1188342038 0.03958499432
520.625 0.1107977756 0.02894844032
521.25 0.0974883361 -0.007271173113
521.875 0.08018832142 0.01830812761
522.5 0.1108302918 -0.03699283599
523.125 0.1756553027 -0.07072206117
523.75 0.151728573 -0.15683772
524.375 0.1733908595 -0.1303176398
525.0 0.06886577718 -0.03199548818
525.625 0.044376996 -0.006758468372
526.25 0.0576193664 0.003932494596
526.875 0.06875758891 -0.01212949519
527.5 0.05688169288 -0.02094581302
528.125 0.03427929447 -0.04203400502
528.75 0.02807046469 -0.07379924028
529.375 -0.02872067297 -0.1047410267
530.0 -0.03862946171 -0.04858460187
530.625 -0.04406435843 -0.02598016282
531.25 -0.1113016338 -0.08368778333
531.875 -0.174532852 -0.09442647151
532.5 -0.1606032122 -0.01638752628
533.125 -0.1119941318 0.01908667295
533.75 -0.1238893842 0.0510891656
534.375 -0.1305292686 0.02131301244
535.0 -0.09523771636 0.04547226109
535.625 -0.07257605341 0.02090362783
536.25 -0.05788543375 0.04626229436
536.875 -0.09348428933 0.0004665081952
537.5 -0.09822466474 -0.03393092154
538.125 -0.1062594686 0.0189299891
538.75 -0.1194031808 0.0423527632
539.375 -0.09884420587 0.008632636188
540.0 -0.09743344629 -0.002317396289
540.625 -0.1258748643 0.001967670988
541.25 -0.1393971831 -0.0256475441
541.875 -0.1012213505 -0.02830640394
542.5 -0.09635450315 -0.02934548248
543.125 -0.1355649762 0.02347224907
543.75 -0.1093397795 0.1073885549
544.375 -0.0555945447 0.1081085467
545.0 0.04597318517 0.08897848782
545.625 0.08424388214 0.08721805134
546.25 0.09742369314 0.06156046841
546.875 0.0972299478 0.04225682793
547.5 0.1149192756 0.04889381944
548.125 0.1230277234 0.09447896269
548.75 0.07071551934 0.1026942638
549.375 0.0771439245 0.09697612388
550.0 0.03824771949 0.1297195456
550.625 0.006285630354 0.0973437893
551.25 -0.02756516917 0.0412962348
551.875 -0.02413312571 0.03496292884
552.5 -0.044130862 0.06698727916
553.125 -0.06080271893 0.05916781635
553.75 -0.05803965763 0.04058523474
554.375 -0.04361883691 0.06832611971
555.0 -0.03608450009 0.1058186189
555.625 -0.03484146645 0.1033715375
556.25 -0.04242463431 0.07804383585
556.875 -0.04546046847 0.09780571665
557.5 -0.05780446491 0.1121276313
558.125 -0.06168884912 0.1082763407
558.75 -0.06731244712 0.07722543588
559.375 -0.04901037454 0.0931769448
560.0 -0.04603768853 0.06383693488
560.625 -0.02838321359 0.04162158986
561.25 -0.034324982 0.04258152421
561.875 -0.04575788831 0.06650895838
562.5 -0.03635777315 0.08262944093
563.125 -0.004110969697 0.08544048505
563.75 0.04277601696 0.09613999052
564.375 0.06663023834 0.1177459634
565.0 0.05290566593 0.1118242602
565.625 0.06270958874 0.07957806948
566.25 0.05058619764 0.08819349752
566.875 0.006364050309 0.1117489864
567.5 -0.03005126824 0.08572451085
568.125 -0.03160700784 0.0918343098
568.75 -0.04303160834 0.09809143207
569.375 -0.04299583516 0.07140767623
570.0 -0.03696261698 0.03924646654
570.625 -0.03360245547 0.04551204875
571.25 -0.05054486507 0.05558213115
571.875 -0.04100751482 0.0365498988
572.5 -0.03900225189 0.04727005318
573.125 -0.03032006625 0.09251099364
573.75 0.01458509292 0.1292507949
574.375 0.03616352002 0.0896819989
575.0 0.04347549349 0.06394742808
575.625 0.05548796182 0.0815073415
576.25 0.04744825839 0.1016022709
576.875 0.05407093178 0.08280620854
577.5 0.07068042217 0.06098426994
578.125 0.08219931961 0.07185329844
578.75 0.05560379837 0.07806706306
579.375 0.05541557839 0.05617874813
580.0 0.06536987558 0.04422590662
580.625 0.05829751963 0.04440446491
581.25 0.02063572106 0.04381571994
581.875 0.001826776041 0.04770148169
582.5 0.01649939706 0.07659205895
583.125 0.01472854041 0.09923141573
583.75 0.008526231076 0.08343787131
584.375 -0.0003302761981 0.07223624482
585.0 -0.01443100296 0.08856251442
585.625 -0.02513469941 0.09712183949
586.25 -0.01009189949 0.07571865016
586.875 -0.0001670634233 0.06956190059
587.5 -0.0002761802511 0.08788611312
588.125 0.03260805675 0.08461171563
588.75 0.04765752893 0.05894931707
589.375 0.06514312892 0.02607746399
590.0 0.05125539787 0.03068381165
590.625 0.0265392062 0.04025553129
591.25 0.02945132167 0.05356146766
591.875 0.06128949685 0.05756942167
592.5 0.08664803233 0.05835650877
593.125 0.07146652488 0.04945896681
593.75 0.06350907785 0.04587837375
594.375 0.06050096723 0.06896519744
595.0 0.0319514626 0.08400296064
595.625 0.006103216482 0.06703320785
596.25 -0.007470649806 0.05361278179
596.875 -0.02524254076 0.05930644769
597.5 -0.0345026341 0.05496608127
598.125 -0.01846298317 0.05329566274
598.75 0.0002911795921 0.04489531694
599.375 -0.0006772645213 0.03083942306
600.0 -0.0134163538 0.009521561052
600.625 -0.02758804235 -0.0006993535003
601.25 -0.05047300509 0.006094594556
601.875 -0.05770672893 0.01846797651
602.5 -0.05388888324 0.02428781473
603.125 -0.05269085928 0.0293546818
603.75 -0.05310301831 0.03634056273
604.375 -0.04267363839 0.02716462468
605.0 -0.03241096706 0.01050640549
605.625 -0.03996123965 -0.002264368737
606.25 -0.05610506241 -0.004830643855
606.875 -0.05537087858 0.003536581719
607.5 -0.03317527985 0.02195771571
608.125 -0.01388059892 0.0200680597
608.75 -0.01214611412 0.0104689723
609.375 -0.006958102821 0.007171172617
610.0 0.003302265616 0.003642515216
610.625 0.01057194831 -0.007478492886
611.25 0.01245627488 -0.01829578263
611.875 0.01271633713 -0.02614207079
612.5 0.006537525257 -0.02649354445
613.125 -0.005577536057 -0.02094378162
613.75 -0.008392382822 -0.005062270278
614.375 0.002320901017 0.002833216546
615.0 0.009861818036 0.002085475896
615.625 0.004732088308 -0.001671257151
616.25 -0.002075549449 0.00841934152
616.875 0.007062461917 0.02121617858
617.5 0.01833798077 0.02638054028
618.125 0.01918022403 0.02115809725
618.75 0.01794662218 0.02340018141
619.375 0.02444624465 0.03128439075
620.0 0.03411139636 0.03300033403
620.625 0.03897678264 0.006249721772
621.25 0.0281074903 -0.004554071263
621.875 0.008512076644 -0.01198371067
622.5 -0.01873612548 0.01135694774
623.125 -0.01476009833 0.03921051062
623.75 -0.003478586808 0.05647342105
624.375 -0.01189069969 0.05933807577
625.0 -0.0320937335 0.05196819501
625.625 -0.03134330668 0.06550565213
626.25 -0.01696388967 0.08992470342
626.875 -0.007938579449 0.08849738982
627.5 -0.009171266166 0.06936371987
628.125 -0.01788845452 0.0625827283
628.75 -0.03557273798 0.06369577353
629.375 -0.03730776229 0.04857285899
630.0 -0.02282016208 0.03515249773
630.625 -0.02839120757 0.02023315374
631.25 -0.04036099783 -0.003570111605
631.875 -0.04417423993 -0.02578622179
632.5 -0.04738724255 -0.02590755522
633.125 -0.06578513054 -0.03044648752
633.75 -0.07787119879 -0.02986956613
634.375 -0.07611408623 -0.03233838236
635.0 -0.08409051263 -0.01688880882
635.625 -0.1003184073 0.00792713857
636.25 -0.08835869099 0.00142919207
636.875 -0.06768951587 -0.01341441401
637.5 -0.08421959549 -0.01940912541
638.125 -0.1066263298 -0.01825264291
638.75 -0.08617828555 -0.01467723297
639.375 -0.04960430975 -0.02239152968
640.0 -0.0263159595 -0.05084566762
640.625 0.003852413199 -0.08682098085
641.25 0.01319178414 -0.07857442511
641.875 0.007713950523 -0.07026050459
642.5 0.01709132691 -0.08192718083
643.125 0.05900978059 -0.08447979702
643.75 0.06586582688 -0.06620624924
644.375 0.03273942931 -0.08019438339
645.0 0.02206514817 -0.09551555747
645.625 0.04077403241 -0.07375081398
646.25 0.05071870924 -0.05357089812
646.875 0.05117761896 -0.0595962272
647.5 0.05754942532 -0.08531424589
648.125 0.056699749 -0.05920259712
648.75 0.06659061025 -0.0272702967
649.375 0.08850171679 -0.01127051259
650.0 0.1147533842 0.006763874362
650.625 0.101662405 0.02855969913
651.25 0.09099080999 0.04194286252
651.875 0.08380524132 0.08609832286
652.5 0.03709445479 0.1157033772
653.125 0.02325599942 0.09910612669
653.75 0.02007676939 0.08965182144
654.375 -0.01927688041 0.09073413937
655.0 -0.060321614 0.03938791983
655.625 -0.05398175256 0.0223980584
656.25 -0.05782996653 0.05093004176
656.875 -0.07109576068 0.08696086725
657.5 -0.09372459237 0.05416047474
658.125 -0.09119392996 0.03971128558
658.75 -0.08803847951 0.08870183056
659.375 -0.07273105707 0.1347115987
660.0 -0.02929283776 0.1285206817
660.625 0.003574576152 0.1115687684
661.25 0.02975832615 0.1165830111
661.875 0.04078267274 0.1120098412
662.5 0.04734242786 0.07899611436
663.125 0.03616055813 0.07510246917
663.75 -0.02404601371 0.09498838359
664.375 -0.08280744656 0.04093384626
665.0 -0.08351706953 -0.004422466022
665.625 -0.0949735249 -0.02756383381
666.25 -0.1046437583 -0.09488377266
666.875 -0.05289832756 -0.116352624
667.5 -0.05148533188 -0.1071570066
668.125 -0.07839897814 -0.1097709294
668.75 -0.07113502244 -0.1213271316
669.375 -0.02998646833 -0.09084825
670.0 -0.02122104425 -0.07592903989
670.625 -0.03136132709 -0.10533129
671.25 -0.04032699517 -0.1078171939
671.875 -0.03841074881 -0.08516529838
672.5 -0.06107915185 -0.06671827014
673.125 -0.1044301798 -0.07129977482
673.75 -0.112223601 -0.07693371251
674.375 -0.09960726011 -0.07835839744
675.0 -0.07172332387 -0.1095487572
675.625 -0.01670613003 -0.1274294788
676.25 0.02375229054 -0.1116317463
676.875 0.0219252267 -0.1061947888
677.5 0.03495448602 -0.1176965081
678.125 0.06152407936 -0.06147417746
678.75 0.05952137833 -0.02636363093
679.375 0.07343876408 -0.02462591385
680.0 0.1135535343 -0.05809951916
680.625 0.1296568443 -0.04543818066
681.25 0.090051346 -0.06731593677
681.875 0.05512776659 -0.1146398454
682.5 0.00612961938 -0.1723442662
683.125 0.01792987259 -0.1629371976
683.75 0.0332634965 -0.1142584769
684.375 0.07486119798 -0.09260204909
685.0 0.1333981501 -0.01631903944
685.625 0.09968237274 0.06101260719
686.25 0.04552274757 0.07990072772
686.875 0.001766301148 0.08356931154
687.5 -0.05356362397 0.07619050347
688.125 -0.07551698086 0.06957390342
688.75 -0.09710545608 0.0873440887
689.375 -0.135625001 0.08612952733
690.0 -0.1221200914 0.0594565175
690.625 -0.1022724459 0.07471687104
691.25 -0.06706006874 0.1415698222
691.875 -0.01309840192 0.1876992728
692.5 0.06230872543 0.09904064479
693.125 0.08255792243 0.006608444369
693.75 0.09875903638 -0.03637973326
694.375 0.1501203831 -0.02551096936
695.0 0.1121161045 0.05792084527
695.625 0.04642970926 0.09329056152
696.25 -0.06226411818 0.1110345344
696.875 -0.1502389551 0.003768942379
697.5 -0.1091156798 -0.09901486613
698.125 -0.08522148192 -0.1073102102
698.75 -0.08303751625 -0.1043472137
699.375 -0.05630354871 -0.09217825914
700.0 -0.03370813642 -0.09351313435
700.625 -0.002031801033 -0.1136022017
701.25 0.04166495641 -0.09185602118
701.875 0.03678228843 -0.07249059558
702.5 0.004830441097 -0.1000738958
703.125 -0.101395865 -0.1332168489
703.75 -0.1758284752 -0.06671031166
704.375 -0.1252272887 0.03736898464
705.0 -0.09448410172 0.05516631287
705.625 -0.1438266202 0.01083661236
706.25 -0.09167723343 -0.1211062569
706.875 0.01796901768 -0.09577843353
707.5 0.04044095456 -0.06497527927
708.125 0.08469701537 -0.0137190985
708.75 0.07693082686 0.0693919145
709.375 0.008436174403 0.09776494446
710.0 -0.0290680578 0.08756589364
710.625 -0.06466105999 0.07350705801
711.25 -0.09363725671 0.0526993908
711.875 -0.1064951097 0.07210052591
712.5 -0.07820453288 0.1281273293
713.125 0.03164606983 0.1344357105
713.75 0.1069631903 0.03693447483
714.375 0.1049241146 -0.0341918632
715.0 0.1092793412 -0.04780149404
715.625 0.08368175698 0.00178727523
716.25 0.05136228648 0.03255328122
716.875 0.03790850505 0.06569613214
717.5 -0.01946566316 0.1141039576
718.125 -0.06446849011 0.08850254849
718.75 -0.05940637452 0.06044405853
719.375 -0.06886691839 0.04875538495
720.0 -0.1052852565 -0.007256774882
720.625 -0.05546647188 -0.09773381749
721.25 0.04049577608 -0.09121220215
721.875 0.08235830193 -0.04669993367
722.5 0.07753539449 -0.01368263731
723.125 0.05504422448 -0.014841157
723.75 0.05234687585 -0.02216680583
724.375 0.03027778325 -0.05895943683
725.0 -0.008524795265 -0.05809978151
725.625 -0.0280425091 -0.05082316705
726.25 -0.04033198313 -0.06144371627
726.875 -0.02786466382 -0.08402469622
727.5 -0.0122426547 -0.07670319052
728.125 0.003923414774 -0.06134030039
728.75 0.01142022375 -0.04941347729
729.375 0.02019675104 -0.04697832003
730.0 0.008776884437 -0.04283351415
730.625 0.006634097064 -0.02995600714
731.25 0.0180865341 -0.01365660482
731.875 0.01893809192 0.01135421617
732.5 -0.002486137724 0.02547178453
733.125 -0.01563170054 0.03013422308
733.75 -0.005727917377 0.03973993637
734.375 0.007964152671 0.03595391526
735.0 0.01968418871 0.0117505463
735.625 0.01679058981 0.001009352362
736.25 0.008936422346 -0.01373444019
736.875 -0.01288054974 -0.01906883198
737.5 -0.03737996894 -0.01525002267
738.125 -0.04885635644 -0.003762491693
738.75 -0.03982646267 0.00914104383
739.375 -0.01672432145 0.01049016496
740.0 -0.006050813807 -0.01087669857
740.625 -0.02209471057 -0.02029058569
741.25 -0.0256452527 -0.01286255221
741.875 -0.007460551529 -0.02390878957
742.5 0.02220807647 -0.01020962004
743.125 0.0172662775 0.02565902029
743.75 0.001168099332 0.03102774434
744.375 -0.005857045722 0.03769589814
745.0 -0.01581400566 0.04528046022
745.625 -0.01154333789 0.06872530884
746.25 0.03312623152 0.07256153647
746.875 0.07790917878 0.03056126766
747.5 0.06392301321 -0.01239601422
748.125 0.040457142 -0.02387792589
748.75 0.02679013028 -0.03287365296
749.375 0.001261911263 -0.05325060969
750.0 -0.05206013268 -0.02848773983
