!Created with skrf (http://scikit-rf.org).
# GHz S RI R 50.0 
!freq ReS11 ImS11
500.0 -0.02745788671 0.02645464523
500.625 0.005662023835 0.04453378649
501.25 0.006524071811 0.04511818069
501.875 0.000101446108 0.05999185336
502.5 -0.01464983689 0.07555222232
503.125 0.01710506753 0.06524821602
503.75 0.04128525716 0.04512216731
504.375 0.05497599483 0.0260012046
505.0 0.06902959532 -0.002949331256
505.625 0.0803597188 -0.01523691251
506.25 0.06431664088 -0.02717684278
506.875 0.0775359705 0.003281018717
507.5 0.07652203512 -0.004459116112
508.125 0.07778574621 0.03188253097
508.75 0.07583896304 -0.01958644229
509.375 0.07370605805 -0.02020797318
510.0 0.1036993348 0.005190266167
510.625 0.02655850998 -0.07000658003
511.25 -0.00716918872 -0.06739195413
511.875 -0.03189968568 -0.04105517985
512.5 -0.02935935922 -0.02167065022
513.125 -0.04213448768 0.007668556815
513.75 -0.05903950822 0.02592971364
514.375 -0.05696247151 0.0626822487
515.0 -0.03686670902 0.09472271937
515.625 -0.08980900409 0.07532343896
516.25 -0.01451125468 0.1205782591
516.875 -0.1004897516 0.09873308078
517.5 -0.00569930496 0.103053924
518.125 -0.09751084879 0.05859881636
518.75 -0.01746948378 0.05969665147
519.375 -0.04459510278 0.07664624496
520.0 0.01553148929 0.07968121093
520.625 0.0258579268 0.07089695399
521.25 0.03401312323 0.05809463117
521.875 0.003494124213 0.06162413538
522.5 0.05137828863 0.03085163502
523.125 0.09016976831 0.03539652216
523.75 0.0713694286 0.0187670179
524.375 -0.005881865141 0.03650401702
525.0 -0.02013871052 0.02245766674
525.625 -0.01815145206 0.04876692696
526.25 -0.02549506689 0.06744050185
526.875 -0.008561766635 0.05388640848
527.5 0.01456311622 0.0503873066
528.125 0.05480483428 0.03670303941
528.75 0.07194597809 0.03212260144
529.375 0.07200436007 -0.00404825931
530.0 0.06040426032 -0.02611791463
530.625 0.04189492788 -0.1171367001
531.25 0.08220747386 -0.1802718259
531.875 -0.00114253149 -0.1774791231
532.5 -0.05376166733 -0.1151787726
533.125 -0.05226690745 -0.1078242172
533.75 -0.0398129774 -0.09683145365
534.375 -0.05195667868 -0.07613441414
535.0 -0.04901396783 -0.05385561985
535.625 -0.006627259657 -0.06383720877
536.25 -0.01777723087 -0.06353892086
536.875 -0.02666418058 -0.09248244828
537.5 -0.0186507248 -0.1196969782
538.125 -0.04212205322 -0.08977615003
538.75 -0.03917654826 -0.05890999205
539.375 -0.01286207674 -0.07828137146
540.0 -0.01857849078 -0.1311499568
540.625 -0.0147491015 -0.1446812507
541.25 -0.009868548596 -0.109095378
541.875 -0.02376489951 -0.1104365848
542.5 -0.02652592655 -0.1260044982
543.125 -0.07600497631 -0.09382615971
543.75 -0.0917603996 -0.01538099416
544.375 -0.06917831929 0.00921234215
545.0 -0.05880376888 0.02716261178
545.625 -0.04428298319 0.05255883064
546.25 -0.02779018095 0.07556129327
546.875 -0.01560970215 0.07700424423
547.5 -0.03404878975 0.08230370872
548.125 -0.02864407193 0.06967600867
548.75 -0.04944959271 0.05856364215
549.375 -0.06626930006 0.04418897214
550.0 -0.0511490151 -0.01245931701
550.625 -0.03002206067 -0.02968495178
551.25 -0.01612699185 -0.06652651921
551.875 -0.05338068905 -0.08683866006
552.5 -0.06208115573 -0.08190419841
553.125 -0.07968134188 -0.0515019198
553.75 -0.08613784228 -0.05449633076
554.375 -0.1084431568 -0.02728541712
555.0 -0.1027161637 -0.009313280441
555.625 -0.08839474977 0.007343804943
556.25 -0.09752491612 -0.008495381959
556.875 -0.09833352743 -0.01262757028
557.5 -0.09481298858 0.00235459427
558.125 -0.0785088353 -0.001578821551
558.75 -0.05906205766 -0.02615643842
559.375 -0.02913151754 -0.02097861088
560.0 -0.02197722264 -0.03121790345
560.625 -0.02805772948 -0.06204649239
561.25 -0.06002898513 -0.07030465394
561.875 -0.07456535622 -0.04585656596
562.5 -0.0883018814 0.001223715502
563.125 -0.0978871963 0.03982244084
563.75 -0.0872688786 0.06547761499
564.375 -0.04754196978 0.0723422983
565.0 -0.04335772496 0.0639290812
565.625 -0.0453203157 0.05423295646
566.25 -0.06738155139 0.01987905321
566.875 -0.06542721454 0.000749452702
567.5 -0.06804428112 -0.00707351319
568.125 -0.0635462877 -0.01868162658
568.75 -0.04397605601 -0.0208621967
569.375 -0.01958323522 -0.03943947481
570.0 -0.01683874688 -0.05634918644
570.625 -0.02699440564 -0.07400988209
571.25 -0.03956510705 -0.05427079915
571.875 -0.0585103782 -0.06024946892
572.5 -0.09828677708 -0.03919284944
573.125 -0.1198300116 -0.00784143976
573.75 -0.07621836845 0.050536423
574.375 -0.05916882099 0.05622064236
575.0 -0.07644999503 0.05288976198
575.625 -0.07511664375 0.05077578443
576.25 -0.0511865834 0.06337070296
576.875 -0.03249679036 0.07195489347
577.5 -0.03235683297 0.06664863191
578.125 -0.03392400456 0.03901968656
578.75 -0.02796823733 0.03258039784
579.375 -0.03180666106 0.03233605011
580.0 -0.03791780272 0.01884388631
580.625 -0.04956097507 -0.001141246347
581.25 -0.06946323192 -0.000958530589
581.875 -0.0907821548 0.02144967503
582.5 -0.08894252296 0.02736188318
583.125 -0.07980677866 0.03426387766
583.75 -0.07277581198 0.01772286915
584.375 -0.0832868683 0.005223884575
585.0 -0.07637398961 -0.008767827046
585.625 -0.07041320041 0.01027079274
586.25 -0.06312321146 -0.001011868139
586.875 -0.06508906029 -0.0104136292
587.5 -0.05993681649 0.003881707693
588.125 -0.04120581884 0.03830702459
588.75 -0.03646863466 0.03473991283
589.375 -0.04804847369 0.01631268638
590.0 -0.05383273857 0.01796171074
590.625 -0.05624546309 0.05290517529
591.25 -0.04871087809 0.08337279578
591.875 -0.03965054068 0.08817832943
592.5 -0.01215639707 0.07092952372
593.125 -0.007110928201 0.05979323723
593.75 -0.01956277091 0.05975990583
594.375 -0.03421060708 0.04299824805
595.0 -0.03406856365 0.0190114287
595.625 -0.02993640125 -0.00216676293
596.25 -0.03460688127 -0.01953013929
596.875 -0.03165666136 -0.02308025998
597.5 -0.029603818 -0.02305861374
598.125 -0.01830802271 -0.02209118237
598.75 -0.01217520717 -0.02783442715
599.375 -0.009121455046 -0.03797782794
600.0 -0.01646160518 -0.05501111227
600.625 -0.02496082056 -0.06898625155
601.25 -0.03977406991 -0.06226962089
601.875 -0.04990516624 -0.0408315081
602.5 -0.05200783863 -0.02798009922
603.125 -0.04521227966 -0.0288391721
603.75 -0.03251958945 -0.0171818921
604.375 -0.01672581152 -0.01379092224
605.0 -0.008466572886 -0.02518116782
605.625 -0.009485432003 -0.03626946804
606.25 -0.01772401661 -0.02890100356
606.875 -0.01831729652 -0.008341016515
607.5 -0.002585554444 0.0055771604
608.125 0.013802813 -0.001175322059
608.75 0.01334702593 -0.005049626716
609.375 0.0183601721 -0.002039504201
610.0 0.02693714277 0.001138810245
610.625 0.03318348718 -0.00691188034
611.25 0.02948145248 -0.01393868547
611.875 0.02411472245 -0.01627782463
612.5 0.01315726883 -0.0171773636
613.125 -0.003897223829 -0.01179083299
613.75 -0.008429592543 0.003440998097
614.375 -0.005443064112 0.01066591692
615.0 0.001091919322 0.006440792726
615.625 -0.007990244964 0.001205862033
616.25 -0.01571717783 0.01183858214
616.875 -0.01440961449 0.02314363502
617.5 -0.003819306444 0.02186377773
618.125 -0.005238196085 0.01432549129
618.75 -0.007866190193 0.01550174542
619.375 -0.007820701017 0.01620582384
620.0 0.004152657175 0.009930108285
620.625 0.004541785878 -0.01035945358
621.25 -0.005828922637 -0.0285775681
621.875 -0.0268971582 -0.04293954911
622.5 -0.06715840868 0.001374814422
623.125 -0.06834415203 0.03321981706
623.75 -0.05712723212 0.03879331092
624.375 -0.05761130802 0.0236323398
625.0 -0.06291682903 2.518640134e-05
625.625 -0.06749624209 0.003728591174
626.25 -0.05085015202 0.02370780697
626.875 -0.03244864034 0.02397352461
627.5 -0.02628163336 0.002375722083
628.125 -0.02213134152 -0.02138366345
628.75 -0.01362498651 -0.02324649961
629.375 -0.005770786239 -0.02046194489
630.0 0.008598540261 -0.03353306688
630.625 0.03067679325 -0.04688276596
631.25 0.03792568928 -0.0555803252
631.875 0.03273866449 -0.0659983333
632.5 0.02279164337 -0.07829380258
633.125 0.02674412404 -0.07398577205
633.75 0.01319674328 -0.07734831511
634.375 0.01512355476 -0.07472104452
635.0 0.001328383736 -0.07985371445
635.625 -0.01054527131 -0.05643236616
636.25 -0.002457701599 -0.05164160547
636.875 0.0240097715 -0.06371098688
637.5 0.02035467524 -0.07436573283
638.125 -0.002279375509 -0.05388648399
638.75 0.007422354545 -0.0334896251
639.375 0.05311316319 -0.01634547947
640.0 0.07668106405 0.01713340879
640.625 0.07303424791 0.006103982029
641.25 0.07134025327 -0.001642562472
641.875 0.07337190926 0.01423480744
642.5 0.05807271579 0.04240600683
643.125 0.05440689249 0.04503794316
643.75 0.05978641193 0.04160653207
644.375 0.0574467062 0.03901479971
645.0 0.03962265525 0.03903255818
645.625 0.03957420321 0.05664274572
646.25 0.05641932162 0.06410670745
646.875 0.0612372977 0.07377354342
647.5 0.05417718892 0.04795911539
648.125 0.04716880872 0.06206824648
648.75 0.02988234911 0.09177342043
649.375 0.01171028014 0.1019399488
650.0 0.01666558493 0.08300223998
650.625 0.0001535437062 0.08209176199
651.25 -0.03427409227 0.07447912584
651.875 -0.05365875219 0.04056269929
652.5 -0.04733695824 0.0276225879
653.125 -0.04775877737 0.003406019873
653.75 -0.03793147074 -0.04055798088
654.375 -0.012824165 -0.06535769071
655.0 -0.01294546022 -0.08131395169
655.625 -0.03452554104 -0.09892888513
656.25 -0.04710098738 -0.1028250807
656.875 -0.07123053847 -0.07459804347
657.5 -0.06499749888 -0.08573500295
658.125 -0.07945432744 -0.09742372372
658.75 -0.08267331685 -0.07305359053
659.375 -0.08652347884 -0.01616689676
660.0 -0.07433959506 -0.007469105316
660.625 -0.07163993732 -0.01590879362
661.25 -0.05863209063 -0.01973221654
661.875 -0.06259513651 0.0001385174613
662.5 -0.0760973807 0.001228067489
663.125 -0.08990060109 -0.03071985481
663.75 -0.06471318344 -0.06262306971
664.375 -0.0358833702 -0.09623174551
665.0 0.01040080742 -0.1165496473
665.625 0.06195592446 -0.1028098083
666.25 0.06355608014 -0.08044769081
666.875 0.07793427921 -0.06894169215
667.5 0.0920921556 -0.04867949504
668.125 0.07337941204 -0.01805360838
668.75 0.06138125958 -0.01280696831
669.375 0.07307606683 -0.003394749513
670.0 0.0975238939 0.008939660361
670.625 0.08044295049 0.01341678145
671.25 0.08560469349 -0.002611157455
671.875 0.0953970526 -0.01924035938
672.5 0.1010534618 -0.0703230899
673.125 0.06060964888 -0.09133569369
673.75 0.04942588621 -0.09586033679
674.375 0.06608727479 -0.0622994686
675.0 0.07851497199 -0.01787191745
675.625 0.07435785202 -0.002974862814
676.25 0.0751158735 0.02808069724
676.875 0.04996377146 0.0660808473
677.5 0.01601218766 0.06507211761
678.125 0.02472424765 0.07965992994
678.75 0.03480247579 0.1109139927
679.375 0.0189881521 0.1415321435
680.0 0.02945342251 0.1001578333
680.625 0.0582474658 0.08906993679
681.25 0.09411404326 0.07551862487
681.875 0.107156193 0.0623914875
682.5 0.08577359587 0.005131161337
683.125 0.07151142802 0.006015864581
683.75 0.07032180869 0.04008792217
684.375 0.02165892443 0.08012364198
685.0 -0.02519487979 0.07038967945
685.625 -0.07148045226 0.02238289774
686.25 -0.09198902033 -0.02869340173
686.875 -0.08670384452 -0.06557017115
687.5 -0.09784337652 -0.0799550084
688.125 -0.09895730217 -0.1044569699
688.75 -0.0703429114 -0.1073181411
689.375 -0.06216306286 -0.08085392337
690.0 -0.0634432482 -0.0806598545
690.625 -0.06662799618 -0.09485304622
691.25 -0.04911280569 -0.06840582189
691.875 -0.05446679285 -0.01543331365
692.5 -0.06687745165 -0.0007007912533
693.125 -0.08984853906 0.07618496803
693.75 -0.0645279395 0.1166865892
694.375 -0.0177831218 0.1166111822
695.0 -0.05523452273 0.1067713334
695.625 -0.129182775 0.04002278792
696.25 -0.08988328668 -0.08830174002
696.875 0.006860426901 -0.1207330845
697.5 0.07042285743 -0.08198006392
698.125 0.07530536375 -0.03950206166
698.75 0.06071492406 -0.02427712864
699.375 0.08093331222 -0.003020528621
700.0 0.09213011203 0.03107503133
700.625 0.0593155194 0.05770483242
701.25 0.06149847083 0.05516967994
701.875 0.1017287294 0.06064486703
702.5 0.1573047286 0.01562222414
703.125 0.09981361598 -0.05279577486
703.75 0.004950189718 -0.09075936124
704.375 -0.01876852289 -0.07928507938
705.0 0.01032303514 -0.1108110124
705.625 0.05248014389 -0.0664602885
706.25 0.06653807506 -0.01966567045
706.875 0.05106662108 0.04794166944
707.5 -0.002193187098 0.09832735893
708.125 -0.05871381859 0.09188650417
708.75 -0.09196489948 0.06420032976
709.375 -0.1026548421 0.009155842621
710.0 -0.07969216243 -0.04444303241
710.625 -0.06865059058 -0.06751007138
711.25 -0.0541455542 -0.09904414151
711.875 -0.05764476227 -0.08290045159
712.5 -0.06195493849 -0.02587048664
713.125 -0.05076178665 0.02059007888
713.75 -0.05360912601 0.03583998175
714.375 -0.06482103965 0.05231728977
715.0 -0.04327574179 0.05537954898
715.625 -0.04348170985 0.06631733236
716.25 -0.08631647022 0.06884200598
716.875 -0.1233278028 0.01028515846
717.5 -0.08721474327 -0.03802469137
718.125 -0.06853425356 -0.04791490448
718.75 -0.05953428399 -0.0620754578
719.375 -0.02753833563 -0.08288002414
720.0 0.01257083216 -0.07656514085
720.625 0.05024550099 -0.03538276639
721.25 0.03858591138 0.01975709178
721.875 -0.01146096209 0.02808128615
722.5 -0.04602791833 0.02106571111
723.125 -0.0591429234 0.05248046658
723.75 -0.003450270155 0.09017701319
724.375 0.0588908348 0.04887783318
725.0 0.06879087544 -0.006098425978
725.625 0.06377278135 -0.03159372454
726.25 0.04882835103 -0.03782500561
726.875 0.03739535095 -0.02655887891
727.5 0.02955572858 -0.006497336626
728.125 0.01758955471 0.02525584676
728.75 0.01022169034 0.04001977188
729.375 0.02494162081 0.02732073147
730.0 0.0232105657 0.01545113505
730.625 0.007956412583 0.02230243871
731.25 -0.009783993533 0.02949538907
731.875 -0.02298914262 0.01831371291
732.5 -0.03298019406 0.004112137011
733.125 -0.03094041097 0.0002201526805
733.75 -0.01724397651 0.007670263815
734.375 0.001398080714 0.008193971123
735.0 0.00538931265 -0.004242047365
735.625 0.005999351801 -0.01112901254
736.25 -0.001297948031 -0.02385519925
736.875 -0.01396454871 -0.03427912766
737.5 -0.02929426586 -0.02635917806
738.125 -0.03049346953 -0.009347509996
738.75 -0.01707533103 0.01052470874
739.375 0.01475381251 0.02327112629
740.0 0.03151074639 0.001122747244
740.625 0.01939102448 -0.01410125888
741.25 0.01917587268 -0.005272829373
741.875 0.0185387775 0.01796995336
742.5 -0.01147155926 0.03278328202
743.125 -0.0374835753 0.007532206395
743.75 -0.04196242203 -0.01991695209
744.375 -0.04708596554 -0.02901947202
745.0 -0.06391899534 -0.02677318444
745.625 -0.07653098256 0.01151649528
746.25 -0.04419099644 0.04451008691
746.875 0.0004883787101 0.03572051897
747.5 -0.00316623681 0.01626653212
748.125 -0.01638163099 0.019019538
748.75 -0.00720002123 0.03794813807
749.375 0.03018105238 0.02796160644
750.0 0.0480234196 -0.01457893531
