!Created with skrf (http://scikit-rf.org).
# GHz S RI R 50.0 
!freq ReS11 ImS11
500.0 -0.03529438525 0.01912451739
500.625 -0.007080705037 0.03406808373
501.25 -0.004797908864 0.03577227527
501.875 -0.01407836422 0.06003546768
502.5 -0.03823236394 0.06299660164
503.125 -0.007945033474 0.05442522972
503.75 0.02620426326 0.04568335564
504.375 0.03253126707 0.03379852033
505.0 0.05228162999 0.01366556215
505.625 0.04642222014 0.01209430054
506.25 0.03180144221 -0.003616841594
506.875 0.02997445874 0.01680749619
507.5 0.02641422305 0.01943526548
508.125 0.03216484367 0.03265779271
508.75 0.04613019551 0.01202556418
509.375 0.03596395517 0.02115125239
510.0 0.03977758467 0.04253305072
510.625 0.03170940203 -0.03206295621
511.25 0.007218755134 -0.03741451807
511.875 -0.002229340628 -0.009500595898
512.5 -0.0001130196099 -0.008081682631
513.125 -0.006024480039 -0.02468291847
513.75 -0.03591586858 -0.01886448318
514.375 -0.04535109904 -0.004457306997
515.0 -0.05524238174 0.01243683527
515.625 -0.06039574171 -0.006295599103
516.25 -0.03424283168 0.05318199388
516.875 -0.04261966542 0.03054841016
517.5 0.002386155512 0.02144183425
518.125 0.02039755572 -0.00820604612
518.75 -0.01674982738 -0.02058638726
519.375 -0.02526567715 0.003853589387
520.0 -0.02164709944 0.01088368416
520.625 -0.0113878013 -0.005355524241
521.25 -0.01194778159 0.0004143144973
521.875 -0.002918989693 0.006124996682
522.5 -0.004695901255 -0.001353762668
523.125 -0.01281421094 -0.05018723706
523.75 -0.04425454513 -0.07268841241
524.375 -0.07231548553 -0.09440840743
525.0 -0.07262276122 -0.0378754829
525.625 -0.06174688555 -0.004784454462
526.25 -0.05318131434 -0.00973147747
526.875 -0.03852359247 0.00125997024
527.5 -0.05277774545 0.02036974857
528.125 -0.01845729594 0.04451536313
528.75 -0.004664853107 0.03816874497
529.375 -0.0001685593269 0.04960800179
530.0 0.04046064491 0.05550767232
530.625 0.08964857271 -0.0255518917
531.25 0.1064594463 -0.05150235584
531.875 0.05246792253 -0.0480167931
532.5 0.03096664916 -0.01611210834
533.125 0.03178117774 -0.01941891449
533.75 0.03063280896 -0.03224882421
534.375 0.0246625167 -0.01475057836
535.0 0.04609895984 0.001560443258
535.625 0.03920949133 0.01105875861
536.25 0.04341792577 -0.03013770364
536.875 0.05779556097 -0.03824060954
537.5 0.03867538739 -0.02779192886
538.125 0.007242185143 -0.01975698031
538.75 0.02759350568 -0.005460008488
539.375 0.06214425281 0.004360155899
540.0 0.09254141328 -0.01991108009
540.625 0.04455336306 -0.03671651164
541.25 0.04124220478 -0.02106171442
541.875 0.05270427782 -0.02483741643
542.5 0.03124668219 -0.03802609984
543.125 -0.01174264777 -0.03054672347
543.75 -0.006008139747 0.009723714842
544.375 0.02113467339 0.01245448727
545.0 0.01231699943 -0.0369262669
545.625 -0.01182498277 -0.04621869293
546.25 -0.01570952186 -0.02584583513
546.875 -0.0158966955 -0.02390367771
547.5 -0.02927836776 -0.03042463188
548.125 -0.0083753698 -0.03515655613
548.75 0.01666829009 -0.04668741427
549.375 0.02775179545 -0.04503667259
550.0 0.05456112218 -0.05484613361
550.625 0.07368131768 -0.06197006847
551.25 0.08284977232 -0.03358406597
551.875 0.0529371435 -0.05804047531
552.5 0.03256617101 -0.0731208656
553.125 0.01212057984 -0.06438502012
553.75 0.00729355384 -0.06053897783
554.375 -0.01442960177 -0.04611635732
555.0 -0.01132924031 -0.04436800074
555.625 -0.001370296695 -0.03635235563
556.25 -0.008138263513 -0.02733496531
556.875 -0.01016222193 -0.02588879076
557.5 0.001497243779 -0.01138423684
558.125 0.01595679374 0.007473844575
558.75 0.0184964262 0.01846907973
559.375 0.04248847491 0.009980172675
560.0 0.07371617427 -0.004901140613
560.625 0.06556563625 -0.03042677327
561.25 0.02927669731 -0.04972675662
561.875 0.004608069962 -0.05089169485
562.5 -0.008388083449 -0.05191641318
563.125 -0.01998637473 -0.03009835656
563.75 -0.02065998304 -0.01065850436
564.375 -0.002018972465 -0.004517702095
565.0 0.00826758945 -0.02286717553
565.625 0.01224969603 -0.03517620976
566.25 0.02025126674 -0.03658965339
566.875 0.02515757017 -0.03245387518
567.5 0.02280157442 -0.02234421132
568.125 0.02927578542 -0.009924866676
568.75 0.04782400326 0.008146292998
569.375 0.06479465894 0.008603469869
570.0 0.06084574299 -0.01084883159
570.625 0.05078189837 -0.0364782841
571.25 0.04658912189 -0.03409666361
571.875 0.03997481948 -0.0399567884
572.5 -0.002659488327 -0.05476382637
573.125 -0.02858198268 -0.03368972289
573.75 -0.005928380626 -0.0133239664
574.375 0.01097204908 -0.02763539883
575.0 -0.01367310734 -0.03597652352
575.625 -0.02495679431 -0.02112344139
576.25 -0.0113243894 -0.01074503538
576.875 0.006414808332 -0.0104567718
577.5 0.005402955056 -0.01989889891
578.125 0.01312297253 -0.02900786536
578.75 0.02433452336 -0.03237252161
579.375 0.0209611679 -0.04104071122
580.0 0.02075896972 -0.05444448008
580.625 0.01992857653 -0.06603524706
581.25 -0.008362438155 -0.06451054521
581.875 -0.0306805653 -0.04814455533
582.5 -0.01996904911 -0.03498041963
583.125 -0.002602359509 -0.0341969694
583.75 0.01058331456 -0.0266572221
584.375 0.002419533013 -0.03366163147
585.0 0.0089044014 -0.02685657745
585.625 0.02217520631 -0.01416991829
586.25 0.02744495609 -0.006799651286
586.875 0.01892862244 -0.0228660798
587.5 0.0135388591 -0.02294773121
588.125 0.01446685592 -0.02570953947
588.75 0.03065901875 -0.02913600301
589.375 0.00888810702 -0.05553329029
590.0 -0.02085736113 -0.06112752924
590.625 -0.05707988729 -0.02604104536
591.25 -0.03760901744 -0.003862877979
591.875 -0.008215813382 0.0008413070735
592.5 0.009144902027 -0.01052187996
593.125 -0.0007160661262 -0.01247359061
593.75 0.01043187027 -0.01780532109
594.375 0.02679682982 -0.01718606956
595.0 0.04544956874 -0.007163178265
595.625 0.03521105115 -0.01500384531
596.25 0.0389547958 -0.01195040918
596.875 0.04199551426 0.01118182141
597.5 0.03698984764 0.01962670968
598.125 0.04213015156 0.003933656568
598.75 0.05900288765 -0.000870773377
599.375 0.05779664671 -0.01514741277
600.0 0.04664354174 -0.02206807127
600.625 0.02959150052 -0.02808191754
601.25 0.01259342631 -0.02149203852
601.875 0.002575620322 -0.00592689999
602.5 0.0008511806919 0.006791836172
603.125 -0.008506249457 0.001004695172
603.75 0.002865667735 0.02320795243
604.375 0.0099343045 0.03646269412
605.0 0.01582894919 0.02656717122
605.625 0.002236634095 0.01934234226
606.25 -0.02206313604 0.02385683522
606.875 -0.03160673069 0.04094824987
607.5 -0.00494493068 0.05139444329
608.125 0.01731760688 0.04367319203
608.75 0.01418406151 0.03166207299
609.375 0.005875230487 0.03965156894
610.0 0.01048866593 0.03945243836
610.625 0.0117811709 0.02771827458
611.25 -0.0003816371044 0.0117141968
611.875 -0.008520963313 -0.001561607297
612.5 -0.01502232617 -0.009996954992
613.125 -0.03684244651 -0.006303995022
613.75 -0.01898470447 -0.007177218757
614.375 -0.01912528696 0.003433942975
615.0 -0.02773523878 0.001703127327
615.625 -0.03177748857 -0.006496191046
616.25 -0.02757585067 -0.002487388513
616.875 -0.02687356267 0.01085789338
617.5 -0.01827574652 0.005934415005
618.125 -0.0151245999 -0.004210453692
618.75 -0.0005546795909 -0.008651390528
619.375 0.001841080268 -0.005968744828
620.0 0.008466608121 -0.01485314146
620.625 0.007446672102 -0.03432581037
621.25 0.01278428196 -0.05302030341
621.875 -0.007317720274 -0.06607951808
622.5 -0.06774565666 -0.03179475386
623.125 -0.06430333513 0.002411066537
623.75 -0.03860739093 0.001607298976
624.375 -0.02810149757 -0.007252376602
625.0 -0.02870522636 -0.02551016994
625.625 -0.02861978082 -0.008390600414
626.25 -0.01572894332 0.01097525158
626.875 0.005047566783 0.00631461115
627.5 0.02177565342 -0.006337130781
628.125 0.02791102917 -0.0046462673
628.75 0.02746992297 -0.006093646251
629.375 0.04285320711 0.004833127178
630.0 0.05232703659 0.007266355338
630.625 0.05552040071 0.002006427456
631.25 0.05622814692 0.00634493805
631.875 0.05164110159 -0.01088557028
632.5 0.04130623238 -0.02277336778
633.125 0.034768338 -0.01244218987
633.75 0.02896891396 -0.009697259805
634.375 0.01961121711 0.01161040089
635.0 0.01403052568 -0.0006742919031
635.625 0.0127610906 -0.004927248008
636.25 0.02456384078 0.0149439425
636.875 0.02966484494 0.01606686881
637.5 0.02176533928 0.008006726668
638.125 0.008975339551 0.01102061252
638.75 0.004010904935 0.04369681414
639.375 0.0104171943 0.05245437322
640.0 0.0006865009286 0.05869679712
640.625 0.00522632025 0.03855277659
641.25 -0.0003522323918 0.02622878944
641.875 -0.007657170316 0.02429032511
642.5 -0.01660797422 0.02714966639
643.125 -0.01834579822 0.02613189184
643.75 -0.02004914115 0.006186643748
644.375 -0.02317313387 0.007759223647
645.0 -0.04646073784 0.0181809433
645.625 -0.05543063216 0.02521103676
646.25 -0.03327172739 0.03199489187
646.875 -0.01823116273 0.02897853513
647.5 -0.04642743718 0.0197903501
648.125 -0.04740131895 0.01031870622
648.75 -0.0346326244 0.02531869544
649.375 -0.0225123338 0.02180380911
650.0 -0.01995359106 -0.005009975087
650.625 -0.003605745423 -0.01273924517
651.25 -0.002405519212 -0.01336647976
651.875 0.01061675273 -0.01637725714
652.5 0.03500887391 -0.01290738419
653.125 0.04891116702 -0.01313003966
653.75 0.05705741598 -0.02085943556
654.375 0.07090112531 -0.01980481553
655.0 0.07457247156 -0.01135626318
655.625 0.05158745292 -0.0306409578
656.25 0.02878264258 -0.03900822803
656.875 0.02767983327 -0.03004672371
657.5 0.02626237435 -0.01620232836
658.125 0.01471153473 -0.02508401065
658.75 -0.001370968893 -0.01170974681
659.375 0.02185258285 0.01630743931
660.0 0.03778823715 0.01443371342
660.625 0.04945290486 -0.01338904897
661.25 0.04640864799 -0.03038390433
661.875 0.04223911725 -0.03988672157
662.5 0.03107417588 -0.05251488033
663.125 0.02550382137 -0.05649739864
663.75 0.03724611745 -0.04579169097
664.375 0.04978314569 -0.007496627131
665.0 0.04491992691 0.00660748972
665.625 0.0370439093 0.0213429674
666.25 0.01356105075 0.0196137958
666.875 -0.01062652462 0.01334430448
667.5 -0.01980798705 0.02051402155
668.125 -0.03694645247 0.029601677
668.75 -0.03873619117 0.03582310619
669.375 -0.03111369664 0.04197942102
670.0 -0.02257480683 0.04737085957
670.625 -0.03040058264 0.0342603796
671.25 -0.0249589515 0.0400582759
671.875 -0.003043776817 0.04698622695
672.5 0.0236906432 0.0355865799
673.125 0.01092583434 0.0194437917
673.75 -0.008217597188 0.01802725676
674.375 -0.01662541193 0.02994295358
675.0 -0.03103567299 0.04835924568
675.625 -0.051360594 0.01661160901
676.25 -0.04682334864 -0.001976060198
676.875 -0.06023602222 -0.005570946959
677.5 -0.08885633823 0.003732283281
678.125 -0.07426542039 0.001370557458
678.75 -0.04844973835 0.02425468848
679.375 -0.03998113912 0.01988929054
680.0 -0.03129096217 0.0024755274
680.625 -0.02609431542 -0.01266169093
681.25 -0.01268146906 0.002281560047
681.875 -0.01385723498 -0.003973890871
682.5 -0.04129076709 -0.02060895596
683.125 -0.06540933089 -0.01683307253
683.75 -0.05919671298 -0.00990717272
684.375 -0.04486180423 -0.03062571682
685.0 -0.01333930727 -0.06783073834
685.625 0.02784525457 -0.06963430066
686.25 0.03792394678 -0.07215522749
686.875 0.03857205069 -0.05399847414
687.5 0.03346723465 -0.03683859498
688.125 0.01859768615 -0.02565530986
688.75 0.02185424166 -0.01119498943
689.375 0.01281356822 0.01989417846
690.0 0.009699656731 0.030672869
690.625 0.01589759285 0.03125559617
691.25 0.04831483676 0.02947639953
691.875 0.08980220261 0.01419482217
692.5 0.06497504384 -0.04877302385
693.125 -0.02541789692 -0.077854022
693.75 -0.05713882045 -0.04008176966
694.375 -0.03345742127 -0.03266966374
695.0 -0.01690048622 -0.03429313059
695.625 0.0083683909 -0.04337222047
696.25 0.03251424249 0.003662689946
696.875 0.007453484112 0.03149289468
697.5 -0.02228054445 0.02032199997
698.125 -0.04656956935 0.01910516948
698.75 -0.06369410838 0.02914117602
699.375 -0.05002289866 0.03348720035
700.0 -0.03976482359 0.02731299704
700.625 -0.05394687963 0.01962885124
701.25 -0.05506298236 0.004080002479
701.875 -0.03562746857 0.03111298549
702.5 0.0004279945758 0.02090427745
703.125 -0.02467255031 -0.001447384718
703.75 -0.04944092267 0.04050682289
704.375 0.006947605885 0.06785907174
705.0 0.01803777437 0.05962604663
705.625 -0.01490841811 0.05488711594
706.25 -0.0538793849 0.03514467432
706.875 -0.07156005643 -0.005794151284
707.5 -0.07730242796 -0.02302617078
708.125 -0.03514151043 -0.03948452844
708.75 -0.008382475327 -0.02641787791
709.375 0.01779501211 -0.01717892554
710.0 0.03420013969 -0.01530708297
710.625 0.01850124582 0.01456840247
711.25 0.001163214443 0.01089512928
711.875 -0.001118843671 0.02643087066
712.5 0.01552107354 0.04907794825
713.125 0.06906256471 0.03887468167
713.75 0.05444147111 -0.05478233857
714.375 0.001309185965 -0.07942223128
715.0 -0.04524591882 -0.06356680243
715.625 -0.01732165107 -0.05684980185
716.25 -0.002515140788 -0.04261877495
716.875 0.01762255721 -0.02214099153
717.5 0.02280908506 0.01463554284
718.125 0.02171688922 0.003234321765
718.75 0.02079452857 0.01989401363
719.375 -0.003750379793 0.03624163642
720.0 -0.03350130804 0.01987929719
720.625 -0.03899025729 -0.005937830068
721.25 -0.03152966915 -0.05137832853
721.875 0.01798443541 -0.07407333957
722.5 0.02255994496 -0.06188461767
723.125 -0.02541112877 -0.0467508341
723.75 -0.03460009173 -0.01809640357
724.375 -0.01762116416 -0.02535037285
725.0 -0.01957581544 -0.006062972693
725.625 -0.006395085897 0.003122447641
726.25 -0.03477562833 -0.01097161147
726.875 -0.04608097852 -0.04259832654
727.5 -0.04609169799 -0.04568279822
728.125 -0.03842764143 -0.0469424221
728.75 -0.02449358494 -0.00957392174
729.375 -0.01860577663 -0.02371869506
730.0 -0.02733334616 -0.03796023114
730.625 -0.02158903723 -0.03870827704
731.25 -0.006670599706 -0.01858551958
731.875 0.01117214318 -0.01333238582
732.5 0.0275061148 0.009610065363
733.125 0.01034057779 0.03513769798
733.75 0.009567194235 0.03618888893
734.375 0.02454714903 0.0317354626
735.0 0.0555291162 0.007279621813
735.625 0.06024422496 -0.00513222674
736.25 0.02325098644 -0.01793804473
736.875 0.009810472339 -0.0278648724
737.5 0.01027235446 -0.01402317316
738.125 -0.003925884478 0.02620889107
738.75 -0.02523592697 0.03991723257
739.375 0.004456620671 0.05401432111
740.0 0.03227344233 0.04773671649
740.625 0.01824907893 0.02789194654
741.25 0.01455005669 0.03597910112
741.875 -0.02873639939 0.01868732409
742.5 -0.03303021663 -0.00185338058
743.125 -0.0174652958 -0.03226484863
743.75 -0.002019175156 -0.04439410023
744.375 0.01291770853 -0.04298119211
745.0 -0.001170054345 -0.05412298677
745.625 -0.02389847223 -0.0177635662
746.25 -0.01216740348 0.003664945578
746.875 0.03191861042 -0.0208192805
747.5 0.008065110348 -0.03629591325
748.125 -0.02741729109 -0.02660858138
748.75 -0.03822319052 0.003183720316
749.375 -0.02792461458 0.02930869377
750.0 -0.003441326738 0.04879763099
