!Created with skrf (http://scikit-rf.org).
# GHz S RI R 50.0 
!freq ReS11 ImS11
500.0 -0.02136697756 -0.01173519598
500.625 -0.0303759875 -0.003339643286
501.25 -0.03837989367 -0.002864208194
501.875 -0.0588225808 -0.004207454632
502.5 -0.04236788795 -0.004729608985
503.125 -0.02794866288 0.01870803782
503.75 -0.01795277864 0.02528693874
504.375 -0.01484961042 -0.003503170296
505.0 -0.002036844343 0.004604848228
505.625 -0.000994573004 0.01081281152
506.25 -0.01040830657 0.007601992858
506.875 -0.04667632264 -0.06645886138
507.5 -0.0559718078 0.02885954949
508.125 -0.04028725306 -0.006073622634
508.75 -0.04752477879 0.01826069958
509.375 -0.05655506386 0.04127809571
510.0 -0.04453560754 0.05471300506
510.625 -0.001198455994 0.0157769219
511.25 -0.008624577644 0.02370999252
511.875 -0.02731168403 0.06307016171
512.5 0.02110980494 0.03561743154
513.125 0.04846604875 -0.01716901239
513.75 0.05289926249 -0.04454894266
514.375 0.02346096195 -0.04483765143
515.0 -0.0217332525 -0.04631302243
515.625 0.01520854201 -0.0390005577
516.25 0.04739047909 -0.03705572444
516.875 0.04886965428 0.01718469707
517.5 0.04697783313 -0.03062604973
518.125 0.1310327322 0.02220427198
518.75 0.0947339972 -0.07529561897
519.375 0.05079803699 -0.03904870161
520.0 0.02034001657 -0.04281761159
520.625 0.0235002579 -0.06998389028
521.25 0.02871392875 -0.09907065693
521.875 0.02304451084 -0.03855363542
522.5 -0.006371660453 -0.05252200255
523.125 -0.0009301820776 -0.1555225065
523.75 -0.04593485251 -0.240765685
524.375 -0.04985282648 -0.2323976369
525.0 -0.05717765473 -0.09905223718
525.625 -0.04335814931 -0.0796881648
526.25 0.0003997436885 -0.08837711491
526.875 -0.03121869328 -0.06049678598
527.5 -0.06210226414 -0.03964507278
528.125 -0.05948981146 -0.01440543733
528.75 -0.06827969521 -0.0247905599
529.375 -0.09488961324 0.04106669248
530.0 -0.03981285268 0.09611606694
530.625 0.04347390368 0.07748134601
531.25 0.02924993298 0.0491734871
531.875 0.00974661765 0.06830450588
532.5 0.005898837234 0.1108165012
533.125 0.01018210855 0.08838898849
533.75 0.02901857256 0.08727551777
534.375 0.03182520082 0.07989689947
535.0 0.04962989086 0.07018297382
535.625 0.01221088103 0.07793021069
536.25 0.06733342403 0.0534968504
536.875 0.05727715521 0.03192401801
537.5 0.004495509975 0.05962315063
538.125 -0.002270914677 0.0584817586
538.75 0.04207830789 0.1013265674
539.375 0.03609030269 0.1116493025
540.0 0.04108434925 0.0772855603
540.625 0.02101091569 0.06063705135
541.25 0.02768821343 0.07712710464
541.875 0.02696499137 0.05781735833
542.5 -0.01407918483 0.03517315417
543.125 -0.01611931959 0.03886420157
543.75 0.05230962238 0.08069585828
544.375 0.08504913705 0.08690702729
545.0 0.08112882274 -0.007524565101
545.625 0.06584196874 -0.04905235509
546.25 0.0566376608 -0.09923961745
546.875 0.05093713776 -0.08029400861
547.5 0.05562833181 -0.07154313532
548.125 0.08571944347 -0.07817845439
548.75 0.1261766015 -0.06731022972
549.375 0.1335402381 -0.03904821576
550.0 0.1182190217 0.003559730502
550.625 0.1487748212 0.00794847457
551.25 0.1194577351 0.0732732103
551.875 0.08819089505 0.02346774092
552.5 0.07046573832 -0.007893106741
553.125 0.0778136126 -0.01087717468
553.75 0.08460577775 0.02543223038
554.375 0.04405593343 0.00729683777
555.0 0.03578514392 0.004837225027
555.625 0.06599099633 0.003841974601
556.25 0.06799713331 0.02531082176
556.875 0.03469110459 0.02981397039
557.5 0.03983158907 0.03637036614
558.125 0.06478277289 0.06884543124
558.75 0.04624738986 0.09674081471
559.375 0.06667582497 0.08214508388
560.0 0.07482519368 0.06519496122
560.625 0.07828775134 0.04088594732
561.25 0.07837843567 0.01207961544
561.875 0.06538797362 -0.002811762686
562.5 0.04446420321 -0.002634932833
563.125 0.05191581295 -0.0001896083365
563.75 0.05485167132 -0.02118246997
564.375 0.06477494856 -0.03530569339
565.0 0.1051465128 -0.01961136521
565.625 0.09391370716 -0.02053840487
566.25 0.09065451653 -0.02846574588
566.875 0.08620860387 -0.01032575522
567.5 0.07326632653 0.02835012876
568.125 0.06112662828 0.06007774298
568.75 0.06715356479 0.06687832012
569.375 0.09434588241 0.07022634526
570.0 0.07474491861 0.05447559116
570.625 0.06136289202 0.03873653368
571.25 0.0818190467 0.02082189148
571.875 0.07444931648 0.01419400093
572.5 0.03494001193 -0.006743006557
573.125 0.03374118744 0.004910214014
573.75 0.06627816318 0.002807726228
574.375 0.08311018347 -0.01620081597
575.0 0.0522091385 -0.02239729428
575.625 0.04011925564 -0.02857441548
576.25 0.0501065579 -0.05429384282
576.875 0.075308785 -0.03476108041
577.5 0.06778903546 -0.01132498856
578.125 0.07328020312 -0.03276648145
578.75 0.0893517671 -0.06026579591
579.375 0.09722889965 -0.03279845999
580.0 0.07563947734 -0.0319050532
580.625 0.07303582506 -0.06243826327
581.25 0.05755370522 -0.07591880305
581.875 0.0431946549 -0.0585808685
582.5 0.03259998487 -0.01261710375
583.125 0.06011750676 -0.009722270212
583.75 0.0774034149 -0.005316622538
584.375 0.07326344725 -0.02427707235
585.0 0.05751156719 0.007274380691
585.625 0.06652073772 0.02444338662
586.25 0.06816808936 0.03440472673
586.875 0.06466500996 0.004782441063
587.5 0.05932234064 0.01304949679
588.125 0.08341142056 -0.00997239216
588.75 0.09058411701 -0.01202627587
589.375 0.05566841304 -0.07423388879
590.0 0.01856762988 -0.09226540445
590.625 0.02607216568 -0.05336387549
591.25 0.02407580729 -0.02308338234
591.875 0.02289531561 -0.02308247553
592.5 0.04695225156 -0.04240845675
593.125 0.07900487623 -0.03314305949
593.75 0.07194309547 -0.02418870535
594.375 0.05862189238 -0.0270671082
595.0 0.08238493578 0.003332004443
595.625 0.07730030704 0.04868356743
596.25 0.06097172118 0.04775782449
596.875 0.05574089941 0.03714980992
597.5 0.04864763043 0.06294104819
598.125 0.04673275191 0.0600211544
598.75 0.07129442958 0.04489819974
599.375 0.07463821687 0.006984874737
600.0 0.04161509271 0.02268053127
600.625 0.02813830634 0.0157501279
601.25 0.01194446218 0.02378997823
601.875 0.0197375987 0.004467482758
602.5 0.005246820778 0.04125630201
603.125 -0.02326539389 0.05844219563
603.75 -0.007534961625 0.07110455331
604.375 -0.001574774072 0.07620914428
605.0 -0.02300783554 0.05433328814
605.625 -0.03074991338 0.03707518655
606.25 -0.04678662341 0.04296967179
606.875 -0.07185165965 0.05979291232
607.5 -0.0090133926 0.05376489383
608.125 -0.03067956511 0.06007197102
608.75 -0.02234184704 0.06119969919
609.375 -0.02283003688 0.04870579641
610.0 -0.03731538963 0.03376685753
610.625 -0.0323442774 0.01670536731
611.25 -0.02773594076 0.003643367553
611.875 -0.03697881162 -0.02616010144
612.5 -0.003986881135 -0.02103540896
613.125 -0.03269834772 -0.02375736739
613.75 -0.06128134102 -0.04734214501
614.375 -0.04238611724 -0.03426951843
615.0 -0.01565401614 -0.01627516315
615.625 -0.04183824327 -0.0371581758
616.25 -0.05713851995 -0.05911788147
616.875 -0.04132426161 -0.02984555421
617.5 0.009021912432 -0.006581492304
618.125 0.003209203214 -0.01981153756
618.75 -0.01902665732 -0.06439327665
619.375 -0.001648249406 -0.04146017727
620.0 0.04954416074 -0.01783743467
620.625 0.02387374199 -0.06002442541
621.25 0.02042522375 -0.08618758489
621.875 0.0009992984597 -0.09522761254
622.5 -0.03012206316 -0.0547213856
623.125 -0.07077215087 -0.03242293437
623.75 -0.05549125071 -0.03913056973
624.375 -0.02709771492 -0.03845562838
625.0 0.003274699364 -0.03254132354
625.625 0.003484017777 -0.03420531778
626.25 0.01776286874 -0.01927020314
626.875 0.03639447539 -0.004922100298
627.5 0.06051795686 -0.01263231025
628.125 0.06618593523 0.03731866363
628.75 0.06292754599 0.01291136208
629.375 0.07332108494 0.01185795406
630.0 0.085385092 0.01934662664
630.625 0.06028460955 0.0544217804
631.25 0.08491542551 0.01909311927
631.875 0.06475631926 0.02421966141
632.5 0.05824032059 0.0178886582
633.125 0.01034252868 0.04949976547
633.75 0.02126539956 0.04094073715
634.375 0.05222444284 0.02833066541
635.0 0.03138117862 0.02686654818
635.625 0.01814034732 0.04284980867
636.25 0.0430579684 0.04654224195
636.875 0.05480072504 0.05553331919
637.5 0.02374802248 0.03911933052
638.125 0.009403045612 0.04526216469
638.75 -0.01527108584 0.1137860286
639.375 -0.03968121961 0.09226822003
640.0 -0.01706179355 0.07095595702
640.625 -0.01868697695 0.05036928725
641.25 -0.07388971002 0.03915375102
641.875 -0.06708776559 0.01717837493
642.5 -0.05638625417 0.01888992859
643.125 -0.05354446642 0.01644407566
643.75 -0.0965368561 -0.01700171633
644.375 -0.07947231841 -0.01168218054
645.0 -0.0774946415 -0.001318888823
645.625 -0.08311816037 0.01775752735
646.25 -0.1131729921 0.001930930927
646.875 -0.06926692277 -0.004750351267
647.5 -0.05939400637 0.01618618927
648.125 -0.07655224759 0.002759968044
648.75 -0.07572397025 -0.02958050756
649.375 -0.04259236379 -0.01619622307
650.0 -0.03295192278 -0.01697716645
650.625 -0.007699327099 -0.05025143543
651.25 0.02121316411 -0.06178441373
651.875 0.03334712386 -0.04292619535
652.5 0.05628315755 -0.04634197033
653.125 0.1064374777 -0.01862520712
653.75 0.1166271296 0.00298626325
654.375 0.118186577 0.00165383087
655.0 0.1034625372 -0.01391759054
655.625 0.09050917301 0.005071134455
656.25 0.06732940017 0.008925384878
656.875 0.05895111807 -0.01888528282
657.5 0.06812176567 -0.02010126256
658.125 0.06388297161 0.01325601755
658.75 0.03148968585 0.02526289494
659.375 0.07813425849 0.02183994713
660.0 0.1164813949 0.008432861517
660.625 0.09011035137 -0.01187881912
661.25 0.09191086996 -0.02386361188
661.875 0.104923912 -0.07378465799
662.5 0.08840786471 -0.09534645433
663.125 0.07963336761 -0.07472301204
663.75 0.08391840899 -0.04080945252
664.375 0.1217267591 0.03454366654
665.0 0.05775945708 0.043190377
665.625 0.02261762774 0.05474316062
666.25 0.008278944792 0.08263270034
666.875 -0.05469605635 0.09178302273
667.5 -0.05598885167 0.03956092687
668.125 -0.07037678861 0.0348113169
668.75 -0.07771725895 0.08786170794
669.375 -0.07679156917 0.08321721462
670.0 -0.06066889068 0.05598106827
670.625 -0.0642280116 0.0351334441
671.25 -0.06462457996 0.07250093299
671.875 -0.04654870865 0.1056260633
672.5 -0.006780826544 0.09122244085
673.125 -0.004333145907 0.06067391833
673.75 -0.01594165743 0.09787297312
674.375 -0.04788662002 0.09025616217
675.0 -0.05603201484 0.05306978446
675.625 -0.08799330851 0.03416201462
676.25 -0.1387741698 -0.002717333359
676.875 -0.1104685443 -0.02995208199
677.5 -0.1014900642 -0.0108751429
678.125 -0.1267196994 -0.004061289799
678.75 -0.1079502783 -0.02757467945
679.375 -0.06998047581 -0.03213604093
680.0 -0.04660861104 -0.01255139677
680.625 -0.08006039668 -0.01759824308
681.25 -0.08145518574 -0.03538959475
681.875 -0.08082986808 -0.03356357959
682.5 -0.07835175293 -0.01021419622
683.125 -0.09886751942 0.0007663469832
683.75 -0.1279199392 -0.02176763986
684.375 -0.08545846594 -0.07775238197
685.0 -0.04609044804 -0.1252554369
685.625 0.04401605629 -0.1070066623
686.25 0.08979589471 -0.1011607448
686.875 0.09435121741 -0.07122408856
687.5 0.108394446 -0.06004318801
688.125 0.06398180226 -0.004540444565
688.75 0.05811260038 0.02206766005
689.375 0.06074345151 0.03830738044
690.0 0.1119488522 0.06558433619
690.625 0.07666442938 0.08831883298
691.25 0.06674064658 0.06002714423
691.875 0.1268374367 0.0005942131621
692.5 0.1215799333 -0.1553365593
693.125 0.007118081813 -0.1441179949
693.75 -0.06111874781 -0.07428850197
694.375 -0.08705300084 -0.07356202082
695.0 -0.03508644462 -0.1234610373
695.625 0.06658824659 -0.1298994206
696.25 0.09486016378 0.001584952189
696.875 0.01930063448 0.06705724843
697.5 -0.0485545245 0.07956883136
698.125 -0.08329594563 0.07711491448
698.75 -0.09026310629 0.08561620976
699.375 -0.09665196529 0.07568066779
700.0 -0.09236439623 0.04635358115
700.625 -0.1030698123 0.04702810924
701.25 -0.1219892097 0.0513348215
701.875 -0.1016571995 0.01887051602
702.5 -0.05951520416 0.03141693129
703.125 -0.0329190972 0.05689748558
703.75 -0.01751558011 0.1111706207
704.375 0.008968921835 0.138937123
705.0 0.03404640559 0.1146968648
705.625 0.0007218851838 0.09935517824
706.25 -0.04850185897 0.1232725116
706.875 -0.1452215639 -0.001850338825
707.5 -0.09043174496 -0.07185530301
708.125 -0.05444591649 -0.08128324143
708.75 -0.04240310649 -0.1024250458
709.375 0.05978444082 -0.0691287367
710.0 0.07109819548 0.01911033003
710.625 0.06618315156 0.03225889223
711.25 0.07533804553 0.01948797484
711.875 0.02303783595 0.06271593318
712.5 0.07213731442 0.06902388129
713.125 0.143183113 0.008509120067
713.75 0.05947464886 -0.1405902144
714.375 -0.01017084537 -0.130509051
715.0 -0.04886471357 -0.1196678931
715.625 -0.03945391894 -0.1474869831
716.25 0.02795931497 -0.1088955641
716.875 0.03743655599 -0.06597461485
717.5 0.06802340248 -0.03146957424
718.125 0.09258366262 0.05316686306
718.75 0.06998527123 0.07141306739
719.375 0.04886033768 0.04753196398
720.0 -0.01127255148 0.06722770716
720.625 -0.1037494621 0.01960024856
721.25 -0.08405679299 -0.09102734532
721.875 -0.0314806661 -0.09605276803
722.5 0.01411637477 -0.1132971092
723.125 -0.03242079726 -0.1156022111
723.75 -0.07294152777 -0.07441334635
724.375 -0.07671125617 0.02128834224
725.0 -0.0639023642 0.03279621984
725.625 -0.06393210155 0.02246919071
726.25 -0.05082022077 0.02907766897
726.875 -0.09145438823 0.004725326621
727.5 -0.09910656769 -0.03837805833
728.125 -0.07897538718 -0.05809741909
728.75 -0.07504755941 -0.06692345803
729.375 -0.09755711127 -0.04074225346
730.0 -0.06336979784 -0.008673424536
730.625 -0.05757683497 -0.06425533997
731.25 -0.01836430258 -0.07661602304
731.875 0.03393748072 -0.07569067599
732.5 0.06549706051 -0.01406154094
733.125 0.01210984363 0.004442566318
733.75 0.07975393992 0.06030319817
734.375 0.1037073661 0.03537963195
735.0 0.04275424359 -0.01403175465
735.625 0.05315923572 -0.03789997858
736.25 0.09437726538 -0.07221138236
736.875 0.06026824561 -0.07176652941
737.5 0.001827793679 -0.02235323192
738.125 0.04476462415 0.008462380815
738.75 0.05752454748 0.08292414036
739.375 0.05732001249 0.09111082525
740.0 0.07175052033 0.04927435131
740.625 0.004235764455 0.0344862582
741.25 0.05593550536 0.04722352312
741.875 0.01002570516 0.09485615914
742.5 -0.0597848334 0.04490223024
743.125 -0.005605958362 -0.05380603454
743.75 -0.003839488649 -0.06769080741
744.375 -0.01602883134 -0.08620379236
745.0 -0.04108191843 -0.08504882554
745.625 -0.01383088345 -0.04848379126
746.25 -0.0203557104 -0.0111946998
746.875 -0.04442197435 -0.01879002235
747.5 -0.03425033418 -0.01705399121
748.125 -0.04368839751 -0.0225874349
748.75 -0.0599663982 0.01419278347
749.375 -0.03480851086 0.05574600578
750.0 0.04541612507 0.06207933916
