!Created with skrf (http://scikit-rf.org).
# GHz S RI R 50.0 
!freq ReS11 ImS11
500.0 -0.02517540943 0.02346017811
500.625 0.0056164347 0.0471034123
501.25 0.01451900062 0.04238380731
501.875 0.003449511509 0.0594848349
502.5 -0.009895779278 0.07443546776
503.125 0.02225691879 0.06321755145
503.75 0.04359600359 0.04249545454
504.375 0.05737555075 0.02305092092
505.0 0.07151347895 -0.007171899848
505.625 0.0813256164 -0.02026244133
506.25 0.06234044104 -0.0316980541
506.875 0.08040404398 -0.004672979403
507.5 0.07988000884 -0.01197568489
508.125 0.08246185852 0.02398701177
508.75 0.0780734992 -0.02552443713
509.375 0.07037745249 -0.02889451291
510.0 0.1054300129 -0.005910607965
510.625 0.02208971987 -0.07363611417
511.25 -0.01173799396 -0.06859217549
511.875 -0.03846874475 -0.03882383104
512.5 -0.0334640553 -0.01997232921
513.125 -0.04278414355 0.0133763089
513.75 -0.05579303217 0.03248704916
514.375 -0.05004955745 0.06884665208
515.0 -0.03022509182 0.1028892419
515.625 -0.08427472684 0.08526503127
516.25 -0.005632843997 0.1241257821
516.875 -0.09308072494 0.1077908185
517.5 -0.0005814083321 0.1115620721
518.125 -0.09798400238 0.07349838624
518.75 -0.008753376535 0.06484515223
519.375 -0.03517699108 0.08583108317
520.0 0.02314788874 0.08194926616
520.625 0.03551709831 0.07036129474
521.25 0.04489714378 0.05635876167
521.875 0.01171296285 0.06534397411
522.5 0.05774585613 0.03068255606
523.125 0.1018985181 0.02790199327
523.75 0.0912594878 0.009939096726
524.375 0.01732713551 0.04043991404
525.0 -0.01272021863 0.02383309156
525.625 -0.01031064602 0.04671382546
526.25 -0.01402228487 0.069054665
526.875 -0.000531086704 0.0558285618
527.5 0.02101978988 0.04756865461
528.125 0.05674339956 0.02855069323
528.75 0.07762651445 0.02150461488
529.375 0.07218317817 -0.01580658152
530.0 0.05352630612 -0.03131433489
530.625 0.02680831721 -0.1152172968
531.25 0.06570356116 -0.1900992113
531.875 -0.01689055867 -0.1805697347
532.5 -0.06561067191 -0.1131281901
533.125 -0.06748372128 -0.09965794845
533.75 -0.053660646 -0.0981926948
534.375 -0.06119858078 -0.07191260694
535.0 -0.05840973937 -0.04924374804
535.625 -0.01799173949 -0.06070222297
536.25 -0.02664934953 -0.06193873085
536.875 -0.03570826229 -0.08881422741
537.5 -0.03033026709 -0.1160499489
538.125 -0.0555413108 -0.08833474531
538.75 -0.04855027305 -0.057692332
539.375 -0.02389987962 -0.07579165842
540.0 -0.03454110583 -0.1250859332
540.625 -0.03338268397 -0.1455335201
541.25 -0.02045424764 -0.1103971464
541.875 -0.03524646416 -0.107597541
542.5 -0.03883467689 -0.1231162282
543.125 -0.08713249516 -0.09117740148
543.75 -0.09935639654 -0.008829537793
544.375 -0.07246253411 0.01829969611
545.0 -0.05853586818 0.04174485381
545.625 -0.03923563175 0.05924469489
546.25 -0.01789525022 0.08196944279
546.875 -0.004597421527 0.08125415724
547.5 -0.0209834765 0.0949607912
548.125 -0.02202967098 0.07652688563
548.75 -0.04172228901 0.06890294028
549.375 -0.05824028258 0.06102538159
550.0 -0.05757149682 0.002319968539
550.625 -0.03241036614 -0.0214354604
551.25 -0.02294956382 -0.05820056224
551.875 -0.0609703641 -0.07353152086
552.5 -0.07119495748 -0.07540570831
553.125 -0.08268738812 -0.04334691559
553.75 -0.08953108097 -0.04509570549
554.375 -0.1111735157 -0.01527512995
555.0 -0.1069542362 0.001195634877
555.625 -0.08826753704 0.01555948799
556.25 -0.09911177968 0.002947957649
556.875 -0.1035370954 -0.003067935809
557.5 -0.09800086114 0.01190851643
558.125 -0.08286527573 0.006246876783
558.75 -0.06847817178 -0.01767072124
559.375 -0.03717510064 -0.01787493819
560.0 -0.027625351 -0.0247923081
560.625 -0.03407667537 -0.05408733972
561.25 -0.06712766335 -0.0594340962
561.875 -0.07997783171 -0.03979930935
562.5 -0.0881410479 0.009585674231
563.125 -0.09222748234 0.04958081462
563.75 -0.08284748284 0.0788539955
564.375 -0.04417634309 0.08009323342
565.0 -0.03859730276 0.07237782185
565.625 -0.03798802425 0.06299894296
566.25 -0.06689720208 0.03376905084
566.875 -0.06726162614 0.009796659653
567.5 -0.07073410151 0.003001612057
568.125 -0.06946273321 -0.009173808791
568.75 -0.05014092263 -0.01470381665
569.375 -0.02757478913 -0.03406561108
570.0 -0.02402850426 -0.04941865635
570.625 -0.03673422219 -0.06843821976
571.25 -0.04395011141 -0.05002254154
571.875 -0.06295304626 -0.05146411863
572.5 -0.09983824281 -0.02719427306
573.125 -0.1237904376 0.00458759044
573.75 -0.07499582347 0.0570863341
574.375 -0.0524341277 0.06477290485
575.0 -0.06634661432 0.06600797867
575.625 -0.07210051441 0.06073306952
576.25 -0.04744747145 0.06967308318
576.875 -0.02616875751 0.0772343694
577.5 -0.02304573752 0.07584558493
578.125 -0.03198987521 0.04705999746
578.75 -0.02445561943 0.03906843737
579.375 -0.0261533845 0.03955367764
580.0 -0.03331158188 0.02947154371
580.625 -0.0466441734 0.006919628373
581.25 -0.06579294699 0.006426964917
581.875 -0.08476909529 0.03075422722
582.5 -0.08849627377 0.03778198796
583.125 -0.07626261161 0.04396258881
583.75 -0.07118564406 0.0268030868
584.375 -0.08171115727 0.01766272724
585.0 -0.08137938028 -0.001376025134
585.625 -0.07057729515 0.01793238472
586.25 -0.06404931981 0.008674393886
586.875 -0.06779235798 -0.0001414285649
587.5 -0.06303254006 0.01142039277
588.125 -0.03795659588 0.04444283369
588.75 -0.03106948859 0.0417991394
589.375 -0.04280415645 0.02783482585
590.0 -0.05019753069 0.02355932323
590.625 -0.04883503741 0.05615077087
591.25 -0.04103051245 0.0858234448
591.875 -0.03074018619 0.09593509511
592.5 -0.006889978046 0.07574721137
593.125 0.0006544524816 0.06341749116
593.75 -0.01311598378 0.06525450931
594.375 -0.0310920885 0.05159446651
595.0 -0.03433502502 0.02684406601
595.625 -0.03101943248 0.005777519536
596.25 -0.0383129691 -0.01427748959
596.875 -0.03627533996 -0.0184720717
597.5 -0.03428946541 -0.0184219697
598.125 -0.02349515325 -0.01698690328
598.75 -0.01719550282 -0.02195219746
599.375 -0.0124047653 -0.03370037851
600.0 -0.02041735296 -0.04920331563
600.625 -0.02985389627 -0.06580307801
601.25 -0.04454740441 -0.06049955733
601.875 -0.05364839353 -0.03742229438
602.5 -0.05519226484 -0.02465021933
603.125 -0.05125710405 -0.02382258553
603.75 -0.03552119521 -0.01805631061
604.375 -0.0207488371 -0.01236243507
605.0 -0.0123760241 -0.02412557513
605.625 -0.01488761344 -0.03576387579
606.25 -0.01986982024 -0.03088667371
606.875 -0.02135023521 -0.009648372232
607.5 -0.006267577246 0.004931967082
608.125 0.009118174747 -0.0007360879651
608.75 0.01307357824 -0.007564943348
609.375 0.01564718772 -0.00272588047
610.0 0.02540954033 -0.0003394670949
610.625 0.03050357742 -0.00823329279
611.25 0.03080173395 -0.0156909652
611.875 0.02373308306 -0.01767068838
612.5 0.01296274232 -0.0183749226
613.125 -0.002747249476 -0.01230518077
613.75 -0.00922265579 0.002299954387
614.375 -0.00159314993 0.01205511008
615.0 0.001161009704 0.006499454232
615.625 -0.006451850332 0.00199732157
616.25 -0.01703584952 0.01189507382
616.875 -0.00991660353 0.02545364261
617.5 -0.003477780412 0.02328181063
618.125 -0.003413319245 0.01653923201
618.75 -0.009093717036 0.01697192858
619.375 -0.004265652397 0.02064024705
620.0 0.004025704289 0.01285021143
620.625 0.006109042427 -0.007107148021
621.25 -0.005787346053 -0.02470139648
621.875 -0.02450938682 -0.0378574397
622.5 -0.06541324267 0.005200072057
623.125 -0.06475887713 0.03746046591
623.75 -0.05790210057 0.04349046026
624.375 -0.0544373724 0.0289457558
625.0 -0.06465076797 0.005562342758
625.625 -0.07023366745 0.01078824038
626.25 -0.05483080086 0.02797175776
626.875 -0.03296373366 0.03013055978
627.5 -0.02971124168 0.008382424623
628.125 -0.02948104914 -0.01635942926
628.75 -0.02014900181 -0.02136886903
629.375 -0.01099611727 -0.0171633376
630.0 0.001669362791 -0.02903395108
630.625 0.02202471444 -0.04816750995
631.25 0.03112957263 -0.05974051672
631.875 0.02520387727 -0.06620450166
632.5 0.01336445148 -0.08026265244
633.125 0.01986600896 -0.07916779693
633.75 0.004408489576 -0.0791021391
634.375 0.006963902992 -0.07925135867
635.0 -0.01055760194 -0.080484543
635.625 -0.01764498165 -0.06031911713
636.25 -0.01111203403 -0.05200372676
636.875 0.01387384357 -0.06799926943
637.5 0.01016612939 -0.0802639329
638.125 -0.008706691104 -0.05767411719
638.75 -0.0005693786221 -0.03706714565
639.375 0.04448096058 -0.02486579707
640.0 0.07977384579 0.005073003965
640.625 0.07349242734 -0.001161855862
641.25 0.07151632479 -0.01109546735
641.875 0.07506519269 0.001521431814
642.5 0.06611749675 0.03443374772
643.125 0.06109628948 0.03938969695
643.75 0.06657013099 0.03343992581
644.375 0.06713606626 0.02897013152
645.0 0.04753159161 0.03333809001
645.625 0.04623650344 0.04874987227
646.25 0.06276224951 0.05436149584
646.875 0.07352270608 0.06498678396
647.5 0.062084331 0.0430694066
648.125 0.05443198336 0.05333345577
648.75 0.04142886822 0.08539186044
649.375 0.02572303062 0.1036953602
650.0 0.02529381546 0.08469868929
650.625 0.01144503847 0.08362436871
651.25 -0.02250635854 0.08368066711
651.875 -0.05234371019 0.05269532088
652.5 -0.04668540312 0.03703559624
653.125 -0.04772857771 0.01520825444
653.75 -0.04782122622 -0.02800483386
654.375 -0.02201601023 -0.0604314262
655.0 -0.02155182729 -0.07586921493
655.625 -0.04360385723 -0.08987095469
656.25 -0.06391086341 -0.09742181653
656.875 -0.07868072425 -0.06738327683
657.5 -0.07525044679 -0.0783643133
658.125 -0.09188095211 -0.08645830143
658.75 -0.0982534332 -0.06809855524
659.375 -0.09244970864 -0.008047940605
660.0 -0.07936592209 0.004942603923
660.625 -0.0774949038 -2.206070225e-05
661.25 -0.0662660201 -0.009499111986
661.875 -0.06209623684 0.01235567052
662.5 -0.07181027061 0.01493554195
663.125 -0.09225576768 -0.01421667716
663.75 -0.07245020029 -0.05508208809
664.375 -0.04690883695 -0.08893570639
665.0 -0.006218397911 -0.1157306493
665.625 0.04890042567 -0.1145335769
666.25 0.05744163305 -0.08901508945
666.875 0.0706839946 -0.0794448631
667.5 0.08688337164 -0.06789640014
668.125 0.07735591295 -0.03248773301
668.75 0.06063718803 -0.02495708164
669.375 0.06982347783 -0.01499697098
670.0 0.09748084767 -0.01011547777
670.625 0.08542018533 0.003434236611
671.25 0.0840407513 -0.01643218025
671.875 0.0905571513 -0.03095106374
672.5 0.09026730115 -0.08597103159
673.125 0.05358678549 -0.09918874847
673.75 0.03637914177 -0.1054764721
674.375 0.05823119268 -0.07664054245
675.0 0.08066329102 -0.03460622842
675.625 0.07478576911 -0.0133424424
676.25 0.08073698398 0.01352085919
676.875 0.06675670245 0.05315337557
677.5 0.02796552307 0.06241357431
678.125 0.03153507482 0.07201856597
678.75 0.04604366042 0.1012760171
679.375 0.04260894688 0.1378572753
680.0 0.03867133814 0.1028760597
680.625 0.06809778242 0.08361752803
681.25 0.1032086454 0.06287603051
681.875 0.1256246584 0.04716476727
682.5 0.09410686701 -0.003076046429
683.125 0.07767712603 -0.006149867164
683.75 0.07750906352 0.02499620016
684.375 0.0401874757 0.07841758166
685.0 -0.01163633855 0.07523053345
685.625 -0.06524842331 0.03669330446
686.25 -0.0911581756 -0.01098063084
686.875 -0.0943566937 -0.05336299886
687.5 -0.1025529879 -0.06597495063
688.125 -0.1137905088 -0.09084877108
688.75 -0.08876674036 -0.1036934141
689.375 -0.07327910404 -0.07814509532
690.0 -0.07574593406 -0.07343685804
690.625 -0.08575128826 -0.08418992178
691.25 -0.0712525511 -0.06871448747
691.875 -0.05928367799 -0.006562714609
692.5 -0.06281199699 0.01421005665
693.125 -0.06871483031 0.08593234316
693.75 -0.04625096301 0.1325268504
694.375 -0.005340873896 0.1173586503
695.0 -0.04061759521 0.1119191937
695.625 -0.1214942532 0.06043535701
696.25 -0.1057863969 -0.07977373058
696.875 -0.01050726367 -0.125571438
697.5 0.06063791844 -0.09460913176
698.125 0.07308643447 -0.05780853987
698.75 0.05843435967 -0.03561921011
699.375 0.07854634435 -0.01855923745
700.0 0.09675557618 0.01203937717
700.625 0.07057696244 0.04900600984
701.25 0.06590925819 0.04690782057
701.875 0.1058323757 0.04500687686
702.5 0.1593264464 -0.009120408609
703.125 0.1047907422 -0.06735646869
703.75 -0.005710089708 -0.09645592181
704.375 -0.03704567341 -0.07681991128
705.0 -0.01549117861 -0.1110469117
705.625 0.04522131649 -0.07966684044
706.25 0.06330377463 -0.03256449406
706.875 0.05818935044 0.03468097312
707.5 0.01790994029 0.09313072372
708.125 -0.04762729274 0.09749416921
708.75 -0.0833310935 0.07574750396
709.375 -0.1014497791 0.0228274929
710.0 -0.08895002592 -0.03367295473
710.625 -0.07525364226 -0.06075350941
711.25 -0.07001229259 -0.09273321332
711.875 -0.07523289315 -0.08005463497
712.5 -0.07268226912 -0.02275478042
713.125 -0.05121556825 0.03188206175
713.75 -0.04040943451 0.05019854742
714.375 -0.05024593408 0.06688955561
715.0 -0.03249024285 0.06234733478
715.625 -0.03445440967 0.06813087562
716.25 -0.07118471347 0.07666186707
716.875 -0.1226054148 0.03081590869
717.5 -0.09473049092 -0.02952646088
718.125 -0.07647991811 -0.03822696116
718.75 -0.06798490723 -0.05488505607
719.375 -0.04302930225 -0.08116440058
720.0 0.003271723676 -0.08212284225
720.625 0.04769625681 -0.04729614574
721.25 0.04604081178 0.01554531167
721.875 -0.001421029343 0.03213128023
722.5 -0.03603428831 0.02835019445
723.125 -0.04952201344 0.05754477345
723.75 0.006604720453 0.09057507605
724.375 0.06492078979 0.04145181185
725.0 0.06769156211 -0.01446511895
725.625 0.05767085727 -0.04263883193
726.25 0.0494456302 -0.04455720163
726.875 0.03799498517 -0.03342325562
727.5 0.03189890592 -0.01374775756
728.125 0.0246500687 0.01811526082
728.75 0.01808284326 0.03555015402
729.375 0.02912743187 0.02623899124
730.0 0.02622783093 0.01023129682
730.625 0.01215931545 0.0197832454
731.25 -0.003283025169 0.02770429738
731.875 -0.02408503826 0.02168639599
732.5 -0.03237586408 0.007647352377
733.125 -0.03238768127 0.003496118005
733.75 -0.01761938344 0.01275075926
734.375 -0.003287556621 0.007086985783
735.0 0.005869163166 -0.002020708163
735.625 0.004436470018 -0.009683846814
736.25 0.001640115954 -0.02338257
736.875 -0.01920524871 -0.03236486793
737.5 -0.02962809898 -0.02654726604
738.125 -0.03221388148 -0.01059771333
738.75 -0.0156152537 0.01074997424
739.375 0.01127216471 0.01657415014
740.0 0.03096209255 -0.002154880827
740.625 0.01821284232 -0.01744512308
741.25 0.01788974479 -0.009072730536
741.875 0.02176941186 0.01553616976
742.5 -0.004397654937 0.03041010688
743.125 -0.03608028637 0.01255080783
743.75 -0.04356370611 -0.01367427768
744.375 -0.04973165133 -0.0221372722
745.0 -0.06616800089 -0.01891803752
745.625 -0.07740407843 0.01970021685
746.25 -0.04217393853 0.0526832345
746.875 0.001644837523 0.04145032376
747.5 0.004466696377 0.01800587543
748.125 -0.01014270553 0.02170422647
748.75 0.0005720173137 0.03784174644
749.375 0.03448169257 0.0226935103
750.0 0.0420956973 -0.02245365917
