!Created with skrf (http://scikit-rf.org).
# GHz S RI R 50.0 
!freq ReS11 ImS11
500.0 -0.03289794195 0.02396082907
500.625 -0.004370961071 0.0385023587
501.25 0.0006077138706 0.0387035115
501.875 -0.006800564952 0.06209140906
502.5 -0.02691646144 0.06989334748
503.125 -0.002552005331 0.06093103137
503.75 0.03323202658 0.04560953872
504.375 0.03933419677 0.03137492167
505.0 0.05789757303 0.009929359581
505.625 0.05472278933 0.009040153523
506.25 0.03801832098 -0.003695393212
506.875 0.0407496122 0.0145474123
507.5 0.03574153529 0.01769367596
508.125 0.0414425724 0.03154345999
508.75 0.05605327669 0.0007623142184
509.375 0.04567643837 0.01296527953
510.0 0.04843975231 0.04260370266
510.625 0.02740687095 -0.04189564733
511.25 0.002764707376 -0.0461701678
511.875 -0.005120546429 -0.0159562055
512.5 -0.003405815342 -0.01059599654
513.125 -0.01384361956 -0.01990083006
513.75 -0.04273025896 -0.007838252303
514.375 -0.05025939607 0.005161970339
515.0 -0.06041302548 0.02260409583
515.625 -0.07358491374 0.003842882161
516.25 -0.0332149861 0.06911684168
516.875 -0.05163685154 0.03553863846
517.5 -0.003296638362 0.03085766691
518.125 -0.001110320664 -0.003744513061
518.75 -0.02304269646 -0.009726989976
519.375 -0.029601445 0.01143267147
520.0 -0.02045793133 0.02647643383
520.625 -0.01227169946 0.008761769648
521.25 -0.01178507329 0.01207338929
521.875 -0.003824321422 0.01248012749
522.5 0.001223571233 0.009434692131
523.125 -0.007904137801 -0.02968834973
523.75 -0.03162043991 -0.05488495473
524.375 -0.06856472696 -0.07682037536
525.0 -0.07347756423 -0.02236560764
525.625 -0.05667428035 0.00574225172
526.25 -0.05443755429 -0.0002478996868
526.875 -0.03735666181 0.01011620408
527.5 -0.04770733774 0.03283153862
528.125 -0.007829678904 0.04919614118
528.75 0.003696480952 0.04027576473
529.375 0.0122318105 0.04609531791
530.0 0.0507801425 0.04739352396
530.625 0.09055193557 -0.03677582081
531.25 0.1069763154 -0.06802382819
531.875 0.05487281196 -0.06768483263
532.5 0.03212126749 -0.04083675717
533.125 0.03055946196 -0.02968318867
533.75 0.02378470362 -0.04428108908
534.375 0.01958058132 -0.0287081935
535.0 0.04664119378 -0.02090368077
535.625 0.04257788591 0.002638893074
536.25 0.03599210424 -0.0371772951
536.875 0.05373960776 -0.05432013769
537.5 0.04265186344 -0.04144308803
538.125 0.006025676698 -0.02906027309
538.75 0.02254993109 -0.01561429922
539.375 0.06294804416 -0.01374250208
540.0 0.09557391402 -0.04352346323
540.625 0.04356342586 -0.05081873794
541.25 0.04204436701 -0.03477827769
541.875 0.05573220044 -0.04258401855
542.5 0.03301579314 -0.04958327998
543.125 -0.01480589571 -0.04176420074
543.75 -0.01279795697 -9.092057725e-05
544.375 0.01474662481 0.00456860996
545.0 -0.0008040586041 -0.034854359
545.625 -0.02928496499 -0.03688411539
546.25 -0.02585799989 -0.01635091473
546.875 -0.02390996915 -0.01797182681
547.5 -0.03548692972 -0.01588425355
548.125 -0.01943419733 -0.02244758083
548.75 -0.001204281817 -0.04486315843
549.375 0.01615111822 -0.04785196895
550.0 0.03651988836 -0.05713776021
550.625 0.0533922133 -0.06977781454
551.25 0.07809112782 -0.04699737338
551.875 0.04875971555 -0.06728734886
552.5 0.0194907419 -0.08051306596
553.125 -0.0008071456951 -0.07011307152
553.75 -0.0006224523866 -0.07027863447
554.375 -0.02383132612 -0.05157959745
555.0 -0.02561407632 -0.049437902
555.625 -0.01882857239 -0.04511919859
556.25 -0.01586847227 -0.03306402241
556.875 -0.0208406971 -0.03159828551
557.5 -0.008886071825 -0.02135592386
558.125 0.009339691742 -0.003236896053
558.75 0.01642204577 0.0100346646
559.375 0.03675650456 0.0006219340882
560.0 0.0667181051 -0.02195332515
560.625 0.06299100531 -0.0445933125
561.25 0.02444503729 -0.05822528958
561.875 -0.004574056944 -0.05773367302
562.5 -0.02621827148 -0.05805408455
563.125 -0.02891866287 -0.03327852296
563.75 -0.03290065938 -0.009196359478
564.375 -0.01528154079 -0.002249152508
565.0 -0.007059744409 -0.02011581071
565.625 -0.0009283808945 -0.03510537328
566.25 0.006649766488 -0.03961135238
566.875 0.01243485209 -0.04061436909
567.5 0.01644700933 -0.03203297245
568.125 0.02140446575 -0.01794197663
568.75 0.04278336128 -0.003861322898
569.375 0.06378543387 -0.006081273805
570.0 0.06437895423 -0.02050212775
570.625 0.04443108713 -0.04617248008
571.25 0.04094102807 -0.04675595451
571.875 0.03715064341 -0.0545931089
572.5 -0.007878070349 -0.06497416792
573.125 -0.03850431189 -0.03728143228
573.75 -0.02087942862 -0.01595589394
574.375 -0.003836583201 -0.03408332135
575.0 -0.02740598909 -0.03813707563
575.625 -0.03787635065 -0.01845923352
576.25 -0.02481541184 -0.008186138669
576.875 -0.006403736534 -0.01172918256
577.5 -0.006557093057 -0.01709368854
578.125 0.002521445779 -0.02786244749
578.75 0.01314180591 -0.0348101228
579.375 0.00983153604 -0.04321734261
580.0 0.004815816982 -0.05476650498
580.625 0.006159590737 -0.07144688012
581.25 -0.01802520459 -0.06974224765
581.875 -0.03948082775 -0.04910408075
582.5 -0.03543486123 -0.0375249235
583.125 -0.01843962155 -0.03833106098
583.75 0.00437339798 -0.03433161107
584.375 -0.005734390491 -0.03806889541
585.0 -0.003058860813 -0.03528678796
585.625 0.01232601781 -0.02559525725
586.25 0.02620052368 -0.01616100456
586.875 0.01323801453 -0.02867994044
587.5 0.00192596122 -0.02978448062
588.125 0.0007699469015 -0.02825406632
588.75 0.02455018355 -0.03497155239
589.375 -0.001063277834 -0.05571638964
590.0 -0.03519624434 -0.06031027906
590.625 -0.06930899859 -0.01959986384
591.25 -0.04832126214 -0.002393255241
591.875 -0.02012369301 0.001501847097
592.5 -0.004995823992 -0.009368109812
593.125 -0.01181133108 -0.008003399744
593.75 0.003224005163 -0.01864042817
594.375 0.01580701051 -0.02202842453
595.0 0.03870376513 -0.01832633432
595.625 0.02829296973 -0.02258216724
596.25 0.03312942969 -0.01967229104
596.875 0.04605001823 -0.002477719025
597.5 0.04361350015 0.009061261836
598.125 0.04258006075 -0.003402875837
598.75 0.06000568085 -0.01300927863
599.375 0.06137306687 -0.02806246268
600.0 0.0516232592 -0.03173015409
600.625 0.0344221426 -0.03435283958
601.25 0.01683362847 -0.03057894762
601.875 0.008738218965 -0.01673242724
602.5 0.007234494255 -0.0005578211556
603.125 -0.00797577991 -0.004243839963
603.75 0.008500741595 0.01566486165
604.375 0.02127850042 0.03343404102
605.0 0.02436978541 0.02240799542
605.625 0.01319517684 0.01454526947
606.25 -0.01018380876 0.02670500315
606.875 -0.02249379722 0.04732735757
607.5 0.002624798981 0.05100452743
608.125 0.02618622526 0.04090452975
608.75 0.0241796848 0.03163079472
609.375 0.01406876583 0.04557462454
610.0 0.01905552646 0.04212246793
610.625 0.02273982074 0.03113296182
611.25 0.006138226323 0.02404900721
611.875 -0.006360245045 0.007870469116
612.5 -0.01286745651 -0.00235770281
613.125 -0.03440454381 0.005010987756
613.75 -0.02282731727 -0.00286138795
614.375 -0.02214124279 0.009729599401
615.0 -0.02724447237 0.012403816
615.625 -0.03286797575 0.004521690236
616.25 -0.02813482638 0.0008518896865
616.875 -0.02687144032 0.01614027133
617.5 -0.02138172827 0.01619955053
618.125 -0.02157415152 0.004413748172
618.75 -0.007397935812 -0.005295029483
619.375 -0.004975798283 0.0008736204785
620.0 -0.0003247498402 -0.007102267005
620.625 -0.0007263410435 -0.02794570177
621.25 0.003569955592 -0.05099017464
621.875 -0.01442368281 -0.06342272817
622.5 -0.074707755 -0.02254373976
623.125 -0.07099099576 0.01011551059
623.75 -0.04538491689 0.00638236609
624.375 -0.03817631434 -0.002630888335
625.0 -0.04548714312 -0.02518742303
625.625 -0.03807408489 -0.008987770045
626.25 -0.02307280963 0.01200092627
626.875 -0.009032642347 0.007692035862
627.5 0.007979056374 -0.0122117273
628.125 0.0202487631 -0.01042004918
628.75 0.01872662523 -0.01199477824
629.375 0.0354978903 -0.005954374722
630.0 0.04988926852 -0.005679926086
630.625 0.05393511744 -0.008555541261
631.25 0.06231395836 -0.001738647426
631.875 0.05463612804 -0.02362318017
632.5 0.04290319905 -0.03354912497
633.125 0.03652675587 -0.02374127977
633.75 0.03239461637 -0.02399953283
634.375 0.03101812544 0.005505592231
635.0 0.01762271732 -0.01009340673
635.625 0.01021973467 -0.01729964435
636.25 0.02696711826 0.002395485876
636.875 0.03647936213 0.009072308777
637.5 0.02941278024 -0.005394595444
638.125 0.01149022997 -0.004369159099
638.75 0.0149939715 0.0344588325
639.375 0.02014654047 0.04913490723
640.0 0.01492750778 0.05993688929
640.625 0.02176742726 0.04128262208
641.25 0.01044013301 0.0323811103
641.875 -7.930261611e-05 0.02811584918
642.5 -0.006945217598 0.03347749385
643.125 -0.007752491434 0.03609631688
643.75 -0.01931777909 0.01977140176
644.375 -0.01813561082 0.0147164736
645.0 -0.0342743056 0.02964147194
645.625 -0.04499766947 0.04135017972
646.25 -0.0314732501 0.04317619771
646.875 -0.01372853362 0.03794392712
647.5 -0.03757155524 0.04029088595
648.125 -0.04852159489 0.03117076914
648.75 -0.03525852863 0.03643400219
649.375 -0.02418775726 0.0333549673
650.0 -0.02818702055 0.01025521439
650.625 -0.01493587455 -0.005411575932
651.25 -0.01137762304 -0.008125497601
651.875 -0.001596391758 -0.01503202517
652.5 0.0241317846 -0.0216260281
653.125 0.03975107151 -0.02018274307
653.75 0.04853954807 -0.02874681789
654.375 0.06453008152 -0.03341448284
655.0 0.0834081553 -0.03161912528
655.625 0.05165818786 -0.04037123106
656.25 0.02321391827 -0.05092062467
656.875 0.02303565632 -0.0463343671
657.5 0.03526076675 -0.033077549
658.125 0.01333733675 -0.03506979003
658.75 -0.009124909671 -0.02434534563
659.375 0.01552449509 -0.002872196279
660.0 0.03482881258 0.0003133656216
660.625 0.04130861021 -0.02258074205
661.25 0.03324181721 -0.0346166512
661.875 0.02895271398 -0.05008262612
662.5 0.02168658219 -0.0614524578
663.125 0.01403236659 -0.06433287792
663.75 0.02663566028 -0.05772812486
664.375 0.05767758426 -0.02576753092
665.0 0.05436631333 -0.0006598277969
665.625 0.05143157066 0.007567486447
666.25 0.03143588291 0.01791916908
666.875 0.004404349034 0.02242704322
667.5 -0.007509343787 0.02765204037
668.125 -0.01889295108 0.03917587695
668.75 -0.02427666585 0.04475288013
669.375 -0.02299615476 0.05241143776
670.0 -0.01035191762 0.05608461523
670.625 -0.01829415928 0.04622513939
671.25 -0.01164301099 0.05054993526
671.875 0.006825832673 0.053750547
672.5 0.03999658827 0.03484314993
673.125 0.03090015143 0.01977110736
673.75 0.007364751219 0.02036757474
674.375 -0.004594531599 0.03161756882
675.0 -0.007995164823 0.05403970975
675.625 -0.04039053564 0.03808528541
676.25 -0.04784152756 0.008829499023
676.875 -0.05760387043 0.00893533158
677.5 -0.08520183344 0.02928114198
678.125 -0.08682230685 0.02465830386
678.75 -0.05448552565 0.03156931595
679.375 -0.0434677906 0.03449127104
680.0 -0.04047914128 0.0238136422
680.625 -0.04065822434 0.01058209138
681.25 -0.01806690664 0.01033214182
681.875 -0.009442406194 0.01048684932
682.5 -0.03386542878 0.001201672518
683.125 -0.0652591417 0.01009869249
683.75 -0.06057279309 0.003906506969
684.375 -0.05058952851 -0.01643268463
685.0 -0.03477992962 -0.06080611674
685.625 0.01210325843 -0.08039788035
686.25 0.02540737233 -0.08068296538
686.875 0.03156660616 -0.0710915357
687.5 0.03484435828 -0.05501817956
688.125 0.0226761655 -0.04079150934
688.75 0.02072886365 -0.02943763164
689.375 0.02191670565 0.002293905913
690.0 0.02571883298 0.02039649218
690.625 0.02212651336 0.01878049004
691.25 0.04676673637 0.006699227252
691.875 0.08022005389 -0.01549936135
692.5 0.06080456269 -0.06519068777
693.125 -0.04244887654 -0.07630188632
693.75 -0.08005126254 -0.02728092694
694.375 -0.05716308271 -0.02465635131
695.0 -0.03041716654 -0.03683086305
695.625 -0.009828741705 -0.0526724134
696.25 0.03810896368 -0.01920952012
696.875 0.03438373449 0.02688936692
697.5 -0.01025019173 0.02616731741
698.125 -0.03141681807 0.02954026328
698.75 -0.04910180172 0.05006750382
699.375 -0.04364324384 0.04987448955
700.0 -0.03444878943 0.03658702086
700.625 -0.05085199011 0.037658446
701.25 -0.06374209352 0.02798102728
701.875 -0.04102576441 0.0487227129
702.5 0.007001701749 0.03151900647
703.125 -0.006010806138 0.01302446557
703.75 -0.02358987133 0.05115711682
704.375 0.02763470616 0.06383679102
705.0 0.03630638569 0.05344274353
705.625 0.005238230399 0.05790255083
706.25 -0.04433950079 0.05307417387
706.875 -0.07533698799 0.01049959647
707.5 -0.08577597807 -0.004758861463
708.125 -0.0527080153 -0.039973521
708.75 -0.02031271838 -0.0367231813
709.375 0.00852753005 -0.03170887466
710.0 0.02705664815 -0.03876031282
710.625 0.03678096349 -0.002020271592
711.25 0.01197981361 0.005721191196
711.875 0.00792841899 0.01211198454
712.5 0.02689562525 0.03248539669
713.125 0.0825103865 0.02373784199
713.75 0.04574241839 -0.06377212035
714.375 -0.02019451175 -0.07989391156
715.0 -0.0670138258 -0.04711204708
715.625 -0.03917593351 -0.06833175892
716.25 -0.01429421971 -0.05355978856
716.875 0.009536295637 -0.0414777692
717.5 0.03335249678 -0.008747237832
718.125 0.027525328 -0.01249266898
718.75 0.03103366529 0.01195177287
719.375 0.01723165262 0.03281281353
720.0 -0.01696185561 0.03216077579
720.625 -0.03164524893 0.005844391462
721.25 -0.03949085343 -0.0371039136
721.875 -0.002425388517 -0.08137582195
722.5 0.01211938225 -0.07821662957
723.125 -0.03663150048 -0.05441589153
723.75 -0.05123068239 -0.01388550067
724.375 -0.04070769993 -0.009728024719
725.0 -0.02677723894 0.009272081259
725.625 0.002214899699 0.0105456427
726.25 -0.02815584232 0.007097573036
726.875 -0.05765305156 -0.02236032322
727.5 -0.05818714156 -0.0348634407
728.125 -0.05444655063 -0.03680719717
728.75 -0.03529878923 -0.00722431007
729.375 -0.03477894687 -0.0221182295
730.0 -0.04060906332 -0.02688091933
730.625 -0.0392518421 -0.03208260208
731.25 -0.01525010265 -0.0169876744
731.875 0.004863817647 -0.02143215508
732.5 0.02804325784 -0.008405990761
733.125 0.02530522342 0.02135430666
733.75 0.01992943283 0.02979597137
734.375 0.03534864931 0.02889251954
735.0 0.05584584727 -0.009001858119
735.625 0.06201322659 -0.02986744921
736.25 0.02340428333 -0.02144055183
736.875 0.008037434388 -0.03273467799
737.5 0.008713799087 -0.03073296788
738.125 0.008853951082 0.006671157691
738.75 -0.01376094349 0.03894911871
739.375 0.01805921914 0.04963649401
740.0 0.05081890924 0.03742499935
740.625 0.034546695 0.01861473364
741.25 0.02824508425 0.02869768309
741.875 -0.02150913641 0.03067034108
742.5 -0.03496871119 0.004968042415
743.125 -0.03228024934 -0.03015726033
743.75 -0.01583267607 -0.04428082601
744.375 -0.004147286572 -0.04931540309
745.0 -0.02599818616 -0.06549111522
745.625 -0.03762452711 -0.02434855642
746.25 -0.02411977775 0.01035165202
746.875 0.01744844105 -0.02283993828
747.5 -0.00215013273 -0.03369637149
748.125 -0.03371002489 -0.0182156012
748.75 -0.03440740387 0.01375006746
749.375 -0.01543998056 0.03836968322
750.0 0.01381527779 0.04778331248
