!Created with skrf (http://scikit-rf.org).
# GHz S RI R 50.0 
!freq ReS11 ImS11
500.0 -0.02887390812 0.00726305338
500.625 -0.01131486608 0.02456160096
501.25 -0.01505462419 0.02170562464
501.875 -0.04100244192 0.03522403229
502.5 -0.04866381842 0.03917802757
503.125 -0.01585951959 0.04448364855
503.75 0.005873290416 0.03776598222
504.375 0.01466490262 0.03435650049
505.0 0.03449934911 0.02204902274
505.625 0.03854024961 0.01414543901
506.25 0.02124826265 0.003572889909
506.875 0.003382738425 0.01775630971
507.5 0.008687027035 0.02752061077
508.125 0.001232908575 0.03613209766
508.75 0.006627786001 0.03337727272
509.375 0.0119378026 0.03948642774
510.0 0.02604996419 0.05342832331
510.625 0.03349633097 -0.01532528361
511.25 0.01208527798 -0.01056884374
511.875 0.00563944255 0.0008858932141
512.5 0.01303386947 -0.006732322806
513.125 0.004277627237 -0.03045417823
513.75 -0.01541654882 -0.04507206351
514.375 -0.04336670602 -0.02390101282
515.0 -0.05649378051 0.005528591847
515.625 -0.05385432019 -0.02508617837
516.25 -0.03513699817 0.01888589472
516.875 -0.03480895693 0.009955661721
517.5 -0.002790129645 0.005685966346
518.125 0.04457431657 -0.02330451646
518.75 -0.0117868157 -0.03913497531
519.375 -0.02989823104 -0.01049913014
520.0 -0.02515984263 0.002728581923
520.625 -0.01844061748 -0.01822746608
521.25 -0.0223271204 -0.01532939467
521.875 -0.008945499913 -0.0004734142644
522.5 -0.009084353272 -0.003239787924
523.125 -0.0276141621 -0.05989740021
523.75 -0.08136446671 -0.09958719343
524.375 -0.09749411558 -0.1126340719
525.0 -0.07348129575 -0.04105955416
525.625 -0.07543213883 -0.02107497207
526.25 -0.0613846581 -0.01996466156
526.875 -0.04954050414 -0.005214601362
527.5 -0.05337002231 0.01720422617
528.125 -0.0278647215 0.04770085622
528.75 -0.02255461138 0.04956871971
529.375 -0.009105030549 0.06870595757
530.0 0.038666039 0.07269851195
530.625 0.1065676486 -0.01404961898
531.25 0.1328300226 -0.0326423115
531.875 0.0736285748 -0.02806966114
532.5 0.04200801017 -0.002983908448
533.125 0.04117896914 -0.01767825235
533.75 0.0492727833 -0.03477580146
534.375 0.04653599889 -0.008745471799
535.0 0.04495585128 0.006893481382
535.625 0.04266523145 0.01150742972
536.25 0.05512994139 -0.03495935948
536.875 0.07183960484 -0.03690679193
537.5 0.05044068223 -0.01694027388
538.125 0.01993881602 -0.01615005338
538.75 0.04150220712 -0.008338378257
539.375 0.0793113133 0.01134405291
540.0 0.09198393247 -0.01463869464
540.625 0.06558265629 -0.02764703488
541.25 0.05817060938 -0.0179413624
541.875 0.0598717134 -0.02010309304
542.5 0.04391134969 -0.03431369003
543.125 0.007995668245 -0.0273043771
543.75 0.003838492015 0.006220451904
544.375 0.02972926159 0.006146598492
545.0 0.01509632054 -0.03741986372
545.625 -0.01428774803 -0.05402183648
546.25 -0.02101340197 -0.04400751682
546.875 -0.02295937422 -0.02915618338
547.5 -0.02749007865 -0.03373920461
548.125 -0.02349338986 -0.0580028127
548.75 0.01780264399 -0.06246719685
549.375 0.02561228142 -0.05472410187
550.0 0.05891205694 -0.0545891922
550.625 0.08009218646 -0.06942711784
551.25 0.09992615844 -0.03788757135
551.875 0.05904715075 -0.06512011355
552.5 0.03675609712 -0.07616264157
553.125 0.02210499436 -0.07415615844
553.75 0.01029397191 -0.06541374061
554.375 -0.01302154713 -0.05577050289
555.0 -0.008321746533 -0.04344986593
555.625 0.002265616676 -0.03992079205
556.25 -0.004600613492 -0.03615226311
556.875 -0.009788581119 -0.03825447942
557.5 0.006355825483 -0.01857686347
558.125 0.02375320181 0.0002867065024
558.75 0.02592913241 0.01378492249
559.375 0.04687855359 -0.0001073714048
560.0 0.075331072 -0.002623399229
560.625 0.06842841273 -0.03158732516
561.25 0.03485709601 -0.05673488914
561.875 0.003741947508 -0.05900634118
562.5 -0.006315624858 -0.05344914156
563.125 -0.01992089034 -0.03537569847
563.75 -0.02473964427 -0.01731417606
564.375 -0.008597024989 -0.01027765612
565.0 0.008212300391 -0.02390776691
565.625 0.00897417531 -0.03933396311
566.25 0.01767772808 -0.04799255354
566.875 0.02577902846 -0.04146862256
567.5 0.02191235175 -0.02481143452
568.125 0.02831135038 -0.02083882585
568.75 0.0587752781 -0.006026621488
569.375 0.0729854 0.003836496169
570.0 0.06237724685 -0.01417743533
570.625 0.05039209267 -0.0446229323
571.25 0.05536474949 -0.05223779456
571.875 0.0467933305 -0.04948039796
572.5 -0.003137296493 -0.05673259043
573.125 -0.03670902621 -0.04148424453
573.75 -0.01927359678 -0.02956919189
574.375 0.004883142011 -0.03781719838
575.0 -0.01427168885 -0.03707715551
575.625 -0.03158679057 -0.0217828801
576.25 -0.02341753417 -0.01755197681
576.875 -0.003020973603 -0.01564978201
577.5 0.006555675202 -0.02019425631
578.125 0.01034140207 -0.03000038814
578.75 0.01223826494 -0.03983829059
579.375 0.01075002004 -0.04384985698
580.0 0.01358269836 -0.05777971634
580.625 0.009885775261 -0.07347020364
581.25 -0.01890681258 -0.07208187757
581.875 -0.03962575483 -0.04948239301
582.5 -0.03263890664 -0.04011600696
583.125 -0.002522168437 -0.03665336886
583.75 0.005578793441 -0.0330332642
584.375 -0.00582857321 -0.03833792212
585.0 -0.002533524268 -0.03610719022
585.625 0.01798119633 -0.02241149535
586.25 0.02367961537 -0.01790769853
586.875 0.009863724549 -0.02962221463
587.5 0.003575779266 -0.02912286714
588.125 0.01016366789 -0.02816418031
588.75 0.02012360325 -0.03448647416
589.375 -0.002843430201 -0.05400830933
590.0 -0.03650193653 -0.05676786682
590.625 -0.05641570469 -0.02729481801
591.25 -0.04797266481 0.0005205217033
591.875 -0.02599981973 0.007982813057
592.5 -0.005654504243 -0.004099059147
593.125 -0.0001847795797 -0.01370675079
593.75 -0.003133251205 -0.01402203181
594.375 0.01056357893 -0.01796049368
595.0 0.03045349039 -0.01573835741
595.625 0.03526465194 -0.01576346547
596.25 0.03049107161 -0.01882011572
596.875 0.03148286451 -0.01295742972
597.5 0.03448988211 0.002841310434
598.125 0.03922817824 6.772739035e-05
598.75 0.04481644579 -0.0176764433
599.375 0.04650637305 -0.03235006684
600.0 0.04059281186 -0.0383898475
600.625 0.02495271191 -0.04231208276
601.25 0.0056240196 -0.03813131083
601.875 -0.005148970327 -0.02329355818
602.5 -0.006596095519 -0.00998596132
603.125 -0.007098342025 -0.001615721586
603.75 -0.0008627176012 0.0100890916
604.375 0.009831186367 0.01375118892
605.0 0.01384966898 0.006000147707
605.625 0.004514123756 -0.001912920076
606.25 -0.01217569625 0.004355121678
606.875 -0.01770008289 0.02247462935
607.5 -0.0007494287096 0.03369668671
608.125 0.01845474719 0.02510258256
608.75 0.01906244874 0.01739794437
609.375 0.01729183257 0.01867167508
610.0 0.02016217458 0.01943684692
610.625 0.02396653191 0.007438731847
611.25 0.0203614201 -0.004623167379
611.875 0.01378280887 -0.01255642015
612.5 0.003310007005 -0.01857569556
613.125 -0.01197491713 -0.01507379996
613.75 -0.014653568 -0.004651174742
614.375 -0.006470187482 0.00170979191
615.0 0.0007886233569 -0.005201120542
615.625 -0.00672060183 -0.01180361615
616.25 -0.01359661029 -0.005611870768
616.875 -0.006484094123 0.005014335761
617.5 0.006448326388 0.002066536432
618.125 0.00790116286 -0.005224996125
618.75 0.007981115344 -0.007905491488
619.375 0.01729990152 -0.004276641724
620.0 0.03253796682 -0.01017836617
620.625 0.02897101364 -0.03419713241
621.25 0.02414120965 -0.05165821502
621.875 0.0122881087 -0.0623350841
622.5 -0.04250659716 -0.03764273839
623.125 -0.04603693353 -0.006153477645
623.75 -0.03042386154 -0.0009116452964
624.375 -0.01124773323 -0.005854388836
625.0 -0.004482164223 -0.00548364129
625.625 -0.008805260287 0.00146848752
626.25 0.004974915307 0.01446974671
626.875 0.03003614229 0.01800333731
627.5 0.03942791768 0.01499915212
628.125 0.04085288161 0.009736475795
628.75 0.04137097457 0.0136745808
629.375 0.0469078982 0.02211034097
630.0 0.05457185182 0.02042822257
630.625 0.05870839386 0.02346209467
631.25 0.05315332993 0.01981658336
631.875 0.0425938901 0.01016014263
632.5 0.03671121457 -0.0008759907395
633.125 0.0315476225 0.008522226261
633.75 0.02006228267 0.01430057568
634.375 0.01495458424 0.01243830719
635.0 0.01263494088 0.00934585705
635.625 0.01370146916 0.02428901428
636.25 0.01967388687 0.040691339
636.875 0.02556784435 0.0294381414
637.5 0.01926811637 0.0171485324
638.125 -0.0003973262987 0.03430090034
638.75 -0.004236635379 0.05771267164
639.375 -0.001297200611 0.06421295885
640.0 -0.005947723205 0.05743257084
640.625 -0.01375704494 0.03658201158
641.25 -0.01581485299 0.02165481251
641.875 -0.02458296264 0.0272662438
642.5 -0.03870821146 0.0220376584
643.125 -0.03932087286 0.006223523858
643.75 -0.02581668646 -0.001316390389
644.375 -0.03886049339 0.007815234986
645.0 -0.06397341542 0.01018798847
645.625 -0.06553035822 0.008430005786
646.25 -0.04067396531 0.02445299892
646.875 -0.03213673715 0.02705066765
647.5 -0.04896592165 0.01296168596
648.125 -0.05272405216 0.0007735994968
648.75 -0.04347897812 0.01137010154
649.375 -0.03008119102 0.01070075106
650.0 -0.01761739743 -0.01106467758
650.625 -0.0008536452505 -0.02619612583
651.25 0.00384151201 -0.02915581592
651.875 0.02278293121 -0.02895282366
652.5 0.04649831632 -0.01660536324
653.125 0.06043137235 -0.01572356832
653.75 0.07673052923 -0.01900878759
654.375 0.08715341876 -0.01139216785
655.0 0.06996980615 -0.008302365081
655.625 0.0550452712 -0.02851732254
656.25 0.04951757107 -0.02772436316
656.875 0.04604969635 -0.0202183833
657.5 0.02914553942 -0.009075817051
658.125 0.02017583005 -0.02245013366
658.75 0.01901209604 -0.003131439312
659.375 0.03513628917 0.0228696835
660.0 0.04682726678 0.01834305556
660.625 0.05128820191 -0.01156704608
661.25 0.0615174285 -0.03017083738
661.875 0.0620250326 -0.04177180949
662.5 0.03926696927 -0.05881582499
663.125 0.0362106564 -0.06643613808
663.75 0.06049192228 -0.04482464916
664.375 0.05350561412 0.001766747754
665.0 0.0470969661 0.008758755641
665.625 0.03696437009 0.02708164151
666.25 0.007331314428 0.03471889778
666.875 -0.01799892109 0.01792018149
667.5 -0.02108884349 0.02056712928
668.125 -0.0433111031 0.03477835026
668.75 -0.05635362794 0.04424303059
669.375 -0.03881724629 0.04631169036
670.0 -0.02586012906 0.04692830418
670.625 -0.03840097107 0.04095548432
671.25 -0.0427096868 0.04619375502
671.875 -0.008000180828 0.05615481073
672.5 0.02154597106 0.04787592121
673.125 0.009100026218 0.03052557491
673.75 -0.01196894451 0.03096118683
674.375 -0.01711024939 0.03919114878
675.0 -0.03773148289 0.04513810502
675.625 -0.057681157 0.01347648659
676.25 -0.05273565455 8.720725248e-05
676.875 -0.07150564957 -0.002522905622
677.5 -0.09143889941 -0.00255198481
678.125 -0.08108456713 -0.006725502789
678.75 -0.05657102043 0.02440632085
679.375 -0.0538704952 0.01818494476
680.0 -0.03917043682 -0.003101451059
680.625 -0.02333949459 -0.01813602994
681.25 -0.01446808766 0.002368919006
681.875 -0.02498121936 0.0007591746875
682.5 -0.05440202433 -0.01654159078
683.125 -0.06682041976 -0.01964825064
683.75 -0.06561878443 -0.007211707431
684.375 -0.06228289232 -0.03265710389
685.0 -0.01676945815 -0.07858889725
685.625 0.02909878503 -0.07203701578
686.25 0.04305983011 -0.07701059138
686.875 0.05208901487 -0.0648213738
687.5 0.04211553062 -0.03847235859
688.125 0.02437988392 -0.02614525266
688.75 0.02617149241 -0.009143409785
689.375 0.02671488494 0.02613567428
690.0 0.01575802516 0.03213201192
690.625 0.02542430987 0.03007772814
691.25 0.04684551265 0.03510917375
691.875 0.0919591141 0.01708902982
692.5 0.06784166479 -0.05914013054
693.125 -0.03547629869 -0.08710213751
693.75 -0.06416795577 -0.04492677045
694.375 -0.04453273015 -0.03910686381
695.0 -0.02566148543 -0.04053488927
695.625 0.006370132027 -0.05681081998
696.25 0.04506145428 -0.0004984590446
696.875 0.001729461735 0.02946928995
697.5 -0.01599474664 0.02590191916
698.125 -0.04121750607 0.03945980507
698.75 -0.06576981036 0.04208435683
699.375 -0.05085210502 0.0334636552
700.0 -0.03817273566 0.04042478506
700.625 -0.05924503022 0.03079956893
701.25 -0.06663503459 0.01306217548
701.875 -0.03377971385 0.02824202751
702.5 0.001717854093 0.0304414119
703.125 -0.01653619728 0.01656883485
703.75 -0.0372809051 0.05011797939
704.375 0.008949657048 0.0687298054
705.0 0.03331819887 0.05657294821
705.625 0.004548628405 0.0637261674
706.25 -0.04974154178 0.04499122257
706.875 -0.07514248363 0.006712616078
707.5 -0.07675852472 -0.02561343584
708.125 -0.04516819083 -0.04074998644
708.75 -0.0170546427 -0.03143868581
709.375 0.008461122959 -0.0300993492
710.0 0.03688039343 -0.01083745148
710.625 0.02530801558 0.008581758806
711.25 0.008684143405 0.003303008798
711.875 0.004418477543 0.01628020121
712.5 0.02923414373 0.04520831904
713.125 0.07612121028 0.01998050042
713.75 0.04147657019 -0.06076293831
714.375 -0.01933053667 -0.075339106
715.0 -0.0464199865 -0.06354038016
715.625 -0.03588765713 -0.05699400224
716.25 -0.02634067415 -0.04959806937
716.875 -0.0007250184869 -0.03927339277
717.5 0.02202305284 -0.008673387954
718.125 0.02177937132 0.004478596293
718.75 0.02705154192 0.006848085647
719.375 0.01915042867 0.01608058431
720.0 -0.01110721386 0.01949902693
720.625 -0.03087598062 -0.001970825503
721.25 -0.03418764068 -0.03473401936
721.875 -0.006375911797 -0.06604052034
722.5 2.322833025e-05 -0.0656774274
723.125 -0.03957320571 -0.04177847338
723.75 -0.04444340876 0.005446753812
724.375 -0.02110289483 0.01605403076
725.0 -0.006330742655 0.01316117723
725.625 0.003993833123 0.005789561318
726.25 -0.005193273761 -0.004601857523
726.875 -0.02267233891 -0.01417777924
727.5 -0.03462428303 -0.01831570803
728.125 -0.0361689416 -0.01693136601
728.75 -0.02986589382 -0.005113825241
729.375 -0.01740107713 6.63848567e-05
730.0 -0.0159102129 -0.004366536722
730.625 -0.02053838753 -0.006255969255
731.25 -0.01418793156 -0.00499241524
731.875 -0.008625045248 -0.005618324974
732.5 -0.008318427759 -0.001122348524
733.125 -0.009896982601 0.01029979515
733.75 0.0003934348038 0.02106547045
734.375 0.01432386302 0.01728588026
735.0 0.01839317568 0.002061034129
735.625 0.01800370699 -0.005828009676
736.25 0.01038529089 -0.01637881707
736.875 -0.008627822274 -0.02217490539
737.5 -0.02918814275 -0.009882458345
738.125 -0.03996945778 0.008507780837
738.75 -0.03661061746 0.0272495537
739.375 -0.01556609573 0.03320336876
740.0 -0.0015758251 0.01748613007
740.625 -0.01029711079 0.01255023282
741.25 -0.01444795702 0.02054282846
741.875 -0.02533531725 0.01016619055
742.5 -0.01675462323 -0.0144450486
743.125 0.005857908775 -0.02101176398
743.75 0.0177514348 -0.01597758385
744.375 0.01848369912 -0.01271184945
745.0 0.005922878199 -0.01109654451
745.625 -0.004442062004 0.0001771312271
746.25 0.01881361985 0.01247533861
746.875 0.04241533622 -0.01515208583
747.5 0.02097557238 -0.03828594431
748.125 -0.01045658808 -0.03851066725
748.75 -0.03035058899 -0.02195390479
749.375 -0.03716630204 -0.0001841412811
750.0 -0.02004911397 0.03918891686
