!Created with skrf (http://scikit-rf.org).
# GHz S RI R 50.0 
!freq ReS11 ImS11
500.0 -0.03393882964 0.02073092406
500.625 0.001176461891 0.04989269641
501.25 0.005099741518 0.04572314013
501.875 -0.01733564302 0.05298341988
502.5 -0.0356819716 0.06173387254
503.125 0.004514771387 0.0601217758
503.75 0.03108155974 0.04245527516
504.375 0.03346237165 0.03556948811
505.0 0.05430479438 0.01603441745
505.625 0.06617379313 -0.001696725185
506.25 0.04851820548 -0.01391823099
506.875 0.02529040363 0.02568950762
507.5 0.05352027509 0.01126117283
508.125 0.04633121342 0.02933478969
508.75 0.0416306594 0.01131797999
509.375 0.04745472541 0.0109631868
510.0 0.06882825693 0.02654700608
510.625 0.02858725573 -0.04222970732
511.25 0.004410528091 -0.03973728656
511.875 0.006491782992 -0.0153863685
512.5 -0.003360901065 -0.01158761559
513.125 -0.01701273268 -0.0120671626
513.75 -0.03695792578 -0.02143401606
514.375 -0.05414645697 -0.005601739912
515.0 -0.0421707146 0.04773343943
515.625 -0.06964393409 0.02419720012
516.25 -0.04338771667 0.04922332357
516.875 -0.05325587866 0.03368288202
517.5 0.0001276751326 0.05365959972
518.125 -0.01740486808 0.01588108689
518.75 -0.03568773144 -0.02595585556
519.375 -0.03619168 0.008531731455
520.0 -0.008575105628 0.03258102012
520.625 -0.001747510453 0.01672285139
521.25 -0.02798296249 0.008865937468
521.875 -0.005993804811 0.01256960962
522.5 0.02210021018 0.009158694959
523.125 0.01304700762 -0.0216908846
523.75 -0.05411928084 -0.05896679089
524.375 -0.06798485496 -0.07104091294
525.0 -0.04880878954 -0.01814854226
525.625 -0.05837850781 0.003779636109
526.25 -0.06208698698 0.001221887697
526.875 -0.03422243406 0.01465062457
527.5 -0.03377003725 0.030174018
528.125 -0.006569509099 0.04661852681
528.75 -0.002887826587 0.05550961501
529.375 0.01804349588 0.05151297818
530.0 0.05284650356 0.04444165603
530.625 0.09916250439 -0.03244798887
531.25 0.1083435715 -0.07266807047
531.875 0.04811532408 -0.08025639764
532.5 0.03057233772 -0.04514328919
533.125 0.02964957423 -0.0308569705
533.75 0.03268548739 -0.05816891422
534.375 0.02294499169 -0.03582865342
535.0 0.01979928477 -0.02009248389
535.625 0.03831454495 0.0005386920838
536.25 0.03717411638 -0.04346934441
536.875 0.03563377929 -0.05725492151
537.5 0.04227126645 -0.04594790016
538.125 0.01434997398 -0.03019190187
538.75 0.02486771993 -0.02357522327
539.375 0.053523388 -0.02086436448
540.0 0.07790104435 -0.04694363684
540.625 0.05314521707 -0.05275309453
541.25 0.04304024373 -0.03909880305
541.875 0.03826954026 -0.04871105585
542.5 0.03040049129 -0.05298502945
543.125 -0.008600118291 -0.04457030708
543.75 -0.01293267208 -0.00787432503
544.375 0.01179719289 -0.002940431735
545.0 0.003409945094 -0.02032217749
545.625 -0.02481886934 -0.02917452406
546.25 -0.04198882981 -0.02440367178
546.875 -0.02983154101 -0.01632170378
547.5 -0.02600388082 -0.01105712648
548.125 -0.02926170898 -0.02673454286
548.75 -0.01089532269 -0.04704742482
549.375 0.008575991465 -0.04819160484
550.0 0.03845067566 -0.04075696379
550.625 0.05373861835 -0.0656242583
551.25 0.0894750394 -0.06502338184
551.875 0.04895911483 -0.07345127348
552.5 0.01796169939 -0.07640124683
553.125 -0.001147122139 -0.07457374382
553.75 -0.003253701854 -0.07969246485
554.375 -0.02896365614 -0.0597622106
555.0 -0.02700247606 -0.037348675
555.625 -0.01911789835 -0.03655942105
556.25 -0.01644328294 -0.04380756673
556.875 -0.02354126942 -0.03371241238
557.5 -0.01479797677 -0.01419699128
558.125 0.006860744481 -0.007319719125
558.75 0.02185742016 -0.0004676638473
559.375 0.03277838996 -0.007867819537
560.0 0.05914866302 -0.01584504266
560.625 0.05865526045 -0.040651403
561.25 0.02395356411 -0.06942502574
561.875 -0.01006648138 -0.06507021371
562.5 -0.02344106265 -0.04317142528
563.125 -0.03088593055 -0.03247664111
563.75 -0.04564457127 -0.01143878842
564.375 -0.02340327639 -0.0005192644135
565.0 -0.004465905161 -0.01599776534
565.625 0.001546148984 -0.03217736019
566.25 -0.005804025209 -0.04689495575
566.875 0.006551477745 -0.04437312961
567.5 0.01385956324 -0.02542128223
568.125 0.02041423826 -0.01802404215
568.75 0.04368691959 -0.01212843614
569.375 0.06306505726 -0.01588224125
570.0 0.06021329005 -0.01988407105
570.625 0.04400939171 -0.04350664038
571.25 0.03721766804 -0.06515676373
571.875 0.03473345702 -0.05929403497
572.5 -0.009347942989 -0.05912912707
573.125 -0.03951876371 -0.03729211204
573.75 -0.02949503913 -0.01967199376
574.375 -0.01030312098 -0.03501940456
575.0 -0.01872910639 -0.03228700704
575.625 -0.0341723679 -0.01832307165
576.25 -0.04107676399 -0.005170349911
576.875 -0.01696966199 -0.007643975431
577.5 0.004786078242 -0.01497857375
578.125 0.004690956233 -0.02729461802
578.75 -0.002211938012 -0.03682127422
579.375 0.004194772496 -0.04272351706
580.0 0.01257682219 -0.05180379495
580.625 0.004444541202 -0.07118748254
581.25 -0.02864224976 -0.07417475869
581.875 -0.04655316469 -0.04824675538
582.5 -0.03207724683 -0.03544609637
583.125 -0.01264720127 -0.03512115491
583.75 0.003347564052 -0.03806177202
584.375 -0.01575126741 -0.04081546543
585.0 -0.01571806545 -0.03853901194
585.625 0.0119779398 -0.02843888252
586.25 0.02421675275 -0.02284320738
586.875 0.007659549338 -0.03157616436
587.5 0.005642226095 -0.02839400277
588.125 0.005528294953 -0.0318279091
588.75 0.02142995242 -0.03864241523
589.375 -0.01061095202 -0.05134547128
590.0 -0.04490214352 -0.05081693598
590.625 -0.06006218417 -0.030773307
591.25 -0.04909089698 -0.005838371369
591.875 -0.0340535846 0.01316626627
592.5 -0.01349223243 -0.00194565546
593.125 -0.0005063949202 -0.0196161586
593.75 -0.002639339103 -0.02281310256
594.375 -0.002138543723 -0.01566613254
595.0 0.03060742868 -0.01950508172
595.625 0.04413633216 -0.01707680042
596.25 0.03986816796 -0.02233076924
596.875 0.032344019 -0.02013785469
597.5 0.04045663514 -0.0003354428731
598.125 0.04726409823 0.001894420663
598.75 0.05180352658 -0.02147033569
599.375 0.05130062338 -0.03477217439
600.0 0.05551226679 -0.02895520426
600.625 0.03450657556 -0.03762357092
601.25 0.02086699274 -0.03393869825
601.875 -0.005800023866 -0.02813448377
602.5 0.001916036203 -0.010392275
603.125 0.007585710863 0.008257361031
603.75 0.01470695969 0.01993965076
604.375 0.0211598167 0.02084432833
605.0 0.02621661601 0.02046729938
605.625 0.01517022559 0.02097997262
606.25 -0.006313257651 0.02398255567
606.875 -0.01549509448 0.04346764344
607.5 0.001909248203 0.03707141235
608.125 0.03100658938 0.05428525587
608.75 0.02836878191 0.0438236355
609.375 0.02155765805 0.03397106372
610.0 0.02139060222 0.04142258435
610.625 0.02216232142 0.04230712427
611.25 0.01104322119 0.02517348623
611.875 0.0001365043087 0.006319456336
612.5 -0.004802820181 -0.009460193754
613.125 -0.02529573821 4.661027045e-05
613.75 -0.04180619286 0.01306351325
614.375 -0.03179040962 0.01691013441
615.0 -0.01016019953 0.0008451423698
615.625 -0.02337012972 -0.0009214658257
616.25 -0.04751389791 0.01514388585
616.875 -0.03530447546 0.02494695095
617.5 -0.005728943664 0.00405535062
618.125 -0.01392725917 0.002353185897
618.75 -0.02696731101 0.007323945004
619.375 -0.01864939977 0.008777243155
620.0 0.01749830641 -0.01645252319
620.625 0.003033706113 -0.03031751796
621.25 -0.004581251861 -0.04353424504
621.875 -0.02672982225 -0.05502235861
622.5 -0.05998340355 -0.03627250283
623.125 -0.06795646051 0.009759198456
623.75 -0.06099638579 0.02293572871
624.375 -0.05174881081 0.00601888604
625.0 -0.03080472526 -0.01745704042
625.625 -0.03986964275 -0.008635659022
626.25 -0.03571250163 0.01016403336
626.875 -0.009615151238 0.007963092599
627.5 0.01129076941 -0.005278093184
628.125 0.02963544182 -0.008950042984
628.75 0.0177692935 -0.01527422573
629.375 0.03022411998 -0.009294748222
630.0 0.0441673635 -0.009868209979
630.625 0.0586735467 -0.003143949938
631.25 0.0584490853 -0.02746527764
631.875 0.0522861731 -0.02529852455
632.5 0.04146429202 -0.02889762007
633.125 0.04652295839 -0.01666014478
633.75 0.03495383043 -0.0160134538
634.375 0.03204560438 -0.02004789926
635.0 0.01496451985 -0.02176423767
635.625 0.0156991045 -0.005320668581
636.25 0.02705349651 0.0003214182409
636.875 0.04204301157 -0.005854868307
637.5 0.02431763721 -0.01223050137
638.125 0.008072494201 -0.004596684638
638.75 0.02026834591 0.04181882825
639.375 0.02201290689 0.05582722043
640.0 0.02450391466 0.0487965246
640.625 0.0246427925 0.0359685525
641.25 -0.003974308726 0.04244208043
641.875 -0.001870041136 0.03118284511
642.5 -0.004206741115 0.03489225962
643.125 -0.01565708205 0.03462172553
643.75 -0.02627908398 0.02190224698
644.375 -0.01354365779 0.01855754332
645.0 -0.03127678159 0.03061384835
645.625 -0.03927383926 0.0421882557
646.25 -0.04469362183 0.04728844642
646.875 -0.02074421017 0.04200120261
647.5 -0.009773759123 0.03625948644
648.125 -0.03651234724 0.03491745099
648.75 -0.04645359138 0.03081202154
649.375 -0.02736909111 0.03474380723
650.0 -0.01504748119 0.02770842782
650.625 -0.01589169918 0.001087669786
651.25 -0.0123942286 -0.0176908967
651.875 -0.004605753348 -0.01494458384
652.5 0.01020596271 -0.01670604648
653.125 0.03834122109 -0.02317333799
653.75 0.06062984505 -0.03546540728
654.375 0.06921055827 -0.039343989
655.0 0.06810290714 -0.04197990925
655.625 0.04523944347 -0.04390059237
656.25 0.03661463241 -0.05460916802
656.875 0.02259947691 -0.05093451822
657.5 0.02209629723 -0.04567175998
658.125 0.01042766432 -0.03659850513
658.75 -0.006736861396 -0.02588472732
659.375 0.02099991326 -0.01375999973
660.0 0.0397839198 -0.008723452327
660.625 0.03318186179 -0.01890871666
661.25 0.02927922366 -0.03412784797
661.875 0.03180843719 -0.07069025825
662.5 0.01742438093 -0.06707550356
663.125 0.01034018994 -0.06455113774
663.75 0.0306022179 -0.06134578389
664.375 0.06656998461 -0.03159784045
665.0 0.04876180054 -0.01239672388
665.625 0.0482916275 0.001469370648
666.25 0.04698290718 0.02964387672
666.875 0.007624370326 0.03394204744
667.5 -0.001391345512 0.01450255698
668.125 -0.01533413856 0.02883314322
668.75 -0.02328468077 0.06526485009
669.375 -0.02000469045 0.05639052751
670.0 -0.001951917133 0.04556375814
670.625 -0.01188385028 0.04328453188
671.25 -0.01437533135 0.060464147
671.875 0.01016481839 0.05741748235
672.5 0.04718961999 0.02993699135
673.125 0.03343773451 0.01538654282
673.75 0.01927227747 0.03369771921
674.375 0.002139344811 0.0373643448
675.0 -0.008024991745 0.03522154099
675.625 -0.03296676823 0.03593733398
676.25 -0.05646412739 0.02117883837
676.875 -0.06021886085 0.01575405955
677.5 -0.0672106436 0.02020144816
678.125 -0.08140848667 0.02939810518
678.75 -0.06130568053 0.03154489786
679.375 -0.04493170981 0.04158500536
680.0 -0.02958525394 0.028026497
680.625 -0.03741494123 0.01516569282
681.25 -0.01745589436 0.01228743163
681.875 -0.01013710395 0.0261443704
682.5 -0.03134449517 0.01230667089
683.125 -0.05149522757 0.002444177825
683.75 -0.05761309374 0.005236825995
684.375 -0.05874128722 -0.01094293518
685.0 -0.05204361966 -0.05806325173
685.625 0.00948869147 -0.07074352078
686.25 0.02360901977 -0.08100003159
686.875 0.03274614013 -0.08058828111
687.5 0.0348672213 -0.06791731086
688.125 0.01598057903 -0.03958647791
688.75 0.0198882916 -0.02795586328
689.375 0.02836544227 -0.002112689695
690.0 0.04478366197 0.0125321008
690.625 0.02759247751 0.01256474819
691.25 0.03978276659 0.01469580833
691.875 0.07606752877 -0.008896360836
692.5 0.05792984478 -0.09087871328
693.125 -0.04782657671 -0.07468998518
693.75 -0.07060609344 -0.02156080924
694.375 -0.06335373589 -0.02055381679
695.0 -0.03733018007 -0.0412001081
695.625 -0.02707846175 -0.0624605389
696.25 0.04074054877 -0.03384771026
696.875 0.01679203071 0.02130827141
697.5 -0.009868237263 0.02513586567
698.125 -0.01608074926 0.04150205886
698.75 -0.03268236107 0.06376442826
699.375 -0.04534612511 0.05195004631
700.0 -0.03356722236 0.04221208491
700.625 -0.04357599298 0.04928725341
701.25 -0.0631850766 0.0437591062
701.875 -0.03818482634 0.04149294092
702.5 0.006741931622 0.03386536464
703.125 0.01858450719 0.0227454651
703.75 -0.01240176474 0.05006113147
704.375 0.01192504663 0.06593799915
705.0 0.03867615673 0.05207888261
705.625 0.01518166769 0.05979216905
706.25 -0.03270295009 0.06312539254
706.875 -0.07400254831 0.009043421004
707.5 -0.07971474232 -0.01487612483
708.125 -0.05531240533 -0.04063274211
708.75 -0.03914586241 -0.04085754651
709.375 0.001632040901 -0.03514813058
710.0 0.03616674869 -0.01513012077
710.625 0.03467614666 0.004846751874
711.25 0.0221440078 -0.007832390526
711.875 0.005069373495 0.0182227852
712.5 0.03466655344 0.03574216572
713.125 0.08624771307 0.01223090082
713.75 0.02717912438 -0.0715498282
714.375 -0.03211759849 -0.07383318079
715.0 -0.0479030943 -0.0728816129
715.625 -0.03654048326 -0.0724214098
716.25 -0.02383103581 -0.05709629074
716.875 6.284080876e-05 -0.04623407628
717.5 0.03002340554 -0.01570031887
718.125 0.03420615829 0.01269863594
718.75 0.03579652354 0.01481689438
719.375 0.02826607693 0.005689276838
720.0 -0.01159269297 0.0327011379
720.625 -0.04659882088 0.0008439340312
721.25 -0.04786841041 -0.0438966463
721.875 -0.01646356575 -0.06393152754
722.5 0.01179371639 -0.08019108966
723.125 -0.03843626143 -0.05784140044
723.75 -0.05794980818 -0.016203316
724.375 -0.02456721987 0.02787522217
725.0 -0.01221095396 0.019013093
725.625 -0.01723016702 0.01379301661
726.25 -0.0253107881 0.009932844242
726.875 -0.04759800903 -0.009533635347
727.5 -0.05864790204 -0.03206979434
728.125 -0.05693138513 -0.03774232897
728.75 -0.05188770102 -0.028045091
729.375 -0.044973291 -0.02309584887
730.0 -0.02178918782 -0.005571333233
730.625 -0.03923341217 -0.02819178101
731.25 -0.01389350183 -0.04491956558
731.875 0.01210591424 -0.02923584564
732.5 0.01679885662 -0.01099140081
733.125 0.007023032471 0.01859571218
733.75 0.04368647637 0.04705372566
734.375 0.05008595939 0.02851144575
735.0 0.02891033676 0.003668207082
735.625 0.03956712888 -0.02188139614
736.25 0.05755668563 -0.04475183537
736.875 0.02065062709 -0.0459023791
737.5 -0.01258512513 -0.01891361222
738.125 0.007649345855 0.004475712607
738.75 0.01256190793 0.05313494906
739.375 0.02665542452 0.05463643949
740.0 0.0427966039 0.02860020129
740.625 0.01705229373 0.02190552757
741.25 0.02893945769 0.0294736938
741.875 0.00360538999 0.04562775258
742.5 -0.04100058103 0.02638973935
743.125 -0.01038886066 -0.0334749309
743.75 -0.01042760568 -0.04962203822
744.375 -0.01629658907 -0.05128654694
745.0 -0.02734603017 -0.05735515044
745.625 -0.03005162382 -0.02198969836
746.25 -0.01596726339 0.005307596072
746.875 -0.01185335414 0.0009924912663
747.5 -0.01372672991 -0.02160946493
748.125 -0.02532192413 -0.02517580113
748.75 -0.03579955863 0.01240598565
749.375 -0.01610862341 0.04178743162
750.0 0.02242428006 0.0458931887
