!Created with skrf (http://scikit-rf.org).
# GHz S RI R 50.0 
!freq ReS11 ImS11
500.0 -0.01310367883 0.02647428158
500.625 0.02603409405 0.02496548471
501.25 0.03762776865 0.0116849861
501.875 0.03133899997 0.01470271105
502.5 0.02232255995 0.03636899025
503.125 0.03626247049 0.02083489719
503.75 0.04772218288 -0.002449071095
504.375 0.04737252882 -0.0175039474
505.0 0.03660633357 -0.03852045224
505.625 0.03943974269 -0.06502881469
506.25 0.02532394781 -0.0787687547
506.875 0.05817096446 -0.07630419739
507.5 0.02632259026 -0.076866715
508.125 0.06627137678 -0.07575078588
508.75 0.0178610753 -0.09758379247
509.375 0.001122235096 -0.07941564636
510.0 0.02562278162 -0.07710089036
510.625 -0.05551148294 -0.06068901476
511.25 -0.06749393662 -0.04605789443
511.875 -0.06869762422 0.006536555083
512.5 -0.03673057125 0.0375317751
513.125 0.007041913587 0.06832921838
513.75 0.0155286557 0.07163633643
514.375 0.03849284172 0.05825418375
515.0 0.07959354534 0.04952029537
515.625 0.03614968799 0.1262342631
516.25 0.08726063251 0.08785951264
516.875 0.02586258649 0.1444286095
517.5 0.1305361802 0.09199864555
518.125 0.003443658909 0.2245838176
518.75 0.08178307832 0.04826151697
519.375 0.07607503395 0.05322613794
520.0 0.1225325657 0.02559920315
520.625 0.11824254 0.02002116426
521.25 0.09645023375 -0.01675131075
521.875 0.08111092181 0.01021696409
522.5 0.107723102 -0.05024579
523.125 0.180136966 -0.0856760436
523.75 0.1458020984 -0.1783464759
524.375 0.1695440968 -0.1570187251
525.0 0.07128650998 -0.04633767437
525.625 0.04767699402 -0.01523160555
526.25 0.05792139524 -0.004643234367
526.875 0.06728647362 -0.02393322082
527.5 0.05548047962 -0.03095086816
528.125 0.02833593725 -0.04773906464
528.75 0.0174462161 -0.07552892577
529.375 -0.04720721663 -0.1022326446
530.0 -0.05089090113 -0.04426785891
530.625 -0.04455558236 -0.01568123837
531.25 -0.112161816 -0.06001926271
531.875 -0.184685967 -0.06917330852
532.5 -0.1640700801 0.001253888354
533.125 -0.1094350619 0.03032435548
533.75 -0.1109697704 0.0654249696
534.375 -0.13056747 0.04096586223
535.0 -0.09291287991 0.0567905326
535.625 -0.07138965309 0.03108194418
536.25 -0.04892400842 0.05583586358
536.875 -0.09327695828 0.01753213914
537.5 -0.100114004 -0.02305162201
538.125 -0.1009760857 0.02886691409
538.75 -0.1163770523 0.0592127882
539.375 -0.1016187333 0.02330184329
540.0 -0.09566818849 0.01087913368
540.625 -0.1192079803 0.01907572014
541.25 -0.1426326451 -0.002718942826
541.875 -0.1043297984 -0.01623263973
542.5 -0.09476425404 -0.01921611991
543.125 -0.1281537222 0.03662993723
543.75 -0.09969038524 0.1201481876
544.375 -0.04823858928 0.1167088602
545.0 0.05466645563 0.08472857102
545.625 0.09931096837 0.07524635958
546.25 0.1072239538 0.05168054607
546.875 0.1037176996 0.03151142269
547.5 0.1206961902 0.03605398712
548.125 0.1387793505 0.07836612467
548.75 0.08465405938 0.1009377405
549.375 0.08856029903 0.09082781901
550.0 0.05674266374 0.1283169373
550.625 0.02216140835 0.1062004858
551.25 -0.02274939947 0.05106161975
551.875 -0.01511061217 0.03986086696
552.5 -0.02646951827 0.07216625612
553.125 -0.04885111497 0.07112808441
553.75 -0.05023770816 0.04681350631
554.375 -0.03242165649 0.06902396235
555.0 -0.02008842283 0.106200159
555.625 -0.02030152545 0.1095939366
556.25 -0.03431688055 0.08108072095
556.875 -0.03232478379 0.09920807797
557.5 -0.04432133873 0.1187783156
558.125 -0.05162912168 0.1159713403
558.75 -0.06199588627 0.08465822862
559.375 -0.0372103656 0.1014109609
560.0 -0.04034393249 0.07672383637
560.625 -0.0218872847 0.04983063312
561.25 -0.02433580233 0.0468098887
561.875 -0.03307464031 0.07082492519
562.5 -0.02406085855 0.08779531059
563.125 0.00513634726 0.08369064567
563.75 0.05023782715 0.08694448727
564.375 0.08320994988 0.1089790971
565.0 0.06607095406 0.1093336303
565.625 0.07242549583 0.0745025489
566.25 0.06168727284 0.08095457862
566.875 0.02657657721 0.1123179433
567.5 -0.02105216621 0.09271952748
568.125 -0.0209636772 0.09594410063
568.75 -0.03110855875 0.1066941958
569.375 -0.03577654458 0.08215867025
570.0 -0.03279823403 0.04973076742
570.625 -0.02350685633 0.0519872401
571.25 -0.03777475277 0.06597652842
571.875 -0.03379505157 0.04486502975
572.5 -0.02849849171 0.04952794013
573.125 -0.01642357815 0.0900757353
573.75 0.03301472524 0.1244456095
574.375 0.04725939228 0.08828445075
575.0 0.05023756248 0.05721069574
575.625 0.06633760042 0.06856565175
576.25 0.05990960693 0.09429989808
576.875 0.06315475384 0.07865902855
577.5 0.07569821466 0.05392630282
578.125 0.09350050383 0.05936294032
578.75 0.06958850847 0.07548250835
579.375 0.06469106393 0.05268872897
580.0 0.07316534171 0.03724512267
580.625 0.07089405462 0.03644337149
581.25 0.03316282338 0.04032319376
581.875 0.00958393024 0.04426529767
582.5 0.02627516762 0.06862702941
583.125 0.02922017786 0.09601814934
583.75 0.02103552175 0.08266786054
584.375 0.009609247589 0.07056331726
585.0 -0.0006106331036 0.08650919411
585.625 -0.01075890733 0.1023355902
586.25 -0.001241029083 0.07811312225
586.875 0.009621422392 0.06813762728
587.5 0.01337699781 0.08753069595
588.125 0.04489122041 0.08303631598
588.75 0.05558186782 0.0560706325
589.375 0.07040933088 0.01732834015
590.0 0.06218323909 0.01789615577
590.625 0.03425892102 0.03252398184
591.25 0.03380832513 0.04570149398
591.875 0.06311944202 0.04838695982
592.5 0.09339294663 0.04484368052
593.125 0.07857602159 0.04307487044
593.75 0.06794758423 0.03881725556
594.375 0.06764803634 0.06170343183
595.0 0.04456161014 0.0823464146
595.625 0.01488063334 0.07007803123
596.25 0.001253182361 0.05661152891
596.875 -0.01719965089 0.06374494389
597.5 -0.02720070243 0.06329075244
598.125 -0.01271408706 0.05879953897
598.75 0.00656766175 0.0486803959
599.375 0.006698456325 0.03526406689
600.0 -0.007928315921 0.0152242367
600.625 -0.02244110941 0.003858888254
601.25 -0.0430019142 0.01211352359
601.875 -0.05368826464 0.02412818571
602.5 -0.04967204737 0.02928432487
603.125 -0.04894328223 0.03325124758
603.75 -0.04602506227 0.04325400805
604.375 -0.04174646118 0.03302678013
605.0 -0.03148575518 0.01585304678
605.625 -0.0388385453 0.002770039015
606.25 -0.05623102729 0.0008368023703
606.875 -0.05778627643 0.007937413912
607.5 -0.03493214549 0.02451696589
608.125 -0.0134967488 0.02423472376
608.75 -0.01067365971 0.0163688654
609.375 -0.009255354836 0.008891813469
610.0 0.001847254229 0.006793493712
610.625 0.008920582963 -0.004865468995
611.25 0.01059629445 -0.01643000717
611.875 0.01073867268 -0.02657055074
612.5 0.005232671504 -0.0277290507
613.125 -0.006945660931 -0.02103992258
613.75 -0.008925670203 -0.006680101274
614.375 0.0008179850959 0.004228765974
615.0 0.01059421463 -0.001940097405
615.625 0.004947884284 -0.002242629099
616.25 -0.001501674322 0.007112436794
616.875 0.007646163374 0.02169934055
617.5 0.02085576389 0.02171325951
618.125 0.02133611794 0.01992326121
618.75 0.0205541635 0.02134265385
619.375 0.02675438202 0.03189633056
620.0 0.0393812639 0.02992976013
620.625 0.04276039427 0.004817151056
621.25 0.03256699948 -0.00690215468
621.875 0.0125760979 -0.01108289442
622.5 -0.01446900356 0.005355824332
623.125 -0.01044552949 0.03581024654
623.75 0.001732691059 0.05187476642
624.375 -0.005327091604 0.06019800306
625.0 -0.02463812969 0.05231770837
625.625 -0.02443632319 0.06635080237
626.25 -0.007698269161 0.0905604412
626.875 0.0004173009685 0.09179376275
627.5 -0.002429622345 0.0726903275
628.125 -0.00966767519 0.06576797635
628.75 -0.02658424505 0.07176000475
629.375 -0.03303170662 0.0584759641
630.0 -0.02138309512 0.04242839279
630.625 -0.02474501566 0.02900473203
631.25 -0.03990461225 0.008681477583
631.875 -0.04750598929 -0.01501383009
632.5 -0.04787891777 -0.01734923262
633.125 -0.06503361103 -0.0184846161
633.75 -0.08066188482 -0.01660238312
634.375 -0.0784594555 -0.0209083835
635.0 -0.08591500729 -0.005981354669
635.625 -0.09604694019 0.02174758266
636.25 -0.09238902049 0.0158275078
636.875 -0.07050241705 -0.002711157613
637.5 -0.08321096166 -0.006258134388
638.125 -0.1107454048 -0.003066283504
638.75 -0.09406789568 -0.004082813082
639.375 -0.05663288107 -0.01612691191
640.0 -0.03646218591 -0.04253651307
640.625 -0.01519847779 -0.08622570863
641.25 0.001514989427 -0.08063822475
641.875 -0.001709532103 -0.07084394102
642.5 0.002201540915 -0.08216157192
643.125 0.04059355938 -0.09492149307
643.75 0.05788123714 -0.07793731763
644.375 0.02276321028 -0.08400796671
645.0 0.004848527042 -0.099709668
645.625 0.02620177515 -0.0871865279
646.25 0.03972165924 -0.06373758435
646.875 0.04053216817 -0.06511864913
647.5 0.04004954503 -0.09385520572
648.125 0.04706911314 -0.07310900187
648.75 0.05819731288 -0.03804849479
649.375 0.08123951546 -0.0244649429
650.0 0.1116563362 -0.01124751239
650.625 0.1073617001 0.01523447838
651.25 0.09424275647 0.02998132716
651.875 0.09557709177 0.07168176906
652.5 0.05583179001 0.1157534623
653.125 0.03639174446 0.1022272633
653.75 0.03351871078 0.08950492456
654.375 0.002241269789 0.09942957855
655.0 -0.05136938567 0.05981956498
655.625 -0.04815771414 0.03331205475
656.25 -0.04375639552 0.05675509931
656.875 -0.04842675111 0.09755486752
657.5 -0.08220450645 0.07212678539
658.125 -0.0838582775 0.04962414201
658.75 -0.07155029821 0.09431631129
659.375 -0.05068571458 0.144801968
660.0 -0.01292224495 0.1370989695
660.625 0.01780294118 0.1133358539
661.25 0.04971709776 0.112567092
661.875 0.06476805303 0.1078866343
662.5 0.06331930705 0.07501555178
663.125 0.05169278631 0.06928518394
663.75 0.0002890977828 0.1003570367
664.375 -0.07279961246 0.05853191513
665.0 -0.0818071465 0.009376765136
665.625 -0.09312782771 -0.00902508568
666.25 -0.1187307673 -0.07025782527
666.875 -0.07032004106 -0.1111332187
667.5 -0.06375762674 -0.1003648265
668.125 -0.09376869341 -0.09467029976
668.75 -0.09820356219 -0.1091153065
669.375 -0.04881917142 -0.09192526426
670.0 -0.03332685524 -0.07214888484
670.625 -0.05112559928 -0.09654749395
671.25 -0.06479286789 -0.1007011146
671.875 -0.05562501027 -0.07907735604
672.5 -0.07016518514 -0.05371416334
673.125 -0.111573094 -0.04860861038
673.75 -0.1236726614 -0.0588660775
674.375 -0.111350238 -0.06370879227
675.0 -0.09033087315 -0.09547791407
675.625 -0.03979220708 -0.12695555
676.25 0.008248018733 -0.1197026629
676.875 0.006369288694 -0.1113308657
677.5 0.008358193733 -0.1275331661
678.125 0.05041653075 -0.08521773736
678.75 0.05247342771 -0.03986255121
679.375 0.06245837515 -0.03455903338
680.0 0.09148406677 -0.07630450946
680.625 0.1210905292 -0.07433971313
681.25 0.08110428579 -0.07959333962
681.875 0.03887990754 -0.1149183188
682.5 -0.0225671249 -0.1672495077
683.125 -0.01178701032 -0.17388482
683.75 0.01869256745 -0.1260092781
684.375 0.05935397979 -0.1041590669
685.0 0.1326649759 -0.04126646465
685.625 0.1172743894 0.04564220283
686.25 0.06579557826 0.07401548768
686.875 0.02410194621 0.08301093793
687.5 -0.03242724979 0.0859356212
688.125 -0.05983078929 0.0784912341
688.75 -0.07599715395 0.09616657715
689.375 -0.1146635037 0.1111721093
690.0 -0.1146390918 0.07795849208
690.625 -0.09275206105 0.08674785729
691.25 -0.04456170919 0.1460408542
691.875 0.02966437309 0.1966417424
692.5 0.08442764784 0.1007560079
693.125 0.08781618809 -0.00910009263
693.75 0.08546560485 -0.05774777156
694.375 0.1370406077 -0.06361476761
695.0 0.1288066467 0.03620521667
695.625 0.05916956803 0.08340977709
696.25 -0.03798408999 0.1158857471
696.875 -0.1436925676 0.03075980661
697.5 -0.1265634539 -0.08099524808
698.125 -0.1000638106 -0.09528828761
698.75 -0.1029762193 -0.09184311292
699.375 -0.07567862315 -0.0862070471
700.0 -0.05237780531 -0.08718570699
700.625 -0.02778703441 -0.1108791619
701.25 0.01985146011 -0.1061749418
701.875 0.02072995974 -0.0795618347
702.5 -0.01084853969 -0.09256822817
703.125 -0.1142390992 -0.1066247612
703.75 -0.1948855757 -0.03289690026
704.375 -0.1261112103 0.05481687253
705.0 -0.08660847615 0.06845400272
705.625 -0.1365596678 0.03878559795
706.25 -0.1236671265 -0.1052969232
706.875 0.004712152182 -0.1069695921
707.5 0.02857018427 -0.07497745156
708.125 0.07710886496 -0.03717950869
708.75 0.09047838024 0.04827363132
709.375 0.02652260131 0.09503718916
710.0 -0.01307929469 0.08907344645
710.625 -0.04643062356 0.08393463234
711.25 -0.08183251982 0.06555785857
711.875 -0.09203876588 0.08470559151
712.5 -0.05876199006 0.138349661
713.125 0.05338465372 0.1356710128
713.75 0.1170474816 0.02570626257
714.375 0.1005354926 -0.05472720651
715.0 0.09998428352 -0.07687763878
715.625 0.09143812931 -0.02216986676
716.25 0.05885169637 0.02053176091
716.875 0.0478162662 0.05250665759
717.5 0.006783150929 0.1109961509
718.125 -0.04818698528 0.102182903
718.75 -0.04855398263 0.07028077002
719.375 -0.05934101771 0.05673788815
720.0 -0.1016522085 0.01248018083
720.625 -0.07248645385 -0.08957236035
721.25 0.02828286157 -0.1002179495
721.875 0.07925649376 -0.06066033351
722.5 0.08147108323 -0.03107258348
723.125 0.0553758048 -0.03155024661
723.75 0.04205823174 -0.03623102076
724.375 0.01876813178 -0.06333178846
725.0 -0.0209820839 -0.05374912054
725.625 -0.03515119082 -0.04290836306
726.25 -0.04724442898 -0.051282666
726.875 -0.03926716712 -0.08046134996
727.5 -0.02359173886 -0.07795328319
728.125 -0.005482807191 -0.06499347674
728.75 0.002100734702 -0.05410203458
729.375 0.006701701948 -0.05112098876
730.0 0.004280945871 -0.04752392265
730.625 0.0002944261259 -0.03301293128
731.25 0.01425673064 -0.0193397409
731.875 0.01943625177 0.002643469704
732.5 0.002421664217 0.02495357611
733.125 -0.01178473886 0.03139359643
733.75 -0.0008758964461 0.03987538376
734.375 0.01390099972 0.03347872127
735.0 0.023405534 0.01491794731
735.625 0.01900525693 -0.0004793402288
736.25 0.01092574749 -0.01389595114
736.875 -0.01297657358 -0.02181914799
737.5 -0.03470795138 -0.01063683547
738.125 -0.04885441124 -0.002532864244
738.75 -0.04122192481 0.01122251339
739.375 -0.01811483888 0.01063591502
740.0 -0.009240631371 -0.005522527525
740.625 -0.02505292188 -0.01431432353
741.25 -0.02868186821 -0.008894789009
741.875 -0.01408155533 -0.02178129991
742.5 0.02277196023 -0.01517405807
743.125 0.02285498817 0.01880034677
743.75 0.007766870682 0.02961999783
744.375 0.003427255522 0.03495119919
745.0 -0.005286379486 0.04385636435
745.625 -0.001077260896 0.06485401654
746.25 0.03962298696 0.06653271782
746.875 0.08031699316 0.0203975103
747.5 0.0671057597 -0.02098126155
748.125 0.03743094111 -0.0331111633
748.75 0.02082336237 -0.03977490961
749.375 -0.01018914685 -0.05475087144
750.0 -0.06011530136 -0.01828105162
