!Created with skrf (http://scikit-rf.org).
# GHz S RI R 50.0 
!freq ReS11 ImS11
500.0 -0.03271119022 0.01667475367
500.625 -0.003448044352 0.04707330525
501.25 -0.001641055186 0.04144595414
501.875 -0.03216460189 0.04450518104
502.5 -0.04186040132 0.05895477087
503.125 0.002269416381 0.06031887281
503.75 0.02294989636 0.04231406901
504.375 0.03905591195 0.03298343557
505.0 0.05789152501 0.01360866598
505.625 0.05754852472 0.0002502045142
506.25 0.04493132777 -0.01154800333
506.875 0.03162195985 0.01806426772
507.5 0.04779302464 0.01724343
508.125 0.03816461122 0.03310916316
508.75 0.02740391672 0.02494891223
509.375 0.03359551636 0.02375540697
510.0 0.06210317774 0.03325014865
510.625 0.02873315329 -0.04013118934
511.25 0.01070016297 -0.02696416699
511.875 -0.000496723643 -0.01350194559
512.5 -0.003681894284 -0.01207699409
513.125 -0.01418259064 -0.01537680913
513.75 -0.02960122991 -0.03495623785
514.375 -0.04983098453 -0.008006149531
515.0 -0.04663780371 0.03102962007
515.625 -0.06623483025 0.0153430974
516.25 -0.04718948926 0.02941450169
516.875 -0.04373419557 0.01565427664
517.5 0.0006388198878 0.0439807336
518.125 -0.000911666918 0.007066622548
518.75 -0.02264455107 -0.02341598939
519.375 -0.0301216383 0.01105123908
520.0 -0.01165346736 0.02363399142
520.625 -0.002796522431 0.008913917949
521.25 -0.02721636849 -0.003332794372
521.875 -0.009583070987 0.004291936539
522.5 0.01380464643 0.005030808283
523.125 0.002910397852 -0.03560098532
523.75 -0.07294452799 -0.07857999416
524.375 -0.08333568633 -0.09084340161
525.0 -0.05972933912 -0.02897196975
525.625 -0.06502540184 -0.007019648868
526.25 -0.05337517714 -0.003663805907
526.875 -0.03477920991 0.01037193099
527.5 -0.04144682821 0.02352548471
528.125 -0.01342460865 0.04442727597
528.75 -0.01375343241 0.05491453534
529.375 0.01125289386 0.04423078249
530.0 0.04656318937 0.05265487683
530.625 0.1055175092 -0.02072950201
531.25 0.1163790014 -0.0555864587
531.875 0.047377711 -0.07016163209
532.5 0.02706392425 -0.03078494769
533.125 0.03091566692 -0.02173047714
533.75 0.03382466043 -0.04060570562
534.375 0.01676184231 -0.02582005307
535.0 0.03391097102 -0.008561782086
535.625 0.0370658641 0.007267587878
536.25 0.03906015313 -0.03306717697
536.875 0.0427568451 -0.0497182521
537.5 0.04175972083 -0.03403905326
538.125 0.02021727454 -0.02171485216
538.75 0.02388702181 -0.01014204521
539.375 0.05531541786 -0.009293383441
540.0 0.08214086767 -0.03036299237
540.625 0.06314081391 -0.03872802731
541.25 0.04847184935 -0.02726331099
541.875 0.04156221026 -0.03821075995
542.5 0.03252448519 -0.04307720682
543.125 -0.0005477522548 -0.03482371783
543.75 -0.009062450844 0.004559765787
544.375 0.01509224919 0.009090003812
545.0 0.009972510296 -0.02808546764
545.625 -0.01408730205 -0.03661609739
546.25 -0.03618854158 -0.03932621882
546.875 -0.02672829067 -0.02613943403
547.5 -0.02374229102 -0.02323893957
548.125 -0.02744690946 -0.04495163234
548.75 0.00723211315 -0.0500614326
549.375 0.02112002856 -0.04252356856
550.0 0.04956619597 -0.04469253365
550.625 0.06657068394 -0.06134509743
551.25 0.1013953903 -0.05373234001
551.875 0.04961858331 -0.06250318494
552.5 0.02645080349 -0.07114295313
553.125 0.009748449037 -0.07216806128
553.75 0.004666458319 -0.06574595054
554.375 -0.02029496179 -0.05052772346
555.0 -0.01566948388 -0.03745565189
555.625 -0.00791708548 -0.03505596634
556.25 -0.008620558594 -0.04289698847
556.875 -0.01553432088 -0.03706920987
557.5 -0.006705820154 -0.009793109314
558.125 0.01366630648 0.001831816697
558.75 0.02625850439 0.005752733555
559.375 0.03791349254 0.004841817951
560.0 0.06691102994 -0.005269969932
560.625 0.06233570312 -0.03195465459
561.25 0.0309647942 -0.06495877791
561.875 -0.0007449496629 -0.05817067502
562.5 -0.01299303055 -0.04198854822
563.125 -0.02106308908 -0.02919748744
563.75 -0.02995538749 -0.0134375564
564.375 -0.007500142628 -0.001549131581
565.0 0.006860946484 -0.01977782823
565.625 0.01231693993 -0.03291667179
566.25 0.007321804058 -0.04846315565
566.875 0.01555688982 -0.04652835698
567.5 0.01974372247 -0.02019058938
568.125 0.02751562809 -0.0134502561
568.75 0.05233031303 -0.006104023933
569.375 0.06557382266 0.001837597579
570.0 0.06021227426 -0.01263359216
570.625 0.04983086653 -0.03860127589
571.25 0.04836148119 -0.0617383062
571.875 0.04144939367 -0.0518879586
572.5 -0.004721992501 -0.05346341546
573.125 -0.03195193772 -0.03633221853
573.75 -0.02043943522 -0.02492768337
574.375 -0.000837564939 -0.03793731225
575.0 -0.01136791573 -0.03292215199
575.625 -0.02674567242 -0.02143985197
576.25 -0.03355168202 -0.01449956129
576.875 0.001256628647 -0.01001798761
577.5 0.009054156745 -0.01837156482
578.125 0.01469728643 -0.02908083302
578.75 0.005339863153 -0.04024917616
579.375 0.008954904337 -0.04481757696
580.0 0.02194167461 -0.05161062859
580.625 0.01468145677 -0.07074966985
581.25 -0.02283141385 -0.0745425279
581.875 -0.03311556663 -0.04975783176
582.5 -0.02101984165 -0.03436758022
583.125 0.0006449667251 -0.03337377147
583.75 0.01057882437 -0.0322907223
584.375 -0.002438114293 -0.03635953583
585.0 0.001111716039 -0.03294348245
585.625 0.02402154154 -0.01469794509
586.25 0.02658726827 -0.01853162852
586.875 0.01697963582 -0.02675340121
587.5 0.01450394891 -0.02367288395
588.125 0.01940630588 -0.02817978616
588.75 0.02744052225 -0.03560364417
589.375 0.004660057615 -0.05803992129
590.0 -0.02880655439 -0.06087537242
590.625 -0.05064361127 -0.03470041686
591.25 -0.0398033433 -0.008593095044
591.875 -0.03070770761 0.01062716574
592.5 -0.00353824624 -0.005863592157
593.125 0.005340446305 -0.02022987255
593.75 0.005163479079 -0.02514111566
594.375 0.01831026377 -0.02014670707
595.0 0.04576288218 -0.01065152329
595.625 0.04490026217 -0.01185738802
596.25 0.0451472628 -0.01371691769
596.875 0.03057333945 -0.01618584827
597.5 0.03800028138 0.006853649889
598.125 0.047692506 0.008986541543
598.75 0.05056198878 -0.01702053659
599.375 0.06403489172 -0.01929427014
600.0 0.05114945537 -0.02030020696
600.625 0.03552051209 -0.02840528426
601.25 0.01865137669 -0.02577332438
601.875 0.004145476595 -0.01257306437
602.5 0.001414897489 -0.0001919249299
603.125 0.002734633395 0.01193364506
603.75 0.01039213574 0.02679526575
604.375 0.01508318734 0.02086456123
605.0 0.01945073063 0.0204096522
605.625 0.006151654529 0.0250572178
606.25 -0.01560849365 0.03083315377
606.875 -0.02016886366 0.03633882271
607.5 -0.001988709371 0.05004008591
608.125 0.02007868163 0.05751042198
608.75 0.01887261702 0.04472480972
609.375 0.01602396608 0.02883759908
610.0 0.01650736193 0.0354240724
610.625 0.01105219387 0.03963190473
611.25 0.000989728867 0.02057823762
611.875 0.003561943991 -0.002953402054
612.5 -0.01497009249 -0.004652389826
613.125 -0.03500143763 -0.003422600435
613.75 -0.03982791439 0.004679029008
614.375 -0.03173824323 0.01005833474
615.0 -0.006246469382 -0.005442426973
615.625 -0.02678414642 -0.004669461125
616.25 -0.04699132004 0.005219949372
616.875 -0.03419745006 0.01690806428
617.5 -0.006402192921 0.001964260926
618.125 -0.01753815062 -0.005215023077
618.75 -0.02050206464 0.001116134894
619.375 -0.01588576283 0.001078637147
620.0 0.008841796448 -0.01629773457
620.625 -0.00171055337 -0.03435742244
621.25 -0.002547031458 -0.04834170299
621.875 -0.02429352667 -0.06286325964
622.5 -0.05726759383 -0.03846531081
623.125 -0.05853844665 -0.001232366749
623.75 -0.05663534164 0.01486182219
624.375 -0.04645174128 -0.001048302783
625.0 -0.01606363832 -0.0152542935
625.625 -0.02638724634 -0.00749588359
626.25 -0.02852579801 0.006447367853
626.875 -0.004553481839 0.005323047212
627.5 0.02833710791 0.001779776055
628.125 0.02501445928 -0.01101084452
628.75 0.02146739614 -0.01626514084
629.375 0.03313255158 -0.007880382899
630.0 0.04820586848 -0.004055754204
630.625 0.05651598057 -0.006650492219
631.25 0.06229351321 -0.01768617802
631.875 0.05434000112 -0.01890676399
632.5 0.04057237537 -0.01403527236
633.125 0.04008418483 -0.01998482137
633.75 0.03682599724 -0.01327317092
634.375 0.02756269697 -0.007225161865
635.0 0.0146099309 -0.01400468373
635.625 0.01886263258 0.008244501105
636.25 0.02790492724 0.01871546962
636.875 0.03954524646 0.004619415242
637.5 0.02234995151 -0.005381073475
638.125 0.008520114259 0.007778085491
638.75 0.01308884817 0.03734430441
639.375 0.01872805062 0.05414680816
640.0 0.01526199594 0.05167824593
640.625 0.01534473897 0.03640823517
641.25 -0.01528078085 0.03383328249
641.875 -0.0003775022753 0.02885346792
642.5 -0.01188196657 0.0314325122
643.125 -0.03173538714 0.02382711967
643.75 -0.01989125701 0.01580683862
644.375 -0.01653597068 0.01522792622
645.0 -0.03399000473 0.02415477106
645.625 -0.04754051797 0.03299310127
646.25 -0.03768038338 0.03886591797
646.875 -0.02031786594 0.03593786897
647.5 -0.02610938039 0.03000226812
648.125 -0.04055436047 0.02502732212
648.75 -0.04879663406 0.0197502165
649.375 -0.03293498251 0.0227747753
650.0 -0.01699104337 0.01517105409
650.625 -0.009867817717 -0.008460049822
651.25 -0.005059845935 -0.0253078758
651.875 0.006819209845 -0.02343977389
652.5 0.02060921644 -0.01646866113
653.125 0.04425382075 -0.01694493023
653.75 0.07183831498 -0.03090146445
654.375 0.06933579383 -0.03065260507
655.0 0.06948757719 -0.02440250057
655.625 0.04600862961 -0.0363256809
656.25 0.04643861018 -0.04341055668
656.875 0.03682107616 -0.03899568511
657.5 0.02515506153 -0.03307530643
658.125 0.009887064666 -0.02932228927
658.75 0.003603992302 -0.01705315409
659.375 0.01774525348 0.004897616009
660.0 0.03785334082 0.004529691258
660.625 0.04124654767 -0.01168461015
661.25 0.04007958905 -0.03011322166
661.875 0.05228839684 -0.06375370712
662.5 0.02248006877 -0.05648190104
663.125 0.02081586721 -0.06158212994
663.75 0.04409380244 -0.05402825389
664.375 0.0542702671 -0.0174461325
665.0 0.04376695091 -0.005111542654
665.625 0.04039606239 0.008915235593
666.25 0.03013891961 0.0327431754
666.875 -0.001690648551 0.02181075374
667.5 -0.01202978135 0.01471652578
668.125 -0.02791518099 0.02750406624
668.75 -0.04256264958 0.06356640261
669.375 -0.03135932241 0.05398629986
670.0 -0.01034218325 0.04244739234
670.625 -0.02333200198 0.03848396572
671.25 -0.0296429529 0.0587385398
671.875 0.0003638924859 0.05357531176
672.5 0.0338745518 0.03021561757
673.125 0.0204841376 0.0209123268
673.75 0.003750217742 0.03879687636
674.375 -0.008741183746 0.03525339558
675.0 -0.02141736754 0.03992899858
675.625 -0.04489281543 0.02406383784
676.25 -0.05493708568 0.006463372641
676.875 -0.06443234916 0.006951841704
677.5 -0.07616059938 0.01101532777
678.125 -0.08145392636 0.01197860006
678.75 -0.0591897732 0.0240531262
679.375 -0.0448555643 0.02748160155
680.0 -0.02751336738 0.01521774992
680.625 -0.02822522282 -0.003166326107
681.25 -0.01293204912 0.002913520649
681.875 -0.01752645215 0.01118747839
682.5 -0.04475615138 -0.001275118858
683.125 -0.0558831658 -0.01065322613
683.75 -0.06059443898 -0.004731890005
684.375 -0.06261687609 -0.02274356669
685.0 -0.02790063761 -0.06618598384
685.625 0.02056796638 -0.06661721836
686.25 0.03555670076 -0.07170842501
686.875 0.04478122269 -0.07153170442
687.5 0.03686906911 -0.04284252714
688.125 0.01528690968 -0.0295471577
688.75 0.01929228684 -0.01326406038
689.375 0.02768985836 0.01375506135
690.0 0.02855465264 0.02789921748
690.625 0.01928250627 0.02252799117
691.25 0.04276809418 0.02793074581
691.875 0.08353128058 0.008776190715
692.5 0.06968114906 -0.07549512184
693.125 -0.04096392979 -0.08235289213
693.75 -0.058972219 -0.03141651371
694.375 -0.04615803474 -0.03225663896
695.0 -0.02605410247 -0.04220483698
695.625 -0.007196226802 -0.05917602207
696.25 0.03627542059 -0.01086697643
696.875 0.007302383315 0.02761171063
697.5 -0.01875164119 0.02352877436
698.125 -0.02844231207 0.04327292132
698.75 -0.05770961417 0.0454837649
699.375 -0.0515325245 0.0357111999
700.0 -0.03807455066 0.03797093096
700.625 -0.05508120756 0.02636827251
701.25 -0.05984950539 0.01691413674
701.875 -0.03704272147 0.02930395808
702.5 0.0003660375179 0.02634047462
703.125 0.002813756311 0.0240506849
703.75 -0.02383819075 0.05474423568
704.375 0.0008671634295 0.06840826364
705.0 0.02797890085 0.05879253498
705.625 0.004960884328 0.06242125832
706.25 -0.05384933192 0.04277029895
706.875 -0.07237438301 -0.004344096916
707.5 -0.07456835512 -0.02726838354
708.125 -0.04094870595 -0.04263527254
708.75 -0.01621559155 -0.03417526063
709.375 0.01610923907 -0.02103347064
710.0 0.03485567345 -0.00552875129
710.625 0.02519791207 0.0143390638
711.25 0.01098569463 0.006140412082
711.875 -0.001178675864 0.02827657702
712.5 0.02674984032 0.0573263283
713.125 0.08262587809 0.02519359526
713.75 0.04129416856 -0.06250557671
714.375 -0.01826089301 -0.07727813183
715.0 -0.03776687138 -0.07370268078
715.625 -0.02192695497 -0.06645107215
716.25 -0.02151520081 -0.05317472427
716.875 0.01312145931 -0.03475138926
717.5 0.02966697856 0.01073724438
718.125 0.02710447171 0.01782301424
718.75 0.0282106998 0.02720792936
719.375 0.02420269476 0.009945627704
720.0 -0.01855666455 0.02773783828
720.625 -0.04930080882 -0.008304893079
721.25 -0.04261546474 -0.05874970584
721.875 0.01071393073 -0.0821585152
722.5 0.02601677521 -0.0685719981
723.125 -0.0231506841 -0.05868626146
723.75 -0.04422265924 -0.02676409614
724.375 -0.02075520806 0.02161903893
725.0 -0.01850610734 0.004892048358
725.625 -0.0218040625 0.004511049231
726.25 -0.03423249269 -0.0008515385299
726.875 -0.03592713203 -0.01845849264
727.5 -0.04966438302 -0.0365589529
728.125 -0.04700737741 -0.05180777574
728.75 -0.04085314109 -0.03416336225
729.375 -0.03205369796 -0.03162109278
730.0 -0.01605791524 -0.006861197622
730.625 -0.02869216853 -0.02480351233
731.25 0.0005400904135 -0.04075884578
731.875 0.01469291409 -0.02076622594
732.5 0.008375427901 6.902945973e-05
733.125 0.02023422642 0.03444441738
733.75 0.02887793023 0.05776903018
734.375 0.04298457806 0.03694893691
735.0 0.03325970414 0.006524239287
735.625 0.06130897569 -0.01090673317
736.25 0.0506636473 -0.02992657632
736.875 0.02066536545 -0.03701278146
737.5 -0.01988347389 -0.006691963509
738.125 -0.0126070354 0.01483790061
738.75 -0.002026310707 0.05952857356
739.375 0.01618834031 0.05804315451
740.0 0.02491613198 0.03079485504
740.625 0.02883780538 0.02438870923
741.25 0.02765958006 0.03912756444
741.875 -0.007454123815 0.04324521779
742.5 -0.04413203905 0.0142427403
743.125 -0.01795927897 -0.03216183354
743.75 -0.01021368252 -0.05179960121
744.375 -0.00646294981 -0.05875385432
745.0 -0.01015104739 -0.047093099
745.625 -0.03175450907 -0.02527050781
746.25 -0.01910965822 0.003610677382
746.875 0.00271738342 -0.01168105946
747.5 -0.008495349016 -0.03109708663
748.125 -0.01978595987 -0.03487812318
748.75 -0.03684543729 0.005431403466
749.375 -0.0213318277 0.04334930917
750.0 0.01721799352 0.05016624316
