!Created with skrf (http://scikit-rf.org).
# GHz S RI R 50.0 
!freq ReS11 ImS11
500.0 -0.0261418183 -0.01335872657
500.625 -0.02105024698 0.005614144637
501.25 -0.01979195581 -0.007289049621
501.875 -0.08923582304 -0.001794408656
502.5 -0.07108348066 -0.0006748233804
503.125 -0.002497046926 0.002081701563
503.75 -0.008178097977 0.005909498654
504.375 -0.01577574075 0.02134317333
505.0 0.00175642789 0.02286223698
505.625 -0.001439016593 -0.02298416989
506.25 -0.01092307849 0.001785313262
506.875 -0.05893988564 0.00755416767
507.5 -0.04272718499 0.0126452341
508.125 -0.03752826405 -0.03223633129
508.75 -0.04914942171 0.03181947422
509.375 -0.05342514748 0.02506468181
510.0 -0.03442451477 0.03136213065
510.625 -0.03071891361 0.01972479223
511.25 -0.02063613101 0.02940202108
511.875 0.01041391284 0.04430264435
512.5 0.01810463999 0.02823391125
513.125 0.06989102317 0.004646385658
513.75 0.04893099227 -0.05958062571
514.375 0.009606838766 -0.05044870575
515.0 0.01962379436 -0.03953303834
515.625 0.02545179186 -0.03158908465
516.25 -0.005862921177 -0.04655147998
516.875 0.04046483684 0.01837414083
517.5 0.05900061478 -0.01762580233
518.125 0.130542416 0.02919433587
518.75 0.0343839458 -0.08173828482
519.375 0.03622648159 -0.03544065709
520.0 0.04332174284 -0.06342082679
520.625 0.03471777618 -0.07274368274
521.25 -0.01251799943 -0.07307947013
521.875 0.02177338576 -0.03408593747
522.5 0.009738428304 -0.07008986032
523.125 0.006004572999 -0.1579428828
523.75 -0.07969174157 -0.221486246
524.375 -0.03119009728 -0.2407243792
525.0 -0.02619154188 -0.125921049
525.625 -0.02400345344 -0.09591403815
526.25 -0.01826380248 -0.0704144539
526.875 -0.02271253492 -0.05442035644
527.5 -0.05451940644 -0.0780527122
528.125 -0.0620127551 -0.03387459922
528.75 -0.05634784716 0.002124290425
529.375 -0.08069950392 0.03801929492
530.0 -0.0654498453 0.1064558672
530.625 0.04801114008 0.07534464119
531.25 0.01905313392 0.04863200769
531.875 -0.005809438408 0.05991520425
532.5 -0.01198978129 0.1614834146
533.125 -0.002425559724 0.1133378193
533.75 0.02927606176 0.04855101909
534.375 0.02037005003 0.06951742505
535.0 0.03782082528 0.1152181684
535.625 0.006707937832 0.08387582968
536.25 0.05915662564 0.03645572085
536.875 0.04582143656 0.04593779601
537.5 -0.001099212758 0.07862165544
538.125 0.002324507108 0.0533456478
538.75 0.03282662107 0.08003733787
539.375 0.02125970501 0.1090709782
540.0 0.02391021932 0.1151503331
540.625 0.01718172843 0.06374475705
541.25 0.01612926536 0.0807238944
541.875 0.008276594561 0.07445962751
542.5 -0.01865252678 0.04579919849
543.125 -0.01165388888 0.04956946999
543.75 0.03777251195 0.07540433277
544.375 0.07009750241 0.08467248087
545.0 0.1073732196 0.003411936645
545.625 0.07121308502 -0.05065375629
546.25 0.03506529447 -0.07132958024
546.875 0.05194178088 -0.07418647219
547.5 0.07697200885 -0.09403016895
548.125 0.0875285588 -0.0896562898
548.75 0.1209576686 -0.05344320965
549.375 0.1283385575 -0.02717633627
550.0 0.1479992895 0.01324376529
550.625 0.1614655037 0.01599393484
551.25 0.1017203017 0.04090298426
551.875 0.07614515265 0.01721887882
552.5 0.08765164627 5.026111861e-05
553.125 0.1018968846 -0.01077652066
553.75 0.05445130772 0.0112091877
554.375 0.03059243944 0.01023563006
555.0 0.06045564369 0.005385219972
555.625 0.0675311577 0.00731335999
556.25 0.04634851797 0.01822376155
556.875 0.03853904433 0.03469452273
557.5 0.04603678436 0.04489981535
558.125 0.07958785474 0.07208074471
558.75 0.03013762023 0.07828703522
559.375 0.05468452084 0.0816107146
560.0 0.09596867899 0.07910564049
560.625 0.07872892932 0.0453655014
561.25 0.05379806891 0.002934935091
561.875 0.05374083583 0.004309344751
562.5 0.06527982025 0.001066802916
563.125 0.06065506924 -0.00579273778
563.75 0.03810909476 -0.000221247578
564.375 0.06887279251 -0.02387324488
565.0 0.1274130565 -0.04313574103
565.625 0.0977571938 -0.02125116794
566.25 0.07161780004 -0.01053252731
566.875 0.08586171606 -0.003681545028
567.5 0.08952526024 0.03360337318
568.125 0.07109037064 0.06391694117
568.75 0.07824853259 0.06491046893
569.375 0.08236990601 0.07127697872
570.0 0.07594280599 0.06270727153
570.625 0.06432130994 0.04115484067
571.25 0.05856657888 0.02102413515
571.875 0.07637765253 0.01895312256
572.5 0.04626900606 -0.003339898176
573.125 0.04121241574 -0.002025175685
573.75 0.07206132687 -0.01235815581
574.375 0.09065379493 -0.01977138264
575.0 0.06355591752 -0.0345699042
575.625 0.04210492969 -0.02982878001
576.25 0.05563565322 -0.01617299958
576.875 0.08092351643 -0.01713052902
577.5 0.07720751279 -0.03143959358
578.125 0.07537518409 -0.03707160537
578.75 0.08657336012 -0.03309413869
579.375 0.0992881314 -0.03038281039
580.0 0.08399635914 -0.03803434901
580.625 0.07519784486 -0.07654095717
581.25 0.05335953891 -0.06559203464
581.875 0.04272982833 -0.04161011731
582.5 0.04113161848 -0.01178826859
583.125 0.06489299565 -0.03859474364
583.75 0.08589776929 -0.02807874593
584.375 0.05914444696 0.008137706851
585.0 0.05474981523 0.01995755191
585.625 0.07811810403 0.0004220747148
586.25 0.07558869162 0.02804107495
586.875 0.06162573674 0.01496379295
587.5 0.06842931829 0.01105969155
588.125 0.08284927324 -0.04176445482
588.75 0.09264750438 -0.03514702406
589.375 0.06466567025 -0.04971945139
590.0 0.03771422076 -0.08260801294
590.625 -0.002684491117 -0.08901241485
591.25 0.01873013925 -0.03345254168
591.875 0.04057997839 -0.003454656037
592.5 0.06071205087 -0.03765238302
593.125 0.04809851112 -0.06514599896
593.75 0.06578222412 -0.04729755778
594.375 0.07746512355 0.002580162841
595.0 0.09357374663 0.01228480832
595.625 0.09567686315 0.01298390109
596.25 0.06803134661 0.0419902112
596.875 0.03927561235 0.05940877125
597.5 0.04277361946 0.07670199701
598.125 0.07329260787 0.03970070923
598.75 0.06123121892 0.04758184529
599.375 0.07037667145 0.03071658324
600.0 0.05106965073 0.03063124811
600.625 0.04834171287 -0.005300108766
601.25 0.02479694274 0.00684028572
601.875 -0.00531443608 0.05384792241
602.5 -0.008470170184 0.05868096491
603.125 0.003705457687 0.04034221226
603.75 -0.004261814702 0.07115857646
604.375 -0.01282279279 0.08152412766
605.0 -0.01147164359 0.06065762775
605.625 -0.03106117672 0.04143256149
606.25 -0.01726991905 0.03008408991
606.875 -0.05766603764 0.05268166963
607.5 -0.06143599967 0.06122657107
608.125 -0.02089770028 0.06484128684
608.75 -0.01867318214 0.06392769725
609.375 -0.04560237762 0.05075884601
610.0 -0.03035341121 0.03959197376
610.625 -0.03057016665 0.02522113363
611.25 0.003388202822 0.005535395395
611.875 -0.03012850303 -0.02353767578
612.5 -0.04102197382 -0.04068792644
613.125 -0.06567201718 -0.03712825667
613.75 -0.03082659039 -0.007531020751
614.375 -0.04473155644 -0.0300302627
615.0 -0.04430916551 -0.03965977192
615.625 -0.06001192345 -0.04197752513
616.25 -0.05024255003 -0.03191219915
616.875 -0.03956201246 -0.02450247596
617.5 -0.03346954724 -0.03440070718
618.125 -0.03217947055 -0.03973636114
618.75 -0.01152470165 -0.02345311684
619.375 -0.004138287903 -0.0388332931
620.0 0.005723937928 -0.05728518651
620.625 0.002041001993 -0.06631280464
621.25 0.04077865203 -0.05006186043
621.875 0.002304799996 -0.08591528782
622.5 -0.0850353154 -0.07123571594
623.125 -0.08182490353 -0.03320097026
623.75 -0.03507198492 -0.01219803297
624.375 -0.03013776111 -0.03507226702
625.0 0.003186377829 -0.06070283127
625.625 0.001945553286 -0.025474891
626.25 0.004568013325 -0.01204390483
626.875 0.05888816523 0.01762913331
627.5 0.06792445004 -0.0102132972
628.125 0.06763767126 -0.007313230507
628.75 0.05450212996 -0.0009992075705
629.375 0.07653374769 0.05237236735
630.0 0.07482520925 0.0396417311
630.625 0.07567728286 0.03486303212
631.25 0.0676153258 0.02138464283
631.875 0.05082261045 0.04904540013
632.5 0.05453825456 0.02072188282
633.125 0.0488439863 0.02646619047
633.75 0.0392023068 0.0145428284
634.375 0.01024631714 0.05432452056
635.0 0.02872197643 0.02248696276
635.625 0.04033543828 0.02724062454
636.25 0.03427701061 0.05100797076
636.875 0.04321404026 0.04654433584
637.5 0.002806347533 0.06161600872
638.125 -0.005076046189 0.06181219301
638.75 0.008691130431 0.07987600525
639.375 -0.01115884039 0.08642649823
640.0 -0.0460903217 0.06079799283
640.625 -0.03842943107 0.049766914
641.25 -0.0231215529 0.06331737549
641.875 -0.05305382934 0.0244489171
642.5 -0.0659466353 0.007139520713
643.125 -0.05416095033 0.02307883533
643.75 -0.06362650591 0.004537442202
644.375 -0.06824935162 -0.01290808704
645.0 -0.09629806987 -0.01593902753
645.625 -0.1015036182 0.002282426002
646.25 -0.07291828717 0.0467990153
646.875 -0.05702657571 0.01208173642
647.5 -0.07453931556 -0.01473956181
648.125 -0.08141541937 -0.002715032409
648.75 -0.07525646296 0.01030388271
649.375 -0.03977350564 -0.008607782865
650.0 -0.02323675207 -0.04299249555
650.625 -0.007861910352 -0.06690604664
651.25 -0.0002561603633 -0.05260998318
651.875 0.03897676121 -0.04541587013
652.5 0.06182859513 -0.03703915626
653.125 0.1349118355 -0.01997366315
653.75 0.09532065984 -0.02225126208
654.375 0.09939852594 -0.00421175799
655.0 0.1352710528 0.01026149604
655.625 0.09222820414 0.006859964671
656.25 0.06261140526 -0.01636284745
656.875 0.06135642816 -0.01420107245
657.5 0.06788247084 -0.005403280867
658.125 0.08658760835 0.03489633952
658.75 0.04698544584 0.03591219671
659.375 0.05242468291 0.01658424743
660.0 0.08879441581 0.009854064929
660.625 0.1240143429 -0.007205652729
661.25 0.1071487712 -0.02897905345
661.875 0.06585661457 -0.0636660667
662.5 0.08196359861 -0.08504546876
663.125 0.09096099949 -0.08530087639
663.75 0.1002292425 -0.04825994875
664.375 0.09945460802 0.01807355378
665.0 0.04913629296 0.06102011652
665.625 0.02501234863 0.05954963785
666.25 0.01579507515 0.04621230425
666.875 -0.04235654634 0.06735957528
667.5 -0.08711620867 0.04500516866
668.125 -0.06990738436 0.03548416937
668.75 -0.0531286919 0.06355272747
669.375 -0.08116227772 0.09189700946
670.0 -0.08278990265 0.05776520999
670.625 -0.06826749425 0.03981591879
671.25 -0.05631519612 0.07930567485
671.875 -0.04910525453 0.1036306911
672.5 -0.01062284229 0.08719855179
673.125 -0.002901101263 0.07411908082
673.75 -0.009199024486 0.05792938669
674.375 -0.04586484743 0.07479022999
675.0 -0.07660887468 0.07864826402
675.625 -0.08823440827 0.0363980739
676.25 -0.09186272119 -0.0006749414501
676.875 -0.1041899664 -0.0296589742
677.5 -0.1265402613 -0.01356300671
678.125 -0.1412398624 0.008256087539
678.75 -0.121020332 -0.01986388405
679.375 -0.064806614 -0.02731921526
680.0 -0.05319288041 -0.01916880244
680.625 -0.1093994632 -0.01250428537
681.25 -0.09848601296 -0.03521337899
681.875 -0.04534134076 -0.02591506071
682.5 -0.07634695519 -0.01413987604
683.125 -0.1134108658 0.01159286686
683.75 -0.1413421664 -0.00821196595
684.375 -0.09246112969 -0.07265325368
685.0 -0.02373297649 -0.1002221139
685.625 0.04960859404 -0.1226577466
686.25 0.09571973067 -0.1307044808
686.875 0.1018638089 -0.09243008135
687.5 0.1029820298 -0.04197753172
688.125 0.07626593937 -0.003002045768
688.75 0.08191367799 0.0129318732
689.375 0.07985903418 0.02977737219
690.0 0.05563753716 0.06046466597
690.625 0.05707668376 0.08276698882
691.25 0.09778589658 0.05277718668
691.875 0.1291721034 -0.00504271444
692.5 0.1118461093 -0.1024226152
693.125 -0.0007390132086 -0.1565100076
693.75 -0.06964109897 -0.08372623204
694.375 -0.1102070743 -0.0665022737
695.0 -0.06916138037 -0.1346146686
695.625 0.05761933296 -0.0715720447
696.25 0.08288720013 0.01350847467
696.875 0.05364385083 0.08157221902
697.5 -0.03556226616 0.09272332852
698.125 -0.07880738083 0.05344302793
698.75 -0.09515605076 0.07612450541
699.375 -0.0909342906 0.1111480495
700.0 -0.09462178342 0.06799547152
700.625 -0.09735361584 0.03226952276
701.25 -0.1216560751 0.03214836922
701.875 -0.1365363157 0.0667371738
702.5 -0.06396234283 0.05872161483
703.125 -0.04412298548 0.02962280745
703.75 -0.007572597236 0.1151614855
704.375 0.05309203064 0.1537158093
705.0 0.0595948113 0.1216007187
705.625 0.01653349571 0.1034479091
706.25 -0.0677988135 0.1080551483
706.875 -0.1614229223 -0.0004074046525
707.5 -0.1393329193 -0.06133477871
708.125 -0.08071292396 -0.07978864532
708.75 0.004070475071 -0.08375354458
709.375 0.06686225997 -0.06584161198
710.0 0.09417463428 -0.02677799362
710.625 0.07324589825 0.02746242987
711.25 0.03766734776 0.0498468011
711.875 0.03889515839 0.05671506349
712.5 0.08529562988 0.02431584464
713.125 0.1321756812 -0.03652330801
713.75 0.1004606253 -0.09770081237
714.375 -0.005355847826 -0.133233653
715.0 -0.09307719503 -0.1014393643
715.625 -0.07196191655 -0.1333115014
716.25 0.009703058324 -0.1158521171
716.875 0.04465352642 -0.06676234701
717.5 0.07896684572 -0.02799558856
718.125 0.1014037002 -0.02636926566
718.75 0.09513339962 0.0457133799
719.375 0.02391921827 0.06708981919
720.0 0.006609754952 0.06849328547
720.625 -0.08318815399 0.04723183803
721.25 -0.09650936241 -0.07115052115
721.875 -0.001954813432 -0.1222865902
722.5 0.01492553568 -0.136257571
723.125 -0.08941406514 -0.087061838
723.75 -0.09877070194 -0.03497731511
724.375 -0.08754110271 -0.03950022195
725.0 -0.08553730017 0.02774268024
725.625 -0.04311782744 0.04486652715
726.25 -0.01737721668 0.03453224652
726.875 -0.08870184209 0.008720831204
727.5 -0.1094381198 -0.02626333389
728.125 -0.09462182644 -0.06444521566
728.75 -0.0731920702 -0.001235388343
729.375 -0.07345415743 0.0004050837435
730.0 -0.09287326253 -0.07778042581
730.625 -0.06217015031 -0.05233301693
731.25 -0.03802407414 -0.05733766873
731.875 0.01406794962 -0.07698473228
732.5 0.06647248024 -0.0167720749
733.125 0.05243387259 0.03492920351
733.75 0.07279833504 0.03184635843
734.375 0.08674448285 0.01265302746
735.0 0.1286070319 -0.01192582142
735.625 0.09132891325 -0.06000832523
736.25 0.04270977796 -0.06879864064
736.875 0.05376487555 -0.08086296583
737.5 0.05615519835 -0.04194063473
738.125 0.03029765296 -0.001131516037
738.75 0.04195673151 0.04419909695
739.375 0.04668628963 0.08007191151
740.0 0.0624582519 0.04608973815
740.625 0.08134109436 0.01745541602
741.25 0.07087775921 0.02449744977
741.875 -0.01188954143 0.03507341117
742.5 -0.05476845252 0.04799369366
743.125 -0.09321643248 -0.0345071928
743.75 -0.0424319038 -0.07185525545
744.375 0.02687720725 -0.04085051361
745.0 -0.01066065612 -0.05975917002
745.625 -0.06474687605 -0.05090568478
746.25 -0.05744170345 -0.005142646075
746.875 0.003848023278 -0.01437124873
747.5 -0.0268491109 -0.01520874034
748.125 -0.06452322913 0.005405565664
748.75 -0.05479704912 0.02117090788
749.375 -0.009969736061 0.05539007357
750.0 0.003037558846 0.0879416825
