!Created with skrf (http://scikit-rf.org).
# GHz S RI R 50.0 
!freq ReS11 ImS11
500.0 -0.008361660588 0.02164105533
500.625 0.02553354923 0.02132931665
501.25 0.03428988489 0.004162528822
501.875 0.03241737171 0.006486878455
502.5 0.01852514927 0.02597967857
503.125 0.03196524477 0.01430574552
503.75 0.04234596296 -0.00738151656
504.375 0.04159368814 -0.02268195595
505.0 0.03030541145 -0.03806065717
505.625 0.02930316441 -0.0647788493
506.25 0.01342028457 -0.07478252016
506.875 0.04800275245 -0.08582736961
507.5 0.01535551115 -0.0761274721
508.125 0.04829083965 -0.08187271991
508.75 0.002993623152 -0.1026263123
509.375 -0.0129698906 -0.07731842043
510.0 0.01184449457 -0.07507671219
510.625 -0.05669992682 -0.04577856956
511.25 -0.07654482362 -0.03991936522
511.875 -0.06698509756 0.01355342809
512.5 -0.03104901017 0.04400403733
513.125 0.02190588254 0.06698592557
513.75 0.03251615214 0.06918203288
514.375 0.04843455526 0.04876766792
515.0 0.08275066881 0.03146093035
515.625 0.05266509526 0.1118523688
516.25 0.09851039984 0.07643913817
516.875 0.03899183493 0.1354709097
517.5 0.1396979477 0.07228951004
518.125 0.03739431497 0.2252006942
518.75 0.09467434244 0.04138086741
519.375 0.08074762005 0.04065099858
520.0 0.1211077437 0.003958310786
520.625 0.1223271147 0.002839845685
521.25 0.09785799244 -0.03037085215
521.875 0.07958100328 -0.0006824394823
522.5 0.09853868532 -0.06682355331
523.125 0.1771104281 -0.1106124907
523.75 0.1368194592 -0.2012373049
524.375 0.1547541059 -0.193252276
525.0 0.06976055003 -0.06634875574
525.625 0.04998552226 -0.03033202341
526.25 0.05797918657 -0.0181611955
526.875 0.06027541797 -0.04019530325
527.5 0.05049385476 -0.04712089711
528.125 0.01739094421 -0.05369436193
528.75 0.001579562084 -0.07785144722
529.375 -0.071258805 -0.09144417025
530.0 -0.0679921257 -0.03185630014
530.625 -0.04480492244 0.0003865117429
531.25 -0.1047663104 -0.02835392475
531.875 -0.187058024 -0.02745124827
532.5 -0.1640538218 0.02952956421
533.125 -0.1038134094 0.04605803243
533.75 -0.09088939645 0.08162490213
534.375 -0.1210867221 0.06923237
535.0 -0.08679071522 0.0738677383
535.625 -0.06660883054 0.04355512221
536.25 -0.03440540164 0.06750681874
536.875 -0.08423468264 0.04313128917
537.5 -0.09954397543 -0.005660381492
538.125 -0.0918053916 0.0430441804
538.75 -0.1045707102 0.08502447622
539.375 -0.1000002428 0.04703737149
540.0 -0.09087220932 0.03164304158
540.625 -0.1054886213 0.04154553756
541.25 -0.1365128634 0.03110510088
541.875 -0.1057169455 0.003557387893
542.5 -0.08970817746 -0.006026193446
543.125 -0.1130719114 0.05268672574
543.75 -0.07948280134 0.1353647443
544.375 -0.03420912396 0.1280174349
545.0 0.06631463003 0.07785725155
545.625 0.1123165798 0.05279323095
546.25 0.1221702354 0.03253739968
546.875 0.110054226 0.01480511326
547.5 0.1262225624 0.01675533401
548.125 0.1555036811 0.04971947316
548.75 0.1071437773 0.09289141573
549.375 0.1037395913 0.08051070051
550.0 0.08292454251 0.121156523
550.625 0.04749491262 0.1116932286
551.25 -0.01247003981 0.06855834921
551.875 -0.001875936216 0.04520513434
552.5 -0.001956718037 0.0734738732
553.125 -0.02604292496 0.08416291419
553.75 -0.03668730736 0.0550105287
554.375 -0.0175262303 0.06731861909
555.0 0.00247461664 0.1017050102
555.625 0.00342995143 0.1113729826
556.25 -0.01989246117 0.08616877436
556.875 -0.01351940965 0.09668176481
557.5 -0.02137026741 0.1229619145
558.125 -0.0336215853 0.1245667039
558.75 -0.052191597 0.0965982202
559.375 -0.01986311605 0.1084380601
560.0 -0.02689470985 0.0941131924
560.625 -0.01019145312 0.05918657887
561.25 -0.008137698342 0.05181823045
561.875 -0.01355628839 0.07361166186
562.5 -0.001775561467 0.09027785598
563.125 0.01816986995 0.0785195684
563.75 0.05948649834 0.0722641537
564.375 0.1024407318 0.08873530298
565.0 0.08550517899 0.1012561178
565.625 0.08374135966 0.06523014862
566.25 0.07632837186 0.06833344926
566.875 0.05371992713 0.1041181609
567.5 -0.004182293453 0.1011878308
568.125 -0.005418866612 0.09826264527
568.75 -0.01048831397 0.1147077858
569.375 -0.02004225457 0.09635998313
570.0 -0.02266607698 0.0649540778
570.625 -0.01026954315 0.05671652425
571.25 -0.01548888729 0.07758838221
571.875 -0.02030399626 0.05468519348
572.5 -0.01363822399 0.05003717643
573.125 6.671092318e-05 0.08237064851
573.75 0.05707744044 0.1098286723
574.375 0.0644656515 0.08159683881
575.0 0.05936300268 0.04596307932
575.625 0.0739471296 0.04790590199
576.25 0.07815706182 0.07889480849
576.875 0.07573531646 0.06957939639
577.5 0.08164449422 0.04337402038
578.125 0.101438441 0.04175911403
578.75 0.09211494262 0.06569316693
579.375 0.07646189712 0.04554538102
580.0 0.08189019447 0.02607294221
580.625 0.08370091881 0.02160243384
581.25 0.05346531697 0.02901517027
581.875 0.02112993838 0.03725477373
582.5 0.03669732107 0.05495207311
583.125 0.04977515778 0.08528832804
583.75 0.03844446832 0.07769313092
584.375 0.02456028735 0.066049157
585.0 0.01573535691 0.07993130207
585.625 0.01189600482 0.1033032301
586.25 0.01367282015 0.07965668062
586.875 0.02291642511 0.06366696794
587.5 0.03256734528 0.08172650378
588.125 0.06327571762 0.07472178968
588.75 0.06669806733 0.0500564948
589.375 0.07566782008 0.003594070008
590.0 0.07091958069 -0.002342297984
590.625 0.04327929207 0.01808767084
591.25 0.03776238275 0.03558945392
591.875 0.06314988346 0.03283091849
592.5 0.09670382053 0.02584339277
593.125 0.08803020915 0.02916836737
593.75 0.07302497415 0.02879878275
594.375 0.07612434081 0.04723666869
595.0 0.06085983481 0.07551261955
595.625 0.03023960155 0.07207128365
596.25 0.01064967567 0.05884396583
596.875 -0.0005829222585 0.06744931884
597.5 -0.01575696197 0.07130083681
598.125 -0.002185381202 0.06530378595
598.75 0.01939303632 0.05260298262
599.375 0.01892303259 0.03896969836
600.0 0.001431189497 0.02166962319
600.625 -0.01472752527 0.008956345718
601.25 -0.03316217943 0.01762994612
601.875 -0.04324376105 0.03145555234
602.5 -0.04329738791 0.0350831482
603.125 -0.0419665118 0.03795239289
603.75 -0.04093110968 0.048669205
604.375 -0.03469218696 0.0433279362
605.0 -0.02985108156 0.02237220603
605.625 -0.03697579535 0.008750733463
606.25 -0.05572305915 0.007816381346
606.875 -0.05874546554 0.01709680437
607.5 -0.03543685137 0.03116085963
608.125 -0.01295421568 0.02930252138
608.75 -0.0125692027 0.02027575275
609.375 -0.00865721724 0.01609789431
610.0 -0.0005392816735 0.009460171484
610.625 0.006586108533 -0.002097441588
611.25 0.007462560129 -0.01580566046
611.875 0.008040483348 -0.02362098406
612.5 0.002848390225 -0.02703482558
613.125 -0.008885173001 -0.02238991893
613.75 -0.0106801477 -0.007047630256
614.375 0.0001798664188 -0.0005677385131
615.0 0.009477475814 -0.0007223624333
615.625 0.005241615662 -0.005589479402
616.25 -0.001198284592 0.004402907581
616.875 0.007954078746 0.01515929076
617.5 0.02231863577 0.02087374989
618.125 0.02399702713 0.01589963311
618.75 0.02309228781 0.01804966437
619.375 0.03106309179 0.02439170173
620.0 0.04471474944 0.02780512844
620.625 0.04773361755 0.0001380382754
621.25 0.03777663838 -0.01055554218
621.875 0.02041100941 -0.01735815047
622.5 -0.008819368703 0.0009294365895
623.125 -0.006545218925 0.02777058518
623.75 0.007031080757 0.04451131913
624.375 0.0039261624 0.05195478092
625.0 -0.01647564924 0.05430571961
625.625 -0.01426936529 0.06379453692
626.25 0.00508145463 0.08646816734
626.875 0.01475301588 0.09120131573
627.5 0.00683564136 0.07724703966
628.125 0.0007267946007 0.06897258011
628.75 -0.01099833859 0.07754487858
629.375 -0.02289750457 0.07102877927
630.0 -0.01441312065 0.05200093893
630.625 -0.01817759689 0.03948196267
631.25 -0.03402138659 0.02473430296
631.875 -0.04607270243 0.002353771181
632.5 -0.0483606055 -0.005064782431
633.125 -0.06186682716 -0.003042749019
633.75 -0.07796773905 0.0025021582
634.375 -0.0796102739 -0.004301643887
635.0 -0.08096345227 0.008644266921
635.625 -0.09037431035 0.03888473776
636.25 -0.09037306792 0.03648687213
636.875 -0.0707817309 0.01257502121
637.5 -0.07910870032 0.009706289294
638.125 -0.1094315106 0.01846101452
638.75 -0.1016217918 0.01392271772
639.375 -0.06496694724 -0.005503020936
640.0 -0.04766127771 -0.02935049899
640.625 -0.03872356758 -0.07437534756
641.25 -0.01691719347 -0.08292096215
641.875 -0.01464961577 -0.06952575056
642.5 -0.01557809571 -0.07641584359
643.125 0.01336083682 -0.1029817723
643.75 0.04214140219 -0.09297287853
644.375 0.009171696837 -0.08687261132
645.0 -0.01775731529 -0.09899477261
645.625 0.00092001129 -0.09625863625
646.25 0.02074267242 -0.07659507443
646.875 0.02541148149 -0.06996584579
647.5 0.01503851787 -0.09914969992
648.125 0.02770359456 -0.08532497259
648.75 0.04564051581 -0.0526635133
649.375 0.06774876078 -0.03860993912
650.0 0.1018108129 -0.03293872419
650.625 0.1085658245 -0.005125607608
651.25 0.09761940242 0.01324490825
651.875 0.1045712352 0.04901811008
652.5 0.08252551305 0.1072335829
653.125 0.0559461677 0.1016109701
653.75 0.05126749786 0.08822897342
654.375 0.03033866576 0.1014832353
655.0 -0.031150504 0.08339918853
655.625 -0.03734201501 0.04540030709
656.25 -0.0256566633 0.06223185321
656.875 -0.01805763739 0.1007834868
657.5 -0.05896636136 0.09097824132
658.125 -0.07128347505 0.06326589695
658.75 -0.05023373047 0.09649008522
659.375 -0.01842919654 0.1493935704
660.0 0.01362631692 0.1421996072
660.625 0.03833993361 0.1134254597
661.25 0.07174495543 0.10087945
661.875 0.09516428207 0.09496854198
662.5 0.08353435839 0.06565167062
663.125 0.06894844048 0.05792009169
663.75 0.0317430279 0.09788831803
664.375 -0.05409775679 0.07752139915
665.0 -0.07696344054 0.02832787828
665.625 -0.084977189 0.01109112542
666.25 -0.1285025058 -0.032773891
666.875 -0.09340238269 -0.09774260405
667.5 -0.07896151151 -0.08896909505
668.125 -0.1047700356 -0.0737786673
668.75 -0.1281691222 -0.08335286784
669.375 -0.07568092019 -0.08600003813
670.0 -0.04828122416 -0.06547708089
670.625 -0.06989136457 -0.07945833406
671.25 -0.09370590739 -0.08170760722
671.875 -0.07814574466 -0.06476535357
672.5 -0.07890717609 -0.03510767903
673.125 -0.111323921 -0.02093017926
673.75 -0.13366085 -0.03114129793
674.375 -0.1221782455 -0.04243743066
675.0 -0.1081349801 -0.07370967001
675.625 -0.06660502195 -0.1185612068
676.25 -0.01670004739 -0.1265366387
676.875 -0.01396747583 -0.1144591872
677.5 -0.0267841943 -0.1296538779
678.125 0.02313821553 -0.1102769459
678.75 0.0383279705 -0.05742347936
679.375 0.04789428966 -0.04464769726
680.0 0.06104043384 -0.08831134075
680.625 0.09619130839 -0.1062697668
681.25 0.06626030507 -0.09313125556
681.875 0.01920807415 -0.1136201871
682.5 -0.05197153447 -0.1520824426
683.125 -0.05321503761 -0.173206324
683.75 -0.004326548895 -0.1365588681
684.375 0.03866145248 -0.114548389
685.0 0.1234053368 -0.07324817759
685.625 0.1338275844 0.01888341631
686.25 0.09055712479 0.06021695511
686.875 0.05255598071 0.07531721745
687.5 -0.00215982745 0.09028298793
688.125 -0.03751003074 0.08576364509
688.75 -0.04957886332 0.1011076766
689.375 -0.08017037747 0.1314373762
690.0 -0.09872998707 0.1018317939
690.625 -0.07820680532 0.1009104119
691.25 -0.01725228134 0.145895057
691.875 0.078521584 0.1854385615
692.5 0.1206033537 0.09553948969
693.125 0.09188300954 -0.02972867739
693.75 0.06490389731 -0.07773151007
694.375 0.1077830181 -0.09870908817
695.0 0.1423701937 -0.0005511819718
695.625 0.07581705622 0.06918758376
696.25 -0.009328883743 0.1142900577
696.875 -0.1268656006 0.06097936213
697.5 -0.1404601942 -0.0520955075
698.125 -0.1183308836 -0.07538593577
698.75 -0.1229015201 -0.07009008798
699.375 -0.09879454465 -0.07146920198
700.0 -0.07318189546 -0.07464205078
700.625 -0.05627452842 -0.09989744615
701.25 -0.01258413602 -0.1159132323
701.875 -0.002680879403 -0.08442319324
702.5 -0.026345237 -0.08158429865
703.125 -0.1223741007 -0.07043104715
703.75 -0.2008891535 0.01516346744
704.375 -0.1235424818 0.07844628881
705.0 -0.07579319383 0.08258455187
705.625 -0.1199276269 0.06765719926
706.25 -0.1561475303 -0.06912734073
706.875 -0.01802703807 -0.1198555136
707.5 0.01180252385 -0.08546620139
708.125 0.0620337192 -0.06029786695
708.75 0.09929801334 0.01483700149
709.375 0.04949005717 0.08617977805
710.0 0.006698519367 0.08734325806
710.625 -0.02515809182 0.08938369735
711.25 -0.06105971757 0.07909574391
711.875 -0.07162604276 0.09604365747
712.5 -0.03170743846 0.144810346
713.125 0.08021523733 0.1307794934
713.75 0.1288594192 0.004982335199
714.375 0.09112020039 -0.075941853
715.0 0.07772407645 -0.1080136339
715.625 0.09246591733 -0.05057923291
716.25 0.06681696024 0.001614703234
716.875 0.05629881327 0.03527659281
717.5 0.03501658839 0.09875399503
718.125 -0.01940079276 0.1140736049
718.75 -0.03547748121 0.07935009101
719.375 -0.04180938556 0.06511121544
720.0 -0.09196873692 0.03230237513
720.625 -0.09023042776 -0.07364771909
721.25 0.01512228736 -0.1078113018
721.875 0.07034511003 -0.07740660783
722.5 0.08092749683 -0.05206937956
723.125 0.05077533401 -0.05228827781
723.75 0.02963063989 -0.0498293335
724.375 -0.004380473854 -0.06259767693
725.0 -0.03402643536 -0.0460496443
725.625 -0.04210191975 -0.031298958
726.25 -0.05340904056 -0.04031713317
726.875 -0.05403788247 -0.06812494769
727.5 -0.0369184995 -0.07717820172
728.125 -0.01653734916 -0.0680254138
728.75 -0.01226094299 -0.05601263678
729.375 -0.005852966303 -0.05503962901
730.0 -0.01006254461 -0.04804524515
730.625 -0.006030897136 -0.03623180548
731.25 0.008744702207 -0.02506736584
731.875 0.02338148063 -0.002687762365
732.5 0.008596139259 0.01859008793
733.125 -0.005957949914 0.03042112756
733.75 0.004755692155 0.0398868013
734.375 0.01925594208 0.03748613162
735.0 0.02677055453 0.009585155813
735.625 0.02293844377 -0.001042185955
736.25 0.01351775573 -0.01558802348
736.875 -0.006770627525 -0.01934753206
737.5 -0.03432627606 -0.01274374291
738.125 -0.04757784027 0.002049011069
738.75 -0.04179199727 0.01516332391
739.375 -0.02071018396 0.01971295777
740.0 -0.01093326373 -0.002569561033
740.625 -0.02688941085 -0.008850631478
741.25 -0.03067792153 -0.001606524226
741.875 -0.02054074398 -0.01883489801
742.5 0.01184021293 -0.02232427478
743.125 0.02825705933 0.01262936989
743.75 0.01615331866 0.0243848578
744.375 0.01381036746 0.02877536306
745.0 0.007848348005 0.03813912897
745.625 0.01069224521 0.05732717718
746.25 0.04518690336 0.05630288567
746.875 0.08055621174 0.00819988511
747.5 0.06141026954 -0.03376192676
748.125 0.03572756658 -0.04284897857
748.75 0.01129482469 -0.04597017216
749.375 -0.02436990217 -0.05155687957
750.0 -0.06659271087 -0.003212019522
