!Created with skrf (http://scikit-rf.org).
# GHz S RI R 50.0 
!freq ReS11 ImS11
500.0 -0.03330009054 0.03016880618
500.625 0.002702765713 0.0473265573
501.25 0.004957048705 0.03896412389
501.875 -0.002269678507 0.0581193132
502.5 -0.01657409971 0.07493996516
503.125 0.01156255298 0.06181984496
503.75 0.02241290586 0.04520187965
504.375 0.04664862944 0.03111350512
505.0 0.05945480665 0.007540746456
505.625 0.06774726405 -0.008210939487
506.25 0.04057330721 -0.001417372316
506.875 0.04585469316 0.01112043974
507.5 0.05072934414 0.008703611074
508.125 0.0431292454 0.03065798653
508.75 0.05315600261 -0.003179563941
509.375 0.05705806968 0.001998961108
510.0 0.06632761537 0.02461316472
510.625 0.02617033715 -0.04626004313
511.25 0.007008650332 -0.04015708894
511.875 -0.006948956682 -0.02135572128
512.5 -0.0054328978 -0.01087759903
513.125 -0.01960820855 -0.005965974613
513.75 -0.04017635413 -0.006102610146
514.375 -0.05372516444 0.02112134198
515.0 -0.0414665484 0.04489177734
515.625 -0.07926957572 0.005344556789
516.25 -0.03403333678 0.06678969954
516.875 -0.0635614065 0.04940720671
517.5 0.002661662018 0.04976609276
518.125 -0.01434341794 -0.007909479561
518.75 -0.02949301062 -0.006597268201
519.375 -0.03312956661 0.01619223436
520.0 -0.002196276568 0.03636245026
520.625 -0.01879349468 0.0148607667
521.25 -0.01751883982 0.0133912925
521.875 -0.001492365223 0.02084159197
522.5 0.02024447134 0.008597971829
523.125 -0.008849734942 -0.01586784834
523.75 -0.03039496119 -0.05139446439
524.375 -0.05326949536 -0.05757862613
525.0 -0.05099920488 -0.01803669674
525.625 -0.0721839577 0.009458150925
526.25 -0.05192907546 0.009562465515
526.875 -0.0357390502 0.01489556519
527.5 -0.03026254877 0.03053855949
528.125 -0.0091871793 0.06186077708
528.75 0.003623274399 0.05016748092
529.375 0.02162916529 0.04376280196
530.0 0.05663170543 0.04345709991
530.625 0.09543809263 -0.03918961822
531.25 0.09871774878 -0.08507052262
531.875 0.05481343054 -0.08174416351
532.5 0.02141336058 -0.05250616269
533.125 0.04537330672 -0.0388524215
533.75 0.01913515309 -0.05376559707
534.375 0.01595994301 -0.03924509045
535.0 0.02217158561 -0.02291115232
535.625 0.04808837202 -0.004499445101
536.25 0.02730242376 -0.03969449576
536.875 0.03954165586 -0.06107628389
537.5 0.04626312514 -0.05072173389
538.125 0.008051470119 -0.03407441877
538.75 0.0139099196 -0.02159413577
539.375 0.05939576604 -0.02420600878
540.0 0.07394531455 -0.05187582862
540.625 0.05218048497 -0.05902668693
541.25 0.03338406986 -0.04661296196
541.875 0.04099182807 -0.05105766798
542.5 0.03507245929 -0.05881053108
543.125 -0.007598581828 -0.05444732689
543.75 -0.0248843597 -0.00284397711
544.375 0.008218122054 -0.001875668329
545.0 -1.738515968e-05 -0.0227964842
545.625 -0.04384507293 -0.02912124257
546.25 -0.03743460005 -0.01479746901
546.875 -0.02538862775 -0.006331458751
547.5 -0.02628742575 -0.008977135173
548.125 -0.03514019944 -0.0175479076
548.75 -0.01147790753 -0.03181155985
549.375 0.005841511342 -0.04843208743
550.0 0.03498257875 -0.04335304625
550.625 0.03956553472 -0.08041496567
551.25 0.08078296882 -0.06210224568
551.875 0.04227775572 -0.07570788503
552.5 0.01383220313 -0.07560516625
553.125 -0.01090187423 -0.08758869002
553.75 -0.008901429167 -0.07410712733
554.375 -0.03307359293 -0.05158447574
555.0 -0.02959891859 -0.03891812098
555.625 -0.029914568 -0.04595617321
556.25 -0.02053580743 -0.03920662281
556.875 -0.02913486723 -0.02809171786
557.5 -0.01730801467 -0.0223355364
558.125 0.002194479866 -0.012084004
558.75 0.01767549915 0.0004808145569
559.375 0.02983040516 -0.005240450845
560.0 0.05682860491 -0.01830863794
560.625 0.05901597218 -0.05578888529
561.25 0.02096070686 -0.06839972311
561.875 -0.01211869625 -0.0554344829
562.5 -0.02840734551 -0.04819443668
563.125 -0.04664821676 -0.04229949626
563.75 -0.04297235994 -0.005037450489
564.375 -0.02418334297 0.003154406716
565.0 -0.006592305741 -0.01357451649
565.625 -0.01500066564 -0.03360973763
566.25 -0.006128397089 -0.04324468919
566.875 0.003779922011 -0.03696772122
567.5 0.01177907873 -0.03059987365
568.125 0.0140528305 -0.02392430994
568.75 0.03838581571 -0.02228627271
569.375 0.05663580358 -0.0111282198
570.0 0.0634423275 -0.02744081968
570.625 0.03901123528 -0.05146378684
571.25 0.03444249147 -0.06074966593
571.875 0.0289466648 -0.0592272081
572.5 -0.01115337714 -0.06432803411
573.125 -0.04714329672 -0.03955150488
573.75 -0.042234599 -0.01562124476
574.375 -0.01162946211 -0.02959297373
575.0 -0.02478844532 -0.0345107746
575.625 -0.04543167859 -0.01449004948
576.25 -0.03910282577 -0.00325855266
576.875 -0.01725569436 -0.01186347212
577.5 -0.001756295217 -0.01539045685
578.125 -0.01035664649 -0.02224432138
578.75 0.0008490896317 -0.03536076289
579.375 0.005986214919 -0.04003192536
580.0 0.005299399323 -0.05299404629
580.625 -0.005540842018 -0.07116984842
581.25 -0.02798288996 -0.0734485559
581.875 -0.04340400319 -0.04757483322
582.5 -0.04386205405 -0.03449312949
583.125 -0.01469827234 -0.03701204623
583.75 -0.01882389252 -0.04570149021
584.375 -0.01225651169 -0.03946666652
585.0 -0.008078006942 -0.03596083352
585.625 0.01000612043 -0.02875453726
586.25 0.01661896962 -0.02967835373
586.875 0.01014317072 -0.02969671978
587.5 -0.003583496062 -0.03166254086
588.125 0.003195457189 -0.03284260678
588.75 0.00270573806 -0.03903861223
589.375 -0.007202668012 -0.05423316137
590.0 -0.04247011022 -0.05587048922
590.625 -0.06526684927 -0.02953543282
591.25 -0.06260859481 0.0111433669
591.875 -0.03342426604 0.009226259437
592.5 -0.008538162892 -0.007755699746
593.125 -0.006834800911 -0.01918144552
593.75 -0.01643175052 -0.004711685902
594.375 0.004641879904 -0.01998524113
595.0 0.02895543329 -0.0229993273
595.625 0.04091567416 -0.02269488854
596.25 0.02189424645 -0.02712320869
596.875 0.03904123849 -0.01846735357
597.5 0.04642007898 0.005310246715
598.125 0.04977873277 2.910409334e-07
598.75 0.05565936186 -0.022264269
599.375 0.06119533318 -0.03390349648
600.0 0.05257734082 -0.04044082651
600.625 0.03715712121 -0.04034985333
601.25 0.001625021785 -0.04718220051
601.875 0.008180128102 -0.02532559513
602.5 0.01122753169 -0.004365818954
603.125 0.00816598533 0.003273178166
603.75 0.004781348703 0.006958056699
604.375 0.02794868618 0.02437925505
605.0 0.02914721541 0.02101404089
605.625 0.0169166844 0.01062678026
606.25 -0.001269771568 0.02433297939
606.875 -0.01329594188 0.03733626812
607.5 0.00574709964 0.04905606278
608.125 0.03637646074 0.0478631933
608.75 0.02539058028 0.02378845373
609.375 0.02283544483 0.0441907151
610.0 0.0229038435 0.04570175002
610.625 0.02775068817 0.03495134571
611.25 0.01682979334 0.02607894713
611.875 0.002413616573 0.00758219299
612.5 -0.01174212982 0.0009566423516
613.125 -0.03081061563 0.01132474771
613.75 -0.04006374607 0.01986496649
614.375 -0.0183126739 0.009198292766
615.0 -0.01460387852 0.01154074349
615.625 -0.03743263038 0.01430139933
616.25 -0.04332919581 0.01980179379
616.875 -0.02437524474 0.01907971
617.5 -0.01358331173 0.01790082477
618.125 -0.02460960241 0.01352999143
618.75 -0.02340005494 0.01100206457
619.375 -0.003356228338 -0.0001061695839
620.0 0.0009278544912 -0.005622239128
620.625 -0.001265720756 -0.0225047386
621.25 -0.008955165734 -0.0379646183
621.875 -0.009868069837 -0.06594707091
622.5 -0.06796448367 -0.02028911254
623.125 -0.07881946517 0.01902203065
623.75 -0.05756433803 0.02544824518
624.375 -0.03980204648 -0.004527926595
625.0 -0.04957552404 -0.01665418194
625.625 -0.04961655263 -0.01087746502
626.25 -0.03184321414 0.01251821708
626.875 -0.01184026725 0.01136949362
627.5 0.007446188794 -0.008482264461
628.125 0.01474648021 -0.01719413293
628.75 0.01470440064 -0.01382106196
629.375 0.02228522683 -0.01362682871
630.0 0.05938615957 -0.001271220373
630.625 0.05068903529 -0.01779259858
631.25 0.05401261436 -0.02720554822
631.875 0.05203232891 -0.02909715273
632.5 0.04294362186 -0.03355824698
633.125 0.0384854188 -0.03247321605
633.75 0.03338393018 -0.03559341327
634.375 0.03069825224 -0.02567929156
635.0 0.02172789947 -0.01441571748
635.625 0.007020347921 -0.01879052947
636.25 0.02471221449 -0.01402002179
636.875 0.03933047437 -0.003824402847
637.5 0.02402526439 -0.01941534534
638.125 0.01962639249 0.004154052483
638.75 0.02139612693 0.02181541743
639.375 0.0262548296 0.04623132879
640.0 0.0285791577 0.04495732885
640.625 0.02024468293 0.05322608971
641.25 0.00682413985 0.03905487165
641.875 0.00462947579 0.03202430476
642.5 -0.003729506258 0.03589001245
643.125 -0.005697386743 0.03771074228
643.75 -0.01067541663 0.0317662074
644.375 -0.01441864797 0.01891539345
645.0 -0.02208197691 0.03101976797
645.625 -0.05595672191 0.05449146191
646.25 -0.0309106712 0.05408025479
646.875 -0.003186816348 0.04437137254
647.5 -0.01026378033 0.03693731344
648.125 -0.05120426791 0.04500655257
648.75 -0.03934661443 0.03926254804
649.375 -0.01905097243 0.04486438136
650.0 -0.01596978588 0.02707165676
650.625 -0.0223048642 -0.001261712509
651.25 -0.01451084836 -0.007160364266
651.875 -0.01150772148 -0.006527767172
652.5 0.01172068875 -0.02148048968
653.125 0.03448796112 -0.02470273426
653.75 0.04971447094 -0.03367932046
654.375 0.05632286074 -0.04226523439
655.0 0.06455198095 -0.04473602639
655.625 0.05495120697 -0.04844672174
656.25 0.02379672535 -0.05555495329
656.875 0.008215764563 -0.05674720966
657.5 0.02671569727 -0.04764699684
658.125 0.007408851227 -0.04071414165
658.75 -0.001068273587 -0.03841583428
659.375 0.002943896105 -0.01411416781
660.0 0.02645627741 -0.01240292819
660.625 0.03030379141 -0.01933973205
661.25 0.02499252542 -0.05228350165
661.875 0.02177371363 -0.06511523693
662.5 0.01204724585 -0.0667405485
663.125 0.006375293511 -0.06896810051
663.75 0.02937996869 -0.07571675151
664.375 0.05276864099 -0.04355600599
665.0 0.05227313974 -0.0129615156
665.625 0.06421549985 -0.0007974627741
666.25 0.05131297053 0.0184536662
666.875 0.01931661194 0.02051039381
667.5 0.0006287387029 0.01851614546
668.125 -0.005390333991 0.03978154477
668.75 -0.01483824993 0.05712636526
669.375 -0.008691873783 0.0543601466
670.0 9.947129966e-06 0.04919601572
670.625 -0.005198520556 0.05579133873
671.25 -0.001372289306 0.06090715793
671.875 0.01959034924 0.05360384891
672.5 0.05216200547 0.03056253442
673.125 0.04662554816 0.01663131293
673.75 0.02356696965 0.02581277975
674.375 0.00458646779 0.02478611298
675.0 -0.002196875837 0.03932030797
675.625 -0.02601526865 0.05399911427
676.25 -0.05128623243 0.02615832222
676.875 -0.04770439026 0.01436019742
677.5 -0.06947659199 0.02796828258
678.125 -0.08836084122 0.04566858241
678.75 -0.06698022087 0.03833255271
679.375 -0.03833830707 0.04393254847
680.0 -0.03647744206 0.03465756228
680.625 -0.03447821949 0.02202527381
681.25 -0.03005602088 0.02544851719
681.875 -0.004517793145 0.02424894066
682.5 -0.01802148508 0.005278997649
683.125 -0.0520003122 0.01221665378
683.75 -0.05987898492 0.01772532206
684.375 -0.06045788137 -0.001946885171
685.0 -0.04470463649 -0.04792366878
685.625 0.002569574494 -0.07740220973
686.25 0.01839682158 -0.08049135338
686.875 0.02016322033 -0.09779623253
687.5 0.0274397138 -0.06639118753
688.125 0.02095078388 -0.04868287694
688.75 0.01567493864 -0.0324848509
689.375 0.03668053944 -0.026790401
690.0 0.04122678687 0.005561839959
690.625 0.02370873676 0.008883716672
691.25 0.03835936383 0.007531459041
691.875 0.06529392068 -0.03521881097
692.5 0.04953938693 -0.09199075944
693.125 -0.04895456732 -0.06879606832
693.75 -0.08375702942 -0.01555038812
694.375 -0.07410244112 -0.01083925984
695.0 -0.06435068105 -0.03839154517
695.625 -0.02734800617 -0.05762897056
696.25 0.03448106652 -0.03560217111
696.875 0.03093007443 0.01910898424
697.5 0.003267294041 0.02921087857
698.125 -0.01619944863 0.03691873452
698.75 -0.03564494876 0.05144851686
699.375 -0.04027960465 0.0552399462
700.0 -0.02549982045 0.05224496208
700.625 -0.04112123672 0.04423692528
701.25 -0.05707926722 0.0484160581
701.875 -0.03866950701 0.04835423183
702.5 0.02157676715 0.04917724378
703.125 0.02067867978 0.01972796031
703.75 -0.01050341044 0.04441560493
704.375 0.02431813084 0.06504374325
705.0 0.04843371598 0.04323295819
705.625 0.03578651651 0.04930534338
706.25 -0.03171237031 0.05942539036
706.875 -0.07351080181 0.02285731234
707.5 -0.08580659173 -0.009194820017
708.125 -0.08496325099 -0.02110117105
708.75 -0.03610059752 -0.04192243289
709.375 -0.001821154374 -0.03833736946
710.0 0.03411320217 -0.02955873987
710.625 0.04112293364 -0.02084537626
711.25 0.02097898151 -0.002707069526
711.875 0.009050271229 0.007306964006
712.5 0.03583670626 0.03057168922
713.125 0.06550692909 -0.01846229261
713.75 0.0304457219 -0.0728227559
714.375 -0.02637182108 -0.07769362532
715.0 -0.06479273052 -0.06299431276
715.625 -0.06471422668 -0.06417807958
716.25 -0.03576280671 -0.0577758098
716.875 0.002337315699 -0.0482202966
717.5 0.02850023502 -0.02756854202
718.125 0.04053579339 0.001545352228
718.75 0.02963188093 -0.01630309103
719.375 0.03135326104 0.01128049418
720.0 -0.007159187698 0.03506729022
720.625 -0.042388559 0.009826981374
721.25 -0.03499500477 -0.01749128599
721.875 -0.01422890633 -0.08159434657
722.5 -0.002371681945 -0.08483495815
723.125 -0.0429288165 -0.06061282989
723.75 -0.05068420438 0.024396265
724.375 -0.03678462596 0.02532763235
725.0 -0.03200986045 0.01581838178
725.625 -0.01048570352 0.02054307254
726.25 -0.01480412108 0.01448417577
726.875 -0.04908996987 0.0003623035418
727.5 -0.06543021759 -0.02830914519
728.125 -0.05903751327 -0.02623391479
728.75 -0.06046732034 -0.0212059309
729.375 -0.01864351626 0.007204968315
730.0 -0.03372027235 -0.008685674922
730.625 -0.04967273164 -0.0293770111
731.25 -0.02712048535 -0.0408432683
731.875 -0.003170463154 -0.02412300549
732.5 0.01770104096 -0.01783423102
733.125 0.02967045961 0.01395049794
733.75 0.04870352431 0.03223315106
734.375 0.02510635889 0.01895364609
735.0 0.04091067699 -0.01109471383
735.625 0.05605919467 -0.04541307513
736.25 0.04649810613 -0.05697142543
736.875 0.004367922936 -0.03894674682
737.5 -0.004117583243 -0.03330749428
738.125 0.01742286209 -0.006492336972
738.75 0.01889084355 0.04053826071
739.375 0.01666233712 0.04387596569
740.0 0.04815446579 0.02724700332
740.625 0.04253532856 0.01132954458
741.25 0.03311203529 0.0187675917
741.875 0.0142977778 0.04318719589
742.5 -0.03526702314 0.01208323798
743.125 -0.03780489382 -0.02295556316
743.75 -0.02188599304 -0.04156032818
744.375 -0.03006790834 -0.05440177685
745.0 -0.01715854516 -0.04871762834
745.625 -0.05129758154 -0.02935384595
746.25 -0.02716463884 0.01225593883
746.875 -0.006839145005 0.007961794254
747.5 -0.005172486564 -0.03284648112
748.125 -0.03041828002 -0.01340517855
748.75 -0.03143240684 0.02162529529
749.375 -0.008455104763 0.03890840914
750.0 0.03605189577 0.03799215225
