!Created with skrf (http://scikit-rf.org).
# GHz S RI R 50.0 
!freq ReS11 ImS11
500.0 -0.03421477319 0.02725997954
500.625 1.413445877e-05 0.04343580054
501.25 0.006344942451 0.04142284961
501.875 -0.02817910326 0.04930629793
502.5 -0.01934872857 0.07623273326
503.125 0.008747448012 0.06104833112
503.75 0.01596859904 0.04453664927
504.375 0.0328961073 0.033935661
505.0 0.06318268528 0.006237291583
505.625 0.06626909142 -0.006844247308
506.25 0.0463800369 -0.01257827682
506.875 0.04365170334 0.01424745811
507.5 0.04566954502 0.01527421585
508.125 0.0459572675 0.02981970786
508.75 0.03714754945 0.03380640847
509.375 0.04585721576 0.02089686277
510.0 0.06027832616 0.03191491043
510.625 0.02654578228 -0.04456677858
511.25 0.01798882704 -0.030090104
511.875 -0.005940986254 -0.01784142764
512.5 -0.008972913206 -0.01202172212
513.125 -0.01881241645 -0.01010894375
513.75 -0.04047486082 -0.03803992234
514.375 -0.05466047261 0.01869364174
515.0 -0.04222381437 0.04312819834
515.625 -0.06967442913 0.01859690402
516.25 -0.04407100726 0.05562645862
516.875 -0.0605456777 0.04413296612
517.5 -0.001317021365 0.04534583019
518.125 -0.01688582901 0.01395037902
518.75 -0.02474546271 -0.004273538122
519.375 -0.03111827024 0.0211091098
520.0 -0.003776048603 0.03422348973
520.625 -0.006067669519 0.01482503009
521.25 -0.006485637973 0.01630762836
521.875 -0.002407268237 0.01826104758
522.5 0.01517919257 0.008688632887
523.125 0.01099259834 -0.02082217904
523.75 -0.07074857665 -0.05206480304
524.375 -0.07205658209 -0.06881339759
525.0 -0.05109360895 -0.01960151328
525.625 -0.07389796629 0.003173121759
526.25 -0.0582011683 0.001025613024
526.875 -0.03075623857 0.01611278142
527.5 -0.03085798786 0.02919086978
528.125 -0.01103703799 0.05494393911
528.75 0.004991472147 0.04259447695
529.375 0.02059288059 0.03697403989
530.0 0.05393490172 0.04488994578
530.625 0.11314398 -0.03425764412
531.25 0.117679269 -0.07526857345
531.875 0.04262795262 -0.08518448836
532.5 0.02535079017 -0.04793064893
533.125 0.03983456671 -0.03281000807
533.75 0.02098987047 -0.04760067666
534.375 0.007946964443 -0.035043203
535.0 0.02270888033 -0.01908730235
535.625 0.0416560479 -0.0005631853637
536.25 0.03632098562 -0.04263707914
536.875 0.04295157459 -0.05962560478
537.5 0.04390516045 -0.0470725233
538.125 0.02209617748 -0.03607502662
538.75 0.0261512778 -0.02366592961
539.375 0.05003103369 -0.02111107862
540.0 0.07331837154 -0.04745946748
540.625 0.06747262658 -0.06016436596
541.25 0.04805178005 -0.04339492029
541.875 0.0463525021 -0.04914023534
542.5 0.03073082259 -0.05432959303
543.125 0.002728231855 -0.05507894367
543.75 -0.01141615905 -0.01222736047
544.375 0.00647682935 0.004361413587
545.0 0.003170088304 -0.02270300534
545.625 -0.0309360057 -0.0292702491
546.25 -0.04035465857 -0.0204044214
546.875 -0.02415379815 -0.009979199574
547.5 -0.0237887479 -0.01126512018
548.125 -0.04952675881 -0.02513506393
548.75 -0.0173564383 -0.05327506747
549.375 0.01004100743 -0.04052845199
550.0 0.03838895083 -0.04150589718
550.625 0.04996516612 -0.07286117456
551.25 0.0819000639 -0.06070263983
551.875 0.04146055131 -0.06859091514
552.5 0.01682274229 -0.07501808897
553.125 -0.006121409834 -0.08739885041
553.75 -0.00436094088 -0.07742819828
554.375 -0.02995209426 -0.04809277969
555.0 -0.02620483107 -0.0366476192
555.625 -0.02113167502 -0.03871931607
556.25 -0.01911746993 -0.04743826071
556.875 -0.02705078176 -0.03298599458
557.5 -0.01521920376 -0.01924388427
558.125 0.005994272574 -0.008846441261
558.75 0.02050928949 0.00213268453
559.375 0.03066126638 0.0009144848117
560.0 0.05862343918 -0.01396989318
560.625 0.05897057084 -0.04467353551
561.25 0.02260899354 -0.06132212187
561.875 -0.009489165416 -0.05422171924
562.5 -0.02712276764 -0.05150163238
563.125 -0.03676992116 -0.03787223241
563.75 -0.03722277557 -0.007437140307
564.375 -0.01676213585 0.003951721186
565.0 -0.003271396743 -0.01512805811
565.625 -0.00336582232 -0.03320473951
566.25 0.003973749149 -0.03889138299
566.875 0.007259662315 -0.03731313901
567.5 0.01297870746 -0.03101515255
568.125 0.01888737263 -0.01922810541
568.75 0.03948536682 -0.02791231424
569.375 0.06293426375 -0.02165086311
570.0 0.06151018763 -0.02226726976
570.625 0.04296006026 -0.04487324442
571.25 0.03372262509 -0.06308181433
571.875 0.03227253802 -0.06597120033
572.5 -0.01022189461 -0.06473915146
573.125 -0.04133797797 -0.03762767724
573.75 -0.04826201865 -0.02039925191
574.375 -0.01228244593 -0.03433201217
575.0 -0.02438698329 -0.0364219246
575.625 -0.03604471167 -0.01734818252
576.25 -0.02832908482 -0.009120369672
576.875 -0.008179976205 -0.00901790986
577.5 0.001568180709 -0.01614708491
578.125 0.0004036136383 -0.02603104942
578.75 -0.002646225599 -0.03533327249
579.375 0.00703780125 -0.04048644251
580.0 0.005535417739 -0.05270051133
580.625 0.001852516933 -0.07123641058
581.25 -0.04070512138 -0.07372577601
581.875 -0.04892277293 -0.04880278444
582.5 -0.03515328159 -0.03507899208
583.125 -0.0104547261 -0.03684137869
583.75 -0.009681098312 -0.0430825202
584.375 -0.01085691543 -0.03892094619
585.0 -0.003940178929 -0.03388994875
585.625 0.01328942101 -0.02691219332
586.25 0.01315444234 -0.03314879452
586.875 0.004653361101 -0.03245755559
587.5 0.001225463518 -0.02989377481
588.125 0.006891554201 -0.0319227029
588.75 0.006699547812 -0.03912858379
589.375 -0.008451930457 -0.05326623527
590.0 -0.03592906637 -0.05918732064
590.625 -0.05990458348 -0.03312168743
591.25 -0.05498442208 0.001196533644
591.875 -0.0287086547 0.005227705051
592.5 -0.005268747177 -0.009295698874
593.125 -0.002190898842 -0.02165256451
593.75 -0.01279543783 -0.01317689506
594.375 0.008542610634 -0.02382961043
595.0 0.03840383439 -0.01968703874
595.625 0.04382922255 -0.01913271417
596.25 0.03377937218 -0.02436514536
596.875 0.03550223212 -0.0153193739
597.5 0.04565257925 0.008977842288
598.125 0.04924784858 0.00260753388
598.75 0.03840476734 -0.02486786176
599.375 0.04865327577 -0.04097457704
600.0 0.05544951703 -0.0312874633
600.625 0.03674703998 -0.03807970913
601.25 0.01059719388 -0.04287697528
601.875 0.009307151356 -0.02290092085
602.5 0.01063862773 -0.0004008419712
603.125 0.008527978316 0.007265544283
603.75 0.01398208809 0.01798141914
604.375 0.01160324496 0.009100672448
605.0 0.02330895455 0.01417929289
605.625 0.01611884939 0.01830047899
606.25 -0.003819854341 0.02541659557
606.875 -0.01425256218 0.02267186822
607.5 0.006011181155 0.04948442779
608.125 0.02993144851 0.04566739114
608.75 0.02902659487 0.04046915984
609.375 0.01787123826 0.02530141317
610.0 0.02095931615 0.03891724869
610.625 0.02364653119 0.0377563466
611.25 0.01234492633 0.02618502682
611.875 0.01027753777 -0.009192163681
612.5 -0.008016280153 -0.001462608041
613.125 -0.03648910076 0.01098831666
613.75 -0.04402407589 0.01764577475
614.375 -0.02964265958 0.01668513771
615.0 -0.02158420285 0.01374055511
615.625 -0.0386118596 0.01085971662
616.25 -0.03858818555 0.01302002608
616.875 -0.03358325359 0.02527167194
617.5 -0.02409717694 0.02256025858
618.125 -0.02873241997 0.009181927692
618.75 -0.02113393501 0.006827458481
619.375 -0.01627240432 0.008564699735
620.0 -0.001496956948 -0.002422424418
620.625 -0.008649306321 -0.02497171463
621.25 -0.008071662089 -0.03953201025
621.875 -0.02059339281 -0.05574072678
622.5 -0.07693789346 -0.01224070208
623.125 -0.07793346985 0.01519850203
623.75 -0.05589408236 0.02086872289
624.375 -0.04962727565 0.006479238672
625.0 -0.02212683438 -0.02457194784
625.625 -0.03816532441 -0.01199729635
626.25 -0.03309144454 0.0122022692
626.875 -0.01124524269 0.01059392561
627.5 0.0324169585 -0.004566376744
628.125 0.01957107323 -0.009708426745
628.75 0.01101887949 -0.01888669016
629.375 0.02533773865 -0.01158201105
630.0 0.05029528251 -0.002594813385
630.625 0.06080858654 -0.003103540706
631.25 0.05760505773 -0.01787040151
631.875 0.05278144828 -0.02698057444
632.5 0.04898347113 -0.01633280609
633.125 0.03772905344 -0.02444259919
633.75 0.03372749326 -0.03718257925
634.375 0.03120844742 -0.02451505757
635.0 0.01531311008 -0.02148477458
635.625 0.02265657934 -0.00430237369
636.25 0.02954731836 -0.0008699428924
636.875 0.04015283109 -0.00282270674
637.5 0.02367395546 -0.01623174851
638.125 0.01675330207 0.007606917673
638.75 0.01740971824 0.03802306615
639.375 0.02835505402 0.04381849531
640.0 0.02707879266 0.04543758832
640.625 0.01722965221 0.04564229787
641.25 0.0141547322 0.03206692049
641.875 0.008074899026 0.02997801459
642.5 -0.003865832431 0.03544255756
643.125 -0.02889582357 0.04164490948
643.75 -0.0221707475 0.02135131171
644.375 -0.01017362889 0.01908962579
645.0 -0.02602600751 0.03010249708
645.625 -0.05231358956 0.04468347968
646.25 -0.02968187933 0.04780606203
646.875 -0.004911499891 0.04315480825
647.5 -0.01094283085 0.03513136854
648.125 -0.04128826494 0.03521945639
648.75 -0.0437854722 0.03604653856
649.375 -0.02054502228 0.04223064542
650.0 -0.01843889796 0.02149431771
650.625 -0.01690486403 0.001961508179
651.25 -0.01699604057 -0.02035877533
651.875 -0.008201399314 -0.01513236677
652.5 0.01093514699 -0.0190798679
653.125 0.03690000839 -0.02299597951
653.75 0.053102326 -0.03749995722
654.375 0.05474023963 -0.04000516547
655.0 0.06339000396 -0.04154348772
655.625 0.04673012706 -0.04461401086
656.25 0.03651327251 -0.06057676153
656.875 0.01705508487 -0.05684915484
657.5 0.0275311646 -0.04658725068
658.125 0.00851558797 -0.03771054728
658.75 0.003233704983 -0.03559319611
659.375 0.0164509608 -0.01284176598
660.0 0.02419124099 -0.007821200867
660.625 0.03101116116 -0.01685903865
661.25 0.03081602596 -0.04491663632
661.875 0.02376728391 -0.05461863517
662.5 0.01032910818 -0.06053223105
663.125 0.008063665865 -0.06654566311
663.75 0.03680350691 -0.07577494784
664.375 0.0671541809 -0.03285132833
665.0 0.05387008969 -0.008331564698
665.625 0.05363820506 0.001155467161
666.25 0.03601158127 0.01293218958
666.875 0.01586014159 0.01685345136
667.5 -0.001968349809 0.01995184665
668.125 -0.01247188977 0.03044282447
668.75 -0.01630557101 0.05256075002
669.375 -0.01398119398 0.05889147168
670.0 -0.003980101034 0.05181049216
670.625 -0.009877904688 0.04467065237
671.25 -0.00765686587 0.07690272522
671.875 0.01341568556 0.06382205735
672.5 0.04613318468 0.02518327047
673.125 0.03623166876 0.01511634626
673.75 0.01295458332 0.02240937178
674.375 0.001399484319 0.0252954431
675.0 -0.007377458065 0.03808413825
675.625 -0.03079497205 0.03819361287
676.25 -0.04690561511 0.01410863701
676.875 -0.04957057547 0.01164130275
677.5 -0.07265553061 0.02507473549
678.125 -0.08165910981 0.03402134644
678.75 -0.07301745939 0.03475948879
679.375 -0.04835417313 0.04571547214
680.0 -0.03487850306 0.03231943589
680.625 -0.03538830232 0.01636098162
681.25 -0.0230261542 0.01656606504
681.875 -0.005059959154 0.01439268427
682.5 -0.02200585669 0.0020370368
683.125 -0.05531028571 0.01207416287
683.75 -0.05734283599 0.008253823351
684.375 -0.06812222014 0.001839888331
685.0 -0.04327064377 -0.05408052187
685.625 0.006726459305 -0.07844002251
686.25 0.02227646767 -0.07991838785
686.875 0.02680735628 -0.1008824748
687.5 0.04095633735 -0.07424147199
688.125 0.01762137344 -0.04514911578
688.75 0.01802784205 -0.0281952335
689.375 0.03890780038 -0.01941398288
690.0 0.02970754397 0.0163401781
690.625 0.01973097312 0.01412621343
691.25 0.03851486508 0.01443383334
691.875 0.07355852452 -0.01546050899
692.5 0.05723499874 -0.07696518491
693.125 -0.04943265356 -0.07248985179
693.75 -0.07853724726 -0.0188638739
694.375 -0.067250305 -0.01726815627
695.0 -0.05593450492 -0.04403017138
695.625 -0.01446975675 -0.0540955491
696.25 0.0322198472 -0.02458635776
696.875 0.02679936062 0.02320348198
697.5 -0.006608532474 0.02562468665
698.125 -0.008833430484 0.04060382416
698.75 -0.04169874929 0.04697542092
699.375 -0.0434510713 0.05182000856
700.0 -0.02761542498 0.05145508034
700.625 -0.04190035052 0.05111303036
701.25 -0.0585736349 0.03353436068
701.875 -0.0378030212 0.04166015292
702.5 0.01439718905 0.04293888569
703.125 0.002068232657 0.01663755613
703.75 -0.01243459846 0.04691219128
704.375 0.02367225472 0.06520432091
705.0 0.04258716151 0.04935224678
705.625 0.03500405229 0.05181660358
706.25 -0.02931756253 0.06614429555
706.875 -0.07371713855 0.01124425701
707.5 -0.08325354462 -0.01531226407
708.125 -0.07256257122 -0.03219367789
708.75 -0.02844681629 -0.03982764395
709.375 0.006368094834 -0.03193562351
710.0 0.03686330683 -0.02056812899
710.625 0.03595903251 -0.0005748623289
711.25 0.01632170516 0.003646740674
711.875 0.008957093876 0.01117116285
712.5 0.03613420417 0.03599064895
713.125 0.07243043571 -0.01858229872
713.75 0.04374313933 -0.06868332128
714.375 -0.02112811605 -0.07925146291
715.0 -0.05884203949 -0.06684895273
715.625 -0.04250147679 -0.07258326808
716.25 -0.04693450489 -0.05400555966
716.875 -0.009234753155 -0.04999216207
717.5 0.03462576973 -0.01103980374
718.125 0.03765469645 0.01026302881
718.75 0.03538730567 0.001313066968
719.375 0.02842784226 0.01657711872
720.0 -0.002907946826 0.02469232926
720.625 -0.03950418907 0.006406485429
721.25 -0.04532736336 -0.03388713954
721.875 -0.01652155817 -0.07493065077
722.5 0.01437114797 -0.08281491682
723.125 -0.03831890203 -0.06072890276
723.75 -0.05547401557 0.004450286402
724.375 -0.04666197082 0.002924030204
725.0 -0.03113193178 0.009809899958
725.625 -0.007577764522 0.01582945692
726.25 -0.02167761382 0.01203143851
726.875 -0.01598750507 -0.006005494873
727.5 -0.05248024621 -0.02332511608
728.125 -0.06079489726 -0.03923835294
728.75 -0.05821654785 -0.03082969144
729.375 -0.03258917588 -0.005054792621
730.0 -0.04314712304 -0.01859152693
730.625 -0.04168696633 -0.02577054384
731.25 -0.02195162523 -0.03297650007
731.875 0.009300914165 -0.03097598125
732.5 -0.005085893775 -0.00142315804
733.125 0.01704741277 0.0138848
733.75 0.03750155681 0.03498248738
734.375 0.04407814905 0.02015716341
735.0 0.05785587492 -0.01858106044
735.625 0.06723130682 -0.04091491728
736.25 0.04436234736 -0.04663583727
736.875 0.0180300324 -0.04708669551
737.5 0.0002621487641 -0.03148388967
738.125 0.006201762283 0.006351987545
738.75 0.005833366986 0.04219178148
739.375 0.02770581637 0.05230382082
740.0 0.0134217102 0.03193053887
740.625 0.02880574112 0.01207421719
741.25 0.04036239306 0.0271865312
741.875 0.01092136395 0.04681211789
742.5 -0.0366970906 0.02662434752
743.125 -0.0363127072 -0.02577226991
743.75 -0.02401730519 -0.04906144071
744.375 -0.02471528027 -0.05468808464
745.0 -0.001011546924 -0.04192689152
745.625 -0.0296491257 -0.01910597098
746.25 -0.03217696821 0.01199183134
746.875 -0.007242417972 0.00460212884
747.5 -0.01069801951 -0.02276663722
748.125 -0.02784368616 -0.02502641069
748.75 -0.03533397155 0.008201276276
749.375 -0.004537384846 0.04608779539
750.0 0.03124392538 0.04163002822
