!Created with skrf (http://scikit-rf.org).
# GHz S RI R 50.0 
!freq ReS11 ImS11
500.0 -0.006203579347 -0.01026954807
500.625 0.01853681843 0.009310270072
501.25 0.004515920255 -0.0137221543
501.875 -0.03939845959 -0.03459224567
502.5 -0.03147028005 -0.01785164349
503.125 -0.01324023835 0.005913126474
503.75 -0.02156563343 -0.001799171889
504.375 -0.0173753593 -0.002259721308
505.0 0.002840375702 -0.009713693445
505.625 -0.004469925732 -0.01237081116
506.25 -0.03446893638 -0.01696117256
506.875 -0.04838141476 -0.04750861687
507.5 -0.01770101272 -0.06190031171
508.125 -0.0041918285 -0.05745634936
508.75 -0.07135649551 -0.01242943219
509.375 -0.06096723866 -0.006839072094
510.0 -0.02490396682 -0.05586169307
510.625 -0.03195811752 -0.002819971038
511.25 -0.03686568103 0.03164191375
511.875 -0.02276199656 0.04531860333
512.5 -0.0004186519692 0.04085741854
513.125 0.04944155713 0.01006412698
513.75 0.06924860267 -0.01145869032
514.375 0.03754067537 -0.01818813285
515.0 0.0471872574 -0.02555325012
515.625 0.05497915395 -0.01777698857
516.25 0.07027199519 -0.001302548435
516.875 0.05173316327 0.058013874
517.5 0.1319320113 0.01601714806
518.125 0.1309445206 0.1221972856
518.75 0.07472710363 -0.03868162167
519.375 0.06332709748 -0.000250424774
520.0 0.05256210857 -0.03864191144
520.625 0.05827765636 -0.07050067472
521.25 0.04896850057 -0.06531295283
521.875 0.04315257596 -0.02633782286
522.5 0.05243933956 -0.087210123
523.125 0.08369962312 -0.1778716818
523.75 0.01945041253 -0.2384646889
524.375 0.03150106848 -0.2229891229
525.0 0.01549694488 -0.1028880679
525.625 -0.01239320383 -0.07638670466
526.25 0.01253249176 -0.04970707107
526.875 0.02228154881 -0.06025831356
527.5 -0.01546015636 -0.05808583292
528.125 -0.0384689008 -0.0294774707
528.75 -0.03392670391 -0.04462821525
529.375 -0.09498894238 -0.02448085524
530.0 -0.08562066628 0.02504507966
530.625 0.01089335429 0.04644991789
531.25 -0.02372361402 0.01245248783
531.875 -0.1187345461 0.05719037231
532.5 -0.09347525523 0.08535069312
533.125 -0.02897871816 0.07317844966
533.75 -0.01923368668 0.06209640678
534.375 -0.04707478583 0.09636043628
535.0 -0.03111381823 0.09786229404
535.625 -0.01435269285 0.06464715894
536.25 0.01935015388 0.049973989
536.875 -0.02483784497 0.08304251297
537.5 -0.07315827649 0.03797504955
538.125 -0.03462401782 0.0476510804
538.75 -0.02813823454 0.08733154241
539.375 -0.06352785976 0.09726876087
540.0 -0.02790837411 0.0563440842
540.625 -0.02029610716 0.04728698612
541.25 -0.05496028084 0.06229377814
541.875 -0.08544152962 0.06364551997
542.5 -0.06287310586 0.0201860201
543.125 -0.04763988441 0.03986337062
543.75 -0.01640886981 0.108409507
544.375 0.01537692178 0.1271872487
545.0 0.07965281571 0.04595958542
545.625 0.07662019636 -0.01381317051
546.25 0.09753143108 -0.03257019126
546.875 0.08428828515 -0.02729213309
547.5 0.09268812085 -0.02623240255
548.125 0.1046225478 -0.0273440717
548.75 0.1193967049 0.02660702096
549.375 0.1267299798 0.04131858853
550.0 0.1117606007 0.06288966002
550.625 0.1025736629 0.05064607607
551.25 0.04152284715 0.07325842265
551.875 0.03264739428 0.03709114772
552.5 0.03416264969 0.03207425383
553.125 0.03381554871 0.0301618714
553.75 0.0002108086378 0.03679479843
554.375 0.005431074314 0.04132739933
555.0 0.02478196454 0.05343444932
555.625 0.04423608923 0.06004693991
556.25 0.01688080378 0.06224263257
556.875 0.006656911055 0.06471275894
557.5 0.03269017273 0.09969883186
558.125 0.01623388819 0.1173913314
558.75 -0.01584160485 0.09741906371
559.375 0.01445082534 0.09821666341
560.0 0.02083199933 0.08525301292
560.625 0.03052180057 0.04836794791
561.25 0.02179929752 0.03658769682
561.875 0.01903551326 0.04502813328
562.5 0.05406843304 0.06183676736
563.125 0.02488485438 0.04003557697
563.75 0.04882964047 0.04099548808
564.375 0.1029996784 0.02886267221
565.0 0.09618613147 0.05761242091
565.625 0.07772834687 0.02710218064
566.25 0.07823386215 0.03280535474
566.875 0.07105541866 0.05631396234
567.5 0.05928846709 0.09945821324
568.125 0.02601285917 0.08916552695
568.75 0.02219854541 0.0833554492
569.375 0.01956920702 0.08942508861
570.0 0.02412657518 0.08772464672
570.625 0.02178977383 0.05179839082
571.25 0.02684086998 0.05865351479
571.875 0.01396262697 0.04770876558
572.5 0.02544418031 0.03706497956
573.125 0.0258706211 0.04957586251
573.75 0.0483826062 0.06253727817
574.375 0.0780768695 0.05045556791
575.0 0.07322530398 0.01244899114
575.625 0.05778204751 0.008634359177
576.25 0.08293952888 0.03836159585
576.875 0.08869770502 0.0408233011
577.5 0.08094104348 0.01765603264
578.125 0.0824799698 0.01503448997
578.75 0.1023293831 0.02216575728
579.375 0.08160203637 0.02587469617
580.0 0.09353606193 -0.008643726662
580.625 0.0945890991 -0.02293787135
581.25 0.05329970845 -0.003507684425
581.875 0.02630474902 0.02171745009
582.5 0.04609795961 0.02112336606
583.125 0.05517970454 0.05847962235
583.75 0.04055679962 0.05357734789
584.375 0.03106050993 0.05293164741
585.0 0.02712563306 0.06184246141
585.625 0.03695035224 0.08278648419
586.25 0.01869621272 0.06510586581
586.875 0.0300754826 0.0530108421
587.5 0.06349770688 0.04810848603
588.125 0.07032961072 0.05639762438
588.75 0.06234945556 0.0398922405
589.375 0.07199567103 -0.004257691064
590.0 0.06657701174 -0.02700642533
590.625 0.04230411242 0.00421680783
591.25 0.03100989521 0.03411468623
591.875 0.05761047363 0.02084318007
592.5 0.09335317228 0.0133400253
593.125 0.09574025344 0.01564906526
593.75 0.06897218772 0.03085443452
594.375 0.0773992081 0.04800273489
595.0 0.08170285954 0.05750737019
595.625 0.0431335888 0.07111001709
596.25 0.005098396719 0.05936905218
596.875 0.006852570792 0.07087339172
597.5 -0.01775693109 0.07846962527
598.125 -0.004825564159 0.07059748378
598.75 0.01309030638 0.05904043923
599.375 0.01312989802 0.05084136638
600.0 0.02462704544 0.02931415601
600.625 -0.008678023451 0.01816205132
601.25 -0.05098654856 0.0268626459
601.875 -0.06339012166 0.04441742442
602.5 -0.05471181709 0.04617919344
603.125 -0.04788669298 0.04459880147
603.75 -0.04880887931 0.06070849881
604.375 -0.06372427453 0.04634372701
605.0 -0.05216161422 0.02450152751
605.625 -0.03436802752 0.01864304667
606.25 -0.07034342725 0.01825219124
606.875 -0.09442526293 -0.008511569343
607.5 -0.06647077967 0.01513787276
608.125 -0.01024278887 0.03831317633
608.75 -0.04221012776 0.02053309618
609.375 -0.04171494258 0.0007401090007
610.0 -0.03464528727 -0.008211660498
610.625 -0.001893359206 0.002405651343
611.25 -0.01311987399 -0.02418341771
611.875 -0.01059023805 -0.0716617267
612.5 -0.01617794963 -0.07551170573
613.125 -0.02533394797 -0.06675907588
613.75 -0.01456305341 -0.05795205251
614.375 0.001648354901 -0.04108730972
615.0 -0.005450791509 -0.04498826037
615.625 -0.00711109032 -0.07106288356
616.25 -0.001475026223 -0.004394613832
616.875 0.001529586946 -0.02053320844
617.5 0.009066910448 -0.04246037059
618.125 0.02145966488 -0.04644428148
618.75 0.03028654768 -0.01142960966
619.375 0.04239795108 -0.02950697486
620.0 0.05368241954 -0.05386480674
620.625 0.04592546342 -0.0492556902
621.25 0.05116215388 -0.07616843494
621.875 0.04756211696 -0.08821954593
622.5 -0.0309091489 -0.07282379405
623.125 -0.02998076253 -0.0464930915
623.75 0.009690984671 0.003937093962
624.375 0.02420303629 -0.01893011739
625.0 0.03354392388 -0.005570844453
625.625 0.02693524328 0.004363035613
626.25 0.02961213692 0.05212350653
626.875 0.0490201149 0.04474667117
627.5 0.08901376936 0.03101433033
628.125 0.06755857948 0.03203344793
628.75 0.03910288678 0.05035276941
629.375 0.05993101135 0.05058470312
630.0 0.07856703683 0.06909502616
630.625 0.05044453732 0.05389523269
631.25 0.001394202558 0.05567747188
631.875 0.005871008686 0.04094297837
632.5 0.02737673833 0.04973985414
633.125 0.008448153297 0.03438053004
633.75 -0.004571683527 0.03691746652
634.375 -0.009054827476 0.04714466697
635.0 -0.01720714269 0.05163383464
635.625 -0.01223777045 0.06564970349
636.25 -0.002141639082 0.07034694239
636.875 -0.04413533872 0.05838776641
637.5 -0.01589168363 0.04146641461
638.125 -0.01875896113 0.06708241699
638.75 -0.03845981888 0.08140269127
639.375 -0.05259805745 0.05132597072
640.0 -0.03900909858 0.03785247314
640.625 -0.046095957 0.03134931341
641.25 -0.0597682635 -0.01547816487
641.875 -0.04796790915 -0.0363933455
642.5 -0.04523618387 -0.04035504308
643.125 -0.0569657084 -0.02002843174
643.75 -0.0443550358 -0.04927247948
644.375 -0.03243782985 -0.07485185971
645.0 -0.06061556817 -0.04652953657
645.625 -0.08461964033 -0.02248664936
646.25 -0.05710324331 -0.02543137512
646.875 -0.03029726594 -0.03780827443
647.5 -0.04464182131 -0.05117788432
648.125 -0.06349666331 -0.03821628304
648.75 -0.02346282249 -0.04864685015
649.375 0.001248644875 -0.0322391038
650.0 0.04196671345 -0.0667497939
650.625 0.06814623283 -0.05608162996
651.25 0.05876333376 -0.03799680863
651.875 0.07163667525 -0.009253830757
652.5 0.1260690273 0.03640207156
653.125 0.1000041876 0.06144228266
653.75 0.08773083188 0.0452986405
654.375 0.08286390936 0.04942773661
655.0 0.06565932909 0.05281928171
655.625 0.03844173442 0.04554942145
656.25 0.0299602267 0.03429197232
656.875 0.03823905281 0.03973468451
657.5 0.03314957722 0.09321584031
658.125 -0.004580241737 0.05671301589
658.75 0.003763332371 0.0498322287
659.375 0.03484519324 0.07779678409
660.0 0.07459974236 0.08972270136
660.625 0.07743178407 0.05921503978
661.25 0.08536183193 0.01923815467
661.875 0.1135915669 0.01268084698
662.5 0.1191837088 0.002327985324
663.125 0.1003618386 0.007055530808
663.75 0.07208837266 0.008627276238
664.375 0.02313092281 0.06450772861
665.0 -0.03384527148 0.0814505672
665.625 -0.02006172449 0.03694918789
666.25 -0.06341300557 0.03403567162
666.875 -0.1028516067 -0.01155034188
667.5 -0.1039245883 -0.03091290742
668.125 -0.09047037786 -0.007244784432
668.75 -0.1197946216 0.01005250909
669.375 -0.1061959797 -0.01014189575
670.0 -0.09155125834 -0.03078253016
670.625 -0.08073308051 -0.01558276441
671.25 -0.08123569142 0.01310522878
671.875 -0.08607346272 0.01133625466
672.5 -0.07764405538 0.02613760604
673.125 -0.0744364993 0.04025616326
673.75 -0.09719524848 0.03561953737
674.375 -0.1005351433 0.0187026069
675.0 -0.1056577757 -0.007007480287
675.625 -0.103698764 -0.04259615828
676.25 -0.0691047345 -0.08176705239
676.875 -0.05825724053 -0.08326909132
677.5 -0.09615463618 -0.08042384228
678.125 -0.08545685112 -0.1014721996
678.75 -0.03021163622 -0.04432969991
679.375 0.001705919163 -0.04112835691
680.0 -0.0170726304 -0.07446737556
680.625 -0.001626106318 -0.0953402844
681.25 0.0008986683518 -0.07202130145
681.875 -0.01140593244 -0.0804879733
682.5 -0.07033273437 -0.08448432158
683.125 -0.14743223 -0.09477018801
683.75 -0.08912072815 -0.1209397539
684.375 -0.01489611244 -0.08942319657
685.0 0.05728206066 -0.09820112176
685.625 0.1317575924 -0.07600370082
686.25 0.1135341585 -0.003809245904
686.875 0.06989372837 0.00485093264
687.5 0.0475291612 0.04794786278
688.125 0.03927431565 0.07433843675
688.75 -9.70388811e-05 0.07385018815
689.375 -0.008852462169 0.08372885021
690.0 -0.031387967 0.1127915115
690.625 -0.02593021317 0.1103998069
691.25 0.02159008227 0.1122285074
691.875 0.1173870943 0.08949708706
692.5 0.1733317005 0.009483154566
693.125 0.06972807916 -0.07539785277
693.75 -0.003080178294 -0.1038626612
694.375 0.001901289845 -0.1294576501
695.0 0.07567654224 -0.0600617838
695.625 0.08529263552 0.02241353875
696.25 0.03627366547 0.07545271772
696.875 -0.04947158012 0.1000809131
697.5 -0.1226621073 0.02857819212
698.125 -0.115619786 -0.01633496799
698.75 -0.1248532135 -0.01302197771
699.375 -0.1164109484 -0.0155996541
700.0 -0.07499363939 -0.02928644022
700.625 -0.07951604511 -0.0558137555
701.25 -0.08392017046 -0.08050440128
701.875 -0.04085619934 -0.05990998579
702.5 -0.02841587509 -0.04528999927
703.125 -0.09726853616 -0.01535697172
703.75 -0.1422268516 0.07811107078
704.375 -0.07181770793 0.1587187263
705.0 -0.03336780173 0.1138225989
705.625 -0.07392398187 0.07078537357
706.25 -0.1492425112 0.002535794504
706.875 -0.107729396 -0.1118316207
707.5 -0.01497226479 -0.08263211397
708.125 0.02550995208 -0.06027343058
708.75 0.07833361834 -0.02357608209
709.375 0.08879120825 0.03158431585
710.0 0.03716900969 0.06918441134
710.625 0.01680177715 0.07353416381
711.25 -0.03316641681 0.07842916288
711.875 -0.005348465481 0.1011099324
712.5 0.004794483105 0.1370320227
713.125 0.08957019337 0.1080740505
713.75 0.1308999665 -0.01960578239
714.375 0.07400604222 -0.09456573699
715.0 0.007923215617 -0.1324230344
715.625 0.05263793969 -0.1186245217
716.25 0.06321667746 -0.005616953397
716.875 0.063574801 0.01866926552
717.5 0.07372251274 0.05385215525
718.125 0.01858882042 0.1104575671
718.75 -0.03408615277 0.08120151009
719.375 -0.02468747401 0.07144902727
720.0 -0.08592001354 0.05141266477
720.625 -0.103054194 0.0009211874282
721.25 0.02085349537 -0.1156034516
721.875 0.07916902274 -0.09042488517
722.5 0.06660245111 -0.09315958221
723.125 0.05242493189 -0.0787903462
723.75 0.04999366551 -0.06327864779
724.375 -0.02267791449 -0.07555571025
725.0 -0.05555288569 -0.05855116044
725.625 -0.04170585149 0.01132261376
726.25 -0.0639421545 -0.01224293431
726.875 -0.07292097841 -0.1083600757
727.5 -0.04568765376 -0.1121231513
728.125 -0.03725225192 -0.0773935408
728.75 -0.008624182875 -0.1017189156
729.375 0.01819572604 -0.1204761284
730.0 -0.0124353822 -0.08954047956
730.625 0.00563498866 -0.07156306562
731.25 -0.01245558159 -0.02929044949
731.875 0.05473140259 -0.01507979393
732.5 0.0331644201 0.07772765151
733.125 0.004220458433 0.08584429761
733.75 0.01660757715 0.03283283498
734.375 0.03661779899 0.1275936756
735.0 0.07382701652 0.07292810217
735.625 0.08917630531 0.01989569197
736.25 0.03695030325 -0.00368697254
736.875 0.05176611761 0.009056919704
737.5 0.01862890729 0.02073698465
738.125 0.003257032493 0.06913411062
738.75 -0.04054663757 0.03016893815
739.375 -0.01898169708 0.07773123862
740.0 0.01287532752 0.1026069918
740.625 0.03667242805 0.08990781045
741.25 -0.008974992784 0.04560642124
741.875 -0.05237360796 0.06230255364
742.5 -0.07228124546 -0.01967688985
743.125 -0.02833219995 -0.09296187653
743.75 0.0264627046 -0.04163485104
744.375 0.03906510631 -0.05633204191
745.0 0.03620600725 -0.0861758744
745.625 -0.001432635657 -0.07185863518
746.25 0.01407610654 -0.0198684963
746.875 0.03734969102 -0.03978559494
747.5 -0.01869562025 -0.06904342796
748.125 -0.03771661176 -0.05839827799
748.75 -0.0656463679 -0.01748334408
749.375 -0.05159915004 0.005835907568
750.0 -0.01120190457 0.07944806857
