!Created with skrf (http://scikit-rf.org).
# GHz S RI R 50.0 
!freq ReS11 ImS11
500.0 -0.03626432503 0.02605276504
500.625 0.0005276251762 0.04515154808
501.25 -0.003228578551 0.03623661342
501.875 -0.01383237896 0.05397198325
502.5 -0.02718047697 0.06996765689
503.125 0.005181005631 0.05977374755
503.75 0.02526321122 0.04538302558
504.375 0.04628208087 0.03119292875
505.0 0.05639800188 0.01092857431
505.625 0.06788179769 -0.003495650734
506.25 0.03950574719 0.002118857348
506.875 0.05004489441 0.01250858354
507.5 0.04779499758 0.01244940141
508.125 0.03295312484 0.03740981708
508.75 0.04791490429 0.007938613214
509.375 0.05334256153 0.008382785448
510.0 0.062740198 0.03033648885
510.625 0.03139418937 -0.04172015601
511.25 0.005781286183 -0.04224082608
511.875 -0.007601444998 -0.02315918046
512.5 -0.002411064272 -0.01116441281
513.125 -0.01880149959 -0.01079792964
513.75 -0.04101645225 -0.01625958191
514.375 -0.05551523131 0.01176917029
515.0 -0.04668837631 0.0398136579
515.625 -0.08137459182 -0.001532103363
516.25 -0.04066992218 0.05710689263
516.875 -0.06125288913 0.04271668815
517.5 -0.00152243141 0.04609455182
518.125 -0.009554156988 -0.01808129561
518.75 -0.02739058266 -0.003275279344
519.375 -0.03452884061 0.01135853185
520.0 -0.007530635244 0.03452342926
520.625 -0.02219914854 0.01141447394
521.25 -0.01567304601 0.01300355969
521.875 -0.00339574788 0.01843260659
522.5 0.01572232531 0.009912694498
523.125 -0.01711342956 -0.01692812391
523.75 -0.04290317341 -0.05345366684
524.375 -0.05974302396 -0.06118438825
525.0 -0.05552343901 -0.01826808856
525.625 -0.06733347278 0.005527898482
526.25 -0.05007079529 0.009691614909
526.875 -0.03750739614 0.01396193853
527.5 -0.03222076146 0.03142029099
528.125 -0.009504046961 0.0578684468
528.75 0.001507781299 0.05222648518
529.375 0.01939974721 0.04891099628
530.0 0.05904604583 0.05009789803
530.625 0.09589446959 -0.037410394
531.25 0.1049853797 -0.08197730599
531.875 0.05750608919 -0.07860941655
532.5 0.02981444899 -0.04934262362
533.125 0.03954386377 -0.03510532168
533.75 0.01712132683 -0.05034316902
534.375 0.02174931365 -0.03676304053
535.0 0.02566276251 -0.02097336546
535.625 0.04825579332 -0.002439921546
536.25 0.02725820698 -0.03816807518
536.875 0.04186760538 -0.06002803825
537.5 0.05316800277 -0.04854953612
538.125 0.01022389193 -0.03302437486
538.75 0.01286510507 -0.01995173483
539.375 0.0590157145 -0.02361653926
540.0 0.07512290534 -0.05161495032
540.625 0.04973506701 -0.05568252809
541.25 0.03686504203 -0.04465527521
541.875 0.0431032791 -0.05034142428
542.5 0.03875776819 -0.05926970325
543.125 -0.008811431512 -0.04994018691
543.75 -0.02259438737 -0.002431071495
544.375 0.01093609524 -0.001640880133
545.0 -0.0002416005796 -0.02377840424
545.625 -0.04379819895 -0.03231867531
546.25 -0.03981713285 -0.02038692668
546.875 -0.02555800238 -0.008690842832
547.5 -0.02607620128 -0.008670148938
548.125 -0.03093894646 -0.01955418757
548.75 -0.01054193032 -0.03568342997
549.375 0.00675430342 -0.04920879147
550.0 0.03472590337 -0.04409829469
550.625 0.04290880247 -0.08115837318
551.25 0.08445777367 -0.0644886012
551.875 0.04552042222 -0.07510444824
552.5 0.01471083778 -0.07707401178
553.125 -0.00731658992 -0.08226178333
553.75 -0.008201019002 -0.06882916713
554.375 -0.03105065703 -0.05539088678
555.0 -0.02853152459 -0.03905330481
555.625 -0.02859920163 -0.04795443627
556.25 -0.01958136454 -0.04081248139
556.875 -0.02845656557 -0.02956024422
557.5 -0.01538524588 -0.02045019954
558.125 0.004989024674 -0.01448093557
558.75 0.01904989421 -0.0009049586243
559.375 0.03134046495 -0.005941687767
560.0 0.05734943502 -0.01756522851
560.625 0.06091054697 -0.05443634488
561.25 0.0219896468 -0.06662628169
561.875 -0.01173670195 -0.05836357466
562.5 -0.02840472535 -0.04951580218
563.125 -0.04253808596 -0.04142165021
563.75 -0.03912646556 -0.004600719081
564.375 -0.0237791163 0.001084392664
565.0 -0.006089251479 -0.01322442986
565.625 -0.01381945524 -0.03424060649
566.25 -0.002844792914 -0.04177903267
566.875 0.005405643479 -0.03761337659
567.5 0.01193108591 -0.02909729125
568.125 0.01286658185 -0.02555862949
568.75 0.0396017857 -0.01678058953
569.375 0.05745278155 -0.009868343594
570.0 0.06120795761 -0.02381508254
570.625 0.03826866914 -0.05170557834
571.25 0.03420487221 -0.06342029812
571.875 0.03050665248 -0.0582614869
572.5 -0.01111028745 -0.06279108599
573.125 -0.04890799618 -0.03941420241
573.75 -0.03620613232 -0.01667550045
574.375 -0.01027914668 -0.03002509968
575.0 -0.02445057318 -0.03386583039
575.625 -0.04532461458 -0.01334288613
576.25 -0.03687316907 -0.005198360752
576.875 -0.01695272034 -0.008964497385
577.5 -0.001822488999 -0.01450955548
578.125 -0.009541316278 -0.02248050883
578.75 -0.001138436736 -0.03511264452
579.375 0.006725058355 -0.03922299886
580.0 0.005717076319 -0.05194121695
580.625 -0.007588012182 -0.07030326478
581.25 -0.02826246594 -0.07180302871
581.875 -0.041601347 -0.04679714089
582.5 -0.04096097717 -0.03438327747
583.125 -0.01402549727 -0.03602375595
583.75 -0.01022451414 -0.04251528375
584.375 -0.008838117 -0.03676524819
585.0 -0.01161897097 -0.03567680236
585.625 0.007918921934 -0.02791137638
586.25 0.0202663856 -0.02401958733
586.875 0.009958566233 -0.02868892629
587.5 -0.0004813864417 -0.02958163658
588.125 0.002719743852 -0.03022773381
588.75 0.009715369665 -0.03742805457
589.375 -0.001792578533 -0.05522861329
590.0 -0.04192238179 -0.05224926468
590.625 -0.06123932175 -0.02894089226
591.25 -0.06061436793 0.008308752872
591.875 -0.03387299926 0.012507571
592.5 -0.008503185976 -0.005580913063
593.125 -0.003792819858 -0.01864920306
593.75 -0.008947300809 -0.007069066665
594.375 0.01162479943 -0.02031507222
595.0 0.02881131546 -0.02088356142
595.625 0.04003185249 -0.01959669466
596.25 0.02080785361 -0.02597744445
596.875 0.03268634725 -0.02006512211
597.5 0.04377004585 0.005419336798
598.125 0.04712185458 0.001288560886
598.75 0.05249263413 -0.02105634888
599.375 0.06251118894 -0.03166621686
600.0 0.05221638875 -0.0357284578
600.625 0.03313497273 -0.04132153227
601.25 0.00665461064 -0.04234882546
601.875 0.009785325189 -0.01912869236
602.5 0.00560097723 -0.006956917216
603.125 0.005382457027 0.003988867554
603.75 0.0008562428996 0.004706264774
604.375 0.02351054628 0.02276543421
605.0 0.02626943361 0.02054875435
605.625 0.01563737723 0.01282312959
606.25 -0.004599360599 0.01924288896
606.875 -0.01527974573 0.04320566299
607.5 0.004990838426 0.05187050919
608.125 0.03208559245 0.04633687586
608.75 0.02183460587 0.01995156168
609.375 0.02068092461 0.03814757369
610.0 0.02108120932 0.04377227139
610.625 0.02582064307 0.03575417904
611.25 0.01536403347 0.01831245688
611.875 -0.0007180285999 0.008225046776
612.5 -0.01464105744 0.003905539465
613.125 -0.02897155105 0.00445587159
613.75 -0.04119474958 0.01546570189
614.375 -0.0152616703 0.004719212123
615.0 -0.01282679781 0.005622394863
615.625 -0.03387334985 0.009252374946
616.25 -0.04155140208 0.01456599582
616.875 -0.02131137631 0.01259372963
617.5 -0.01791298258 0.01546995118
618.125 -0.01900358343 0.00869536091
618.75 -0.02133678096 0.007062834379
619.375 0.000438145506 -0.005200173976
620.0 -0.0038331507 -0.005342549243
620.625 0.00115596525 -0.0264081011
621.25 -0.006529541405 -0.04119811748
621.875 -0.006477173004 -0.06922195655
622.5 -0.07139947496 -0.02185578184
623.125 -0.07709842811 0.01560781478
623.75 -0.05624643483 0.02170350519
624.375 -0.03589965506 -0.01015658362
625.0 -0.03968101697 -0.01714433376
625.625 -0.04586609865 -0.01125498576
626.25 -0.03237314861 0.01220679752
626.875 -0.005135507056 0.008639789918
627.5 0.005844867863 -0.008668034127
628.125 0.01166921741 -0.01774072954
628.75 0.01796246303 -0.01296588546
629.375 0.02764782954 -0.01134290925
630.0 0.05760218322 -0.001954216801
630.625 0.0524586339 -0.01828781105
631.25 0.05654946059 -0.02245161459
631.875 0.0540365998 -0.02173529418
632.5 0.04206248616 -0.03397843382
633.125 0.03781147914 -0.03606522134
633.75 0.03488848241 -0.02666236268
634.375 0.0317169452 -0.02291264002
635.0 0.02405897671 -0.01102734005
635.625 0.01137993226 -0.01288231845
636.25 0.02675294191 -0.01000002838
636.875 0.04046112703 -0.003336871268
637.5 0.0257943892 -0.01559550386
638.125 0.0162747308 0.0007854589658
638.75 0.02051461021 0.01939901294
639.375 0.02394569406 0.04989720162
640.0 0.02769674415 0.04713073825
640.625 0.02184565973 0.04911497093
641.25 0.005913329607 0.03961347189
641.875 0.001987531134 0.03253351943
642.5 -0.009892437215 0.0386438854
643.125 -0.008110908178 0.03650205804
643.75 -0.007818078068 0.0305784967
644.375 -0.01475458169 0.02024905676
645.0 -0.0277806513 0.03241356762
645.625 -0.05202073126 0.05060415272
646.25 -0.02624008802 0.054025921
646.875 -0.008567838173 0.04335152907
647.5 -0.01353675838 0.03801563332
648.125 -0.05484118569 0.04286210255
648.75 -0.04311976348 0.03564378376
649.375 -0.02083627781 0.04326809065
650.0 -0.01823571566 0.02500190167
650.625 -0.02536512998 -0.006021982665
651.25 -0.01511098993 -0.01159931449
651.875 -0.01048978887 -0.008616828676
652.5 0.01121879387 -0.0191686342
653.125 0.03742359858 -0.02725804656
653.75 0.054047364 -0.03614445698
654.375 0.0619770919 -0.04218590034
655.0 0.06450871812 -0.04349088895
655.625 0.05577356952 -0.0474245442
656.25 0.02946529939 -0.05746045113
656.875 0.01161265185 -0.05595283039
657.5 0.02548355362 -0.04666639452
658.125 0.008958311758 -0.04013311548
658.75 -0.004336577464 -0.03541255219
659.375 -0.0002923909101 -0.0109219819
660.0 0.03082813624 -0.01133558921
660.625 0.02971804379 -0.01945262826
661.25 0.02654255891 -0.04799570217
661.875 0.02398676917 -0.06701469569
662.5 0.0135335064 -0.06844094492
663.125 0.00736190915 -0.07292657242
663.75 0.0275394847 -0.07017764232
664.375 0.04996382345 -0.04069763306
665.0 0.05339175044 -0.01155726021
665.625 0.06465368825 0.0004937027415
666.25 0.04702393661 0.01624191529
666.875 0.01512794091 0.02433421127
667.5 -0.0005802543745 0.01828109564
668.125 -0.006039848516 0.04148322558
668.75 -0.01583205612 0.06064989833
669.375 -0.01020042088 0.05327070627
670.0 -0.001035837851 0.04941961338
670.625 -0.006107895751 0.05790779255
671.25 -0.00559457519 0.05686997395
671.875 0.01806599498 0.05273577537
672.5 0.05042665383 0.0309957814
673.125 0.04765132051 0.02029278192
673.75 0.02061574055 0.02733399102
674.375 0.004299750005 0.02802587086
675.0 -0.00439557222 0.03970975331
675.625 -0.02852227343 0.05535339164
676.25 -0.04737169578 0.0215426853
676.875 -0.04855163942 0.01350039213
677.5 -0.0707031731 0.02665506712
678.125 -0.09158741488 0.04634279252
678.75 -0.06159163263 0.03674636322
679.375 -0.03807473457 0.04310616574
680.0 -0.03348180249 0.0322682427
680.625 -0.03471368978 0.02135941295
681.25 -0.02848091029 0.02358463622
681.875 -0.003453897594 0.02017516357
682.5 -0.01962129685 0.004399912118
683.125 -0.05328952023 0.009886172157
683.75 -0.06048499736 0.01820847054
684.375 -0.05600226115 -0.006917258435
685.0 -0.0392308522 -0.04660789414
685.625 0.00475100576 -0.07544815835
686.25 0.01893723753 -0.08093762655
686.875 0.02326352466 -0.08844588574
687.5 0.02702071152 -0.06332929695
688.125 0.01855168013 -0.04521143371
688.75 0.01669188591 -0.031431608
689.375 0.03039521366 -0.0196572243
690.0 0.03457989723 0.007561681394
690.625 0.02506417325 0.009911785314
691.25 0.03704983173 0.01072524206
691.875 0.06557699209 -0.03583514014
692.5 0.05096132808 -0.09107152709
693.125 -0.04762128011 -0.06876021515
693.75 -0.07926289517 -0.01750422913
694.375 -0.07556767659 -0.009625356305
695.0 -0.05366121277 -0.03780732618
695.625 -0.02366070825 -0.05400921038
696.25 0.03556004078 -0.03672972213
696.875 0.02997581992 0.01994699171
697.5 0.005040457785 0.02972055659
698.125 -0.01331133186 0.03761830068
698.75 -0.03341342024 0.05516400615
699.375 -0.0415243814 0.05489923723
700.0 -0.0279858026 0.0474543133
700.625 -0.04266015511 0.03966224264
701.25 -0.05880404333 0.04790081807
701.875 -0.03743981047 0.04561211872
702.5 0.01776491672 0.04478259601
703.125 0.01820340338 0.01931837752
703.75 -0.01296936216 0.04429153324
704.375 0.02339134692 0.06395212778
705.0 0.05036102225 0.04085992915
705.625 0.02828108716 0.05512726871
706.25 -0.03759856778 0.05524610118
706.875 -0.07410589407 0.01961004009
707.5 -0.08396972547 -0.01095503309
708.125 -0.07773211542 -0.0280845705
708.75 -0.02884415608 -0.03684067695
709.375 -0.002319477446 -0.03815877024
710.0 0.03353346979 -0.02802953723
710.625 0.04093364572 -0.02393914253
711.25 0.01725492288 -0.0006775352843
711.875 0.008806880711 0.01006522232
712.5 0.03623971913 0.0303713324
713.125 0.07486687967 -0.006129953229
713.75 0.03415049595 -0.06872276841
714.375 -0.02633682171 -0.0772667664
715.0 -0.06441759411 -0.06266373868
715.625 -0.0678721332 -0.05931381892
716.25 -0.02730764465 -0.05915647452
716.875 0.002656160145 -0.04703077441
717.5 0.0280545609 -0.02637147761
718.125 0.03846275484 0.003623815224
718.75 0.0297389414 -0.01586682031
719.375 0.03229302553 0.004513058614
720.0 -0.009010745686 0.0342700764
720.625 -0.04149089234 0.008680497755
721.25 -0.03234575991 -0.0159141861
721.875 -0.006700758661 -0.08711287217
722.5 0.001308832096 -0.08421596642
723.125 -0.04356609905 -0.05805686105
723.75 -0.05152644005 0.01738322509
724.375 -0.0328403162 0.02661458416
725.0 -0.02680094337 0.01823200818
725.625 -0.009673963294 0.01992193899
726.25 -0.01040434659 0.01205370586
726.875 -0.05214064605 -0.0025917987
727.5 -0.06407190977 -0.02897116635
728.125 -0.06033167475 -0.02694632623
728.75 -0.06125302298 -0.02474656331
729.375 -0.02559663718 0.002204938613
730.0 -0.03183190857 -0.006064945321
730.625 -0.04858240303 -0.02972377606
731.25 -0.02589243046 -0.03887254037
731.875 -0.005022974627 -0.01863033603
732.5 0.01998299847 -0.01599688098
733.125 0.03788504519 0.01748046301
733.75 0.04595585128 0.03142731779
734.375 0.02068212119 0.02006095729
735.0 0.045678435 -0.01064495203
735.625 0.04901337615 -0.04198851634
736.25 0.04413969395 -0.05391000073
736.875 0.003634385163 -0.03291723568
737.5 -0.006194787283 -0.02794082368
738.125 0.01672723179 -0.005260724374
738.75 0.01544283728 0.04025541215
739.375 0.008157508882 0.04442301234
740.0 0.05367400306 0.02352496868
740.625 0.05259067091 0.007410705761
741.25 0.03210425675 0.0175767092
741.875 0.01404720887 0.04421737066
742.5 -0.03452534934 0.004423056294
743.125 -0.04245495883 -0.02402372436
743.75 -0.01873108727 -0.04447823958
744.375 -0.02591762398 -0.05151628811
745.0 -0.02753099023 -0.05198700575
745.625 -0.05607546617 -0.03018243069
746.25 -0.02646815211 0.01324205283
746.875 -0.005702055925 0.006932657459
747.5 -0.004150936725 -0.03868549118
748.125 -0.02833348148 -0.01713108759
748.75 -0.03144371325 0.02110552502
749.375 -0.008135818204 0.03892629465
750.0 0.03208977208 0.03949182405
