!Created with skrf (http://scikit-rf.org).
# GHz S RI R 50.0 
!freq ReS11 ImS11
500.0 -0.0314184723 0.007118792695
500.625 -0.01111657372 0.02794686758
501.25 -0.01876268756 0.0263526221
501.875 -0.04478570391 0.03837749707
502.5 -0.05187979661 0.04349075696
503.125 -0.01597977855 0.04761886859
503.75 0.006156266043 0.0410997767
504.375 0.01666322724 0.03798497715
505.0 0.03715061935 0.02526106085
505.625 0.04508943623 0.01472922908
506.25 0.0252376985 0.005992496374
506.875 0.007283880063 0.0232468141
507.5 0.01381839011 0.03079778687
508.125 0.004946417936 0.04246370318
508.75 0.01254262078 0.03757264246
509.375 0.01656472354 0.04319223822
510.0 0.03304420529 0.05498147206
510.625 0.036221865 -0.01834936314
511.25 0.01748143469 -0.01411660472
511.875 0.008620642318 -0.001215997885
512.5 0.01203010124 -0.008953662973
513.125 -0.001556199541 -0.0320873318
513.75 -0.02310710384 -0.04943540991
514.375 -0.0492432079 -0.02472837749
515.0 -0.0584767276 0.01170839978
515.625 -0.06464404439 -0.02369869189
516.25 -0.04402599713 0.02232007136
516.875 -0.04130540835 0.007597434255
517.5 -0.007402382939 0.01007891853
518.125 0.03003140751 -0.03124123371
518.75 -0.0193193131 -0.03876847904
519.375 -0.03437733689 -0.00878432875
520.0 -0.02836942002 0.009457745943
520.625 -0.02287489206 -0.01006940082
521.25 -0.02682593727 -0.01042671379
521.875 -0.01182634608 0.001841727332
522.5 -0.007649764384 0.0018153487
523.125 -0.0305944361 -0.04917263954
523.75 -0.08391119864 -0.0865601437
524.375 -0.1047242079 -0.1030340588
525.0 -0.07462145806 -0.03515814353
525.625 -0.07935880706 -0.0155565916
526.25 -0.06479338374 -0.01529934041
526.875 -0.05162258301 -3.992926387e-05
527.5 -0.05367579245 0.02234320416
528.125 -0.02569853024 0.05215614758
528.75 -0.0175790993 0.05338320525
529.375 -0.0003591194068 0.0708047503
530.0 0.04696346105 0.07387515643
530.625 0.109098333 -0.01805072551
531.25 0.1385044324 -0.0434313763
531.875 0.08011826237 -0.03997774742
532.5 0.05129519017 -0.01224136715
533.125 0.04208461436 -0.02074843187
533.75 0.0469166462 -0.04249075869
534.375 0.04762594799 -0.01868761892
535.0 0.04814430841 -0.001145001261
535.625 0.04463250235 0.009894280556
536.25 0.05184639963 -0.04025769653
536.875 0.07145911398 -0.04639302231
537.5 0.05652043754 -0.02251828517
538.125 0.0223797738 -0.02002191162
538.75 0.03954109351 -0.0142778465
539.375 0.08315379363 0.001688971008
540.0 0.09689241817 -0.02284184325
540.625 0.06931142885 -0.03496961093
541.25 0.06065555596 -0.02417514545
541.875 0.0635392485 -0.02795756505
542.5 0.04672911865 -0.04103527505
543.125 0.009348362213 -0.03431617113
543.75 0.003720759565 -0.0001637725271
544.375 0.02775444819 0.001402860656
545.0 0.009787512028 -0.03768518
545.625 -0.02273290388 -0.05261236316
546.25 -0.02950841985 -0.04279564015
546.875 -0.02670610506 -0.02770899916
547.5 -0.03200692919 -0.02849302177
548.125 -0.03356623859 -0.05285268592
548.75 0.007928506692 -0.06652573986
549.375 0.02205798 -0.05661718231
550.0 0.05171819878 -0.05655326627
550.625 0.07267241935 -0.07694224113
551.25 0.1010735555 -0.04592146726
551.875 0.05859447048 -0.06906746845
552.5 0.03234903372 -0.080336162
553.125 0.01635429274 -0.08152967698
553.75 0.008972811096 -0.07072937151
554.375 -0.01656450977 -0.05929111294
555.0 -0.01336100785 -0.04611515463
555.625 -0.00435411005 -0.04559853445
556.25 -0.006781976247 -0.04038999308
556.875 -0.01466821931 -0.04166739261
557.5 0.002426459392 -0.02335417776
558.125 0.0214908273 -0.006631823016
558.75 0.0263670011 0.009226130876
559.375 0.04449433867 -0.004554756171
560.0 0.0750265026 -0.00968578649
560.625 0.06824547143 -0.03703452757
561.25 0.03274271649 -0.06135000343
561.875 0.0002997178425 -0.06276598647
562.5 -0.01212542684 -0.05743309409
563.125 -0.02377296932 -0.03757424732
563.75 -0.03051644405 -0.01718079605
564.375 -0.01502796612 -0.010861285
565.0 0.002226199121 -0.02515699979
565.625 0.004298114264 -0.0395986889
566.25 0.01110480353 -0.04945196956
566.875 0.01954085236 -0.04773008868
567.5 0.02073962323 -0.02833264372
568.125 0.02479173606 -0.02375430024
568.75 0.05555595546 -0.01313922335
569.375 0.07372272616 -0.005363069765
570.0 0.06479871208 -0.01697558595
570.625 0.04785271096 -0.04765389318
571.25 0.05101901237 -0.0587885212
571.875 0.04552756972 -0.05800510114
572.5 -0.003984965969 -0.06090151603
573.125 -0.04071324262 -0.04180948884
573.75 -0.02784210668 -0.02929162877
574.375 -0.002837939571 -0.04168322269
575.0 -0.01859989799 -0.03819353361
575.625 -0.03543347469 -0.02075632545
576.25 -0.02946456428 -0.01535529009
576.875 -0.008921657104 -0.01606962446
577.5 0.002463991526 -0.01991083749
578.125 0.005420902522 -0.03002318694
578.75 0.006920260884 -0.03989357477
579.375 0.0059602704 -0.044067947
580.0 0.008469208556 -0.05754330611
580.625 0.003502857969 -0.07457514849
581.25 -0.02344890129 -0.07390516204
581.875 -0.04322647597 -0.04938080255
582.5 -0.03853708639 -0.03952887494
583.125 -0.008888592051 -0.03920628868
583.75 0.00248650724 -0.0371513306
584.375 -0.00914749602 -0.03887170831
585.0 -0.008695445483 -0.03818500891
585.625 0.01327222073 -0.02764466223
586.25 0.022280088 -0.02214509436
586.875 0.006709304311 -0.03063939951
587.5 -0.001053542814 -0.03006099538
588.125 0.004250832816 -0.02980378699
588.75 0.01629338899 -0.03612665239
589.375 -0.00598608656 -0.05265452124
590.0 -0.04153666431 -0.05341662605
590.625 -0.06067488332 -0.0256558355
591.25 -0.05111666055 0.00215157413
591.875 -0.02869540281 0.01016305062
592.5 -0.01024569874 -0.0001331044569
593.125 -0.003608364243 -0.01256197552
593.75 -0.006124451749 -0.01202122407
594.375 0.006526339704 -0.01682378751
595.0 0.026219383 -0.01701450579
595.625 0.03339395445 -0.01754171907
596.25 0.0278817693 -0.02060244072
596.875 0.02883531018 -0.01541500407
597.5 0.03276369758 -0.0016995033
598.125 0.03791526426 -0.001847901708
598.75 0.04222343247 -0.01945449584
599.375 0.04342336652 -0.03465341915
600.0 0.03914781363 -0.04032952171
600.625 0.02331977665 -0.04412462326
601.25 0.003296841319 -0.0402566713
601.875 -0.007035979217 -0.02520321418
602.5 -0.008681840524 -0.01222918457
603.125 -0.008222580597 -0.001985468986
603.75 -0.002896906796 0.008186027015
604.375 0.008518483075 0.01188552234
605.0 0.01241981135 0.003605622222
605.625 0.00328903867 -0.002811232433
606.25 -0.01332782316 0.002346760512
606.875 -0.0182768362 0.02037140608
607.5 -0.001881845664 0.03240730192
608.125 0.01715953918 0.02535731307
608.75 0.01696375761 0.01589689485
609.375 0.01561044172 0.01743300405
610.0 0.01882424586 0.01664992326
610.625 0.0220642063 0.006999404492
611.25 0.01871612356 -0.006437877006
611.875 0.0126262015 -0.01461419595
612.5 0.002304503488 -0.0208738901
613.125 -0.01230790478 -0.01807993672
613.75 -0.01661137117 -0.006483894447
614.375 -0.007332510358 -0.00125077851
615.0 -0.001045564033 -0.007642348637
615.625 -0.007114974416 -0.01562083329
616.25 -0.0165255279 -0.007246476752
616.875 -0.00815811038 0.001638818725
617.5 0.004350154554 -0.0008007828869
618.125 0.006883331821 -0.00881370262
618.75 0.004640405271 -0.01001516862
619.375 0.01595627729 -0.008720817653
620.0 0.03142501149 -0.01424413218
620.625 0.02731866731 -0.03730343552
621.25 0.02132178326 -0.05492296035
621.875 0.01125577604 -0.06762900268
622.5 -0.04552950785 -0.04095268383
623.125 -0.04865239408 -0.009385530942
623.75 -0.03518552895 -0.001908836217
624.375 -0.01352274695 -0.01175913716
625.0 -0.003629106516 -0.01037497741
625.625 -0.008069049562 -0.003108427466
626.25 0.002587668244 0.009970224012
626.875 0.02999813792 0.01166894022
627.5 0.04127050403 0.01063121705
628.125 0.04260721006 0.005340708778
628.75 0.04346919913 0.00877417515
629.375 0.05081763015 0.01786276742
630.0 0.05814461849 0.01769624909
630.625 0.06373874964 0.02071834369
631.25 0.05846437449 0.01713956333
631.875 0.04832064155 0.009873224179
632.5 0.04123034089 -0.002431415976
633.125 0.03769297674 0.006911361481
633.75 0.02729598951 0.01468069732
634.375 0.0192687904 0.01209793044
635.0 0.01740756262 0.007385892972
635.625 0.01956637903 0.02146956314
636.25 0.02706088046 0.04063133315
636.875 0.02912477571 0.02901920064
637.5 0.02410022381 0.01473282173
638.125 0.007510849699 0.03327631336
638.75 0.001289375779 0.05961390613
639.375 0.002368319256 0.0664446043
640.0 -0.001140089314 0.06055969136
640.625 -0.0102527691 0.04411180796
641.25 -0.01656087176 0.02572331925
641.875 -0.02291311273 0.0311359226
642.5 -0.0377679802 0.02822004037
643.125 -0.04189766623 0.01423645187
643.75 -0.02922367654 0.001213839371
644.375 -0.03749765568 0.01206180124
645.0 -0.06346835456 0.01806262802
645.625 -0.06945902732 0.01649468348
646.25 -0.04304398406 0.02803210326
646.875 -0.03259871415 0.03165264922
647.5 -0.04842634581 0.0204432085
648.125 -0.05751508704 0.006150194788
648.75 -0.04596929641 0.01429197153
649.375 -0.0347386783 0.01367774597
650.0 -0.02237013779 -0.007209961226
650.625 -0.006153778759 -0.02693385882
651.25 -0.0004260737178 -0.02943935059
651.875 0.01673971553 -0.03331003021
652.5 0.04399999191 -0.02162346194
653.125 0.05937505302 -0.01966328926
653.75 0.07588942725 -0.02414707379
654.375 0.08913992147 -0.01928543215
655.0 0.07485132405 -0.01071440402
655.625 0.05610277786 -0.03160170319
656.25 0.05133166411 -0.03413307229
656.875 0.04885997394 -0.02914225552
657.5 0.03508588742 -0.01124204137
658.125 0.02027874848 -0.02602694511
658.75 0.02004995348 -0.0108474356
659.375 0.03797413536 0.01470322354
660.0 0.05002613703 0.01373386648
660.625 0.04984310552 -0.01422193273
661.25 0.05813208128 -0.03642572228
661.875 0.06093627247 -0.04990636188
662.5 0.03792170032 -0.06234832217
663.125 0.03337089915 -0.07098003682
663.75 0.05925564053 -0.05292646767
664.375 0.06076141346 -0.0009894557807
665.0 0.04922537621 0.007338447135
665.625 0.04336127927 0.02554517225
666.25 0.01440656376 0.03658485678
666.875 -0.01633839816 0.02390451226
667.5 -0.01927165504 0.02258099403
668.125 -0.0385687602 0.03873268876
668.75 -0.05366165663 0.05114766519
669.375 -0.03818975284 0.05114856377
670.0 -0.02354097427 0.05077914686
670.625 -0.03557154746 0.04618053381
671.25 -0.04120925611 0.05410456018
671.875 -0.005311757376 0.05926558552
672.5 0.02783134005 0.04969636568
673.125 0.01461481402 0.03407852833
673.75 -0.008061742645 0.03403234627
674.375 -0.01323603014 0.04052520527
675.0 -0.03255196855 0.0487638778
675.625 -0.05956338253 0.02238330653
676.25 -0.0539209326 0.002263800715
676.875 -0.07159331713 0.002916358976
677.5 -0.09224681232 0.004440873494
678.125 -0.09015551821 -0.001587576574
678.75 -0.05777080867 0.0245149723
679.375 -0.05622725405 0.0229947824
680.0 -0.04342566349 0.002183773373
680.625 -0.03158783851 -0.01623062578
681.25 -0.01652817361 0.003131435456
681.875 -0.02405211496 0.005494357125
682.5 -0.0542591469 -0.007242650381
683.125 -0.07034460012 -0.01400438967
683.75 -0.06702029504 -0.002944761209
684.375 -0.0651655094 -0.02838434372
685.0 -0.0245399756 -0.07816017304
685.625 0.02692163302 -0.07601423832
686.25 0.03974178368 -0.08071664235
686.875 0.05215597663 -0.07119681333
687.5 0.04542546766 -0.04332978191
688.125 0.02606818961 -0.02956927863
688.75 0.02735369913 -0.01383084393
689.375 0.03393786626 0.02056212466
690.0 0.02039355957 0.03194591499
690.625 0.02782889139 0.02621438437
691.25 0.04887679383 0.0303022978
691.875 0.09382914996 0.007238633987
692.5 0.06892810795 -0.06259194615
693.125 -0.0406283077 -0.08685193918
693.75 -0.07060917497 -0.04284257978
694.375 -0.05293354905 -0.03866844447
695.0 -0.02832264822 -0.04277884406
695.625 0.001472123405 -0.05969279604
696.25 0.04834449517 -0.008737788812
696.875 0.007223072751 0.03220401971
697.5 -0.01289462062 0.02734195056
698.125 -0.03557134684 0.04221195459
698.75 -0.0612929236 0.04959062936
699.375 -0.0524618534 0.03850310437
700.0 -0.0361493099 0.04248386332
700.625 -0.0577517614 0.03607693945
701.25 -0.07023157883 0.02072921092
701.875 -0.03650654316 0.0313205125
702.5 0.003762041424 0.03310929065
703.125 -0.01052126291 0.0196371652
703.75 -0.02821408514 0.05399846086
704.375 0.01210128029 0.06855810285
705.0 0.03737433307 0.05464859689
705.625 0.01054941892 0.06284427585
706.25 -0.0474201737 0.05043969553
706.875 -0.0751013546 0.009692126875
707.5 -0.07971196367 -0.02210482995
708.125 -0.0504435428 -0.04070208426
708.75 -0.0195252421 -0.03343025719
709.375 0.005684393421 -0.03243134394
710.0 0.03608126334 -0.01556115488
710.625 0.0295196241 0.005011117566
711.25 0.009942431176 0.002223561946
711.875 0.004890315771 0.01337787486
712.5 0.02981442313 0.03990364659
713.125 0.07751519285 0.01435958758
713.75 0.0401542278 -0.06146480848
714.375 -0.02402351754 -0.07245377749
715.0 -0.04972341536 -0.06109762249
715.625 -0.04105206165 -0.05764350914
716.25 -0.02930436945 -0.04933759167
716.875 -0.005577583566 -0.04097384634
717.5 0.02059047066 -0.0136684461
718.125 0.02250328229 0.002892681895
718.75 0.02640214631 0.003653230689
719.375 0.01986033445 0.01266231878
720.0 -0.006287701821 0.01781644338
720.625 -0.03041073392 -0.001512959896
721.25 -0.03240224453 -0.03198945311
721.875 -0.008965665176 -0.06269046857
722.5 -0.002700402107 -0.06477274466
723.125 -0.0410281687 -0.03997516687
723.75 -0.04350906823 0.009148124351
724.375 -0.01833823863 0.01831766354
725.0 -0.002802808015 0.01487790933
725.625 0.004521898956 0.004512002586
726.25 -0.002727140499 -0.006225261724
726.875 -0.0195226169 -0.01459110724
727.5 -0.03084491371 -0.01691086277
728.125 -0.03344245178 -0.01599440562
728.75 -0.02717992014 -0.004792855846
729.375 -0.01408419357 0.00128217378
730.0 -0.01308971266 -0.004841694951
730.625 -0.01655011736 -0.003863440569
731.25 -0.01162096291 -0.004744398289
731.875 -0.008525357071 -0.002190016614
732.5 -0.01004546957 0.00180638374
733.125 -0.01337865492 0.01219810217
733.75 -0.001064230311 0.02409642315
734.375 0.01083606422 0.02015410633
735.0 0.01772370727 0.006556548873
735.625 0.01682038185 -0.0005651115044
736.25 0.01314665114 -0.01397748929
736.875 -0.007204286141 -0.01789618182
737.5 -0.02819044329 -0.005632859397
738.125 -0.04340972006 0.01290166453
738.75 -0.03727789652 0.03112264688
739.375 -0.01922806394 0.03714708568
740.0 -0.004739653402 0.02235627982
740.625 -0.01186317052 0.01774732323
741.25 -0.01558286459 0.02502211085
741.875 -0.02850703592 0.01344437116
742.5 -0.02035207906 -0.01796552919
743.125 0.006352148653 -0.02536080072
743.75 0.02174026898 -0.02014592176
744.375 0.02307772712 -0.01625048462
745.0 0.01089038167 -0.01344001144
745.625 -0.002155982078 -0.00406501509
746.25 0.01937936262 0.00652642962
746.875 0.04012416976 -0.01953346348
747.5 0.01997923515 -0.04163937552
748.125 -0.01298181542 -0.03990208066
748.75 -0.03515374347 -0.02272115439
749.375 -0.04211019764 0.002346027396
750.0 -0.02051426144 0.04316684482
