!Created with skrf (http://scikit-rf.org).
# GHz S RI R 50.0 
!freq ReS11 ImS11
500.0 -0.03290212418 0.0233137596
500.625 0.001729766323 0.05134325945
501.25 0.006125439536 0.04186404732
501.875 -0.009970444051 0.0530494877
502.5 -0.03205504416 0.06147895107
503.125 0.006269342922 0.06012189073
503.75 0.0314852017 0.04297910975
504.375 0.0299352838 0.03868000069
505.0 0.05001957737 0.01588500801
505.625 0.07037217986 -0.005869859644
506.25 0.05000251963 -0.01729802463
506.875 0.02382949639 0.02824134765
507.5 0.05411014437 0.009900382562
508.125 0.04394977997 0.03061148483
508.75 0.04526303662 0.005493068508
509.375 0.04647364204 0.014996904
510.0 0.06946614637 0.02638096802
510.625 0.02810494082 -0.04218531154
511.25 0.002687977251 -0.04224776279
511.875 0.009091156393 -0.01266016671
512.5 -0.001536196684 -0.01259111541
513.125 -0.01805379916 -0.01220543408
513.75 -0.03861220736 -0.01621854199
514.375 -0.05143714799 0.001527522429
515.0 -0.04222572607 0.04816884091
515.625 -0.06913690527 0.02613450716
516.25 -0.03895043551 0.05320136356
516.875 -0.05679748232 0.0380448956
517.5 0.000510687777 0.05472695238
518.125 -0.01884461841 0.01768943249
518.75 -0.0356101326 -0.02380286577
519.375 -0.03684752311 0.00535829311
520.0 -0.005282407573 0.03486653542
520.625 -0.0008939047054 0.01735279109
521.25 -0.02481412236 0.009577152143
521.875 -0.00445916216 0.01441679772
522.5 0.02267355451 0.009559013507
523.125 0.01506989934 -0.02112755789
523.75 -0.04653297464 -0.0589456763
524.375 -0.06862588699 -0.06944136175
525.0 -0.04812108149 -0.01679462649
525.625 -0.0588249053 0.004193230696
526.25 -0.06619899279 -0.0007372944513
526.875 -0.03786048143 0.01475180929
527.5 -0.02928082908 0.03038727592
528.125 -0.006206864717 0.04682959839
528.75 -0.002743044324 0.05318709859
529.375 0.01764197196 0.0556708519
530.0 0.05479468732 0.04753430298
530.625 0.09658170575 -0.0349087117
531.25 0.1160678763 -0.07166561759
531.875 0.05708537812 -0.07820352068
532.5 0.02953757601 -0.04628506069
533.125 0.02940520717 -0.03068540848
533.75 0.03241493961 -0.05860323677
534.375 0.02837113253 -0.03737101976
535.0 0.01772059418 -0.02066376906
535.625 0.0376691215 -0.0001957172342
536.25 0.03929708438 -0.04695053988
536.875 0.03599543151 -0.05764249853
537.5 0.04635497545 -0.04573292718
538.125 0.01173009762 -0.03005281836
538.75 0.02879963067 -0.0263295615
539.375 0.06033898849 -0.02449048038
540.0 0.07161257597 -0.04851404645
540.625 0.05083238698 -0.05142689849
541.25 0.04809515462 -0.04060756997
541.875 0.03807973922 -0.04916598455
542.5 0.03236722149 -0.05384563226
543.125 -0.009918700479 -0.04416954159
543.75 -0.01055688527 -0.01205135016
544.375 0.01462122182 -0.005138747632
545.0 0.002964149982 -0.01923043676
545.625 -0.0245657902 -0.02825423307
546.25 -0.03925063695 -0.02392481563
546.875 -0.02734388059 -0.01544854399
547.5 -0.02270737837 -0.009406944763
548.125 -0.02739736836 -0.02562126473
548.75 -0.01581580577 -0.05253472732
549.375 0.008055673787 -0.05265571633
550.0 0.03740392086 -0.03757641261
550.625 0.05302983908 -0.06503182417
551.25 0.08756334467 -0.06270280668
551.875 0.05012330199 -0.07617445674
552.5 0.01584316654 -0.0766559185
553.125 -0.001664418913 -0.07561402353
553.75 -0.003983533179 -0.08405053503
554.375 -0.02915536729 -0.06138956382
555.0 -0.02708305031 -0.03390815443
555.625 -0.01963255096 -0.03593252694
556.25 -0.0164379491 -0.04156567921
556.875 -0.02399013644 -0.03233477114
557.5 -0.01404584435 -0.01657014645
558.125 0.007466689098 -0.01011141222
558.75 0.02124006997 0.0006754705784
559.375 0.03453849581 -0.01024257885
560.0 0.05716147299 -0.01318126147
560.625 0.05796591712 -0.04094650379
561.25 0.02369974733 -0.06862668439
561.875 -0.009061913969 -0.06273362259
562.5 -0.02395083297 -0.04319695878
563.125 -0.03149875591 -0.03258400363
563.75 -0.04585014094 -0.01108476804
564.375 -0.02667544258 -0.001656235669
565.0 -0.003798035746 -0.01446081912
565.625 0.001528946229 -0.03155513177
566.25 -0.004509481552 -0.04600433141
566.875 0.007306332655 -0.04252928519
567.5 0.01352872111 -0.02564335775
568.125 0.01965828622 -0.01948387304
568.75 0.04400823416 -0.0106945848
569.375 0.06206680672 -0.02049538469
570.0 0.06209165694 -0.02195639081
570.625 0.04392906481 -0.04328191951
571.25 0.03855574341 -0.06301535726
571.875 0.0328202791 -0.06463672817
572.5 -0.009765852724 -0.0593531227
573.125 -0.04094312982 -0.03767306052
573.75 -0.02836752244 -0.01964688502
574.375 -0.008619804388 -0.03413039183
575.0 -0.0190830246 -0.03222423499
575.625 -0.03368451924 -0.01814575375
576.25 -0.03899120225 -0.00575272586
576.875 -0.01897010535 -0.01147333778
577.5 0.004722867754 -0.01474652088
578.125 0.004832944461 -0.02697438518
578.75 7.283482596e-05 -0.03759816492
579.375 0.006379952824 -0.04259361258
580.0 0.01215652238 -0.05183964521
580.625 0.001504683012 -0.070978688
581.25 -0.02660071182 -0.07344309873
581.875 -0.05065071388 -0.04867585815
582.5 -0.03716426143 -0.03544097326
583.125 -0.0104314415 -0.03549530223
583.75 0.002566533043 -0.03927280445
584.375 -0.01814174126 -0.04063221547
585.0 -0.01461592986 -0.03787115774
585.625 0.01089160365 -0.0268286786
586.25 0.02466510635 -0.02232447166
586.875 0.004229481511 -0.03400269248
587.5 0.002393606078 -0.02950609501
588.125 0.005710850774 -0.03034492601
588.75 0.02072856723 -0.03868803217
589.375 -0.01475912104 -0.04900748284
590.0 -0.04745156936 -0.05042922409
590.625 -0.057015943 -0.0335625847
591.25 -0.04957816186 -0.005232982299
591.875 -0.03292157672 0.01064101304
592.5 -0.009889847225 -0.00462206871
593.125 0.0008502401642 -0.02203678694
593.75 -0.004140291849 -0.02181991124
594.375 -0.004568319652 -0.01431243951
595.0 0.02642338818 -0.02062913638
595.625 0.04541142988 -0.01645417092
596.25 0.04013103455 -0.02201387699
596.875 0.03570802571 -0.01834986839
597.5 0.04357800139 0.002973295271
598.125 0.0465457962 0.003087798384
598.75 0.0551717631 -0.02134740399
599.375 0.04407656816 -0.03704022252
600.0 0.05072684001 -0.03374749255
600.625 0.03468832063 -0.03877303187
601.25 0.02025990636 -0.03511415891
601.875 -0.00785385882 -0.0308487336
602.5 0.004459430119 -0.00916764434
603.125 0.008707697106 0.01045791814
603.75 0.01562765205 0.02039735882
604.375 0.02401731922 0.02406576662
605.0 0.02511194044 0.01827622504
605.625 0.01378823801 0.01444928911
606.25 -0.00590917865 0.0229045696
606.875 -0.01583855042 0.04505934521
607.5 0.0006246392545 0.03394785381
608.125 0.03136710581 0.05417665152
608.75 0.02828006031 0.04483004033
609.375 0.0213485803 0.03921740076
610.0 0.02153459342 0.04320712375
610.625 0.02286344531 0.03835204303
611.25 0.0126995933 0.02246697011
611.875 -0.0008174943233 0.009234211323
612.5 -0.00229435222 -0.01637091677
613.125 -0.02440265887 -0.001449907313
613.75 -0.0467484945 0.01622925062
614.375 -0.03255148075 0.01703590156
615.0 -0.01197927666 0.005164308786
615.625 -0.0276639895 0.00473457685
616.25 -0.04751329388 0.01575620617
616.875 -0.03641885277 0.02603856729
617.5 -0.008249787947 0.007645359896
618.125 -0.01150917623 0.00388375103
618.75 -0.02708919719 0.007724501478
619.375 -0.01985462019 0.008910734379
620.0 0.01847570284 -0.01617651853
620.625 0.006952713922 -0.03200070007
621.25 -0.005243641584 -0.0418756125
621.875 -0.02821313788 -0.05447846167
622.5 -0.06227711437 -0.03199735036
623.125 -0.07108680699 0.01244001842
623.75 -0.06113020551 0.02341555628
624.375 -0.05326633762 0.006526432533
625.0 -0.03821745605 -0.01675361106
625.625 -0.04188064021 -0.009420421362
626.25 -0.03226691414 0.009494962406
626.875 -0.006775614283 0.009328890685
627.5 0.008258331219 -0.007582847915
628.125 0.03549345629 -0.008586856945
628.75 0.02142928174 -0.01348608458
629.375 0.03091006553 -0.01208344304
630.0 0.04391246987 -0.01054948914
630.625 0.06430664169 -0.0009153708893
631.25 0.05816922614 -0.02781019551
631.875 0.05458148362 -0.02261488914
632.5 0.04118004561 -0.03120403645
633.125 0.04853037333 -0.01120510058
633.75 0.03566760128 -0.01495369904
634.375 0.03467414079 -0.02558895439
635.0 0.01538951632 -0.02295553607
635.625 0.01172846691 -0.009729159734
636.25 0.02671636421 -0.002840163175
636.875 0.04181673286 -0.002238009553
637.5 0.02566999208 -0.01439616804
638.125 0.008443801555 -0.00448404548
638.75 0.02289103341 0.04759137724
639.375 0.0184229192 0.05728440073
640.0 0.02807352791 0.04683344022
640.625 0.02519394548 0.03592828146
641.25 -0.001298091254 0.03984089629
641.875 -0.003831282759 0.03423443562
642.5 -0.006605726913 0.03726932408
643.125 -0.01117182707 0.03347123185
643.75 -0.03229703526 0.02338452331
644.375 -0.01662202129 0.0198817454
645.0 -0.02963832729 0.03059628756
645.625 -0.0388017537 0.04209179377
646.25 -0.04464806925 0.04795699444
646.875 -0.01649453304 0.04108660514
647.5 -0.0076738779 0.03709939367
648.125 -0.03494282648 0.03563789497
648.75 -0.04412868655 0.03073769662
649.375 -0.02460937449 0.0362682538
650.0 -0.01504752111 0.02815552252
650.625 -0.01622834647 -0.0001830203686
651.25 -0.01195599078 -0.01428164951
651.875 -0.005016818806 -0.01373084475
652.5 0.01266788132 -0.0195659145
653.125 0.04034239608 -0.02377624913
653.75 0.05785802997 -0.03429758516
654.375 0.0719116039 -0.04073523789
655.0 0.06256184208 -0.04241419108
655.625 0.04478299641 -0.04434433759
656.25 0.03249079786 -0.05327539807
656.875 0.01896427516 -0.05210615677
657.5 0.02389722555 -0.04525091879
658.125 0.01001316948 -0.03749039039
658.75 -0.006623980192 -0.02654177179
659.375 0.02487215161 -0.01931479054
660.0 0.04330962853 -0.009958909168
660.625 0.02991678007 -0.0162129462
661.25 0.02967992448 -0.03486815991
661.875 0.03153475093 -0.06855255631
662.5 0.01959265525 -0.07075269407
663.125 0.009795931442 -0.06791327862
663.75 0.02978276079 -0.06185037038
664.375 0.07249926828 -0.03286845296
665.0 0.0489363309 -0.01263001849
665.625 0.04861992313 7.507344849e-05
666.25 0.04570365592 0.0285417992
666.875 0.008850963024 0.0350899271
667.5 -0.001024272911 0.01446064436
668.125 -0.0148622058 0.02784430258
668.75 -0.02307226378 0.06253673513
669.375 -0.01925600148 0.05535690572
670.0 -0.001716248253 0.04567478871
670.625 -0.01139385052 0.04326413396
671.25 -0.01243218993 0.05837298955
671.875 0.01274032209 0.06154044848
672.5 0.05127799871 0.03389710338
673.125 0.03442527151 0.01682125465
673.75 0.01768331188 0.03245181705
674.375 0.001050731008 0.03449722503
675.0 -0.007346861418 0.03370931157
675.625 -0.03230794256 0.03456687256
676.25 -0.05631528895 0.02015280072
676.875 -0.05720878221 0.01303537906
677.5 -0.06708161476 0.02034597403
678.125 -0.08185506084 0.02946015539
678.75 -0.060253321 0.03129469945
679.375 -0.04887012428 0.04314519073
680.0 -0.03159869659 0.02875395711
680.625 -0.03624411499 0.01458784319
681.25 -0.01702418642 0.01213932664
681.875 -0.01032166392 0.02490899809
682.5 -0.02936625211 0.007994391037
683.125 -0.05141390929 0.002747457598
683.75 -0.05786514849 0.005493512347
684.375 -0.05778982375 -0.01282585358
685.0 -0.05481408398 -0.05727960869
685.625 0.00948263992 -0.07088266916
686.25 0.02410376182 -0.07988902116
686.875 0.03312653689 -0.07983201181
687.5 0.03730157461 -0.07315854792
688.125 0.01801882608 -0.04019932194
688.75 0.01793708157 -0.02765364783
689.375 0.02869487687 -0.002454837963
690.0 0.04303283647 0.01401824364
690.625 0.02936413097 0.01147125917
691.25 0.03643967676 0.01790848495
691.875 0.07546054157 -0.00795368879
692.5 0.05878613332 -0.08762371754
693.125 -0.04548578247 -0.07477304637
693.75 -0.07257194677 -0.02150445785
694.375 -0.06700240873 -0.01972606828
695.0 -0.03721993824 -0.04143217796
695.625 -0.02490423322 -0.06181178183
696.25 0.04231231654 -0.03754286629
696.875 0.01683025187 0.02110980226
697.5 -0.009638543286 0.02529501141
698.125 -0.02047529712 0.03917661206
698.75 -0.03707821521 0.05948491244
699.375 -0.04534219686 0.05088240625
700.0 -0.03379045794 0.04159020773
700.625 -0.04078421806 0.05504861886
701.25 -0.06356782723 0.04862970438
701.875 -0.03513672347 0.03926054844
702.5 0.006952291921 0.03429532816
703.125 0.01446839366 0.02303759708
703.75 -0.01671019158 0.04989340525
704.375 0.01186199555 0.06603445458
705.0 0.04052962395 0.04997262619
705.625 0.01385072778 0.05976370475
706.25 -0.02543317434 0.06737452034
706.875 -0.07432983825 0.01369523951
707.5 -0.07913897858 -0.01729843136
708.125 -0.05590610468 -0.04086591189
708.75 -0.0405573552 -0.04154767098
709.375 -0.001880186645 -0.03689388356
710.0 0.03581927888 -0.01222107171
710.625 0.03409372032 0.00590898367
711.25 0.0211995096 -0.006409425593
711.875 0.004898989318 0.01771515228
712.5 0.0339031624 0.03821925162
713.125 0.08609894928 0.01355005953
713.75 0.02982605017 -0.07179431153
714.375 -0.02630183792 -0.07791400349
715.0 -0.04752722915 -0.07298425516
715.625 -0.03648272113 -0.07256375081
716.25 -0.02150658388 -0.05779577618
716.875 -0.006667876837 -0.05077388166
717.5 0.02771481841 -0.02052032314
718.125 0.03378044839 0.01661075935
718.75 0.03641407019 0.01511359627
719.375 0.0277224831 0.01115183318
720.0 -0.01085828598 0.03179425657
720.625 -0.04666054371 0.0007465161272
721.25 -0.04780872355 -0.04526954685
721.875 -0.02330057453 -0.05941402158
722.5 0.005249271099 -0.07591272171
723.125 -0.03721821581 -0.05705517474
723.75 -0.05756403217 -0.01575470194
724.375 -0.02961844145 0.02316762334
725.0 -0.02014156878 0.01737865785
725.625 -0.01743690749 0.01352213965
726.25 -0.02122673377 0.007342677866
726.875 -0.05206029449 -0.01252998101
727.5 -0.05179789733 -0.02541273823
728.125 -0.05255185441 -0.03285144053
728.75 -0.05330795578 -0.03614645153
729.375 -0.04373482096 -0.02277934944
730.0 -0.0266137214 -0.00781932206
730.625 -0.04231824525 -0.03157308896
731.25 -0.01341712396 -0.04494652055
731.875 0.01309319673 -0.02953177163
732.5 0.0211789368 -0.01037350929
733.125 -0.00233053518 0.01420735824
733.75 0.04307055458 0.04771217314
734.375 0.05075458368 0.02953476572
735.0 0.0320026314 -0.0002076664324
735.625 0.03608676581 -0.02269239658
736.25 0.05769684134 -0.04381753969
736.875 0.02169510408 -0.04616602722
737.5 -0.009104833246 -0.02295897094
738.125 0.01071054125 0.005749112111
738.75 0.01190608469 0.0535911268
739.375 0.02641282013 0.05526320546
740.0 0.04669549818 0.02965708892
740.625 0.006167099984 0.02587122013
741.25 0.02119724811 0.02971610162
741.875 0.007686125462 0.05050562156
742.5 -0.04186737979 0.02762094844
743.125 -0.01048243937 -0.03309183424
743.75 -0.006794063879 -0.04184789212
744.375 -0.01514426918 -0.05269619296
745.0 -0.02797726016 -0.05866117563
745.625 -0.02040895477 -0.02023028993
746.25 -0.01095170382 0.0055840342
746.875 -0.01178066299 0.0003803573333
747.5 -0.01474055379 -0.02262985053
748.125 -0.02602468693 -0.02236273788
748.75 -0.03715263824 0.005134230545
749.375 -0.01990691311 0.0384144544
750.0 0.0227246576 0.04900279721
