!Created with skrf (http://scikit-rf.org).
# GHz S RI R 50.0 
!freq ReS11 ImS11
500.0 -0.03064803553 0.006383133926
500.625 -0.01217966992 0.0269427107
501.25 -0.01640221245 0.02420324829
501.875 -0.04196704898 0.03693563895
502.5 -0.05136164681 0.04364214563
503.125 -0.0146596458 0.04799332683
503.75 0.007863212566 0.03989619797
504.375 0.01669437242 0.03727322949
505.0 0.03734085746 0.02438954679
505.625 0.04390226012 0.01349828858
506.25 0.02654565746 0.00231447689
506.875 0.009116513456 0.02115327077
507.5 0.01438217412 0.03068544075
508.125 0.007497034489 0.04050499764
508.75 0.01410724683 0.0338875843
509.375 0.01733428244 0.04151728355
510.0 0.03290350168 0.05439109752
510.625 0.03630334109 -0.01866678544
511.25 0.01561116986 -0.01556737247
511.875 0.007692402131 -0.002031783434
512.5 0.01151584254 -0.0092494348
513.125 -0.001856670505 -0.03064096991
513.75 -0.02147164274 -0.04421463137
514.375 -0.04860897436 -0.02253302255
515.0 -0.05819971108 0.01259941238
515.625 -0.06282680436 -0.02014440437
516.25 -0.04173375456 0.02364716023
516.875 -0.04170462514 0.009288696489
517.5 -0.007569763563 0.01104932627
518.125 0.02819340381 -0.02730032135
518.75 -0.01906128419 -0.03735241026
519.375 -0.03419030312 -0.008759324074
520.0 -0.02727319757 0.01034201784
520.625 -0.02028799754 -0.00918028897
521.25 -0.0255743306 -0.009207910372
521.875 -0.01095941434 0.002250470761
522.5 -0.006264616897 0.002616608584
523.125 -0.02680235451 -0.04794797863
523.75 -0.07993918029 -0.08669379182
524.375 -0.1008500686 -0.1010445064
525.0 -0.07357352464 -0.03412631254
525.625 -0.07716829144 -0.01426438722
526.25 -0.06451387749 -0.0140717861
526.875 -0.05094400391 0.0008646377365
527.5 -0.05224300117 0.02285261137
528.125 -0.0238474979 0.05119037036
528.75 -0.01579930835 0.05282465767
529.375 0.001143437141 0.06982771194
530.0 0.04712397431 0.07186624472
530.625 0.1069330656 -0.0186190762
531.25 0.1371439418 -0.04629904818
531.875 0.0802744861 -0.04233285408
532.5 0.04978239972 -0.0143996922
533.125 0.04008567732 -0.02130980421
533.75 0.04446295064 -0.04373843268
534.375 0.04652790999 -0.02069745395
535.0 0.04704747267 -0.002583974947
535.625 0.04332112154 0.00881000664
536.25 0.04988808216 -0.04105076258
536.875 0.07005042664 -0.04834838121
537.5 0.05573341676 -0.02440478269
538.125 0.02062818565 -0.02091336486
538.75 0.03743491054 -0.01590866554
539.375 0.08197141589 -0.001464035107
540.0 0.09534944577 -0.02653063679
540.625 0.06703174746 -0.03714228912
541.25 0.05916285223 -0.02670933349
541.875 0.06256889191 -0.03082063866
542.5 0.04494396206 -0.04306377693
543.125 0.006942954443 -0.03579655612
543.75 0.001916785129 -0.00102469742
544.375 0.02609664998 0.0005120788953
545.0 0.008122008113 -0.03651229137
545.625 -0.02408732229 -0.04919406981
546.25 -0.03049426534 -0.04023375869
546.875 -0.02712275 -0.02565705504
547.5 -0.03221802645 -0.02614255561
548.125 -0.0329470096 -0.04918856301
548.75 0.005546914914 -0.06497297856
549.375 0.0202439259 -0.05547941092
550.0 0.04944475459 -0.05592824832
550.625 0.07047675502 -0.07520683007
551.25 0.09870110814 -0.04713426744
551.875 0.05689116813 -0.07005877457
552.5 0.03025688275 -0.08084106102
553.125 0.01447435218 -0.08073963055
553.75 0.008162457702 -0.07072381849
554.375 -0.01861724287 -0.05926640828
555.0 -0.01544207054 -0.04622262347
555.625 -0.006234506272 -0.04493020934
556.25 -0.008200578294 -0.03973677305
556.875 -0.01742310985 -0.0411700779
557.5 0.0001219672629 -0.02453560538
558.125 0.0196799056 -0.007635600188
558.75 0.02516297276 0.008602920621
559.375 0.04209647317 -0.005500147251
560.0 0.07345325305 -0.01173605785
560.625 0.06698183042 -0.03781729003
561.25 0.03143137337 -0.06158198564
561.875 -0.001563011444 -0.06236819166
562.5 -0.01496922148 -0.05738928277
563.125 -0.02542429127 -0.03672613167
563.75 -0.03203431759 -0.01609692269
564.375 -0.01649472329 -0.009272109198
565.0 0.0003699399523 -0.02343648086
565.625 0.003019652395 -0.03787259436
566.25 0.009271106983 -0.04878802824
566.875 0.01751395095 -0.04751892403
567.5 0.01901156254 -0.02861582128
568.125 0.02267655853 -0.02366313656
568.75 0.05369113961 -0.01375830579
569.375 0.07263943648 -0.006923168586
570.0 0.06407086306 -0.01792566455
570.625 0.04595817926 -0.04781431554
571.25 0.04887906497 -0.05967975682
571.875 0.04424789602 -0.05937574985
572.5 -0.005088671049 -0.06148412337
573.125 -0.04203237395 -0.04099109886
573.75 -0.02888968282 -0.02760339558
574.375 -0.004837828309 -0.04110294738
575.0 -0.02006550481 -0.0375919462
575.625 -0.03590855435 -0.01950398708
576.25 -0.03066151085 -0.01374837576
576.875 -0.0107062365 -0.01497994269
577.5 0.001047727074 -0.01902588819
578.125 0.004917547588 -0.02904776618
578.75 0.00620180638 -0.03894005831
579.375 0.004989710958 -0.04309644073
580.0 0.006493931677 -0.05689322413
580.625 0.002413757702 -0.07397948527
581.25 -0.0240270581 -0.07311199016
581.875 -0.04424379655 -0.048727822
582.5 -0.04109086223 -0.0385456669
583.125 -0.01103731147 -0.03933517684
583.75 0.001861967957 -0.03670043675
584.375 -0.01045723313 -0.03867459748
585.0 -0.01046353216 -0.03816846262
585.625 0.01169863953 -0.02841668454
586.25 0.02178222548 -0.02193444661
586.875 0.005583695924 -0.03081267418
587.5 -0.002939805136 -0.03033993499
588.125 0.002473495489 -0.0295866583
588.75 0.01589849926 -0.03584440861
589.375 -0.007284292755 -0.05201436039
590.0 -0.04300196698 -0.05241868784
590.625 -0.06194056 -0.02452388884
591.25 -0.05123143279 0.002615795773
591.875 -0.02945843231 0.01094631252
592.5 -0.01138456372 0.0006524953989
593.125 -0.004871963245 -0.01196170248
593.75 -0.006245239306 -0.01209848878
594.375 0.004697748083 -0.01680748128
595.0 0.0244506021 -0.01798470263
595.625 0.0324956873 -0.01865054632
596.25 0.02814568442 -0.02100642615
596.875 0.0288363514 -0.01648322836
597.5 0.03293280714 -0.003150426627
598.125 0.03794474674 -0.003084454532
598.75 0.04302033929 -0.02004719203
599.375 0.04291041797 -0.03610633205
600.0 0.03881263313 -0.04246830287
600.625 0.0236954681 -0.04510880572
601.25 0.004703430801 -0.04038642801
601.875 -0.006870695264 -0.02666319553
602.5 -0.008420627669 -0.01355139398
603.125 -0.007882022928 -0.003578276543
603.75 -0.001425015318 0.007868969779
604.375 0.01023191223 0.01227259304
605.0 0.01343270439 0.002882798503
605.625 0.004330988765 -0.004457564369
606.25 -0.01171615289 0.002451398408
606.875 -0.01695450457 0.02229621169
607.5 -0.0005207353396 0.03225769838
608.125 0.01837339896 0.02389332672
608.75 0.01920919448 0.01708632047
609.375 0.01735565366 0.01906675947
610.0 0.02032018098 0.01718565
610.625 0.02376459719 0.006507778982
611.25 0.02000318226 -0.004906592374
611.875 0.01286384239 -0.01176899986
612.5 0.003301172639 -0.0195227363
613.125 -0.01161952766 -0.01667709566
613.75 -0.01601027969 -0.005065868021
614.375 -0.008116306472 0.001403683531
615.0 -0.00124373689 -0.005490581214
615.625 -0.007089083919 -0.01387259401
616.25 -0.01579389134 -0.006213049489
616.875 -0.008919801692 0.004279578173
617.5 0.004034784863 0.000942141488
618.125 0.006787064267 -0.007433384984
618.75 0.004803940115 -0.008908678992
619.375 0.01389902271 -0.006175899538
620.0 0.03041479941 -0.0129686688
620.625 0.02713382255 -0.03634284106
621.25 0.02046020139 -0.05340472757
621.875 0.008106636577 -0.06539134479
622.5 -0.0463799485 -0.0392801972
623.125 -0.04905209744 -0.007780486895
623.75 -0.03539355795 -0.0008388545356
624.375 -0.01624339055 -0.009417765697
625.0 -0.006577591245 -0.009920164105
625.625 -0.009553985576 -0.002723102618
626.25 0.001779275641 0.01016756451
626.875 0.02769087508 0.01209628376
627.5 0.0382176898 0.01032836139
628.125 0.04113635859 0.004604447307
628.75 0.04265274364 0.007871612429
629.375 0.049376887 0.0164650033
630.0 0.05593152472 0.01594940179
630.625 0.06324692234 0.01877149845
631.25 0.05892584417 0.01558856561
631.875 0.04847024503 0.007965378412
632.5 0.04010547581 -0.004566922215
633.125 0.03783620422 0.00467936996
633.75 0.02808092376 0.01277980584
634.375 0.02000755669 0.01065700463
635.0 0.01667827329 0.005044961564
635.625 0.01815320952 0.01833574355
636.25 0.02773840082 0.03791233332
636.875 0.03012165573 0.02784618786
637.5 0.02451991499 0.01280096316
638.125 0.007130418429 0.02986397994
638.75 0.002739029883 0.05775755337
639.375 0.004154054489 0.06551222185
640.0 0.0009582878229 0.06037183401
640.625 -0.006963457008 0.04331274436
641.25 -0.01464475831 0.02616423361
641.875 -0.02038829287 0.03195947774
642.5 -0.03522535989 0.02982519152
643.125 -0.03926645112 0.01636636308
643.75 -0.02849991083 0.002739520792
644.375 -0.03543834629 0.0135270977
645.0 -0.06098756775 0.0205487215
645.625 -0.06711651339 0.0191893219
646.25 -0.04215467515 0.02957408094
646.875 -0.03043501373 0.03309394407
647.5 -0.04629260795 0.02361248155
648.125 -0.05611795361 0.009271276938
648.75 -0.04532113318 0.01637101701
649.375 -0.03442852766 0.01636679655
650.0 -0.02355081397 -0.004116550787
650.625 -0.007960614864 -0.02468338218
651.25 -0.001926124499 -0.02757764648
651.875 0.01375138952 -0.03254779426
652.5 0.0411744829 -0.02286143605
653.125 0.05680238627 -0.02042533911
653.75 0.07344213373 -0.02576598172
654.375 0.08764463128 -0.02237646831
655.0 0.07531238732 -0.01310383609
655.625 0.05482688003 -0.03323409777
656.25 0.04930851168 -0.03704988747
656.875 0.04745955588 -0.0327197511
657.5 0.03591860606 -0.01402387742
658.125 0.01891230919 -0.02826515285
658.75 0.01721642268 -0.01398930578
659.375 0.03632126324 0.01048447493
660.0 0.04913817517 0.01093722602
660.625 0.04731114433 -0.01572785444
661.25 0.05410237217 -0.03751310235
661.875 0.05718198645 -0.05236080005
662.5 0.03495071558 -0.0636185901
663.125 0.029683212 -0.07163636634
663.75 0.05552238249 -0.05568865792
664.375 0.06193764681 -0.004561022533
665.0 0.05033017558 0.004584804416
665.625 0.04555029839 0.0221868735
666.25 0.01870981205 0.03513730305
666.875 -0.01341530871 0.02510748651
667.5 -0.01620255471 0.02267972647
668.125 -0.03394271678 0.03898669153
668.75 -0.04941501145 0.05334256937
669.375 -0.03578012944 0.05281327708
670.0 -0.0201998592 0.05217680025
670.625 -0.03137237217 0.04781112462
671.25 -0.03737319997 0.05631988426
671.875 -0.002272464101 0.05971743336
672.5 0.03224446542 0.0486130455
673.125 0.01884852071 0.03268536956
673.75 -0.004130996137 0.03339122253
674.375 -0.009984628965 0.03975869036
675.0 -0.02770575916 0.04985431305
675.625 -0.05681408736 0.02612354946
676.25 -0.05258615135 0.004631323335
676.875 -0.06971618477 0.006627699307
677.5 -0.09120261669 0.009547171154
678.125 -0.0916978543 0.003407693435
678.75 -0.05730795112 0.0262768932
679.375 -0.05622841979 0.0278675676
680.0 -0.04523047179 0.007347122138
680.625 -0.03453538985 -0.01214509198
681.25 -0.01601201308 0.005035388727
681.875 -0.02134305169 0.009382353656
682.5 -0.05145520975 -0.002240201004
683.125 -0.06987062269 -0.009586795511
683.75 -0.06556324792 -0.0001291775921
684.375 -0.06472159775 -0.024183175
685.0 -0.02952207394 -0.07525570062
685.625 0.02326367755 -0.07760184905
686.25 0.03556630823 -0.0821225126
686.875 0.04873310424 -0.074488843
687.5 0.04495855828 -0.04823274217
688.125 0.02593603027 -0.03366911399
688.75 0.02647772608 -0.01825078367
689.375 0.03480673927 0.01548897486
690.0 0.02279469333 0.02929058867
690.625 0.02853862044 0.02234513952
691.25 0.04867226244 0.0253448483
691.875 0.09139584285 0.001648303534
692.5 0.06663994883 -0.06515236724
693.125 -0.04526912146 -0.0843766754
693.75 -0.0757355346 -0.03857006883
694.375 -0.05766042258 -0.034874024
695.0 -0.03107460169 -0.04156581316
695.625 -0.004398040404 -0.06069238575
696.25 0.04862410545 -0.01550171615
696.875 0.01216400915 0.03133072591
697.5 -0.009717568302 0.02685965447
698.125 -0.03080328496 0.04237705003
698.75 -0.05642752588 0.05372040667
699.375 -0.05102770849 0.04192080068
700.0 -0.03390696129 0.04346306954
700.625 -0.05451845362 0.04068820036
701.25 -0.07044859283 0.02785464029
701.875 -0.03706315807 0.03519853358
702.5 0.006224589228 0.0346039617
703.125 -0.005000239231 0.02093345251
703.75 -0.02173397572 0.05379381195
704.375 0.01624244765 0.06648925644
705.0 0.04045711324 0.05179833447
705.625 0.01418596195 0.0613432836
706.25 -0.0436750905 0.05376428595
706.875 -0.07399912796 0.01467382307
707.5 -0.08256474048 -0.01713383059
708.125 -0.0541758733 -0.03963558871
708.75 -0.02302901439 -0.03469917729
709.375 0.001805783909 -0.03483958312
710.0 0.03509870659 -0.02170724359
710.625 0.03181092687 0.001875667668
711.25 0.01165649596 0.0001980068986
711.875 0.006322592065 0.009112571093
712.5 0.03084577173 0.0343606573
713.125 0.07797560647 0.01075129597
713.75 0.03734724291 -0.06302849749
714.375 -0.02845941218 -0.07102774787
715.0 -0.0556926502 -0.05797265294
715.625 -0.0454358969 -0.05802266068
716.25 -0.03164687101 -0.0503925588
716.875 -0.00913307618 -0.04424084155
717.5 0.0204093661 -0.01957681109
718.125 0.02408731855 -0.0007459700448
718.75 0.02804694211 0.001900491497
719.375 0.02291294501 0.01093647619
720.0 -0.002637108456 0.01855320582
720.625 -0.02853035625 0.001165619835
721.25 -0.03425048977 -0.030362972
721.875 -0.0135995778 -0.06246727144
722.5 -0.007123290767 -0.06683108002
723.125 -0.04399319187 -0.04075132594
723.75 -0.04658804912 0.009044576591
724.375 -0.02082266271 0.02174737367
725.0 -0.002731736218 0.01808372195
725.625 0.006716073158 0.006950685863
726.25 -0.001656253602 -0.003645778964
726.875 -0.02165497666 -0.01204349717
727.5 -0.03220272619 -0.0139646647
728.125 -0.0354275837 -0.01255037378
728.75 -0.03012199568 -0.002432734886
729.375 -0.01810895713 0.001235016035
730.0 -0.01559988019 -0.003219663651
730.625 -0.01914709436 -0.002674567589
731.25 -0.01448011789 -0.004140343032
731.875 -0.009111878115 -0.00518915577
732.5 -0.007560503802 -0.001142174013
733.125 -0.01162705171 0.01023389846
733.75 9.523032031e-06 0.02176526422
734.375 0.01537179931 0.01864957837
735.0 0.01911852925 0.003408955049
735.625 0.01717227371 -0.003398540916
736.25 0.01258473932 -0.01593355193
736.875 -0.005988102515 -0.02184653943
737.5 -0.02639399572 -0.008693028499
738.125 -0.04093561515 0.01146797476
738.75 -0.03574644086 0.03031832822
739.375 -0.01508663695 0.03723729222
740.0 0.001267553429 0.02200402887
740.625 -0.008912410485 0.01697794528
741.25 -0.01348581698 0.02487428344
741.875 -0.02630551908 0.01541302466
742.5 -0.02195243712 -0.01358665265
743.125 0.003418470851 -0.02545400834
743.75 0.01951226706 -0.02214261726
744.375 0.02050366464 -0.02004215813
745.0 0.007297459567 -0.01767965591
745.625 -0.005123181742 -0.00554799055
746.25 0.01560551829 0.005937339249
746.875 0.03616489355 -0.02004317449
747.5 0.01663054312 -0.0404820645
748.125 -0.0146762456 -0.03714081701
748.75 -0.03651245208 -0.01887365083
749.375 -0.04200153099 0.006908988367
750.0 -0.0166943375 0.04493517784
