!Created with skrf (http://scikit-rf.org).
# GHz S RI R 50.0 
!freq ReS11 ImS11
500.0 -0.02496850538 0.02659101241
500.625 0.009185139933 0.04225280038
501.25 0.02844757828 0.04217153209
501.875 0.01362103645 0.05025673446
502.5 -0.01776804031 0.06689190942
503.125 0.01840144487 0.05797434044
503.75 0.04416779274 0.03489366596
504.375 0.05315460228 0.01381948376
505.0 0.06240985398 0.009604461149
505.625 0.06662825302 -0.01015036287
506.25 0.05444365315 -0.04361034583
506.875 0.06749523085 -0.01438477016
507.5 0.05919262606 0.002841343122
508.125 0.07406248613 0.01043194974
508.75 0.05359832673 -0.0240208225
509.375 0.04978960792 -0.02170892023
510.0 0.07925258663 0.01035446453
510.625 0.02009120645 -0.05872572499
511.25 -0.01114579739 -0.05338438927
511.875 -0.02943547063 -0.0255462457
512.5 -0.009002737828 -0.02079393149
513.125 -0.02701559826 -0.0001930314137
513.75 -0.03854310873 0.01171756514
514.375 -0.05868058834 0.02857079821
515.0 -0.03152762198 0.06400024344
515.625 -0.06298039531 0.06699328535
516.25 -0.007285099942 0.09267936444
516.875 -0.07000194628 0.06406526537
517.5 -0.005510969462 0.07395424212
518.125 -0.05337574714 0.07045098796
518.75 -0.01105334589 0.02941547122
519.375 -0.05120481833 0.0325111402
520.0 -0.001706110389 0.05619910437
520.625 0.02935682072 0.04206522348
521.25 0.01932367658 0.03164426255
521.875 -0.0006659342554 0.03101554023
522.5 0.03834550783 0.01285247911
523.125 0.07302503796 -0.005536492517
523.75 0.01025228563 -0.02629911768
524.375 -0.03428685666 -0.03352119032
525.0 -0.03621718965 -0.001337879795
525.625 -0.03581732175 0.02436846328
526.25 -0.03927901947 0.02960943534
526.875 -0.03149972703 0.03741645415
527.5 -0.01322080159 0.04349108419
528.125 0.02455285658 0.03445618979
528.75 0.03036610773 0.03276922977
529.375 0.05346471374 0.03312361965
530.0 0.05257771981 0.006429899187
530.625 0.08174591293 -0.07254062621
531.25 0.09195458747 -0.1123939226
531.875 0.05140019128 -0.1411302041
532.5 -0.01381344902 -0.08773213848
533.125 -0.008266084143 -0.06310425982
533.75 -0.007767717501 -0.06076498613
534.375 -0.006267528478 -0.07314357505
535.0 -0.006894895468 -0.04178951473
535.625 0.01598863614 -0.02583328357
536.25 0.01183269486 -0.04523861159
536.875 0.01102577789 -0.08601959261
537.5 0.01245858863 -0.08286943936
538.125 -0.005795321351 -0.0550946462
538.75 -0.006159627562 -0.03482960025
539.375 0.03375544686 -0.06914363687
540.0 0.05208684108 -0.107147857
540.625 0.02889305322 -0.09141316628
541.25 0.02067684496 -0.07064816185
541.875 0.02111678459 -0.08818368734
542.5 0.005637826675 -0.0819736988
543.125 -0.0373937102 -0.06860984884
543.75 -0.04753849504 -0.009146450093
544.375 -0.03120866488 -0.02002803816
545.0 -0.02311258432 -0.009595998571
545.625 -0.02767636047 0.01078916487
546.25 -0.03370528545 0.02120146393
546.875 -0.03957077923 0.02676631511
547.5 -0.0372796509 0.02213727215
548.125 -0.03310346535 0.01894769818
548.75 -0.03446688808 -0.001972415017
549.375 -0.05016406859 -0.02775544616
550.0 0.001180720963 -0.03854248918
550.625 0.01717319486 -0.04567077889
551.25 0.04016651737 -0.06755927316
551.875 0.009157086941 -0.1034028361
552.5 -0.01653020248 -0.08685500475
553.125 -0.03762814059 -0.06813613307
553.75 -0.03906357287 -0.07473730894
554.375 -0.0685332313 -0.05818828639
555.0 -0.06467671497 -0.03656742216
555.625 -0.04995468254 -0.01819632518
556.25 -0.05191263949 -0.03796144042
556.875 -0.05617966675 -0.02900239991
557.5 -0.05950854111 -0.02599891849
558.125 -0.03277791374 -0.0128078337
558.75 -0.003216263225 -0.01308740911
559.375 0.002692543753 -0.02016204187
560.0 0.02069773143 -0.04269873614
560.625 0.02619693022 -0.05551076973
561.25 -0.001380851364 -0.07283110636
561.875 -0.04266993387 -0.06025990641
562.5 -0.05770274616 -0.03508090821
563.125 -0.06294167416 -0.01294267786
563.75 -0.05944651601 0.01180835222
564.375 -0.04911206977 0.03596635629
565.0 -0.04142866077 0.01735838642
565.625 -0.02208726667 -0.005831805465
566.25 -0.02572152101 -0.02599838402
566.875 -0.03285296804 -0.03224947891
567.5 -0.028216866 -0.03648101627
568.125 -0.006348757066 -0.02253707726
568.75 0.006934641736 -0.02752993169
569.375 0.03306221362 -0.03222981433
570.0 0.03252159963 -0.06421831539
570.625 0.02435584525 -0.05366373274
571.25 0.005878315515 -0.06575966745
571.875 -0.002643669977 -0.07742202898
572.5 -0.05250494156 -0.07623201975
573.125 -0.0638180486 -0.03187746049
573.75 -0.06079502248 0.006618533486
574.375 -0.05194202637 -0.005571242046
575.0 -0.05380952457 -0.01949662162
575.625 -0.05065673824 0.001579658614
576.25 -0.04844039198 0.01674792315
576.875 -0.04656158736 0.03119731522
577.5 -0.02685118049 0.002300801584
578.125 -0.01305801834 -0.008158081859
578.75 -0.01953936477 -0.01722579883
579.375 -0.02600304422 -0.02181624658
580.0 -0.02472406116 -0.02938597045
580.625 -0.02385476772 -0.0549234511
581.25 -0.06075251813 -0.05339290123
581.875 -0.06943750301 -0.04022593442
582.5 -0.0742582408 -0.006098929068
583.125 -0.06197071699 -0.0181788617
583.75 -0.03631295698 -0.03611097939
584.375 -0.0351301339 -0.04280276438
585.0 -0.04796433781 -0.02822345555
585.625 -0.03794629571 -0.02992214704
586.25 -0.0117723376 -0.03956348014
586.875 -0.01235403275 -0.03951600793
587.5 -0.03738159151 -0.01922197666
588.125 -0.03544493787 -0.008029560966
588.75 -0.01606016394 -0.03381556294
589.375 -0.02891301321 -0.04401640307
590.0 -0.06024721028 -0.01649970648
590.625 -0.08058305541 0.01184369268
591.25 -0.0723065935 0.01341858435
591.875 -0.04834790084 0.02341019038
592.5 -0.0276458625 0.02997547817
593.125 -0.02773977589 0.01193687672
593.75 -0.02779993097 -0.007471831256
594.375 -0.02052532972 -0.01500075163
595.0 -0.01393368364 -0.009468775757
595.625 0.01012909302 -0.03566670547
596.25 0.02246658907 -0.03835444291
596.875 0.02198200784 -0.04018012273
597.5 0.02134720181 -0.02905134101
598.125 0.02949879778 -0.02652175927
598.75 0.03602417654 -0.03796753393
599.375 0.03821133056 -0.06019597365
600.0 0.01632841474 -0.06214539174
600.625 0.0270242646 -0.06217738325
601.25 0.01201322962 -0.06039116571
601.875 -0.0008488082566 -0.05235812448
602.5 -0.01322780551 -0.03486642915
603.125 0.00253823018 -0.02180774591
603.75 0.01731782581 -0.006817397602
604.375 0.02670091937 -0.007287923394
605.0 0.03910750627 -0.008455989764
605.625 0.008397843103 -0.01719520042
606.25 0.008720205291 0.002414253867
606.875 0.009672720714 0.02568671429
607.5 0.02794165666 0.03970099903
608.125 0.03715303649 0.01431954631
608.75 0.05739122157 0.02432791824
609.375 0.04699010096 0.02996504819
610.0 0.04462941061 0.03416362898
610.625 0.03716817872 0.01125711047
611.25 0.04215503549 0.02477652914
611.875 0.02468153155 0.01885828627
612.5 0.007499142171 0.0152331142
613.125 -0.008954859135 0.002430002147
613.75 -0.01470873146 0.02847461398
614.375 -0.02292959237 0.04894437744
615.0 -0.005836273396 0.03708225618
615.625 -0.01218710019 0.01463804826
616.25 -0.02278353302 0.03887758093
616.875 -0.02387562349 0.05693839774
617.5 -0.009370125212 0.04720917631
618.125 -0.01047152934 0.01666008391
618.75 -0.01683066052 0.03618659856
619.375 -0.01774673488 0.04117455618
620.0 -0.002293319425 0.02937801071
620.625 0.002952001504 -0.02286844953
621.25 -0.006002442771 -0.03064202103
621.875 -0.03266581655 -0.02379016235
622.5 -0.06089671829 0.01833188112
623.125 -0.06188706385 0.03398350236
623.75 -0.05445720082 0.04768132329
624.375 -0.05678176891 0.03869154279
625.0 -0.06258938237 0.009258054524
625.625 -0.06341616199 0.01014857942
626.25 -0.04019258623 0.01394999467
626.875 -0.02938304917 0.02860334762
627.5 -0.01700203705 0.009260247047
628.125 -0.01655654635 -0.009609372307
628.75 0.01047293066 -0.023335199
629.375 0.005344181025 -0.01294871253
630.0 0.005979826255 -0.02454486855
630.625 0.02945173557 -0.02988922551
631.25 0.03725422096 -0.04163940388
631.875 0.03472516603 -0.05285486497
632.5 0.02857957586 -0.05630909308
633.125 0.02196874732 -0.05338125307
633.75 0.03287725637 -0.04775662258
634.375 0.0253635097 -0.04853681143
635.0 -0.001198512282 -0.05861878526
635.625 -0.008956922125 -0.03430861833
636.25 0.006603316769 -0.02667992962
636.875 0.04790954991 -0.02944084884
637.5 0.02913657582 -0.03513820443
638.125 -0.003643524227 -0.03283040146
638.75 0.00764599723 -0.005712877601
639.375 0.04958634545 0.03654474003
640.0 0.04562529577 0.03898264859
640.625 0.05169152222 0.01033489279
641.25 0.04392896593 0.01128946256
641.875 0.02791507336 0.04852588984
642.5 0.02960757405 0.03277674124
643.125 0.02170733755 0.04033964581
643.75 0.02156419936 0.03648595772
644.375 -0.001109099185 0.04525669826
645.0 0.005528768745 0.03484653479
645.625 0.008554045749 0.04460146801
646.25 0.0101324046 0.06315334926
646.875 0.006805836341 0.06310796174
647.5 0.01694431042 0.04442414558
648.125 0.01312042483 0.04684091218
648.75 -0.01082227372 0.06481461863
649.375 -0.01515393195 0.06285595404
650.0 -0.00175816057 0.0526281863
650.625 -0.007424011592 0.04315787103
651.25 -0.02900567105 0.01886187033
651.875 -0.02585733423 0.007794602488
652.5 -0.0291203711 -0.01234149071
653.125 -0.005458002327 -0.02285856566
653.75 0.01783649849 -0.03505357064
654.375 0.03357127165 -0.06497357953
655.0 0.03779654562 -0.07560964306
655.625 0.01463520275 -0.0756951964
656.25 -0.0005584053977 -0.06994733249
656.875 -0.0181097645 -0.07255436022
657.5 -0.006808309299 -0.08870033872
658.125 -0.002834500081 -0.08348094917
658.75 -0.03737999818 -0.04360579654
659.375 -0.0341221171 -0.02062775018
660.0 -0.01583076692 -0.04027607696
660.625 -0.000515623618 -0.04037899896
661.25 -0.009385106957 -0.0240833031
661.875 -0.01811507479 -0.03729630585
662.5 -0.04792376518 -0.07120216526
663.125 -0.03034910924 -0.05695605204
663.75 -0.01480077564 -0.07177215632
664.375 0.02712602411 -0.07358544483
665.0 0.05754082886 -0.05986766426
665.625 0.05117048906 -0.0390749155
666.25 0.05823807578 -0.02646190391
666.875 0.07431127127 0.004385199629
667.5 0.03612907178 0.01238416041
668.125 0.02037172618 0.007585066052
668.75 0.0206026562 0.03024298355
669.375 0.03421206821 0.0536741537
670.0 0.03303766547 0.05076951253
670.625 0.0300749426 0.03327360158
671.25 0.03948652307 0.04918746558
671.875 0.05993139002 0.04712785323
672.5 0.08948279338 0.004859171599
673.125 0.05527810854 -0.03126148262
673.75 0.0457636289 -0.0151208713
674.375 0.04929358724 0.01309191778
675.0 0.03321082314 0.02441007142
675.625 0.02044275786 0.02961105514
676.25 -0.008759607243 0.04915283701
676.875 -0.03117906865 0.04604356758
677.5 -0.03705601007 0.05117318006
678.125 -0.03986212338 0.06708738902
678.75 -0.04974802778 0.09252454309
679.375 -0.03604746141 0.06905281997
680.0 -0.01191138841 0.08173173131
680.625 -0.008076616347 0.07734517895
681.25 0.006260639559 0.056701251
681.875 0.01888432621 0.03681573723
682.5 0.02797272072 0.02916217094
683.125 0.003644735203 0.03840218526
683.75 -0.0240968338 0.03819431951
684.375 -0.04026997017 0.03408592582
685.0 -0.05625953145 -0.004812163545
685.625 -0.05624465135 -0.05023369897
686.25 -0.02695591208 -0.08535445124
686.875 -0.02514242494 -0.0928064083
687.5 -0.008878984328 -0.1008762126
688.125 -0.004514071907 -0.1027265454
688.75 -0.00448261941 -0.07324077671
689.375 0.002229287746 -0.05439182291
690.0 0.02462463349 -0.04715063813
690.625 0.03237014714 -0.04626479773
691.25 0.0112376371 -0.03052503168
691.875 0.02289600541 -0.03046820079
692.5 -0.01000493067 -0.0842545677
693.125 -0.09251792726 -0.05025933136
693.75 -0.09172991885 0.04736448908
694.375 -0.07218729283 0.04758480301
695.0 -0.08862231668 0.00840489211
695.625 -0.06151694355 -0.05124152114
696.25 -0.01397020291 -0.0888041956
696.875 0.05421636514 -0.03405527978
697.5 0.0344690113 0.01356772116
698.125 0.02137093845 0.02616071481
698.75 0.03685212304 0.04206281937
699.375 0.02532150639 0.07085904008
700.0 0.0003882013519 0.06568246537
700.625 -0.008444142594 0.06207263494
701.25 0.004681646682 0.08841588986
701.875 0.01154433724 0.109460548
702.5 0.03834682017 0.05520420479
703.125 0.04970083222 0.005229412185
703.75 0.03692527824 -0.009569123044
704.375 0.06195841361 0.01421649258
705.0 0.06270084932 0.009090019522
705.625 0.05602519161 0.01647988017
706.25 0.02241693099 0.05916696422
706.875 -0.02400753783 0.07557399652
707.5 -0.07694792559 0.04927812273
708.125 -0.09209271208 -0.0004451958766
708.75 -0.07731675871 -0.02787776989
709.375 -0.05644827912 -0.04475892561
710.0 -0.009575137955 -0.06013084907
710.625 0.03173843395 -0.05090380156
711.25 0.03468540155 -0.03933502735
711.875 -0.0002895586133 -0.03429276495
712.5 -0.0002143459373 -0.01556268105
713.125 0.02975011834 -0.04647351745
713.75 -0.007614531359 -0.08613525129
714.375 -0.06329126666 -0.04082656037
715.0 -0.08556367126 -0.01123116673
715.625 -0.1012607559 -0.03377597873
716.25 -0.08419777383 -0.05599631197
716.875 -0.04392836706 -0.06385228146
717.5 -0.03415693017 -0.05671631359
718.125 0.01920512248 -0.05736986
718.75 0.04719717092 -0.02848878289
719.375 0.04880805235 -0.02011572081
720.0 0.03899307316 0.006837953431
720.625 -0.001195042109 0.03118667363
721.25 -0.04989458959 -0.001726702723
721.875 -0.05571234607 -0.04874002445
722.5 -0.05257039727 -0.03803503521
723.125 -0.08329672512 -0.03749702612
723.75 -0.08141839889 0.02992943097
724.375 -0.03635274419 0.07401012964
725.0 0.02579932522 0.04825126981
725.625 0.02006981243 0.03653148538
726.25 0.01616328203 0.02203136756
726.875 -0.007259264581 0.02773080618
727.5 -0.05641268484 0.03088844827
728.125 -0.02904561608 0.0133813365
728.75 -0.05209016747 0.02619742357
729.375 -0.06216829381 0.03625066656
730.0 -0.05571621619 0.02721575702
730.625 -0.05262473855 0.01382115323
731.25 -0.05803021858 -0.01042306915
731.875 -0.03496673637 -0.05215261583
732.5 -0.003280457271 -0.03840048868
733.125 0.016738482 -0.03062797511
733.75 0.03715547404 -0.01169214342
734.375 0.06805805258 -0.02663573005
735.0 0.03586098125 -0.05061986802
735.625 0.01728044016 -0.03039216675
736.25 -0.003596113483 -0.08004623175
736.875 -0.005778023503 -0.09072777904
737.5 -0.01964466344 -0.06333762983
738.125 -0.01558255826 -0.04024043131
738.75 0.01953270372 -0.006700877295
739.375 0.06139479814 0.01397661452
740.0 0.05210478948 -0.0113992336
740.625 0.03562839797 -0.03817474585
741.25 0.02460656145 0.01897083642
741.875 0.02342617265 0.024223002
742.5 -0.001263509823 0.05632884557
743.125 -0.04904304848 0.01834583127
743.75 -0.02180261633 -0.03993226565
744.375 -0.04201503331 -0.02973143584
745.0 -0.07109037183 -0.0274511493
745.625 -0.08327624891 0.01298977575
746.25 -0.03152480283 0.01595499858
746.875 0.002876301643 0.03390604415
747.5 -0.003099493934 0.02378409065
748.125 -0.0173958768 0.01726978131
748.75 -0.01089605182 0.03048964505
749.375 0.002983255419 0.04644416312
750.0 0.04159793684 0.009932826265
