!Created with skrf (http://scikit-rf.org).
# GHz S RI R 50.0 
!freq ReS11 ImS11
500.0 -0.02300111019 0.03146273917
500.625 0.02195577658 0.04930777938
501.25 0.01816567516 0.04162800197
501.875 0.01091635949 0.05279679714
502.5 -0.007100589149 0.06727344604
503.125 0.02407195559 0.05680845862
503.75 0.04357972603 0.03350341484
504.375 0.0415946997 0.03728347216
505.0 0.05918582124 0.0007586538123
505.625 0.07355589719 -0.0288656038
506.25 0.05265017657 -0.03658116099
506.875 0.05388925556 0.02065541897
507.5 0.06529463156 -0.0106792211
508.125 0.0607808707 0.01900520028
508.75 0.05601840756 -0.02414049597
509.375 0.05582189274 -0.005519787399
510.0 0.08407499936 -0.003855056287
510.625 0.01804786173 -0.05640951797
511.25 -0.01348649743 -0.05308643196
511.875 -0.006815512647 -0.03301269721
512.5 -0.01004222843 -0.01466707377
513.125 -0.02618488351 0.00665291834
513.75 -0.03791287965 0.0121964424
514.375 -0.04590334397 0.03564864225
515.0 -0.02415171113 0.07098607713
515.625 -0.06623550325 0.05402376554
516.25 -0.02165117821 0.08649036824
516.875 -0.06610821433 0.06965950812
517.5 0.007880448894 0.07625957713
518.125 -0.04314714488 0.05347855372
518.75 -0.03679947109 0.02014552277
519.375 -0.04053829024 0.0300147362
520.0 0.0167463803 0.05268552008
520.625 0.01818411485 0.03673729699
521.25 -0.00212408951 0.03876314124
521.875 0.004211825769 0.0303118775
522.5 0.04101328201 0.01155438158
523.125 0.05483239867 -0.005623643614
523.75 0.007451421425 -0.02997308015
524.375 -0.04502477598 -0.03331664559
525.0 -0.02726524514 -0.004643701068
525.625 -0.04072743049 0.02025296153
526.25 -0.06253195298 0.03245672378
526.875 -0.02718501107 0.03031014703
527.5 -0.00538680736 0.03273347767
528.125 0.01771700953 0.04215333598
528.75 0.02602769414 0.04694703714
529.375 0.04233551197 0.03314176483
530.0 0.05880142347 0.01567192229
530.625 0.07946414475 -0.06500526019
531.25 0.1065250164 -0.1129816876
531.875 0.04178315736 -0.1230528017
532.5 -0.009566416305 -0.08133270313
533.125 0.00710417917 -0.0609843984
533.75 0.0008881851713 -0.0721450694
534.375 -0.002482136087 -0.06118193247
535.0 -0.01373628499 -0.03071954952
535.625 0.02596395082 -0.02282687229
536.25 0.01563877204 -0.05732926679
536.875 0.01135698538 -0.0737954485
537.5 0.0265965485 -0.08217599601
538.125 -0.00531922706 -0.04985562556
538.75 0.002341442135 -0.04924245074
539.375 0.03428514864 -0.05076291707
540.0 0.03608132559 -0.08014635176
540.625 0.02990521009 -0.08133191602
541.25 0.0285761943 -0.07781693974
541.875 0.0175379074 -0.07447629684
542.5 0.01941100686 -0.08353026534
543.125 -0.03223540104 -0.06376310338
543.75 -0.04678863555 -0.02608747683
544.375 -0.0197242811 -0.0150033258
545.0 -0.0143546843 -0.004347968885
545.625 -0.03404322479 0.003627788402
546.25 -0.04372236601 0.01898585918
546.875 -0.03201620448 0.01871900375
547.5 -0.02246798743 0.01679432034
548.125 -0.0300361838 0.01276032461
548.75 -0.05489846324 -0.005007116104
549.375 -0.03276070947 -0.03336012543
550.0 0.01161687673 -0.0288497355
550.625 0.01932744711 -0.05529383488
551.25 0.04343919156 -0.07912258648
551.875 0.01751913848 -0.09665034003
552.5 -0.010508937 -0.07646276358
553.125 -0.03267766958 -0.07252201148
553.75 -0.04609391736 -0.08723304196
554.375 -0.05675563221 -0.05540505062
555.0 -0.05209420986 -0.02702226454
555.625 -0.04796366322 -0.02595783364
556.25 -0.04659935483 -0.04051755074
556.875 -0.05203119327 -0.03012512311
557.5 -0.04716473589 -0.02071890299
558.125 -0.02686358202 -0.01770925376
558.75 0.0005257990757 -0.01643873311
559.375 0.01033251912 -0.01593577439
560.0 0.03042375534 -0.02498547247
560.625 0.03307770501 -0.05935718971
561.25 -0.001311414166 -0.07975534254
561.875 -0.0338686281 -0.05913562452
562.5 -0.05069424335 -0.0333474671
563.125 -0.06393334496 -0.02167284699
563.75 -0.06684724528 0.01047188309
564.375 -0.04364073262 0.0266439699
565.0 -0.02416774089 0.00846468095
565.625 -0.02444805175 -0.01288204879
566.25 -0.03397639894 -0.02933578026
566.875 -0.02198844681 -0.03423498857
567.5 -0.01560606409 -0.03240260982
568.125 -0.004991286856 -0.02770579035
568.75 0.01494829767 -0.02645502709
569.375 0.02834075707 -0.04346773114
570.0 0.04240848317 -0.05146480138
570.625 0.02757234865 -0.05502729276
571.25 0.004946291889 -0.06835192667
571.875 -0.006377775199 -0.08104460015
572.5 -0.03716717806 -0.07161132448
573.125 -0.06566313389 -0.03554548927
573.75 -0.05652920954 0.0003190920462
574.375 -0.0478260461 -0.01309744572
575.0 -0.04469652228 -0.0220751286
575.625 -0.0517476146 -0.001986904305
576.25 -0.05231706451 0.02106937379
576.875 -0.04473162431 0.01925289373
577.5 -0.01586956693 -0.001858960747
578.125 -0.01448226345 -0.01116946544
578.75 -0.0204623432 -0.01833764229
579.375 -0.01830600129 -0.02912026178
580.0 -0.01441256488 -0.03819691198
580.625 -0.02689074346 -0.05574130752
581.25 -0.05561320275 -0.05972877767
581.875 -0.07958154729 -0.03262926512
582.5 -0.06430012969 -0.01532278336
583.125 -0.04136498911 -0.02870387485
583.75 -0.03418344494 -0.03976208455
584.375 -0.04466676949 -0.03996379708
585.0 -0.03664343905 -0.03389429654
585.625 -0.02420288911 -0.03131701299
586.25 -0.001527585582 -0.03938322474
586.875 -0.02252200468 -0.03685118445
587.5 -0.02613137344 -0.0250352436
588.125 -0.02401670418 -0.02079117064
588.75 -0.01256986602 -0.03851928401
589.375 -0.03368050415 -0.03200496247
590.0 -0.05988795613 -0.03092061949
590.625 -0.07998470224 -0.00894934182
591.25 -0.07217144905 0.01338659975
591.875 -0.04709032575 0.03143433369
592.5 -0.02761843215 0.01638116512
593.125 -0.025290337 -0.004940708829
593.75 -0.02639365874 -0.007588578427
594.375 -0.02390444441 0.001233438673
595.0 -0.002196579254 -0.02084576847
595.625 0.02598988937 -0.0363455674
596.25 0.02223005144 -0.03752978002
596.875 0.01600157491 -0.03686404406
597.5 0.03501585815 -0.02557894296
598.125 0.04513905166 -0.01933796646
598.75 0.0405507172 -0.03817663821
599.375 0.01846619139 -0.0469718174
600.0 0.03881074249 -0.06310016814
600.625 0.03298866088 -0.06098741298
601.25 0.01165412536 -0.05880471299
601.875 -0.02156532154 -0.04299534774
602.5 0.001752200835 -0.03437638921
603.125 0.0122340937 -0.01348719656
603.75 0.01654927247 -0.005341960271
604.375 0.03065926974 -0.002558022792
605.0 0.02883273106 -0.004489979636
605.625 0.02411280528 -0.007556560621
606.25 0.01216501314 0.005346147643
606.875 0.01176354006 0.03230017855
607.5 0.007452013539 0.02586480464
608.125 0.04881830291 0.02706059112
608.75 0.05434319315 0.02506055473
609.375 0.04598046408 0.03273007913
610.0 0.03816544366 0.03376794414
610.625 0.04568910113 0.02537690135
611.25 0.04078786412 0.02356730645
611.875 0.02074561227 0.02499211341
612.5 0.003416201973 -0.01083958605
613.125 -0.009831949544 0.01251246399
613.75 -0.02431963082 0.04440104811
614.375 -0.02299437809 0.04314031249
615.0 -0.005871750247 0.02240118202
615.625 -0.01459270369 0.02892865412
616.25 -0.03074895544 0.04470842726
616.875 -0.02373193454 0.05104589215
617.5 -0.007483702027 0.02357953267
618.125 -0.01078643936 0.02628957998
618.75 -0.02453810051 0.03580869759
619.375 -0.01616812233 0.03574856058
620.0 0.004415398695 0.001311035275
620.625 0.004832678831 -0.01048628774
621.25 -0.01554995878 -0.01806855299
621.875 -0.02962826242 -0.02987756169
622.5 -0.0678360394 -0.009384737304
623.125 -0.06663229136 0.04378076871
623.75 -0.06001650936 0.04831326529
624.375 -0.05450576385 0.03323165626
625.0 -0.06234083223 0.006196671829
625.625 -0.05984284719 0.003193376772
626.25 -0.04484811754 0.02442054871
626.875 -0.02509303968 0.02658884456
627.5 -0.02122123065 0.00828737411
628.125 0.01411783948 -0.02324503553
628.75 0.003088168048 -0.0160611346
629.375 0.001360562723 -0.01546718812
630.0 0.01613999493 -0.0211631611
630.625 0.05929887693 -0.02407871447
631.25 0.03328038329 -0.04621300964
631.875 0.03962729478 -0.04890285601
632.5 0.02606913785 -0.05643680591
633.125 0.04584134984 -0.04333046631
633.75 0.02428175916 -0.04879401968
634.375 0.01453578986 -0.06025778629
635.0 0.003746691499 -0.04959565872
635.625 -0.006627792794 -0.03226935825
636.25 0.01348806183 -0.02703027658
636.875 0.03562711939 -0.03150582418
637.5 0.01911337887 -0.04417698793
638.125 -0.002221350815 -0.02667925563
638.75 0.03599749254 0.004866135686
639.375 0.04115313823 0.03435975616
640.0 0.04761912485 0.02539721631
640.625 0.04659855839 0.01825413762
641.25 0.03882572017 0.02967409654
641.875 0.02188474938 0.03808341419
642.5 0.02033423696 0.03496075426
643.125 0.02142301044 0.03720068124
643.75 0.002723469374 0.05667076281
644.375 0.00134978837 0.03341184383
645.0 0.002732005857 0.03255770663
645.625 -0.002400994718 0.04881528843
646.25 -0.008152587692 0.07987468378
646.875 0.01029824468 0.05301941708
647.5 0.0223300021 0.03697492486
648.125 0.0005081126957 0.04961974328
648.75 -0.02543045156 0.06575828213
649.375 -0.009741361962 0.05914685885
650.0 0.001616403324 0.05275181591
650.625 -0.01888378195 0.03371019465
651.25 -0.02689562592 0.01479289588
651.875 -0.02543001213 0.003678908779
652.5 -0.01799449706 -0.007090801495
653.125 0.004587528211 -0.02567563164
653.75 0.02582562625 -0.0410275538
654.375 0.03802690668 -0.05814294574
655.0 0.02883684341 -0.06357183915
655.625 0.0269270058 -0.07230680849
656.25 0.003790282776 -0.06957087469
656.875 -0.01542258229 -0.07144523085
657.5 -0.005148873544 -0.0721628187
658.125 -0.00940939261 -0.06867395543
658.75 -0.03217261105 -0.04041856655
659.375 -0.02965666613 -0.04332514307
660.0 -0.007129825619 -0.03232676904
660.625 -0.001588541555 -0.02457244017
661.25 -0.003097557381 -0.03082684669
661.875 -0.02091755639 -0.05187527477
662.5 -0.03213278715 -0.0690190569
663.125 -0.02292256046 -0.06505106878
663.75 -0.007440409182 -0.07038075771
664.375 0.04123995251 -0.09056069006
665.0 0.05080538639 -0.04979218488
665.625 0.05515029491 -0.03094425181
666.25 0.07110211737 -0.02000489666
666.875 0.05626704617 0.007420299499
667.5 0.0314727408 0.006626074512
668.125 0.01671904163 0.01548186688
668.75 0.02510633414 0.04309496431
669.375 0.03170133283 0.05701004771
670.0 0.02771188679 0.04394416678
670.625 0.02606968011 0.04199911567
671.25 0.03117311696 0.04860120193
671.875 0.06554560418 0.0596659024
672.5 0.07666406721 0.008110692669
673.125 0.06432253279 -0.02123615565
673.75 0.05694338664 -0.007489390616
674.375 0.03534869116 0.01499127936
675.0 0.02295319713 0.0207434648
675.625 0.01490323983 0.03904009678
676.25 -0.01305155273 0.06315900242
676.875 -0.0336391432 0.03355299746
677.5 -0.03851626114 0.04259732227
678.125 -0.05177135573 0.07275212158
678.75 -0.05676080909 0.07892905109
679.375 -0.04205732776 0.07184736103
680.0 -0.01278188929 0.06958668198
680.625 -0.01085110545 0.06270850646
681.25 -0.005147480042 0.05661002638
681.875 0.01741297855 0.04267214925
682.5 0.01425452759 0.02042660336
683.125 -0.0093561906 0.02690615895
683.75 -0.03309858805 0.04262628022
684.375 -0.04399951085 0.02509851223
685.0 -0.06881091941 0.00195697399
685.625 -0.03860758265 -0.05786642997
686.25 -0.0140082656 -0.08394519206
686.875 -0.01473689871 -0.09443581705
687.5 -0.01504094241 -0.1181381894
688.125 0.002891323253 -0.08377842043
688.75 -8.594411153e-05 -0.05773551437
689.375 0.00833190097 -0.04995495766
690.0 0.03054860322 -0.06023668441
690.625 0.03258336208 -0.02851099134
691.25 0.01584247591 -0.0138093411
691.875 0.0294243462 -0.03578659711
692.5 -0.01696418207 -0.09261630339
693.125 -0.08486389623 -0.05562485323
693.75 -0.08666808313 0.02996132926
694.375 -0.07971453196 0.04152351759
695.0 -0.0862626035 -0.003458247783
695.625 -0.06977967579 -0.05342783827
696.25 0.0005425292337 -0.08056350137
696.875 0.04629309496 -0.02092908644
697.5 0.03700942211 0.01941541774
698.125 0.01788856031 0.02791644699
698.75 0.01628733001 0.05143959255
699.375 0.003842934197 0.07135922886
700.0 -0.007769741409 0.06338440066
700.625 0.002628224031 0.06507721967
701.25 -0.011651824 0.08542512295
701.875 -0.01485028937 0.08555270622
702.5 0.0353961641 0.05632109767
703.125 0.05500402822 0.002883107768
703.75 0.03236315043 0.00422139689
704.375 0.05272393369 0.02976506755
705.0 0.06423784533 0.01133640473
705.625 0.05313736143 0.02562717517
706.25 0.03915818214 0.04913394713
706.875 -0.04822839536 0.06333673675
707.5 -0.0841415531 0.02479911312
708.125 -0.09363037687 -0.003644066193
708.75 -0.08690746974 -0.01671415995
709.375 -0.0388650686 -0.04875315705
710.0 0.008278537035 -0.0530679989
710.625 0.03576769987 -0.04967077121
711.25 0.02696905439 -0.05548899008
711.875 0.006195614269 -0.02049448409
712.5 0.01608457836 -0.008961817756
713.125 0.04346186664 -0.04331137632
713.75 -0.01986527913 -0.07401131685
714.375 -0.05618106741 -0.05568823676
715.0 -0.08338751948 -0.02740840421
715.625 -0.09915643381 -0.03200817186
716.25 -0.06914756727 -0.06579500122
716.875 -0.05589231494 -0.04960129333
717.5 -0.01429134709 -0.05907894767
718.125 0.040056599 -0.03949050368
718.75 0.04519739166 -0.02708431978
719.375 0.0416535418 -0.02460650805
720.0 0.0339823461 0.002860863319
720.625 -0.01814189273 0.03249025822
721.25 -0.04800830928 -0.003016596239
721.875 -0.03661044103 -0.02115961386
722.5 -0.04913694365 -0.06737023064
723.125 -0.07575319643 -0.04816321365
723.75 -0.07835987195 0.02923448304
724.375 -0.01884922131 0.06549363363
725.0 -0.00145364366 0.05999996891
725.625 0.008768368352 0.03777510832
726.25 0.01498330636 0.02062219063
726.875 -0.0198606243 0.03125109598
727.5 -0.0376805786 0.01478839508
728.125 -0.05427187196 0.008752587518
728.75 -0.07591035669 0.01334016281
729.375 -0.05764892474 0.03088214245
730.0 -0.03549301709 0.02053658249
730.625 -0.0540654118 0.00977461357
731.25 -0.05926761547 -0.02208286072
731.875 -0.03062274359 -0.04877146234
732.5 0.004109101211 -0.04074064318
733.125 -0.006733201889 0.00178556451
733.75 0.0536731405 -0.01355292727
734.375 0.06257906014 -0.02101885131
735.0 0.02820361087 -0.02588756894
735.625 0.01461495969 -0.0547537316
736.25 0.00887164253 -0.09035150833
736.875 -0.003540146603 -0.0833661544
737.5 -0.0206259687 -0.04446110668
738.125 -0.006883280888 -0.03130814946
738.75 0.03531861101 -0.007581346669
739.375 0.05020249716 0.01933244287
740.0 0.06001574127 -0.01138699625
740.625 0.02701207928 0.005458343855
741.25 0.03225185261 -0.004313020657
741.875 0.04514412403 0.02759517564
742.5 -0.005672960871 0.05124659847
743.125 -0.0376501621 -0.01783355818
743.75 -0.02848174646 -0.03243680915
744.375 -0.05174722126 -0.03385037191
745.0 -0.07176953328 -0.02768309961
745.625 -0.05049823965 -0.02608826194
746.25 -0.03251088364 0.02961458486
746.875 -0.002657712729 0.04015502275
747.5 -0.004477771129 0.01535400546
748.125 -0.02345642452 0.008132967
748.75 -0.02807413312 0.02147839952
749.375 0.008846622284 0.03660487598
750.0 0.04595433425 0.003960743882
