!Created with skrf (http://scikit-rf.org).
# GHz S RI R 50.0 
!freq ReS11 ImS11
500.0 -0.004151524933 0.02266270958
500.625 0.02344760956 0.01333460414
501.25 0.030419606 -0.007677475475
501.875 0.02485040805 -0.01172940777
502.5 0.0151447998 0.01776924284
503.125 0.02484345408 0.007150166022
503.75 0.03078543117 -0.01563968583
504.375 0.02779415742 -0.02658927192
505.0 0.0192988209 -0.03620998908
505.625 0.01552280165 -0.05881523958
506.25 -0.005701366026 -0.07437575683
506.875 0.02321200287 -0.09329966919
507.5 -0.0037765584 -0.07595407059
508.125 0.02101105579 -0.08472185728
508.75 -0.02974017281 -0.09928072329
509.375 -0.03639070985 -0.06885779164
510.0 -0.01300506845 -0.06814088349
510.625 -0.06095750453 -0.02462947719
511.25 -0.08360921103 -0.01805786067
511.875 -0.06287621981 0.02811218725
512.5 -0.02189788154 0.0502937863
513.125 0.04558565102 0.05873052598
513.75 0.06094784257 0.05790510943
514.375 0.05873590143 0.03071234791
515.0 0.0791095808 0.001302802795
515.625 0.08581728056 0.08044518194
516.25 0.1095970155 0.04707535941
516.875 0.05817603538 0.115512791
517.5 0.1445959851 0.03669045481
518.125 0.09893063014 0.2224569376
518.75 0.1086578028 0.01276865261
519.375 0.08360019688 0.01913820257
520.0 0.1109124553 -0.03161980619
520.625 0.1264519069 -0.03010895359
521.25 0.0903327938 -0.0543073599
521.875 0.07366356698 -0.01822631472
522.5 0.07427517288 -0.08892239137
523.125 0.1653950888 -0.1622588253
523.75 0.1100808516 -0.2371020714
524.375 0.1161700123 -0.2440601793
525.0 0.0559539923 -0.1016597938
525.625 0.04708624621 -0.05940807797
526.25 0.05225200245 -0.04093013301
526.875 0.0414628484 -0.0630005596
527.5 0.03153262473 -0.07402768663
528.125 -0.004310802861 -0.06159825452
528.75 -0.0252198438 -0.07336203556
529.375 -0.1058409952 -0.06082461744
530.0 -0.09416549012 -0.000155049648
530.625 -0.04068007486 0.02753795914
531.25 -0.08004168301 0.01586983738
531.875 -0.1648982705 0.0466177732
532.5 -0.1500453033 0.08214720022
533.125 -0.08923448311 0.07495833193
533.75 -0.05349096698 0.09602474704
534.375 -0.08230083313 0.111337578
535.0 -0.06742749567 0.1048513687
535.625 -0.05512018129 0.06539898489
536.25 -0.003819083638 0.07971062253
536.875 -0.0501567442 0.08061087783
537.5 -0.09370102632 0.02914867234
538.125 -0.07122507308 0.0618502505
538.75 -0.06721404107 0.1177165175
539.375 -0.08450851991 0.08812640683
540.0 -0.07383199524 0.06705532841
540.625 -0.07390672173 0.07086182045
541.25 -0.1041161791 0.08178737726
541.875 -0.09946821594 0.04321591643
542.5 -0.07819654161 0.01687216032
543.125 -0.08128574212 0.0703695541
543.75 -0.03498870912 0.1479462054
544.375 -0.001068932402 0.1415495992
545.0 0.08487092479 0.06258381946
545.625 0.1220288297 0.008502403152
546.25 0.1348974357 -0.01431978522
546.875 0.1140431947 -0.01811829231
547.5 0.1266278325 -0.02094093655
548.125 0.1627120924 -0.006274643118
548.75 0.1457997512 0.06098630467
549.375 0.127597517 0.0577911411
550.0 0.1206023793 0.0952491904
550.625 0.09682827991 0.1116490465
551.25 0.01885458319 0.09397519792
551.875 0.02355502327 0.05039021675
552.5 0.03831149187 0.06209866416
553.125 0.03030964323 0.0900357959
553.75 -0.006398936108 0.06337156449
554.375 0.006984153311 0.05818111054
555.0 0.03667408683 0.08095726618
555.625 0.04964727532 0.09936564463
556.25 0.01031079583 0.08846354239
556.875 0.01423463656 0.08370675524
557.5 0.02029627774 0.1148508048
558.125 0.004308116018 0.1314309522
558.75 -0.02725522775 0.1121452347
559.375 0.01004232038 0.1111680609
560.0 0.01043900548 0.1143880903
560.625 0.01603749491 0.073745638
561.25 0.02053211144 0.05163423546
561.875 0.02380274727 0.0675656726
562.5 0.039507792 0.07768841297
563.125 0.04224803069 0.06485331285
563.75 0.06784439872 0.0449193015
564.375 0.1185986589 0.04026723713
565.0 0.1162157081 0.07430622517
565.625 0.1028657543 0.04292135621
566.25 0.09285601895 0.04100346916
566.875 0.09126375789 0.07302888167
567.5 0.03694273206 0.1075423575
568.125 0.02202614732 0.09643381155
568.75 0.02782937041 0.1156992369
569.375 0.01596594854 0.1114185209
570.0 0.007065479888 0.08691346604
570.625 0.01541334715 0.0628169005
571.25 0.02952907411 0.07894678877
571.875 0.01365610038 0.06525233746
572.5 0.01379048858 0.04418383605
573.125 0.02701259124 0.06084617807
573.75 0.08402605614 0.07107840835
574.375 0.09390882473 0.05780101422
575.0 0.0714121772 0.02360813757
575.625 0.0761691636 0.009712346346
576.25 0.1003031895 0.04013782863
576.875 0.0957849799 0.04301476056
577.5 0.08850780233 0.02219420129
578.125 0.1055980398 0.005523809437
578.75 0.1224975491 0.02700764755
579.375 0.0958221979 0.02544313953
580.0 0.09235108725 0.002531013489
580.625 0.09851849377 -0.01341724283
581.25 0.07912445419 -0.004986634993
581.875 0.03994988998 0.01954898055
582.5 0.04775761519 0.02777571735
583.125 0.07805419997 0.0516041577
583.75 0.06966013143 0.05709070394
584.375 0.04788403029 0.05109083289
585.0 0.04040016468 0.06121064405
585.625 0.05241772413 0.0860566606
586.25 0.04204768352 0.07527173368
586.875 0.04230409535 0.05102061133
587.5 0.0618719753 0.05753552137
588.125 0.0885677214 0.04630102742
588.75 0.08708883555 0.03193792971
589.375 0.07828822006 -0.0204077247
590.0 0.07029313913 -0.04413646954
590.625 0.05109481062 -0.01694294594
591.25 0.04091562144 0.01059954596
591.875 0.05590068402 0.009330849762
592.5 0.08941510797 -0.008888668914
593.125 0.09559501659 -0.003530021352
593.75 0.07778927729 0.006738950247
594.375 0.08107202429 0.02229523588
595.0 0.08435815307 0.05137008383
595.625 0.05912710065 0.06492570555
596.25 0.03375308511 0.05736155742
596.875 0.02533646145 0.06336184394
597.5 0.01160539204 0.07766473136
598.125 0.02172884571 0.07073702871
598.75 0.04220480266 0.05140040985
599.375 0.041237384 0.03838543496
600.0 0.0253753287 0.0265612861
600.625 0.004553289435 0.01366927611
601.25 -0.009797565693 0.01941549323
601.875 -0.02199792972 0.03710219918
602.5 -0.02718377666 0.04148158327
603.125 -0.02701065454 0.04207153191
603.75 -0.02056143262 0.05270893865
604.375 -0.01749378555 0.05416853027
605.0 -0.02249823193 0.03374309667
605.625 -0.02800680357 0.01849431352
606.25 -0.04615958673 0.02055920304
606.875 -0.05344701531 0.03242707756
607.5 -0.03375777131 0.04162378552
608.125 -0.006240026165 0.03793666436
608.75 -0.003972641464 0.03028948557
609.375 -0.005288074758 0.02539095229
610.0 -0.002347107323 0.0165254175
610.625 0.007495655069 0.00585911009
611.25 0.006970414093 -0.007910447968
611.875 0.005536470676 -0.01863738466
612.5 -0.0009439412916 -0.02646192907
613.125 -0.01234965427 -0.02226986402
613.75 -0.01265129872 -0.006552543047
614.375 -0.001735005985 0.001210098598
615.0 0.008519259222 -0.003359889482
615.625 0.00411839643 -0.01084432702
616.25 -0.0004045271951 0.001477871392
616.875 0.009003673619 0.01282905979
617.5 0.02438747419 0.01302833653
618.125 0.02716672824 0.008035967474
618.75 0.02748847842 0.01192274968
619.375 0.03663697262 0.01881540421
620.0 0.05346082743 0.01658788373
620.625 0.05516284191 -0.009216934305
621.25 0.04612630165 -0.01896293898
621.875 0.03135041862 -0.02484237255
622.5 -0.002898967473 -0.01559017019
623.125 -0.0032450471 0.0110235258
623.75 0.01412338001 0.02863506953
624.375 0.01861786583 0.04054180119
625.0 0.002928123415 0.04987411763
625.625 0.003144556734 0.05464210177
626.25 0.0260932292 0.07451541178
626.875 0.0403101178 0.08612644988
627.5 0.02892294893 0.07985082391
628.125 0.0219204772 0.06840445116
628.75 0.01861180942 0.08017457443
629.375 0.005269747881 0.08920901564
630.0 0.0005775936456 0.06972973159
630.625 -0.0007057375253 0.05441766327
631.25 -0.0145692811 0.04988638824
631.875 -0.03545138949 0.03516078644
632.5 -0.04138988904 0.02050553979
633.125 -0.04677902545 0.02104032466
633.75 -0.06039896623 0.03506659487
634.375 -0.07070233454 0.02923896087
635.0 -0.06930320153 0.03613787909
635.625 -0.06707999072 0.06478877594
636.25 -0.06950460202 0.07415031825
636.875 -0.06480172102 0.04460034593
637.5 -0.06394950935 0.03643708831
638.125 -0.09214172785 0.05839887979
638.75 -0.1003282624 0.05445278697
639.375 -0.07778551795 0.01994117578
640.0 -0.05957822277 -0.001470619661
640.625 -0.07193834253 -0.03720954013
641.25 -0.05691879048 -0.07115325173
641.875 -0.04098602938 -0.06200218427
642.5 -0.04413739834 -0.05962846221
643.125 -0.04029947182 -0.09142375877
643.75 -0.005490894587 -0.1088441508
644.375 -0.01869692636 -0.08944571587
645.0 -0.05680352776 -0.08438423725
645.625 -0.05444041169 -0.095394343
646.25 -0.02707309317 -0.08523831407
646.875 -0.007145817884 -0.07408199461
647.5 -0.03143364245 -0.08964852357
648.125 -0.020582488 -0.09776607208
648.75 0.01205456089 -0.07163737021
649.375 0.03523264919 -0.05677780048
650.0 0.06981175278 -0.06701779447
650.625 0.09746203692 -0.04917622314
651.25 0.09488664382 -0.01939128901
651.875 0.1052529809 0.005929426587
652.5 0.1270472744 0.06497313181
653.125 0.09734135783 0.08787831343
653.75 0.08282134408 0.07607602286
654.375 0.07987391311 0.08496022362
655.0 0.03381430492 0.1078210086
655.625 -0.006810265338 0.07180123333
656.25 0.009309774553 0.06166167813
656.875 0.03777709753 0.08457098611
657.5 0.005136559029 0.1069671133
658.125 -0.03356066855 0.08639033035
658.75 -0.01365152229 0.0901926201
659.375 0.04072799321 0.1297599132
660.0 0.07097313852 0.1309773286
660.625 0.08048044361 0.1002330274
661.25 0.1053496173 0.06707140633
661.875 0.135435551 0.04489675677
662.5 0.1237316853 0.03066707938
663.125 0.09945627363 0.02622545178
663.75 0.08678969563 0.06783620918
664.375 -0.004482275413 0.1029074034
665.0 -0.05333638525 0.06842223625
665.625 -0.06134375126 0.04522567149
666.25 -0.1095233073 0.03774470881
666.875 -0.1340344553 -0.04460939799
667.5 -0.1044842899 -0.05617699614
668.125 -0.1149286925 -0.0307479832
668.75 -0.1525775231 -0.01312583361
669.375 -0.129922257 -0.04785512707
670.0 -0.07849021778 -0.04548918975
670.625 -0.09396170773 -0.03753207177
671.25 -0.1281594794 -0.02265675704
671.875 -0.115105429 -0.01513017044
672.5 -0.08734219118 0.01003560545
673.125 -0.09477007325 0.0302362556
673.75 -0.1288224061 0.03136702679
674.375 -0.1303385172 0.008641690529
675.0 -0.1254643914 -0.02159203295
675.625 -0.1198370507 -0.07855503911
676.25 -0.07525949741 -0.116700297
676.875 -0.05685822864 -0.1102971814
677.5 -0.08633208421 -0.1058193476
678.125 -0.06374081693 -0.1301305971
678.75 -0.004798914402 -0.08464144284
679.375 0.01464610108 -0.05881249782
680.0 0.001221635359 -0.08712543891
680.625 0.01190238955 -0.1367231316
681.25 0.02016558885 -0.1187376659
681.875 -0.01566092746 -0.1015397474
682.5 -0.09288401947 -0.1056256622
683.125 -0.1298821758 -0.1289696079
683.75 -0.07099104332 -0.1435468149
684.375 -0.005369153989 -0.1247870473
685.0 0.07986587878 -0.1243745235
685.625 0.1448080288 -0.04953341599
686.25 0.1304396595 0.0122499658
686.875 0.102371192 0.03752465396
687.5 0.05893031511 0.07336953719
688.125 0.01647307434 0.08741007403
688.75 0.001414316914 0.09453303696
689.375 0.0005338904106 0.1340490329
690.0 -0.04510698037 0.1412940172
690.625 -0.03579726473 0.1245907363
691.25 0.03059795723 0.1304772138
691.875 0.1528804462 0.1184928083
692.5 0.1965247988 0.03478516388
693.125 0.09041383403 -0.07836023675
693.75 0.01557715173 -0.1024293482
694.375 0.02484198535 -0.1385155974
695.0 0.1247357168 -0.1003531799
695.625 0.1065769063 0.02773465563
696.25 0.0427841793 0.09165854152
696.875 -0.07158035757 0.1057864007
697.5 -0.1423690936 0.02255763075
698.125 -0.1401115996 -0.02177515789
698.75 -0.1450859219 -0.01238977923
699.375 -0.1341940031 -0.02040720688
700.0 -0.1066804805 -0.03602161531
700.625 -0.09844976357 -0.05942394513
701.25 -0.09303803995 -0.09734899805
701.875 -0.06004127292 -0.0754952243
702.5 -0.05713983921 -0.05082484814
703.125 -0.1091207272 -0.006160811089
703.75 -0.1536597205 0.1107712998
704.375 -0.09789963532 0.1389453713
705.0 -0.0446282429 0.1109783903
705.625 -0.06989911225 0.1057239839
706.25 -0.1707950681 0.02674693063
706.875 -0.09219947118 -0.1258258414
707.5 -0.0266012447 -0.09775059104
708.125 0.01480263666 -0.09327186541
708.75 0.08383860023 -0.05266231986
709.375 0.09282346836 0.04197556016
710.0 0.04702796421 0.07182198405
710.625 0.02851790745 0.08227595281
711.25 -0.009935683049 0.08885073339
711.875 -0.01961196949 0.1025343467
712.5 0.02714942469 0.1334071819
713.125 0.1338287027 0.09267015043
713.75 0.1378575389 -0.04687998014
714.375 0.06034595975 -0.1119923713
715.0 0.008705792281 -0.1404862224
715.625 0.05510169357 -0.124568317
716.25 0.07015527368 -0.04821862913
716.875 0.06358750332 -0.003196599044
717.5 0.07614844748 0.04847456736
718.125 0.05392455802 0.1019705791
718.75 0.009285261217 0.09105778662
719.375 -0.006773512994 0.06996375742
720.0 -0.05676224811 0.06242157627
720.625 -0.1080150592 -0.01969827385
721.25 -0.03052139354 -0.1119393967
721.875 0.04207788176 -0.1020234306
722.5 0.05749066395 -0.09610365066
723.125 0.01744876601 -0.09301298767
723.75 -0.01812024363 -0.0663352678
724.375 -0.04437085557 -0.04403393947
725.0 -0.05476294602 -0.01574490076
725.625 -0.04553284164 0.0006976628419
726.25 -0.05207089322 -0.006956274377
726.875 -0.06876795131 -0.03389104919
727.5 -0.06473952398 -0.0622430697
728.125 -0.04529630565 -0.06228136447
728.75 -0.04072320382 -0.04681465298
729.375 -0.03910118258 -0.03919904242
730.0 -0.03480448874 -0.0394423974
730.625 -0.02361199746 -0.03654518761
731.25 -0.009476172895 -0.02917906496
731.875 0.01150501747 -0.0210781141
732.5 0.01440502228 0.002915712629
733.125 0.004651794074 0.02525720845
733.75 0.0139370152 0.03061444884
734.375 0.02858230338 0.02600915007
735.0 0.03158819353 0.00326484888
735.625 0.02702323732 -0.006830431767
736.25 0.01367672478 -0.01977270559
736.875 -0.007242643071 -0.02371972434
737.5 -0.03079114934 -0.01118563539
738.125 -0.0424954851 0.008647604334
738.75 -0.04322426568 0.02076170721
739.375 -0.02321985051 0.02449745976
740.0 -0.0138373555 0.008477664558
740.625 -0.02563217545 0.007884284874
741.25 -0.03287958002 0.01186367473
741.875 -0.03275506877 -0.008461353384
742.5 -0.001719930478 -0.03245455399
743.125 0.03299142857 -0.01050214939
743.75 0.03160972177 0.0107767597
744.375 0.03121789751 0.01221709153
745.0 0.03091213536 0.01770952897
745.625 0.02970210949 0.02850872715
746.25 0.0522857826 0.03087117492
746.875 0.07298916971 -0.01737540991
747.5 0.04829350398 -0.05620827686
748.125 0.01739682792 -0.06233691582
748.75 -0.01441903056 -0.05203590439
749.375 -0.05298870712 -0.03530613981
750.0 -0.070066547 0.03581886293
