!Created with skrf (http://scikit-rf.org).
# GHz S RI R 50.0 
!freq ReS11 ImS11
500.0 -0.01169737463 0.0253743138
500.625 0.02522625655 0.03141653161
501.25 0.03957956004 0.02059131845
501.875 0.03064019863 0.02543139047
502.5 0.01953224528 0.04281712767
503.125 0.04063635918 0.02804319783
503.75 0.05327943801 0.007581484783
504.375 0.0518429314 -0.01077613045
505.0 0.04491879981 -0.0375065643
505.625 0.0518758888 -0.06337462312
506.25 0.03992098109 -0.07553707583
506.875 0.06787321112 -0.06592771351
507.5 0.04200227906 -0.07186852606
508.125 0.08351867899 -0.0603978202
508.75 0.04021137356 -0.09059449715
509.375 0.01628404115 -0.07811402551
510.0 0.04620364167 -0.0747820441
510.625 -0.04192758655 -0.07346496905
511.25 -0.05856502696 -0.05844694911
511.875 -0.06587599524 -0.002939620459
512.5 -0.04407008823 0.03033933959
513.125 -0.01068321232 0.06540976986
513.75 0.0032563083 0.07059853756
514.375 0.02688113464 0.06812897554
515.0 0.07091833655 0.07223267386
515.625 0.003949782099 0.1358100593
516.25 0.07371072214 0.1012187824
516.875 0.004894140934 0.1532506819
517.5 0.1125579252 0.1149586156
518.125 -0.03468742908 0.2079777146
518.75 0.06730755637 0.05899859516
519.375 0.06450394698 0.07143238086
520.0 0.1115202846 0.05327641581
520.625 0.1058811465 0.03832576616
521.25 0.09390035144 0.0001802668863
521.875 0.07917962437 0.02574460521
522.5 0.1109154308 -0.02510611077
523.125 0.1748764968 -0.05802633562
523.75 0.1538575643 -0.1441046233
524.375 0.1752927546 -0.1065370943
525.0 0.0634643915 -0.01861591087
525.625 0.04149091933 0.001104512596
526.25 0.05510514242 0.01306131822
526.875 0.06861943197 6.423562805e-05
527.5 0.05638682445 -0.01134063486
528.125 0.0399216168 -0.03721033994
528.75 0.03746782275 -0.06864741731
529.375 -0.01215472479 -0.1046671708
530.0 -0.02746422106 -0.0512701922
530.625 -0.04192679967 -0.03646259005
531.25 -0.107364225 -0.1073067263
531.875 -0.1620874561 -0.1162856129
532.5 -0.1557080716 -0.03140819044
533.125 -0.1140777832 0.007941364305
533.75 -0.1316018808 0.03343802232
534.375 -0.1273343326 0.005946596776
535.0 -0.09637848556 0.03549575468
535.625 -0.07384184631 0.01168430966
536.25 -0.06470200354 0.03482315811
536.875 -0.09161477047 -0.0146106324
537.5 -0.09605354796 -0.04475255714
538.125 -0.1097653589 0.006946283562
538.75 -0.1189730111 0.02518095528
539.375 -0.09492478049 -0.004312402384
540.0 -0.09757922925 -0.01504515153
540.625 -0.1292521106 -0.0146477545
541.25 -0.1331877576 -0.04452625519
541.875 -0.09791009378 -0.03855338073
542.5 -0.09763133819 -0.03892739241
543.125 -0.1407003596 0.009547305916
543.75 -0.1167566999 0.09353167995
544.375 -0.06187845804 0.09936543651
545.0 0.03643160191 0.09233667643
545.625 0.06992527041 0.0968322423
546.25 0.0862669668 0.06862930068
546.875 0.09089851075 0.05103995149
547.5 0.1082164929 0.05970744281
548.125 0.1051642749 0.1059249356
548.75 0.05785391359 0.1033811553
549.375 0.06487675237 0.1019650553
550.0 0.01830959484 0.1271732353
550.625 -0.008113632382 0.08812308462
551.25 -0.03067122107 0.03025305596
551.875 -0.03244378632 0.02962557226
552.5 -0.05912309467 0.05896387341
553.125 -0.0690602602 0.04914011186
553.75 -0.06421112098 0.03423667505
554.375 -0.05340056155 0.06666346494
555.0 -0.05131403816 0.102341484
555.625 -0.0470865393 0.09757698285
556.25 -0.05058681216 0.07366246959
556.875 -0.05891899078 0.09459947029
557.5 -0.0700119611 0.1041940611
558.125 -0.07037353455 0.1000259581
558.75 -0.07118930056 0.06934103313
559.375 -0.05800092616 0.0843380712
560.0 -0.04852532052 0.05264907658
560.625 -0.0337421712 0.03526744904
561.25 -0.04351390243 0.03582127186
561.875 -0.0577854318 0.06104790846
562.5 -0.0469529752 0.07623144629
563.125 -0.01286888568 0.08717727502
563.75 0.03260772619 0.1044127203
564.375 0.05171469537 0.1224845161
565.0 0.04141232884 0.1121321121
565.625 0.0551292918 0.08366374249
566.25 0.0383091256 0.09270081227
566.875 -0.01001758359 0.1081741618
567.5 -0.03703575163 0.0798154019
568.125 -0.0409672685 0.08705960301
568.75 -0.05319900936 0.08811067261
569.375 -0.04863285391 0.05962230581
570.0 -0.03969446656 0.02954254169
570.625 -0.04220547777 0.03925325156
571.25 -0.05953611571 0.04251996203
571.875 -0.04604381095 0.02989514423
572.5 -0.04719825293 0.04466139068
573.125 -0.04188501516 0.09335982756
573.75 -0.002231758214 0.1296929902
574.375 0.02690309321 0.09034038208
575.0 0.03588456931 0.06996619239
575.625 0.04459878307 0.09221794413
576.25 0.03261785816 0.105695134
576.875 0.04664082327 0.08552683911
577.5 0.06551271497 0.06667572318
578.125 0.07332317416 0.0797474435
578.75 0.04354655365 0.0776605068
579.375 0.048232074 0.05838507447
580.0 0.05765881869 0.04959783194
580.625 0.0462502319 0.04992519282
581.25 0.00763592242 0.04500060536
581.875 -0.006571690203 0.05052517355
582.5 0.005799931156 0.08288067174
583.125 0.000542231138 0.09966486772
583.75 -0.0008616083004 0.08320715643
584.375 -0.01016550798 0.07222151486
585.0 -0.02578830727 0.08885910469
585.625 -0.03564235846 0.09052821341
586.25 -0.0174834978 0.07318800603
586.875 -0.01005114895 0.06953635805
587.5 -0.01232964162 0.08663017332
588.125 0.02084615733 0.0840877495
588.75 0.04109361141 0.06103070505
589.375 0.05799902945 0.03441787358
590.0 0.0409088972 0.03882099565
590.625 0.01924599912 0.04575477356
591.25 0.02650067305 0.05825575234
591.875 0.05745184397 0.06793088097
592.5 0.08011349911 0.06723779005
593.125 0.06449994653 0.05457045501
593.75 0.05943758293 0.05074150564
594.375 0.05061010918 0.07622358761
595.0 0.02170979447 0.0834918511
595.625 -0.001378521331 0.06303150172
596.25 -0.01197138277 0.05127381462
596.875 -0.03431140986 0.05248771732
597.5 -0.03814117046 0.04883290214
598.125 -0.02354890838 0.04760192905
598.75 -0.00643693953 0.04014937194
599.375 -0.007818656017 0.0254001794
600.0 -0.01715903831 0.004274551284
600.625 -0.03213251034 -0.005576659318
601.25 -0.05412109048 0.001007519309
601.875 -0.062877361 0.01157507778
602.5 -0.05606027368 0.02036893869
603.125 -0.05619045713 0.02538145928
603.75 -0.05418914944 0.03241578928
604.375 -0.04378556193 0.02041920322
605.0 -0.03236327894 0.006757678316
605.625 -0.04006593219 -0.006062535418
606.25 -0.0551496945 -0.01001031866
606.875 -0.05281576665 -0.0006977022702
607.5 -0.03209597761 0.01703015282
608.125 -0.01321432684 0.01716146631
608.75 -0.009926332149 0.00935034426
609.375 -0.0060263659 0.002917057613
610.0 0.004896743516 0.002522168801
610.625 0.01223452132 -0.008411283703
611.25 0.01416948786 -0.01896939123
611.875 0.01487674369 -0.02698577601
612.5 0.008469033751 -0.02787068101
613.125 -0.00496191371 -0.01973197295
613.75 -0.007467596345 -0.004952153844
614.375 0.001260971528 0.006189560889
615.0 0.01122497363 0.0004295373923
615.625 0.003631730483 0.0002639278729
616.25 -0.002968278292 0.00990958795
616.875 0.005230273821 0.02501512926
617.5 0.01790411755 0.02470049016
618.125 0.01668671002 0.0228242734
618.75 0.01561369498 0.02475474346
619.375 0.01961350699 0.03501927741
620.0 0.0315087287 0.03124342741
620.625 0.03513512328 0.007660827179
621.25 0.02458732167 -0.004324340874
621.875 0.002103489564 -0.009552603688
622.5 -0.0225984662 0.01080234705
623.125 -0.01853857502 0.04302870787
623.75 -0.008304908234 0.05944735487
624.375 -0.01930972267 0.06195898713
625.0 -0.03605990993 0.04907131128
625.625 -0.03807503513 0.06469063319
626.25 -0.02569740003 0.08868247552
626.875 -0.01490614893 0.08466120392
627.5 -0.01328628143 0.06544639499
628.125 -0.02236500165 0.05784767719
628.75 -0.04229300111 0.05607623508
629.375 -0.03835094712 0.04045464296
630.0 -0.02589119065 0.02884533945
630.625 -0.02913920087 0.01230980122
631.25 -0.03937216949 -0.01447558964
631.875 -0.04025728266 -0.03471974059
632.5 -0.04533644309 -0.03303846535
633.125 -0.06256798421 -0.04029390417
633.75 -0.07438085039 -0.04066581112
634.375 -0.0721390746 -0.04064015509
635.0 -0.08436420646 -0.02615737454
635.625 -0.09896684643 -0.003607778859
636.25 -0.0842616854 -0.008697248637
636.875 -0.06514378214 -0.02153742455
637.5 -0.08223011627 -0.02996940211
638.125 -0.1024341778 -0.03038188919
638.75 -0.07769175977 -0.02122524045
639.375 -0.0433361211 -0.02753424216
640.0 -0.01558815892 -0.05604391905
640.625 0.01945272812 -0.08638392286
641.25 0.02139577006 -0.07341378239
641.875 0.0155146953 -0.06938217489
642.5 0.03014381357 -0.07996197257
643.125 0.07058952939 -0.07145972947
643.75 0.06983113038 -0.05583438384
644.375 0.04159983647 -0.07608667833
645.0 0.03611288674 -0.08852266758
645.625 0.05105148349 -0.06283399016
646.25 0.05685200663 -0.04283780423
646.875 0.06013488264 -0.05469266058
647.5 0.06961536851 -0.07507455262
648.125 0.06313303026 -0.04979372031
648.75 0.07030639179 -0.01656627237
649.375 0.09331682977 0.0001871040713
650.0 0.1139926136 0.02226251406
650.625 0.0968084927 0.0380661377
651.25 0.08563808189 0.0517602947
651.875 0.07145636333 0.09716116444
652.5 0.02247430435 0.1138090651
653.125 0.01337637786 0.09583660288
653.75 0.008789937625 0.0867003146
654.375 -0.03477625637 0.08049046601
655.0 -0.06280696495 0.02395700939
655.625 -0.05888358803 0.01483673722
656.25 -0.06835102694 0.04293426777
656.875 -0.08780971709 0.0750222022
657.5 -0.1003278062 0.03965005734
658.125 -0.09663116792 0.03098332309
658.75 -0.1017018469 0.08178414209
659.375 -0.08828992938 0.1215022619
660.0 -0.0410144652 0.120452132
660.625 -0.007675009119 0.1087103182
661.25 0.0140087641 0.1182549056
661.875 0.02176128739 0.1083809503
662.5 0.03460473351 0.08094232314
663.125 0.02270285636 0.07885916688
663.75 -0.04254087292 0.08676612036
664.375 -0.08789443152 0.02463502498
665.0 -0.08430363197 -0.01604847695
665.625 -0.0956520434 -0.04243550703
666.25 -0.0870383297 -0.1099742675
666.875 -0.04009801133 -0.119151228
667.5 -0.04124730679 -0.1117033526
668.125 -0.06545561112 -0.1203472393
668.75 -0.04654683826 -0.1231292951
669.375 -0.01611751188 -0.08871045307
670.0 -0.01073218855 -0.07840981298
670.625 -0.01441921757 -0.1102559278
671.25 -0.01936391692 -0.1083024928
671.875 -0.02417703235 -0.0885543908
672.5 -0.05296669047 -0.0761477562
673.125 -0.09617650762 -0.08739310682
673.75 -0.09974552507 -0.08824382532
674.375 -0.0895956498 -0.08851593263
675.0 -0.05435911181 -0.1174909726
675.625 0.001062054592 -0.1261414479
676.25 0.03502757039 -0.1025356037
676.875 0.03438845413 -0.1007938807
677.5 0.05494920349 -0.1042970261
678.125 0.06681140239 -0.04465560633
678.75 0.06379929322 -0.01560332142
679.375 0.08131701256 -0.0155386971
680.0 0.1273108342 -0.04087785864
680.625 0.1298148488 -0.02521509574
681.25 0.09606120234 -0.05907512063
681.875 0.06926344828 -0.1112507925
682.5 0.03016584984 -0.171824855
683.125 0.03709324416 -0.1497789204
683.75 0.04356819284 -0.1050073977
684.375 0.08651237169 -0.08027256006
685.0 0.1288396482 0.00532483333
685.625 0.08492041917 0.07056257539
686.25 0.02868242195 0.08178604308
686.875 -0.0153561057 0.08153824592
687.5 -0.06835686414 0.06561958469
688.125 -0.0869688187 0.06166769707
688.75 -0.1135219588 0.07612358639
689.375 -0.1467218296 0.06370715171
690.0 -0.1249117649 0.04237321034
690.625 -0.1091447209 0.06442590853
691.25 -0.0861177119 0.1338086519
691.875 -0.04159401748 0.174373538
692.5 0.04589993921 0.09505173766
693.125 0.07790829573 0.01865268231
693.75 0.1066752425 -0.01779400426
694.375 0.1524644626 0.006180530717
695.0 0.0990628969 0.07091799461
695.625 0.03324335983 0.1006882225
696.25 -0.08112384464 0.1036883868
696.875 -0.1507679736 -0.01986565686
697.5 -0.0947366338 -0.110420744
698.125 -0.0700705726 -0.1152500495
698.75 -0.06599148324 -0.1111628624
699.375 -0.04091711592 -0.09401851347
700.0 -0.01878358102 -0.09589899289
700.625 0.01992549696 -0.1105267414
701.25 0.05482135396 -0.07916060804
701.875 0.04826593993 -0.06513683844
702.5 0.01742713808 -0.1048975041
703.125 -0.08124090582 -0.1551247783
703.75 -0.156380223 -0.08610435889
704.375 -0.1234114122 0.02391892245
705.0 -0.1004224127 0.04348675659
705.625 -0.1452046828 -0.01287682128
706.25 -0.0628336609 -0.1261027262
706.875 0.02759048325 -0.08695531484
707.5 0.04976357922 -0.05419193753
708.125 0.08723212145 0.004812378115
708.75 0.06050556886 0.08467708528
709.375 -0.005247206811 0.098084746
710.0 -0.04247863477 0.08400701542
710.625 -0.07544602255 0.06439242095
711.25 -0.1021833226 0.03909797412
711.875 -0.1159553162 0.0608284162
712.5 -0.0924961611 0.1159813164
713.125 0.01665774745 0.1302721413
713.75 0.09559461259 0.04730567928
714.375 0.1058009436 -0.0171721672
715.0 0.1106015835 -0.02090513106
715.625 0.07596138272 0.01665089782
716.25 0.04399055522 0.04226976642
716.875 0.02729534177 0.07634625119
717.5 -0.04056304212 0.1116381857
718.125 -0.07511005843 0.07527088793
718.75 -0.06485793822 0.05402463882
719.375 -0.07901335802 0.03845220786
720.0 -0.1046944079 -0.02210333514
720.625 -0.04250503662 -0.100928699
721.25 0.04619550046 -0.08491184904
721.875 0.08382126606 -0.03192420865
722.5 0.0714887246 -0.0008870606192
723.125 0.05272681356 -0.000204451659
723.75 0.05584730647 -0.0123366976
724.375 0.04563029964 -0.0530561362
725.0 0.0002411060512 -0.05901188459
725.625 -0.02172098796 -0.05587369563
726.25 -0.0333062543 -0.06748279219
726.875 -0.01614037247 -0.08644265559
727.5 -0.003918937071 -0.0741808905
728.125 0.01050039451 -0.05718680852
728.75 0.02077685661 -0.04421234063
729.375 0.02444938142 -0.04111717439
730.0 0.01809900454 -0.03955945375
730.625 0.009895322682 -0.0267891743
731.25 0.01970643428 -0.00892811192
731.875 0.01544095229 0.01302182525
732.5 -0.007089295409 0.0273945897
733.125 -0.02050374724 0.03073019774
733.75 -0.0087438546 0.03823718081
734.375 0.007279764527 0.03125130275
735.0 0.01610043141 0.01642872966
735.625 0.014403199 0.000260461646
736.25 0.007292062718 -0.01358528638
736.875 -0.01593821778 -0.02278112866
737.5 -0.03759504569 -0.01273748899
738.125 -0.04810640684 -0.006485501803
738.75 -0.03819261439 0.006686018666
739.375 -0.01270301218 0.006091580918
740.0 -0.003849984059 -0.01253442497
740.625 -0.01920285364 -0.02071045924
741.25 -0.02237708383 -0.01655922928
741.875 -0.002898280359 -0.02326186255
742.5 0.02674573228 -0.002404387407
743.125 0.01274304663 0.02565482496
743.75 -0.005528282492 0.03193458678
744.375 -0.01358683885 0.03694515058
745.0 -0.02594015768 0.04568683131
745.625 -0.01897988073 0.06833878898
746.25 0.02699963801 0.07760335585
746.875 0.07359910638 0.03839722409
747.5 0.06352980447 -0.002713326544
748.125 0.03871280989 -0.01782213779
748.75 0.03082180684 -0.02603924194
749.375 0.01091245817 -0.05068716653
750.0 -0.04341905446 -0.03467232312
