!Created with skrf (http://scikit-rf.org).
# GHz S RI R 50.0 
!freq ReS11 ImS11
500.0 -0.01377180129 0.02788786528
500.625 0.02623464334 0.02739930913
501.25 0.03464690952 0.01032497697
501.875 0.03405940472 0.01723824861
502.5 0.01968117577 0.03762204469
503.125 0.03553835474 0.02202715922
503.75 0.05076111307 -0.0004862641677
504.375 0.04804348347 -0.01624703726
505.0 0.03830411414 -0.03803357168
505.625 0.04175205765 -0.06337475228
506.25 0.0270255711 -0.07483951527
506.875 0.060731526 -0.07448569236
507.5 0.03043864865 -0.07313594354
508.125 0.06865957579 -0.0706254813
508.75 0.02498671396 -0.09899449317
509.375 0.00316767041 -0.07783757736
510.0 0.03106373566 -0.07721745916
510.625 -0.04925968564 -0.0622831269
511.25 -0.06768189122 -0.05237156053
511.875 -0.06764905423 0.006313524716
512.5 -0.03826837744 0.03469114203
513.125 0.00212961324 0.06653342458
513.75 0.009331835885 0.073894507
514.375 0.03534950755 0.06001118526
515.0 0.07793356789 0.05386075209
515.625 0.02582061887 0.1285751579
516.25 0.08580270966 0.09280056483
516.875 0.0202763845 0.1446979105
517.5 0.1258379361 0.09799950697
518.125 -0.005179253864 0.2177650784
518.75 0.07807951064 0.05111044832
519.375 0.07317777452 0.05800692189
520.0 0.1176301461 0.03274930496
520.625 0.1134515477 0.02487449157
521.25 0.0972163716 -0.01248920662
521.875 0.08028774054 0.01397067805
522.5 0.1093775048 -0.04410620717
523.125 0.1770624478 -0.07948914734
523.75 0.1525397595 -0.1706500606
524.375 0.1688703071 -0.1446962277
525.0 0.07024259764 -0.03921487162
525.625 0.04715162957 -0.01093449297
526.25 0.057590563 -0.0003022039755
526.875 0.06819244985 -0.01827304346
527.5 0.05564335254 -0.02585962731
528.125 0.03139127171 -0.04552123063
528.75 0.0222708091 -0.07538715593
529.375 -0.03880587165 -0.1033585086
530.0 -0.04458617554 -0.04538559946
530.625 -0.04552468193 -0.02011137708
531.25 -0.1117246524 -0.07175713364
531.875 -0.179880241 -0.08183798328
532.5 -0.1612875565 -0.007055019296
533.125 -0.1115186885 0.02580917132
533.75 -0.1169645581 0.05900751464
534.375 -0.130715925 0.03123281344
535.0 -0.0939159651 0.05134818282
535.625 -0.07215588783 0.02631485168
536.25 -0.05314078292 0.05124112452
536.875 -0.09397984278 0.009497698484
537.5 -0.09822137589 -0.02882513318
538.125 -0.1043105439 0.02472366616
538.75 -0.1180321162 0.05072207829
539.375 -0.1005878541 0.01596926731
540.0 -0.09596863527 0.004281675396
540.625 -0.1234944261 0.01251641734
541.25 -0.1411837552 -0.0131855053
541.875 -0.1033226354 -0.02146079206
542.5 -0.09504991609 -0.02436961719
543.125 -0.1322548944 0.03168691214
543.75 -0.1044025661 0.113915859
544.375 -0.05199447772 0.1125869145
545.0 0.05034103176 0.08685377886
545.625 0.09216206741 0.08149220979
546.25 0.1033659858 0.05686346959
546.875 0.1006470078 0.03665442411
547.5 0.117575172 0.04226956541
548.125 0.1338648841 0.08638294442
548.75 0.07785492449 0.1018126007
549.375 0.08325288864 0.09396564504
550.0 0.04745321702 0.1291681844
550.625 0.01437300711 0.1026947233
551.25 -0.02563124093 0.04694718657
551.875 -0.01954870911 0.0375272137
552.5 -0.03505267817 0.06907817735
553.125 -0.05480212836 0.06687201206
553.75 -0.05402514938 0.04403229076
554.375 -0.03773286337 0.06877417001
555.0 -0.02789646679 0.1060075108
555.625 -0.02758699275 0.1068579081
556.25 -0.03806827335 0.08054908108
556.875 -0.03875401705 0.09882227169
557.5 -0.05086973865 0.1162025392
558.125 -0.05655736511 0.111799033
558.75 -0.06462274696 0.08193041888
559.375 -0.04246471787 0.09824972272
560.0 -0.04291540294 0.0709021329
560.625 -0.02479239384 0.04640525164
561.25 -0.02854443444 0.04559318692
561.875 -0.03898085293 0.06878566538
562.5 -0.02976592256 0.08580676175
563.125 0.00118602964 0.08475931201
563.75 0.04711073168 0.09113036046
564.375 0.07577186077 0.1133607586
565.0 0.05953993148 0.1104662035
565.625 0.068346932 0.0768664253
566.25 0.0574457372 0.08416125646
566.875 0.01776126703 0.1122306322
567.5 -0.02484917461 0.08993465918
568.125 -0.02596797017 0.09377183929
568.75 -0.03619907624 0.1042149375
569.375 -0.03908250969 0.07710082286
570.0 -0.03510726488 0.04525349572
570.625 -0.02846662229 0.04881414809
571.25 -0.04359839085 0.06252756833
571.875 -0.03729237331 0.04102782166
572.5 -0.03295359014 0.04899725642
573.125 -0.02344495183 0.09105474991
573.75 0.02657681037 0.1273739453
574.375 0.04196846305 0.08898723889
575.0 0.04749914458 0.06038561896
575.625 0.06110787253 0.0751406593
576.25 0.05496283519 0.09810268657
576.875 0.05897630154 0.08075655487
577.5 0.07351190661 0.05715404162
578.125 0.0887676484 0.06526421463
578.75 0.06454633374 0.07722815981
579.375 0.06039171629 0.05446624509
580.0 0.07008362152 0.04043653765
580.625 0.06423405833 0.04067377538
581.25 0.02906050861 0.0423190297
581.875 0.005861805562 0.04607882881
582.5 0.02202324458 0.07256209819
583.125 0.02126556594 0.09790199989
583.75 0.01630498146 0.08354858508
584.375 0.005147682216 0.07161300323
585.0 -0.007196085755 0.08777433238
585.625 -0.01874965228 0.09962798179
586.25 -0.004104719252 0.07785135644
586.875 0.005061353032 0.06902424779
587.5 0.007458732341 0.08829537375
588.125 0.03783052063 0.08432279202
588.75 0.0529354307 0.05754060103
589.375 0.06813873864 0.02161728615
590.0 0.0571693923 0.0248330708
590.625 0.03037150216 0.03706142902
591.25 0.03233415726 0.04915387147
591.875 0.06283150665 0.0519793355
592.5 0.09049366137 0.05231696781
593.125 0.07496951302 0.04706306967
593.75 0.06675527297 0.04182630322
594.375 0.0644719716 0.06556792975
595.0 0.03821549021 0.0839408109
595.625 0.009864238912 0.06886082083
596.25 -0.002940155007 0.0557006595
596.875 -0.01993557909 0.06248950749
597.5 -0.03196422809 0.0589438168
598.125 -0.01739802257 0.05567040852
598.75 0.005133282702 0.04785186937
599.375 0.002194634172 0.03338295198
600.0 -0.01096064749 0.01289875229
600.625 -0.02718130085 0.001176140656
601.25 -0.04563157916 0.0104291819
601.875 -0.05641578295 0.02153302955
602.5 -0.05280346852 0.02688675525
603.125 -0.05181874333 0.03143826651
603.75 -0.05139619783 0.03994919418
604.375 -0.0409402629 0.0322439789
605.0 -0.03289487771 0.01285207654
605.625 -0.03990415489 0.000755841236
606.25 -0.05839251246 -0.004275956891
606.875 -0.05650930688 0.008400752159
607.5 -0.03471239108 0.02287063046
608.125 -0.01409881896 0.02263275303
608.75 -0.0129744985 0.01284721813
609.375 -0.007481921513 0.01009099684
610.0 0.00161370641 0.004151927784
610.625 0.009091557767 -0.006126898074
611.25 0.01034735863 -0.02061369453
611.875 0.01109017716 -0.0241078303
612.5 0.005729426959 -0.02821552365
613.125 -0.006382489945 -0.022597907
613.75 -0.008516239328 -0.008019171221
614.375 0.00151070027 0.001712576484
615.0 0.009663584314 0.0007756461339
615.625 0.005005900763 -0.003777812916
616.25 -0.002135716916 0.007420478385
616.875 0.007320077846 0.01902354544
617.5 0.01943967385 0.02399804608
618.125 0.02040379169 0.01908284715
618.75 0.01920714926 0.02178278916
619.375 0.02583020603 0.02972042144
620.0 0.03694061116 0.03069651678
620.625 0.04085756717 0.004552238308
621.25 0.03119852541 -0.008316726799
621.875 0.01033760335 -0.01220433933
622.5 -0.01669797261 0.008425425284
623.125 -0.01304660769 0.03616061407
623.75 -0.001058725944 0.05372427675
624.375 -0.008418473512 0.05809016369
625.0 -0.02960248073 0.05354373251
625.625 -0.02723592504 0.06485700573
626.25 -0.01228114412 0.09005595269
626.875 -0.001662771677 0.08768421916
627.5 -0.00706166204 0.07221505364
628.125 -0.01298455993 0.06385858562
628.75 -0.03055654619 0.06748469496
629.375 -0.03228829818 0.05321695944
630.0 -0.02254423791 0.03875232946
630.625 -0.02578327783 0.02461483062
631.25 -0.04025864366 0.002599072212
631.875 -0.04348373748 -0.01924861583
632.5 -0.04919763869 -0.02201174249
633.125 -0.06488634189 -0.0239201326
633.75 -0.07852658655 -0.02265484418
634.375 -0.07620908469 -0.02589821668
635.0 -0.08419225273 -0.01117252871
635.625 -0.1000423866 0.01551179165
636.25 -0.08977490659 0.008874720574
636.875 -0.06924251017 -0.007920757959
637.5 -0.08202198132 -0.01250961559
638.125 -0.1103852129 -0.01094374403
638.75 -0.08994525794 -0.009083742819
639.375 -0.05304662734 -0.01881825811
640.0 -0.0311154367 -0.04554421799
640.625 -0.006402178516 -0.08790417966
641.25 0.00712813782 -0.08041725133
641.875 0.002873609014 -0.07036213667
642.5 0.009982477448 -0.08051240808
643.125 0.05087297121 -0.09199539084
643.75 0.06183261063 -0.07184895347
644.375 0.02771415794 -0.08218505375
645.0 0.01306799334 -0.09617305087
645.625 0.03391532441 -0.08162153505
646.25 0.0448074838 -0.05926185275
646.875 0.04534414938 -0.06215244502
647.5 0.04825008404 -0.08973543292
648.125 0.0518832131 -0.06656336515
648.75 0.06280339596 -0.03383522439
649.375 0.08465680106 -0.01786526793
650.0 0.1134968864 -0.00252864446
650.625 0.1036818736 0.0219087568
651.25 0.09387802224 0.03562143195
651.875 0.09002171397 0.07833710021
652.5 0.0472958776 0.1160549379
653.125 0.03007048505 0.09977782034
653.75 0.02765562392 0.09040498143
654.375 -0.007975333395 0.09537602739
655.0 -0.05586950687 0.0492533197
655.625 -0.05097738834 0.02758879642
656.25 -0.05071864201 0.05499870945
656.875 -0.05973180589 0.09251680205
657.5 -0.08842065893 0.06367887899
658.125 -0.0870717519 0.04418444298
658.75 -0.07917330286 0.09300314251
659.375 -0.06082675152 0.1404760628
660.0 -0.02063708934 0.1332201868
660.625 0.01121815702 0.1122616958
661.25 0.04097016874 0.1152151987
661.875 0.05416526461 0.1108765251
662.5 0.05555470239 0.07694631515
663.125 0.04356068778 0.07192559304
663.75 -0.01123868176 0.09966217338
664.375 -0.07786821535 0.0501365571
665.0 -0.08286884331 0.003215736159
665.625 -0.09407787271 -0.01715127466
666.25 -0.1136198164 -0.08167068187
666.875 -0.06179562607 -0.1137776002
667.5 -0.05810053783 -0.1037237253
668.125 -0.08631186081 -0.1022201959
668.75 -0.08627339022 -0.1163165575
669.375 -0.03936402695 -0.09157573066
670.0 -0.02775611852 -0.07412780085
670.625 -0.04167489765 -0.1005939699
671.25 -0.05524152224 -0.1052839727
671.875 -0.04815634529 -0.08171526002
672.5 -0.06644144085 -0.05948384465
673.125 -0.1080395796 -0.05899503873
673.75 -0.1193434002 -0.06716037087
674.375 -0.1059511285 -0.07059035992
675.0 -0.08176629243 -0.1025360571
675.625 -0.02854877015 -0.1271691461
676.25 0.01547066353 -0.1162443097
676.875 0.01336692911 -0.1088792688
677.5 0.02028362032 -0.124082397
678.125 0.05566496751 -0.07390169945
678.75 0.05589739193 -0.0348904005
679.375 0.06735785833 -0.03017399315
680.0 0.1015840379 -0.06927277677
680.625 0.1257879716 -0.06023926162
681.25 0.08538775904 -0.07415777693
681.875 0.04597704512 -0.1153163597
682.5 -0.009446749324 -0.1701225911
683.125 0.001643486764 -0.1700001001
683.75 0.02544881587 -0.1203792552
684.375 0.06601415235 -0.1006614635
685.0 0.1333959252 -0.03059689633
685.625 0.1101778217 0.05251320084
686.25 0.05612214794 0.07669131465
686.875 0.01484683102 0.08445522178
687.5 -0.04269451664 0.08168767532
688.125 -0.06719389666 0.07473147902
688.75 -0.0866899147 0.09184689463
689.375 -0.1253967666 0.1015549366
690.0 -0.1186173079 0.06998606773
690.625 -0.09694776926 0.08131292156
691.25 -0.05432598595 0.1441527767
691.875 0.01082082487 0.1940392409
692.5 0.07546472352 0.1007165316
693.125 0.08554908793 -0.002230108235
693.75 0.09166166798 -0.04899117133
694.375 0.1439601706 -0.0447808552
695.0 0.1227583024 0.04620520377
695.625 0.05367267408 0.08811619199
696.25 -0.04960706492 0.1140781317
696.875 -0.1473291675 0.01886235936
697.5 -0.1182747601 -0.0900778713
698.125 -0.09522359388 -0.1004948624
698.75 -0.09436777784 -0.09776362911
699.375 -0.06633366983 -0.0890691676
700.0 -0.04581434508 -0.09053432045
700.625 -0.01605037303 -0.1128764009
701.25 0.03064320461 -0.09992813352
701.875 0.02880812699 -0.07633399133
702.5 -0.00477764963 -0.09612685266
703.125 -0.1103749688 -0.1176551369
703.75 -0.1875327041 -0.04892739672
704.375 -0.1260746096 0.04775469555
705.0 -0.09032219729 0.06213856482
705.625 -0.140444254 0.02953980915
706.25 -0.1097997718 -0.1138129802
706.875 0.01122194404 -0.1022157613
707.5 0.03495182488 -0.0700509072
708.125 0.08148135545 -0.02774652387
708.75 0.08497615208 0.05868548791
709.375 0.01803186386 0.09708476277
710.0 -0.02071648109 0.08881482618
710.625 -0.0555701718 0.07941054073
711.25 -0.08690401292 0.06086894237
711.875 -0.09812909368 0.08063238634
712.5 -0.06888978839 0.1337011414
713.125 0.0457961423 0.1363235098
713.75 0.1130409498 0.03076543227
714.375 0.1035085666 -0.04452079026
715.0 0.1060361034 -0.06350492885
715.625 0.08846763119 -0.008036331884
716.25 0.05684531233 0.02459522428
716.875 0.04370161279 0.05918540531
717.5 -0.004476211712 0.1138652167
718.125 -0.05673250447 0.09636924464
718.75 -0.05323872086 0.06679127965
719.375 -0.06230332475 0.05456346569
720.0 -0.1046094969 0.003654445565
720.625 -0.06589212611 -0.09387359336
721.25 0.03450034558 -0.09688094138
721.875 0.08173419143 -0.05424580033
722.5 0.08079675525 -0.02313941572
723.125 0.05754432722 -0.02098078862
723.75 0.04634886328 -0.03193728191
724.375 0.02203561604 -0.06232372208
725.0 -0.01514074269 -0.05739319225
725.625 -0.03298142777 -0.04644962759
726.25 -0.04461874197 -0.05954290927
726.875 -0.03724623492 -0.08008562416
727.5 -0.01749579632 -0.07897042244
728.125 -0.0008545029241 -0.06442716855
728.75 0.009293828277 -0.05362182677
729.375 0.01102747564 -0.0503117237
730.0 0.004847209009 -0.04589092459
730.625 0.004365328356 -0.03283075692
731.25 0.01626818613 -0.0178958775
731.875 0.02210248096 0.008402902466
732.5 0.001785702816 0.02240672472
733.125 -0.01368118442 0.03239300544
733.75 -0.00243736261 0.04070160835
734.375 0.01237993903 0.03629755415
735.0 0.02210929273 0.0134709785
735.625 0.01968710664 0.002140496336
736.25 0.01112323579 -0.01338203762
736.875 -0.01044276981 -0.01902514477
737.5 -0.03600868583 -0.0138464075
738.125 -0.0482375607 -0.0008414171117
738.75 -0.04030613918 0.01088619255
739.375 -0.01849493699 0.01485156427
740.0 -0.006566451589 -0.01127093267
740.625 -0.02330246833 -0.01541562309
741.25 -0.02685152433 -0.009831512711
741.875 -0.01265228819 -0.02011216064
742.5 0.01982368097 -0.01328500037
743.125 0.02034555309 0.02087555385
743.75 0.00512335846 0.02900761098
744.375 0.001467080093 0.03167396644
745.0 -0.01092666957 0.04716352767
745.625 -0.005020488354 0.06491529352
746.25 0.03645184566 0.06771452574
746.875 0.07874624945 0.02389393979
747.5 0.06456329906 -0.01756955322
748.125 0.04039932815 -0.02917087072
748.75 0.02241403678 -0.03647826279
749.375 -0.005708173608 -0.05361215592
750.0 -0.05532519272 -0.01958093412
