!Created with skrf (http://scikit-rf.org).
# GHz S RI R (50+0j) 
!freq	ReS11	ImS11	
500.0	0.4819356404	-1.180772578	
500.625	-0.2942551358	-1.110286167	
501.25	0.09938160544	-0.6170157188	
501.875	-0.4644629683	-0.668316646	
502.5	-0.05549081412	-0.06574133909	
503.125	-0.0885364851	-0.03845758405	
503.75	0.06281768925	0.1053642508	
504.375	0.0005441214685	0.02824242568	
505.0	0.04569478823	-0.05303622888	
505.625	-0.02652273606	0.002086089134	
506.25	-0.004866693719	-0.1567805801	
506.875	0.08659534787	0.2253438739	
507.5	0.2457206101	-0.4537890812	
508.125	-0.1766555528	-0.947244125	
508.75	0.1069917593	-0.5676595855	
509.375	0.5991090663	-1.181918703	
510.0	-0.7074337299	-0.3086933144	
510.625	-0.07743020854	-0.060527132	
511.25	-0.06728353495	-0.1368419016	
511.875	-0.1202461908	0.01733319739	
512.5	-0.05854485023	0.0246987237	
513.125	-0.00169603066	-0.09901931033	
513.75	-0.06925213178	0.0185713232	
514.375	0.0007161693144	-0.06828335164	
515.0	-0.2228432929	0.003919678088	
515.625	0.4695275774	-0.388334339	
516.25	-0.8864784528	-0.6607750242	
516.875	-0.1296819472	-0.0385091742	
517.5	0.1061220506	-0.211937339	
518.125	-0.09378108025	0.04112004985	
518.75	-0.02643079386	-0.2639628774	
519.375	-0.07372666935	0.06741931792	
520.0	0.09810151443	0.01825037496	
520.625	0.1224493751	0.0123758573	
521.25	-0.02637266471	-0.2758692944	
521.875	-0.1440729485	0.07796152461	
522.5	-0.02690125708	-0.05458685264	
523.125	-0.1000054746	0.1243220497	
523.75	0.01817738832	-0.01152340827	
524.375	-0.3169733923	-0.03876454484	
525.0	0.09892842254	0.1930508661	
525.625	-0.03880161989	-0.02238580766	
526.25	0.07482475163	0.01688751905	
526.875	-0.1066042483	-0.01234388002	
527.5	-0.02154750711	0.3177526542	
528.125	0.1355129842	0.1137192626	
528.75	-0.03469080219	0.2785573236	
529.375	0.1253994946	0.07048151068	
530.0	0.01606864658	0.200249402	
530.625	0.141444995	0.3443240027	
531.25	0.4087752438	-0.02563799984	
531.875	0.1995323812	-0.05912820336	
532.5	0.01846467962	-0.1970964215	
533.125	0.05110328586	0.1231007487	
533.75	0.3349196724	-0.2661627487	
534.375	-0.1470713521	-0.1845783282	
535.0	-0.1749600736	-0.19251787	
535.625	-0.2077916609	0.1723183177	
536.25	0.03426834157	0.06594574461	
536.875	0.08836927188	0.05925024406	
537.5	0.08021030522	-0.08184427011	
538.125	0.05909742056	-0.02247620661	
538.75	0.1850698054	-0.1345821075	
539.375	-0.1343564002	-0.1286584379	
540.0	-0.08978162255	-0.1397524901	
540.625	-0.2087934234	-0.0666115506	
541.25	-0.09003201363	0.06447879505	
541.875	-0.01307234	-0.08132119852	
542.5	-0.09375027073	-0.08933531899	
543.125	-0.01701411286	-0.03748398514	
543.75	-0.1224024832	-0.1008016115	
544.375	-0.004191456724	0.07695616758	
545.0	-0.05851833221	0.05649855461	
545.625	0.1131060324	0.06532288835	
546.25	0.02712676795	-0.01101262576	
546.875	0.1761487008	0.009973454253	
547.5	0.01247691424	-0.1551871139	
548.125	0.004856689382	-0.1227613553	
548.75	-0.1411620383	-0.1841663546	
549.375	-0.1429348376	-0.01680339311	
550.0	-0.05078733603	-0.0366465318	
550.625	-0.08226580114	0.04635209744	
551.25	-0.04439031628	0.006659531793	
551.875	-0.1073518123	0.07697463975	
552.5	-0.01607681492	0.09002437487	
553.125	-0.03278776249	0.05719516162	
553.75	0.06346619475	0.05726840146	
554.375	0.08833270083	-0.001812782714	
555.0	0.1104515843	-0.07323617161	
555.625	0.08497670226	-0.117379609	
556.25	0.06247042395	-0.1439477781	
556.875	-0.03686741744	-0.1666082089	
557.5	-0.1077016558	-0.1091303005	
558.125	-0.1233973292	-0.03433988971	
558.75	-0.1088479264	-0.006749532232	
559.375	-0.126531288	0.02232868297	
560.0	-0.09033830997	0.08651865561	
560.625	-0.0621469613	0.0987967638	
561.25	0.008483134427	0.1378425101	
561.875	0.03447201052	0.01398390912	
562.5	0.001767908189	0.09320936687	
563.125	0.08123094042	0.03474014365	
563.75	0.1275127741	0.04983605962	
564.375	0.1630695447	-0.1366114882	
565.0	0.02948994427	-0.1374700145	
565.625	0.01854881896	-0.1711622421	
566.25	-0.1944367725	-0.138884448	
566.875	-0.0929151234	-0.04212818689	
567.5	-0.1407053024	-0.1765716432	
568.125	-0.2521986751	-0.1122720622	
568.75	-0.1480245176	-0.09275793971	
569.375	-0.3658395512	0.1162844938	
570.0	-0.03224718662	0.2400923421	
570.625	-0.1185349385	0.08607871912	
571.25	0.02946221766	0.2328333537	
571.875	0.01049200977	-0.01143194464	
572.5	0.1934577103	0.07232709285	
573.125	0.02117767266	-0.2186501011	
573.75	0.01864384309	-0.01323853923	
574.375	0.09309812546	-0.1430439454	
575.0	-0.06575178704	-0.007033799375	
575.625	0.13748799	-0.07857649054	
576.25	-0.02532437588	-0.1821484136	
576.875	0.004520302628	-0.05504438824	
577.5	0.06783703747	-0.2271515579	
578.125	-0.1442309688	-0.1786911803	
578.75	-0.03593349747	-0.008702549598	
579.375	-0.05606350216	-0.1684997564	
580.0	-0.1515578945	0.04402697671	
580.625	0.06380160847	-0.1747825222	
581.25	-0.1799781472	0.2133928968	
581.875	0.1080919495	0.01760852395	
582.5	-0.07924805229	0.1388615144	
583.125	0.1864903079	0.1609301973	
583.75	-0.0273274684	-0.0792125677	
584.375	0.1399175535	0.1622464785	
585.0	0.09739953696	-0.05484329862	
585.625	0.1170902621	0.1079820338	
586.25	0.2506222596	-0.119782406	
586.875	-0.02061439266	-0.09349546458	
587.5	0.08177405176	-0.1311824676	
588.125	-0.07650896787	-0.2136559457	
588.75	-0.0246581754	-0.0588603885	
589.375	0.1704744395	-0.1713250213	
590.0	-0.1628694601	-0.1877660035	
590.625	-0.091657133	-0.0371395937	
591.25	-0.2307670567	0.09051691773	
591.875	0.1112823431	0.2101122806	
592.5	-0.07557023014	-0.04969954312	
593.125	0.03322527112	0.1303986515	
593.75	-0.009473004805	0.03964021585	
594.375	0.2963790734	0.2181950083	
595.0	0.2475890235	-0.02047336418	
595.625	0.06542985882	0.0796809889	
596.25	0.2458907346	0.09883333949	
596.875	0.1111756647	-0.03803067035	
597.5	0.0754249551	0.141147887	
598.125	0.2504375541	0.1287230445	
598.75	0.1330755214	0.02154472916	
599.375	0.2576895922	-0.007866244064	
600.0	0.1946191252	-0.2234313139	
600.625	0.06336038674	-0.1753231049	
601.25	0.1379000796	-0.1529474186	
601.875	-0.1471203474	-0.2103653688	
602.5	-0.05751978046	0.04880992618	
603.125	-0.1760294497	-0.02977267947	
603.75	-0.06580841174	0.2068618032	
604.375	-0.04214456844	-0.02963825034	
605.0	-0.1735650923	0.1261436075	
605.625	0.05661311228	0.1043215309	
606.25	-0.2485443375	0.01033872826	
606.875	-0.2026279172	0.2169347326	
607.5	-0.2205116011	0.06213131597	
608.125	-0.1253367291	0.2745116571	
608.75	0.2611369059	0.1678832196	
609.375	0.1701560427	-0.04066912714	
610.0	0.2465457113	-0.06675631066	
610.625	0.04603893395	-0.2504595663	
611.25	-0.03198777155	-0.125155618	
611.875	-0.06306214497	-0.2217534509	
612.5	-0.3018201925	-0.02215426746	
613.125	-0.109217015	-0.0321460148	
613.75	-0.1993227194	0.2049533519	
614.375	0.1700140697	0.07283011892	
615.0	-0.1078667579	0.09408793726	
615.625	0.1339385898	0.1334995254	
616.25	-0.04173303759	0.02658235479	
616.875	-0.1664946723	0.2627354495	
617.5	0.04665222153	0.1854585513	
618.125	-0.06431793472	0.1075763207	
618.75	-0.02783522821	0.3026632562	
619.375	0.1470291118	0.1459746998	
620.0	0.2455141653	-0.07725696709	
620.625	0.1649862493	-0.196381797	
621.25	-0.1706097939	-0.1577853923	
621.875	-0.1338190091	-0.1253697606	
622.5	-0.3005716407	-0.02160818221	
623.125	0.04530666689	0.2092864833	
623.75	0.03746049502	0.06658247743	
624.375	0.1344392447	-0.1038319107	
625.0	-0.03601203268	0.02626386939	
625.625	0.127808585	-0.1294569362	
626.25	-0.143468472	-0.1309890417	
626.875	-0.05382537175	-0.06222451025	
627.5	-0.2134919121	-0.1064636733	
628.125	-0.1394235879	-0.02882093913	
628.75	0.001985408125	-0.1311175186	
629.375	-0.133714792	-0.2004926613	
630.0	-0.1532676601	-0.01355290796	
630.625	-0.1574845179	0.04507545556	
631.25	-0.1692795849	0.2626449437	
631.875	0.05864820416	0.2868271764	
632.5	0.06644932784	0.1931517788	
633.125	0.3594223698	0.1947523581	
633.75	0.1158283306	-0.126113158	
634.375	0.133539971	-0.1063499025	
635.0	-0.07688983692	-0.2488184345	
635.625	-0.06996327287	0.005009562192	
636.25	-0.2502626042	0.006486900279	
636.875	-0.01857114564	0.2279830272	
637.5	-0.02361394612	-0.006583904575	
638.125	-0.135605594	0.1719448267	
638.75	0.08101982496	0.1544165971	
639.375	-0.1120437	0.2212272818	
640.0	0.2260964364	0.3355133083	
640.625	0.2411520757	0.03553170189	
641.25	0.2040088703	0.07410270397	
641.875	0.2566032189	-0.2741843075	
642.5	-0.1441150449	-0.219387321	
643.125	-0.006034967718	-0.1391406788	
643.75	-0.3469599905	-0.2020727755	
644.375	-0.04094770672	0.07237580126	
645.0	-0.3552690134	0.0758874958	
645.625	0.187248743	0.2526146596	
646.25	-0.05062964261	-0.1032641329	
646.875	0.1839247682	0.1527668167	
647.5	-0.008600253625	-0.1246808597	
648.125	0.1682487887	0.2348013134	
648.75	0.3629017253	-0.2701112697	
649.375	0.07480737828	-0.1843715908	
650.0	0.3208381929	-0.2221571683	
650.625	0.1412640085	-0.5491478442	
651.25	0.02703005807	-0.1232302596	
651.875	0.4236224886	-0.07996130651	
652.5	0.3159340972	-0.2819867984	
653.125	0.1061261261	-0.03206394302	
653.75	0.3758573735	-0.2328540203	
654.375	-0.2064102717	-0.3538222149	
655.0	-0.1445365529	-0.06739377469	
655.625	-0.3515263228	0.09091305834	
656.25	0.2159707331	0.3022526349	
656.875	-0.08338201033	-0.01917395463	
657.5	0.1286940083	0.2570287369	
658.125	0.1224013148	-0.02990833258	
658.75	0.2374203251	0.252233842	
659.375	0.464960024	-0.4441397927	
660.0	0.04600958866	-0.2172964454	
660.625	0.2699740341	-0.2734927212	
661.25	0.1748749435	-0.4576800633	
661.875	0.02687922925	-0.1633542604	
662.5	0.4063099227	-0.1024759248	
663.125	0.2618837283	-0.3656100265	
663.75	0.0815799438	-0.2020474514	
664.375	0.08518123064	-0.4313222275	
665.0	-0.4046993758	-0.1670094095	
665.625	-0.2059785667	0.05024882615	
666.25	-0.2331146366	0.2936776045	
666.875	0.2344805724	0.2286026274	
667.5	0.06882112717	0.07497270845	
668.125	0.3623012372	0.05727306957	
668.75	0.08727312788	-0.2688440642	
669.375	0.1275977556	-0.1007211244	
670.0	0.08147365368	-0.3563951566	
670.625	-0.2040235337	-0.08901640251	
671.25	0.2076956381	-0.1061333675	
671.875	0.1037466796	-0.311490675	
672.5	0.07330659371	-0.1336675783	
673.125	0.3624854349	-0.07903850621	
673.75	0.1031034298	-0.3905524305	
674.375	0.002809340888	-0.1383336034	
675.0	0.0164872392	-0.3024268757	
675.625	-0.3268631018	-0.1372851595	
676.25	-0.02897635673	0.02228839138	
676.875	-0.2355185393	-0.1283740074	
677.5	-0.1581308564	0.1618677787	
678.125	-0.09973595164	0.02170176123	
678.75	-0.06482058578	0.359829653	
679.375	0.3468380051	-0.07188093851	
680.0	0.01502906809	0.03473388258	
680.625	0.2585815874	-0.1168206786	
681.25	-0.04465469948	-0.1583028674	
681.875	0.1662696432	0.4323792132	
682.5	0.4520615986	-0.009964401795	
683.125	0.04572932328	-0.0263983332	
683.75	0.3820555517	0.3077930223	
684.375	0.4914474828	-0.0546558862	
685.0	0.001001897959	0.2242540563	
685.625	0.4800784254	0.188967087	
686.25	0.2722552421	-0.1929314211	
686.875	0.1715655319	-0.04822084577	
687.5	0.3903883429	-0.3954836673	
688.125	-0.2535555539	-0.4517283673	
688.75	-0.2250889961	-0.2361012526	
689.375	-0.4849103354	0.3469959323	
690.0	0.2365747899	0.3653759784	
690.625	0.01156456168	0.2241352712	
691.25	0.5143179944	0.4261855622	
691.875	0.4366810359	0.07309548854	
692.5	0.4373672902	0.4521879684	
693.125	0.9419655018	-0.027064924	
693.75	0.344106851	-0.4006915316	
694.375	0.719985215	-0.2200424571	
695.0	0.6082316774	-0.4362470359	
695.625	0.2869210713	0.01233790156	
696.25	0.4613455728	0.4310882931	
696.875	0.7097117819	0.4266565581	
697.5	0.2897709773	0.5682664635	
698.125	0.5917347983	0.2969885017	
698.75	0.5267848718	-0.5407709011	
699.375	-0.4059660799	-0.2410206315	
700.0	-0.4602704628	0.1550990919	
700.625	0.08003407078	0.5404580974	
701.25	0.1444756211	0.0642856907	
701.875	0.2146097848	0.4128175948	
702.5	0.536018828	0.1488438477	
703.125	0.2217122671	0.09041105954	
703.75	0.5171928273	0.004433353526	
704.375	0.2786198581	-0.3551123183	
705.0	0.1637186007	0.0284527446	
705.625	0.4492590122	0.09776200305	
706.25	0.1485812864	0.1706394953	
706.875	0.09439462002	0.3412216819	
707.5	0.3603594121	0.514166539	
708.125	0.443863587	-0.07408621221	
708.75	0.1470144498	-0.4922336642	
709.375	-0.3123604751	-0.3619262489	
710.0	-0.08853558636	0.2935791577	
710.625	0.02699547901	0.001620948286	
711.25	0.1558442464	0.3856564605	
711.875	0.1095400471	0.03032755391	
712.5	0.3536706614	0.1179771182	
713.125	0.3080646633	-0.2810924912	
713.75	-0.0122768886	-0.167690328	
714.375	0.1595174818	-0.254266732	
715.0	-0.1433685516	-0.2668241437	
715.625	0.01403286293	-0.1026752539	
716.25	0.318399445	-0.2900214117	
716.875	0.2883168477	-0.3119924163	
717.5	0.3708244403	0.1381588362	
718.125	0.938139786	0.1731939713	
718.75	0.6667909868	-0.4386812184	
719.375	0.5737949531	-0.2880012389	
720.0	0.8995879871	-1.012490815	
720.625	-0.08511580444	-0.7868865062	
721.25	0.245289151	-0.8204638879	
721.875	0.0427152006	-1.671066133	
722.5	-0.8302844276	-0.4930064565	
723.125	-0.4616113651	-0.5072346819	
723.75	-0.5153176232	0.6129149407	
724.375	0.2441685182	0.2820970927	
725.0	-0.06080530316	0.398749215	
725.625	0.396434342	0.6099490639	
726.25	0.08803328109	0.3084411907	
726.875	-0.4126879826	1.010174791	
727.5	0.05738479406	1.746328811	
728.125	0.3434524218	1.304956645	
728.75	-1.189951447	2.853044219	
729.375	0.07658290424	4.429755854	
730.0	1.069451734	2.343608951	
730.625	-2.173386744	4.467915911	
731.25	0.8493808702	4.830363186	
731.875	-0.9148584672	1.461828241	
732.5	-4.136951605	0.217015819	
733.125	-3.560195162	1.615263027	
733.75	-0.3399099019	0.8227799659	
734.375	0.9005361456	1.072255279	
735.0	-0.5712665704	-0.8720596293	
735.625	-0.1514679527	-0.05080513988	
736.25	-0.2967888425	0.7501674493	
736.875	0.8274200473	0.2619381042	
737.5	0.22393916	0.6842392715	
738.125	2.324759446	-0.3477343915	
738.75	1.121314412	-2.003456371	
739.375	1.037182497	-0.1118126961	
740.0	5.76023712	-0.4958999566	
740.625	2.256969495	-5.465523999	
741.25	-3.018623704	0.785832036	
741.875	-3.712832864	2.304562709	
742.5	-0.3800321754	0.3425950126	
743.125	1.904203191	-2.589339669	
743.75	-0.4826466603	-1.512839804	
744.375	-0.2102039903	0.1829199642	
745.0	-0.1173289407	0.1598701246	
745.625	0.004386445795	-0.2290653572	
746.25	0.1271387351	-0.1051279716	
746.875	-0.3136957665	0.03433481404	
747.5	-0.001742549043	0.3128163598	
748.125	-0.1017421082	0.4520965963	
748.75	0.3726866672	0.6547965335	
749.375	0.2144427455	0.3620904414	
750.0	-0.457064522	0.1154495573	
