!Created with skrf (http://scikit-rf.org).
# GHz S RI R (50+0j) 
!freq	ReS11	ImS11	
500.0	0.612670232	-1.586725063	
500.625	-0.2417304202	-0.7037179331	
501.25	0.06057708471	-0.9452612686	
501.875	-0.4502616945	-0.4207553186	
502.5	-0.004702727407	-0.0813586433	
503.125	-0.1042374923	-0.016420835	
503.75	0.08093156842	0.0334757541	
504.375	0.02090662296	0.02779693542	
505.0	0.01497324008	-0.0583128887	
505.625	0.01110491048	0.003896378226	
506.25	-0.1327834647	-0.1537884201	
506.875	0.08436259898	0.151452082	
507.5	0.01823517744	-0.6888950813	
508.125	-0.2439133379	-0.7606394767	
508.75	0.5260368325	-0.4009746373	
509.375	0.3445907224	-1.70372083	
510.0	-0.6344562637	-0.1639769464	
510.625	1.00946132e-05	-0.114720054	
511.25	-0.1438032923	-0.01942761262	
511.875	-0.05292565106	0.02912534701	
512.5	-0.04820020894	0.03419020432	
513.125	-0.04265881249	-0.1164026304	
513.75	-0.01930632728	0.008510612411	
514.375	-0.06807012628	-0.1147701263	
515.0	-0.1394540501	0.2130295348	
515.625	0.1779650172	-0.9934989698	
516.25	-0.6429470063	-0.4612029133	
516.875	0.05062739642	-0.1597513606	
517.5	-0.1044328502	-0.3270535649	
518.125	0.01267980774	0.03394769478	
518.75	0.02050806417	-0.2651470248	
519.375	-0.04799901807	0.05832825175	
520.0	0.06443312681	0.02061904392	
520.625	0.1804006607	-0.05421528429	
521.25	-0.08190976748	-0.3480638203	
521.875	-0.07354575602	0.06083579309	
522.5	-0.06829567572	-0.03729445063	
523.125	-0.07024580929	0.1179126873	
523.75	-0.02153547918	-0.1345832563	
524.375	-0.3103512162	0.0961285255	
525.0	0.08893853226	0.07855835096	
525.625	-0.06921979432	0.06797924382	
526.25	0.07805638365	-0.03223632726	
526.875	-0.134186908	0.07696334008	
527.5	0.05585466765	0.2656668511	
528.125	-0.07420242767	0.2468083869	
528.75	-0.07789502539	0.3209694682	
529.375	0.08400948251	0.02836482183	
530.0	-0.04235579723	0.190823271	
530.625	0.1988343529	0.3439460471	
531.25	0.2382102962	0.03352785491	
531.875	0.1962078874	-0.08991271182	
532.5	-0.1716623064	-0.1627418259	
533.125	-0.04231495319	0.2273321669	
533.75	0.054234772	-0.2922381211	
534.375	-0.083966428	-0.1453617739	
535.0	-0.2466693071	-0.2123401335	
535.625	-0.1936308601	0.1944715102	
536.25	-0.007994951061	0.05890860788	
536.875	0.1153173536	0.05541276323	
537.5	0.04286063037	-0.07741723527	
538.125	0.1169279719	0.01212856159	
538.75	0.1600750932	-0.1953791503	
539.375	-0.07613542512	-0.1221225507	
540.0	-0.09935972894	-0.2043445014	
540.625	-0.2133534156	-0.03955039312	
541.25	-0.03637391906	0.03876490305	
541.875	-0.002482210062	-0.0564515567	
542.5	-0.08660738486	-0.02421177118	
543.125	0.01290023823	-0.04035667931	
543.75	-0.1424124861	0.003313597781	
544.375	0.01865512827	0.02636361406	
545.0	-0.03864105015	0.0995586855	
545.625	0.1323568279	0.0154091875	
546.25	0.03731265054	0.07121797106	
546.875	0.1796916174	-0.052584875	
547.5	0.01462060227	-0.1036226617	
548.125	0.03077518277	-0.1630620028	
548.75	-0.1799316963	-0.1499656826	
549.375	-0.09279742121	-0.004560667949	
550.0	-0.09536333419	-0.0435467258	
550.625	-0.04728617477	0.05833334457	
551.25	-0.08000571412	-0.01492143826	
551.875	-0.09271335001	0.1044517298	
552.5	-0.02098021256	0.05716112386	
553.125	-0.03856474687	0.05826500843	
553.75	0.0559644372	0.04028489266	
554.375	0.09230021932	0.008169224158	
555.0	0.109680479	-0.07989156267	
555.625	0.08267154933	-0.1154468062	
556.25	0.07121928555	-0.1432060844	
556.875	-0.03740927196	-0.168901924	
557.5	-0.1071756719	-0.1065173731	
558.125	-0.1167350726	-0.03846389667	
558.75	-0.1155495325	-0.01048681842	
559.375	-0.1218908301	0.02807758987	
560.0	-0.08966177089	0.07322695801	
560.625	-0.07771468813	0.1067852146	
561.25	0.02877204983	0.1215721753	
561.875	0.006389488079	0.02769974707	
562.5	0.03848189356	0.08839967757	
563.125	0.04112040966	0.03810265434	
563.75	0.1653941465	0.04412638199	
564.375	0.1309374902	-0.1472611066	
565.0	0.06051344283	-0.1044595373	
565.625	0.02135937724	-0.2085008128	
566.25	-0.1643172371	-0.07614998369	
566.875	-0.09051375505	-0.1020560146	
567.5	-0.2055633313	-0.1831485678	
568.125	-0.1608626402	-0.0660943934	
568.75	-0.1858008583	-0.2037166492	
569.375	-0.3041415249	0.1703583289	
570.0	-0.02088467882	0.1358492748	
570.625	-0.178228833	0.1612125452	
571.25	0.07676538089	0.180060795	
571.875	-0.03275356193	0.04886286261	
572.5	0.2462217839	-0.002891341511	
573.125	-0.01893381652	-0.1229193068	
573.75	0.1499847267	-0.03304401616	
574.375	-0.007326466134	-0.1768072698	
575.0	0.006962910418	0.06186786039	
575.625	0.101974989	-0.1640859238	
576.25	-0.04604507871	-0.1147231874	
576.875	0.06939642493	-0.08847821751	
577.5	0.005116310911	-0.2602078385	
578.125	-0.1594176028	-0.1040345507	
578.75	0.01249525692	-0.1031112246	
579.375	-0.1527169332	-0.1480922922	
580.0	-0.03135595911	0.1531792145	
580.625	-0.1169662806	-0.1804300359	
581.25	-0.05676701959	0.1918049518	
581.875	-0.01110788173	0.02330934468	
582.5	-0.01751098821	0.2835941244	
583.125	0.2047484832	0.05907318642	
583.75	-0.1060057067	0.05606349023	
584.375	0.153288527	0.08929567283	
585.0	0.03154923214	-0.009044107258	
585.625	0.2041596594	0.09934478667	
586.25	0.1321916692	-0.1828758705	
586.875	0.03423785295	-0.04461858673	
587.5	0.03138274859	-0.2342311618	
588.125	-0.1213408381	-0.1437891443	
588.75	0.07942259622	-0.06725199865	
589.375	0.1188705937	-0.247619672	
590.0	-0.1285680881	-0.1106726705	
590.625	-0.114947678	-0.1097102796	
591.25	-0.2627280289	0.223997024	
591.875	0.09003941174	0.07813624627	
592.5	-0.09052148036	0.05311636892	
593.125	0.07183374269	0.04827866067	
593.75	-0.1131434175	0.2345881305	
594.375	0.2940168215	0.1334696766	
595.0	0.1110437351	-0.008583124235	
595.625	0.1135557878	0.1642977418	
596.25	0.2297368161	-0.03684652689	
596.875	0.07419132034	-0.01259660549	
597.5	0.1500672675	0.183774785	
598.125	0.2330107709	0.05463468792	
598.75	0.1050396164	0.08869590866	
599.375	0.2910132526	-0.004489255099	
600.0	0.1317700254	-0.199430748	
600.625	0.1022152267	-0.1017370808	
601.25	0.1290253577	-0.2122190541	
601.875	-0.1712417633	-0.1284874313	
602.5	-0.03729854973	-0.03608350482	
603.125	-0.2242027219	0.06076050455	
603.75	0.03002773973	0.1019747053	
604.375	-0.1438941454	-0.02062374615	
605.0	-0.1129299677	0.1868717316	
605.625	-0.002154892997	-0.078945466	
606.25	-0.2470000542	0.065644049	
606.875	-0.0681377444	0.1103321573	
607.5	-0.1736749569	0.07365059977	
608.125	0.02016165461	0.3021776042	
608.75	0.1740313682	0.1319503912	
609.375	0.1773749741	0.03985964072	
610.0	0.2651087788	-0.1607320829	
610.625	0.06354020635	-0.1912015645	
611.25	0.07496255615	-0.09975383632	
611.875	-0.118701679	-0.209476832	
612.5	-0.110538053	0.02699423234	
613.125	-0.2102561998	-0.08249722062	
613.75	-0.1163730626	0.2705729198	
614.375	0.09325268027	-0.03006301096	
615.0	-0.0122748726	0.1785241086	
615.625	0.1076564979	0.02460777412	
616.25	-0.1514761839	0.1219039714	
616.875	-0.04211731306	0.3116197396	
617.5	0.05571432613	0.1433103903	
618.125	-0.1399584433	0.1737982864	
618.75	0.04935893172	0.2463447989	
619.375	0.1039763275	0.1978735499	
620.0	0.1828368642	0.1130323432	
620.625	0.136581801	-0.2355022481	
621.25	-0.06974936462	-0.09820623294	
621.875	-0.1087134489	-0.1262728994	
622.5	-0.2788206647	0.1147544125	
623.125	0.02205898666	0.1138409213	
623.75	0.08444481486	0.1370508897	
624.375	0.06541472926	-0.1644939376	
625.0	0.05128177651	0.06317355147	
625.625	0.07060720892	-0.1797043311	
626.25	-0.0991248328	-0.0594841583	
626.875	-0.08244900274	-0.1572937706	
627.5	-0.2269096539	-0.03359364858	
628.125	-0.06824231533	-0.001825706807	
628.75	-0.03734607273	-0.1859887512	
629.375	-0.1942515323	-0.1248228447	
630.0	-0.204849129	-0.05167615832	
630.625	-0.2709351957	0.04850191577	
631.25	-0.1728295665	0.267772201	
631.875	0.0009235930333	0.1841926515	
632.5	0.05378065442	0.2875082231	
633.125	0.2788383855	0.01217818018	
633.75	0.1137060906	-0.02697637244	
634.375	0.1389434897	-0.1779373741	
635.0	-0.1690957612	-0.1607519497	
635.625	-0.04627575999	-0.1405249992	
636.25	-0.2569087375	0.1110064584	
636.875	0.05065270563	0.142456101	
637.5	-0.1072329304	0.02414416848	
638.125	-0.0722394195	0.2382334248	
638.75	-0.03953451195	0.05749895803	
639.375	-0.08260700936	0.3353955763	
640.0	0.2595227929	0.2384294165	
640.625	0.171515721	0.07191235176	
641.25	0.3533508284	0.09589607679	
641.875	0.1500454752	-0.3063782715	
642.5	-0.02951069296	-0.1116220011	
643.125	-0.06163386444	-0.2776124864	
643.75	-0.2502938668	0.01579613142	
644.375	-0.008646879716	-0.1174529865	
645.0	-0.2447446136	0.2533488784	
645.625	0.3197328461	0.1000004269	
646.25	-0.007829040902	0.1102994036	
646.875	0.2639016926	-0.05348132077	
647.5	-0.1246893705	0.01644333146	
648.125	0.3800066702	0.1567678319	
648.75	0.1925067628	-0.2198944614	
649.375	0.1932612273	-0.08332293077	
650.0	0.3611508668	-0.4097933305	
650.625	-0.03657171859	-0.3811263255	
651.25	0.2142356779	-0.05467879024	
651.875	0.4226045816	-0.2443259842	
652.5	0.1470506481	-0.244611144	
653.125	0.2824147708	0.06005630931	
653.75	0.2660292095	-0.381512754	
654.375	-0.1480790714	-0.1866808056	
655.0	-0.1827066052	-0.2133527556	
655.625	-0.4118119543	0.3073847958	
656.25	0.1648798412	0.07451486898	
656.875	-0.09107698681	0.113423622	
657.5	0.2906518506	0.1182084191	
658.125	-0.012536279	0.09813099479	
658.75	0.5896638225	0.286326035	
659.375	0.2465844946	-0.3279504366	
660.0	0.201590243	-0.1603028757	
660.625	0.2855150284	-0.40208105	
661.25	-0.04614313119	-0.408505991	
661.875	0.2156096118	-0.07310350882	
662.5	0.4000181239	-0.2788200136	
663.125	0.1640581168	-0.2860383599	
663.75	0.2305933008	-0.136274746	
664.375	-0.03699983278	-0.4943983963	
665.0	-0.2827076237	-0.07144032236	
665.625	-0.2991607964	-0.04019923115	
666.25	-0.1635677984	0.3791657578	
666.875	0.1777035063	0.1150391316	
667.5	0.08228764035	0.2109859706	
668.125	0.3765889197	-0.08762112016	
668.75	0.0737990798	-0.1322415219	
669.375	0.2282737777	-0.1694061976	
670.0	-0.1514878665	-0.3969652459	
670.625	0.02822608271	0.006572313693	
671.25	0.1622335301	-0.3022531864	
671.875	0.03960838586	-0.2645979824	
672.5	0.1551193902	-0.009227624985	
673.125	0.3738722054	-0.2536322448	
673.75	0.02868748773	-0.276625346	
674.375	0.1089649096	-0.1649035268	
675.0	-0.0681570474	-0.3652878258	
675.625	-0.2686286344	0.005226333778	
676.25	-0.05986701796	-0.1376275828	
676.875	-0.2918260502	0.02266953829	
677.5	-0.04609345763	0.08234024372	
678.125	-0.2321045857	0.02711515914	
678.75	0.0925495627	0.3947688355	
679.375	0.153162563	-0.08650169155	
680.0	0.1767408432	0.1385426463	
680.625	0.1586682639	-0.2336174669	
681.25	-0.2177331024	0.140523002	
681.875	0.3963173988	0.2032672697	
682.5	0.2217327575	-0.1101518193	
683.125	0.07472919239	0.2999757906	
683.75	0.5155048856	0.1368507432	
684.375	0.043608032	-0.2056545863	
685.0	0.1731285454	0.3073885059	
685.625	0.395637822	-0.1408262638	
686.25	0.1994737042	-0.1657533649	
686.875	0.4138484968	0.006082990559	
687.5	0.3605945763	-0.5305567476	
688.125	-0.03738455786	-0.2929783972	
688.75	-0.3334240856	-0.3756118213	
689.375	-0.3569233404	0.3828186189	
690.0	0.1699833021	0.1718885356	
690.625	0.122263354	0.475373798	
691.25	0.510915341	0.1761308952	
691.875	0.2172547383	0.2102440234	
692.5	0.6620282219	0.4732121732	
693.125	0.8049639432	-0.2585897902	
693.75	0.4205559065	0.04491219645	
694.375	0.6720025641	-0.403661978	
695.0	0.1169072827	-0.3687419285	
695.625	0.3074963687	0.07536485644	
696.25	0.703116377	0.4052056576	
696.875	0.3882804348	0.2127179893	
697.5	0.3134692657	0.5206990912	
698.125	0.6432864245	0.361121422	
698.75	0.3257032826	-0.6205743089	
699.375	-0.1469625279	-0.3235163064	
700.0	-0.3408622741	0.1285558573	
700.625	0.2718771557	0.2567210885	
701.25	0.05200237204	0.1957617051	
701.875	0.4268606686	0.3777125419	
702.5	0.3517577639	-0.01831229225	
703.125	0.3272038313	0.2605519011	
703.75	0.5503673705	-0.1383803325	
704.375	0.1080271218	-0.236561171	
705.0	0.311442722	0.03070177665	
705.625	0.2029798386	-0.1072652265	
706.25	0.1287545984	0.09094708771	
706.875	0.2571049328	0.365914957	
707.5	0.4900664175	0.3407417106	
708.125	0.6171549922	0.1295993309	
708.75	0.4039487568	-0.3592331313	
709.375	-0.3606663188	-0.3324265371	
710.0	-0.05349030657	0.1996295598	
710.625	-0.1154153575	0.1104931355	
711.25	0.2061009635	0.05055437827	
711.875	0.0004387440112	0.1086370271	
712.5	0.4410113834	-0.002846828063	
713.125	0.1519685729	-0.366317799	
713.75	0.1649554753	-0.1110781603	
714.375	0.03976445615	-0.3769025875	
715.0	-0.1229342556	-0.1369451952	
715.625	0.1443410132	-0.1648895744	
716.25	0.1847883483	-0.3626228479	
716.875	0.1556245127	-0.1507746525	
717.5	0.556286135	0.1646167576	
718.125	0.9296086318	-0.07969893797	
718.75	0.7430022793	-0.2816286627	
719.375	1.061919453	-0.1731062154	
720.0	0.3444144767	-1.122013448	
720.625	-0.2031925441	-0.7448331335	
721.25	0.5275886337	-0.9399170869	
721.875	-0.5359581672	-1.166305152	
722.5	-0.2943791661	-0.3706932719	
723.125	-0.9670027869	-0.3334253626	
723.75	-0.3005941139	0.7844746866	
724.375	0.01250843435	0.2429945892	
725.0	0.1123151072	0.6099364565	
725.625	0.451946011	0.2783672146	
726.25	-0.1935739697	0.5247673932	
726.875	-0.1948157124	1.230836376	
727.5	0.3435771486	1.291596946	
728.125	-0.4996727642	1.31599378	
728.75	-0.4761917249	3.507618672	
729.375	0.7015839527	3.963588508	
730.0	-1.083303511	2.355297233	
730.625	-0.0624412672	5.72317234	
731.25	0.8237085336	3.756431463	
731.875	-2.407526596	0.9483227246	
732.5	-5.031140674	0.9112457024	
733.125	-1.975166971	1.46474716	
733.75	-1.174896163	-0.07277947878	
734.375	1.618620548	0.8392360556	
735.0	-0.3029363665	-0.3957619622	
735.625	-0.4762617831	-0.1785445162	
736.25	0.0626856876	0.9889421315	
736.875	0.1682382169	-0.08579301949	
737.5	1.113918191	0.8743887739	
738.125	1.906337	-0.9907907373	
738.75	0.6058141231	-0.9900219421	
739.375	3.008345641	0.4782351886	
740.0	5.490461536	-4.365985119	
740.625	-0.699073996	-0.8535194515	
741.25	-2.057908471	6.33808475	
741.875	-1.222681712	2.81798888	
742.5	1.627447325	-1.35503328	
743.125	0.3986327558	-3.101201364	
743.75	-0.5800586276	-0.9077030956	
744.375	-0.149428986	-0.1981628109	
745.0	-0.02216930989	0.4778323487	
745.625	-0.06834838173	-0.01952373307	
746.25	0.02503695488	-0.209938526	
746.875	-0.2480116992	0.1110111732	
747.5	-0.08264127558	0.1447965343	
748.125	-0.01808058943	0.6244114837	
748.75	0.408284624	0.4699235692	
749.375	0.03458351509	0.3485200101	
750.0	-0.4993132184	0.08935018171	
