!Created with skrf (http://scikit-rf.org).
# GHz S RI R (50+0j) 
!freq	ReS11	ImS11	
500.0	0.3493228143	-1.402892397	
500.625	-0.2265192321	-0.7524867034	
501.25	0.1108293879	-1.024872572	
501.875	-0.4861468874	-0.5545251039	
502.5	-0.009504918335	-0.05634166131	
503.125	-0.124023517	-0.03409484257	
503.75	0.06900492485	0.0887361031	
504.375	0.01257117895	0.01855314796	
505.0	0.02838999528	-0.05558395327	
505.625	0.02078382531	0.009732113031	
506.25	-0.0573883625	-0.1632040192	
506.875	0.00674502536	0.1920161347	
507.5	0.1911208162	-0.5405972325	
508.125	-0.3106360873	-0.7105194863	
508.75	0.2796172249	-0.4650710609	
509.375	0.3035333811	-1.363903373	
510.0	-0.6297117248	-0.266277985	
510.625	-0.03922926208	-0.1009865604	
511.25	-0.1202101851	-0.1294947497	
511.875	-0.07600979338	0.04724037071	
512.5	-0.05648430867	0.03119653696	
513.125	-0.0241788442	-0.1249745773	
513.75	-0.05192596552	0.01570183694	
514.375	-0.04217902889	-0.139866371	
515.0	-0.203832658	0.2645302126	
515.625	0.5064906443	-0.7424736064	
516.25	-0.7823704706	-0.3846799927	
516.875	0.1505771822	-0.269246766	
517.5	0.07939766884	-0.2898701979	
518.125	-0.03993531306	0.04184019939	
518.75	0.08415323346	-0.2023196348	
519.375	-0.06838471945	0.06928851536	
520.0	0.08657238103	0.0522034029	
520.625	0.1677837395	0.03077815049	
521.25	-0.0341470775	-0.4025775532	
521.875	-0.15491403	0.01877200078	
522.5	-0.04599568064	-0.04599059537	
523.125	-0.0698035223	0.1617313664	
523.75	0.02135316789	-0.09435997111	
524.375	-0.3460122877	0.02123714063	
525.0	0.1102696547	0.1156015873	
525.625	-0.06485462	0.02276218256	
526.25	0.07564228474	0.001358171456	
526.875	-0.1321812504	0.01660540234	
527.5	0.0520728493	0.2178183925	
528.125	0.05654474037	0.1065109453	
528.75	-0.1161365502	0.2631627014	
529.375	0.1153635103	0.04809221056	
530.0	0.1465819981	0.1291196534	
530.625	0.2137179313	0.4298681039	
531.25	0.4016375802	-0.001252342645	
531.875	0.3166709348	0.01469579847	
532.5	0.0349742906	-0.295728578	
533.125	0.1329766376	0.1096040076	
533.75	0.07006851267	-0.3335987281	
534.375	-0.07854103309	-0.1508177185	
535.0	-0.1823632924	-0.2066090642	
535.625	-0.1777328453	0.181544135	
536.25	-0.002763164091	0.0541909635	
536.875	0.1136095312	0.06082755786	
537.5	0.06028924536	-0.07695731443	
538.125	0.08885421495	0.008587908483	
538.75	0.194395155	-0.1820156644	
539.375	-0.1079575651	-0.1049526605	
540.0	-0.1345080622	-0.1495197373	
540.625	-0.2367310295	-0.03956946072	
541.25	-0.0758429826	0.0498255072	
541.875	-0.04513763819	-0.1102404206	
542.5	-0.1675721755	-0.07759572601	
543.125	-0.01811255432	-0.07036619231	
543.75	-0.1632163741	-0.0117164129	
544.375	0.02292150046	0.03917422557	
545.0	-0.07917877729	0.07035790237	
545.625	0.1062257649	0.03232938895	
546.25	0.02982184333	0.05583647209	
546.875	0.202833757	-0.004951586564	
547.5	0.001455970806	-0.1384629933	
548.125	0.02326236793	-0.1532214827	
548.75	-0.1688057513	-0.1671361401	
549.375	-0.1072351334	-0.01442227054	
550.0	-0.06888023676	-0.04850450314	
550.625	-0.06167211475	0.05318491768	
551.25	-0.06591531911	-0.01661190126	
551.875	-0.1100066189	0.08889331438	
552.5	-0.02110931639	0.08717293462	
553.125	-0.03827488713	0.06541694666	
553.75	0.05579604761	0.04118692803	
554.375	0.0885291927	0.009125851497	
555.0	0.1179028784	-0.06954728235	
555.625	0.08814598103	-0.1129361914	
556.25	0.07213352594	-0.1426836589	
556.875	-0.0273671093	-0.1724224177	
557.5	-0.1041687989	-0.1126892496	
558.125	-0.1211409423	-0.04086414847	
558.75	-0.1136511566	-0.01279611387	
559.375	-0.1273871875	0.02275890353	
560.0	-0.08737128969	0.07785040969	
560.625	-0.07730828886	0.1071651096	
561.25	0.02042120853	0.1256965844	
561.875	0.01299702546	0.01612073701	
562.5	0.02153025645	0.09341916066	
563.125	0.05607947202	0.0404744022	
563.75	0.1575617542	0.05275234032	
564.375	0.1502041468	-0.1430761496	
565.0	0.02967592596	-0.1212403282	
565.625	0.01528317901	-0.2017631244	
566.25	-0.1647529155	-0.08448591225	
566.875	-0.05648445231	-0.06404720616	
567.5	-0.1801834562	-0.1640605912	
568.125	-0.1993006553	-0.04212746708	
568.75	-0.1647374527	-0.1515062281	
569.375	-0.3105696529	0.1405359395	
570.0	-0.06084489317	0.1821741404	
570.625	-0.1582311666	0.137358805	
571.25	0.04670208084	0.1992089145	
571.875	-0.0246397716	0.0202051748	
572.5	0.2127046358	0.03582962399	
573.125	-0.02900853956	-0.1648125052	
573.75	0.08424861469	-0.01360801579	
574.375	0.03477992067	-0.1867787616	
575.0	-0.0267114071	0.04095214073	
575.625	0.1245222081	-0.1309785148	
576.25	-0.0355170438	-0.135980471	
576.875	0.05721905811	-0.06169543802	
577.5	0.06190392019	-0.2609731485	
578.125	-0.1342228081	-0.1321749601	
578.75	0.00241645561	-0.06600012171	
579.375	-0.1040383934	-0.2223810137	
580.0	-0.08275228275	0.07041541012	
580.625	-0.07646051507	-0.2525334581	
581.25	-0.1214868027	0.195904223	
581.875	0.02403617854	0.05760947796	
582.5	-0.04444431199	0.1972578573	
583.125	0.231322829	0.07464547233	
583.75	-0.06658295057	-0.02640401263	
584.375	0.1160081151	0.1247481873	
585.0	0.04149443023	-0.03006294631	
585.625	0.187352302	0.1304409705	
586.25	0.2190381728	-0.1516833942	
586.875	0.009640775751	-0.07585682951	
587.5	0.08090634492	-0.1773349093	
588.125	-0.09378675216	-0.1872615183	
588.75	0.03784284403	-0.04062675239	
589.375	0.1474237772	-0.2274721509	
590.0	-0.1529653433	-0.139927085	
590.625	-0.06164686962	-0.1074251191	
591.25	-0.2490095303	0.1348417465	
591.875	0.07851450913	0.1364899727	
592.5	-0.1537456995	0.02841398378	
593.125	0.1066509248	0.06061001682	
593.75	-0.05576206816	0.09526390163	
594.375	0.2272011194	0.1871146946	
595.0	0.1694711092	-0.006987080541	
595.625	0.1171152283	0.1696395256	
596.25	0.2593977275	0.05791273448	
596.875	0.1051460213	-0.03640853927	
597.5	0.151084594	0.1854543814	
598.125	0.2150056751	0.07316450987	
598.75	0.105107342	0.05128476149	
599.375	0.2675738265	0.04769020074	
600.0	0.1735678417	-0.2312069631	
600.625	0.06634060287	-0.1321303375	
601.25	0.1648451342	-0.1944588646	
601.875	-0.1644809517	-0.1656423983	
602.5	-0.00883338789	-0.00236519038	
603.125	-0.2629346914	0.02385781247	
603.75	0.008096509456	0.1223669352	
604.375	-0.09009002939	-0.03430332873	
605.0	-0.1194134715	0.1891554236	
605.625	0.03995866683	0.05841808258	
606.25	-0.213736373	0.1504084227	
606.875	-0.1514895653	0.2003854219	
607.5	-0.1032400384	0.08607229668	
608.125	-0.1428959134	0.3043975929	
608.75	0.2399473445	0.1619247081	
609.375	0.1342380199	0.01345403825	
610.0	0.2267897349	-0.09165899743	
610.625	0.008250476813	-0.2357009311	
611.25	-0.02717230975	-0.08189342488	
611.875	-0.1259824381	-0.2436047019	
612.5	-0.1359864758	0.05346021522	
613.125	-0.1610291343	-0.09285057535	
613.75	-0.1699599739	0.2574001765	
614.375	0.1056394993	-0.01076982379	
615.0	-0.06326276616	0.1516345758	
615.625	0.08259714657	0.001533919715	
616.25	-0.1044051741	0.04208418363	
616.875	-0.07048351253	0.2673706869	
617.5	0.06998057171	0.2458646079	
618.125	-0.07888592242	0.1880068224	
618.75	0.01920385723	0.2572035912	
619.375	0.1651272505	0.1602974292	
620.0	0.1146054637	0.1483660673	
620.625	0.205552744	-0.2274544677	
621.25	-0.1872166464	-0.1656941038	
621.875	-0.1610037521	-0.180122598	
622.5	-0.3107325391	0.09903134974	
623.125	0.06681130753	0.1885242168	
623.75	0.05107420201	0.1221594743	
624.375	0.08322769613	-0.1505863679	
625.0	0.0141805272	0.06018973886	
625.625	0.1105472258	-0.1587844268	
626.25	-0.1127706496	-0.07608207776	
626.875	-0.0824870478	-0.1210426132	
627.5	-0.2407406444	-0.06526003407	
628.125	-0.09774574826	0.01361711135	
628.75	0.002188488376	-0.1759041692	
629.375	-0.08869623341	-0.2107685056	
630.0	-0.1205793398	-0.07145476536	
630.625	-0.2850263748	-0.007564248255	
631.25	-0.1500781421	0.2739684512	
631.875	0.1094173404	0.2352726042	
632.5	0.07549633556	0.270980784	
633.125	0.2853275833	0.008617121333	
633.75	0.06867985782	-0.07186962395	
634.375	0.1944092129	-0.1145033312	
635.0	-0.1159596444	-0.180437136	
635.625	-0.0361345472	-0.08833403898	
636.25	-0.2837342118	0.0454200097	
636.875	0.0128677049	0.1627902011	
637.5	-0.06601501629	-0.005804631247	
638.125	-0.09362159003	0.2034900045	
638.75	-0.02503235845	0.06679723412	
639.375	-0.1264251904	0.293529016	
640.0	0.2224602348	0.3082846363	
640.625	0.1781362495	0.07194128207	
641.25	0.3050275284	0.1436246629	
641.875	0.2275449243	-0.2905947323	
642.5	-0.1760768086	-0.1316057928	
643.125	-0.03588168608	-0.2233520155	
643.75	-0.2487257241	0.02135994451	
644.375	-0.06194216823	-0.1068488321	
645.0	-0.4337156861	0.2105832797	
645.625	0.1877225115	0.1920311879	
646.25	0.02238236617	0.09926591724	
646.875	0.3336479581	0.075407918	
647.5	-0.1302307554	-0.08695067118	
648.125	0.2721472672	0.1914749981	
648.75	0.2635720588	-0.2203092195	
649.375	0.122969368	-0.1158340804	
650.0	0.385415909	-0.3241491054	
650.625	-0.01010904087	-0.4788938126	
651.25	0.1506478133	-0.05963798304	
651.875	0.4505156336	-0.1673511893	
652.5	0.2192233023	-0.248662214	
653.125	0.1367075467	0.04956632859	
653.75	0.3534377901	-0.2993781743	
654.375	-0.2008588007	-0.292808392	
655.0	-0.06230011818	-0.1171234248	
655.625	-0.4227214639	0.2220287509	
656.25	0.1980001081	0.1635647505	
656.875	-0.1715986724	0.0621667795	
657.5	0.1672520751	0.1462849636	
658.125	-0.05822525722	-0.003435514616	
658.75	0.3624544721	0.3017207386	
659.375	0.3383660083	-0.280642139	
660.0	0.1738819694	-0.1375540272	
660.625	0.3139432026	-0.3538849132	
661.25	0.1026343783	-0.4411171899	
661.875	0.1466901304	-0.1032608476	
662.5	0.4394005238	-0.1986632284	
663.125	0.1899684025	-0.3136698527	
663.75	0.1624577379	-0.1587590819	
664.375	0.04553321444	-0.4697021408	
665.0	-0.3328466276	-0.1319106802	
665.625	-0.2540766408	-0.02827228038	
666.25	-0.2157005672	0.3480926725	
666.875	0.2436133933	0.1728852488	
667.5	0.04270406331	0.1703576801	
668.125	0.3806003753	-0.04639047457	
668.75	0.09327724195	-0.1653381255	
669.375	0.2361261214	-0.1056533275	
670.0	-0.001335691601	-0.365261581	
670.625	-0.01817607719	0.03267925457	
671.25	0.2060293558	-0.205487043	
671.875	0.09751275275	-0.2674516596	
672.5	0.1216477234	-0.07434270476	
673.125	0.4087544451	-0.1804285254	
673.75	0.09512419858	-0.3248811412	
674.375	0.1149302442	-0.1480765122	
675.0	-0.005854852466	-0.3575753761	
675.625	-0.2935815327	-0.06581653194	
676.25	-0.03641937221	-0.04672426336	
676.875	-0.2831427579	-0.05893386664	
677.5	-0.1034772182	0.12628895	
678.125	-0.1533210978	-0.03982734854	
678.75	-0.01914075091	0.4087964079	
679.375	0.2055049566	-0.06696696582	
680.0	0.1329354555	0.06944515685	
680.625	0.2365499667	-0.2959894907	
681.25	-0.1051919319	-0.02858886898	
681.875	0.2572696901	0.2597436888	
682.5	0.2177005543	-0.2067027619	
683.125	0.07958209404	0.08022000515	
683.75	0.4748437497	0.1706760228	
684.375	0.3994320557	-0.1559017374	
685.0	0.03955502385	0.1179359218	
685.625	0.5073311305	0.115686676	
686.25	0.2604256354	-0.1131754661	
686.875	0.2261434706	0.05309072957	
687.5	0.5028689061	-0.4132984946	
688.125	-0.1775068798	-0.333358217	
688.75	-0.2877427985	-0.3264582876	
689.375	-0.4866094039	0.3797240962	
690.0	0.229523853	0.2650405297	
690.625	-0.0415682783	0.400076824	
691.25	0.6024791979	0.2855766026	
691.875	0.2384734437	0.1684643467	
692.5	0.5521657929	0.4778490014	
693.125	0.8383027329	-0.2518663774	
693.75	0.3711813414	-0.2196967265	
694.375	0.7171318032	-0.5457343891	
695.0	0.5108871734	-0.4591798057	
695.625	0.3104278237	-0.09924210699	
696.25	0.6004857046	0.3284709547	
696.875	0.5241194035	0.2984929158	
697.5	0.5215812349	0.5918825661	
698.125	0.5578083574	0.461746915	
698.75	0.5676679283	-0.4573275182	
699.375	-0.3337919505	-0.3194629486	
700.0	-0.553974003	0.2632685379	
700.625	0.2872270163	0.3161455346	
701.25	0.05737572757	0.1256964821	
701.875	0.3155408962	0.4611631344	
702.5	0.4264843784	0.06830190316	
703.125	0.2622137441	0.2346468184	
703.75	0.5504671539	-0.1017566275	
704.375	0.198308546	-0.3215836583	
705.0	0.3989564491	-0.07735647486	
705.625	0.4460613701	-0.04263188624	
706.25	0.2106492037	0.03796468125	
706.875	0.0718081851	0.3972342156	
707.5	0.2283328392	0.3887625654	
708.125	0.3312329934	0.0382041324	
708.75	0.4863055951	-0.1812664054	
709.375	-0.2629889259	-0.4406057442	
710.0	-0.1195563682	0.3202465177	
710.625	-0.1726998746	0.02405833175	
711.25	0.2546248205	0.04653730842	
711.875	0.04882353669	0.1783604006	
712.5	0.4574290995	0.1220974525	
713.125	0.2546965127	-0.2793103135	
713.75	0.1164657854	-0.1034835964	
714.375	0.1130783984	-0.3212337426	
715.0	-0.13420679	-0.1935651696	
715.625	0.06734276385	-0.1329348181	
716.25	0.2601917036	-0.3810502804	
716.875	0.1567332769	-0.2425119078	
717.5	0.4646366712	0.1830073293	
718.125	0.8477532268	0.113122636	
718.75	0.4897735514	-0.2578792179	
719.375	0.969490502	0.01367018593	
720.0	0.7976616458	-1.16147178	
720.625	0.1588051807	-0.5236516389	
721.25	0.5286707519	-1.036554261	
721.875	-0.5275146323	-1.254084922	
722.5	-0.344734815	-0.4321576682	
723.125	-0.780329141	-0.7942797602	
723.75	-0.4445562935	0.5955132021	
724.375	0.03866689337	0.2694397548	
725.0	-0.02215267365	0.5938973378	
725.625	0.4171565355	0.3954228204	
726.25	-0.1066270582	0.3933501837	
726.875	-0.3371069334	1.161629969	
727.5	0.2120810305	1.542824805	
728.125	-0.2823806114	1.172386112	
728.75	-0.9709151277	3.393277486	
729.375	0.246838083	3.808063622	
730.0	-0.6580906291	2.363935318	
730.625	-2.242583857	5.235644034	
731.25	1.334391406	3.45429105	
731.875	-1.654484915	-0.2561782111	
732.5	-4.419836856	0.05591590705	
733.125	-2.090800495	1.129244645	
733.75	-1.14560559	0.4690675707	
734.375	1.219284607	0.9669135516	
735.0	-0.2261926559	-0.5019545906	
735.625	-0.3460319825	-0.3151306608	
736.25	-0.1628728035	0.8753804755	
736.875	0.4491969921	0.06149280354	
737.5	0.7962836897	0.8795462071	
738.125	2.138827624	-0.6905478011	
738.75	0.8720036644	-1.428609766	
739.375	1.559370834	0.9202518293	
740.0	6.042595368	-2.626205552	
740.625	-0.1995494607	-1.878465228	
741.25	-3.727481925	4.053443906	
741.875	-4.605329441	3.587452611	
742.5	1.332949568	-0.320595478	
743.125	1.074711125	-2.802012086	
743.75	-0.6225221072	-1.442810607	
744.375	0.01662910627	0.171228445	
745.0	-0.09679079574	0.2756420912	
745.625	-0.05002800807	-0.02628030088	
746.25	0.1143495819	-0.2111879885	
746.875	-0.2997737184	0.0613482818	
747.5	-0.07908254749	0.2051040863	
748.125	-0.1173989558	0.5514547813	
748.75	0.3812893319	0.518589347	
749.375	0.1015059991	0.3301580436	
750.0	-0.4817418819	0.192883475	
