!Created with skrf (http://scikit-rf.org).
# GHz S RI R (50+0j) 
!freq	ReS11	ImS11	
500.0	0.8514297945	-2.57721742	
500.625	0.2748980534	-3.506551416	
501.25	-1.218441149	-1.799305815	
501.875	-1.330599239	-0.8260159645	
502.5	-0.1020417866	-0.2141332921	
503.125	-0.2496062883	-0.02369937852	
503.75	0.2900624346	0.3498511881	
504.375	-0.05852805637	0.02006762273	
505.0	0.1697248383	-0.1489028011	
505.625	-0.1621358811	0.007874807084	
506.25	0.03447696175	-0.5181847131	
506.875	0.2658761415	0.7597180097	
507.5	0.2643136103	-2.031456881	
508.125	-1.168716281	-2.256948424	
508.75	0.9204326412	-0.6629871413	
509.375	0.2963887516	-5.258341968	
510.0	-2.649706952	-0.2088565907	
510.625	-0.1638040937	-0.3887752584	
511.25	-0.5481142599	-0.1287375364	
511.875	-0.3235391979	0.00680906418	
512.5	-0.05494971602	0.106512526	
513.125	-0.04688937569	-0.3060475811	
513.75	-0.2849658918	-0.08359476998	
514.375	-0.06089444033	-0.2967638929	
515.0	-1.034732417	0.1284711162	
515.625	2.343253617	-2.300793652	
516.25	-3.969297122	-1.644490609	
516.875	0.4272163974	0.1936529355	
517.5	-0.008662555799	-1.185368264	
518.125	-0.01134321867	0.378675968	
518.75	-0.2504384463	-1.069718997	
519.375	-0.06598257869	0.2546543948	
520.0	0.1502850109	0.1642187223	
520.625	0.6310576868	-0.2390748548	
521.25	-0.295217037	-0.6075341923	
521.875	-0.231998326	-0.1852278097	
522.5	-0.1128666362	0.2309247533	
523.125	-0.210243748	-0.1319277175	
523.75	-0.2668587416	0.2737323362	
524.375	-0.23694918	-0.1066312012	
525.0	0.008076302193	0.6646845394	
525.625	-0.05528621701	-0.1084963723	
526.25	0.1480051912	0.09301499663	
526.875	-0.3150467907	-0.007662629205	
527.5	0.1420957586	0.7733684221	
528.125	0.02888439309	0.3245264053	
528.75	-0.1247032433	0.951809193	
529.375	0.2882632033	-0.0443733416	
530.0	-0.1491706891	0.8098734892	
530.625	0.5395978076	0.4394932001	
531.25	1.002162533	0.5469727063	
531.875	0.2544844251	-0.8530158147	
532.5	0.2587460712	-0.2770867068	
533.125	-0.7296647985	-0.1493934171	
533.75	0.8642190442	-0.6002124097	
534.375	-0.8919661198	-0.5217076923	
535.0	-0.2326138926	-0.3008481741	
535.625	-0.6869629286	0.5311593311	
536.25	0.1042660259	0.0620450697	
536.875	0.2831429061	0.1976153333	
537.5	0.1442983707	-0.2329435054	
538.125	0.1196317375	-0.002331360969	
538.75	0.498278386	-0.3615170006	
539.375	-0.2824262756	-0.2750432727	
540.0	-0.2945313395	-0.3299534375	
540.625	-0.4637736363	-0.06437772546	
541.25	-0.1231809594	0.08600486352	
541.875	-0.1148542644	-0.1214288307	
542.5	-0.1625621137	-0.0476391377	
543.125	-0.09543426285	-0.05393915081	
543.75	-0.2860761404	-0.1182119646	
544.375	0.02786654209	0.2572924201	
545.0	-0.2218556095	0.02355274454	
545.625	0.4004170169	0.1746786589	
546.25	-0.06201063876	-0.004332713683	
546.875	0.5770038041	0.002329426971	
547.5	-0.1339760944	-0.2411379773	
548.125	0.1514867573	-0.392592026	
548.75	-0.4885941724	-0.3543995403	
549.375	-0.2170301731	0.04762043919	
550.0	-0.1582369189	-0.1530154829	
550.625	-0.158907703	0.1667533305	
551.25	-0.1223615279	-0.0411606078	
551.875	-0.2291766539	0.2530128542	
552.5	-0.01852961816	0.1333500339	
553.125	-0.07232564102	0.2001959675	
553.75	0.1206533516	0.0698291525	
554.375	0.217817468	0.01513879479	
555.0	0.2312274344	-0.1857985931	
555.625	0.1707527703	-0.2625820175	
556.25	0.1393711216	-0.3262689183	
556.875	-0.08361663834	-0.3724889442	
557.5	-0.2450347416	-0.233111277	
558.125	-0.2643228292	-0.06975282417	
558.75	-0.2446930571	-0.02308303476	
559.375	-0.2663237778	0.08517736493	
560.0	-0.174916058	0.1351843464	
560.625	-0.1711797684	0.2864139619	
561.25	0.1183132332	0.2313262135	
561.875	-0.01844148143	0.05509438543	
562.5	0.1089454919	0.2023164091	
563.125	0.082891215	0.04710455223	
563.75	0.3726194304	0.1099193627	
564.375	0.2251292377	-0.3618852334	
565.0	0.1735989641	-0.1724602321	
565.625	-0.1221310896	-0.5014072577	
566.25	-0.2348280423	-0.08441411879	
566.875	-0.2565381024	-0.2944272327	
567.5	-0.4687676546	-0.2405679277	
568.125	-0.2926907091	-0.1592678547	
568.75	-0.4509005825	-0.403134748	
569.375	-0.6733780186	0.4563291017	
570.0	-0.008030237923	0.3083733915	
570.625	-0.4817693098	0.3728236479	
571.25	0.3863861858	0.3466214732	
571.875	-0.1977415379	0.2718014962	
572.5	0.5882841465	-0.2194997666	
573.125	-0.1274056636	-0.009000153966	
573.75	0.4667848859	-0.2550593977	
574.375	-0.215356613	-0.3766667291	
575.0	0.1240909231	0.2014495871	
575.625	0.1132202593	-0.4576595313	
576.25	-0.128636032	-0.01011686419	
576.875	0.2568413044	-0.4962586224	
577.5	-0.2547921177	-0.475164857	
578.125	-0.0412569233	-0.08013060358	
578.75	-0.04491398878	-0.4523757462	
579.375	-0.4247439295	-0.20664979	
580.0	0.02811055058	0.1568775062	
580.625	-0.2690867975	-0.3173497286	
581.25	-0.04630127857	0.4394885103	
581.875	-0.1624239736	0.0458970246	
582.5	0.1332727707	0.6890610708	
583.125	0.332537222	-0.1847931252	
583.75	-0.1539673662	0.3629470377	
584.375	0.4085336163	-0.1996292903	
585.0	-0.1470418281	0.40173503	
585.625	0.7231513453	-0.01182779183	
586.25	0.1522040092	-0.374755694	
586.875	0.2037477721	-0.02135628589	
587.5	-0.03651069758	-0.5906075828	
588.125	-0.1810340068	-0.02065614695	
588.75	0.3289678402	-0.4402176024	
589.375	-0.1137565301	-0.4407657092	
590.0	0.1757931517	-0.2671860253	
590.625	-0.721811583	-0.1422793343	
591.25	-0.06186562445	0.3057341557	
591.875	-0.08634640925	0.1249175986	
592.5	-0.1827503783	0.1850625277	
593.125	0.2287050161	0.03519424236	
593.75	-0.2145075879	0.4571395236	
594.375	0.6896109262	0.0584208475	
595.0	0.0579717657	0.1370319245	
595.625	0.5973006372	0.5201040787	
596.25	0.2389374169	-0.3179467162	
596.875	0.2947479687	0.496094965	
597.5	0.7101376803	0.0582645877	
598.125	0.0740650304	-0.007778582622	
598.75	0.4012451281	0.4354997604	
599.375	0.5766660413	-0.2578928934	
600.0	0.2108214941	-0.2192192344	
600.625	0.4852451651	-0.3866641478	
601.25	-0.04694482183	-0.5067941149	
601.875	0.02738426041	-0.2753592064	
602.5	-0.4420879946	-0.008917068754	
603.125	-0.08890694997	0.08093771477	
603.75	-0.2898375493	0.1447624726	
604.375	-0.2197707064	0.1230628584	
605.0	-0.1360371275	0.3541683475	
605.625	-0.08871672818	-0.1653622218	
606.25	-0.4852087327	0.4278118699	
606.875	0.02130075586	0.1142504004	
607.5	-0.8297964724	0.2549492562	
608.125	0.4114724447	0.6524527693	
608.75	-0.002208434295	0.3536541346	
609.375	0.9467349679	-0.1080611619	
610.0	-0.07874878244	-0.3296653838	
610.625	0.5578466609	-0.2656213249	
611.25	-0.2540322725	-0.4070820898	
611.875	0.09068092416	-0.2648226991	
612.5	-0.6406774957	-0.06571651701	
613.125	-0.1768888342	-0.04453777192	
613.75	-0.4172890845	0.4578505907	
614.375	0.3072007055	0.0512426949	
615.0	-0.08849276398	0.3938595507	
615.625	0.2479940249	-0.03954778155	
616.25	-0.409750329	0.2793284089	
616.875	-0.04540931839	0.7287469508	
617.5	-0.05681940643	0.1163739505	
618.125	-0.1783789975	0.7413675323	
618.75	0.2793200257	0.2712610791	
619.375	-0.01953893391	0.4261124275	
620.0	0.6085499664	-0.03850236386	
620.625	0.1607844313	-0.1963791439	
621.25	-0.2652082373	-0.498814604	
621.875	-0.3150155221	-0.09442265141	
622.5	-0.6829165871	0.0579636731	
623.125	0.2613948628	0.394716077	
623.75	0.02478152765	0.3732600618	
624.375	0.0694957452	-0.4475631264	
625.0	0.2001518356	0.2712158765	
625.625	-0.08216221385	-0.5679744643	
626.25	0.1576417687	-0.03162703193	
626.875	-0.4761099125	-0.484902005	
627.5	-0.359241305	0.2693140589	
628.125	0.06998661423	-0.2412694124	
628.75	-0.2964209928	-0.5058398827	
629.375	-0.282513139	-0.116846622	
630.0	-0.3004596989	-0.3043873786	
630.625	-0.6220489394	0.2408869266	
631.25	-0.1136019772	0.311981125	
631.875	-0.1998191209	0.6818957486	
632.5	0.500609687	0.2982531779	
633.125	0.3122861605	0.122759968	
633.75	0.4927623226	-0.1220312349	
634.375	0.102842711	-0.4543409089	
635.0	-0.1434227923	-0.08393126691	
635.625	-0.1905260898	-0.4773171725	
636.25	-0.5223338547	0.4735890325	
636.875	0.2171954711	0.0468519395	
637.5	-0.5594965561	0.4025028492	
638.125	0.3121870725	0.03112710688	
638.75	-0.5991643143	0.3968428266	
639.375	0.474184263	0.7617364535	
640.0	-0.1045216624	0.1061551325	
640.625	0.7232336608	0.7177675926	
641.25	0.7301075623	-0.4451062469	
641.875	0.04522678982	-0.2448409234	
642.5	0.3433955123	-0.4652602547	
643.125	-0.7435711053	-0.2142701533	
643.75	0.09314432561	-0.1621348964	
644.375	-0.7104678866	0.01225443777	
645.0	0.01938982242	0.3723659816	
645.625	-0.2593577668	0.4421743324	
646.25	0.7287902331	0.1690885375	
646.875	-0.002438879938	-0.2158457606	
647.5	0.08697166805	0.3952674306	
648.125	0.6697652644	-0.2804050386	
648.75	-0.08443855527	0.1386371065	
649.375	1.218201073	-0.651191466	
650.0	-0.2902252603	-1.046226266	
650.625	0.3826097722	0.07784674937	
651.25	0.9829042355	-1.111412668	
651.875	-0.3021134921	-0.5163739375	
652.5	0.7918745658	0.3458594667	
653.125	0.863877807	-0.8063421349	
653.75	-0.09889047776	-0.3892677422	
654.375	0.3588275324	-0.699189255	
655.0	-1.085156732	0.03524092096	
655.625	0.05488474217	0.3355773356	
656.25	-0.3736170849	0.4693397687	
656.875	0.6285370809	0.08138315368	
657.5	-0.3981569729	0.2975934515	
658.125	0.6648195203	0.4341274666	
658.75	0.6007622535	-0.1097925418	
659.375	0.387381036	-0.1671565164	
660.0	1.022841839	-0.6186665442	
660.625	-0.2811886589	-1.101808375	
661.25	0.3881340343	-0.1286495899	
661.875	0.8082462104	-0.8698848475	
662.5	-0.01698547109	-0.6602535201	
663.125	0.9620148164	-0.04124948036	
663.75	0.03657869241	-1.158642735	
664.375	-0.1471168455	-0.2224794928	
665.0	-0.4370586979	-0.8021443263	
665.625	-0.9591825414	0.4522859103	
666.25	0.1353809745	0.4134414752	
666.875	0.04500599694	0.6227923028	
667.5	0.6789635512	0.0302907574	
668.125	0.1623430344	0.1418416795	
668.75	0.6819662401	-0.6302937897	
669.375	-0.07308512141	-0.3648466782	
670.0	0.2243423812	-0.3635277465	
670.625	0.01478221978	-0.6777196615	
671.25	-0.1824127933	-0.4181962049	
671.875	0.2715945216	-0.01158441193	
672.5	0.7730422453	-0.5355645055	
673.125	0.09076062933	-0.6069547773	
673.75	0.4316308714	-0.1119842733	
674.375	-0.07709105079	-1.12218659	
675.0	-0.1240372968	0.006833904401	
675.625	-0.3989740249	-0.738113907	
676.25	-0.7635526376	0.3470412192	
676.875	0.3117348821	-0.09729969505	
677.5	-0.8908861534	-0.01615415191	
678.125	0.1245586029	0.5298938634	
678.75	-0.07924534254	0.2487926425	
679.375	0.6707784948	0.4540372917	
680.0	0.03837303114	-0.6028130084	
680.625	0.3561262671	0.1487343011	
681.25	0.300898001	-0.3414806804	
681.875	-0.07037292451	0.08342248914	
682.5	0.784272242	0.5317113459	
683.125	0.6022908571	-0.2351148081	
683.75	0.3874218076	0.07554039071	
684.375	0.4043006154	0.3501314601	
685.0	1.254365718	0.03356176091	
685.625	-0.1489815791	-0.4637378086	
686.25	1.366379801	0.501381886	
686.875	0.1324850884	-1.152756255	
687.5	0.6818545725	0.07649080645	
688.125	-0.3533481423	-1.923006987	
688.75	-0.4183439321	0.6217991874	
689.375	-1.354945272	0.2712579591	
690.0	0.9131679339	1.026366058	
690.625	0.2257505638	0.1466165167	
691.25	0.8526342213	0.9926355965	
691.875	1.149277135	0.3003675896	
692.5	1.172639549	0.549588492	
693.125	1.626646439	-0.1430613098	
693.75	1.08639018	-0.7313764461	
694.375	1.0278966	-0.8664154846	
695.0	0.7683258793	-0.7571800444	
695.625	1.319394858	-0.1758985996	
696.25	1.057244874	-0.1848671006	
696.875	0.4076901311	1.180499731	
697.5	1.941006904	0.8803603677	
698.125	0.4383468268	0.09909565583	
698.75	1.617906167	-1.253797444	
699.375	-1.612593572	-0.1642006112	
700.0	-0.8308775255	-0.03544926805	
700.625	0.9771846824	1.054138335	
701.25	0.09259224766	0.0111567475	
701.875	0.8462186321	1.115040698	
702.5	0.689921977	-0.1183458161	
703.125	0.8474753091	0.6448429427	
703.75	1.063948601	-0.6508141739	
704.375	0.1445476886	-0.06416771583	
705.0	1.056031466	-0.5135093838	
705.625	0.1240107797	-0.3195428675	
706.25	0.5397372653	0.9676243601	
706.875	1.172276267	0.1445568066	
707.5	0.05464023605	0.8520074584	
708.125	1.692437288	0.1604641872	
708.75	-0.0596950431	-0.9497569982	
709.375	-0.399351273	-0.7553973751	
710.0	-0.4764890934	0.8602368553	
710.625	0.1390625163	0.1085320582	
711.25	0.3631405256	0.3739495475	
711.875	0.4362115299	0.1671167386	
712.5	0.6857941605	-0.07840786303	
713.125	0.5746519764	-0.4755628861	
713.75	0.3623821274	-0.5671279483	
714.375	-0.2675762884	-0.5749297098	
715.0	0.3393041759	-0.1722327314	
715.625	-0.2155406103	-1.079907559	
716.25	-0.1385899389	0.04815781475	
716.875	1.530836803	-0.08307723306	
717.5	1.424845437	-1.522378692	
718.125	0.3188993141	1.440614873	
718.75	3.239930091	-1.327910061	
719.375	-0.1067637973	-1.536957771	
720.0	3.444095527	-1.442745752	
720.625	-1.833274333	-3.739838074	
721.25	0.136579572	-1.04661878	
721.875	-0.3698186493	-2.85763092	
722.5	-2.373037898	-1.848320392	
723.125	-1.348635395	0.412764884	
723.75	-1.343991362	0.8703098841	
724.375	0.6434729906	1.129138122	
725.0	0.2216981448	0.6310349221	
725.625	0.2890946537	1.317583836	
726.25	0.8068704635	1.762542055	
726.875	-0.03924282631	1.097401734	
727.5	-1.953300716	4.098235521	
728.125	2.059521094	6.096878761	
728.75	2.420982389	1.312440409	
729.375	-8.530184597	13.11579827	
730.0	14.58363446	7.486207081	
730.625	-4.901522889	3.605506373	
731.25	-2.139138358	16.78694278	
731.875	5.280314949	3.244065336	
732.5	-13.93182001	-0.6025482775	
733.125	-6.239660931	5.436079117	
733.75	0.1289670407	3.129183643	
734.375	0.618460741	1.113765941	
735.0	-0.2717952997	-2.682692894	
735.625	-0.1639955909	0.7861252951	
736.25	-0.7162958045	1.295204781	
736.875	1.85026005	1.504694344	
737.5	0.8198415771	-0.4051898998	
738.125	5.615514687	-0.1506031671	
738.75	3.858108701	-6.122776497	
739.375	0.9551728942	-4.856199425	
740.0	9.92217401	11.03342721	
740.625	24.94952172	-22.06631582	
741.25	-0.8673364282	-18.3067815	
741.875	-19.41758756	-4.369713479	
742.5	-13.47604038	3.104311165	
743.125	5.665244875	-2.492020061	
743.75	-2.473394747	-6.922244997	
744.375	0.01806138481	0.8809963161	
745.0	-0.4558027138	0.7327005157	
745.625	-0.1270946488	-0.3788883329	
746.25	0.2548016111	-0.3024944121	
746.875	-0.6386808856	0.002920649833	
747.5	-0.1204957039	0.8698935861	
748.125	0.1338701842	1.085436918	
748.75	0.6664361816	1.718360561	
749.375	1.754433611	0.1305307041	
750.0	-0.7297890049	0.6820528031	
