!Created with skrf (http://scikit-rf.org).
# GHz S RI R (50+0j) 
!freq	ReS11	ImS11	
500.0	-1.348787368	-3.688372936	
500.625	0.6390146522	-1.704764253	
501.25	-1.327796747	-3.039283151	
501.875	-2.158943862	-0.9638966166	
502.5	-0.04277017958	-0.1239736998	
503.125	-0.3642648414	0.06881878758	
503.75	0.1393954943	-0.001273475859	
504.375	0.1480414846	0.02763588748	
505.0	-0.08964300878	-0.07690405101	
505.625	0.2506352648	-0.1993512985	
506.25	-0.6100102077	0.06352735045	
506.875	0.3335171106	-0.4033251147	
507.5	-0.5652165449	-2.114079279	
508.125	-1.334045191	-1.140549271	
508.75	2.69705662	-1.680586915	
509.375	-2.969942485	-4.479690896	
510.0	-0.3479405361	-0.06633221321	
510.625	-0.631507261	-0.9074466108	
511.25	-0.1562981086	0.1863487049	
511.875	-0.543667617	-0.1120905934	
512.5	-0.0570190005	0.1729586442	
513.125	-0.1040318167	-0.2322151175	
513.75	0.03472898341	-0.08634977818	
514.375	-0.434840912	-0.3062470988	
515.0	0.5487216791	1.15782956	
515.625	-1.409413784	-2.821010918	
516.25	-0.7710657953	0.5583942949	
516.875	0.1333463672	-2.208545603	
517.5	-1.051533907	-0.3055917887	
518.125	0.2774748815	-0.2408684783	
518.75	-0.7697971997	-0.4277404711	
519.375	-0.07624648829	0.03894773279	
520.0	0.3933316606	0.3028587636	
520.625	0.360708629	-0.3931971456	
521.25	0.04188085664	-0.3409996218	
521.875	-0.5519358858	-0.1904948775	
522.5	0.08106925179	0.07324137839	
523.125	-0.2958486087	0.197877493	
523.75	-0.08122845313	-0.06797330544	
524.375	-0.66507594	0.2342058924	
525.0	0.1766179686	0.0111559326	
525.625	-0.05796856793	0.2334197922	
526.25	0.09401223609	-0.2380312543	
526.875	-0.2054331464	0.361318636	
527.5	0.1442810295	0.2754469562	
528.125	-0.2366022799	0.8200684822	
528.75	0.5477420941	0.7995245765	
529.375	-0.131558548	0.1622687415	
530.0	0.4557123253	0.2454881346	
530.625	-0.09015753394	0.799736592	
531.25	1.543727024	-0.2460832113	
531.875	0.239189428	-0.1043497453	
532.5	-0.1909025291	-0.5785639303	
533.125	0.2304698551	0.3168212503	
533.75	-0.01281683259	-0.9700442701	
534.375	-0.07080856586	-0.1610245972	
535.0	-0.95411382	-0.6254046174	
535.625	-0.1057072151	0.5330969406	
536.25	-0.07497328922	0.1538146046	
536.875	0.3415357317	0.07028725513	
537.5	0.02616036126	-0.1287681027	
538.125	0.4736269575	-0.05723806749	
538.75	0.1104113504	-0.3997115758	
539.375	-0.004744801796	-0.3274687965	
540.0	-0.55162183	-0.4828405895	
540.625	-0.3089791621	0.1507839343	
541.25	-0.1521380734	-0.02609854449	
541.875	-0.1300145118	-0.130200189	
542.5	-0.1859298897	0.02178602667	
543.125	-0.06420371346	-0.1985134731	
543.75	-0.3662749384	0.1148080526	
544.375	0.01374520348	-0.06446169203	
545.0	-0.005980229638	0.3090576913	
545.625	0.06600171928	-0.08816919457	
546.25	0.2887593679	0.3583292627	
546.875	0.1896082443	-0.3553348022	
547.5	0.1956482452	-0.05772968948	
548.125	-0.05991839241	-0.57504855	
548.75	-0.4043288325	-0.08668425303	
549.375	-0.08483772076	-0.2007118536	
550.0	-0.3230404955	0.06344080962	
550.625	0.0179700279	-0.02636445501	
551.25	-0.3103884429	0.1109638995	
551.875	-0.01367720385	0.1718945211	
552.5	-0.177310821	0.1460770451	
553.125	0.006798428578	0.1914329333	
553.75	0.09893073662	0.08144898959	
554.375	0.2323832172	0.01027628626	
555.0	0.2138126158	-0.1908794204	
555.625	0.1812956398	-0.2434736882	
556.25	0.1462766846	-0.3427666524	
556.875	-0.1105973579	-0.3684541521	
557.5	-0.2282921074	-0.2250328089	
558.125	-0.2639277577	-0.09389772648	
558.75	-0.2719512701	0.01048543156	
559.375	-0.2165035384	0.07221529463	
560.0	-0.2349880524	0.1398558335	
560.625	-0.10090905	0.3132499023	
561.25	0.05178027669	0.1461567417	
561.875	0.05761151965	0.1961078986	
562.5	0.03803539607	0.005696492397	
563.125	0.1614181175	0.2802376657	
563.75	0.3410145554	-0.1511586814	
564.375	0.1795100455	-0.0793663111	
565.0	0.2832403189	-0.4105099629	
565.625	-0.2123147961	-0.3374478051	
566.25	-0.1494017131	-0.1678955805	
566.875	-0.3736869115	-0.2944159452	
567.5	-0.3926371311	-0.05651028897	
568.125	-0.1672974626	-0.4639607962	
568.75	-0.7057791184	-0.1094881294	
569.375	-0.313075706	0.2121765822	
570.0	-0.5218309858	0.4059355829	
570.625	0.06529897546	0.673514844	
571.25	-0.01718982296	-0.06292941611	
571.875	0.241291858	0.5103845163	
572.5	0.04345899428	-0.2599621144	
573.125	0.4277444905	-0.009631434513	
573.75	0.01458956965	-0.5656868208	
574.375	-0.0720613064	0.1439590928	
575.0	0.2579290155	-0.3505614766	
575.625	-0.1742331395	0.03524392129	
576.25	0.4122176172	-0.1910772697	
576.875	-0.1762379092	-0.5361625337	
577.5	-0.1388647966	-0.1152886139	
578.125	0.1275658852	-0.3912635006	
578.75	-0.3889806229	-0.4178438459	
579.375	-0.136935104	0.06741591908	
580.0	-0.04344870618	-0.2878875396	
580.625	-0.2076039221	0.1820652679	
581.25	-0.1963156218	-0.1160820952	
581.875	-0.0749581951	0.6459772416	
582.5	0.4729159909	0.2017473636	
583.125	-0.1919933644	-0.0416966758	
583.75	0.4529027163	0.3882206564	
584.375	-0.3057902838	-0.1533224656	
585.0	0.5363759958	0.3880031723	
585.625	0.1667388793	-0.3404835738	
586.25	0.3720479618	0.2498620467	
586.875	0.1322441218	-0.6666554876	
587.5	-0.1033185487	-0.01452940787	
588.125	0.2074299648	-0.3804418372	
588.75	-0.05140372012	-0.5804591808	
589.375	0.001590610784	-0.1097203887	
590.0	0.06229059876	-0.5105994478	
590.625	-0.5216699914	0.02822645019	
591.25	-0.1791242371	0.1535802349	
591.875	-0.209974602	0.3218054843	
592.5	0.1825402891	0.03865294554	
593.125	-0.1769492371	0.2237211532	
593.75	0.2601316722	0.2030646161	
594.375	0.1139256503	0.0819251695	
595.0	0.3038701867	0.622690696	
595.625	0.8130739006	-0.1372400819	
596.25	-0.07589173504	0.1834443736	
596.875	0.7072747116	0.2281060915	
597.5	0.1874117744	-0.1624446017	
598.125	0.3027676682	0.6569583222	
598.75	0.5303148742	-0.1518496082	
599.375	0.2753268992	0.1551655077	
600.0	0.6162664629	-0.4462579207	
600.625	0.1422680732	-0.5457505178	
601.25	0.1469246411	-0.2238064379	
601.875	-0.1432932649	-0.4231734353	
602.5	-0.308422754	-0.01198692246	
603.125	-0.2046551849	0.1564352352	
603.75	-0.2428402249	0.08694290363	
604.375	-0.2648309225	0.2596157177	
605.0	-0.05842404409	0.0875976204	
605.625	-0.3190586094	0.1833143071	
606.25	-0.0443442375	0.1607264319	
606.875	-0.5803103492	-0.06244869073	
607.5	-0.1632745281	0.8527778469	
608.125	-0.14567843	0.1383947051	
608.75	0.5038450126	0.7962567794	
609.375	0.3017090599	-0.4468062814	
610.0	0.5093226019	0.04773190519	
610.625	0.09183929087	-0.6403269504	
611.25	0.03137457288	-0.01893890604	
611.875	-0.3541736144	-0.5681660294	
612.5	-0.1150433862	0.06481666312	
613.125	-0.5647169979	-0.09968851304	
613.75	-0.003580532253	0.5307465128	
614.375	-0.2197136667	0.1673995379	
615.0	0.3871916626	0.08438924635	
615.625	-0.283756136	0.0852640423	
616.25	0.05647052079	0.6748447999	
616.875	-0.03295556746	0.05816470156	
617.5	-0.424919242	0.6728808122	
618.125	0.2727722958	0.5307941824	
618.75	-0.139524432	0.2537455606	
619.375	0.3989944464	0.5001436434	
620.0	0.2636344135	0.02719652461	
620.625	0.3640331612	-0.3962000459	
621.25	-0.2648214885	-0.284981453	
621.875	-0.4432182373	-0.3056463409	
622.5	-0.4217840355	0.2726378202	
623.125	-0.1412276908	0.3064840299	
623.75	0.5293250385	0.1186652689	
624.375	-0.2147850842	-0.003323493963	
625.0	0.4104004771	-0.3473222113	
625.625	-0.1330583655	0.1113106319	
626.25	0.1220854329	-0.5620738426	
626.875	-0.5689336739	-0.02938490992	
627.5	0.0373902289	-0.1065048526	
628.125	-0.5541158758	-0.3081522644	
628.75	-0.09328301724	0.009392394835	
629.375	-0.08593461951	-0.5784253958	
630.0	-0.6213603564	-0.05183702497	
630.625	-0.2209411019	0.09875273954	
631.25	-0.4725301614	0.3700884043	
631.875	0.03669480131	0.6308808106	
632.5	0.4060906925	0.385597528	
633.125	0.3147650357	0.04867457948	
633.75	0.5651267203	-0.1323918331	
634.375	-0.04691517723	-0.2358503513	
635.0	0.08439685308	-0.3710190554	
635.625	-0.4972356894	-0.08993195448	
636.25	-0.1593360963	-0.03682203758	
636.875	-0.3743206445	0.495426198	
637.5	0.2731637866	0.1944134993	
638.125	-0.4447541158	-0.1029969866	
638.75	-0.0537722164	0.7960821431	
639.375	0.2356346049	0.187587814	
640.0	0.02125824803	0.681501976	
640.625	0.8768442785	0.264706429	
641.25	0.2935883615	-0.1287793069	
641.875	0.8220747633	-0.4231235957	
642.5	-0.4203499075	-0.3291287683	
643.125	0.08780965719	-0.2337658824	
643.75	-0.6248208776	-0.3823390081	
644.375	-0.2213764509	0.375016263	
645.0	-0.2972490366	-0.01765620462	
645.625	0.04414994823	0.7873774377	
646.25	0.584289448	-0.07375157043	
646.875	-0.1421596855	0.07201734306	
647.5	0.643399308	-0.07421190991	
648.125	-0.1374307709	0.3473495541	
648.75	1.039652974	-0.2177039503	
649.375	0.03174753379	-0.8114651664	
650.0	0.4004486879	0.01885732503	
650.625	0.9071403935	-1.242083588	
651.25	-0.3802421482	-0.7126901371	
651.875	0.6194542753	0.2657897609	
652.5	1.060398953	-0.6498890337	
653.125	0.04739121744	-0.4146717021	
653.75	0.9030813143	-0.3530484291	
654.375	-0.612091776	-0.8175637566	
655.0	-0.2551279069	0.1050531352	
655.625	-0.7500593459	0.09593356148	
656.25	0.465068521	0.7732745011	
656.875	-0.1558219443	-0.2125918388	
657.5	0.2030140344	0.5171421828	
658.125	0.4580529545	0.08449163524	
658.75	0.3060694991	0.2891464241	
659.375	1.116794462	-0.5112397058	
660.0	0.06858598393	-0.7013775981	
660.625	0.415292325	-0.4393919198	
661.25	0.6705944366	-0.9987983765	
661.875	-0.2081760041	-0.7603006649	
662.5	0.6957589157	0.1636433661	
663.125	0.848272604	-0.9432203742	
663.75	-0.1486195104	-0.447599632	
664.375	0.343711355	-0.8558560773	
665.0	-1.073114984	-0.1104484086	
665.625	-0.3333640578	-0.07789562882	
666.25	-0.4715657571	0.8526792722	
666.875	0.606865358	0.33241549	
667.5	0.03003826662	0.1167460152	
668.125	0.8135183198	0.1039856518	
668.75	0.2538369824	-0.5510983087	
669.375	0.1223309496	-0.2883455372	
670.0	0.1712130021	-0.6407587328	
670.625	-0.3016318951	-0.3184623934	
671.25	0.3331982726	-0.3617384112	
671.875	0.2232628529	-0.5633933669	
672.5	0.178326558	-0.2946439996	
673.125	0.6819802651	-0.159735939	
673.75	0.3688075244	-1.00107397	
674.375	-0.3510501208	-0.2266926003	
675.0	0.2642919412	-0.6559529421	
675.625	-0.9254674676	-0.3749384524	
676.25	0.1766465381	0.2420553471	
676.875	-0.8749569609	-0.2398614326	
677.5	0.1187958579	0.4031072599	
678.125	-0.6680683667	-0.06583422035	
678.75	0.5823303895	0.922119692	
679.375	0.06905166171	-0.1860595155	
680.0	0.398419086	0.09997055751	
680.625	0.3974861798	-0.402832786	
681.25	-0.1645740833	-0.1983964545	
681.875	0.3755293587	0.4338753197	
682.5	0.7034696871	0.01405997555	
683.125	0.4542704789	0.03749082909	
683.75	0.4759126197	0.3662021197	
684.375	0.90180523	-0.2189086811	
685.0	0.2447279934	0.08013316331	
685.625	0.9707238531	0.2216829081	
686.25	0.6376386083	-0.7590449657	
686.875	0.2097192322	0.3862027793	
687.5	1.286839997	-1.451835893	
688.125	-0.9545811143	-0.1794726177	
688.75	-0.5867217035	-1.048957531	
689.375	-0.6446396285	1.484447426	
690.0	0.1893917747	0.02717205408	
690.625	0.8537594094	1.263853022	
691.25	0.6115043735	-0.01323082729	
691.875	0.756805595	0.9555037291	
692.5	1.663288544	0.4378160721	
693.125	1.262725029	-0.3233560637	
693.75	1.385637983	-0.4994519391	
694.375	0.8244775582	-0.8908465185	
695.0	1.203081729	-0.5922777617	
695.625	0.9657810466	-0.6466449656	
696.25	0.8379228221	0.6043703124	
696.875	1.721895887	0.7897548826	
697.5	0.5385599605	0.4179919573	
698.125	1.788405746	0.8784908422	
698.75	0.1926661457	-1.644316169	
699.375	-0.126183256	-0.8268721373	
700.0	-0.8353881933	1.480239582	
700.625	0.4639872423	-0.002413564915	
701.25	0.5282031593	1.09060233	
701.875	0.6995092596	-0.09224243921	
702.5	0.4674647022	0.8464336695	
703.125	1.367347527	0.04656841526	
703.75	0.3571180537	-0.1228630265	
704.375	1.122417473	-0.5489876128	
705.0	0.1266021198	-0.5330128282	
705.625	0.6515300166	0.5863831569	
706.25	1.154750199	-0.2102529128	
706.875	0.03846966503	0.546851211	
707.5	1.019125491	1.152917682	
708.125	0.8032052983	-0.4571958826	
708.75	1.007327837	-0.6519457637	
709.375	-1.241697758	-0.5108367098	
710.0	-0.08362093638	0.2604832956	
710.625	0.1479456513	0.6252226106	
711.25	0.3265714418	0.04760703171	
711.875	0.4708237975	0.2909940899	
712.5	0.6589704461	-0.178132536	
713.125	0.7850020862	-0.3081559377	
713.75	0.008555060563	-0.8382561651	
714.375	0.2309348699	-0.1782034307	
715.0	-0.309431179	-0.8685558203	
715.625	-0.1168222108	-0.04028615671	
716.25	1.000904582	-0.691380739	
716.875	0.07514061315	-1.248284512	
717.5	0.8181435725	1.015508158	
718.125	2.981417649	-0.3712806227	
718.75	0.4431752163	-1.8182841	
719.375	2.599704651	0.7020358984	
720.0	0.336377506	-4.213289545	
720.625	0.2153861531	-1.156896576	
721.25	0.2456204834	-2.969554822	
721.875	-2.048488133	-2.226573118	
722.5	-0.5977235269	-1.455820737	
723.125	-2.587153506	-0.1491235597	
723.75	-0.492876257	1.433500158	
724.375	0.09355090828	0.7346909081	
725.0	0.08594589828	0.993494943	
725.625	1.052362296	1.340295049	
726.25	0.1578936305	0.6933619557	
726.875	-0.8647090975	2.618751467	
727.5	1.494173988	4.484278654	
728.125	-0.675435776	1.11145715	
728.75	-3.042524356	10.677837	
729.375	3.74379975	7.940676948	
730.0	-7.029185498	3.606686174	
730.625	6.5300806	26.14491913	
731.25	6.827871131	2.340829955	
731.875	-10.99454537	5.633799252	
732.5	-10.00535371	6.527640821	
733.125	-2.987711581	4.501144705	
733.75	-3.802706646	2.482214572	
734.375	2.945800861	-0.4952824872	
735.0	-0.219480654	-0.8418795713	
735.625	-1.506526142	-0.3670810737	
736.25	1.116040397	1.723487833	
736.875	0.02806199609	0.4329129414	
737.5	2.960880232	1.419499891	
738.125	4.744657742	-2.472389823	
738.75	0.1228424983	-5.222553671	
739.375	7.746949636	4.377399041	
740.0	14.16442023	-14.07814684	
740.625	-8.856682742	-1.258159245	
741.25	-11.13016159	23.42654282	
741.875	17.78071785	10.24228232	
742.5	6.254063435	-12.71587923	
743.125	-3.790909974	-9.904367583	
743.75	-1.704360395	-0.09034508142	
744.375	-0.4055627131	-1.110265345	
745.0	0.7173003891	0.7461446588	
745.625	-0.07313357102	0.3317046156	
746.25	-0.2327671531	-0.3921973126	
746.875	-0.4202582546	0.5237557148	
747.5	-0.3945968437	0.8711692345	
748.125	0.8436105532	1.503465031	
748.75	0.7484386629	0.6969543524	
749.375	0.4606092657	0.4792939683	
750.0	0.2325070078	2.424420344	
