!Created with skrf (http://scikit-rf.org).
# GHz S RI R (50+0j) 
!freq	ReS11	ImS11	
500.0	-0.2948499037	-0.9300312822	
500.625	1.258931353	-2.76572027	
501.25	-2.112973454	-2.971541799	
501.875	-1.984488399	0.1076204003	
502.5	0.03355693344	-0.3378472755	
503.125	-0.3143780867	0.2134668146	
503.75	-0.0388847006	0.006764619626	
504.375	0.1557604688	-0.04682749243	
505.0	-0.05669775508	0.03581206797	
505.625	0.1030722322	-0.3877946521	
506.25	-0.3090341821	0.3105687577	
506.875	-0.1629079933	-0.8004065927	
507.5	-1.517790987	-1.527023908	
508.125	-0.2488919146	-0.2322609113	
508.75	3.35146792	-3.641155356	
509.375	-3.092353882	-2.463418193	
510.0	-0.3911363153	-1.25176986	
510.625	-1.191782659	-0.3206794788	
511.25	0.01213011681	-0.07311802679	
511.875	-0.5798691253	-0.124077584	
512.5	-0.009345215603	0.1677426321	
513.125	-0.1479779931	-0.09621384123	
513.75	-0.02626648804	-0.2022182702	
514.375	-0.6167581385	-0.02859312316	
515.0	1.227297319	0.22991895	
515.625	-1.906023862	-1.339640135	
516.25	1.073354921	-0.2281608016	
516.875	-1.141925454	-2.631012424	
517.5	-0.7448947068	0.2333202633	
518.125	0.03051786823	-0.4485606976	
518.75	-0.5824299279	0.005971264865	
519.375	-0.1431394633	-0.00493663938	
520.0	0.4980671186	0.1657974769	
520.625	0.2740427692	-0.3075469637	
521.25	0.2718791748	-0.5539897581	
521.875	-0.6108186576	0.06698509173	
522.5	0.0007090453763	-0.01923479933	
523.125	-0.1663155922	0.2311796442	
523.75	-0.1328638448	-0.2551245507	
524.375	-0.4610724872	0.4693865312	
525.0	-0.1174466888	-0.01673232494	
525.625	0.07180750544	0.336193944	
526.25	-0.1196862875	-0.2533257972	
526.875	-0.02488853524	0.3149886954	
527.5	-0.09807759706	0.1542077051	
528.125	-0.02566247307	1.11893543	
528.75	0.5030895154	0.359789868	
529.375	-0.01782035681	0.3662683629	
530.0	0.2515716256	0.06834496377	
530.625	0.1041050212	1.277729282	
531.25	0.9983684787	-0.5074361142	
531.875	0.5794816945	-0.1310575365	
532.5	-0.5163154051	-0.4508924035	
533.125	0.5473353527	0.04256622633	
533.75	-0.2124831347	-0.6864614857	
534.375	0.2371661449	-0.5325986117	
535.0	-1.19027532	-0.151558931	
535.625	-0.08177517055	0.2391529946	
536.25	-0.1007814141	0.2360051724	
536.875	0.3450631567	-0.02681910137	
537.5	0.0540384302	-0.007322431621	
538.125	0.4396685011	-0.2514046995	
538.75	0.09922528314	-0.2357061295	
539.375	-0.02054387804	-0.479972235	
540.0	-0.638441956	-0.2961229477	
540.625	-0.170486869	0.01107013329	
541.25	-0.2111042338	-0.03993460847	
541.875	-0.1752635338	-0.05180190045	
542.5	-0.05908879495	0.02106694916	
543.125	-0.1921623581	-0.2749465693	
543.75	-0.22856139	0.2155621577	
544.375	-0.1605429439	-0.08633130721	
545.0	0.1268977987	0.2516124301	
545.625	-0.08446626135	0.04268591562	
546.25	0.5121656447	0.1803410795	
546.875	-0.001047662152	-0.1770073007	
547.5	0.3535781213	-0.1634387521	
548.125	-0.256429524	-0.5360312074	
548.75	-0.2180597281	-0.05864476927	
549.375	-0.202162721	-0.3084706381	
550.0	-0.2407703792	0.1536946129	
550.625	-0.06258731575	-0.1208252668	
551.25	-0.2272900834	0.2150726061	
551.875	-0.07506301742	0.0537613246	
552.5	-0.1804473622	0.2334159913	
553.125	0.02222945684	0.1509585731	
553.75	0.08767423562	0.1064641974	
554.375	0.2473307716	-0.01075084844	
555.0	0.1964402525	-0.179152943	
555.625	0.192497243	-0.2410991613	
556.25	0.1394279104	-0.3483993421	
556.875	-0.09804424919	-0.3622328357	
557.5	-0.2293552488	-0.2317231522	
558.125	-0.2730659145	-0.09160997034	
558.75	-0.2552799675	0.02330277031	
559.375	-0.2145980281	0.03959155642	
560.0	-0.2551339896	0.1723694713	
560.625	-0.05934383398	0.2906608332	
561.25	-0.01858676727	0.153921154	
561.875	0.1391560793	0.165630421	
562.5	-0.04923637998	0.03637924463	
563.125	0.261657332	0.2345446612	
563.75	0.2000857992	-0.1105591371	
564.375	0.3531475975	-0.08052344026	
565.0	0.1571672857	-0.4842815524	
565.625	-0.1515952143	-0.2343470569	
566.25	-0.13974532	-0.2773055307	
566.875	-0.4686869687	-0.2024733091	
567.5	-0.2192094274	-0.07457262097	
568.125	-0.2991525885	-0.5455250703	
568.75	-0.6041370392	0.00969509174	
569.375	-0.4105540905	0.03948667864	
570.0	-0.4301481273	0.6607171117	
570.625	0.1688219451	0.4000047295	
571.25	-0.2822214187	0.07252352145	
571.875	0.4990433331	0.2672141662	
572.5	-0.05985008002	0.03146380898	
573.125	0.514980614	-0.3038397764	
573.75	-0.1671364315	-0.4087894838	
574.375	0.2037906233	0.1142013591	
575.0	-0.02764209641	-0.4157074297	
575.625	0.1217979463	0.148336188	
576.25	0.3073511917	-0.448630059	
576.875	-0.3009673794	-0.3110544872	
577.5	0.1364339249	-0.1078563696	
578.125	-0.006535236798	-0.5872628208	
578.75	-0.3990243235	-0.1782454613	
579.375	-0.005300329749	-0.03688342023	
580.0	-0.2496939468	-0.2702994	
580.625	0.01196162526	0.1428033948	
581.25	-0.4495665023	-0.02204030052	
581.875	0.190753231	0.5715576244	
582.5	0.2513809868	-0.0300533645	
583.125	-0.2426309841	0.348311512	
583.75	0.5749669333	-0.1003224277	
584.375	-0.3457942431	0.2894533072	
585.0	0.6217472838	0.04971265366	
585.625	-0.06765362461	-0.05184853966	
586.25	0.6927099986	0.008193014379	
586.875	-0.156175914	-0.4720860008	
587.5	0.1373959207	-0.09284217984	
588.125	0.05145883315	-0.5721955791	
588.75	-0.228532944	-0.3716197722	
589.375	0.250432316	-0.06741490197	
590.0	-0.1507231757	-0.5997349511	
590.625	-0.3810022839	0.05403089345	
591.25	-0.2942100115	0.1031815692	
591.875	-0.1166245149	0.4201753278	
592.5	0.01821201377	-0.06760553112	
593.125	-0.04928237223	0.2369595329	
593.75	0.1551529915	0.1188790251	
594.375	0.08637121937	0.3423402066	
595.0	0.6991677855	0.5050193613	
595.625	0.3182276184	-0.3348288247	
596.25	0.1957113784	0.4774831174	
596.875	0.6871475382	-0.1417999709	
597.5	-0.03567924132	0.1454454178	
598.125	0.6653824496	0.470191371	
598.75	0.2074911266	-0.09517819961	
599.375	0.5415252838	0.2472900383	
600.0	0.3797749247	-0.617425807	
600.625	0.08930062755	-0.3162717274	
601.25	0.3010978679	-0.3157896813	
601.875	-0.2185138285	-0.418651361	
602.5	-0.2682900738	-0.01018882041	
603.125	-0.1814263528	0.1065031145	
603.75	-0.3129435346	0.1204368882	
604.375	-0.162690215	0.3005655434	
605.0	-0.1762917609	0.03730498522	
605.625	-0.1838633903	0.2863917073	
606.25	-0.1098005874	-0.01147846995	
606.875	-0.7316628511	0.2494328274	
607.5	0.04774202631	0.4611035246	
608.125	-0.4007608295	0.3344244339	
608.75	0.8569437228	0.5036604958	
609.375	0.09635210442	-0.03172473404	
610.0	0.6872265459	-0.2400058762	
610.625	-0.08668314871	-0.4798841469	
611.25	0.3669128301	-0.2099243976	
611.875	-0.5310038575	-0.2188554736	
612.5	-0.124120875	-0.1749975608	
613.125	-0.6800981966	0.08670453972	
613.75	0.143435136	0.2119626136	
614.375	-0.06861931761	0.4346346441	
615.0	0.2613841767	-0.1860054293	
615.625	-0.2893959611	0.3804605309	
616.25	0.2524351232	0.3532033243	
616.875	-0.3846149709	0.1497892348	
617.5	-0.1500671702	0.8130567668	
618.125	0.2067572613	0.2423122828	
618.75	-0.2005012903	0.5452934228	
619.375	0.4385603629	0.2884364452	
620.0	0.2622292364	0.1743699075	
620.625	0.2543027892	-0.4924416999	
621.25	-0.1227920261	-0.2974137377	
621.875	-0.548424221	-0.2392493879	
622.5	-0.3541553321	0.1748020655	
623.125	-0.2241948424	0.4042819207	
623.75	0.4449583883	-0.08711939249	
624.375	0.02976055684	0.216135247	
625.0	-0.1087872735	-0.4901267748	
625.625	0.2291753667	0.1319576063	
626.25	-0.1729135374	-0.6196044672	
626.875	-0.3159821621	0.1642494497	
627.5	-0.194734011	-0.451433782	
628.125	-0.4879359772	-0.005915305529	
628.75	0.09875955416	-0.1575786666	
629.375	-0.3597078741	-0.5750937844	
630.0	-0.3352460944	0.08225867096	
630.625	-0.4705426187	-0.07204078406	
631.25	-0.4213082534	0.5438486671	
631.875	0.06781435235	0.548167514	
632.5	0.3624112373	0.3226075504	
633.125	0.3762931742	0.2160640542	
633.75	0.4745710251	-0.3459289253	
634.375	0.07777044142	-0.1513189716	
635.0	0.01181005887	-0.4785681306	
635.625	-0.298397852	0.0867900693	
636.25	-0.4600634601	-0.04625507587	
636.875	-0.08361801775	0.5390186338	
637.5	0.1188102336	-0.06983333217	
638.125	-0.6045273722	0.2998739376	
638.75	0.3133578827	0.5293236542	
639.375	-0.2253517929	0.2120465524	
640.0	0.3147112509	0.8541479162	
640.625	0.6784849565	0.01355537184	
641.25	0.2993113711	0.174182036	
641.875	0.4719077488	-0.8450438617	
642.5	-0.1579998129	-0.1033136918	
643.125	-0.08662620957	-0.5628767414	
643.75	-0.7014815284	0.03036225008	
644.375	0.09325761945	-0.0002096391846	
645.0	-0.6377533205	0.2592887625	
645.625	0.3099118781	0.6461541556	
646.25	0.3378136591	-0.1580210184	
646.875	0.1154687712	0.4092193478	
647.5	0.167147868	-0.4964182742	
648.125	0.3432938903	0.5516368696	
648.75	0.7954813017	-0.5741805657	
649.375	-0.05215350073	-0.2953500289	
650.0	1.083139988	-0.4512204779	
650.625	-0.0321700263	-1.358913447	
651.25	-0.08469081828	0.03212145878	
651.875	1.200283498	-0.1566981689	
652.5	0.5138581523	-0.8476621784	
653.125	0.1948674672	0.1436881682	
653.75	0.7216595918	-0.8666328768	
654.375	-0.5826905556	-0.3746634772	
655.0	-0.2008492536	-0.3841183375	
655.625	-0.8587719371	0.6882654545	
656.25	0.5473398264	0.128721479	
656.875	-0.2389352799	0.1910683939	
657.5	0.3855451398	0.3240051345	
658.125	0.1751670391	0.03636188026	
658.75	0.7016862434	0.5655532978	
659.375	0.6873089175	-0.7265341395	
660.0	0.2559835322	-0.456563678	
660.625	0.6591873934	-0.6496944207	
661.25	0.0584407658	-1.222514522	
661.875	0.1258258117	-0.01031274299	
662.5	1.125313821	-0.4274891536	
663.125	0.3195677578	-0.9339270852	
663.75	0.2087552282	-0.1342060873	
664.375	-0.04463494222	-1.232124735	
665.0	-0.5733062993	0.0789297888	
665.625	-0.7704236731	-0.1926115454	
666.25	-0.1108215238	0.9952096366	
666.875	0.3036323642	0.04597106789	
667.5	0.3032266324	0.524120493	
668.125	0.7061809269	-0.2418012039	
668.75	0.1457451612	-0.3467567546	
669.375	0.3648627995	-0.3180642509	
670.0	-0.08542934307	-0.7634439393	
670.625	-0.003994496226	-0.1510992575	
671.25	0.2329723295	-0.5098246738	
671.875	0.07396940677	-0.496721564	
672.5	0.4143805701	-0.05707832962	
673.125	0.682080848	-0.6236608669	
673.75	-0.06680934755	-0.7042453345	
674.375	0.1761400869	-0.1276016319	
675.0	-0.06629532355	-0.9407058927	
675.625	-0.8545332511	0.162899966	
676.25	0.03019263741	-0.5015105535	
676.875	-0.7513638605	0.4154255597	
677.5	0.1818876113	-0.08065695096	
678.125	-0.8568053577	0.5613906591	
678.75	0.6632689061	0.1614376589	
679.375	0.1172180719	0.3306827582	
680.0	0.6147577564	-0.1030659069	
680.625	0.01859864291	-0.5992471668	
681.25	-0.1063558492	0.3258392884	
681.875	0.6612740963	0.1159706736	
682.5	0.4319954286	-0.0132364416	
683.125	0.3285389423	0.1160737727	
683.75	0.8623179592	0.3268015671	
684.375	0.4366277581	-0.2548662547	
685.0	0.5267673675	0.3344907461	
685.625	1.059437332	-0.1491041894	
686.25	-0.03819384841	-0.4860537171	
686.875	1.349057354	0.3298991316	
687.5	0.03392067905	-1.731585448	
688.125	0.2169329303	-0.1049515878	
688.75	-1.422752811	-0.9471149242	
689.375	0.05610294941	1.232758646	
690.0	-0.5050239765	0.6200732564	
690.625	1.299991725	0.4369046233	
691.25	0.2492721085	0.3638834863	
691.875	1.193794073	1.079747432	
692.5	1.472571147	-0.03618800215	
693.125	1.255249976	0.02880352191	
693.75	1.307570954	-0.6306638615	
694.375	0.8552983426	-0.8306464914	
695.0	1.115569639	-0.9371935752	
695.625	0.7343818026	-0.3498504387	
696.25	1.397434202	0.7421721997	
696.875	1.289465695	0.1753184086	
697.5	0.4333453152	1.100966993	
698.125	2.233291005	0.0941672625	
698.75	0.05197668907	-0.6573008383	
699.375	-0.9052551454	-1.613229286	
700.0	-0.1706673171	1.430420767	
700.625	-0.1844887362	0.1891214208	
701.25	1.218884046	0.5105350838	
701.875	0.1693013075	0.2039877391	
702.5	0.927746849	0.9618888563	
703.125	0.8794125935	-0.4045677627	
703.75	0.8484665811	0.2362265505	
704.375	0.69705131	-0.8549729403	
705.0	0.09652656791	-0.05701028875	
705.625	1.321797684	0.04685031398	
706.25	0.3571006314	-0.1787578941	
706.875	0.2940176151	1.005471135	
707.5	1.401998867	0.5697603066	
708.125	0.4799487943	0.1792292586	
708.75	0.9541951853	-1.243971647	
709.375	-0.9737430981	-0.107187005	
710.0	-0.5489692363	0.2158228666	
710.625	0.5028149592	0.5762896708	
711.25	0.02180699319	0.1066933482	
711.875	0.6082727354	0.3104285517	
712.5	0.5570743858	-0.02699513828	
713.125	0.7881650552	-0.6311818179	
713.75	-0.08982039895	-0.4068338287	
714.375	0.405563768	-0.6823567434	
715.0	-0.4730089231	-0.4593841937	
715.625	0.3922885745	-0.1314932606	
716.25	0.4005380079	-1.349688576	
716.875	-0.04887377999	-0.09009430644	
717.5	2.004552923	0.5213241279	
718.125	2.225298008	-1.65584334	
718.75	-0.02943590633	0.7149143395	
719.375	3.717862833	-2.164766031	
720.0	-0.7385177058	-1.892947734	
720.625	0.8742930866	-1.686435201	
721.25	-0.6503323974	-3.731657408	
721.875	-0.9876153016	-0.980009801	
722.5	-1.535434936	-2.560952835	
723.125	-2.222696536	0.2563063136	
723.75	-0.2802176715	1.00201135	
724.375	-0.2247722996	0.933002465	
725.0	0.7181096553	1.178197306	
725.625	0.7381472018	0.5643130141	
726.25	-0.4537022063	1.271210742	
726.875	-0.2177024364	3.342901875	
727.5	1.808045623	2.029420042	
728.125	-2.802349095	5.091222968	
728.75	4.928218612	8.989445889	
729.375	1.868405996	1.423615649	
730.0	-9.074456699	12.69657423	
730.625	18.04117489	7.034676641	
731.25	-4.525209851	2.119539622	
731.875	-12.63906838	10.19071236	
732.5	-6.987887745	9.467859418	
733.125	-2.564125693	-0.4702291465	
733.75	-2.489097604	5.429767612	
734.375	1.803417804	-0.1246106765	
735.0	0.4185007662	-0.8026753316	
735.625	-2.137429878	0.9618155178	
736.25	0.4568854281	0.1095947692	
736.875	0.4509955626	2.049380583	
737.5	3.341375177	0.3763619538	
738.125	3.439938936	-3.415506893	
738.75	0.1940695429	0.2124723009	
739.375	14.09038192	-4.886388731	
740.0	-1.722600369	-11.76558933	
740.625	-0.9734040392	15.58727814	
741.25	13.32073846	11.86785058	
741.875	5.893780116	-9.829348111	
742.5	-12.9973002	-15.19690187	
743.125	-5.714148505	-3.215868521	
743.75	1.542093984	-0.06373195087	
744.375	-2.051075268	-0.7062609955	
745.0	0.5802383577	0.006776188962	
745.625	0.2729881822	0.1918310656	
746.25	-0.1003734063	-0.2492745702	
746.875	-0.09351033223	0.05395602566	
747.5	-0.2653685256	1.363420057	
748.125	0.7071214612	1.046445732	
748.75	0.4638408243	1.114230239	
749.375	0.305751725	1.499043771	
750.0	0.4474647562	1.868539824	
