!Created with skrf (http://scikit-rf.org).
# GHz S RI R (50+0j) 
!freq	ReS11	ImS11	
500.0	0.9102083908	-4.631654975	
500.625	-0.8520690386	-2.999790536	
501.25	-0.3377760509	-2.341806637	
501.875	-1.655224728	-0.6982174856	
502.5	-0.1924735445	-0.2418119869	
503.125	-0.2467496474	-0.05277143873	
503.75	0.2843949611	0.3649183252	
504.375	-0.05626579942	0.0163406292	
505.0	0.1799687858	-0.1651062106	
505.625	-0.1440251972	0.04996833461	
506.25	-0.06903951599	-0.6050636874	
506.875	0.5261370647	0.645395532	
507.5	0.05323266474	-2.214891291	
508.125	-1.231711715	-2.28507013	
508.75	0.6799612994	-0.7760003281	
509.375	0.3323086052	-5.718709709	
510.0	-1.737073349	0.5662818913	
510.625	-0.2195405018	-0.356343145	
511.25	-0.5617634965	-0.1993443851	
511.875	-0.2383907125	-0.06787024619	
512.5	-0.1134847044	0.1614215148	
513.125	-0.06863761628	-0.2634350542	
513.75	-0.2166821423	-0.0008736532718	
514.375	-0.04930996153	-0.2908367571	
515.0	-1.039277413	0.1673595269	
515.625	2.687117205	-2.39133724	
516.25	-3.769664232	-1.826849636	
516.875	0.4170850528	0.2037850997	
517.5	-0.002032835766	-1.259297392	
518.125	0.006355107286	0.3871038844	
518.75	-0.2958891229	-1.060574639	
519.375	-0.0512427454	0.2303790113	
520.0	0.1215618157	0.2140299727	
520.625	0.6644915843	-0.21417501	
521.25	-0.3458434272	-0.5643370697	
521.875	-0.2257435895	-0.1966727116	
522.5	-0.124729752	0.237963075	
523.125	-0.2147200457	-0.1772637432	
523.75	-0.2956476013	0.2358941683	
524.375	-0.2227489256	-0.1220051637	
525.0	0.0131067452	0.6729342188	
525.625	-0.03781004736	-0.1028648623	
526.25	0.1561811793	0.09012579824	
526.875	-0.3363658913	0.01675316037	
527.5	0.1355079484	0.791769229	
528.125	0.03739836189	0.2991594445	
528.75	-0.1152392528	1.000997255	
529.375	0.2628608999	-0.04811737117	
530.0	-0.09955892605	0.8803445146	
530.625	0.5944278221	0.423661987	
531.25	1.05115229	0.6471441959	
531.875	0.1270574781	-0.9047790475	
532.5	0.3501960694	-0.2987149285	
533.125	-0.738045764	-0.1173178702	
533.75	0.9684135758	-0.7015906762	
534.375	-0.9264656971	-0.4477204999	
535.0	-0.2196890258	-0.3501559901	
535.625	-0.7105631813	0.5484749992	
536.25	0.09279645555	0.05107311056	
536.875	0.2886055285	0.199143746	
537.5	0.1574157328	-0.2331073824	
538.125	0.1093847162	0.007159255876	
538.75	0.5027857835	-0.3681057982	
539.375	-0.2789340901	-0.2712716461	
540.0	-0.2734908129	-0.3556594987	
540.625	-0.5077911502	-0.05258807328	
541.25	-0.09570561814	0.08516157258	
541.875	-0.1368310318	-0.1180881358	
542.5	-0.1713912539	-0.05822196947	
543.125	-0.101211369	-0.04259842119	
543.75	-0.2853797652	-0.1523773127	
544.375	0.04271562021	0.2914089424	
545.0	-0.2331519801	0.02480496059	
545.625	0.4049957766	0.1659744133	
546.25	-0.07033617236	0.01304621688	
546.875	0.5958758039	-0.02212760632	
547.5	-0.1322918138	-0.2172193202	
548.125	0.1592981624	-0.4015827369	
548.75	-0.4913727038	-0.3649794591	
549.375	-0.2270957816	0.04230115122	
550.0	-0.1463036064	-0.1592261806	
550.625	-0.1635836694	0.1631181953	
551.25	-0.1224877472	-0.0427203324	
551.875	-0.2292057444	0.2594966697	
552.5	-0.02034629635	0.1153456034	
553.125	-0.0613877004	0.2109007052	
553.75	0.1105682907	0.06737600669	
554.375	0.2202659928	0.01930533383	
555.0	0.2383853947	-0.1846852947	
555.625	0.1734802485	-0.2617130816	
556.25	0.1400086916	-0.3269352613	
556.875	-0.08427795592	-0.3799877944	
557.5	-0.2483575499	-0.2408649043	
558.125	-0.263127321	-0.07225804002	
558.75	-0.2495022872	-0.02713366205	
559.375	-0.2638661989	0.08496033145	
560.0	-0.1812348654	0.130037145	
560.625	-0.1785947507	0.2923825969	
561.25	0.1149213707	0.230167244	
561.875	-0.02184054329	0.05654602535	
562.5	0.1069182409	0.2069870685	
563.125	0.08206024122	0.05059914136	
563.75	0.3814474958	0.1136446343	
564.375	0.214034053	-0.3690128722	
565.0	0.1957102972	-0.1676273565	
565.625	-0.1377309118	-0.5083012654	
566.25	-0.2194760743	-0.08573407095	
566.875	-0.264339604	-0.3051996372	
567.5	-0.475876082	-0.2448500445	
568.125	-0.2839688896	-0.1601822873	
568.75	-0.4573053884	-0.4191342023	
569.375	-0.6828896695	0.4549690034	
570.0	-0.01971653237	0.2923969799	
570.625	-0.5016411759	0.3848294475	
571.25	0.3782300033	0.3446987883	
571.875	-0.2048798773	0.2803801778	
572.5	0.5936883233	-0.2216221503	
573.125	-0.1178373718	0.005146432011	
573.75	0.478070808	-0.2593370982	
574.375	-0.2245440085	-0.3675746131	
575.0	0.1532831453	0.199158257	
575.625	0.08771302151	-0.4669461517	
576.25	-0.1066155414	0.02387462544	
576.875	0.2588752725	-0.519543851	
577.5	-0.2499968421	-0.4811696238	
578.125	-0.05073655292	-0.08504683556	
578.75	-0.02500400941	-0.4446735765	
579.375	-0.424966809	-0.2322403358	
580.0	0.02837728507	0.1637495253	
580.625	-0.2883016799	-0.3124748024	
581.25	-0.02202913939	0.3976247562	
581.875	-0.2128656792	0.09140585564	
582.5	0.1906198776	0.6748714009	
583.125	0.2916076848	-0.1771314412	
583.75	-0.144228283	0.3645324943	
584.375	0.433418609	-0.204912877	
585.0	-0.1651470081	0.385264796	
585.625	0.7162614916	0.03631715087	
586.25	0.1671258988	-0.3800681346	
586.875	0.2361494001	-0.02035650674	
587.5	-0.07997274136	-0.5974350546	
588.125	-0.09714183891	0.004097599013	
588.75	0.3037842146	-0.4868347565	
589.375	-0.1222236599	-0.4014440354	
590.0	0.2008033176	-0.2858890806	
590.625	-0.7155681805	-0.1693325407	
591.25	-0.09736881166	0.3352058873	
591.875	-0.05034629019	0.1262908727	
592.5	-0.2108267906	0.1704933321	
593.125	0.2263556664	0.02651934579	
593.75	-0.1803264395	0.4958035479	
594.375	0.6310747135	0.03058821833	
595.0	0.06895252332	0.1885482671	
595.625	0.6164174638	0.4874505833	
596.25	0.2246034661	-0.290349273	
596.875	0.2785114408	0.5141105768	
597.5	0.7190060494	0.09081616778	
598.125	0.1077440569	-0.01429814341	
598.75	0.3786107426	0.453071438	
599.375	0.5820356752	-0.2561740872	
600.0	0.234631218	-0.1805648455	
600.625	0.5218145245	-0.4266156268	
601.25	-0.04656764631	-0.4674507826	
601.875	0.06704125424	-0.3238136035	
602.5	-0.4457301815	-0.0001048961156	
603.125	-0.09184772968	0.06839009421	
603.75	-0.2931950345	0.1563588519	
604.375	-0.2397274463	0.1178566335	
605.0	-0.1506031023	0.3644898261	
605.625	-0.08155461949	-0.2025235145	
606.25	-0.4899949209	0.4346545027	
606.875	-0.006542565073	0.1206957249	
607.5	-0.8902322661	0.2784136833	
608.125	0.4236365165	0.637107365	
608.75	-0.01575521638	0.3772831583	
609.375	0.9428575897	-0.04582516786	
610.0	-0.08234690123	-0.3405231399	
610.625	0.5848770319	-0.3125383249	
611.25	-0.2762780721	-0.4018271524	
611.875	0.1107357393	-0.2867508849	
612.5	-0.690557461	-0.02949565506	
613.125	-0.1482032672	-0.08230757981	
613.75	-0.4446525583	0.4553702158	
614.375	0.3346910952	0.04169589728	
615.0	-0.1119907515	0.4290338057	
615.625	0.2587406533	-0.0363984876	
616.25	-0.4288661713	0.2938933656	
616.875	-0.03751980734	0.7567901474	
617.5	-0.1217281424	0.09571140208	
618.125	-0.1814726176	0.7631259983	
618.75	0.2658528816	0.2660828713	
619.375	-0.03530655673	0.4424490168	
620.0	0.593535292	-0.02755525906	
620.625	0.1914828501	-0.1968842827	
621.25	-0.2723527169	-0.5150262632	
621.875	-0.2943581392	-0.1137392337	
622.5	-0.7343483201	0.05059061119	
623.125	0.252392218	0.3897160987	
623.75	0.06009650567	0.3871587097	
624.375	0.05035430154	-0.4473786759	
625.0	0.2024185647	0.2526963415	
625.625	-0.10152301	-0.5630795946	
626.25	0.2019718723	-0.02696268522	
626.875	-0.4893894376	-0.5197107002	
627.5	-0.3893252229	0.2476524593	
628.125	0.05449710099	-0.2351634196	
628.75	-0.2655739653	-0.5161023298	
629.375	-0.2594264062	-0.1038075932	
630.0	-0.3014359256	-0.3347392491	
630.625	-0.6318298518	0.2650449112	
631.25	-0.1311934454	0.2565405351	
631.875	-0.2002373052	0.7220748485	
632.5	0.4848559883	0.3007488106	
633.125	0.3212701863	0.1298976819	
633.75	0.4551844962	-0.09374129485	
634.375	0.1743542329	-0.4782892304	
635.0	-0.1865394277	-0.0627209159	
635.625	-0.1675225981	-0.4895250697	
636.25	-0.5145859773	0.4769104676	
636.875	0.1986258503	-0.00313242768	
637.5	-0.542130311	0.507212326	
638.125	0.2630300275	-0.02933194944	
638.75	-0.6119372582	0.4497593291	
639.375	0.5016662366	0.7499992672	
640.0	-0.09953292596	0.1060290433	
640.625	0.669001055	0.746256767	
641.25	0.7895340772	-0.3781531233	
641.875	0.0241422813	-0.2734238996	
642.5	0.3676670126	-0.4930780043	
643.125	-0.7376303329	-0.1432267633	
643.75	0.0904082135	-0.2430018963	
644.375	-0.752371907	0.07420456268	
645.0	0.04055433031	0.3165948175	
645.625	-0.2915296262	0.4999700345	
646.25	0.7299873754	0.1943223372	
646.875	0.01388372599	-0.2449635275	
647.5	0.04757414736	0.4263321023	
648.125	0.6962318789	-0.2754131506	
648.75	-0.08346844373	0.1619917151	
649.375	1.216329188	-0.6992057261	
650.0	-0.3071533586	-0.974836808	
650.625	0.4797766627	0.07906039033	
651.25	0.9673738487	-1.17555424	
651.875	-0.316419092	-0.4604177073	
652.5	0.8443771341	0.3694387057	
653.125	0.8778541233	-0.7947878822	
653.75	-0.09717615361	-0.393266784	
654.375	0.3957162741	-0.7371958723	
655.0	-1.079796376	0.04245137538	
655.625	0.03939335272	0.2865035846	
656.25	-0.3679639096	0.5084754698	
656.875	0.6324084629	0.05650230438	
657.5	-0.4035062001	0.3418898947	
658.125	0.6656185935	0.4395427738	
658.75	0.6064101099	-0.09806964777	
659.375	0.3865635535	-0.1507592447	
660.0	1.045580685	-0.6359249676	
660.625	-0.2876550653	-1.043203168	
661.25	0.4591330809	-0.1606974661	
661.875	0.7938858752	-0.8952119591	
662.5	-0.04561723753	-0.6072046272	
663.125	1.001916147	-0.03478519561	
663.75	0.06473154986	-1.157419073	
664.375	-0.1484608409	-0.2188964349	
665.0	-0.4253924915	-0.8042084216	
665.625	-0.9672455659	0.4503213914	
666.25	0.08088670215	0.3587640865	
666.875	0.08154529683	0.6758506092	
667.5	0.6458900519	-0.01634802429	
668.125	0.200785552	0.2140359646	
668.75	0.6634574708	-0.6489345714	
669.375	-0.06165799587	-0.363235757	
670.0	0.2218603711	-0.355978332	
670.625	0.05512940369	-0.6560727463	
671.25	-0.181976491	-0.4685510947	
671.875	0.2796215483	-0.001182835131	
672.5	0.758667088	-0.5543916857	
673.125	0.1064795505	-0.5540919866	
673.75	0.5148758251	-0.1348266226	
674.375	-0.1414976003	-1.078772594	
675.0	-0.09671834854	-0.01157051484	
675.625	-0.3946535831	-0.7812494606	
676.25	-0.8004437499	0.3160208126	
676.875	0.2911992679	-0.05355478631	
677.5	-0.8746825006	-0.04880865296	
678.125	0.1218642982	0.5116072933	
678.75	-0.1348080826	0.2805503355	
679.375	0.7699826233	0.4211884169	
680.0	-0.06713258935	-0.5111833726	
680.625	0.4404552917	0.07946176744	
681.25	0.2692629202	-0.3555668471	
681.875	-0.0884986873	0.1233531885	
682.5	0.7560656454	0.5397598807	
683.125	0.6557988697	-0.1702932116	
683.75	0.4227245015	0.02546905035	
684.375	0.3906047401	0.3736533924	
685.0	1.331826229	0.02882385392	
685.625	-0.1965895862	-0.3521862493	
686.25	1.39352762	0.3723508096	
686.875	0.1417489326	-1.010822906	
687.5	0.758334758	0.09553564581	
688.125	-0.3695051844	-1.981681281	
688.75	-0.4501167978	0.6164951919	
689.375	-1.321247148	0.2018265081	
690.0	0.89983348	1.034126871	
690.625	0.2188151855	0.1464728986	
691.25	0.8839283845	1.030833149	
691.875	1.074015284	0.2420448281	
692.5	1.208341953	0.6493943181	
693.125	1.671695755	-0.1973012079	
693.75	0.9764727376	-0.6549185963	
694.375	1.133918132	-0.8998724304	
695.0	0.8104896421	-0.7395297308	
695.625	1.401716666	-0.09786732519	
696.25	1.082867248	-0.2363402618	
696.875	0.3409509664	1.244886474	
697.5	2.019590281	0.925436494	
698.125	0.4690626273	0.03644988673	
698.75	1.700976876	-1.186191456	
699.375	-1.547364554	-0.214115803	
700.0	-0.8189597813	-0.05369573085	
700.625	0.9878694854	1.047270842	
701.25	0.05870370568	0.01949638626	
701.875	0.8583246922	1.149698568	
702.5	0.6810699184	-0.1111528723	
703.125	0.8571987194	0.7148737912	
703.75	1.082443183	-0.6637175245	
704.375	0.135350121	-0.006310186788	
705.0	1.127052276	-0.5753694256	
705.625	0.1197059401	-0.2908769768	
706.25	0.5614989833	1.072676468	
706.875	1.210037031	0.03696985056	
707.5	-0.01719978132	0.8796705576	
708.125	1.713404609	0.2061185282	
708.75	-0.04009630661	-0.8996844974	
709.375	-0.4174860751	-0.776006283	
710.0	-0.497484264	0.8519036644	
710.625	0.1277803955	0.1141310438	
711.25	0.3513824245	0.3596078102	
711.875	0.46506542	0.170484207	
712.5	0.7112905423	-0.02045831417	
713.125	0.5859149772	-0.481159939	
713.75	0.4022604657	-0.5803405726	
714.375	-0.2681416898	-0.5837612965	
715.0	0.3714481428	-0.1669333912	
715.625	-0.261822963	-1.134760681	
716.25	-0.1258080527	0.04892180949	
716.875	1.587113371	-0.1157433877	
717.5	1.29339123	-1.666233783	
718.125	0.4734059002	1.619068235	
718.75	3.303192825	-1.479274084	
719.375	-0.1762141463	-1.43553339	
720.0	3.565277404	-1.467836988	
720.625	-1.591520443	-3.603407119	
721.25	0.0738216598	-0.9797135714	
721.875	-0.1859129455	-2.78770882	
722.5	-2.351354676	-1.919905599	
723.125	-1.264025797	0.2880783895	
723.75	-1.459660806	1.034414905	
724.375	0.6159722526	1.066469753	
725.0	0.1808584009	0.6542655317	
725.625	0.2889596322	1.304731897	
726.25	0.8672551444	1.754127767	
726.875	0.06673607808	0.9761828007	
727.5	-1.935291554	4.002452997	
728.125	1.731629278	6.587027934	
728.75	2.266109721	0.2057852759	
729.375	-9.135322671	15.26161622	
730.0	14.69125143	2.768364042	
730.625	-5.45495915	3.610562137	
731.25	-7.127442602	23.791986	
731.875	4.539730139	0.6519296648	
732.5	-14.49743911	-1.070413339	
733.125	-6.790999094	5.014855232	
733.75	0.002593850487	3.670384409	
734.375	0.5828916167	1.037116539	
735.0	-0.2206124445	-2.726127475	
735.625	-0.1424332532	0.6370945408	
736.25	-0.7085026309	1.370321844	
736.875	2.058638027	1.342104536	
737.5	0.6066044922	0.264931468	
738.125	5.957735882	-1.042464232	
738.75	3.501309839	-5.386311554	
739.375	0.4497117409	-4.733090479	
740.0	9.307775522	7.456332097	
740.625	33.77523953	-12.32550045	
741.25	0.2293369111	-19.05384009	
741.875	-36.07933295	-11.39779928	
742.5	-10.4346921	2.723565045	
743.125	7.666429109	-2.171603536	
743.75	-2.098447681	-4.413181635	
744.375	0.266874479	0.7434962152	
745.0	-0.4088280728	0.6345144584	
745.625	-0.09855382965	-0.3551413834	
746.25	0.1741529982	-0.1601804104	
746.875	-0.7720981904	0.05386159325	
747.5	0.1287717001	0.9745001787	
748.125	0.3272923932	0.7666998738	
748.75	0.5738912737	2.055337499	
749.375	0.7851007954	0.5769456629	
750.0	-0.1804034342	0.2669329682	
