!Created with skrf (http://scikit-rf.org).
# GHz S RI R (50+0j) 
!freq	ReS11	ImS11	
500.0	0.3387562163	-3.666959869	
500.625	-0.680998548	-2.084377825	
501.25	0.6907102416	-1.787602311	
501.875	-2.124816366	-1.60996124	
502.5	-0.2121471966	-0.07005390456	
503.125	-0.3112246233	-0.0320972269	
503.75	0.240968267	0.09797364889	
504.375	0.09499949574	0.06271157099	
505.0	-0.03988533793	-0.1742769068	
505.625	0.2140295533	0.02530979785	
506.25	-0.6180023469	-0.3855095336	
506.875	0.4897831191	0.3107661001	
507.5	0.3897482416	-1.844408382	
508.125	-1.08458542	-2.309464516	
508.75	1.91751844	-0.5900698056	
509.375	-2.100990225	-6.682950885	
510.0	-0.7705207508	0.3519838409	
510.625	-0.1910184116	-1.062363035	
511.25	-0.4808408515	0.2374555029	
511.875	-0.3081390781	-0.1660707617	
512.5	-0.09014219682	0.1308050189	
513.125	-0.1495915381	-0.3342699866	
513.75	-0.1562125115	0.07600061991	
514.375	-0.249497075	-0.3352085272	
515.0	-0.5129874452	1.001017342	
515.625	0.7840191178	-3.064827292	
516.25	-2.570558423	0.188636929	
516.875	1.011756071	-1.302398463	
517.5	-0.8350722683	-1.067959919	
518.125	0.2678647776	0.117156269	
518.75	-0.5603290624	-0.8463642028	
519.375	-0.0002234525449	0.1380720587	
520.0	0.2189203104	0.3609198321	
520.625	0.5369434037	-0.4128799388	
521.25	-0.1908368766	-0.3482679949	
521.875	-0.3965105272	-0.3504736704	
522.5	-0.0001466473693	0.2123485753	
523.125	-0.3590601242	0.02034463148	
523.75	-0.007982850011	0.1019924668	
524.375	-0.6610042761	-0.1066720228	
525.0	0.345055952	0.3478854015	
525.625	-0.1419982667	0.08303310536	
526.25	0.1795442443	-0.0384801448	
526.875	-0.3691007859	0.1623478459	
527.5	0.2575056062	0.5518397832	
528.125	-0.2138198562	0.4960126516	
528.75	0.2027107309	1.086192252	
529.375	-0.04514397924	-0.07374028315	
530.0	0.5510623638	0.6233722302	
530.625	-0.1140134916	0.5052848674	
531.25	1.70409662	0.3918250114	
531.875	0.0007156316301	-0.5024441552	
532.5	0.07937458499	-0.5014377385	
533.125	-0.2088069649	0.240604849	
533.75	0.4364317824	-0.9843326787	
534.375	-0.5400028867	-0.1268114173	
535.0	-0.4513634333	-0.6701917054	
535.625	-0.4221721645	0.6624457661	
536.25	0.01517153816	0.09798218856	
536.875	0.3045437055	0.146759524	
537.5	0.08598992367	-0.2109875661	
538.125	0.3328919851	0.08126240153	
538.75	0.2506675626	-0.541400952	
539.375	-0.06755904016	-0.2143793865	
540.0	-0.3635030175	-0.5535692034	
540.625	-0.470553733	0.1074364611	
541.25	-0.1399043382	0.03555403191	
541.875	-0.0490920822	-0.1144146353	
542.5	-0.2532887736	-0.09204920157	
543.125	-0.001215263416	-0.06933365851	
543.75	-0.374421577	-0.03201918097	
544.375	0.08617590141	0.07335764597	
545.0	-0.1405189318	0.248194914	
545.625	0.2562134451	-0.05362126852	
546.25	0.01816626194	0.3118422387	
546.875	0.470178329	-0.3238386933	
547.5	0.006084035011	-0.08673926045	
548.125	0.08087721199	-0.4802354281	
548.75	-0.4937635592	-0.2358147448	
549.375	-0.08320324696	-0.05594224581	
550.0	-0.3241709188	-0.06332902747	
550.625	0.01104497137	0.08629531595	
551.25	-0.2935427608	-0.01491864699	
551.875	-0.08238053468	0.2869828519	
552.5	-0.1083406208	0.08777886422	
553.125	-0.04728766865	0.2013344241	
553.75	0.1257643168	0.07792634131	
554.375	0.2126158053	0.01593226338	
555.0	0.2332532127	-0.1916710536	
555.625	0.1763767836	-0.254629295	
556.25	0.1530079144	-0.3369289632	
556.875	-0.09864755838	-0.3850655613	
557.5	-0.2361704075	-0.2267045072	
558.125	-0.257649545	-0.08793346081	
558.75	-0.2718004158	-0.01704856983	
559.375	-0.2456478358	0.08611246168	
560.0	-0.2006207105	0.1317134763	
560.625	-0.1560034303	0.2945967344	
561.25	0.1013900268	0.1880691209	
561.875	-0.01433765425	0.1603375927	
562.5	0.1168272526	0.03927052312	
563.125	0.07010717088	0.2448160315	
563.75	0.4374046364	-0.06576698384	
564.375	0.1074486368	-0.2222957528	
565.0	0.2911593161	-0.2591942835	
565.625	-0.1566087733	-0.4503416055	
566.25	-0.2416747605	-0.105803268	
566.875	-0.2556067628	-0.3007585883	
567.5	-0.4918784768	-0.183958197	
568.125	-0.1319181522	-0.2981780671	
568.75	-0.692760505	-0.2764771747	
569.375	-0.3789568889	0.3592371908	
570.0	-0.3693172299	0.2294856958	
570.625	-0.2846528464	0.7155308296	
571.25	0.2640468072	0.01833771917	
571.875	-0.05572168916	0.4619250084	
572.5	0.3585901326	-0.3555478071	
573.125	0.1484459168	0.0896426786	
573.75	0.3144338733	-0.5304648718	
574.375	-0.258106882	-0.03355262157	
575.0	0.3919229876	-0.08102564946	
575.625	-0.2112370572	-0.2790264377	
576.25	0.2340043549	0.07608995303	
576.875	0.03987873083	-0.6033451115	
577.5	-0.2664157516	-0.3082530425	
578.125	0.09608010299	-0.21288915	
578.75	-0.209386198	-0.5103625202	
579.375	-0.3204682938	0.06296521326	
580.0	0.08491762653	-0.1628027911	
580.625	-0.3835499088	0.03115285214	
581.25	0.02751340917	0.04734615663	
581.875	-0.3219900495	0.3928616525	
582.5	0.4265350791	0.567385458	
583.125	0.09928200182	-0.2489075046	
583.75	0.02912613552	0.5251036237	
584.375	0.06339335495	-0.3650190756	
585.0	0.2379579626	0.570156654	
585.625	0.4490218441	-0.3804529109	
586.25	0.03944258379	0.1274719238	
586.875	0.4678217342	-0.5139066896	
587.5	-0.3492394839	-0.2454748853	
588.125	0.1795493473	-0.1225276089	
588.75	0.2237778393	-0.5639632467	
589.375	-0.1017338341	-0.3530563133	
590.0	0.08636976811	-0.3427165153	
590.625	-0.6018051055	-0.1087428328	
591.25	-0.140641699	0.2080176551	
591.875	-0.2328412445	0.2483974424	
592.5	0.1670248245	0.1644493625	
593.125	-0.2451650208	0.06635879941	
593.75	0.2743602152	0.3734823729	
594.375	0.3283022282	-0.04472209614	
595.0	0.03193486591	0.3726897684	
595.625	0.8840019771	0.4071832987	
596.25	0.03766428564	-0.2082650253	
596.875	0.4943431671	0.4757663533	
597.5	0.5084152565	-0.1532190073	
598.125	-0.05222175148	0.4974751198	
598.75	0.8077708353	0.07433274828	
599.375	0.1592214575	-0.07040796826	
600.0	0.5818370811	-0.1580037466	
600.625	0.3599672832	-0.6169300291	
601.25	-0.01886321074	-0.3182757068	
601.875	-0.0596295381	-0.3631717285	
602.5	-0.3083747183	-0.02878493888	
603.125	-0.2736060443	0.1421679897	
603.75	-0.2007873145	0.117536681	
604.375	-0.298405516	0.1409886567	
605.0	-0.08070499627	0.2193150572	
605.625	-0.2584240749	0.03286553539	
606.25	-0.175232494	0.3343910425	
606.875	-0.2735568769	-0.1213516654	
607.5	-0.6918883232	0.7545146439	
608.125	0.2505076677	0.2268302754	
608.75	0.1275350973	0.6853060376	
609.375	0.7175033805	-0.4822983982	
610.0	0.1683170176	0.08974210683	
610.625	0.4196044433	-0.6309726086	
611.25	-0.2298358088	-0.1390467303	
611.875	0.01520709419	-0.577736824	
612.5	-0.4425199297	0.2057924697	
613.125	-0.3636906787	-0.2126253697	
613.75	-0.2577430213	0.6006303004	
614.375	0.02349612893	-0.09111986124	
615.0	0.30909421	0.383829716	
615.625	-0.1090577279	-0.135948901	
616.25	-0.3016034216	0.5891152117	
616.875	0.2316064765	0.4131192132	
617.5	-0.4539568351	0.2919360719	
618.125	0.09261137589	0.7668754985	
618.75	0.1014916696	0.166651567	
619.375	0.1562497984	0.6070582351	
620.0	0.4053410878	-0.09950652586	
620.625	0.3576057004	-0.2351261828	
621.25	-0.3359097629	-0.4069926294	
621.875	-0.3300488874	-0.2146720718	
622.5	-0.5831720289	0.2207136677	
623.125	-0.04719858249	0.2416775461	
623.75	0.3889044668	0.3146214061	
624.375	-0.1818310416	-0.2981217255	
625.0	0.4913050609	0.1169702436	
625.625	-0.3571767608	-0.292631066	
626.25	0.2654850351	-0.2550157555	
626.875	-0.6187404349	-0.2917931809	
627.5	-0.07777153126	0.1654217021	
628.125	-0.255614406	-0.5593306925	
628.75	-0.3550030615	0.002995844415	
629.375	0.0789668669	-0.394487148	
630.0	-0.6174001862	-0.2940141623	
630.625	-0.3818170306	0.37030008	
631.25	-0.2911241677	0.241942967	
631.875	-0.104079284	0.6450526908	
632.5	0.3908279502	0.4556168764	
633.125	0.4168498077	0.003834128443	
633.75	0.4342088573	-0.001112292446	
634.375	-0.02950369327	-0.3758063119	
635.0	0.08764908428	-0.2978374622	
635.625	-0.4688793753	-0.2481329514	
636.25	-0.1019150374	0.2598940771	
636.875	-0.4543662319	0.08352275657	
637.5	0.1361263706	0.5802998566	
638.125	-0.03900134104	-0.2499716314	
638.75	-0.466827418	0.6663834087	
639.375	0.3996109073	0.5424290264	
640.0	-0.01298212126	0.3235109169	
640.625	0.7935941743	0.5454792751	
641.25	0.4049660137	-0.3496582937	
641.875	0.5874653469	-0.08385131651	
642.5	-0.3982174147	-0.834589848	
643.125	-0.07876582472	0.06518035394	
643.75	-0.2486749834	-0.5364789301	
644.375	-0.5724722017	0.2947222595	
645.0	-0.01113963682	0.251066756	
645.625	-0.2556972746	0.4927033423	
646.25	0.723310775	0.1542309136	
646.875	-0.08376210936	-0.1909416354	
647.5	0.445147746	0.3699688377	
648.125	-0.08201082722	-0.2484816501	
648.75	0.9304688314	0.2645898183	
649.375	0.4357370049	-1.089784286	
650.0	-0.1628079152	-0.2742779096	
650.625	1.052326829	-0.3642981767	
651.25	0.2104611723	-1.392723932	
651.875	0.01393920593	0.08745119633	
652.5	1.188983413	-0.02714773361	
653.125	0.3321208718	-0.7910263909	
653.75	0.4183302352	0.03038328169	
654.375	-0.3094921287	-1.173592131	
655.0	-0.6734584607	0.2657715146	
655.625	-0.2584619094	-0.0432237927	
656.25	-0.1049011979	0.8474419067	
656.875	0.3939393928	-0.286660018	
657.5	-0.1221015996	0.5647105084	
658.125	0.5900363348	0.2374912688	
658.75	0.4026632598	0.008908513317	
659.375	0.9959617115	-0.01654326324	
660.0	0.2936630844	-1.100182416	
660.625	0.1154879962	-0.356152319	
661.25	0.7197761797	-0.6062815892	
661.875	0.3994588685	-1.158647477	
662.5	-0.03012272619	-0.132379059	
663.125	1.184717014	-0.3946879972	
663.75	-0.1598400151	-0.8760497784	
664.375	0.2429090537	-0.3924585684	
665.0	-1.091860536	-0.7139197734	
665.625	-0.2005748668	0.3732449836	
666.25	-0.5688918867	0.4532357346	
666.875	0.4908507702	0.6756442709	
667.5	0.3786915653	-0.1504930945	
668.125	0.3900071878	0.3299174179	
668.75	0.5461570832	-0.6439326906	
669.375	0.01310085237	-0.3709832876	
670.0	0.2263577485	-0.4684808421	
670.625	-0.2415915118	-0.5966876919	
671.25	0.245663743	-0.1263895953	
671.875	0.3525358429	-0.5825948382	
672.5	0.2743025033	-0.4702384523	
673.125	0.2366462374	-0.1566805652	
673.75	0.8421548325	-0.4893253032	
674.375	-0.4646975033	-0.9014980859	
675.0	0.2021984252	-0.06294591742	
675.625	-0.6639108391	-0.7154037817	
676.25	-0.3568227008	0.5811385067	
676.875	-0.3633629393	-0.6513968175	
677.5	-0.3415892563	0.7167652526	
678.125	-0.1774776011	-0.1751908224	
678.75	-0.1005628188	1.013046405	
679.375	0.7416981001	-0.3241334838	
680.0	-0.02762810108	0.03073326694	
680.625	0.4869562881	-0.1108272251	
681.25	0.1631928604	-0.3333936491	
681.875	0.03971270151	0.2578625396	
682.5	0.7627277258	0.301975182	
683.125	0.417636137	-0.05313952339	
683.75	0.4742261653	0.1843954575	
684.375	0.8990843727	0.172532985	
685.0	0.4170738856	-0.308068474	
685.625	0.5493118491	0.4868311325	
686.25	1.194729451	-0.5141917064	
686.875	-0.199345518	-0.3783030257	
687.5	1.321976695	-0.2702404833	
688.125	-1.104779089	-1.515898496	
688.75	0.01105371797	-0.3256299041	
689.375	-1.310276013	1.16733597	
690.0	0.8460544694	0.3165545993	
690.625	-0.07752289302	1.134650654	
691.25	1.310664015	0.1119803864	
691.875	0.5754985061	0.5897842691	
692.5	1.483591551	0.668528426	
693.125	1.557799544	-0.3324226961	
693.75	1.184655116	-0.4816121082	
694.375	0.8831772007	-1.033471343	
695.0	0.9294229312	-0.4319464416	
695.625	1.42001763	-0.5493284875	
696.25	0.7623299289	0.1463843481	
696.875	1.214418502	1.405738085	
697.5	1.276861537	0.2339956405	
698.125	1.034719271	1.024300764	
698.75	1.105920011	-1.865694908	
699.375	-0.6098520196	0.1078830505	
700.0	-1.421593862	0.8354014452	
700.625	0.960390844	0.4511682856	
701.25	-0.103857938	0.6398363227	
701.875	1.306708033	0.3711556292	
702.5	0.2681871123	0.3973711116	
703.125	1.309262289	0.5131758511	
703.75	0.5211526127	-0.687787004	
704.375	0.9261237188	0.05653031351	
705.0	0.501195021	-0.8806839195	
705.625	0.0752038404	0.254448661	
706.25	1.236038172	0.7505157517	
706.875	0.4144707053	-0.06102185106	
707.5	0.5108540245	1.251703219	
708.125	1.485282966	-0.3286470448	
708.75	0.381411759	-0.295918956	
709.375	-1.010087269	-1.117760034	
710.0	0.02183682813	0.6898505958	
710.625	-0.1723338024	0.3941532183	
711.25	0.4436746484	0.1967593353	
711.875	0.4629230085	0.2853567758	
712.5	0.6930846955	-0.1684233951	
713.125	0.555543351	-0.2237798561	
713.75	0.3708006865	-0.8581009624	
714.375	-0.2193577395	-0.1969051493	
715.0	0.225857687	-0.8250721842	
715.625	-0.4238680947	-0.3582908817	
716.25	0.7526156819	-0.05626383961	
716.875	1.319758247	-1.307527925	
717.5	-0.3156189752	-0.3126178834	
718.125	2.717623114	1.180739144	
718.75	2.146504417	-1.951442897	
719.375	0.304167793	-0.05746743526	
720.0	2.783067438	-3.349121888	
720.625	-1.443582705	-1.647133315	
721.25	0.6284547043	-2.655851927	
721.875	-1.555775993	-2.965612694	
722.5	-1.658501676	-0.5474584922	
723.125	-1.702336469	-0.9996433703	
723.75	-0.9712176823	1.648535641	
724.375	0.3733454813	0.8006821455	
725.0	0.222403777	0.6224892745	
725.625	0.2400995596	1.622297792	
726.25	1.083774856	1.170198918	
726.875	-1.002123165	1.708913685	
727.5	0.07179426593	4.936807694	
728.125	2.633847872	2.691231041	
728.75	-6.421398046	5.064914115	
729.375	4.240466011	13.79597711	
730.0	2.728924966	1.982447754	
730.625	-11.62703372	17.08636217	
731.25	6.101038873	19.18014589	
731.875	-2.726760727	-1.136257665	
732.5	-12.23224076	4.410904512	
733.125	-5.693879112	4.582161058	
733.75	-1.285685731	1.064002197	
734.375	3.742081598	1.377234591	
735.0	-0.7084301396	-0.6285308347	
735.625	-0.8493473055	-0.1963173696	
736.25	-0.3215595498	2.173770966	
736.875	1.902451581	0.4086549105	
737.5	0.8807378056	0.8417439602	
738.125	5.857710232	-0.5544263118	
738.75	3.728577034	-5.983789508	
739.375	-0.3094832067	0.3486729798	
740.0	22.7609812	-4.876634982	
740.625	-3.228413042	-12.1881829	
741.25	-0.5165109823	27.79470852	
741.875	-6.939206609	20.47072346	
742.5	7.134703761	-2.647067777	
743.125	2.815058127	-10.94675737	
743.75	-3.091911217	-2.645839885	
744.375	-0.06406772708	0.1873789111	
745.0	-0.12041784	0.7382534377	
745.625	-0.3145565862	-0.06522725671	
746.25	-0.07334045361	-0.4743220807	
746.875	-0.5187375545	0.3515037753	
747.5	-0.01469891403	0.4465067664	
748.125	-0.05594895487	1.68773165	
748.75	1.263594241	0.5253802545	
749.375	-0.04743883103	0.734058376	
750.0	-0.7576569942	0.6965037962	
