!Created with skrf (http://scikit-rf.org).
# GHz S MA R 50.0 
!freq magS11 angS11
500.0 0.0171588780851 163.189587609
500.625 0.00773418529131 86.323281234
501.25 0.00352989792466 -137.857625641
501.875 0.031260299137 -173.581215485
502.5 0.043232833495 177.802861692
503.125 0.0219563738591 120.537630025
503.75 0.00530023609821 67.7818969367
504.375 0.0205348762082 -59.1663634459
505.0 0.00592562911093 91.8197392925
505.625 0.0180818707358 -68.7647458816
506.25 0.0391124653043 -117.652119224
506.875 0.0801685534712 -89.2815754958
507.5 0.0445517104383 -124.792436372
508.125 0.0478571609258 -90.4946152091
508.75 0.0589129656802 -127.443437368
509.375 0.0603962646089 -126.520973974
510.0 0.0357965811807 -118.917731206
510.625 0.0306364105271 -159.719270074
511.25 0.0593526115963 -171.613271599
511.875 0.0632088614069 153.443030851
512.5 0.0348352857416 85.3184649233
513.125 0.0448146998331 31.9227057395
513.75 0.0551431221247 37.0344308643
514.375 0.0356443715524 7.30529942811
515.0 0.0475795048912 4.40171106675
515.625 0.0791745378045 43.4318385122
516.25 0.0968147583181 32.806621668
516.875 0.112847082791 68.4183829916
517.5 0.118054750218 21.9285065156
518.125 0.196991615111 72.3529983859
518.75 0.0967002780765 17.9987712559
519.375 0.0531047819283 8.56005416457
520.0 0.0793762597422 -5.54303310282
520.625 0.100327560804 -10.1734542655
521.25 0.0968421082736 -19.166178462
521.875 0.0670573951445 -0.397604165058
522.5 0.0975912153029 -31.8690079712
523.125 0.180447554825 -34.0474102928
523.75 0.206845276639 -57.0590178685
524.375 0.215793293957 -46.5995167871
525.0 0.0657984498727 -47.1329039814
525.625 0.0322888287212 -34.0753214374
526.25 0.0560359903053 -3.12963416588
526.875 0.0425722595584 -27.1389780874
527.5 0.0413916221133 -32.1256537867
528.125 0.0342324919743 -60.9518151467
528.75 0.0747408396518 -69.2735244994
529.375 0.0665423679404 -122.111345318
530.0 0.0458403630606 -125.995666731
530.625 0.0394825084121 -135.841485694
531.25 0.139627798 -137.617772954
531.875 0.151631226866 -145.987629561
532.5 0.12674949226 -169.49819087
533.125 0.0899314684649 174.279765196
533.75 0.136457644529 168.098115904
534.375 0.0879674089452 176.058016839
535.0 0.0830081061157 164.158166694
535.625 0.0603539003603 174.616298963
536.25 0.0721149631915 165.309250333
536.875 0.0787368160378 -157.378720567
537.5 0.0978662246381 -141.604735484
538.125 0.103541255572 -171.271196393
538.75 0.114483577383 -177.718871301
539.375 0.0674103656855 -161.792764125
540.0 0.0827617334975 -150.279999561
540.625 0.132468907979 -153.600390426
541.25 0.139068959727 -140.341582259
541.875 0.09604739962 -141.659108273
542.5 0.113229691586 -140.752211501
543.125 0.139606524841 -164.440259226
543.75 0.13850838067 161.393207414
544.375 0.0812818454111 133.768593035
545.0 0.0840762399862 93.4779012772
545.625 0.0910102564166 84.4289641794
546.25 0.0958084612977 69.6177241613
546.875 0.0854331629808 56.0964090952
547.5 0.102112847339 61.1683941602
548.125 0.116063233158 80.7177664542
548.75 0.0975118351585 92.3098440079
549.375 0.0762884527871 88.5108800451
550.0 0.0813723603881 126.349103997
550.625 0.0391291880924 156.840418896
551.25 0.0435274503063 -142.922873506
551.875 0.0559092524639 -144.486969946
552.5 0.0992620742145 -156.371635139
553.125 0.0898524841655 -165.731159956
553.75 0.0964501825137 -172.21759945
554.375 0.095638796524 174.551007493
555.0 0.118380556051 167.126100002
555.625 0.0962271241914 159.464236946
556.25 0.0993259871828 164.679504529
556.875 0.123802369085 166.709072379
557.5 0.111280312129 168.062577079
558.125 0.0938888651503 166.833343618
558.75 0.0859598579258 178.698888765
559.375 0.0478560395462 -168.521542596
560.0 0.0396544959477 -137.619230988
560.625 0.0537152293285 -135.527949744
561.25 0.0936774967144 -153.0970538
561.875 0.0943944371963 -156.017472618
562.5 0.0942050179277 174.426265664
563.125 0.100962079339 149.259799442
563.75 0.14026874609 129.336201331
564.375 0.0895337404249 125.661071837
565.0 0.077668037889 124.298153246
565.625 0.0749870815687 120.180945199
566.25 0.103353383583 150.775453421
566.875 0.0724235423717 -177.624694694
567.5 0.0720724665591 -175.132365493
568.125 0.0817214316377 -169.061102359
568.75 0.0696502369476 -145.070655923
569.375 0.0529730582453 -115.061867221
570.0 0.0609296627532 -105.227557035
570.625 0.09502259574 -118.922808349
571.25 0.092710791185 -120.081956016
571.875 0.0908176503328 -129.922750289
572.5 0.112158287288 -154.473038607
573.125 0.141740466828 -172.97950286
573.75 0.104344725188 163.495553029
574.375 0.0845083315939 149.421633465
575.0 0.105422299196 154.558942288
575.625 0.111725162514 155.446553924
576.25 0.0926755153256 143.877604533
576.875 0.0710456473293 138.476613033
577.5 0.081102893264 140.30884045
578.125 0.0540657580772 164.028376344
578.75 0.0495039152873 163.124759957
579.375 0.0537852416499 164.301795482
580.0 0.0678158281263 -174.278111378
580.625 0.0795546777069 -150.003901625
581.25 0.0913345789372 -162.861564734
581.875 0.11741247445 178.736187981
582.5 0.111811279051 -170.946437623
583.125 0.0883259197172 -162.108177521
583.75 0.0792073980759 -161.820450169
584.375 0.10664597696 -164.313774674
585.0 0.0856287217878 -132.268251477
585.625 0.0683756235754 -138.527970823
586.25 0.0703650726329 -137.966467324
586.875 0.0846379805364 -141.094929457
587.5 0.0696812194066 -140.599191124
588.125 0.0587246391067 -163.219418212
588.75 0.0648800434567 -159.554046616
589.375 0.0823116983911 -161.071789244
590.0 0.0965664026002 -156.32495119
590.625 0.106183832046 169.137859955
591.25 0.116036438611 159.686640399
591.875 0.0990788804502 153.423857389
592.5 0.0592135260574 156.447440869
593.125 0.0648203988389 157.706704013
593.75 0.0775854165463 -177.160454327
594.375 0.0590722833632 -164.293872264
595.0 0.0492995757858 -99.4051284655
595.625 0.0626014962609 -96.6525559788
596.25 0.0741877826082 -78.3330901416
596.875 0.0664465319783 -75.7482535741
597.5 0.0616614083776 -51.5384591291
598.125 0.0758433024133 -49.7056842564
598.75 0.082691985196 -60.8667982245
599.375 0.0824936970805 -70.7899130912
600.0 0.105746509965 -60.838927128
600.625 0.102454944848 -60.1502392629
601.25 0.0812226556056 -68.792202934
601.875 0.0678885621507 -99.2619896614
602.5 0.0655348563693 -59.8082924007
603.125 0.0445854917962 -48.2382343746
603.75 0.0284541065725 -39.4639083331
604.375 0.0418770908306 -21.8083947914
605.0 0.0521512635053 -30.0570986177
605.625 0.0563369608165 1.68259691597
606.25 0.0311332507228 25.5046817076
606.875 0.0356272821077 49.3086826932
607.5 0.0415527636157 38.2405210094
608.125 0.0722818175498 31.421648577
608.75 0.0592119427715 23.8415967884
609.375 0.0669856254414 31.0331212247
610.0 0.0638737046334 38.7091717381
610.625 0.0666814765523 40.2935933708
611.25 0.057339531507 36.3288288528
611.875 0.0381519167647 51.8835715982
612.5 0.0101496479986 26.4030348446
613.125 0.0523597713967 131.41906232
613.75 0.0554651007159 127.880128519
614.375 0.0441812791056 129.045284715
615.0 0.0216719091148 112.535722159
615.625 0.0480385713015 140.87846463
616.25 0.045470833014 136.940055506
616.875 0.0348520447363 130.766924269
617.5 0.0162658837953 108.977405974
618.125 0.0551862927176 140.04494849
618.75 0.0311017650389 142.375530871
619.375 0.0177756934376 158.475566291
620.0 0.0183914435229 -31.0134955034
620.625 0.0279560090158 -168.177450116
621.25 0.0439494842001 -127.753347206
621.875 0.0699149711362 -115.26700035
622.5 0.0701520774103 -149.119468606
623.125 0.0791827606604 169.481160512
623.75 0.0609777923526 167.429914816
624.375 0.0442516262809 -171.073748669
625.0 0.0399698670672 -151.323638012
625.625 0.0262987713149 -146.54926665
626.25 0.0249645848427 178.268650171
626.875 0.00499344741217 95.933333882
627.5 0.0259688450599 -27.2506018071
628.125 0.0539386115368 -1.89117882643
628.75 0.0322412967506 -48.7782779114
629.375 0.0355620636176 -25.7609704322
630.0 0.0644354616739 -14.3656927798
630.625 0.0794270572361 20.9525462104
631.25 0.0674184938425 3.48307612547
631.875 0.0631415128993 -7.47434709809
632.5 0.0574533124158 -5.20134678141
633.125 0.0517254952803 30.5187903496
633.75 0.04939858267 -26.2439775653
634.375 0.0443999260406 0.975691272051
635.0 0.0418487148678 22.7705909127
635.625 0.0347514781891 41.7129614964
636.25 0.0633232142538 45.8878268074
636.875 0.0680334997535 34.641576038
637.5 0.0354096341416 22.7732932014
638.125 0.037693923319 64.0035438793
638.75 0.0964340981666 80.6503857983
639.375 0.0788362552603 75.6065807661
640.0 0.0665624473567 95.7724818073
640.625 0.051266999376 93.0503500883
641.25 0.0809627833444 131.113888267
641.875 0.0516071881991 127.951443504
642.5 0.0542948560765 165.21469981
643.125 0.0566522802887 160.97768673
643.75 0.0869603512641 179.697842978
644.375 0.0613145513202 -178.278159918
645.0 0.0686404012116 177.446212331
645.625 0.0789554548035 163.488605712
646.25 0.108417284526 171.479025136
646.875 0.0583538888173 164.96883364
647.5 0.061289386789 -175.145569579
648.125 0.0818924387153 178.319001204
648.75 0.0802733172723 -157.969913567
649.375 0.0455948095448 -151.204060652
650.0 0.0476146283913 -116.781048674
650.625 0.0709450448573 -83.4402469224
651.25 0.0688053564922 -61.5351963267
651.875 0.0734098061689 -42.0396800284
652.5 0.0858873120471 -22.2287449981
653.125 0.114862934054 0.693856477858
653.75 0.115974593656 7.83292213961
654.375 0.0900790194317 2.06982094607
655.0 0.104318356405 11.5353477253
655.625 0.092322906134 25.0363097727
656.25 0.0597801324093 23.8453964641
656.875 0.072871987667 9.53819789279
657.5 0.0793361642594 22.7014462986
658.125 0.0543770558124 50.4175850375
658.75 0.0566427846706 67.4342413616
659.375 0.0965040602289 37.4469663645
660.0 0.0897927211983 28.0897717937
660.625 0.102961172481 20.5675295716
661.25 0.0983737611983 4.86295865559
661.875 0.132868004191 -12.0695121818
662.5 0.10066421027 -21.6656708989
663.125 0.107060782748 -12.2175238768
663.75 0.0986737703308 7.68456194755
664.375 0.112613501903 57.5876816527
665.0 0.0764193235998 88.7940361132
665.625 0.0585436862655 111.308072313
666.25 0.0959243608936 130.168624063
666.875 0.0849277468293 176.32229405
667.5 0.0992455196041 -168.062638305
668.125 0.102614119656 179.550946891
668.75 0.137224007395 167.963235789
669.375 0.134616215875 178.512830577
670.0 0.0869406188804 -168.416535129
670.625 0.0939987503431 -171.016607902
671.25 0.112743796581 177.196910159
671.875 0.114462139571 169.243440328
672.5 0.0635922407488 161.349800847
673.125 0.0875884602074 154.146937422
673.75 0.120639298995 157.846865202
674.375 0.101793639618 174.580334626
675.0 0.1137343878 -171.182216135
675.625 0.136189074284 -149.664390764
676.25 0.133714749388 -125.928361334
676.875 0.107516325698 -119.149122403
677.5 0.121012838748 -125.936152851
678.125 0.134016989562 -115.521919544
678.75 0.0708541777695 -90.4998433264
679.375 0.0598748531078 -76.8174858633
680.0 0.0783776750221 -76.8404957338
680.625 0.109034903264 -68.2525743227
681.25 0.0964875087874 -70.9424252744
681.875 0.106311307635 -95.4747248639
682.5 0.129053892795 -116.846273191
683.125 0.165744125106 -120.614370643
683.75 0.143761602704 -104.944599492
684.375 0.119529461909 -77.5178997048
685.0 0.145216720494 -41.8741102825
685.625 0.127643365687 0.0274856147937
686.25 0.0990566637724 27.9769693902
686.875 0.0889183929426 49.5293245739
687.5 0.0867337392589 80.5233930546
688.125 0.0796926727607 111.401012191
688.75 0.100984775149 121.818373825
689.375 0.140214829734 123.630582194
690.0 0.142233506619 131.113390015
690.625 0.108807807828 134.827109797
691.25 0.136129750249 102.627750114
691.875 0.181813818536 68.130003491
692.5 0.151358762302 40.0242293381
693.125 0.0914654707632 -14.4927590656
693.75 0.0935676484498 -36.8723516545
694.375 0.139229248983 -26.1462776112
695.0 0.126190191971 15.8882002571
695.625 0.107098258914 50.5701983261
696.25 0.10758315519 126.369298863
696.875 0.139543834393 175.589139161
697.5 0.147712791363 -145.486842793
698.125 0.139406526358 -131.354602968
698.75 0.118755724266 -122.77863003
699.375 0.101133157303 -117.169393091
700.0 0.0950632666167 -109.6214146
700.625 0.120801186421 -95.3529037283
701.25 0.0860904628228 -49.6435160648
701.875 0.0814438417655 -51.2672525171
702.5 0.0992423917326 -77.2603097725
703.125 0.172761379364 -126.791456584
703.75 0.183290481421 -154.429676969
704.375 0.128363913978 172.00782552
705.0 0.112377498467 159.800416205
705.625 0.143122777947 -167.83401606
706.25 0.155491153195 -116.739690755
706.875 0.0858177353948 -55.0446693591
707.5 0.0738867434072 -24.7544180166
708.125 0.0861367804267 28.0522083385
708.75 0.113851741374 56.9045399799
709.375 0.106016587128 117.68271211
710.0 0.105150004439 134.995489716
710.625 0.107900427881 151.512644783
711.25 0.118770405789 165.545634272
711.875 0.148138593335 169.118755455
712.5 0.149228316414 153.326277696
713.125 0.123671433391 103.659154756
713.75 0.106636056654 39.6389917602
714.375 0.105634424561 32.9752753092
715.0 0.113679303432 34.581915393
715.625 0.0841510163871 45.650584543
716.25 0.0793797209069 77.4280613561
716.875 0.111867751645 95.3702184657
717.5 0.152324864833 161.362396617
718.125 0.117931738816 172.240394371
718.75 0.101583251565 178.144685897
719.375 0.111582201192 -175.171958929
720.0 0.126938339094 -134.762307823
720.625 0.114261712944 -74.1769408402
721.25 0.0955865811335 -16.2328998639
721.875 0.0849613989762 17.3564829829
722.5 0.0797964217667 89.455168053
723.125 0.0972483794709 83.5445088398
723.75 0.118568395443 51.9630781887
724.375 0.100250178099 -9.35243925893
725.0 0.105793983531 -30.0822117987
725.625 0.0998061351782 -65.5036577871
726.25 0.117000502151 -66.2317651069
726.875 0.104314245777 -47.7557110756
727.5 0.076054545648 -45.9478783037
728.125 0.0953375413723 14.1397924274
728.75 0.111249858863 32.6367748053
729.375 0.0921975010561 30.8687342372
730.0 0.0569669107686 -7.92975653487
730.625 0.0584288565186 18.4901258945
731.25 0.0687954745908 68.4665892633
731.875 0.0551783341727 104.25817743
732.5 0.07566743663 153.049840703
733.125 0.0639128320602 160.381239974
733.75 0.0739803442192 174.312701841
734.375 0.0626327668695 -165.308145361
735.0 0.0277869851593 122.467391472
735.625 0.0942666073047 161.428359014
736.25 0.0435750192545 149.479587832
736.875 0.0503384518934 -170.182876444
737.5 0.0584407186708 -177.748320125
738.125 0.0774107075428 -176.28820235
738.75 0.0726861246518 -173.4042635
739.375 0.0342266403937 178.681598415
740.0 0.047558968699 -135.372720608
740.625 0.0220726812232 -125.557098888
741.25 0.0737767638327 -152.215386252
741.875 0.0537423030951 -106.225660052
742.5 0.0363021365718 9.90183533121
743.125 0.0222690631822 127.455072759
743.75 0.0668179338885 80.5216516736
744.375 0.057164568363 100.381003453
745.0 0.0482286795667 124.2712937
745.625 0.0650818080512 143.609372553
746.25 0.103852054275 68.4781434347
746.875 0.0727167392973 37.3671095038
747.5 0.0479808208029 24.738768106
748.125 0.0167616174644 3.60278410342
748.75 0.0228578601449 54.1626842138
749.375 0.0479901840844 -58.8918459288
750.0 0.0396357484825 -117.030433608
