!Created with skrf (http://scikit-rf.org).
# GHz S RI R (50+0j) 
!freq	ReS11	ImS11	
500.0	1.501776819	-2.086120519	
500.625	0.6732536563	-4.840152409	
501.25	-2.741029363	-1.816263932	
501.875	-0.4912097043	-0.4053330241	
502.5	-0.004315025162	-0.6633035664	
503.125	-0.1766195164	0.2630945226	
503.75	-0.1738469109	0.120510302	
504.375	0.1439754564	-0.114349971	
505.0	0.04793755942	0.1144301353	
505.625	-0.1187202943	-0.3679797247	
506.25	0.159035681	0.222519584	
506.875	-1.473769381	-0.3468521161	
507.5	-1.062106128	0.2894836806	
508.125	1.536484633	-0.9855214572	
508.75	1.959234557	-4.495692264	
509.375	-2.181978327	-2.219520918	
510.0	-1.024007237	-1.567414756	
510.625	-0.9963612663	-0.2019045074	
511.25	-0.219124611	-0.4368676222	
511.875	-0.6863140978	-0.1315407022	
512.5	-0.01270619006	0.2035334514	
513.125	0.0009077694156	-0.1847826825	
513.75	-0.2628489936	-0.3866804935	
514.375	-0.4696124371	0.3735101008	
515.0	1.134496527	-1.084866619	
515.625	-1.535465767	0.2534931979	
516.25	1.871990513	-2.392287653	
516.875	-2.327081608	-1.950039726	
517.5	0.09697556524	0.3939578014	
518.125	-0.3502174391	-0.4349626108	
518.75	0.03570341761	0.1711349229	
519.375	-0.305934487	0.0835396336	
520.0	0.5075415658	0.08574032226	
520.625	0.2347218097	-0.1142261195	
521.25	0.2070722278	-0.9146918363	
521.875	-0.4655575377	0.09944373303	
522.5	-0.09723540946	-0.06047103294	
523.125	0.00982769013	0.246945969	
523.75	-0.3377155472	-0.1104782669	
524.375	-0.1414328623	0.2967371033	
525.0	-0.3632585387	0.2261065942	
525.625	0.3526156244	0.2615792333	
526.25	-0.282462757	-0.01862587812	
526.875	0.07274218601	0.1418335666	
527.5	-0.4096559535	0.3374345582	
528.125	0.4422339743	1.160298346	
528.75	0.1802374102	0.1974429732	
529.375	0.1210834236	0.4177628784	
530.0	-0.04086163784	0.06388177901	
530.625	0.4742809707	1.222275933	
531.25	0.6628356473	-0.0216101278	
531.875	1.095227572	-0.3572705565	
532.5	-0.4997967633	-0.1052306668	
533.125	0.6175296786	-0.4716695874	
533.75	-0.1753848021	-0.265460847	
534.375	0.04245128536	-1.141189492	
535.0	-0.8341940491	0.1156490212	
535.625	-0.3345322133	-0.0007909029672	
536.25	-0.05861957111	0.3444962678	
536.875	0.2509249356	-0.09849145868	
537.5	0.1922480191	0.03242894884	
538.125	0.3121409095	-0.3093831834	
538.75	0.1950052663	-0.1226130452	
539.375	-0.157695475	-0.5993595079	
540.0	-0.4830317717	-0.1063581796	
540.625	-0.2618281258	-0.2187563187	
541.25	-0.3227006915	0.02895016782	
541.875	-0.1095431588	0.0209541499	
542.5	0.01187948142	-0.1190012621	
543.125	-0.3556172392	-0.1930901496	
543.75	-0.02118817126	0.1848090175	
544.375	-0.3010727997	0.02029782286	
545.0	0.1812491179	0.1212915504	
545.625	-0.1083590471	0.297961257	
546.25	0.4379758729	-0.06141186328	
546.875	0.06247644228	0.08540418926	
547.5	0.3925098674	-0.4276451251	
548.125	-0.3102490223	-0.2831028152	
548.75	-0.08635564153	-0.2491487492	
549.375	-0.3452501553	-0.3104856904	
550.0	-0.1334455968	0.1613569499	
550.625	-0.2008785478	-0.1382672847	
551.25	-0.1057980697	0.195366539	
551.875	-0.2262545762	0.04691687146	
552.5	-0.1124233903	0.296863533	
553.125	-0.02076800239	0.09165162492	
553.75	0.1092259944	0.1507009487	
554.375	0.2356397934	-0.02305478321	
555.0	0.2194024039	-0.1520126091	
555.625	0.2238699874	-0.254440472	
556.25	0.152450756	-0.3546135572	
556.875	-0.08183973262	-0.375848067	
557.5	-0.2170537735	-0.2562261417	
558.125	-0.282888965	-0.09519810989	
558.75	-0.2376359541	0.004582237188	
559.375	-0.2589743726	0.0118428096	
560.0	-0.2461300206	0.2135634662	
560.625	-0.06704096344	0.2227870378	
561.25	-0.05991382	0.2368778649	
561.875	0.1617680959	0.1017383642	
562.5	-0.09332966233	0.1175337277	
563.125	0.2917637348	0.137113251	
563.75	0.1710025391	0.0556058512	
564.375	0.4498442547	-0.2283521757	
565.0	0.025905635	-0.4178493224	
565.625	0.03459061537	-0.2500324295	
566.25	-0.2659956521	-0.389020529	
566.875	-0.4026910983	-0.04142336654	
567.5	-0.1441656236	-0.2737323279	
568.125	-0.4669375175	-0.5399062718	
568.75	-0.4428521037	0.008420959827	
569.375	-0.6609626668	-0.03212143996	
570.0	-0.2255305766	0.7142327885	
570.625	-0.002494957327	0.1509179623	
571.25	-0.3264219551	0.4360757823	
571.875	0.3655064105	-0.1375512231	
572.5	0.2063093635	0.3701713375	
573.125	0.3182658112	-0.547849635	
573.75	-0.1852231171	-0.1076616598	
574.375	0.3695663154	-0.1497707048	
575.0	-0.2673616959	-0.1603547653	
575.625	0.3550300915	-0.05418669509	
576.25	0.03798760885	-0.5378182187	
576.875	-0.1467263036	-0.0422382634	
577.5	0.3089805353	-0.40118126	
578.125	-0.2946789888	-0.5405458418	
578.75	-0.2420663259	-0.08113043334	
579.375	0.02738575726	-0.2585277637	
580.0	-0.3815941287	-0.08526143063	
580.625	0.1325271919	-0.1240643269	
581.25	-0.4823772152	0.2683511089	
581.875	0.2916450279	0.2954371183	
582.5	-0.1627451227	0.09088086137	
583.125	0.2115684678	0.6210615798	
583.75	0.107707551	-0.4714501678	
584.375	0.009929067232	0.5648354965	
585.0	0.4256822411	-0.2173605423	
585.625	0.09895568492	0.2795061601	
586.25	0.6687409727	-0.316996692	
586.875	-0.09780101333	-0.1571506111	
587.5	0.2830918835	-0.3937661285	
588.125	-0.2614371529	-0.4912292055	
588.75	-0.02336618036	0.00464230382	
589.375	0.5008383603	-0.4047451089	
590.0	-0.3084128477	-0.4460565356	
590.625	-0.2623399886	-0.04640277707	
591.25	-0.4090800337	0.11332882	
591.875	-0.02857284489	0.4704943546	
592.5	-0.07096496052	-0.06501431847	
593.125	0.02751369655	0.2305279237	
593.75	-0.02587556192	0.1559263722	
594.375	0.4276663889	0.5211561552	
595.0	0.6380733507	-0.02098947867	
595.625	-0.02046743093	0.1713778485	
596.25	0.6643297934	0.4695407731	
596.875	0.297780621	-0.3058322105	
597.5	0.1161716768	0.4308682259	
598.125	0.6370627238	0.2367526709	
598.75	0.1034727343	0.142913561	
599.375	0.8255248323	0.02549847788	
600.0	0.1286790912	-0.4285600916	
600.625	0.3487088181	-0.1744839106	
601.25	0.3325226097	-0.5583700481	
601.875	-0.3259589905	-0.2695671577	
602.5	-0.2010961446	-0.07856917472	
603.125	-0.2623199697	0.03322668657	
603.75	-0.3702004877	0.2223946392	
604.375	-0.02789644671	0.1104178845	
605.0	-0.3608060264	0.128754465	
605.625	0.008984912361	0.2873561663	
606.25	-0.3807994477	-0.1006784631	
606.875	-0.4479726606	0.5259114809	
607.5	-0.1783058609	0.07676828464	
608.125	-0.4886273586	0.8575371941	
608.75	0.6482384804	-0.02316111078	
609.375	0.353195244	0.2620649176	
610.0	0.5903603447	-0.461322468	
610.625	-0.0583858628	-0.1039601671	
611.25	0.2598691689	-0.582335255	
611.875	-0.2863127623	-0.07998220946	
612.5	-0.2620919164	-0.3574762546	
613.125	-0.5561788207	0.2282357235	
613.75	-0.1939782718	0.1194368968	
614.375	0.1978822504	0.5268363463	
615.0	-0.0379126543	-0.112790309	
615.625	0.08046005605	0.4604529764	
616.25	0.01373386869	-0.01286589471	
616.875	-0.5127914943	0.5298503822	
617.5	0.1306263884	0.6769989797	
618.125	-0.183239331	0.1851676806	
618.75	0.08274486033	0.7078696306	
619.375	0.2347537785	0.1565156452	
620.0	0.4235464134	0.3069565912	
620.625	0.1602599816	-0.4321485949	
621.25	-0.06592240111	-0.4000731412	
621.875	-0.5502821959	-0.1084463588	
622.5	-0.38236994	0.05590209848	
623.125	-0.1758243807	0.5345088672	
623.75	0.1891849877	-0.08579720727	
624.375	0.4133315156	-0.00965696446	
625.0	-0.1844408806	-0.04724235343	
625.625	0.4356308585	-0.1467908995	
626.25	-0.4908482562	-0.3870419362	
626.875	0.04293121746	-0.0679080633	
627.5	-0.5430697454	-0.3088294751	
628.125	-0.2653977983	0.07209723865	
628.75	0.06634430915	-0.4021506963	
629.375	-0.4878158185	-0.347908532	
630.0	-0.1457585079	-0.2478746886	
630.625	-0.6764628956	0.06047844659	
631.25	-0.2826315988	0.6145001571	
631.875	-0.01179797431	0.3875728178	
632.5	0.2065257935	0.4926434379	
633.125	0.5708843374	0.2213296316	
633.75	0.3092253541	-0.2865354653	
634.375	0.2236043574	-0.1395407694	
635.0	-0.1513359033	-0.5932851788	
635.625	-0.06319923305	-0.09796345718	
636.25	-0.5924109674	0.1302598067	
636.875	0.08704461124	0.3781628197	
637.5	-0.2310530773	-0.1086284522	
638.125	-0.05022162794	0.7438469355	
638.75	0.002252733948	-0.1110359005	
639.375	-0.4055816944	0.7542473187	
640.0	0.6458673284	0.6477929196	
640.625	0.4144611978	0.05033097087	
641.25	0.663912661	0.4404070663	
641.875	0.2792759135	-0.7320479368	
642.5	0.1843816422	-0.1542333351	
643.125	-0.4456255959	-0.6717732942	
643.75	-0.1382505681	0.3447275359	
644.375	-0.4610731182	-0.4515942869	
645.0	-0.4119304455	0.643466776	
645.625	0.3055005756	0.3399331104	
646.25	0.003801299222	0.09689821402	
646.875	0.6830671643	0.1749942724	
647.5	-0.3204102235	-0.1592796843	
648.125	0.6992093548	0.4491593504	
648.75	0.4120754105	-0.6340363768	
649.375	0.5496130024	0.1709540168	
650.0	0.7078796835	-1.349116523	
650.625	-0.365766874	-0.5364599808	
651.25	0.8244821715	0.1021816847	
651.875	1.00553877	-1.02816709	
652.5	-0.05836501003	-0.3057432342	
653.125	0.9155766109	0.1946247878	
653.75	0.4029910295	-0.9953997404	
654.375	-0.1136481697	-0.1890763626	
655.0	-0.6333958147	-0.8118951859	
655.625	-0.2675620443	0.8986492387	
656.25	0.06740600357	-0.0280086848	
656.875	-0.04251968344	0.5385785846	
657.5	0.3131829762	-0.07317285253	
658.125	-0.08365295736	0.5364495287	
658.75	1.039990613	0.1706583672	
659.375	0.4927670128	-0.4426821045	
660.0	0.5411362389	-0.3013531199	
660.625	0.5658106778	-1.230137798	
661.25	-0.2121231649	-0.4480024512	
661.875	0.8830842787	-0.2243324557	
662.5	0.8053627084	-0.9111108418	
663.125	0.04508879931	-0.4980694164	
663.75	0.9019374187	-0.3651145557	
664.375	-0.5504881333	-0.994941151	
665.0	-0.1558735618	-0.284102248	
665.625	-1.150574969	0.06578872502	
666.25	0.2067724677	0.6938738039	
666.875	-0.1443515308	0.4363446609	
667.5	0.6578409143	0.3671841528	
668.125	0.4067759961	-0.3272080619	
668.75	0.3212465354	-0.005902241548	
669.375	0.4707907111	-0.6879613363	
670.0	-0.2645977884	-0.4679471441	
670.625	0.1620699932	-0.3063947074	
671.25	0.1834922412	-0.6063019817	
671.875	0.02731941397	-0.2405338944	
672.5	0.7374136011	-0.2924539182	
673.125	0.3580901661	-0.6103961608	
673.75	0.1226218392	-0.2819340631	
674.375	0.5610703425	-0.5123738081	
675.0	-0.6420892469	-0.9673036149	
675.625	-0.001599955048	0.2513155334	
676.25	-0.6818775727	-0.5792640551	
676.875	-0.3387609217	0.4845037891	
677.5	-0.216532238	-0.4868436435	
678.125	-0.3696542664	0.938657468	
678.75	-0.02526100458	0.001908426102	
679.375	0.456481719	0.5838275865	
680.0	0.5507716379	-0.6132218743	
680.625	-0.3274443059	-0.004137142028	
681.25	0.6362493537	0.1359363735	
681.875	0.3923173253	-0.1601791868	
682.5	0.2879822981	0.07790199442	
683.125	0.4339628664	0.4739027533	
683.75	0.9638249539	-0.06261242539	
684.375	0.249045995	0.03317206833	
685.0	0.8476278322	0.4905464807	
685.625	0.7793404549	-0.6051763513	
686.25	0.2626218786	0.6090549856	
686.875	1.436125696	-0.9709379562	
687.5	-0.3242952156	-0.4273413359	
688.125	0.7989454791	-1.08514375	
688.75	-1.752195197	-0.4511599184	
689.375	0.02048481496	0.1997956069	
690.0	-0.1567757609	1.465046102	
690.625	0.7860993402	0.153000786	
691.25	0.293438373	0.8251501078	
691.875	1.583466161	0.6351999121	
692.5	1.076714689	0.2811193168	
693.125	1.523736045	0.117074698	
693.75	1.372366222	-0.6889594913	
694.375	0.9773605672	-0.8970870193	
695.0	0.9400372403	-0.874035384	
695.625	1.022848833	0.1234424733	
696.25	1.664257995	0.1905904588	
696.875	0.5448674069	0.4529690806	
697.5	0.9888906903	1.863394823	
698.125	1.44690351	-0.2783919782	
698.75	1.199896793	-0.2223619813	
699.375	-1.448077453	-1.388262755	
700.0	0.1651738719	0.6642386489	
700.625	-0.2119032708	1.265982688	
701.25	0.8323585306	0.05238207786	
701.875	0.1894378787	0.6622822094	
702.5	1.438302958	0.5014261307	
703.125	0.5190331538	0.1771806497	
703.75	1.211759876	-0.08549110197	
704.375	0.286019409	-0.7178127372	
705.0	0.7423319801	0.1750367033	
705.625	0.7502257077	-0.6894762748	
706.25	0.07714416557	0.4528664273	
706.875	0.9399302016	1.225799252	
707.5	0.730067081	0.1666412767	
708.125	1.082336251	0.8394886022	
708.75	0.6680244179	-1.321379391	
709.375	-0.370202175	-0.3273837213	
710.0	-0.8595295475	0.493699984	
710.625	0.4814019652	0.1726102234	
711.25	0.03682105011	0.4523410675	
711.875	0.6023842622	0.1788378589	
712.5	0.7401626606	0.04235187673	
713.125	0.4595182334	-0.6026075384	
713.75	0.3832671513	-0.2733340957	
714.375	0.02945338279	-0.8699085529	
715.0	-0.2543923004	-0.06384910585	
715.625	0.5797708115	-0.853300273	
716.25	-0.3709688646	-0.7267252862	
716.875	0.9311362541	0.3491191693	
717.5	2.301855223	-0.5738369701	
718.125	0.1166228254	-0.8686830218	
718.75	3.356629265	1.471716745	
719.375	1.84857376	-2.985393113	
720.0	0.6899583367	-1.000708486	
720.625	1.898389535	-2.648073537	
721.25	-1.673468261	-2.677294854	
721.875	0.4242276944	-2.250237459	
722.5	-1.880160205	-2.265215511	
723.125	-1.852514765	0.4056835349	
723.75	-1.037062074	0.3336905814	
724.375	0.160213788	1.604777441	
725.0	0.567298287	0.5380584608	
725.625	0.1583976207	0.8192335537	
726.25	-0.3700983288	2.057923737	
726.875	1.287971051	2.827086604	
727.5	-1.437259234	1.192624661	
728.125	-0.683645788	7.914243816	
728.75	4.427998526	5.521890382	
729.375	-9.78537897	4.571354494	
730.0	3.236356001	23.0247305	
730.625	1.982236734	0.887051459	
731.25	-10.44265316	8.928747758	
731.875	-8.434779834	16.19416699	
732.5	-1.570645106	0.5927038046	
733.125	-9.087015617	-1.687675862	
733.75	-1.296418463	4.382768756	
734.375	1.325751009	0.1907881066	
735.0	1.061595296	-2.257704714	
735.625	-0.4700029049	1.18911567	
736.25	-0.9398713745	0.8967018213	
736.875	1.478632089	2.027190249	
737.5	3.151801875	-0.7008271832	
738.125	0.9666427742	-0.7795506998	
738.75	8.54674584	-0.4377102993	
739.375	5.655221496	-11.81010018	
740.0	-4.506139029	-0.626544684	
740.625	28.94039005	6.206631786	
741.25	10.92109535	-6.08220141	
741.875	-28.78400678	-9.433053091	
742.5	-19.2391006	1.145753175	
743.125	2.219871718	2.85327382	
743.75	1.700985707	-6.008947772	
744.375	-1.8951276	0.69384216	
745.0	-0.06425903175	-0.1941097662	
745.625	0.4177223755	0.06796434806	
746.25	-0.2349316431	-0.04951782176	
746.875	-0.7963816464	-0.1644246087	
747.5	0.01021238429	0.9602893483	
748.125	0.4202437827	1.070744911	
748.75	0.8616407603	1.6187404	
749.375	0.5191305253	0.9213611052	
750.0	-0.5144595382	0.7142798637	
