!Created with skrf (http://scikit-rf.org).
# GHz S RI R (50+0j) 
!freq	ReS11	ImS11	
500.0	-3.168625035	-2.245915496	
500.625	2.030130721	-1.915277886	
501.25	-1.076733995	-3.394610752	
501.875	-1.672248721	-1.00980535	
502.5	-0.1522482011	-0.03932702255	
503.125	-0.3195390834	-0.09306911553	
503.75	0.354316407	0.1895849851	
504.375	0.05144864299	0.1194013151	
505.0	-0.02309525746	-0.22937438	
505.625	0.2431698634	0.01801259816	
506.25	-0.7363404743	-0.2756072396	
506.875	0.6220319076	-0.5570751625	
507.5	-0.4944822181	-2.280512347	
508.125	-1.456186342	-2.066755102	
508.75	1.720923718	-0.9900391353	
509.375	-1.716784897	-5.603085804	
510.0	-1.416362099	-0.1687961184	
510.625	-0.4593790074	-0.7361646491	
511.25	-0.4625570299	0.1288724619	
511.875	-0.2698143081	-0.293713682	
512.5	-0.06530558112	0.1183273736	
513.125	-0.08529527589	-0.2866140205	
513.75	-0.1222119733	0.0367278148	
514.375	-0.2611877069	-0.4454024273	
515.0	-0.9194753888	1.296130067	
515.625	1.63975406	-4.614914395	
516.25	-2.94302785	-0.1605322421	
516.875	0.9947227816	-1.395070052	
517.5	-0.8884073767	-1.117720331	
518.125	0.3552316336	0.06293982519	
518.75	-0.7236462142	-0.8403469346	
519.375	-0.03187349305	0.1047123574	
520.0	0.3162793624	0.3550769526	
520.625	0.583798333	-0.3621067013	
521.25	-0.1875204854	-0.4233173584	
521.875	-0.4358007718	-0.3542606254	
522.5	-0.0003990504385	0.2242982423	
523.125	-0.3922554933	-0.02114625166	
523.75	-0.07835415894	0.151480637	
524.375	-0.6649406305	-0.1505652377	
525.0	0.3303813078	0.3185042054	
525.625	-0.1623316228	0.153237691	
526.25	0.2116439382	-0.129121882	
526.875	-0.3692641715	0.2682735861	
527.5	0.2656469692	0.5117908828	
528.125	-0.2605642098	0.5609535471	
528.75	0.1879127655	1.144341917	
529.375	0.0002593086016	-0.07602430552	
530.0	0.4637890869	0.6723529626	
530.625	-0.1540598386	0.5710136352	
531.25	1.968835484	0.2929350086	
531.875	-0.05256077502	-0.3125486242	
532.5	0.1831680737	-0.7838877166	
533.125	-0.2724675244	0.538426583	
533.75	0.4640020381	-1.096401618	
534.375	-0.4631585186	-0.1939410848	
535.0	-0.5455290311	-0.7287744096	
535.625	-0.3071197221	0.7285093402	
536.25	-0.0639075771	0.1015083736	
536.875	0.3160793909	0.1428588474	
537.5	0.1228946483	-0.2151075267	
538.125	0.2788653084	0.06381469809	
538.75	0.3588844191	-0.5061243805	
539.375	-0.1082302328	-0.2340841617	
540.0	-0.3658238026	-0.5821462424	
540.625	-0.473452514	0.1714338604	
541.25	-0.07990042021	-0.08765723055	
541.875	-0.1677563596	-0.09040257017	
542.5	-0.1984452588	-0.05674830517	
543.125	0.0151020779	-0.09761220098	
543.75	-0.4445872083	-0.1079483306	
544.375	0.175789496	0.1119395715	
545.0	-0.2197327818	0.2629162936	
545.625	0.3021607776	-0.06445498235	
546.25	0.0101229262	0.3390247141	
546.875	0.4470878992	-0.351980637	
547.5	0.07814992494	-0.02372502531	
548.125	0.06692342544	-0.5742719618	
548.75	-0.5002993041	-0.2384556892	
549.375	-0.1105671067	-0.04575926519	
550.0	-0.3138687365	-0.1142750143	
550.625	-0.01595385263	0.1188100499	
551.25	-0.2900860098	-0.04499233396	
551.875	-0.08731342542	0.2872493934	
552.5	-0.1555427175	0.08101831543	
553.125	-0.02879884832	0.2251176206	
553.75	0.1018039086	0.09053878358	
554.375	0.233114523	0.03387928716	
555.0	0.2533999705	-0.1869856673	
555.625	0.1919108418	-0.2583650774	
556.25	0.1720439852	-0.3353102059	
556.875	-0.08412949962	-0.4140882408	
557.5	-0.2394679575	-0.2454582005	
558.125	-0.2655104118	-0.1045256171	
558.75	-0.2811784564	-0.01506488648	
559.375	-0.2407868239	0.0813243877	
560.0	-0.2346495299	0.1221377963	
560.625	-0.1610704476	0.3145246369	
561.25	0.1001909928	0.2129172427	
561.875	-0.03421242227	0.1194132403	
562.5	0.1479694409	0.1022471387	
563.125	0.04198278695	0.2318717129	
563.75	0.457265027	-0.06079317334	
564.375	0.1276508196	-0.1601707058	
565.0	0.3657659156	-0.3505573708	
565.625	-0.2249221048	-0.4001213956	
566.25	-0.1703997272	-0.1507840404	
566.875	-0.2893959513	-0.3309341176	
567.5	-0.5227155822	-0.214145334	
568.125	-0.1425036514	-0.2175648546	
568.75	-0.6828860479	-0.4165902468	
569.375	-0.4354787017	0.4397770145	
570.0	-0.3934681106	0.1938093038	
570.625	-0.1991252076	0.7461641297	
571.25	0.157521653	-0.02064405765	
571.875	0.02416975457	0.5395278227	
572.5	0.2821863803	-0.3989141462	
573.125	0.1916268388	0.09276174596	
573.75	0.3601054987	-0.5065236284	
574.375	-0.2728041464	-0.1234333162	
575.0	0.3915195223	-0.02504251192	
575.625	-0.2153002023	-0.2962416185	
576.25	0.3208304047	0.03402274565	
576.875	-0.03335451599	-0.6349105004	
577.5	-0.2671830413	-0.2413086205	
578.125	0.1493082504	-0.2621396632	
578.75	-0.2166658064	-0.5356617425	
579.375	-0.3877685963	0.02170714029	
580.0	0.1351671997	-0.1092003477	
580.625	-0.4456259	-0.02146502967	
581.25	0.03385364312	0.02979709084	
581.875	-0.3275128481	0.4841951333	
582.5	0.4653609654	0.4477085282	
583.125	-0.01817612108	-0.1904379124	
583.75	0.1325888429	0.5377825546	
584.375	0.0236251108	-0.3819239044	
585.0	0.2060757898	0.5863156078	
585.625	0.5289500273	-0.3019676501	
586.25	0.04175215255	0.03783336217	
586.875	0.4814767808	-0.4634988917	
587.5	-0.3171336286	-0.1849718746	
588.125	0.2478024584	-0.2546234365	
588.75	0.09728371997	-0.6367378972	
589.375	-0.1226949902	-0.2280352621	
590.0	0.1784068521	-0.4652714084	
590.625	-0.6164036455	-0.1417303857	
591.25	-0.1790701798	0.3244783317	
591.875	-0.1562989025	0.0928423194	
592.5	0.03092719468	0.3329178692	
593.125	-0.2254502039	-0.06869454738	
593.75	0.2855221555	0.3575968822	
594.375	0.2458848631	0.06340423868	
595.0	0.1869058093	0.5083784335	
595.625	0.8785393437	0.207531239	
596.25	-0.0817327008	-0.1245907551	
596.875	0.5499833515	0.4982072105	
597.5	0.5447515972	-0.07168183804	
598.125	0.01614286937	0.3719954892	
598.75	0.7237680032	0.221003731	
599.375	0.2235716926	-0.08213503112	
600.0	0.6538365274	-0.1931472723	
600.625	0.2345176444	-0.6483747248	
601.25	0.07283919499	-0.211768512	
601.875	-0.02622253684	-0.4793169395	
602.5	-0.3604416092	0.03109443299	
603.125	-0.27529941	0.129472206	
603.75	-0.1583579522	0.05501240761	
604.375	-0.4498521975	0.158688785	
605.0	0.09849738725	0.25199631	
605.625	-0.4322127867	-0.03566075515	
606.25	-0.1121485065	0.3853905048	
606.875	-0.3413053963	-0.1464754353	
607.5	-0.6407946836	0.7973669398	
608.125	0.1491235509	0.186684393	
608.75	0.1449667054	0.7773131951	
609.375	0.7242033953	-0.4852134415	
610.0	0.239383105	0.1052544678	
610.625	0.3938913523	-0.6094651667	
611.25	-0.1609394911	-0.1439793829	
611.875	-0.03314119642	-0.6172926705	
612.5	-0.3901925081	0.1770657359	
613.125	-0.4161709314	-0.2248593103	
613.75	-0.2599543784	0.604481059	
614.375	-0.004189996379	-0.08561350951	
615.0	0.3240444064	0.3792923419	
615.625	-0.1552247902	-0.138092744	
616.25	-0.2836820959	0.6380192455	
616.875	0.2101947106	0.326080042	
617.5	-0.5320668325	0.4045605128	
618.125	0.1507016888	0.7408220024	
618.75	0.03315642578	0.1719413504	
619.375	0.1686766663	0.6459765709	
620.0	0.3988403625	-0.05288839162	
620.625	0.4007491265	-0.2535237387	
621.25	-0.3145611268	-0.3804815658	
621.875	-0.319317238	-0.3292652244	
622.5	-0.6251868457	0.2873485017	
623.125	-0.1011219218	0.1996980588	
623.75	0.4092566505	0.3127419832	
624.375	-0.1694497044	-0.235070692	
625.0	0.5099752098	0.0001154606106	
625.625	-0.3639113904	-0.1388624661	
626.25	0.295198786	-0.358893316	
626.875	-0.6370725438	-0.2793999413	
627.5	-0.1537547075	0.13273896	
628.125	-0.1505678795	-0.4376990389	
628.75	-0.3890195441	-0.1494398114	
629.375	0.01492751487	-0.3478607695	
630.0	-0.5866338921	-0.3538275428	
630.625	-0.3013135546	0.2849673676	
631.25	-0.515165943	0.2325349463	
631.875	-0.05860942132	0.7661877964	
632.5	0.3563408106	0.3903691447	
633.125	0.4136952285	0.06768528186	
633.75	0.4203345772	0.09443587989	
634.375	0.01717572975	-0.5988663963	
635.0	0.1458481714	-0.09802629505	
635.625	-0.5208338425	-0.4295213002	
636.25	-0.09673172587	0.346055689	
636.875	-0.5394972955	0.08561908951	
637.5	0.1884148156	0.4748406807	
638.125	-0.2408385257	-0.2011100075	
638.75	-0.4041036866	0.8081059939	
639.375	0.4640001088	0.3362194924	
640.0	-0.1312300392	0.4742093673	
640.625	0.7074562779	0.6529998852	
641.25	0.6590999289	-0.3480027297	
641.875	0.3538696585	-0.01367767797	
642.5	-0.1516847009	-0.9904956096	
643.125	-0.0649905028	0.04211078175	
643.75	-0.3612561199	-0.591722992	
644.375	-0.4646829806	0.4155389873	
645.0	-0.1555843585	-0.07071010764	
645.625	-0.1406631087	0.7916427256	
646.25	0.6983905892	0.126253729	
646.875	-0.09377365836	-0.2341892792	
647.5	0.4059935217	0.5082701069	
648.125	0.03742818936	-0.4463007935	
648.75	0.8932669648	0.4825911541	
649.375	0.4894310977	-1.152111755	
650.0	-0.0599216039	-0.1924005763	
650.625	1.195871371	-0.5859962026	
651.25	-0.03640033734	-1.332073141	
651.875	0.1539200975	0.2497055884	
652.5	1.308384275	-0.05278676697	
653.125	0.4273358027	-0.7496601467	
653.75	0.323864243	0.04391149597	
654.375	-0.1157335439	-1.228750519	
655.0	-0.6804364204	0.1980544641	
655.625	-0.3828178382	-0.1155597016	
656.25	-0.05066349384	0.9441059725	
656.875	0.2553091618	-0.3714940046	
657.5	-0.08897268468	0.6143343114	
658.125	0.5804465147	0.2851752521	
658.75	0.4498809993	-0.01508734588	
659.375	0.9382385729	0.1659303637	
660.0	0.4609459945	-1.221400716	
660.625	0.1438448165	-0.3435834177	
661.25	0.7943866592	-0.6509366116	
661.875	0.2629227476	-1.145214359	
662.5	0.2129161126	0.1197316305	
663.125	1.262033754	-0.5101701227	
663.75	-0.106884351	-0.8663692941	
664.375	0.2560224212	-0.3891162569	
665.0	-0.8686060999	-0.8620237231	
665.625	-0.3396019902	0.4344958847	
666.25	-0.6138617603	0.4545641523	
666.875	0.5473333823	0.6521505183	
667.5	0.1715039871	-0.04810959633	
668.125	0.7061308855	0.364503931	
668.75	0.432197291	-0.651237706	
669.375	0.07258642439	-0.3290935207	
670.0	0.2336518455	-0.4326227632	
670.625	-0.01602337385	-0.7133142434	
671.25	-0.05215018893	-0.1250960265	
671.875	0.544494582	-0.4635332277	
672.5	0.35040939	-0.5577081563	
673.125	0.3559362395	-0.07968596043	
673.75	0.7550073009	-0.7745865142	
674.375	-0.3915052903	-0.5674965242	
675.0	0.3095183985	-0.2649735417	
675.625	-0.6984952198	-0.755387318	
676.25	-0.4769276991	0.4994763933	
676.875	-0.1245242258	-0.5232467213	
677.5	-0.616057801	0.5673863536	
678.125	-0.1385694057	-0.06818049923	
678.75	-0.2226395436	0.9603629415	
679.375	0.6177818681	-0.3609506242	
680.0	0.2275024936	0.2047721225	
680.625	0.4814431591	-0.2786291847	
681.25	-0.02130806238	-0.3670705936	
681.875	0.08394664133	0.4797946373	
682.5	0.7778332926	0.311135314	
683.125	0.5735328531	-0.05075495672	
683.75	0.2945237551	0.08660206741	
684.375	0.9356666038	0.5540503692	
685.0	0.5984521195	-0.602823714	
685.625	0.5794899098	0.6418877387	
686.25	1.160960982	-0.4945739381	
686.875	-0.09570524124	-0.1853013946	
687.5	1.643328428	-0.445308096	
688.125	-1.153971461	-1.407746578	
688.75	0.06251426402	-0.5073812347	
689.375	-1.429594806	1.000325734	
690.0	0.6911154408	0.5541649307	
690.625	-0.03789235152	0.9496548894	
691.25	1.229769776	0.3406125841	
691.875	0.6268926432	0.6857455337	
692.5	1.586207653	0.7621416708	
693.125	1.52023293	-0.4073881779	
693.75	1.268074531	-0.309259344	
694.375	0.9940177528	-1.06262353	
695.0	1.027161877	-0.4118808432	
695.625	1.481568289	-0.6050965142	
696.25	0.5915462656	0.2265150183	
696.875	1.292844065	1.72640334	
697.5	1.214534336	0.2015213009	
698.125	0.9425518895	1.339845997	
698.75	1.341086065	-1.798827005	
699.375	-0.323569301	-0.145061317	
700.0	-1.614300517	0.7792216688	
700.625	0.8697494083	0.4411891722	
701.25	-0.092686885	0.7544297153	
701.875	1.259879373	0.3643081081	
702.5	0.2674183715	0.5239445511	
703.125	1.346035167	0.5517795111	
703.75	0.4825647902	-0.6472220404	
704.375	1.035062044	0.01652035498	
705.0	0.4515247163	-0.8650759404	
705.625	0.1465272596	0.3864662096	
706.25	1.405707213	0.6603054014	
706.875	0.2057502172	0.04621398369	
707.5	0.4883357101	1.400099412	
708.125	1.49146174	-0.09235396259	
708.75	0.5805846264	-0.3802327132	
709.375	-0.7477651324	-1.178207368	
710.0	-0.1716796895	0.6858575226	
710.625	-0.1412568812	0.427291474	
711.25	0.4206127137	0.2545840651	
711.875	0.3443979441	0.2863610893	
712.5	0.8061982983	-0.007683130642	
713.125	0.6121797335	-0.226372038	
713.75	0.4163919639	-0.8861548005	
714.375	-0.2487085237	-0.137337532	
715.0	0.3894760715	-0.9288420124	
715.625	-0.5519571001	-0.3486698075	
716.25	0.8420316626	0.004348464808	
716.875	1.318792818	-1.40953857	
717.5	-0.2345868881	0.08431303996	
718.125	3.021302627	1.093732521	
718.75	2.044273956	-1.993427645	
719.375	0.6076343931	1.063628939	
720.0	2.8999675	-3.781434017	
720.625	-0.9750491882	-1.973102011	
721.25	0.7437515582	-2.38141506	
721.875	-0.6117890864	-3.808551451	
722.5	-1.807387657	-0.8872698613	
723.125	-1.770298434	-1.297106869	
723.75	-0.9764457111	1.589047778	
724.375	0.2258133165	0.6946660361	
725.0	0.09672729965	0.9318439185	
725.625	0.6279767187	1.610672639	
726.25	0.9655280719	0.9743279384	
726.875	-1.309430641	1.574653267	
727.5	-0.794767081	5.312798073	
728.125	3.916628006	4.486636308	
728.75	-7.573904194	5.903282988	
729.375	1.710111279	15.70758655	
730.0	1.618595818	1.059564423	
730.625	-8.565322154	23.56619873	
731.25	8.393056716	12.06961351	
731.875	-8.196831732	-3.105995988	
732.5	-13.9418145	3.619571462	
733.125	-6.99955279	3.564199109	
733.75	-0.601981747	1.351978158	
734.375	2.828739993	2.972814818	
735.0	-0.7884340528	-1.027191689	
735.625	-0.8463839763	-0.3926897737	
736.25	-0.1880987308	2.411778631	
736.875	1.008810493	-0.1083072473	
737.5	2.245098603	2.170709931	
738.125	5.475679444	-1.717918037	
738.75	3.399430422	-6.725722123	
739.375	-1.266994272	0.6107382095	
740.0	23.73468155	2.79496453	
740.625	3.925732077	-21.1364971	
741.25	-17.39621173	13.70896869	
741.875	-14.74748885	12.57752871	
742.5	10.02866149	-3.80645655	
743.125	0.4793818347	-11.7434673	
743.75	-3.775066882	-2.181386498	
744.375	0.3562609298	-0.4566478423	
745.0	-0.2171307741	0.9292365896	
745.625	-0.2185125679	-0.1898745284	
746.25	0.2686494241	-0.5753992196	
746.875	-0.5674521264	0.2171840753	
747.5	-0.1259995671	0.4196632762	
748.125	0.139008539	1.733050622	
748.75	1.37429379	1.252683093	
749.375	0.1042273442	0.6437487059	
750.0	-0.8771847403	0.66422292	
