!Created with skrf (http://scikit-rf.org).
# GHz S RI R (50+0j) 
!freq	ReS11	ImS11	
500.0	-4.742483157	-6.854513906	
500.625	0.9723085932	-1.75449394	
501.25	-0.2780074897	-2.927979791	
501.875	-2.05021992	-1.428613411	
502.5	-0.1373363559	-0.02122225459	
503.125	-0.3328146851	-0.09534969037	
503.75	0.345322129	0.1805464129	
504.375	0.06414258516	0.1143917126	
505.0	-0.04439224541	-0.2194669553	
505.625	0.2604513174	-0.01675807022	
506.25	-0.7295692267	-0.2985144892	
506.875	0.6501290877	-0.3323531194	
507.5	-0.1283718259	-2.274507908	
508.125	-1.332467231	-2.322026614	
508.75	1.694262216	-1.03207134	
509.375	0.117777443	-6.91695852	
510.0	-1.167913195	0.2978414565	
510.625	-0.2473195575	-1.135198761	
511.25	-0.5736703072	0.2881363149	
511.875	-0.3246528322	-0.3780263639	
512.5	-0.127733591	0.2293377955	
513.125	-0.1079259537	-0.3565321085	
513.75	-0.127317878	0.06417278308	
514.375	-0.2190709626	-0.4887750611	
515.0	-0.9129850772	1.360180142	
515.625	0.5648193019	-3.589682298	
516.25	-2.573877974	0.3038815249	
516.875	1.034947656	-1.564392388	
517.5	-0.9210118997	-1.020300222	
518.125	0.3709616821	0.08176996508	
518.75	-0.6712522965	-0.9014358931	
519.375	-0.05231327894	0.1502093684	
520.0	0.2848842561	0.3751658722	
520.625	0.60907023	-0.3572823824	
521.25	-0.1576043605	-0.4357474201	
521.875	-0.4161284016	-0.3718738265	
522.5	-0.03001493232	0.2348875438	
523.125	-0.380104683	-0.02636948927	
523.75	-0.06306466688	0.1161274005	
524.375	-0.6969336269	-0.1120926017	
525.0	0.323099122	0.3071016232	
525.625	-0.1597742143	0.1194017584	
526.25	0.2199922671	-0.09825919913	
526.875	-0.3816202821	0.2695488386	
527.5	0.2626508359	0.5410459397	
528.125	-0.2695495953	0.528705949	
528.75	0.2077821343	1.166464179	
529.375	-0.0167976618	-0.06034386644	
530.0	0.5033682159	0.6318083361	
530.625	-0.2300658375	0.6045796319	
531.25	1.944882389	0.3935692777	
531.875	-0.0535032622	-0.280726682	
532.5	0.1719639448	-0.7383958102	
533.125	-0.2514739084	0.4270848633	
533.75	0.5144857837	-1.052645979	
534.375	-0.4535589579	-0.1889759961	
535.0	-0.5410364989	-0.7779357788	
535.625	-0.3999523768	0.6951749908	
536.25	-0.03041612576	0.09814208517	
536.875	0.3147944452	0.1617730878	
537.5	0.1236253544	-0.2215305792	
538.125	0.3068158053	0.07745932442	
538.75	0.3404950312	-0.5432897889	
539.375	-0.09176674748	-0.2440677529	
540.0	-0.3897438377	-0.6159727309	
540.625	-0.4803541499	0.1643081765	
541.25	-0.09854430904	-0.06766628916	
541.875	-0.1270917307	-0.1182509632	
542.5	-0.2575339742	-0.08029618829	
543.125	0.04103753604	-0.08181666979	
543.75	-0.4602739259	-0.1326233488	
544.375	0.1786139489	0.1027131472	
545.0	-0.2177654804	0.270710387	
545.625	0.2883468441	-0.05714265813	
546.25	0.01974019914	0.3711280125	
546.875	0.4602062079	-0.3476401155	
547.5	0.07513117245	-0.03859607979	
548.125	0.09515991707	-0.5622094131	
548.75	-0.520423663	-0.2764506956	
549.375	-0.1116884257	-0.04105211329	
550.0	-0.3269304526	-0.1183122579	
550.625	-0.006055037993	0.1092663819	
551.25	-0.3124454459	-0.0447916785	
551.875	-0.0915889568	0.2898327805	
552.5	-0.1630812646	0.08069453004	
553.125	-0.04072898378	0.2257224993	
553.75	0.1089826553	0.09889033757	
554.375	0.2294379077	0.04432249737	
555.0	0.2698443834	-0.1873722293	
555.625	0.2059173704	-0.2532341895	
556.25	0.1869743142	-0.3378334561	
556.875	-0.07928941425	-0.417907564	
557.5	-0.2378598833	-0.2571306171	
558.125	-0.2669145794	-0.1135158684	
558.75	-0.2938109032	-0.02777108496	
559.375	-0.2523409267	0.07468186294	
560.0	-0.234335808	0.1271397491	
560.625	-0.177923383	0.3116259956	
561.25	0.09905475117	0.2230686208	
561.875	-0.0391066687	0.1329244331	
562.5	0.1383745531	0.08351326449	
563.125	0.05092499122	0.2652687333	
563.75	0.4599312204	-0.06891075916	
564.375	0.1336081246	-0.1580634775	
565.0	0.37732096	-0.3327478496	
565.625	-0.1954951798	-0.4428082977	
566.25	-0.2133551149	-0.136376036	
566.875	-0.2525933355	-0.3440236387	
567.5	-0.5439642131	-0.2493357134	
568.125	-0.1358989565	-0.238779573	
568.75	-0.7125248846	-0.4172959032	
569.375	-0.429477173	0.4013458057	
570.0	-0.4499588483	0.2160449361	
570.625	-0.2033692541	0.7721512777	
571.25	0.1741103627	-0.03166580471	
571.875	-0.008378401518	0.5432218377	
572.5	0.3388320198	-0.371253994	
573.125	0.1515638379	0.07791956154	
573.75	0.398209992	-0.4962348765	
574.375	-0.2778854743	-0.1160434584	
575.0	0.4158448751	-0.05443863011	
575.625	-0.2273842054	-0.2661493216	
576.25	0.3531513028	0.02090668107	
576.875	-0.02043409768	-0.6554489293	
577.5	-0.267490776	-0.2737606957	
578.125	0.1252949941	-0.2473149361	
578.75	-0.1648775077	-0.5526247874	
579.375	-0.426922359	-0.0001430157039	
580.0	0.153768826	-0.106300167	
580.625	-0.4590831192	-0.02206971233	
581.25	0.02503768282	0.01669806801	
581.875	-0.3513834828	0.4991213519	
582.5	0.4798723059	0.4854117559	
583.125	-0.008453957623	-0.2034584027	
583.75	0.1119258695	0.5566613456	
584.375	0.03611019695	-0.3671674501	
585.0	0.2043411259	0.5951103079	
585.625	0.5365364899	-0.2990930854	
586.25	0.05170990731	0.07131012463	
586.875	0.5152391652	-0.4841472909	
587.5	-0.319979859	-0.2066913019	
588.125	0.2576599632	-0.2258036443	
588.75	0.1468634486	-0.6422505643	
589.375	-0.1137137568	-0.2735145019	
590.0	0.1569391238	-0.4288965221	
590.625	-0.6176834031	-0.2097020304	
591.25	-0.1912256523	0.3126395494	
591.875	-0.1965460122	0.1152376319	
592.5	0.07088939477	0.3131197557	
593.125	-0.2606408315	-0.02832806221	
593.75	0.2878481973	0.3643378357	
594.375	0.2508629602	0.04712761612	
595.0	0.1227139951	0.5271718722	
595.625	0.9342663343	0.2882942624	
596.25	-0.02134978409	-0.1546560178	
596.875	0.5329653207	0.5114355335	
597.5	0.5426850642	-0.06185293448	
598.125	-0.009199847706	0.4461241441	
598.75	0.7708648807	0.1817902528	
599.375	0.210580256	-0.04771110437	
600.0	0.6898469167	-0.1903584963	
600.625	0.3073247642	-0.6608369253	
601.25	0.05167941754	-0.2590795755	
601.875	-0.01857982525	-0.4427767431	
602.5	-0.3340312423	-0.04292684135	
603.125	-0.2923150826	0.1812336416	
603.75	-0.1729307441	0.04263101781	
604.375	-0.4564338392	0.1761376374	
605.0	0.04146966719	0.2161603711	
605.625	-0.4206298037	0.0009222848392	
606.25	-0.1336830727	0.3480615935	
606.875	-0.3636964484	-0.1511874397	
607.5	-0.686642334	0.7828779144	
608.125	0.1403293512	0.1894370272	
608.75	0.1075462032	0.784773397	
609.375	0.7402874568	-0.4449339787	
610.0	0.2490354529	0.09401927098	
610.625	0.4000759079	-0.6321229728	
611.25	-0.1546995573	-0.1406279556	
611.875	-0.02520429581	-0.6454981744	
612.5	-0.3999268168	0.1607104647	
613.125	-0.4389665144	-0.2401063889	
613.75	-0.2694300551	0.600505655	
614.375	-0.0296995609	-0.05546301653	
615.0	0.3423143038	0.3804624427	
615.625	-0.1726306938	-0.1135700744	
616.25	-0.3115552589	0.6440332471	
616.875	0.2041862002	0.3441256758	
617.5	-0.5438227834	0.3871058497	
618.125	0.1102153661	0.7605591588	
618.75	0.06188697529	0.1349112973	
619.375	0.130392456	0.6962242721	
620.0	0.4111665914	-0.04400086965	
620.625	0.4403219867	-0.2646839075	
621.25	-0.3027147157	-0.3980550069	
621.875	-0.3189078771	-0.3512253077	
622.5	-0.6372212764	0.2751230818	
623.125	-0.1222490366	0.2145066895	
623.75	0.4129060718	0.3503551583	
624.375	-0.1799865923	-0.2531089941	
625.0	0.5533710729	0.03200792212	
625.625	-0.3501597583	-0.1824010052	
626.25	0.3208510307	-0.3548662997	
626.875	-0.6217420949	-0.3138731623	
627.5	-0.1496565664	0.1303036427	
628.125	-0.1649111857	-0.5056576185	
628.75	-0.3621424742	-0.1113688265	
629.375	0.05495456388	-0.3936979238	
630.0	-0.6491221156	-0.3730907881	
630.625	-0.3153227791	0.2801309616	
631.25	-0.5030011985	0.1950884187	
631.875	-0.1307497375	0.7488694181	
632.5	0.3500403295	0.5007086979	
633.125	0.43251248	0.05038104094	
633.75	0.432711542	0.1499169154	
634.375	0.02368727181	-0.5693881358	
635.0	0.1767287391	-0.1502625211	
635.625	-0.5193433594	-0.418398793	
636.25	-0.100815821	0.281746196	
636.875	-0.5776024314	0.1218403054	
637.5	0.1708480374	0.4987794505	
638.125	-0.2005896372	-0.247132838	
638.75	-0.4798572057	0.7870308856	
639.375	0.398607736	0.4728774129	
640.0	-0.08216101313	0.3911076741	
640.625	0.6846114313	0.720583011	
641.25	0.6567404103	-0.3254672574	
641.875	0.4501906155	0.02905496814	
642.5	-0.2390729168	-0.9642681251	
643.125	-0.03184176575	0.01570660577	
643.75	-0.3520870053	-0.6236756322	
644.375	-0.5336243149	0.3708919458	
645.0	-0.09533439118	0.05519098165	
645.625	-0.2807699751	0.6622283161	
646.25	0.766617219	0.243039807	
646.875	-0.1072401996	-0.2792762996	
647.5	0.4191143974	0.528994824	
648.125	-0.03280778505	-0.3970766898	
648.75	0.9827233279	0.467277854	
649.375	0.4924641645	-1.146549774	
650.0	-0.04017465615	-0.1873101755	
650.625	1.270339285	-0.545837424	
651.25	0.0690756519	-1.388331343	
651.875	0.1242119087	0.19795616	
652.5	1.28978897	0.04704008967	
653.125	0.5447864173	-0.7350901693	
653.75	0.360452056	0.09029927105	
654.375	-0.0554089395	-1.276991267	
655.0	-0.6902558746	0.1538417392	
655.625	-0.3881918604	-0.1448880425	
656.25	-0.1444372262	0.9472938195	
656.875	0.3360807334	-0.3194268576	
657.5	-0.158919179	0.5937282398	
658.125	0.5835782233	0.3634807723	
658.75	0.4566506474	0.0003958006075	
659.375	0.996481463	0.2141473028	
660.0	0.4639589502	-1.215276289	
660.625	0.2069329854	-0.3341574813	
661.25	0.852214352	-0.6533826694	
661.875	0.3405603455	-1.183951869	
662.5	0.1469960579	0.1039932025	
663.125	1.327520631	-0.3898567939	
663.75	-0.01988100882	-0.9134321949	
664.375	0.2865934644	-0.3980460976	
665.0	-0.8928513308	-0.9323795818	
665.625	-0.3289808524	0.3598922194	
666.25	-0.6915874392	0.4658148405	
666.875	0.5112724054	0.7086003759	
667.5	0.2127927201	-0.06489318196	
668.125	0.6144537433	0.4551433381	
668.75	0.5506446725	-0.6399999208	
669.375	0.08172010916	-0.3954793385	
670.0	0.2443082478	-0.4052699786	
670.625	-0.01015023103	-0.7474717319	
671.25	0.027479064	-0.08956704742	
671.875	0.5319033788	-0.509927479	
672.5	0.3609869383	-0.517796263	
673.125	0.4002446402	-0.04014440032	
673.75	0.8930725256	-0.7203045665	
674.375	-0.4062649616	-0.7131143925	
675.0	0.3347673195	-0.188477922	
675.625	-0.6243396989	-0.8308791984	
676.25	-0.5077810689	0.4588558861	
676.875	-0.1292474411	-0.5608269164	
677.5	-0.6022909569	0.5639795043	
678.125	-0.1798038348	-0.1408344804	
678.75	-0.2628238693	1.044593574	
679.375	0.6513003502	-0.3356083155	
680.0	0.1806844649	0.1941871424	
680.625	0.5303373397	-0.2211998235	
681.25	0.08135594746	-0.3616834308	
681.875	0.06283571921	0.3652710327	
682.5	0.7094204667	0.4594751253	
683.125	0.6589064663	-0.03176006385	
683.75	0.28011355	0.1437586384	
684.375	0.9884777394	0.5500870841	
685.0	0.5214152305	-0.5263920616	
685.625	0.6041564854	0.6916260258	
686.25	1.223107846	-0.4528479548	
686.875	-0.06710150069	-0.200127941	
687.5	1.652836695	-0.2264114938	
688.125	-1.024039483	-1.547120173	
688.75	0.04726863274	-0.4765429805	
689.375	-1.550410405	0.8571392618	
690.0	0.6590321907	0.5995531568	
690.625	-0.07492364884	1.064637723	
691.25	1.247585687	0.3760817097	
691.875	0.5965631475	0.7613984434	
692.5	1.579756929	0.8506056685	
693.125	1.610767866	-0.2649344712	
693.75	1.360183865	-0.2880797112	
694.375	1.025351563	-0.9925984529	
695.0	1.130736412	-0.3676017876	
695.625	1.54420718	-0.5707581084	
696.25	0.5635629926	0.331414473	
696.875	1.177552199	1.79989977	
697.5	1.141422277	0.3850217824	
698.125	0.884428232	1.489462434	
698.75	1.577805614	-1.659578134	
699.375	-0.3694929717	-0.1942208704	
700.0	-1.67000534	0.5440932316	
700.625	0.8836026233	0.5758239537	
701.25	-0.1236801341	0.8120804621	
701.875	1.26242496	0.4178305112	
702.5	0.2480584487	0.5462607326	
703.125	1.404661162	0.6061111995	
703.75	0.5159190621	-0.5670347433	
704.375	1.077778891	0.03882595629	
705.0	0.4785370315	-0.8509339934	
705.625	0.196981098	0.4220834926	
706.25	1.32161962	0.7104729048	
706.875	0.1928124569	0.1112135232	
707.5	0.3270777487	1.40175667	
708.125	1.585235692	0.09843850153	
708.75	0.5920129265	-0.2832083026	
709.375	-0.6750763937	-1.318461777	
710.0	-0.2037636819	0.7178235651	
710.625	-0.2548350072	0.4524150858	
711.25	0.4435503046	0.2627304059	
711.875	0.3922301711	0.3406439982	
712.5	0.7891911213	-0.02630112727	
713.125	0.6678612552	-0.1167015782	
713.75	0.4770670156	-0.9483429019	
714.375	-0.2501626604	-0.1234882182	
715.0	0.4036371719	-0.9623332876	
715.625	-0.5235063858	-0.3236895369	
716.25	0.9038256571	-0.02788114652	
716.875	1.328226446	-1.395693531	
717.5	-0.2293878286	0.248707929	
718.125	3.002061151	1.353465627	
718.75	2.311532429	-1.878483444	
719.375	0.609070293	0.8438768294	
720.0	3.365571316	-3.398985843	
720.625	-0.9299294332	-2.261067213	
721.25	1.050402466	-2.386557633	
721.875	-0.2573190498	-3.689653021	
722.5	-1.69529856	-1.001129965	
723.125	-1.826471833	-1.608021367	
723.75	-1.097088749	1.503008256	
724.375	0.1625135154	0.7749465011	
725.0	0.07383034416	0.8032958597	
725.625	0.4525013625	1.697732881	
726.25	1.084898824	1.129062478	
726.875	-1.47873741	1.629301452	
727.5	-0.6190486528	5.944305573	
728.125	3.301783062	3.473578152	
728.75	-7.777282792	6.538454836	
729.375	3.781974943	18.41021936	
730.0	0.9304014002	1.187915837	
730.625	-11.45972819	22.62834005	
731.25	8.527398377	12.58377431	
731.875	-6.839684339	-3.209811886	
732.5	-13.47210617	1.211796361	
733.125	-7.475896866	2.698537224	
733.75	-1.009929112	1.006486091	
734.375	2.793512205	3.037975835	
735.0	-0.5773415994	-0.968360796	
735.625	-0.8299566631	-0.4924060626	
736.25	-0.4206564863	2.37477676	
736.875	1.384852879	0.0531195994	
737.5	1.581545813	1.970643291	
738.125	6.281002687	-0.4884089403	
738.75	3.823428024	-7.34523469	
739.375	-1.398818073	0.7404939256	
740.0	25.84181472	0.5397582353	
740.625	1.129753098	-14.05803694	
741.25	-35.0017236	24.13461857	
741.875	-2.218955258	17.78312317	
742.5	14.95948534	5.567022682	
743.125	4.024809377	-13.44215417	
743.75	-2.817611159	-2.488748146	
744.375	0.229690752	-0.1467624006	
745.0	-0.4638668166	0.6148194849	
745.625	-0.1973834849	-0.2602760023	
746.25	0.2444965918	-0.4503190326	
746.875	-0.5292094541	0.03851793278	
747.5	0.1137552276	0.4936657988	
748.125	0.1456911603	1.731903404	
748.75	1.062435485	0.9696196519	
749.375	0.5524109913	0.4507642206	
750.0	-0.3587262203	0.9811756286	
