!Created with skrf (http://scikit-rf.org).
# GHz S RI R (50+0j) 
!freq	ReS11	ImS11	
500.0	-0.1858564161	-3.904578745	
500.625	-1.088249063	-2.988278501	
501.25	-0.4077098957	-0.6575876806	
501.875	-0.8877919285	-2.353892	
502.5	-0.4783240231	-0.07148407949	
503.125	-0.2370023371	-0.1027754362	
503.75	0.2945402329	0.2877800476	
504.375	0.02302259227	0.07325295486	
505.0	0.07166242093	-0.2186648937	
505.625	0.03666245657	0.1406204328	
506.25	-0.3048376146	-0.67496039	
506.875	0.03505060966	0.8089845411	
507.5	0.955944768	-1.236795708	
508.125	-0.4236804012	-3.41755143	
508.75	-0.1251747038	-1.145710206	
509.375	0.3166149984	-6.027372346	
510.0	-1.534008752	0.8386694929	
510.625	-0.140064622	-0.8306454051	
511.25	-0.6045952866	-0.02854585529	
511.875	-0.1905155584	-0.01733960974	
512.5	-0.08414345428	0.1281879477	
513.125	0.07185314674	-0.4996915843	
513.75	-0.3950349048	0.08754276458	
514.375	0.0006469217093	-0.3888517879	
515.0	-1.063805921	0.2065027081	
515.625	1.833523526	-2.395866752	
516.25	-3.43485612	-1.562570045	
516.875	0.7248431595	-0.2048181656	
517.5	-0.2166506293	-1.302266887	
518.125	-0.008518406115	0.2831826408	
518.75	-0.1562459106	-0.9140925037	
519.375	-0.1038124333	0.2379310276	
520.0	0.1331303428	0.2373832801	
520.625	0.6906316943	-0.2165350031	
521.25	-0.3382884603	-0.6307086516	
521.875	-0.1899289559	-0.2738499519	
522.5	-0.1675290109	0.2357936403	
523.125	-0.2360169695	-0.00510090501	
523.75	-0.131430813	0.1840428422	
524.375	-0.477626589	-0.2763343213	
525.0	0.1926968591	0.6702573491	
525.625	-0.09056989892	-0.06233319066	
526.25	0.1364455845	0.05498729303	
526.875	-0.3183562261	0.04308094711	
527.5	0.1389482494	0.850258065	
528.125	0.01968821614	0.3195090572	
528.75	-0.1259425116	1.009560239	
529.375	0.1478521117	-0.02018145795	
530.0	0.2263596319	0.8977829455	
530.625	0.2086580905	0.3926656445	
531.25	1.359555511	0.8233079778	
531.875	0.3249760235	-0.7884214627	
532.5	0.2396169666	-0.2856715299	
533.125	-0.3117621159	-0.1575700477	
533.75	0.6226412464	-0.642964446	
534.375	-0.7183630934	-0.5133817995	
535.0	-0.2217398974	-0.445248991	
535.625	-0.6775807053	0.4682016825	
536.25	0.1036480748	0.1688270745	
536.875	0.2145890187	0.1675211721	
537.5	0.1944968974	-0.2158642231	
538.125	0.161953243	0.02409794285	
538.75	0.4941669511	-0.4711806853	
539.375	-0.2167753441	-0.2130870927	
540.0	-0.2171611245	-0.5057650254	
540.625	-0.574730925	-0.03142204451	
541.25	-0.1650765668	0.06603209043	
541.875	-0.01113112039	-0.05965361738	
542.5	-0.2323988765	-0.2031659238	
543.125	-0.08664692465	0.0678828237	
543.75	-0.2975790996	-0.156054361	
544.375	0.01927810293	0.204126632	
545.0	-0.2011187832	0.1019322597	
545.625	0.3324804333	0.1123420461	
546.25	-0.04940676593	0.09199915431	
546.875	0.6278441041	-0.05332858069	
547.5	-0.08624010303	-0.2668088121	
548.125	0.1177724884	-0.3488717531	
548.75	-0.4241053428	-0.4256440525	
549.375	-0.2474227805	0.01682089262	
550.0	-0.213920254	-0.1678591461	
550.625	-0.08962059492	0.154362924	
551.25	-0.1991325817	-0.0800060021	
551.875	-0.2263108197	0.2984317139	
552.5	-0.03242513311	0.1220747934	
553.125	-0.09684064008	0.1738729395	
553.75	0.1460346084	0.1131646019	
554.375	0.2068904206	0.0145314991	
555.0	0.2646149257	-0.1704053603	
555.625	0.1968012133	-0.2661628227	
556.25	0.1724585132	-0.3323073866	
556.875	-0.07985006539	-0.4110579594	
557.5	-0.2477272636	-0.2533977871	
558.125	-0.2669409331	-0.09234549192	
558.75	-0.2617759546	-0.03953172005	
559.375	-0.2885963732	0.06872911831	
560.0	-0.1866168655	0.1598492612	
560.625	-0.1835973483	0.2539273141	
561.25	0.09424341714	0.2703745556	
561.875	-0.03387022886	0.07417102845	
562.5	0.1457176947	0.1465101622	
563.125	0.02937250797	0.1723310694	
563.75	0.4580375507	0.05979448873	
564.375	0.1888927319	-0.3507519094	
565.0	0.1934236891	-0.1862158806	
565.625	-0.01239831718	-0.491216798	
566.25	-0.365894197	-0.1558346965	
566.875	-0.1669600943	-0.2210634076	
567.5	-0.4752911342	-0.3629704473	
568.125	-0.2695408262	-0.182336376	
568.75	-0.5890192253	-0.4257259652	
569.375	-0.5501378412	0.4155356461	
570.0	-0.2161907338	0.2467310295	
570.625	-0.492508891	0.4835970902	
571.25	0.3856523711	0.3490121271	
571.875	-0.2197721757	0.2494807876	
572.5	0.6107212435	-0.1106850713	
573.125	-0.08355381568	-0.1088799768	
573.75	0.4663696361	-0.2159861235	
574.375	-0.2730068248	-0.2933586082	
575.0	0.2915994741	0.1495678052	
575.625	-0.02428258883	-0.4464070405	
576.25	-0.07220790074	0.04271788351	
576.875	0.2865618107	-0.4913120841	
577.5	-0.1992039333	-0.5334291977	
578.125	-0.1276361663	-0.1438681158	
578.75	0.008965711695	-0.4129048573	
579.375	-0.4557157414	-0.2011896649	
580.0	0.1067210895	0.04894540148	
580.625	-0.3784045514	-0.2071456981	
581.25	0.009647327971	0.2755882919	
581.875	-0.264966786	0.1543776696	
582.5	0.1124342071	0.7398942776	
583.125	0.4447898375	-0.1964815197	
583.75	-0.2925820645	0.3137847654	
584.375	0.4638825481	-0.1492993198	
585.0	-0.1256140874	0.3775779536	
585.625	0.7386614677	-0.1440932363	
586.25	-0.003254718595	-0.2005213546	
586.875	0.5252794126	-0.1612532612	
587.5	-0.2337035018	-0.5497427163	
588.125	-0.04029591905	0.004017180263	
588.75	0.3817132983	-0.4003738935	
589.375	0.04354936891	-0.5671089828	
590.0	-0.007101620862	-0.2342882988	
590.625	-0.4881971589	-0.308145522	
591.25	-0.1963272151	0.363671921	
591.875	-0.1490597244	0.1232570762	
592.5	0.02826761668	0.2665801057	
593.125	-0.1068135388	-0.07106461712	
593.75	0.09236262344	0.530103943	
594.375	0.5636238744	0.02662982691	
595.0	0.03499058349	0.1066891923	
595.625	0.5028330734	0.7153258276	
596.25	0.4309145802	-0.3306569521	
596.875	0.1335367907	0.4414993159	
597.5	0.7036217112	0.1205311193	
598.125	-0.06592125287	0.1208409546	
598.75	0.7293437624	0.5310733239	
599.375	0.2962291862	-0.3079398762	
600.0	0.389087026	-0.08775075001	
600.625	0.5614936501	-0.4577491265	
601.25	0.02260010884	-0.5432555229	
601.875	-0.09445831034	-0.2705101281	
602.5	-0.2860959821	-0.09436758813	
603.125	-0.3127233355	0.09360881554	
603.75	-0.1447493873	0.1230995019	
604.375	-0.2986230811	0.1052957049	
605.0	-0.1567778842	0.2621241639	
605.625	-0.2062821556	-0.03098190989	
606.25	-0.3949972438	0.3581286276	
606.875	-0.09568003774	0.04307288432	
607.5	-0.8755697322	0.3295732162	
608.125	0.3658055778	0.6621498634	
608.75	0.02565502668	0.4030944414	
609.375	0.9258715547	-0.06240999779	
610.0	-0.02254473764	-0.2191392277	
610.625	0.5531869053	-0.3214959026	
611.25	-0.2857360626	-0.3722588401	
611.875	0.1144072647	-0.2889784677	
612.5	-0.635434018	-0.1396520276	
613.125	-0.216591563	-0.05195457643	
613.75	-0.4609244393	0.4667160272	
614.375	0.1905521163	0.09048584834	
615.0	0.02041699274	0.4029023609	
615.625	0.1450261627	-0.1087014606	
616.25	-0.4048423017	0.3952671151	
616.875	0.02471469022	0.6644040934	
617.5	-0.2074063277	0.156863032	
618.125	-0.1700658898	0.7889325853	
618.75	0.2620637462	0.3130043212	
619.375	-0.01657945009	0.4345445492	
620.0	0.5727143034	0.0351775522	
620.625	0.2473205328	-0.2103336468	
621.25	-0.2675502945	-0.526322194	
621.875	-0.3834914157	-0.1392619874	
622.5	-0.6044206101	0.0577450224	
623.125	0.0772068215	0.3373081891	
623.75	0.1817843979	0.3131523278	
624.375	0.06995491675	-0.365588737	
625.0	0.1908559192	0.2810697188	
625.625	-0.005675338187	-0.6544643499	
626.25	0.07549866495	0.01563633982	
626.875	-0.4529934727	-0.5364054777	
627.5	-0.3790045348	0.1933315485	
628.125	0.03513495418	-0.3152445132	
628.75	-0.5012327155	-0.346367784	
629.375	0.0237950527	-0.182577175	
630.0	-0.4726856215	-0.4480125419	
630.625	-0.6348586564	0.2893236328	
631.25	-0.1665444638	0.3469989326	
631.875	-0.2238110446	0.5384945415	
632.5	0.343539737	0.5387271772	
633.125	0.5075133674	0.05570994876	
633.75	0.3018651516	-0.01329832373	
634.375	0.1894083235	-0.508042655	
635.0	0.03698637535	-0.1905688463	
635.625	-0.3733954794	-0.3817657125	
636.25	-0.33258773	0.3630904586	
636.875	-0.09395125278	-0.05002277142	
637.5	-0.3914130913	0.6317848104	
638.125	0.2739253485	0.007081121342	
638.75	-0.6040656063	0.2548347003	
639.375	0.1898837141	0.8726217915	
640.0	0.316335258	0.212121448	
640.625	0.4536427412	0.7436542951	
641.25	0.8214432317	-0.3017159543	
641.875	0.2898019212	-0.05958404827	
642.5	0.2522737691	-0.912767827	
643.125	-0.5098836158	0.1359880987	
643.75	0.05834429096	-0.3516439073	
644.375	-0.7515562958	-0.03069909648	
645.0	-0.1604921688	0.5202210083	
645.625	-0.03187697335	0.1509785903	
646.25	0.5476111866	0.5942607743	
646.875	0.1171779266	-0.391322483	
647.5	0.09629551896	0.4727828371	
648.125	0.4592324259	-0.3484483179	
648.75	0.3734231451	0.4575266373	
649.375	0.9881453157	-0.9547771462	
650.0	-0.2588717826	-0.8589388122	
650.625	0.5279940593	0.08859122686	
651.25	1.083844098	-1.053346248	
651.875	-0.1310368505	-0.6732198122	
652.5	0.6877621671	0.3738689134	
653.125	0.959347925	-0.6962038439	
653.75	0.02366770863	-0.214304775	
654.375	0.403081292	-1.068555565	
655.0	-1.002781866	0.03088453236	
655.625	-0.01066756738	0.2649935448	
656.25	-0.4393286204	0.4526499508	
656.875	0.5628462499	0.2763978848	
657.5	-0.3654114809	0.07883520615	
658.125	0.5751136452	0.6131615712	
658.75	0.6474438489	-0.04524470447	
659.375	0.5519798032	0.02077984811	
660.0	0.9376144128	-1.003718351	
660.625	-0.1746481067	-0.6385323491	
661.25	0.6513379545	-0.3111384213	
661.875	0.8544715267	-0.9141947236	
662.5	0.08339761622	-0.7716540843	
663.125	0.7625448839	0.2321210996	
663.75	0.3938265538	-1.230288328	
664.375	-0.1645418913	-0.27982768	
665.0	-0.5176785054	-1.007731974	
665.625	-0.6914729856	0.6794028753	
666.25	-0.3278492646	0.1830265675	
666.875	0.1879536556	0.796395044	
667.5	0.6573869743	0.02820046969	
668.125	0.1409012472	0.05620662749	
668.75	0.829256888	-0.2564506582	
669.375	-0.01905458617	-0.6133875824	
670.0	0.1117701425	-0.323201727	
670.625	0.09439952659	-0.6752047429	
671.25	-0.1363258706	-0.2309500712	
671.875	0.5872672587	-0.3979695603	
672.5	0.4379279525	-0.54455463	
673.125	0.2050936532	-0.3888113669	
673.75	0.56726575	-0.08974538864	
674.375	0.2578748151	-1.219226662	
675.0	-0.4948960385	0.07052248197	
675.625	-0.1124685169	-0.8270651407	
676.25	-0.8410325634	0.2055708434	
676.875	0.2860277948	-0.2344544404	
677.5	-1.009060709	0.274428458	
678.125	0.2053445194	0.1200464742	
678.75	-0.4243215778	0.577190807	
679.375	0.9709776378	0.2866125794	
680.0	-0.01579414877	-0.5020710622	
680.625	0.3316621472	0.221280916	
681.25	0.4217683852	-0.2408354777	
681.875	0.1484833695	-0.08559439218	
682.5	0.3837446982	0.5038210424	
683.125	0.8644251029	0.008920217965	
683.75	0.4333845156	0.136497165	
684.375	0.6117305116	0.4010859767	
685.0	1.026537503	-0.2581426164	
685.625	-0.003520640678	0.1707531312	
686.25	1.435514946	0.2318269692	
686.875	0.1945943364	-1.081928974	
687.5	0.7101338424	0.18027171	
688.125	0.1310578981	-1.933979341	
688.75	-0.6633407807	0.4762431212	
689.375	-1.42359162	0.1487745806	
690.0	0.7947900954	1.056260347	
690.625	-0.08616355589	0.3176089661	
691.25	1.349023816	1.100506591	
691.875	0.9429509313	0.3389391384	
692.5	1.225200866	0.6812664244	
693.125	1.716086909	-0.02911597782	
693.75	1.343110597	-0.6698788088	
694.375	1.105785607	-1.015678271	
695.0	0.8570411467	-0.5247893692	
695.625	1.579814294	-0.1854211255	
696.25	0.9758836015	-0.03303906757	
696.875	0.5248558378	1.381580624	
697.5	1.756637214	0.9352676781	
698.125	0.5573740949	0.5560787473	
698.75	1.94499198	-1.102122577	
699.375	-1.518452633	-0.3878418657	
700.0	-0.9316004582	-0.1010089967	
700.625	0.6981898566	1.160839122	
701.25	0.1295820359	0.1369575137	
701.875	0.9585713393	1.153277572	
702.5	0.6912272577	0.05754034177	
703.125	0.8893507264	0.6723686553	
703.75	1.062498905	-0.6389647002	
704.375	0.3437353213	-0.03784223928	
705.0	1.118762027	-0.7035966106	
705.625	0.1628311885	-0.1825943461	
706.25	0.5760041264	0.9661106957	
706.875	1.070456553	0.3350187056	
707.5	0.02389933112	0.8793711028	
708.125	1.579838151	0.4418581943	
708.75	0.2294887513	-0.8736431231	
709.375	-0.2761930926	-1.1117349	
710.0	-0.4801834423	0.9712703658	
710.625	-0.003822960372	0.1130953026	
711.25	0.3188046064	0.4835709025	
711.875	0.4355115514	0.2656257316	
712.5	0.8434052719	-0.158824581	
713.125	0.4443810588	-0.2921722003	
713.75	0.5881363565	-0.6251820944	
714.375	-0.3702810872	-0.6123739658	
715.0	0.4139567143	-0.2860017126	
715.625	-0.3623090902	-0.8854995473	
716.25	0.2079277486	0.003282478886	
716.875	1.655869921	-0.410530665	
717.5	0.9557075868	-1.37385742	
718.125	0.7697675695	1.916543501	
718.75	3.5220573	-0.8560893886	
719.375	0.7495009328	-1.51470031	
720.0	2.637187607	-0.5182487166	
720.625	0.1160014779	-4.106876327	
721.25	0.3604335177	-1.293809508	
721.875	-0.1841809603	-3.534596156	
722.5	-2.44734335	-1.744851452	
723.125	-0.9810263798	-0.3076778359	
723.75	-1.651003289	1.074228519	
724.375	0.5244582498	1.168437104	
725.0	0.3451217241	0.6455635148	
725.625	0.03973052035	1.164251048	
726.25	0.8405417045	2.416096829	
726.875	0.09793454397	0.8916090875	
727.5	-1.717646978	4.716763233	
728.125	2.132694976	6.12211501	
728.75	-1.814918044	0.367888413	
729.375	-7.894218188	20.38276599	
730.0	7.135429357	6.49237087	
730.625	-7.595998581	5.333272144	
731.25	-9.044349676	15.82346359	
731.875	1.541951457	9.340266781	
732.5	-10.34882335	-3.938269561	
733.125	-8.165006946	2.259096383	
733.75	-0.6123077581	3.286826814	
734.375	1.081910585	2.71248916	
735.0	-1.034813695	-2.234152547	
735.625	-0.3911698973	-0.1076450161	
736.25	-0.8915405795	1.486678411	
736.875	1.825344423	1.754224156	
737.5	1.897290209	-1.163695583	
738.125	3.390427764	1.904298191	
738.75	7.555065363	-6.297738414	
739.375	-0.6337374173	-6.131683359	
740.0	11.9534516	10.4127569	
740.625	24.94392436	-17.32955621	
741.25	-13.18038707	-1.591807	
741.875	-17.08728846	14.08160053	
742.5	-3.410023265	8.292925571	
743.125	8.822938762	-2.393457553	
743.75	-0.2018556667	-6.515507053	
744.375	-0.9238343733	0.6116172406	
745.0	-0.300499132	0.1231289801	
745.625	0.1987893487	-0.352711444	
746.25	0.2825159992	-0.2047593836	
746.875	-0.4123761467	0.1993607297	
747.5	-0.09768350868	0.7989151278	
748.125	0.01280108495	1.202699956	
748.75	1.088998908	1.577571097	
749.375	0.727893219	0.8244313649	
750.0	-0.5011144069	0.9721831777	
