!Created with skrf (http://scikit-rf.org).
# GHz S RI R (50+0j) 
!freq	ReS11	ImS11	
500.0	0.028647316	-0.3775393811	
500.625	0.7184313461	-0.8210802159	
501.25	-0.7397842324	-0.3998976173	
501.875	0.01812358735	-0.3021789305	
502.5	-0.04862528191	-0.1686122795	
503.125	-0.03798367463	0.01902963507	
503.75	-0.04116703943	0.07688808053	
504.375	0.02723770515	-0.03647824766	
505.0	0.01320914467	0.01324149505	
505.625	0.0001007437886	-0.08441626264	
506.25	-0.01043761175	0.03999162431	
506.875	-0.2927556874	-0.1094296202	
507.5	-0.2678316103	-0.02057744526	
508.125	0.3997593754	-0.3688528767	
508.75	0.5631947724	-1.110147092	
509.375	0.0436772881	-0.6081585607	
510.0	-0.1085612932	-0.2838560093	
510.625	-0.1818237717	-0.1962432239	
511.25	-0.01911833213	-0.0006938693332	
511.875	-0.1022281473	-0.09749835282	
512.5	0.0006829416377	0.04369534013	
513.125	-0.002737331751	-0.01218601649	
513.75	-0.06798751013	-0.08478877544	
514.375	-0.02505707689	0.0827371235	
515.0	0.1113538674	-0.2229463354	
515.625	-0.125472239	0.199539415	
516.25	0.3402799229	-0.5712856984	
516.875	-0.4534396711	-0.334001575	
517.5	-0.07197676041	0.005063793232	
518.125	-0.03911807514	-0.07463385516	
518.75	-0.0591732988	-0.03183618509	
519.375	-0.04263057968	0.001949661053	
520.0	0.1150558684	0.07758562559	
520.625	0.1115427226	-0.05280484487	
521.25	-0.008293062186	-0.1606198732	
521.875	-0.103649147	-0.05918044916	
522.5	-0.01533348223	0.08181072509	
523.125	-0.04946656777	-0.06489734715	
523.75	-0.1561768001	0.07711055713	
524.375	0.01494396622	0.002033930457	
525.0	-0.1723842006	0.142307791	
525.625	0.127240715	0.02864402818	
526.25	-0.07683141807	0.03568395	
526.875	0.02201775351	0.04395972194	
527.5	-0.1058427048	0.07836861237	
528.125	0.1002763056	0.287986864	
528.75	0.0788413389	0.1000430514	
529.375	-0.0157758655	0.08760425266	
530.0	0.1455107774	0.1116598211	
530.625	-0.04826399932	0.1616703251	
531.25	0.1734882631	0.1947343955	
531.875	0.1054150481	-0.2306393997	
532.5	0.08123584093	-0.04817373809	
533.125	0.0181394943	-0.1579269783	
533.75	0.0641628611	-0.01848423495	
534.375	-0.09814043178	-0.3326112532	
535.0	-0.1866648117	-0.006228981185	
535.625	-0.1267181071	0.02579833543	
536.25	-0.006462330951	0.1148301007	
536.875	0.05703086765	-0.01912210175	
537.5	0.08510040592	-0.006974395166	
538.125	0.09005906627	-0.1104260988	
538.75	0.0900648798	-0.06660418343	
539.375	-0.05336321776	-0.1942313664	
540.0	-0.1994409155	-0.07852752197	
540.625	-0.07123453731	-0.04133449931	
541.25	-0.04701073136	-0.0463574476	
541.875	-0.02923255444	0.02465739373	
542.5	-0.0106948214	-0.08770477213	
543.125	-0.1168807328	-0.001858936812	
543.75	0.02706835924	0.02945014767	
544.375	-0.0878942183	0.06014063047	
545.0	0.03303796404	0.02225808384	
545.625	-0.02011784304	0.1009337696	
546.25	0.1280944702	-0.004373537273	
546.875	0.03744187283	-0.008671191939	
547.5	0.1075869067	-0.1263812395	
548.125	-0.09010804997	-0.128041317	
548.75	-0.04438051895	-0.06964476741	
549.375	-0.1183554765	-0.102171115	
550.0	-0.05648541692	0.04558565767	
550.625	-0.0479848735	-0.03071722363	
551.25	-0.06427653201	0.06066686627	
551.875	-0.054105646	0.02894250833	
552.5	-0.0567429423	0.08625804595	
553.125	0.005656886804	0.05032386531	
553.75	0.02759720174	0.04846216736	
554.375	0.08819318171	-0.01009742473	
555.0	0.08263713577	-0.05947618502	
555.625	0.0834322848	-0.0928581136	
556.25	0.05597836386	-0.129301664	
556.875	-0.03488933309	-0.1373461525	
557.5	-0.08663976115	-0.09326595995	
558.125	-0.1094126534	-0.03830187112	
558.75	-0.09836349258	0.001181759432	
559.375	-0.09572124456	0.01454482028	
560.0	-0.09806670791	0.07483158067	
560.625	-0.02444763861	0.104409749	
561.25	-0.01492393401	0.07769965179	
561.875	0.05169849128	0.05618222286	
562.5	-0.01155128456	0.02477182407	
563.125	0.08540557626	0.09435873371	
563.75	0.1102437476	-0.03327572803	
564.375	0.1273576622	-0.04829310343	
565.0	0.06756356013	-0.1745552931	
565.625	-0.068289513	-0.09493017376	
566.25	-0.05779662394	-0.1339080545	
566.875	-0.2078725679	-0.05253348937	
567.5	-0.0675246123	-0.05700303698	
568.125	-0.140711733	-0.2055334845	
568.75	-0.2143590882	0.0002392778203	
569.375	-0.1602310451	-0.01153715854	
570.0	-0.172975861	0.2341351103	
570.625	0.04224019016	0.1454965434	
571.25	-0.06120675678	0.07045223054	
571.875	0.1486001747	0.07590186493	
572.5	0.01946900554	0.008357347694	
573.125	0.1649238281	-0.1137278259	
573.75	-0.03519593635	-0.145705867	
574.375	0.06612769376	0.03853805495	
575.0	0.03724104278	-0.1243035514	
575.625	-0.001776819828	0.01132321861	
576.25	0.121057586	-0.1163073772	
576.875	-0.07155705266	-0.154949564	
577.5	-0.005656835275	-0.057678778	
578.125	0.06138745625	-0.2050138717	
578.75	-0.1661902677	-0.1048533985	
579.375	0.03288864619	0.03956878183	
580.0	-0.07860302851	-0.1376311301	
580.625	-0.0247388844	0.07044014406	
581.25	-0.1396749968	-0.02176519388	
581.875	0.1052050243	0.2470255651	
582.5	0.09259481337	0.01926922162	
583.125	-0.02359199684	0.1034619528	
583.75	0.147280983	0.001329233487	
584.375	-0.09143407459	0.06370351151	
585.0	0.1917644627	0.07719777935	
585.625	0.09062000453	-0.07236323518	
586.25	0.1330541221	0.03300445374	
586.875	0.06235862342	-0.211823356	
587.5	-0.04588566466	-0.04580932377	
588.125	0.0598616179	-0.1466002708	
588.75	-0.02560538422	-0.1920074689	
589.375	0.00572585879	-0.03902874508	
590.0	-0.002832285167	-0.2456186297	
590.625	-0.2022655247	0.04689991499	
591.25	-0.05344465228	-0.00705570363	
591.875	-0.1191568817	0.1526538395	
592.5	0.135738145	-0.006867656544	
593.125	-0.1299932062	0.09139930392	
593.75	0.1102377534	0.02337132248	
594.375	0.03027109383	0.1366343523	
595.0	0.2004633374	0.160986907	
595.625	0.1749731512	-0.03257177565	
596.25	0.1051886285	0.1193140023	
596.875	0.2209327365	0.03835762854	
597.5	0.08048055991	0.01717977507	
598.125	0.07281818914	0.1526284207	
598.75	0.2406014314	0.06300222707	
599.375	0.1337545665	-0.02779488809	
600.0	0.1967819942	-0.08947543043	
600.625	0.1220761315	-0.2335830646	
601.25	-0.0200721036	-0.1189707749	
601.875	0.01810661856	-0.1856478647	
602.5	-0.1825554959	0.05339837745	
603.125	-0.01468596471	0.001031160017	
603.75	-0.2251743748	0.07495338666	
604.375	-0.03354490732	0.1579543898	
605.0	-0.1861281643	-0.01202787291	
605.625	-0.1100741727	0.1463605642	
606.25	-0.002923910752	0.0503926855	
606.875	-0.2230586523	0.006045576545	
607.5	-0.08150756299	0.1882331955	
608.125	-0.02594458683	0.1363886765	
608.75	0.1671477679	0.1664307667	
609.375	0.2543310522	-0.1146404166	
610.0	0.1520047254	-0.1507299601	
610.625	0.15888038	-0.1620476866	
611.25	-0.0994313328	-0.1614934939	
611.875	0.01665937904	-0.07757343258	
612.5	-0.2043771114	-0.1366522865	
613.125	-0.1117203521	0.1464983086	
613.75	-0.1133653098	0.02419663705	
614.375	0.08701127371	0.2031703109	
615.0	0.03406382603	-0.07455550352	
615.625	-0.001944657866	0.1798313185	
616.25	0.0866162326	0.1170001034	
616.875	-0.1159339056	0.1339458854	
617.5	-0.05567694672	0.2761548784	
618.125	0.05406081201	0.2114963851	
618.75	-0.04359896156	0.1335284608	
619.375	0.05882061275	0.1401160921	
620.0	0.2071245898	0.02015675154	
620.625	0.1242065297	-0.07857887338	
621.25	-0.1228280373	-0.2415558759	
621.875	-0.2482746064	0.02328320127	
622.5	-0.1466196974	-0.0308694248	
623.125	-0.09439321479	0.2634110558	
623.75	0.1186986962	-0.03362236651	
624.375	0.06195545285	0.04290678193	
625.0	-0.02090836973	-0.0936291849	
625.625	0.06115574833	-0.01422894981	
626.25	-0.05150951479	-0.1967594131	
626.875	-0.1505717144	0.0008967568382	
627.5	-0.05467132228	-0.08579898863	
628.125	-0.1348617064	-0.07368437502	
628.75	-0.06321954523	-0.04714274735	
629.375	-0.02623758619	-0.1827332657	
630.0	-0.1956263686	-0.1243850906	
630.625	-0.1700403373	0.1257659775	
631.25	-0.1603245408	0.1539687322	
631.875	0.02095874285	0.2716818382	
632.5	0.1220854659	0.1106372493	
633.125	0.09768939568	0.1311013025	
633.75	0.2096761074	-0.147345198	
634.375	0.01418874579	-0.05761201155	
635.0	0.07292478561	-0.2028054814	
635.625	-0.1829065192	-0.02642690453	
636.25	-0.05026321934	0.01834564138	
636.875	-0.1448459085	0.1539794276	
637.5	0.05485876359	0.07995317189	
638.125	-0.1302668611	0.02270639844	
638.75	-0.04450991535	0.2453048458	
639.375	0.03480578935	0.1204513607	
640.0	0.0527512477	0.2824327949	
640.625	0.2973941784	0.1522060303	
641.25	0.1761277793	-0.05818919527	
641.875	0.2297579751	-0.08468981187	
642.5	-0.09418622579	-0.2711066287	
643.125	-0.04681399607	-0.02599868557	
643.75	-0.06183743077	-0.2377771154	
644.375	-0.2053253916	0.1192432959	
645.0	-0.1162163776	0.007421067185	
645.625	-0.02545732254	0.4166676417	
646.25	0.2424044611	-0.09856571202	
646.875	-0.02375326259	0.1161627654	
647.5	0.200731642	-0.008326732236	
648.125	-0.06579715879	0.03562272002	
648.75	0.3700922623	-0.005588591735	
649.375	0.08786504996	-0.3753508845	
650.0	0.08780016698	-0.1278281916	
650.625	0.2853422412	-0.2819391963	
651.25	0.06287230188	-0.3344599686	
651.875	0.1281179974	0.01398661716	
652.5	0.386377717	-0.07505633843	
653.125	0.157996585	-0.2094218932	
653.75	0.192714634	-0.06520753089	
654.375	-0.04707917469	-0.4259549958	
655.0	-0.2773924048	0.04378465594	
655.625	-0.08213376642	-0.0204341662	
656.25	-0.01767800607	0.2863051292	
656.875	0.1946928963	-0.2036811726	
657.5	-0.08174125141	0.2335197842	
658.125	0.2402279245	0.09046282346	
658.75	0.09611327471	0.03400378237	
659.375	0.473168361	-0.02331412861	
660.0	0.1025164322	-0.4000656992	
660.625	0.09063809136	-0.1533318882	
661.25	0.2549480445	-0.3134604206	
661.875	0.1233828537	-0.3354691025	
662.5	0.1481792604	-0.06511124299	
663.125	0.3531654466	-0.1903683166	
663.75	0.02971599663	-0.298305451	
664.375	0.04345189911	-0.2182987418	
665.0	-0.2745736153	-0.2878384074	
665.625	-0.2496993561	0.2050968321	
666.25	-0.1155385279	0.1295463632	
666.875	0.1311564667	0.2896937874	
667.5	0.1847031058	-0.03722578175	
668.125	0.1407100086	0.1540915716	
668.75	0.2264234495	-0.2322375963	
669.375	-0.04828501065	-0.0717437343	
670.0	0.1289478916	-0.1751313047	
670.625	-0.07701171629	-0.2837120933	
671.25	-0.006001131472	-0.03747474023	
671.875	0.249835283	-0.2590840148	
672.5	0.1196904291	-0.2209388631	
673.125	0.1265436766	-0.08318295494	
673.75	0.2574452674	-0.2071576706	
674.375	-0.1013824781	-0.2457814241	
675.0	0.02221975652	-0.1360183609	
675.625	-0.2102526012	-0.2082376658	
676.25	-0.1889587453	0.08219683411	
676.875	-0.04890823628	-0.07719943232	
677.5	-0.2673787264	0.05687729761	
678.125	0.001138448635	0.1312220768	
678.75	-0.09252641977	0.1544019004	
679.375	0.3767132547	0.1520091594	
680.0	-0.03861759083	-0.1795492913	
680.625	0.1451466011	0.05754626483	
681.25	0.09048617167	-0.2585177804	
681.875	-0.07799074046	0.08792227546	
682.5	0.4797329616	0.2186979455	
683.125	0.2320330686	-0.1760354024	
683.75	0.09682874081	0.1489331135	
684.375	0.3701525574	0.1184803146	
685.0	0.2022278074	-0.1406772626	
685.625	0.119213432	0.1815709639	
686.25	0.468355799	-0.07537014766	
686.875	0.1354271607	-0.1644009025	
687.5	0.3009697335	-0.1602009518	
688.125	-0.05041398874	-0.5706285192	
688.75	-0.3183264322	0.02721752666	
689.375	-0.3362154481	0.1416147306	
690.0	0.1639886755	0.4559652882	
690.625	0.1834202847	0.02339201394	
691.25	0.2093395544	0.4512447881	
691.875	0.6207256813	0.06213975329	
692.5	0.3364167065	0.1329873727	
693.125	0.8912886054	0.08241229942	
693.75	0.549794111	-0.4643793164	
694.375	0.1845579995	-0.2173360512	
695.0	0.5754261509	-0.3186109314	
695.625	0.3567837925	-0.196986453	
696.25	0.3622095238	0.1145770124	
696.875	0.416887679	0.5004541767	
697.5	0.4744219193	0.2309044431	
698.125	0.3245264212	0.2717174486	
698.75	0.4094737027	-0.312867826	
699.375	-0.4916269242	-0.2775451132	
700.0	-0.1503095559	0.1663285094	
700.625	0.02980112249	0.3861776932	
701.25	0.2631686677	-0.002311400717	
701.875	0.09920083223	0.2407632229	
702.5	0.4588402952	0.3034502779	
703.125	0.3302559536	-0.07586442131	
703.75	0.4325700587	0.04445610403	
704.375	0.3469321995	-0.2756819005	
705.0	0.07583642276	-0.1901204412	
705.625	0.274518051	0.1003035499	
706.25	0.2174885611	0.07101128163	
706.875	0.1134129135	0.1766603785	
707.5	0.1937169164	0.3964809122	
708.125	0.3893542218	0.1865474405	
708.75	0.1777639075	-0.3397183205	
709.375	-0.160042052	-0.3625158794	
710.0	-0.1894425681	0.2602506604	
710.625	0.1162330094	0.01005833231	
711.25	0.02529966456	0.26157353	
711.875	0.2091177959	-0.03350559619	
712.5	0.2253835557	0.09752387838	
713.125	0.3325961052	-0.1981504703	
713.75	0.01602501649	-0.2585646615	
714.375	0.07764077167	-0.1585904156	
715.0	-0.03436047637	-0.2921906626	
715.625	-0.0712166082	-0.107754268	
716.25	0.2276678134	-0.1291784042	
716.875	0.3237711329	-0.2408835073	
717.5	0.2318338823	-0.08095125277	
718.125	0.6107636101	0.1963673732	
718.75	0.7854405084	-0.005755873294	
719.375	0.3111314184	-0.2587103937	
720.0	0.5132790927	0.05038674163	
720.625	0.002468912506	-1.002322308	
721.25	-0.1715623798	-0.1993570642	
721.875	0.1236558692	-1.12409806	
722.5	-0.8303656289	-0.5415596191	
723.125	-0.4072348695	-0.154006141	
723.75	-0.7091729199	0.3890841207	
724.375	0.209289108	0.3967511068	
725.0	-0.014001766	0.2238608672	
725.625	0.1474773591	0.5859511847	
726.25	0.275400522	0.437914982	
726.875	-0.2619848438	0.6116057847	
727.5	-0.2411685666	1.462465608	
728.125	0.5258054586	1.480315177	
728.75	-0.6698440871	1.510983554	
729.375	-1.316679932	3.737300577	
730.0	1.107581927	2.593895108	
730.625	-0.3807680364	1.565009141	
731.25	-1.255165795	3.868480856	
731.875	-0.2348378825	2.460853634	
732.5	-2.840901475	-0.1124859908	
733.125	-3.121953519	0.7263750373	
733.75	-0.1040282884	1.258821041	
734.375	0.02284965264	0.7264444076	
735.0	-0.1415404594	-0.9399277594	
735.625	-0.05390739592	0.08341453525	
736.25	-0.3574051318	0.4884970442	
736.875	0.7178497035	0.4769769584	
737.5	0.4117894996	-0.0789518605	
738.125	1.772638777	0.3769470128	
738.75	1.553865668	-1.98699491	
739.375	0.4309476454	-1.138377398	
740.0	3.140136354	0.9453441806	
740.625	5.276411568	-2.649585665	
741.25	-1.265428262	-0.9173767705	
741.875	-5.167522806	0.8057950747	
742.5	-1.945295803	-0.3798156519	
743.125	1.205715698	-0.6565642731	
743.75	-0.03168779311	-1.364040789	
744.375	-0.3276583542	0.1653563843	
745.0	-0.1039828432	-0.02362158856	
745.625	0.1400223635	-0.1505870041	
746.25	0.06088756553	-0.0556001404	
746.875	-0.2849831587	-0.02519792761	
747.5	0.04394771843	0.3099119414	
748.125	0.08507306141	0.3189053	
748.75	0.2336351494	0.5212488893	
749.375	0.2422191757	0.3936754626	
750.0	-0.2469639318	0.1727324783	
