!Created with skrf (http://scikit-rf.org).
# GHz S MA R 50.0 
!freq magS11 angS11
500.0 0.0168364312048 155.588209033
500.625 0.0122821678963 115.643388206
501.25 0.0106828529367 173.690506085
501.875 0.02512762488 -173.736948097
502.5 0.0242985818405 172.08906005
503.125 0.0173411803438 121.595066862
503.75 0.0102398456142 91.4172114671
504.375 0.0242286307986 -70.2883924817
505.0 0.00243807512755 -3.81989436785
505.625 0.0261602123658 -78.0308531539
506.25 0.0507500826217 -106.048863017
506.875 0.0826256943096 -94.6746394156
507.5 0.0403101857931 -137.600072111
508.125 0.0413742430418 -101.800495746
508.75 0.0661009535072 -125.684752822
509.375 0.0661911283121 -130.570877913
510.0 0.033737076398 -130.841380903
510.625 0.0261718869959 -166.960106462
511.25 0.0562296992518 -178.177048809
511.875 0.0664494561361 147.902887972
512.5 0.0343000499667 83.2665323222
513.125 0.049083854126 36.0108325624
513.75 0.0604920472688 35.3940107743
514.375 0.0485532518802 19.4553627351
515.0 0.0580066962729 1.22391415599
515.625 0.0993680177445 47.711272435
516.25 0.09287634011 27.508026756
516.875 0.125767074716 67.9885655859
517.5 0.111017158975 15.7096413424
518.125 0.211353853682 69.4036305669
518.75 0.100572894132 12.5067176331
519.375 0.0569633515806 11.6860894964
520.0 0.092532423263 -6.37479936673
520.625 0.110953893731 -6.64242868232
521.25 0.0938741805655 -24.3398099629
521.875 0.0755658284292 -0.838397159447
522.5 0.100017731578 -35.9831733399
523.125 0.195706895603 -35.5216003593
523.75 0.220298238792 -58.1700720842
524.375 0.235679871525 -50.3531615743
525.0 0.0791832908298 -46.6299232275
525.625 0.0418123204105 -48.4365056202
526.25 0.0601915297418 -11.7266562196
526.875 0.0422886748446 -38.7489604007
527.5 0.0492898634464 -34.5521045949
528.125 0.0412267433982 -70.0808405893
528.75 0.0711163659164 -76.2303113566
529.375 0.0721990777309 -123.078687904
530.0 0.0436193009718 -142.569375262
530.625 0.0377052793179 -149.379116928
531.25 0.131649680834 -146.158439687
531.875 0.139052915285 -151.892702407
532.5 0.131693574626 -174.861477873
533.125 0.0973548878757 168.822337503
533.75 0.134066673528 160.491728563
534.375 0.0939511865007 172.914306049
535.0 0.0939347751012 158.462344876
535.625 0.0703886672815 171.417184675
536.25 0.0743493261549 154.909271652
536.875 0.0700284763454 -163.658388787
537.5 0.0908408240791 -145.907331274
538.125 0.1056938625 -177.362784166
538.75 0.121592870354 175.552201234
539.375 0.0626811504331 -169.298232709
540.0 0.0907848126691 -159.785452233
540.625 0.126382715766 -161.634585902
541.25 0.143739716432 -147.799187015
541.875 0.0929074823998 -146.912125867
542.5 0.106002174691 -144.578586727
543.125 0.131225852692 -171.498492161
543.75 0.14655880651 155.290893126
544.375 0.088625562196 131.006406249
545.0 0.0937651704567 85.3800805394
545.625 0.108086579251 76.2724624506
546.25 0.097805916304 62.7530742591
546.875 0.0988097853403 48.7067033794
547.5 0.113382810035 53.3100562844
548.125 0.117793383396 73.7912776925
548.75 0.104471751286 85.4137014401
549.375 0.0815404427974 82.182379773
550.0 0.0951041912345 118.850936275
550.625 0.0515986946956 143.491024323
551.25 0.039824262255 -151.136174254
551.875 0.0557697534911 -157.895544176
552.5 0.105243398006 -168.414659057
553.125 0.0867024413223 -171.92122002
553.75 0.0943656992675 -178.253061712
554.375 0.102068826636 165.200878504
555.0 0.126141663542 158.978627606
555.625 0.103463290277 152.936326014
556.25 0.100802614592 157.787215817
556.875 0.128062348824 158.660233899
557.5 0.108088338412 163.836148411
558.125 0.0949943157171 162.039997511
558.75 0.0873001695249 173.592099465
559.375 0.060087828351 -178.986286692
560.0 0.045535074348 -154.861664646
560.625 0.0584368706951 -151.055554097
561.25 0.0894449236581 -158.773591234
561.875 0.103236557318 -167.148187211
562.5 0.0939621233913 168.608132898
563.125 0.103143725614 140.672150908
563.75 0.141524135305 122.136625391
564.375 0.0987851416729 119.844965989
565.0 0.088388067004 116.819370586
565.625 0.0866788866805 110.553964827
566.25 0.102755381467 142.790738912
566.875 0.0823045047407 170.917431198
567.5 0.0717229894902 178.484053337
568.125 0.0797585016949 -174.899213656
568.75 0.0683004005256 -152.227241716
569.375 0.054159349067 -128.117267745
570.0 0.0579713698539 -105.504437517
570.625 0.0915936800173 -123.54912247
571.25 0.091144790558 -125.93719565
571.875 0.0887258128783 -136.812886825
572.5 0.109501422931 -158.910410281
573.125 0.139761549362 -177.647711292
573.75 0.103309401695 158.409998842
574.375 0.0888284371472 139.420108594
575.0 0.107711928722 146.344870983
575.625 0.113308870657 148.215187573
576.25 0.0931476820218 139.367704645
576.875 0.0739500263336 129.37686068
577.5 0.086786106756 126.274327873
578.125 0.066841407241 149.40032381
578.75 0.0506019847788 155.151772665
579.375 0.0574625837547 146.644930077
580.0 0.0666668641981 -179.193796622
580.625 0.0771308126581 -153.440478497
581.25 0.0869962420276 -169.519378633
581.875 0.113674480384 170.99182815
582.5 0.112578216194 -173.455194272
583.125 0.0955732795711 -173.249321214
583.75 0.0782877992346 -170.773351276
584.375 0.105930503519 -172.843203408
585.0 0.0932364452315 -147.711787036
585.625 0.0735508396586 -147.648489331
586.25 0.068077251785 -144.010107306
586.875 0.0845777738825 -152.043393451
587.5 0.0724554953057 -141.394780245
588.125 0.0581547522313 -177.472609145
588.75 0.0639553776363 -168.701902108
589.375 0.0796603493249 -171.626415845
590.0 0.0917803237078 -168.375954219
590.625 0.104468891996 161.575355601
591.25 0.117727883394 149.267449977
591.875 0.104415500502 150.186674148
592.5 0.0687607924235 139.848209985
593.125 0.0642211507129 144.686475627
593.75 0.0625849589067 165.262735388
594.375 0.0625026599305 -175.874985491
595.0 0.0477970228961 -110.018743398
595.625 0.0548265017821 -111.440848481
596.25 0.0679753963911 -95.3836626768
596.875 0.0675092446109 -80.087497518
597.5 0.0583015388613 -73.4053979477
598.125 0.0674687760998 -64.33277339
598.75 0.0768798205511 -70.7913698467
599.375 0.0764824044731 -78.9280679112
600.0 0.110642117369 -61.8237576557
600.625 0.104339757738 -63.8725324131
601.25 0.0818977442047 -77.2767511099
601.875 0.069708875259 -106.185658404
602.5 0.0616913367114 -86.5952846441
603.125 0.0471886902475 -69.278643538
603.75 0.0290826290448 -59.60731267
604.375 0.0366338711084 -34.8420512145
605.0 0.0489712580332 -41.6460285492
605.625 0.0626924799128 2.69537763265
606.25 0.0332279257081 15.9102750534
606.875 0.0327828825969 42.2857628576
607.5 0.0339757363762 33.2686834387
608.125 0.0740107495921 27.7222597532
608.75 0.0497884319712 10.8972696353
609.375 0.0598722971543 21.9619222626
610.0 0.0570022727588 27.7692362296
610.625 0.0761955595297 43.7406497799
611.25 0.0623602555569 36.8130568545
611.875 0.0387352711372 41.303828696
612.5 0.0124922658778 -7.16743858017
613.125 0.0329858029988 123.188435655
613.75 0.043606106514 117.904365677
614.375 0.0291227907791 113.190102955
615.0 0.0269333519153 106.608210359
615.625 0.0260677250749 128.933533137
616.25 0.0438656938711 132.028903879
616.875 0.0411680422766 120.082282853
617.5 0.0227821540624 104.772493912
618.125 0.0377734422457 126.558946423
618.75 0.0239020267703 141.300191662
619.375 0.00535911472313 114.114819245
620.0 0.0185730797581 -33.8746251379
620.625 0.0196207272034 -179.231650361
621.25 0.0393893478145 -107.121105859
621.875 0.0641409516335 -103.982952112
622.5 0.0701409702512 -155.598968694
623.125 0.0651197207199 -179.133413836
623.75 0.0577816105001 168.753818145
624.375 0.0344140526492 -163.192221381
625.0 0.0361525140148 -147.225779771
625.625 0.0237869307307 -130.331549138
626.25 0.0437830025856 174.238339325
626.875 0.0115297986679 158.161892448
627.5 0.0245541137538 -28.6897846374
628.125 0.0579352337978 -7.34100030959
628.75 0.0302338482576 -59.8085156625
629.375 0.0383371109514 -23.1237223283
630.0 0.0754863815048 -11.1455389124
630.625 0.087680803859 18.8363042289
631.25 0.0694608797963 1.15716725218
631.875 0.0648599735013 -18.0099779462
632.5 0.0624539833809 -9.50839228629
633.125 0.0594493070429 25.3624094999
633.75 0.0411085387234 -11.6775453694
634.375 0.0417873509726 7.00394415747
635.0 0.0466948858427 30.618827539
635.625 0.0380238321489 38.693663277
636.25 0.068363441054 42.8702212335
636.875 0.0539931704138 15.6945191665
637.5 0.0414699510027 33.0507104285
638.125 0.0357309565974 49.8218114934
638.75 0.0987063294268 72.2813093916
639.375 0.0838687521656 81.060156173
640.0 0.0712191262328 98.9529986988
640.625 0.0596488935077 92.135488684
641.25 0.0751250609843 120.034175379
641.875 0.0520802385738 125.965979717
642.5 0.0489496184464 151.511869889
643.125 0.0593382927377 156.432060474
643.75 0.0907700140567 169.763585072
644.375 0.0561673314359 170.310047017
645.0 0.068664202267 173.335895821
645.625 0.0902377822486 158.543423728
646.25 0.112417526779 163.579741166
646.875 0.0739849909578 169.406451533
647.5 0.0725604575647 176.940650858
648.125 0.0929040067974 177.506767599
648.75 0.0815375384599 -166.864771845
649.375 0.0606719793028 -152.305063704
650.0 0.0512217360509 -128.606343863
650.625 0.0628848999851 -94.8798895618
651.25 0.0726296053027 -70.5482738996
651.875 0.0751507303458 -49.4240041331
652.5 0.0688961682789 -26.4484360542
653.125 0.108931119141 -7.59089367938
653.75 0.114642508476 2.77670009527
654.375 0.0997119666113 1.7598822417
655.0 0.115132279136 7.32782289266
655.625 0.113525137377 22.3999256693
656.25 0.0665881051081 17.4002691287
656.875 0.0820533478243 1.41574463212
657.5 0.0673958319591 9.84514050952
658.125 0.0650467353388 39.0180263542
658.75 0.051114637021 56.9044700517
659.375 0.0917320947425 27.731599168
660.0 0.102365594752 21.3390269446
660.625 0.111322787939 12.8709400578
661.25 0.105179610052 -1.71914717808
661.875 0.130409739247 -18.3712837228
662.5 0.105317695558 -27.4038247539
663.125 0.10172914649 -19.6383196861
663.75 0.0952628567459 -1.59557419441
664.375 0.121864803243 46.9738061934
665.0 0.0777443265921 87.0082546852
665.625 0.0729792611797 103.571900798
666.25 0.0886436021343 121.034693835
666.875 0.103249172465 163.339258706
667.5 0.101379217783 -176.178669291
668.125 0.107178572853 174.792634805
668.75 0.132254084153 161.583013958
669.375 0.14688943702 169.298468593
670.0 0.0920503470886 -175.710127986
670.625 0.0920682469552 -177.834964981
671.25 0.113761260969 167.479128488
671.875 0.120971453172 158.79793274
672.5 0.0634056090001 151.450537119
673.125 0.0804071084328 148.766903208
673.75 0.115946996241 150.360780383
674.375 0.114335110273 163.539504485
675.0 0.116128296216 178.332698167
675.625 0.134816498848 -157.230074333
676.25 0.132204509397 -132.696170404
676.875 0.122374772794 -126.161361178
677.5 0.129197377662 -134.503738471
678.125 0.131846619478 -123.079461987
678.75 0.0747052813602 -102.814594719
679.375 0.0619134173481 -89.8775087024
680.0 0.0691270703947 -80.2537828339
680.625 0.112809385008 -83.1173632014
681.25 0.105496105011 -84.2073958185
681.875 0.101351452094 -101.335868264
682.5 0.137991410035 -127.417160179
683.125 0.16348048913 -126.387546247
683.75 0.143709827648 -109.545671232
684.375 0.117732505725 -84.4736984654
685.0 0.147362605212 -49.7271529459
685.625 0.12558704854 -6.12636958249
686.25 0.108064633485 17.0337523701
686.875 0.0854488567147 38.5130989718
687.5 0.0897305590594 66.2581968535
688.125 0.0741016389981 108.90384136
688.75 0.0948490490539 109.108629517
689.375 0.130231011481 114.092575215
690.0 0.142893420158 124.62671657
690.625 0.116506489627 123.694770136
691.25 0.138747457573 92.9507636433
691.875 0.201969164759 57.2084029802
692.5 0.159524151805 31.4770484564
693.125 0.10225859201 -25.8004099904
693.75 0.0879337301623 -40.1032755835
694.375 0.12954762923 -33.529224983
695.0 0.123491310782 6.05287183166
695.625 0.106724174192 44.6680913753
696.25 0.109126641915 111.534735591
696.875 0.138384875827 164.658955588
697.5 0.144023180025 -151.287339814
698.125 0.142797438833 -139.144109828
698.75 0.133763615871 -137.612620086
699.375 0.108585265683 -127.69815013
700.0 0.0908818087912 -117.634550323
700.625 0.122627717586 -108.578230777
701.25 0.0975745421835 -66.6467477358
701.875 0.0828138766251 -66.8561717268
702.5 0.09367915837 -87.7808652884
703.125 0.164303507526 -133.68666267
703.75 0.199742664065 -167.023855827
704.375 0.135157391904 165.519459493
705.0 0.109271092764 156.112822297
705.625 0.139864799896 -174.278960184
706.25 0.163405534341 -130.110221489
706.875 0.0885879090168 -60.0863561861
707.5 0.077895098752 -44.5473638038
708.125 0.0850080931825 9.4974789272
708.75 0.109954040423 44.8002170834
709.375 0.106854561561 108.692099552
710.0 0.10095519661 122.38511522
710.625 0.105871939644 144.274473202
711.25 0.11573768779 157.819896214
711.875 0.145679678323 165.934836874
712.5 0.15126332053 141.775508295
713.125 0.125062159968 97.1132974008
713.75 0.111949862077 32.8838118278
714.375 0.113971932497 6.44678496903
715.0 0.120174797728 14.2572534208
715.625 0.0870308058312 41.3390374211
716.25 0.0776015865498 70.1891489998
716.875 0.100175103384 83.2913690088
717.5 0.152857988591 151.396128281
718.125 0.120585836963 159.447155573
718.75 0.094781678031 162.652359343
719.375 0.112570406516 -179.627336798
720.0 0.124819747727 -146.153086789
720.625 0.11621979283 -82.1378987098
721.25 0.0978840377072 -33.3953000568
721.875 0.0902924269398 2.90253662409
722.5 0.0835614294735 79.7749498726
723.125 0.0915821036146 69.6020939908
723.75 0.100844246878 38.3305915382
724.375 0.100908725728 -15.4908245766
725.0 0.0899762973881 -49.4552055687
725.625 0.0985261426094 -73.1868648967
726.25 0.125568020279 -68.6397610064
726.875 0.10415868887 -58.469391264
727.5 0.0786049930226 -58.2607988988
728.125 0.101955513599 5.27144668829
728.75 0.0879143663176 13.3611816812
729.375 0.0731604455623 15.0492952975
730.0 0.0600702401259 -11.8989088718
730.625 0.047316063741 -4.73592868229
731.25 0.0658556149994 58.8002819684
731.875 0.0637189597674 101.296386771
732.5 0.0711421711855 142.219524713
733.125 0.0554516776263 149.221780734
733.75 0.0732553657187 161.121275091
734.375 0.0371818311589 152.800687522
735.0 0.0403071392553 112.895867791
735.625 0.0637409546733 143.186489224
736.25 0.0293673824359 144.119057496
736.875 0.0299414346828 176.247139531
737.5 0.0623493560518 174.317063009
738.125 0.0622184172321 178.066177858
738.75 0.0739950654236 177.72392542
739.375 0.0428771318792 172.19321897
740.0 0.0421164112142 -154.872820147
740.625 0.0197454603946 -108.396893912
741.25 0.0800735669711 -160.590699821
741.875 0.0409936037651 -117.57040647
742.5 0.0147758305449 4.07951951607
743.125 0.0237377276406 120.864227356
743.75 0.0615232488791 70.9603671584
744.375 0.0452808548965 93.4434394452
745.0 0.0599010508943 114.438684108
745.625 0.072945545322 146.349506319
746.25 0.0847688661566 68.3270442366
746.875 0.0628500321084 44.539911766
747.5 0.0269663800913 23.6161117046
748.125 0.0191551991896 -5.64791404886
748.75 0.0273098627438 50.0715117278
749.375 0.0493483947283 -73.6035981786
750.0 0.032699267155 -118.236583272
