!Created with skrf (http://scikit-rf.org).
# GHz S MA R 50.0 
!freq magS11 angS11
500.0 0.0138142471748 123.844271419
500.625 0.00913430643762 113.274454898
501.25 0.00889951928446 -167.823401607
501.875 0.0252402554734 -178.525099058
502.5 0.0278073792638 154.674996157
503.125 0.0196323134318 111.283066685
503.75 0.0100454967597 108.051526693
504.375 0.0238650739878 -67.5323419994
505.0 0.00571412487078 21.6334663576
505.625 0.0253705851242 -71.9051223924
506.25 0.0518977397547 -107.086466385
506.875 0.0824974402491 -94.4156181694
507.5 0.0395446245474 -138.270002359
508.125 0.0413890733804 -100.732269589
508.75 0.0644046155697 -125.796437426
509.375 0.0640861272997 -130.014904745
510.0 0.0372086406798 -127.41338099
510.625 0.0248601030132 -164.010731884
511.25 0.0572223902254 -179.105986486
511.875 0.0658443496844 152.504135687
512.5 0.0336566406383 83.1023828664
513.125 0.0491188556684 35.9487750567
513.75 0.0612721230989 39.6062799025
514.375 0.0449145177175 18.9465880378
515.0 0.0572311665427 3.35069964555
515.625 0.100043063006 46.2358655726
516.25 0.0936354950397 27.2297572615
516.875 0.126088525055 67.4200428817
517.5 0.111587869057 15.9756652012
518.125 0.209805733228 69.8587817057
518.75 0.0988413382421 12.9524255603
519.375 0.054388949086 10.1342953001
520.0 0.0922048628643 -6.61463894728
520.625 0.111165524883 -7.54751207586
521.25 0.091330255701 -25.1813493612
521.875 0.0753296561927 -1.87488844619
522.5 0.0992313923065 -36.6708984346
523.125 0.190597404283 -34.8419009687
523.75 0.217145433231 -58.2942835495
524.375 0.23192593099 -49.5566736341
525.0 0.0774078651317 -44.5964519279
525.625 0.0374755466624 -47.4835586842
526.25 0.0597069605761 -9.68460749305
526.875 0.0412528720086 -38.0367897547
527.5 0.048344160343 -31.9509341946
528.125 0.039866799628 -66.9880673758
528.75 0.0717814816266 -74.3413851591
529.375 0.0700709054299 -123.788483595
530.0 0.0414847940005 -138.608110579
530.625 0.0393583597938 -145.994914887
531.25 0.133732073588 -144.464082723
531.875 0.138010341546 -151.084333837
532.5 0.128629497059 -173.115320525
533.125 0.096464750455 170.227495617
533.75 0.134628645835 161.75228661
534.375 0.0919219997225 173.057774329
535.0 0.0914964963455 160.376272172
535.625 0.069802312961 172.793440147
536.25 0.0745501280039 157.189423515
536.875 0.0695693140035 -162.155515034
537.5 0.090810332907 -144.339619509
538.125 0.105961878248 -175.392960003
538.75 0.120519350155 177.546224205
539.375 0.0615013266046 -167.028633358
540.0 0.0904571906233 -156.480320552
540.625 0.126228478489 -159.606256423
541.25 0.142667440009 -146.133053425
541.875 0.0933943809843 -144.47167817
542.5 0.106137788451 -142.189446887
543.125 0.132437952639 -169.144825127
543.75 0.14510125298 157.3195807
544.375 0.0859590963539 132.763484547
545.0 0.0917405879556 87.8279572525
545.625 0.106473267989 79.379673848
546.25 0.0959081714361 65.3555874444
546.875 0.0972393563847 51.2087464154
547.5 0.111884832074 55.5128166581
548.125 0.117077921742 75.0595824646
548.75 0.103139553021 86.7114321006
549.375 0.0794489991699 83.5414595888
550.0 0.09150697745 120.490578005
550.625 0.050719501894 144.227700807
551.25 0.0402011233336 -147.756963568
551.875 0.057327872752 -153.588355818
552.5 0.106618208406 -165.054154781
553.125 0.0860191282497 -170.299903091
553.75 0.0949021859585 -178.201504288
554.375 0.102093502168 166.164452979
555.0 0.125129603167 160.722479969
555.625 0.104020394602 154.013279838
556.25 0.100509769749 160.023515913
556.875 0.128013221183 160.295755381
557.5 0.106876264333 165.365973183
558.125 0.0937700554979 163.907099064
558.75 0.0856283040295 175.2838247
559.375 0.0573794089103 -177.248272953
560.0 0.044899051225 -152.098183801
560.625 0.0588217578417 -150.059977362
561.25 0.0902879963735 -157.3863324
561.875 0.102058909235 -165.521062716
562.5 0.0938934912336 170.522395945
563.125 0.101857217783 142.70432269
563.75 0.140991307117 123.699262478
564.375 0.0961329051534 121.838372196
565.0 0.0866494017374 119.29803102
565.625 0.08538189117 110.627800207
566.25 0.10198212567 144.803057504
566.875 0.08141434513 173.01342768
567.5 0.071278180038 -179.687008688
568.125 0.0791509088665 -173.133459593
568.75 0.0667932199081 -152.968273132
569.375 0.0537461925192 -125.521647438
570.0 0.0586343962339 -104.081102418
570.625 0.0910965475232 -122.813386695
571.25 0.0911364526703 -124.107452883
571.875 0.0891501800905 -135.376442457
572.5 0.108882939732 -158.018723316
573.125 0.139521570675 -175.720679417
573.75 0.102716112249 160.190983128
574.375 0.0882340587061 140.729291239
575.0 0.107040434244 148.78921785
575.625 0.113555841898 149.391567307
576.25 0.0921101010954 140.922730225
576.875 0.0725965625134 131.660712295
577.5 0.0870334160212 129.436436103
578.125 0.064347498078 152.180663416
578.75 0.0496304783609 156.980747432
579.375 0.0573829732755 148.164156817
580.0 0.0661672835509 -178.649846654
580.625 0.0778637274676 -152.198182005
581.25 0.0875920106422 -168.099526538
581.875 0.114394215993 172.413587133
582.5 0.112141073785 -171.413169024
583.125 0.0948429902608 -170.951478418
583.75 0.0791666275746 -168.463312133
584.375 0.10591248894 -171.118193646
585.0 0.0944411235038 -144.214688949
585.625 0.0722405037485 -144.930518093
586.25 0.0682727200177 -142.981821792
586.875 0.0853551418784 -150.596544915
587.5 0.0717292426468 -139.511266665
588.125 0.0590049601258 -174.876395814
588.75 0.0669122077628 -163.965815781
589.375 0.0802397468591 -169.584001198
590.0 0.0940397481507 -165.721320715
590.625 0.106515107698 162.661809896
591.25 0.11837338386 151.038132062
591.875 0.101554510882 150.532026847
592.5 0.0659178021313 141.77450375
593.125 0.0625453520836 145.490804982
593.75 0.063158557452 170.77720487
594.375 0.0621304708298 -173.580693929
595.0 0.0485430039106 -106.987532718
595.625 0.0566145497435 -107.132228276
596.25 0.0672157320813 -92.578855301
596.875 0.0680535090916 -78.0854552952
597.5 0.0575134180585 -68.5924787821
598.125 0.0667636717455 -61.5290683558
598.75 0.0770760406705 -68.9352793274
599.375 0.0773968244847 -77.7560459785
600.0 0.110406041442 -60.7976213257
600.625 0.105455500926 -62.5946501993
601.25 0.0835556410166 -75.6565757554
601.875 0.0692738943324 -104.839400614
602.5 0.0602130670677 -82.1361582505
603.125 0.0462594296716 -63.8208195723
603.75 0.0291293504825 -52.513684671
604.375 0.0373148071618 -32.4610001132
605.0 0.0487973007579 -40.3597909412
605.625 0.0627253238651 3.51405664754
606.25 0.03359839047 19.003030397
606.875 0.0339403749633 44.5309118017
607.5 0.0351495106571 34.0097298783
608.125 0.0751013206793 29.9259091679
608.75 0.0523676467029 13.6854053167
609.375 0.0620928209126 24.953125837
610.0 0.0571501048763 28.3283769724
610.625 0.0744983100336 43.9368422363
611.25 0.0633723751101 36.8596678348
611.875 0.0381339267498 42.8649499789
612.5 0.0121120845828 -5.77695066729
613.125 0.0371201072092 122.049595935
613.75 0.0446700826849 122.401188474
614.375 0.0333897468982 112.703727876
615.0 0.0263533461132 107.671499222
615.625 0.0282403849552 134.524416348
616.25 0.0448478226939 134.933603417
616.875 0.0382285069134 124.328317314
617.5 0.0232455204219 104.895413366
618.125 0.0396868547038 135.754318793
618.75 0.0253348879482 147.692734041
619.375 0.00895383739365 127.113100109
620.0 0.0188508158434 -31.8175563001
620.625 0.0223317270675 -178.226622446
621.25 0.0405157708656 -112.013082873
621.875 0.0681764169881 -103.822423567
622.5 0.0665034139734 -155.180717206
623.125 0.0682392247 179.552871946
623.75 0.058634897423 168.589279628
624.375 0.0356376229506 -167.702055454
625.0 0.0373768803168 -149.868806547
625.625 0.0228942706832 -130.53777002
626.25 0.0420727278633 175.670129371
626.875 0.0131483379577 153.034712701
627.5 0.0254167547416 -28.8752283846
628.125 0.0581300515579 -6.31103397345
628.75 0.0316040092532 -60.3088853675
629.375 0.0376970000714 -23.2132179195
630.0 0.0705403877079 -8.36411579966
630.625 0.086649987469 19.4775668343
631.25 0.0689134087039 1.71980655917
631.875 0.0637344403662 -18.7149718991
632.5 0.0608975482784 -8.14491631453
633.125 0.0584840519627 26.4448174954
633.75 0.0427592344353 -13.3307505379
634.375 0.0401233709763 9.18702145894
635.0 0.0436108114618 32.6589855813
635.625 0.0375666923761 37.7285508709
636.25 0.0687564549106 44.5651367449
636.875 0.0577354341625 16.5102093337
637.5 0.0420562732025 29.7544224911
638.125 0.0339594312727 50.5895956052
638.75 0.0991265373361 73.3308962731
639.375 0.0837203512087 80.5665027997
640.0 0.0704300112525 100.475106009
640.625 0.0579342366366 93.6930608139
641.25 0.0744432772707 122.368228537
641.875 0.0516826547228 125.750137268
642.5 0.0490255332758 151.318591007
643.125 0.0588152181641 156.99511253
643.75 0.0909037117674 171.353834097
644.375 0.0555457657158 170.055956345
645.0 0.067438790518 173.30217022
645.625 0.0903556999227 157.869569727
646.25 0.11161914903 165.009397839
646.875 0.0732806926518 169.91244455
647.5 0.0709972133719 179.007859815
648.125 0.0944419485934 177.241540949
648.75 0.0794189410105 -165.010560095
649.375 0.0578120879499 -149.574381517
650.0 0.0502288148043 -127.358293057
650.625 0.0621848551074 -93.2346417989
651.25 0.0719019938629 -68.6570284873
651.875 0.0755142278624 -48.2532482776
652.5 0.0709350281467 -25.8948985335
653.125 0.108171581722 -6.46812331099
653.75 0.113541690612 3.70464344902
654.375 0.0990522881325 2.04931409027
655.0 0.114114184656 7.85608262882
655.625 0.109130447007 23.3603384528
656.25 0.0651105499429 17.8794633505
656.875 0.0821963407087 1.98463821964
657.5 0.0669665540991 12.7906581432
658.125 0.0612284741752 42.6608976855
658.75 0.0498892453927 59.3450535194
659.375 0.0930485592964 29.30209572
660.0 0.100597643494 21.0268693768
660.625 0.111809720902 14.6252036861
661.25 0.103397422686 -0.693108081063
661.875 0.130424491947 -17.4072058632
662.5 0.103944245608 -26.5925914426
663.125 0.101471188378 -17.4988939495
663.75 0.0932906785962 -1.35156196952
664.375 0.120808075839 48.3917568704
665.0 0.0775036110377 88.2721425439
665.625 0.0694299566841 105.888139909
666.25 0.0894506767962 124.187511995
666.875 0.0992525179411 164.412432688
667.5 0.100930397375 -174.817818176
668.125 0.10841228436 175.301263817
668.75 0.132351966507 162.913395051
669.375 0.145359520344 170.49436847
670.0 0.089734553931 -175.470636169
670.625 0.0912259033834 -176.088859088
671.25 0.114206694825 169.102506563
671.875 0.119814698006 160.732086608
672.5 0.0617918222935 153.897758188
673.125 0.0819507720099 150.000008529
673.75 0.115957963966 151.680534885
674.375 0.114131715261 166.567509683
675.0 0.115706095908 -179.650722917
675.625 0.133147415089 -155.777538006
676.25 0.132880561414 -131.660546755
676.875 0.120807043027 -125.272655101
677.5 0.129350410022 -133.550885622
678.125 0.132930273168 -121.561532864
678.75 0.0726142269864 -99.0064156998
679.375 0.0616829753864 -87.242379301
680.0 0.0691463749076 -77.9201103673
680.625 0.110961069309 -80.4840030304
681.25 0.10179112826 -81.2796119649
681.875 0.102263868031 -100.36024674
682.5 0.135532350793 -126.434283998
683.125 0.161203385646 -127.67517854
683.75 0.144740612491 -109.307201934
684.375 0.118192528781 -81.7550334917
685.0 0.146956529865 -48.2094913146
685.625 0.1258008992 -3.9978737665
686.25 0.104404535701 19.040106145
686.875 0.084693393382 42.4698416107
687.5 0.0898002475182 68.6792696186
688.125 0.0751274482228 109.731544152
688.75 0.0962439020323 111.824002792
689.375 0.130357339821 116.952141528
690.0 0.142411179744 125.394543314
690.625 0.116113529122 125.747677792
691.25 0.140061890243 94.7058205328
691.875 0.201676602088 60.3740819986
692.5 0.156260705558 33.4617411184
693.125 0.101312610152 -23.6540897874
693.75 0.0873178583119 -38.7497512664
694.375 0.127137441715 -31.9178311062
695.0 0.12454301132 9.36401309416
695.625 0.105637176863 45.404515852
696.25 0.109220216033 114.094698319
696.875 0.136582081485 165.553387105
697.5 0.144729259351 -149.413959001
698.125 0.142004154324 -137.665733784
698.75 0.133292696884 -134.278473698
699.375 0.107622664866 -125.60404497
700.0 0.0909870941951 -115.385407772
700.625 0.122447345309 -106.359526135
701.25 0.0944565612423 -63.7769096302
701.875 0.0817270233796 -65.3260677179
702.5 0.0923533331195 -85.8053751205
703.125 0.166030671854 -132.280577536
703.75 0.199680050795 -165.286902403
704.375 0.133348811 166.744231335
705.0 0.109347113886 157.841705837
705.625 0.139973447958 -171.034414614
706.25 0.161717797146 -127.24927751
706.875 0.0864173812707 -57.0570863862
707.5 0.0772336494007 -40.2409401741
708.125 0.0859404498097 13.6447568625
708.75 0.111421133266 47.1384551821
709.375 0.106397765305 110.871134456
710.0 0.101211847447 124.895757524
710.625 0.107184682247 144.794205954
711.25 0.116312883822 159.589360937
711.875 0.146544891388 168.496084747
712.5 0.151727371082 144.454201953
713.125 0.123354812651 100.106754972
713.75 0.110390605459 34.8565136708
714.375 0.11191670364 9.55010104265
715.0 0.117565993599 15.900040812
715.625 0.0875515053832 41.6360812213
716.25 0.0782005807448 72.3263365747
716.875 0.101731908667 85.3635018754
717.5 0.153004882245 154.057998835
718.125 0.120839305803 162.223867129
718.75 0.0972461062643 166.834798622
719.375 0.115383986118 -178.527302717
720.0 0.126551186578 -144.157506917
720.625 0.116173026695 -81.3061580799
721.25 0.0924518232832 -31.3945566444
721.875 0.0895439514685 4.87537798048
722.5 0.0841595433219 83.4635188293
723.125 0.0913748342053 74.5433856215
723.75 0.105267055586 40.039410134
724.375 0.100799197339 -12.9041652811
725.0 0.0892954290405 -46.3190703936
725.625 0.0982834771218 -71.3912542216
726.25 0.121139895197 -65.0434716657
726.875 0.105007630432 -56.8811816776
727.5 0.0782861922346 -55.362821868
728.125 0.103060558505 8.95263203223
728.75 0.0906173885623 17.5051659505
729.375 0.0838858233505 13.9234429155
730.0 0.0615202122254 -10.5009651696
730.625 0.0461483005834 -1.31106211396
731.25 0.0676949180767 55.1955741574
731.875 0.0592316075673 102.796919015
732.5 0.0711600261253 145.097415359
733.125 0.0556702200866 151.056855746
733.75 0.0726394797428 169.516256882
734.375 0.042531462651 163.703357986
735.0 0.0367018128497 124.743535035
735.625 0.0661713997338 151.195266186
736.25 0.0297549139862 144.100001423
736.875 0.0277892078183 -179.185461382
737.5 0.0636277436405 178.315938734
738.125 0.0641135944885 178.494509503
738.75 0.0775811496378 177.530264268
739.375 0.047488080435 175.871800584
740.0 0.041666412526 -152.184109485
740.625 0.0194096886926 -107.690530797
741.25 0.0814776975959 -158.229887739
741.875 0.0396239547863 -118.151632012
742.5 0.0166942536217 21.551004172
743.125 0.0246971030164 122.155450121
743.75 0.0638878746115 73.8012980323
744.375 0.0477989737055 96.4054737577
745.0 0.0646213989608 119.617055902
745.625 0.0715839621832 146.897419149
746.25 0.085805945664 62.6825022301
746.875 0.0591588517001 44.2699415815
747.5 0.0329617441477 32.1615913735
748.125 0.021058834353 -5.15088835832
748.75 0.0273607069212 51.7524410657
749.375 0.0511930346691 -71.4998935886
750.0 0.0330425918609 -116.617463535
