!Created with skrf (http://scikit-rf.org).
# GHz S RI R (50+0j) 
!freq	ReS11	ImS11	
500.0	-0.2247262453	-3.288596113	
500.625	-0.4771065622	-1.84142337	
501.25	-0.09197257632	-3.259336843	
501.875	-1.47604008	-1.481337212	
502.5	-0.4511998197	-0.05174493946	
503.125	-0.1687407641	-0.1304401622	
503.75	0.2751599058	0.4268030226	
504.375	-0.04104132287	0.05109316447	
505.0	0.1227660463	-0.2339081074	
505.625	0.03763201987	0.122737989	
506.25	-0.3801839266	-0.629322397	
506.875	0.7442757673	0.3382306354	
507.5	0.5268517967	-1.670082015	
508.125	-0.4615628551	-3.111000276	
508.75	-0.3139893169	-1.773435656	
509.375	0.4356421238	-6.00020088	
510.0	-1.902605354	0.1619759586	
510.625	-0.1228488451	-0.5181403569	
511.25	-0.5736564619	0.06991635067	
511.875	-0.1189705568	-0.1795135732	
512.5	-0.09356034775	0.1901069896	
513.125	-0.1423488148	-0.3410216497	
513.75	-0.3325323332	0.06467187126	
514.375	0.1549999026	-0.4068781289	
515.0	-1.4246474	0.314717965	
515.625	2.266473157	-1.907123387	
516.25	-3.683536927	-2.116905923	
516.875	0.6814708706	-0.02931886191	
517.5	-0.1602462116	-1.261346715	
518.125	0.04405140702	0.3371507585	
518.75	-0.2177084735	-0.9420487715	
519.375	-0.09595975435	0.2427403657	
520.0	0.1772346977	0.1587516483	
520.625	0.6506126923	-0.1801154548	
521.25	-0.2896162685	-0.7239238478	
521.875	-0.1954755542	-0.27674366	
522.5	-0.2010975835	0.1979201864	
523.125	-0.1370994664	-0.07473075436	
523.75	-0.2407560177	0.1334430826	
524.375	-0.3839756887	-0.2153031149	
525.0	0.2019915689	0.6247609082	
525.625	-0.1216780905	-0.07174552923	
526.25	0.1681299633	0.06840062131	
526.875	-0.3391016602	0.0348108417	
527.5	0.1305641605	0.8320803545	
528.125	0.04324305664	0.3078403943	
528.75	-0.2199816733	1.061541232	
529.375	0.220110971	-0.06568759562	
530.0	0.01225321985	0.8429376282	
530.625	0.2536369425	0.4035608155	
531.25	1.545760135	0.9117224159	
531.875	0.2214408829	-0.7733357651	
532.5	0.264874414	-0.3117291023	
533.125	-0.5792580442	-0.1079009272	
533.75	0.7179210128	-0.6323221195	
534.375	-0.7496651856	-0.5348165307	
535.0	-0.3056721854	-0.4424795693	
535.625	-0.6797223238	0.5510610023	
536.25	0.07878735321	0.1144900074	
536.875	0.2171531111	0.1632036656	
537.5	0.2162957217	-0.1965232905	
538.125	0.1249956987	-0.0426268077	
538.75	0.5244025804	-0.378742842	
539.375	-0.2642776708	-0.2397044806	
540.0	-0.2169019869	-0.467365689	
540.625	-0.6050865787	0.01391308225	
541.25	-0.04179788157	0.05534861912	
541.875	-0.1302301085	-0.1244517181	
542.5	-0.200656664	-0.1275974411	
543.125	-0.07130742044	0.08468574382	
543.75	-0.2683597551	-0.2396776258	
544.375	0.03795638691	0.3172696699	
545.0	-0.230084733	0.04030218613	
545.625	0.3714737909	0.1511537772	
546.25	-0.04102131933	0.07495878514	
546.875	0.6297173011	-0.07488083928	
547.5	-0.1024929389	-0.2095972395	
548.125	0.14078911	-0.3867913485	
548.75	-0.4188332635	-0.4238827592	
549.375	-0.288515191	0.01625411439	
550.0	-0.1436887012	-0.1673937411	
550.625	-0.1393732792	0.1708812703	
551.25	-0.1656025632	-0.07904708412	
551.875	-0.2127791926	0.3117157825	
552.5	-0.04577185075	0.08490230844	
553.125	-0.08955491299	0.2102202821	
553.75	0.1319020968	0.09866912573	
554.375	0.2069705079	0.02150915304	
555.0	0.2680915905	-0.1656628429	
555.625	0.2028532276	-0.2741436309	
556.25	0.1625981593	-0.3312993922	
556.875	-0.07320361942	-0.4136136801	
557.5	-0.2439587362	-0.2563248507	
558.125	-0.2640238221	-0.09419466025	
558.75	-0.2670345009	-0.03519728084	
559.375	-0.2785177247	0.07836787284	
560.0	-0.1906679309	0.1434771569	
560.625	-0.1852738251	0.2521642085	
561.25	0.07223775995	0.2894325467	
561.875	0.00494478731	0.02301937888	
562.5	0.1007236708	0.2215629516	
563.125	0.03781470814	0.1176006933	
563.75	0.4591106944	0.06160224049	
564.375	0.1538546899	-0.3087248725	
565.0	0.28508057	-0.1830584584	
565.625	-0.1326750622	-0.5226631723	
566.25	-0.2950384918	-0.1266273041	
566.875	-0.1713460426	-0.2379571815	
567.5	-0.4512956256	-0.4000618314	
568.125	-0.4084733377	-0.1605712572	
568.75	-0.4070809276	-0.4769197273	
569.375	-0.6784130136	0.444249564	
570.0	-0.1691116756	0.2544519532	
570.625	-0.435978784	0.5384387769	
571.25	0.3371294638	0.2450014315	
571.875	-0.2009410628	0.3407490586	
572.5	0.6061357337	-0.1879520018	
573.125	-0.08146151804	-0.1032295397	
573.75	0.4352728615	-0.1434909592	
574.375	-0.1832627595	-0.4224815265	
575.0	0.1750125971	0.2043176375	
575.625	0.04473961862	-0.4743443128	
576.25	-0.04564438228	0.04933852761	
576.875	0.2486268939	-0.5677453851	
577.5	-0.2497007717	-0.499122882	
578.125	-0.06218795146	-0.1122813007	
578.75	-0.004047729143	-0.4298298502	
579.375	-0.443522959	-0.2561132126	
580.0	0.06583803843	0.1392946532	
580.625	-0.348846713	-0.28958739	
581.25	0.008353112424	0.3233787085	
581.875	-0.2731196117	0.1521875907	
582.5	0.180139983	0.7050512251	
583.125	0.3649933997	-0.1915406117	
583.75	-0.2609297879	0.3438315032	
584.375	0.4828617642	-0.1453218215	
585.0	-0.1471848103	0.3381006489	
585.625	0.7263645782	-0.008454478918	
586.25	0.06072250638	-0.2701079575	
586.875	0.4827288012	-0.1352214298	
587.5	-0.2561327369	-0.5266382926	
588.125	0.06585022397	-0.02223280918	
588.75	0.3400725864	-0.4942130659	
589.375	-0.04194265098	-0.5434001874	
590.0	0.08893889299	-0.2344484778	
590.625	-0.4439896738	-0.3220998786	
591.25	-0.3402971018	0.4342242158	
591.875	0.02163034177	0.1050718822	
592.5	-0.1463583113	0.2436696038	
593.125	-0.001552393621	-0.09365940385	
593.75	0.1602043907	0.5062172712	
594.375	0.4059599009	0.0395513648	
595.0	0.08680311813	0.2437000285	
595.625	0.5934107172	0.6020270744	
596.25	0.3980506428	-0.3865983331	
596.875	0.1032305632	0.4050864449	
597.5	0.6667221275	0.2442685111	
598.125	0.1501242962	0.0509294309	
598.75	0.5689509435	0.5092405723	
599.375	0.3583330658	-0.2998463885	
600.0	0.4360560188	-0.06692041514	
600.625	0.5064230522	-0.5806860103	
601.25	-0.05102569552	-0.4246977286	
601.875	0.02701668309	-0.2614696978	
602.5	-0.3894734294	-0.06419369719	
603.125	-0.3380326997	0.1073057451	
603.75	-0.06245020795	0.1526415377	
604.375	-0.3807050569	-0.009663750241	
605.0	-0.1159779752	0.4293011855	
605.625	-0.1974727327	-0.165108599	
606.25	-0.3738830555	0.3953629652	
606.875	-0.1313240194	0.04144011579	
607.5	-0.8035295728	0.3876876864	
608.125	0.3417414604	0.629361316	
608.75	0.0007131364418	0.4016487863	
609.375	0.9157350008	-0.03140777533	
610.0	0.01612356527	-0.254994826	
610.625	0.4526895742	-0.276549685	
611.25	-0.1637892357	-0.4183989845	
611.875	0.09308604419	-0.2929689214	
612.5	-0.6338310638	-0.1279151075	
613.125	-0.1412204395	-0.1224441161	
613.75	-0.4244051231	0.417279491	
614.375	0.221952875	0.1417421888	
615.0	-0.007219591248	0.325315573	
615.625	0.1957735172	-0.1181887331	
616.25	-0.3912347776	0.3782141612	
616.875	0.002478259302	0.6671249271	
617.5	-0.2162544429	0.1616790207	
618.125	-0.1500197242	0.8039004594	
618.75	0.240885798	0.2965673645	
619.375	-0.03990485284	0.4358206819	
620.0	0.6002821771	0.03734449862	
620.625	0.264111064	-0.1944893966	
621.25	-0.2533205998	-0.5351902836	
621.875	-0.3521644529	-0.1510759404	
622.5	-0.6354530792	0.04198572786	
623.125	0.1165812	0.3206345717	
623.75	0.1930923449	0.2914778532	
624.375	0.08078967899	-0.3300658845	
625.0	0.2093360246	0.2340849644	
625.625	-0.05962027887	-0.6331148195	
626.25	0.09325160104	-0.000425489435	
626.875	-0.3974059504	-0.5190057726	
627.5	-0.4268910889	0.1324366969	
628.125	-0.008455037256	-0.187492515	
628.75	-0.3685721181	-0.4759742356	
629.375	-0.06340779766	-0.1647588062	
630.0	-0.4529068739	-0.4456193109	
630.625	-0.5624080304	0.3222495602	
631.25	-0.198655174	0.2177347433	
631.875	-0.2923180309	0.6723626947	
632.5	0.4091372703	0.4784257978	
633.125	0.5034926366	0.06405475518	
633.75	0.2169027258	-0.01796228027	
634.375	0.3866420316	-0.4994035298	
635.0	-0.1622054778	-0.08542686524	
635.625	-0.2755133315	-0.5000052854	
636.25	-0.3654769763	0.4077179224	
636.875	-0.1180909929	-0.04780203146	
637.5	-0.2235140612	0.6043361469	
638.125	0.1269803297	-0.1099847115	
638.75	-0.6554578991	0.3979267925	
639.375	0.355430983	0.8491743307	
640.0	0.287754763	0.200238627	
640.625	0.2785282212	0.6671176105	
641.25	0.9638506427	-0.09770929966	
641.875	0.08104253341	-0.2357322938	
642.5	0.3749055982	-0.7744153099	
643.125	-0.4510928662	0.1632231147	
643.75	-0.01405845415	-0.4536119067	
644.375	-0.7823765646	0.1518173662	
645.0	-0.000930635442	0.3368632083	
645.625	-0.2061589392	0.3045255151	
646.25	0.5407247768	0.5807315657	
646.875	0.2146290151	-0.4781678814	
647.5	-0.08261944863	0.5089386948	
648.125	0.699815407	-0.2939693163	
648.75	0.09477718612	0.3529725947	
649.375	1.061677845	-0.942654934	
650.0	-0.239931405	-0.7529034306	
650.625	0.6469849339	-0.00402395996	
651.25	0.9943852878	-1.238373918	
651.875	-0.2560630582	-0.5061150637	
652.5	0.7315321659	0.3965868963	
653.125	1.034688084	-0.5981882542	
653.75	-0.02999615162	-0.4257096692	
654.375	0.5019876842	-0.8993539285	
655.0	-1.022393994	-0.00360951236	
655.625	-0.01705303377	0.2141177411	
656.25	-0.4413226197	0.5408479287	
656.875	0.6247215026	0.1477899568	
657.5	-0.4109193431	0.1913040314	
658.125	0.5863476219	0.5928694258	
658.75	0.6917778251	-0.05220000072	
659.375	0.4474423983	-0.04871974415	
660.0	1.098751509	-0.8688942604	
660.625	-0.2149105402	-0.7350195014	
661.25	0.658245363	-0.3191221236	
661.875	0.7935750223	-0.951883625	
662.5	-0.00350401497	-0.6361129487	
663.125	0.8499608066	0.192233764	
663.75	0.3724463852	-1.234658989	
664.375	-0.2358884316	-0.3045937955	
665.0	-0.3814179546	-0.8706688853	
665.625	-0.8615123343	0.5931114485	
666.25	-0.2937200752	0.1883124852	
666.875	0.279185846	0.8290803352	
667.5	0.5318081481	-0.06077291224	
668.125	0.1971257143	0.2402971933	
668.75	0.8545241518	-0.4213633225	
669.375	-0.04572457571	-0.5589433485	
670.0	0.06020724425	-0.3076785498	
670.625	0.2243033608	-0.5512015348	
671.25	-0.1777690386	-0.5491016126	
671.875	0.5038906814	-0.1258809709	
672.5	0.5419474191	-0.5801140669	
673.125	0.2240804471	-0.3438727916	
673.75	0.7006738786	-0.2335938939	
674.375	-0.05765664651	-1.152296241	
675.0	-0.3048145055	0.07602111414	
675.625	-0.1376899588	-0.8208828175	
676.25	-0.8615012476	0.09887397176	
676.875	0.1809469878	0.006037321902	
677.5	-0.9101781561	-0.06631153583	
678.125	0.13815949	0.3263776944	
678.75	-0.3692267613	0.5008187959	
679.375	1.020169119	0.1906736959	
680.0	-0.1434257845	-0.239552056	
680.625	0.472548832	0.05010826441	
681.25	0.3544424964	-0.3395805927	
681.875	0.02674030085	-0.03589757733	
682.5	0.3969788024	0.5044461661	
683.125	0.955847445	0.1638626441	
683.75	0.390934199	-0.1371724243	
684.375	0.4170444059	0.5133735259	
685.0	1.28312559	-0.1373348037	
685.625	-0.05570934812	0.1491018557	
686.25	1.411319897	0.1061064646	
686.875	0.1932225091	-0.899625903	
687.5	0.8123176515	0.1877094094	
688.125	0.06280043174	-1.974357424	
688.75	-0.7085468238	0.454584818	
689.375	-1.30668369	0.07227729297	
690.0	0.6376325084	1.13871109	
690.625	0.05296703886	0.2697073579	
691.25	1.098307344	1.106947598	
691.875	0.97982931	0.3127610048	
692.5	1.217189905	0.7182082643	
693.125	1.75927505	-0.1005207232	
693.75	1.242864302	-0.7270615	
694.375	1.029652264	-0.8860413109	
695.0	0.8324433152	-0.5714452772	
695.625	1.607479006	-0.1375905169	
696.25	1.035647134	-0.2134357836	
696.875	0.397464689	1.44418183	
697.5	1.797601942	0.9866701547	
698.125	0.5445865997	0.5597142934	
698.75	1.903891094	-1.159340694	
699.375	-1.476642287	-0.3836512691	
700.0	-1.02494279	-0.1423120197	
700.625	0.758666656	1.187110097	
701.25	0.0384486408	0.1275602099	
701.875	0.8047982212	1.094297818	
702.5	0.6754538251	0.05469873085	
703.125	0.8646904873	0.6059592567	
703.75	1.075176159	-0.645734692	
704.375	0.3641131685	-0.1153170702	
705.0	0.9704312585	-0.5447229542	
705.625	0.1074420877	-0.179950867	
706.25	0.6379598425	1.008068514	
706.875	1.097649666	0.2445486818	
707.5	0.07479529025	0.8893349104	
708.125	1.533333779	0.4904566213	
708.75	0.3184066223	-0.9513918958	
709.375	-0.3377722426	-0.945885652	
710.0	-0.5846330633	0.8797462097	
710.625	0.04116005919	0.08891608694	
711.25	0.3743670205	0.5068511851	
711.875	0.4469599815	0.1236775964	
712.5	0.7382868385	0.03413162284	
713.125	0.5239688717	-0.3434179446	
713.75	0.5691226543	-0.5833475853	
714.375	-0.4062305608	-0.6552328835	
715.0	0.4149210118	-0.1319048384	
715.625	-0.2538276806	-1.065088903	
716.25	0.07613757989	0.1151698301	
716.875	1.725519816	-0.33975168	
717.5	0.7896875414	-1.523570028	
718.125	1.032841821	1.891089819	
718.75	3.401656525	-1.20516439	
719.375	0.2024683276	-1.403057226	
720.0	3.536761396	-0.7488506634	
720.625	-0.1227958421	-4.011444041	
721.25	-0.1666061349	-1.193467849	
721.875	-0.07819508005	-3.231483923	
722.5	-2.393780486	-2.073001554	
723.125	-1.016441551	-0.2923556979	
723.75	-1.66759046	1.205766359	
724.375	0.5305785696	1.023838136	
725.0	0.2154965766	0.6772879527	
725.625	0.1185445005	1.266252775	
726.25	0.785139021	2.296556409	
726.875	0.2820309652	0.7686616798	
727.5	-2.179535469	4.333019014	
728.125	3.246881424	6.390950041	
728.75	-0.3186789047	0.8449577534	
729.375	-11.01247305	14.66158123	
730.0	7.934057688	8.980441502	
730.625	-10.01116853	6.713944051	
731.25	-7.660691953	20.74955258	
731.875	3.265890349	4.577117555	
732.5	-11.60980523	-3.887965526	
733.125	-8.215893255	2.512754842	
733.75	-0.9373013878	3.965924292	
734.375	0.426779987	2.000773873	
735.0	-0.7820979223	-2.501002193	
735.625	-0.4273676815	-0.1668470678	
736.25	-0.9012503084	1.568305496	
736.875	2.18393556	1.165442034	
737.5	0.9952569509	-0.1778190924	
738.125	4.855613664	1.156878984	
738.75	7.703624944	-5.911586518	
739.375	-0.4945682519	-8.198574887	
740.0	4.472342571	8.839170716	
740.625	32.2441146	-6.921394674	
741.25	-22.85947851	-2.735854758	
741.875	-19.54222816	28.58122126	
742.5	-3.889817911	9.579178628	
743.125	8.193191822	-6.72462737	
743.75	-1.25312198	-5.252689036	
744.375	-0.4289183396	0.6939003687	
745.0	-0.3236906928	0.243684546	
745.625	0.3910072034	-0.2630125586	
746.25	0.1288274505	-0.07360521676	
746.875	-1.012702786	-0.09406098845	
747.5	0.07829298999	0.8199594793	
748.125	0.3319208824	1.083001332	
748.75	1.495679589	2.206460711	
749.375	0.2550461745	0.8301845676	
750.0	-0.6002673028	-0.1821342353	
