!Created with skrf (http://scikit-rf.org).
# GHz S RI R (50+0j) 
!freq	ReS11	ImS11	
500.0	-0.4411467882	-1.560922466	
500.625	0.4803189682	-0.6006609577	
501.25	-0.7684291654	-1.342457337	
501.875	-0.5214872985	-0.1287425891	
502.5	0.006496823956	-0.1766072765	
503.125	-0.1323620197	0.06003038179	
503.75	0.02662007262	0.03573029845	
504.375	0.08801591535	-0.005234188444	
505.0	-0.02370131388	-0.03724043859	
505.625	0.06239564933	-0.05909173076	
506.25	-0.2076362502	-0.04790733579	
506.875	0.03261793256	-0.2904994145	
507.5	-0.3874939427	-0.8446887117	
508.125	-0.005489350711	-0.2762881756	
508.75	1.211591273	-1.091763634	
509.375	-0.4456982596	-1.908942654	
510.0	-0.4590063657	-0.05383409273	
510.625	-0.09138983488	-0.3358903341	
511.25	-0.1940771799	0.01995738076	
511.875	-0.107678854	-0.08534128874	
512.5	-0.04007820735	0.1030346362	
513.125	-0.06756307379	-0.083352838	
513.75	-0.002044946374	-0.05659642583	
514.375	-0.2254774406	-0.03008335615	
515.0	0.2890492958	0.2120433202	
515.625	-0.4839504069	-0.9565118633	
516.25	-0.0250595931	-0.1771937969	
516.875	0.05153181433	-0.692991218	
517.5	-0.2405253538	-0.324473513	
518.125	0.05596237079	-0.05063895026	
518.75	-0.2233453026	-0.1435085884	
519.375	-0.02720985999	0.06554340493	
520.0	0.08632897321	0.1093886886	
520.625	0.2663721918	-0.1026121888	
521.25	-0.06865326869	-0.3360942471	
521.875	-0.05890728065	-0.03509622499	
522.5	-0.1690045582	0.0446787637	
523.125	0.08206544856	0.05759378585	
523.75	-0.2504929423	-0.144212616	
524.375	-0.1495506243	0.2762154628	
525.0	-0.05994451789	-0.01127797031	
525.625	0.01842025482	0.1839734783	
526.25	-0.110282265	-0.1149040777	
526.875	-0.08489785255	0.1757851461	
527.5	0.07744017452	0.1557701282	
528.125	-0.0973142102	0.2999153924	
528.75	0.1326470766	0.2679746456	
529.375	0.03491346966	-0.02905431679	
530.0	0.009801511958	0.1607842038	
530.625	0.3309811128	0.203047838	
531.25	0.3212169878	-0.08862231502	
531.875	0.4084014325	-0.3633547285	
532.5	-0.2294277836	-0.006086397179	
533.125	0.2247746355	-0.222155174	
533.75	-0.1275679405	-0.3290163316	
534.375	0.01113452095	-0.3473030699	
535.0	-0.464266818	-0.08056222316	
535.625	-0.09387255062	0.1748055584	
536.25	-0.04187941179	0.1081119329	
536.875	0.1767503303	0.001289163637	
537.5	0.032025425	-0.03894325631	
538.125	0.2346610107	-0.05071160482	
538.75	0.1449909857	-0.1692250772	
539.375	-0.02438489671	-0.1769808267	
540.0	-0.2554633239	-0.2803912543	
540.625	-0.2123264509	0.07796987847	
541.25	-0.03398589641	0.04222174894	
541.875	-0.1277503522	-0.02792594471	
542.5	-0.06025649463	0.04835587196	
543.125	-0.1459040835	-0.1301251205	
543.75	-0.2239662458	0.1637458022	
544.375	-0.05251820657	-0.02063946322	
545.0	0.03308666825	0.1337400662	
545.625	0.02843904486	-0.005844621793	
546.25	0.1487046294	0.1402975476	
546.875	0.1255067546	-0.1198581532	
547.5	0.102098271	-0.08730896642	
548.125	-0.05366647987	-0.2792481835	
548.75	-0.2357879222	-0.07084318867	
549.375	-0.06908127163	-0.09007100169	
550.0	-0.1595887179	0.01204872796	
550.625	-0.01376195469	0.02513566329	
551.25	-0.1308681118	0.01435512627	
551.875	-0.05290523115	0.1210959549	
552.5	-0.07094363023	0.0692123972	
553.125	-0.0007598325453	0.1109642903	
553.75	0.05791459378	0.03141499694	
554.375	0.1291599863	-0.0001804036648	
555.0	0.1157415159	-0.1042493272	
555.625	0.09929474486	-0.1380142141	
556.25	0.08470232279	-0.1866504217	
556.875	-0.055446919	-0.208698607	
557.5	-0.1348549092	-0.1248730254	
558.125	-0.1480886239	-0.05098063561	
558.75	-0.1513832954	-0.001826479661	
559.375	-0.1356181168	0.04186779909	
560.0	-0.1268848352	0.08558294542	
560.625	-0.07531239734	0.1697177924	
561.25	0.04338895048	0.1044467216	
561.875	0.007306867039	0.07996290326	
562.5	0.05770885973	0.0499968147	
563.125	0.0484148733	0.1044933043	
563.75	0.2344235129	0.001850247458	
564.375	0.1043342665	-0.1441215947	
565.0	0.1414796398	-0.1607308376	
565.625	-0.09374315848	-0.2576469804	
566.25	-0.1188872444	-0.03884653887	
566.875	-0.1853797335	-0.1752236173	
567.5	-0.2624872352	-0.08401025504	
568.125	-0.04009952962	-0.1512881744	
568.75	-0.3718012016	-0.1297783188	
569.375	-0.1584037255	0.2475744948	
570.0	-0.1733170339	0.1557961868	
570.625	-0.1117139181	0.3644162717	
571.25	0.1013289601	0.05842925955	
571.875	0.01581400602	0.209334799	
572.5	0.1979243015	-0.1256908734	
573.125	0.06090543319	0.0004165342056	
573.75	0.1588523739	-0.2120853732	
574.375	-0.1195826985	-0.08476138154	
575.0	0.1400137754	0.01135830564	
575.625	-0.03569950406	-0.1794724165	
576.25	0.01802960686	-0.01890071398	
576.875	0.07924184533	-0.2611791396	
577.5	-0.1157396613	-0.2317561381	
578.125	-0.0203076415	-0.06597692626	
578.75	-0.02575046632	-0.275191117	
579.375	-0.2724924829	-0.0149695347	
580.0	0.09773760581	-0.01132574105	
580.625	-0.2951324856	-0.01868996051	
581.25	0.02047752836	0.08134940167	
581.875	-0.1974910296	0.2623082291	
582.5	0.2001944064	0.2861139607	
583.125	0.08656021428	-0.04009639204	
583.75	0.01204403887	0.1552103761	
584.375	0.09215000696	-0.09249006586	
585.0	0.0330876457	0.1573683861	
585.625	0.3185588203	-0.04168543216	
586.25	0.07986584486	-0.1522208999	
586.875	0.1875486757	-0.1367688464	
587.5	-0.0863441609	-0.27780611	
588.125	-0.04464233331	-0.05108757583	
588.75	0.1454121377	-0.2275998665	
589.375	-0.03336422185	-0.301433983	
590.0	-0.00481298792	-0.1099244177	
590.625	-0.3196137469	-0.1307059132	
591.25	-0.05361074372	0.2657981642	
591.875	-0.08140066734	-0.02597180428	
592.5	-0.02781871382	0.1898161115	
593.125	0.003974725771	-0.0521559059	
593.75	0.05910770712	0.2800296167	
594.375	0.1557066796	-0.05904385556	
595.0	0.09080403225	0.1551755702	
595.625	0.3022295967	0.1908861984	
596.25	0.1779701375	-0.06858360808	
596.875	0.1665643696	0.168269623	
597.5	0.3096789553	0.1048040003	
598.125	0.1587916708	0.02503051466	
598.75	0.1927640028	0.1841089485	
599.375	0.2975587751	-0.09283065429	
600.0	0.0944011307	-0.1626642647	
600.625	0.2485816536	-0.1716957123	
601.25	0.0541494471	-0.3491768995	
601.875	-0.127674594	-0.01614792318	
602.5	-0.1886099719	-0.1510356127	
603.125	-0.1262793469	0.1901600667	
603.75	-0.0864565177	-0.07293042511	
604.375	-0.2496406216	0.1049790904	
605.0	0.1034107088	0.05012443692	
605.625	-0.1759055954	-0.05357892147	
606.25	-0.132877975	0.2009374294	
606.875	-0.07125863498	0.08794412421	
607.5	-0.2147853513	0.3158120904	
608.125	0.08410167457	0.3963466267	
608.75	0.2063463539	0.1749155512	
609.375	0.3516656763	0.01834370653	
610.0	0.2431909554	-0.2120066555	
610.625	0.03506729617	-0.1000256626	
611.25	0.1057193681	-0.2527862854	
611.875	-0.2217802305	-0.04779924447	
612.5	-0.04813498432	-0.09876393712	
613.125	-0.3891841535	0.04880294881	
613.75	0.04720470163	0.2335994791	
614.375	-0.1152327161	0.1363462176	
615.0	0.2125181768	0.08073244137	
615.625	-0.04544552702	-0.04133327036	
616.25	-0.1678839093	0.2922385616	
616.875	-0.0385506118	0.1459382121	
617.5	-0.1219910431	0.3180263042	
618.125	-0.05865741755	0.3826759972	
618.75	0.1781647626	0.2028387223	
619.375	0.1678082825	0.1288004295	
620.0	0.1762619889	0.1559932966	
620.625	0.02657711947	-0.2220111752	
621.25	-0.02314209151	-0.2308201979	
621.875	-0.3587643782	-0.175357292	
622.5	-0.2294027028	0.2625599143	
623.125	-0.1292702294	0.137746179	
623.75	0.2770101579	0.07981836956	
624.375	-0.07025315946	-0.1011360235	
625.0	0.1629941979	-0.03059637311	
625.625	-0.0493566337	-0.1445234196	
626.25	0.03592387792	-0.1296301511	
626.875	-0.2447510867	-0.1696040771	
627.5	-0.1933865205	0.06105772931	
628.125	-0.1081618979	-0.08792355968	
628.75	-0.1820856087	-0.2055207459	
629.375	-0.1213907355	-0.09254323231	
630.0	-0.2016854187	-0.1604398188	
630.625	-0.4137444612	0.06012473688	
631.25	-0.06939869271	0.2416552025	
631.875	-0.09972512063	0.2610136139	
632.5	0.310788178	0.2363236386	
633.125	0.1989465479	-0.1494742509	
633.75	0.2312544704	-0.01371066821	
634.375	-0.006260049677	-0.2916005566	
635.0	-0.01911732073	-0.01589814556	
635.625	-0.2446921159	-0.2046535957	
636.25	-0.1465821988	0.2288325474	
636.875	-0.03266113763	0.05621238213	
637.5	-0.1224056935	0.2286613556	
638.125	0.05153610311	0.05946247267	
638.75	-0.2123830329	0.1663212979	
639.375	0.1165945298	0.4149368252	
640.0	0.206049359	0.1328195902	
640.625	0.2400713187	0.2664023488	
641.25	0.4897217333	-0.03706141233	
641.875	0.05702537495	-0.2549560646	
642.5	0.1019776106	-0.1787153231	
643.125	-0.3468663965	-0.135262294	
643.75	0.0651495754	0.185463313	
644.375	-0.3365432895	-0.1069229731	
645.0	-0.03822832711	0.3585564472	
645.625	-0.02765582093	0.08426278472	
646.25	0.3437471194	0.4084646042	
646.875	0.09037831858	-0.2357371426	
647.5	0.03101577198	0.2155062856	
648.125	0.3181361327	-0.1042116073	
648.75	0.1050497392	-0.07310288936	
649.375	0.5182624254	-0.2763909817	
650.0	0.04339335772	-0.576352428	
650.625	0.08038024527	-0.1271686005	
651.25	0.4320873079	-0.3234470472	
651.875	0.2165437168	-0.4704917253	
652.5	0.1864632719	-0.010800236	
653.125	0.5207457849	-0.1693823379	
653.75	0.03220249813	-0.4703200501	
654.375	-0.01801338204	-0.2087947999	
655.0	-0.5518762043	-0.1592216298	
655.625	0.01655908473	0.4755044688	
656.25	-0.05068411829	0.03881706832	
656.875	0.200322816	0.3412820775	
657.5	0.02141787756	-0.1298692922	
658.125	0.1948132454	0.3855581213	
658.75	0.4806408076	-0.09597954785	
659.375	0.1895820134	-0.07155264549	
660.0	0.4310556551	-0.3223896046	
660.625	0.04849356238	-0.6126225599	
661.25	0.06550843623	-0.1914977594	
661.875	0.4437143157	-0.3542063375	
662.5	0.2446229457	-0.4436161222	
663.125	0.1749591046	-0.1457503628	
663.75	0.3076612813	-0.4442596378	
664.375	-0.2909561124	-0.366406052	
665.0	-0.2165060312	-0.1959439372	
665.625	-0.5116173174	0.09597626035	
666.25	0.06013288733	0.4831492766	
666.875	0.03600992888	0.1643979898	
667.5	0.3622891832	0.1861623427	
668.125	0.1521413929	-0.2304409925	
668.75	0.2655739483	0.02708432859	
669.375	0.122159635	-0.560897573	
670.0	-0.1406009478	-0.1290343083	
670.625	0.1881364287	-0.2976951735	
671.25	0.01938364411	-0.3603054221	
671.875	0.05430409872	-0.00947377133	
672.5	0.4291263639	-0.1660498628	
673.125	0.10903257	-0.3648658226	
673.75	0.1320585796	-0.1800256181	
674.375	0.1424330565	-0.3798024615	
675.0	-0.3255804883	-0.3081219675	
675.625	-0.06422160536	-0.1065735654	
676.25	-0.3523526291	-0.08995149716	
676.875	-0.1728563926	0.1841840578	
677.5	-0.09236176391	-0.07185403937	
678.125	-0.3176430143	0.3534227148	
678.75	0.2326223125	0.1463897399	
679.375	0.01573583501	0.2380560637	
680.0	0.413548775	-0.1969919724	
680.625	-0.1429479045	-0.1740511768	
681.25	0.3328424289	0.2204237784	
681.875	0.2131133042	-0.3182165002	
682.5	0.03456729866	0.08363699746	
683.125	0.4065119812	0.3355750231	
683.75	0.360704538	-0.2938648072	
684.375	0.05654008498	0.07578922066	
685.0	0.5058865844	-0.02644213713	
685.625	0.3823584337	-0.2373572656	
686.25	0.1509853601	0.06456331138	
686.875	0.6496877571	-0.367209574	
687.5	0.1698853205	-0.3288580513	
688.125	0.05453940907	-0.4853971378	
688.75	-0.7579155532	-0.2326372506	
689.375	-0.04160757686	0.5739962928	
690.0	-0.1082051338	0.3068502309	
690.625	0.5766714329	0.4113466332	
691.25	0.3437521355	0.08720640809	
691.875	0.5127248797	0.7857434242	
692.5	1.077346277	-0.05207367844	
693.125	0.534362417	0.1373799536	
693.75	0.908256294	-0.1666854622	
694.375	0.4461721762	-0.7559904527	
695.0	0.2260041345	-0.3496975274	
695.625	0.8683423096	-0.2938726708	
696.25	0.7580074479	-0.09945718666	
696.875	0.4220875386	0.2970768061	
697.5	0.5371692146	0.4515698434	
698.125	0.9753088896	-0.1252017723	
698.75	0.238781092	-0.3950721208	
699.375	-0.6649091181	-0.5741163832	
700.0	-0.148003796	0.683516016	
700.625	0.2309645039	0.09686240879	
701.25	0.3786954661	0.4616217219	
701.875	0.4552256602	0.02767869429	
702.5	0.2260431415	0.3336591014	
703.125	0.7384691229	0.2189891637	
703.75	0.336740064	-0.2833467112	
704.375	0.2717960623	-0.02432681087	
705.0	0.3888275446	-0.2830253732	
705.625	0.2243565247	-0.181632451	
706.25	0.4961640769	0.1424512688	
706.875	0.5409978657	0.3453472884	
707.5	0.3220203788	0.1236906452	
708.125	0.5870741519	0.1045455624	
708.75	0.4916395285	-0.5025302653	
709.375	-0.470008894	-0.07934054701	
710.0	-0.3266010567	0.1457639472	
710.625	0.2275256245	0.5129783684	
711.25	-0.03151320446	-0.1281903087	
711.875	0.3648573365	0.2596410032	
712.5	0.3827676134	-0.2770518897	
713.125	0.230038493	-0.07296920391	
713.75	0.2830197226	-0.3979851954	
714.375	-0.1435349332	-0.3244104877	
715.0	0.05694899809	-0.1302397886	
715.625	0.0609501018	-0.3933741855	
716.25	-0.02938961692	-0.2956213464	
716.875	0.3198340884	-0.1624483994	
717.5	0.8955228708	-0.2196680729	
718.125	0.5313612588	-0.3626589983	
718.75	0.82747954	0.0423075757	
719.375	1.177620817	-0.8880109459	
720.0	-0.6181774676	-1.371304204	
720.625	0.4728730329	-1.0820389	
721.25	-0.5914968544	-2.057282938	
721.875	-0.7079681299	0.04627485239	
722.5	-0.7903368906	-1.219657846	
723.125	-1.223421606	0.2804141039	
723.75	-0.1233670556	0.4275195642	
724.375	-0.2341331751	0.7619948553	
725.0	0.5438485135	0.3810292964	
725.625	0.0167077143	0.3713581516	
726.25	-0.08108273134	1.109872099	
726.875	0.3860778141	1.312754755	
727.5	0.1544634854	0.9654824451	
728.125	-0.2539130215	3.189523953	
728.75	1.88585776	3.565197696	
729.375	-0.08587197116	2.580838274	
730.0	0.1054429394	6.665264799	
730.625	3.471069743	4.984801168	
731.25	-1.000973471	3.117980868	
731.875	-5.209420374	4.642276764	
732.5	-2.24690666	3.490868353	
733.125	-1.359187751	-1.203044748	
733.75	-1.017755371	2.82393842	
734.375	1.106875245	-0.5477401115	
735.0	0.2533512327	-0.3596634028	
735.625	-1.027007412	0.3708729844	
736.25	0.3765840432	0.258766367	
736.875	0.2146741759	1.249217092	
737.5	1.935032476	-0.2240403375	
738.125	1.073300831	-1.221978044	
738.75	2.414864864	0.01324866175	
739.375	5.474879745	-4.542015295	
740.0	0.1746492489	-3.008706836	
740.625	1.871287913	3.734904049	
741.25	4.440509471	7.146852296	
741.875	1.151906675	-2.058422228	
742.5	-2.2122504	-6.138579627	
743.125	-1.719778059	-3.127526693	
743.75	-0.112884748	-0.3753509428	
744.375	-0.9131339181	-0.1672163974	
745.0	0.2966855181	-0.01159226395	
745.625	0.1630713138	0.2017044123	
746.25	-0.1380125668	-0.2072243579	
746.875	-0.151589344	0.03656580715	
747.5	-0.2695069967	0.5348489219	
748.125	0.3870123141	0.7108386344	
748.75	0.2567655158	0.4490615766	
749.375	0.01040893991	0.7492069757	
750.0	-0.5264602647	0.5416637897	
