!Created with skrf (http://scikit-rf.org).
# GHz S RI R 50.0 
!freq ReS11 ImS11
500.0 -0.009068896785 0.02638346833
500.625 0.02713931788 0.02891035293
501.25 0.0358763335 0.01631723533
501.875 0.01106228431 0.05207029693
502.5 0.008848715517 0.04834821377
503.125 0.02991202312 0.04608399554
503.75 0.04436334652 0.02778861465
504.375 0.04832116722 -0.004079892532
505.0 0.05273394209 -0.02129489137
505.625 0.0677333787 -0.03454174639
506.25 0.04283030118 -0.04973639738
506.875 0.0624261432 -0.03384141862
507.5 0.047415702 -0.04450093428
508.125 0.07427493332 -0.02064956477
508.75 0.06831452786 -0.04138384089
509.375 0.01149512391 -0.05713459631
510.0 0.05736501484 -0.04115252231
510.625 -0.001551638843 -0.06767302302
511.25 -0.02290792644 -0.06312169246
511.875 -0.04398765664 -0.01706605058
512.5 -0.03485583038 -0.001388462626
513.125 -0.02916995616 0.02357781984
513.75 -0.04438530726 0.03998625946
514.375 -0.01610777227 0.0540406347
515.0 0.003831359295 0.07408882825
515.625 -0.04706314567 0.08653577657
516.25 0.01104054952 0.1187093997
516.875 -0.02827592362 0.1150741314
517.5 0.04093884682 0.0964492921
518.125 -0.05158710202 0.1057223307
518.75 0.012061803 0.05272488466
519.375 -0.002821044568 0.07607560965
520.0 0.03759398637 0.07119649784
520.625 0.05207357957 0.04470188378
521.25 0.05252585491 0.04124404171
521.875 0.03677176451 0.03656210022
522.5 0.0623562757 0.003747157512
523.125 0.108489322 -0.01452179007
523.75 0.1071890021 -0.01524776709
524.375 0.05824376661 -0.05378143429
525.0 -0.004092930886 0.003060529338
525.625 -0.002947316259 0.03212903267
526.25 0.002181641726 0.041904155
526.875 0.009462479502 0.037261483
527.5 0.01976550046 0.03266824242
528.125 0.04303720064 0.01491782478
528.75 0.0709001721 0.006068451079
529.375 0.04851334099 -0.02625390053
530.0 0.0318807126 -0.02390970321
530.625 0.01093038348 -0.1012214863
531.25 0.01756829294 -0.1317910715
531.875 -0.039520577 -0.146175787
532.5 -0.07764293263 -0.08501470275
533.125 -0.06828824645 -0.06713403476
533.75 -0.06305030442 -0.07146391324
534.375 -0.06370451819 -0.04932872605
535.0 -0.05567621419 -0.02828344989
535.625 -0.02232482374 -0.03938853218
536.25 -0.0222563684 -0.03869683856
536.875 -0.0340086191 -0.06431498605
537.5 -0.03799215164 -0.09053979487
538.125 -0.06704455543 -0.07727474634
538.75 -0.05007184135 -0.03184840684
539.375 -0.02717797086 -0.0499886237
540.0 -0.0391075923 -0.1024324005
540.625 -0.05240681139 -0.1285234547
541.25 -0.02838220829 -0.07197995073
541.875 -0.03378283314 -0.08029539145
542.5 -0.04055232125 -0.09297445067
543.125 -0.09269610223 -0.07677958757
543.75 -0.08426539921 0.01235056365
544.375 -0.06313600944 0.03073060019
545.0 -0.03741210507 0.04236525737
545.625 -0.02253405521 0.05381379593
546.25 9.368104911e-05 0.08187976314
546.875 0.009606425812 0.05613799383
547.5 -0.002218666639 0.08341673779
548.125 -0.006402679569 0.07675573865
548.75 -0.01140344596 0.05013874196
549.375 -0.03244029188 0.06201302553
550.0 -0.04025862449 0.01383637811
550.625 -0.01938718204 -0.01017858429
551.25 -0.02408306495 -0.04278931135
551.875 -0.04903936469 -0.05581558796
552.5 -0.06961824011 -0.06024207325
553.125 -0.07544547802 -0.03170235897
553.75 -0.0761595538 -0.03348535528
554.375 -0.09611551906 -0.005472139711
555.0 -0.09687740902 0.01236151522
555.625 -0.07501485226 0.02140939219
556.25 -0.09390995269 0.01631237448
556.875 -0.07776012134 0.005005041209
557.5 -0.08524360076 0.02102051403
558.125 -0.0738994766 0.01879380206
558.75 -0.07152479104 -0.003548439608
559.375 -0.03555802577 -0.005332635152
560.0 -0.02597954572 -0.01234975157
560.625 -0.02695251487 -0.04085578258
561.25 -0.06479195482 -0.04573001265
561.875 -0.07102339316 -0.02966416092
562.5 -0.07277420357 0.008116699532
563.125 -0.07755363565 0.04976516144
563.75 -0.06757122066 0.07882782474
564.375 -0.03127640946 0.07819730664
565.0 -0.02606270743 0.07517920383
565.625 -0.0235304965 0.05723244069
566.25 -0.05302644074 0.04349920551
566.875 -0.04865527736 0.00856230255
567.5 -0.05596205775 0.005852270264
568.125 -0.05325668033 -0.000238786619
568.75 -0.04865448999 -0.001766054351
569.375 -0.01323300826 -0.02286172215
570.0 -0.01635099111 -0.03976107449
570.625 -0.02807072758 -0.05615274072
571.25 -0.04436001454 -0.03927588734
571.875 -0.04042894827 -0.05005231087
572.5 -0.08381392037 -0.02830642865
573.125 -0.1039185494 0.004900483266
573.75 -0.06506137135 0.06210084954
574.375 -0.04312404769 0.04431270475
575.0 -0.05735919183 0.04816205994
575.625 -0.0603058621 0.05457574086
576.25 -0.03788451863 0.07132097335
576.875 -0.01652196417 0.07109597266
577.5 -0.01819564484 0.06420088588
578.125 -0.02216620494 0.04226769476
578.75 -0.01418460674 0.04379277378
579.375 -0.02076065325 0.02320648109
580.0 -0.02385398403 0.01818316448
580.625 -0.03626481594 -0.001343149321
581.25 -0.05593649785 0.01201469641
581.875 -0.07931669695 0.01594772057
582.5 -0.07968604429 0.03106714135
583.125 -0.06642578374 0.04501413051
583.75 -0.06359322759 0.02851735571
584.375 -0.07259960022 0.01274463949
585.0 -0.07258140264 -0.000253500227
585.625 -0.06353874806 0.01946587954
586.25 -0.05901858398 0.01778152783
586.875 -0.05391649182 -0.01254008221
587.5 -0.05547019654 0.008474840444
588.125 -0.03191327707 0.04447701466
588.75 -0.02461538009 0.03997087273
589.375 -0.03768331331 0.01387528342
590.0 -0.04903805496 0.01695254076
590.625 -0.04872541633 0.05154034177
591.25 -0.04516242802 0.07923883806
591.875 -0.02277415648 0.09275622241
592.5 -0.01130755119 0.06598208752
593.125 -0.003848146327 0.05735921053
593.75 -0.01558810649 0.06152236508
594.375 -0.02978806006 0.04272977747
595.0 -0.03178088631 0.02137997208
595.625 -0.03119487356 -0.001692926922
596.25 -0.0328663842 -0.02198175028
596.875 -0.03482510443 -0.01214481074
597.5 -0.02080604322 -0.02834555779
598.125 -0.02012637866 -0.01820812342
598.75 -0.01644346777 -0.01510911318
599.375 -0.004037695038 -0.04811925504
600.0 -0.01623408905 -0.0640565283
600.625 -0.02006408251 -0.07165427556
601.25 -0.04070216983 -0.06634176683
601.875 -0.05004511828 -0.04713388304
602.5 -0.05215250434 -0.03667029339
603.125 -0.04417387227 -0.03925836303
603.75 -0.02526455892 -0.02839358173
604.375 -0.0224813366 -0.008880740185
605.0 0.01361067737 -0.04853308378
605.625 0.002982006024 -0.0477447526
606.25 -0.006807565828 -0.0346002291
606.875 -0.02115092971 -0.0106518723
607.5 0.01108131025 -0.002395431297
608.125 0.02834135873 -0.01745481275
608.75 0.02902410329 -0.01913122928
609.375 0.01491143137 -0.001551822661
610.0 0.06971892137 -0.002637342476
610.625 0.05335557925 -0.009830351545
611.25 0.05022340806 -0.01897273395
611.875 0.02670002783 -0.01800297594
612.5 0.03346146682 -0.004143296599
613.125 0.01645692865 -0.002758091445
613.75 0.01090081182 0.009202099878
614.375 0.02299619445 0.02418159111
615.0 0.01066772611 0.00946428119
615.625 0.01783606899 0.01542294816
616.25 0.02111499611 0.02875565438
616.875 0.02032146227 0.04056597641
617.5 0.008879371678 0.02879141552
618.125 0.01984694136 0.03144864372
618.75 0.02567903438 0.03806539922
619.375 0.01844615341 0.04107984431
620.0 0.02185438253 0.0309334351
620.625 0.02521216349 0.008098169232
621.25 0.006675596908 -0.01475016102
621.875 -0.005775280177 -0.01671448676
622.5 -0.04959393658 0.007240583976
623.125 -0.0187018483 0.04640184736
623.75 -0.01619914609 0.05892833559
624.375 -0.03152147026 0.04633907932
625.0 -0.06193906635 0.01529204491
625.625 -0.04321542826 0.06729147256
626.25 -0.03988669866 0.06156561579
626.875 -0.02342808311 0.05322381838
627.5 -0.02820210465 0.02120253865
628.125 -0.03431336115 0.02275510196
628.75 -0.02794584696 0.007425843853
629.375 -0.01796013699 0.003911340463
630.0 -0.00666379969 -0.002699445975
630.625 -0.00496097936 -0.01316997212
631.25 -0.003971759447 -0.02934660962
631.875 0.002024075645 -0.05097096182
632.5 1.009676681e-06 -0.07329665437
633.125 -0.01172793894 -0.06172692704
633.75 -0.02291192231 -0.05978159794
634.375 -0.01484554327 -0.06133420986
635.0 -0.03537900857 -0.05557386628
635.625 -0.02985516883 -0.05688838173
636.25 -0.04262246085 -0.01585872295
636.875 -0.01241060337 -0.04353420946
637.5 -0.007954735548 -0.07122652539
638.125 -0.02519889312 -0.05052226558
638.75 -0.02954938301 -0.02383329173
639.375 0.01590145425 -0.02336551183
640.0 0.05768619362 -0.007282053567
640.625 0.05623695447 -0.01339039317
641.25 0.06101608518 -0.02104799586
641.875 0.0563433243 -0.01622860796
642.5 0.05943954294 0.002813833105
643.125 0.06428663951 0.02507129268
643.75 0.05910594243 0.001801860279
644.375 0.05639844378 -0.0004605186566
645.0 0.04287534092 0.007807406357
645.625 0.03796064669 0.02383327132
646.25 0.05354077489 0.03471118442
646.875 0.06757596178 0.03451147718
647.5 0.054278246 0.02286278861
648.125 0.0454270844 0.02810522153
648.75 0.04886188424 0.07067741553
649.375 0.0413249303 0.0659039951
650.0 0.03593742206 0.06061425889
650.625 0.03233025453 0.06119776742
651.25 -0.00515415954 0.08434661454
651.875 -0.008433236558 0.05566470805
652.5 -0.02503167935 0.04370110584
653.125 -0.0298950859 0.03191487518
653.75 -0.04595718022 -0.009331055379
654.375 -0.02011013931 -0.03530983542
655.0 -0.02135136606 -0.05809656487
655.625 -0.03990390737 -0.06366679959
656.25 -0.07435589647 -0.08035041711
656.875 -0.06050062611 -0.03278105754
657.5 -0.06806891524 -0.05345140974
658.125 -0.09044196264 -0.06489410877
658.75 -0.1009378237 -0.04782240709
659.375 -0.07822884746 0.01239441761
660.0 -0.0649795074 0.02537027905
660.625 -0.06259163484 0.01622365362
661.25 -0.05190087931 0.007788495505
661.875 -0.04981040757 0.02374023927
662.5 -0.04987187212 0.02009782547
663.125 -0.06788960742 0.002286210609
663.75 -0.06740926608 -0.03804152699
664.375 -0.03803133921 -0.0623367115
665.0 -0.01099416756 -0.08219607466
665.625 0.02565556858 -0.09875615701
666.25 0.04232138984 -0.08996859794
666.875 0.04938589279 -0.07662788473
667.5 0.05568367101 -0.06279371714
668.125 0.05395830632 -0.04256514971
668.75 0.04727090795 -0.036819433
669.375 0.03673065396 -0.01220924081
670.0 0.06569341147 -0.01113708548
670.625 0.06706184008 -0.008161460894
671.25 0.07087436978 -0.03057243086
671.875 0.05754771761 -0.02167307545
672.5 0.06791033234 -0.07925573431
673.125 0.03049748574 -0.08862842363
673.75 0.01704703228 -0.1045160636
674.375 0.03308127368 -0.07344047349
675.0 0.05937031767 -0.03894839282
675.625 0.05853849531 -0.02086266642
676.25 0.07492680649 -0.002278191889
676.875 0.04736926282 0.02924785287
677.5 0.02072908907 0.04393581501
678.125 0.02260978905 0.0520480321
678.75 0.05209245145 0.08584744439
679.375 0.03247585542 0.09774611088
680.0 0.04236052398 0.08550611216
680.625 0.07186304143 0.06673837465
681.25 0.09619540021 0.04611347165
681.875 0.1239535812 0.02566572227
682.5 0.07523693334 -0.01743427221
683.125 0.05726583528 -0.015541129
683.75 0.05619379613 0.008100399311
684.375 0.05152022659 0.06321732698
685.0 -0.002292492587 0.05893549263
685.625 -0.04509034216 0.02883569222
686.25 -0.07163313914 -0.001422351427
686.875 -0.08630336765 -0.04012161438
687.5 -0.07754662448 -0.0546079121
688.125 -0.1005184267 -0.07337033259
688.75 -0.09430377127 -0.08538594506
689.375 -0.07752117266 -0.06385757712
690.0 -0.08172095109 -0.05840608591
690.625 -0.08007745315 -0.06338329787
691.25 -0.07284733542 -0.05009207711
691.875 -0.04791597687 0.003480366827
692.5 -0.04842225661 0.02518175874
693.125 -0.06566788016 0.04701442414
693.75 -0.0350861925 0.1092502625
694.375 0.000558960042 0.0984563787
695.0 -0.02529054672 0.104166936
695.625 -0.1043058642 0.06755305732
696.25 -0.09621388089 -0.06428597172
696.875 -0.01133572283 -0.1057151662
697.5 0.04669244624 -0.0766756549
698.125 0.05954361272 -0.06989205612
698.75 0.04494080281 -0.03383770988
699.375 0.06429176907 -0.0228046134
700.0 0.0845956604 -0.0001706590244
700.625 0.0532629044 0.04244386527
701.25 0.05695617183 0.03943881903
701.875 0.09746240707 0.03605535197
702.5 0.1411887685 -0.01256565934
703.125 0.0937010077 -0.07757105023
703.75 0.0001350146868 -0.07498201618
704.375 -0.02165478475 -0.06112920929
705.0 -0.006275042023 -0.08713727761
705.625 0.03118673421 -0.07712964695
706.25 0.0532018958 -0.02068636551
706.875 0.04626167235 0.03496902209
707.5 0.01636821455 0.08101573548
708.125 -0.04226644452 0.08779487583
708.75 -0.07908455528 0.06960242585
709.375 -0.09334160865 0.01950588589
710.0 -0.07922002621 -0.03247225857
710.625 -0.06345086273 -0.05903830261
711.25 -0.06660499887 -0.08043763947
711.875 -0.06116274844 -0.07000182594
712.5 -0.06831507532 -0.0148483813
713.125 -0.04358852768 0.03535532501
713.75 -0.03014869915 0.04903131316
714.375 -0.06860841085 0.04450113601
715.0 -0.04394398113 0.05388239957
715.625 -0.04868924483 0.05993752979
716.25 -0.05839187481 0.0739273378
716.875 -0.1171003987 -0.01898526197
717.5 -0.08620684601 -0.03187804254
718.125 -0.07075257886 -0.04538008949
718.75 -0.05861077904 -0.06359762945
719.375 -0.04551548407 -0.06999258491
720.0 0.03907725208 -0.06550051278
720.625 0.05699478746 -0.02011521553
721.25 0.03477097754 0.02444070199
721.875 -0.01946790748 0.02411773085
722.5 -0.04891710849 0.01653902545
723.125 -0.0633355924 0.05390834015
723.75 -0.01158311842 0.09922275577
724.375 0.06171472506 0.04025948076
725.0 0.08213478865 0.004143408828
725.625 0.08805890939 -0.01293491139
726.25 0.05426751372 -0.02891980586
726.875 0.03381833903 -0.03600243513
727.5 0.04174414572 0.04369717833
728.125 0.01221830672 0.04693244598
728.75 0.009270797093 0.05333898808
729.375 0.02608326502 0.0471318615
730.0 0.02776601139 0.01577850198
730.625 -0.00903091495 0.0746656892
731.25 -0.0356770972 0.05624334574
731.875 -0.04913144931 0.02360507804
732.5 -0.03231826906 0.006085211002
733.125 -0.03926812401 -0.03134543055
733.75 -0.03944595647 -0.03413416261
734.375 -0.02200044549 -0.02226628971
735.0 -0.008148909073 -0.01086273411
735.625 -0.02828221746 -0.01623055671
736.25 -0.04788118825 -0.01308035441
736.875 -0.05646182899 -0.0289901833
737.5 -0.04217359803 -0.0276410806
738.125 -0.07719859077 -0.04968886142
738.75 -0.0555046745 -0.03533692787
739.375 -0.01197324327 -0.02611431807
740.0 0.02529198116 -0.009878458705
740.625 -0.01498599385 -0.04019035641
741.25 -0.01285233254 -0.02951622808
741.875 0.01238239081 -0.01505479021
742.5 0.02869091343 0.01292168815
743.125 -0.008847360566 0.028161573
743.75 -0.03283043329 0.01767205302
744.375 -0.0402117107 0.01141484095
745.0 -0.05612397735 0.007099052562
745.625 -0.04652114002 0.06644352986
746.25 -0.01297802612 0.07019379039
746.875 0.04044774034 0.04646061431
747.5 0.03632362364 0.01128890429
748.125 -0.000730267382 0.02137235027
748.75 0.03800893506 -0.004008895548
749.375 0.02620607007 -0.003031072575
750.0 0.01399819107 -0.02840058508
