!Created with skrf (http://scikit-rf.org).
# GHz S RI R 50.0 
!freq ReS11 ImS11
500.0 -0.01705379978 0.03042497187
500.625 0.02122347984 0.03234233509
501.25 0.03041165675 0.02402918919
501.875 0.01874782411 0.03305088743
502.5 0.01097473883 0.04462037555
503.125 0.03200740806 0.05331839819
503.75 0.04641569357 0.0118532679
504.375 0.04343331324 -0.004239130959
505.0 0.04599211708 -0.02423031639
505.625 0.07713170185 -0.03681502829
506.25 0.0260734848 -0.06522962789
506.875 0.05406938406 -0.05067574097
507.5 0.05076262197 -0.04127400503
508.125 0.08227515713 -0.00704948775
508.75 0.04808369298 -0.05238664296
509.375 0.04156249442 -0.04370917172
510.0 0.07464642817 -0.03424279235
510.625 0.004719254573 -0.07634922081
511.25 -0.03427172844 -0.0558944842
511.875 -0.04911308491 -0.008142418205
512.5 -0.03387654357 0.006212502334
513.125 -0.03627527932 0.02790460817
513.75 -0.02782697997 0.04110186289
514.375 -0.00905656589 0.06354095086
515.0 0.001554070681 0.1029241014
515.625 -0.016764997 0.08688252273
516.25 0.02723934825 0.1051085863
516.875 -0.05080392533 0.1305146663
517.5 0.04074399366 0.1067823824
518.125 -0.03522174587 0.1243970991
518.75 0.02941338729 0.04303308057
519.375 0.007593234416 0.07386749086
520.0 0.04395319061 0.08152256184
520.625 0.06559538864 0.03025077287
521.25 0.05861422212 0.02389763723
521.875 0.03944297052 0.05183727615
522.5 0.07008684366 0.01784001822
523.125 0.1189230587 -0.03317126057
523.75 0.1102308181 -0.05112681348
524.375 0.06829397116 0.001500700664
525.0 0.008448902471 0.01619613695
525.625 0.002018622637 0.01508624543
526.25 0.008217785652 0.03756423287
526.875 0.01887611489 0.03559328046
527.5 0.03367375525 0.03174582317
528.125 0.0295948224 0.0002666501692
528.75 0.05973468555 -0.01006534578
529.375 0.04215329253 -0.03768110689
530.0 0.03122360924 -0.03720446328
530.625 0.005458097621 -0.08217458711
531.25 0.01605293282 -0.1790612835
531.875 -0.05512187664 -0.147474188
532.5 -0.0953153342 -0.09410341098
533.125 -0.06672605469 -0.03624732603
533.75 -0.07060966369 -0.05394588237
534.375 -0.06926738111 -0.04134703396
535.0 -0.07708798565 -0.02607326506
535.625 -0.02836484188 -0.01783789096
536.25 -0.0341278128 -0.03524194048
536.875 -0.04384041355 -0.06328863114
537.5 -0.05600401923 -0.09653513494
538.125 -0.0750864239 -0.05855312527
538.75 -0.05771053869 -0.03146257066
539.375 -0.03770409948 -0.0460928201
540.0 -0.06708268401 -0.09296357308
540.625 -0.06766943527 -0.1041085133
541.25 -0.04733134696 -0.09598846649
541.875 -0.05174094614 -0.08093008585
542.5 -0.06226253273 -0.0966936585
543.125 -0.09975279698 -0.06055632264
543.75 -0.0985153068 0.0185382455
544.375 -0.0618143998 0.04199046869
545.0 -0.03468799607 0.07174695592
545.625 -0.00602051422 0.05072126574
546.25 0.01363251265 0.07295679128
546.875 0.02510599351 0.07091140349
547.5 0.02451085482 0.1019615409
548.125 0.004849796797 0.07635255681
548.75 -0.01153073246 0.075124698
549.375 -0.01681867616 0.07234090269
550.0 -0.05168353694 0.04133708239
550.625 -0.006919016068 -0.002175439245
551.25 -0.01901871008 -0.03138338099
551.875 -0.04931149269 -0.03899863019
552.5 -0.08660199816 -0.04499282593
553.125 -0.06638510618 -0.02494720626
553.75 -0.07503234512 -0.02670599391
554.375 -0.09043074732 0.004931158714
555.0 -0.1039031508 0.03275033241
555.625 -0.06705633693 0.02746241185
556.25 -0.08498717932 0.02520828952
556.875 -0.1013822467 0.02575977918
557.5 -0.08872572726 0.03354392673
558.125 -0.08699001591 0.0338993843
558.75 -0.06720763074 0.009828599925
559.375 -0.04201709176 0.003206892776
560.0 -0.03544099729 -0.001658453192
560.625 -0.02037389948 -0.03189951178
561.25 -0.05890442046 -0.03541423058
561.875 -0.0768593701 -0.01885615846
562.5 -0.0765444567 0.0270992535
563.125 -0.06551974074 0.04479516215
563.75 -0.05500829204 0.08201238527
564.375 -0.02365442822 0.08633579016
565.0 -0.01600648407 0.0884566494
565.625 -0.01390729957 0.05265026397
566.25 -0.04104067355 0.04593579991
566.875 -0.05511491302 0.03001006641
567.5 -0.06110161349 0.02238883314
568.125 -0.06734434831 0.01857106492
568.75 -0.04878795228 0.006219281309
569.375 -0.03172946607 -0.01348485071
570.0 -0.02548288765 -0.02965168675
570.625 -0.04039889203 -0.04324899696
571.25 -0.04430510752 -0.03515554194
571.875 -0.06153068607 -0.02632485767
572.5 -0.08725641634 -0.008596461624
573.125 -0.1116486961 0.03466441609
573.75 -0.06392586477 0.06569562668
574.375 -0.02982690114 0.07281274835
575.0 -0.0358656559 0.07431906171
575.625 -0.05339850509 0.06418098878
576.25 -0.03747922074 0.07206821259
576.875 -0.01190064699 0.0776867599
577.5 0.006506158322 0.08358665019
578.125 -0.01852520212 0.04189536003
578.75 -0.0116003056 0.04467464415
579.375 -0.00866213884 0.04336282257
580.0 -0.01635803471 0.0368974635
580.625 -0.02907761643 0.02045130205
581.25 -0.0517299757 0.01306885769
581.875 -0.06968409042 0.03448263255
582.5 -0.07544453028 0.04740335876
583.125 -0.05582763212 0.06298648666
583.75 -0.06057064066 0.02526614936
584.375 -0.07081711722 0.02030434782
585.0 -0.07600788553 0.009279276681
585.625 -0.06276115683 0.03733358475
586.25 -0.05422131084 0.02057385565
586.875 -0.06158851885 0.01398338949
587.5 -0.05894313587 0.02103109233
588.125 -0.02257607653 0.05616477277
588.75 -0.02538960777 0.03717040217
589.375 -0.03394547097 0.02396869256
590.0 -0.04558129296 0.02127059287
590.625 -0.0280819757 0.05524434042
591.25 -0.0503782181 0.07953861768
591.875 -0.02256071284 0.09412395365
592.5 0.0006065271533 0.07447035181
593.125 0.01981317978 0.06338911013
593.75 -0.02315311861 0.06089946396
594.375 -0.03337371166 0.04786917571
595.0 -0.03241039013 0.02977327845
595.625 -0.02660356774 0.02337130596
596.25 -0.03569384935 -0.02957893527
596.875 -0.03736404422 -0.018951997
597.5 -0.03282419897 -0.01468467812
598.125 -0.02991525514 0.0009256698279
598.75 -0.01855739515 -0.01948290606
599.375 -0.0149617977 -0.03848873816
600.0 -0.02177594984 -0.05266459737
600.625 -0.03670395829 -0.05204904835
601.25 -0.03907367226 -0.07726278742
601.875 -0.05462494182 -0.05056020846
602.5 -0.05508993046 -0.0332256252
603.125 -0.05736977264 -0.00984626088
603.75 -0.02805668298 -0.02964611108
604.375 -0.02106365797 -0.01818165558
605.0 -0.01639096573 -0.02769792699
605.625 -0.009253139356 -0.04861315052
606.25 -0.02743139311 -0.03218673596
606.875 -0.01259311073 -0.01716886505
607.5 0.009890162453 -0.01450697799
608.125 0.01423456587 -0.01337064085
608.75 0.02964598379 -0.02956358656
609.375 0.02474608598 -0.01432453629
610.0 0.03115821573 -0.00746839293
610.625 0.04613127581 -0.01970363456
611.25 0.03165261873 -0.01864014345
611.875 0.04472647418 -0.02112513082
612.5 0.0466026004 -0.01254889007
613.125 0.02501843146 -0.004024473492
613.75 -0.00848189341 0.002739219777
614.375 0.04019085417 0.02837305945
615.0 0.03023348498 0.01622191523
615.625 0.01511901687 0.01059424129
616.25 -0.0001475964597 0.0160642079
616.875 0.02631447388 0.0345443912
617.5 0.0334151562 0.04235394304
618.125 0.03047157742 0.03269238415
618.75 0.003297798071 0.02273439332
619.375 0.03373918245 0.05287118682
620.0 0.04398365592 0.04000735712
620.625 0.03558836622 0.00975673878
621.25 0.001237657782 -0.01300555745
621.875 0.01230572951 0.005327269681
622.5 -0.022049994 0.01363501058
623.125 -0.03273496191 0.04542017909
623.75 -0.04105361724 0.05287635254
624.375 -0.01820720707 0.05898792577
625.0 -0.04697983013 0.03412258732
625.625 -0.05691840014 0.0379512937
626.25 -0.03683889834 0.06219628771
626.875 -0.02951469082 0.04887561318
627.5 -0.01712139382 0.04273119754
628.125 -0.02145704018 0.03856534625
628.75 -0.02871247015 0.01869076667
629.375 -0.02272590532 -0.001001999723
630.0 -0.01645645871 0.02680178406
630.625 -0.005438184523 -0.01069464175
631.25 0.003279867214 -0.0455360065
631.875 0.003573354601 -0.06004351848
632.5 -0.01510216259 -0.05272520266
633.125 -0.02324558763 -0.05383240361
633.75 -0.03328170891 -0.05173336846
634.375 -0.02218392549 -0.07870473748
635.0 -0.05461853458 -0.03910138621
635.625 -0.04998058158 -0.0433615493
636.25 -0.03421435636 -0.03551479116
636.875 -0.01992241347 -0.0445637383
637.5 -0.02350761017 -0.07900103302
638.125 -0.04921611528 -0.03951931361
638.75 -0.03149131114 -0.01816896307
639.375 -8.211635207e-05 -0.02269148632
640.0 0.06727560485 -0.02935268584
640.625 0.03749715666 -0.03227599814
641.25 0.04347272774 -0.03305443041
641.875 0.04686640085 -0.02927128483
642.5 0.07381632238 -0.001003681008
643.125 0.06130382734 0.00634535179
643.75 0.05660606185 -0.00391282197
644.375 0.06026553275 -0.01536169702
645.0 0.06010693021 0.004235009941
645.625 0.02965592508 -0.002621847956
646.25 0.04568745918 0.01510060767
646.875 0.07680580094 0.01753278524
647.5 0.0754121101 0.01878625531
648.125 0.03951017182 0.001804428724
648.75 0.05125750851 0.0452483256
649.375 0.060764957 0.07319541473
650.0 0.0486964873 0.07571934068
650.625 0.04120225809 0.06950243618
651.25 0.01846039243 0.07801520498
651.875 -0.02636802105 0.07545609983
652.5 -0.02440846723 0.05440415312
653.125 -0.03521634127 0.04550581686
653.75 -0.03281156384 0.01512802006
654.375 -0.02776509128 -0.02033697895
655.0 -0.03874406354 -0.05066603301
655.625 -0.03791075798 -0.04241294557
656.25 -0.08010029654 -0.05384263635
656.875 -0.08483493794 -0.03894431602
657.5 -0.0802125292 -0.04314703081
658.125 -0.1072531931 -0.04736148407
658.75 -0.1060510373 -0.01842001482
659.375 -0.08515054888 0.02183055363
660.0 -0.05938971191 0.04411052447
660.625 -0.0719931399 0.04379153354
661.25 -0.0367701463 0.03044268887
661.875 -0.03609000128 0.03424526007
662.5 -0.03714526119 0.03440317542
663.125 -0.07142300822 0.0300859436
663.75 -0.06438222113 -0.02035868666
664.375 -0.05241339172 -0.05494315605
665.0 -0.03716281365 -0.0905755769
665.625 0.0004672137652 -0.08537106554
666.25 0.02473176626 -0.08893820582
666.875 0.0347610708 -0.08254996302
667.5 0.05094748206 -0.09881243771
668.125 0.03995738543 -0.06079349054
668.75 0.03481031511 -0.04680119049
669.375 0.04970708936 -0.04023156457
670.0 0.06976597096 -0.04354336122
670.625 0.072361576 -0.02726150844
671.25 0.05448099727 -0.03893301418
671.875 0.06401318956 -0.05054315523
672.5 0.04390464455 -0.09192547529
673.125 0.01986439565 -0.1069654601
673.75 -0.001217770004 -0.09975238355
674.375 0.0176131708 -0.08991469533
675.0 0.0586928548 -0.07506557357
675.625 0.05520337019 -0.03451822313
676.25 0.06332203708 -0.01782032746
676.875 0.07138024326 0.003588266795
677.5 0.05361399528 0.03727514276
678.125 0.03657192246 0.04390197756
678.75 0.05392517114 0.06773021165
679.375 0.07390513081 0.09466580384
680.0 0.06376905264 0.08967112215
680.625 0.08921452823 0.05561434999
681.25 0.08679083797 0.02844891731
681.875 0.1184235524 -0.0004370973924
682.5 0.09495402124 -0.03535783662
683.125 0.07311779568 -0.04179417868
683.75 0.07210918214 -0.01169279206
684.375 0.06579178895 0.04358010989
685.0 0.01394762846 0.05880239164
685.625 -0.03341457145 0.05290619232
686.25 -0.06767373187 0.02872341875
686.875 -0.0841591668 -0.02238362786
687.5 -0.09452568997 -0.03727274543
688.125 -0.1187431332 -0.04759427103
688.75 -0.1275337365 -0.06562185887
689.375 -0.08221467361 -0.05528027713
690.0 -0.08107666361 -0.04372022768
690.625 -0.09276846524 -0.04290619328
691.25 -0.1226611103 -0.02624619839
691.875 -0.04650632418 0.01362106075
692.5 -0.0349381881 0.03367698324
693.125 -0.01902192171 0.07890259434
693.75 0.006138903158 0.1235803567
694.375 0.03152335875 0.105678247
695.0 -0.01314734689 0.09671002474
695.625 -0.08748045187 0.07146302744
696.25 -0.1084191593 -0.04296398768
696.875 -0.05595846295 -0.1144485199
697.5 0.02441667118 -0.1078097653
698.125 0.04517909178 -0.08272075147
698.75 0.03707235259 -0.04950184661
699.375 0.05119129293 -0.05499382481
700.0 0.07569829222 -0.01571205455
700.625 0.07278502688 0.02344231642
701.25 0.06075737066 0.02848930398
701.875 0.0976281039 0.001296172907
702.5 0.1319885493 -0.0192544812
703.125 0.0909357177 -0.09158480109
703.75 -0.03167136269 -0.09393374648
704.375 -0.06653913065 -0.05319543082
705.0 -0.06544804686 -0.07747175451
705.625 0.01775134461 -0.08283922966
706.25 0.04763503461 -0.04546274376
706.875 0.05424366791 0.01247778425
707.5 0.05278217325 0.05318395579
708.125 -0.04193464788 0.08745512226
708.75 -0.06893250308 0.07523462715
709.375 -0.08786266317 0.03768379933
710.0 -0.09428514722 0.002619641928
710.625 -0.07367467215 -0.04753999062
711.25 -0.07194695448 -0.08327475624
711.875 -0.09211811698 -0.06133866831
712.5 -0.09503910708 0.001673682759
713.125 -0.04597998564 0.03739138056
713.75 -0.02996678359 0.04683182528
714.375 -0.02086630935 0.06578537355
715.0 -0.0004242852546 0.0652297188
715.625 -0.01933897926 0.06501079142
716.25 -0.05455048747 0.07594565546
716.875 -0.1084135891 0.05509035483
717.5 -0.0984147856 -0.02005289999
718.125 -0.08379446446 -0.008826608313
718.75 -0.06147916087 -0.0704881294
719.375 -0.0526033843 -0.08076684416
720.0 -0.01586596689 -0.08583209535
720.625 0.03993165697 -0.06175731129
721.25 0.03953259654 0.03552427208
721.875 -0.00437195015 0.04215147555
722.5 -0.0367994409 0.03449688842
723.125 -0.01891015193 0.05820318167
723.75 -0.01510919064 0.116890713
724.375 0.07224380225 0.04666854682
725.0 0.07194352175 -0.0159724284
725.625 0.05322368116 -0.04965182023
726.25 0.04091302577 -0.05832782023
726.875 0.04632415716 -0.03496073363
727.5 0.03739946396 -0.01964134326
728.125 0.03227112441 0.04052074599
728.75 0.02749690775 0.01525901075
729.375 0.03630857341 0.06674709516
730.0 0.03856534168 0.0265014338
730.625 0.02130981709 0.02815588806
731.25 0.0001623137546 0.03650631492
731.875 -0.04444862017 0.03226420859
732.5 -0.05342830226 0.008161231097
733.125 -0.05914839721 -0.02183617678
733.75 -0.034867396 0.005981604717
734.375 -0.0519031432 -0.04275671754
735.0 -0.04541668344 -0.01716635883
735.625 -0.04330295654 -0.01112026891
736.25 -0.007838572873 -0.01810488998
736.875 -0.07538565369 -0.0150248181
737.5 -0.06936858553 -0.02158787138
738.125 -0.04586258423 -0.01570405243
738.75 -0.03832790861 -0.002000329308
739.375 -0.01645502331 -0.02395293189
740.0 -0.005909767753 -0.03426661354
740.625 -0.03626901916 -0.03799365255
741.25 -0.02453530191 -0.02802213492
741.875 0.02548849631 9.807213198e-05
742.5 0.05410967351 -0.004629452625
743.125 0.01769996714 0.035746718
743.75 -0.01713669505 0.03027216594
744.375 -0.04714896527 0.001209188317
745.0 -0.04329762285 0.04083240339
745.625 -0.03009329618 0.06180894069
746.25 0.006690028738 0.07645992891
746.875 0.02143428082 0.05184708173
747.5 0.06093331515 0.0001356125568
748.125 0.02339838439 0.006488020154
748.75 0.02005952611 0.01197056004
749.375 0.02459336778 -0.01583002967
750.0 0.01572980001 -0.03636892372
