!Created with skrf (http://scikit-rf.org).
# GHz S RI R 50.0 
!freq ReS11 ImS11
500.0 -0.02854481122 0.02815775882
500.625 0.02377842492 0.03205498768
501.25 0.02769717789 0.02463692866
501.875 0.01934208132 0.03541674716
502.5 -0.001954368787 0.06630896861
503.125 0.03010530213 0.03580346497
503.75 0.04227890769 0.01534992381
504.375 0.04502293002 -0.0009954424433
505.0 0.06334967381 -0.01610385637
505.625 0.0492459084 -0.0539641835
506.25 0.03842028386 -0.05477306045
506.875 0.0581372516 -0.0421801884
507.5 0.0525566829 -0.03734013649
508.125 0.0740255804 -0.01217975454
508.75 0.05404907953 -0.04228838167
509.375 0.04132633852 -0.04061746578
510.0 0.06636227742 -0.03378353436
510.625 -0.004614513162 -0.06622552695
511.25 -0.02861863645 -0.05229563178
511.875 -0.04544926526 -0.01304875376
512.5 -0.03442938098 -0.008369141964
513.125 -0.02088188168 0.0316459327
513.75 -0.03406897983 0.03640367702
514.375 -0.0335075804 0.06980489709
515.0 0.03099899238 0.0665722269
515.625 -0.0333255709 0.08982171005
516.25 0.02152382258 0.1022745664
516.875 -0.06919431477 0.1165932225
517.5 0.03531489309 0.103188787
518.125 -0.04908142887 0.1105518764
518.75 0.01986366918 0.04697284476
519.375 -0.01556340291 0.08572909211
520.0 0.05004654659 0.05554406886
520.625 0.0573226492 0.03898208078
521.25 0.05585852242 0.02296779439
521.875 0.02514033765 0.05668522122
522.5 0.06389249878 -0.0009484647793
523.125 0.1084393289 -0.01907900533
523.75 0.0970445022 -0.03212161519
524.375 0.04328517857 -0.000760571209
525.0 0.005441512171 -0.01442534018
525.625 -0.004930366019 0.01804749853
526.25 0.0008054530838 0.04015027857
526.875 0.01002443983 0.04555426583
527.5 0.01695289219 0.01561699792
528.125 0.03390119848 0.008412283422
528.75 0.05383731531 -0.003465433964
529.375 0.06002661844 -0.02931206541
530.0 0.03257105989 -0.02319768278
530.625 0.01785583223 -0.08853158924
531.25 0.03685615821 -0.1634409171
531.875 -0.03844100479 -0.1635349746
532.5 -0.075054753 -0.08177346546
533.125 -0.06149468821 -0.05039473851
533.75 -0.05992636901 -0.06104504727
534.375 -0.06976369825 -0.05581547913
535.0 -0.04930032686 -0.006258057256
535.625 -0.02331345244 -0.02939158619
536.25 -0.02575734066 -0.03844047332
536.875 -0.03872538157 -0.06862061355
537.5 -0.03923253369 -0.09274733511
538.125 -0.062997124 -0.07030359411
538.75 -0.04956362199 -0.03380784638
539.375 -0.03344461345 -0.05924021385
540.0 -0.02938940585 -0.07367179342
540.625 -0.04633957091 -0.1138280214
541.25 -0.03134479635 -0.09131184466
541.875 -0.03950608717 -0.08511797374
542.5 -0.04655981661 -0.09971676609
543.125 -0.08766631043 -0.06881428252
543.75 -0.09131019045 0.01011936998
544.375 -0.06982038194 0.03179744979
545.0 -0.01629072305 0.03992059922
545.625 -0.01567497964 0.04941282103
546.25 0.005148256201 0.06882483945
546.875 0.01050662175 0.07690405025
547.5 0.009316524353 0.06229600059
548.125 -0.004907694435 0.06883880477
548.75 -0.01815164875 0.06324984891
549.375 -0.03622237524 0.07233165291
550.0 -0.01542246231 0.01628820303
550.625 -0.009058493647 -0.01012561949
551.25 -0.01193409946 -0.0394940406
551.875 -0.06012179154 -0.05363938456
552.5 -0.05646975107 -0.05379650494
553.125 -0.06668284999 -0.03273164957
553.75 -0.07559863837 -0.03426654299
554.375 -0.1057390072 0.00120722943
555.0 -0.07788899442 0.009494000524
555.625 -0.0732958287 0.02096206804
556.25 -0.08643401426 0.01306423719
556.875 -0.09615325304 0.01053325917
557.5 -0.09130649162 0.02623688702
558.125 -0.07503939358 0.01920859687
558.75 -0.06071832776 0.0001538584781
559.375 -0.04412037518 -0.005350628538
560.0 -0.01234258672 -0.01022521186
560.625 -0.02303025496 -0.03828457766
561.25 -0.04973557291 -0.04548245823
561.875 -0.0798515701 -0.02495494237
562.5 -0.06966656689 0.009200019056
563.125 -0.07212397826 0.0405708549
563.75 -0.06258666788 0.07238840849
564.375 -0.03099792435 0.08578166201
565.0 -0.02138844074 0.06264957396
565.625 -0.02064905797 0.05122583559
566.25 -0.04144990886 0.02916840001
566.875 -0.05965093141 0.02203046811
567.5 -0.05872856476 0.01023419672
568.125 -0.05989798496 0.003257958203
568.75 -0.04290597397 -0.003904676108
569.375 -0.0225640855 -0.02132000239
570.0 -0.02456271481 -0.0372136656
570.625 -0.02875120122 -0.05404955325
571.25 -0.03684488726 -0.04088028813
571.875 -0.05524715141 -0.04127726225
572.5 -0.08709639603 -0.02337664112
573.125 -0.1091608958 0.01245192823
573.75 -0.06466676168 0.05685896479
574.375 -0.03721069341 0.06509578098
575.0 -0.05276524527 0.04581422416
575.625 -0.05813177388 0.05470143714
576.25 -0.04006094205 0.06047719856
576.875 -0.01217812541 0.0792067016
577.5 -0.01829733534 0.05082001531
578.125 -0.02044568086 0.038003436
578.75 -0.01585792006 0.03564850509
579.375 -0.0158578766 0.04142925933
580.0 -0.02259592987 0.02554879493
580.625 -0.03546671644 0.005069807196
581.25 -0.0579498045 0.00683682843
581.875 -0.07874070879 0.02211431145
582.5 -0.07814407431 0.0423160077
583.125 -0.06612142604 0.02946305961
583.75 -0.06276237489 0.01627150142
584.375 -0.07186858598 0.01012563436
585.0 -0.07815745518 0.01138149494
585.625 -0.06213038718 0.01578181054
586.25 -0.05698792032 0.005932611577
586.875 -0.05900117436 -0.003309420969
587.5 -0.05782400537 0.01663962022
588.125 -0.03682020746 0.03419847626
588.75 -0.03293128543 0.02922270887
589.375 -0.03921066825 0.01326325462
590.0 -0.03965854546 0.02555536692
590.625 -0.06430870408 0.04228847748
591.25 -0.05632868227 0.07416658327
591.875 -0.03338721093 0.08207164748
592.5 0.001459066814 0.07586419687
593.125 -0.01903378289 0.0505242622
593.75 -0.03000830606 0.05368902336
594.375 -0.03406493723 0.03912878105
595.0 -0.02770278212 0.03187349105
595.625 -0.02624441526 -0.01897369589
596.25 -0.02723138366 -0.03194769613
596.875 -0.03079598659 -0.02503207379
597.5 -0.03488642652 -0.01059511631
598.125 -0.009045509415 -0.0304148474
598.75 -0.01552468681 -0.02481600363
599.375 -0.008706136864 -0.04405409777
600.0 -0.01925253208 -0.04860293055
600.625 -0.0198154809 -0.07612126115
601.25 -0.03010118538 -0.07790094222
601.875 -0.04847829196 -0.05127378029
602.5 -0.05543421441 -0.01907715418
603.125 -0.02649344028 -0.05492493527
603.75 -0.02416767967 -0.03031555096
604.375 -0.01864184238 -0.01733418807
605.0 -0.007225938805 -0.03297333215
605.625 -0.01155672523 -0.03946497104
606.25 -0.004184586912 -0.03927967355
606.875 -0.006245997972 -0.01766167016
607.5 0.01492181675 -0.006462708161
608.125 0.02193358212 -0.01108834236
608.75 0.0308944588 -0.02233927669
609.375 0.02819643404 -0.007855258299
610.0 0.03893488007 -0.006553343436
610.625 0.04014849423 -0.0115006896
611.25 0.05087900336 -0.02058198575
611.875 0.04610630851 -0.01730627879
612.5 0.04061522084 -0.006089662738
613.125 -0.001472389466 -0.01162395527
613.75 0.03069018527 0.02303882071
614.375 0.02706890615 0.02749164858
615.0 0.02643018966 0.02408285675
615.625 -0.0006970399255 0.004211998712
616.25 0.01370488499 0.02802804705
616.875 0.02057010215 0.04285734705
617.5 0.0304475448 0.04648809784
618.125 0.0007816926158 0.02038404979
618.75 0.03136606168 0.04870203739
619.375 0.02139164669 0.04633714691
620.0 0.03239936581 0.03920511037
620.625 0.01518853547 0.001033293353
621.25 0.0243985826 0.005224451187
621.875 -0.001361147293 -0.004242986458
622.5 -0.02218518517 0.01398998166
623.125 -0.05041014545 0.03880068603
623.75 -0.01046737843 0.07080993717
624.375 -0.02763930634 0.04956586262
625.0 -0.04906571302 0.02635103764
625.625 -0.05438943308 0.03327741854
626.25 -0.04641843803 0.04688290507
626.875 -0.01944810967 0.05573406024
627.5 -0.01713975379 0.03620629721
628.125 -0.02403451704 0.02764624075
628.75 -0.02617365363 -0.003956207081
629.375 -0.02009472334 0.01113626316
630.0 -0.01303266592 0.01312408855
630.625 -0.0007867446771 -0.01632542551
631.25 -0.001164314772 -0.035252974
631.875 0.002178930337 -0.04753732247
632.5 -0.006468982983 -0.05615886454
633.125 -0.01408536192 -0.05889133608
633.75 -0.01113492001 -0.07435043925
634.375 -0.04244500216 -0.04825569174
635.0 -0.04041301595 -0.0527543965
635.625 -0.0374154508 -0.04693678529
636.25 -0.02590185337 -0.03447460671
636.875 -0.003926243126 -0.05565382778
637.5 -0.030180499 -0.05863085761
638.125 -0.03816314042 -0.03941253382
638.75 -0.02590428658 -0.01895479022
639.375 0.02804874949 -0.0297323955
640.0 0.03392900225 -0.02167165568
640.625 0.04514689667 -0.02163767329
641.25 0.0442594132 -0.03030487402
641.875 0.06509553189 -0.01431766335
642.5 0.05682733763 0.004482261898
643.125 0.0553343312 0.01836994107
643.75 0.05456151296 0.00417806151
644.375 0.06396465169 0.008326859245
645.0 0.04040478534 0.005180037979
645.625 0.02837015731 0.01120387377
646.25 0.04818923373 0.02590065853
646.875 0.07893983972 0.04656486295
647.5 0.05140439605 0.001877769017
648.125 0.0411446895 0.01795181182
648.75 0.04423267023 0.05506916406
649.375 0.03944930107 0.09040975302
650.0 0.04389781854 0.05515838746
650.625 0.02861585894 0.06669465873
651.25 0.001126540316 0.0760516033
651.875 -0.03210100582 0.05981480043
652.5 -0.03436934027 0.04592253707
653.125 -0.02640280605 0.03038033174
653.75 -0.03060066841 0.001975862116
654.375 -0.02871029088 -0.04382341249
655.0 -0.01385199731 -0.03876693527
655.625 -0.0369125917 -0.05967093528
656.25 -0.06791312287 -0.06913310947
656.875 -0.07458783175 -0.04736965596
657.5 -0.07601326905 -0.05816291729
658.125 -0.08265933388 -0.05220027258
658.75 -0.09121291244 -0.0348718113
659.375 -0.07875822825 0.01287843444
660.0 -0.07844663466 0.02570228203
660.625 -0.04072647078 0.02672952048
661.25 -0.04045578707 0.01385925983
661.875 -0.03738163006 0.02250890022
662.5 -0.05498153925 0.02719226397
663.125 -0.0691052539 0.005040840755
663.75 -0.0574243849 -0.03601536799
664.375 -0.04207848785 -0.06355884131
665.0 -0.02402507957 -0.0842884273
665.625 0.01585586688 -0.09043352999
666.25 0.03178307969 -0.07745682806
666.875 0.05344321949 -0.08941373501
667.5 0.04066119575 -0.06338069383
668.125 0.05045590017 -0.04443049959
668.75 0.03709602555 -0.03416768054
669.375 0.05427548783 -0.02296396639
670.0 0.06794662693 -0.01599308479
670.625 0.06748761337 -0.009053363136
671.25 0.06479305773 -0.02487741965
671.875 0.07151342364 -0.03100621077
672.5 0.06826756822 -0.08931816162
673.125 0.03374833476 -0.09322496423
673.75 0.01234782873 -0.08837520341
674.375 0.03892334642 -0.08751424555
675.0 0.04064239742 -0.03472724989
675.625 0.05696301588 -0.02280924709
676.25 0.05819461273 -0.002935312237
676.875 0.07187160892 0.02998509771
677.5 0.01401983257 0.03324022091
678.125 0.02801100017 0.05367614347
678.75 0.04253483284 0.08283124078
679.375 0.04466358132 0.1110175243
680.0 0.04719968587 0.09050311494
680.625 0.06424941698 0.06188434669
681.25 0.08412795814 0.04209192872
681.875 0.105592791 0.01992359624
682.5 0.09250666056 -0.02141130929
683.125 0.06153458557 -0.02413197602
683.75 0.06561346971 0.006814565029
684.375 0.04237840352 0.05879508533
685.0 -0.0008625384632 0.05721157204
685.625 -0.04593010118 0.03714343462
686.25 -0.06897231135 -0.005649743832
686.875 -0.07929970543 -0.04256148975
687.5 -0.08859635883 -0.05393468637
688.125 -0.1126272129 -0.06941156455
688.75 -0.07919230146 -0.08069180081
689.375 -0.06804342803 -0.06079058573
690.0 -0.06737647657 -0.05459857803
690.625 -0.09997994507 -0.06191064306
691.25 -0.05261663088 -0.03515630509
691.875 -0.04493504385 0.004237750996
692.5 -0.04083258048 0.01164284434
693.125 -0.04907969059 0.07592249776
693.75 -0.02633034313 0.1205445713
694.375 0.003234988519 0.1016990759
695.0 -0.03388309243 0.09364450183
695.625 -0.09946435338 0.04736210437
696.25 -0.1127710218 -0.0558048638
696.875 -0.003090244824 -0.0923723277
697.5 0.04333605543 -0.08882418511
698.125 0.05765389233 -0.05898456791
698.75 0.04420602715 -0.04716692624
699.375 0.06328489554 -0.01368588521
700.0 0.07726717131 0.01233625755
700.625 0.05706872272 0.03992717971
701.25 0.06342619172 0.03094401835
701.875 0.08187578852 0.05120865817
702.5 0.1303955201 0.003596314787
703.125 0.08436873348 -0.06088396524
703.75 -0.01842633421 -0.0898198808
704.375 -0.02177928291 -0.05872522664
705.0 -0.01415900994 -0.09153786875
705.625 0.03872773318 -0.0640662112
706.25 0.05207775992 -0.02527820985
706.875 0.05482567923 0.02154213288
707.5 -0.008507772373 0.0785485463
708.125 -0.05557295613 0.08082160679
708.75 -0.07835899483 0.06364741978
709.375 -0.09170221946 0.03205093218
710.0 -0.06405750118 -0.04465398417
710.625 -0.06428354367 -0.05880608903
711.25 -0.05318036367 -0.08771897329
711.875 -0.07330730355 -0.07119084978
712.5 -0.06159976144 -0.02260949621
713.125 -0.04484388608 0.0215151443
713.75 -0.04679712344 0.03067534639
714.375 -0.03131414169 0.06612850372
715.0 -0.05382605502 0.04449284305
715.625 -0.03865897119 0.06199163323
716.25 -0.07777491885 0.0664127314
716.875 -0.1190514185 0.01266525662
717.5 -0.091996519 -0.02000412789
718.125 -0.05349003702 -0.06316422026
718.75 -0.0450622863 -0.07605404184
719.375 -0.02667721317 -0.08120366509
720.0 0.00616804265 -0.07822604244
720.625 0.04992994082 -0.02659030619
721.25 0.02720427047 0.03299834385
721.875 -0.0203460902 0.02965909601
722.5 -0.03342465296 0.0268392309
723.125 -0.07053948015 0.05031134611
723.75 -0.03171919795 0.1064951562
724.375 0.05728085291 0.06180028342
725.0 0.06156281567 -0.01878755607
725.625 0.08340728782 -0.01513014254
726.25 0.05977931196 -0.0311569631
726.875 0.04585419901 -0.02375806914
727.5 0.03857734554 0.006959601371
728.125 0.02555078563 0.02443825744
728.75 -0.01528788405 0.07806542136
729.375 0.02320373611 0.06543021884
730.0 0.0261174479 0.04188886453
730.625 0.01179057494 0.03305372126
731.25 -0.03532865811 0.05399792233
731.875 -0.05378950722 0.02516625545
732.5 -0.05333620087 -0.001612210367
733.125 -0.04724564344 -0.03078369337
733.75 -0.03261155537 -0.02477490934
734.375 -0.03111314839 -0.04172524216
735.0 -0.04228434984 -0.03442701969
735.625 0.00250221468 -0.0108433245
736.25 -0.06394661067 -0.01985003628
736.875 -0.06415341105 -0.02894131853
737.5 -0.06515844653 -0.03883597688
738.125 -0.05483715776 -0.02025049146
738.75 -0.04590142237 -0.02975710167
739.375 -0.01627380422 -0.02621964586
740.0 0.005152148152 -0.0292136969
740.625 -0.02293811195 -0.0403874455
741.25 0.000234419032 -0.02079942564
741.875 0.0171847937 -0.05896544699
742.5 0.03502798859 0.01161179484
743.125 0.003709837339 0.03487952178
743.75 -0.03997309071 0.006246162811
744.375 -0.03807615944 0.02548771807
745.0 -0.04250858344 0.03206011024
745.625 -0.04085882116 0.05985721235
746.25 -0.03191983618 0.06297224965
746.875 0.06050172639 0.06125939514
747.5 0.04286441653 0.008502611407
748.125 0.01825091844 0.008987535519
748.75 0.01966588309 0.008312023542
749.375 0.0321828027 0.005954825261
750.0 0.002654369945 -0.03158053666
