!Created with skrf (http://scikit-rf.org).
# GHz S RI R 50.0 
!freq ReS11 ImS11
500.0 -0.01665468096 0.02498752703
500.625 0.01649937939 0.03167502551
501.25 0.02190081521 0.03280972733
501.875 0.02226901257 0.02738236694
502.5 0.0005513587354 0.0559969905
503.125 0.02675557253 0.05482749092
503.75 0.04825969473 -0.0002258532518
504.375 0.04513072291 -0.004948340698
505.0 0.04906542483 -0.02902695499
505.625 0.07310961572 -0.03401764535
506.25 0.04374207622 -0.04955833279
506.875 0.05726470834 -0.04014076573
507.5 0.05184563262 -0.03980083758
508.125 0.08204496406 0.005677746426
508.75 0.03358396309 -0.05816739297
509.375 0.02065905474 -0.04689129423
510.0 0.07305875248 -0.03054628923
510.625 0.01023918376 -0.07601683939
511.25 -0.04441228282 -0.04550635868
511.875 -0.0468849386 -0.01389501367
512.5 -0.03565895666 0.006480919467
513.125 -0.03595610823 0.02391860829
513.75 -0.01524758001 0.04064622325
514.375 -0.0222017582 0.05898842647
515.0 0.001202704297 0.08382871522
515.625 -0.04482653918 0.08919119747
516.25 0.02620180529 0.1008475843
516.875 -0.05227030086 0.112362495
517.5 0.03394112091 0.1009488376
518.125 -0.07457729197 0.1015820804
518.75 0.01964251432 0.04863762506
519.375 0.008488630694 0.07319109103
520.0 0.03866011077 0.07605886039
520.625 0.0551623012 0.04549445414
521.25 0.0531259924 0.03163440727
521.875 0.02819938568 0.04906636404
522.5 0.06294613673 0.009691736393
523.125 0.1156207043 -0.002067686973
523.75 0.09617523983 -0.06494989434
524.375 0.04970698499 -0.03228113475
525.0 2.760312425e-05 0.006871755221
525.625 0.001564213783 0.005493809397
526.25 0.006096048345 0.03722103973
526.875 0.01539228053 0.03085263389
527.5 0.02492568724 0.03277250044
528.125 0.03340828681 0.004553380281
528.75 0.06010987406 -0.002435942516
529.375 0.03776128413 -0.03073357144
530.0 0.03674353102 -0.03434610827
530.625 0.01482668656 -0.06556084547
531.25 0.02260766119 -0.1434331665
531.875 -0.04905184137 -0.1381702005
532.5 -0.08660805483 -0.09912256731
533.125 -0.06665382101 -0.04307199058
533.75 -0.06412195718 -0.06352632232
534.375 -0.06616264619 -0.03881141479
535.0 -0.06307003084 -0.02833035938
535.625 -0.02728783445 -0.03360318748
536.25 -0.02443951464 -0.03521213314
536.875 -0.03740550597 -0.06419184443
537.5 -0.04714192573 -0.1030903808
538.125 -0.06009171862 -0.05005046573
538.75 -0.05090397016 -0.02915931075
539.375 -0.03004715961 -0.04268946957
540.0 -0.05006251772 -0.1002314337
540.625 -0.04479082841 -0.08613240986
541.25 -0.03179247745 -0.07918828152
541.875 -0.04286779464 -0.08596986178
542.5 -0.05408060542 -0.1071264795
543.125 -0.0820370604 -0.05095880731
543.75 -0.08544694735 0.01639862095
544.375 -0.05756097169 0.03698719067
545.0 -0.0374685488 0.05218682111
545.625 -0.01565644789 0.05480858585
546.25 0.004708930347 0.06786809948
546.875 0.01293165001 0.07165826753
547.5 0.00657441258 0.09132901434
548.125 0.006381027328 0.05500129469
548.75 -0.01108113102 0.05615855577
549.375 -0.01857736034 0.06105057664
550.0 -0.04339638451 0.02195554664
550.625 -0.01210429285 -0.005884333258
551.25 -0.01605734312 -0.03788775382
551.875 -0.04397754682 -0.05049577138
552.5 -0.07693080314 -0.05518896813
553.125 -0.05693828363 -0.03047722155
553.75 -0.07341559912 -0.03194207982
554.375 -0.09548571181 -0.0004526319801
555.0 -0.09826123147 0.0174504293
555.625 -0.07741439578 0.02687859924
556.25 -0.08198859819 0.01360339923
556.875 -0.09126672217 0.01050920145
557.5 -0.08581312769 0.02792365973
558.125 -0.08677413226 0.02558553871
558.75 -0.06266246985 0.002636427035
559.375 -0.03637512064 0.001762339728
560.0 -0.02973108639 -0.007658363482
560.625 -0.03085897508 -0.03585925479
561.25 -0.05778034571 -0.04169538861
561.875 -0.07736245154 -0.02343233543
562.5 -0.07437105677 0.01679837757
563.125 -0.07200926718 0.04522129315
563.75 -0.06164793452 0.07793982534
564.375 -0.02573278473 0.07729719561
565.0 -0.0222433546 0.08097439229
565.625 -0.0172976231 0.05868389833
566.25 -0.0467259313 0.04071205499
566.875 -0.05634736581 0.02108204991
567.5 -0.06153901914 0.0143264168
568.125 -0.06903355391 0.01018527546
568.75 -0.03043509639 -0.002873539322
569.375 -0.01676734252 -0.01966426299
570.0 -0.01860541882 -0.03383899019
570.625 -0.04277620397 -0.05022036155
571.25 -0.03800152681 -0.04054222289
571.875 -0.04837612672 -0.04256374978
572.5 -0.08853212632 -0.0175500723
573.125 -0.1150913668 0.02508474679
573.75 -0.05980361741 0.04754914326
574.375 -0.03857633702 0.06018065544
575.0 -0.04942344463 0.06072259929
575.625 -0.05663261493 0.06865275044
576.25 -0.0353335762 0.06776022177
576.875 -0.0091071428 0.06775427339
577.5 -0.009864839017 0.07233737209
578.125 -0.01989406138 0.04789431555
578.75 -0.01460611045 0.03547212698
579.375 -0.01823870077 0.03630386272
580.0 -0.02130704489 0.02804720398
580.625 -0.03168934976 0.01690444199
581.25 -0.05914331327 -0.00101421238
581.875 -0.07796960429 0.01835606154
582.5 -0.07476034433 0.03474557566
583.125 -0.06139977019 0.05361223238
583.75 -0.05971024967 0.0123950253
584.375 -0.07165709151 0.01357675945
585.0 -0.07418071886 0.005695386172
585.625 -0.0625366896 0.0320331642
586.25 -0.05067622151 -0.0060515543
586.875 -0.05638062265 -0.008846306456
587.5 -0.05583859766 0.01360049457
588.125 -0.02720481932 0.05067111494
588.75 -0.03413752082 0.02025742747
589.375 -0.03973328175 0.01541562055
590.0 -0.04580931309 0.01912500208
590.625 -0.04235034099 0.05264938737
591.25 -0.05202192527 0.07539852022
591.875 -0.02948962275 0.08828293225
592.5 -0.0006746166257 0.07453037283
593.125 0.003919406615 0.0591860437
593.75 -0.0285638243 0.04411436713
594.375 -0.03270726511 0.04369101169
595.0 -0.03195920916 0.01805464233
595.625 -0.02858625369 0.0062230346
596.25 -0.02963280788 -0.02217281889
596.875 -0.03185792206 -0.02263798035
597.5 -0.03278689098 -0.01501723691
598.125 -0.02442844276 -0.008372284758
598.75 -0.00984747558 -0.03767602755
599.375 -0.007695840838 -0.04771164866
600.0 -0.01543552535 -0.06079747855
600.625 -0.03316155967 -0.05391445892
601.25 -0.02666013975 -0.07968326074
601.875 -0.04864832958 -0.04936454823
602.5 -0.05462777985 -0.02723693044
603.125 -0.04983013321 -0.02966109317
603.75 -0.03583322032 -0.01838823364
604.375 -0.009045201746 -0.02706012314
605.0 0.0002751050408 -0.04375653592
605.625 0.0004642477377 -0.04623580471
606.25 -0.02605135954 -0.02800967476
606.875 0.009933183388 -0.01945347833
607.5 0.01336378156 -0.007928742195
608.125 0.0192867012 -0.01206165769
608.75 0.01957906046 -0.01414558123
609.375 0.0366786731 -0.01635919686
610.0 0.05395924029 -0.009764030869
610.625 0.0495619876 -0.01271976932
611.25 0.02987824347 -0.01565921713
611.875 0.0646527554 -0.009046343044
612.5 0.0405634942 -0.004719602256
613.125 0.01203097079 -0.005258418084
613.75 0.004273564936 0.005587316014
614.375 0.01452172809 0.02010046721
615.0 0.02479459172 0.01833090182
615.625 0.01232488385 0.007320264098
616.25 0.009040930077 0.01799907928
616.875 0.002803530307 0.02972942511
617.5 0.02332386241 0.03789508112
618.125 0.01494567098 0.02858791887
618.75 0.02010130878 0.03037670243
619.375 0.01156041105 0.0350592553
620.0 0.03215339543 0.03608266206
620.625 0.03540364012 0.01386189721
621.25 0.002094570155 -0.01660136337
621.875 -0.005776066211 -0.01084265261
622.5 -0.03331118512 0.01070538473
623.125 -0.03727229691 0.03656661624
623.75 -0.02555317313 0.05550918747
624.375 -0.03630784571 0.04158143593
625.0 -0.04078518827 0.03737642542
625.625 -0.04276333406 0.05125420928
626.25 -0.04076223167 0.05938905215
626.875 -0.03194380908 0.04224194353
627.5 -0.01360504073 0.05775385365
628.125 -0.02503064909 0.03321737066
628.75 -0.03251428669 0.01970206839
629.375 -0.01867127274 -0.006366370092
630.0 -0.01794108756 0.01010250328
630.625 -0.007439426991 -0.008227936503
631.25 0.006386401689 -0.03795615141
631.875 0.01026615437 -0.06336798907
632.5 -0.02779844511 -0.04587726964
633.125 -0.01848901476 -0.05864711365
633.75 -0.02199558296 -0.06234439315
634.375 -0.01609672205 -0.0674441038
635.0 -0.03380271141 -0.06186253714
635.625 -0.04722945091 -0.03569985984
636.25 -0.03340374108 -0.02226595494
636.875 -0.01588153244 -0.04750456143
637.5 -0.0106648926 -0.07732732181
638.125 -0.05356491061 -0.03660555664
638.75 -0.03278832673 -0.01747182453
639.375 0.008298063523 -0.02720988274
640.0 0.06376164426 -0.01243386138
640.625 0.04322628137 -0.02890944878
641.25 0.04909310366 -0.02806103449
641.875 0.04702720362 -0.02365948541
642.5 0.06966032805 0.01220617037
643.125 0.05113633287 -0.0008977823702
643.75 0.05362115687 -0.001953172437
644.375 0.05268488437 -0.009462804129
645.0 0.05306808408 0.01521715283
645.625 0.0335995743 0.003712361551
646.25 0.04955022158 0.02502994025
646.875 0.07295411276 0.03727309887
647.5 0.06033691935 0.02187534191
648.125 0.04804307905 0.01912584326
648.75 0.04361071931 0.05262860026
649.375 0.0419998748 0.08104892578
650.0 0.03926545302 0.06627874466
650.625 0.03164484482 0.07654496061
651.25 0.0127658193 0.06766030824
651.875 -0.02009320041 0.05765159286
652.5 -0.02531574945 0.04981396513
653.125 -0.04050608882 0.03550223393
653.75 -0.03017352789 0.002169702708
654.375 -0.02322926974 -0.03035803168
655.0 -0.02777847763 -0.05617026865
655.625 -0.04470835797 -0.06410562553
656.25 -0.06456246498 -0.06016384566
656.875 -0.06876717096 -0.04180086593
657.5 -0.07585440266 -0.04762202798
658.125 -0.1007398471 -0.06152226475
658.75 -0.08948440914 -0.01596450378
659.375 -0.07790164914 0.0197257103
660.0 -0.06536160534 0.03137959415
660.625 -0.06826800226 0.02434113222
661.25 -0.03937909354 0.02011000256
661.875 -0.03842965892 0.02598878501
662.5 -0.03703059376 0.02519884555
663.125 -0.08029664242 0.01251718748
663.75 -0.04783135005 -0.02284998168
664.375 -0.04236289723 -0.0576029319
665.0 -0.02339798649 -0.09276106835
665.625 0.01821631709 -0.1010981945
666.25 0.03302391599 -0.08663407527
666.875 0.04215452234 -0.08402543507
667.5 0.05754729392 -0.07365496414
668.125 0.05789577574 -0.05332010516
668.75 0.03726559305 -0.03702699376
669.375 0.0471833839 -0.02170087198
670.0 0.07408618294 -0.02490679172
670.625 0.07853229429 -0.01625585893
671.25 0.04768905664 -0.02028891501
671.875 0.06055198484 -0.03033436312
672.5 0.05488951621 -0.07756913761
673.125 0.03196091018 -0.1031289381
673.75 0.007963149326 -0.09614071835
674.375 0.03293070054 -0.08754893254
675.0 0.06012291792 -0.05042702756
675.625 0.06400460694 -0.0324946236
676.25 0.06496982262 -0.006302764202
676.875 0.06399513369 0.02496234544
677.5 0.02968977837 0.04088945138
678.125 0.03730584802 0.05164098655
678.75 0.02862812605 0.07150728969
679.375 0.04097845541 0.09980983203
680.0 0.04991648366 0.08566309089
680.625 0.08138417526 0.06374145981
681.25 0.09054584145 0.03587926782
681.875 0.1140225838 0.01606503485
682.5 0.08749088239 -0.02306513428
683.125 0.06717915893 -0.02812488075
683.75 0.07582341755 -0.001802074073
684.375 0.03230926794 0.04231851863
685.0 0.003733562335 0.05625612547
685.625 -0.04113912702 0.0406929787
686.25 -0.07593997128 0.01288862841
686.875 -0.06447661734 -0.04163018727
687.5 -0.0812515056 -0.05261423991
688.125 -0.1075263333 -0.06351059393
688.75 -0.10849061 -0.080756156
689.375 -0.06239284431 -0.05260889836
690.0 -0.07634547927 -0.05244537235
690.625 -0.0889244626 -0.04965590164
691.25 -0.08874695156 -0.0451752672
691.875 -0.05279916794 0.01262861627
692.5 -0.04104789667 0.02171808464
693.125 -0.04994664162 0.06847539403
693.75 -0.02162856026 0.1145191569
694.375 0.01970358394 0.1062036868
695.0 -0.03461766724 0.0818517276
695.625 -0.09617078157 0.06130363023
696.25 -0.1009781271 -0.05628789824
696.875 -0.0241439149 -0.1089242392
697.5 0.03669953931 -0.1050893782
698.125 0.05170938814 -0.05942057579
698.75 0.04285214213 -0.04253000868
699.375 0.0606559904 -0.0415487474
700.0 0.06479577865 0.01866066672
700.625 0.05728806483 0.03729617079
701.25 0.0548794609 0.03647831356
701.875 0.0979363877 0.02153822274
702.5 0.1303517659 0.003820679771
703.125 0.08748727552 -0.07685589861
703.75 -0.01490160207 -0.08784132496
704.375 -0.0421619852 -0.06108365573
705.0 -0.04571505891 -0.08830511732
705.625 0.03965591771 -0.053059246
706.25 0.05341374749 -0.02397417376
706.875 0.04199821748 0.02796297081
707.5 0.03151515445 0.07197210372
708.125 -0.05483707282 0.07940925857
708.75 -0.07442617429 0.06876171564
709.375 -0.08936257339 0.01856103811
710.0 -0.08407941555 -0.02237438618
710.625 -0.07776508583 -0.04318518006
711.25 -0.0616257166 -0.08294316342
711.875 -0.07405752954 -0.07057696966
712.5 -0.08161574132 -0.006818409843
713.125 -0.04178974482 0.009810513769
713.75 -0.0368518796 0.0376251193
714.375 -0.04232245948 0.06174488862
715.0 -0.03139501315 0.05601191055
715.625 -0.02076386525 0.06149326497
716.25 -0.09952413007 0.05601479325
716.875 -0.1211261211 0.0005475096219
717.5 -0.08452307224 -0.03295873923
718.125 -0.07496578864 -0.03217567608
718.75 -0.05570949171 -0.0662467986
719.375 -0.03428683226 -0.07901838592
720.0 0.01951450818 -0.07585729123
720.625 0.04740682663 -0.04276167125
721.25 0.03812027259 0.02450388934
721.875 -0.02142678909 0.02932955077
722.5 -0.05737810659 0.02028559829
723.125 -0.03043640667 0.05454627201
723.75 -0.02597292069 0.1023044696
724.375 0.06178565829 0.05211133233
725.0 0.07209025819 -0.01385234833
725.625 0.07304798158 -0.03477874979
726.25 0.04064544869 -0.05039389668
726.875 0.05250578337 -0.007126707426
727.5 0.04539916251 0.02351011022
728.125 0.01188957771 0.05470129567
728.75 0.01680602472 0.03780635438
729.375 0.02446893123 0.06346407739
730.0 0.03417116078 0.03028172619
730.625 0.01229044987 0.05425411542
731.25 -0.01661481031 0.04618897835
731.875 -0.02842096461 0.02520932946
732.5 -0.06943012591 -0.0181312358
733.125 -0.05058709862 -0.03359224772
733.75 -0.03116299165 -0.006362923524
734.375 -0.01408165746 -0.03191804432
735.0 -0.03020201946 -0.02166456505
735.625 -0.02418922452 -0.01692873243
736.25 -0.03462174056 -0.01122204662
736.875 -0.0449061098 -0.02600803908
737.5 -0.06545797058 -0.03010591911
738.125 -0.06910889252 -0.02838536626
738.75 -0.0431141893 -0.01374205512
739.375 0.002646744344 -0.0002075877214
740.0 -0.007304158514 -0.06656693479
740.625 -0.02440077705 -0.04494609953
741.25 -0.02328802804 -0.03428949033
741.875 0.01531552302 -0.0100896699
742.5 0.02254011852 0.01446609475
743.125 0.005475697611 0.03466675843
743.75 -0.02778331006 0.03218790763
744.375 -0.04977125467 -0.006190430332
745.0 -0.04239115514 0.06006263273
745.625 -0.03369843205 0.07099578664
746.25 -0.006707562238 0.083337414
746.875 0.03502541285 0.0424101765
747.5 0.03432970564 0.009962892565
748.125 0.02223791662 0.006342695689
748.75 0.02940151873 -0.001914067871
749.375 0.02706037384 -0.01510746761
750.0 0.02593838765 -0.03140824277
