!Created with skrf (http://scikit-rf.org).
# GHz S RI R 50.0 
!freq ReS11 ImS11
500.0 -0.00898537896 0.02964185702
500.625 0.01534559323 0.03300947692
501.25 0.04154194721 0.008502333294
501.875 0.02135854305 0.02164666057
502.5 0.008643783149 0.03821580309
503.125 0.02915363798 0.04662801599
503.75 0.04336018447 0.01521570273
504.375 0.04509199897 0.001642047904
505.0 0.0435329473 -0.02658116263
505.625 0.07112493153 -0.03755593377
506.25 0.02635859466 -0.06490587646
506.875 0.05802572996 -0.04255969424
507.5 0.05543219025 -0.03794491422
508.125 0.07379826639 -0.03386387389
508.75 0.03785529832 -0.05545001961
509.375 0.03120027967 -0.05186339763
510.0 0.0813702244 -0.03393633585
510.625 -0.006597094931 -0.06949951372
511.25 -0.03457326892 -0.05491357558
511.875 -0.04607302955 -0.01250145434
512.5 -0.03293514859 0.007310316381
513.125 -0.03230441757 0.02821626476
513.75 -0.01789402038 0.03969806507
514.375 -0.003403944623 0.0526667749
515.0 0.002237436157 0.1031066957
515.625 -0.01514874833 0.09099376807
516.25 0.03423911168 0.09390000278
516.875 -0.03331197642 0.1237967801
517.5 0.03540780696 0.1068668946
518.125 -0.01270121741 0.1390467256
518.75 0.02770419862 0.04357704369
519.375 0.01189894743 0.06854327685
520.0 0.04635936907 0.07561677722
520.625 0.06581465421 0.02853768214
521.25 0.05858708682 0.01417760349
521.875 0.04293598228 0.04218015902
522.5 0.07147156231 0.01781523816
523.125 0.1153816265 -0.05078699494
523.75 0.101388853 -0.06506594957
524.375 0.07118652149 -0.021348035
525.0 0.008049190868 0.01404308955
525.625 0.004577315698 0.01975603391
526.25 0.00908139255 0.04735424847
526.875 0.01730794953 0.03447251732
527.5 0.03068321326 0.03015348876
528.125 0.03926370033 0.003375378778
528.75 0.04653840026 -0.01201171905
529.375 0.03720504589 -0.03582358422
530.0 0.02158674142 -0.0242800318
530.625 0.006049888516 -0.07595629361
531.25 0.008393872916 -0.16723318
531.875 -0.05436064715 -0.1450746084
532.5 -0.09036050522 -0.0841977371
533.125 -0.07668092378 -0.04806189598
533.75 -0.07161609189 -0.05651123619
534.375 -0.06785827015 -0.03834391101
535.0 -0.07569386289 -0.02594519169
535.625 -0.03077293578 -0.02106527513
536.25 -0.03765940403 -0.03931846597
536.875 -0.04534365467 -0.06482057631
537.5 -0.04800915735 -0.08042138279
538.125 -0.07098670571 -0.05532510766
538.75 -0.06068733359 -0.03594580195
539.375 -0.03691924261 -0.04651050256
540.0 -0.05956187598 -0.09214704051
540.625 -0.06462277573 -0.1057259505
541.25 -0.04870235976 -0.09033633184
541.875 -0.05218646739 -0.08390852255
542.5 -0.05101612431 -0.08443868635
543.125 -0.09852139589 -0.06331819313
543.75 -0.1035230839 0.01645878336
544.375 -0.05966047145 0.03965043697
545.0 -0.03600310788 0.06910018695
545.625 -0.007599254723 0.05239979381
546.25 0.01383333256 0.06528636401
546.875 0.02301946456 0.062396964
547.5 0.01984861749 0.09769810596
548.125 0.006481591255 0.07552986481
548.75 -0.01081516914 0.07766083477
549.375 -0.01758245931 0.06913694666
550.0 -0.04935981105 0.03816869493
550.625 -0.01126698699 -0.0003773756658
551.25 -0.01186207874 -0.03027017317
551.875 -0.04662191492 -0.04017454353
552.5 -0.08242666105 -0.04635232184
553.125 -0.070485466 -0.02254380858
553.75 -0.08025014166 -0.02319809131
554.375 -0.09210044062 0.006154493293
555.0 -0.1015741145 0.02996623437
555.625 -0.0620154414 0.02462360576
556.25 -0.08076281999 0.01991367069
556.875 -0.09249627791 0.02169396699
557.5 -0.09007970146 0.03468566374
558.125 -0.07679352497 0.02909289419
558.75 -0.06109445403 0.01020479698
559.375 -0.04095627723 0.003616990824
560.0 -0.03282874291 -0.002278618844
560.625 -0.0189404477 -0.0301722288
561.25 -0.05165335644 -0.03796136826
561.875 -0.0739684052 -0.01977604573
562.5 -0.07631529205 0.02966550579
563.125 -0.06394076363 0.05149339707
563.75 -0.05492872202 0.08339484878
564.375 -0.02397458909 0.08356633964
565.0 -0.01649328244 0.08569249141
565.625 -0.01203803297 0.05432581191
566.25 -0.03867241008 0.04026368605
566.875 -0.04994531318 0.02426328106
567.5 -0.06200727325 0.02477670417
568.125 -0.05572883883 0.01001657083
568.75 -0.04917847368 0.005868499048
569.375 -0.03542717142 -0.012168243
570.0 -0.02682658039 -0.02972382462
570.625 -0.02486875795 -0.04616678284
571.25 -0.03913732939 -0.03619631041
571.875 -0.05690380011 -0.02921805384
572.5 -0.08914865836 -0.005786657635
573.125 -0.1018711539 0.02108178018
573.75 -0.06092690755 0.06559653313
574.375 -0.03151414634 0.06649807798
575.0 -0.0330650187 0.07834621473
575.625 -0.05262405398 0.05240431904
576.25 -0.03430768924 0.06576657149
576.875 -0.01349977423 0.07500686411
577.5 0.006625817933 0.08289836444
578.125 -0.01731737193 0.04170479919
578.75 -0.01274704927 0.03962296365
579.375 -0.01152487427 0.03873815564
580.0 -0.01425059469 0.03862593325
580.625 -0.03112287831 0.006515410681
581.25 -0.05458554289 0.007562184459
581.875 -0.0655372231 0.03831067109
582.5 -0.0747485076 0.04770429442
583.125 -0.05753200047 0.05919598772
583.75 -0.05963327492 0.03463994114
584.375 -0.07026236335 0.02513222754
585.0 -0.07542310425 0.008390551971
585.625 -0.06193827008 0.03259698676
586.25 -0.05454365635 0.02033464108
586.875 -0.06071675351 0.01991484023
587.5 -0.05883949706 0.02403028471
588.125 -0.02390294943 0.05400576106
588.75 -0.02079945924 0.0404744637
589.375 -0.03068487292 0.03128874003
590.0 -0.0445275018 0.02175846606
590.625 -0.03240319898 0.05502968606
591.25 -0.03939181981 0.07910118903
591.875 -0.03652452921 0.08897233431
592.5 -0.005682207043 0.07220393842
593.125 0.01620615656 0.06458960208
593.75 -0.01043022242 0.06860895813
594.375 -0.03149347182 0.05140954491
595.0 -0.03367533674 0.02712024042
595.625 -0.0267044835 0.02060247933
596.25 -0.03570888625 -0.02372116099
596.875 -0.03474390497 -0.02490509332
597.5 -0.03197085757 -0.02596520835
598.125 -0.02838658679 -0.004444521989
598.75 -0.01597073893 -0.02784455146
599.375 -0.01572603029 -0.03251528419
600.0 -0.02319160787 -0.05124352866
600.625 -0.030445841 -0.06554516669
601.25 -0.04408260454 -0.0662282423
601.875 -0.05644094366 -0.04324117215
602.5 -0.0575060485 -0.03543110005
603.125 -0.05678348304 -0.01446999482
603.75 -0.02030655386 -0.03954911662
604.375 -0.0173481145 -0.02481226057
605.0 -0.01051355522 -0.03465822795
605.625 -0.01190470028 -0.04739591863
606.25 -0.01448389663 -0.03840482641
606.875 -0.01302959727 -0.01726242263
607.5 0.002186364465 -0.008197827157
608.125 0.01337345342 -0.007410297633
608.75 0.03802114883 -0.03488987726
609.375 0.03222015912 -0.0203934875
610.0 0.0438398182 -0.007349860543
610.625 0.04205690512 -0.0182975305
611.25 0.04832612199 -0.02509890891
611.875 0.04514407106 -0.02011092007
612.5 0.0343869127 -0.01999474951
613.125 0.02370396019 -0.007264352725
613.75 -0.001903140923 0.002195864685
614.375 0.04663619999 0.03336561161
615.0 0.04301615363 0.02577539482
615.625 0.02541133649 0.01215815875
616.25 -0.006834693362 0.01453405447
616.875 0.04409815303 0.04574355579
617.5 0.04212079947 0.04057346529
618.125 0.02853857496 0.03134693979
618.75 -0.0005183669143 0.02340611509
619.375 0.04087093984 0.05938681023
620.0 0.04056876125 0.03636002279
620.625 0.04076494252 0.01046818903
621.25 0.008612738998 -0.01353102577
621.875 0.009083657465 -0.0009780110027
622.5 -0.01503160069 0.01022868778
623.125 -0.01612243418 0.04300117631
623.75 -0.04489840214 0.0540942086
624.375 -0.01333177718 0.06694692716
625.0 -0.03801501768 0.03935063857
625.625 -0.04855285965 0.04819477289
626.25 -0.03960883877 0.05741491642
626.875 -0.02004579358 0.0627109577
627.5 -0.01489508704 0.0421812609
628.125 -0.02280342932 0.02370687664
628.75 -0.02764195441 0.02061698335
629.375 -0.02002726745 0.004478737271
630.0 -0.01430658341 0.01259959113
630.625 -0.003600732245 -0.01995985339
631.25 0.007325118585 -0.05023950266
631.875 -0.007489928307 -0.04596976525
632.5 -0.0178165484 -0.05511261305
633.125 -0.01588558387 -0.06412511553
633.75 -0.03056559411 -0.05059475328
634.375 -0.0216926232 -0.07344917598
635.0 -0.06291320364 -0.03374767982
635.625 -0.05085582766 -0.03348337671
636.25 -0.03764761367 -0.02693264946
636.875 -0.01895505993 -0.04848210114
637.5 -0.02296509673 -0.07399904151
638.125 -0.04389923769 -0.04662072611
638.75 -0.02623214379 -0.02551883329
639.375 0.001105784213 -0.01907390003
640.0 0.06147314787 -0.02489896988
640.625 0.0511821529 -0.02827261631
641.25 0.03292347337 -0.03439777187
641.875 0.04292320693 -0.02878243861
642.5 0.05883295095 -0.01581514287
643.125 0.05734047762 0.002527019271
643.75 0.06389365328 0.002137742734
644.375 0.05599755696 -0.01195069733
645.0 0.05144413247 -0.0005440967186
645.625 0.03782674744 0.008160525161
646.25 0.04828452615 0.01731967122
646.875 0.06931619766 0.01797403824
647.5 0.07250275755 0.01920491092
648.125 0.04351698688 0.003650984377
648.75 0.0460418958 0.03893135552
649.375 0.05479010662 0.0632348329
650.0 0.04842193574 0.07655833778
650.625 0.04555781519 0.05335073056
651.25 0.01777555035 0.06937004299
651.875 -0.01669290491 0.07114887707
652.5 -0.02615789213 0.05533392545
653.125 -0.02233384335 0.04359848012
653.75 -0.02597632437 0.01865396036
654.375 -0.02472157614 -0.02309859654
655.0 -0.0359395141 -0.04976757458
655.625 -0.03570371243 -0.03659281896
656.25 -0.07143995251 -0.05006539532
656.875 -0.07667252769 -0.03231045748
657.5 -0.08310622406 -0.04396576287
658.125 -0.1034801409 -0.04846218642
658.75 -0.110969611 -0.02328736625
659.375 -0.08993416185 0.02012340539
660.0 -0.06145349214 0.04133331238
660.625 -0.06878342566 0.04002256919
661.25 -0.04812657133 0.02879677502
661.875 -0.02589564181 0.02876065571
662.5 -0.03662447378 0.03114335524
663.125 -0.05285690981 0.02424946137
663.75 -0.06825745519 -0.01935459381
664.375 -0.05861048687 -0.05681034353
665.0 -0.03798355384 -0.09444974811
665.625 -0.0005329808298 -0.08571725711
666.25 0.02398973513 -0.0838423679
666.875 0.03544796239 -0.08691446918
667.5 0.05271893909 -0.09906592605
668.125 0.02923671625 -0.05683873724
668.75 0.02583800451 -0.04016625785
669.375 0.04055536691 -0.03531318496
670.0 0.07257505694 -0.04541557002
670.625 0.05274409426 -0.02275941757
671.25 0.05466428249 -0.03828864634
671.875 0.05999398773 -0.04926652892
672.5 0.04831790565 -0.08917099316
673.125 0.02053906572 -0.08890013744
673.75 -0.001168513297 -0.08870749955
674.375 0.01779182023 -0.08398264174
675.0 0.05812381201 -0.07223924433
675.625 0.04282558766 -0.03026671289
676.25 0.05881694164 -0.01574547555
676.875 0.05739319537 0.005785240549
677.5 0.05179413175 0.03729134267
678.125 0.02391865863 0.04232489698
678.75 0.05219879159 0.06647782015
679.375 0.0763513143 0.09849950146
680.0 0.06269336783 0.09037197607
680.625 0.08666525812 0.05580988674
681.25 0.09170331123 0.02766528125
681.875 0.1133508406 0.002249573953
682.5 0.08363556076 -0.03577178468
683.125 0.07399436914 -0.04374163207
683.75 0.05432416745 -0.00685653409
684.375 0.0634552854 0.0420422046
685.0 0.01757805044 0.06332870828
685.625 -0.0336277123 0.05607097958
686.25 -0.06697975142 0.02285716548
686.875 -0.08375285806 -0.02025136441
687.5 -0.09744756041 -0.03496944688
688.125 -0.1206169479 -0.04697919738
688.75 -0.1214314065 -0.067648426
689.375 -0.08689863381 -0.05309133995
690.0 -0.0775037796 -0.04547409962
690.625 -0.0946360692 -0.04226038894
691.25 -0.1141016375 -0.02989283655
691.875 -0.03977687936 0.01248499089
692.5 -0.03336044963 0.02082482194
693.125 -0.02751849811 0.0708129217
693.75 0.006183415315 0.123870546
694.375 0.01589586723 0.09874954169
695.0 -0.009965867352 0.1000119165
695.625 -0.0887059062 0.06579939646
696.25 -0.1089219923 -0.04483535222
696.875 -0.05606591081 -0.1124665779
697.5 0.03066863957 -0.08557067538
698.125 0.04875712699 -0.07259293965
698.75 0.03844957043 -0.04745997884
699.375 0.05254041653 -0.05035334115
700.0 0.07749185478 -0.01879441234
700.625 0.07694544821 0.01956898482
701.25 0.06037313225 0.03034792895
701.875 0.09605456363 0.007102099584
702.5 0.1282383265 -0.03611810955
703.125 0.08762102082 -0.07665799864
703.75 -0.02618870839 -0.0891120416
704.375 -0.07116420083 -0.05258644694
705.0 -0.0347552151 -0.07667393815
705.625 0.01795083769 -0.08568438762
706.25 0.04295182142 -0.05091701531
706.875 0.05436574995 0.01393576879
707.5 0.04555551635 0.05852234798
708.125 -0.02872989594 0.08641109961
708.75 -0.06624875449 0.07894365466
709.375 -0.09068229066 0.03358438815
710.0 -0.09204528548 -0.0004586930156
710.625 -0.06328517412 -0.05860014921
711.25 -0.07493118231 -0.08055311064
711.875 -0.09583630719 -0.0619902658
712.5 -0.08939511252 -0.001931208241
713.125 -0.04202297326 0.0424160381
713.75 -0.03632314669 0.04670544095
714.375 -0.04328376383 0.05989602588
715.0 6.465434707e-05 0.06343178993
715.625 -0.04263377551 0.0632051791
716.25 -0.05624983855 0.07425560229
716.875 -0.1015456733 0.05721204733
717.5 -0.09597342241 -0.02328227822
718.125 -0.0820829033 -0.01287675959
718.75 -0.06398911122 -0.05944475519
719.375 -0.03528092251 -0.08739302946
720.0 -0.002033798381 -0.08354607537
720.625 0.03422500945 -0.06479855882
721.25 0.03961838271 0.03108593348
721.875 0.006987943653 0.0328950757
722.5 -0.03693706858 0.03570551743
723.125 -0.03540372938 0.06174075779
723.75 -0.001647366536 0.0985500625
724.375 0.07030213174 0.06440540637
725.0 0.08221788658 -0.01193013848
725.625 0.04395103137 -0.05350119497
726.25 0.05994580997 -0.04005735903
726.875 0.04780215366 -0.0292313789
727.5 0.04164376501 -0.01109842337
728.125 0.03167412028 0.0417439787
728.75 0.02763422949 0.02709547391
729.375 0.03796349006 0.0464743075
730.0 0.04411486292 0.04703001522
730.625 0.01711196238 0.03713635119
731.25 0.001865194727 0.02697052335
731.875 -0.06895366086 0.03662008589
732.5 -0.05848410473 0.00082397916
733.125 -0.05053079534 -0.006818621751
733.75 -0.0258189647 0.0120526168
734.375 -0.04558566985 -0.03457409636
735.0 -0.05761745569 -0.01878243375
735.625 -0.038985921 -0.00696347456
736.25 -0.003356567296 -0.02085949827
736.875 -0.08826597572 -0.01545557368
737.5 -0.09035450142 -0.02709251098
738.125 -0.06353856159 -0.02578001729
738.75 -0.0285797601 0.0008314668582
739.375 -0.04491908771 -0.052381959
740.0 -0.004882488483 -0.03422494158
740.625 -0.02631651974 -0.03085817403
741.25 -0.02947637593 -0.02475185088
741.875 0.01922115735 -0.005858210239
742.5 0.06175990874 -0.007659895604
743.125 0.01156079763 0.03142224629
743.75 -0.01441802482 0.03080877034
744.375 -0.04099835581 0.006877430776
745.0 -0.04242606335 0.02773818293
745.625 -0.03938427236 0.051151251
746.25 0.005999277179 0.07886843109
746.875 0.01983700805 0.05148332271
747.5 0.05942780824 0.001337523879
748.125 0.0304288101 -0.001353159641
748.75 0.0232189846 0.01529422166
749.375 0.02246393709 -0.01650385603
750.0 0.01075483535 -0.03101696883
