!Created with skrf (http://scikit-rf.org).
# GHz S RI R 50.0 
!freq ReS11 ImS11
500.0 -0.01386324924 0.02289554
500.625 0.01702472998 0.03835283601
501.25 0.03523838749 0.01837001085
501.875 0.02201040826 0.02003389285
502.5 0.005025682491 0.05123197272
503.125 0.03652059798 0.01731334712
503.75 0.04437423199 0.007253026374
504.375 0.04532745386 -0.004887058129
505.0 0.05850426617 -0.0196588245
505.625 0.04684035077 -0.05681669417
506.25 0.04386004218 -0.05156181405
506.875 0.05711124851 -0.04615396946
507.5 0.06381864399 -0.03351483295
508.125 0.06988887245 -0.03651257654
508.75 0.03110819863 -0.0594304787
509.375 0.03650831452 -0.04564040899
510.0 0.08055855869 -0.02951579111
510.625 -0.02633040067 -0.0594189992
511.25 -0.04098138408 -0.04583395336
511.875 -0.05218625805 -0.01125431047
512.5 -0.04099353994 -0.005317549872
513.125 -0.006424970147 0.04141089047
513.75 -0.01296622056 0.03906429222
514.375 -0.01597532226 0.05967276393
515.0 0.01240376096 0.07921531914
515.625 -0.04152096701 0.08980338049
516.25 0.02558861856 0.09950498747
516.875 -0.04372720727 0.1189574741
517.5 0.03145165671 0.1116297817
518.125 -0.051616646 0.1192207118
518.75 0.02840507248 0.04790116378
519.375 -0.00302184782 0.08682708232
520.0 0.06177458415 0.04527416025
520.625 0.05773544543 0.04630866171
521.25 0.06002479461 0.0333725347
521.875 0.03658247547 0.04588671503
522.5 0.06595239733 0.0134557773
523.125 0.1155390139 -0.01685826802
523.75 0.0925490642 -0.06965355228
524.375 0.05943737292 -0.008433617205
525.0 0.004115568606 -0.0003212110358
525.625 0.00239196224 0.01404055825
526.25 0.01274213521 0.03692535187
526.875 0.01856919734 0.04818932697
527.5 0.02219054145 0.01483049663
528.125 0.03881579907 0.007060641022
528.75 0.06498945444 -0.004650298668
529.375 0.05605065206 -0.03910784281
530.0 0.01838214717 -0.01715287654
530.625 0.01079129696 -0.06731039826
531.25 0.01926064306 -0.1672391152
531.875 -0.05653208213 -0.1661132007
532.5 -0.08097001521 -0.05113206502
533.125 -0.07206113474 -0.05327843621
533.75 -0.07379897497 -0.05464497482
534.375 -0.07647195362 -0.04967385382
535.0 -0.06086277788 -0.01717909608
535.625 -0.03243194816 -0.03582484335
536.25 -0.03263188352 -0.03163758019
536.875 -0.0483828711 -0.06669545083
537.5 -0.04174802737 -0.07465934911
538.125 -0.06195895758 -0.05005246658
538.75 -0.05694172209 -0.02764315531
539.375 -0.04491668256 -0.05678966189
540.0 -0.03531348406 -0.06927429595
540.625 -0.05005969637 -0.09215397918
541.25 -0.03969469319 -0.09141735826
541.875 -0.05116538003 -0.08750128992
542.5 -0.04869116039 -0.08814168879
543.125 -0.08795141468 -0.05794741316
543.75 -0.09494964025 0.02036179351
544.375 -0.07102935592 0.0385356187
545.0 -0.02678423831 0.05495879147
545.625 -0.01500069725 0.06130994341
546.25 0.009011376154 0.07383728462
546.875 0.01829889004 0.06873384825
547.5 0.01624224778 0.06942974881
548.125 0.005324995185 0.06270065456
548.75 -0.009717050166 0.07087477649
549.375 -0.02566211387 0.08407140812
550.0 -0.02982344298 0.02751801645
550.625 -0.0180540082 -0.0009916063727
551.25 -0.02113406087 -0.03450111805
551.875 -0.05996931767 -0.04113408554
552.5 -0.05138992292 -0.04433680974
553.125 -0.06731670329 -0.02610405467
553.75 -0.07410496941 -0.02564611546
554.375 -0.09958989516 0.007513344684
555.0 -0.08557964641 0.01846872819
555.625 -0.07469942385 0.03080282565
556.25 -0.08202589235 0.01693962072
556.875 -0.09482746988 0.01856780335
557.5 -0.09320724299 0.03608332191
558.125 -0.06606551414 0.02582795832
558.75 -0.06817237235 0.0054475942
559.375 -0.04823102982 -0.0001928460738
560.0 -0.01589842169 -0.004609291949
560.625 -0.03359842151 -0.03050467309
561.25 -0.0649792072 -0.03490622659
561.875 -0.07836909499 -0.0206344068
562.5 -0.07575002507 0.02416636863
563.125 -0.06778735076 0.05363789564
563.75 -0.05584024669 0.08230447081
564.375 -0.02567952216 0.09176642161
565.0 -0.01649022356 0.06214262984
565.625 -0.01356946761 0.06598019952
566.25 -0.04437252059 0.05034670724
566.875 -0.05496094042 0.02356773144
567.5 -0.06376764283 0.02256770839
568.125 -0.05612647205 0.008548349827
568.75 -0.03864605194 0.0005117338535
569.375 -0.02643560211 -0.0123699063
570.0 -0.03104449747 -0.02899257448
570.625 -0.03758858715 -0.04666973629
571.25 -0.04226044596 -0.03663033211
571.875 -0.05720177588 -0.03155979272
572.5 -0.08982869481 -0.007342046017
573.125 -0.1049802214 0.01684125246
573.75 -0.06105136463 0.0548835581
574.375 -0.03421495758 0.06684415446
575.0 -0.04155385823 0.07233758003
575.625 -0.05309456391 0.06641247625
576.25 -0.03312914676 0.07369290562
576.875 -0.007405228948 0.08275325101
577.5 -0.005488096616 0.07062195475
578.125 -0.01706266846 0.05333241852
578.75 -0.01409459225 0.0402637624
579.375 -0.01336603844 0.03975666396
580.0 -0.01461944484 0.03887898507
580.625 -0.03257461838 0.003932084714
581.25 -0.05647232204 0.00300218699
581.875 -0.07021730871 0.02672085589
582.5 -0.07357859349 0.05523965052
583.125 -0.06562117478 0.03303864537
583.75 -0.06097059723 0.02959292946
584.375 -0.06685025681 0.01785836786
585.0 -0.07792302935 0.01312205461
585.625 -0.0603730412 0.009094719708
586.25 -0.05404951429 0.004375239526
586.875 -0.05776520462 0.007949611343
587.5 -0.05787235986 0.02811063425
588.125 -0.03693222879 0.03218478204
588.75 -0.02659452502 0.03600948318
589.375 -0.03519151873 0.02193545779
590.0 -0.03963005313 0.02552506398
590.625 -0.05280613029 0.04989753825
591.25 -0.04157546905 0.07974413897
591.875 -0.01988652129 0.09547343053
592.5 -0.001846675137 0.07506011569
593.125 -0.005413422928 0.06075170911
593.75 -0.01169014381 0.05865124743
594.375 -0.02871097761 0.04481727866
595.0 -0.02667036098 0.04150951732
595.625 -0.02792963841 0.001005850967
596.25 -0.03599359685 -0.01577867448
596.875 -0.03577435743 -0.01702312123
597.5 -0.03325623159 -0.01878615318
598.125 -0.01268003506 -0.03635483619
598.75 -0.0141832885 -0.03471307244
599.375 -0.01267438558 -0.04118609456
600.0 -0.02145886418 -0.03731002603
600.625 -0.01714602708 -0.0897445389
601.25 -0.04003927967 -0.07055170946
601.875 -0.05306670021 -0.04739273331
602.5 -0.05828073287 -0.0255011211
603.125 -0.04431352707 -0.03989985451
603.75 -0.03170224759 -0.02570329293
604.375 -0.01396021202 -0.02889104934
605.0 -0.01089012232 -0.03109116404
605.625 -0.02067299799 -0.03282302311
606.25 0.008806305507 -0.04436348893
606.875 0.002192659592 -0.02255180335
607.5 0.009630261587 -0.006767304572
608.125 0.007686117105 -0.005581393399
608.75 0.02031581904 -0.02019246148
609.375 0.037007018 -0.0218703701
610.0 0.03940941779 -0.008812011565
610.625 0.0320516283 -0.01039702716
611.25 0.06566724573 -0.02579019965
611.875 0.0635298848 -0.01865639746
612.5 0.04046732416 -0.007437391791
613.125 0.01064943928 -0.009764016672
613.75 0.02464933158 0.01543200551
614.375 0.02249145606 0.01993217274
615.0 0.02357824938 0.01241376584
615.625 0.01553248724 0.008336727455
616.25 0.0007443322791 0.01476135627
616.875 0.01878144256 0.03530220323
617.5 0.01682815987 0.03545330517
618.125 0.01583420704 0.02353011819
618.75 0.01480134389 0.02770285123
619.375 0.02038976576 0.03786087203
620.0 0.03106557145 0.04024531191
620.625 0.01719754948 0.0004664732934
621.25 0.03635024446 0.01510015277
621.875 -0.003619508781 -0.01386569958
622.5 -0.03682273374 0.01171045559
623.125 -0.02825538273 0.03976588434
623.75 -0.0297919018 0.05347436207
624.375 -0.03097514763 0.04814773607
625.0 -0.03512556788 0.04070943116
625.625 -0.05102710443 0.04242879658
626.25 -0.05183420598 0.0463686431
626.875 -0.0135805968 0.07627205659
627.5 -0.009157687568 0.05587497795
628.125 -0.02573644924 0.03417503353
628.75 -0.03202566592 -0.005694462868
629.375 -0.02765772017 0.03486707497
630.0 -0.01239167659 0.009089106698
630.625 -0.01105226826 -0.015604962
631.25 0.008700280337 -0.04411840626
631.875 -0.01764260025 -0.03618170348
632.5 -0.02406921308 -0.04160955542
633.125 -0.02455947679 -0.06160130586
633.75 -0.02341345605 -0.06165884543
634.375 -0.03719030695 -0.0501926963
635.0 -0.0407448363 -0.05405212459
635.625 -0.05069418369 -0.03182280875
636.25 -0.03122434684 -0.02899729171
636.875 -0.01374968358 -0.05995106795
637.5 -0.0476601312 -0.04412608464
638.125 -0.04481915329 -0.04128845303
638.75 -0.03390332625 -0.0193662466
639.375 0.01603325703 -0.02868307041
640.0 0.03028083865 -0.0279375271
640.625 0.05008445069 -0.02468120009
641.25 0.05228422253 -0.02917892689
641.875 0.06332826922 -0.02410992894
642.5 0.04551871644 -0.01501064247
643.125 0.05182402539 -0.002225460168
643.75 0.05895428906 -0.005999066981
644.375 0.07330654387 -0.0009657251791
645.0 0.03438255873 -0.02146605097
645.625 0.03688710977 0.01020019363
646.25 0.05468630514 0.01386009569
646.875 0.07546227769 0.02848833565
647.5 0.06006213575 0.009820933392
648.125 0.05233706194 0.01801380906
648.75 0.04655748981 0.05332341289
649.375 0.04887590051 0.07381382299
650.0 0.04323949527 0.07028060687
650.625 0.04079537672 0.0582129661
651.25 0.01385031588 0.06375552013
651.875 -0.0242177176 0.06872953987
652.5 -0.03288032665 0.05565581673
653.125 -0.009782785742 0.0416084043
653.75 -0.03450070156 0.00473594057
654.375 -0.03211528833 -0.03184151751
655.0 -0.02233053273 -0.03555686106
655.625 -0.04724603426 -0.05607568285
656.25 -0.06554157252 -0.0553519413
656.875 -0.07655158196 -0.0378173347
657.5 -0.08741431543 -0.04931956575
658.125 -0.0767334735 -0.03212338254
658.75 -0.09904279044 -0.02381882992
659.375 -0.0827751681 0.02469345197
660.0 -0.07327985599 0.0380966597
660.625 -0.04507985289 0.03523755959
661.25 -0.04836325289 0.02214773859
661.875 -0.04128251657 0.033497762
662.5 -0.04894779035 0.03915040044
663.125 -0.05250720984 0.01098583126
663.75 -0.05854579977 -0.02214121704
664.375 -0.04609221475 -0.05269003161
665.0 -0.03201987868 -0.09261826021
665.625 0.006089566889 -0.1065016044
666.25 0.02652938767 -0.09117836283
666.875 0.04369156313 -0.08971880957
667.5 0.05313846908 -0.08770737627
668.125 0.05236478286 -0.06141987886
668.75 0.03927692549 -0.04513752671
669.375 0.04750755864 -0.03103453303
670.0 0.074343298 -0.03656561196
670.625 0.06867686788 -0.02282317299
671.25 0.04942417104 -0.02620887272
671.875 0.0644330064 -0.04397778012
672.5 0.05176514764 -0.1014866917
673.125 0.02124484984 -0.09489746925
673.75 0.0004906514174 -0.1050152838
674.375 0.02578744891 -0.08889569783
675.0 0.04960041943 -0.05364388421
675.625 0.05476300757 -0.03287230158
676.25 0.06707651858 -0.020017235
676.875 0.06464878738 0.01315194291
677.5 0.03799352761 0.03830837559
678.125 0.03080920836 0.04474862907
678.75 0.03917574008 0.06929878004
679.375 0.06257103816 0.09874924596
680.0 0.0621884069 0.09237920736
680.625 0.0609103482 0.05128513696
681.25 0.09876037709 0.03124220382
681.875 0.1200485489 0.0008661524639
682.5 0.08832592072 -0.0284905255
683.125 0.0728436877 -0.03776042047
683.75 0.06597916921 -0.004205264079
684.375 0.04545900088 0.04430163099
685.0 0.013306989 0.05389477062
685.625 -0.03496092596 0.05644965085
686.25 -0.05334515319 -0.00638736698
686.875 -0.0747028666 -0.03084169418
687.5 -0.09015236734 -0.04462459929
688.125 -0.1256307462 -0.05048933339
688.75 -0.08088974765 -0.06558564904
689.375 -0.07724725666 -0.05465259737
690.0 -0.08410645617 -0.04267058741
690.625 -0.1040527196 -0.04849948641
691.25 -0.0749631498 -0.03084518653
691.875 -0.05267984442 0.0176884006
692.5 -0.03956352932 0.03373484921
693.125 -0.0333005685 0.07398634662
693.75 0.005103388835 0.1289077928
694.375 0.004071899508 0.09310660945
695.0 -0.0186378163 0.09285885587
695.625 -0.08737755204 0.07336478024
696.25 -0.1179829128 -0.04496712224
696.875 -0.03635541546 -0.1089897759
697.5 0.0323898366 -0.09460376798
698.125 0.05153331032 -0.06609835438
698.75 0.04023977875 -0.05090858287
699.375 0.05293995645 -0.01182289558
700.0 0.07798533865 0.0003877069952
700.625 0.06367924241 0.02896514182
701.25 0.06495372232 0.0242487263
701.875 0.08647047212 0.0384016592
702.5 0.1327612084 -0.02603371167
703.125 0.09021700486 -0.0915454334
703.75 -0.02376907772 -0.09037354253
704.375 -0.05937944118 -0.05831387993
705.0 -0.02033821493 -0.07953997575
705.625 0.02882280563 -0.07061231481
706.25 0.04754922383 -0.03541248342
706.875 0.05917910769 0.002850504771
707.5 0.007718692468 0.07591119523
708.125 -0.03498385795 0.08724725326
708.75 -0.06741516124 0.07018444779
709.375 -0.08640696551 0.04632945953
710.0 -0.08294673176 -0.02419712339
710.625 -0.07421983407 -0.0470227272
711.25 -0.07024826478 -0.07565760905
711.875 -0.09677138021 -0.0563423125
712.5 -0.05773601895 -0.02079996852
713.125 -0.04263913188 0.03007131918
713.75 -0.02319928017 0.04433912418
714.375 -0.03754926512 0.06626553796
715.0 -0.02165903293 0.05834302952
715.625 -0.02925314916 0.0634393266
716.25 -0.08324738813 0.06787119078
716.875 -0.1121367041 0.03458333563
717.5 -0.09860166124 -0.004484218108
718.125 -0.07088268945 -0.04138680592
718.75 -0.06522746056 -0.05463180314
719.375 -0.04930946522 -0.07958206871
720.0 -0.003211757324 -0.0822550891
720.625 0.04281593412 -0.05692312246
721.25 0.04634838416 0.01397363984
721.875 -0.01033965503 0.03078485537
722.5 -0.01159424603 0.02971360451
723.125 -0.08932572115 0.05761870206
723.75 -0.003916068505 0.1024108341
724.375 0.06805307655 0.04167157927
725.0 0.07253651406 -0.01546219396
725.625 0.05831000672 -0.04782942894
726.25 0.07053047427 -0.02464942042
726.875 0.05697950399 -0.01503116971
727.5 0.04140643614 -0.006555500994
728.125 0.02793338192 0.002621052346
728.75 0.001147408511 0.06956957702
729.375 0.03639483933 0.0497894198
730.0 0.03242458257 0.0211004122
730.625 0.01862630448 0.03959345658
731.25 -0.003864344185 0.03814899997
731.875 -0.04435139941 0.03060396595
732.5 -0.07346296449 -0.006759227323
733.125 -0.05217953874 -0.02653492385
733.75 -0.03135611255 0.003478611461
734.375 -0.03038272567 -0.01440885475
735.0 -0.02488374555 -0.01432567708
735.625 -0.01788909367 -0.003323473089
736.25 -0.02234380231 -0.009334242675
736.875 -0.05041094045 -0.02118782688
737.5 -0.05582414073 -0.02281874768
738.125 -0.06328449378 -0.02118543154
738.75 -0.03802836103 -0.005374756714
739.375 -0.01689106455 -0.02408686356
740.0 -0.02241936317 -0.05610494468
740.625 -0.02488248547 -0.04196924817
741.25 0.005997374074 -0.01885011425
741.875 0.006097555874 -0.04545452277
742.5 0.0260677385 0.0103563312
743.125 0.005472039094 0.03686373216
743.75 -0.03727063787 0.005340059998
744.375 -0.02544321745 0.06317848896
745.0 -0.03793317454 0.04589230901
745.625 -0.03356694364 0.0637834092
746.25 -0.02049322859 0.06872191279
746.875 0.04152425937 0.04549201644
747.5 0.03677588345 0.01020451993
748.125 0.01991797303 -0.001702386459
748.75 0.02205457979 0.006338254462
749.375 0.03636426214 0.004172301287
750.0 -0.02861612577 -0.03559394942
