!Created with skrf (http://scikit-rf.org).
# GHz S RI R 50.0 
!freq ReS11 ImS11
500.0 -0.01293345258 0.02781334623
500.625 0.01361634325 0.04222611381
501.25 0.04050480553 0.01681968749
501.875 0.01865123196 0.02956140134
502.5 0.003053173254 0.05308017831
503.125 0.02573024502 0.05016585219
503.75 0.04487972701 0.02275576625
504.375 0.04836411645 0.008951399473
505.0 0.05634829941 -0.01867505331
505.625 0.07130050557 -0.03440229312
506.25 0.03180811678 -0.0618139159
506.875 0.05871423778 -0.03510722999
507.5 0.06424332879 -0.0305643882
508.125 0.07444253603 -0.02151624271
508.75 0.0463561184 -0.04909385967
509.375 0.03962696441 -0.04818361383
510.0 0.09192977067 -0.02126965532
510.625 0.001093911445 -0.06999340446
511.25 -0.02808984099 -0.05905417379
511.875 -0.04404228474 -0.01667885627
512.5 -0.03423638969 -0.001443638473
513.125 -0.03335759948 0.021934103
513.75 -0.02584777813 0.0347286903
514.375 -0.01939889352 0.0543308079
515.0 -0.01054791946 0.1017221679
515.625 -0.02822594378 0.08432310663
516.25 0.02230841341 0.102167567
516.875 -0.0480096565 0.1248893358
517.5 0.02464643213 0.1077598735
518.125 -0.02480541039 0.1269384072
518.75 0.01650580999 0.04742423599
519.375 -0.01040955894 0.0797346721
520.0 0.03459362911 0.07486773639
520.625 0.05911870317 0.03589283496
521.25 0.05283731167 0.02311906969
521.875 0.03181548045 0.04628695005
522.5 0.06590852596 0.0234223739
523.125 0.1099468546 -0.03838243738
523.75 0.09448814035 -0.05198705543
524.375 0.0567001494 -0.01311075388
525.0 8.414111495e-05 0.01629756753
525.625 1.885144405e-05 0.02471579528
526.25 -0.0004255270531 0.05030177944
526.875 0.01082488467 0.04082643441
527.5 0.02523938426 0.03518435868
528.125 0.04072678983 0.01100084709
528.75 0.04984635217 -0.002509433392
529.375 0.05324089421 -0.02966621533
530.0 0.03106766297 -0.02280954693
530.625 0.01450186516 -0.08674856239
531.25 0.02944230523 -0.1700902481
531.875 -0.03887443534 -0.1542251281
532.5 -0.07616398123 -0.0925594635
533.125 -0.06714403646 -0.06372795108
533.75 -0.06368324165 -0.06921771597
534.375 -0.06593847846 -0.05217403254
535.0 -0.06921581486 -0.03447797514
535.625 -0.02438973934 -0.02692218713
536.25 -0.03107390566 -0.04519444459
536.875 -0.04118257868 -0.07184099779
537.5 -0.04163877558 -0.08865835513
538.125 -0.06418982641 -0.06470338102
538.75 -0.05604008811 -0.04281474371
539.375 -0.03004254561 -0.05456651292
540.0 -0.04939480014 -0.1026699521
540.625 -0.05266863985 -0.1160926964
541.25 -0.03687743854 -0.09304281072
541.875 -0.04669866744 -0.09054503859
542.5 -0.04641398899 -0.09138853568
543.125 -0.09370529671 -0.06940914723
543.75 -0.1022715544 0.009433897658
544.375 -0.06508230529 0.03412051527
545.0 -0.04411103866 0.05910318737
545.625 -0.0132480994 0.04882303969
546.25 0.000389517678 0.06716019498
546.875 0.01558389153 0.06512707887
547.5 0.004051541968 0.09416526415
548.125 -0.002757248768 0.07250926926
548.75 -0.02199934976 0.07606558799
549.375 -0.03116938283 0.06657648345
550.0 -0.05108676515 0.02375109991
550.625 -0.01305146681 -0.008573114574
551.25 -0.01058004486 -0.04183882118
551.875 -0.05488966278 -0.05246701686
552.5 -0.07453441826 -0.05825475605
553.125 -0.07185452214 -0.03098758932
553.75 -0.08220221477 -0.03382380756
554.375 -0.1005946435 -0.001945099923
555.0 -0.1024139587 0.01766388966
555.625 -0.06540660922 0.01758268969
556.25 -0.0853439009 0.01284656175
556.875 -0.09044780517 0.01143158833
557.5 -0.09123783439 0.02664051352
558.125 -0.07547278845 0.02127308222
558.75 -0.05984545752 -0.0003588805775
559.375 -0.04150928644 -0.003832276226
560.0 -0.02959908109 -0.01025874496
560.625 -0.01625750518 -0.03898319938
561.25 -0.05158559829 -0.04785902895
561.875 -0.07507131238 -0.02647914352
562.5 -0.08007357468 0.02223111515
563.125 -0.07298547226 0.04587146508
563.75 -0.06410069094 0.0786997915
564.375 -0.03044271735 0.08311884519
565.0 -0.02506628654 0.07890505824
565.625 -0.02089814937 0.04920870526
566.25 -0.04632187724 0.03159065894
566.875 -0.05138547783 0.01661828365
567.5 -0.06369461965 0.01692033581
568.125 -0.05555559992 0.001088085103
568.75 -0.04641195201 -0.002450075167
569.375 -0.03250542441 -0.01967138077
570.0 -0.02387168664 -0.03677655318
570.625 -0.02060082097 -0.05401048415
571.25 -0.03745885791 -0.04232447209
571.875 -0.0566066589 -0.03960869511
572.5 -0.09205090918 -0.01563100485
573.125 -0.105162846 0.00821438962
573.75 -0.06494803893 0.06003296293
574.375 -0.04115177469 0.05925204222
575.0 -0.04582157929 0.07454263548
575.625 -0.05864670053 0.04617656808
576.25 -0.04007617051 0.06153554548
576.875 -0.01449697534 0.07614749443
577.5 -0.004951508542 0.08049735535
578.125 -0.0219166128 0.03542723429
578.75 -0.0163273265 0.03546992072
579.375 -0.01745819636 0.03296931305
580.0 -0.02178312872 0.0334446066
580.625 -0.03615590041 0.001278992275
581.25 -0.05781045191 0.003352869586
581.875 -0.0753689774 0.03165996863
582.5 -0.08005825085 0.0401961954
583.125 -0.06491508861 0.05126452539
583.75 -0.06326007524 0.02753858874
584.375 -0.07351844989 0.01890911391
585.0 -0.07498444838 0.004791948678
585.625 -0.06451338044 0.02555465191
586.25 -0.05751459413 0.01270884876
586.875 -0.06243657883 0.006718357423
587.5 -0.0582838112 0.0163409804
588.125 -0.03010263379 0.04805056697
588.75 -0.0268905469 0.036725085
589.375 -0.03573279595 0.02663254474
590.0 -0.04531952415 0.02271764167
590.625 -0.04065235281 0.05433215298
591.25 -0.04830035961 0.07760152854
591.875 -0.04148649481 0.08478227078
592.5 -0.007929261594 0.07015949045
593.125 0.008687606995 0.06381014463
593.75 -0.01672436152 0.06415316154
594.375 -0.03100219176 0.0466485183
595.0 -0.02999124409 0.02514230593
595.625 -0.02785637922 0.01402983777
596.25 -0.03130066006 -0.03037986307
596.875 -0.02881935868 -0.02718483601
597.5 -0.02536024488 -0.0242518198
598.125 -0.02442758567 -0.01280829938
598.75 -0.0118772941 -0.02947611672
599.375 -0.01285283892 -0.03287801027
600.0 -0.02029494213 -0.05511726492
600.625 -0.02547232014 -0.07037684396
601.25 -0.03857209012 -0.06682562239
601.875 -0.05204608343 -0.04729654354
602.5 -0.05399751274 -0.03214028435
603.125 -0.05216182246 -0.01974814707
603.75 -0.01439334178 -0.03767912249
604.375 -0.01467419018 -0.02319634841
605.0 -0.003687240849 -0.03197186983
605.625 -0.007815429802 -0.04549375798
606.25 -0.009731697218 -0.03376296157
606.875 -0.01141244201 -0.01487967776
607.5 0.007572478 -0.006672177242
608.125 0.01476103273 -0.003220106894
608.75 0.04325443419 -0.03012623942
609.375 0.03383890109 -0.01548309241
610.0 0.04727253327 -0.001916753206
610.625 0.04190132637 -0.01241099881
611.25 0.05014064098 -0.01792418565
611.875 0.04185934096 -0.01588533486
612.5 0.03447545115 -0.01150899582
613.125 0.01138743381 -0.007627720719
613.75 -0.001733089865 0.004710372078
614.375 0.04029403497 0.0396931692
615.0 0.03389545779 0.02755476276
615.625 0.01259848951 0.0153721647
616.25 -0.01146394574 0.01429164123
616.875 0.03656308655 0.05141293651
617.5 0.03233887231 0.04434131485
618.125 0.01278879366 0.02621996514
618.75 -0.005306181413 0.02186051855
619.375 0.03183154121 0.0600299594
620.0 0.03108946697 0.03125463801
620.625 0.02480770513 0.006616987294
621.25 0.005674382724 -0.01311648732
621.875 0.00196421389 -0.002612149553
622.5 -0.02223971454 0.01058861528
623.125 -0.02765598742 0.04542939676
623.75 -0.05125481884 0.05082525234
624.375 -0.02079738668 0.06385805564
625.0 -0.04506873518 0.03329490121
625.625 -0.05667373783 0.04679990367
626.25 -0.04412625033 0.04864195227
626.875 -0.02224936402 0.05576307944
627.5 -0.02258734623 0.03424409892
628.125 -0.02332688896 0.01821735316
628.75 -0.02697547606 0.007131393095
629.375 -0.01577445685 -0.001124735133
630.0 -0.01223051081 0.00464977932
630.625 0.004520181165 -0.03173582887
631.25 0.01620125594 -0.05442621317
631.875 0.0001125734164 -0.04753210723
632.5 -0.009158041245 -0.06317473658
633.125 -0.00478843316 -0.06367444142
633.75 -0.01565164651 -0.06409490523
634.375 -0.01088410691 -0.07397456583
635.0 -0.05508989282 -0.0416698235
635.625 -0.0428734208 -0.04160970077
636.25 -0.03307670795 -0.03031950063
636.875 -0.008931532669 -0.05401396882
637.5 -0.01037078524 -0.07359229985
638.125 -0.03455537122 -0.04769686422
638.75 -0.0181578043 -0.02511785368
639.375 0.02045800486 -0.02376912428
640.0 0.06678749989 -0.01237973645
640.625 0.05351025014 -0.01828757805
641.25 0.04054411525 -0.02699880437
641.875 0.05684207468 -0.01816878946
642.5 0.06219916431 -0.00343893442
643.125 0.05842800237 0.01457647563
643.75 0.06138591969 0.01127437877
644.375 0.06029738076 0.0005851929763
645.0 0.04643930677 0.01187638594
645.625 0.03732739498 0.0179688112
646.25 0.05204413947 0.0287709173
646.875 0.07200559178 0.03399657277
647.5 0.06777259975 0.02818551362
648.125 0.04075944399 0.01436818219
648.75 0.0431416931 0.0520726146
649.375 0.04588547689 0.07493479359
650.0 0.03957791319 0.07934861526
650.625 0.03390000506 0.05768748038
651.25 0.004589141309 0.07059003137
651.875 -0.02462978543 0.06155989786
652.5 -0.03258326218 0.04759608242
653.125 -0.02844376256 0.03310102793
653.75 -0.03135960908 0.002853343436
654.375 -0.02500818754 -0.03934129988
655.0 -0.02821292033 -0.05925896328
655.625 -0.0319490747 -0.04888604635
656.25 -0.06531928875 -0.0666194163
656.875 -0.07206367817 -0.04085485805
657.5 -0.0795719311 -0.05723250238
658.125 -0.09674841069 -0.06248155928
658.75 -0.1017666838 -0.0379480857
659.375 -0.08662117105 0.01009976734
660.0 -0.07125409895 0.0266397609
660.625 -0.07073285766 0.02283464098
661.25 -0.05107868064 0.01527079295
661.875 -0.03469232235 0.0214438429
662.5 -0.04900027328 0.0254103328
663.125 -0.06463881973 0.008396888425
663.75 -0.06533023743 -0.03547935133
664.375 -0.05073080999 -0.06813785695
665.0 -0.02494282319 -0.1035417572
665.625 0.01508840762 -0.08648833071
666.25 0.03223286132 -0.08128957561
666.875 0.05083283759 -0.08401243832
667.5 0.06738158611 -0.08757402975
668.125 0.03831427314 -0.0442546806
668.75 0.0357382507 -0.03102561387
669.375 0.0455976486 -0.02589189772
670.0 0.08349215315 -0.0318179352
670.625 0.05771379111 -0.01040181265
671.25 0.0647313544 -0.02841956344
671.875 0.07192760381 -0.04158533255
672.5 0.06442472501 -0.08619766303
673.125 0.03210710995 -0.0886690928
673.75 0.01187448465 -0.08740137828
674.375 0.03034372095 -0.08128805649
675.0 0.06759877051 -0.05590997291
675.625 0.04735150685 -0.02036769218
676.25 0.06189780372 -0.004363665899
676.875 0.05784977365 0.02276852331
677.5 0.04020092725 0.04763279764
678.125 0.02144929398 0.05220405135
678.75 0.04689964273 0.08086794134
679.375 0.06001857366 0.114023404
680.0 0.05049426883 0.09377147732
680.625 0.07804600955 0.06696700462
681.25 0.0885307203 0.03691008059
681.875 0.1095981046 0.02093630853
682.5 0.0821242146 -0.02463908673
683.125 0.07566969379 -0.02814437009
683.75 0.05582428969 0.006198479183
684.375 0.04986281032 0.05861662846
685.0 0.00313901449 0.06354358029
685.625 -0.04565195294 0.04617883584
686.25 -0.07663111727 0.007016244931
686.875 -0.08485576096 -0.03578211057
687.5 -0.1003159749 -0.04609972802
688.125 -0.1164283888 -0.06460648143
688.75 -0.1043582527 -0.08265098257
689.375 -0.07583391183 -0.06213393297
690.0 -0.0695313431 -0.05567040931
690.625 -0.0940609748 -0.05816253125
691.25 -0.09151162088 -0.0474379265
691.875 -0.03810108808 0.001476617928
692.5 -0.04253980729 0.01104020716
693.125 -0.0484548034 0.06653379322
693.75 -0.0195439459 0.1263493651
694.375 0.004759624147 0.1017390771
695.0 -0.02424046531 0.09931373986
695.625 -0.09838479052 0.0536126582
696.25 -0.109371231 -0.05629116744
696.875 -0.03829976189 -0.1180706076
697.5 0.04614768049 -0.08008224911
698.125 0.05687249993 -0.05933615858
698.75 0.04508624284 -0.03994151535
699.375 0.06425035845 -0.03395172662
700.0 0.08168974319 -0.00103789613
700.625 0.06916527132 0.03446546174
701.25 0.06258913593 0.03462165664
701.875 0.1001751056 0.02473794435
702.5 0.1398008392 -0.01636090909
703.125 0.08837878172 -0.06439670253
703.75 -0.01316195097 -0.08442296374
704.375 -0.057496672 -0.06231724114
705.0 -0.01432819501 -0.08938403716
705.625 0.03323395551 -0.07838826647
706.25 0.05227725489 -0.03843224303
706.875 0.05173987065 0.02554073485
707.5 0.03080903479 0.07366524875
708.125 -0.03997927652 0.088037031
708.75 -0.0748037792 0.07359268164
709.375 -0.09335629258 0.02727826667
710.0 -0.09017780083 -0.01607561187
710.625 -0.0563709554 -0.06778163271
711.25 -0.05909850744 -0.08930153379
711.875 -0.08216578866 -0.06984979133
712.5 -0.07739618 -0.01182744344
713.125 -0.04413588641 0.03190687296
713.75 -0.04742448298 0.03610669854
714.375 -0.05623295904 0.05428992794
715.0 -0.01421976608 0.06123087699
715.625 -0.0516272128 0.0619137572
716.25 -0.069574739 0.07093429543
716.875 -0.1137205752 0.03585980885
717.5 -0.0905570286 -0.02872693441
718.125 -0.0778046651 -0.02545413968
718.75 -0.0546379189 -0.06781160725
719.375 -0.01935719143 -0.08257374302
720.0 0.00893618654 -0.07755890505
720.625 0.03961981051 -0.05700937491
721.25 0.02646743887 0.03559401049
721.875 -0.006375267727 0.03126447107
722.5 -0.0460371992 0.02681649202
723.125 -0.05040089047 0.0562530198
723.75 -0.01339698041 0.09603621474
724.375 0.06263043408 0.06872957212
725.0 0.07276336947 -0.004523650164
725.625 0.04922081882 -0.04748118515
726.25 0.0612819423 -0.03270243508
726.875 0.04381272434 -0.02458719372
727.5 0.03321445657 9.66980472e-06
728.125 0.02267784632 0.04147440958
728.75 0.01850922738 0.03860419786
729.375 0.0277695134 0.05106067024
730.0 0.03452727899 0.05024064507
730.625 0.004187077135 0.04289079425
731.25 -0.001626622536 0.02581506146
731.875 -0.07198862433 0.02626931905
732.5 -0.05170995865 -0.001342895349
733.125 -0.04598848765 -0.01495154098
733.75 -0.02049349675 0.01075072281
734.375 -0.0374239533 -0.03994027269
735.0 -0.0468800651 -0.0305850944
735.625 -0.01834719695 -0.01171217256
736.25 -0.0008370812804 -0.02478985527
736.875 -0.08646982446 -0.02961468458
737.5 -0.07903082899 -0.03738208264
738.125 -0.05739501262 -0.03411421463
738.75 -0.021176583 0.002696315782
739.375 -0.02645468767 -0.05462416757
740.0 0.01056101085 -0.03138892311
740.625 -0.01155274333 -0.02854161872
741.25 -0.01304343069 -0.02541462478
741.875 0.02083200616 -0.002693062013
742.5 0.05635678961 0.005097284917
743.125 0.003051114605 0.03293138574
743.75 -0.02884180571 0.02176224229
744.375 -0.04234848584 -4.709384013e-05
745.0 -0.05517256609 0.01884239601
745.625 -0.0571087003 0.03757197324
746.25 -0.01811198381 0.06912078614
746.875 0.01259476986 0.0479109152
747.5 0.05369129906 0.007279810571
748.125 0.02030145174 0.005694234517
748.75 0.01588597972 0.0192605798
749.375 0.02700980449 -0.003325697477
750.0 0.01996045001 -0.02745970738
