!Created with skrf (http://scikit-rf.org).
# GHz S RI R 50.0 
!freq ReS11 ImS11
500.0 -0.01890354634 0.02246578626
500.625 0.01454609508 0.04394746239
501.25 0.04152093584 0.006245618731
501.875 0.03019460067 0.01514101773
502.5 0.006757952323 0.0462780849
503.125 0.03614678376 0.02868001995
503.75 0.04362692785 0.01452868685
504.375 0.0509305405 -0.003616319854
505.0 0.05177126867 -0.02220970362
505.625 0.05844062817 -0.04531999738
506.25 0.04145799679 -0.05302556971
506.875 0.06892909465 -0.03347726946
507.5 0.07215633498 -0.03249949333
508.125 0.06792994753 -0.04929113901
508.75 0.03057966097 -0.06028035023
509.375 0.03364033055 -0.05263959904
510.0 0.09582043447 -0.03042202607
510.625 -0.02576920906 -0.06010266359
511.25 -0.03580410456 -0.05110796758
511.875 -0.0494601139 -0.02023981917
512.5 -0.03847493814 -0.001382773024
513.125 -0.01684074875 0.03563490954
513.75 -0.01248301135 0.038346375
514.375 -0.01527159855 0.05912683491
515.0 -0.001160343285 0.09378722291
515.625 -0.04536708233 0.08938942626
516.25 0.0332571715 0.09109684781
516.875 -0.05509573766 0.1197580037
517.5 0.02611861615 0.1180473594
518.125 -0.04621069053 0.1209183821
518.75 0.0151834119 0.05572832708
519.375 -0.0004202578731 0.07971797171
520.0 0.05167473753 0.06214524668
520.625 0.05767378392 0.0461098352
521.25 0.05444137733 0.03663366658
521.875 0.03255623919 0.0507241206
522.5 0.06772015802 0.01827221753
523.125 0.1179430049 -0.02273975918
523.75 0.0923063258 -0.0780627611
524.375 0.06415841377 -0.01282689593
525.0 0.002168671216 0.01186273707
525.625 0.001102903062 0.02011026193
526.25 0.0106214757 0.04238804343
526.875 0.01585723009 0.04639238129
527.5 0.02523263985 0.02580473904
528.125 0.04384011867 0.008679884111
528.75 0.05839299906 -0.002129287206
529.375 0.05012036787 -0.03499732987
530.0 0.01418821844 -0.01432764252
530.625 0.01376459431 -0.06921624555
531.25 0.01307794284 -0.153675291
531.875 -0.05098395953 -0.1647923631
532.5 -0.07938625419 -0.05897222455
533.125 -0.07909809895 -0.05809190901
533.75 -0.07328111206 -0.07057495521
534.375 -0.0708065911 -0.04858921946
535.0 -0.06839756983 -0.02853151639
535.625 -0.03043784413 -0.03671812897
536.25 -0.03336646216 -0.03553694179
536.875 -0.04918319363 -0.06959889907
537.5 -0.03825886846 -0.06885279848
538.125 -0.06326132597 -0.05186505991
538.75 -0.05771899108 -0.02992551029
539.375 -0.04168308454 -0.05743308355
540.0 -0.04718337849 -0.08492409015
540.625 -0.05127224309 -0.1009833192
541.25 -0.03961626725 -0.08271855231
541.875 -0.054391904 -0.09052730006
542.5 -0.04324118684 -0.07929674662
543.125 -0.09361188422 -0.06341064778
543.75 -0.09334320433 0.01850675764
544.375 -0.06659841494 0.03672757338
545.0 -0.03816598032 0.06112851382
545.625 -0.01597553279 0.05950809749
546.25 0.00920235515 0.06448785678
546.875 0.01806024172 0.07247849081
547.5 0.01042613062 0.0841996175
548.125 0.004549001745 0.06960952817
548.75 -0.006955457152 0.06581716761
549.375 -0.02576822253 0.07525377494
550.0 -0.04394821999 0.02790459813
550.625 -0.02095054815 -0.002302108662
551.25 -0.01456168885 -0.03637583675
551.875 -0.05543315395 -0.04657522873
552.5 -0.0634513809 -0.04880628551
553.125 -0.07061798662 -0.02653997053
553.75 -0.07712224372 -0.02561639352
554.375 -0.0960791212 0.002838921439
555.0 -0.09554305949 0.02028189211
555.625 -0.07432474261 0.02942514862
556.25 -0.07772152379 0.01326676333
556.875 -0.0931705505 0.01702056031
557.5 -0.09397073179 0.03542152364
558.125 -0.06217942345 0.02352651134
558.75 -0.06100984911 0.003882143089
559.375 -0.04335764648 -0.00181173338
560.0 -0.02376167056 -0.006072048907
560.625 -0.03119250125 -0.03290237963
561.25 -0.06182742934 -0.03921609914
561.875 -0.075196662 -0.02261027381
562.5 -0.07768780614 0.0255302332
563.125 -0.07100561345 0.056424224
563.75 -0.0599183063 0.09061590719
564.375 -0.02756008304 0.08676893007
565.0 -0.02012352766 0.07169136546
565.625 -0.01570102214 0.06378257686
566.25 -0.04601597752 0.04977303581
566.875 -0.0569574102 0.02504998027
567.5 -0.06556918841 0.02485192195
568.125 -0.04862652004 0.003039922666
568.75 -0.04534565548 0.001373946714
569.375 -0.02402426894 -0.01479231376
570.0 -0.03079569353 -0.03003656094
570.625 -0.03056383419 -0.04910236282
571.25 -0.03738498815 -0.04036757079
571.875 -0.05114955705 -0.03525934774
572.5 -0.09199430351 -0.005058592556
573.125 -0.09890522844 0.007130923667
573.75 -0.06255620871 0.06149439185
574.375 -0.03391670465 0.06605916776
575.0 -0.04084788659 0.07440217058
575.625 -0.05428309721 0.06175273918
576.25 -0.03377579466 0.07193926247
576.875 -0.01197450225 0.0785254288
577.5 -0.001922051034 0.07913316064
578.125 -0.018156128 0.04979305726
578.75 -0.01638466063 0.03397796987
579.375 -0.01251885212 0.04149484983
580.0 -0.01444703646 0.04153431009
580.625 -0.03507820317 -0.005427674712
581.25 -0.05796656159 -0.0004859775855
581.875 -0.07110176555 0.02636332243
582.5 -0.07501391512 0.05349869954
583.125 -0.06422502789 0.04441843862
583.75 -0.05979773848 0.03317027449
584.375 -0.06748098912 0.02303794724
585.0 -0.07615501205 0.005897366749
585.625 -0.06071482889 0.01237959307
586.25 -0.05750906237 0.01114316174
586.875 -0.05700194767 0.002690140886
587.5 -0.05839361272 0.02732905179
588.125 -0.03287522395 0.04001627961
588.75 -0.02419872883 0.03899622466
589.375 -0.03164976345 0.02536136622
590.0 -0.04556331531 0.02192643051
590.625 -0.04471135132 0.05209898456
591.25 -0.03753875972 0.08080332823
591.875 -0.02828752931 0.09063137554
592.5 -0.004447468619 0.075117355
593.125 0.005820252947 0.06259035854
593.75 -0.01099626948 0.06170199095
594.375 -0.02590737955 0.05191793686
595.0 -0.0304256086 0.03294843474
595.625 -0.02870332387 0.01083299516
596.25 -0.03566351303 -0.01401267282
596.875 -0.03295919392 -0.02574886266
597.5 -0.03554420254 -0.019631815
598.125 -0.02033643149 -0.02344739638
598.75 -0.011203714 -0.0373825868
599.375 -0.009180031995 -0.03988457967
600.0 -0.02203249603 -0.03937316145
600.625 -0.01510355679 -0.0910267965
601.25 -0.04165868991 -0.06447770524
601.875 -0.05306241355 -0.03882532139
602.5 -0.05666988166 -0.03356790938
603.125 -0.05242477164 -0.02639094742
603.75 -0.02893304977 -0.03012635722
604.375 -0.01068296579 -0.03074317861
605.0 -0.006524686369 -0.03525876399
605.625 -0.01876869262 -0.03392809782
606.25 0.01090835175 -0.04381697233
606.875 -0.003627671778 -0.0202892211
607.5 0.001646585353 -0.0008259769073
608.125 0.005477245861 0.001381908284
608.75 0.02538060078 -0.01959479734
609.375 0.04396083927 -0.02260335606
610.0 0.04279335207 -0.007104855397
610.625 0.03063046281 -0.009391784593
611.25 0.07097789478 -0.02361224741
611.875 0.05870522103 -0.01765063463
612.5 0.03075774981 -0.009892264697
613.125 0.01827715318 -0.007303165546
613.75 0.009471043821 0.005781309533
614.375 0.02194621132 0.02398532028
615.0 0.03339657777 0.01768082969
615.625 0.01670044056 0.009186679393
616.25 -0.008978749706 0.01562785619
616.875 0.02629700732 0.04179609849
617.5 0.0173719216 0.02894233424
618.125 0.02344304758 0.02815879873
618.75 0.002907146407 0.02546232233
619.375 0.01946764436 0.04189279281
620.0 0.02376700562 0.03041052638
620.625 0.02660941583 0.001666729898
621.25 0.02208083877 0.001493585661
621.875 -0.004829769839 -0.01610242333
622.5 -0.03937815586 0.007388069651
623.125 -0.03729791402 0.03808047632
623.75 -0.04331796382 0.05231326493
624.375 -0.03183855631 0.05055552715
625.0 -0.03533659553 0.04601303123
625.625 -0.04986793901 0.04229176093
626.25 -0.05303677752 0.04330066958
626.875 -0.01358534268 0.07926998526
627.5 -0.0116434172 0.04951408153
628.125 -0.03325050618 0.02228150025
628.75 -0.0286517359 -0.0007230093194
629.375 -0.02599005216 0.02472812513
630.0 -0.01013650126 0.001240636879
630.625 -0.006073131137 -0.01569362443
631.25 0.01173172143 -0.05320123918
631.875 -0.02066086413 -0.03379735945
632.5 -0.0227686485 -0.04934007079
633.125 -0.01526783425 -0.06555743618
633.75 -0.02220716773 -0.05558247275
634.375 -0.01935322761 -0.06090604637
635.0 -0.04336640605 -0.05562129662
635.625 -0.05445100326 -0.0295497548
636.25 -0.0329978194 -0.02853316341
636.875 -0.01018390978 -0.06271717066
637.5 -0.03491995479 -0.06164840292
638.125 -0.03747289887 -0.0457169995
638.75 -0.03454219397 -0.02708705472
639.375 0.01365532233 -0.02219771335
640.0 0.05027299838 -0.02360809382
640.625 0.05553942511 -0.02147857871
641.25 0.04672858236 -0.02685783219
641.875 0.05780293907 -0.02142273154
642.5 0.04506168214 -0.021439303
643.125 0.05280506751 0.0008656169237
643.75 0.06634316931 -0.004446921885
644.375 0.06952066651 0.001441699259
645.0 0.03712430023 -0.01548440642
645.625 0.04175336643 0.01633496192
646.25 0.05811447017 0.02689102487
646.875 0.07249189213 0.02774711239
647.5 0.06609191825 0.022350106
648.125 0.05199690873 0.01953774418
648.75 0.04080202798 0.04598179822
649.375 0.04755617201 0.08089634848
650.0 0.04241938266 0.07549509454
650.625 0.04126451372 0.04821454642
651.25 0.01630231449 0.0615841742
651.875 -0.02435800156 0.06710975302
652.5 -0.03476474304 0.05408666066
653.125 -0.00731673756 0.04002734937
653.75 -0.02310885719 0.006163472034
654.375 -0.02632687846 -0.0315897032
655.0 -0.02584362827 -0.04888271596
655.625 -0.04430268212 -0.05671420855
656.25 -0.06093660952 -0.05140085775
656.875 -0.07533227905 -0.04090796464
657.5 -0.08825363224 -0.05303107903
658.125 -0.08462398415 -0.04293669688
658.75 -0.1035476427 -0.03035927656
659.375 -0.08461599089 0.02126616787
660.0 -0.06839195191 0.03148659151
660.625 -0.05975429388 0.0301500521
661.25 -0.0556141073 0.01900455993
661.875 -0.03920109479 0.02581920545
662.5 -0.04895520375 0.03100621528
663.125 -0.04400839263 0.008643975488
663.75 -0.06368574706 -0.02884320224
664.375 -0.05026341235 -0.0539799599
665.0 -0.03363411872 -0.09964592515
665.625 0.01048186632 -0.101416723
666.25 0.0333121293 -0.09095595563
666.875 0.04331478478 -0.08296224111
667.5 0.06144506928 -0.08831199246
668.125 0.05093090965 -0.05952413646
668.75 0.03826852332 -0.03758174518
669.375 0.04696865431 -0.02783030517
670.0 0.07908921243 -0.03790005694
670.625 0.05890116128 -0.01782780045
671.25 0.05278766217 -0.02822982735
671.875 0.05831005407 -0.0401131313
672.5 0.05686062282 -0.09609612614
673.125 0.02268442216 -0.08298842274
673.75 0.00729079383 -0.09961824735
674.375 0.02905651244 -0.08246162208
675.0 0.06310203278 -0.05927570312
675.625 0.04987843398 -0.02675320127
676.25 0.07233026214 -0.01098471919
676.875 0.07080788617 0.01883737006
677.5 0.04093203351 0.04199810221
678.125 0.02018136005 0.04547813999
678.75 0.0429366222 0.07584070158
679.375 0.05405680606 0.09904271788
680.0 0.05959140323 0.09396324174
680.625 0.06689497046 0.05816119495
681.25 0.1004966285 0.03297709178
681.875 0.1261953391 0.01103540529
682.5 0.09010384391 -0.02758877235
683.125 0.07666834552 -0.03708394645
683.75 0.05289897992 0.001384616682
684.375 0.04848647711 0.0488027121
685.0 0.01400037522 0.06214310578
685.625 -0.03933827092 0.05638430992
686.25 -0.05974395131 -0.003495411901
686.875 -0.08115424434 -0.03155480889
687.5 -0.08414206592 -0.04125501323
688.125 -0.1254045196 -0.05509498002
688.75 -0.09027713605 -0.0730649893
689.375 -0.07867392559 -0.05716774549
690.0 -0.08739900198 -0.05082395884
690.625 -0.09393581799 -0.05479495922
691.25 -0.08819553716 -0.03857499107
691.875 -0.05155824798 0.01160213847
692.5 -0.04212702711 0.02383004708
693.125 -0.03768534748 0.07239808344
693.75 -0.001050839612 0.1313175668
694.375 -0.004065789177 0.09022112738
695.0 -0.02056786201 0.09856045735
695.625 -0.09314886052 0.0773999117
696.25 -0.1087879814 -0.05273924734
696.875 -0.04165549236 -0.1145649751
697.5 0.04008657611 -0.07788397207
698.125 0.05087205929 -0.05558412708
698.75 0.04259865051 -0.04311621761
699.375 0.05654338026 -0.01845596436
700.0 0.07787944653 -0.004285747007
700.625 0.06440096451 0.03147740387
701.25 0.06189562321 0.03125818395
701.875 0.09478992496 0.02939467075
702.5 0.1367382765 -0.02820453966
703.125 0.09128387324 -0.07968484564
703.75 -0.02285900699 -0.09021367748
704.375 -0.06055752024 -0.05931431956
705.0 0.002068570069 -0.0807585993
705.625 0.02750621161 -0.07512500491
706.25 0.04905688849 -0.03407580508
706.875 0.05828973902 0.00971534602
707.5 0.01869942965 0.07343747084
708.125 -0.03327376644 0.08777756097
708.75 -0.0672108566 0.07758395926
709.375 -0.09026311816 0.0349757738
710.0 -0.08796845353 -0.01704811032
710.625 -0.06718378281 -0.05377048897
711.25 -0.08387478221 -0.07260146729
711.875 -0.09768419564 -0.06082223238
712.5 -0.06463889343 -0.01839517274
713.125 -0.04461665603 0.03201432594
713.75 -0.02680227123 0.05515244108
714.375 -0.03532558447 0.06296544136
715.0 -0.01663580889 0.06076649944
715.625 -0.04902701609 0.06241741942
716.25 -0.07780046631 0.06592731809
716.875 -0.1146295972 0.01847712838
717.5 -0.09633145042 -0.0186512352
718.125 -0.07652344039 -0.03008636766
718.75 -0.065535289 -0.05188279413
719.375 -0.03109400592 -0.08598278468
720.0 0.004693947075 -0.07841632046
720.625 0.03633143389 -0.05924233357
721.25 0.04127379438 0.01726468262
721.875 -0.008894342533 0.0251955785
722.5 -0.02106985095 0.03102141546
723.125 -0.08629788773 0.05597343621
723.75 0.0006442749586 0.09466922362
724.375 0.06586843949 0.05425795391
725.0 0.07713557791 -0.0108257981
725.625 0.04851703121 -0.047470941
726.25 0.07403116653 -0.01293651987
726.875 0.05344425869 -0.01471129528
727.5 0.04852324451 0.009804607961
728.125 0.02996251956 0.0149316871
728.75 0.01438845005 0.05184369016
729.375 0.02871679952 0.0395768149
730.0 0.03946246773 0.03388169486
730.625 0.01252965535 0.0434866608
731.25 -0.0005124015226 0.02859339557
731.875 -0.05714073735 0.03319364117
732.5 -0.06950608777 -0.009593849875
733.125 -0.0413627356 -0.02226009201
733.75 -0.01748808436 0.0124618833
734.375 -0.02283900569 -0.01907278353
735.0 -0.02814265346 -0.007670036705
735.625 -0.03060295082 -0.008356830842
736.25 -0.01220887216 -0.02033061666
736.875 -0.05471759375 -0.02548866471
737.5 -0.06825648643 -0.02898180994
738.125 -0.06312495381 -0.02224480931
738.75 -0.0219090917 0.0007822535818
739.375 -0.03074679267 -0.04137081304
740.0 -0.008093082698 -0.05012069226
740.625 -0.01075804199 -0.04226144613
741.25 -0.002182855841 -0.01824121182
741.875 0.01264437161 -0.02024007759
742.5 0.03093774842 0.01118352496
743.125 -0.01355375829 0.02540007576
743.75 -0.02397287111 0.01142100214
744.375 -0.03302083063 0.04165601746
745.0 -0.04532895233 0.02718969478
745.625 -0.04477022021 0.0633782147
746.25 -0.01065881286 0.06803142728
746.875 0.02253432933 0.0446905939
747.5 0.03688253862 0.008657947972
748.125 0.03053399493 -0.006041646026
748.75 0.02840775548 0.007902911403
749.375 0.03031186645 0.00219577373
750.0 -0.01552953845 -0.03173633936
