!Created with skrf (http://scikit-rf.org).
# GHz S RI R 50.0 
!freq ReS11 ImS11
500.0 -0.01498251497 0.02812997061
500.625 0.02496654483 0.02884206759
501.25 0.03238113669 0.01546217075
501.875 0.02341233876 0.02038730433
502.5 0.01209020663 0.03844193974
503.125 0.03439130394 0.02537756377
503.75 0.04573604515 0.006144504777
504.375 0.05636730897 0.0111313754
505.0 0.03566803825 -0.03668682143
505.625 0.05258936965 -0.04823310241
506.25 0.04761981835 -0.04983784705
506.875 0.07734954306 -0.02587210979
507.5 0.03966513437 -0.05633165683
508.125 0.06542863944 -0.03136085886
508.75 0.03765446161 -0.05629517856
509.375 0.04588991898 -0.04396123262
510.0 0.0653258616 -0.0439451551
510.625 -0.01902915914 -0.05988000805
511.25 -0.03756668239 -0.04995002654
511.875 -0.05131777532 -0.02513329786
512.5 -0.03295776304 0.02265517468
513.125 -0.01282999302 0.03447323157
513.75 -0.01748688596 0.03980741019
514.375 -0.006858941847 0.05842675601
515.0 0.01269151188 0.08375279517
515.625 -0.04513447832 0.09641827782
516.25 0.02712361753 0.09905400293
516.875 -0.05127208865 0.1200246834
517.5 0.05230712035 0.0958735671
518.125 -0.06216139671 0.1153457954
518.75 0.01509905453 0.06316106228
519.375 0.02993866089 0.05710433867
520.0 0.05472323778 0.05665973162
520.625 0.06345608313 0.05160919585
521.25 0.06037242522 0.03221970167
521.875 0.03555828824 0.05045272388
522.5 0.06730440865 0.007978238349
523.125 0.1188638614 -0.01013679423
523.75 0.09889500558 -0.06896866239
524.375 0.06548483173 0.0044258259
525.0 0.006209782771 0.001650327361
525.625 0.003359910431 0.01301208497
526.25 0.01227242489 0.05857699424
526.875 0.02104998796 0.01684142282
527.5 0.02310188243 0.02070333827
528.125 0.04282745725 0.002263775131
528.75 0.06543439096 -0.006390993606
529.375 0.01705902341 -0.03524748125
530.0 0.02270963885 -0.02061233072
530.625 0.009569716036 -0.07445836257
531.25 0.01457996777 -0.1816220183
531.875 -0.05628386286 -0.1155035425
532.5 -0.08076796214 -0.06221003126
533.125 -0.07741669015 -0.0519818812
533.75 -0.08467536632 -0.07642701986
534.375 -0.06074160661 -0.02395007855
535.0 -0.06373306393 -0.01787497851
535.625 -0.03472048313 -0.03445882274
536.25 -0.04339620182 -0.0448851247
536.875 -0.03478291153 -0.05432474829
537.5 -0.04222148015 -0.08084870206
538.125 -0.06918236843 -0.05511701369
538.75 -0.06774737401 -0.04225224824
539.375 -0.02919701899 -0.02937754808
540.0 -0.04667157322 -0.07875391579
540.625 -0.05790452127 -0.09991858545
541.25 -0.04616395743 -0.0984561044
541.875 -0.04627925004 -0.07443441069
542.5 -0.0496903774 -0.09217887567
543.125 -0.09279000749 -0.06004274422
543.75 -0.1100415765 0.01472717335
544.375 -0.04674875831 0.041874694
545.0 -0.02843931674 0.05763202764
545.625 -0.01387568637 0.06358976824
546.25 0.01030332866 0.0709939835
546.875 0.02053621102 0.07215282275
547.5 0.01596411772 0.07990749896
548.125 0.005960384853 0.0703785366
548.75 -0.0114220182 0.08364647831
549.375 -0.003663122293 0.05066949545
550.0 -0.03417605919 0.02878945228
550.625 -0.01930948046 0.00332699966
551.25 -0.01945373977 -0.0334524502
551.875 -0.03079823792 -0.04314421445
552.5 -0.06288024066 -0.04762944419
553.125 -0.06702644314 -0.02400563558
553.75 -0.08779154618 -0.01786720263
554.375 -0.08525549946 0.001881262808
555.0 -0.09081375811 0.02175643562
555.625 -0.07943013639 0.03416571755
556.25 -0.08179526633 0.01962827759
556.875 -0.1004459535 0.02230085872
557.5 -0.07722064187 0.0277637625
558.125 -0.07137929796 0.02670793915
558.75 -0.06717325816 0.007007081012
559.375 -0.0315223649 0.006160469382
560.0 -0.02322038083 -0.004959128385
560.625 -0.03747232607 -0.02762260914
561.25 -0.06415365754 -0.03330237912
561.875 -0.07138202336 -0.02066954177
562.5 -0.07281135773 0.02178581568
563.125 -0.06734895887 0.05666772284
563.75 -0.05574778689 0.1000632422
564.375 -0.02175382824 0.07155740001
565.0 -0.01717296091 0.07210909579
565.625 -0.01332941876 0.06772097129
566.25 -0.04498840778 0.05500100909
566.875 -0.05714273327 0.02830708785
567.5 -0.05581958644 0.01784844065
568.125 -0.06060588506 0.009472918659
568.75 -0.04465637263 0.003383152415
569.375 -0.04054745336 -0.00980548703
570.0 -0.01307555395 -0.0328791348
570.625 -0.04352457466 -0.04537015686
571.25 -0.04261398572 -0.03720299601
571.875 -0.06145588519 -0.02495488439
572.5 -0.08244704288 -0.01503126342
573.125 -0.1087299863 0.02041366236
573.75 -0.06152168004 0.0613070515
574.375 -0.02955106878 0.07441055487
575.0 -0.04117751078 0.06583266523
575.625 -0.05234774687 0.07290727536
576.25 -0.03127795327 0.07447161063
576.875 -0.01672512926 0.0638286044
577.5 -0.002783556588 0.07384256967
578.125 -0.01512957257 0.05636571067
578.75 -0.01299683901 0.04131869369
579.375 -0.008783719011 0.04453379821
580.0 -0.02110187445 0.02799365365
580.625 -0.03408520635 0.00864802853
581.25 -0.05352901347 0.006441355712
581.875 -0.06205900585 0.04292395267
582.5 -0.07666422817 0.03033834779
583.125 -0.06511583712 0.0448798295
583.75 -0.05649280105 0.03070027446
584.375 -0.06514446832 0.03864085635
585.0 -0.0727223303 0.004394317403
585.625 -0.06370896484 0.01590881277
586.25 -0.05609693282 0.01358397015
586.875 -0.06138490331 0.02346092557
587.5 -0.05569479612 0.009303128826
588.125 -0.03498351834 0.04166671218
588.75 -0.02428916153 0.03629430257
589.375 -0.01790750646 0.04248493987
590.0 -0.04908719521 0.0154639511
590.625 -0.04759513854 0.05251435519
591.25 -0.03457756914 0.07875928889
591.875 -0.02047043791 0.09620982025
592.5 -0.002694432621 0.07193466812
593.125 0.0005384359705 0.0580594485
593.75 -0.01093309797 0.05999578074
594.375 -0.01641528816 0.06306253853
595.0 -0.03648148739 0.009035719492
595.625 -0.03054349484 0.003352558267
596.25 -0.03698531105 -0.0105359578
596.875 -0.03694703251 -0.01940104209
597.5 -0.03431038034 -0.01967312775
598.125 -0.0222357105 -0.0256458574
598.75 -0.01612179774 -0.02890093876
599.375 -0.01404448 -0.02095915633
600.0 -0.01678481363 -0.07059698861
600.625 -0.02491974167 -0.08410073442
601.25 -0.04147947166 -0.06810206423
601.875 -0.05738435135 -0.02868041124
602.5 -0.05219496223 -0.03853825679
603.125 -0.04945154916 -0.03856288871
603.75 -0.03775477034 -0.022892014
604.375 -0.01605134379 -0.02420750333
605.0 -0.01598627172 -0.0246905729
605.625 0.00868383955 -0.05761359818
606.25 0.001083252377 -0.04517231114
606.875 -0.006404512911 -0.0213055682
607.5 -0.01123499137 0.005016698967
608.125 0.02676917734 -0.01553079335
608.75 0.01493701911 -0.01638797504
609.375 0.03270866405 -0.01975045854
610.0 0.03070172231 -0.005535441258
610.625 0.06350073697 -0.01829694251
611.25 0.05969243265 -0.02744094474
611.875 0.05267025657 -0.02096372405
612.5 0.01447144362 -0.019475194
613.125 0.0278575202 0.001687865316
613.75 0.02057240741 0.007565780857
614.375 0.01645186667 0.01485827447
615.0 0.02270911607 0.01291006274
615.625 0.01823569539 0.01337204639
616.25 0.01333214278 0.0183182941
616.875 0.01448759476 0.03208401516
617.5 0.01389322461 0.02778652246
618.125 0.03343862686 0.03938361443
618.75 0.0182598006 0.0305406476
619.375 0.01550282978 0.03286050979
620.0 0.01329076906 0.02302531195
620.625 0.05497876113 0.02577676859
621.25 0.0269552111 0.00512011429
621.875 -0.007197276619 -0.01429847068
622.5 -0.04253599559 0.005972587439
623.125 -0.03292130682 0.04166056402
623.75 -0.02447406159 0.05621469042
624.375 -0.03482952385 0.0433997677
625.0 -0.03831187922 0.03836297507
625.625 -0.0581490412 0.03634517497
626.25 -0.02602234016 0.08206671619
626.875 -0.01161913643 0.07011860227
627.5 -0.01400967502 0.04783396039
628.125 -0.03715806071 0.007616122742
628.75 -0.03676651561 0.04640644317
629.375 -0.02240182037 0.02801888272
630.0 -0.01254156884 0.003688104821
630.625 0.0002309248025 -0.03800256116
631.25 -0.002617586419 -0.03561181532
631.875 -0.01132496044 -0.03582263633
632.5 -0.01960874515 -0.04945622843
633.125 -0.006423310922 -0.07917478339
633.75 -0.03854313 -0.04721376432
634.375 -0.03216883867 -0.05249992706
635.0 -0.03910058374 -0.06049486199
635.625 -0.05109683909 -0.03475057149
636.25 -0.03250440426 -0.03641896261
636.875 -0.03161598462 -0.03004912073
637.5 -0.03622738055 -0.05227906324
638.125 -0.04625454157 -0.04289399697
638.75 -0.02406625633 -0.03622261493
639.375 -0.01338024088 -0.01768361484
640.0 0.04045422853 -0.02186718451
640.625 0.05363421615 -0.02634554316
641.25 0.05192668853 -0.03061688932
641.875 0.02879340697 -0.03829357283
642.5 0.04701154802 -0.00967597448
643.125 0.05565496467 0.002746851433
643.75 0.07321883515 0.007611300073
644.375 0.04384268344 -0.03088178999
645.0 0.03620135276 -0.01377696392
645.625 0.04283290214 0.00933384572
646.25 0.0657201282 0.026195872
646.875 0.07134280965 0.0144303873
647.5 0.06155074063 0.01020655024
648.125 0.05854955092 0.01395107845
648.75 0.04710868059 0.04833310935
649.375 0.05112112083 0.07615769844
650.0 0.04637937989 0.06714565003
650.625 0.03658967983 0.05962804487
651.25 0.01666044754 0.06876454784
651.875 -0.02915244287 0.07300813402
652.5 -0.01086266029 0.05248835923
653.125 -0.01428009789 0.03954245848
653.75 -0.03233859167 0.01098900827
654.375 -0.01931081175 -0.0145506861
655.0 -0.02304952594 -0.04285699499
655.625 -0.05311827712 -0.05763420432
656.25 -0.07059337777 -0.05339009673
656.875 -0.0842335503 -0.03956434848
657.5 -0.07061639763 -0.03301406324
658.125 -0.08318722998 -0.0417063916
658.75 -0.1027502328 -0.02002715211
659.375 -0.09688560305 0.01872939533
660.0 -0.05003478059 0.04287079439
660.625 -0.05384979632 0.03471116352
661.25 -0.05310483539 0.02855922867
661.875 -0.0404952952 0.03471329918
662.5 -0.02033069209 0.02260397072
663.125 -0.05842260487 0.0129167155
663.75 -0.06119193749 -0.01982478215
664.375 -0.06442780281 -0.05921441341
665.0 -0.02621289318 -0.08615310068
665.625 0.001763687132 -0.1091685672
666.25 0.03082907871 -0.09664131971
666.875 0.02967099003 -0.07825998477
667.5 0.04921179377 -0.08431160708
668.125 0.06059727745 -0.06581737234
668.75 0.03835728049 -0.04563320771
669.375 0.04964162245 -0.03683385339
670.0 0.06403724654 -0.03326055523
670.625 0.07181531336 -0.02441009877
671.25 0.05469745207 -0.03193818088
671.875 0.06714315587 -0.05283041136
672.5 0.0417038409 -0.06782314788
673.125 0.02438862666 -0.0980035128
673.75 -0.0008959930632 -0.1037212968
674.375 0.01836069555 -0.08149573078
675.0 0.05159834205 -0.05921558554
675.625 0.05907070635 -0.03657987125
676.25 0.07592914348 -0.02146516928
676.875 0.06758654216 0.006943325696
677.5 0.03870326428 0.03535760858
678.125 0.03357589782 0.04636264717
678.75 0.04673856893 0.06855967249
679.375 0.0787956871 0.1003075385
680.0 0.05216064624 0.07811405304
680.625 0.06943755142 0.05529577413
681.25 0.1012308071 0.02711118303
681.875 0.1348507594 -0.001713674081
682.5 0.09077541628 -0.03253605567
683.125 0.06616083454 -0.03714300332
683.75 0.06916262309 -0.008264729597
684.375 0.05549342035 0.04376077417
685.0 0.02364418639 0.06894703252
685.625 -0.03465545595 0.03806388669
686.25 -0.05901651552 0.003197978238
686.875 -0.07510299319 -0.02668132454
687.5 -0.09968798433 -0.03035174179
688.125 -0.09992976392 -0.05533904858
688.75 -0.09560938393 -0.06777601025
689.375 -0.07774649165 -0.052541793
690.0 -0.09320285636 -0.0451000814
690.625 -0.0799982038 -0.04345805063
691.25 -0.08881664496 -0.03475461554
691.875 -0.05885686426 0.02053942207
692.5 -0.03786862717 0.03566974689
693.125 -0.02191840555 0.08073455307
693.75 -0.01711554047 0.1077135483
694.375 0.009727341666 0.09715448371
695.0 -0.01662958219 0.09336612433
695.625 -0.08626440096 0.08689388012
696.25 -0.09546264627 -0.0527376978
696.875 -0.03903766315 -0.1083256857
697.5 0.03287228677 -0.09960574068
698.125 0.0489449936 -0.07148229111
698.75 0.03962326976 -0.04124740324
699.375 0.05533535916 -0.02469965716
700.0 0.07313525526 -0.005317807338
700.625 0.0826331318 0.01475841422
701.25 0.05149483989 0.03820317438
701.875 0.09176399969 0.02595330933
702.5 0.1304768486 -0.03253568989
703.125 0.09108760249 -0.09673787138
703.75 -0.03260710706 -0.09446817122
704.375 -0.05205394538 -0.05847814428
705.0 -0.03062379524 -0.08514742171
705.625 0.02565651581 -0.07301157675
706.25 0.04075080255 -0.05873091443
706.875 0.04073287626 0.03159742134
707.5 0.02556958775 0.07452421897
708.125 -0.0314230044 0.08838267855
708.75 -0.05105654439 0.08994503946
709.375 -0.08989280599 0.01229960541
710.0 -0.08377723445 -0.01981518769
710.625 -0.08017377422 -0.04154525299
711.25 -0.0924844445 -0.06284070979
711.875 -0.07266140226 -0.07613510112
712.5 -0.06919976003 -0.01595646787
713.125 -0.04469301294 0.03056112028
713.75 -0.00715362087 0.06190508898
714.375 -0.02624215664 0.0601262009
715.0 -0.02202270504 0.06146220808
715.625 -0.02571618918 0.06613637029
716.25 -0.06785790339 0.07086611381
716.875 -0.09700096813 0.06232594118
717.5 -0.08505064985 -0.04588082665
718.125 -0.07369238163 -0.03799730522
718.75 -0.06968850821 -0.04690941749
719.375 -0.05213839274 -0.0777060946
720.0 -0.01547573525 -0.08282218895
720.625 0.04916230894 -0.04829824177
721.25 0.04622471114 0.009288749281
721.875 0.02143329068 0.02724672483
722.5 -0.07222247916 0.02232562819
723.125 -0.07583198998 0.06365050889
723.75 0.003242302234 0.09566459639
724.375 0.06917802149 0.04037046825
725.0 0.08280390752 -0.007027101873
725.625 0.07142982556 -0.03910099482
726.25 0.07109158702 -0.03373656887
726.875 0.05128267312 -0.02451800192
727.5 0.03167734408 -0.02113217678
728.125 0.02094905771 0.08190862515
728.75 0.01481100442 0.06412062914
729.375 0.03455841614 0.04296391635
730.0 0.03539550164 0.01938240155
730.625 0.01692953992 0.02364983182
731.25 -0.01624886263 0.0470004316
731.875 -0.03678585094 0.033120485
732.5 -0.06367159251 0.0003991203273
733.125 -0.03238437691 0.006865822325
733.75 -0.03696924807 -0.01474666611
734.375 -0.01801505148 -0.01817392096
735.0 -0.01374601856 0.0007798288092
735.625 -0.05135597006 -0.02154475301
736.25 -0.02883739549 -0.007870934808
736.875 -0.03643737755 -0.02031382157
737.5 -0.0597702381 -0.02349159157
738.125 -0.05126995885 -0.01557856722
738.75 -0.05417775484 -0.01615085847
739.375 -0.02562913984 -0.01273689514
740.0 -0.01231534334 -0.04201858487
740.625 0.00721815704 -0.02592499027
741.25 -0.05161729378 -0.04626542068
741.875 0.006262156502 -0.03679319876
742.5 0.01767482428 0.01419822218
743.125 -0.02040445499 0.02387284649
743.75 -0.005704414365 0.06000721524
744.375 -0.0226106447 0.04740931677
745.0 -0.03912732142 0.04151241143
745.625 -0.06835748573 0.04207876832
746.25 0.02498014207 0.0942778233
746.875 0.04099140569 0.04534188953
747.5 0.03173375815 0.009809374773
748.125 0.02274383417 -0.001304448137
748.75 0.01922454448 0.02187072219
749.375 0.02402225714 -0.04099355292
750.0 -0.01917847828 -0.03215510126
