!Created with skrf (http://scikit-rf.org).
# GHz S RI R 50.0 
!freq ReS11 ImS11
500.0 -0.005101736673 0.0118111845
500.625 0.01495338116 0.00301508836
501.25 0.008595967783 -0.02136870487
501.875 -0.009040597111 -0.03098206824
502.5 -0.007695232978 -0.01066054508
503.125 0.002413862726 0.0003419399653
503.75 0.0009645535096 -0.01227564464
504.375 -0.005561554695 -0.02124295511
505.0 -0.003587524038 -0.02019392141
505.625 -0.005087771438 -0.03234597647
506.25 -0.03165825132 -0.0406582803
506.875 -0.03530339785 -0.07819684952
507.5 -0.04671887573 -0.05138069385
508.125 -0.03073783114 -0.06236443363
508.75 -0.08284337398 -0.0419703402
509.375 -0.08097359632 -0.02446008877
510.0 -0.05502419586 -0.02370084075
510.625 -0.03727490947 0.01921415168
511.25 -0.05917532048 0.03221073244
511.875 -0.03772946753 0.05856738214
512.5 0.008165245962 0.0468253802
513.125 0.07275800258 0.01230160384
513.75 0.09268001469 -0.006949582652
514.375 0.06666816 -0.02810169079
515.0 0.04282859753 -0.0477395547
515.625 0.08636980629 -0.01971272599
516.25 0.0899406765 -0.04011537069
516.875 0.08581237177 0.05743651212
517.5 0.1068849679 -0.02679428642
518.125 0.2002744281 0.1125573788
518.75 0.1080732545 -0.06228928219
519.375 0.07550036103 -0.03428002562
520.0 0.05043935202 -0.06889474658
520.625 0.07329440736 -0.1012571025
521.25 0.04462011518 -0.1019855981
521.875 0.04675461391 -0.0480984672
522.5 0.0138441686 -0.09138680434
523.125 0.05068109041 -0.2363065626
523.75 0.0003755278981 -0.299999583
524.375 -0.002494801633 -0.2887794539
525.0 -0.01634592716 -0.1441018734
525.625 -0.009431997824 -0.1124464292
526.25 0.01499353682 -0.08827631318
526.875 -0.01313111514 -0.07885320481
527.5 -0.04951473369 -0.08815762856
528.125 -0.06408489274 -0.0511099538
528.75 -0.07143514429 -0.03834222932
529.375 -0.1212148804 0.03120237905
530.0 -0.08784092384 0.1008046412
530.625 0.002611575803 0.09918924451
531.25 -0.002962509755 0.07188310844
531.875 -0.02402902091 0.1149176314
532.5 -0.03069393733 0.1661743946
533.125 -0.01673119929 0.1272582652
533.75 0.01969936333 0.09280977437
534.375 0.02858394301 0.109061441
535.0 0.03135603943 0.1376868998
535.625 -0.008250185749 0.1019965513
536.25 0.0633834799 0.0635214332
536.875 0.04962545391 0.08429397394
537.5 -0.01923376427 0.09484647189
538.125 -0.013252683 0.08278453298
538.75 0.03360496946 0.1150192997
539.375 0.005349199612 0.1523386089
540.0 0.01245033159 0.1231293264
540.625 0.009899324185 0.09495334404
541.25 0.01455896809 0.1143928102
541.875 -0.008755385863 0.1181702248
542.5 -0.03116785842 0.05695949226
543.125 -0.01251509436 0.06469424274
543.75 0.05527311151 0.1015856477
544.375 0.0899681843 0.1128634715
545.0 0.1141744945 0.009479031262
545.625 0.08699304401 -0.06239307893
546.25 0.07510652866 -0.1111849416
546.875 0.07828552121 -0.09855491328
547.5 0.08521843575 -0.09045461191
548.125 0.1144940283 -0.1014798624
548.75 0.1567359756 -0.06581678394
549.375 0.1594316462 -0.0259007073
550.0 0.152653652 0.01878469715
550.625 0.1865289621 0.02221215715
551.25 0.1193376357 0.08909691136
551.875 0.08794767461 0.03695876701
552.5 0.08554026042 0.006659173923
553.125 0.1122750237 -0.001668688225
553.75 0.07633171317 0.03887002838
554.375 0.04921774125 0.0173077771
555.0 0.06513509775 0.01062865868
555.625 0.09892643949 0.004903619194
556.25 0.08497664742 0.04026589302
556.875 0.05371429144 0.03818388491
557.5 0.07058143544 0.045577987
558.125 0.08338058516 0.08340319716
558.75 0.04494222155 0.1087287269
559.375 0.06735194303 0.09131460667
560.0 0.09557568779 0.08581717117
560.625 0.09398929581 0.06291369232
561.25 0.07556728268 0.02147981567
561.875 0.07551913758 0.002664683017
562.5 0.08243898597 -0.0003895069417
563.125 0.07594998382 -0.002410006479
563.75 0.06089354961 -0.01290450371
564.375 0.07562158252 -0.04322543606
565.0 0.1371271427 -0.03342449223
565.625 0.1139583394 -0.02930473389
566.25 0.09653808193 -0.02122122018
566.875 0.1055326292 -0.01862882855
567.5 0.1168385749 0.03233670746
568.125 0.07780455573 0.06926471592
568.75 0.08705921993 0.07127516586
569.375 0.09988021146 0.08273616987
570.0 0.0941799742 0.07605387798
570.625 0.07850590822 0.05019859527
571.25 0.08833185488 0.02546330513
571.875 0.09480217962 0.02553258203
572.5 0.06452312409 -0.001632300596
573.125 0.04889618596 -0.003665929126
573.75 0.08111025601 -0.01993708158
574.375 0.1029798529 -0.0428921
575.0 0.07531593986 -0.04162629397
575.625 0.04211021273 -0.04611104659
576.25 0.06171821393 -0.057716326
576.875 0.08540912081 -0.03761086228
577.5 0.08231458521 -0.03195238847
578.125 0.07427722354 -0.0490124279
578.75 0.09484330913 -0.07330927672
579.375 0.1121749523 -0.05345157927
580.0 0.08943584397 -0.05197290278
580.625 0.07755834643 -0.081831967
581.25 0.0643058047 -0.09727524583
581.875 0.05521822238 -0.0571385998
582.5 0.04382614962 -0.02673035358
583.125 0.07015345419 -0.03441463958
583.75 0.09249994869 -0.02729232438
584.375 0.07842767685 -0.01285175712
585.0 0.06312542867 0.001546983322
585.625 0.08010992387 0.007322974465
586.25 0.09125905199 0.01836507974
586.875 0.07046038465 0.00476561952
587.5 0.0694969821 -0.01339195711
588.125 0.08850479279 -0.03606766819
588.75 0.09786299568 -0.03847093609
589.375 0.06347764614 -0.06959379865
590.0 0.01432783803 -0.09909706495
590.625 -0.001262603536 -0.09362348613
591.25 0.01241180931 -0.04422665381
591.875 0.02302563701 -0.02572323361
592.5 0.03070864419 -0.04990161358
593.125 0.04859455421 -0.07166495914
593.75 0.06117733569 -0.04798613424
594.375 0.06406613906 -0.02533051413
595.0 0.08475693329 -0.01535512606
595.625 0.09637997408 0.005752287123
596.25 0.07742875284 0.0233786655
596.875 0.06204677783 0.0292940504
597.5 0.06595298005 0.0435842273
598.125 0.0733987417 0.04443232253
598.75 0.08133423728 0.01985631912
599.375 0.08223723254 0.002303842662
600.0 0.07051403581 3.483766842e-06
600.625 0.04671586585 -0.002147958167
601.25 0.02720002008 -0.003807795027
601.875 0.02322052691 0.00953627556
602.5 0.01641488064 0.02713934717
603.125 0.006597175504 0.03273718677
603.75 0.01132364016 0.03813064514
604.375 0.02384502743 0.04429864832
605.0 0.01837611599 0.0417011951
605.625 -0.0009090324421 0.02758508676
606.25 -0.01696270752 0.02877446301
606.875 -0.02384044756 0.04796815939
607.5 -0.008019104223 0.0590774153
608.125 0.01434342551 0.04731155424
608.75 0.01847034568 0.03607069726
609.375 0.01417100434 0.03642765316
610.0 0.012776586 0.03285584756
610.625 0.01673880695 0.01881400524
611.25 0.01518697353 0.004748022116
611.875 0.007756223371 -0.006396693356
612.5 -0.001184006828 -0.01492211384
613.125 -0.01520528217 -0.01339247366
613.75 -0.01540040429 -0.002013702412
614.375 -0.005192072359 0.003466496925
615.0 0.004387729037 -0.003750743873
615.625 -0.0002303731064 -0.0119049007
616.25 -0.005701981291 -0.004897138218
616.875 0.003897321917 0.005290169151
617.5 0.01913005052 0.001842576545
618.125 0.02379260958 -0.005404744012
618.75 0.02530318151 -0.004626323765
619.375 0.03501541435 0.0001311667169
620.0 0.05414756492 -0.006833647477
620.625 0.05421252271 -0.0341728263
621.25 0.04968524791 -0.04301796203
621.875 0.03590473671 -0.05258338487
622.5 -0.01444903138 -0.04728047017
623.125 -0.01454839901 -0.01940117196
623.75 0.003428354949 -0.005575558003
624.375 0.02217455032 0.0003774321721
625.0 0.02740488858 0.01472804582
625.625 0.02498250138 0.02355386404
626.25 0.03863816405 0.03145334785
626.875 0.06915071224 0.0379958627
627.5 0.06998199889 0.05105770925
628.125 0.0590104947 0.04872909043
628.75 0.06008464858 0.04840857037
629.375 0.07184599535 0.06572067152
630.0 0.05825300294 0.07793790598
630.625 0.04297034309 0.06569481345
631.25 0.04309158642 0.05816982293
631.875 0.03213749828 0.06308493306
632.5 0.01285195959 0.05711857716
633.125 -0.001754157755 0.04824877716
633.75 0.004496071346 0.05807315858
634.375 -0.007179461627 0.06782066503
635.0 -0.010369943 0.06583379062
635.625 -0.001506509944 0.07714633605
636.25 0.01026705339 0.09688204324
636.875 -0.002058563075 0.09025279231
637.5 -0.01031672561 0.06535656477
638.125 -0.0167445346 0.08363155305
638.75 -0.03920196416 0.1191783203
639.375 -0.06324277166 0.0908106442
640.0 -0.05553398146 0.05223574929
640.625 -0.05987470086 0.04673350862
641.25 -0.09625538111 0.02425375894
641.875 -0.08428688596 -0.01058059973
642.5 -0.07165056239 -0.01014630695
643.125 -0.08481132166 -0.01013015906
643.75 -0.09841969111 -0.04353656904
644.375 -0.08662708903 -0.05747800609
645.0 -0.09376068498 -0.02669347662
645.625 -0.119297031 -0.01347451747
646.25 -0.1132249936 -0.01732153945
646.875 -0.08211641658 -0.03697608032
647.5 -0.08185834857 -0.03014005504
648.125 -0.1046011061 -0.0372872075
648.75 -0.07564606961 -0.05493232153
649.375 -0.03999683174 -0.05065316621
650.0 -0.0222568869 -0.06855229894
650.625 0.01316177066 -0.09162414692
651.25 0.04709842311 -0.07858126105
651.875 0.06409799621 -0.05515460355
652.5 0.1057485469 -0.04932538451
653.125 0.1476074052 -0.001961126535
653.75 0.129445067 0.01848026165
654.375 0.1232459164 0.01447145117
655.0 0.1387401897 0.03007603992
655.625 0.1100225843 0.05791457027
656.25 0.0717348273 0.03292237172
656.875 0.08758372107 0.001113136361
657.5 0.1044991508 0.02688138929
658.125 0.07811499612 0.05570226918
658.75 0.04800699464 0.05459321108
659.375 0.08407819656 0.0342316452
660.0 0.1306713414 0.0241986059
660.625 0.1329843323 0.01087314718
661.25 0.1207949361 -0.0184321804
661.875 0.1227477422 -0.0692966357
662.5 0.121733462 -0.09403833686
663.125 0.1131556511 -0.06872766256
663.75 0.1166973735 -0.03484779381
664.375 0.12145733 0.05905035756
665.0 0.04613176416 0.0946333739
665.625 0.009560608483 0.08198111575
666.25 -0.004102210702 0.08848608215
666.875 -0.07878028236 0.1022744763
667.5 -0.112547973 0.04112501466
668.125 -0.09489041922 0.04230966028
668.75 -0.09130866651 0.09011600047
669.375 -0.1204525677 0.1057749135
670.0 -0.1164584861 0.05071771084
670.625 -0.08915819944 0.03885953555
671.25 -0.08924218344 0.09232107213
671.875 -0.07882513391 0.1178015381
672.5 -0.0349203548 0.1080347465
673.125 -0.01629921785 0.08821689841
673.75 -0.0293293105 0.1053078502
674.375 -0.06693169979 0.103399616
675.0 -0.09086406538 0.07353620783
675.625 -0.1198457598 0.05106443312
676.25 -0.1436519934 -0.01821229222
676.875 -0.1326760091 -0.04536492375
677.5 -0.1334468054 -0.02457290655
678.125 -0.167021985 -0.007569329813
678.75 -0.1384065473 -0.05859912541
679.375 -0.07122589224 -0.04925446856
680.0 -0.0673537729 -0.03098608178
680.625 -0.1078764904 -0.0349227058
681.25 -0.1178717906 -0.05545541967
681.875 -0.07859358648 -0.0493455066
682.5 -0.09660925516 -0.00636778791
683.125 -0.1448501743 0.01837649064
683.75 -0.1712491555 -0.02011907338
684.375 -0.104805772 -0.09853047492
685.0 -0.03429924312 -0.1322381596
685.625 0.06151450172 -0.1510567752
686.25 0.1147076181 -0.1152578176
686.875 0.1204218387 -0.08380680747
687.5 0.1283635276 -0.04157197988
688.125 0.1043489846 0.003277443574
688.75 0.07680810349 0.03184220835
689.375 0.08541668788 0.04028726944
690.0 0.1089789875 0.08644510958
690.625 0.07485594637 0.1022116962
691.25 0.09477971926 0.06984013726
691.875 0.1441808427 -0.01959883114
692.5 0.1422156806 -0.1630138442
693.125 0.01094319669 -0.186393534
693.75 -0.07824999545 -0.09977312988
694.375 -0.1083329521 -0.08265176088
695.0 -0.06458412771 -0.1560734032
695.625 0.09046284519 -0.1210019922
696.25 0.09870328116 0.01313843612
696.875 0.05495954117 0.09244372275
697.5 -0.04023994351 0.1129703554
698.125 -0.09169233213 0.09481150462
698.75 -0.09902938309 0.09837018467
699.375 -0.1066690021 0.09874977146
700.0 -0.1087508503 0.06838186184
700.625 -0.1113419704 0.04051643772
701.25 -0.1368256669 0.05022574386
701.875 -0.1431024833 0.04196931856
702.5 -0.07669158693 0.05119569291
703.125 -0.0408660881 0.05916018935
703.75 0.02091348201 0.1236695182
704.375 0.07339160976 0.1746171499
705.0 0.05231457653 0.1321325146
705.625 0.01956768788 0.1095856008
706.25 -0.05635851441 0.1322110953
706.875 -0.1816740946 0.02484331762
707.5 -0.1278654699 -0.07905956652
708.125 -0.07764643602 -0.08383858887
708.75 -0.02913994825 -0.1103827942
709.375 0.06569039198 -0.09142532737
710.0 0.1007959276 -0.01814672147
710.625 0.08784655059 0.007344196929
711.25 0.07638719411 0.03270140383
711.875 0.06084054698 0.04602142736
712.5 0.08686417323 0.04332224097
713.125 0.1389255704 -0.0408473601
713.75 0.06992213426 -0.1446957722
714.375 -0.03442745708 -0.1374146431
715.0 -0.09706556534 -0.09674934804
715.625 -0.1073677874 -0.1282009227
716.25 -0.0130213197 -0.143306045
716.875 0.03587717875 -0.08453066221
717.5 0.06381106345 -0.05024788363
718.125 0.103444541 -0.02536508611
718.75 0.1043563792 0.02753878103
719.375 0.05883744669 0.044824543
720.0 0.02621317406 0.05656200385
720.625 -0.05068411033 0.06320899343
721.25 -0.1000623537 -0.0373677673
721.875 -0.03749114176 -0.107754443
722.5 -0.02507991827 -0.119230084
723.125 -0.08000081472 -0.09696724337
723.75 -0.1033770286 -0.01964658761
724.375 -0.07494867743 0.03745142152
725.0 -0.03371252784 0.06206487209
725.625 -0.007203204126 0.0525957398
726.25 -0.0105840331 0.03574282679
726.875 -0.04042929019 0.02728406849
727.5 -0.07542795859 0.014690147
728.125 -0.08415646114 -0.01139768615
728.75 -0.07093506103 0.0006438410309
729.375 -0.05441392971 0.01984913708
730.0 -0.05221798413 0.01410644439
730.625 -0.05268908965 -0.001391728764
731.25 -0.03966525725 -0.01509757956
731.875 -0.02311318125 -0.0284166018
732.5 -0.001681436531 -0.02686034137
733.125 0.007338911484 -0.006146613172
733.75 0.01754009812 0.006580471085
734.375 0.02792350194 0.001073281117
735.0 0.02324368784 -0.01666898669
735.625 0.01725194295 -0.02190823563
736.25 0.008043637733 -0.0282637965
736.875 -0.009622171768 -0.03059407077
737.5 -0.02752968225 -0.01610442162
738.125 -0.03746432956 0.006186816265
738.75 -0.03347022706 0.0289270646
739.375 -0.01535829882 0.03724781087
740.0 -0.001194485092 0.02460833348
740.625 -0.00947101718 0.02319137446
741.25 -0.01541622979 0.03163385103
741.875 -0.0342290854 0.01927648311
742.5 -0.03330196752 -0.02091445809
743.125 0.009709142316 -0.04285705491
743.75 0.03378192615 -0.02891206781
744.375 0.03487453304 -0.02867895953
745.0 0.02785356713 -0.03606170132
745.625 0.01694556921 -0.03117073813
746.25 0.02754603405 -0.01499587748
746.875 0.03185798103 -0.03953310854
747.5 0.00152638969 -0.06141748378
748.125 -0.03169749726 -0.05801018397
748.75 -0.0586569998 -0.03029751855
749.375 -0.06537783505 0.02226619921
750.0 -0.01795630168 0.08817655402
