!Created with skrf (http://scikit-rf.org).
# GHz S RI R 50.0 
!freq ReS11 ImS11
500.0 -0.00515848623 0.02444867128
500.625 0.0191879706 0.03387660623
501.25 0.02846933788 0.02873963023
501.875 0.01453674423 0.04188057336
502.5 0.02167287685 0.03135999038
503.125 0.02624342057 0.03795651599
503.75 0.04569404457 0.02094489798
504.375 0.04978274364 0.01123655937
505.0 0.04228480522 -0.02733778937
505.625 0.05298305762 -0.04638054283
506.25 0.04125566297 -0.05342059524
506.875 0.07175287051 -0.02229281549
507.5 0.0564313079 -0.03755340985
508.125 0.07951449335 -0.002837065962
508.75 0.05638798977 -0.04484979494
509.375 0.03208596119 -0.04978227986
510.0 0.06986347618 -0.03517999632
510.625 0.004917304088 -0.06965401426
511.25 -0.03004531623 -0.05676366843
511.875 -0.04485505898 -0.02818459797
512.5 -0.03442136649 0.004561349838
513.125 -0.02206698973 0.0262083434
513.75 -0.03670251625 0.03825804439
514.375 0.005743537544 0.04928001891
515.0 0.01352785843 0.07442947737
515.625 -0.04367697766 0.0926668778
516.25 0.01324604651 0.117697272
516.875 -0.02704416609 0.1167967913
517.5 0.03252301067 0.1058167147
518.125 -0.04964494224 0.1165150754
518.75 0.007951367313 0.06121975216
519.375 0.008315848767 0.0697034885
520.0 0.0438872334 0.06121776326
520.625 0.05639789987 0.04764496001
521.25 0.05661198276 0.04816538288
521.875 0.04054930638 0.03535535383
522.5 0.06275220464 0.01019494704
523.125 0.1166429305 -0.01701431802
523.75 0.1050111692 -0.03348683148
524.375 0.05747465492 -0.02568872166
525.0 0.001171018211 -0.003754314047
525.625 0.0007590207787 0.02796012342
526.25 0.003622826063 0.05594490597
526.875 0.013836948 0.03723340878
527.5 0.01748241961 0.02281541272
528.125 0.04758332253 0.01206743671
528.75 0.07650410282 0.0004535983139
529.375 0.03920139321 -0.03110731669
530.0 0.03695351106 -0.03309960713
530.625 0.01161093378 -0.09131961751
531.25 0.02701615894 -0.1615521278
531.875 -0.04380069522 -0.1483476522
532.5 -0.07768100006 -0.08880489445
533.125 -0.07756718152 -0.06801189409
533.75 -0.07301343921 -0.08091646154
534.375 -0.06364947483 -0.04170857823
535.0 -0.05384813553 -0.01824364749
535.625 -0.03108736662 -0.03637867367
536.25 -0.03560233117 -0.04693387095
536.875 -0.04051113508 -0.06667531499
537.5 -0.04471213539 -0.09999808484
538.125 -0.06914911559 -0.06914556289
538.75 -0.05936866533 -0.04352297437
539.375 -0.03330744202 -0.05047158955
540.0 -0.03382321552 -0.08485057819
540.625 -0.05385146469 -0.1144636919
541.25 -0.0352345996 -0.08928336885
541.875 -0.04545134828 -0.08552912315
542.5 -0.05229743363 -0.1021869739
543.125 -0.09456448921 -0.06907275474
543.75 -0.1022989979 0.01028614367
544.375 -0.05749910883 0.03542993737
545.0 -0.02758289353 0.04670647259
545.625 -0.01658891404 0.05827069951
546.25 0.006266204182 0.08298690373
546.875 0.01400536414 0.05259395494
547.5 0.00846500837 0.07440839127
548.125 -0.001683256979 0.07246286774
548.75 -0.01788574415 0.07121182854
549.375 -0.02613674116 0.06316143368
550.0 -0.03011570602 0.01812631126
550.625 -0.02120590768 -0.003765790146
551.25 -0.02756347341 -0.03813676741
551.875 -0.04078004999 -0.05105475875
552.5 -0.06482824412 -0.05509798021
553.125 -0.075435312 -0.02761661172
553.75 -0.08596971329 -0.02893698207
554.375 -0.0857481378 -0.005135725791
555.0 -0.08866627645 0.0124093472
555.625 -0.0727370879 0.02654776149
556.25 -0.08939596508 0.01900764703
556.875 -0.08689160574 0.009455963725
557.5 -0.08863436054 0.02695365256
558.125 -0.08213608096 0.02291292646
558.75 -0.0749320795 0.002431233275
559.375 -0.0323392441 -0.001234284011
560.0 -0.01977149214 -0.01027247827
560.625 -0.02704852384 -0.03489839979
561.25 -0.06928023146 -0.03813533788
561.875 -0.0628309295 -0.02843019396
562.5 -0.07574362325 0.01650856617
563.125 -0.07232146699 0.05615329862
563.75 -0.06433297469 0.09194630142
564.375 -0.02797835587 0.0762715471
565.0 -0.0222423442 0.07098437105
565.625 -0.01838165599 0.06016363777
566.25 -0.05166421986 0.05379988078
566.875 -0.04682896076 0.01065432064
567.5 -0.0615500901 0.01527207287
568.125 -0.0645456297 0.007643126292
568.75 -0.04717229471 -3.617228928e-05
569.375 -0.03256934448 -0.01840014684
570.0 -0.02265216715 -0.03565607712
570.625 -0.03403657876 -0.04670088628
571.25 -0.0468887278 -0.03687777184
571.875 -0.05478379083 -0.03965548638
572.5 -0.0888416945 -0.01655486863
573.125 -0.112329296 0.02126605478
573.75 -0.06443926047 0.06097374087
574.375 -0.04045983228 0.05372613892
575.0 -0.05082001732 0.06147409413
575.625 -0.0562384332 0.0604173004
576.25 -0.03399215375 0.07688713469
576.875 -0.02332042743 0.07065938965
577.5 -0.01355335525 0.06494455683
578.125 -0.02014775823 0.04572882431
578.75 -0.01264224393 0.04562951067
579.375 -0.01894394715 0.02601373452
580.0 -0.02019946761 0.03011861702
580.625 -0.03310559409 0.01540456529
581.25 -0.05517145053 0.01084058024
581.875 -0.07186361826 0.03507194713
582.5 -0.07884273976 0.04040974862
583.125 -0.0675415466 0.03905165025
583.75 -0.06152685651 0.03482169553
584.375 -0.07076923883 0.02789500057
585.0 -0.06888860029 -0.007510710195
585.625 -0.06342634996 0.02314106873
586.25 -0.05688127018 0.01374569933
586.875 -0.06252887454 0.008296421383
587.5 -0.05738599402 0.01559261706
588.125 -0.03516781336 0.04056813102
588.75 -0.02097200782 0.04217868845
589.375 -0.02965636631 0.0329234339
590.0 -0.05359884936 0.01192448375
590.625 -0.05546774905 0.04997024419
591.25 -0.03707117847 0.08245676778
591.875 -0.01305444383 0.09717011283
592.5 -0.01983969345 0.06387011698
593.125 -0.009042066814 0.05699165807
593.75 -0.007651491899 0.06263602988
594.375 -0.02261761807 0.05568174023
595.0 -0.03390600822 0.0215888113
595.625 -0.03055744483 -0.007211202874
596.25 -0.03522506723 -0.01475488479
596.875 -0.03774203023 -0.008520801387
597.5 -0.02061734795 -0.03986375891
598.125 -0.01732733963 -0.02587584397
598.75 -0.01705727263 -0.02011324417
599.375 -0.01314781835 -0.03072848033
600.0 -0.02011424868 -0.05483608099
600.625 -0.03188526284 -0.06572618999
601.25 -0.04454042634 -0.06151666182
601.875 -0.05447121577 -0.03517920898
602.5 -0.04900800169 -0.05316179081
603.125 -0.04089298722 -0.04784527107
603.75 -0.02720482909 -0.0268262107
604.375 -0.02046898527 -0.01550255689
605.0 -0.003199266798 -0.03916324712
605.625 -0.006241363364 -0.04539492362
606.25 -0.01715155268 -0.03461114484
606.875 -0.01062044749 -0.01666669638
607.5 -0.005185882125 0.001317039945
608.125 0.01749137571 -0.0100348833
608.75 0.02913813364 -0.01968526574
609.375 0.02118339026 -0.008616094991
610.0 0.05506724196 -0.005360022415
610.625 0.04569254441 -0.01220147161
611.25 0.03580585323 -0.01886980291
611.875 0.04051010593 -0.01989060005
612.5 0.02284332811 -0.01741578902
613.125 0.02952551634 0.003827525708
613.75 0.02397572256 0.01427500222
614.375 0.02314852063 0.02831015368
615.0 0.004027781071 0.008958729498
615.625 0.03238009755 0.02548767744
616.25 0.0122797354 0.02224110259
616.875 0.01802433819 0.03624843357
617.5 0.001118992608 0.02766313911
618.125 0.03465458 0.04125300818
618.75 0.02109226098 0.03261444191
619.375 0.01781184414 0.04415437008
620.0 0.01420234041 0.0243678057
620.625 0.03410138907 0.01337678602
621.25 0.02264355716 -0.003970442893
621.875 -0.00626868 -0.01721553209
622.5 -0.05580517952 0.01109080787
623.125 -0.00705056147 0.04871659079
623.75 -0.02345429667 0.05850197438
624.375 -0.03333335098 0.05290603697
625.0 -0.05286012469 0.02508862551
625.625 -0.04939943319 0.05690273222
626.25 -0.04427165068 0.05690641876
626.875 -0.02793917625 0.04757590903
627.5 -0.01986651284 0.03403547211
628.125 -0.03187223166 0.008367486481
628.75 -0.02825384542 0.01217447191
629.375 -0.01510669268 0.009765462977
630.0 -0.008441012557 -0.004038204189
630.625 0.005652477707 -0.03301162368
631.25 0.004382003934 -0.03799660848
631.875 0.009893497874 -0.05745138166
632.5 -0.007423235026 -0.06017064035
633.125 -0.0003206248417 -0.0728871092
633.75 -0.03541292207 -0.04722106716
634.375 -0.03136473793 -0.05081010464
635.0 -0.04520944932 -0.05626461247
635.625 -0.03720517742 -0.04978178716
636.25 -0.03816335139 -0.02276905422
636.875 -0.01415137032 -0.05134516897
637.5 -0.02154528661 -0.06015979795
638.125 -0.0311123424 -0.05149016051
638.75 -0.01897315194 -0.03035462816
639.375 -0.001100881669 -0.01663365436
640.0 0.03969957541 -0.01585821599
640.625 0.06049663569 -0.01768441596
641.25 0.06385391252 -0.02774379778
641.875 0.04835636056 -0.02505017837
642.5 0.06736754137 0.01356262033
643.125 0.0608392766 0.01733339228
643.75 0.06612824825 0.01209142249
644.375 0.05767222935 -0.005214279526
645.0 0.04373559513 0.008648182907
645.625 0.04533439532 0.02235246718
646.25 0.06241387134 0.0333506044
646.875 0.05857808372 0.009793643878
647.5 0.05460143103 0.01122331085
648.125 0.05236812039 0.02195399302
648.75 0.05390934482 0.06582677311
649.375 0.04557746064 0.05663652827
650.0 0.03865685254 0.06514226106
650.625 0.03294335159 0.07034524655
651.25 0.003845292812 0.08013444262
651.875 -0.01773149283 0.06067315944
652.5 -0.02841794714 0.04910289656
653.125 -0.03593533574 0.0345727209
653.75 -0.04851827095 -0.0009453880798
654.375 -0.01523820833 -0.02258246381
655.0 -0.01848649986 -0.04532762484
655.625 -0.04368418566 -0.05658228545
656.25 -0.07606023612 -0.0713868728
656.875 -0.06854969931 -0.03505898011
657.5 -0.07754800273 -0.05144919313
658.125 -0.08990501072 -0.05701668577
658.75 -0.1061296254 -0.04038429658
659.375 -0.09140099536 0.01120970831
660.0 -0.05348867772 0.03330644995
660.625 -0.05075362243 0.02509888254
661.25 -0.05949149706 0.01561524525
661.875 -0.04986656399 0.03292668883
662.5 -0.04170445722 0.02497371192
663.125 -0.08128306047 0.01326198986
663.75 -0.06836158298 -0.03192111142
664.375 -0.05568972414 -0.06676511873
665.0 -0.02042956567 -0.09054270347
665.625 0.01322034846 -0.1022127433
666.25 0.03720937117 -0.0967786661
666.875 0.03686835686 -0.07263513343
667.5 0.0531473525 -0.0765654364
668.125 0.05127254673 -0.05131167198
668.75 0.04699459515 -0.04522836894
669.375 0.04195831046 -0.02367494343
670.0 0.07186528969 -0.02358105813
670.625 0.06941645617 -0.01665160977
671.25 0.06427419072 -0.03135145256
671.875 0.06689809517 -0.04049050885
672.5 0.05659639192 -0.0862998477
673.125 0.02940177841 -0.1010925422
673.75 0.006747361154 -0.1105655537
674.375 0.02146547383 -0.06329030233
675.0 0.05259602211 -0.04398834143
675.625 0.05558349514 -0.02856565745
676.25 0.07838305051 -0.01298468913
676.875 0.04241057288 0.0175132925
677.5 0.0289769539 0.03823701936
678.125 0.03278595857 0.04869220957
678.75 0.04891270558 0.07857536632
679.375 0.06079184932 0.107629985
680.0 0.05176452932 0.0890915479
680.625 0.07134577483 0.06366640609
681.25 0.1009747793 0.03495749367
681.875 0.1343767763 0.01145795049
682.5 0.07161358238 -0.02131580516
683.125 0.06553721462 -0.02805211675
683.75 0.06908471849 -0.001260644846
684.375 0.05202041275 0.05458226589
685.0 0.01172029737 0.06897163967
685.625 -0.04070154999 0.04349921316
686.25 -0.07299510828 0.003369380836
686.875 -0.08551981373 -0.03199520978
687.5 -0.09813872768 -0.04278265571
688.125 -0.1130683268 -0.06455443897
688.75 -0.09703999346 -0.08087419378
689.375 -0.08240892527 -0.06027812001
690.0 -0.09104176766 -0.05163298405
690.625 -0.07350929317 -0.05499365058
691.25 -0.07177854429 -0.03992898743
691.875 -0.0485869895 0.009509183369
692.5 -0.04417888658 0.03664461565
693.125 -0.04979618217 0.061112049
693.75 -0.01704201662 0.1204433848
694.375 0.01751338557 0.1070697363
695.0 -0.01990970141 0.1046843354
695.625 -0.09477436775 0.08239765148
696.25 -0.09061438083 -0.06136065555
696.875 -0.02100355715 -0.1077263847
697.5 0.03666834006 -0.09503199596
698.125 0.05623488823 -0.07561680295
698.75 0.04133532833 -0.02579936942
699.375 0.06301920205 -0.03017988487
700.0 0.08413125832 -0.008096071528
700.625 0.07459137058 0.0285063475
701.25 0.05423424957 0.04135064196
701.875 0.0911240132 0.03942112259
702.5 0.1398910537 -0.03105416258
703.125 0.09538372714 -0.09470419274
703.75 -0.006510591072 -0.08206567138
704.375 -0.04256782511 -0.06192302432
705.0 -0.04735961977 -0.09012462989
705.625 0.02772627811 -0.07986729333
706.25 0.04900089134 -0.04520149788
706.875 0.04954838764 0.02408568528
707.5 0.009295956756 0.0808262854
708.125 -0.03107083267 0.0926393486
708.75 -0.06403778657 0.0839342214
709.375 -0.09186621444 0.02282544107
710.0 -0.07787792317 -0.03485149682
710.625 -0.06815973175 -0.05261069954
711.25 -0.08386657401 -0.07307867452
711.875 -0.07847456694 -0.06567917327
712.5 -0.07088527888 -0.01779695
713.125 -0.04272147737 0.03748994174
713.75 -0.01478405903 0.05722482905
714.375 -0.07049239635 0.03857904338
715.0 -0.03730138813 0.05576175498
715.625 -0.03006452144 0.05816167033
716.25 -0.06856131489 0.07083607594
716.875 -0.1167203409 0.03251601913
717.5 -0.09175168473 -0.03058510672
718.125 -0.06849739777 -0.05083168373
718.75 -0.06793317267 -0.05165334271
719.375 -0.05933524706 -0.06459234213
720.0 0.01391543955 -0.07463014549
720.625 0.04803370599 -0.03838817338
721.25 0.04047078081 0.01882061656
721.875 0.005239683853 0.03160097015
722.5 -0.04695523996 0.02493853468
723.125 -0.05692124329 0.0596576553
723.75 0.007301645741 0.09234513893
724.375 0.06493919082 0.02794438178
725.0 0.09615274876 0.02118249055
725.625 0.07278416429 -0.03104810548
726.25 0.04661896307 -0.04896135412
726.875 0.04176035606 -0.03041532333
727.5 0.04349957815 0.005010658915
728.125 0.02170275109 0.040518912
728.75 0.003479254442 0.07202535269
729.375 0.03371250659 0.03702703168
730.0 0.02525394533 0.003522239947
730.625 0.00549267177 0.06240097442
731.25 -0.02158506129 0.05069054319
731.875 -0.04519671967 0.02690075288
732.5 -0.04599211135 0.003399462049
733.125 -0.0405081873 -0.003733357822
733.75 -0.03493794042 -0.01321019873
734.375 -0.03028491849 -0.009445705205
735.0 0.00317420485 -0.004150448365
735.625 -0.0549742733 -0.02086862125
736.25 -0.03915176013 -0.01437513097
736.875 -0.05657013756 -0.03327759049
737.5 -0.03467753158 -0.02872417353
738.125 -0.06980384795 -0.03702229908
738.75 -0.0449659269 -0.01868063452
739.375 -0.003305703149 -0.02500867729
740.0 0.006553861689 -0.02548279367
740.625 -0.00113053011 -0.02788051358
741.25 -0.01584092401 -0.02811087973
741.875 0.007930365734 -0.04110587141
742.5 0.03417673222 0.012422949
743.125 -0.01886311688 0.0212443076
743.75 -0.01119685861 0.01835391739
744.375 -0.03158301658 0.01941568572
745.0 -0.05196695545 0.01989342455
745.625 -0.05983355876 0.04009238093
746.25 0.01028774968 0.08327489145
746.875 0.04869631784 0.0476228771
747.5 0.04082343086 0.009884901376
748.125 0.006090175554 0.01672753242
748.75 0.01817203024 0.0118174375
749.375 0.02885523308 -0.008550416764
750.0 0.003348457703 -0.02407383175
