!Created with skrf (http://scikit-rf.org).
# GHz S RI R 50.0 
!freq ReS11 ImS11
500.0 -0.01892894433 0.02845175122
500.625 0.01594990577 0.03122939173
501.25 0.01961635919 0.03251800597
501.875 0.02243502275 0.02658429401
502.5 0.003023062018 0.04965831997
503.125 0.02723963331 0.05549712924
503.75 0.04946914223 0.0007962128311
504.375 0.04386809532 -0.006689807223
505.0 0.05091208274 -0.02657526593
505.625 0.07125622009 -0.03109508312
506.25 0.04521049698 -0.04920908854
506.875 0.05832652907 -0.04312457371
507.5 0.05130162891 -0.03684247323
508.125 0.08076937945 0.004913866946
508.75 0.03796776408 -0.05957683385
509.375 0.0231181718 -0.04581271998
510.0 0.07539824972 -0.02825117851
510.625 0.01161712816 -0.07528493922
511.25 -0.04351582146 -0.04566744839
511.875 -0.04873404361 -0.01244017661
512.5 -0.03451571196 0.006976176592
513.125 -0.036148899 0.02214714159
513.75 -0.01866831477 0.04006215267
514.375 -0.02793377703 0.06096278488
515.0 0.000414020911 0.08301339865
515.625 -0.0462975806 0.08962134189
516.25 0.02431222999 0.09777337173
516.875 -0.04988080234 0.1105231855
517.5 0.03222763266 0.1016598429
518.125 -0.06640570344 0.1014450407
518.75 0.01896183125 0.04617062493
519.375 0.005813213275 0.07055564224
520.0 0.03587963916 0.07610663984
520.625 0.05562456303 0.04773010239
521.25 0.0530268404 0.031771622
521.875 0.02937901519 0.0466052336
522.5 0.06131477304 0.01005541731
523.125 0.1129454005 -0.002511561708
523.75 0.09344198303 -0.05947828908
524.375 0.0465007963 -0.02630278672
525.0 -0.002539391522 0.006276913172
525.625 0.001374403473 0.005684048371
526.25 0.004133319717 0.03544446272
526.875 0.01362366688 0.03089260917
527.5 0.02374246898 0.03426557077
528.125 0.03241027986 0.004224608805
528.75 0.06015796267 0.0003528990248
529.375 0.03805818746 -0.02847565524
530.0 0.03828116668 -0.03318996118
530.625 0.01412852943 -0.06759528193
531.25 0.02564651744 -0.1427002287
531.875 -0.04450944937 -0.1372300733
532.5 -0.08394094047 -0.1000547921
533.125 -0.0639962632 -0.04317747097
533.75 -0.06120062999 -0.06180186634
534.375 -0.0640270445 -0.0404596192
535.0 -0.0615735829 -0.02878890163
535.625 -0.02313676878 -0.03379970013
536.25 -0.02474213946 -0.03451485016
536.875 -0.03589022595 -0.06568218845
537.5 -0.04437174249 -0.1034585729
538.125 -0.05910139102 -0.05189439018
538.75 -0.04935476024 -0.02835542583
539.375 -0.03054550801 -0.04376522168
540.0 -0.04764876214 -0.1021597292
540.625 -0.04429998664 -0.08688102237
541.25 -0.03047044841 -0.07991848028
541.875 -0.04124105223 -0.08725508627
542.5 -0.05118530721 -0.1076189925
543.125 -0.08102108778 -0.05133636688
543.75 -0.08427961639 0.01584670155
544.375 -0.0568178575 0.0353792307
545.0 -0.03767092086 0.05011453168
545.625 -0.01715176703 0.05349867673
546.25 0.002756521778 0.06542858133
546.875 0.009167774003 0.06859102131
547.5 0.002433829089 0.09049473423
548.125 0.004443995193 0.05477151668
548.75 -0.01301589447 0.05377661377
549.375 -0.02150694512 0.05842208383
550.0 -0.04194180114 0.01955214895
550.625 -0.01155239393 -0.006329353138
551.25 -0.01383969147 -0.03944648347
551.875 -0.04273036054 -0.05162066951
552.5 -0.075380322 -0.05767272875
553.125 -0.05629341808 -0.0312265743
553.75 -0.07157256953 -0.03369231642
554.375 -0.09516964191 -0.00193671285
555.0 -0.09888446263 0.0158367561
555.625 -0.07719264072 0.02483458704
556.25 -0.08186658409 0.01049023382
556.875 -0.08938962952 0.006916640906
557.5 -0.08487919432 0.02550136587
558.125 -0.08518610442 0.02346449382
558.75 -0.0620480439 -0.0004106776788
559.375 -0.03570864268 0.0008797968218
560.0 -0.02910383102 -0.009186653909
560.625 -0.02975734884 -0.03668789009
561.25 -0.05705211788 -0.04402053758
561.875 -0.0739600031 -0.0268130032
562.5 -0.07504248341 0.01470032323
563.125 -0.07160323917 0.04290918628
563.75 -0.06215420729 0.07464162493
564.375 -0.02705542479 0.07551507268
565.0 -0.02390258895 0.07958279068
565.625 -0.01889013688 0.05620644001
566.25 -0.04721783595 0.03654370796
566.875 -0.05552882563 0.01703069364
567.5 -0.06098426825 0.01229860139
568.125 -0.06777739605 0.007026635453
568.75 -0.02929963061 -0.003908030386
569.375 -0.01523132189 -0.02005365859
570.0 -0.01890168105 -0.03489421379
570.625 -0.04115208049 -0.05285939923
571.25 -0.03675239422 -0.04047622381
571.875 -0.04794997294 -0.04548987187
572.5 -0.08862735146 -0.01991409844
573.125 -0.1145180701 0.02130371342
573.75 -0.05976191928 0.04611643554
574.375 -0.03962090848 0.06051737053
575.0 -0.0517616233 0.05882924646
575.625 -0.05866719194 0.06582790157
576.25 -0.036710024 0.06621478206
576.875 -0.01385348089 0.06759372638
577.5 -0.01258432194 0.07114085449
578.125 -0.01874243273 0.04427361489
578.75 -0.01576331178 0.0345491085
579.375 -0.01772248096 0.03662762226
580.0 -0.02196061124 0.02646504665
580.625 -0.03356273493 0.01477310517
581.25 -0.0591505051 -0.003029835916
581.875 -0.07955016688 0.01528834068
582.5 -0.07671149287 0.03345308625
583.125 -0.06290643291 0.05164320111
583.75 -0.05960870018 0.009029956333
584.375 -0.07211722754 0.009545581776
585.0 -0.07412759147 0.005040247079
585.625 -0.06291342012 0.03014511303
586.25 -0.04922798672 -0.007812866464
586.875 -0.05539622313 -0.01122031916
587.5 -0.05620266773 0.01115981661
588.125 -0.02813927513 0.04931596829
588.75 -0.03444915721 0.01806104684
589.375 -0.0402068012 0.01157139284
590.0 -0.04676969787 0.01893019642
590.625 -0.04333947503 0.05212682263
591.25 -0.05403457261 0.073302409
591.875 -0.03367572701 0.08659157059
592.5 -0.005285413786 0.07183645111
593.125 0.002054233356 0.05855936313
593.75 -0.03105280663 0.04291720957
594.375 -0.03268608225 0.03899957118
595.0 -0.03115424938 0.01609561126
595.625 -0.0293460153 0.004080444535
596.25 -0.02900349815 -0.02513333455
596.875 -0.03113800735 -0.02472295478
597.5 -0.032737623 -0.02034792525
598.125 -0.02365677375 -0.01004120787
598.75 -0.009124328928 -0.03832066058
599.375 -0.006240267908 -0.05030721543
600.0 -0.01500576632 -0.06096888205
600.625 -0.03240764549 -0.05570684695
601.25 -0.023916999 -0.08028842423
601.875 -0.04786329459 -0.05075943523
602.5 -0.05173988899 -0.03279718968
603.125 -0.04644265271 -0.02983543095
603.75 -0.03345334867 -0.02115306454
604.375 -0.009873076155 -0.02778525837
605.0 0.001403176153 -0.04189606903
605.625 0.001524087122 -0.04585278097
606.25 -0.02485763599 -0.02824730826
606.875 0.01109217234 -0.01801555654
607.5 0.01546110054 -0.006193838968
608.125 0.02253284107 -0.009051418208
608.75 0.02186656565 -0.01829808962
609.375 0.03550056562 -0.01458513783
610.0 0.05070758914 -0.009222846975
610.625 0.04974619678 -0.01131900721
611.25 0.03056431883 -0.01615366071
611.875 0.06444152894 -0.0078981708
612.5 0.04215531111 -0.00194119071
613.125 0.01413257464 -0.002167531541
613.75 0.004041130796 0.004330994382
614.375 0.01714420744 0.02282370391
615.0 0.02502761321 0.018475714
615.625 0.006819252568 0.007016151932
616.25 0.008584462446 0.02007014217
616.875 0.001649349684 0.03044129049
617.5 0.02580757665 0.03816479272
618.125 0.01776542729 0.0320572399
618.75 0.0200838194 0.03155190067
619.375 0.01248453574 0.03727139142
620.0 0.03073315327 0.03791825076
620.625 0.03395460327 0.01496750455
621.25 0.001862662679 -0.01691244726
621.875 -0.007963611206 -0.009448871948
622.5 -0.03113585886 0.009803387579
623.125 -0.03216681104 0.03910863413
623.75 -0.02377349624 0.05484566195
624.375 -0.03830719148 0.04396646872
625.0 -0.0447941079 0.03623541765
625.625 -0.04679045282 0.04693248117
626.25 -0.04269065629 0.0588028374
626.875 -0.03150784495 0.0418497726
627.5 -0.01486970547 0.05685188834
628.125 -0.02556564814 0.03356674976
628.75 -0.03104908758 0.01898066756
629.375 -0.0172823225 -0.007281099718
630.0 -0.01623057877 0.01215243246
630.625 -0.007787373496 -0.007681412298
631.25 0.006848376181 -0.04053584932
631.875 0.01256041361 -0.06268502572
632.5 -0.0259947164 -0.04583790399
633.125 -0.01894553617 -0.06041122096
633.75 -0.02272549973 -0.06037461444
634.375 -0.01372031603 -0.06776251586
635.0 -0.03517410876 -0.05993333701
635.625 -0.04518054765 -0.03819667426
636.25 -0.02920690188 -0.02385121987
636.875 -0.01418205846 -0.04733553386
637.5 -0.007982496602 -0.07637136694
638.125 -0.05260430492 -0.03764548233
638.75 -0.03122327114 -0.01678148968
639.375 0.007952030653 -0.02584082437
640.0 0.06513373276 -0.009416160322
640.625 0.04247877167 -0.02827804321
641.25 0.04889531145 -0.02735607896
641.875 0.04725859209 -0.02324677085
642.5 0.06724483094 0.01489539379
643.125 0.0489908106 0.0006890671687
643.75 0.05400570507 -0.002208120961
644.375 0.0540909847 -0.009440265355
645.0 0.0516560215 0.01696122458
645.625 0.03279979648 0.002521212079
646.25 0.04943402995 0.02431273356
646.875 0.07339324295 0.04139589255
647.5 0.05940928068 0.02267581002
648.125 0.04828730076 0.01947551479
648.75 0.04162018012 0.05332917791
649.375 0.03876351799 0.07867756366
650.0 0.03788645133 0.06602754202
650.625 0.02886920156 0.0754637497
651.25 0.008741529604 0.06728949639
651.875 -0.02281091546 0.05669564572
652.5 -0.02518624601 0.04775813027
653.125 -0.04032235716 0.03298819892
653.75 -0.02960723999 0.00308399848
654.375 -0.02180939706 -0.0311120831
655.0 -0.02688273602 -0.0572548762
655.625 -0.04332387314 -0.06212343628
656.25 -0.06281545746 -0.06299226627
656.875 -0.06972981429 -0.04482580059
657.5 -0.07361963023 -0.05059760232
658.125 -0.09904618987 -0.06459375357
658.75 -0.08866808671 -0.01718164934
659.375 -0.07596897903 0.01597570713
660.0 -0.06178401286 0.03310187652
660.625 -0.0683352607 0.02139531041
661.25 -0.03832325108 0.02003024153
661.875 -0.03919040358 0.02304106556
662.5 -0.03829615489 0.02399508354
663.125 -0.08059088875 0.009269497519
663.75 -0.04724694818 -0.02379442027
664.375 -0.03939667807 -0.05835173816
665.0 -0.0184509978 -0.09338329896
665.625 0.01861365957 -0.09770140304
666.25 0.03399124035 -0.08392354818
666.875 0.04419877536 -0.08207301366
667.5 0.05719146616 -0.0717660764
668.125 0.05764974391 -0.05000530141
668.75 0.03766708098 -0.03638392043
669.375 0.04782535638 -0.01767332175
670.0 0.07424683815 -0.02017584601
670.625 0.07689371322 -0.01355452834
671.25 0.04863843917 -0.01972937736
671.875 0.06205875474 -0.02674791257
672.5 0.05896428788 -0.07396561368
673.125 0.03363423269 -0.1019608077
673.75 0.01107698661 -0.0949195417
674.375 0.03549700609 -0.08128414458
675.0 0.06100295563 -0.04808070606
675.625 0.06429863952 -0.02940033104
676.25 0.0623751491 -0.003362714686
676.875 0.0656904401 0.02705448672
677.5 0.02771176097 0.04295521832
678.125 0.03612958845 0.05343184878
678.75 0.02703873044 0.07295012709
679.375 0.03709699723 0.1007519748
680.0 0.04688928277 0.08612402317
680.625 0.07990083595 0.06518804664
681.25 0.08951788373 0.03453427323
681.875 0.1100276768 0.01989885721
682.5 0.08889981324 -0.022132876
683.125 0.06759098549 -0.0245677134
683.75 0.07503557676 0.001095929094
684.375 0.02916994791 0.04327878378
685.0 -0.0004211708349 0.05650702668
685.625 -0.04266994906 0.03866973114
686.25 -0.07715983256 0.009717688215
686.875 -0.06333257265 -0.04320936083
687.5 -0.08112032803 -0.05562748056
688.125 -0.1051256136 -0.06605677431
688.75 -0.1052589526 -0.08328032723
689.375 -0.0605776474 -0.0527154609
690.0 -0.07332978695 -0.05534202699
690.625 -0.08439150814 -0.05347835935
691.25 -0.08519708501 -0.0461196442
691.875 -0.05061250574 0.009126496813
692.5 -0.04372761984 0.01867048863
693.125 -0.05260356268 0.07109329243
693.75 -0.02484266804 0.1119161701
694.375 0.01687265576 0.1063080955
695.0 -0.03661675833 0.08031552323
695.625 -0.09750518275 0.05600836187
696.25 -0.09584481774 -0.05422981556
696.875 -0.02089347167 -0.1097901008
697.5 0.03983254617 -0.1017441071
698.125 0.05383121411 -0.05659024228
698.75 0.04112754729 -0.04251197687
699.375 0.06219123861 -0.03883971334
700.0 0.06344471903 0.02080896561
700.625 0.05455971851 0.04059356046
701.25 0.05394225634 0.03877848723
701.875 0.0991716068 0.02461856637
702.5 0.1251240453 0.007600748778
703.125 0.0881411812 -0.072802883
703.75 -0.01406502964 -0.08845571265
704.375 -0.03809620654 -0.062397251
705.0 -0.04113123806 -0.09203586614
705.625 0.04093769092 -0.05018564733
706.25 0.05252419603 -0.02204410078
706.875 0.04647060908 0.02986537315
707.5 0.02925241975 0.07395865111
708.125 -0.05813605624 0.07633781342
708.75 -0.07757849482 0.06551486396
709.375 -0.08818434544 0.01693638553
710.0 -0.08276488995 -0.02484674521
710.625 -0.07581944527 -0.04568665577
711.25 -0.05846707953 -0.08376527241
711.875 -0.07018277644 -0.07225166131
712.5 -0.07960599573 -0.00834983191
713.125 -0.04078329437 0.007294711059
713.75 -0.04163298539 0.03448620733
714.375 -0.03916200489 0.06281495412
715.0 -0.03355042824 0.05616579086
715.625 -0.02230600638 0.06197287258
716.25 -0.101962799 0.05268711154
716.875 -0.1211371604 -0.004025797541
717.5 -0.08209632366 -0.03705963355
718.125 -0.0732305876 -0.03519003328
718.75 -0.04739433442 -0.06625271866
719.375 -0.03093963666 -0.07918084956
720.0 0.01966809888 -0.07723210433
720.625 0.04873579752 -0.03995838092
721.25 0.03104949782 0.02501561003
721.875 -0.02545926441 0.02715432816
722.5 -0.05890172589 0.01703278826
723.125 -0.03380801861 0.05405551724
723.75 -0.03299133205 0.1010758675
724.375 0.0622290745 0.0556637145
725.0 0.06908628249 -0.0135367497
725.625 0.07510344792 -0.03069319285
726.25 0.0423552831 -0.04934663632
726.875 0.05204927303 -0.005814580781
727.5 0.04758258715 0.02535552502
728.125 0.01161990039 0.05495566341
728.75 0.01993936141 0.0394231038
729.375 0.02147372014 0.0665386697
730.0 0.02814363426 0.03343559295
730.625 0.01020528965 0.04965318725
731.25 -0.01838796404 0.04975360446
731.875 -0.02900424134 0.02603703753
732.5 -0.07432669469 -0.01572169711
733.125 -0.05111894357 -0.03548589034
733.75 -0.03082479655 -0.0129020513
734.375 -0.0180879199 -0.0335485074
735.0 -0.0354785441 -0.02097561271
735.625 -0.01976995109 -0.02117866624
736.25 -0.03719511409 -0.009522446023
736.875 -0.04597550169 -0.0292581185
737.5 -0.06374238547 -0.03309288795
738.125 -0.07239689592 -0.03089600587
738.75 -0.04407380182 -0.0163631608
739.375 -0.001009646103 -0.0001029872513
740.0 -0.006078207946 -0.06407801476
740.625 -0.02546265874 -0.04732508633
741.25 -0.02539810693 -0.03906390581
741.875 0.01737874715 -0.01013055156
742.5 0.02245360303 0.01422833773
743.125 0.006996560007 0.03306104811
743.75 -0.02297909621 0.0381874401
744.375 -0.04926688233 -0.007054419291
745.0 -0.04483682629 0.05986868918
745.625 -0.03122902596 0.07152346568
746.25 -0.004518070527 0.07916824399
746.875 0.03379486413 0.04441952919
747.5 0.03428395156 0.0111758776
748.125 0.02293424999 0.001701509599
748.75 0.02884228733 -0.00477440758
749.375 0.0286343714 -0.01328418269
750.0 0.02710221227 -0.03084585585
