!Created with skrf (http://scikit-rf.org).
# GHz S RI R 50.0 
!freq ReS11 ImS11
500.0 -0.003826974844 0.0003733285785
500.625 0.01053020317 0.001813398457
501.25 0.008441392791 -0.02180209807
501.875 -0.009109773743 -0.03202101976
502.5 -0.007958833228 -0.01100837569
503.125 0.000240227036 -0.0003109928455
503.75 0.0006357960033 -0.01155316903
504.375 -0.005600112267 -0.01931658184
505.0 -0.003643733996 -0.02020605128
505.625 -0.006409549447 -0.03154339014
506.25 -0.03346021333 -0.03785756791
506.875 -0.03690412603 -0.07685256683
507.5 -0.04837993334 -0.05066272191
508.125 -0.03199229196 -0.06108171071
508.75 -0.08372193448 -0.04065437873
509.375 -0.08012666652 -0.02382626142
510.0 -0.0568209237 -0.02503546764
510.625 -0.03579969401 0.01920420043
511.25 -0.05645577368 0.03265363256
511.875 -0.0357960344 0.05898416126
512.5 0.01041193864 0.05161411589
513.125 0.07070040695 0.01067680847
513.75 0.09363713201 -0.008323764837
514.375 0.06707147351 -0.02962884404
515.0 0.03979431058 -0.05180119794
515.625 0.08637214976 -0.02230389073
516.25 0.0838664081 -0.04510491184
516.875 0.0891703107 0.0573203088
517.5 0.1064184922 -0.02928019821
518.125 0.1993622005 0.1073357556
518.75 0.10622086 -0.06428142916
519.375 0.07510138044 -0.03570876119
520.0 0.0484814885 -0.06893450498
520.625 0.0704577872 -0.1033104102
521.25 0.04135165276 -0.1033454476
521.875 0.04548044943 -0.04948658351
522.5 0.01187898798 -0.09106086673
523.125 0.04199560287 -0.2331758725
523.75 -0.004917652685 -0.3049532961
524.375 -0.005541702601 -0.2885787289
525.0 -0.01915331756 -0.1438156687
525.625 -0.01190370388 -0.1127939558
526.25 0.01310543191 -0.08855118953
526.875 -0.01478466938 -0.07920546268
527.5 -0.05166860109 -0.0870998231
528.125 -0.06594180577 -0.05002405438
528.75 -0.0722915137 -0.03685193325
529.375 -0.1207626391 0.0343162197
530.0 -0.08516975715 0.1040692877
530.625 0.005070519356 0.101412026
531.25 -0.0002092618268 0.07220070775
531.875 -0.0191954937 0.1155146552
532.5 -0.02596630062 0.1660771959
533.125 -0.01373316233 0.127977048
533.75 0.02120584213 0.09181134152
534.375 0.03179289708 0.1072021799
535.0 0.03477468095 0.1366178953
535.625 -0.006017778331 0.1026537007
536.25 0.06461277617 0.06186778226
536.875 0.05268671143 0.0836734857
537.5 -0.01612651506 0.09521396912
538.125 -0.01124623177 0.0830160112
538.75 0.03522293712 0.11325942
539.375 0.009250004877 0.1539561574
540.0 0.01536855358 0.1233324022
540.625 0.01261382458 0.09495803877
541.25 0.01745951456 0.1127589827
541.875 -0.00423411144 0.1195278974
542.5 -0.02914957498 0.05778400969
543.125 -0.01071080147 0.06378457563
543.75 0.05615188101 0.098902048
544.375 0.09250749959 0.1106042861
545.0 0.1144927948 0.007464469411
545.625 0.08545968063 -0.06337185959
546.25 0.07202672624 -0.1126927543
546.875 0.07615119734 -0.1001497778
547.5 0.0833378346 -0.09180597781
548.125 0.1118886637 -0.1037704942
548.75 0.1543761974 -0.06884509658
549.375 0.1596679931 -0.02951444003
550.0 0.1526697494 0.01657007578
550.625 0.1869709637 0.01835419308
551.25 0.122126994 0.0876696699
551.875 0.09019620887 0.03596106751
552.5 0.08605837425 0.005137073511
553.125 0.1126120282 -0.005110215604
553.75 0.07826294274 0.03660703911
554.375 0.05031036731 0.0156025289
555.0 0.06494291945 0.008657938675
555.625 0.09860535009 0.00157004638
556.25 0.08690398296 0.03709005097
556.875 0.05436893192 0.0363611605
557.5 0.07137163235 0.04251228637
558.125 0.08493318967 0.08041185024
558.75 0.047427848 0.1074521001
559.375 0.06914657173 0.09011105511
560.0 0.09702725938 0.08385059016
560.625 0.0961830446 0.0613106968
561.25 0.07692339271 0.02000723297
561.875 0.07595730837 0.0002541955318
562.5 0.08290570061 -0.003394102633
563.125 0.07585712531 -0.005294232137
563.75 0.06007457408 -0.01449447716
564.375 0.07293304519 -0.04508231578
565.0 0.1352172763 -0.03738293354
565.625 0.1132236339 -0.0315686842
566.25 0.09597443696 -0.02290597326
566.875 0.1047016523 -0.02086511184
567.5 0.1179672633 0.02824083654
568.125 0.07927673769 0.06790737036
568.75 0.08788759042 0.06937722816
569.375 0.1012068534 0.08064241902
570.0 0.09723368051 0.07431829022
570.625 0.08065567826 0.04877471084
571.25 0.08932629848 0.0231599445
571.875 0.09611231946 0.02273342279
572.5 0.0659995557 -0.004127876314
573.125 0.04872485635 -0.00580566383
573.75 0.0797241857 -0.02248573129
574.375 0.1011456984 -0.04518271432
575.0 0.07461755821 -0.04404437925
575.625 0.04050230131 -0.0472603971
576.25 0.05852390664 -0.05955495207
576.875 0.08366186756 -0.04071552494
577.5 0.0811049705 -0.03421111812
578.125 0.07272067547 -0.0501320888
578.75 0.09193074233 -0.07562100466
579.375 0.1111529515 -0.05662146178
580.0 0.08862626136 -0.05434723763
580.625 0.07598469261 -0.08360471788
581.25 0.06210190843 -0.1000793565
581.875 0.05409587465 -0.0594906536
582.5 0.04315679551 -0.02925773091
583.125 0.06829901247 -0.03662958667
583.75 0.09134386217 -0.0309253778
584.375 0.07806363706 -0.01526621236
585.0 0.06313930806 -0.0009673553666
585.625 0.07965464974 0.005158892287
586.25 0.09187030084 0.01557546748
586.875 0.0704718628 0.003380759094
587.5 0.06838236961 -0.01609815752
588.125 0.08689436571 -0.03865246218
588.75 0.09663492484 -0.04118877645
589.375 0.06278580827 -0.07073913861
590.0 0.01127350654 -0.09978682463
590.625 -0.004974015618 -0.09491679738
591.25 0.01040765016 -0.04571929669
591.875 0.0213495012 -0.02665718983
592.5 0.02818563226 -0.05010251781
593.125 0.04592084022 -0.07265996729
593.75 0.05980563364 -0.04943090357
594.375 0.06325008977 -0.02613917791
595.0 0.083076376 -0.0183070216
595.625 0.0963185902 0.003129762997
596.25 0.07827771725 0.02167382451
596.875 0.06275090064 0.02763404666
597.5 0.06681270854 0.04161824472
598.125 0.07426318605 0.04325216961
598.75 0.08213294539 0.01805404095
599.375 0.08266295595 0.001471310537
600.0 0.07202857025 -0.003057156276
600.625 0.04766753615 -0.003128002552
601.25 0.0280181486 -0.005064404771
601.875 0.02392556072 0.008555361445
602.5 0.01802991518 0.02514273292
603.125 0.007507711296 0.03190425785
603.75 0.0120201483 0.03729241527
604.375 0.02503620345 0.0427216815
605.0 0.01884706788 0.04193174347
605.625 0.001261057879 0.02679158111
606.25 -0.01630239531 0.02879174923
606.875 -0.02233403042 0.0476794859
607.5 -0.007904936917 0.05957970951
608.125 0.01640328465 0.04639698769
608.75 0.01919168304 0.03592401425
609.375 0.01537856612 0.03610448381
610.0 0.01253018404 0.03342648346
610.625 0.01873965169 0.01854971663
611.25 0.01513370058 0.005111327528
611.875 0.008402814998 -0.006089092721
612.5 -0.002306862155 -0.01491955722
613.125 -0.01430411711 -0.01299895637
613.75 -0.01579606175 -0.001989971651
614.375 -0.00543687978 0.003438461909
615.0 0.00439827344 -0.003734961463
615.625 -0.0003107222505 -0.01196838208
616.25 -0.004871317355 -0.004913572621
616.875 0.003465473976 0.005005574536
617.5 0.01824906988 0.001408661364
618.125 0.02430293727 -0.005782830084
618.75 0.02543975941 -0.005083510299
619.375 0.03448126294 -0.0006452920311
620.0 0.05257521839 -0.008193441079
620.625 0.05495144471 -0.03481329671
621.25 0.04882955433 -0.04427879919
621.875 0.03542784733 -0.05388531371
622.5 -0.01606257202 -0.04829193187
623.125 -0.0158803391 -0.02023593547
623.75 0.003030440334 -0.006658309965
624.375 0.02140600037 -0.001103787283
625.0 0.02806849495 0.01328863127
625.625 0.02448354756 0.02149904671
626.25 0.03965043453 0.02991209794
626.875 0.06855142332 0.03507835005
627.5 0.07140120693 0.04904430384
628.125 0.05976325319 0.04626801394
628.75 0.06184040424 0.04731810881
629.375 0.07321263978 0.06284728867
630.0 0.06077466033 0.07677293125
630.625 0.0447377464 0.06449960115
631.25 0.04511467488 0.05825242872
631.875 0.03501714873 0.06207428509
632.5 0.01589782752 0.05761649915
633.125 0.0007756924698 0.04788408041
633.75 0.00750532615 0.0580144623
634.375 -0.003533349297 0.06773448848
635.0 -0.007166891862 0.06573609827
635.625 0.001294448467 0.07657795552
636.25 0.01308313912 0.09521395597
636.875 0.000941631371 0.09190448833
637.5 -0.007864385642 0.06539273539
638.125 -0.01381365089 0.08289412267
638.75 -0.03491006451 0.1190241895
639.375 -0.0613757293 0.09381835852
640.0 -0.05442810336 0.05451144366
640.625 -0.0575973706 0.04925676009
641.25 -0.09482809517 0.02928840394
641.875 -0.0859400748 -0.00756031316
642.5 -0.07189550613 -0.007936951085
643.125 -0.08481550601 -0.00681510772
643.75 -0.09870925151 -0.0391549227
644.375 -0.08969727195 -0.05517949705
645.0 -0.0940613048 -0.02423766243
645.625 -0.1195052241 -0.009269666889
646.25 -0.1140635883 -0.01225455086
646.875 -0.08480716082 -0.03324922289
647.5 -0.0829174051 -0.02675068918
648.125 -0.1060859906 -0.03263154757
648.75 -0.07911107241 -0.05223540037
649.375 -0.04285019397 -0.04876513205
650.0 -0.02567084691 -0.06671188861
650.625 0.009262161655 -0.0913169887
651.25 0.04401899936 -0.08021131506
651.875 0.06143345865 -0.05647955798
652.5 0.1024452268 -0.0533075656
653.125 0.1471541925 -0.00771336429
653.75 0.1304922966 0.01485806436
654.375 0.1239548252 0.01129543969
655.0 0.1397895074 0.0247966613
655.625 0.1143669507 0.05358175044
656.25 0.07413860379 0.03092437599
656.875 0.08745965089 -0.001979854819
657.5 0.1067585586 0.02194690769
658.125 0.08134419969 0.05139290973
658.75 0.0504044741 0.05192490762
659.375 0.08306346675 0.03039318196
660.0 0.1304948457 0.0178461206
660.625 0.1327739688 0.005573395782
661.25 0.1196732219 -0.0223491365
661.875 0.119506463 -0.07327198924
662.5 0.1184694266 -0.09924527783
663.125 0.1117572945 -0.0726651814
663.75 0.1158989991 -0.03851603288
664.375 0.1242196099 0.05365679995
665.0 0.05140494823 0.09390843694
665.625 0.01363684569 0.08230203624
666.25 0.0005063413768 0.08786310166
666.875 -0.07206676975 0.1063490017
667.5 -0.1110744801 0.04633060132
668.125 -0.09309692041 0.04461509884
668.75 -0.08739587888 0.09203101115
669.375 -0.1155456243 0.1102062901
670.0 -0.1156544435 0.05698565126
670.625 -0.08793688284 0.04191010071
671.25 -0.08454569197 0.0958084367
671.875 -0.07290982402 0.1216798902
672.5 -0.02931837026 0.1121315188
673.125 -0.01145945725 0.08927255949
673.75 -0.02371912035 0.1055084634
674.375 -0.0621038504 0.1056793532
675.0 -0.08748118574 0.07655844983
675.625 -0.1165828918 0.05563347278
676.25 -0.1441894365 -0.01256471519
676.875 -0.1344080763 -0.04054407329
677.5 -0.1340612378 -0.02057998002
678.125 -0.1669133856 -0.0005888452181
678.75 -0.1440124579 -0.05255947427
679.375 -0.07453521064 -0.04672442623
680.0 -0.06938964931 -0.02792695723
680.625 -0.1086753824 -0.02888517358
681.25 -0.1209196311 -0.04855605885
681.875 -0.08060348677 -0.04573063599
682.5 -0.09505422013 -0.002920568022
683.125 -0.1421469684 0.02406872104
683.75 -0.1710699231 -0.01239682089
684.375 -0.1094662545 -0.0946401992
685.0 -0.03839469876 -0.1299825085
685.625 0.05516091149 -0.1535489565
686.25 0.1110240141 -0.1193873386
686.875 0.1182652639 -0.08895487166
687.5 0.1273779979 -0.04709974131
688.125 0.1061304448 -0.002076633232
688.75 0.07852425461 0.02815958905
689.375 0.08631248786 0.0355513131
690.0 0.1123901334 0.0794560206
690.625 0.07972523066 0.09885548084
691.25 0.09652815472 0.06584694381
691.875 0.1408964373 -0.02410680403
692.5 0.1333385607 -0.1680839493
693.125 0.003522644777 -0.1890860712
693.75 -0.08283294294 -0.09833561566
694.375 -0.1113685469 -0.0780631064
695.0 -0.0719543345 -0.1527675855
695.625 0.08569834173 -0.1261218373
696.25 0.1002041974 0.008952472467
696.875 0.05956992232 0.08898573224
697.5 -0.03394373853 0.113887013
698.125 -0.08611993262 0.09859021275
698.75 -0.09401724002 0.1020205297
699.375 -0.1028808969 0.1027035365
700.0 -0.106598005 0.0726300591
700.625 -0.110188477 0.0435362545
701.25 -0.134042766 0.05652402414
701.875 -0.1427986823 0.04955383826
702.5 -0.07520031715 0.05621346098
703.125 -0.03748156118 0.06074610185
703.75 0.02612500491 0.1195651113
704.375 0.08275042637 0.1696911026
705.0 0.05754557241 0.1310038262
705.625 0.02299109469 0.1086537324
706.25 -0.05139488475 0.1324364978
706.875 -0.1798301941 0.0339855742
707.5 -0.131832562 -0.07565324722
708.125 -0.08045178688 -0.08222035144
708.75 -0.03353120846 -0.1096312128
709.375 0.0601235204 -0.09615931045
710.0 0.1003932643 -0.02382000949
710.625 0.08868001117 0.003061027183
711.25 0.07807658458 0.02892264659
711.875 0.06323254182 0.04123019158
712.5 0.08687235073 0.03909556367
713.125 0.1355853441 -0.0456077617
713.75 0.06560453914 -0.1463019261
714.375 -0.03851831416 -0.1365329878
715.0 -0.09961438619 -0.09319620397
715.625 -0.1123082262 -0.1237211922
716.25 -0.01986753775 -0.1451959993
716.875 0.03363474643 -0.08678784871
717.5 0.06066675093 -0.05421744858
718.125 0.1014086543 -0.03091821049
718.75 0.1061493085 0.02212091505
719.375 0.06150396691 0.04231626727
720.0 0.02826277277 0.05523218822
720.625 -0.04554161817 0.06480478162
721.25 -0.100421443 -0.0332806989
721.875 -0.03966773263 -0.1067117899
722.5 -0.03006998805 -0.117602747
723.125 -0.0833072796 -0.09512097612
723.75 -0.1054211572 -0.01570519674
724.375 -0.07394246224 0.04168048621
725.0 -0.0304014247 0.06443948622
725.625 -0.003358211083 0.0537634579
726.25 -0.008643667067 0.03643173385
726.875 -0.03776986618 0.02865801699
727.5 -0.07536237574 0.01627192172
728.125 -0.08356370676 -0.006222479314
728.75 -0.07120795331 0.002677119568
729.375 -0.05368287385 0.02206322035
730.0 -0.05122601477 0.0166137074
730.625 -0.0533703441 -0.000202222418
731.25 -0.04060123597 -0.01273975588
731.875 -0.02434403955 -0.02798824369
732.5 -0.00346995329 -0.02724234189
733.125 0.008457981126 -0.006538612591
733.75 0.01551991686 0.005279390323
734.375 0.02779978187 0.0004175619386
735.0 0.02327792542 -0.01720848196
735.625 0.01568455925 -0.02143114335
736.25 0.007450441282 -0.02763393464
736.875 -0.009701876713 -0.0309632995
737.5 -0.02756014046 -0.01606130515
738.125 -0.03597051423 0.005550170812
738.75 -0.0345244337 0.02931145791
739.375 -0.01459875055 0.03778057251
740.0 -0.0008947001019 0.02514054804
740.625 -0.006663837132 0.02255657248
741.25 -0.01639198081 0.03281571193
741.875 -0.03326576128 0.02061590764
742.5 -0.0342978085 -0.01937466673
743.125 0.006652229249 -0.0426334271
743.75 0.03473203329 -0.03038665413
744.375 0.03338514747 -0.03075882976
745.0 0.02649502672 -0.03827817085
745.625 0.01276270913 -0.0324668544
746.25 0.0265355848 -0.01696868497
746.875 0.03000991525 -0.03978796909
747.5 -0.0001967032829 -0.06039948774
748.125 -0.03347155437 -0.05720755267
748.75 -0.05923530799 -0.02715012594
749.375 -0.06588678045 0.02511454032
750.0 -0.01421407243 0.08854856403
