!Created with skrf (http://scikit-rf.org).
# GHz S RI R 50.0 
!freq ReS11 ImS11
500.0 -0.01464782494 0.02272654242
500.625 0.02515912227 0.03060893905
501.25 0.02469786536 0.02640641469
501.875 0.009643614617 0.04657258244
502.5 0.005659834088 0.05097730634
503.125 0.03037649158 0.03513813504
503.75 0.04623385675 0.0364284867
504.375 0.04423169373 -0.01310905158
505.0 0.0511661536 -0.02111016841
505.625 0.06093676952 -0.04372523737
506.25 0.04815596297 -0.04364001266
506.875 0.05348446659 -0.06223175456
507.5 0.03974109007 -0.04869012825
508.125 0.07468194122 -0.004751493564
508.75 0.0662894784 -0.04092231638
509.375 0.03061945903 -0.04836513013
510.0 0.06397379968 -0.03374289718
510.625 -0.002346597136 -0.06780909059
511.25 -0.02198974723 -0.06697352949
511.875 -0.05406762004 -0.00238645215
512.5 -0.03135351794 0.001571992281
513.125 -0.02268688509 0.03025692706
513.75 -0.0419950053 0.03784359216
514.375 -0.0210477259 0.06037675397
515.0 -0.007809130495 0.09178426021
515.625 -0.05977389493 0.0872109477
516.25 0.0109368138 0.114221914
516.875 -0.04827229767 0.1157185974
517.5 0.04354303728 0.09254829644
518.125 -0.05946756505 0.1034242187
518.75 0.03039095813 0.04102015668
519.375 -0.003656822276 0.0719245571
520.0 0.04572407736 0.06254847917
520.625 0.04826832847 0.05592222317
521.25 0.05359106176 0.02696202697
521.875 0.03098126067 0.0485371591
522.5 0.06037829742 0.01376960869
523.125 0.1072482413 -0.008639055509
523.75 0.1027450941 -0.01822523025
524.375 0.04803448665 -0.01821625414
525.0 -0.002784792915 0.01065391428
525.625 -0.0001796741482 0.03805344993
526.25 0.008265945702 0.02606477636
526.875 0.01236748049 0.03318190985
527.5 0.02227277871 0.02510068783
528.125 0.05229371624 0.01621062158
528.75 0.06109173129 0.0004382883687
529.375 0.04635054585 -0.02457553016
530.0 0.03415289457 -0.02564229871
530.625 0.01293923517 -0.1001445728
531.25 0.02625192373 -0.1468630048
531.875 -0.0366850544 -0.1411813371
532.5 -0.07701192242 -0.07849556489
533.125 -0.07698175878 -0.07855265064
533.75 -0.05959333957 -0.04727494425
534.375 -0.06184050214 -0.04787043096
535.0 -0.06187968024 -0.03114368024
535.625 -0.02568751637 -0.04580086487
536.25 -0.02093360352 -0.02743098779
536.875 -0.02892345423 -0.06083924075
537.5 -0.03814630903 -0.09693009895
538.125 -0.06689797379 -0.0758350588
538.75 -0.04644051664 -0.02167776769
539.375 -0.02549971204 -0.04570193121
540.0 -0.03771626831 -0.08564595302
540.625 -0.05517101957 -0.1303990086
541.25 -0.02895740003 -0.08008787443
541.875 -0.0339179006 -0.08007393935
542.5 -0.04574668491 -0.1043878533
543.125 -0.09723176003 -0.07812608542
543.75 -0.07983070848 0.0180714151
544.375 -0.06140403112 0.03100298963
545.0 -0.04060354296 0.04960225964
545.625 -0.02405506854 0.05887229924
546.25 0.0003571020028 0.0794236021
546.875 0.008456452829 0.06665814403
547.5 0.004018095324 0.07640014093
548.125 -0.005460266365 0.07874435737
548.75 -0.01167961972 0.05062982315
549.375 -0.03026252129 0.05727929617
550.0 -0.04061503641 0.01971253622
550.625 -0.02421880413 -0.007925621682
551.25 -0.01945399949 -0.04242194118
551.875 -0.0491463372 -0.05542698374
552.5 -0.06103203383 -0.05287011396
553.125 -0.07974145383 -0.02909203798
553.75 -0.06366137779 -0.03555014369
554.375 -0.09732042389 -0.004848395535
555.0 -0.09050569271 0.01367752189
555.625 -0.07736772526 0.02251321539
556.25 -0.09247653006 0.01544139281
556.875 -0.09082180642 0.00792121693
557.5 -0.08016527571 0.01949946468
558.125 -0.07652689853 0.01905722929
558.75 -0.06904556119 -0.003340932022
559.375 -0.03531408525 -0.00454373538
560.0 -0.01911641623 -0.009401058661
560.625 -0.03311349259 -0.0403876616
561.25 -0.05582582714 -0.04504860334
561.875 -0.07272909769 -0.02777049015
562.5 -0.0770433158 0.01368606748
563.125 -0.07716249283 0.0568145332
563.75 -0.05836334085 0.06463435907
564.375 -0.03097937333 0.07779701776
565.0 -0.02168740198 0.0676505882
565.625 -0.02276657814 0.06425915805
566.25 -0.04552725839 0.03290887529
566.875 -0.05531704644 0.01500250659
567.5 -0.05583867721 0.007068483566
568.125 -0.06332634992 0.00283137147
568.75 -0.05199098715 5.692623202e-05
569.375 -0.009474918887 -0.02117609643
570.0 -0.01213954947 -0.03961829261
570.625 -0.03322435754 -0.05508222115
571.25 -0.04324203722 -0.03935613845
571.875 -0.04770590042 -0.04628892796
572.5 -0.08425516206 -0.02773819828
573.125 -0.1116002367 0.01496239261
573.75 -0.06481636252 0.06570473025
574.375 -0.03886986794 0.05867388016
575.0 -0.05304539423 0.06260483257
575.625 -0.05971096654 0.0582014216
576.25 -0.04173795713 0.06495390989
576.875 -0.01742916062 0.07301848481
577.5 -0.01171425532 0.07307303387
578.125 -0.02260690585 0.0494605549
578.75 -0.01491164601 0.04238813161
579.375 -0.01806227103 0.03363459413
580.0 -0.02524084906 0.01745896211
580.625 -0.036287355 0.008141740635
581.25 -0.05599355277 0.01090078203
581.875 -0.08036665328 0.008105816534
582.5 -0.07798619671 0.02881058514
583.125 -0.06594837172 0.03634685308
583.75 -0.06225489319 0.03758060998
584.375 -0.06921925785 -0.003820181609
585.0 -0.07446498961 0.001446165498
585.625 -0.06081530106 0.0143279477
586.25 -0.05872564694 0.02278123779
586.875 -0.05272459224 -0.01556541882
587.5 -0.05460383979 0.004570623689
588.125 -0.0342693097 0.03669198526
588.75 -0.01931954394 0.04706708688
589.375 -0.04490870263 -0.001078048703
590.0 -0.04699241833 0.01742694648
590.625 -0.05136029873 0.04923398983
591.25 -0.03403999024 0.08166704104
591.875 -0.03193569869 0.08769690959
592.5 -0.008158329529 0.07029535434
593.125 -0.003833997573 0.05908124175
593.75 -0.00417022336 0.06548692482
594.375 -0.03987704795 0.02683743636
595.0 -0.03140441422 0.01906712257
595.625 -0.02883829019 0.002678035142
596.25 -0.03571651806 -0.01360441269
596.875 -0.03325689148 -0.01672174084
597.5 -0.02958494058 -0.02403875865
598.125 -0.01551635916 -0.02739460401
598.75 -0.01547757518 -0.01731338435
599.375 -0.00432042643 -0.05596967731
600.0 -0.01306237269 -0.06640054457
600.625 -0.02502006514 -0.07563652425
601.25 -0.04612629898 -0.05548283119
601.875 -0.04198510114 -0.06197092426
602.5 -0.052741407 -0.0342527753
603.125 -0.0427137598 -0.03144558231
603.75 -0.02779276613 -0.02680076376
604.375 -0.02103299434 -0.01123084048
605.0 0.0008828034705 -0.03786087999
605.625 0.006827833791 -0.04928617206
606.25 -0.006455326903 -0.03428978774
606.875 -0.02430656656 -0.008354838052
607.5 0.03146044847 -0.008506786696
608.125 0.03322925641 -0.01511986729
608.75 0.02434641189 -0.01881363864
609.375 0.01914479703 -0.004760348286
610.0 0.0471986327 -0.005363759581
610.625 0.06061402661 -0.01233396286
611.25 0.04924768581 -0.02033151934
611.875 0.02643301363 -0.01815320152
612.5 0.05082079056 0.00823760465
613.125 0.01586524081 -0.00638897334
613.75 0.009858730562 0.01512244138
614.375 0.01925574339 0.0225710646
615.0 0.02246089171 0.01649433033
615.625 0.01366371919 0.01204219533
616.25 0.0104049927 0.01883139436
616.875 0.01450983194 0.03468471191
617.5 0.0262204344 0.04550330582
618.125 0.01910449758 0.02702239001
618.75 0.01441137903 0.02645621151
619.375 0.0177947217 0.03727619494
620.0 0.03914932647 0.05324435589
620.625 0.02505678016 0.01152848704
621.25 0.0171117532 0.002042922666
621.875 -0.01117256852 -0.02504240493
622.5 -0.02937412105 0.0160388217
623.125 -0.03280703216 0.04122868623
623.75 -0.03218617172 0.05173726182
624.375 -0.03159951012 0.04319212395
625.0 -0.05648373897 0.01825438634
625.625 -0.05292727111 0.04314853806
626.25 -0.03677236457 0.07175185447
626.875 -0.02256496912 0.05338279689
627.5 -0.0285607772 0.02191740057
628.125 -0.02805743859 0.0484433754
628.75 -0.03174843895 0.01489122653
629.375 -0.02224579071 0.01262908534
630.0 -0.005259493218 -0.01377582627
630.625 -0.01701330392 -0.00491044166
631.25 0.01034137186 -0.03456526391
631.875 0.003826032119 -0.05115279679
632.5 -0.0009345904883 -0.07339541482
633.125 -0.03237061588 -0.05488267745
633.75 -0.02015449137 -0.06135323987
634.375 -0.02394101224 -0.06317287901
635.0 -0.03322034904 -0.05739605605
635.625 -0.03153925085 -0.05249982671
636.25 -0.03005901552 -0.02982938342
636.875 -0.02100971794 -0.03732383915
637.5 -0.02363967926 -0.06287460568
638.125 -0.02178675742 -0.05678346451
638.75 -0.03991226374 -0.01341983729
639.375 0.0147429357 -0.02090657355
640.0 0.05072377399 -0.02053523055
640.625 0.06650094785 -0.01270718584
641.25 0.05177971686 -0.02850469938
641.875 0.05226146191 -0.01830605007
642.5 0.05827628411 0.008589863075
643.125 0.06436669119 0.02273787435
643.75 0.05087448309 -0.01142605733
644.375 0.05566507054 -0.007569794
645.0 0.04253053232 0.00209968757
645.625 0.04830049702 0.0298526831
646.25 0.04323337342 0.01335566077
646.875 0.06974407295 0.034982947
647.5 0.06168370792 0.02453136811
648.125 0.05313420252 0.0315450692
648.75 0.04790785833 0.06714495676
649.375 0.04070304411 0.07818674681
650.0 0.03502061305 0.07054170767
650.625 0.02818833348 0.07071453206
651.25 -0.002612647532 0.08157860191
651.875 -0.02467712507 0.05860587581
652.5 -0.01945378579 0.04523965795
653.125 -0.02962463371 0.03299617181
653.75 -0.04296380805 -0.007637280898
654.375 -0.0202083339 -0.03698867559
655.0 -0.02097005493 -0.04932918876
655.625 -0.04427227898 -0.066746245
656.25 -0.07218637105 -0.07710172702
656.875 -0.07136511459 -0.04226643126
657.5 -0.06555651251 -0.0453393828
658.125 -0.08567935917 -0.05323081421
658.75 -0.1094839754 -0.05027994346
659.375 -0.06913320008 0.02150399057
660.0 -0.06595890304 0.02558943015
660.625 -0.0547710638 0.0216811052
661.25 -0.06286729737 0.009343278775
661.875 -0.04020752196 0.02453474783
662.5 -0.04415201962 0.01971809802
663.125 -0.07338508404 0.003541742405
663.75 -0.07380873864 -0.03695248965
664.375 -0.03359131797 -0.05131485529
665.0 -0.01089320507 -0.08973067389
665.625 0.02610692134 -0.1076614099
666.25 0.03019940765 -0.08051063368
666.875 0.04565176638 -0.082318943
667.5 0.06505129681 -0.07637793169
668.125 0.05666901815 -0.04497606718
668.75 0.04048132608 -0.03592457128
669.375 0.05016097129 -0.01896401457
670.0 0.0740347557 -0.01797382023
670.625 0.07154255556 -0.00975681594
671.25 0.06927241019 -0.03320631605
671.875 0.06089884938 -0.02812290805
672.5 0.06174258738 -0.07594408078
673.125 0.0350300197 -0.09657862692
673.75 0.01417272162 -0.09453771475
674.375 0.03543336006 -0.07629937043
675.0 0.06219977361 -0.04715574466
675.625 0.05957314175 -0.02366480515
676.25 0.05689943652 -0.004712293105
676.875 0.06067463844 0.02479091514
677.5 0.0320015365 0.04674109065
678.125 0.03131085064 0.0542864758
678.75 0.0559120518 0.08265683815
679.375 0.03246849864 0.09817347939
680.0 0.04112101575 0.08163724579
680.625 0.06615981881 0.061995914
681.25 0.1022820914 0.04102318158
681.875 0.1036194117 0.01833948848
682.5 0.08481529137 -0.02163069619
683.125 0.06288779233 -0.02016789761
683.75 0.0689649003 0.005350454256
684.375 0.05741519652 0.06200654988
685.0 -0.005278878582 0.04405363187
685.625 -0.04353373786 0.02546626985
686.25 -0.06677083909 -0.006465789993
686.875 -0.09141307141 -0.03276158309
687.5 -0.07447331508 -0.05931725454
688.125 -0.0939576507 -0.07208193876
688.75 -0.08601564492 -0.07671835524
689.375 -0.08471256685 -0.06320694068
690.0 -0.06737128484 -0.05029020571
690.625 -0.08454803129 -0.06079418484
691.25 -0.07040609839 -0.04281424376
691.875 -0.05240199387 0.007524230911
692.5 -0.04111960476 0.02086511276
693.125 -0.05095815627 0.0683186971
693.75 -0.0361079779 0.1021057114
694.375 0.004972008204 0.1037553746
695.0 -0.01717697567 0.1096843273
695.625 -0.0974480095 0.04762984059
696.25 -0.09944176472 -0.05976679813
696.875 -0.02442842499 -0.1145283997
697.5 0.0436799059 -0.09362312986
698.125 0.05843917899 -0.06947813684
698.75 0.04355256936 -0.03804840839
699.375 0.05987465984 -0.01629140339
700.0 0.08827498895 -0.01302588731
700.625 0.04556921448 0.044351578
701.25 0.05805601792 0.0377799593
701.875 0.08904427547 0.03813886657
702.5 0.1438895568 -0.03350615232
703.125 0.09023228617 -0.06941375707
703.75 -0.01344151096 -0.08445895414
704.375 -0.04071357298 -0.06358461369
705.0 -0.02383228885 -0.08907050904
705.625 0.02220986314 -0.08599722974
706.25 0.05198661194 -0.01007749209
706.875 0.04509893624 0.03522459238
707.5 0.006507975086 0.07549596785
708.125 -0.0285303824 0.09215613242
708.75 -0.08610842978 0.04921876019
709.375 -0.09056922416 0.02005136197
710.0 -0.0829980818 -0.026217921
710.625 -0.06969727321 -0.05380607974
711.25 -0.04323763386 -0.08821147108
711.875 -0.05447874753 -0.07502390505
712.5 -0.06197286803 -0.01804107643
713.125 -0.04111496221 0.04787441875
713.75 -0.04914210115 0.02530996891
714.375 -0.05014351709 0.05797656555
715.0 -0.02569772269 0.05829863319
715.625 -0.03413663162 0.06089465083
716.25 -0.05020578474 0.07474890755
716.875 -0.1212789488 -0.01145426798
717.5 -0.08628611942 -0.03522149695
718.125 -0.06758023866 -0.03848383523
718.75 -0.06719975254 -0.04887999956
719.375 -0.0393541335 -0.07887650038
720.0 0.01503822279 -0.07350207305
720.625 0.05254107377 -0.03793944877
721.25 0.04306447235 0.01321699019
721.875 -0.0383319028 0.02837226111
722.5 -0.05543004002 0.01930512972
723.125 -0.07338627187 0.05124754455
723.75 0.01081436977 0.08476922225
724.375 0.05957953692 0.054053804
725.0 0.07643065975 -0.004119515956
725.625 0.07312714831 -0.03208896518
726.25 0.05740010723 -0.03448235082
726.875 0.03612695236 -0.03746658529
727.5 0.04238508905 0.02260342988
728.125 0.0147272991 0.05631990562
728.75 -0.00395589005 0.05129981126
729.375 0.03062530271 0.02570099279
730.0 0.0293148862 0.03087677327
730.625 0.005369927788 0.04793422208
731.25 -0.01661225699 0.04740616963
731.875 -0.04368423531 0.02809075314
732.5 -0.03451024749 0.005508804244
733.125 -0.05057935892 -0.05325792139
733.75 -0.03973488959 -0.02050691983
734.375 -0.01766384214 -0.004855686839
735.0 -0.03739824291 -0.03168784223
735.625 -0.02625295609 -0.006470549278
736.25 -0.0204082274 -0.01604951155
736.875 -0.05033290129 -0.02637827915
737.5 -0.0583145177 -0.03003770168
738.125 -0.06251173098 -0.02846791972
738.75 -0.04990296366 -0.01833885378
739.375 -0.01325701458 -0.01401861466
740.0 0.02409366522 -0.01116744823
740.625 -0.03696599066 -0.0605284794
741.25 -0.02247511203 -0.03442203039
741.875 0.01919065128 -0.02407859647
742.5 0.02286746612 0.01088829474
743.125 0.01523828197 0.05078017164
743.75 -0.03045876352 0.03020595911
744.375 -0.04443853662 0.03130356539
745.0 -0.06656767237 -0.003995581546
745.625 -0.03142711614 0.08720401088
746.25 -0.007835794155 0.07246658632
746.875 0.02245765642 0.04417849633
747.5 0.0255351324 0.009687959616
748.125 0.003576242414 0.01414554939
748.75 0.03201350116 -0.001090282804
749.375 0.02883499801 -0.0122034766
750.0 -0.001201297522 -0.03235355949
