!Created with skrf (http://scikit-rf.org).
# GHz S RI R 50.0 
!freq ReS11 ImS11
500.0 -0.01870568762 0.02648106092
500.625 0.0226579837 0.02918081804
501.25 0.02863057091 0.01756502931
501.875 0.01983013713 0.02371250817
502.5 0.01378212368 0.03794999557
503.125 0.0347174486 0.02349962975
503.75 0.0446284342 0.01048466396
504.375 0.05692339857 0.01204291799
505.0 0.0342652334 -0.03741057241
505.625 0.05329318388 -0.04824352101
506.25 0.0468392742 -0.04948774976
506.875 0.07705405844 -0.0250530008
507.5 0.04140354721 -0.05205701853
508.125 0.06699907906 -0.02921216318
508.75 0.03580422772 -0.05870764216
509.375 0.047185507 -0.04554809947
510.0 0.06411818047 -0.04323001755
510.625 -0.01768640615 -0.06003997758
511.25 -0.03641918211 -0.05057595002
511.875 -0.04876606717 -0.02734970756
512.5 -0.03283054203 0.02263690002
513.125 -0.01372238569 0.03593987683
513.75 -0.01708156057 0.03938149241
514.375 -0.006234153635 0.05953911362
515.0 0.01215624309 0.07993488819
515.625 -0.0475211765 0.09627066843
516.25 0.02754646855 0.09868104539
516.875 -0.05073355608 0.1236367147
517.5 0.05013141151 0.09978820426
518.125 -0.06377641326 0.1166996734
518.75 0.01446062506 0.06327104423
519.375 0.02973934981 0.05755202604
520.0 0.05385700571 0.05596630782
520.625 0.06161132633 0.0486794247
521.25 0.06073209861 0.03375292216
521.875 0.03560257227 0.05076545477
522.5 0.06605817258 0.008640125529
523.125 0.1191713509 -0.0106653184
523.75 0.09637877516 -0.06582387395
524.375 0.06246502195 0.00705832422
525.0 0.002626475231 0.0001795011239
525.625 0.00274551394 0.01332469075
526.25 0.01105100419 0.05880770354
526.875 0.02019834502 0.01743092333
527.5 0.02206812364 0.02267569508
528.125 0.0417956178 0.005717728301
528.75 0.06557464754 -0.006508603495
529.375 0.01743486591 -0.03455646296
530.0 0.02247167443 -0.02179492485
530.625 0.009027151078 -0.07378466533
531.25 0.01797767526 -0.1829920821
531.875 -0.05559723987 -0.1167926671
532.5 -0.07918756415 -0.06381538655
533.125 -0.07746970211 -0.05314896814
533.75 -0.08257908564 -0.07743275391
534.375 -0.06056920293 -0.02412193262
535.0 -0.06199599575 -0.01695709662
535.625 -0.03430555871 -0.03522618435
536.25 -0.0423610029 -0.04527748652
536.875 -0.03564217065 -0.05539640519
537.5 -0.03994956632 -0.08224186559
538.125 -0.06733026245 -0.05543326625
538.75 -0.066528231 -0.04278229159
539.375 -0.02853131489 -0.03099280785
540.0 -0.04527246509 -0.07878511779
540.625 -0.0558160801 -0.1026688268
541.25 -0.04500830456 -0.09871573786
541.875 -0.04284660839 -0.07783825214
542.5 -0.04880508909 -0.09288482914
543.125 -0.0936627046 -0.06219949819
543.75 -0.1088774567 0.01444426183
544.375 -0.04654706967 0.04157099228
545.0 -0.02760941277 0.05532291721
545.625 -0.01346467969 0.06308478391
546.25 0.01036609018 0.07040153112
546.875 0.01951883189 0.07186868534
547.5 0.01411227701 0.08025655501
548.125 0.00439959458 0.06977530144
548.75 -0.01244470992 0.0822899139
549.375 -0.004126107924 0.04996414919
550.0 -0.03372064544 0.02721665258
550.625 -0.01999503294 0.001679490131
551.25 -0.02009373806 -0.03381622492
551.875 -0.02981707694 -0.04349154093
552.5 -0.06229767661 -0.04868477188
553.125 -0.06540341364 -0.0246377219
553.75 -0.08775279605 -0.01893726155
554.375 -0.08327917413 0.0009330857545
555.0 -0.09197209717 0.01937189588
555.625 -0.08016098202 0.0344490432
556.25 -0.08254842052 0.01879388818
556.875 -0.1009488804 0.02215633643
557.5 -0.07824852985 0.02781625781
558.125 -0.0715687954 0.02527113881
558.75 -0.0677074756 0.00556901083
559.375 -0.02954585529 0.005902320446
560.0 -0.02275555978 -0.004492003706
560.625 -0.03716586199 -0.02776407734
561.25 -0.06444805598 -0.03502356672
561.875 -0.0696906872 -0.01862265689
562.5 -0.0736183898 0.02118100904
563.125 -0.06804388866 0.05678228979
563.75 -0.05676949984 0.09918869553
564.375 -0.02188549255 0.07086796016
565.0 -0.01829242311 0.07153940189
565.625 -0.01098165583 0.06697427479
566.25 -0.04546673357 0.05464028856
566.875 -0.05692985546 0.02705784829
567.5 -0.0563422552 0.01789781874
568.125 -0.06108256935 0.008291547905
568.75 -0.0447121812 0.002980052644
569.375 -0.03978171903 -0.01079361605
570.0 -0.01357723152 -0.03261304163
570.625 -0.04490137343 -0.04649313595
571.25 -0.04134574315 -0.03675615912
571.875 -0.06203887901 -0.02581316098
572.5 -0.08356148949 -0.01481683011
573.125 -0.1083699839 0.02026549059
573.75 -0.06129942392 0.06132963771
574.375 -0.02968077479 0.07431575042
575.0 -0.04081522534 0.06600434356
575.625 -0.05192712205 0.07368532813
576.25 -0.03097323683 0.07458827434
576.875 -0.01785360682 0.06296313285
577.5 -0.004218977904 0.07232081345
578.125 -0.01577073388 0.05483466021
578.75 -0.01284451268 0.0404166309
579.375 -0.009823984755 0.04415318317
580.0 -0.01960382055 0.02750752505
580.625 -0.03327834737 0.009654286876
581.25 -0.05494246293 0.005716998201
581.875 -0.06274669155 0.04217447036
582.5 -0.07629943984 0.03044684975
583.125 -0.0641886735 0.04300229882
583.75 -0.05831960124 0.02962816897
584.375 -0.0661761996 0.03755382694
585.0 -0.07299810931 0.00183869773
585.625 -0.06258060022 0.01581909604
586.25 -0.05583640211 0.0135087908
586.875 -0.0617752121 0.02213092002
587.5 -0.05412542872 0.01007101828
588.125 -0.03422348757 0.0406812556
588.75 -0.02544893301 0.03500694945
589.375 -0.01887500947 0.041621509
590.0 -0.05138918335 0.01547827262
590.625 -0.04719684546 0.05123920465
591.25 -0.03609601775 0.08127174529
591.875 -0.02052111142 0.09397856279
592.5 -0.004758617457 0.07322836027
593.125 0.001066092944 0.05765336477
593.75 -0.01337436314 0.05897514389
594.375 -0.01675615119 0.06215204509
595.0 -0.03611071177 0.008102790244
595.625 -0.03056833486 0.001698947814
596.25 -0.03414343666 -0.01081826436
596.875 -0.0366440469 -0.01869549027
597.5 -0.03330853981 -0.0214879668
598.125 -0.02121123498 -0.02699778124
598.75 -0.01590723727 -0.02994202952
599.375 -0.01384595452 -0.02157306952
600.0 -0.01771300639 -0.07014422142
600.625 -0.02559372226 -0.08442535618
601.25 -0.04089853719 -0.06895464801
601.875 -0.05675970431 -0.02892193344
602.5 -0.05283939043 -0.04088543179
603.125 -0.0499033738 -0.04019176644
603.75 -0.03780271429 -0.02258074446
604.375 -0.01620901175 -0.02561563649
605.0 -0.01621162399 -0.02358497421
605.625 0.007906393892 -0.05748487196
606.25 0.0009767240019 -0.04409389589
606.875 -0.005640252758 -0.02164729452
607.5 -0.0112958235 0.005009973669
608.125 0.02581258089 -0.01586302337
608.75 0.01437703564 -0.01615472582
609.375 0.03189163509 -0.01919694618
610.0 0.02850501504 -0.004737078773
610.625 0.06189726121 -0.01701479514
611.25 0.05994530042 -0.02769169162
611.875 0.05158689213 -0.02006956428
612.5 0.0144499886 -0.01920554462
613.125 0.03129622803 5.589576331e-05
613.75 0.01991245976 0.007722856179
614.375 0.01488312193 0.0157213746
615.0 0.02233790154 0.01096557406
615.625 0.02109833301 0.01100611911
616.25 0.0125547285 0.01790629206
616.875 0.00984169685 0.02973939252
617.5 0.01163767904 0.02813968044
618.125 0.03345945493 0.04127415388
618.75 0.01841122668 0.02990648719
619.375 0.0147231248 0.03296973419
620.0 0.0127872203 0.02204047297
620.625 0.05387381212 0.0263791935
621.25 0.02733930526 0.004110659401
621.875 -0.006867423526 -0.01596576699
622.5 -0.04394140404 0.008094316812
623.125 -0.03513711745 0.04460247538
623.75 -0.02481170805 0.0566482916
624.375 -0.03581736262 0.04292592481
625.0 -0.03877972377 0.03750350576
625.625 -0.0601455689 0.03328345139
626.25 -0.03220292597 0.08018969719
626.875 -0.01110741387 0.06964938292
627.5 -0.01391226814 0.04732425234
628.125 -0.03703585902 0.006494804126
628.75 -0.03731744352 0.04511726401
629.375 -0.02167933966 0.02833168559
630.0 -0.01227595141 0.003397931755
630.625 0.001530707011 -0.03821667131
631.25 0.0003541123511 -0.03411874509
631.875 -0.01052958895 -0.03665324293
632.5 -0.01758806848 -0.04884446712
633.125 -0.005051536839 -0.07905968729
633.75 -0.03939776553 -0.04593739727
634.375 -0.02923457186 -0.05303063537
635.0 -0.03712337405 -0.06190096749
635.625 -0.04865774056 -0.03510967367
636.25 -0.03160122314 -0.03802616134
636.875 -0.02848398 -0.03105545601
637.5 -0.03435449297 -0.05332699923
638.125 -0.04759080375 -0.04174413916
638.75 -0.02322198253 -0.03623236615
639.375 -0.01428453251 -0.01729971956
640.0 0.04100624288 -0.02257642905
640.625 0.05281171589 -0.0245913805
641.25 0.05193610663 -0.02923220791
641.875 0.0295197949 -0.03766784713
642.5 0.04871151226 -0.008738865785
643.125 0.05489379971 0.00371415584
643.75 0.07298128804 0.008777469968
644.375 0.04469133595 -0.0292181314
645.0 0.03720225586 -0.01153021726
645.625 0.03974525071 0.01126985164
646.25 0.06575747537 0.02774882249
646.875 0.06955088398 0.01612125643
647.5 0.0613048333 0.01037849933
648.125 0.05407908334 0.01782962162
648.75 0.04666401847 0.04914066876
649.375 0.05101934561 0.07735891889
650.0 0.04391067242 0.06630275537
650.625 0.03577482599 0.06112115336
651.25 0.01371660769 0.0683294577
651.875 -0.03054703496 0.07240359585
652.5 -0.01210000763 0.05317841698
653.125 -0.01513056156 0.03742500356
653.75 -0.03212936565 0.008998882267
654.375 -0.01573079206 -0.01532964463
655.0 -0.02306561946 -0.04516593877
655.625 -0.05081486645 -0.05852664714
656.25 -0.07036452985 -0.05568228894
656.875 -0.08418050853 -0.04041865133
657.5 -0.06908271432 -0.0365412921
658.125 -0.08520446263 -0.04166893223
658.75 -0.1015292626 -0.02070627742
659.375 -0.09604140157 0.01762798842
660.0 -0.0480427994 0.04223634651
660.625 -0.05365028114 0.03118234474
661.25 -0.05315105296 0.02663848382
661.875 -0.04108785688 0.03399134141
662.5 -0.02085128191 0.02198692725
663.125 -0.05888480983 0.01141784689
663.75 -0.06084061372 -0.0241671106
664.375 -0.06371997253 -0.0605694194
665.0 -0.02352705553 -0.0838181257
665.625 0.005675139049 -0.106085872
666.25 0.03107797231 -0.09674035242
666.875 0.02819222388 -0.07792583511
667.5 0.04933835301 -0.08506834911
668.125 0.06131062619 -0.06622986064
668.75 0.03952348244 -0.04437476374
669.375 0.05108979964 -0.0363814386
670.0 0.06497096267 -0.03185649247
670.625 0.07293736554 -0.02213402493
671.25 0.05558156349 -0.03084597653
671.875 0.06805016521 -0.05171222754
672.5 0.04321488845 -0.06702981005
673.125 0.02625675311 -0.09910732436
673.75 0.0007779724754 -0.1037353629
674.375 0.02016286763 -0.07888599615
675.0 0.05062635564 -0.05514678508
675.625 0.05985971636 -0.03459521691
676.25 0.07624215419 -0.02049080863
676.875 0.0674057778 0.004555024206
677.5 0.03781839377 0.03516422983
678.125 0.03443938865 0.04658140682
678.75 0.04592741212 0.07131574764
679.375 0.07668232227 0.103132848
680.0 0.05024730913 0.07973424625
680.625 0.06939753623 0.05615614629
681.25 0.1006117504 0.02980742433
681.875 0.1345559854 -0.0002206985856
682.5 0.08961306196 -0.03243235271
683.125 0.06515847334 -0.03363853159
683.75 0.07028544992 -0.0069390643
684.375 0.05498486689 0.04606200684
685.0 0.02190982213 0.06899737487
685.625 -0.03278239474 0.03947462247
686.25 -0.06045508313 0.0002756884559
686.875 -0.0791064485 -0.02755327347
687.5 -0.09904966941 -0.03141770679
688.125 -0.1006427602 -0.05720364259
688.75 -0.09422399358 -0.07063279206
689.375 -0.07749589771 -0.05212518921
690.0 -0.09266213671 -0.04573819068
690.625 -0.07697135277 -0.04495327612
691.25 -0.08701607527 -0.03304508079
691.875 -0.05688522701 0.01878397466
692.5 -0.03945624105 0.03459614882
693.125 -0.02447674543 0.08174944753
693.75 -0.01623120391 0.1062104245
694.375 0.008713986034 0.09734437404
695.0 -0.0194466725 0.09365891134
695.625 -0.08792991119 0.08590400316
696.25 -0.09077223665 -0.05222779983
696.875 -0.03749099332 -0.1064172728
697.5 0.03435754796 -0.09914977155
698.125 0.04957003585 -0.07065599877
698.75 0.03768678933 -0.0387608948
699.375 0.05806259628 -0.02266709035
700.0 0.074415281 -0.005973791538
700.625 0.08162586051 0.01664544589
701.25 0.04991246133 0.04048379835
701.875 0.09361201314 0.02852815783
702.5 0.1329082015 -0.029842863
703.125 0.09234573263 -0.09356963233
703.75 -0.03094518091 -0.09417553643
704.375 -0.05110258587 -0.05668330544
705.0 -0.02831662428 -0.08320852379
705.625 0.02812124734 -0.07608945994
706.25 0.04175708159 -0.05705079737
706.875 0.04010309748 0.03188745464
707.5 0.02035783549 0.07324040275
708.125 -0.03243783577 0.08471572807
708.75 -0.05274598093 0.08965728068
709.375 -0.08966332864 0.01067751202
710.0 -0.08333656618 -0.02356663471
710.625 -0.08001146816 -0.03935787453
711.25 -0.09127501913 -0.06511447335
711.875 -0.07120474238 -0.07204940949
712.5 -0.06638438641 -0.01598161438
713.125 -0.04492860826 0.0311294327
713.75 -0.008897403428 0.06081571712
714.375 -0.03142337302 0.05912989613
715.0 -0.02347452798 0.05836574295
715.625 -0.02501974255 0.06264089977
716.25 -0.06997635007 0.07376941971
716.875 -0.1000062721 0.06039815267
717.5 -0.08363872405 -0.04683428322
718.125 -0.07363873283 -0.03856506579
718.75 -0.06681056716 -0.05113162682
719.375 -0.04889892207 -0.07755909061
720.0 -0.01587100831 -0.08138331878
720.625 0.04812007037 -0.04539243978
721.25 0.04495727943 0.007948658969
721.875 0.01999108092 0.02708085075
722.5 -0.07264542208 0.02097770978
723.125 -0.07503728379 0.06175550482
723.75 -0.0008694250553 0.09182180045
724.375 0.0665310177 0.03976855076
725.0 0.07664539126 -0.002709770061
725.625 0.07199259167 -0.03987463327
726.25 0.06960770672 -0.03257457638
726.875 0.05133635729 -0.02252654497
727.5 0.03162637383 -0.02263980562
728.125 0.01826838744 0.0822641596
728.75 0.01246929532 0.06573537737
729.375 0.03153923752 0.04339283945
730.0 0.03686646105 0.0208404891
730.625 0.01711960486 0.02249688594
731.25 -0.01402287722 0.04858554919
731.875 -0.03340929572 0.03074649102
732.5 -0.06411248705 -0.0006973077355
733.125 -0.03215956554 0.006552789883
733.75 -0.03864316194 -0.01458923654
734.375 -0.02087705557 -0.01858055
735.0 -0.01066794744 -0.002331065229
735.625 -0.05297023436 -0.02033743709
736.25 -0.03049391099 -0.01395679889
736.875 -0.0322768996 -0.02442699831
737.5 -0.05797476893 -0.02191275057
738.125 -0.04717075698 -0.01582821748
738.75 -0.0499546844 -0.01770453678
739.375 -0.02265603495 -0.0126414273
740.0 -0.008480614829 -0.04173788212
740.625 0.008010500387 -0.02587875967
741.25 -0.05020416656 -0.04718439485
741.875 0.005990324979 -0.03663287799
742.5 0.01317418455 0.01730868609
743.125 -0.0214206466 0.02412344457
743.75 -0.007813063777 0.05995276483
744.375 -0.02373695311 0.04621877713
745.0 -0.04199945566 0.03637031274
745.625 -0.06925725618 0.0407988815
746.25 0.02654976772 0.0954718283
746.875 0.04075576826 0.04462383324
747.5 0.03183332399 0.01499302428
748.125 0.0219892562 -0.0004746163518
748.75 0.01693432421 0.0229962489
749.375 0.02504349753 -0.03975596969
750.0 -0.0190581988 -0.03096972411
