!Created with skrf (http://scikit-rf.org).
# GHz S RI R 50.0 
!freq ReS11 ImS11
500.0 -0.008626955204 0.03103503341
500.625 0.02037991011 0.03311528969
501.25 0.0289045494 0.02402459176
501.875 0.01069182522 0.0502704335
502.5 0.01886376481 0.03712844476
503.125 0.02435470194 0.04314585485
503.75 0.04386129196 0.02319868391
504.375 0.05099418281 0.01259092536
505.0 0.05044933082 -0.0261941288
505.625 0.0581363416 -0.04022120501
506.25 0.0460738042 -0.04745507771
506.875 0.07101266552 -0.01917663367
507.5 0.05613778823 -0.03281012565
508.125 0.07940504666 -0.002647833429
508.75 0.06226482178 -0.03948991895
509.375 0.02878095899 -0.04869612573
510.0 0.07022868031 -0.02987014676
510.625 0.00883251273 -0.06840595634
511.25 -0.02559041112 -0.05948136443
511.875 -0.04366522593 -0.02849971392
512.5 -0.03449685589 0.0003161729086
513.125 -0.02759218274 0.0220691384
513.75 -0.04010184547 0.03523862744
514.375 0.0009825925744 0.04911434124
515.0 0.01183025187 0.07192519799
515.625 -0.05759278457 0.08640439996
516.25 0.006117702151 0.1202513046
516.875 -0.0266820091 0.1146651047
517.5 0.03006034055 0.1033433741
518.125 -0.0566487768 0.112757256
518.75 0.003563630543 0.05795665901
519.375 -0.004510642472 0.0729443519
520.0 0.03638610636 0.06417246946
520.625 0.04894964814 0.05642688407
521.25 0.04910248187 0.04800472995
521.875 0.03772990958 0.03559529898
522.5 0.06159460884 0.008773509163
523.125 0.1120133423 -0.01156495546
523.75 0.1015939584 -0.01923092042
524.375 0.04980191164 -0.0304415743
525.0 -0.002674635461 -0.003569436139
525.625 -0.003545642694 0.02942412196
526.25 -0.003700746687 0.05739404738
526.875 0.00941753174 0.04061094062
527.5 0.01656064193 0.027643737
528.125 0.04884668683 0.01622201203
528.75 0.07558413128 0.008071527252
529.375 0.04699297838 -0.02812706143
530.0 0.03943031502 -0.02770061827
530.625 0.01874870826 -0.09548531349
531.25 0.03367742871 -0.1555434037
531.875 -0.0345689082 -0.1549387994
532.5 -0.07255219302 -0.09578226527
533.125 -0.07097643488 -0.0768077514
533.75 -0.06334186058 -0.08258562806
534.375 -0.06141085978 -0.04952394836
535.0 -0.04966319989 -0.02131014795
535.625 -0.02567250536 -0.04210531583
536.25 -0.03053476595 -0.04988279853
536.875 -0.0368183878 -0.0707897692
537.5 -0.04100571582 -0.1007965074
538.125 -0.06257803323 -0.07418545251
538.75 -0.05293839523 -0.04522710918
539.375 -0.02726197304 -0.05637992219
540.0 -0.0311425949 -0.09316195579
540.625 -0.04754118019 -0.123675215
541.25 -0.02969282987 -0.08653901451
541.875 -0.03765145048 -0.08613907514
542.5 -0.04762732639 -0.1013509285
543.125 -0.08933076023 -0.07197829115
543.75 -0.09503189654 0.006623242435
544.375 -0.05954569952 0.03115123482
545.0 -0.03000162687 0.04031821847
545.625 -0.02140686743 0.05769651762
546.25 -0.0008051015113 0.0823692061
546.875 0.009557163011 0.05102096815
547.5 -0.0008048829759 0.07490584826
548.125 -0.008196075809 0.0720225305
548.75 -0.02290594444 0.06294989868
549.375 -0.03436595478 0.05788276247
550.0 -0.03090485454 0.009770105669
550.625 -0.02307203952 -0.01100433849
551.25 -0.025436755 -0.04469524782
551.875 -0.04517501586 -0.05491329619
552.5 -0.06490449396 -0.06261406693
553.125 -0.07427898055 -0.03400979139
553.75 -0.08394870987 -0.0367448294
554.375 -0.08893460889 -0.01007105188
555.0 -0.0894620921 0.005862770713
555.625 -0.07294340316 0.02045673771
556.25 -0.09315746876 0.01421755759
556.875 -0.08227955981 0.00469929486
557.5 -0.08836674914 0.02232908549
558.125 -0.08155135816 0.01804783561
558.75 -0.07237995461 -0.004035648318
559.375 -0.03065061134 -0.006227968861
560.0 -0.01930129344 -0.01502392322
560.625 -0.02745753934 -0.04065656947
561.25 -0.06679465642 -0.04640837229
561.875 -0.06324007674 -0.03235504237
562.5 -0.07535152402 0.0107570724
563.125 -0.0794939961 0.05245789145
563.75 -0.07030589031 0.08418335141
564.375 -0.03103690367 0.07571532333
565.0 -0.02806898501 0.06803746115
565.625 -0.0235503675 0.06004717703
566.25 -0.05582131249 0.04467617687
566.875 -0.04578240916 0.005299720767
567.5 -0.05954387989 0.008259726313
568.125 -0.06030920801 0.00389155949
568.75 -0.04410849384 -0.00582459689
569.375 -0.0252850401 -0.02290909279
570.0 -0.02002840863 -0.0395812116
570.625 -0.03006967353 -0.05325123426
571.25 -0.0448144295 -0.04035304271
571.875 -0.05032798839 -0.04509617784
572.5 -0.08755785443 -0.02513554802
573.125 -0.1098977925 0.01298760009
573.75 -0.06699654445 0.05661441849
574.375 -0.04598747222 0.04681350169
575.0 -0.05601476019 0.05299745412
575.625 -0.05800328918 0.05402005239
576.25 -0.03863511866 0.07330690856
576.875 -0.0245152385 0.07111274422
577.5 -0.0208510285 0.05929482835
578.125 -0.02341799675 0.04486163322
578.75 -0.01583436052 0.04310648866
579.375 -0.02341797888 0.02027182935
580.0 -0.02516252393 0.02478834199
580.625 -0.03622284359 0.005225417588
581.25 -0.05859021297 0.00751151708
581.875 -0.07754609152 0.02835131031
582.5 -0.08032370789 0.03602570411
583.125 -0.07026048217 0.03782546893
583.75 -0.06473936957 0.02737502791
584.375 -0.07418829055 0.02065466488
585.0 -0.06788582142 -0.009666108245
585.625 -0.06488556065 0.01877830674
586.25 -0.05955164265 0.008182098343
586.875 -0.06042913849 -0.001306180496
587.5 -0.0572093082 0.01130566618
588.125 -0.03538192156 0.04078651976
588.75 -0.02905300127 0.03725254751
589.375 -0.03632504209 0.02681133501
590.0 -0.05550419334 0.01200469406
590.625 -0.05857359765 0.04785847303
591.25 -0.04080115851 0.08062381612
591.875 -0.01951977851 0.09534760323
592.5 -0.02266414337 0.06059645866
593.125 -0.01048095513 0.05293679215
593.75 -0.0103096648 0.05685736027
594.375 -0.02697923085 0.05030148133
595.0 -0.03370072773 0.01866949443
595.625 -0.02931367505 -0.01109331839
596.25 -0.033703783 -0.01769173649
596.875 -0.03628753043 -0.01146000521
597.5 -0.0153984714 -0.04217211312
598.125 -0.01755113784 -0.02460582909
598.75 -0.01499363444 -0.02320611028
599.375 -0.01061260761 -0.03684780299
600.0 -0.0168931213 -0.05646143461
600.625 -0.02748226098 -0.06884549018
601.25 -0.0398198514 -0.06429936462
601.875 -0.05292135416 -0.03918127699
602.5 -0.04667749201 -0.05147714382
603.125 -0.03486511519 -0.04698615477
603.75 -0.02293832571 -0.02565385255
604.375 -0.01872535813 -0.01559140075
605.0 0.005817126449 -0.04115629768
605.625 -0.003477238173 -0.04252530923
606.25 -0.01387962306 -0.03327993824
606.875 -0.01289653404 -0.01395842975
607.5 -0.001245695103 0.001062067909
608.125 0.02300074631 -0.01042868067
608.75 0.0302603135 -0.02103847853
609.375 0.0185902946 -0.005953105318
610.0 0.06159013752 -0.004788779067
610.625 0.04611477032 -0.0105728125
611.25 0.03922199354 -0.016780627
611.875 0.03705073491 -0.01548766538
612.5 0.02384377249 -0.01450815607
613.125 0.02215586967 0.003972458065
613.75 0.02049416142 0.01483223691
614.375 0.02006982241 0.03038805401
615.0 0.002622624989 0.008797535604
615.625 0.0292849986 0.02766298773
616.25 0.009133027825 0.02192972515
616.875 0.01452714829 0.04250116399
617.5 0.004165788406 0.02899281481
618.125 0.02655434799 0.03872439459
618.75 0.02106310942 0.04064398647
619.375 0.01668070831 0.04353244611
620.0 0.01577467521 0.0232022847
620.625 0.02878893606 0.008270461774
621.25 0.01781109584 -0.00692249187
621.875 -0.01134435092 -0.02065935868
622.5 -0.05376722846 0.008279355489
623.125 -0.01065578018 0.05182492245
623.75 -0.02142033687 0.06086813822
624.375 -0.03203467002 0.04786544281
625.0 -0.05794703447 0.01739384924
625.625 -0.04834335085 0.05859619031
626.25 -0.04655919362 0.05271928529
626.875 -0.02633835075 0.04422167781
627.5 -0.02171179933 0.02653527466
628.125 -0.02825795468 0.004391424303
628.75 -0.02875728071 0.005575118932
629.375 -0.01311072859 0.001591055789
630.0 -0.007008771936 -0.01080051088
630.625 0.006917400302 -0.03024575733
631.25 0.005603425278 -0.03891427412
631.875 0.01194658927 -0.05719402835
632.5 -0.002526148689 -0.06617074686
633.125 0.004213033016 -0.07172470457
633.75 -0.02788553478 -0.0535762458
634.375 -0.02434335641 -0.05325653425
635.0 -0.04104515249 -0.06001548011
635.625 -0.03097727227 -0.05466738839
636.25 -0.03871597661 -0.02272480128
636.875 -0.007988363239 -0.05227405925
637.5 -0.01252588899 -0.06132596801
638.125 -0.02712551393 -0.04836518176
638.75 -0.01465359933 -0.0302209551
639.375 0.008949453666 -0.019225932
640.0 0.04790874121 -0.008906915765
640.625 0.0630006221 -0.01362147259
641.25 0.06496900864 -0.02174868295
641.875 0.05522687265 -0.02014617031
642.5 0.06516364144 0.01320106381
643.125 0.05919380234 0.02310384073
643.75 0.06407327553 0.01841032132
644.375 0.05967125485 0.003943397804
645.0 0.0437045725 0.01635884635
645.625 0.04414496218 0.02841742629
646.25 0.05964936011 0.03863577458
646.875 0.05845587492 0.01737097642
647.5 0.05171715913 0.01584281851
648.125 0.05106367889 0.03016365257
648.75 0.05005752531 0.07203529018
649.375 0.04221252649 0.05958373718
650.0 0.0374900943 0.06325367614
650.625 0.03087866589 0.06988954455
651.25 -0.004341165335 0.0815229234
651.875 -0.01763160392 0.05451909132
652.5 -0.03006490276 0.04575041938
653.125 -0.03735943377 0.02831978182
653.75 -0.04772539828 -0.01029710332
654.375 -0.01598314056 -0.03192053541
655.0 -0.01585585101 -0.05261091411
655.625 -0.0382369542 -0.06346944742
656.25 -0.07175687304 -0.08157733436
656.875 -0.06198475098 -0.03744547647
657.5 -0.07345223438 -0.05724654193
658.125 -0.08657174582 -0.06441417827
658.75 -0.1000562475 -0.04606901339
659.375 -0.08914968787 0.005447652208
660.0 -0.05790894081 0.02669968692
660.625 -0.05339634487 0.01581569413
661.25 -0.05863571505 0.007667973444
661.875 -0.05248503208 0.02608914942
662.5 -0.04884183353 0.02113570282
663.125 -0.07589056463 0.002986137422
663.75 -0.06539513828 -0.03803576064
664.375 -0.05077509588 -0.0722089319
665.0 -0.01279966262 -0.094914986
665.625 0.02629410861 -0.10416751
666.25 0.04301561621 -0.09199674155
666.875 0.04444684866 -0.07038385268
667.5 0.05390475197 -0.06801930281
668.125 0.05291775736 -0.04165799879
668.75 0.05047482089 -0.03893090669
669.375 0.04321125137 -0.01382653716
670.0 0.07540092513 -0.01627633952
670.625 0.0679490421 -0.01136408107
671.25 0.06916173091 -0.02672530063
671.875 0.07166265408 -0.02914123654
672.5 0.06598897654 -0.08018925954
673.125 0.03505248195 -0.09344202186
673.75 0.01655849786 -0.1082875694
674.375 0.02744315164 -0.06055458235
675.0 0.05513044835 -0.03576909006
675.625 0.05785082385 -0.0232948818
676.25 0.07794876912 -0.002598781262
676.875 0.03848623762 0.02401033982
677.5 0.02183835995 0.0422269101
678.125 0.02528106498 0.05559590114
678.75 0.04699080846 0.08494308375
679.375 0.04587419982 0.1144088933
680.0 0.0448806923 0.09118106915
680.625 0.07001281829 0.06960184356
681.25 0.09977119724 0.04526422973
681.875 0.1285198669 0.02506862008
682.5 0.06900553615 -0.01589175621
683.125 0.06279111346 -0.01829876341
683.75 0.06165506354 0.007749766934
684.375 0.04669149011 0.06248316324
685.0 0.002857981083 0.069012812
685.625 -0.04737642316 0.03770492144
686.25 -0.07785772822 -0.002312513264
686.875 -0.08417289278 -0.04059512198
687.5 -0.09324759559 -0.05156657141
688.125 -0.1086283216 -0.07287764291
688.75 -0.09004497487 -0.08685703179
689.375 -0.07553340882 -0.06329357462
690.0 -0.08385805815 -0.05778293868
690.625 -0.07244003052 -0.06381062107
691.25 -0.06453477243 -0.04928647741
691.875 -0.04573267276 0.004573677093
692.5 -0.04960839888 0.02924362964
693.125 -0.06434483897 0.05417630517
693.75 -0.03036702525 0.1189673413
694.375 0.006597392828 0.1063116421
695.0 -0.02930207642 0.1025198754
695.625 -0.1032284771 0.07115282448
696.25 -0.08865429382 -0.06831909262
696.875 -0.009881234982 -0.105374051
697.5 0.04238270349 -0.08545778944
698.125 0.06010384868 -0.06940074415
698.75 0.0434361916 -0.02263884395
699.375 0.06613292952 -0.02210201524
700.0 0.08394517237 0.004387786401
700.625 0.06848068691 0.03664669533
701.25 0.0546765763 0.04305106592
701.875 0.09211318662 0.04371329604
702.5 0.1457807971 -0.02034638418
703.125 0.09671321455 -0.08239570006
703.75 0.001741263788 -0.07436300752
704.375 -0.03016731001 -0.06730687054
705.0 -0.02078511296 -0.09233430563
705.625 0.03503997006 -0.07328030318
706.25 0.05304125683 -0.03738118406
706.875 0.04998842247 0.02871361212
707.5 0.006128202769 0.08263716559
708.125 -0.03699290565 0.0900953233
708.75 -0.07253840915 0.07821178052
709.375 -0.09598377323 0.0192676324
710.0 -0.07382387444 -0.03939069482
710.625 -0.06330418978 -0.0570203955
711.25 -0.07571349531 -0.08209971723
711.875 -0.06965962254 -0.06984416118
712.5 -0.06869339905 -0.0176472089
713.125 -0.04245340091 0.03015458305
713.75 -0.02673088728 0.05184617884
714.375 -0.07599607348 0.02988516016
715.0 -0.04499749948 0.0512511373
715.625 -0.04169278307 0.05599646821
716.25 -0.06953568646 0.07105874525
716.875 -0.1144479681 0.0160972518
717.5 -0.08840485986 -0.03508241894
718.125 -0.06332916724 -0.05358123496
718.75 -0.06353615802 -0.05567108333
719.375 -0.05304810651 -0.06831492666
720.0 0.02482730055 -0.07109550377
720.625 0.05407723633 -0.03477449776
721.25 0.03562918623 0.01313675035
721.875 -0.0001355867685 0.03101746998
722.5 -0.04974717778 0.02524157275
723.125 -0.0555708901 0.05728261581
723.75 0.002039186257 0.09360172173
724.375 0.06342861108 0.03344995329
725.0 0.09348649546 0.0280432375
725.625 0.07577688205 -0.02567557835
726.25 0.05187549461 -0.03905709369
726.875 0.04163524552 -0.02966370937
727.5 0.03906167531 0.01480574168
728.125 0.02045585713 0.04112277455
728.75 0.001288114941 0.06758430801
729.375 0.02831710605 0.03537915726
730.0 0.0252131409 0.007147672234
730.625 -0.004917637951 0.07227268318
731.25 -0.02328158282 0.04725563021
731.875 -0.04979895627 0.01986215096
732.5 -0.04316217475 0.001712182427
733.125 -0.03876551874 -0.006982790651
733.75 -0.03458467434 -0.0184519788
734.375 -0.02024447399 -0.01286439333
735.0 -0.00131159573 -0.007270059301
735.625 -0.04453007972 -0.02395499534
736.25 -0.04566650911 -0.01687734256
736.875 -0.05837131298 -0.03326250269
737.5 -0.03285771946 -0.02940954685
738.125 -0.07106970149 -0.04386038241
738.75 -0.04486092881 -0.01938421942
739.375 -0.002959289179 -0.02560738372
740.0 0.01409147803 -0.01903117779
740.625 -0.0007729502753 -0.02696452658
741.25 -0.01440233337 -0.0276378648
741.875 0.01245707886 -0.03797806278
742.5 0.03110076072 0.018330928
743.125 -0.01931096337 0.02128853589
743.75 -0.02817767134 0.02077035874
744.375 -0.03970961565 0.007564003701
745.0 -0.05117866447 0.01689983085
745.625 -0.0584455351 0.04181740224
746.25 -0.005834017943 0.08390233559
746.875 0.04925013154 0.05074001824
747.5 0.03058548539 0.01320352634
748.125 0.001102741582 0.01938482159
748.75 0.02283031094 0.01214902104
749.375 0.03151909779 -0.005312789996
750.0 0.01515732988 -0.02394696657
