!Created with skrf (http://scikit-rf.org).
# GHz S RI R 50.0 
!freq ReS11 ImS11
500.0 -0.02259522967 0.0310095547
500.625 0.03216339353 0.01975379495
501.25 0.0344873911 0.01508676785
501.875 0.02522600805 0.02526000842
502.5 -7.72815104e-05 0.06113023879
503.125 0.03105770863 0.03683189709
503.75 0.0447917467 0.02698892144
504.375 0.04753428322 0.005735717202
505.0 0.0584573333 -0.0200741011
505.625 0.05629921878 -0.04503494394
506.25 0.03243903343 -0.05715449089
506.875 0.05928282256 -0.04100736851
507.5 0.0350556772 -0.0590649845
508.125 0.06960723223 -0.02340548379
508.75 0.04445255956 -0.05364853579
509.375 0.05260047941 -0.04320358285
510.0 0.03959224695 -0.05808341404
510.625 -0.006373861467 -0.0670996422
511.25 -0.03220901833 -0.05481970657
511.875 -0.04562420467 -0.01330985625
512.5 -0.03508877893 0.0007960022759
513.125 -0.02265320179 0.0292232641
513.75 -0.0216634572 0.04140783921
514.375 -0.02669833872 0.06910027129
515.0 0.02086431024 0.06814795707
515.625 -0.02862521753 0.08506685741
516.25 0.03303956035 0.0911669088
516.875 -0.0676944689 0.1250396454
517.5 0.06184769927 0.09209077608
518.125 -0.03076982279 0.1236702734
518.75 0.02053235027 0.0470669657
519.375 -0.006761359064 0.08417587355
520.0 0.04566124202 0.06204377053
520.625 0.05775680302 0.03803699434
521.25 0.05509559318 0.02390392863
521.875 0.03128131435 0.06076976462
522.5 0.0663611406 -0.006021246906
523.125 0.1110350376 -0.03356854852
523.75 0.1009100616 -0.05455316425
524.375 0.05802229021 0.01504293748
525.0 0.004674065256 -0.006536787231
525.625 0.0003058517815 0.02724052299
526.25 0.002129241273 0.04685056946
526.875 0.01512762948 0.03549147284
527.5 0.02178518095 0.02374872728
528.125 0.04341216402 0.01075239531
528.75 0.05414504648 -0.004967655922
529.375 0.05425302202 -0.03417517838
530.0 0.02629775309 -0.02264387483
530.625 0.009690013779 -0.07826897561
531.25 0.02574658609 -0.1814246239
531.875 -0.05010294331 -0.1447572345
532.5 -0.08232509109 -0.08182085798
533.125 -0.07300806903 -0.06309188935
533.75 -0.06668549057 -0.06297726432
534.375 -0.07191174778 -0.05014814419
535.0 -0.05676926362 -0.01429548853
535.625 -0.0256779261 -0.02982962327
536.25 -0.03260545185 -0.04104377802
536.875 -0.03451419429 -0.0515057044
537.5 -0.04066313101 -0.08615120178
538.125 -0.06712822861 -0.05828879967
538.75 -0.05732553681 -0.03744383769
539.375 -0.03418838428 -0.04451560505
540.0 -0.04085688429 -0.08393022721
540.625 -0.05354842932 -0.1070852249
541.25 -0.04091514582 -0.09860860275
541.875 -0.03652302601 -0.06577117282
542.5 -0.04734500372 -0.09373502655
543.125 -0.09891720271 -0.06769592853
543.75 -0.1000092576 0.01294477693
544.375 -0.06857183504 0.03587467901
545.0 -0.02281205772 0.0481051839
545.625 -0.01465317689 0.05255615655
546.25 0.009310798062 0.06285743183
546.875 0.01848117321 0.08041875601
547.5 0.01053668489 0.07789164659
548.125 0.004742189337 0.0733813128
548.75 -0.01562964383 0.07420117106
549.375 -0.02733279092 0.07051010531
550.0 -0.03128775841 0.02258831953
550.625 -0.01556810037 -0.005987980264
551.25 -0.01215705661 -0.03568659031
551.875 -0.05902942059 -0.0467992795
552.5 -0.06786794111 -0.05220585617
553.125 -0.07672495937 -0.02611853385
553.75 -0.07964859449 -0.02906306798
554.375 -0.1026022923 0.005531022204
555.0 -0.09049192077 0.01634236605
555.625 -0.06927294642 0.02278348919
556.25 -0.08015489702 0.01569031346
556.875 -0.1017509949 0.01866794369
557.5 -0.07766840877 0.02664985187
558.125 -0.07380812685 0.02365265225
558.75 -0.06039098227 0.003566636393
559.375 -0.04558659852 -0.001693839282
560.0 -0.0221245947 -0.006907542517
560.625 -0.0230346729 -0.03575826317
561.25 -0.05522764455 -0.04075771258
561.875 -0.0804766219 -0.02090840595
562.5 -0.06509072638 0.009101189949
563.125 -0.07215931128 0.05311540753
563.75 -0.05955698144 0.08112172162
564.375 -0.0276440254 0.0878160933
565.0 -0.02068256662 0.07269221877
565.625 -0.01812352039 0.05591627115
566.25 -0.04475294959 0.03869348225
566.875 -0.06030443269 0.02973184404
567.5 -0.04854484765 0.007013229684
568.125 -0.05801198993 0.005723842532
568.75 -0.04808912854 0.003077128821
569.375 -0.03137396081 -0.01555282959
570.0 -0.01561321472 -0.033638607
570.625 -0.0275803884 -0.05035994348
571.25 -0.03514338537 -0.03860637286
571.875 -0.06210697377 -0.02985224934
572.5 -0.07656988691 -0.02827617235
573.125 -0.1061199968 0.0151879606
573.75 -0.06269477699 0.06466405041
574.375 -0.03093215865 0.07426731377
575.0 -0.05023603676 0.04250457156
575.625 -0.05667471034 0.05264827599
576.25 -0.03587178733 0.06588148329
576.875 -0.01008914856 0.07944259058
577.5 -0.01232322296 0.06165998882
578.125 -0.0196474744 0.04218040012
578.75 -0.01537782818 0.03269167457
579.375 -0.009307755179 0.0472043205
580.0 -0.02211523104 0.01557392383
580.625 -0.03379084845 0.005535736255
581.25 -0.05426894497 0.004545046422
581.875 -0.07118869541 0.03236699259
582.5 -0.07731428632 0.03538761148
583.125 -0.06432780541 0.04421292239
583.75 -0.06000311151 0.03390757301
584.375 -0.07120013718 0.01747329078
585.0 -0.07778587511 0.01439227211
585.625 -0.06251412882 0.02214125448
586.25 -0.05521218842 0.0148678643
586.875 -0.06083530461 0.009348015413
587.5 -0.05264637549 0.00973440488
588.125 -0.03206105955 0.04306242685
588.75 -0.02082944061 0.04452603642
589.375 -0.03516077761 0.02499245552
590.0 -0.03891994621 0.02596791152
590.625 -0.04937072088 0.05026928416
591.25 -0.04367397037 0.08021856476
591.875 -0.03392344304 0.08656026938
592.5 0.004401728812 0.07730818488
593.125 0.0003627214375 0.05422233052
593.75 -0.01227426539 0.06564349255
594.375 -0.03175405754 0.04582180857
595.0 -0.03046696197 0.0309692568
595.625 -0.0305182384 -0.003864083617
596.25 -0.03364940632 -0.0249630902
596.875 -0.03009199729 -0.02486051604
597.5 -0.03673845241 -0.006776631575
598.125 -0.02132351002 -0.02135972579
598.75 -0.01175325597 -0.02739816747
599.375 -0.01280457888 -0.03447282975
600.0 -0.01582047531 -0.05866118375
600.625 -0.02569507926 -0.0743791919
601.25 -0.04160403043 -0.06750487792
601.875 -0.05104510046 -0.04680176698
602.5 -0.05608920384 -0.02087712863
603.125 -0.04360720763 -0.03925246654
603.75 -0.02173872866 -0.03522325165
604.375 -0.01539272385 -0.02129355133
605.0 -0.01590740253 -0.02222407889
605.625 -0.000216115472 -0.04912939134
606.25 -0.006445200071 -0.03838652843
606.875 -0.00949506815 -0.014241746
607.5 0.00876568959 -0.007341912462
608.125 0.03784664185 -0.01954575547
608.75 0.03436654901 -0.02794637841
609.375 0.03540698009 -0.01485233234
610.0 0.02568382575 -0.001339951185
610.625 0.05705386822 -0.009838386493
611.25 0.05463487938 -0.02320023891
611.875 0.0465294805 -0.01566255415
612.5 0.03563043526 -0.01176122119
613.125 0.005631909626 -0.01129407574
613.75 0.01551856971 0.01018781857
614.375 0.03573019297 0.03058161653
615.0 0.03252443738 0.0217768615
615.625 0.0009394238652 0.005501267995
616.25 0.02993751859 0.03290866123
616.875 0.03323714974 0.04277570409
617.5 0.03135854829 0.03881723061
618.125 0.008509753904 0.02375096576
618.75 0.03457777768 0.04465343823
619.375 0.0311377199 0.05075922074
620.0 0.03303428363 0.03505110398
620.625 0.02251692524 0.001819340356
621.25 0.01927296246 -0.00435951619
621.875 0.004065155596 -0.007971292924
622.5 -0.02563406451 0.01030702091
623.125 -0.05418992875 0.04290733935
623.75 -0.004717532813 0.06774670465
624.375 -0.02138978794 0.05667295926
625.0 -0.04415547259 0.03878637056
625.625 -0.06581154555 0.02793756824
626.25 -0.03990405714 0.0737539391
626.875 -0.01486352544 0.06086125765
627.5 -0.02212464666 0.04295616106
628.125 -0.02263827798 0.02321927732
628.75 -0.02768154153 0.0112083042
629.375 -0.01937928718 0.009532370203
630.0 -0.007538568421 0.002644881027
630.625 0.003024265889 -0.02410364292
631.25 -0.01695231864 -0.02285436738
631.875 -0.00546646146 -0.04473726071
632.5 -0.01590675496 -0.05727578433
633.125 -0.01107168769 -0.06117143506
633.75 -0.01683812566 -0.06844008332
634.375 -0.02811315859 -0.05667372417
635.0 -0.04943959138 -0.04287781966
635.625 -0.0480221177 -0.0373970459
636.25 -0.02872688156 -0.04255425325
636.875 -0.02596663686 -0.03919490833
637.5 -0.02528873924 -0.0607811598
638.125 -0.03079536529 -0.04664781757
638.75 -0.02289451181 -0.02458232738
639.375 0.01879961506 -0.02793565147
640.0 0.04544953025 -0.01655549624
640.625 0.05572594202 -0.01689405218
641.25 0.04298463271 -0.02924302839
641.875 0.05931538503 -0.02014081587
642.5 0.05345622005 -0.002728367293
643.125 0.05613958689 0.007485904853
643.75 0.06023664032 0.007847962078
644.375 0.05544945679 -0.006820275568
645.0 0.04394134036 0.002428417864
645.625 0.03954626148 0.01891848768
646.25 0.0505383607 0.02458302563
646.875 0.08107619952 0.03829863182
647.5 0.05647078753 0.007697508447
648.125 0.04321881223 0.01636460313
648.75 0.04220215197 0.04534799856
649.375 0.04900216145 0.09116265343
650.0 0.04623900277 0.05231549839
650.625 0.0343846402 0.06008459218
651.25 0.01273247805 0.06966583028
651.875 -0.03534272159 0.06934946031
652.5 -0.01819724489 0.05039065702
653.125 -0.0227167445 0.03435777364
653.75 -0.02411869135 0.008232497706
654.375 -0.03000153758 -0.03776662585
655.0 -0.0222886756 -0.04642946161
655.625 -0.03790629176 -0.05153769259
656.25 -0.06475775184 -0.05305778106
656.875 -0.08346851571 -0.0442341602
657.5 -0.0687232169 -0.03783902715
658.125 -0.09011900564 -0.05242419498
658.75 -0.1063596973 -0.03913606608
659.375 -0.08571936784 0.01472382255
660.0 -0.07527661681 0.03179706439
660.625 -0.05613404281 0.02790276236
661.25 -0.05424461515 0.01694552498
661.875 -0.03421264207 0.02636379309
662.5 -0.04683781911 0.03231459945
663.125 -0.06327791311 0.007500773104
663.75 -0.06911683632 -0.0315513871
664.375 -0.0522853569 -0.06225740838
665.0 -0.01784381825 -0.06729227512
665.625 0.01327059085 -0.09373507359
666.25 0.02991330413 -0.08410207866
666.875 0.04632408272 -0.09113302974
667.5 0.03775739951 -0.06532420854
668.125 0.04318094612 -0.04905440693
668.75 0.03395294663 -0.03488940579
669.375 0.05446951945 -0.03354954094
670.0 0.05084654594 -0.01816856237
670.625 0.06162902227 -0.01691411582
671.25 0.05590255437 -0.03230701262
671.875 0.0708606699 -0.04622351334
672.5 0.05643376728 -0.08515792397
673.125 0.02729239467 -0.09233110531
673.75 0.006575042266 -0.09247266997
674.375 0.03115317949 -0.0916498697
675.0 0.04960122644 -0.04430470543
675.625 0.05057055509 -0.02577532428
676.25 0.06189745125 -0.008255590848
676.875 0.07877957616 0.01819167368
677.5 0.01987057875 0.03207598364
678.125 0.02670518851 0.04741199002
678.75 0.04885642343 0.0707331285
679.375 0.06113044813 0.1090218353
680.0 0.04574280167 0.07794508162
680.625 0.0739250627 0.05901266785
681.25 0.0965457757 0.03810435771
681.875 0.1130991525 0.01310524517
682.5 0.09655064117 -0.02951179775
683.125 0.0463495663 -0.02381272025
683.75 0.05979869078 -0.001341122816
684.375 0.05012103491 0.05372568031
685.0 0.007018152376 0.059553825
685.625 -0.03591550474 0.02571029036
686.25 -0.06737715846 0.004912306901
686.875 -0.08844632561 -0.02840501463
687.5 -0.09606838462 -0.04392173819
688.125 -0.09796374435 -0.06423951345
688.75 -0.09749146751 -0.07530638518
689.375 -0.0827916359 -0.0598767141
690.0 -0.07479416283 -0.04995450908
690.625 -0.1025907174 -0.05316699819
691.25 -0.07864124573 -0.03922776914
691.875 -0.04392533729 0.008447456615
692.5 -0.04011093887 0.01920616542
693.125 -0.03014517184 0.08383194732
693.75 -0.0278189998 0.1051663535
694.375 0.006361066796 0.09982270834
695.0 -0.0175704861 0.104064724
695.625 -0.0951808928 0.05996316968
696.25 -0.1144038735 -0.0487552705
696.875 -0.01453764529 -0.09715313236
697.5 0.04137991394 -0.08747729948
698.125 0.0490922468 -0.05811021848
698.75 0.04055830195 -0.05110155966
699.375 0.06091180549 -0.02763893985
700.0 0.0818025328 -0.01097505503
700.625 0.0699494636 0.03022022355
701.25 0.06343551454 0.02791519869
701.875 0.09138726368 0.03132813074
702.5 0.1380381894 -0.02886832621
703.125 0.08727864009 -0.07309463899
703.75 -0.0311700029 -0.09495175878
704.375 -0.02001008562 -0.05502897264
705.0 -0.02118915088 -0.08354413984
705.625 0.02303993222 -0.08162218055
706.25 0.04789101738 -0.04120285439
706.875 0.04598944728 0.02310057937
707.5 0.01594309016 0.07574585645
708.125 -0.03249634575 0.08800197741
708.75 -0.0733543482 0.07254659813
709.375 -0.09124236753 0.03360992074
710.0 -0.07719841063 -0.02867927009
710.625 -0.06350006033 -0.05992853036
711.25 -0.06708011488 -0.08601221635
711.875 -0.05724538543 -0.06415145573
712.5 -0.07101187136 -0.01333525329
713.125 -0.04236128618 0.04536083733
713.75 -0.03681388187 0.03841846861
714.375 -0.01682986516 0.07038397959
715.0 -0.04440026008 0.05058238093
715.625 -0.04158811674 0.06019337496
716.25 -0.06582481756 0.06640845748
716.875 -0.1096431436 0.04221471567
717.5 -0.0916581271 -0.02317764226
718.125 -0.06882202921 -0.04076912725
718.75 -0.06390759273 -0.05929019405
719.375 -0.02951407526 -0.08512645447
720.0 -0.01436196535 -0.07926770448
720.625 0.05854571498 -0.01791770162
721.25 0.03583403445 0.02963209046
721.875 -0.005230083441 0.03287474604
722.5 -0.04413985166 0.02790765245
723.125 -0.05819775764 0.05591489503
723.75 -0.002265350003 0.09881160998
724.375 0.06294545901 0.05916253449
725.0 0.06121715825 -0.02138035843
725.625 0.09488242664 -0.008374078256
726.25 0.06253349813 -0.03143245445
726.875 0.0439696716 -0.02186311826
727.5 0.03268442696 -0.01848735389
728.125 0.02053397551 0.03956997849
728.75 0.006102267883 0.05502810479
729.375 0.03069674453 0.04323664075
730.0 0.03504081502 0.04014673606
730.625 0.0133064158 0.01620203563
731.25 -0.04198736906 0.06354608644
731.875 -0.06056283491 0.03214714659
732.5 -0.05520699932 -0.004575341271
733.125 -0.04793705638 -0.01499842259
733.75 -0.04583780941 -0.04582040847
734.375 -0.03759854806 -0.02548452683
735.0 -0.04273658668 -0.02169268497
735.625 -0.007706413392 -0.007720812215
736.25 -0.06270154774 -0.01012777429
736.875 -0.07550520726 -0.02082526252
737.5 -0.0751184535 -0.03121746359
738.125 -0.0401751742 -0.01506330736
738.75 -0.06640344793 -0.0446218201
739.375 -0.0248187495 -0.03834398957
740.0 0.008665351165 -0.03808497871
740.625 -0.01930350939 -0.03211504034
741.25 -0.01413663434 -0.02841253675
741.875 0.006376351198 -0.03158682999
742.5 0.04650629747 0.002922279036
743.125 0.00471373296 0.03075300632
743.75 -0.02623154152 0.02222217658
744.375 -0.03501491067 0.02202533707
745.0 -0.05486374161 0.008232876021
745.625 -0.04950134025 0.0471610654
746.25 -0.02309725176 0.06719275835
746.875 0.05720028154 0.05164592632
747.5 0.04834997707 0.005167258707
748.125 0.03014483514 -0.001286786532
748.75 0.01363427363 0.02125684118
749.375 0.02733075518 -0.00716797835
750.0 0.003154237071 -0.02652374067
