!Created with skrf (http://scikit-rf.org).
# GHz S RI R 50.0 
!freq ReS11 ImS11
500.0 -0.01292656253 0.02926490437
500.625 0.01140550292 0.04290190048
501.25 0.04664759519 0.007788022699
501.875 0.02528432954 0.01705176591
502.5 0.009271231289 0.03936748339
503.125 0.03163729864 0.03715807135
503.75 0.04490951091 0.01935413821
504.375 0.04803100116 0.003224606046
505.0 0.04749479758 -0.02350802619
505.625 0.06691409169 -0.03829803343
506.25 0.03902586015 -0.05522328167
506.875 0.06760044041 -0.02983560041
507.5 0.06682133018 -0.02961362271
508.125 0.06845519966 -0.04827535834
508.75 0.0372506723 -0.0574099464
509.375 0.02710171312 -0.05123534713
510.0 0.09193352176 -0.0256309039
510.625 -0.01514457112 -0.06514608298
511.25 -0.03495867928 -0.05159506221
511.875 -0.04433920685 -0.02144332501
512.5 -0.03439487409 0.001497056447
513.125 -0.02380995565 0.02844266731
513.75 -0.01707172917 0.03861828214
514.375 -0.009439982521 0.05381867046
515.0 -0.004270840592 0.09547627735
515.625 -0.03872562911 0.08720324081
516.25 0.03512508893 0.08852796285
516.875 -0.04486838037 0.1154607966
517.5 0.02509225648 0.1132196262
518.125 -0.02766200576 0.1298315188
518.75 0.01587416028 0.04962925714
519.375 0.003401966805 0.07042641141
520.0 0.04300837287 0.06859406536
520.625 0.05578137887 0.0443066666
521.25 0.05381619245 0.02595017264
521.875 0.03500992241 0.0438096124
522.5 0.06661682351 0.02007623767
523.125 0.1102828444 -0.03759528001
523.75 0.09518222277 -0.06809067157
524.375 0.06132994724 -0.03237134326
525.0 0.0009565052513 0.01225847161
525.625 0.000633980692 0.02381164842
526.25 0.005274520183 0.05298912926
526.875 0.0120101757 0.04105412276
527.5 0.02629402402 0.03272346216
528.125 0.04088969593 0.009159415892
528.75 0.04966342512 -0.005827231103
529.375 0.04158709027 -0.03114981958
530.0 0.01650589324 -0.01454200907
530.625 0.01341568648 -0.07495265638
531.25 0.02003504425 -0.1591271443
531.875 -0.04530462272 -0.1551532169
532.5 -0.08176683597 -0.07287187691
533.125 -0.07214878783 -0.05838258232
533.75 -0.06594045146 -0.06885592348
534.375 -0.06564330613 -0.0428142978
535.0 -0.06903604635 -0.03008148185
535.625 -0.02904467051 -0.0341889888
536.25 -0.03272924153 -0.04273022667
536.875 -0.04517938986 -0.06996193244
537.5 -0.03772579241 -0.06991456273
538.125 -0.06422966083 -0.05664865124
538.75 -0.057551483 -0.0362820341
539.375 -0.03481699952 -0.05428305003
540.0 -0.05065167216 -0.09742217389
540.625 -0.05043028007 -0.1040378177
541.25 -0.03899104513 -0.08606011657
541.875 -0.05091209385 -0.09077878127
542.5 -0.04210909542 -0.07817624529
543.125 -0.0916450581 -0.06412978086
543.75 -0.09554005851 0.01593431111
544.375 -0.06025646685 0.03398896506
545.0 -0.04052793654 0.05844597336
545.625 -0.01469156589 0.05609109739
546.25 0.006522284387 0.05823020392
546.875 0.01434694983 0.06420419067
547.5 0.007700081136 0.09289911044
548.125 0.001302637183 0.06637394316
548.75 -0.01159598883 0.06712583062
549.375 -0.0274851857 0.06712538447
550.0 -0.04813087903 0.02581148808
550.625 -0.01701705214 -0.00470951792
551.25 -0.006348618188 -0.03668923623
551.875 -0.04804489552 -0.05213425422
552.5 -0.06746740644 -0.05378275906
553.125 -0.0712649154 -0.02690494657
553.75 -0.08252158621 -0.02851714091
554.375 -0.09347852231 -0.001878390629
555.0 -0.1006386945 0.02120429359
555.625 -0.0677774567 0.02255878468
556.25 -0.07818381466 0.01144347773
556.875 -0.08531313761 0.01156308984
557.5 -0.09175698306 0.03161944207
558.125 -0.06490605911 0.02288915202
558.75 -0.05530579908 0.002583702007
559.375 -0.03751915016 -0.0009333408117
560.0 -0.02903858233 -0.006681297978
560.625 -0.02466717715 -0.03537895174
561.25 -0.05348703546 -0.04214332363
561.875 -0.07069208078 -0.02587316129
562.5 -0.07786497951 0.02532667273
563.125 -0.06987783767 0.05180102227
563.75 -0.06175300036 0.08307582068
564.375 -0.02752499319 0.07961059349
565.0 -0.02036367656 0.07612468072
565.625 -0.01654523475 0.05923523393
566.25 -0.04647106288 0.03946166407
566.875 -0.05267850307 0.01854263375
567.5 -0.06524751227 0.02141017974
568.125 -0.04580703666 0.001607348467
568.75 -0.04272651097 0.0002802022268
569.375 -0.02678709663 -0.01762471294
570.0 -0.02619073208 -0.03329521985
570.625 -0.02029166646 -0.04992882245
571.25 -0.03344609528 -0.04082936204
571.875 -0.05311730747 -0.03629747671
572.5 -0.09210735276 -0.008990700817
573.125 -0.09628651312 0.004656857895
573.75 -0.0620933843 0.0589279677
574.375 -0.0359901286 0.05558472283
575.0 -0.04149658663 0.0752173629
575.625 -0.05520472605 0.04951303441
576.25 -0.03569629401 0.06498520875
576.875 -0.01676727923 0.0731447065
577.5 -0.003159238368 0.07798430844
578.125 -0.01926282869 0.04371033266
578.75 -0.01667042126 0.03068815153
579.375 -0.01521412828 0.03338631392
580.0 -0.01695240965 0.03748250019
580.625 -0.03448816977 -0.008067095966
581.25 -0.05669073531 0.0002050696166
581.875 -0.07134676972 0.03014099395
582.5 -0.07710335648 0.04433055408
583.125 -0.06306428974 0.04883050548
583.75 -0.06077807847 0.02957644828
584.375 -0.0719929996 0.0229631358
585.0 -0.07177394778 0.000950907762
585.625 -0.06168772392 0.01871757624
586.25 -0.05576730999 0.007925645728
586.875 -0.06105101286 0.004121538997
587.5 -0.05799111402 0.02149113258
588.125 -0.03087141672 0.04363449983
588.75 -0.02442390541 0.03841788043
589.375 -0.03285375367 0.02862655513
590.0 -0.04787740676 0.017908367
590.625 -0.03891870863 0.05316660871
591.25 -0.0428182044 0.07898791678
591.875 -0.04053422723 0.08276594141
592.5 -0.01001890387 0.07006417531
593.125 0.008609609824 0.06241866465
593.75 -0.01338860663 0.05825308474
594.375 -0.02848102106 0.04913022351
595.0 -0.03467047645 0.02444546813
595.625 -0.02847073533 0.01219550484
596.25 -0.03543931613 -0.01998128609
596.875 -0.02911467718 -0.0311176486
597.5 -0.02926450413 -0.02731129488
598.125 -0.0242615314 -0.02015055108
598.75 -0.009420702307 -0.03373839282
599.375 -0.01013622991 -0.03725424388
600.0 -0.02194371788 -0.04980397744
600.625 -0.0185688853 -0.08141862586
601.25 -0.03957675923 -0.06624999546
601.875 -0.05472108474 -0.03886345023
602.5 -0.05390207408 -0.04042940245
603.125 -0.05335290471 -0.0217390508
603.75 -0.01815649312 -0.03621884846
604.375 -0.01251828011 -0.02732719751
605.0 -0.0009974849097 -0.03886536658
605.625 -0.01142139544 -0.04183214994
606.25 0.002618169507 -0.0396749309
606.875 -0.003138537244 -0.0189407371
607.5 -0.0006548523754 -0.000626413447
608.125 0.008971153683 -0.001528196502
608.75 0.03582289703 -0.02756307169
609.375 0.04083450076 -0.01888617541
610.0 0.05708819721 -0.0107371494
610.625 0.03680324601 -0.01208074114
611.25 0.06517671336 -0.02160729693
611.875 0.05436671667 -0.0168584683
612.5 0.02458993098 -0.01687435104
613.125 0.02191613662 -0.004587729756
613.75 8.184039307e-05 0.004051861642
614.375 0.03371199685 0.03383946341
615.0 0.03794340299 0.02755531118
615.625 0.02149267007 0.01453694559
616.25 -0.01146514392 0.01457707796
616.875 0.03728121879 0.04916633475
617.5 0.02823893284 0.03378653051
618.125 0.02676059856 0.03081577365
618.75 8.500650438e-05 0.02360591589
619.375 0.02979896103 0.05223780274
620.0 0.0294854327 0.02980960128
620.625 0.03533160955 0.008360991861
621.25 0.01206407962 -0.005386908553
621.875 -0.004152372555 -0.01358971597
622.5 -0.0296786145 0.007594216162
623.125 -0.02424957106 0.04176427137
623.75 -0.04620157096 0.05066912894
624.375 -0.02292606557 0.05865325741
625.0 -0.03897901046 0.04272407075
625.625 -0.04559125529 0.05582025518
626.25 -0.04725772979 0.04791234745
626.875 -0.01825184781 0.07236894674
627.5 -0.01487700572 0.04567832008
628.125 -0.02902939552 0.01049774
628.75 -0.02523943487 0.007823155813
629.375 -0.02124812719 0.01385421152
630.0 -0.01234456873 0.003768940116
630.625 0.0006689406685 -0.02078678732
631.25 0.01380419857 -0.05399416355
631.875 -0.01413916191 -0.03874974023
632.5 -0.01550317654 -0.05025959751
633.125 -0.002454831063 -0.07072461597
633.75 -0.02385002765 -0.0512319276
634.375 -0.01455910891 -0.07116611066
635.0 -0.05226087218 -0.04500801645
635.625 -0.05099750052 -0.03136692839
636.25 -0.03909339088 -0.02224524905
636.875 -0.009673274371 -0.05707673264
637.5 -0.02296591518 -0.06573029373
638.125 -0.0351795967 -0.04743280021
638.75 -0.0236505112 -0.02926531128
639.375 0.009478321299 -0.01713058547
640.0 0.06250220548 -0.01325775504
640.625 0.05318803449 -0.02043501817
641.25 0.03912193375 -0.02808600243
641.875 0.04895289506 -0.0211840184
642.5 0.0486266027 -0.01878555156
643.125 0.05277277186 0.006084487536
643.75 0.06514807122 0.008905771718
644.375 0.06168672171 0.0006966132679
645.0 0.04069308887 -0.003288106884
645.625 0.04009121145 0.01492306689
646.25 0.05289681484 0.02829314833
646.875 0.0650291383 0.02482658606
647.5 0.06491800679 0.02454434601
648.125 0.04845233153 0.0199475506
648.75 0.03914292574 0.04169394314
649.375 0.04427683952 0.07081095306
650.0 0.04101321165 0.07624299624
650.625 0.04211804515 0.04733462646
651.25 0.01598186645 0.06501659314
651.875 -0.01429168872 0.06296431051
652.5 -0.03227300341 0.05037241881
653.125 -0.01362961314 0.03774470944
653.75 -0.01817161626 0.007662863938
654.375 -0.0188697265 -0.03136133604
655.0 -0.02948739912 -0.05604833907
655.625 -0.03792523186 -0.05067407894
656.25 -0.06045680772 -0.05369866967
656.875 -0.06744773392 -0.03418592673
657.5 -0.08361344904 -0.05404604412
658.125 -0.0891395343 -0.0546719618
658.75 -0.1029233255 -0.03483469323
659.375 -0.08804618056 0.01385155138
660.0 -0.06245523586 0.03038502093
660.625 -0.06905396914 0.02622254189
661.25 -0.05118094184 0.0181178142
661.875 -0.03185383859 0.02344691622
662.5 -0.04478837667 0.02686585601
663.125 -0.04401337808 0.007720735112
663.75 -0.06455497375 -0.02914378499
664.375 -0.05453622988 -0.06051110524
665.0 -0.02912254419 -0.100645468
665.625 0.01078639223 -0.09742396941
666.25 0.03448891152 -0.08282615645
666.875 0.04191136538 -0.08005481226
667.5 0.06313521835 -0.08751452781
668.125 0.04075071093 -0.04748945444
668.75 0.03034995807 -0.03093664612
669.375 0.04123909443 -0.02043076791
670.0 0.08087666333 -0.03471798598
670.625 0.0515017248 -0.01516256101
671.25 0.05605319583 -0.02705888216
671.875 0.06386486484 -0.03903456234
672.5 0.06079067439 -0.08791883485
673.125 0.02268766868 -0.07935114848
673.75 0.007347742406 -0.08931471827
674.375 0.02739779306 -0.07546905369
675.0 0.06385162493 -0.05620687055
675.625 0.0438477135 -0.02380619136
676.25 0.0662975893 -0.005706540488
676.875 0.05775065857 0.01847483321
677.5 0.03903725421 0.04371044154
678.125 0.01536330432 0.04486538855
678.75 0.04111366459 0.0754517855
679.375 0.0555693476 0.101180296
680.0 0.05428709854 0.09196774342
680.625 0.07281235515 0.0585032185
681.25 0.09545394049 0.03481519329
681.875 0.1160245084 0.01773770587
682.5 0.08165469661 -0.02510185699
683.125 0.07510739624 -0.03418854142
683.75 0.04576909962 0.002772505239
684.375 0.0447280734 0.05096862092
685.0 0.01274583854 0.06453073083
685.625 -0.04181444782 0.0516829264
686.25 -0.06703212479 0.0001568371383
686.875 -0.08129657914 -0.03304491108
687.5 -0.08862793007 -0.0413493408
688.125 -0.1196372671 -0.05986964771
688.75 -0.09677846171 -0.07595897288
689.375 -0.07814515129 -0.05822482624
690.0 -0.07932539609 -0.05351404939
690.625 -0.08562317954 -0.05650409914
691.25 -0.09288053009 -0.04356255806
691.875 -0.04224111013 0.008468524316
692.5 -0.03946934258 0.01333454989
693.125 -0.04710157778 0.05964303823
693.75 -0.01036130667 0.125461009
694.375 -0.003353768123 0.09028395953
695.0 -0.02230740177 0.1014384231
695.625 -0.09850250046 0.06534319614
696.25 -0.1005140057 -0.0562719689
696.875 -0.03994049126 -0.1145450353
697.5 0.04087552267 -0.07092309245
698.125 0.0506632014 -0.0524606728
698.75 0.04181993423 -0.03663054761
699.375 0.0562940894 -0.02613050383
700.0 0.08017766856 -0.003481692327
700.625 0.0678192777 0.03042673718
701.25 0.05749865708 0.0356503723
701.875 0.09904807632 0.02307830437
702.5 0.1345882785 -0.0209237982
703.125 0.08858827723 -0.06715546173
703.75 -0.01410483778 -0.08243212205
704.375 -0.06120855427 -0.05911297026
705.0 0.006710906087 -0.07806909814
705.625 0.02664320805 -0.07608567874
706.25 0.04783341318 -0.04056075875
706.875 0.05383643086 0.01863391086
707.5 0.02899822952 0.07269955269
708.125 -0.03812591348 0.08879913272
708.75 -0.06998860291 0.07600069375
709.375 -0.09103940005 0.0252771082
710.0 -0.08742147953 -0.01591914601
710.625 -0.05758418663 -0.06235556205
711.25 -0.07437526868 -0.08053281356
711.875 -0.0906788871 -0.06522945486
712.5 -0.06901038504 -0.009943354612
713.125 -0.04131094247 0.03443934722
713.75 -0.03734493691 0.04297862213
714.375 -0.05168237496 0.05298962031
715.0 -0.01568986349 0.05939066697
715.625 -0.05751378776 0.05947123942
716.25 -0.07990194153 0.06875411973
716.875 -0.1149667702 0.02382932579
717.5 -0.09270018388 -0.02639542251
718.125 -0.07770760112 -0.02530749459
718.75 -0.05976827462 -0.05832643037
719.375 -0.01837530394 -0.08795246359
720.0 0.0153064625 -0.07468746077
720.625 0.03643843791 -0.05927248154
721.25 0.04123054026 0.02169367829
721.875 0.002694105041 0.02831938794
722.5 -0.0359922536 0.02588444521
723.125 -0.06624543386 0.06010832659
723.75 -0.006740963109 0.09913665203
724.375 0.06453484786 0.06632601743
725.0 0.08330184694 0.001671898133
725.625 0.04615043704 -0.04917010791
726.25 0.06984483446 -0.01341549791
726.875 0.05041646363 -0.01740160636
727.5 0.04057878646 0.003849333168
728.125 0.02600490651 0.03097663429
728.75 0.02094076134 0.03746725534
729.375 0.03143531586 0.0469789723
730.0 0.03455075624 0.04801965642
730.625 0.00708025159 0.0572151944
731.25 -0.0003849325289 0.02463623994
731.875 -0.07080211715 0.02742838393
732.5 -0.0622362667 -0.01001431758
733.125 -0.03779511761 -0.01018305299
733.75 -0.01881452255 0.01219676884
734.375 -0.03158463678 -0.01685107067
735.0 -0.04210206728 -0.01937463465
735.625 -0.03784006597 -0.01250792737
736.25 -0.00687360884 -0.020802366
736.875 -0.07521011857 -0.02663238635
737.5 -0.08366410739 -0.03620272838
738.125 -0.07255362468 -0.03597512307
738.75 -0.02109061204 0.00276456478
739.375 -0.02993805939 -0.05933040099
740.0 -0.004622834082 -0.04313699786
740.625 -0.01167845869 -0.0277053467
741.25 -0.01445249105 -0.01952046913
741.875 0.01825034762 -0.005290369764
742.5 0.04522976189 0.006948539093
743.125 -0.007096869432 0.02196556865
743.75 -0.02263277836 0.02341023523
744.375 -0.03524272734 0.02744849442
745.0 -0.05111123855 0.02332082949
745.625 -0.04923143903 0.04918115334
746.25 -1.486648198e-05 0.07435662388
746.875 0.02009393293 0.04498694294
747.5 0.04229795071 0.007502864125
748.125 0.03434073808 -0.005192797176
748.75 0.02247402889 0.009559449748
749.375 0.02659337986 -0.003695795538
750.0 0.0006528687891 -0.03307342773
