!Created with skrf (http://scikit-rf.org).
# GHz S RI R 50.0 
!freq ReS11 ImS11
500.0 -0.0208209781 0.02146764006
500.625 0.01411319713 0.04347619165
501.25 0.04271122394 0.01074719398
501.875 0.02812645832 0.01888138788
502.5 0.005150197356 0.04830817665
503.125 0.03555286768 0.03000075978
503.75 0.04524313669 0.0160787002
504.375 0.04972101903 -0.0007145083477
505.0 0.05456690309 -0.01855963345
505.625 0.06320179217 -0.0446833533
506.25 0.04316933391 -0.04812947018
506.875 0.06571656198 -0.02984499758
507.5 0.07388067429 -0.02629330354
508.125 0.07113180941 -0.04323526847
508.75 0.03155647874 -0.05851296409
509.375 0.03601266222 -0.04505336621
510.0 0.0923440875 -0.02092839952
510.625 -0.02131535521 -0.06221470601
511.25 -0.03392261463 -0.05178198697
511.875 -0.04601552358 -0.0219998602
512.5 -0.03474201654 -0.004739338683
513.125 -0.01903251077 0.03385757801
513.75 -0.01273013775 0.03643042508
514.375 -0.02028678812 0.05827728385
515.0 -0.007316854218 0.09108879282
515.625 -0.04733489211 0.08766725331
516.25 0.02521793988 0.09320250436
516.875 -0.05917849745 0.1148283148
517.5 0.01897993743 0.1141408839
518.125 -0.05960410247 0.1181253179
518.75 0.01059950375 0.05453038278
519.375 -0.00952762825 0.07822016291
520.0 0.04802639292 0.0627791962
520.625 0.05238970795 0.04945123659
521.25 0.04970439555 0.03602456208
521.875 0.0268397475 0.05166655164
522.5 0.06218829492 0.01818494921
523.125 0.1115493575 -0.01540884601
523.75 0.08600545933 -0.07103584705
524.375 0.04850090106 -0.008197548844
525.0 -0.002843943115 0.011116552
525.625 -0.003201080483 0.02189725486
526.25 0.007284820908 0.04523251773
526.875 0.009714984072 0.04785966092
527.5 0.02258295039 0.02761441916
528.125 0.04467852683 0.01333546168
528.75 0.05900129158 0.004450794244
529.375 0.05364442793 -0.02773570816
530.0 0.01859916241 -0.01321878767
530.625 0.01935479714 -0.07161675735
531.25 0.02561487737 -0.1564300372
531.875 -0.04036216151 -0.1668681699
532.5 -0.07204977658 -0.06169670277
533.125 -0.0728458519 -0.06508992757
533.75 -0.06411361251 -0.07286247157
534.375 -0.06649639206 -0.05269542152
535.0 -0.06240128018 -0.0327619461
535.625 -0.02518431816 -0.04009525855
536.25 -0.0273997226 -0.0383478378
536.875 -0.04438708673 -0.07434212907
537.5 -0.03332584833 -0.07244736128
538.125 -0.05810073301 -0.05365164469
538.75 -0.05197164285 -0.03362605183
539.375 -0.03532688683 -0.061632986
540.0 -0.03760105974 -0.09108779646
540.625 -0.0410486006 -0.1027518851
541.25 -0.03073700422 -0.08487844588
541.875 -0.04739969764 -0.09489054337
542.5 -0.03804966809 -0.08302745764
543.125 -0.08582226832 -0.06795646416
543.75 -0.09154521803 0.01417553503
544.375 -0.06574974308 0.03060248611
545.0 -0.04200403275 0.05088278116
545.625 -0.02023003804 0.05633335628
546.25 -0.0002895143307 0.06340997037
546.875 0.009121758363 0.07233890454
547.5 0.002795110725 0.0792797809
548.125 -0.0008236906949 0.06466423463
548.75 -0.01376986338 0.0607206783
549.375 -0.03530739487 0.0679866184
550.0 -0.04300388752 0.01713965762
550.625 -0.01980537195 -0.008358819757
551.25 -0.01229788878 -0.04280329104
551.875 -0.05394574249 -0.05595550305
552.5 -0.05743580262 -0.05510921832
553.125 -0.06941945848 -0.03204036894
553.75 -0.07615782903 -0.03054667628
554.375 -0.09789183343 -0.005264349163
555.0 -0.09480798033 0.01227445527
555.625 -0.07500515729 0.02276060904
556.25 -0.07863756439 0.006300241773
556.875 -0.09254319224 0.008989618929
557.5 -0.09416171503 0.02840675302
558.125 -0.06059391003 0.0182910018
558.75 -0.05752935272 -0.00262961013
559.375 -0.03848703156 -0.006314734512
560.0 -0.02126844647 -0.0109833603
560.625 -0.02854137093 -0.0389254726
561.25 -0.05956005232 -0.04788873667
561.875 -0.07298987524 -0.02912865976
562.5 -0.07932568135 0.01861565502
563.125 -0.07613337065 0.05101079029
563.75 -0.06551647665 0.08252566413
564.375 -0.0318737116 0.08170606957
565.0 -0.02386702413 0.06679683773
565.625 -0.02198171568 0.05996127586
566.25 -0.05102879654 0.0398436905
566.875 -0.05737754011 0.01815429974
567.5 -0.06620807513 0.01704294622
568.125 -0.04622743764 -0.002505673329
568.75 -0.04071659156 -0.003819600192
569.375 -0.021307089 -0.01987937874
570.0 -0.02757323741 -0.03609074321
570.625 -0.02581911757 -0.05434562681
571.25 -0.03511519089 -0.04311180972
571.875 -0.04993325844 -0.04236623765
572.5 -0.09380855584 -0.01362681126
573.125 -0.09803168654 0.0001477110926
573.75 -0.06408363941 0.05484809475
574.375 -0.03993567769 0.06212984796
575.0 -0.05002726949 0.06756651109
575.625 -0.05986987471 0.05489683505
576.25 -0.03822974489 0.06786958851
576.875 -0.01731988922 0.07604987554
577.5 -0.01158232505 0.07407281994
578.125 -0.02108929009 0.04430510115
578.75 -0.01848621035 0.0305968715
579.375 -0.01652663833 0.03778979714
580.0 -0.02019810337 0.0359831037
580.625 -0.03678801965 -0.01084342202
581.25 -0.06118773521 -0.005853256677
581.875 -0.07532583812 0.0205977962
582.5 -0.07834681652 0.04596124788
583.125 -0.0675160398 0.03661379028
583.75 -0.06328859339 0.02495699969
584.375 -0.07037774023 0.01572925164
585.0 -0.07310629488 0.0008801428125
585.625 -0.06325451248 0.005839357887
586.25 -0.05700238697 0.002563641074
586.875 -0.05562350064 -0.004247529182
587.5 -0.0580863349 0.02114030688
588.125 -0.03649328692 0.03458157311
588.75 -0.02980759018 0.03255444345
589.375 -0.03705627957 0.01746038595
590.0 -0.04843566092 0.01940040567
590.625 -0.04970302157 0.05061638975
591.25 -0.04156628417 0.07856166371
591.875 -0.03530347588 0.08728383347
592.5 -0.008414072587 0.07126870654
593.125 -0.002059075465 0.06062921614
593.75 -0.01690829901 0.05815689338
594.375 -0.02803001206 0.04510824924
595.0 -0.03179131968 0.02754110005
595.625 -0.02915599847 0.004547088792
596.25 -0.03104096422 -0.01792636639
596.875 -0.02921238147 -0.02835748791
597.5 -0.0290936101 -0.02267680984
598.125 -0.01341372521 -0.02890931531
598.75 -0.00614991118 -0.04208974909
599.375 -0.005760840289 -0.04301599764
600.0 -0.02029850666 -0.04309483739
600.625 -0.007644117283 -0.0919376293
601.25 -0.03721354404 -0.06808961334
601.875 -0.0499745008 -0.04261912302
602.5 -0.05309267978 -0.03656127627
603.125 -0.04739133347 -0.03315833694
603.75 -0.0230730476 -0.02712248021
604.375 -0.005998606348 -0.03147682682
605.0 -0.003935238672 -0.03422501787
605.625 -0.01614718572 -0.03396076563
606.25 0.01413583744 -0.03942242879
606.875 0.0007156720345 -0.01530850263
607.5 0.006914977735 0.0001959855893
608.125 0.007638514824 0.001276853225
608.75 0.02820016145 -0.0168048126
609.375 0.04633917804 -0.01828895386
610.0 0.04431480964 -0.005518705512
610.625 0.03091066731 -0.008277379505
611.25 0.07213929942 -0.01855779823
611.875 0.05815008945 -0.012683178
612.5 0.0299622972 -0.004609571637
613.125 0.01537718838 -0.005741916787
613.75 0.01106802285 0.01034938763
614.375 0.02113315537 0.02566436232
615.0 0.02876792232 0.01923879133
615.625 0.01431131031 0.009987982109
616.25 -0.007479899617 0.01446229057
616.875 0.02006719355 0.04474676467
617.5 0.01602489648 0.02994824091
618.125 0.01957787672 0.02776096409
618.75 0.006378642979 0.02349129427
619.375 0.01444637951 0.04201832751
620.0 0.02148971483 0.0287522505
620.625 0.02278282278 0.002170556982
621.25 0.01640490994 0.004554260756
621.875 -0.01047715991 -0.01726536517
622.5 -0.04088205772 0.006098921473
623.125 -0.04051852523 0.03934167118
623.75 -0.04017223487 0.05036502119
624.375 -0.03537698204 0.04845598523
625.0 -0.03800083608 0.04374451876
625.625 -0.05175107013 0.03978616224
626.25 -0.0532781646 0.03887804682
626.875 -0.01722892247 0.07554302803
627.5 -0.0157698437 0.04832556396
628.125 -0.02923513568 0.01922686143
628.75 -0.0259350114 -0.00541264235
629.375 -0.02721228513 0.0212806255
630.0 -0.00791050616 -0.003723698795
630.625 -0.002185027433 -0.01920537631
631.25 0.01691094862 -0.0517149912
631.875 -0.01736895742 -0.0377529994
632.5 -0.01787015512 -0.04962825259
633.125 -0.009805810049 -0.06581878919
633.75 -0.01765535468 -0.05892274814
634.375 -0.01894982196 -0.06347546156
635.0 -0.03712934929 -0.05798778634
635.625 -0.04917654494 -0.03105449956
636.25 -0.02916121194 -0.03178420981
636.875 -0.003097980949 -0.0640154927
637.5 -0.02784913728 -0.05784306123
638.125 -0.0344137825 -0.04488524585
638.75 -0.02803402041 -0.02480985499
639.375 0.02017309132 -0.02036240445
640.0 0.05118830316 -0.01396550843
640.625 0.05738405854 -0.0162869052
641.25 0.04950826612 -0.02207549903
641.875 0.05997322413 -0.01589813592
642.5 0.04647675931 -0.0154134676
643.125 0.04964821628 0.004584379985
643.75 0.06474825366 0.001040205626
644.375 0.06743974059 0.01071059652
645.0 0.03571843474 -0.01007218903
645.625 0.03994304953 0.02240903608
646.25 0.05684304499 0.03300663812
646.875 0.06778020981 0.03647640552
647.5 0.06088813373 0.0269917473
648.125 0.04954238835 0.02667057125
648.75 0.0365021639 0.05181278769
649.375 0.03945992124 0.08416629533
650.0 0.03614397713 0.07435607195
650.625 0.03694865454 0.05087132511
651.25 0.0105294487 0.06140475188
651.875 -0.02835022514 0.0594073976
652.5 -0.03731842049 0.04857648511
653.125 -0.01009271948 0.03533736766
653.75 -0.02355497189 -0.002502206403
654.375 -0.02104423557 -0.0383726062
655.0 -0.02022768466 -0.05247586516
655.625 -0.04075954861 -0.06385577418
656.25 -0.05586015567 -0.05756813429
656.875 -0.07211923587 -0.04522829055
657.5 -0.08389144937 -0.06049582219
658.125 -0.08039149486 -0.05095251063
658.75 -0.09627250416 -0.03740439591
659.375 -0.08043859135 0.01341108002
660.0 -0.0683726604 0.02333822756
660.625 -0.0597349909 0.02314522328
661.25 -0.05302241146 0.01049916446
661.875 -0.04177564102 0.02050212696
662.5 -0.05247861603 0.02601161978
663.125 -0.0469143347 0.002064241328
663.75 -0.05940404971 -0.03447646021
664.375 -0.04557961693 -0.06167480927
665.0 -0.02154382451 -0.1036845682
665.625 0.02260952088 -0.09892828924
666.25 0.0401919599 -0.08661621233
666.875 0.04854435932 -0.07915405898
667.5 0.06702054197 -0.07849309649
668.125 0.05444587878 -0.04753231536
668.75 0.04138721042 -0.03145422669
669.375 0.05092176603 -0.02229358437
670.0 0.08237672702 -0.02762708989
670.625 0.06030214765 -0.0103978415
671.25 0.05457559685 -0.02099546319
671.875 0.06483681089 -0.03351185667
672.5 0.06632037648 -0.09123678883
673.125 0.02965217604 -0.07990208145
673.75 0.01413047894 -0.09649751024
674.375 0.03598898328 -0.07608544463
675.0 0.06481968021 -0.04718436055
675.625 0.05352824056 -0.02162016775
676.25 0.07244111774 -0.002277304141
676.875 0.06296273763 0.02983884023
677.5 0.03247065027 0.04728749068
678.125 0.01702709452 0.05062735387
678.75 0.03688059395 0.07982455449
679.375 0.04476821284 0.1027463603
680.0 0.05098646851 0.09398634345
680.625 0.06105593039 0.06090311147
681.25 0.09746566527 0.04252804926
681.875 0.1214038245 0.02307499815
682.5 0.08624580262 -0.02090142184
683.125 0.07396110763 -0.02774252235
683.75 0.05133918573 0.007980736022
684.375 0.03793052893 0.05375994054
685.0 0.005564805122 0.0601075498
685.625 -0.0470119341 0.04917065059
686.25 -0.06106713816 -0.01131017048
686.875 -0.07900407913 -0.0412220275
687.5 -0.08582689372 -0.05255408443
688.125 -0.1206685115 -0.06671751181
688.75 -0.08229393521 -0.07509639499
689.375 -0.07124963259 -0.06176145109
690.0 -0.08100359723 -0.05698738919
690.625 -0.087525555 -0.06384989105
691.25 -0.07278004786 -0.04416984103
691.875 -0.04832568862 0.006493333305
692.5 -0.04642617696 0.01695687804
693.125 -0.05029224443 0.07164347474
693.75 -0.01773004143 0.1286373383
694.375 -0.01103104695 0.08992611219
695.0 -0.02938167046 0.09596760514
695.625 -0.1025574039 0.06716935011
696.25 -0.1028794324 -0.0608394258
696.875 -0.02764503999 -0.1147205893
697.5 0.04622318372 -0.0735745985
698.125 0.05454747474 -0.04671280189
698.75 0.0458191068 -0.03677127202
699.375 0.05737130161 -0.008055007891
700.0 0.07715248997 0.008145366914
700.625 0.05812727349 0.03815576699
701.25 0.0606971965 0.03657704953
701.875 0.09169855511 0.03934282377
702.5 0.1415264078 -0.01616235234
703.125 0.09147456582 -0.07067695483
703.75 -0.01562257888 -0.08943253209
704.375 -0.04979772739 -0.06386487555
705.0 0.01480006345 -0.0788301738
705.625 0.03385339606 -0.0677991976
706.25 0.05117868479 -0.02467997198
706.875 0.05656135582 0.01768239632
707.5 0.01152781623 0.07642183608
708.125 -0.0414152646 0.08805207446
708.75 -0.07267344393 0.0708912052
709.375 -0.09142762527 0.02772855306
710.0 -0.08294352772 -0.02456661942
710.625 -0.06366000467 -0.05805135481
711.25 -0.07336766288 -0.08231707799
711.875 -0.0888204117 -0.06609109646
712.5 -0.0568628607 -0.01862492429
713.125 -0.04497408069 0.02466034553
713.75 -0.03301282425 0.04720348939
714.375 -0.0468063763 0.05585679044
715.0 -0.02577552611 0.05702459829
715.625 -0.05528268415 0.0609126589
716.25 -0.08784516239 0.06024606478
716.875 -0.1136593602 0.006286627266
717.5 -0.09125329437 -0.02320567436
718.125 -0.07252722696 -0.03889581989
718.75 -0.05895029308 -0.05593702049
719.375 -0.0215114639 -0.08469682524
720.0 0.008697928489 -0.07296048169
720.625 0.04036068762 -0.05133883157
721.25 0.03865642872 0.02235072669
721.875 -0.01306557084 0.02256425459
722.5 -0.02734500028 0.02749832725
723.125 -0.09489122091 0.04759253578
723.75 -0.007737220976 0.09313835022
724.375 0.06333737506 0.05813541148
725.0 0.07934799331 -0.002568874491
725.625 0.05650170878 -0.04154644272
726.25 0.07043166353 -0.00664651471
726.875 0.05230935649 -0.008018591382
727.5 0.03975557897 0.01461523956
728.125 0.02564326824 0.01653687508
728.75 0.006753974361 0.05606207081
729.375 0.02445826062 0.04183936948
730.0 0.03368908468 0.03662641113
730.625 0.01195350499 0.04355212168
731.25 -0.004600598878 0.03238297076
731.875 -0.05742724839 0.02421226666
732.5 -0.07002540454 -0.01505372972
733.125 -0.04017469613 -0.02471083485
733.75 -0.02109234203 0.007327253918
734.375 -0.01559083843 -0.01954789901
735.0 -0.02464513791 -0.01205768085
735.625 -0.02856007613 -0.01241046523
736.25 -0.0154379142 -0.01821898166
736.875 -0.05228180072 -0.02823168561
737.5 -0.06759233699 -0.02833430669
738.125 -0.05655019659 -0.02787888976
738.75 -0.02434226673 -0.001297999914
739.375 -0.023025587 -0.04168400418
740.0 0.001910088034 -0.05407910363
740.625 -0.01250298296 -0.03946943985
741.25 0.002097755942 -0.01673153123
741.875 0.0160979739 -0.01881501921
742.5 0.02684892416 0.01347232581
743.125 -0.01379080422 0.02729216929
743.75 -0.02573470649 0.00640019905
744.375 -0.03813943372 0.04314441389
745.0 -0.04745877689 0.02648679394
745.625 -0.05164632998 0.05802814276
746.25 -0.01668313205 0.06914127418
746.875 0.02281696628 0.04345990105
747.5 0.0342333885 0.01093186457
748.125 0.02815779118 -0.001978724769
748.75 0.02675893746 0.01183176889
749.375 0.03177455111 0.006118989066
750.0 -0.0114543805 -0.0336305793
