!Created with skrf (http://scikit-rf.org).
# GHz S RI R 50.0 
!freq ReS11 ImS11
500.0 -0.01860307919 0.02773896072
500.625 0.01905256592 0.0354417799
501.25 0.02806140183 0.02426267705
501.875 0.01972797511 0.03971204048
502.5 0.01020051651 0.04715346095
503.125 0.0286059497 0.04178204996
503.75 0.0470592328 0.03380509111
504.375 0.04577125698 -0.003015689393
505.0 0.0433981942 -0.02832687766
505.625 0.05842474916 -0.04276545031
506.25 0.05700263174 -0.04175381165
506.875 0.05324152882 -0.0594528149
507.5 0.04978341287 -0.03666889689
508.125 0.07287899519 -0.01541026558
508.75 0.0569124515 -0.04368494836
509.375 0.03690103253 -0.04398608458
510.0 0.07800179842 -0.02678422833
510.625 -0.0006202746841 -0.06796477121
511.25 -0.02484401627 -0.06552838993
511.875 -0.05127755078 -0.004376827948
512.5 -0.0334425773 0.01113040702
513.125 -0.02477794976 0.02472459414
513.75 -0.03376534809 0.03887732951
514.375 -0.01637110697 0.05660888017
515.0 0.01346459895 0.07998454805
515.625 -0.06801226583 0.09574189532
516.25 0.02630717481 0.09986130606
516.875 -0.05553189651 0.1190708336
517.5 0.03338748028 0.1005896991
518.125 -0.07513535491 0.1075012017
518.75 0.03710598623 0.03865759588
519.375 0.01072004691 0.06497874459
520.0 0.04524838585 0.06431678365
520.625 0.05307785912 0.06400391735
521.25 0.05975051322 0.008672381658
521.875 0.0311744614 0.04872583384
522.5 0.06531982135 0.01010536637
523.125 0.117027171 0.001637234129
523.75 0.1025139775 -0.03959764803
524.375 0.04886827242 -0.01252410578
525.0 0.00594173599 -8.352351822e-05
525.625 0.003739704474 0.03723717801
526.25 0.005971673498 0.0344431675
526.875 0.01202342419 0.03037835744
527.5 0.02389432256 0.0221192111
528.125 0.05491412013 0.0124327772
528.75 0.04341861331 -0.0113201604
529.375 0.03394035286 -0.0296044955
530.0 0.03255696104 -0.02452402428
530.625 0.005984266292 -0.09880665434
531.25 0.02676691175 -0.1621108545
531.875 -0.04188693339 -0.1380076965
532.5 -0.08013548953 -0.0886644844
533.125 -0.08506584871 -0.07619756186
533.75 -0.06221599791 -0.04410851154
534.375 -0.06007891165 -0.03754922892
535.0 -0.06062979567 -0.0172977176
535.625 -0.03270593193 -0.04920872629
536.25 -0.02665997674 -0.03407271615
536.875 -0.03618330315 -0.06678785576
537.5 -0.040009653 -0.09265369121
538.125 -0.06965313372 -0.07220621534
538.75 -0.05091285636 -0.03071739625
539.375 -0.0270418863 -0.04703898931
540.0 -0.040524703 -0.08637304912
540.625 -0.06302074659 -0.128045519
541.25 -0.0343464082 -0.08941521172
541.875 -0.04261402531 -0.08791251384
542.5 -0.04745159432 -0.09867947496
543.125 -0.1002636156 -0.07539002489
543.75 -0.09496172578 0.0159385028
544.375 -0.05458423669 0.03496212749
545.0 -0.0280099362 0.04851582243
545.625 -0.02210842987 0.06613183968
546.25 0.007428244435 0.06621939665
546.875 0.0121837516 0.06922176344
547.5 0.01104151551 0.07745569259
548.125 -0.002313350809 0.07990842279
548.75 -0.01459786916 0.06475316396
549.375 -0.02043853451 0.05209953549
550.0 -0.03074420169 0.02359381293
550.625 -0.02880418127 -0.002444216394
551.25 -0.006032109574 -0.03718421987
551.875 -0.04014468275 -0.05266406436
552.5 -0.0672103011 -0.05485508978
553.125 -0.08064696707 -0.02518621729
553.75 -0.0710607602 -0.03428889771
554.375 -0.09172376299 -0.003346845205
555.0 -0.08812982024 0.01538381946
555.625 -0.08172788158 0.02983381284
556.25 -0.08671485392 0.01695109712
556.875 -0.09348556436 0.01233335244
557.5 -0.08704776355 0.02456461399
558.125 -0.07807633943 0.02108963374
558.75 -0.05706228664 0.002258494761
559.375 -0.03270883546 -0.001073336719
560.0 -0.02185388286 -0.008903489031
560.625 -0.04045899503 -0.03461177779
561.25 -0.04265160297 -0.04493114397
561.875 -0.07193939247 -0.02609655935
562.5 -0.07497588783 0.01796742753
563.125 -0.07518610219 0.0641683504
563.75 -0.05558103711 0.06470292288
564.375 -0.02765185996 0.07383057687
565.0 -0.02138177083 0.07325417492
565.625 -0.01814126596 0.07230831236
566.25 -0.03735118024 0.02492669638
566.875 -0.05531536603 0.01976322583
567.5 -0.06183538639 0.01444599192
568.125 -0.06104505034 0.004739254336
568.75 -0.05285472266 0.002335515489
569.375 -0.02527762037 -0.01785329686
570.0 -0.02050649331 -0.03762290898
570.625 -0.04018206568 -0.05100186644
571.25 -0.03695490935 -0.04043601759
571.875 -0.05464558793 -0.03890003729
572.5 -0.09007412565 -0.01816311597
573.125 -0.1102649359 0.01520082186
573.75 -0.06383704888 0.06750264419
574.375 -0.03777413159 0.06312113578
575.0 -0.04755937669 0.06225246962
575.625 -0.05720893194 0.06742957463
576.25 -0.03929191889 0.05592414546
576.875 -0.01830059833 0.06685838086
577.5 -0.009248064123 0.06396766398
578.125 -0.01864729183 0.0580353666
578.75 -0.01426632624 0.0344997752
579.375 -0.01432395485 0.03709231286
580.0 -0.0213921501 0.03035803042
580.625 -0.03515384228 0.006931124737
581.25 -0.05366868962 0.01061675999
581.875 -0.07446569871 0.0227673101
582.5 -0.07921890629 0.0341990952
583.125 -0.06435557335 0.04339051925
583.75 -0.06014490813 0.04271810285
584.375 -0.07074399962 0.004019195437
585.0 -0.0722163836 0.00160126852
585.625 -0.06358998145 0.0231030372
586.25 -0.05795133103 0.0260048678
586.875 -0.05738109846 0.0009147181875
587.5 -0.05703697133 0.01163672402
588.125 -0.0325588013 0.04172540309
588.75 -0.01567867394 0.04987202519
589.375 -0.0417685779 0.01172133617
590.0 -0.04937143782 0.01625807473
590.625 -0.05257121111 0.04704345322
591.25 -0.02641094815 0.08279733455
591.875 -0.04325185888 0.07848131445
592.5 -0.00808741112 0.07398783393
593.125 -0.006901832359 0.05592813316
593.75 0.001694788228 0.06626392894
594.375 -0.03970835925 0.0328736253
595.0 -0.03485057921 0.0113493813
595.625 -0.02753828156 -0.003751115328
596.25 -0.0371802337 -0.001544088085
596.875 -0.02794947182 -0.02732029083
597.5 -0.0306858525 -0.02298055432
598.125 -0.01645573579 -0.01964499967
598.75 -0.01388111223 -0.01969226295
599.375 -0.01018938553 -0.04325545227
600.0 -0.0190834522 -0.06184366486
600.625 -0.02623415706 -0.07186912473
601.25 -0.04853924835 -0.0507103504
601.875 -0.0462018051 -0.05836540439
602.5 -0.0515538073 -0.0373028873
603.125 -0.03813629553 -0.03906148445
603.75 -0.03642697394 -0.02027835472
604.375 -0.01788285737 -0.01438567623
605.0 -0.00509667876 -0.03463064076
605.625 -0.0006184275235 -0.05023152597
606.25 -0.01014702356 -0.03801655577
606.875 -0.02572136258 -0.008329662768
607.5 0.02464352361 -0.01001008202
608.125 0.02014340004 -0.01163737141
608.75 0.01337916894 -0.009211571325
609.375 0.02845029629 -0.009164017749
610.0 0.04234179861 -0.006334418466
610.625 0.04998774496 -0.01572380587
611.25 0.04848998542 -0.02146329477
611.875 0.02375695971 -0.01772582086
612.5 0.04522237859 -0.001596250641
613.125 0.01931529747 0.000109836891
613.75 0.01895495332 0.01588056336
614.375 0.005564097023 0.01359705908
615.0 0.03973505743 0.03333279297
615.625 0.01659527312 0.01168168576
616.25 0.0002145202272 0.01645485884
616.875 0.006213114675 0.0327078879
617.5 0.04064847627 0.05552372451
618.125 0.02477470751 0.03582441052
618.75 0.01572043032 0.03475731013
619.375 0.005328274615 0.02814756937
620.0 0.04118186682 0.05215510743
620.625 0.04314013747 0.01690435162
621.25 0.01792744733 -0.004961129902
621.875 -0.02060505207 -0.02922892085
622.5 -0.01192995705 0.01900129181
623.125 -0.03287953652 0.0410849039
623.75 -0.02889201592 0.05929987801
624.375 -0.04390392077 0.03708299379
625.0 -0.04904281713 0.02871736227
625.625 -0.05183920008 0.04137368729
626.25 -0.03709182078 0.05730536177
626.875 -0.01970831464 0.05472637749
627.5 -0.03032169461 0.02247333782
628.125 -0.02477549042 0.03852670095
628.75 -0.03051556285 0.0249278935
629.375 -0.0148678423 0.006080378297
630.0 -0.008451456707 -0.01904038207
630.625 -0.004582889847 -0.01672958758
631.25 0.01274228611 -0.0469715692
631.875 0.002901245638 -0.04915998272
632.5 -0.003229687579 -0.0746628728
633.125 -0.02550526431 -0.05800617344
633.75 -0.02666278413 -0.05351237072
634.375 -0.03103796072 -0.05759939465
635.0 -0.02953155422 -0.07051369097
635.625 -0.04313035212 -0.0450396296
636.25 -0.03112442073 -0.03140183984
636.875 -0.01076694954 -0.04449849457
637.5 -0.02310446761 -0.0639576959
638.125 -0.02372696055 -0.05889803945
638.75 -0.03075849998 -0.01748888552
639.375 0.00243680985 -0.02039839366
640.0 0.0485530357 -0.01738403934
640.625 0.06866304192 -0.015472291
641.25 0.03156709429 -0.03581315434
641.875 0.04028099808 -0.025192765
642.5 0.05718183556 0.003195309366
643.125 0.06697462128 0.0212293635
643.75 0.055022153 -0.002095486329
644.375 0.0489011672 -0.00785929595
645.0 0.04459599893 0.008853715576
645.625 0.05270989995 0.02740403983
646.25 0.04146870692 0.0114675077
646.875 0.07067832344 0.02923416657
647.5 0.05732592562 0.01316087586
648.125 0.06083685099 0.03206730409
648.75 0.04647540398 0.04665388035
649.375 0.04382981164 0.07901431153
650.0 0.04367494084 0.06719895031
650.625 0.03076470329 0.0665153076
651.25 0.005195197411 0.07466073933
651.875 -0.02639839289 0.06159226703
652.5 -0.02696448174 0.04533761698
653.125 -0.02846318721 0.0321216031
653.75 -0.02840650622 0.007393747923
654.375 -0.0183952696 -0.02688805233
655.0 -0.02375977854 -0.04560996012
655.625 -0.05186571212 -0.0696436636
656.25 -0.06795368991 -0.06289598843
656.875 -0.07384165368 -0.04219302639
657.5 -0.07437402704 -0.05298120741
658.125 -0.09000327954 -0.05757075887
658.75 -0.1140246829 -0.04744520287
659.375 -0.07754898583 0.01935542541
660.0 -0.05589335998 0.03136099018
660.625 -0.05531791473 0.02893359076
661.25 -0.06644734511 0.01393564872
661.875 -0.02453070183 0.02114420242
662.5 -0.03626460798 0.01882740231
663.125 -0.06778229559 0.006703730886
663.75 -0.07558335165 -0.03382293869
664.375 -0.04293279409 -0.05847434657
665.0 -0.02161747135 -0.09687881389
665.625 0.01945995541 -0.1173675971
666.25 0.02409905218 -0.07279101121
666.875 0.03985123232 -0.0785685167
667.5 0.05015271067 -0.08214376349
668.125 0.06457536854 -0.05466151385
668.75 0.02592830388 -0.03235546735
669.375 0.04974234988 -0.02372831162
670.0 0.07848203425 -0.02636813221
670.625 0.07539387537 -0.01356728411
671.25 0.06799935229 -0.03612063818
671.875 0.06723664952 -0.0355215761
672.5 0.05862169005 -0.07464522733
673.125 0.0319988521 -0.09541889463
673.75 0.007738342312 -0.07804333014
674.375 0.03353068868 -0.07622682124
675.0 0.05074953038 -0.04789676417
675.625 0.06287549846 -0.02909332071
676.25 0.04757088252 -0.005184313657
676.875 0.06087399917 0.02473746778
677.5 0.02740161787 0.03856003902
678.125 0.03223257493 0.05232617741
678.75 0.05805110033 0.07919347551
679.375 0.04871772041 0.1084753958
680.0 0.04743081596 0.0881008706
680.625 0.07185328454 0.06328211576
681.25 0.1105153482 0.03701043007
681.875 0.09274280355 0.01549352463
682.5 0.08450618242 -0.02289524052
683.125 0.07131243639 -0.02819442913
683.75 0.07128492004 0.002628249553
684.375 0.06216928406 0.05940284278
685.0 -0.0002243719711 0.04697556487
685.625 -0.04541785432 0.04135673397
686.25 -0.07222665108 0.003828182974
686.875 -0.09167466419 -0.02877350175
687.5 -0.09037003963 -0.05130760062
688.125 -0.1094936853 -0.06785159355
688.75 -0.09418618625 -0.08135162115
689.375 -0.08810381075 -0.06131066654
690.0 -0.05915880792 -0.04960329739
690.625 -0.07959639962 -0.05652380747
691.25 -0.07054541196 -0.03833972632
691.875 -0.0584285674 0.01463268385
692.5 -0.03691040669 0.004678816767
693.125 -0.04638272053 0.07217228496
693.75 -0.02494215744 0.1188226228
694.375 0.007813665736 0.1022711321
695.0 -0.01242500277 0.1106751867
695.625 -0.09378130386 0.03761222145
696.25 -0.09212701285 -0.05947363759
696.875 -0.0211027707 -0.1052998909
697.5 0.04233313243 -0.09673936167
698.125 0.05442588032 -0.061388956
698.75 0.04202508862 -0.03448613579
699.375 0.06185894539 -0.02854634397
700.0 0.08750333253 -0.01825473528
700.625 0.05688757396 0.03709489963
701.25 0.05266821369 0.04131404055
701.875 0.08993848517 0.03299877189
702.5 0.1424977381 -0.04252100014
703.125 0.08171996475 -0.05384611513
703.75 -0.01774396356 -0.087170781
704.375 -0.04539398081 -0.0593362378
705.0 -0.02227484231 -0.08976643983
705.625 0.01839117524 -0.08862796356
706.25 0.05176208577 -0.02709557719
706.875 0.04573119293 0.03175944644
707.5 0.01310217305 0.07472800817
708.125 -0.02272123376 0.09286074853
708.75 -0.08387712112 0.05477616294
709.375 -0.09154713224 0.01074503736
710.0 -0.07601447374 -0.02993332939
710.625 -0.07496327598 -0.04711331094
711.25 -0.03950570611 -0.09022590771
711.875 -0.07301952642 -0.07412784713
712.5 -0.07109692852 -0.01509745951
713.125 -0.04011877094 0.0498577257
713.75 -0.05586566646 0.01466420596
714.375 -0.05068612118 0.06041165707
715.0 -0.03482031978 0.0517271142
715.625 -0.02997620684 0.06350600103
716.25 -0.04744958164 0.07534305116
716.875 -0.1139980355 0.01643207933
717.5 -0.08465137799 -0.04445853398
718.125 -0.06628494264 -0.04829559657
718.75 -0.07275312919 -0.0355226109
719.375 -0.01539018341 -0.08287482962
720.0 0.00833326304 -0.076227549
720.625 0.04469985405 -0.0485333435
721.25 0.05044762375 0.001090884296
721.875 -0.0233179576 0.03245638991
722.5 -0.06221349584 0.02369094704
723.125 -0.05447331819 0.05684738808
723.75 0.01817001019 0.07801828222
724.375 0.0580381181 0.07717715646
725.0 0.08161670311 -0.0009851861033
725.625 0.06162488915 -0.03702488931
726.25 0.05989730749 -0.03386963007
726.875 0.03309199835 -0.03970950455
727.5 0.03764218078 0.006491975341
728.125 0.01949554834 0.06296646642
728.75 0.0003113482423 0.05787553973
729.375 0.0291510751 0.01756204396
730.0 0.03013912598 0.06228199528
730.625 0.01194742657 0.04610195851
731.25 -0.01197339122 0.04050574208
731.875 -0.03407135529 0.02703860981
732.5 -0.03209099218 0.008417445596
733.125 -0.0474766482 -0.03604488955
733.75 -0.0299417666 -0.003372490337
734.375 -0.003190368483 0.007961243437
735.0 -0.05845946637 -0.04875717432
735.625 -0.03611811355 -0.02094272916
736.25 -0.03323904077 -0.019161474
736.875 -0.02886443339 -0.02789263856
737.5 -0.08544565527 -0.04395546627
738.125 -0.0578468144 -0.0270399266
738.75 -0.03707373465 -0.006606330701
739.375 -0.006017364817 -0.006518818805
740.0 0.02266858882 -0.01146952017
740.625 -0.02693177444 -0.05177852301
741.25 -0.03174988465 -0.0366832711
741.875 0.01200078569 -0.03684228423
742.5 0.008671919578 0.02159432358
743.125 0.01695455822 0.05171345104
743.75 -0.009162820371 0.04176013373
744.375 -0.03269837611 0.01495645926
745.0 -0.06487830983 -0.002595647531
745.625 -0.04396102084 0.06171349525
746.25 0.004926293582 0.08803918549
746.875 0.03993755142 0.05379101031
747.5 0.01762019276 0.0183500609
748.125 0.02223668191 0.008343428691
748.75 0.01996256055 0.006570228671
749.375 0.02774546405 -0.01871380153
750.0 0.008203783961 -0.02689179072
