!Created with skrf (http://scikit-rf.org).
# GHz S RI R 50.0 
!freq ReS11 ImS11
500.0 -0.01769422306 0.02884091184
500.625 0.01666724021 0.0298420588
501.25 0.0294966089 0.01921234465
501.875 0.01787654969 0.03213426493
502.5 0.001846216441 0.06231390278
503.125 0.03490900069 0.02547558392
503.75 0.04400050636 0.007047327203
504.375 0.04692404504 0.003490443909
505.0 0.06325439165 -0.01996035901
505.625 0.04257341794 -0.06059775272
506.25 0.03888685075 -0.05296762611
506.875 0.06403362212 -0.04270486084
507.5 0.0595136923 -0.03380893647
508.125 0.07178076962 -0.0194924107
508.75 0.04873113403 -0.04936663994
509.375 0.02694419218 -0.04540618429
510.0 0.07402091045 -0.03498891396
510.625 -0.00893601444 -0.06403146597
511.25 -0.03537219233 -0.04909518949
511.875 -0.04915606694 -0.01624128676
512.5 -0.03927346828 -0.005710861822
513.125 -0.01119203508 0.03568763452
513.75 -0.03008041967 0.03938332228
514.375 -0.02597560253 0.06581835096
515.0 0.03341511025 0.06370698705
515.625 -0.03724714059 0.08857726107
516.25 0.02442182886 0.1053864687
516.875 -0.05491792136 0.1216367416
517.5 0.0316720405 0.1090513484
518.125 -0.05279020597 0.1219663397
518.75 0.02637379097 0.04920283348
519.375 -0.006454052508 0.09109234955
520.0 0.06017252209 0.04749156097
520.625 0.05801831634 0.04083572563
521.25 0.06104766453 0.02197126791
521.875 0.0340511072 0.05134822227
522.5 0.06600671176 0.00127879755
523.125 0.1130488992 -0.02422711948
523.75 0.1076234735 -0.04271088729
524.375 0.05878150647 -0.01821647463
525.0 0.009090730262 -0.0168933679
525.625 0.0002479096677 0.01144898169
526.25 0.006721488196 0.04556639861
526.875 0.01637851666 0.04562001484
527.5 0.0188430231 0.009581176928
528.125 0.03231235836 0.00345066591
528.75 0.05552861564 -0.009464520145
529.375 0.05781992043 -0.04029257208
530.0 0.0236178236 -0.02541105511
530.625 0.01247964213 -0.07948017172
531.25 0.02046901484 -0.158693976
531.875 -0.05139441912 -0.1622716625
532.5 -0.08349834809 -0.07052864774
533.125 -0.06636979234 -0.04359170901
533.75 -0.07175297094 -0.05916510328
534.375 -0.07751631821 -0.05084808775
535.0 -0.05172583885 -0.001334566786
535.625 -0.03017204147 -0.02972646113
536.25 -0.03391665609 -0.03985899638
536.875 -0.04529194961 -0.06681200861
537.5 -0.04262046939 -0.08735876628
538.125 -0.06922019041 -0.06292659946
538.75 -0.05806910688 -0.03599591658
539.375 -0.04214625786 -0.05514370637
540.0 -0.03323322665 -0.060949152
540.625 -0.05340906385 -0.1042277069
541.25 -0.03896320825 -0.08780215213
541.875 -0.04914101752 -0.08565504471
542.5 -0.05104409818 -0.09582386754
543.125 -0.09068769247 -0.06092130122
543.75 -0.09888994589 0.01521157179
544.375 -0.07186873448 0.03915623068
545.0 -0.01280851184 0.04486376914
545.625 -0.01315170678 0.05594208917
546.25 0.01000073206 0.0713115942
546.875 0.01889225776 0.07318822654
547.5 0.01890293987 0.05975124352
548.125 0.001599375773 0.07027863739
548.75 -0.0120730405 0.06960459057
549.375 -0.02644414799 0.08275379735
550.0 -0.01493732738 0.0239937171
550.625 -0.01231801927 -0.002098065822
551.25 -0.01670080581 -0.02973669412
551.875 -0.06196977156 -0.04145834331
552.5 -0.05479473181 -0.04681238491
553.125 -0.06417201141 -0.02713951011
553.75 -0.07938754396 -0.02736077278
554.375 -0.103605861 0.009712767142
555.0 -0.07673426246 0.01481652025
555.625 -0.07384831086 0.0265833863
556.25 -0.08718532808 0.02026607114
556.875 -0.0955625311 0.01648722008
557.5 -0.09175199613 0.03334245633
558.125 -0.07567705034 0.02709924227
558.75 -0.06767644609 0.009048564515
559.375 -0.0501491808 0.000332367676
560.0 -0.01205342621 -0.00521931743
560.625 -0.02969807179 -0.03208329417
561.25 -0.05457582984 -0.03644824825
561.875 -0.08179749404 -0.01935895716
562.5 -0.07082717235 0.0173191272
563.125 -0.06985609444 0.04851466615
563.75 -0.05615538099 0.0831654394
564.375 -0.02596615994 0.09229323796
565.0 -0.0165924276 0.06239587974
565.625 -0.01696096942 0.05990939437
566.25 -0.03968127019 0.04097881101
566.875 -0.05660569916 0.02667022526
567.5 -0.06275393026 0.0199884978
568.125 -0.06263813744 0.009420220898
568.75 -0.0427396924 0.0002377432805
569.375 -0.03063838823 -0.01447944957
570.0 -0.02942552091 -0.0306043122
570.625 -0.03892868683 -0.04702955576
571.25 -0.0410937916 -0.03682166815
571.875 -0.05478143628 -0.03479074741
572.5 -0.08916337967 -0.01146513232
573.125 -0.1083144715 0.02129089823
573.75 -0.06178132928 0.05864997762
574.375 -0.0334120988 0.06775373906
575.0 -0.04571600427 0.05670041527
575.625 -0.0542938596 0.06377329302
576.25 -0.03539732 0.06563141496
576.875 -0.006208485528 0.082804572
577.5 -0.01224490295 0.05760635957
578.125 -0.01860886154 0.04787127748
578.75 -0.01040816776 0.04391970892
579.375 -0.01151952521 0.04206716434
580.0 -0.01613775667 0.03778428124
580.625 -0.03387553061 0.00941070647
581.25 -0.05542668625 0.008492394283
581.875 -0.07065862229 0.03195962282
582.5 -0.07491753771 0.05019097151
583.125 -0.06592008182 0.0305493443
583.75 -0.06146396936 0.02096166414
584.375 -0.06951135144 0.02200033042
585.0 -0.07924655105 0.01814473281
585.625 -0.05951065041 0.01604181517
586.25 -0.05620857452 0.008395996309
586.875 -0.05986022326 0.007209150298
587.5 -0.05801920034 0.02362304589
588.125 -0.0363691594 0.03350414212
588.75 -0.03050088387 0.03080452909
589.375 -0.03291411534 0.02727546311
590.0 -0.03576755882 0.0283855416
590.625 -0.06087869072 0.04476354372
591.25 -0.04834116633 0.07737183893
591.875 -0.03062120862 0.08782531565
592.5 0.004030455535 0.07786957765
593.125 -0.01515544442 0.05378860731
593.75 -0.02411264112 0.05556942884
594.375 -0.02997083818 0.04880428338
595.0 -0.02612923168 0.04064845124
595.625 -0.02879031471 -0.01390047219
596.25 -0.03266108286 -0.02170018502
596.875 -0.03358590751 -0.01962731707
597.5 -0.03544711242 -0.008987520794
598.125 -0.01204793878 -0.03372247509
598.75 -0.01662529726 -0.02290443215
599.375 -0.01206127055 -0.03532863509
600.0 -0.02136317125 -0.04218237497
600.625 -0.02366416582 -0.07369472544
601.25 -0.03395799057 -0.0776264882
601.875 -0.05324321336 -0.04465619588
602.5 -0.05741084718 -0.01739547561
603.125 -0.03402575315 -0.05527194456
603.75 -0.02959549429 -0.0278309484
604.375 -0.02044365633 -0.01835494434
605.0 -0.00680222259 -0.03800578159
605.625 -0.01618107518 -0.03714626466
606.25 -0.006154198005 -0.0391925288
606.875 -0.004019062755 -0.02126654827
607.5 0.006822808196 -0.00583474447
608.125 0.0125766891 -0.007858258603
608.75 0.02552792135 -0.02439387937
609.375 0.02195051911 -0.01087824262
610.0 0.04157854096 -0.0100410841
610.625 0.03559925784 -0.01239243613
611.25 0.05172714002 -0.02084384298
611.875 0.05241844753 -0.02031319975
612.5 0.0352214596 -0.01386786368
613.125 0.0003940175778 -0.01196953134
613.75 0.03418274631 0.02014493737
614.375 0.02858239499 0.02411755448
615.0 0.02747187915 0.02269509067
615.625 0.004016366429 0.004602948127
616.25 0.01019952658 0.01859255708
616.875 0.01832833267 0.03543451572
617.5 0.02984959261 0.04089554426
618.125 0.003897773896 0.02126787479
618.75 0.02828410493 0.04095878529
619.375 0.02734114944 0.04183523787
620.0 0.0307256632 0.03486849864
620.625 0.01303695184 0.0005542418261
621.25 0.03410733224 0.01165021485
621.875 0.001686126922 -0.008517123404
622.5 -0.02462481019 0.0128887314
623.125 -0.03866268843 0.03728786652
623.75 -0.0137224149 0.06546682865
624.375 -0.02726642399 0.05187007324
625.0 -0.0489365412 0.02537944633
625.625 -0.04747302346 0.04076266291
626.25 -0.04773035874 0.04732878286
626.875 -0.0184330339 0.06099713725
627.5 -0.01246085979 0.04445222978
628.125 -0.02470535339 0.02493306374
628.75 -0.02956699103 -0.002813193678
629.375 -0.02259141553 0.02381511583
630.0 -0.01252259582 0.01563626313
630.625 0.001715618006 -0.02125789191
631.25 0.0007705491651 -0.03820470545
631.875 -0.006559691679 -0.04687121346
632.5 -0.01371023755 -0.04916303092
633.125 -0.01368099454 -0.06284505587
633.75 -0.01689680772 -0.0721969158
634.375 -0.04780534448 -0.04287072294
635.0 -0.04454419359 -0.04997590527
635.625 -0.04029254177 -0.04689526642
636.25 -0.03140112422 -0.02852896674
636.875 -0.01044373034 -0.05690991221
637.5 -0.04249306382 -0.04836319288
638.125 -0.04708026109 -0.03810923592
638.75 -0.02497303768 -0.02425146286
639.375 0.02107379262 -0.03274194654
640.0 0.02346408969 -0.0285366813
640.625 0.0413285834 -0.02597112367
641.25 0.04359369802 -0.03500981966
641.875 0.06620199046 -0.02241763718
642.5 0.05547654403 -0.004477117371
643.125 0.05493171859 0.009409258838
643.75 0.06201211614 0.00395793397
644.375 0.06866228873 -0.0008346331732
645.0 0.04032039239 -0.005315919995
645.625 0.03104606756 0.004986964287
646.25 0.05354838035 0.02075491994
646.875 0.08207150677 0.03628468582
647.5 0.05259431733 -0.0033763502
648.125 0.04617554618 0.01627545548
648.75 0.05123351736 0.05185384653
649.375 0.04650266022 0.08107903967
650.0 0.04597297601 0.05810488981
650.625 0.03566682918 0.06506662769
651.25 0.006867534359 0.07797089343
651.875 -0.02413372883 0.06405792341
652.5 -0.03281676012 0.052922199
653.125 -0.02298788202 0.03633867706
653.75 -0.03635522961 0.009553519061
654.375 -0.03366672473 -0.03730452461
655.0 -0.01589190487 -0.03109924166
655.625 -0.04239589063 -0.05483158107
656.25 -0.07588600894 -0.06661938832
656.875 -0.07653921177 -0.04133639534
657.5 -0.08494674794 -0.05196047971
658.125 -0.08099177793 -0.03853487155
658.75 -0.09460163976 -0.02370592541
659.375 -0.08669805777 0.01718313783
660.0 -0.07798835334 0.03519682639
660.625 -0.03600387832 0.03504819904
661.25 -0.04154974545 0.0209838621
661.875 -0.0329638529 0.02871328766
662.5 -0.05097689814 0.03701286827
663.125 -0.06284869835 0.01057927512
663.75 -0.05586329223 -0.0269477474
664.375 -0.0529902393 -0.05992203227
665.0 -0.02361951499 -0.09001194307
665.625 0.01214235781 -0.09872941054
666.25 0.0266102868 -0.08414974808
666.875 0.04624493541 -0.09397905502
667.5 0.04158502957 -0.07508185397
668.125 0.04982264616 -0.05377555161
668.75 0.03304441936 -0.03609222627
669.375 0.04894508785 -0.02786927856
670.0 0.06766113247 -0.02926207204
670.625 0.0705041194 -0.02075184716
671.25 0.05901919439 -0.03137263821
671.875 0.06524229555 -0.03992997283
672.5 0.0565274776 -0.09728243146
673.125 0.02750135837 -0.0963332487
673.75 0.00071857891 -0.09222421467
674.375 0.02960862119 -0.09335934242
675.0 0.03827385801 -0.04147872629
675.625 0.05764230977 -0.03070632836
676.25 0.06034491424 -0.01112939751
676.875 0.0742928144 0.01899338731
677.5 0.02458067865 0.02945910334
678.125 0.03167784275 0.04856880192
678.75 0.04344804996 0.07584002348
679.375 0.0580981501 0.1022937846
680.0 0.05666031055 0.09175185259
680.625 0.06427280808 0.05463771518
681.25 0.09155587917 0.03457923283
681.875 0.1117391702 0.009286646053
682.5 0.09385501668 -0.02870519053
683.125 0.06995648931 -0.02871299229
683.75 0.06725234209 -0.003006081359
684.375 0.04839660962 0.05142638206
685.0 0.01071503835 0.05947024157
685.625 -0.04014140644 0.05073078305
686.25 -0.06195844513 -0.00327882849
686.875 -0.07668089909 -0.03667934311
687.5 -0.0923442974 -0.04190356094
688.125 -0.1224232646 -0.05851821231
688.75 -0.08183824196 -0.07056536599
689.375 -0.07086858938 -0.05633380253
690.0 -0.07458933214 -0.0469425449
690.625 -0.1071309061 -0.05076116587
691.25 -0.05964081463 -0.02923896393
691.875 -0.04979944518 0.01110411275
692.5 -0.03711795073 0.02127156075
693.125 -0.03841636502 0.0757506786
693.75 -0.006348191459 0.1274727994
694.375 0.009070123432 0.09869351896
695.0 -0.02562558861 0.09089728213
695.625 -0.09205881553 0.0582469663
696.25 -0.1195553965 -0.04628819772
696.875 -0.01796521895 -0.09837830525
697.5 0.03682650033 -0.0952156664
698.125 0.05328630819 -0.07493250608
698.75 0.04073780546 -0.05269965119
699.375 0.05744003595 -0.01353513831
700.0 0.07349153009 0.005068660247
700.625 0.06796232026 0.03023665421
701.25 0.06548397675 0.02510183773
701.875 0.08026583276 0.04688412196
702.5 0.1312955627 -0.007438018926
703.125 0.08439545285 -0.07497165713
703.75 -0.02317678173 -0.09145656672
704.375 -0.03959061787 -0.06038048827
705.0 -0.02369366859 -0.08604285903
705.625 0.03422380239 -0.06762083252
706.25 0.04878715076 -0.04040425818
706.875 0.05737575163 0.0125803132
707.5 -0.005718743918 0.07892082545
708.125 -0.04876949344 0.08265327083
708.75 -0.06886270454 0.07271644668
709.375 -0.08829988428 0.04286686119
710.0 -0.06909778948 -0.03991947277
710.625 -0.07018640732 -0.05026659786
711.25 -0.06488211492 -0.07843997065
711.875 -0.08910646652 -0.06253205423
712.5 -0.05909987729 -0.01780070423
713.125 -0.04586923194 0.02231146855
713.75 -0.03771979209 0.03691616072
714.375 -0.02615741143 0.06872045476
715.0 -0.04223059732 0.05151129221
715.625 -0.03107674936 0.06248703167
716.25 -0.07707993208 0.07207398897
716.875 -0.1134086573 0.02464198981
717.5 -0.09585709328 -0.01000439381
718.125 -0.05962549215 -0.05876276582
718.75 -0.05503892966 -0.06346250829
719.375 -0.03542915983 -0.07147897426
720.0 0.007980406182 -0.07807233547
720.625 0.04796546781 -0.04282901761
721.25 0.03711812119 0.02431411552
721.875 -0.003951309184 0.03211952568
722.5 -0.0239088306 0.02797709973
723.125 -0.07162360404 0.05447219835
723.75 -0.02147086081 0.1098705626
724.375 0.06338249501 0.05769868797
725.0 0.06204726281 -0.02213396529
725.625 0.07259893088 -0.03177860081
726.25 0.06249619621 -0.03234406067
726.875 0.05071397831 -0.02392707252
727.5 0.04435767511 0.004756716153
728.125 0.02973692744 0.0150896882
728.75 -0.01118994599 0.08394636857
729.375 0.02858912066 0.06327631714
730.0 0.03299019779 0.03687337177
730.625 0.01484654319 0.0385382271
731.25 -0.0200090278 0.04607554312
731.875 -0.04264787485 0.02757902904
732.5 -0.05970215073 -0.0004491707488
733.125 -0.04703930907 -0.01551730974
733.75 -0.03198337394 -0.01382258709
734.375 -0.02498351951 -0.03131277075
735.0 -0.038467156 -0.02550052828
735.625 -0.0003174154135 -0.009509581906
736.25 -0.05110198004 -0.01744327779
736.875 -0.05822405775 -0.02181999453
737.5 -0.06773644146 -0.0368891063
738.125 -0.06341919126 -0.02170775512
738.75 -0.04560554262 -0.01969801977
739.375 -0.0154179477 -0.01641663025
740.0 -0.003436991145 -0.03541220821
740.625 -0.01716542586 -0.03489091399
741.25 0.003010467937 -0.01854206638
741.875 0.01029705621 -0.06356302871
742.5 0.03609255378 0.007240132989
743.125 -0.001626400866 0.0361951811
743.75 -0.03997914794 0.006648913461
744.375 -0.03389870431 0.04155969614
745.0 -0.03614267798 0.04354607805
745.625 -0.04558918782 0.04941634224
746.25 -0.03088562647 0.06748876116
746.875 0.06227348224 0.05348585557
747.5 0.04187603588 0.00547426809
748.125 0.01617885311 0.007890710183
748.75 0.01969047556 0.005794387043
749.375 0.03394845576 0.004688059258
750.0 -0.01404489004 -0.03333459789
