!Created with skrf (http://scikit-rf.org).
# GHz S RI R 50.0 
!freq ReS11 ImS11
500.0 -0.02798544658 0.02885706018
500.625 0.03242300989 0.02403631763
501.25 0.03811708356 0.0145812197
501.875 0.02004156298 0.02878386037
502.5 -0.001291058318 0.06201985594
503.125 0.03040314281 0.0367449482
503.75 0.0466046742 0.02227153782
504.375 0.05165527339 0.01528608321
505.0 0.05401992521 -0.02192671912
505.625 0.06482902188 -0.0372605183
506.25 0.04356695363 -0.04497741937
506.875 0.06869253769 -0.02470630363
507.5 0.03532706888 -0.06109692744
508.125 0.06997895129 -0.02677061116
508.75 0.04238416311 -0.05382806988
509.375 0.06196402039 -0.03974173134
510.0 0.0502436837 -0.05119909527
510.625 -0.003341956169 -0.06402200422
511.25 -0.03117890844 -0.05587268885
511.875 -0.04184292073 -0.02464480626
512.5 -0.03278927213 0.005728027447
513.125 -0.02250759636 0.0259110621
513.75 -0.02177238512 0.03806397431
514.375 -0.03156559287 0.06541724536
515.0 0.00352930137 0.0810717405
515.625 -0.05458528903 0.08161161064
516.25 0.02032515856 0.09900179838
516.875 -0.07354923021 0.1144766601
517.5 0.05922794598 0.09193244727
518.125 -0.04994635133 0.1081053446
518.75 0.008175119514 0.05341546759
519.375 -0.001357442981 0.07226948904
520.0 0.03983910689 0.06791864748
520.625 0.04717964311 0.05060428813
521.25 0.04898701579 0.03198771909
521.875 0.02412751432 0.0589764018
522.5 0.06080004344 0.008203271981
523.125 0.1046210732 -0.01258076117
523.75 0.09045678355 -0.04954303911
524.375 0.04198469564 0.02454488704
525.0 -0.001937833741 0.003029663733
525.625 0.0001171013255 0.02662650752
526.25 -0.00316679683 0.05827842413
526.875 0.01241997427 0.02703251518
527.5 0.02129689124 0.03018494827
528.125 0.05098214574 0.01690296818
528.75 0.05803450958 0.004961919502
529.375 0.04425450264 -0.02157362648
530.0 0.02924034697 -0.01849770548
530.625 0.0163057363 -0.07549039721
531.25 0.0412523257 -0.1857843434
531.875 -0.04344553251 -0.128482753
532.5 -0.07194873193 -0.08235010077
533.125 -0.07394559868 -0.0784375623
533.75 -0.06241822918 -0.07640138109
534.375 -0.06225032655 -0.04462581702
535.0 -0.05639678279 -0.0261174719
535.625 -0.02151604129 -0.04383734781
536.25 -0.03049304241 -0.05023886119
536.875 -0.02646748833 -0.05273652644
537.5 -0.03206951708 -0.0867062262
538.125 -0.05771091161 -0.05654659876
538.75 -0.05426450428 -0.04609553765
539.375 -0.02185330853 -0.03843980419
540.0 -0.03682452467 -0.09715649565
540.625 -0.04225480768 -0.1091503072
541.25 -0.03332911004 -0.1028026809
541.875 -0.03029357704 -0.06946014711
542.5 -0.03726511975 -0.09266869588
543.125 -0.08852163815 -0.06938176491
543.75 -0.1021388588 0.004239468721
544.375 -0.05862440561 0.0301363686
545.0 -0.0351046836 0.04426024173
545.625 -0.02452301845 0.05547255094
546.25 -0.0005904612567 0.06729523228
546.875 0.00770662913 0.07818973068
547.5 -0.000760135017 0.08074302291
548.125 -0.003714720114 0.06583288428
548.75 -0.02533348274 0.07512262976
549.375 -0.02545389138 0.05350660307
550.0 -0.03819652285 0.01412851728
550.625 -0.02241725041 -0.01108397565
551.25 -0.01160635541 -0.04283906163
551.875 -0.04609848834 -0.05661056128
552.5 -0.06182668392 -0.05928798301
553.125 -0.0726533605 -0.03168789608
553.75 -0.08421533234 -0.03423898175
554.375 -0.09994266442 -0.005247326077
555.0 -0.09463579928 0.00978659043
555.625 -0.07555170619 0.01900304206
556.25 -0.08353754795 0.008017778802
556.875 -0.1007280342 0.009303585191
557.5 -0.07234084835 0.01679146964
558.125 -0.06980162441 0.01624732951
558.75 -0.05863299252 -0.00397141683
559.375 -0.03505115533 -0.004990747431
560.0 -0.0225566309 -0.01209980077
560.625 -0.02866636286 -0.04345214632
561.25 -0.05634566744 -0.05021765523
561.875 -0.07755136612 -0.02844942215
562.5 -0.07175060301 0.009064821699
563.125 -0.07982301526 0.05470975461
563.75 -0.0678036009 0.08039682554
564.375 -0.03034813336 0.07555843984
565.0 -0.02590482257 0.07016188618
565.625 -0.02554429807 0.05956801733
566.25 -0.05039078667 0.033589058
566.875 -0.06042293299 0.02011653893
567.5 -0.04802367052 0.0003079902815
568.125 -0.05132478197 -0.003617384665
568.75 -0.04113774438 -0.003936583025
569.375 -0.03206388585 -0.02141373489
570.0 -0.003551121978 -0.04041701687
570.625 -0.02361811178 -0.05739591785
571.25 -0.03600390005 -0.0430562381
571.875 -0.06254439738 -0.03651454061
572.5 -0.07673089696 -0.03611077866
573.125 -0.1032433428 0.001658247202
573.75 -0.06329940126 0.05592703453
574.375 -0.03932404165 0.06984392371
575.0 -0.05583029065 0.04838967001
575.625 -0.06044843742 0.05190061562
576.25 -0.03965151078 0.06462925815
576.875 -0.0148229066 0.06817029498
577.5 -0.01704552559 0.06661675557
578.125 -0.02313817156 0.04573059771
578.75 -0.01826365887 0.03258294541
579.375 -0.01635426761 0.04210628278
580.0 -0.02618436076 0.006840165662
580.625 -0.03809062736 -0.005348786143
581.25 -0.05918788797 -0.00317342041
581.875 -0.07454741885 0.03367384444
582.5 -0.0779163632 0.01838301993
583.125 -0.06846044318 0.04101147313
583.75 -0.06038045564 0.0295821693
584.375 -0.07375370626 0.01836880222
585.0 -0.07586594742 0.00478474935
585.625 -0.06341679223 0.01437641172
586.25 -0.05439534298 0.005531397021
586.875 -0.06301699065 0.008764022119
587.5 -0.05094361162 -0.002516318715
588.125 -0.03498620475 0.03743535856
588.75 -0.0260931687 0.03521765609
589.375 -0.03441461328 0.02592673423
590.0 -0.04640553858 0.01848297292
590.625 -0.05158631771 0.04985721247
591.25 -0.04083308695 0.08128606172
591.875 -0.03907056307 0.08413168503
592.5 -0.001633934413 0.07341110549
593.125 -0.005602235905 0.06074573763
593.75 -0.008537463766 0.06023339244
594.375 -0.02899842402 0.04790646428
595.0 -0.03170033654 0.01344514366
595.625 -0.02862792021 -0.002550996409
596.25 -0.03381850439 -0.01945441299
596.875 -0.02778267714 -0.0267696537
597.5 -0.03289425598 -0.01428335999
598.125 -0.01608091802 -0.02507517152
598.75 -0.006836783996 -0.03730992948
599.375 -0.01148494888 -0.02998639569
600.0 -0.008170280095 -0.07760268268
600.625 -0.01899122833 -0.07874871837
601.25 -0.03858177029 -0.06532822117
601.875 -0.05080106981 -0.04099736831
602.5 -0.05450041193 -0.02690437431
603.125 -0.04242720635 -0.03566264258
603.75 -0.02228517773 -0.03062418676
604.375 -0.008158051656 -0.02545419206
605.0 -0.01422369051 -0.01996558256
605.625 0.01970059033 -0.0517810492
606.25 -0.001662925433 -0.03395060161
606.875 -0.003857493393 -0.01262762941
607.5 0.001909136879 0.0001664958582
608.125 0.04448767524 -0.01688305956
608.75 0.02730251982 -0.02043912034
609.375 0.03663142073 -0.01338953779
610.0 0.02592346152 0.0008500507266
610.625 0.06980537927 -0.007955500501
611.25 0.0578502651 -0.01721967098
611.875 0.05359750984 -0.01072035874
612.5 0.0226027897 -0.01442558824
613.125 0.01051011917 -0.005642909943
613.75 0.01000048816 0.01014610749
614.375 0.02133797982 0.02636159951
615.0 0.0269721858 0.02098499737
615.625 0.0004845974781 0.005295454156
616.25 0.02088546256 0.03134450189
616.875 0.02338463587 0.04316368528
617.5 0.02159437737 0.03614909048
618.125 0.01230904469 0.02608707025
618.75 0.01771862061 0.03184190686
619.375 0.01803529024 0.03940835323
620.0 0.01980639879 0.02567670698
620.625 0.02744204207 0.01471090805
621.25 0.01362376319 -0.005283202304
621.875 -0.007256037026 -0.02208650772
622.5 -0.03581630133 0.008979580287
623.125 -0.05292885074 0.04000615879
623.75 -0.02591596701 0.05697912452
624.375 -0.03238030386 0.04522693668
625.0 -0.0450264229 0.03325085096
625.625 -0.06862132474 0.02157315913
626.25 -0.03735303355 0.08325950544
626.875 -0.02126815344 0.05968853505
627.5 -0.02006114636 0.04349184744
628.125 -0.02921599686 0.005004425794
628.75 -0.03425220009 0.02176529127
629.375 -0.01715690498 0.01139727931
630.0 -0.004221171205 -0.01429186745
630.625 0.01059999734 -0.0386835979
631.25 -0.005786185212 -0.03033834582
631.875 -0.002714597584 -0.04686476109
632.5 -0.01385594128 -0.05282424421
633.125 0.003032095177 -0.06949904397
633.75 -0.01316004463 -0.06451879808
634.375 -0.0148019768 -0.06378379875
635.0 -0.03243866771 -0.0562280958
635.625 -0.04018783753 -0.04027606856
636.25 -0.02242144196 -0.04556105233
636.875 -0.03020083358 -0.03225751154
637.5 -0.01633071947 -0.0655394567
638.125 -0.03086496783 -0.04945933824
638.75 -0.01224832202 -0.03210456273
639.375 0.01778928073 -0.02406055333
640.0 0.05521022124 -0.008614888374
640.625 0.06428206956 -0.01205610106
641.25 0.04943288003 -0.02166927259
641.875 0.04968450576 -0.01821841128
642.5 0.05546911202 -0.003130842318
643.125 0.05256072592 0.007603950069
643.75 0.06548877428 0.01924215942
644.375 0.05006219054 -0.01408209695
645.0 0.0370690158 0.008458744949
645.625 0.04517893259 0.03107566461
646.25 0.05643635993 0.03753156512
646.875 0.07426899876 0.04883639982
647.5 0.05489004343 0.02165724038
648.125 0.04703520718 0.03336977227
648.75 0.04048001589 0.05746171018
649.375 0.03708937547 0.09242074724
650.0 0.03773966843 0.06575467517
650.625 0.02918525428 0.05628389685
651.25 0.003052790856 0.06835607739
651.875 -0.04137094926 0.06142909739
652.5 -0.01194902684 0.04564941464
653.125 -0.02366240698 0.0276557619
653.75 -0.02910723386 -0.004652721808
654.375 -0.01972984383 -0.04041779314
655.0 -0.02133509794 -0.0560527196
655.625 -0.0393981721 -0.06881638538
656.25 -0.05954365452 -0.06774292576
656.875 -0.0792480004 -0.05103266254
657.5 -0.05923472503 -0.03901301063
658.125 -0.0831133151 -0.06083716598
658.75 -0.09621013294 -0.04241158949
659.375 -0.08883101585 0.00585657396
660.0 -0.06760512146 0.02527640561
660.625 -0.06126006912 0.01558194549
661.25 -0.06006588793 0.005150383496
661.875 -0.04172644728 0.01781330088
662.5 -0.04146678218 0.01825000126
663.125 -0.06145776266 -0.001890291788
663.75 -0.06109345881 -0.03608112926
664.375 -0.05219319641 -0.07394960135
665.0 -0.007728547274 -0.07692000391
665.625 0.03077933665 -0.1039195614
666.25 0.03901204657 -0.08312785852
666.875 0.05464272735 -0.07970228934
667.5 0.06067999847 -0.06345079598
668.125 0.05377185114 -0.03756314953
668.75 0.03959718085 -0.02747156128
669.375 0.05976199987 -0.0254372326
670.0 0.06215718406 -0.01092497541
670.625 0.06241850456 -0.00572924066
671.25 0.05777660053 -0.01915171365
671.875 0.07947167079 -0.04013834914
672.5 0.06051285303 -0.06857550014
673.125 0.03426291388 -0.0833960788
673.75 0.01929351013 -0.09323224279
674.375 0.0424007695 -0.08168821053
675.0 0.05874510453 -0.03906065789
675.625 0.05373443727 -0.01764980235
676.25 0.06760765695 0.002346175775
676.875 0.06881695666 0.03490496089
677.5 0.02180781596 0.04500922873
678.125 0.01969270165 0.05561544484
678.75 0.04007966526 0.08038256846
679.375 0.05470389884 0.1226209526
680.0 0.0345232852 0.07591412356
680.625 0.06500378271 0.06484521972
681.25 0.1014478806 0.04796331171
681.875 0.1128897252 0.02688761896
682.5 0.09083618407 -0.01803677061
683.125 0.04805333983 -0.01258275031
683.75 0.05531629437 0.01291064821
684.375 0.03658619303 0.05531011451
685.0 -3.745560536e-05 0.06535378196
685.625 -0.04075238584 0.01406154856
686.25 -0.07101144907 -0.01147827137
686.875 -0.07870546174 -0.04175201623
687.5 -0.09962172723 -0.05040360726
688.125 -0.08007868767 -0.07414891936
688.75 -0.08260963374 -0.0833885189
689.375 -0.07231930437 -0.06102347604
690.0 -0.07212355217 -0.06085997999
690.625 -0.08325857725 -0.06563522061
691.25 -0.06880351735 -0.04707380239
691.875 -0.04963939028 0.002993336574
692.5 -0.04752263989 0.01089673705
693.125 -0.04871039169 0.08209675962
693.75 -0.04724877713 0.0887723715
694.375 -0.005963856075 0.09805378628
695.0 -0.03131692163 0.09770963924
695.625 -0.1041264638 0.05480270562
696.25 -0.09734454218 -0.06168828155
696.875 -0.01643742535 -0.1063446448
697.5 0.04844833505 -0.07467627617
698.125 0.05573972944 -0.04916228522
698.75 0.04691053918 -0.04143962007
699.375 0.06433132119 -0.01349466055
700.0 0.08048819079 0.01049184214
700.625 0.06840708952 0.03719714487
701.25 0.05509661711 0.04039010548
701.875 0.09294590445 0.03981328105
702.5 0.1442178781 -0.01929046348
703.125 0.08913325413 -0.06392545881
703.75 -0.01876463338 -0.09267297118
704.375 -0.01990295178 -0.06034788779
705.0 0.007578258647 -0.08732618803
705.625 0.0370104753 -0.06682031232
706.25 0.05206100226 -0.03866168353
706.875 0.03428929593 0.04744024892
707.5 0.007955070647 0.08180451505
708.125 -0.0382949028 0.08859231755
708.75 -0.07544338761 0.07190318838
709.375 -0.08962693562 0.01055265312
710.0 -0.07680291097 -0.03390897966
710.625 -0.06069805535 -0.06346076116
711.25 -0.06521224978 -0.08741796118
711.875 -0.0372179219 -0.07286465545
712.5 -0.0599894137 -0.01866567607
713.125 -0.04061668148 0.02694514292
713.75 -0.04262676199 0.0382435847
714.375 -0.03787869188 0.06118406823
715.0 -0.03948929705 0.0538856505
715.625 -0.05464600866 0.06140846578
716.25 -0.08538227532 0.05841765178
716.875 -0.1093034434 0.03832080077
717.5 -0.07916268814 -0.04371736854
718.125 -0.06787075436 -0.04536429601
718.75 -0.06174300127 -0.05168147997
719.375 -0.01875630987 -0.08259824294
720.0 -0.00862170927 -0.07770147086
720.625 0.05680096857 -0.01613892212
721.25 0.0363039892 0.02211721178
721.875 -1.497323924e-05 0.02912102404
722.5 -0.07303197144 0.00685026676
723.125 -0.0769260451 0.05013152564
723.75 0.002864585162 0.08747772541
724.375 0.05935718185 0.06141163036
725.0 0.06529152868 -0.0135009122
725.625 0.08484719844 -0.005711483546
726.25 0.06495874218 -0.02034880454
726.875 0.04836129819 -0.008215456534
727.5 0.02705530934 -0.01859259266
728.125 0.0003923759212 0.07197978761
728.75 0.001484045532 0.05427157736
729.375 0.02619866907 0.0304024503
730.0 0.02882426444 0.04137593885
730.625 0.009249220881 0.01941338793
731.25 -0.03602164454 0.05083503335
731.875 -0.06052512786 0.02234141845
732.5 -0.06161698146 -0.01913733489
733.125 -0.03534025149 -0.00415129048
733.75 -0.03773573028 -0.04216195347
734.375 -0.01704099111 -0.007425834951
735.0 -0.02761646717 -0.02088642609
735.625 -0.01788103955 -0.01430714216
736.25 -0.03822060241 -0.02043855557
736.875 -0.06022423422 -0.02774069718
737.5 -0.06862752252 -0.03558250829
738.125 -0.03582625979 -0.01521677523
738.75 -0.05131740085 -0.03872066667
739.375 -0.01728208922 -0.03938971657
740.0 0.006705269684 -0.04824811097
740.625 0.001857662533 -0.02725655621
741.25 -0.02212688731 -0.04640776841
741.875 0.01794709259 -0.01932966725
742.5 0.02968507299 0.01042349546
743.125 -0.01613436004 0.02608099705
743.75 -0.03718259122 0.03466839525
744.375 -0.035164773 0.02286301506
745.0 -0.06027378111 0.01825625156
745.625 -0.06756259312 0.0317399652
746.25 -0.01468365905 0.07325685709
746.875 0.03353564824 0.04700917968
747.5 0.03110136583 0.008783888238
748.125 0.01809548751 0.005591312501
748.75 0.007369684168 0.03293015723
749.375 0.03315519115 -0.01641418403
750.0 0.004486298738 -0.02615289638
