!Created with skrf (http://scikit-rf.org).
# GHz S RI R 50.0 
!freq ReS11 ImS11
500.0 -0.01350597876 0.02352063954
500.625 0.01879443464 0.03482718573
501.25 0.02808117923 0.02389068322
501.875 0.0265702661 0.0258550139
502.5 0.01510253377 0.03149445001
503.125 0.03118820687 0.02904957132
503.75 0.04690960254 0.02880724498
504.375 0.04533489135 -0.003185865784
505.0 0.03756746652 -0.03040452473
505.625 0.05194346481 -0.04640499508
506.25 0.05717680509 -0.04512352682
506.875 0.05659566322 -0.05550444174
507.5 0.05801038852 -0.03852649133
508.125 0.07135891015 -0.0166120248
508.75 0.04310749982 -0.05320101884
509.375 0.03094745801 -0.04724872518
510.0 0.06911282725 -0.03420447498
510.625 -0.008388410597 -0.06311935554
511.25 -0.02868069862 -0.05965700424
511.875 -0.0489012606 -0.007029036923
512.5 -0.03081382759 0.01320760022
513.125 -0.01746675655 0.0322110181
513.75 -0.02256681344 0.04373764059
514.375 -0.002236183255 0.05289005502
515.0 0.02258101349 0.07509006544
515.625 -0.06122741034 0.0992823444
516.25 0.04007190101 0.09012170617
516.875 -0.03610731917 0.1183041665
517.5 0.03386797055 0.109094561
518.125 -0.07844353967 0.1191845375
518.75 0.03682002517 0.0397958643
519.375 0.01879385788 0.06111957583
520.0 0.04990076249 0.05732122674
520.625 0.0587887613 0.06248865328
521.25 0.06243643865 0.00594026633
521.875 0.03823202915 0.04141124307
522.5 0.06790994039 0.006816203045
523.125 0.127005961 -0.001928099281
523.75 0.1078765287 -0.06811680771
524.375 0.0659330094 -0.01933593798
525.0 0.008712302785 -0.007045046946
525.625 0.006690067726 0.03032425411
526.25 0.01071168013 0.03850760058
526.875 0.01645472243 0.03315103857
527.5 0.02248965666 0.02054774036
528.125 0.0532543486 0.006768059133
528.75 0.03848896961 -0.01899436222
529.375 0.02830370263 -0.03408048159
530.0 0.02460265143 -0.02658981141
530.625 0.00819627613 -0.08090648654
531.25 0.0128545333 -0.1615942782
531.875 -0.04857338468 -0.1443383037
532.5 -0.08312911457 -0.07438389849
533.125 -0.08923009099 -0.06584745211
533.75 -0.06902004635 -0.04319691279
534.375 -0.06303131778 -0.0327802033
535.0 -0.05910911751 -0.009503332144
535.625 -0.04021259445 -0.04441874646
536.25 -0.03303829412 -0.03400403453
536.875 -0.04488795325 -0.064877871
537.5 -0.04627715486 -0.08783243381
538.125 -0.07323191951 -0.05775273947
538.75 -0.05849139885 -0.03001058442
539.375 -0.03437468688 -0.04530521963
540.0 -0.04368127819 -0.07853741604
540.625 -0.06673806681 -0.1145314751
541.25 -0.04277139807 -0.08858478041
541.875 -0.05301408102 -0.08485768651
542.5 -0.05646438075 -0.09750312556
543.125 -0.1054000837 -0.0674475409
543.75 -0.09448121269 0.02022152362
544.375 -0.05332636357 0.0404835337
545.0 -0.0200392435 0.05362875703
545.625 -0.01584576764 0.07149743443
546.25 0.01405641303 0.05762833937
546.875 0.02110258459 0.06411792182
547.5 0.01641974872 0.07753345706
548.125 0.004142859953 0.08173184363
548.75 -0.007196129046 0.07102286761
549.375 -0.01370592544 0.06186673329
550.0 -0.02726257078 0.03096052928
550.625 -0.02909692935 0.006170529833
551.25 -0.002553576026 -0.02821718785
551.875 -0.03928768212 -0.04422844089
552.5 -0.06664915541 -0.04552682658
553.125 -0.0791621832 -0.01896857034
553.75 -0.07470272849 -0.02548664456
554.375 -0.08545377881 0.001233326855
555.0 -0.08953515865 0.02238764328
555.625 -0.08059942113 0.03788711689
556.25 -0.0787642447 0.020961636
556.875 -0.09147262992 0.02020439015
557.5 -0.08866086701 0.0349380394
558.125 -0.07760373356 0.02951812822
558.75 -0.05478465394 0.01116346838
559.375 -0.03501158614 0.004188781579
560.0 -0.02316949063 -0.004101854763
560.625 -0.04362526775 -0.02516815442
561.25 -0.04338669835 -0.03760433611
561.875 -0.06973201344 -0.02209782746
562.5 -0.07095841487 0.02293123815
563.125 -0.06737659119 0.07001684241
563.75 -0.04994453662 0.07536821162
564.375 -0.02361938304 0.0771588386
565.0 -0.01688546435 0.07432483058
565.625 -0.009760362819 0.07720414314
566.25 -0.03347121511 0.03169580042
566.875 -0.05158504076 0.02404584419
567.5 -0.0630295106 0.0252628939
568.125 -0.06522639676 0.01565112909
568.75 -0.05457545442 0.008675222892
569.375 -0.02735143934 -0.01290640818
570.0 -0.02413683946 -0.03045779648
570.625 -0.04796235014 -0.04223633773
571.25 -0.03464383125 -0.03692351142
571.875 -0.05460964509 -0.02991811497
572.5 -0.08818427863 -0.004966170826
573.125 -0.1096317729 0.02978862202
573.75 -0.06141758214 0.07168803458
574.375 -0.03159430559 0.06410554076
575.0 -0.03935284012 0.06519806548
575.625 -0.0494206819 0.07823952132
576.25 -0.0354538343 0.05947734141
576.875 -0.017059781 0.07031886466
577.5 -0.004605388945 0.06790879291
578.125 -0.01236665285 0.06567455963
578.75 -0.01117492777 0.03426483373
579.375 -0.01303503758 0.03825198868
580.0 -0.01501038428 0.03625478309
580.625 -0.02916186053 0.01576644901
581.25 -0.05095915347 0.008526410723
581.875 -0.06934356008 0.03024205547
582.5 -0.07485698022 0.04654401125
583.125 -0.06234625169 0.04556028652
583.75 -0.0560097086 0.04701196604
584.375 -0.06879545512 0.01748875589
585.0 -0.07173385872 0.002394488641
585.625 -0.06088631324 0.0228198071
586.25 -0.05565826939 0.02847204948
586.875 -0.05907916433 0.0086325684
587.5 -0.05698774406 0.02286143537
588.125 -0.03114664334 0.04339608698
588.75 -0.01177463184 0.05094672949
589.375 -0.03499188264 0.02499128191
590.0 -0.04982746563 0.01682527626
590.625 -0.04689434764 0.05058607549
591.25 -0.02049675844 0.08246314461
591.875 -0.04304633483 0.08051885473
592.5 -0.00825506623 0.07099213063
593.125 -0.001141669747 0.05842337375
593.75 0.006111025433 0.06527640474
594.375 -0.03477036278 0.04372809047
595.0 -0.03729263514 0.02013725586
595.625 -0.0302349265 -0.001432553058
596.25 -0.03723121924 0.006216160939
596.875 -0.02967851887 -0.03084631005
597.5 -0.03262263552 -0.02560754739
598.125 -0.02249789915 -0.02246531536
598.75 -0.01472785543 -0.02189513055
599.375 -0.01400698084 -0.03792911744
600.0 -0.02328570708 -0.05520144311
600.625 -0.02931166695 -0.07285992371
601.25 -0.05082543965 -0.05123785695
601.875 -0.05276447468 -0.05063215515
602.5 -0.05509268661 -0.04252342765
603.125 -0.04519340937 -0.04200416874
603.75 -0.04283079303 -0.01332801438
604.375 -0.02018764861 -0.02108698647
605.0 -0.009376203184 -0.03354911144
605.625 -0.008077515181 -0.05123877975
606.25 -0.009576359246 -0.04242985206
606.875 -0.02074889326 -0.01483860782
607.5 0.01222812962 -0.01173491472
608.125 0.01096166661 -0.006698113448
608.75 0.008938869784 -0.007963630505
609.375 0.03289632468 -0.01505165351
610.0 0.04511327129 -0.01090442281
610.625 0.04769839822 -0.01835759186
611.25 0.05037350618 -0.02568389606
611.875 0.04226450228 -0.02285257837
612.5 0.04152035568 -0.01208438862
613.125 0.03115382419 -0.001330990094
613.75 0.02124439644 0.007770141442
614.375 0.003655033422 0.01343602273
615.0 0.04877188029 0.03387757625
615.625 0.02588465661 0.01612672042
616.25 0.009492446771 0.01776577362
616.875 0.003231702523 0.02957991823
617.5 0.04749402057 0.05179708788
618.125 0.03797183332 0.03669157924
618.75 0.01869970773 0.03384203429
619.375 0.004466231006 0.02926081882
620.0 0.044252564 0.04583235399
620.625 0.05015571907 0.01477779964
621.25 0.02688821287 -0.0004469861055
621.875 -0.01932225437 -0.02681525732
622.5 -0.006971916594 0.0159854155
623.125 -0.02024602176 0.03961230978
623.75 -0.02219000264 0.05856919867
624.375 -0.04429858443 0.04024334246
625.0 -0.0420859532 0.04015749517
625.625 -0.04661160892 0.04794315399
626.25 -0.03458649047 0.06139434003
626.875 -0.01586015422 0.06124710238
627.5 -0.01898442851 0.03849786794
628.125 -0.02534672187 0.03539759273
628.75 -0.02829368095 0.02525622338
629.375 -0.01907122508 0.02107653648
630.0 -0.01235516012 -0.01298017959
630.625 -0.008588276238 -0.01296122504
631.25 -0.001008042936 -0.03793360196
631.875 -0.004107460357 -0.043229758
632.5 -0.01328333235 -0.05802533913
633.125 -0.02489239771 -0.05871829999
633.75 -0.03728896402 -0.04287689093
634.375 -0.03297895519 -0.05159826421
635.0 -0.03897196438 -0.07050067382
635.625 -0.05544431302 -0.03550522271
636.25 -0.03683429471 -0.02455771392
636.875 -0.01703376486 -0.04139252399
637.5 -0.03234287431 -0.0547120683
638.125 -0.03218291128 -0.05586965786
638.75 -0.03318316774 -0.02094921425
639.375 -0.00866023333 -0.01480923398
640.0 0.03825708964 -0.02219064173
640.625 0.06497432899 -0.02332902286
641.25 0.02626894627 -0.04101695094
641.875 0.03641895639 -0.03173813227
642.5 0.05392708346 -0.003670993757
643.125 0.0617274055 0.004564362698
643.75 0.0594817403 -0.004002475249
644.375 0.05549750573 -0.01200018317
645.0 0.0421873448 -0.005973124996
645.625 0.05347318831 0.01733407774
646.25 0.04379190165 0.007960240185
646.875 0.0654193007 0.01111674317
647.5 0.0575134623 0.003074972474
648.125 0.06469441568 0.02170705718
648.75 0.04491747321 0.03066362836
649.375 0.04983064946 0.0664116996
650.0 0.04773492742 0.06461440916
650.625 0.03901393974 0.06783457954
651.25 0.02278987364 0.07082189903
651.875 -0.01801994962 0.06981792209
652.5 -0.02315589182 0.05266187552
653.125 -0.02326350192 0.04077417944
653.75 -0.01971368615 0.02391307549
654.375 -0.01745667384 -0.01678168886
655.0 -0.02419639413 -0.04054537113
655.625 -0.05867039333 -0.05885230294
656.25 -0.06950515784 -0.04568560322
656.875 -0.07453681079 -0.03266711566
657.5 -0.07945891084 -0.04205492098
658.125 -0.08962355527 -0.04127741566
658.75 -0.1211033139 -0.03193241
659.375 -0.08410380252 0.02464784652
660.0 -0.05202823388 0.04065372434
660.625 -0.05255383239 0.03601304209
661.25 -0.06784875689 0.02988104306
661.875 -0.01649749651 0.02927802824
662.5 -0.03153578831 0.0268414402
663.125 -0.06486546494 0.01944542339
663.75 -0.07730257593 -0.02159116174
664.375 -0.05286672426 -0.05090460462
665.0 -0.03728447685 -0.08637970805
665.625 0.0002962140114 -0.1209084856
666.25 0.01590603117 -0.07616420989
666.875 0.0311408608 -0.07736037012
667.5 0.04260786522 -0.08491390174
668.125 0.06089936094 -0.0739372111
668.75 0.01722605914 -0.03593101664
669.375 0.04122824129 -0.03340731654
670.0 0.06456075518 -0.03991047407
670.625 0.07574862818 -0.03012492112
671.25 0.05616245091 -0.04089777377
671.875 0.05879892361 -0.04680640007
672.5 0.04912756596 -0.08206655515
673.125 0.02164497706 -0.1047870448
673.75 -0.004012445321 -0.0781043393
674.375 0.01779651387 -0.07695571554
675.0 0.04526904139 -0.05288716617
675.625 0.0618473054 -0.04101472957
676.25 0.04788991689 -0.01590118424
676.875 0.06240544051 0.006394709078
677.5 0.0380282072 0.03165281964
678.125 0.03849753815 0.04417321304
678.75 0.0603958016 0.06666580783
679.375 0.06449239386 0.09680585201
680.0 0.06179810891 0.08895054336
680.625 0.07512931849 0.05263493015
681.25 0.1137736438 0.02149930677
681.875 0.09944147364 0.001335500199
682.5 0.08649804191 -0.03350403531
683.125 0.06758170773 -0.0386189376
683.75 0.07306526271 -0.01480572347
684.375 0.07259926793 0.04640024368
685.0 0.01283723772 0.05395873751
685.625 -0.0318674593 0.05589139409
686.25 -0.06145008678 0.009803006763
686.875 -0.09062378983 -0.01460276824
687.5 -0.09006235925 -0.03671180339
688.125 -0.1168538842 -0.04998463501
688.75 -0.1035850454 -0.06726618156
689.375 -0.09616875634 -0.05382476523
690.0 -0.06831489385 -0.04171213789
690.625 -0.08433124304 -0.04649908515
691.25 -0.0906531581 -0.02952074935
691.875 -0.06198061438 0.02614075091
692.5 -0.02866503371 0.01202541968
693.125 -0.03003622375 0.06946227651
693.75 -0.000408297765 0.1222052224
694.375 0.01887653582 0.09855128172
695.0 0.0003873963347 0.1078034618
695.625 -0.0848015266 0.05309161782
696.25 -0.09968461545 -0.05017415873
696.875 -0.04021207703 -0.1041925645
697.5 0.02348955718 -0.1074712024
698.125 0.04425942623 -0.06921905901
698.75 0.03767951127 -0.0415202793
699.375 0.05341282576 -0.0340575428
700.0 0.07943629888 -0.03245313659
700.625 0.06990673344 0.02402055556
701.25 0.05599887525 0.0340020486
701.875 0.09149445383 0.02422910224
702.5 0.1293052036 -0.0598628277
703.125 0.08137798864 -0.06726903636
703.75 -0.02464284289 -0.08781308395
704.375 -0.05424415634 -0.05559653753
705.0 -0.04751157378 -0.0826747374
705.625 0.005320355904 -0.09536841127
706.25 0.04367987848 -0.04321968753
706.875 0.05448300182 0.0130341325
707.5 0.02460436491 0.06943603586
708.125 -0.009726552672 0.09314185566
708.75 -0.07086405042 0.07033468724
709.375 -0.0901590878 0.02613753504
710.0 -0.0808563397 -0.02319323817
710.625 -0.0824835116 -0.03153682042
711.25 -0.06085900898 -0.08454604744
711.875 -0.0961714133 -0.06254818125
712.5 -0.07548707235 -0.01378037602
713.125 -0.03744436191 0.05665600115
713.75 -0.04498008076 0.03242248819
714.375 -0.03551200131 0.05962651168
715.0 -0.02313189217 0.0560835011
715.625 -0.01506716863 0.06172436963
716.25 -0.04343404445 0.07529043359
716.875 -0.1094657623 0.03969243342
717.5 -0.09408947677 -0.02973136345
718.125 -0.07484248678 -0.03942487371
718.75 -0.07795761138 -0.02157007408
719.375 -0.0205958087 -0.09229846188
720.0 -0.003331470643 -0.08237895316
720.625 0.04090726467 -0.05140765416
721.25 0.05586504021 -0.01082063872
721.875 -0.002250425238 0.03376863364
722.5 -0.03973084032 0.0326405164
723.125 -0.05515978112 0.06621857138
723.75 0.02766837382 0.07378405836
724.375 0.06548900835 0.07264238404
725.0 0.08463328749 -0.005933969518
725.625 0.06921013024 -0.04833612307
726.25 0.06083060014 -0.04418510838
726.875 0.04549613826 -0.03374017604
727.5 0.0432498104 -0.007032134296
728.125 0.03990563791 0.04472914733
728.75 0.01876544886 0.06482528277
729.375 0.0337827083 0.01532286534
730.0 0.04274974254 0.05796967478
730.625 0.0197325788 0.0478354177
731.25 -0.01138856025 0.04692743397
731.875 -0.02498964152 0.02951741601
732.5 -0.05355839475 0.00751751954
733.125 -0.05200759051 -0.02001715222
733.75 -0.0290390583 -0.002078041709
734.375 -0.003436348104 0.01179899116
735.0 -0.06940718606 -0.03222658048
735.625 -0.05667127821 -0.008720220329
736.25 -0.03415002728 -0.007470247612
736.875 -0.02575957823 -0.02812937197
737.5 -0.1022245759 -0.03433866047
738.125 -0.06939981756 -0.02584862592
738.75 -0.04028930796 -0.01245839945
739.375 -0.01326541963 -0.0008418602266
740.0 0.002586268362 -0.02770565809
740.625 -0.03120274645 -0.03908293709
741.25 -0.03967116044 -0.02490299791
741.875 0.001520721783 -0.03828391149
742.5 0.01207774339 0.02258606259
743.125 0.02138634071 0.04126082603
743.75 -0.003877006912 0.03982738991
744.375 -0.02472102538 0.03760890965
745.0 -0.05488208 0.0101294049
745.625 -0.03639442625 0.0653781092
746.25 0.02204332651 0.08367781526
746.875 0.05098281424 0.05045021008
747.5 0.0253333911 0.0193695837
748.125 0.03636252824 -0.00471169871
748.75 0.02044784082 0.001397109754
749.375 0.01790269447 -0.0213473233
750.0 -0.01179178818 -0.02791622417
