!Created with skrf (http://scikit-rf.org).
# GHz S RI R 50.0 
!freq ReS11 ImS11
500.0 -0.019775602 0.0256175225
500.625 0.02047237136 0.03258522626
501.25 0.01904985266 0.04038525395
501.875 0.03021488356 0.01934052639
502.5 0.00215254835 0.05288272079
503.125 0.02610775436 0.05496632191
503.75 0.04851691416 0.004029192096
504.375 0.04571628841 -0.0002847777289
505.0 0.05690158274 -0.02093278162
505.625 0.06894418562 -0.03337616248
506.25 0.05240853359 -0.04141792337
506.875 0.06225072921 -0.03839345681
507.5 0.0469075561 -0.04487273377
508.125 0.08630409784 0.01209425289
508.75 0.03179680193 -0.06515182877
509.375 0.02174442279 -0.04646910494
510.0 0.06557073058 -0.03373867574
510.625 0.01274492043 -0.07441348669
511.25 -0.04342600133 -0.04724639053
511.875 -0.04603292278 -0.01378588065
512.5 -0.03454370919 -0.00111906428
513.125 -0.03545464414 0.02118734333
513.75 -0.009945215783 0.03878225897
514.375 -0.02537856313 0.05581984587
515.0 0.0003396982235 0.08253847655
515.625 -0.05941501676 0.08652753475
516.25 0.02508475053 0.09625444917
516.875 -0.04254529325 0.1120314296
517.5 0.03796216992 0.09652507556
518.125 -0.0790034921 0.09510326717
518.75 0.01517259485 0.05009196486
519.375 -0.006834512508 0.07530655805
520.0 0.03785477469 0.07037525786
520.625 0.04898553786 0.05474876045
521.25 0.05449027577 0.03326373746
521.875 0.02900966469 0.04276425447
522.5 0.0606499005 0.009034038953
523.125 0.1138022912 0.00794934855
523.75 0.08736634684 -0.07366799819
524.375 0.04745240279 -0.03156402743
525.0 -0.003810119875 0.00419336191
525.625 -0.001017768979 0.01328701403
526.25 -0.001019265454 0.04281731706
526.875 0.01050003181 0.03740093939
527.5 0.0219615583 0.03396107677
528.125 0.0407977409 0.01118997742
528.75 0.05920843243 0.004711833751
529.375 0.04838138546 -0.02740761113
530.0 0.04123846742 -0.03422948412
530.625 0.016693012 -0.06113683678
531.25 0.03036945929 -0.1427130328
531.875 -0.0397340734 -0.1472965442
532.5 -0.0804957697 -0.1006519297
533.125 -0.06423075367 -0.05996606324
533.75 -0.06136776889 -0.06778950554
534.375 -0.06475906932 -0.04889091187
535.0 -0.05616981096 -0.02874450536
535.625 -0.0225564157 -0.04382534445
536.25 -0.02290910041 -0.04215380098
536.875 -0.03004682268 -0.06222199957
537.5 -0.04339781126 -0.1073795151
538.125 -0.05479921028 -0.04751831898
538.75 -0.04887148698 -0.03549739028
539.375 -0.02720119372 -0.05163718667
540.0 -0.04027232909 -0.1030444287
540.625 -0.0372880158 -0.08702901094
541.25 -0.02701943694 -0.08070097588
541.875 -0.03553624609 -0.08500764333
542.5 -0.04967673449 -0.1125388762
543.125 -0.07814399374 -0.05614973483
543.75 -0.08771779918 0.009556264557
544.375 -0.0627000802 0.03204516858
545.0 -0.03770166848 0.04449906272
545.625 -0.02456660179 0.05660729346
546.25 0.001082835334 0.06485060001
546.875 0.005673907752 0.06480617861
547.5 -0.002052457007 0.08629951062
548.125 0.002087931937 0.05302460363
548.75 -0.01630511626 0.05585748304
549.375 -0.02935028655 0.05998934513
550.0 -0.0406457894 0.01469431251
550.625 -0.01899763112 -0.00935914853
551.25 -0.01254587869 -0.04300495352
551.875 -0.05029581917 -0.05555746021
552.5 -0.0710208505 -0.0611829231
553.125 -0.06252046233 -0.03478552777
553.75 -0.07664656627 -0.03469097271
554.375 -0.1022888692 -0.003519054152
555.0 -0.09800146642 0.01179363232
555.625 -0.08182217492 0.02481282811
556.25 -0.0758386076 0.006980013528
556.875 -0.08608460084 0.003880752477
557.5 -0.08049301084 0.02108174553
558.125 -0.08546193581 0.02004222223
558.75 -0.06028786891 -0.002733620957
559.375 -0.0378576775 -0.005567708882
560.0 -0.02597044209 -0.01246831182
560.625 -0.03579904396 -0.04035062964
561.25 -0.05695120988 -0.04727316755
561.875 -0.07403852737 -0.02927026168
562.5 -0.07521333068 0.01163496172
563.125 -0.07644466529 0.04861009101
563.75 -0.06466759729 0.07652557128
564.375 -0.03035610617 0.07791452926
565.0 -0.02649191887 0.07430407762
565.625 -0.02489090276 0.06142749365
566.25 -0.04977438309 0.03509681531
566.875 -0.05412320075 0.0119506686
567.5 -0.05771502127 0.007393446679
568.125 -0.06953385826 0.005402807797
568.75 -0.02919973799 -0.006744443278
569.375 -0.01770486875 -0.02297185038
570.0 -0.0131158912 -0.03956354477
570.625 -0.04008989141 -0.05492184231
571.25 -0.03539426936 -0.04403275023
571.875 -0.04651018381 -0.04854605778
572.5 -0.08607229286 -0.02679605482
573.125 -0.1172265297 0.02033155539
573.75 -0.06164464876 0.04492738925
574.375 -0.04287711381 0.0530705079
575.0 -0.05561475602 0.05474223566
575.625 -0.06070951113 0.06493543233
576.25 -0.0394337992 0.06585563563
576.875 -0.01531237002 0.07335186798
577.5 -0.01580144536 0.0673105663
578.125 -0.02249100474 0.04875701147
578.75 -0.01860993307 0.03155038027
579.375 -0.0211370278 0.03031223478
580.0 -0.02470055828 0.01912319868
580.625 -0.03417298916 0.01602409508
581.25 -0.0613386973 -0.009874367428
581.875 -0.07859619128 0.01934688226
582.5 -0.07882392545 0.03046492596
583.125 -0.06637595303 0.04559837031
583.75 -0.06150453923 0.01660671032
584.375 -0.07224141883 0.008483464315
585.0 -0.07533196174 0.003369533621
585.625 -0.06370882417 0.02744255555
586.25 -0.04970944576 -0.01039451564
586.875 -0.05716316919 -0.01017225269
587.5 -0.05370790338 0.006489041899
588.125 -0.03039159241 0.04652103878
588.75 -0.03449217052 0.0227278475
589.375 -0.0409974831 0.01312305079
590.0 -0.04423269276 0.02032599626
590.625 -0.04729997621 0.05008663069
591.25 -0.04833501553 0.07829850841
591.875 -0.03518370027 0.08261295519
592.5 -0.00966612967 0.07104397242
593.125 -0.0006080822702 0.05791765511
593.75 -0.01944536907 0.04604322016
594.375 -0.03327374953 0.04036644892
595.0 -0.02865222233 0.01959621778
595.625 -0.02895317524 -0.001052402012
596.25 -0.03236793662 -0.01893997176
596.875 -0.02843737624 -0.0244470672
597.5 -0.02803860054 -0.02647281821
598.125 -0.02015269446 -0.01493408162
598.75 -0.002419127999 -0.04508921378
599.375 -0.006926798035 -0.0451924787
600.0 -0.0115824737 -0.0622968616
600.625 -0.03139770439 -0.05759816664
601.25 -0.02980580652 -0.07260511987
601.875 -0.04735188571 -0.04932467707
602.5 -0.0535440474 -0.03199496338
603.125 -0.04534291861 -0.03512673023
603.75 -0.03588694361 -0.01751609705
604.375 -0.002377875856 -0.03211397278
605.0 0.007102755226 -0.04303765727
605.625 0.003038893737 -0.0457110966
606.25 -0.02381874812 -0.02815667096
606.875 0.01372608692 -0.01646335408
607.5 0.01358631546 -0.005514570385
608.125 0.02955464202 -0.01180032938
608.75 0.01531085194 -0.01052051738
609.375 0.04729109344 -0.016941876
610.0 0.05863526127 -0.004671059379
610.625 0.05887983165 -0.008936191172
611.25 0.0282872233 -0.01496638479
611.875 0.06938933893 -0.004123519354
612.5 0.03710783948 -0.006349159378
613.125 0.008927583602 -0.007155805642
613.75 0.005958061738 0.006891730056
614.375 0.006467620254 0.0157869304
615.0 0.02264516864 0.01977440161
615.625 0.01370247462 0.009630550566
616.25 0.01091600533 0.02260540099
616.875 -0.001136089045 0.02745418612
617.5 0.0180109193 0.03640780656
618.125 0.01253356495 0.02350970866
618.75 0.01697923985 0.03198793088
619.375 0.004642997378 0.02842625518
620.0 0.02507041581 0.03578536656
620.625 0.02512270914 0.007805492241
621.25 0.005781371592 -0.01669131698
621.875 -0.01243885393 -0.02081420736
622.5 -0.03870289732 0.01129050534
623.125 -0.02858773037 0.03902169317
623.75 -0.0255331006 0.0542091017
624.375 -0.04474941536 0.03640651858
625.0 -0.04107238374 0.04441442391
625.625 -0.04601791233 0.05313283761
626.25 -0.03940716705 0.06535585854
626.875 -0.03311062593 0.03821515082
627.5 -0.01620916569 0.06022946433
628.125 -0.02303677514 0.02357550261
628.75 -0.03132456066 0.006574800438
629.375 -0.01572768357 -0.008164655984
630.0 -0.009459643226 -0.000410382342
630.625 -0.0001716531175 -0.01638313792
631.25 0.006865690962 -0.03651430574
631.875 0.0146757942 -0.06507750056
632.5 -0.02826599784 -0.04444283345
633.125 -0.01205536756 -0.06408007693
633.75 -0.01232224033 -0.06433244485
634.375 -0.01382638263 -0.06814702437
635.0 -0.02493308851 -0.07031391994
635.625 -0.05028661108 -0.0327099531
636.25 -0.03230600636 -0.02128665655
636.875 -0.01741445909 -0.04218447924
637.5 -0.005519270628 -0.07328206858
638.125 -0.04218839554 -0.04238952381
638.75 -0.0238369133 -0.02172084724
639.375 0.02183511869 -0.02236972238
640.0 0.0624093642 -0.00660627068
640.625 0.05312212172 -0.0198572838
641.25 0.0517846914 -0.02413694464
641.875 0.05629478438 -0.01800921336
642.5 0.06905527085 0.02022811647
643.125 0.04816758642 -0.003427358192
643.75 0.05546110881 0.007893847741
644.375 0.05766092999 0.0004403753294
645.0 0.04951662593 0.02000790082
645.625 0.03515253303 0.01893492043
646.25 0.05104334086 0.03118542149
646.875 0.06825580826 0.04229303134
647.5 0.05594020572 0.0229466011
648.125 0.04979168021 0.03138284753
648.75 0.04178753983 0.05579091413
649.375 0.03460914875 0.07621935847
650.0 0.03560811559 0.06648443986
650.625 0.02582893241 0.07987676545
651.25 0.01077167153 0.05968134517
651.875 -0.01919407184 0.05460850844
652.5 -0.02181259542 0.04506807266
653.125 -0.04262425735 0.02925606688
653.75 -0.02491700847 -0.005162991371
654.375 -0.02213878309 -0.0424014151
655.0 -0.02347795015 -0.05925226724
655.625 -0.04758936656 -0.0734875132
656.25 -0.0570319568 -0.05830602333
656.875 -0.0661541801 -0.041167417
657.5 -0.0654567393 -0.04715194955
658.125 -0.09507306523 -0.06913480972
658.75 -0.08824666049 -0.02815736976
659.375 -0.07993013834 0.01129890639
660.0 -0.07142077092 0.02218148529
660.625 -0.06584216759 0.01454177675
661.25 -0.04784796471 0.009504136513
661.875 -0.04100131669 0.01923060273
662.5 -0.04692956021 0.02225108816
663.125 -0.08550696861 0.004295068541
663.75 -0.04939116416 -0.02918472657
664.375 -0.04260207913 -0.06508274519
665.0 -0.01142458869 -0.08995093851
665.625 0.02955313944 -0.1073348567
666.25 0.03873945313 -0.08566139202
666.875 0.05371203983 -0.08321345991
667.5 0.06216703971 -0.06646848327
668.125 0.06518946281 -0.04617781298
668.75 0.03797216217 -0.03265684835
669.375 0.04608133394 -0.01403959708
670.0 0.07324625002 -0.01602474606
670.625 0.07842154467 -0.009798089992
671.25 0.04725900191 -0.01359532291
671.875 0.06485162648 -0.02580077909
672.5 0.06603848167 -0.078652924
673.125 0.03757989199 -0.1018794057
673.75 0.01819844741 -0.09333376221
674.375 0.03975895052 -0.07571153976
675.0 0.06199820357 -0.03977015572
675.625 0.06665430361 -0.02571186425
676.25 0.06766182905 -0.0009151294144
676.875 0.05794521852 0.0324880722
677.5 0.0247435478 0.04528085422
678.125 0.03630684894 0.05727326938
678.75 0.02438396992 0.07633861863
679.375 0.03585201379 0.1061025186
680.0 0.04035038123 0.08113425857
680.625 0.07580187283 0.06920120744
681.25 0.09610403275 0.04342253364
681.875 0.1153308145 0.02583422644
682.5 0.08412038838 -0.01553096023
683.125 0.06054531209 -0.01849188997
683.75 0.07668069925 0.00565571663
684.375 0.02424944409 0.04573429327
685.0 -0.003939462406 0.05845456228
685.625 -0.04441023695 0.02626698782
686.25 -0.07973595491 0.003482234819
686.875 -0.06528289253 -0.04836531901
687.5 -0.08345470019 -0.05395093768
688.125 -0.0932095889 -0.070694525
688.75 -0.09746061798 -0.08820276278
689.375 -0.06269194852 -0.05763157152
690.0 -0.07388578704 -0.05678623876
690.625 -0.08861161133 -0.06724436548
691.25 -0.07553963302 -0.04983867899
691.875 -0.05598345452 0.008770987048
692.5 -0.04500879252 0.01421743825
693.125 -0.06152590067 0.06080897907
693.75 -0.03838517516 0.101452197
694.375 0.01356336505 0.1085903404
695.0 -0.03946006837 0.08629075486
695.625 -0.1028354344 0.05720927503
696.25 -0.1025341465 -0.06273237708
696.875 -0.01417278225 -0.1097904058
697.5 0.0438018366 -0.1020251934
698.125 0.05578271603 -0.04326340195
698.75 0.04576921862 -0.03948740245
699.375 0.06584393874 -0.03248344371
700.0 0.06696167031 0.02485266244
700.625 0.05812165289 0.04220263176
701.25 0.05898818842 0.03894927716
701.875 0.09894600856 0.03422033025
702.5 0.1323553072 0.0008392823776
703.125 0.09077528664 -0.06704029305
703.75 -0.004678823295 -0.08318660498
704.375 -0.0310502425 -0.06305430177
705.0 -0.03858161154 -0.09524853572
705.625 0.04461987774 -0.05193113048
706.25 0.05601701461 -0.02467232654
706.875 0.04597464043 0.03170952543
707.5 0.01837013566 0.0780453838
708.125 -0.05108923851 0.08180092549
708.75 -0.08015581401 0.06401790045
709.375 -0.09266837023 0.01850210053
710.0 -0.07799125946 -0.03218754544
710.625 -0.0761981254 -0.04860083207
711.25 -0.06135627811 -0.08479386523
711.875 -0.053906004 -0.07311161507
712.5 -0.07513132275 -0.01210241019
713.125 -0.0404729704 0.008159964552
713.75 -0.03675839184 0.03743742444
714.375 -0.05501548333 0.053975661
715.0 -0.03728061993 0.05276759174
715.625 -0.02309666995 0.06124474403
716.25 -0.1096629534 0.04654202353
716.875 -0.1162981165 -0.005638686308
717.5 -0.08274059679 -0.03291525882
718.125 -0.07066895686 -0.04042194758
718.75 -0.05745305335 -0.05905489244
719.375 -0.0267916224 -0.08158926623
720.0 0.02804554422 -0.0700004638
720.625 0.05315456682 -0.03182088959
721.25 0.03997054506 0.01947908942
721.875 -0.01848985384 0.02705758581
722.5 -0.05460550711 0.01978527787
723.125 -0.03913324129 0.05416725958
723.75 -0.02045157407 0.09760136547
724.375 0.05866449305 0.05667823373
725.0 0.07590118681 -0.0049988948
725.625 0.07724139757 -0.024738042
726.25 0.04010065398 -0.04981661304
726.875 0.05522246399 0.004241806677
727.5 0.04351771795 0.03051260493
728.125 0.01409925972 0.04864550639
728.75 0.01129313252 0.04728678387
729.375 0.02171387093 0.05261366701
730.0 0.02789488646 0.03664114353
730.625 0.002116469099 0.05675988257
731.25 -0.02511364488 0.04613981804
731.875 -0.0256364566 0.02351766845
732.5 -0.07686520341 -0.02949761276
733.125 -0.04456003715 -0.02753177303
733.75 -0.03719136251 -0.02121585732
734.375 -0.01767320747 -0.01384347621
735.0 -0.02198128837 -0.01983636947
735.625 -0.01237066452 -0.01291064178
736.25 -0.03649368775 -0.01598631448
736.875 -0.03022439018 -0.03038970403
737.5 -0.06400298668 -0.03718662575
738.125 -0.07264379545 -0.03676335597
738.75 -0.04501379377 -0.02050549028
739.375 0.006290291775 0.006634233311
740.0 -0.003322038862 -0.07440375766
740.625 -0.02209271863 -0.03947717762
741.25 -0.01249560783 -0.03360452794
741.875 0.01629609969 -0.0108649699
742.5 0.008436601097 0.02262848526
743.125 -0.007349981719 0.03344601116
743.75 -0.03382799795 0.02323400155
744.375 -0.04833177776 -0.008904635241
745.0 -0.0453443454 0.05532937255
745.625 -0.04186363385 0.0572848489
746.25 -0.01996144425 0.06999307824
746.875 0.03492798723 0.04279513941
747.5 0.01947848644 0.01287490983
748.125 0.02365985309 0.005140118877
748.75 0.02805615022 0.003004336207
749.375 0.02893331264 -0.0043557755
750.0 0.02848619018 -0.02826599118
