!Created with skrf (http://scikit-rf.org).
# GHz S RI R 50.0 
!freq ReS11 ImS11
500.0 -0.01896825648 0.02291182315
500.625 0.01324136283 0.04237167871
501.25 0.04593682353 0.008474610844
501.875 0.02454815197 0.01982504206
502.5 0.003389559128 0.0491411856
503.125 0.02955641001 0.03791320375
503.75 0.04377450581 0.01979125835
504.375 0.05012256688 0.006383656464
505.0 0.04875198828 -0.02281974126
505.625 0.06858606862 -0.03267836102
506.25 0.03817165539 -0.05564839908
506.875 0.06561017191 -0.02986805022
507.5 0.06656780233 -0.02760294265
508.125 0.07024067771 -0.04420775233
508.75 0.03724887269 -0.05327696306
509.375 0.02764632719 -0.05122226432
510.0 0.09378962474 -0.02248936405
510.625 -0.01181317032 -0.0670495025
511.25 -0.03368680866 -0.05213225212
511.875 -0.045710148 -0.02100554131
512.5 -0.03214811717 0.002196682956
513.125 -0.02564509928 0.02787114751
513.75 -0.01942638235 0.0392338971
514.375 -0.02034097916 0.05757284754
515.0 -0.006939925753 0.09430566988
515.625 -0.03457415478 0.08961008061
516.25 0.0314472149 0.0887605906
516.875 -0.04714790931 0.1134814913
517.5 0.02231139487 0.1107269058
518.125 -0.02576408023 0.1289159681
518.75 0.01504434085 0.0472363471
519.375 0.0006954461856 0.07045443988
520.0 0.03908180339 0.06889072594
520.625 0.05824740977 0.04375250046
521.25 0.05207568763 0.0241660274
521.875 0.034045356 0.04701579784
522.5 0.06561065268 0.02090152799
523.125 0.1118629983 -0.03907520622
523.75 0.09218087151 -0.06268955155
524.375 0.05864826425 -0.0286274216
525.0 -0.000459266019 0.0130796642
525.625 -0.0009362105936 0.02343225252
526.25 0.0006381656002 0.05443094706
526.875 0.009990799216 0.04030761266
527.5 0.02443491535 0.03404469433
528.125 0.04040267079 0.010208854
528.75 0.04860551108 -0.004111580098
529.375 0.04310358091 -0.02698848158
530.0 0.0191355876 -0.01598409855
530.625 0.01709664733 -0.07643355927
531.25 0.02228154146 -0.1536194293
531.875 -0.04132772877 -0.1536861293
532.5 -0.07602900766 -0.07587154595
533.125 -0.06745427062 -0.06011410351
533.75 -0.06219896178 -0.06808677015
534.375 -0.06288240469 -0.04439758961
535.0 -0.06629880784 -0.03262293942
535.625 -0.0259164857 -0.03410238156
536.25 -0.03107924723 -0.045096634
536.875 -0.04230604667 -0.07088573767
537.5 -0.0358148643 -0.07364485169
538.125 -0.06003984193 -0.05879685265
538.75 -0.05438431003 -0.03843321957
539.375 -0.03182788859 -0.05450183334
540.0 -0.04749883233 -0.1010806577
540.625 -0.04520547006 -0.1042918457
541.25 -0.03511171986 -0.08276053412
541.875 -0.04777077142 -0.09201486084
542.5 -0.04012456463 -0.07920501097
543.125 -0.08907986965 -0.06696202598
543.75 -0.0950200573 0.01320041003
544.375 -0.0600964708 0.03230063568
545.0 -0.04209565123 0.054773669
545.625 -0.01505021202 0.05261882234
546.25 0.004422110439 0.05744502589
546.875 0.01490146401 0.06696096667
547.5 0.003031680947 0.09037000977
548.125 -0.0006228866851 0.06543860313
548.75 -0.01138104885 0.06424679885
549.375 -0.02950175473 0.06122245121
550.0 -0.04666725939 0.02219164659
550.625 -0.01621150134 -0.006829199665
551.25 -0.004816201496 -0.03787051881
551.875 -0.04697476148 -0.05350262129
552.5 -0.06685043714 -0.05689393836
553.125 -0.07118495792 -0.0294966927
553.75 -0.08170019982 -0.03255989655
554.375 -0.0949488248 -0.00359647547
555.0 -0.09993254884 0.01780879552
555.625 -0.06639051176 0.02014858003
556.25 -0.0776365587 0.008817367408
556.875 -0.08568094471 0.01133947512
557.5 -0.09069130478 0.02841574311
558.125 -0.06551511185 0.02178934906
558.75 -0.05314109518 0.001074337024
559.375 -0.03513479167 -0.002921665055
560.0 -0.02843391777 -0.008512702939
560.625 -0.02225954709 -0.03569085529
561.25 -0.05074054093 -0.04662625639
561.875 -0.07358971838 -0.02642700735
562.5 -0.07807353323 0.02300638173
563.125 -0.07296355078 0.04909412281
563.75 -0.06380331681 0.07888276673
564.375 -0.02897634898 0.07752113127
565.0 -0.02362524563 0.0747007146
565.625 -0.01907959977 0.05545385591
566.25 -0.04512672863 0.03382473697
566.875 -0.05260760268 0.01799752426
567.5 -0.06499388411 0.01812578264
568.125 -0.04444044152 -0.0003172538432
568.75 -0.04186393549 -0.0001064489845
569.375 -0.02466184164 -0.0178912114
570.0 -0.02322382054 -0.03555356245
570.625 -0.01740893742 -0.05073942544
571.25 -0.03165181389 -0.04241483815
571.875 -0.04831415725 -0.03900749854
572.5 -0.09208194673 -0.0129480765
573.125 -0.09543536008 0.001588195287
573.75 -0.06228148969 0.05655037798
574.375 -0.0352040095 0.0554620508
575.0 -0.04529691568 0.0730900727
575.625 -0.05585770937 0.0459717641
576.25 -0.0371342191 0.06291316938
576.875 -0.01801217379 0.07091222611
577.5 -0.006231038616 0.07663065776
578.125 -0.02031378758 0.04006914341
578.75 -0.01649868844 0.02937025938
579.375 -0.01656420853 0.03261460725
580.0 -0.01913700436 0.03401978368
580.625 -0.03467084818 -0.009982295075
581.25 -0.05718155661 -0.0008106458548
581.875 -0.07215394713 0.02846024829
582.5 -0.07708925238 0.04026366993
583.125 -0.06338408145 0.04835144414
583.75 -0.06127385066 0.02626958014
584.375 -0.07293326601 0.01773098841
585.0 -0.07402920681 0.00384570606
585.625 -0.06423165602 0.01730286559
586.25 -0.05656618102 0.006790859395
586.875 -0.0581041191 0.001720646371
587.5 -0.05602018861 0.01826829457
588.125 -0.03132596475 0.04295347893
588.75 -0.02597738074 0.0352343586
589.375 -0.03420979328 0.02436574045
590.0 -0.04675440673 0.01808087122
590.625 -0.04133531323 0.05272368519
591.25 -0.04560929745 0.07686706051
591.875 -0.04313010103 0.07928718768
592.5 -0.007015399848 0.07090503379
593.125 0.006417184717 0.06164321984
593.75 -0.0159457926 0.05654235133
594.375 -0.03101098653 0.04597686915
595.0 -0.03462696987 0.02001779022
595.625 -0.02868145383 0.01061105689
596.25 -0.03061914478 -0.02103510348
596.875 -0.0261880733 -0.031937263
597.5 -0.02965990496 -0.02321178945
598.125 -0.02264321766 -0.01959773687
598.75 -0.007064517509 -0.03328847722
599.375 -0.009286887809 -0.0373759451
600.0 -0.01833943762 -0.05179448324
600.625 -0.01745920274 -0.08005769125
601.25 -0.03638155352 -0.06705544445
601.875 -0.05348478261 -0.04124169677
602.5 -0.0542745845 -0.03283151221
603.125 -0.0506240544 -0.02308743911
603.75 -0.01468317017 -0.03533665263
604.375 -0.01097338379 -0.02666386594
605.0 0.0009915721573 -0.0389909079
605.625 -0.007743034966 -0.04133402621
606.25 0.001657945566 -0.03800273677
606.875 -0.001835905636 -0.01673148126
607.5 0.001175637522 -0.001768327504
608.125 0.0103495562 -0.002159055351
608.75 0.03902450004 -0.02687552429
609.375 0.04208737294 -0.01670182421
610.0 0.05371704924 -0.004324805465
610.625 0.03962777011 -0.01201553855
611.25 0.06359818187 -0.01867006156
611.875 0.05397265268 -0.01555668781
612.5 0.02500685348 -0.01566298548
613.125 0.01664733494 -0.004178596762
613.75 9.269026697e-05 0.005188003721
614.375 0.03470710148 0.03637662651
615.0 0.03633534197 0.02964155604
615.625 0.01528260919 0.0103326543
616.25 -0.01120885056 0.01448030889
616.875 0.03547698794 0.0521125782
617.5 0.02960122457 0.0357943696
618.125 0.02034234779 0.02964280307
618.75 -0.001767500082 0.02334993159
619.375 0.02841540365 0.05471815705
620.0 0.02956551594 0.03060979688
620.625 0.03411027184 0.009467445872
621.25 0.01290433764 -0.00850986446
621.875 -0.002973043235 -0.01291295134
622.5 -0.0277476251 0.008530569508
623.125 -0.03192099566 0.04033502407
623.75 -0.04788574516 0.04965156927
624.375 -0.02428946591 0.05961917204
625.0 -0.04160215665 0.04079251949
625.625 -0.04812207203 0.0505693669
626.25 -0.04379053905 0.04625375886
626.875 -0.01965777886 0.06865432681
627.5 -0.01544290692 0.04447473637
628.125 -0.02842877437 0.01067405312
628.75 -0.0250989881 0.008148908875
629.375 -0.0201428423 0.01130811382
630.0 -0.01208326397 0.00277084203
630.625 0.001471415275 -0.02479834926
631.25 0.01583725391 -0.05340692037
631.875 -0.01277911576 -0.0414877792
632.5 -0.01400160229 -0.0514797132
633.125 -0.001172090374 -0.0684253631
633.75 -0.02157032112 -0.05726144833
634.375 -0.01175300358 -0.07099268909
635.0 -0.05156250462 -0.04493173448
635.625 -0.04987659928 -0.03578017746
636.25 -0.03573652107 -0.02418083074
636.875 -0.007330721761 -0.05434988073
637.5 -0.01779006984 -0.0695345839
638.125 -0.03280004977 -0.04464247597
638.75 -0.02006543006 -0.02906590313
639.375 0.01143593133 -0.01867068722
640.0 0.06396239303 -0.01063340089
640.625 0.05256535195 -0.01975410176
641.25 0.03870537889 -0.02864009379
641.875 0.04872546036 -0.01990320889
642.5 0.05102368204 -0.01577478316
643.125 0.05329769077 0.007377322931
643.75 0.06430719053 0.01281795966
644.375 0.05872054674 0.00356335283
645.0 0.04164241115 -0.001699498917
645.625 0.03705410936 0.01673378018
646.25 0.05127963706 0.03009213801
646.875 0.06898616037 0.0352797907
647.5 0.06318478588 0.02613438475
648.125 0.04712904635 0.01965041136
648.75 0.03815247093 0.04242318709
649.375 0.04125391662 0.07700677829
650.0 0.03939871602 0.07657577096
650.625 0.04049528295 0.04792252171
651.25 0.01085557871 0.0638700685
651.875 -0.01857412816 0.06115412065
652.5 -0.03113010769 0.04783827106
653.125 -0.01544596046 0.03812800515
653.75 -0.0173630772 0.005525067565
654.375 -0.01884530995 -0.03374389752
655.0 -0.02775787631 -0.05751453981
655.625 -0.0351573671 -0.05160150533
656.25 -0.05895732034 -0.05513338154
656.875 -0.06785697426 -0.03674691682
657.5 -0.08060669698 -0.05588117133
658.125 -0.08945659486 -0.05662471121
658.75 -0.09981566003 -0.03715726181
659.375 -0.08759361059 0.01232632972
660.0 -0.06421140634 0.02757269677
660.625 -0.06954256827 0.02149102253
661.25 -0.04772343427 0.01449584378
661.875 -0.03010592103 0.0204418698
662.5 -0.04527958048 0.02251040638
663.125 -0.04651491216 0.005682610721
663.75 -0.06275321295 -0.03197070492
664.375 -0.05244005511 -0.06518369464
665.0 -0.02526654889 -0.1018063553
665.625 0.01665002842 -0.09104529096
666.25 0.03405410959 -0.08030271625
666.875 0.04491671053 -0.08108724063
667.5 0.06685477143 -0.08425808071
668.125 0.03925481021 -0.04621226238
668.75 0.03023734724 -0.02730189165
669.375 0.04248204091 -0.02341286748
670.0 0.08229979722 -0.03048644589
670.625 0.05118554404 -0.01310336797
671.25 0.05712785182 -0.02504342443
671.875 0.06358543862 -0.03403911651
672.5 0.06278146844 -0.08394433051
673.125 0.0244035361 -0.07783460787
673.75 0.01060688339 -0.08585228938
674.375 0.03290064843 -0.0794550585
675.0 0.06460694075 -0.05185416712
675.625 0.04295890319 -0.02186563733
676.25 0.06439955368 -0.003021658773
676.875 0.05833245809 0.0253789963
677.5 0.03601712018 0.04493266448
678.125 0.01430694812 0.04592721527
678.75 0.03983280742 0.07785046501
679.375 0.05175853931 0.1029379021
680.0 0.05081558887 0.09039497323
680.625 0.07066073112 0.06303815148
681.25 0.09405153777 0.03938762431
681.875 0.1117146751 0.02085122671
682.5 0.08312182324 -0.02173875624
683.125 0.0739080491 -0.03111648537
683.75 0.04454700256 0.004977060072
684.375 0.04123741283 0.05139368474
685.0 0.007628938356 0.06228617801
685.625 -0.04421727679 0.04813278547
686.25 -0.06606156338 0.0004035442003
686.875 -0.07954546401 -0.03507580483
687.5 -0.08837293255 -0.04434642514
688.125 -0.116151143 -0.063933379
688.75 -0.09611977773 -0.07533317539
689.375 -0.07593915513 -0.05790570301
690.0 -0.07579054483 -0.05502856591
690.625 -0.08443195648 -0.05837150483
691.25 -0.08775040549 -0.04507894964
691.875 -0.03909742779 0.007875683611
692.5 -0.03889219885 0.009688160519
693.125 -0.04786601746 0.06011321784
693.75 -0.01825219898 0.122452484
694.375 -0.003494181673 0.09008170417
695.0 -0.02431146489 0.09918546893
695.625 -0.09827400024 0.0592711744
696.25 -0.09913042222 -0.0567248785
696.875 -0.03745989572 -0.1140186912
697.5 0.04192923886 -0.06881013834
698.125 0.05155833352 -0.04928855923
698.75 0.04202225202 -0.04038186342
699.375 0.05728609552 -0.02350130442
700.0 0.07772892524 0.001048661274
700.625 0.06666803749 0.03118054282
701.25 0.05734560592 0.03671286887
701.875 0.09822765356 0.02334963013
702.5 0.1369314746 -0.01567982406
703.125 0.08444702278 -0.06395615169
703.75 -0.01374055487 -0.0812911922
704.375 -0.05795930078 -0.0600846446
705.0 0.008256984288 -0.07748540141
705.625 0.02830635601 -0.07198533115
706.25 0.04924246952 -0.04016628774
706.875 0.05141913272 0.02124552837
707.5 0.02672676759 0.07332342084
708.125 -0.04059553983 0.08508672599
708.75 -0.07285705434 0.07312690612
709.375 -0.09204445597 0.0201292431
710.0 -0.08607751468 -0.01767442133
710.625 -0.05485824193 -0.06441776733
711.25 -0.06747360301 -0.08043817338
711.875 -0.08521379437 -0.0668493214
712.5 -0.06839934284 -0.012297922
713.125 -0.04188407488 0.03120951203
713.75 -0.0415531493 0.03902232027
714.375 -0.04565021183 0.05292136653
715.0 -0.01735123191 0.05866114013
715.625 -0.05933094995 0.05810951597
716.25 -0.08242830426 0.0653053974
716.875 -0.1097212829 0.01636783509
717.5 -0.08889921492 -0.02967958571
718.125 -0.07479971172 -0.02675866996
718.75 -0.05863338348 -0.05937298194
719.375 -0.01431573806 -0.08819247398
720.0 0.01701952814 -0.0698421232
720.625 0.0374206092 -0.05652216461
721.25 0.03514053096 0.02422869546
721.875 0.001754382573 0.02849638911
722.5 -0.04036168055 0.02362597656
723.125 -0.07060010094 0.0557541414
723.75 -0.01185016988 0.09762532445
724.375 0.06009667441 0.06982248419
725.0 0.07782895782 -0.006565262559
725.625 0.04813715994 -0.04716318898
726.25 0.06682592859 -0.01414677925
726.875 0.05054702267 -0.01654793009
727.5 0.03856945108 0.01247437313
728.125 0.02463395735 0.034331699
728.75 0.01923941439 0.03738255882
729.375 0.03011077368 0.04936565723
730.0 0.03434445907 0.05227118527
730.625 0.003735811616 0.05848986162
731.25 -0.00166456466 0.02531378614
731.875 -0.07243887275 0.02485393594
732.5 -0.06288238178 -0.008404138797
733.125 -0.03956603675 -0.0091501841
733.75 -0.01864682864 0.01057778424
734.375 -0.02943200623 -0.02538691485
735.0 -0.04298745162 -0.0229458108
735.625 -0.02917030297 -0.0130460657
736.25 -0.005183216187 -0.02241943419
736.875 -0.07741982305 -0.02827450987
737.5 -0.08573892117 -0.03782741182
738.125 -0.06798987551 -0.03366399983
738.75 -0.0214736096 0.002941203176
739.375 -0.02634265632 -0.0598254983
740.0 -0.002285628965 -0.04405362756
740.625 -0.01162478427 -0.02919671376
741.25 -0.01587792798 -0.02142818904
741.875 0.01683507415 -0.004378727545
742.5 0.04863229002 0.008021569914
743.125 -0.005467859761 0.02509189004
743.75 -0.01512889016 0.02394620632
744.375 -0.0337730694 0.02071856504
745.0 -0.04885713537 0.02220834857
745.625 -0.05264447222 0.05244753885
746.25 -0.003582839104 0.07554187457
746.875 0.01891632773 0.04455205497
747.5 0.04414999761 0.01240869498
748.125 0.03231044773 -0.003055134475
748.75 0.02293985676 0.007780308608
749.375 0.02531498738 -0.004392233462
750.0 0.003616950851 -0.03146592577
