!Created with skrf (http://scikit-rf.org).
# GHz S RI R 50.0 
!freq ReS11 ImS11
500.0 -0.01718536448 0.02063393774
500.625 0.02068480133 0.02628361298
501.25 0.02482698682 0.02387635253
501.875 0.02230930517 0.02499587538
502.5 0.009277845605 0.04518430033
503.125 0.03028270612 0.04973025976
503.75 0.04466388259 -0.001633397135
504.375 0.0407547044 -0.01210328798
505.0 0.04351970172 -0.02843301304
505.625 0.07231894816 -0.03538382725
506.25 0.03583407019 -0.05802315613
506.875 0.05069629836 -0.05471304846
507.5 0.05019875751 -0.03973021214
508.125 0.07821343389 -0.006360337903
508.75 0.03878586926 -0.05828766689
509.375 0.02571581342 -0.04440460495
510.0 0.06049545914 -0.0377256946
510.625 0.003895644778 -0.07339827684
511.25 -0.04205843116 -0.04668460625
511.875 -0.05188779797 -0.005479877188
512.5 -0.03446271182 0.01213803233
513.125 -0.03551173538 0.02800544808
513.75 -0.01614685202 0.04065941757
514.375 -0.01319110326 0.06328064173
515.0 0.005004291701 0.08655158188
515.625 -0.02614682087 0.09156012213
516.25 0.02918385324 0.09959611812
516.875 -0.0483981209 0.119146992
517.5 0.04256702088 0.1049171449
518.125 -0.05001719947 0.1170492442
518.75 0.02971436383 0.04369923337
519.375 0.01624305692 0.07087907221
520.0 0.04376349121 0.07966910431
520.625 0.06413106743 0.03476497567
521.25 0.05800248971 0.02085512079
521.875 0.03437049772 0.05026038934
522.5 0.06607659213 0.01032143414
523.125 0.1191052361 -0.02189419332
523.75 0.1088807213 -0.06618982614
524.375 0.05951360829 -0.02170090085
525.0 0.005893686588 0.006884430517
525.625 0.004684855345 0.001647184406
526.25 0.01059698118 0.02660614904
526.875 0.0207388785 0.03414328298
527.5 0.03085428678 0.03038232418
528.125 0.02711911456 -0.003439018968
528.75 0.05644176997 -0.01097411426
529.375 0.03220247315 -0.03894881227
530.0 0.03008433353 -0.03305343841
530.625 0.007345476657 -0.06965873844
531.25 0.01681660794 -0.1493815202
531.875 -0.05304775182 -0.1443923599
532.5 -0.09383489806 -0.09172811078
533.125 -0.06687796897 -0.02864653304
533.75 -0.07101066897 -0.04927791828
534.375 -0.06944625995 -0.0332482666
535.0 -0.07037251822 -0.02265647347
535.625 -0.03221002128 -0.02139738306
536.25 -0.02780838405 -0.02664688707
536.875 -0.04368445626 -0.06143671761
537.5 -0.05235666574 -0.0940345947
538.125 -0.07154206397 -0.0528198646
538.75 -0.05479623534 -0.02248283107
539.375 -0.03867279069 -0.04427269772
540.0 -0.06278141874 -0.09170389388
540.625 -0.05739800007 -0.08900979376
541.25 -0.04018197763 -0.08215243343
541.875 -0.04940707128 -0.0801425828
542.5 -0.0606296571 -0.09924117075
543.125 -0.09008345777 -0.04949070414
543.75 -0.08829720916 0.02385858054
544.375 -0.05644782895 0.0449003138
545.0 -0.03111987954 0.06366297978
545.625 -0.006370932244 0.0537396207
546.25 0.01508171707 0.07211331065
546.875 0.02235864797 0.07235694979
547.5 0.02089974764 0.09736301814
548.125 0.009460318313 0.06436024111
548.75 -0.00561952156 0.06302702826
549.375 -0.01094958518 0.06396903683
550.0 -0.04705661992 0.03642224737
550.625 -0.00628584166 0.000882247698
551.25 -0.01848468396 -0.03096993988
551.875 -0.04341145035 -0.03962451481
552.5 -0.08376267019 -0.04524718999
553.125 -0.05695954747 -0.02456469298
553.75 -0.06881571254 -0.02844954108
554.375 -0.08964328445 0.00605962016
555.0 -0.1009719657 0.02984597241
555.625 -0.07004675308 0.03127032451
556.25 -0.07918099474 0.02189216871
556.875 -0.09466727154 0.01985283643
557.5 -0.08773422816 0.03451734457
558.125 -0.08528591528 0.03278572455
558.75 -0.06764462676 0.00900766412
559.375 -0.03939169959 0.006415584208
560.0 -0.03335988585 -0.00128900156
560.625 -0.02742491384 -0.02879632838
561.25 -0.05677493745 -0.03426122874
561.875 -0.07381813571 -0.01698981689
562.5 -0.07279628425 0.02166323352
563.125 -0.06359545214 0.04411668083
563.75 -0.05227954023 0.08053387177
564.375 -0.02139449383 0.0809909107
565.0 -0.01551850865 0.08733246657
565.625 -0.009144026997 0.05640867408
566.25 -0.04090579267 0.04440516079
566.875 -0.05655381995 0.02918805578
567.5 -0.05947357846 0.02127553717
568.125 -0.06811394072 0.01788499463
568.75 -0.03749622676 0.00303097934
569.375 -0.02231306743 -0.013899795
570.0 -0.02537454441 -0.02946322051
570.625 -0.04355479118 -0.04347424521
571.25 -0.04221554275 -0.03472224092
571.875 -0.05376748947 -0.03494835137
572.5 -0.0865703778 -0.01059057926
573.125 -0.1117786403 0.03327766685
573.75 -0.05832384891 0.05598433487
574.375 -0.03037862519 0.06939577483
575.0 -0.04139896656 0.06801422181
575.625 -0.05022509471 0.06801378514
576.25 -0.03289787953 0.06917164935
576.875 -0.01051951706 0.07013581662
577.5 -0.001030626164 0.07835884471
578.125 -0.0128059658 0.04652142399
578.75 -0.01092319536 0.04150604646
579.375 -0.00945871653 0.04476497717
580.0 -0.01600326288 0.03536028136
580.625 -0.0277522817 0.01946130006
581.25 -0.05291077522 0.007428107779
581.875 -0.0738947079 0.02353563585
582.5 -0.07470875423 0.04618993245
583.125 -0.05571666485 0.06061378788
583.75 -0.05846537159 0.01766434533
584.375 -0.06963447587 0.01610270962
585.0 -0.07446070916 0.01034985649
585.625 -0.06069437549 0.03647834267
586.25 -0.05258795536 0.006272764106
586.875 -0.05792143702 -0.0007476154477
587.5 -0.05787316463 0.02093991297
588.125 -0.02228049601 0.05521539009
588.75 -0.03053705322 0.02695195135
589.375 -0.03920491385 0.01749998381
590.0 -0.04301532788 0.02008824182
590.625 -0.03255499005 0.05394853014
591.25 -0.05336724419 0.07546797082
591.875 -0.0239532494 0.09079886487
592.5 -0.000729843849 0.07432214795
593.125 0.01395241666 0.06204822155
593.75 -0.02686144051 0.05304820672
594.375 -0.03329073288 0.04331870438
595.0 -0.03321709492 0.0229089168
595.625 -0.02899144002 0.01630854351
596.25 -0.03196185105 -0.02547932199
596.875 -0.03552298872 -0.01787653178
597.5 -0.03488291011 -0.01573319398
598.125 -0.02823956884 -0.001343291658
598.75 -0.01639399233 -0.02539451418
599.375 -0.01244269484 -0.04664511252
600.0 -0.02305045629 -0.05197686279
600.625 -0.03538993714 -0.05490951014
601.25 -0.03163275043 -0.08091627392
601.875 -0.05115845084 -0.05140357776
602.5 -0.05538059728 -0.03296514513
603.125 -0.05505031491 -0.01961971724
603.75 -0.03332630797 -0.02363967605
604.375 -0.01754272209 -0.02247144621
605.0 -0.009551566476 -0.0373208191
605.625 -0.008958516548 -0.04673455955
606.25 -0.02419109821 -0.03242342316
606.875 0.0001126081192 -0.02155062507
607.5 0.0156455701 -0.01276317521
608.125 0.01576197379 -0.01391131373
608.75 0.02379335985 -0.0224403958
609.375 0.0312672155 -0.01817901492
610.0 0.04181542912 -0.01243422454
610.625 0.04534826623 -0.01613857233
611.25 0.0375513675 -0.02112484193
611.875 0.05636701813 -0.01646144309
612.5 0.05268168498 -0.004670963889
613.125 0.02124948919 -0.002746718518
613.75 -0.001713545756 0.002374114923
614.375 0.02792480996 0.02122322825
615.0 0.02932957741 0.01783170767
615.625 0.01426093962 0.009586923066
616.25 0.01407708969 0.01743930962
616.875 0.01750292646 0.03122863598
617.5 0.03425609854 0.03743112933
618.125 0.02554927318 0.03536942069
618.75 0.01778359732 0.0257990475
619.375 0.02278452742 0.04282137845
620.0 0.0399585135 0.0450528086
620.625 0.04265277357 0.01272057329
621.25 0.001859037037 -0.01402042925
621.875 0.003554506839 0.001024815784
622.5 -0.02249487495 0.008116148907
623.125 -0.0351140898 0.03879655046
623.75 -0.02653426116 0.05285746426
624.375 -0.02878175048 0.05210614825
625.0 -0.03955777086 0.03754218716
625.625 -0.04520026801 0.04473184027
626.25 -0.03757188646 0.06019696141
626.875 -0.0241411724 0.04990218011
627.5 -0.01473606322 0.05354273849
628.125 -0.01975830111 0.04742424482
628.75 -0.03292013772 0.0206015863
629.375 -0.02115529374 -0.001203014197
630.0 -0.01927537683 0.02696264457
630.625 -0.01241108021 -0.002214058751
631.25 0.000199944653 -0.03367548016
631.875 0.003053342158 -0.05510274407
632.5 -0.02262432441 -0.0426381383
633.125 -0.03106205117 -0.04978698836
633.75 -0.03173421657 -0.05113124873
634.375 -0.02038560591 -0.07241825032
635.0 -0.04971749188 -0.0527211912
635.625 -0.05071016636 -0.03592083277
636.25 -0.03378029628 -0.02556703083
636.875 -0.01873945153 -0.04448755995
637.5 -0.02032080005 -0.07901396488
638.125 -0.06016681347 -0.03396608372
638.75 -0.03963516782 -0.01222089015
639.375 -0.003332471704 -0.0250614782
640.0 0.063745628 -0.0231761258
640.625 0.03495131178 -0.03625864509
641.25 0.04155131832 -0.03399171875
641.875 0.04365503728 -0.03371262677
642.5 0.06675307793 0.0001240132747
643.125 0.05612338342 -9.971838098e-05
643.75 0.05122984121 -0.0116435641
644.375 0.0589854198 -0.01292391217
645.0 0.05589551402 0.004843387433
645.625 0.02847419877 -0.007555325628
646.25 0.04617128865 0.01280194092
646.875 0.07562909371 0.01949177072
647.5 0.06633693792 0.01763629694
648.125 0.04528590082 0.004470605861
648.75 0.04954091642 0.04730485188
649.375 0.05054086163 0.07797307126
650.0 0.04469674237 0.06822624629
650.625 0.03807900543 0.0715044298
651.25 0.01770456081 0.07057925857
651.875 -0.02120358662 0.06715938665
652.5 -0.02482185959 0.05263679983
653.125 -0.03327881449 0.04220840251
653.75 -0.03422330262 0.01524374491
654.375 -0.0252669856 -0.02061725786
655.0 -0.03488055566 -0.05096158364
655.625 -0.044087383 -0.04986147039
656.25 -0.07081966562 -0.0527440987
656.875 -0.0775216861 -0.03882209975
657.5 -0.08080415865 -0.04368256315
658.125 -0.1059784039 -0.05043638769
658.75 -0.09328564096 -0.007361860416
659.375 -0.07541938344 0.02517502453
660.0 -0.057582777 0.04173986184
660.625 -0.06943835683 0.03856418672
661.25 -0.03152436533 0.03161535153
661.875 -0.03265635268 0.03302970439
662.5 -0.03047914887 0.03164367256
663.125 -0.07171337792 0.02294812521
663.75 -0.04981813675 -0.01624777505
664.375 -0.04253833257 -0.04961552209
665.0 -0.03000740856 -0.08374132935
665.625 0.002708211014 -0.09237020308
666.25 0.02495582687 -0.08706040943
666.875 0.03232947589 -0.08398002497
667.5 0.0514262563 -0.08684131976
668.125 0.04656448027 -0.06366969069
668.75 0.03463966302 -0.04302163209
669.375 0.04635931481 -0.02989110807
670.0 0.06590334477 -0.03190951786
670.625 0.07564883676 -0.02660515645
671.25 0.04956784369 -0.03156123588
671.875 0.05881432532 -0.03960863665
672.5 0.04314208295 -0.08687290814
673.125 0.02319492138 -0.1060761637
673.75 -9.152839462e-06 -0.09609127424
674.375 0.01730582968 -0.08766086717
675.0 0.05668407925 -0.06472475477
675.625 0.05855800652 -0.03688625181
676.25 0.06172043781 -0.01679427513
676.875 0.07432901777 0.008493191303
677.5 0.04143997309 0.03654986077
678.125 0.03863856367 0.044822334
678.75 0.03997545453 0.06760275899
679.375 0.05289813103 0.09340694166
680.0 0.0608494922 0.08735088433
680.625 0.08774753117 0.05628325661
681.25 0.08544905479 0.02654772481
681.875 0.115782535 0.003798668597
682.5 0.09462346666 -0.03598612582
683.125 0.06507181163 -0.03600332525
683.75 0.07393034059 -0.01332132581
684.375 0.04779570027 0.03970814402
685.0 0.01141180257 0.05305408011
685.625 -0.03295019049 0.05027166332
686.25 -0.06898203251 0.0241390858
686.875 -0.06928668597 -0.03183878296
687.5 -0.08433261492 -0.04712274347
688.125 -0.1173681598 -0.05217390773
688.75 -0.1226505161 -0.06876019452
689.375 -0.06934392792 -0.04853793443
690.0 -0.08036769803 -0.04545648669
690.625 -0.09001966996 -0.03996179048
691.25 -0.1112636169 -0.03147951718
691.875 -0.04975726747 0.01740999522
692.5 -0.03466086832 0.02969988666
693.125 -0.02864882866 0.07604992606
693.75 -0.0005226306935 0.1210933785
694.375 0.02543460255 0.104000808
695.0 -0.02462066674 0.08382846557
695.625 -0.08757024182 0.06878407201
696.25 -0.1045287865 -0.04281010099
696.875 -0.04337114121 -0.1095932645
697.5 0.02650156093 -0.1084098856
698.125 0.04682382894 -0.07236601198
698.75 0.03510286608 -0.04678824599
699.375 0.05227162588 -0.05178076878
700.0 0.06641644169 0.004888697236
700.625 0.06072910286 0.03201268929
701.25 0.05619580573 0.03021983083
701.875 0.09735320008 0.006989624434
702.5 0.1238973269 -0.00715551867
703.125 0.08708698619 -0.0843219171
703.75 -0.02974440152 -0.09250690788
704.375 -0.0515360853 -0.0571387053
705.0 -0.05546753518 -0.08090388763
705.625 0.03208096916 -0.06270135583
706.25 0.04872401223 -0.03103544311
706.875 0.05129552406 0.01303887293
707.5 0.04522471017 0.05872425006
708.125 -0.04913558407 0.07942864709
708.75 -0.07094621093 0.06966081974
709.375 -0.08713562768 0.02750430778
710.0 -0.08982532729 -0.007896495349
710.625 -0.07664134951 -0.04351205879
711.25 -0.06923219272 -0.07961251327
711.875 -0.0898304402 -0.06135985662
712.5 -0.09019044778 0.0002503175805
713.125 -0.04303689154 0.02019825328
713.75 -0.03128817432 0.04515040175
714.375 -0.02077500556 0.06994341131
715.0 -0.01636296054 0.06186592158
715.625 -0.01687531274 0.06314910538
716.25 -0.07663806568 0.06665257299
716.875 -0.1229205302 0.02251530199
717.5 -0.09156473501 -0.02801299461
718.125 -0.0806360338 -0.01792087732
718.75 -0.05599480963 -0.0688643092
719.375 -0.04766765097 -0.07663136283
720.0 0.0007714697677 -0.08633361943
720.625 0.04902441213 -0.04758868231
721.25 0.03463873303 0.02616930376
721.875 -0.02054199622 0.03690262231
722.5 -0.03975999832 0.03169761012
723.125 -0.0264198995 0.05741227003
723.75 -0.02616634534 0.1129538524
724.375 0.06638106269 0.05074982568
725.0 0.07235523843 -0.0124924131
725.625 0.071531105 -0.04296576949
726.25 0.047927086 -0.0525079033
726.875 0.05218160186 -0.02275603358
727.5 0.0522393269 0.005923678737
728.125 0.02687173846 0.0373277264
728.75 0.02635977974 0.02684946115
729.375 0.03062010902 0.07076076849
730.0 0.03730424773 0.0316905397
730.625 0.02278686271 0.0374401098
731.25 -0.01053579361 0.05258456236
731.875 -0.0363876584 0.03428231545
732.5 -0.06230608605 -0.003192273291
733.125 -0.06384220257 -0.03765844395
733.75 -0.0420476883 -0.008796279744
734.375 -0.0361890582 -0.04040068081
735.0 -0.04569472714 -0.01270751631
735.625 -0.0361398722 -0.01224175692
736.25 -0.02410971238 -0.008090179667
736.875 -0.05851156486 -0.02303557933
737.5 -0.06727284028 -0.02662863131
738.125 -0.07092181883 -0.02063442059
738.75 -0.05207699925 -0.0151991366
739.375 -0.01453986407 -0.005650837037
740.0 -0.012337546 -0.04860007728
740.625 -0.04300344712 -0.04663985076
741.25 -0.02413224336 -0.03150869349
741.875 0.01802206764 -0.003947175487
742.5 0.03206128908 0.006147971009
743.125 0.01529907109 0.03739169931
743.75 -0.009685325027 0.03663848969
744.375 -0.0475399898 0.002632423739
745.0 -0.03407595946 0.06104583344
745.625 -0.02221259471 0.07501540803
746.25 0.005725010154 0.0808589221
746.875 0.03383647659 0.04656179587
747.5 0.04847408566 0.01025605331
748.125 0.0241780494 0.001270994959
748.75 0.02601503004 -0.006652072751
749.375 0.02739454519 -0.01785438745
750.0 0.01694839255 -0.03370124651
