!Created with skrf (http://scikit-rf.org).
# GHz S RI R 50.0 
!freq ReS11 ImS11
500.0 -0.007034617791 0.01911864391
500.625 0.02145587743 0.02195261969
501.25 0.02972565959 0.0286884292
501.875 0.02663016775 0.01089934568
502.5 0.007036198082 0.04947048428
503.125 0.03615943316 0.04265486657
503.75 0.03442915449 -0.01222539743
504.375 0.038860448 -0.01190926272
505.0 0.04282465894 -0.02999335689
505.625 0.06366427221 -0.05071069707
506.25 0.03899124911 -0.06062447644
506.875 0.05254276972 -0.05377730765
507.5 0.03400630203 -0.05790802557
508.125 0.09329038286 -0.02610063159
508.75 0.01579337355 -0.07307194178
509.375 0.005658430973 -0.05219916753
510.0 0.04750236083 -0.05065287331
510.625 -0.01410644033 -0.08448134261
511.25 -0.0551524219 -0.03398112025
511.875 -0.05422159147 -0.00483614524
512.5 -0.03755925686 0.02088035549
513.125 -0.02985592946 0.04667719052
513.75 0.00201353297 0.04396360591
514.375 0.00158574907 0.06380328042
515.0 0.03275480432 0.07829896308
515.625 -0.02763811824 0.1069991022
516.25 0.04622939401 0.09714293602
516.875 -0.02846539655 0.1308533283
517.5 0.07151586007 0.1002564816
518.125 -0.06377898643 0.1545125742
518.75 0.04385596258 0.05061807501
519.375 0.03656884177 0.07386362649
520.0 0.07120194702 0.07798671149
520.625 0.07678452041 0.04303402811
521.25 0.07431419446 0.01964885617
521.875 0.05429765385 0.04186903369
522.5 0.08221497791 0.0002823039622
523.125 0.1484867521 -0.02450660051
523.75 0.1165067606 -0.1157393481
524.375 0.09859096064 -0.06278975627
525.0 0.02701447044 -0.0001402661673
525.625 0.009930993496 -0.005188099488
526.25 0.02798581779 0.02427627111
526.875 0.03809569462 0.01700811688
527.5 0.04097599329 0.01317099684
528.125 0.03178013148 -0.01204861777
528.75 0.0544696969 -0.03725449947
529.375 0.02005757876 -0.06458616048
530.0 0.006656610146 -0.04776313503
530.625 -0.004312882415 -0.0459398768
531.25 -0.02605943048 -0.1323553193
531.875 -0.0907790067 -0.1239820374
532.5 -0.1282021956 -0.07117829072
533.125 -0.08384503165 -0.01841149097
533.75 -0.1056606871 -0.02792658096
534.375 -0.08859145636 -0.02221591813
535.0 -0.08371417763 0.001639294732
535.625 -0.0521695473 -0.01312055962
536.25 -0.04846580125 -0.007319024675
536.875 -0.05617004147 -0.04197940634
537.5 -0.08094001846 -0.07365472978
538.125 -0.0804448119 -0.02451898697
538.75 -0.07996260061 -0.009968270962
539.375 -0.05530841978 -0.0224576369
540.0 -0.08283058367 -0.05661156093
540.625 -0.07590723815 -0.05740593186
541.25 -0.06851368642 -0.07069310772
541.875 -0.06744087569 -0.05947670122
542.5 -0.08974487873 -0.07214784787
543.125 -0.1030853758 -0.02866920814
543.75 -0.1000612112 0.04681043675
544.375 -0.05878931101 0.06688940236
545.0 -0.0001945550517 0.08426695272
545.625 0.01336691915 0.08039293295
546.25 0.04520037831 0.07075833121
546.875 0.0525111146 0.06570448358
547.5 0.06620576133 0.08571424781
548.125 0.03388378244 0.07176253724
548.75 0.01761991035 0.0758896373
549.375 0.01934735408 0.08511677475
550.0 -0.03172053204 0.08044000308
550.625 -0.018008719 0.02833063042
551.25 -0.02414904973 -0.004598884362
551.875 -0.04520642081 -0.009543121744
552.5 -0.09312769381 0.003048083356
553.125 -0.06204264522 -0.006250735268
553.75 -0.07333620924 -0.002700947967
554.375 -0.08342094807 0.03705959181
555.0 -0.08893744179 0.06386526437
555.625 -0.07046721379 0.06196940241
556.25 -0.06810307615 0.04414383334
556.875 -0.08732125576 0.05054532321
557.5 -0.07931082662 0.05622278335
558.125 -0.08591121937 0.06738712204
558.75 -0.07044109397 0.0367375297
559.375 -0.05874340522 0.0334876019
560.0 -0.04078625547 0.01773597207
560.625 -0.04069806274 -3.437669534e-05
561.25 -0.06056440224 -0.00254091048
561.875 -0.0839221437 0.01761855242
562.5 -0.06529993372 0.04231105982
563.125 -0.0480204603 0.07012999309
563.75 -0.02164716174 0.1056782264
564.375 -0.002113109237 0.1031383728
565.0 0.008618074115 0.1005771728
565.625 0.01439287436 0.07908693811
566.25 -0.01281886954 0.07998633722
566.875 -0.04919913557 0.05908742217
567.5 -0.05189473698 0.04502291944
568.125 -0.06512239609 0.05560371778
568.75 -0.04821136564 0.02303834177
569.375 -0.03832009886 0.008939898619
570.0 -0.02780678145 -0.008937265475
570.625 -0.0583589789 -0.002494664755
571.25 -0.05554090547 -0.01133689186
571.875 -0.05383738029 -0.01116510993
572.5 -0.07376577252 0.01331346961
573.125 -0.08806011622 0.07523801429
573.75 -0.05329465045 0.07541308069
574.375 -0.01025628942 0.07717741693
575.0 -0.0085156499 0.07598311422
575.625 -0.01399574786 0.09953566806
576.25 -0.01426406986 0.08962495011
576.875 0.01348249128 0.07953870522
577.5 0.02875451623 0.0802851394
578.125 0.01245020265 0.07936103033
578.75 0.0046961338 0.05711279637
579.375 0.01062601169 0.05384028704
580.0 0.008340189044 0.04810454142
580.625 0.0002686729227 0.04426993591
581.25 -0.03861488649 0.02095344508
581.875 -0.04995908206 0.04209194343
582.5 -0.05800290135 0.06478015324
583.125 -0.03797674318 0.07919347509
583.75 -0.04754599308 0.04817368881
584.375 -0.05119766723 0.04951811785
585.0 -0.07204033278 0.05461295914
585.625 -0.05394561921 0.05869775641
586.25 -0.05209953994 0.02795243528
586.875 -0.05506272403 0.03106387665
587.5 -0.05497995524 0.04307215543
588.125 -0.006599754331 0.06825423784
588.75 -0.01239920773 0.04953727726
589.375 -0.0005994289159 0.04678206632
590.0 -0.01663575645 0.04016052555
590.625 -0.01377218545 0.05317474769
591.25 -0.01391160006 0.08281520755
591.875 0.01583905412 0.09764631658
592.5 0.03119368242 0.08592944252
593.125 0.03269135013 0.06296663086
593.75 0.004453158733 0.06528907237
594.375 -0.007729056202 0.07293531309
595.0 -0.01996113934 0.05159024348
595.625 -0.02415436549 0.03604777434
596.25 -0.03781323147 0.01461166886
596.875 -0.04794968956 0.003505909576
597.5 -0.04362448638 0.01029213555
598.125 -0.03110902746 0.02054328194
598.75 -0.0323129421 -0.01078195044
599.375 -0.02383946814 -0.02435384265
600.0 -0.0315611928 -0.04094233483
600.625 -0.03803804281 -0.02690565206
601.25 -0.05920564939 -0.06399596915
601.875 -0.06788525958 -0.03026545807
602.5 -0.06250708227 -0.003812348612
603.125 -0.06545260213 -0.003280947944
603.75 -0.05589422625 0.0006284520977
604.375 -0.0316577528 -0.02356798782
605.0 -0.02542367272 -0.03403627497
605.625 -0.02393102452 -0.05228101197
606.25 -0.04229594697 -0.02203737205
606.875 -0.01108211965 -0.03672240816
607.5 -0.01223130232 -0.009806873835
608.125 -6.868931721e-05 -0.01856263559
608.75 -0.0004640717139 -0.009377559721
609.375 0.02093339602 -0.02455468803
610.0 0.0306780438 -0.02773469244
610.625 0.04182248426 -0.03250310759
611.25 0.02244043149 -0.01650509227
611.875 0.06186656089 -0.03848977717
612.5 0.04228408205 -0.02693882314
613.125 0.01205787741 -0.01818001998
613.75 0.002999324195 -0.004595385542
614.375 0.01265884676 0.007366202382
615.0 0.02898781381 0.0001258407656
615.625 0.01513488526 -0.001168345419
616.25 0.01594779144 0.007645786817
616.875 0.006415826989 0.02534870403
617.5 0.02877392467 0.02698222358
618.125 0.02307723858 0.02292826925
618.75 0.02617386026 0.02236239323
619.375 0.01917378452 0.03149176114
620.0 0.04601905356 0.03263775286
620.625 0.04594248267 0.009238596011
621.25 0.01202112057 -0.005964667453
621.875 0.01127124759 -0.01275046701
622.5 -0.02393225306 0.008370468104
623.125 -0.02133601607 0.03454890321
623.75 -0.0109290657 0.05106486763
624.375 -0.0308254518 0.0506091136
625.0 -0.0253145552 0.04914673097
625.625 -0.0248515524 0.05273975303
626.25 -0.01393463393 0.08077339695
626.875 -0.03067269594 0.06466636434
627.5 0.006530076236 0.0695757092
628.125 -0.01443129134 0.04695885159
628.75 -0.03053378767 0.04377318191
629.375 -0.03386168221 0.01329827992
630.0 -0.0132237028 0.02857304165
630.625 -0.01090549699 0.01058487474
631.25 -0.0167498237 -0.02204812167
631.875 -0.01850105177 -0.05640492872
632.5 -0.03229014186 -0.01925061754
633.125 -0.03681178756 -0.04611131412
633.75 -0.04586838214 -0.05532161143
634.375 -0.04705359063 -0.05805714053
635.0 -0.06302902824 -0.05041029424
635.625 -0.07388255894 -0.0141758755
636.25 -0.05120831917 -0.01041118122
636.875 -0.04138878449 -0.02302338028
637.5 -0.0574279845 -0.06601096229
638.125 -0.07316402925 -0.01648123752
638.75 -0.05377752857 -0.01222270737
639.375 -0.02004262758 -0.02698090389
640.0 0.03171889595 -0.04900281574
640.625 0.02764185814 -0.04943989621
641.25 0.03408435051 -0.04995768929
641.875 0.0310316189 -0.04741451284
642.5 0.07138702458 -0.04509977085
643.125 0.05006730247 -0.02993870033
643.75 0.05593932957 -0.0282179881
644.375 0.04376493751 -0.04662860189
645.0 0.06875431934 -0.03811406135
645.625 0.03467101108 -0.0222362812
646.25 0.05162646937 -0.006975738675
646.875 0.07981413864 -0.01479879853
647.5 0.08025847662 -0.0163280462
648.125 0.05576141609 -0.01197261093
648.75 0.06018295355 0.01849004582
649.375 0.07703706302 0.04695375225
650.0 0.07330658536 0.0584364825
650.625 0.069419702 0.0619579339
651.25 0.04710974963 0.06016114904
651.875 0.01370766628 0.08204785826
652.5 -0.002533773187 0.07339655392
653.125 -0.01833758508 0.07473271308
653.75 -0.0214503486 0.05026111013
654.375 -0.0465673598 0.009139953964
655.0 -0.04671249936 -0.02232360827
655.625 -0.06099373452 -0.02430238723
656.25 -0.07779219611 -0.00765395325
656.875 -0.09110811531 -0.004854365923
657.5 -0.083087014 -0.009755461905
658.125 -0.1103702141 -0.008031987891
658.75 -0.09763880666 0.02176927227
659.375 -0.09150020862 0.05170441767
660.0 -0.05981188156 0.07430306116
660.625 -0.04715054546 0.07798582236
661.25 -0.03031438731 0.06857922819
661.875 -0.02013789661 0.06301619221
662.5 -0.009552053552 0.05708889404
663.125 -0.03551621284 0.06957954673
663.75 -0.05072495328 0.01339220048
664.375 -0.06220253312 -0.02533381484
665.0 -0.05845905828 -0.05815516474
665.625 -0.04861746004 -0.09505881273
666.25 -0.008725155217 -0.1109845492
666.875 0.005267094484 -0.1056039455
667.5 0.009858208324 -0.1069204172
668.125 0.01701293255 -0.1194256795
668.75 0.01569942207 -0.0767538318
669.375 0.02317614509 -0.05248268975
670.0 0.03538308876 -0.06126453752
670.625 0.05727307956 -0.0844394216
671.25 0.02960695949 -0.04989855236
671.875 0.03092158157 -0.06093542779
672.5 0.0005213556479 -0.08958246653
673.125 -0.02840059657 -0.1224897384
673.75 -0.04018908129 -0.1028970649
674.375 -0.03052576214 -0.1071821122
675.0 0.0193031875 -0.1017180996
675.625 0.05316606337 -0.07904447588
676.25 0.05911450414 -0.0594628384
676.875 0.07149869471 -0.04745814453
677.5 0.07232052236 -0.006878513773
678.125 0.05710055171 0.01418330315
678.75 0.04640232025 0.03766511571
679.375 0.0796371515 0.05133386967
680.0 0.1046195183 0.06030779352
680.625 0.1052720324 0.02720859859
681.25 0.1028740989 -0.008645064251
681.875 0.1156246455 -0.06326366861
682.5 0.1032453017 -0.09423666867
683.125 0.0634353666 -0.07736255393
683.75 0.06772205814 -0.06077952822
684.375 0.07232055846 0.003816585136
685.0 0.06006832395 0.05727004472
685.625 0.00943981764 0.06751723291
686.25 -0.0320510632 0.06304300635
686.875 -0.06676748217 0.008169446126
687.5 -0.08573577724 -0.004951131391
688.125 -0.1125809123 -0.0013360035
688.75 -0.1481972634 -0.0008080228842
689.375 -0.1014041858 -0.03042695733
690.0 -0.1064636397 -0.01219073806
690.625 -0.1170060553 0.006541188135
691.25 -0.1376099378 0.04778197957
691.875 -0.07548197991 0.06495736011
692.5 -0.005708802045 0.06268389285
693.125 0.02071327958 0.06109735017
693.75 0.0652576604 0.08777844251
694.375 0.08387048139 0.09449605558
695.0 0.01447013065 0.08944959871
695.625 -0.03482425166 0.1035234306
696.25 -0.1276014095 0.02360168473
696.875 -0.09095994119 -0.09446316577
697.5 -0.02856660012 -0.1244450606
698.125 0.009003866404 -0.1042299591
698.75 0.01007261756 -0.09238759798
699.375 0.01250748294 -0.08129842025
700.0 0.05657798855 -0.04153599051
700.625 0.07854395248 -0.02293294256
701.25 0.06882301229 -0.006756069033
701.875 0.07870449307 -0.02844043981
702.5 0.1000770459 -0.07305232512
703.125 0.04670749424 -0.1593366372
703.75 -0.06226175988 -0.09950950939
704.375 -0.08932790144 -0.03067119153
705.0 -0.102835591 -0.01887095515
705.625 -0.01840952054 -0.09841611585
706.25 0.02587576205 -0.07260279363
706.875 0.05197986943 -0.01980078414
707.5 0.06592560948 0.008071602675
708.125 0.01207276202 0.089224887
708.75 -0.02500492175 0.09645014541
709.375 -0.06703722787 0.0693665286
710.0 -0.08744673745 0.03769661261
710.625 -0.09402063426 0.003986282524
711.25 -0.1020950145 -0.03635814733
711.875 -0.120161673 -0.02762996832
712.5 -0.1139035839 0.04826084882
713.125 -0.04248129155 0.05847440095
713.75 0.02853819073 0.06825739266
714.375 0.0500747555 0.06636657467
715.0 0.03400369259 0.06624189778
715.625 0.02469783775 0.05127871056
716.25 -0.03826859842 0.08317619889
716.875 -0.08767502315 0.08311711382
717.5 -0.101855168 0.02130642327
718.125 -0.08904910462 0.01393847202
718.75 -0.08723578079 -0.01274011021
719.375 -0.08900416677 -0.04122653543
720.0 -0.03464219948 -0.09354191691
720.625 0.02760566063 -0.07918373411
721.25 0.06596416689 -0.02168253705
721.875 0.0378681235 0.03984139339
722.5 -0.008218462145 0.04346099346
723.125 0.02012036654 0.03887544919
723.75 0.04075434037 0.08755255439
724.375 0.07957292941 0.009429655371
725.0 0.04840155122 -0.0466340698
725.625 0.04322004665 -0.06996187798
726.25 0.005398857577 -0.07341009895
726.875 0.06198088536 -0.04577625947
727.5 0.0566028178 -0.02815396778
728.125 0.05978652724 0.004281495851
728.75 0.03840866822 0.00651267566
729.375 0.05650956706 0.03293612344
730.0 0.04353075721 -0.003602475901
730.625 0.04344508928 0.02258995934
731.25 0.02125999589 0.04711421759
731.875 -0.007700906409 0.02903482339
732.5 -0.0712706847 0.0290800935
733.125 -0.07112353698 0.006959105151
733.75 -0.05224924223 0.01503470769
734.375 -0.03386085859 0.002864422516
735.0 -0.02144151971 0.01208486566
735.625 -0.01671993957 0.01095849034
736.25 -0.0173685656 0.00667721239
736.875 -0.02722127543 -0.01409675276
737.5 -0.06061289715 -0.007339072135
738.125 -0.08518577762 -0.001403964462
738.75 -0.06470469194 0.002629742802
739.375 -0.01065915566 0.004310598225
740.0 -0.067459394 -0.03036654429
740.625 -0.04264601963 -0.02165039973
741.25 -0.04197906718 -0.01621819724
741.875 0.002260012267 -0.01720036783
742.5 0.02403157135 0.003789416375
743.125 0.02359247168 0.02671908572
743.75 -0.000609646587 0.03840815597
744.375 -0.04297941626 0.02469840352
745.0 0.0118744527 0.0639564212
745.625 -0.00104634597 0.06003319807
746.25 0.01788531829 0.07942633994
746.875 0.05769272685 0.03791700098
747.5 0.04832966928 0.002421781002
748.125 0.03285582496 -0.01401813469
748.75 0.02307045391 -0.03085282151
749.375 0.01520809736 -0.03733813945
750.0 -0.008505157985 -0.04401199213
