!Created with skrf (http://scikit-rf.org).
# GHz S RI R 50.0 
!freq ReS11 ImS11
500.0 -0.02674893076 0.02306345096
500.625 0.02815512787 0.02863796095
501.25 0.03211710435 0.01818230733
501.875 0.02153277365 0.03098619351
502.5 -0.001982254028 0.06739793824
503.125 0.03212803771 0.03777316968
503.75 0.04157868339 0.01946179933
504.375 0.04535044278 0.0009826807685
505.0 0.05943472032 -0.01618350719
505.625 0.05501913591 -0.0453476013
506.25 0.03270895068 -0.05755937462
506.875 0.05758131655 -0.04347194803
507.5 0.04972688339 -0.04541937833
508.125 0.0759955712 -0.01659215083
508.75 0.04763659896 -0.05133762284
509.375 0.04496835335 -0.0417036509
510.0 0.05536562148 -0.04677171063
510.625 -0.002027687508 -0.06526719825
511.25 -0.0274706081 -0.05952625587
511.875 -0.04573038057 -0.01210260776
512.5 -0.0356084767 -0.007231687171
513.125 -0.02148516903 0.02878787925
513.75 -0.02655216564 0.03999764363
514.375 -0.03144604376 0.07036423175
515.0 0.03096194138 0.06462958192
515.625 -0.02901941226 0.08731632001
516.25 0.02608816066 0.1022484434
516.875 -0.06948247389 0.1194016341
517.5 0.04494949515 0.09878235851
518.125 -0.03761194382 0.1139652721
518.75 0.02133754303 0.04531942163
519.375 -0.0117333698 0.08373820895
520.0 0.04657844049 0.06254071815
520.625 0.05847089918 0.03475009973
521.25 0.05369159237 0.02589544606
521.875 0.02706505548 0.05941205748
522.5 0.06585248243 -0.005781612991
523.125 0.1101837366 -0.02547542387
523.75 0.1016689274 -0.0504887763
524.375 0.04883816186 0.006810449925
525.0 0.00564673838 -0.01374895636
525.625 -0.004068922312 0.02536710508
526.25 0.001846512071 0.04244407965
526.875 0.01114928801 0.04544546759
527.5 0.01950996993 0.02002153628
528.125 0.03511930174 0.01001909195
528.75 0.05045264945 -0.004661308369
529.375 0.05722929681 -0.03127425979
530.0 0.03089001331 -0.02513018258
530.625 0.01157828488 -0.08817840469
531.25 0.03167674622 -0.1698436229
531.875 -0.04216417338 -0.1618873882
532.5 -0.07810917137 -0.08150382049
533.125 -0.06425705342 -0.05355009684
533.75 -0.06339771763 -0.06033053886
534.375 -0.0707234114 -0.05310865288
535.0 -0.05120939648 -0.006323903371
535.625 -0.02347343303 -0.02755749991
536.25 -0.02739388297 -0.03935591999
536.875 -0.03896140653 -0.06129843301
537.5 -0.04021926333 -0.09159819632
538.125 -0.06473901084 -0.06352876374
538.75 -0.05114314825 -0.03552092657
539.375 -0.03438287566 -0.0559203104
540.0 -0.03598302812 -0.08253246906
540.625 -0.05543463509 -0.1211226655
541.25 -0.03472928333 -0.09458478413
541.875 -0.04021572635 -0.07669738379
542.5 -0.04570208077 -0.09507648472
543.125 -0.09081016277 -0.06966198873
543.75 -0.093265636 0.01205563364
544.375 -0.06920935555 0.0332266862
545.0 -0.01699062793 0.04207711592
545.625 -0.01417534542 0.04842666102
546.25 0.005105011416 0.06776540909
546.875 0.01390858057 0.07941707268
547.5 0.009021844917 0.07028701598
548.125 -0.003306001363 0.07255663938
548.75 -0.01726544218 0.06864368329
549.375 -0.03311557018 0.07482635552
550.0 -0.02124097273 0.01860795667
550.625 -0.01063779139 -0.008536587795
551.25 -0.009181407909 -0.03598733094
551.875 -0.05925400785 -0.05082320067
552.5 -0.06335861469 -0.05339601124
553.125 -0.07033763872 -0.03088948366
553.75 -0.07659243584 -0.03289136396
554.375 -0.103980893 0.003056623731
555.0 -0.08445674271 0.01315132427
555.625 -0.0691643143 0.02243911519
556.25 -0.08358978456 0.01515106257
556.875 -0.09960561375 0.01399735847
557.5 -0.08600802223 0.02751639854
558.125 -0.07590136275 0.02144761311
558.75 -0.06035550738 0.003152559213
559.375 -0.04438454838 -0.003470754094
560.0 -0.01862502933 -0.009589606532
560.625 -0.02076366613 -0.03757253695
561.25 -0.0529870571 -0.0429346154
561.875 -0.08073713893 -0.02295660695
562.5 -0.06561369636 0.007216723554
563.125 -0.07104831967 0.04345376378
563.75 -0.06040590043 0.07637872447
564.375 -0.02935114849 0.08643475962
565.0 -0.01971126511 0.0705943198
565.625 -0.0197389222 0.05096061236
566.25 -0.04508960626 0.03574758593
566.875 -0.06014124207 0.02613731749
567.5 -0.05520852491 0.008972783023
568.125 -0.05821566991 0.003690227363
568.75 -0.04555707992 -0.0002793403894
569.375 -0.02480367561 -0.0196551706
570.0 -0.02150289587 -0.03556284958
570.625 -0.03068803652 -0.05180899078
571.25 -0.03772882335 -0.0395130356
571.875 -0.05825190135 -0.03590435955
572.5 -0.08236454459 -0.02238032301
573.125 -0.1070167144 0.0133144784
573.75 -0.0638378068 0.06024360692
574.375 -0.03454417396 0.07086584285
575.0 -0.05217919613 0.03996648742
575.625 -0.05763333139 0.05464223287
576.25 -0.03696254171 0.06432944185
576.875 -0.01120586762 0.07886375297
577.5 -0.01684596556 0.05241615196
578.125 -0.02019101042 0.03786122996
578.75 -0.01405452958 0.03568438125
579.375 -0.01216694706 0.04466130937
580.0 -0.02064031956 0.02195402926
580.625 -0.03405318799 0.004663564819
581.25 -0.05300551187 0.005572953431
581.875 -0.07563030645 0.02458046843
582.5 -0.07714195621 0.04041465694
583.125 -0.06437714857 0.03872423464
583.75 -0.0636424184 0.02286202243
584.375 -0.07184478999 0.01268140022
585.0 -0.07804990438 0.01323985256
585.625 -0.06169808037 0.01945943437
586.25 -0.05821425284 0.01687672649
586.875 -0.06025084708 0.001232362678
587.5 -0.05653651195 0.01426073509
588.125 -0.03325140287 0.03899392142
588.75 -0.02904918206 0.03545769204
589.375 -0.03910158914 0.0181742982
590.0 -0.03987956229 0.02574788934
590.625 -0.05650452265 0.04528831469
591.25 -0.05193024178 0.0777256012
591.875 -0.03964809177 0.08016895654
592.5 0.004819777689 0.07695277169
593.125 -0.01241767966 0.05198880377
593.75 -0.02417666697 0.05720566377
594.375 -0.03442505024 0.0406885429
595.0 -0.0292901173 0.03375561201
595.625 -0.02832818474 -0.01375304754
596.25 -0.03029781381 -0.02983686593
596.875 -0.02836953578 -0.02586642919
597.5 -0.03623553669 -0.006810671551
598.125 -0.01638320545 -0.02404658114
598.75 -0.01132019112 -0.02683352949
599.375 -0.01072462408 -0.0414443673
600.0 -0.01988568654 -0.05289144574
600.625 -0.02472512267 -0.07413891128
601.25 -0.03722134734 -0.07234651105
601.875 -0.048934984 -0.05028227955
602.5 -0.05582877561 -0.01782531007
603.125 -0.03278649224 -0.05114329484
603.75 -0.02332207318 -0.03030930602
604.375 -0.01474377481 -0.02053566315
605.0 -0.01125442831 -0.029599932
605.625 -0.007399787516 -0.04199876164
606.25 -0.007408053191 -0.0352110979
606.875 -0.01574977392 -0.01284715713
607.5 0.0139816423 -0.008279409356
608.125 0.02618536943 -0.01284845413
608.75 0.03272131373 -0.02656489025
609.375 0.03189895233 -0.01178962492
610.0 0.03184640641 -0.003723290948
610.625 0.0458238047 -0.01057129864
611.25 0.04845280005 -0.02069710171
611.875 0.03616784167 -0.01814723618
612.5 0.03945317899 -0.007733153297
613.125 0.001092915661 -0.01031078415
613.75 0.02470125477 0.01743561345
614.375 0.03110342274 0.03084813263
615.0 0.03339603236 0.02766664275
615.625 -0.00253461872 0.004148581311
616.25 0.02486546622 0.03126220961
616.875 0.02505196194 0.03780949596
617.5 0.02854039839 0.04202123066
618.125 0.004142861741 0.02170684262
618.75 0.03419320529 0.04959901739
619.375 0.02581897357 0.04932893331
620.0 0.03323572231 0.03825731902
620.625 0.01779972537 -0.0002718579591
621.25 0.02073479257 -0.004234673561
621.875 0.001950575974 -0.003798902769
622.5 -0.02709285136 0.01100968576
623.125 -0.05320455865 0.04110615493
623.75 -0.005265220899 0.07170271641
624.375 -0.02620304182 0.05532466812
625.0 -0.04744659439 0.0334594439
625.625 -0.06108191571 0.03021397614
626.25 -0.04376384264 0.05822237906
626.875 -0.0225562762 0.05568102583
627.5 -0.02386499225 0.03001964966
628.125 -0.02289113274 0.02753182573
628.75 -0.02643998648 -0.003714968046
629.375 -0.0205482439 0.01248972694
630.0 -0.0109375574 0.01340121625
630.625 0.0001593769311 -0.01797041755
631.25 -0.009748422385 -0.02740192867
631.875 0.001560031096 -0.04972548443
632.5 -0.005221206035 -0.06491615963
633.125 -0.01237587523 -0.05842541232
633.75 -0.01442198 -0.07150007168
634.375 -0.03677573249 -0.05088076497
635.0 -0.04603050701 -0.04779957512
635.625 -0.04505064744 -0.04280411817
636.25 -0.02626003756 -0.03906145297
636.875 -0.01445397077 -0.04987818302
637.5 -0.02229247219 -0.06157058716
638.125 -0.03182686029 -0.04390504014
638.75 -0.02488789511 -0.02048431255
639.375 0.02326547953 -0.02878282142
640.0 0.04141863659 -0.02008535019
640.625 0.04622832593 -0.01965293697
641.25 0.04280172654 -0.02947368815
641.875 0.06351304301 -0.01604839089
642.5 0.05688385997 0.00329494367
643.125 0.05993525371 0.01548262565
643.75 0.05612116475 0.005694661505
644.375 0.06512586075 0.005111630164
645.0 0.04252757739 0.0034937511
645.625 0.0320919027 0.01269848839
646.25 0.04881315389 0.02406836712
646.875 0.08167926508 0.04353303468
647.5 0.05109614606 0.002374163951
648.125 0.03985201695 0.01555429816
648.75 0.04521488646 0.05156453908
649.375 0.04383352298 0.09160927588
650.0 0.04607518978 0.05143907701
650.625 0.03209729796 0.06166103133
651.25 0.007985899412 0.07106225778
651.875 -0.03483666472 0.06302245755
652.5 -0.02692320493 0.05040961618
653.125 -0.02793545528 0.03043970722
653.75 -0.03222361938 0.005556015166
654.375 -0.02848535937 -0.0404070941
655.0 -0.01791451839 -0.04216282948
655.625 -0.03635139965 -0.0547087875
656.25 -0.06553574908 -0.06184953624
656.875 -0.07984156221 -0.04659287961
657.5 -0.07129934831 -0.05041803142
658.125 -0.08697008564 -0.05321325662
658.75 -0.1004231262 -0.03914543085
659.375 -0.0811351425 0.0135469665
660.0 -0.07679069596 0.02839360232
660.625 -0.04869005472 0.02543136238
661.25 -0.04396913632 0.01429295541
661.875 -0.03195446017 0.02444014866
662.5 -0.05338453331 0.02932951113
663.125 -0.06850234574 0.006581137377
663.75 -0.06552727938 -0.03457142211
664.375 -0.04619194017 -0.06255029689
665.0 -0.02219873093 -0.07521102132
665.625 0.01682541948 -0.08822800984
666.25 0.03250284793 -0.08274158384
666.875 0.05001283925 -0.08978912999
667.5 0.03714803612 -0.06259946393
668.125 0.0445431991 -0.04577007403
668.75 0.03052833011 -0.03326341887
669.375 0.0554940161 -0.02803606383
670.0 0.05620340146 -0.01903587904
670.625 0.06710730164 -0.01153117169
671.25 0.06308069889 -0.02996329031
671.875 0.07037464892 -0.03975843381
672.5 0.06413684951 -0.09166210306
673.125 0.03137128406 -0.09162752455
673.75 0.007663347655 -0.08826822742
674.375 0.03557610108 -0.09067198375
675.0 0.04134510312 -0.03829075316
675.625 0.0565841274 -0.02468373801
676.25 0.06172346212 -0.00520271189
676.875 0.07585610599 0.02507959618
677.5 0.01536980391 0.03118263341
678.125 0.02566175364 0.05279121505
678.75 0.05114471886 0.08025050469
679.375 0.05214340951 0.1102672576
680.0 0.04576076433 0.08538343283
680.625 0.06770079352 0.0618373555
681.25 0.08673523505 0.04019020761
681.875 0.110394632 0.01971582974
682.5 0.09442109227 -0.02535262447
683.125 0.0531228148 -0.02506097989
683.75 0.06256840146 0.00504279933
684.375 0.05324960777 0.05739042464
685.0 0.002767177475 0.05775495148
685.625 -0.03894094654 0.03409297324
686.25 -0.06722960463 -0.001121984679
686.875 -0.08277609037 -0.03705647268
687.5 -0.09060307185 -0.05078008179
688.125 -0.1061839265 -0.06809335795
688.75 -0.08991963936 -0.07832211515
689.375 -0.07661724861 -0.06123647356
690.0 -0.07238152639 -0.05175752148
690.625 -0.1005521228 -0.0580092792
691.25 -0.06447512376 -0.03591348891
691.875 -0.04208703725 0.00697977464
692.5 -0.03838564595 0.01183316105
693.125 -0.03933061138 0.08104425545
693.75 -0.02615262596 0.1140475653
694.375 0.007296926955 0.1005037914
695.0 -0.02428973268 0.1003990815
695.625 -0.09670304088 0.05589195828
696.25 -0.1128587606 -0.05322833771
696.875 -0.005986726769 -0.0922350436
697.5 0.04218068668 -0.08680974813
698.125 0.05116419605 -0.05951579875
698.75 0.04224816156 -0.04988017318
699.375 0.06018108493 -0.02128302606
700.0 0.08272602384 -0.003095974526
700.625 0.06238457721 0.03715053693
701.25 0.06306886339 0.02989496944
701.875 0.08833938796 0.04140672937
702.5 0.1346721958 -0.005746154293
703.125 0.08621405233 -0.06597549677
703.75 -0.02527693442 -0.09391223653
704.375 -0.01550621077 -0.05554699534
705.0 -0.02249453116 -0.08675054285
705.625 0.0293650781 -0.075540895
706.25 0.05075592389 -0.02996751728
706.875 0.05523004559 0.02117921022
707.5 0.004505513938 0.07521040639
708.125 -0.04746758258 0.08365305117
708.75 -0.07742441921 0.06583475209
709.375 -0.09146630248 0.03480999802
710.0 -0.06878364558 -0.04052664465
710.625 -0.06656962652 -0.0591509815
711.25 -0.05879857056 -0.08680758738
711.875 -0.06762263219 -0.06471500598
712.5 -0.06482476187 -0.01757860451
713.125 -0.044751645 0.03012986519
713.75 -0.04214015502 0.03455064033
714.375 -0.02326451321 0.0693358983
715.0 -0.05199396781 0.0454968504
715.625 -0.04095911146 0.06228244091
716.25 -0.06096361885 0.07471241164
716.875 -0.1153085701 0.02664574137
717.5 -0.09274519012 -0.01739712827
718.125 -0.06095199336 -0.05649592596
718.75 -0.05054502413 -0.0725438058
719.375 -0.01976105799 -0.08221571633
720.0 -0.002821903137 -0.07978112386
720.625 0.05785873686 -0.02054723533
721.25 0.02915687756 0.03434632433
721.875 -0.01427831293 0.02941452571
722.5 -0.02928374502 0.02720875329
723.125 -0.06761151465 0.05865837712
723.75 -0.02203345172 0.1056725494
724.375 0.05888767811 0.06472094502
725.0 0.05877041965 -0.02255861134
725.625 0.09177352942 -0.005601434966
726.25 0.05900022214 -0.03505366354
726.875 0.04130016534 -0.02931596665
727.5 0.03762290043 -0.004965284949
728.125 0.0264032476 0.02139336264
728.75 -0.006706500601 0.07147968675
729.375 0.02900484465 0.06000168389
730.0 0.03112777102 0.0477526202
730.625 0.01376489491 0.02282076797
731.25 -0.04342014633 0.06084160245
731.875 -0.05313745001 0.02876855542
732.5 -0.04719988915 0.002688419678
733.125 -0.05059634762 -0.02498408981
733.75 -0.04264749365 -0.03492319902
734.375 -0.03554403943 -0.04112940047
735.0 -0.04035461556 -0.02425132085
735.625 -0.003331202009 -0.0105720587
736.25 -0.06696403959 -0.01627242289
736.875 -0.07054864756 -0.03110627279
737.5 -0.08063159148 -0.038499347
738.125 -0.04662624842 -0.01689656821
738.75 -0.05675293611 -0.04057261301
739.375 -0.0208227497 -0.02562613126
740.0 0.005615492462 -0.0256400297
740.625 -0.02434066854 -0.03731647535
741.25 -0.0003169769691 -0.01959830195
741.875 0.01060495141 -0.04547765675
742.5 0.04251344963 0.005310186746
743.125 0.002511989056 0.03617449514
743.75 -0.03621364469 0.008579465744
744.375 -0.03403847933 0.02662201818
745.0 -0.04551730555 0.02472616651
745.625 -0.03854577686 0.05401493478
746.25 -0.02661125585 0.06514406021
746.875 0.06294773247 0.05981134558
747.5 0.04985188173 0.005544060522
748.125 0.01945139962 0.008770916104
748.75 0.01531952904 0.01615091062
749.375 0.03156171048 0.005569563346
750.0 -0.001149656731 -0.02838042249
