!Created with skrf (http://scikit-rf.org).
# GHz S RI R 50.0 
!freq ReS11 ImS11
500.0 -0.02016900637 0.02974628101
500.625 0.01887903094 0.0321239905
501.25 0.02737190223 0.02612939568
501.875 0.01288859233 0.04426687809
502.5 -0.003531441041 0.06695192315
503.125 0.03145412629 0.03157744786
503.75 0.04366527827 0.01224076772
504.375 0.0501458379 0.007695530438
505.0 0.06706326197 -0.01335408476
505.625 0.04912772913 -0.05699948525
506.25 0.04248560875 -0.05121185227
506.875 0.0639208631 -0.0333394996
507.5 0.06001074799 -0.0289907619
508.125 0.07277977415 -0.009204885396
508.75 0.05069435428 -0.04338409044
509.375 0.03705030544 -0.03926257769
510.0 0.07396036153 -0.02952325639
510.625 -0.001380442137 -0.06774856141
511.25 -0.02783465527 -0.05400229359
511.875 -0.04510545531 -0.01920469702
512.5 -0.03619031126 -0.01032384473
513.125 -0.01767514124 0.03281083174
513.75 -0.03187841775 0.03475835865
514.375 -0.03430969963 0.06805818426
515.0 0.02652387549 0.06666220963
515.625 -0.04560950975 0.08613830399
516.25 0.01561002425 0.1089466687
516.875 -0.062923863 0.1145576501
517.5 0.02536736663 0.1036623031
518.125 -0.05433262747 0.1100885556
518.75 0.01629765955 0.05110234475
519.375 -0.01741554691 0.08711883526
520.0 0.0516402538 0.05171521297
520.625 0.05277564886 0.04431154075
521.25 0.05383153111 0.02669487133
521.875 0.02530015167 0.05358485368
522.5 0.06122029129 0.003817022331
523.125 0.1091233594 -0.01122103347
523.75 0.09319015287 -0.03047709942
524.375 0.04082127599 -0.002967307397
525.0 0.003457936683 -0.01293246371
525.625 -0.005472588229 0.01712565553
526.25 -0.002261733064 0.05105060694
526.875 0.007808419863 0.04618872432
527.5 0.01601156557 0.01488919017
528.125 0.03474310566 0.01027501258
528.75 0.05735819283 -0.002200370118
529.375 0.06084194011 -0.02823512361
530.0 0.03295840665 -0.02441682985
530.625 0.01782202116 -0.09135865054
531.25 0.03541447169 -0.1618356852
531.875 -0.03705376128 -0.1633588179
532.5 -0.07655555952 -0.07862218841
533.125 -0.06162564855 -0.05317285767
533.75 -0.0648718595 -0.0693532717
534.375 -0.06937222146 -0.05684139394
535.0 -0.04819055528 -0.008989269132
535.625 -0.02284203608 -0.03415097009
536.25 -0.02851935862 -0.04569538372
536.875 -0.03874238108 -0.07278488083
537.5 -0.03488495776 -0.09331504157
538.125 -0.05917981317 -0.06882283176
538.75 -0.05213319072 -0.04120973515
539.375 -0.03165502256 -0.06072735234
540.0 -0.02542573786 -0.07222541711
540.625 -0.04390642129 -0.1165869082
541.25 -0.03039811281 -0.09143463476
541.875 -0.04017884611 -0.09065288365
542.5 -0.04285956192 -0.102314535
543.125 -0.08462413974 -0.06731064231
543.75 -0.09586021374 0.009106312588
544.375 -0.070784436 0.03050074801
545.0 -0.01887442554 0.03820083327
545.625 -0.01971995478 0.05078972456
546.25 0.0008162587158 0.07225830333
546.875 0.008686858617 0.07422346146
547.5 0.007552571708 0.05859438497
548.125 -0.006366384929 0.06625321421
548.75 -0.02081663037 0.06499354506
549.375 -0.03944906182 0.07140892101
550.0 -0.01704083493 0.01334549312
550.625 -0.01298575133 -0.01151909211
551.25 -0.01274017347 -0.03918445666
551.875 -0.06023287692 -0.05538739466
552.5 -0.05270028391 -0.05435120982
553.125 -0.06460247293 -0.03421478363
553.75 -0.08109101489 -0.0344969381
554.375 -0.105846161 -0.0006105096744
555.0 -0.07778081162 0.007078313817
555.625 -0.07504574835 0.01953025604
556.25 -0.09102619497 0.01312852022
556.875 -0.09559301867 0.007668487723
557.5 -0.09125683805 0.02450464357
558.125 -0.07330101395 0.01823108625
558.75 -0.06188023615 -0.001316771231
559.375 -0.04283973746 -0.006494054481
560.0 -0.01021726119 -0.01171556717
560.625 -0.0263040961 -0.0413501641
561.25 -0.05218075212 -0.04602044595
561.875 -0.07904373953 -0.0271135583
562.5 -0.07302423203 0.01051952752
563.125 -0.07515295258 0.04233136632
563.75 -0.06440915878 0.07532311701
564.375 -0.03196071991 0.08530263754
565.0 -0.02256693336 0.05931170158
565.625 -0.02093020719 0.0538571835
566.25 -0.04517160548 0.03244536983
566.875 -0.05855629516 0.01852842209
567.5 -0.06191412504 0.01055872516
568.125 -0.06043539781 0.0004743792833
568.75 -0.03947491563 -0.005671144787
569.375 -0.02509496064 -0.02175342504
570.0 -0.02425533876 -0.03845362192
570.625 -0.0321692069 -0.05447253405
571.25 -0.03887099663 -0.04108925696
571.875 -0.05437251254 -0.04281595101
572.5 -0.09060996597 -0.02196722552
573.125 -0.1103424793 0.01142809322
573.75 -0.06504538157 0.05348089557
574.375 -0.04014720663 0.06460744558
575.0 -0.05660990182 0.04997762785
575.625 -0.06024577587 0.0547083143
576.25 -0.03875239372 0.06214421788
576.875 -0.01346632876 0.0800632878
577.5 -0.01996436574 0.05136821208
578.125 -0.02011327223 0.04166320263
578.75 -0.01575758499 0.03647425808
579.375 -0.0174685428 0.03866593727
580.0 -0.02328677943 0.02826583904
580.625 -0.03545037752 0.004578043482
581.25 -0.0577894199 0.007012009007
581.875 -0.07492909735 0.02710660725
582.5 -0.07921250721 0.0412809608
583.125 -0.06862928804 0.02475365489
583.75 -0.06310347397 0.01473292541
584.375 -0.07290036078 0.01415932899
585.0 -0.07785203976 0.009534465506
585.625 -0.06029115422 0.01224846733
586.25 -0.05762220429 0.004972677933
586.875 -0.06042529571 -0.001737188327
587.5 -0.05739574301 0.01626655539
588.125 -0.03735540239 0.02945001554
588.75 -0.03365732041 0.02590303774
589.375 -0.03722399003 0.02127474216
590.0 -0.04047415444 0.02497040565
590.625 -0.06601881622 0.04261543846
591.25 -0.05633343612 0.07563352415
591.875 -0.03493458185 0.08507135044
592.5 0.0005720480078 0.07486342197
593.125 -0.01981853081 0.05043127788
593.75 -0.0290150812 0.05064594402
594.375 -0.02968093641 0.04243950087
595.0 -0.02897017284 0.03339789099
595.625 -0.02658449208 -0.01953922566
596.25 -0.02765880144 -0.0278888723
596.875 -0.02884314355 -0.02179037244
597.5 -0.03423475782 -0.01239719338
598.125 -0.006893289788 -0.03561171617
598.75 -0.01368471649 -0.02804506733
599.375 -0.01020118309 -0.03744279603
600.0 -0.01842134214 -0.0492789803
600.625 -0.02131822381 -0.0747942997
601.25 -0.02985199023 -0.07782944401
601.875 -0.04915557087 -0.04583749756
602.5 -0.05537353077 -0.0197369544
603.125 -0.02596993687 -0.05475342894
603.75 -0.02420167794 -0.02730364409
604.375 -0.01578477751 -0.01990055555
605.0 -0.005181571265 -0.03539168252
605.625 -0.01088762304 -0.03907703783
606.25 -0.005909499189 -0.03732180665
606.875 -0.006474061294 -0.01595224739
607.5 0.007860069398 -0.002855134466
608.125 0.01737676043 -0.008288467956
608.75 0.02921023982 -0.02066395952
609.375 0.02701773967 -0.009321462571
610.0 0.03993277522 -0.005331663145
610.625 0.03971772545 -0.01056926723
611.25 0.05101350609 -0.01846173541
611.875 0.04357071887 -0.0152752403
612.5 0.03075278712 -0.01215194986
613.125 -0.001990576558 -0.01142939608
613.75 0.03080716373 0.02498394838
614.375 0.02257229846 0.02562759375
615.0 0.02316277898 0.02571404837
615.625 -0.0005532238657 0.005224941271
616.25 0.009027356095 0.02264170723
616.875 0.01379718324 0.03747170094
617.5 0.02348596364 0.04397961026
618.125 2.504514261e-05 0.0204169588
618.75 0.02386302604 0.04249289094
619.375 0.01967267753 0.04076753403
620.0 0.02460772803 0.03195768241
620.625 0.01244658919 -3.383599003e-05
621.25 0.02509063516 0.009056639746
621.875 -0.004918204445 -0.009950202485
622.5 -0.03214437192 0.01607362425
623.125 -0.04636204432 0.03821581101
623.75 -0.01744759444 0.0646410254
624.375 -0.03354273112 0.04826058849
625.0 -0.04928613475 0.02355921334
625.625 -0.05445310738 0.03324933012
626.25 -0.04609400766 0.04425609076
626.875 -0.02293221402 0.0542848532
627.5 -0.01859373422 0.03341591179
628.125 -0.02607465051 0.01316848998
628.75 -0.02515462213 -0.005571482134
629.375 -0.01917990475 0.01618201824
630.0 -0.01122321475 0.01007012337
630.625 0.007850651921 -0.02770155414
631.25 0.007540549761 -0.04006621417
631.875 0.004084244762 -0.04748607284
632.5 -0.004648571054 -0.05891707618
633.125 -0.003680682055 -0.06603659683
633.75 -0.009914046668 -0.07475535962
634.375 -0.04187289384 -0.0478359523
635.0 -0.0368253772 -0.05679301846
635.625 -0.03337847845 -0.04644799427
636.25 -0.02469877603 -0.03481990004
636.875 -0.002632703455 -0.05717078951
637.5 -0.03265485128 -0.05298208573
638.125 -0.03917082447 -0.03942385485
638.75 -0.01898878207 -0.0270188967
639.375 0.0301977879 -0.02990867493
640.0 0.03118656486 -0.02275205007
640.625 0.04618312149 -0.01999785649
641.25 0.04671452037 -0.02858504077
641.875 0.06809672159 -0.01226712319
642.5 0.05760759856 0.006887317313
643.125 0.05589415717 0.02060346681
643.75 0.06034514448 0.01424418435
644.375 0.06401734969 0.01037019543
645.0 0.0385295482 0.004236885964
645.625 0.02916890121 0.01326117794
646.25 0.05394568183 0.03103082922
646.875 0.07736104885 0.04847837357
647.5 0.05032105764 0.004262344606
648.125 0.04417446397 0.02230812888
648.75 0.04277733014 0.0616366843
649.375 0.03828017937 0.08772082799
650.0 0.04052154503 0.05989980038
650.625 0.02868574781 0.06807021665
651.25 -0.002876870722 0.07498936136
651.875 -0.03279370775 0.05720934675
652.5 -0.03509453196 0.04568869341
653.125 -0.02843214632 0.02818583286
653.75 -0.03767889747 -0.002639792985
654.375 -0.02776712454 -0.04525228742
655.0 -0.01267094255 -0.0383063391
655.625 -0.04022981812 -0.06502510459
656.25 -0.06509207766 -0.07687059338
656.875 -0.07532674401 -0.0475182896
657.5 -0.07794367135 -0.06080502431
658.125 -0.08135624642 -0.04914679499
658.75 -0.08910170029 -0.03477426673
659.375 -0.08475613156 0.008379401683
660.0 -0.078597292 0.02368809861
660.625 -0.03835690381 0.02472427954
661.25 -0.04105947227 0.01102055807
661.875 -0.03738704221 0.02109398994
662.5 -0.05759476606 0.02694403784
663.125 -0.06959806975 0.002350961549
663.75 -0.05608796035 -0.03662282075
664.375 -0.04840361637 -0.0690844069
665.0 -0.02023458026 -0.09223353196
665.625 0.02481261232 -0.09642093231
666.25 0.03522743921 -0.07870757462
666.875 0.05526073603 -0.08807087738
667.5 0.0505878397 -0.06172021231
668.125 0.05403417993 -0.04049007763
668.75 0.03358832653 -0.03530017572
669.375 0.05529459897 -0.02209677324
670.0 0.07341462508 -0.01405834638
670.625 0.07075051662 -0.01047934416
671.25 0.0658010097 -0.02077931668
671.875 0.07289410417 -0.03166620973
672.5 0.06918780098 -0.08840747925
673.125 0.03624398609 -0.09323312824
673.75 0.01120310176 -0.09118175134
674.375 0.04059533918 -0.08567877624
675.0 0.042815263 -0.03281932994
675.625 0.05884271519 -0.02418629608
676.25 0.06120581826 -0.006274912836
676.875 0.06945716302 0.03372803446
677.5 0.01765976177 0.03726743902
678.125 0.02952626221 0.05454548296
678.75 0.04291697982 0.08332524611
679.375 0.04633379281 0.112453302
680.0 0.04609494753 0.09180051451
680.625 0.0590188679 0.06234250928
681.25 0.08844990607 0.04399558498
681.875 0.1051239795 0.02369116344
682.5 0.09133465255 -0.01977604865
683.125 0.06548446497 -0.01882955344
683.75 0.06590997274 0.008650722985
684.375 0.04097729661 0.0599720428
685.0 0.0008731557058 0.06115701876
685.625 -0.04969968906 0.04088510674
686.25 -0.06745209846 -0.01287440529
686.875 -0.07595789944 -0.04582322937
687.5 -0.0915130013 -0.05079553762
688.125 -0.1142560028 -0.07244336101
688.75 -0.07622750809 -0.07740020461
689.375 -0.06579428751 -0.06067110411
690.0 -0.06735152109 -0.05574019217
690.625 -0.0985698199 -0.06405124938
691.25 -0.04943031163 -0.03480254428
691.875 -0.04727733017 0.005348136114
692.5 -0.0418278697 0.01156986222
693.125 -0.0520191108 0.07612157264
693.75 -0.02729442348 0.1220698405
694.375 0.0004924965765 0.1019403345
695.0 -0.03676034244 0.09208448847
695.625 -0.09770619364 0.05004752523
696.25 -0.1115185924 -0.05788362144
696.875 -0.006655668905 -0.09654635749
697.5 0.04486060725 -0.09010627606
698.125 0.0592269594 -0.06133078179
698.75 0.04495042105 -0.04581894116
699.375 0.05998830855 -0.009216299846
700.0 0.07551157623 0.01458954428
700.625 0.06482580459 0.03850238313
701.25 0.06362602653 0.03192443412
701.875 0.07995446156 0.05618844065
702.5 0.1317550393 0.005161054871
703.125 0.08522307181 -0.06288770831
703.75 -0.01585391234 -0.09050219091
704.375 -0.0267967547 -0.06032771344
705.0 -0.01550689683 -0.09077722393
705.625 0.04155503679 -0.06265396716
706.25 0.05149805985 -0.03354780227
706.875 0.0540157146 0.02291817474
707.5 -0.01548789476 0.08176776007
708.125 -0.05710756577 0.08192221619
708.75 -0.07675946285 0.06866293123
709.375 -0.0931692077 0.0327004134
710.0 -0.06449545063 -0.04568860458
710.625 -0.06590326109 -0.0564452728
711.25 -0.06033495577 -0.08458018979
711.875 -0.07727411253 -0.06993127439
712.5 -0.05596537093 -0.02299149279
713.125 -0.04657576443 0.01673962105
713.75 -0.04656681916 0.0292056459
714.375 -0.03598569598 0.06549037781
715.0 -0.04929631646 0.04439844295
715.625 -0.03704423488 0.06018643409
716.25 -0.07941439255 0.07004925147
716.875 -0.1162960777 0.01548064995
717.5 -0.09232992919 -0.01848503697
718.125 -0.05346612396 -0.06399333736
718.75 -0.04759296054 -0.0703729543
719.375 -0.02533962238 -0.07737346756
720.0 0.01024529736 -0.07666895499
720.625 0.04865708365 -0.03154792763
721.25 0.02758296273 0.02788153507
721.875 -0.009380188795 0.02928978977
722.5 -0.03172438707 0.02618136587
723.125 -0.07758676912 0.05517760458
723.75 -0.03108605237 0.1052834381
724.375 0.05582739174 0.06053943969
725.0 0.06253714451 -0.01743372824
725.625 0.07872398945 -0.02316460546
726.25 0.05869872392 -0.02925179949
726.875 0.04257752851 -0.02356879378
727.5 0.03898746408 0.007298502874
728.125 0.02138044652 0.0222864147
728.75 -0.01861121593 0.08125344093
729.375 0.02285042284 0.06460366755
730.0 0.02810267076 0.04175194315
730.625 0.01136154367 0.03482421482
731.25 -0.02870924226 0.04566840576
731.875 -0.04503621929 0.02115433863
732.5 -0.04995459994 -0.0002014235819
733.125 -0.04210677176 -0.01566202299
733.75 -0.02975050395 -0.01630295972
734.375 -0.02235343126 -0.03555964275
735.0 -0.02913134268 -0.03241127257
735.625 0.00282516254 -0.01101965336
736.25 -0.05310304193 -0.02570622764
736.875 -0.05818823531 -0.02718450846
737.5 -0.06729403263 -0.03551824424
738.125 -0.05589941954 -0.02017655951
738.75 -0.039913856 -0.02125621374
739.375 -0.006799176183 -0.01361531386
740.0 0.0003129064149 -0.0321905647
740.625 -0.01100635672 -0.03166716747
741.25 0.002450323467 -0.01874015887
741.875 0.01796430603 -0.0588611728
742.5 0.02758184093 0.01011493408
743.125 -0.01133772208 0.03476351156
743.75 -0.03976640816 0.003619254744
744.375 -0.03823393911 0.03695520557
745.0 -0.04699107164 0.03620455282
745.625 -0.05325383436 0.04273728211
746.25 -0.03516184997 0.06147157614
746.875 0.05718653965 0.05937823332
747.5 0.03538707366 0.01126553704
748.125 0.007788274668 0.01170659325
748.75 0.01724841649 0.01302056873
749.375 0.03187174877 0.00733595062
750.0 -0.003243195568 -0.03534930164
