!Created with skrf (http://scikit-rf.org).
# GHz S RI R 50.0 
!freq ReS11 ImS11
500.0 -0.01772097699 0.02261348162
500.625 0.01764418056 0.03179859544
501.25 0.0309624255 0.02137255657
501.875 0.01821586832 0.03415441491
502.5 0.01560035979 0.04109580296
503.125 0.02696106389 0.05225978464
503.75 0.04683961625 0.01803488908
504.375 0.04322100396 0.001204331436
505.0 0.04551952361 -0.02582788899
505.625 0.07715354446 -0.02859416488
506.25 0.03358127804 -0.06427388569
506.875 0.0569154158 -0.04829202691
507.5 0.05245790577 -0.03678422909
508.125 0.07319465423 -0.007021852287
508.75 0.04889110946 -0.04761161167
509.375 0.04525916044 -0.03855393281
510.0 0.07805939366 -0.0215323262
510.625 0.01018070316 -0.0693543292
511.25 -0.03087542761 -0.05461532526
511.875 -0.04536408239 -0.008759314401
512.5 -0.03328315471 0.004390444311
513.125 -0.03429929891 0.01977136917
513.75 -0.02978848796 0.03557445277
514.375 -0.01192810257 0.05893032068
515.0 -0.01485763582 0.0990187607
515.625 -0.02183211892 0.09095908157
516.25 0.02314208647 0.09650144657
516.875 -0.05012189002 0.1177161548
517.5 0.02936147368 0.09787117176
518.125 -0.03020368153 0.1192851742
518.75 0.02395343163 0.04037299104
519.375 0.0006281808337 0.06491464874
520.0 0.03303060138 0.07583875134
520.625 0.06256239597 0.03142952504
521.25 0.05204836996 0.02028008178
521.875 0.03066122673 0.04732704646
522.5 0.06108326793 0.02072765817
523.125 0.1090622477 -0.03376152277
523.75 0.09459203302 -0.03999165493
524.375 0.03820895305 -0.001974495324
525.0 -0.003730564035 0.01602092624
525.625 -0.003553042227 0.02133043082
526.25 -0.002615912245 0.03990066509
526.875 0.008477304219 0.03371832709
527.5 0.02500902972 0.03819023269
528.125 0.03091415427 0.007071559965
528.75 0.0530487216 0.0002318761851
529.375 0.04031865008 -0.02281011962
530.0 0.03752036205 -0.02573153219
530.625 0.01983203076 -0.08590732559
531.25 0.04267510343 -0.170010652
531.875 -0.03352781703 -0.1415337571
532.5 -0.07487060626 -0.0978913999
533.125 -0.05885220419 -0.04650290357
533.75 -0.05558844314 -0.05558098572
534.375 -0.0586342195 -0.04518438085
535.0 -0.06505753721 -0.03756830738
535.625 -0.02190121119 -0.02109594816
536.25 -0.02179123982 -0.04167270553
536.875 -0.0321577334 -0.06746862383
537.5 -0.0346936364 -0.09723680281
538.125 -0.05889575648 -0.06544853752
538.75 -0.04585691025 -0.03570852713
539.375 -0.02295032526 -0.05042296764
540.0 -0.04550425615 -0.107628218
540.625 -0.04164903252 -0.1113675431
541.25 -0.02824095526 -0.09632343331
541.875 -0.03660171519 -0.08900346305
542.5 -0.04253625601 -0.1008531661
543.125 -0.08651112796 -0.06709430295
543.75 -0.08969212929 0.006350037698
544.375 -0.05606244477 0.02891021118
545.0 -0.04661007446 0.0509933762
545.625 -0.0111438975 0.04202716868
546.25 -0.001139095724 0.06331344534
546.875 0.01147103468 0.06531082677
547.5 -0.003618300053 0.0932833208
548.125 -0.004008151108 0.06441912258
548.75 -0.0236874592 0.06243778632
549.375 -0.02954783009 0.05314676854
550.0 -0.0503259255 0.01649833086
550.625 -0.002616053569 -0.01138019206
551.25 -0.009381238841 -0.04393130342
551.875 -0.04066184695 -0.05872110795
552.5 -0.07067378738 -0.06249155792
553.125 -0.06474149069 -0.03510526229
553.75 -0.0730309141 -0.03919225735
554.375 -0.08936518816 -0.009056804746
555.0 -0.1029329706 0.01388498396
555.625 -0.06303017661 0.01543450947
556.25 -0.08581313062 0.00830547089
556.875 -0.09279442267 0.007445942774
557.5 -0.08580058519 0.01971887066
558.125 -0.07876811316 0.01691959159
558.75 -0.05744617001 -0.003639017756
559.375 -0.03047148033 -0.004045656566
560.0 -0.02906931625 -0.01205473671
560.625 -0.01155212474 -0.03911240553
561.25 -0.04862478674 -0.05042105367
561.875 -0.06446549865 -0.03026800839
562.5 -0.07942390765 0.01588873228
563.125 -0.06930301194 0.03328887886
563.75 -0.06225353768 0.06416392501
564.375 -0.03061475031 0.07260995669
565.0 -0.02706990799 0.0763165204
565.625 -0.01987353286 0.04028358396
566.25 -0.04404490786 0.02472623441
566.875 -0.05240084551 0.01263509783
567.5 -0.06114397 0.008021094471
568.125 -0.05761846216 -0.001613468216
568.75 -0.03861461455 -0.005529251651
569.375 -0.02086886154 -0.02478446288
570.0 -0.01552435117 -0.04147430171
570.625 -0.0216490753 -0.05461638195
571.25 -0.03439962901 -0.04387026013
571.875 -0.05771774811 -0.04249634969
572.5 -0.09009955837 -0.02552725425
573.125 -0.1080209954 0.006731065329
573.75 -0.06308868138 0.05266968314
574.375 -0.04050538126 0.05812500752
575.0 -0.05390521662 0.06577965939
575.625 -0.05927419519 0.043743987
576.25 -0.04344868376 0.05829238268
576.875 -0.02105021104 0.06669280988
577.5 -0.01153219116 0.07618334248
578.125 -0.02007497905 0.02778852984
578.75 -0.01833605963 0.03013062117
579.375 -0.01886746932 0.03151225686
580.0 -0.02654105024 0.02152767405
580.625 -0.0375174782 0.001393730187
581.25 -0.05966765443 0.0003285588715
581.875 -0.08056748898 0.02054267821
582.5 -0.07965549041 0.02914648816
583.125 -0.06573618589 0.04885267101
583.75 -0.06188851572 0.01151975145
584.375 -0.07295015055 0.0009755301271
585.0 -0.06683645101 -0.007662869989
585.625 -0.06538302207 0.02263618027
586.25 -0.05535591188 0.002082848367
586.875 -0.05972627082 -0.006039077402
587.5 -0.05536432593 0.00696418935
588.125 -0.03149104773 0.04582416387
588.75 -0.03061270006 0.02299357351
589.375 -0.04476058054 0.00682137153
590.0 -0.05378555987 0.009974855052
590.625 -0.04129218201 0.05310993063
591.25 -0.06221551162 0.06824401493
591.875 -0.04205584584 0.07846503339
592.5 -0.0142880245 0.06395038125
593.125 0.006728397419 0.06149119791
593.75 -0.0336517904 0.0479868616
594.375 -0.0383757938 0.03087796764
595.0 -0.03379817865 0.01179147821
595.625 -0.02814151161 0.01057295616
596.25 -0.02034555029 -0.0396642719
596.875 -0.0269824422 -0.02991503032
597.5 -0.02308096887 -0.03003809111
598.125 -0.02299984841 -0.01438756939
598.75 -0.008294863311 -0.03134516741
599.375 -0.008598571102 -0.04647286733
600.0 -0.01484932419 -0.06512582106
600.625 -0.0276937691 -0.0672896217
601.25 -0.02566108848 -0.0757470291
601.875 -0.04402278825 -0.05651833032
602.5 -0.04660584283 -0.04851552309
603.125 -0.0511500597 -0.01987348477
603.75 -0.01315625212 -0.03233893694
604.375 -0.01109519244 -0.02187529476
605.0 -0.005101322435 -0.0324258816
605.625 0.004085698145 -0.04757561176
606.25 -0.01514868305 -0.03272136192
606.875 -0.00390868822 -0.01455343593
607.5 0.02333667362 -0.007221623525
608.125 0.02529119765 -0.009767852626
608.75 0.04778854689 -0.02646062527
609.375 0.03467165997 -0.01051388519
610.0 0.04449120497 -0.004396010442
610.625 0.05360856695 -0.01053760456
611.25 0.04274688558 -0.01820318969
611.875 0.04755177444 -0.01281733168
612.5 0.04228716835 -0.001686572055
613.125 0.02162996417 0.002655389259
613.75 -0.007905870164 0.003551108292
614.375 0.03660726344 0.04560486767
615.0 0.03086883464 0.02604413318
615.625 0.01614010575 0.01874075629
616.25 -0.0005033776141 0.01994464518
616.875 0.02627393411 0.04920967806
617.5 0.03127715113 0.05046320285
618.125 0.02577793091 0.0369148704
618.75 0.0008680311943 0.02094210203
619.375 0.02580653229 0.06213478099
620.0 0.03648894372 0.0455301974
620.625 0.03357578094 0.01359349749
621.25 0.002307717784 -0.01669798553
621.875 -0.002754731468 0.004799615661
622.5 -0.02195524385 0.01604124037
623.125 -0.03415278083 0.04429444853
623.75 -0.0468385433 0.04719848679
624.375 -0.02612828316 0.06330897639
625.0 -0.04790117736 0.02932261945
625.625 -0.05597501693 0.0374253135
626.25 -0.03940663591 0.05726662011
626.875 -0.02412396293 0.0446850035
627.5 -0.02039209036 0.03651061868
628.125 -0.02288895301 0.02995679494
628.75 -0.02934085735 0.01438437338
629.375 -0.01250417925 -0.004311955481
630.0 -0.01765442729 0.01501084765
630.625 0.002780123701 -0.01802579715
631.25 0.01488487219 -0.04474064003
631.875 0.01240759977 -0.05373297121
632.5 -0.008033619569 -0.05808891449
633.125 -0.01336630184 -0.05724203825
633.75 -0.0246079211 -0.05443260633
634.375 -0.004163916739 -0.07717842959
635.0 -0.05455112863 -0.04618935994
635.625 -0.03640254272 -0.04252630477
636.25 -0.02508808408 -0.03289759067
636.875 -0.008694974419 -0.04447198026
637.5 -0.003373322785 -0.07359239159
638.125 -0.03511894831 -0.0416416982
638.75 -0.02170967256 -0.01736868172
639.375 0.01150780634 -0.01650154262
640.0 0.07072446065 -0.004523691699
640.625 0.04461146697 -0.02297461703
641.25 0.04348521264 -0.02688591639
641.875 0.04783258393 -0.0156053901
642.5 0.05748381135 0.01310613176
643.125 0.05463760437 0.01600540094
643.75 0.05184650076 0.008443102147
644.375 0.0498988245 0.0007993799659
645.0 0.0439366109 0.01908270066
645.625 0.0278226072 0.009222309113
646.25 0.04404292273 0.02312199074
646.875 0.06387352573 0.02887399826
647.5 0.06253941566 0.03216420456
648.125 0.03857564218 0.01004536655
648.75 0.03716668504 0.0546848703
649.375 0.03718423933 0.07917618954
650.0 0.03334286133 0.07668048488
650.625 0.0262316297 0.06422779478
651.25 -0.0002964250965 0.07132947483
651.875 -0.03199222814 0.05570476451
652.5 -0.02718955805 0.04056723764
653.125 -0.03648982728 0.02448976639
653.75 -0.02391051804 -0.005096056421
654.375 -0.01450174622 -0.03398495863
655.0 -0.027065158 -0.06427005728
655.625 -0.03100319556 -0.04924426909
656.25 -0.05986448225 -0.07020905791
656.875 -0.07104836181 -0.0463504461
657.5 -0.06881530045 -0.0566521396
658.125 -0.0917423394 -0.07118082008
658.75 -0.09103678585 -0.03860382419
659.375 -0.07654026848 0.008750610524
660.0 -0.05862561791 0.02349154933
660.625 -0.07296875623 0.01373970372
661.25 -0.03607621617 0.01360206007
661.875 -0.03522682251 0.01618340757
662.5 -0.04541763715 0.01459799991
663.125 -0.07225436087 -0.002532288892
663.75 -0.05646897822 -0.0399303547
664.375 -0.0383269775 -0.06952955572
665.0 -0.01032823182 -0.09976036901
665.625 0.01703025215 -0.07882814933
666.25 0.03435214775 -0.07377969494
666.875 0.04705616942 -0.06948822162
667.5 0.07282652237 -0.07422510994
668.125 0.03607449975 -0.03856662342
668.75 0.03674489864 -0.02622267868
669.375 0.05501073339 -0.01957971588
670.0 0.08189363805 -0.01499062361
670.625 0.06255938414 -0.008288997614
671.25 0.06251545696 -0.02035582086
671.875 0.07648642674 -0.03024682065
672.5 0.06774286345 -0.07117281478
673.125 0.03713730066 -0.08801508046
673.75 0.01892377192 -0.08395453227
674.375 0.03307859972 -0.06716593738
675.0 0.069436082 -0.04436152612
675.625 0.05031087884 -0.01531581002
676.25 0.05267884581 0.005027854182
676.875 0.05313650607 0.03127647175
677.5 0.02969537363 0.05002526545
678.125 0.02346169932 0.05486521052
678.75 0.03701940572 0.08464638333
679.375 0.04116816966 0.1175605426
680.0 0.03906887996 0.08756883708
680.625 0.07249815754 0.07083251483
681.25 0.07377919997 0.04280659147
681.875 0.09356517056 0.02822995665
682.5 0.0805417033 -0.01598783088
683.125 0.06757293774 -0.0165353769
683.75 0.05836841483 0.01303918331
684.375 0.03262980908 0.05806401733
685.0 -0.009426742216 0.05257815442
685.625 -0.04992769414 0.02944445371
686.25 -0.07913232429 -0.003867384245
686.875 -0.07654894017 -0.04718754891
687.5 -0.08982184308 -0.06138459937
688.125 -0.09942535197 -0.07742221782
688.75 -0.0922551389 -0.08888372557
689.375 -0.06541957496 -0.06054988424
690.0 -0.05777097471 -0.05723661229
690.625 -0.06906000148 -0.06505639221
691.25 -0.0794842587 -0.05364189961
691.875 -0.03135547028 -0.001967190786
692.5 -0.04325833052 0.005053938545
693.125 -0.05924950806 0.0679141588
693.75 -0.0409520513 0.1091029725
694.375 0.0006002034378 0.1049230952
695.0 -0.03780914543 0.09205794284
695.625 -0.102097712 0.03428900975
696.25 -0.08573005851 -0.06651702746
696.875 -0.02404647348 -0.1166698588
697.5 0.04541861257 -0.07989298897
698.125 0.05692743311 -0.05005526938
698.75 0.04470609284 -0.0231668906
699.375 0.0669623127 -0.02532537862
700.0 0.07538616214 0.01633750997
700.625 0.05551222869 0.04489307128
701.25 0.05285784064 0.04623271587
701.875 0.1002887776 0.03239281932
702.5 0.1260651225 0.01674325231
703.125 0.08392726169 -0.05455529556
703.75 -0.006658441745 -0.08378440463
704.375 -0.03974068041 -0.06660716349
705.0 -0.007132708913 -0.09128090159
705.625 0.04177123291 -0.06502347126
706.25 0.05598359084 -0.02031474565
706.875 0.04310420934 0.03942264966
707.5 0.0212542058 0.07912927192
708.125 -0.06143222254 0.07463983776
708.75 -0.08716592736 0.05209979484
709.375 -0.09328760351 0.007695224191
710.0 -0.08458824386 -0.02397962757
710.625 -0.0510228573 -0.06578422403
711.25 -0.03786137285 -0.09158783362
711.875 -0.05846235449 -0.07677064733
712.5 -0.07014225992 -0.01427895349
713.125 -0.04256346629 0.01641168532
713.75 -0.06030481099 0.01318510262
714.375 -0.05844648758 0.03915263611
715.0 -0.02620004079 0.05660735636
715.625 -0.04993576972 0.0546543722
716.25 -0.08849489272 0.06130383215
716.875 -0.1186347738 0.01123961893
717.5 -0.08124371306 -0.04356643576
718.125 -0.0750406567 -0.02950758642
718.75 -0.02908859047 -0.08394583544
719.375 -0.01404391608 -0.08483076083
720.0 0.01098819601 -0.07491582981
720.625 0.04790420965 -0.03783537687
721.25 0.009557321507 0.04193520465
721.875 -0.02698602141 0.02955801412
722.5 -0.06431733275 0.01317079567
723.125 -0.05328145368 0.05521986752
723.75 -0.04489394601 0.1024277522
724.375 0.05507031529 0.07012478932
725.0 0.0822702757 0.01527670477
725.625 0.06712412772 -0.03234196343
726.25 0.05632074608 -0.03097334458
726.875 0.0439164243 -0.01526754034
727.5 0.03981972835 0.0009736247012
728.125 0.006059691914 0.0623155986
728.75 0.0169029067 0.03049181083
729.375 0.01415363323 0.07117570375
730.0 0.02656837916 0.05136932648
730.625 0.0002078418127 0.04373561074
731.25 -0.01486294623 0.03908507849
731.875 -0.06116339246 0.01784917762
732.5 -0.05385365153 -0.008902547318
733.125 -0.04744227468 -0.03420547285
733.75 -0.02563852864 -0.007928107141
734.375 -0.02458922929 -0.06152539561
735.0 -0.04160836667 -0.04781566216
735.625 -0.04160921625 -0.02630531151
736.25 -0.008732371466 -0.02089491336
736.875 -0.08628039911 -0.0426853241
737.5 -0.06863393901 -0.0461558977
738.125 -0.05310964643 -0.02600324478
738.75 -0.03602644585 -0.007211642487
739.375 -0.005576823792 -0.03725625448
740.0 0.009626850544 -0.03721038332
740.625 -0.02568274195 -0.0458161421
741.25 -0.02375751605 -0.03333887622
741.875 0.0231438028 0.009061351239
742.5 0.05563706575 0.01535745699
743.125 0.006805653922 0.04387869804
743.75 -0.02403500994 0.0278619707
744.375 -0.04239271134 -0.005283516839
745.0 -0.05513040367 0.02452476172
745.625 -0.04235731979 0.05585798734
746.25 -0.002958724606 0.07794228884
746.875 0.01165700459 0.04296109813
747.5 0.05398268357 0.01306193115
748.125 0.02002335551 0.006890522065
748.75 0.01231038073 0.0169736356
749.375 0.02733110401 -0.008604199859
750.0 0.02611428695 -0.02484828587
