!Created with skrf (http://scikit-rf.org).
# GHz S RI R 50.0 
!freq ReS11 ImS11
500.0 -0.005287150262 0.02703076312
500.625 0.02321677049 0.02732107366
501.25 0.03580654194 0.01600396037
501.875 0.01525942043 0.04927830576
502.5 0.01238027559 0.04181874439
503.125 0.02789829314 0.04693222542
503.75 0.04357273612 0.02219013685
504.375 0.04607465299 -0.001672320017
505.0 0.04814604812 -0.02653452728
505.625 0.05748855652 -0.04059374375
506.25 0.04539531091 -0.0473573465
506.875 0.06368572112 -0.03212938303
507.5 0.04434333547 -0.04500504302
508.125 0.07369894872 -0.02283142141
508.75 0.06364462084 -0.0443490303
509.375 0.006097981361 -0.05954694588
510.0 0.05692149737 -0.0403146616
510.625 -0.00319130783 -0.06767020437
511.25 -0.02784849588 -0.05908127129
511.875 -0.04667418737 -0.01856608216
512.5 -0.03267832916 0.003220287331
513.125 -0.03025224828 0.02599770384
513.75 -0.03951534604 0.04194894692
514.375 -0.00136849156 0.04887470041
515.0 0.0197409988 0.06922648261
515.625 -0.04972035243 0.09202346391
516.25 0.01529070598 0.1189819326
516.875 -0.01292463858 0.1150836451
517.5 0.04417311235 0.09674669589
518.125 -0.0600133704 0.1189818709
518.75 0.01333435698 0.05630830215
519.375 0.005759259359 0.07307917862
520.0 0.04340374188 0.06531727411
520.625 0.05481275461 0.05138766249
521.25 0.05615502116 0.04010523533
521.875 0.04371974014 0.03152071338
522.5 0.06408238238 -0.0002513585382
523.125 0.120170618 -0.01537437857
523.75 0.1154800895 -0.0265439164
524.375 0.06972033847 -0.06313877007
525.0 0.003052172042 -0.005569590589
525.625 -0.0004449047452 0.02613030875
526.25 0.007921109967 0.04355453705
526.875 0.01558515253 0.03757691618
527.5 0.02195123826 0.02790634849
528.125 0.04260085129 0.008915291672
528.75 0.07074326284 -0.002712183077
529.375 0.04207633337 -0.03196092432
530.0 0.02392847244 -0.02401145883
530.625 0.005653161652 -0.09387300186
531.25 0.0087215915 -0.1303846233
531.875 -0.04775649116 -0.1483626904
532.5 -0.0848396027 -0.08842694634
533.125 -0.07390782453 -0.05937553431
533.75 -0.07313168543 -0.07275702459
534.375 -0.06692385511 -0.04322901588
535.0 -0.05624398909 -0.01678973899
535.625 -0.03057638648 -0.04023773444
536.25 -0.02999425335 -0.03777433344
536.875 -0.03625332342 -0.06151065267
537.5 -0.04660521119 -0.08339067634
538.125 -0.07437293798 -0.07067485026
538.75 -0.05666215937 -0.03197588467
539.375 -0.03466565373 -0.04970780838
540.0 -0.04314202524 -0.08907543298
540.625 -0.06259400911 -0.1179580851
541.25 -0.03700535313 -0.07186146693
541.875 -0.04182965791 -0.08003725683
542.5 -0.04923097617 -0.09183012023
543.125 -0.09850772557 -0.06888148746
543.75 -0.09217017623 0.01837332332
544.375 -0.06062062126 0.03602115122
545.0 -0.0261953454 0.04787352702
545.625 -0.0177475303 0.06180545754
546.25 0.009580154801 0.08336290326
546.875 0.01799051359 0.05096791713
547.5 0.008272358326 0.08529394696
548.125 -0.000647003251 0.07670393152
548.75 -0.008855227808 0.05860440621
549.375 -0.02355963398 0.06808712799
550.0 -0.03324301313 0.02123732764
550.625 -0.02077007516 -0.001552959677
551.25 -0.02705355924 -0.03537020433
551.875 -0.04844079343 -0.04842850802
552.5 -0.07467264018 -0.05308574952
553.125 -0.07347620493 -0.02681737911
553.75 -0.07903726045 -0.0278347993
554.375 -0.09283201758 0.003453012223
555.0 -0.09334265918 0.0169074012
555.625 -0.07520680263 0.02869095777
556.25 -0.09171788682 0.02441998841
556.875 -0.07795056029 0.0113964443
557.5 -0.0842789883 0.02813813062
558.125 -0.07526766201 0.02645111728
558.75 -0.07584864156 0.00547770324
559.375 -0.03886761498 0.001976212864
560.0 -0.02540563385 -0.007731796337
560.625 -0.03471272641 -0.0333454777
561.25 -0.06624592772 -0.03684149055
561.875 -0.07009884869 -0.02483642246
562.5 -0.07052236667 0.01343504591
563.125 -0.0718978872 0.05612756202
563.75 -0.06133538882 0.09096677486
564.375 -0.02681372838 0.08177599169
565.0 -0.02135031507 0.07651068484
565.625 -0.01666668646 0.06701299755
566.25 -0.04900938212 0.05212454931
566.875 -0.04420508165 0.01307806236
567.5 -0.05803011457 0.01399230694
568.125 -0.05748786227 0.009054022921
568.75 -0.04996120734 0.003391813645
569.375 -0.02213924558 -0.01666292824
570.0 -0.02061534888 -0.03362983961
570.625 -0.03417898955 -0.04790248607
571.25 -0.04755377598 -0.03446361172
571.875 -0.04383027205 -0.0435051253
572.5 -0.08501453025 -0.01816547582
573.125 -0.1042053688 0.02008619007
573.75 -0.06318884902 0.06518590015
574.375 -0.03799414832 0.04796180484
575.0 -0.04966888918 0.05235384437
575.625 -0.05430051684 0.06480681549
576.25 -0.03464339263 0.07588196554
576.875 -0.01237472597 0.07368823093
577.5 -0.01268595995 0.06480393338
578.125 -0.01787806865 0.05375911862
578.75 -0.01007382781 0.04788959011
579.375 -0.01815848956 0.02436248794
580.0 -0.02059970782 0.02727948396
580.625 -0.0319315096 0.005912564138
581.25 -0.05181308751 0.01581296435
581.875 -0.0731713349 0.02543967809
582.5 -0.07743903557 0.04045039852
583.125 -0.06460517175 0.05074776675
583.75 -0.06210528025 0.0308823631
584.375 -0.07123565631 0.02378517119
585.0 -0.07378098518 0.002956459268
585.625 -0.06287608691 0.02735392905
586.25 -0.05596198566 0.02049564074
586.875 -0.05577020338 -0.001517194763
587.5 -0.05754608161 0.0129212583
588.125 -0.02907315897 0.04853306905
588.75 -0.02438777171 0.04175366283
589.375 -0.03209459285 0.02462955528
590.0 -0.04566582104 0.01942135807
590.625 -0.04896154069 0.05267194996
591.25 -0.03903433028 0.08155476512
591.875 -0.01504258211 0.09744583723
592.5 -0.01280201186 0.06728505723
593.125 -0.001265679256 0.05856333862
593.75 -0.01433776279 0.0599099951
594.375 -0.0263956932 0.05231149749
595.0 -0.03173957643 0.02524654559
595.625 -0.03186227332 -0.003320331347
596.25 -0.03586935444 -0.01165092826
596.875 -0.03812514176 -0.007578763864
597.5 -0.02626830214 -0.03311987136
598.125 -0.02358884627 -0.01471665027
598.75 -0.01899326089 -0.01224521957
599.375 -0.01073877229 -0.04100527325
600.0 -0.01948624939 -0.0550967215
600.625 -0.02748383141 -0.06894753006
601.25 -0.04166894622 -0.06808545673
601.875 -0.05422181323 -0.04139125273
602.5 -0.05345300813 -0.03705901743
603.125 -0.04815440772 -0.04173719361
603.75 -0.0321918976 -0.02493929893
604.375 -0.02461102367 -0.0097265398
605.0 0.007753361522 -0.05006133097
605.625 -0.004953714176 -0.04761035113
606.25 -0.01103421207 -0.03574851376
606.875 -0.01761680953 -0.0159402034
607.5 0.002479845031 -0.005259260949
608.125 0.0247556509 -0.01637004293
608.75 0.02166489464 -0.0185221557
609.375 0.01429039485 -0.004167124756
610.0 0.06883316584 -0.009389777541
610.625 0.05372372101 -0.01577008572
611.25 0.0499602226 -0.01967522162
611.875 0.03167294481 -0.0193487559
612.5 0.03367324657 -0.01038947843
613.125 0.01958786211 -0.006076733098
613.75 0.01568946166 0.00617826598
614.375 0.02058650368 0.02088595461
615.0 0.0106317646 0.009271663076
615.625 0.02785584762 0.01910709094
616.25 0.02251289575 0.02152648323
616.875 0.01951250731 0.03511941598
617.5 0.01361904338 0.02966342389
618.125 0.02195453144 0.03322462259
618.75 0.03229083166 0.03898304018
619.375 0.01873707083 0.03761364752
620.0 0.02425433294 0.0264165244
620.625 0.03310161772 0.009834989741
621.25 0.01771825188 -0.008017456809
621.875 -0.008974994988 -0.01907462826
622.5 -0.04324076223 0.009207483353
623.125 -0.006244487325 0.04686124931
623.75 -0.00863626664 0.06075819372
624.375 -0.03147587056 0.04614303937
625.0 -0.05855634065 0.02106983463
625.625 -0.03695666227 0.07078484256
626.25 -0.03621227378 0.06602124244
626.875 -0.02259654012 0.05938832108
627.5 -0.02418689135 0.03031226619
628.125 -0.02576083886 0.02369809298
628.75 -0.03098630186 0.01206553073
629.375 -0.0182534915 0.001573930987
630.0 -0.01010610333 0.002174279236
630.625 -0.007786320178 -0.01458742136
631.25 -0.006598636968 -0.03072516744
631.875 -0.003691548343 -0.04699624227
632.5 -0.007744342198 -0.06648763153
633.125 -0.01410816894 -0.06365960681
633.75 -0.02631095259 -0.0574032718
634.375 -0.02385692545 -0.05688189673
635.0 -0.04128489782 -0.05628047843
635.625 -0.03807094637 -0.05589874931
636.25 -0.04798139071 -0.01191404091
636.875 -0.02044964535 -0.04148272959
637.5 -0.02018384875 -0.06511424966
638.125 -0.03440385399 -0.04581715109
638.75 -0.031468876 -0.02485560907
639.375 0.005338379392 -0.02257637559
640.0 0.05144722839 -0.01461382311
640.625 0.05302474951 -0.02045399674
641.25 0.05713372883 -0.02889341397
641.875 0.04896017867 -0.02194418621
642.5 0.06338920188 -0.01069532338
643.125 0.06604767614 0.0165043102
643.75 0.06309110479 -0.002163852063
644.375 0.05995444646 -0.008101727134
645.0 0.05235267536 0.004919116111
645.625 0.04027070137 0.01524819883
646.25 0.05855849094 0.02923909746
646.875 0.06709668699 0.01602361055
647.5 0.05587387793 0.01005000009
648.125 0.05432587229 0.02282632675
648.75 0.05618324727 0.06229994539
649.375 0.04932087173 0.05391395522
650.0 0.04401776938 0.05722412205
650.625 0.04126633654 0.06125963959
651.25 0.006567527417 0.08577626576
651.875 -0.001044905338 0.06118116692
652.5 -0.02232875025 0.05024966021
653.125 -0.02500795662 0.0425104897
653.75 -0.04895925748 0.004379664141
654.375 -0.02268059074 -0.0287909446
655.0 -0.02511145628 -0.04991500641
655.625 -0.04730918613 -0.05890141202
656.25 -0.08382878137 -0.06801094823
656.875 -0.06302574022 -0.02465489815
657.5 -0.07206966496 -0.04610304498
658.125 -0.09506335507 -0.05439578446
658.75 -0.106992579 -0.03590031513
659.375 -0.08393780324 0.01846864082
660.0 -0.06245808665 0.03378201264
660.625 -0.06033344406 0.02818960747
661.25 -0.05372652889 0.02064796592
661.875 -0.04527079007 0.03410748483
662.5 -0.04198725769 0.02917147317
663.125 -0.05860625119 0.02035553889
663.75 -0.06993577116 -0.02914118864
664.375 -0.04833677788 -0.0561038441
665.0 -0.02578825316 -0.08044861845
665.625 0.01219397066 -0.1078813111
666.25 0.03404531888 -0.09468245268
666.875 0.03968061679 -0.0827369793
667.5 0.04377787966 -0.07162301284
668.125 0.0527021494 -0.06077879405
668.75 0.04293319511 -0.04713209629
669.375 0.03140265359 -0.01949485379
670.0 0.06273525283 -0.02449456121
670.625 0.0652936359 -0.02430012363
671.25 0.06338920593 -0.0392680009
671.875 0.05420121873 -0.03238063756
672.5 0.05098270991 -0.08872488692
673.125 0.02446276559 -0.09260371724
673.75 0.003615385779 -0.1078197815
674.375 0.01894180034 -0.07586572806
675.0 0.05158006628 -0.04766011819
675.625 0.05475511042 -0.03225490646
676.25 0.0750479821 -0.01486775216
676.875 0.04543823608 0.01324831744
677.5 0.0270856647 0.03496737665
678.125 0.02833266229 0.04316767778
678.75 0.05462677821 0.07238493851
679.375 0.05040561413 0.09324333831
680.0 0.05297709064 0.08484963726
680.625 0.08145393418 0.06162550602
681.25 0.1029108842 0.03206310626
681.875 0.1309555616 0.007663105847
682.5 0.0736441547 -0.0250231589
683.125 0.06191606296 -0.02508426427
683.75 0.06230657163 -0.004578392764
684.375 0.06226620699 0.05303095245
685.0 0.01347303546 0.06386105612
685.625 -0.0375802812 0.03941169565
686.25 -0.07205558702 0.01568220783
686.875 -0.0870471231 -0.02673600455
687.5 -0.08314343741 -0.03907117291
688.125 -0.1080877513 -0.05875321496
688.75 -0.1064980739 -0.07710193778
689.375 -0.08377036825 -0.05944317889
690.0 -0.08898302695 -0.04833722496
690.625 -0.08982400484 -0.05306977044
691.25 -0.08868639016 -0.03935263131
691.875 -0.05394107602 0.01494235311
692.5 -0.04075713465 0.03708196336
693.125 -0.05103235595 0.05000806883
693.75 -0.01558186647 0.114461567
694.375 0.01167738798 0.09559440641
695.0 -0.01503859519 0.1034000446
695.625 -0.0921356111 0.08002069304
696.25 -0.1046710192 -0.05076442493
696.875 -0.01993384355 -0.1030350043
697.5 0.03343158076 -0.09182998944
698.125 0.05060167129 -0.08384712223
698.75 0.04006169192 -0.03943883223
699.375 0.05908330556 -0.03784647615
700.0 0.08245169098 -0.01470426252
700.625 0.06553636263 0.02934558708
701.25 0.05828473054 0.03271658437
701.875 0.09623500972 0.02373868156
702.5 0.1361255326 -0.02938695412
703.125 0.09345224461 -0.09341211644
703.75 -0.007211843873 -0.07601799919
704.375 -0.03444257344 -0.05853246987
705.0 -0.02801243301 -0.08419755878
705.625 0.02070009595 -0.08407567921
706.25 0.04932095776 -0.03640288641
706.875 0.05240066064 0.01994128064
707.5 0.02877813884 0.07184967419
708.125 -0.03408236598 0.08988928205
708.75 -0.06549274936 0.08108343234
709.375 -0.08944413045 0.02970507016
710.0 -0.08095888678 -0.02867726877
710.625 -0.06982215135 -0.0447869603
711.25 -0.08389360183 -0.07282065872
711.875 -0.07493430283 -0.0717653762
712.5 -0.08184281398 -0.00820556336
713.125 -0.04293793599 0.04258796014
713.75 -0.01681946087 0.05629849613
714.375 -0.06195947484 0.04708935206
715.0 -0.03981615902 0.05531399011
715.625 -0.03552163245 0.0605349517
716.25 -0.05297111239 0.07479292935
716.875 -0.1200589512 0.01161509057
717.5 -0.09402701386 -0.02457105964
718.125 -0.07522739394 -0.04031011965
718.75 -0.06860083643 -0.05058553141
719.375 -0.06051685865 -0.06274119822
720.0 0.03144391075 -0.07420365118
720.625 0.05232707653 -0.03457627113
721.25 0.04645709404 0.01060665821
721.875 -0.005198875349 0.02922776585
722.5 -0.03945831446 0.02686519282
723.125 -0.04027477283 0.05682125478
723.75 0.001368518646 0.09860811939
724.375 0.06679921837 0.03266778981
725.0 0.0839446333 0.004072712947
725.625 0.0859009267 -0.02735676462
726.25 0.05850020688 -0.03478826912
726.875 0.03712810539 -0.03993710877
727.5 0.05048008827 0.02969871779
728.125 0.02884306371 0.04060903367
728.75 0.01638655073 0.06099495005
729.375 0.0320175753 0.04437697382
730.0 0.02858146609 0.01242273952
730.625 0.00366028238 0.07725696141
731.25 -0.02344149504 0.05965646759
731.875 -0.04674643721 0.02763417732
732.5 -0.0376765936 0.009209104332
733.125 -0.04769702656 -0.0209640526
733.75 -0.04282008966 -0.02381120963
734.375 -0.02220593422 -0.007830533597
735.0 -0.01404462669 -0.005010833313
735.625 -0.03466851978 -0.00699811946
736.25 -0.05275474212 -0.005597961903
736.875 -0.05034135027 -0.02169301281
737.5 -0.04284857218 -0.02776656275
738.125 -0.08589462233 -0.04593933851
738.75 -0.06491895557 -0.02289594558
739.375 -0.02254840473 -0.03053251587
740.0 0.01452086189 -0.01658375204
740.625 -0.01865860879 -0.03546393473
741.25 -0.01978248696 -0.02738889648
741.875 0.002271587844 -0.0323660562
742.5 0.02905623755 0.007118726071
743.125 -0.009016376431 0.02497439938
743.75 -0.02063577758 0.02735020625
744.375 -0.04206609396 0.005376304121
745.0 -0.04638628133 0.01785522771
745.625 -0.0397243274 0.0608121489
746.25 0.001595664395 0.08215056194
746.875 0.05842174817 0.04782396011
747.5 0.03196149493 0.009208177632
748.125 0.007167036658 0.01882015165
748.75 0.0340170976 -0.00775360062
749.375 0.02696411984 -0.01197572055
750.0 0.01454110334 -0.02943467089
