!Created with skrf (http://scikit-rf.org).
# GHz S RI R 50.0 
!freq ReS11 ImS11
500.0 -0.0144772333 0.02440122869
500.625 0.01857129304 0.03517171282
501.25 0.02579510644 0.02730481521
501.875 0.02952110719 0.02194612998
502.5 0.01934308312 0.03498185216
503.125 0.03000901854 0.03286999384
503.75 0.04550342179 0.0284349383
504.375 0.04685362309 0.001183402137
505.0 0.04087867625 -0.029797635
505.625 0.05556838945 -0.0443168941
506.25 0.05921989121 -0.04179138884
506.875 0.06127971328 -0.04834700101
507.5 0.05675522185 -0.03386873913
508.125 0.07432131388 -0.006187461681
508.75 0.04141959281 -0.05484672058
509.375 0.03497401197 -0.04708258951
510.0 0.07479482622 -0.03313197592
510.625 -0.004067122415 -0.06391712937
511.25 -0.02815443424 -0.05643697642
511.875 -0.04822460758 -0.01051364472
512.5 -0.03102309881 0.007978710303
513.125 -0.0186916856 0.02952951357
513.75 -0.02099588125 0.04183291913
514.375 -0.00382690432 0.0531636053
515.0 0.01935514272 0.07228688518
515.625 -0.06578888623 0.09672511412
516.25 0.0380153459 0.08948710491
516.875 -0.04338391955 0.1131748192
517.5 0.03139332239 0.1049602288
518.125 -0.08523765818 0.1053198515
518.75 0.02756637944 0.04309474363
519.375 0.01041414299 0.06402864578
520.0 0.04566659634 0.05946869004
520.625 0.05246135277 0.06426351707
521.25 0.06121977394 0.009083791838
521.875 0.03335981806 0.0432143583
522.5 0.06409342624 0.008071191143
523.125 0.1209223637 0.006072308057
523.75 0.09592823429 -0.06438731727
524.375 0.05329748929 -0.02120731062
525.0 0.003539392619 -0.005556841673
525.625 0.0008437393658 0.0320698513
526.25 0.002973018067 0.04094613819
526.875 0.01030665399 0.03502211034
527.5 0.01988818542 0.02377526602
528.125 0.0522035973 0.01260077383
528.75 0.04060084268 -0.01401334121
529.375 0.03504248745 -0.02929726479
530.0 0.0335202252 -0.02635737878
530.625 0.01196570679 -0.07948130697
531.25 0.02689144152 -0.1621235601
531.875 -0.0400136267 -0.1456578734
532.5 -0.07710451102 -0.08087409005
533.125 -0.08084253999 -0.07291770193
533.75 -0.06661821647 -0.05441978046
534.375 -0.06087430264 -0.03986251232
535.0 -0.05667160103 -0.01551757212
535.625 -0.03384712052 -0.04920216322
536.25 -0.0293053935 -0.03707601548
536.875 -0.03935369827 -0.06888270489
537.5 -0.04096255511 -0.09543609518
538.125 -0.06459491378 -0.05867819477
538.75 -0.05411515455 -0.03360250987
539.375 -0.03131360227 -0.05295654275
540.0 -0.03899811143 -0.08514455078
540.625 -0.05260349614 -0.1127978215
541.25 -0.03566144407 -0.08970544036
541.875 -0.04514415719 -0.08581760389
542.5 -0.05046570887 -0.103002766
543.125 -0.09707118201 -0.07196614894
543.75 -0.0945821542 0.01307312768
544.375 -0.05516661293 0.03436878306
545.0 -0.02488143667 0.04726704002
545.625 -0.02122255023 0.06706992462
546.25 0.00902458402 0.05251011459
546.875 0.01323848719 0.06381187043
547.5 0.009309464601 0.07720767443
548.125 -0.0004260132905 0.07306108599
548.75 -0.01568030327 0.06683687414
549.375 -0.02482584368 0.05924507583
550.0 -0.03266652056 0.02010920177
550.625 -0.02861870193 -0.001472763293
551.25 0.001107424799 -0.03280038518
551.875 -0.03864638733 -0.0493063797
552.5 -0.06238243099 -0.05325477178
553.125 -0.0778832851 -0.02618031894
553.75 -0.07709036223 -0.03132179704
554.375 -0.08722094047 -0.005587210237
555.0 -0.08991032049 0.01446096329
555.625 -0.08251349169 0.03179618819
556.25 -0.07752041318 0.01235591532
556.875 -0.09030741289 0.01072688465
557.5 -0.08917358029 0.02768418431
558.125 -0.07818083211 0.02217771411
558.75 -0.048629817 0.005592925648
559.375 -0.03103805628 -3.37100368e-06
560.0 -0.02128060525 -0.008482663107
560.625 -0.04202115791 -0.03254024115
561.25 -0.04187957218 -0.04292671121
561.875 -0.06625276843 -0.02661362449
562.5 -0.07296879875 0.01698924355
563.125 -0.07425051443 0.0642978056
563.75 -0.05776565138 0.07376194141
564.375 -0.02786036297 0.07521354365
565.0 -0.02077607212 0.07047079934
565.625 -0.01679350477 0.07375357699
566.25 -0.03656769986 0.02610133464
566.875 -0.05277806526 0.0177742668
567.5 -0.06052939755 0.01630546337
568.125 -0.06501190036 0.008666059294
568.75 -0.05010575754 0.001849089525
569.375 -0.02515384653 -0.01770388606
570.0 -0.02436510465 -0.0346421883
570.625 -0.04517841367 -0.04956950643
571.25 -0.02978250204 -0.04105233195
571.875 -0.05556502664 -0.03647025734
572.5 -0.08820475802 -0.01549201896
573.125 -0.1130310372 0.02136069912
573.75 -0.06359190255 0.06551026368
574.375 -0.03754852821 0.05983589703
575.0 -0.04826901959 0.0599144232
575.625 -0.05565702884 0.07268594732
576.25 -0.03820052688 0.05585316646
576.875 -0.02219257516 0.06845715454
577.5 -0.01253542965 0.0620045561
578.125 -0.01734042047 0.06022364544
578.75 -0.01509674201 0.02842598381
579.375 -0.0157772374 0.03390949682
580.0 -0.01884781006 0.03391426494
580.625 -0.03329915966 0.01220382274
581.25 -0.0551520074 0.001577077249
581.875 -0.07470560923 0.02579797474
582.5 -0.07829930373 0.03959739696
583.125 -0.06597487486 0.04054829321
583.75 -0.06142725022 0.03954549781
584.375 -0.06893199465 0.01504707043
585.0 -0.07013837639 -0.004211522533
585.625 -0.06343382017 0.01920122636
586.25 -0.05684680374 0.01894553637
586.875 -0.05927139491 0.003146540121
587.5 -0.05652130045 0.01630643854
588.125 -0.03407681146 0.03914762261
588.75 -0.01863938944 0.04577976024
589.375 -0.03748540955 0.02145707702
590.0 -0.05295964707 0.0136402268
590.625 -0.05177629525 0.04968824995
591.25 -0.02753337759 0.08324357548
591.875 -0.04695801304 0.07507083361
592.5 -0.01324194018 0.06781809181
593.125 -0.003900665764 0.05911888251
593.75 -0.002140236193 0.06324496357
594.375 -0.03419712141 0.04127703573
595.0 -0.03577893883 0.01747766979
595.625 -0.029375587 -0.003742901106
596.25 -0.03701671069 0.0007736626338
596.875 -0.02456301513 -0.0358804369
597.5 -0.02670159541 -0.02993513805
598.125 -0.01836828307 -0.02576596933
598.75 -0.009728107958 -0.0307313874
599.375 -0.01059260825 -0.04051740191
600.0 -0.02089473284 -0.05365236326
600.625 -0.02606857142 -0.07601182058
601.25 -0.04611648026 -0.0559582018
601.875 -0.05057984602 -0.05000130059
602.5 -0.05126665675 -0.04826834551
603.125 -0.04331542748 -0.04167300672
603.75 -0.04054707317 -0.01338955006
604.375 -0.01254402619 -0.02385760222
605.0 -0.00401852868 -0.03600622519
605.625 -0.008888717317 -0.04515695296
606.25 -0.006571416588 -0.0397175134
606.875 -0.01194129903 -0.01646093109
607.5 0.01328108949 -0.006119394912
608.125 0.01646181598 -0.010720146
608.75 0.009724984825 -0.006794077306
609.375 0.04004459084 -0.01618493365
610.0 0.05122222976 -0.009351476592
610.625 0.04216433928 -0.01288117478
611.25 0.04901904845 -0.02159562754
611.875 0.04562957914 -0.01524598397
612.5 0.03755113437 -0.009097312147
613.125 0.02878160604 0.001328577642
613.75 0.02004076148 0.01069171794
614.375 0.001414091764 0.01336248988
615.0 0.04348616324 0.03788268871
615.625 0.02752093365 0.01702579775
616.25 0.007655096218 0.02225852599
616.875 -0.001302926537 0.02835163192
617.5 0.04122646966 0.05290807757
618.125 0.03453349875 0.03824077196
618.75 0.02124383878 0.03444721484
619.375 0.001164775918 0.02738304002
620.0 0.03586249862 0.04172445007
620.625 0.04213247787 0.01356544799
621.25 0.023598594 -0.0004643162473
621.875 -0.02145642882 -0.02924490134
622.5 -0.01163682606 0.0174316685
623.125 -0.02464841908 0.04456429542
623.75 -0.02342258529 0.06020536838
624.375 -0.04751569373 0.03800563144
625.0 -0.04274360658 0.04244987567
625.625 -0.04598856719 0.04922069185
626.25 -0.04228363278 0.05093145314
626.875 -0.01816989506 0.05627287257
627.5 -0.0181850621 0.03965346415
628.125 -0.02889955628 0.02857268173
628.75 -0.02571781412 0.02031730753
629.375 -0.01877353832 0.01555705032
630.0 -0.01024416536 -0.0142691583
630.625 -0.002989317839 -0.01894435072
631.25 0.005378600143 -0.03731846866
631.875 -6.324476008e-05 -0.04629914172
632.5 -0.01305208097 -0.05593504925
633.125 -0.01630236425 -0.06219595999
633.75 -0.03268125493 -0.04592049943
634.375 -0.02916921588 -0.05473474233
635.0 -0.03129201036 -0.07419549607
635.625 -0.05291610866 -0.03289602602
636.25 -0.03476877531 -0.0236426728
636.875 -0.01072205451 -0.05249729891
637.5 -0.02783719519 -0.05976494614
638.125 -0.02742080237 -0.05305897241
638.75 -0.02927397681 -0.02168989041
639.375 -0.002599521077 -0.01500509611
640.0 0.04391990386 -0.01813954618
640.625 0.06429887102 -0.01769513334
641.25 0.0300006017 -0.03832626284
641.875 0.04387948832 -0.02505275073
642.5 0.05916791602 0.005244489682
643.125 0.05878512246 0.006534005811
643.75 0.05726189498 0.001085894811
644.375 0.05330892441 -0.004441234392
645.0 0.04110666605 0.001643520336
645.625 0.04953904801 0.02364948475
646.25 0.04911850579 0.01592804919
646.875 0.06184962588 0.01674106755
647.5 0.0555183484 0.009728417452
648.125 0.06263170223 0.02970022234
648.75 0.0410992504 0.03274268847
649.375 0.04305499001 0.06983022397
650.0 0.04491420553 0.0652760862
650.625 0.0333610229 0.07056102073
651.25 0.01768902276 0.06606851138
651.875 -0.02017128476 0.06018082916
652.5 -0.02881240137 0.04940368463
653.125 -0.02620041928 0.03537275724
653.75 -0.01671364406 0.01835836688
654.375 -0.01439364469 -0.02317845085
655.0 -0.02047898448 -0.04582572145
655.625 -0.05539644244 -0.06710409915
656.25 -0.06272628151 -0.05025168027
656.875 -0.07029333602 -0.03854595853
657.5 -0.08129721316 -0.0523730028
658.125 -0.08692572219 -0.04896354174
658.75 -0.1108508226 -0.04266307978
659.375 -0.08198660986 0.01843670882
660.0 -0.05295114819 0.03435623623
660.625 -0.05430402368 0.02804712871
661.25 -0.06442986029 0.01735130234
661.875 -0.01958694104 0.02411716205
662.5 -0.03978630614 0.02278376018
663.125 -0.07206317434 0.01061029282
663.75 -0.07218657058 -0.03123969863
664.375 -0.04650982566 -0.05852300106
665.0 -0.02787319066 -0.08838245856
665.625 0.01500648879 -0.1196378154
666.25 0.02375610321 -0.07457890573
666.875 0.03710207243 -0.07417753848
667.5 0.05091391204 -0.07772772211
668.125 0.0653094416 -0.06108364772
668.75 0.0202218353 -0.03053804306
669.375 0.04509152634 -0.02373863234
670.0 0.06883350061 -0.02866459168
670.625 0.07879341082 -0.0188877688
671.25 0.05829307959 -0.03052530307
671.875 0.06713511057 -0.03904214848
672.5 0.0598759604 -0.08378878204
673.125 0.02889787645 -0.1015305756
673.75 0.002779819916 -0.07630469765
674.375 0.02424806883 -0.07033623092
675.0 0.04858779793 -0.04736382175
675.625 0.0644736635 -0.03493979246
676.25 0.05043120656 -0.008208787816
676.875 0.05567829689 0.01465332544
677.5 0.03171801338 0.03408678204
678.125 0.03553680169 0.05017623151
678.75 0.0507807153 0.07644808063
679.375 0.05589978806 0.1049419759
680.0 0.05205047512 0.09068508925
680.625 0.07000663765 0.0594528116
681.25 0.1115473257 0.03282722819
681.875 0.09990522824 0.01185133923
682.5 0.08057239815 -0.02317487579
683.125 0.0643611651 -0.03334486841
683.75 0.07396424311 -0.002596612845
684.375 0.05463941182 0.05407523749
685.0 0.005280539801 0.05605511311
685.625 -0.04198934266 0.04703015092
686.25 -0.06814785127 0.001032663809
686.875 -0.08918971064 -0.02817507294
687.5 -0.08930360196 -0.04235318339
688.125 -0.1173369604 -0.05796080174
688.75 -0.09201366276 -0.0744865126
689.375 -0.0872002593 -0.05861123904
690.0 -0.06438348692 -0.04756304988
690.625 -0.07718472254 -0.05299323209
691.25 -0.0779109129 -0.03741502272
691.875 -0.06004795462 0.01902319749
692.5 -0.03245484157 0.004458628827
693.125 -0.04516586328 0.06697863374
693.75 -0.0114113056 0.124453254
694.375 0.01231868021 0.1028235833
695.0 -0.01257509682 0.1069675403
695.625 -0.0922636871 0.0455342724
696.25 -0.0915512801 -0.05677579744
696.875 -0.0239196798 -0.1033239036
697.5 0.03625135652 -0.1016429121
698.125 0.04933680075 -0.05414159113
698.75 0.04076565999 -0.03131383703
699.375 0.05849921771 -0.02498957473
700.0 0.08448461629 -0.01589106719
700.625 0.06252059962 0.03204809933
701.25 0.05347160584 0.03917193576
701.875 0.09132871769 0.03287832122
702.5 0.1392323477 -0.04273706771
703.125 0.080776407 -0.0575134814
703.75 -0.01511106556 -0.08599607513
704.375 -0.04412987742 -0.05884135385
705.0 -0.03557009615 -0.0902606355
705.625 0.02034100033 -0.08618820385
706.25 0.05040610811 -0.03391709062
706.875 0.05206994283 0.02348410475
707.5 0.01270148659 0.07706943345
708.125 -0.02304708327 0.09244537323
708.75 -0.07364749557 0.06760190018
709.375 -0.09272072425 0.02095033025
710.0 -0.07931286395 -0.03006957988
710.625 -0.08039362918 -0.03780679364
711.25 -0.05459777311 -0.0892464088
711.875 -0.08376435061 -0.06983731781
712.5 -0.06755583175 -0.01702083133
713.125 -0.0407085527 0.04675513809
713.75 -0.05057573752 0.0273640751
714.375 -0.05174975262 0.04715187873
715.0 -0.03513982387 0.05347227965
715.625 -0.02107247604 0.06469883192
716.25 -0.06266653379 0.06967273195
716.875 -0.1126396357 0.02806665229
717.5 -0.08995688613 -0.0357386363
718.125 -0.07091743639 -0.04331644792
718.75 -0.07397115732 -0.03316300723
719.375 -0.006279810922 -0.0898913999
720.0 0.008280108206 -0.07730803467
720.625 0.04609838062 -0.04252560022
721.25 0.053143301 -0.003886180554
721.875 -0.01260095412 0.0333442732
722.5 -0.04887747304 0.02977989378
723.125 -0.06360207779 0.05985719198
723.75 0.01675280544 0.08240697167
724.375 0.05874396284 0.07827948977
725.0 0.08831762724 0.007686244496
725.625 0.06840778552 -0.03380958845
726.25 0.06013000219 -0.04141148849
726.875 0.04743364566 -0.0219589694
727.5 0.04379014954 -0.001111158908
728.125 0.02927518594 0.05016034257
728.75 0.01046335843 0.06593486851
729.375 0.03144562972 0.02336781026
730.0 0.03368982305 0.06402821719
730.625 0.007799790903 0.05205271467
731.25 -0.01760397032 0.04775284904
731.875 -0.02405479905 0.02531314751
732.5 -0.05959486194 -0.0007509402766
733.125 -0.05082405669 -0.02457413342
733.75 -0.03236628515 -0.01228967648
734.375 -0.001689630118 0.01009899517
735.0 -0.05989707976 -0.04013494161
735.625 -0.05222184265 -0.01663954679
736.25 -0.03766797951 -0.01494914052
736.875 -0.02366246876 -0.03150642318
737.5 -0.09718527498 -0.04510662529
738.125 -0.07163090988 -0.02899258494
738.75 -0.04196878479 -0.01894903532
739.375 -0.001034022948 0.002236601996
740.0 -0.0006491143592 -0.03547563575
740.625 -0.02270747985 -0.03543060464
741.25 -0.02473196203 -0.026429165
741.875 0.006372024009 -0.03675404552
742.5 0.007392447287 0.02608993391
743.125 0.008569626552 0.04218038951
743.75 -0.009592785869 0.03606178422
744.375 -0.03008646704 0.03004202994
745.0 -0.05420104885 0.009353040571
745.625 -0.04470735777 0.05971320924
746.25 0.01443227971 0.08499593884
746.875 0.05160104174 0.05190665693
747.5 0.01902126566 0.01998039605
748.125 0.0386629023 -0.003136713143
748.75 0.02239424372 0.008723681482
749.375 0.02160523403 -0.01557298755
750.0 -0.004750876852 -0.02532860419
