!Created with skrf (http://scikit-rf.org).
# GHz S RI R 50.0 
!freq ReS11 ImS11
500.0 -0.003487438315 0.003155427401
500.625 0.01303688246 0.002318936277
501.25 0.008200812903 -0.01978808105
501.875 -0.007866193034 -0.03136188312
502.5 -0.006047906462 -0.01018509816
503.125 0.002396399287 -0.0005220991632
503.75 0.0008506001302 -0.01273821024
504.375 -0.005267994318 -0.02095337682
505.0 -0.002897216882 -0.01983379122
505.625 -0.005647516416 -0.03132530861
506.25 -0.03215442479 -0.03985150226
506.875 -0.03333467188 -0.07831687947
507.5 -0.04660269871 -0.05064455229
508.125 -0.03070221497 -0.06299580271
508.75 -0.08344401017 -0.04120319722
509.375 -0.08215384953 -0.02614019751
510.0 -0.05462303543 -0.02428656156
510.625 -0.03719275131 0.01807943763
511.25 -0.05811369902 0.03159590504
511.875 -0.03729111908 0.05865200181
512.5 0.01100278783 0.05027841162
513.125 0.07071067755 0.01126622822
513.75 0.09355839985 -0.005713818152
514.375 0.06761287119 -0.02886879607
515.0 0.04222619915 -0.04846648368
515.625 0.08648166141 -0.02155754142
516.25 0.08636096906 -0.04064412833
516.875 0.08809570983 0.05582533746
517.5 0.1055132729 -0.02835750395
518.125 0.1989956336 0.1097587843
518.75 0.1086690597 -0.06292775399
519.375 0.07491171117 -0.03411456303
520.0 0.05004079064 -0.06890383924
520.625 0.07311723401 -0.1019685366
521.25 0.04415605348 -0.1029842328
521.875 0.0468715368 -0.04891337525
522.5 0.01262410317 -0.09086537601
523.125 0.04961673728 -0.2347661962
523.75 -0.0001506875153 -0.3043191545
524.375 -0.003952057066 -0.2899698153
525.0 -0.016739759 -0.1437520847
525.625 -0.01004481887 -0.1124249069
526.25 0.01469571188 -0.08837297026
526.875 -0.01323603056 -0.07878791575
527.5 -0.04994203615 -0.08794211653
528.125 -0.06460024426 -0.05086539423
528.75 -0.07164657449 -0.03791492961
529.375 -0.1209223835 0.03186139162
530.0 -0.08718252979 0.1016071201
530.625 0.002793807327 0.09981242054
531.25 -0.002828960534 0.07173200187
531.875 -0.02325020672 0.1148694837
532.5 -0.02941895559 0.1666193825
533.125 -0.01624771641 0.127507442
533.75 0.02005266996 0.09268945591
534.375 0.02943558638 0.1080870724
535.0 0.03262700217 0.1368414445
535.625 -0.007426197881 0.1021587037
536.25 0.06380701925 0.06319603586
536.875 0.04994770776 0.0840379906
537.5 -0.01912488189 0.09494488404
538.125 -0.01313599333 0.08282734416
538.75 0.03373084783 0.1149303694
539.375 0.005484680834 0.1522991562
540.0 0.01280973325 0.1230314773
540.625 0.01055769002 0.09500200446
541.25 0.01571334525 0.114101392
541.875 -0.007702495798 0.118192956
542.5 -0.03062228497 0.05731403142
543.125 -0.01193613366 0.06435981005
543.75 0.05549934865 0.1009709396
544.375 0.09032098983 0.1124641836
545.0 0.1140574844 0.00917981266
545.625 0.08660387664 -0.06255847179
546.25 0.07448673546 -0.1112632246
546.875 0.07796503712 -0.0992144363
547.5 0.08483622027 -0.0907890205
548.125 0.1139435878 -0.1016717307
548.75 0.1564629606 -0.06636364302
549.375 0.1592645664 -0.02620848388
550.0 0.1525956925 0.01855777709
550.625 0.1865382808 0.02160083529
551.25 0.1195429862 0.08894401264
551.875 0.08841272138 0.0367394841
552.5 0.08575633438 0.006235408534
553.125 0.1123259158 -0.002923275212
553.75 0.0771365606 0.03815184694
554.375 0.04954702318 0.01677034203
555.0 0.06503014916 0.01027353386
555.625 0.09893141957 0.004410435206
556.25 0.08525082908 0.03990020644
556.875 0.0538724512 0.03801796235
557.5 0.07054184532 0.0454124393
558.125 0.0836399151 0.08296538669
558.75 0.04550241605 0.1083284915
559.375 0.06778869427 0.09098162714
560.0 0.0960325899 0.08521243512
560.625 0.09478233958 0.06230414583
561.25 0.07598323815 0.02093470399
561.875 0.07575907175 0.002132845061
562.5 0.08240945928 -0.0008355479152
563.125 0.07592474003 -0.003048159539
563.75 0.06076653955 -0.01329321517
564.375 0.07492853642 -0.04351697109
565.0 0.1366976462 -0.03457931222
565.625 0.1138458711 -0.0297969869
566.25 0.09635302293 -0.02156243448
566.875 0.105552628 -0.01928100117
567.5 0.116917887 0.03164980303
568.125 0.07812399345 0.06900477318
568.75 0.0872338865 0.07084003861
569.375 0.1003934839 0.08216174023
570.0 0.09474042758 0.07566014543
570.625 0.0792656618 0.049758153
571.25 0.08861287044 0.0245421077
571.875 0.09555925523 0.02429923376
572.5 0.06482176936 -0.002335778116
573.125 0.04888338158 -0.004490824987
573.75 0.08076327543 -0.02071396095
574.375 0.1026482218 -0.04334684454
575.0 0.07506634413 -0.04132117621
575.625 0.04175652523 -0.04630446095
576.25 0.060966956 -0.05823428353
576.875 0.08492703116 -0.03857274396
577.5 0.08180193639 -0.03273124129
578.125 0.07353385967 -0.04954178148
578.75 0.09369118631 -0.07401573939
579.375 0.1117851971 -0.05493222047
580.0 0.08912866961 -0.05266678444
580.625 0.07691763279 -0.08257091181
581.25 0.06377655352 -0.09787290545
581.875 0.05491112667 -0.05793095228
582.5 0.04358937699 -0.02727506641
583.125 0.06967306785 -0.03507206445
583.75 0.09205970541 -0.02837927988
584.375 0.07836910855 -0.01357336639
585.0 0.06313250904 0.0007000562241
585.625 0.08003666288 0.006746963115
586.25 0.0913682184 0.01781594056
586.875 0.07036483472 0.00442122333
587.5 0.06931927964 -0.01353718458
588.125 0.08818683602 -0.03667037132
588.75 0.09743547929 -0.03916463929
589.375 0.06333792001 -0.07026463194
590.0 0.01334469336 -0.09939937175
590.625 -0.002496011812 -0.09414095562
591.25 0.01164770496 -0.04484579222
591.875 0.02259352779 -0.02597247665
592.5 0.02980788212 -0.04988952827
593.125 0.04834983603 -0.07152075096
593.75 0.06122463529 -0.0478891384
594.375 0.06403242994 -0.02518579915
595.0 0.0844760139 -0.0155596932
595.625 0.09637811174 0.005610108546
596.25 0.07770705034 0.02289112305
596.875 0.06220968248 0.02885767674
597.5 0.06638352152 0.04252248126
598.125 0.0737363403 0.0440305815
598.75 0.08158062205 0.01937396285
599.375 0.082458619 0.001714335706
600.0 0.07073664309 -0.000434847583
600.625 0.04702223555 -0.002527341944
601.25 0.0273861796 -0.004135459487
601.875 0.02351531042 0.008969642269
602.5 0.01711391186 0.02637323451
603.125 0.006783946195 0.03270872515
603.75 0.0115670904 0.03768905502
604.375 0.02431558893 0.04370072586
605.0 0.01908081343 0.04130467596
605.625 -0.0006623647591 0.02759528433
606.25 -0.01670428116 0.02869173455
606.875 -0.02337460437 0.04784915537
607.5 -0.007663558029 0.05912191704
608.125 0.01440113693 0.04739549633
608.75 0.01889185038 0.0358934059
609.375 0.01464499482 0.03636381586
610.0 0.01344728086 0.03279021218
610.625 0.01679117368 0.01898904238
611.25 0.01543053456 0.00483408374
611.875 0.007982695497 -0.0063085461
612.5 -0.001151787162 -0.01491258052
613.125 -0.01497826472 -0.0133187975
613.75 -0.01569190305 -0.002087825158
614.375 -0.005072887358 0.003523110093
615.0 0.00413861129 -0.003759288867
615.625 0.0002370442419 -0.01186752026
616.25 -0.00630431647 -0.005132453391
616.875 0.003988335013 0.005214875287
617.5 0.01873800475 0.001712543801
618.125 0.02392970135 -0.005561595769
618.75 0.0246880464 -0.004831067149
619.375 0.03503654411 -2.671053258e-05
620.0 0.05393894443 -0.007091310367
620.625 0.05407893129 -0.03439698974
621.25 0.04949493846 -0.04327361481
621.875 0.03582806065 -0.05304264243
622.5 -0.0150853976 -0.0477176813
623.125 -0.01441634353 -0.02004139709
623.75 0.00261944776 -0.005851862479
624.375 0.02205576866 -0.000106629153
625.0 0.02761952526 0.01419503524
625.625 0.02529810764 0.02324406297
626.25 0.0384240929 0.03082617502
626.875 0.06918551611 0.0369856715
627.5 0.07059797042 0.05020302332
628.125 0.05947439561 0.04806894972
628.75 0.06042149965 0.04774177796
629.375 0.07249270911 0.06486971492
630.0 0.05905936419 0.07772147641
630.625 0.04330281231 0.06561164843
631.25 0.04349522761 0.05767573022
631.875 0.03293880187 0.06295401708
632.5 0.01382145683 0.05727668789
633.125 -0.0009931996015 0.04830247306
633.75 0.005605674916 0.05797286451
634.375 -0.005554514743 0.06770769074
635.0 -0.008912810074 0.06593011142
635.625 -0.0001911708766 0.07686782418
636.25 0.01168059708 0.09666357477
636.875 -0.0007499964242 0.09030730537
637.5 -0.009593894243 0.06551852989
638.125 -0.01594131261 0.08345849987
638.75 -0.03830211415 0.1194036875
639.375 -0.06279942499 0.09157005466
640.0 -0.05525584944 0.05282174972
640.625 -0.05927163837 0.04755699397
641.25 -0.09570254282 0.02587951596
641.875 -0.08468475516 -0.009406504525
642.5 -0.07186259785 -0.009255338741
643.125 -0.0847846143 -0.008768705436
643.75 -0.09891949241 -0.04194959459
644.375 -0.08742205279 -0.05646969638
645.0 -0.09390890699 -0.02586502971
645.625 -0.1194208171 -0.01200910409
646.25 -0.113711487 -0.01555488326
646.875 -0.08338731748 -0.03557978758
647.5 -0.08217053324 -0.02879995864
648.125 -0.1052821638 -0.03558953276
648.75 -0.07675644493 -0.05400723936
649.375 -0.0410965474 -0.05017924387
650.0 -0.02302437858 -0.06778815626
650.625 0.01213985158 -0.09172096065
651.25 0.04640118106 -0.07901212948
651.875 0.0631084306 -0.05583579375
652.5 0.1044691191 -0.05029416944
653.125 0.1475247134 -0.003960702556
653.75 0.1298340176 0.01682370476
654.375 0.1234199653 0.01305883564
655.0 0.1391781282 0.02782740349
655.625 0.1118848688 0.0564001647
656.25 0.07259527704 0.03225963866
656.875 0.08773630468 0.0003140345472
657.5 0.1048267162 0.0258852378
658.125 0.078761283 0.05481937617
658.75 0.04851845632 0.05398264697
659.375 0.08384487592 0.03302374991
660.0 0.1305407224 0.0222132001
660.625 0.1327559231 0.009017213882
661.25 0.120309911 -0.02001522356
661.875 0.1214589113 -0.07081169359
662.5 0.1202815795 -0.09581327818
663.125 0.1129727907 -0.07038753167
663.75 0.1162868318 -0.03600338658
664.375 0.1226100332 0.05722304806
665.0 0.04776937421 0.09417571713
665.625 0.01089595533 0.08216885095
666.25 -0.002569048565 0.08828628896
666.875 -0.07621219126 0.1037031868
667.5 -0.1118593232 0.04273160147
668.125 -0.09418753219 0.04304355395
668.75 -0.09007736138 0.09063509196
669.375 -0.1187840645 0.1077577866
670.0 -0.11578955 0.05257554783
670.625 -0.08866411984 0.039963696
671.25 -0.08750649848 0.09368198052
671.875 -0.07643336239 0.119737227
672.5 -0.03290224975 0.1093228367
673.125 -0.01450365551 0.08869798589
673.75 -0.02727685587 0.1052650499
674.375 -0.06536395207 0.104145012
675.0 -0.08983233784 0.07421187838
675.625 -0.1188933843 0.05273062137
676.25 -0.1438878377 -0.01650944216
676.875 -0.1333559961 -0.04393584747
677.5 -0.1335009601 -0.02333117335
678.125 -0.1670793137 -0.005015736689
678.75 -0.1405227058 -0.05659057769
679.375 -0.07257323997 -0.04844226378
680.0 -0.06796834574 -0.02982976361
680.625 -0.1082160461 -0.03226349378
681.25 -0.1193397116 -0.05260082226
681.875 -0.0793445179 -0.04810611691
682.5 -0.09605241873 -0.005088670001
683.125 -0.1441043234 0.0197887267
683.75 -0.1714080957 -0.01810937353
684.375 -0.1059322041 -0.09764713568
685.0 -0.03531392505 -0.1317537788
685.625 0.06001943691 -0.1515148831
686.25 0.1138730394 -0.116424616
686.875 0.1197601763 -0.08521981968
687.5 0.1281068647 -0.04364354362
688.125 0.1047595483 0.00155611386
688.75 0.07747668963 0.03046777175
689.375 0.08580661282 0.03832394003
690.0 0.1104907904 0.08345002567
690.625 0.07666332591 0.1008834789
691.25 0.09529953013 0.06845790325
691.875 0.1431149925 -0.02124161376
692.5 0.1391761862 -0.1646407808
693.125 0.008312609432 -0.1877073126
693.75 -0.07940910313 -0.09936301356
694.375 -0.1093747924 -0.08128453563
695.0 -0.06678217636 -0.155162678
695.625 0.08952232864 -0.1223723169
696.25 0.0990133664 0.012089238
696.875 0.05603435576 0.09151547482
697.5 -0.03825145356 0.1132663285
698.125 -0.08983134324 0.0960664194
698.75 -0.09724276016 0.09983284655
699.375 -0.1051821188 0.1004723834
700.0 -0.1077296706 0.06997823909
700.625 -0.1109699142 0.04177830687
701.25 -0.1358269244 0.05255059346
701.875 -0.1429619298 0.04431748482
702.5 -0.07634070971 0.05245359116
703.125 -0.0400769096 0.05948937718
703.75 0.02284793921 0.1223896948
704.375 0.0752163477 0.1734044587
705.0 0.05394930954 0.1318375226
705.625 0.02051255952 0.10937892
706.25 -0.05454806097 0.1325634222
706.875 -0.1810981502 0.02720270857
707.5 -0.1290763492 -0.07792415919
708.125 -0.07857343351 -0.08327450562
708.75 -0.03101970083 -0.1101306675
709.375 0.06381573039 -0.09286341537
710.0 0.1005686724 -0.01999382324
710.625 0.08824502054 0.005650393162
711.25 0.07697954841 0.03137678556
711.875 0.06137208698 0.04484503192
712.5 0.08693812534 0.04182785322
713.125 0.1378557532 -0.04245687308
713.75 0.06862098959 -0.1451712464
714.375 -0.03599948273 -0.137116069
715.0 -0.09766991416 -0.09598573447
715.625 -0.109246209 -0.1266426263
716.25 -0.01506346477 -0.1439893129
716.875 0.0350940809 -0.08544273321
717.5 0.06304565251 -0.05133474455
718.125 0.1029557591 -0.02708962948
718.75 0.1051241911 0.02540018261
719.375 0.05967384074 0.0440915475
720.0 0.02732517247 0.05565319776
720.625 -0.04967956845 0.06354235208
721.25 -0.1001571764 -0.03593859395
721.875 -0.03842301698 -0.107073432
722.5 -0.02609803467 -0.1189598891
723.125 -0.08093637582 -0.09647153754
723.75 -0.1038922567 -0.0186064939
724.375 -0.07496043331 0.03830694541
725.0 -0.03223885855 0.06312998094
725.625 -0.006831150131 0.05307487297
726.25 -0.009647663313 0.03602591564
726.875 -0.03938471307 0.02791068117
727.5 -0.0746929058 0.01590717025
728.125 -0.08420537447 -0.01029564413
728.75 -0.0710323084 0.001383967565
729.375 -0.05404331898 0.02081247596
730.0 -0.0521795203 0.01475566362
730.625 -0.05251128885 -0.0001771427709
731.25 -0.03998842213 -0.01526507902
731.875 -0.02360546094 -0.02812954262
732.5 -0.002179321654 -0.02694713737
733.125 0.007230050386 -0.006400206479
733.75 0.01792537049 0.006489720627
734.375 0.02766654164 0.000839406266
735.0 0.02329028107 -0.01699345558
735.625 0.01681655812 -0.02181312287
736.25 0.008292225514 -0.02890175967
736.875 -0.009748403534 -0.03052040974
737.5 -0.02736691549 -0.0163781495
738.125 -0.03786105362 0.006397432639
738.75 -0.03260495078 0.0289731882
739.375 -0.01547747503 0.0374123958
740.0 -0.001164467968 0.02482582078
740.625 -0.00904719358 0.02327757278
741.25 -0.01507302535 0.03175285646
741.875 -0.03361114688 0.01986408539
742.5 -0.03371007621 -0.02060196806
743.125 0.009058530283 -0.04290079179
743.75 0.03345989213 -0.02929622317
744.375 0.03467201154 -0.0291490268
745.0 0.02746189371 -0.03677169569
745.625 0.01630460766 -0.03190304053
746.25 0.02689962309 -0.01562522145
746.875 0.03081644295 -0.03915629497
747.5 0.0007898450689 -0.06118662438
748.125 -0.03244546559 -0.05762357624
748.75 -0.05927579035 -0.02938040114
749.375 -0.06499023138 0.02339029227
750.0 -0.01677031842 0.08863060105
