!Created with skrf (http://scikit-rf.org).
# GHz S RI R 50.0 
!freq ReS11 ImS11
500.0 -0.01166333349 0.00493836219
500.625 0.003237592884 0.004326674293
501.25 0.004285915077 -0.01803885117
501.875 -0.04590195349 -0.009118736151
502.5 -0.01792140743 -0.006151489413
503.125 0.0007446859803 -0.001235779482
503.75 -0.01539163375 0.02470817908
504.375 -0.01006063065 0.007330506721
505.0 -0.00492542152 -0.004725343475
505.625 -0.00527025226 -0.02729787103
506.25 -0.02439487477 -0.02539730137
506.875 -0.03607848211 -0.04815715374
507.5 -0.04988760402 -0.03013540488
508.125 -0.03287778671 -0.05783403341
508.75 -0.05250470442 0.003940603142
509.375 -0.05900741986 0.01319569465
510.0 -0.0507650753 -0.01369465949
510.625 -0.03411329891 0.02127826325
511.25 -0.01269237525 0.02008592074
511.875 -0.02390760869 0.05086848199
512.5 0.01750957412 0.03852570466
513.125 0.07141571074 0.008728168487
513.75 0.05878270568 -0.03285278354
514.375 0.0591617536 -0.03150846835
515.0 0.02706447648 -0.04363219829
515.625 0.06548114786 -0.02118351986
516.25 0.06391246994 -0.03682792543
516.875 0.07288816739 0.050124574
517.5 0.09060615955 -0.02606891136
518.125 0.1905665006 0.1023189168
518.75 0.08659495829 -0.06409140681
519.375 0.05702493668 -0.0408341964
520.0 0.04594750727 -0.06719139487
520.625 0.05900990082 -0.08913786007
521.25 0.03181629866 -0.09446368198
521.875 0.0413824505 -0.04280518411
522.5 0.01141795335 -0.08165700118
523.125 0.0411324162 -0.2259446909
523.75 -0.0260480524 -0.2566355918
524.375 -0.01901314215 -0.2530950009
525.0 -0.02327990025 -0.1343605853
525.625 -0.03278984288 -0.07812186337
526.25 0.002883728269 -0.07766871086
526.875 -0.02051264617 -0.06455076477
527.5 -0.05098907569 -0.08103425326
528.125 -0.05799128368 -0.0292221355
528.75 -0.06643730797 -0.02984023495
529.375 -0.09903320457 0.03379107672
530.0 -0.0838559272 0.1059531884
530.625 0.02985148351 0.07210738434
531.25 0.01038292572 0.0479109046
531.875 -0.008261487047 0.0835257168
532.5 -0.02206705043 0.165643082
533.125 -0.004185475573 0.09862212149
533.75 0.01874854081 0.08025572892
534.375 0.02531534289 0.08720092499
535.0 0.03367010535 0.1285721232
535.625 -0.003122802907 0.09337132597
536.25 0.05661342194 0.05279812128
536.875 0.05038314221 0.06949306237
537.5 -0.01360536315 0.09488542184
538.125 -0.01114342194 0.06098410469
538.75 0.027067846 0.09758937286
539.375 0.01650588257 0.1277853888
540.0 0.01692649935 0.1175952338
540.625 0.007446917557 0.05985378972
541.25 0.009468296097 0.08862548927
541.875 -0.002900689149 0.1048069429
542.5 -0.02793303765 0.05689854533
543.125 -0.02390983913 0.04314595394
543.75 0.03794441389 0.09202962132
544.375 0.08060397435 0.09629360801
545.0 0.1098299278 0.0075918283
545.625 0.08095097579 -0.0564904325
546.25 0.06592487242 -0.09862312843
546.875 0.07246903702 -0.09287148778
547.5 0.08115481365 -0.08841757919
548.125 0.0952474334 -0.07044895373
548.75 0.1333941468 -0.05248753182
549.375 0.140658938 -0.0272819219
550.0 0.1489191382 0.01638754497
550.625 0.1683042795 0.0186516354
551.25 0.1126691335 0.07754779543
551.875 0.08133271579 0.02677753076
552.5 0.08557718725 0.004087576162
553.125 0.07967641509 0.001953944439
553.75 0.06647262583 0.03202258782
554.375 0.0458714794 0.01485410222
555.0 0.06214310057 0.008896440355
555.625 0.09608723472 0.001501593166
556.25 0.06865562502 0.03847266415
556.875 0.04537853144 0.03865393095
557.5 0.05839281046 0.04438694631
558.125 0.08575333533 0.07906536613
558.75 0.04094631341 0.1014935097
559.375 0.06371258166 0.08413230228
560.0 0.09480552713 0.08150690885
560.625 0.09241076374 0.05702911176
561.25 0.07181249352 0.01870825598
561.875 0.07290747061 0.0008488006407
562.5 0.07648161203 -0.000911457231
563.125 0.06578528726 0.004061635976
563.75 0.05610974048 -0.0092734942
564.375 0.07057948759 -0.03142230166
565.0 0.1330109422 -0.03780380666
565.625 0.1084308813 -0.0259026927
566.25 0.09234121659 -0.01895012707
566.875 0.1001771639 -0.01509861229
567.5 0.1091937871 0.03140962381
568.125 0.07867295328 0.0668386649
568.75 0.06494387877 0.07361537521
569.375 0.08566250102 0.07932536377
570.0 0.08217932234 0.06690442868
570.625 0.07943753337 0.04755951693
571.25 0.08063739446 0.02624443624
571.875 0.07686768415 0.02565583207
572.5 0.05912193909 -0.003184617144
573.125 0.0473230853 -0.005824035574
573.75 0.07089063088 0.008348457645
574.375 0.09543246762 -0.03136418147
575.0 0.07227184582 -0.03792055709
575.625 0.04005855834 -0.04584428674
576.25 0.06248392799 -0.04957922376
576.875 0.07520696981 -0.02775230634
577.5 0.0805464203 -0.02756321827
578.125 0.07350670238 -0.04313208297
578.75 0.09422128957 -0.06169824597
579.375 0.1079814981 -0.0479764142
580.0 0.08741698578 -0.04714444045
580.625 0.07484266681 -0.08280253491
581.25 0.06413777501 -0.0742293407
581.875 0.04984511782 -0.0422610478
582.5 0.0401448186 -0.01578539671
583.125 0.06674303547 -0.03502395791
583.75 0.08376934425 -0.001769637494
584.375 0.07228971113 -0.005376611522
585.0 0.06186646041 0.0005354329568
585.625 0.0781453347 0.004467049616
586.25 0.06946392116 0.0434458791
586.875 0.06274942023 0.01650712152
587.5 0.0670694565 0.0004996119292
588.125 0.08497923612 -0.03825986755
588.75 0.09551508539 -0.006486159431
589.375 0.06494858759 -0.05918807714
590.0 0.01520819657 -0.0937398919
590.625 -0.0001450533121 -0.08933775537
591.25 0.02126090616 -0.02699919642
591.875 0.02791411696 -0.0212681638
592.5 0.03507131882 -0.04556785186
593.125 0.05075064629 -0.06619298955
593.75 0.06902259456 -0.02116039576
594.375 0.07028565044 -0.01608327337
595.0 0.08739639937 0.004084150651
595.625 0.09456125939 0.01109435751
596.25 0.06891575492 0.03560635284
596.875 0.05500889602 0.0400570501
597.5 0.06075994427 0.05018177552
598.125 0.07173034763 0.04252105723
598.75 0.07099488212 0.04506646776
599.375 0.07228382712 0.02512258767
600.0 0.05486016744 0.01807515802
600.625 0.04674504369 -0.004977213045
601.25 0.01037839551 0.02112023766
601.875 0.01526794478 0.02774335101
602.5 0.01434148912 0.03154207457
603.125 0.001869657166 0.0361300218
603.75 0.009614582454 0.0404996703
604.375 -0.0001735253195 0.07303374931
605.0 -0.0107135476 0.05623904887
605.625 -0.02059623822 0.03004061588
606.25 -0.01671025322 0.02662699934
606.875 -0.07783298525 0.05908715231
607.5 -0.02846413159 0.06156296877
608.125 1.808576009e-05 0.04864720938
608.75 0.0140286525 0.03936658816
609.375 -0.01693059854 0.04809754323
610.0 -0.01585999212 0.03549877945
610.625 -0.007125566013 0.01695093583
611.25 0.01568554927 0.002403939152
611.875 -0.03911426652 -0.02541636674
612.5 -0.02188623429 -0.02655210596
613.125 -0.0269999295 -0.02169886058
613.75 -0.02157958995 -0.008901375013
614.375 -0.01146778109 -0.00172266876
615.0 -0.01164598504 -0.01262344827
615.625 -0.007751181072 -0.01724173865
616.25 -0.01441680375 -0.01377735121
616.875 -0.001324347966 0.002237929793
617.5 0.003499907913 -0.00828850344
618.125 0.009751729451 -0.01701236181
618.75 0.01234091274 -0.01837203251
619.375 0.02931367228 -0.005566735091
620.0 0.03319207008 -0.02421662963
620.625 0.03505162754 -0.05908277831
621.25 0.04827812363 -0.04648527055
621.875 0.02232081727 -0.0712233349
622.5 -0.03474086661 -0.05205851898
623.125 -0.03475727902 -0.01985837786
623.75 -0.0119144974 -0.01195407556
624.375 0.01513281458 -0.004971106411
625.0 0.009444542791 -0.01986728254
625.625 0.008834788965 -0.002830461945
626.25 0.0278427391 0.008336838797
626.875 0.07042896071 0.0328242247
627.5 0.05690281154 -0.008515534575
628.125 0.05894659563 0.02538545559
628.75 0.06194685685 0.02304019696
629.375 0.0755930722 0.06101322597
630.0 0.07469613994 0.04259629073
630.625 0.05765251134 0.04152805827
631.25 0.04832570182 0.04869188946
631.875 0.037578725 0.06295563232
632.5 0.05238769242 0.01685412591
633.125 0.01322182138 0.03236769481
633.75 0.01527236758 0.04863252381
634.375 0.0001230051288 0.06030163139
635.0 -0.004670464222 0.06091345442
635.625 0.007908327836 0.04879825404
636.25 0.02040561511 0.07127123936
636.875 0.02166753511 0.07812262959
637.5 -0.006469613989 0.0650865733
638.125 0.001667644003 0.04561929346
638.75 -0.01687343726 0.09666409224
639.375 -0.04450663873 0.09465701263
640.0 -0.05002242431 0.05324014704
640.625 -0.03056980904 0.04604695274
641.25 -0.07704621377 0.03132199188
641.875 -0.07038541697 0.009394441374
642.5 -0.07221424085 -0.006994707519
643.125 -0.05295437688 0.007313028609
643.75 -0.07882821866 -0.02397704982
644.375 -0.07988893536 -0.03235538148
645.0 -0.09406909117 -0.02311891182
645.625 -0.0915420687 0.005836990076
646.25 -0.09720587262 -0.001906302416
646.875 -0.08188455364 -0.03099946048
647.5 -0.0766743181 -0.0241868332
648.125 -0.09288214184 -0.02245939902
648.75 -0.07371582048 -0.03710265766
649.375 -0.03806661394 -0.04161557217
650.0 -0.02139533308 -0.05739646488
650.625 0.008045355658 -0.08887707386
651.25 0.03291492414 -0.06161101313
651.875 0.05316154381 -0.04602064398
652.5 0.08381302269 -0.03928036328
653.125 0.147033148 -0.009283635753
653.75 0.1186271164 0.01197469898
654.375 0.1157421869 0.007862514063
655.0 0.1345780951 0.02201377435
655.625 0.1093395752 0.04783319466
656.25 0.06194835187 0.02079837993
656.875 0.07457293158 -0.002963403932
657.5 0.09233766403 0.008701062089
658.125 0.08146114265 0.05016602329
658.75 0.02606760627 0.03468472505
659.375 0.06870142438 0.03163048235
660.0 0.1174111796 0.01929023118
660.625 0.1287550055 0.006215499614
661.25 0.1017138004 -0.01476636817
661.875 0.110707853 -0.06747136144
662.5 0.09920181382 -0.08651087395
663.125 0.1112226021 -0.07274248027
663.75 0.08657197798 -0.02898436303
664.375 0.1051785603 0.04162136916
665.0 0.04890761599 0.08808544634
665.625 0.01242199269 0.0740458053
666.25 -0.002242367732 0.0795068652
666.875 -0.07005527105 0.09780651377
667.5 -0.1034542077 0.04174589744
668.125 -0.09166229357 0.04371815671
668.75 -0.0833703018 0.08324697721
669.375 -0.108168275 0.09025692546
670.0 -0.1091674243 0.05452695648
670.625 -0.08617234514 0.04096418488
671.25 -0.07255835738 0.06823605975
671.875 -0.0656131634 0.1006322944
672.5 -0.02072480356 0.09327148921
673.125 -0.01098801096 0.08739182688
673.75 -0.02727399082 0.09600205969
674.375 -0.06168826486 0.1010062597
675.0 -0.08595413521 0.07179387306
675.625 -0.1149130992 0.05294848722
676.25 -0.1326917032 -0.01738577396
676.875 -0.1293127144 -0.04128264605
677.5 -0.1283189028 -0.02266031354
678.125 -0.16420981 -0.001358827624
678.75 -0.1007471645 -0.0403644985
679.375 -0.05990863392 -0.0395144048
680.0 -0.06074269115 -0.02264205118
680.625 -0.1076371423 -0.02802526812
681.25 -0.100062044 -0.04918588817
681.875 -0.07305927846 -0.04744520239
682.5 -0.09267238958 -0.005981462048
683.125 -0.1376091461 0.01782888224
683.75 -0.1690558052 -0.01406635391
684.375 -0.07618374755 -0.08845877576
685.0 -0.0280717525 -0.1242737008
685.625 0.05580522347 -0.1410374215
686.25 0.1102123559 -0.1193463912
686.875 0.1017680889 -0.05916060798
687.5 0.1040910352 -0.03689348492
688.125 0.08979604557 -0.0001948283606
688.75 0.07772065194 0.02792978386
689.375 0.05978527006 0.05021243008
690.0 0.09828980246 0.0812995891
690.625 0.06887167175 0.09417908926
691.25 0.09339034008 0.0673029162
691.875 0.139276514 -0.01926750821
692.5 0.1353391114 -0.150527138
693.125 0.01084664238 -0.1701102552
693.75 -0.07101991763 -0.09102145986
694.375 -0.1111109601 -0.07669895917
695.0 -0.0228859839 -0.1329184459
695.625 0.08458729609 -0.1114411285
696.25 0.0908190867 0.01254558487
696.875 0.04894459777 0.08851762186
697.5 -0.03524632923 0.1105186279
698.125 -0.09584090559 0.07943378972
698.75 -0.09386394891 0.09751847646
699.375 -0.1018210251 0.1021472127
700.0 -0.1003257568 0.03901545079
700.625 -0.1035907313 0.03039679731
701.25 -0.125081316 0.03876185309
701.875 -0.1378452693 0.04433599089
702.5 -0.06670788626 0.02976715712
703.125 -0.04209782338 0.05221892985
703.75 0.008450032784 0.1207716072
704.375 0.0629929458 0.1700539412
705.0 0.05667818171 0.1292244188
705.625 -0.006379723215 0.1032454583
706.25 -0.07568648444 0.1179047871
706.875 -0.160288766 0.001485904769
707.5 -0.126547151 -0.07447861447
708.125 -0.05553982711 -0.08441999238
708.75 -0.01494704285 -0.10585105
709.375 0.07052043753 -0.06864180214
710.0 0.097399855 -0.01511263594
710.625 0.08583264359 0.005768759828
711.25 0.06386621302 0.03663483236
711.875 0.05568532428 0.05675339031
712.5 0.08485462011 0.0394229171
713.125 0.1500629998 0.01619157647
713.75 0.07765281241 -0.1327379487
714.375 -0.03021026009 -0.1353827375
715.0 -0.08736934592 -0.1011528011
715.625 -0.1049618503 -0.1239461985
716.25 0.04324469753 -0.1066444345
716.875 0.05242507609 -0.06008505754
717.5 0.07067718457 -0.02715303562
718.125 0.103271078 -0.01886142374
718.75 0.07913282334 0.05063990419
719.375 0.04589760829 0.05171399927
720.0 0.003368625318 0.06678777358
720.625 -0.05745762531 0.05794467005
721.25 -0.09702674629 -0.06054696954
721.875 -0.01368608629 -0.1128690694
722.5 0.002168599751 -0.1225815475
723.125 -0.08124151283 -0.09165214683
723.75 -0.0802432906 -0.06355369074
724.375 -0.07646517181 0.0178589357
725.0 -0.03565625713 0.05745111323
725.625 -0.01500078514 0.04722667212
726.25 -0.007263992233 0.03313201922
726.875 -0.09539800322 0.004160753575
727.5 -0.1064925189 -0.02986505888
728.125 -0.07529361469 -0.04589194054
728.75 -0.06856657466 -0.01103487318
729.375 -0.08651920642 -0.0239449853
730.0 -0.06579167233 -0.009209161269
730.625 -0.06013732335 -0.03268760608
731.25 -0.03463230541 -0.02820890183
731.875 -0.01838625161 -0.03046352907
732.5 0.06711849882 -0.01417101223
733.125 0.03028902381 0.02498897926
733.75 0.0284716164 0.0130686302
734.375 0.05509106894 0.02919037369
735.0 0.05032873055 -0.01214431483
735.625 0.03222160393 -0.02028058364
736.25 0.02818975146 -0.04047551854
736.875 -0.001641239029 -0.03420744045
737.5 -0.003061317434 -0.02011175977
738.125 0.005795824622 0.004509503195
738.75 -0.01910763004 0.03894421099
739.375 -0.008140935518 0.04342942816
740.0 0.06784083647 0.05078165096
740.625 0.03281670035 0.02376972475
741.25 0.03568492728 0.04233512138
741.875 -0.02767818162 0.02929785025
742.5 -0.03676902279 -0.01278958251
743.125 -0.02530936765 -0.03680778296
743.75 -0.002861877555 -0.06777343633
744.375 0.03504717148 -0.03386818528
745.0 -0.03816129102 -0.07987288879
745.625 -0.03901664555 -0.04534300914
746.25 -0.0004547975756 -0.02234253939
746.875 0.01615530996 -0.02874264649
747.5 -0.006669981584 -0.04774248207
748.125 -0.04278991 -0.03427634992
748.75 -0.05147802882 0.007404104017
749.375 -0.04334633745 0.04747410662
750.0 -0.01227030744 0.09099782803
