!Created with skrf (http://scikit-rf.org).
# GHz S RI R 50.0 
!freq ReS11 ImS11
500.0 -0.01365363555 0.02625475812
500.625 0.02474835458 0.0285966672
501.25 0.0200373914 0.03660372206
501.875 0.03740678631 0.01083450027
502.5 0.009344780649 0.03842757626
503.125 0.02700568487 0.04116486417
503.75 0.04769277434 0.02001312673
504.375 0.04811746904 0.001615606533
505.0 0.04883575316 -0.0215765248
505.625 0.05964307205 -0.04092767421
506.25 0.05809707694 -0.04232634371
506.875 0.05994651691 -0.03710248763
507.5 0.04882391941 -0.04659818188
508.125 0.08279448642 0.004345516815
508.75 0.02440601947 -0.0712356309
509.375 0.03188613378 -0.0467388432
510.0 0.06098176999 -0.04135400631
510.625 0.003062029642 -0.06890736116
511.25 -0.03820316732 -0.0503876579
511.875 -0.04702030288 -0.01683912203
512.5 -0.03652270878 -0.00247966312
513.125 -0.02456528916 0.02564354525
513.75 -0.001976588952 0.04183422704
514.375 -0.00535987481 0.04920336276
515.0 0.004297506182 0.08422862386
515.625 -0.06787984881 0.09613508237
516.25 0.04368614416 0.08381886398
516.875 -0.03432520564 0.1158482776
517.5 0.04900544384 0.103080878
518.125 -0.08755766397 0.1067154252
518.75 0.02224982871 0.0492058448
519.375 -0.002002508581 0.07192371369
520.0 0.04508072233 0.06130445988
520.625 0.05219839791 0.06267080023
521.25 0.05756590618 0.02564456367
521.875 0.03716628248 0.04031442544
522.5 0.06414654539 0.009133134335
523.125 0.1239433925 0.007242102847
523.75 0.09314134734 -0.0960045914
524.375 0.05562634928 -0.02469784684
525.0 -8.238584993e-05 0.005265525253
525.625 0.001206510823 0.02446432241
526.25 0.004917871337 0.04608013462
526.875 0.01165901697 0.0428906956
527.5 0.0208917595 0.02701771697
528.125 0.05462039934 0.01266431914
528.75 0.0486208874 -0.006885194657
529.375 0.04710009796 -0.02925872034
530.0 0.03619587397 -0.03318611889
530.625 0.01195103173 -0.05999882383
531.25 0.02515781873 -0.1602688994
531.875 -0.04528421348 -0.1561853494
532.5 -0.08241752775 -0.08938499416
533.125 -0.0857398017 -0.07538523564
533.75 -0.06668237628 -0.06406491306
534.375 -0.06502896862 -0.04802501204
535.0 -0.06143967442 -0.02737456325
535.625 -0.03192427571 -0.04928819139
536.25 -0.03056451583 -0.03952675425
536.875 -0.03898948447 -0.05779421613
537.5 -0.04640013138 -0.1022463174
538.125 -0.05933702636 -0.04341942626
538.75 -0.05418369034 -0.035890592
539.375 -0.03273943105 -0.05227265876
540.0 -0.04050309802 -0.09065474759
540.625 -0.04619626036 -0.09301654255
541.25 -0.03576525432 -0.08957855274
541.875 -0.04017567763 -0.07897277148
542.5 -0.05467830855 -0.1081641026
543.125 -0.08979336324 -0.06323451335
543.75 -0.0961805944 0.01240139093
544.375 -0.06361203859 0.03212205046
545.0 -0.03643623111 0.05139518956
545.625 -0.0224739036 0.06608058315
546.25 0.007506245998 0.0515556239
546.875 0.01336035055 0.05846153616
547.5 0.005745488705 0.08077554069
548.125 0.004129783978 0.06265133677
548.75 -0.01572449913 0.0665869714
549.375 -0.03105403273 0.06854645993
550.0 -0.03925786394 0.02140126103
550.625 -0.02810838651 -0.00209054673
551.25 -0.003280682101 -0.034321149
551.875 -0.05178635395 -0.05112562615
552.5 -0.06585679778 -0.05483413137
553.125 -0.07480697115 -0.02570489314
553.75 -0.07840156013 -0.02887467982
554.375 -0.09523396595 -0.00279534905
555.0 -0.09341630043 0.01504072554
555.625 -0.08292057015 0.03242968577
556.25 -0.06951069079 0.008738991854
556.875 -0.08777514554 0.01169109411
557.5 -0.08248240505 0.0296823974
558.125 -0.08417797044 0.02506311781
558.75 -0.05026750984 0.004600221605
559.375 -0.03747601011 -0.003620737592
560.0 -0.02337677255 -0.00833876068
560.625 -0.04189954367 -0.03324729214
561.25 -0.05195056759 -0.04172702069
561.875 -0.06944819778 -0.0263015633
562.5 -0.07158002736 0.01641637469
563.125 -0.07433841056 0.06525852328
563.75 -0.06090670006 0.07968435666
564.375 -0.02948998965 0.08189955122
565.0 -0.02300886815 0.07183086914
565.625 -0.01808404695 0.07271434274
566.25 -0.04451396668 0.03724089958
566.875 -0.04904126884 0.01531459119
567.5 -0.05539686058 0.01173653304
568.125 -0.07001220679 0.01142147067
568.75 -0.04123143041 -0.0001262128559
569.375 -0.02741544413 -0.01820836599
570.0 -0.01976018107 -0.03400785839
570.625 -0.04714317611 -0.04904381809
571.25 -0.02893684738 -0.04245625982
571.875 -0.05430574315 -0.03891992089
572.5 -0.08365403114 -0.02124272025
573.125 -0.1156444224 0.02729416137
573.75 -0.06064734638 0.05731725997
574.375 -0.03693529906 0.05717904551
575.0 -0.0475555878 0.0593155989
575.625 -0.05528920574 0.07441011736
576.25 -0.03409386766 0.06376882245
576.875 -0.01643426742 0.0770041531
577.5 -0.008652317411 0.07152967952
578.125 -0.0175886714 0.0600866905
578.75 -0.0166244141 0.02533973442
579.375 -0.01702760911 0.03064316079
580.0 -0.01882556127 0.02283485746
580.625 -0.03118196812 0.01814177286
581.25 -0.05867731495 -0.009287038242
581.875 -0.07438299643 0.02838283592
582.5 -0.07774633953 0.04070215467
583.125 -0.06543398761 0.04311541264
583.75 -0.05951040559 0.03931698828
584.375 -0.07077708018 0.01831665397
585.0 -0.07241031317 -0.0003913531539
585.625 -0.06283336027 0.02484925697
586.25 -0.05183136776 0.006307503257
586.875 -0.05941792535 0.004372378
587.5 -0.05347022242 0.01557990534
588.125 -0.03191983035 0.04207605785
588.75 -0.02052939801 0.04134644622
589.375 -0.0357389624 0.02250219598
590.0 -0.04875990575 0.01838396702
590.625 -0.04825344468 0.05017469993
591.25 -0.02850940759 0.0829257073
591.875 -0.03983025751 0.08098246127
592.5 -0.01342255648 0.06719474031
593.125 -0.001406331604 0.06273409863
593.75 -0.0006681497072 0.06361259206
594.375 -0.02952543759 0.04581084668
595.0 -0.03271435507 0.02728959696
595.625 -0.02995442143 0.004773240282
596.25 -0.0363263812 -0.002404519662
596.875 -0.02630083092 -0.03462554778
597.5 -0.02472988238 -0.03237120745
598.125 -0.01924020013 -0.02268704904
598.75 -0.004166984411 -0.04537903449
599.375 -0.01149040798 -0.03800194467
600.0 -0.0186345777 -0.05388189365
600.625 -0.03206250008 -0.06747391338
601.25 -0.04431363388 -0.05866614332
601.875 -0.05053177613 -0.04457268917
602.5 -0.05510610073 -0.04093280859
603.125 -0.04631426412 -0.03354724129
603.75 -0.04149255117 -0.00995129131
604.375 -0.003165639459 -0.0343728773
605.0 -0.003576927387 -0.0358243354
605.625 -0.004744414858 -0.04238915552
606.25 -0.01623386029 -0.03563192995
606.875 0.001997570189 -0.01678496332
607.5 0.006643993984 -0.004776185638
608.125 0.02598853111 -0.01533358161
608.75 0.008722481545 -0.003927505581
609.375 0.05409354524 -0.01997372714
610.0 0.05029065516 -0.007415243805
610.625 0.04910223372 -0.01238149032
611.25 0.03600151212 -0.01926458862
611.875 0.06343004053 -0.01182339457
612.5 0.03358024594 -0.01119429459
613.125 0.02046901346 -0.006053732622
613.75 0.01490709138 0.007745042287
614.375 -0.001876434201 0.01263995832
615.0 0.03521346842 0.0322840072
615.625 0.02752560887 0.01724048653
616.25 0.0156433214 0.02534511191
616.875 -0.007341192383 0.02854490436
617.5 0.02739983373 0.03564004407
618.125 0.02593566788 0.02800620141
618.75 0.0194185966 0.03153214167
619.375 -0.001978885075 0.0264762143
620.0 0.02943320569 0.03485567548
620.625 0.03171755333 0.003493240525
621.25 0.02160801235 -0.00514043838
621.875 -0.01956246294 -0.02879784541
622.5 -0.03030140148 0.008397836521
623.125 -0.01662347538 0.04538523779
623.75 -0.02410789229 0.05486880851
624.375 -0.05030124778 0.037750626
625.0 -0.03514641524 0.05517935227
625.625 -0.04312610284 0.04931097507
626.25 -0.04423305765 0.06221191019
626.875 -0.02531418353 0.04500811315
627.5 -0.01472604734 0.05692049076
628.125 -0.02592244092 0.02294375043
628.75 -0.02768434743 0.002114911684
629.375 -0.01667476144 0.005960944047
630.0 -0.009455973799 -0.01839079869
630.625 -0.001521614204 -0.02160411589
631.25 -0.006152271207 -0.03803928979
631.875 0.008636529714 -0.05668720885
632.5 -0.0265858642 -0.04621175515
633.125 -0.01330506459 -0.0641763156
633.75 -0.02250322222 -0.05289982402
634.375 -0.022552047 -0.0578133495
635.0 -0.03113117438 -0.07692460391
635.625 -0.06406776107 -0.02555208741
636.25 -0.03715051579 -0.02449288994
636.875 -0.01902490239 -0.04619963894
637.5 -0.01995715006 -0.06129304101
638.125 -0.03342347399 -0.04905759787
638.75 -0.02644050759 -0.02393126136
639.375 0.01282097219 -0.01798599114
640.0 0.04804413215 -0.015574544
640.625 0.06721884536 -0.01692470476
641.25 0.03926144232 -0.03194139008
641.875 0.05278474604 -0.01903556247
642.5 0.06750427309 0.01255394974
643.125 0.05041395967 -0.007537667913
643.75 0.05983163937 0.004317975121
644.375 0.06274203674 -0.0008241526584
645.0 0.04681504313 0.007648040888
645.625 0.05267639862 0.02494191948
646.25 0.0538528934 0.02388649425
646.875 0.0619039799 0.02266743098
647.5 0.06071678234 0.01926398963
648.125 0.06111833898 0.0298551896
648.75 0.03990507874 0.03327021672
649.375 0.04514513305 0.06444116051
650.0 0.04104651218 0.0658704454
650.625 0.03349451704 0.07793005294
651.25 0.02452844326 0.05590921991
651.875 -0.01943009214 0.06002607097
652.5 -0.02366175543 0.05054593661
653.125 -0.03551865219 0.03477885535
653.75 -0.01344576713 0.01564674488
654.375 -0.02170493303 -0.03262344736
655.0 -0.02249904096 -0.04991378043
655.625 -0.05676956556 -0.06717236924
656.25 -0.05637897243 -0.03982014295
656.875 -0.07028537975 -0.03544224714
657.5 -0.07614034211 -0.04399520065
658.125 -0.09112765151 -0.05484879538
658.75 -0.1054899227 -0.0349334261
659.375 -0.08317534089 0.01561219707
660.0 -0.06527616155 0.02984503043
660.625 -0.05769835213 0.02524726797
661.25 -0.06685211416 0.01698014301
661.875 -0.02895175554 0.02421820592
662.5 -0.04791721831 0.02719475979
663.125 -0.08002276401 0.01449017491
663.75 -0.06422596793 -0.02641960372
664.375 -0.05019163786 -0.06074584468
665.0 -0.02354355056 -0.0800082603
665.625 0.01564277505 -0.1198502161
666.25 0.03083427037 -0.08533157711
666.875 0.0451180184 -0.07912699425
667.5 0.05561480399 -0.07682820577
668.125 0.06644536766 -0.06148619322
668.75 0.0279726407 -0.03067607981
669.375 0.04345440408 -0.02363176424
670.0 0.06305393243 -0.02462218972
670.625 0.08127280763 -0.02049178973
671.25 0.04729267878 -0.02391928121
671.875 0.06755363812 -0.03794409647
672.5 0.06045520798 -0.08977698886
673.125 0.03004136792 -0.1060297563
673.75 0.006746642513 -0.08679866379
674.375 0.02483479585 -0.07402673022
675.0 0.05828775745 -0.05264233336
675.625 0.06559004417 -0.03626803967
676.25 0.06326792179 -0.007571100262
676.875 0.04994308238 0.01780575238
677.5 0.03090806445 0.04118231778
678.125 0.04021761694 0.0496900486
678.75 0.03711902466 0.07064845777
679.375 0.05559746149 0.1032420658
680.0 0.04812590685 0.08411965261
680.625 0.07427464801 0.06277552804
681.25 0.1121985746 0.03293034302
681.875 0.1148726175 0.01531154269
682.5 0.07726108169 -0.02587758254
683.125 0.05940068683 -0.02925718415
683.75 0.07886466816 -0.007010462835
684.375 0.04055504471 0.04608250508
685.0 0.007652300505 0.06118855046
685.625 -0.03641393041 0.03691294814
686.25 -0.07334782579 0.006011162574
686.875 -0.08015741368 -0.03198893819
687.5 -0.09312088924 -0.04791586859
688.125 -0.1055555162 -0.06222503983
688.75 -0.09883431016 -0.07744754155
689.375 -0.08091185283 -0.0564788038
690.0 -0.07753523776 -0.05079081456
690.625 -0.09071120143 -0.05671752864
691.25 -0.08161252412 -0.04121751284
691.875 -0.06065274494 0.01945728402
692.5 -0.03661023961 0.01310162711
693.125 -0.04280639452 0.06315882644
693.75 -0.01721641057 0.1108060153
694.375 0.01997466809 0.1054828529
695.0 -0.01891590575 0.1008978575
695.625 -0.09328376921 0.06388685267
696.25 -0.1050680147 -0.05545755337
696.875 -0.02823162112 -0.1083982283
697.5 0.03199804646 -0.1095590074
698.125 0.04719516988 -0.0433209585
698.75 0.04211282111 -0.03597012667
699.375 0.06064043545 -0.03317057553
700.0 0.0778372592 -0.00377040834
700.625 0.0670716458 0.03201811971
701.25 0.06133439385 0.03377160269
701.875 0.09289338926 0.02910459137
702.5 0.139648598 -0.04683724076
703.125 0.08475767299 -0.06947577104
703.75 -0.01289400041 -0.08332626068
704.375 -0.03992082606 -0.05994794777
705.0 -0.04982100835 -0.08749901564
705.625 0.02793322942 -0.07405558069
706.25 0.04871140144 -0.03709495595
706.875 0.05361413526 0.01872439168
707.5 0.02014012516 0.07652107099
708.125 -0.02061148455 0.09229724057
708.75 -0.07044991751 0.07371016408
709.375 -0.09257061807 0.03101265956
710.0 -0.08457243638 -0.02200161794
710.625 -0.0815661555 -0.03554631303
711.25 -0.06681556663 -0.08184175189
711.875 -0.07082030803 -0.06227706924
712.5 -0.07489628251 -0.01378419704
713.125 -0.03749590644 0.03827320197
713.75 -0.03300463403 0.04108946743
714.375 -0.05940504233 0.04774016513
715.0 -0.02743841053 0.05736954154
715.625 -0.01282114627 0.06068694693
716.25 -0.0837892234 0.05987265754
716.875 -0.1170501527 0.02689678683
717.5 -0.09503112107 -0.01967633117
718.125 -0.07397833742 -0.03593128794
718.75 -0.07407802865 -0.03108451175
719.375 -0.01325699994 -0.08725686625
720.0 0.009094723695 -0.0777198695
720.625 0.04978800609 -0.03457693344
721.25 0.05252014396 -0.001143148379
721.875 -0.006372974778 0.02999291186
722.5 -0.03160718513 0.02669360217
723.125 -0.04907139409 0.06021378327
723.75 0.02321348289 0.07484218706
724.375 0.05810571961 0.0662554325
725.0 0.08754792448 0.005141775995
725.625 0.08021156167 -0.03147758571
726.25 0.04586648257 -0.05071613654
726.875 0.05595044776 -0.005649390823
727.5 0.04005454745 0.003623323357
728.125 0.02944389076 0.02465857896
728.75 0.01148242974 0.05955820589
729.375 0.02980398241 0.01503413808
730.0 0.03511684295 0.04994273253
730.625 0.009584576052 0.05467801682
731.25 -0.02419536825 0.04983823053
731.875 -0.01790837213 0.0209457088
732.5 -0.0784609807 -0.01786153669
733.125 -0.04600919888 -0.01826050577
733.75 -0.03949892363 -0.02042446281
734.375 -0.000928703564 0.009071087159
735.0 -0.03780015341 -0.01516066228
735.625 -0.03890786363 -0.009055286435
736.25 -0.03076679806 -0.01156760972
736.875 -0.01974056608 -0.03408743354
737.5 -0.0839281302 -0.0411080135
738.125 -0.06586297931 -0.03351762656
738.75 -0.05248567952 -0.02536186242
739.375 0.009742877782 0.009582845962
740.0 -0.004083462077 -0.06685366614
740.625 -0.01713968095 -0.03672126098
741.25 -0.0129157873 -0.01716173841
741.875 0.009214676298 -0.02647369136
742.5 0.005598199947 0.0299636964
743.125 0.000126621591 0.0316784513
743.75 -0.0231372454 0.008779425248
744.375 -0.03351720905 0.01315451477
745.0 -0.05835536546 0.02987030185
745.625 -0.04843140119 0.05420489132
746.25 -0.0005685572819 0.07069674872
746.875 0.03524416451 0.0430622798
747.5 0.01961004961 0.0200940368
748.125 0.04449410327 -0.006472983012
748.75 0.02263079037 0.008880533549
749.375 0.02933785665 0.0007956016303
750.0 0.007126144785 -0.02869830099
