!Created with skrf (http://scikit-rf.org).
# GHz S RI R 50.0 
!freq ReS11 ImS11
500.0 -0.0107681433 0.02924734301
500.625 0.02430401648 0.0287775031
501.25 0.02169917013 0.03855122332
501.875 0.03429431802 0.01117502567
502.5 0.003658144815 0.05017179009
503.125 0.02652288469 0.04781487599
503.75 0.0482726411 0.00672144554
504.375 0.04618025193 0.0003095188168
505.0 0.05351730691 -0.01761448957
505.625 0.06386239437 -0.03767501321
506.25 0.05420878578 -0.04209809564
506.875 0.06301687287 -0.03644636751
507.5 0.04766541142 -0.04983318043
508.125 0.08735817345 0.007467903023
508.75 0.02623310238 -0.07059959742
509.375 0.01632290326 -0.04958955957
510.0 0.07161295526 -0.0414192402
510.625 0.00880448693 -0.07515934083
511.25 -0.04627059862 -0.04479059813
511.875 -0.04691945512 -0.01775347949
512.5 -0.03810398951 -0.0003985431986
513.125 -0.02991151012 0.02566238491
513.75 -0.002399941719 0.04249566793
514.375 -0.01495206008 0.05222206056
515.0 0.00614125671 0.08248662239
515.625 -0.06370613309 0.09445282395
516.25 0.0337497729 0.09190069366
516.875 -0.03383182335 0.1139065902
517.5 0.04739504918 0.1003677554
518.125 -0.08215562128 0.1065171422
518.75 0.01818064469 0.05268711683
519.375 -0.004638363581 0.07731828246
520.0 0.04193724668 0.07022552288
520.625 0.05147900178 0.06120607546
521.25 0.0534220437 0.02808364501
521.875 0.03651698757 0.0408997368
522.5 0.06461750848 0.01351860357
523.125 0.1218341746 0.004403451799
523.75 0.09268441372 -0.09426220286
524.375 0.0558407378 -0.04151542246
525.0 -8.509780773e-05 0.003941481792
525.625 0.003904164732 0.01498793663
526.25 0.003753111895 0.04089381425
526.875 0.01701232086 0.03487097985
527.5 0.02267390358 0.02907648844
528.125 0.04448566141 0.008514134896
528.75 0.05811347669 -0.003237009544
529.375 0.04967813044 -0.0315705496
530.0 0.03624766124 -0.0364594975
530.625 0.01262139743 -0.05656384595
531.25 0.02019028783 -0.1468523976
531.875 -0.05046875568 -0.1432965604
532.5 -0.08631217995 -0.09622842953
533.125 -0.07534704922 -0.05943515225
533.75 -0.06891347015 -0.06725703528
534.375 -0.0682711954 -0.04706051134
535.0 -0.06115795157 -0.02440762722
535.625 -0.03209337474 -0.04601536054
536.25 -0.02948297363 -0.03795934636
536.875 -0.03646954153 -0.05858815944
537.5 -0.05010122631 -0.1031958252
538.125 -0.05945486327 -0.04163422512
538.75 -0.0534987211 -0.03446792917
539.375 -0.03190537314 -0.0454204916
540.0 -0.04646078811 -0.09473568262
540.625 -0.04483147878 -0.08241238134
541.25 -0.03297721796 -0.08207279466
541.875 -0.04065614288 -0.07707323302
542.5 -0.05865622784 -0.1082859999
543.125 -0.08510191214 -0.05457963845
543.75 -0.09409232322 0.01368842492
544.375 -0.06609170352 0.03529106433
545.0 -0.03386691081 0.0518377801
545.625 -0.02126121484 0.06537565952
546.25 0.005207258063 0.06216648055
546.875 0.01361551743 0.06224468464
547.5 0.007623329834 0.08606962206
548.125 0.007026882219 0.05585955963
548.75 -0.01299760053 0.06334042926
549.375 -0.02300831637 0.07053235354
550.0 -0.0384432506 0.02298192668
550.625 -0.02363160914 -0.002301672029
551.25 -0.01228432626 -0.03641102597
551.875 -0.05827067815 -0.04739900541
552.5 -0.07351233117 -0.05405286483
553.125 -0.06696772263 -0.02776671294
553.75 -0.07672551569 -0.02968423147
554.375 -0.09855006567 0.001150408048
555.0 -0.09530263112 0.01655835893
555.625 -0.08191182742 0.03118562315
556.25 -0.07294672906 0.009632190212
556.875 -0.08608243253 0.01003077864
557.5 -0.08250210366 0.02850798571
558.125 -0.08711477425 0.02676197385
558.75 -0.05886854492 0.004064425258
559.375 -0.04290009432 -0.003000861028
560.0 -0.02719448274 -0.008383926505
560.625 -0.04013321663 -0.03332525791
561.25 -0.05758443404 -0.04113452734
561.875 -0.0763797495 -0.02481769333
562.5 -0.07607324755 0.01907743968
563.125 -0.07462796164 0.05777266505
563.75 -0.06016815075 0.08414623999
564.375 -0.0292147173 0.08424850623
565.0 -0.02257949226 0.07828138154
565.625 -0.01762412071 0.07172478329
566.25 -0.04599849289 0.04227133201
566.875 -0.0510139788 0.01720161607
567.5 -0.05544932662 0.01362793135
568.125 -0.07168556573 0.01386529934
568.75 -0.03414968723 -0.002478272718
569.375 -0.02546767292 -0.01760742233
570.0 -0.0175539457 -0.03325629246
570.625 -0.04772830148 -0.04783063308
571.25 -0.03546210761 -0.04139292717
571.875 -0.05019935968 -0.04089020234
572.5 -0.08275827071 -0.02042666485
573.125 -0.116450148 0.03091204087
573.75 -0.06140420384 0.05112013605
574.375 -0.0387467605 0.05483467207
575.0 -0.04824428111 0.06592054244
575.625 -0.05547391657 0.0734381497
576.25 -0.03670431357 0.06817134604
576.875 -0.0116171954 0.08109130784
577.5 -0.008178390218 0.07066429564
578.125 -0.01775284436 0.05787978171
578.75 -0.01694569778 0.03129944506
579.375 -0.01792879589 0.03089643289
580.0 -0.0212415609 0.02378416318
580.625 -0.03021015413 0.0209176161
581.25 -0.05893629461 -0.007979938818
581.875 -0.07483053955 0.02622842633
582.5 -0.07507131877 0.03651452645
583.125 -0.06330700465 0.04991186946
583.75 -0.06411629504 0.02838476686
584.375 -0.06974158386 0.01974481088
585.0 -0.07606055415 0.005563920366
585.625 -0.06212933279 0.02998398368
586.25 -0.05119733359 -0.00390179409
586.875 -0.06077483331 -0.001108018033
587.5 -0.05614786927 0.01146506953
588.125 -0.02957075392 0.04731889673
588.75 -0.02887081955 0.03323268386
589.375 -0.03757274705 0.02224942241
590.0 -0.0442562624 0.02245645003
590.625 -0.04683306867 0.05229498258
591.25 -0.03825335257 0.08094196915
591.875 -0.02931473723 0.08682135797
592.5 -0.006407421894 0.0728726341
593.125 -0.0006442519144 0.05969167794
593.75 -0.01167254886 0.05559585248
594.375 -0.02835280546 0.04835567815
595.0 -0.03008166328 0.02670332408
595.625 -0.03088029508 0.002434780934
596.25 -0.03850188548 -0.008622451431
596.875 -0.03231348131 -0.02648914843
597.5 -0.03217421859 -0.02426114696
598.125 -0.02368707775 -0.01471668695
598.75 -0.00534057591 -0.04536571561
599.375 -0.01111004359 -0.04095313049
600.0 -0.01759466949 -0.05958174595
600.625 -0.033292351 -0.0561813232
601.25 -0.03828092587 -0.06787393323
601.875 -0.05055562337 -0.04412733344
602.5 -0.05659044859 -0.0297556719
603.125 -0.04877316108 -0.03730661445
603.75 -0.03996326924 -0.01369601484
604.375 -0.003884514284 -0.03467838439
605.0 0.002196397845 -0.04525746571
605.625 0.001128766013 -0.04535186411
606.25 -0.0248971115 -0.03040217343
606.875 0.01113849996 -0.0203485283
607.5 0.007131589919 -0.004821398625
608.125 0.02890232361 -0.01132210278
608.75 0.01115018574 -0.008415367246
609.375 0.05139701984 -0.02059881924
610.0 0.0594193372 -0.009869580266
610.625 0.05373565353 -0.01063026995
611.25 0.02958119343 -0.01628572014
611.875 0.07103234659 -0.009096370442
612.5 0.0384234272 -0.009693587708
613.125 0.01018672191 -0.009307737148
613.75 0.01298232677 0.009072196889
614.375 0.005011003357 0.01407142134
615.0 0.02896102214 0.01989238121
615.625 0.02136858584 0.01170602747
616.25 0.00752750313 0.01937649084
616.875 -0.002159473187 0.02848973509
617.5 0.02229173179 0.03648194043
618.125 0.01421751931 0.02457768413
618.75 0.01273395573 0.02668543534
619.375 0.004215154458 0.02844483104
620.0 0.02571420258 0.03290317835
620.625 0.02807576153 0.005797486522
621.25 0.01127657078 -0.01196409504
621.875 -0.01448572656 -0.02540535895
622.5 -0.03461110417 0.01322043217
623.125 -0.02038248154 0.04069448968
623.75 -0.03184718271 0.0520097379
624.375 -0.04513981308 0.03872438971
625.0 -0.03485312531 0.05298687166
625.625 -0.03913361565 0.05783065063
626.25 -0.03958587131 0.06732470697
626.875 -0.03174651737 0.04271292642
627.5 -0.01309962069 0.06394715764
628.125 -0.02370281899 0.0259832119
628.75 -0.02917811536 0.01198195797
629.375 -0.01720564569 -0.001274303889
630.0 -0.01016477819 -0.004391190968
630.625 -0.001729652574 -0.01700066084
631.25 0.003680024341 -0.03930690794
631.875 0.009349764841 -0.06293828914
632.5 -0.03131569358 -0.04015139438
633.125 -0.01276839203 -0.06120019363
633.75 -0.01776065644 -0.06339329908
634.375 -0.02289593262 -0.05998677153
635.0 -0.03195701753 -0.07209489901
635.625 -0.06122214965 -0.02639416612
636.25 -0.03787252502 -0.01776258603
636.875 -0.02193072258 -0.04261405918
637.5 -0.01546635411 -0.06845981383
638.125 -0.04280381378 -0.04432709511
638.75 -0.02850090442 -0.02129019358
639.375 0.01891671723 -0.02645457424
640.0 0.05534493212 -0.01483567396
640.625 0.05365037782 -0.02043134279
641.25 0.04615816473 -0.02966734099
641.875 0.05422772115 -0.02129104787
642.5 0.07252198012 0.01212179243
643.125 0.04909833385 -0.009107769892
643.75 0.05761261697 0.002212132713
644.375 0.06208264429 -0.01338519314
645.0 0.0529326542 0.01243595156
645.625 0.04050800197 0.01602281436
646.25 0.05525857115 0.02570821209
646.875 0.06787860639 0.03068200228
647.5 0.05884783637 0.01830505185
648.125 0.05875583382 0.02907542542
648.75 0.04245158668 0.04460063334
649.375 0.04366953314 0.0692083466
650.0 0.03967089805 0.07077637338
650.625 0.03443091609 0.07968799573
651.25 0.02245785177 0.0571845553
651.875 -0.01439062912 0.05872816746
652.5 -0.02039691443 0.05185217713
653.125 -0.03990030281 0.03709102822
653.75 -0.02158100768 0.007317939026
654.375 -0.02731499697 -0.03767711677
655.0 -0.0240736563 -0.05230742063
655.625 -0.05303528739 -0.06744201178
656.25 -0.05612759128 -0.04544573421
656.875 -0.06710259899 -0.03513624614
657.5 -0.07387265655 -0.04248571509
658.125 -0.09598253472 -0.05728482273
658.75 -0.09804774745 -0.02569835693
659.375 -0.08333877619 0.01592675219
660.0 -0.07275768502 0.03084128367
660.625 -0.06235293307 0.02496538469
661.25 -0.05427564013 0.0179732055
661.875 -0.03650024865 0.02682593241
662.5 -0.04556801372 0.02987703095
663.125 -0.08201986576 0.0172001236
663.75 -0.05616183759 -0.02348196321
664.375 -0.04747337615 -0.05901729924
665.0 -0.02335124646 -0.08984767319
665.625 0.01666500259 -0.1164525152
666.25 0.03340831871 -0.08704872538
666.875 0.04750240595 -0.08428607992
667.5 0.05845145585 -0.08081652921
668.125 0.0650752377 -0.05899616432
668.75 0.03584853596 -0.03822457216
669.375 0.04174478072 -0.02005997011
670.0 0.07275346139 -0.02717922009
670.625 0.08187498045 -0.02042285367
671.25 0.04378061851 -0.01983454728
671.875 0.06125803344 -0.03515474624
672.5 0.05309188254 -0.08337032639
673.125 0.03016244678 -0.1079110889
673.75 0.008317881058 -0.09565371146
674.375 0.03047039399 -0.08271685744
675.0 0.05763676528 -0.05069241365
675.625 0.06575737107 -0.03515741332
676.25 0.06745501531 -0.01006301622
676.875 0.05642108746 0.0206030807
677.5 0.03437453591 0.04222595472
678.125 0.04112824694 0.04991313877
678.75 0.0291558888 0.07008096855
679.375 0.05020098082 0.1022501043
680.0 0.05073448611 0.08238900847
680.625 0.07733022264 0.06168935908
681.25 0.1049938365 0.03557598841
681.875 0.1196580562 0.0148019869
682.5 0.08396819296 -0.0211184602
683.125 0.06521295927 -0.03033436865
683.75 0.07991953894 -0.007505680371
684.375 0.03337691337 0.04139322787
685.0 0.00987832582 0.06046384756
685.625 -0.03843087624 0.03596081285
686.25 -0.07418716406 0.01184479056
686.875 -0.07056352799 -0.03661212079
687.5 -0.08781986857 -0.04403764809
688.125 -0.1034134241 -0.06372951955
688.75 -0.1038140128 -0.08162089782
689.375 -0.07257394783 -0.05425347685
690.0 -0.08000819524 -0.05079206382
690.625 -0.09939834828 -0.05459293037
691.25 -0.08607001597 -0.04200967064
691.875 -0.05918847272 0.01687691537
692.5 -0.03856061326 0.02202613464
693.125 -0.05143095085 0.06085745041
693.75 -0.02362242021 0.1109190583
694.375 0.02157980163 0.1069118251
695.0 -0.02738106083 0.09361648976
695.625 -0.0964684189 0.0673403475
696.25 -0.1125496371 -0.05128211074
696.875 -0.03128809175 -0.1108036645
697.5 0.03165155534 -0.1108757104
698.125 0.04979433366 -0.04734255831
698.75 0.04304795271 -0.04243233339
699.375 0.06174457157 -0.03792950113
700.0 0.07267711117 0.007988796178
700.625 0.06320322277 0.03507883883
701.25 0.0636571845 0.02983046244
701.875 0.09662249724 0.02586410318
702.5 0.1352556412 -0.023011011
703.125 0.08767230867 -0.07607005788
703.75 -0.01132991879 -0.08183933149
704.375 -0.04850894276 -0.06158674868
705.0 -0.05414255559 -0.08722396923
705.625 0.0343840321 -0.06276593039
706.25 0.05111903615 -0.03205321197
706.875 0.04796585877 0.0263305478
707.5 0.02466852936 0.07315897159
708.125 -0.03903105826 0.08846238202
708.75 -0.06983838536 0.07503071331
709.375 -0.08989742133 0.02888352166
710.0 -0.08417561213 -0.02555332103
710.625 -0.08024145074 -0.0393256878
711.25 -0.0703366283 -0.07949129364
711.875 -0.06835460741 -0.07152318053
712.5 -0.07894398884 -0.01248896062
713.125 -0.04038455528 0.02255102152
713.75 -0.03068677105 0.0441037754
714.375 -0.05336228132 0.05483911604
715.0 -0.0268933306 0.05696619083
715.625 -0.01282513154 0.06076552602
716.25 -0.1004641436 0.05636575101
716.875 -0.1206610077 0.01568063703
717.5 -0.0896906176 -0.02228892708
718.125 -0.07408438463 -0.039793797
718.75 -0.06876246263 -0.04512946675
719.375 -0.02605339533 -0.07789331641
720.0 0.02434949559 -0.0775631775
720.625 0.04845897528 -0.0424695137
721.25 0.05052918396 0.005462775007
721.875 -0.01435450369 0.03248330859
722.5 -0.04382673549 0.02052079293
723.125 -0.03539130138 0.05607737884
723.75 -0.004436326844 0.08710718329
724.375 0.06528818127 0.05554448239
725.0 0.08177858214 -0.005926054237
725.625 0.06810709238 -0.03405305488
726.25 0.03919741463 -0.05366606984
726.875 0.05812472939 -0.001036381679
727.5 0.0453577474 0.01862953893
728.125 0.01634777787 0.04685885651
728.75 0.01637091257 0.0543020126
729.375 0.02857658991 0.04175842821
730.0 0.03254331803 0.03592485595
730.625 0.007259563915 0.06376798318
731.25 -0.01392381467 0.04460934081
731.875 -0.02078188573 0.02327691563
732.5 -0.08119138454 -0.02217270388
733.125 -0.0508286846 -0.02389386848
733.75 -0.03398281232 -0.01165687194
734.375 -0.01174734264 -0.0009806311803
735.0 -0.03267819318 -0.01259283441
735.625 -0.02562132808 -0.008095214003
736.25 -0.02368331564 -0.01455299867
736.875 -0.02881999107 -0.02804707998
737.5 -0.0673074383 -0.03216357853
738.125 -0.07918914074 -0.03628501323
738.75 -0.04336336229 -0.01548455099
739.375 0.008518095305 0.00798833872
740.0 -0.01398298496 -0.0754989748
740.625 -0.02490855965 -0.03616400408
741.25 -0.015748114 -0.03338332298
741.875 0.01092423679 -0.02417816064
742.5 0.01280690024 0.0229896918
743.125 -0.002874238571 0.02980305333
743.75 -0.03554622598 0.02117369876
744.375 -0.04470910191 0.005654270947
745.0 -0.04136623125 0.04652744937
745.625 -0.0413029029 0.05856674674
746.25 -0.01274326311 0.06894516066
746.875 0.03351296496 0.04695892373
747.5 0.02203630099 0.01637895191
748.125 0.03461103341 -0.004173155559
748.75 0.02817396839 0.001491584164
749.375 0.03313091264 -0.008860013723
750.0 0.01849273563 -0.02804706384
