!Created with skrf (http://scikit-rf.org).
# GHz S RI R 50.0 
!freq ReS11 ImS11
500.0 -0.01004219428 0.002319330079
500.625 0.009450368824 0.005856756442
501.25 0.008209795278 -0.01839312511
501.875 -0.03101669664 -0.02275403941
502.5 -0.008482231724 -0.005705859879
503.125 0.004263021038 -0.001244383503
503.75 -0.01606650834 0.01935839486
504.375 -0.00741271754 0.002802934342
505.0 -0.005688143594 -0.004498041548
505.625 -0.001818157305 -0.03628606126
506.25 -0.02038991252 -0.02749752598
506.875 -0.03187068054 -0.05584105372
507.5 -0.03809383979 -0.0443054679
508.125 -0.02432852165 -0.06434036893
508.75 -0.06296564915 -0.01079497803
509.375 -0.06087675238 -0.003830561897
510.0 -0.04720735617 -0.02484556797
510.625 -0.04041174553 0.01368445646
511.25 -0.02191920922 0.0218213425
511.875 -0.02856615248 0.04759134875
512.5 0.01420235825 0.03845602654
513.125 0.06850759903 0.0202976351
513.75 0.06819903992 -0.0204076031
514.375 0.06015458512 -0.0181444218
515.0 0.04147809747 -0.0388739409
515.625 0.06262404266 -0.01121446977
516.25 0.07387818087 -0.02757884807
516.875 0.07609578816 0.06404915155
517.5 0.1049064592 -0.01996217143
518.125 0.1813051435 0.1253564284
518.75 0.09447209686 -0.04925052334
519.375 0.05962276434 -0.03102431013
520.0 0.05891006215 -0.06576746508
520.625 0.06738876159 -0.07947711842
521.25 0.04308192807 -0.09027469233
521.875 0.04974661221 -0.04139676329
522.5 0.02008124614 -0.08376602503
523.125 0.06583561605 -0.2234839653
523.75 0.0002677601049 -0.2636154543
524.375 0.007380741251 -0.2560582061
525.0 -0.006127752697 -0.1347261106
525.625 -0.02407251761 -0.07651571914
526.25 0.008433704063 -0.07123751701
526.875 -0.01115208527 -0.06512311453
527.5 -0.03621568761 -0.08859047636
528.125 -0.04844318197 -0.03164522384
528.75 -0.06038400699 -0.0387267082
529.375 -0.1016714399 0.02184053474
530.0 -0.09309777868 0.08447429303
530.625 0.01185255473 0.06685977486
531.25 -0.003923531025 0.04271734641
531.875 -0.0320053317 0.08336106145
532.5 -0.05549068192 0.1602099653
533.125 -0.01721764656 0.09079712808
533.75 0.005348177478 0.0845679733
534.375 0.01036946236 0.09411202408
535.0 0.01205181131 0.1323219451
535.625 -0.01386995085 0.08398642974
536.25 0.04558757694 0.05608771116
536.875 0.03222093297 0.07823738332
537.5 -0.03665267987 0.08683682919
538.125 -0.02301339582 0.06248415207
538.75 0.01100124794 0.1024316124
539.375 -0.005131206495 0.1214129339
540.0 -0.005301025988 0.116306873
540.625 -0.005201233688 0.06314158306
541.25 -0.007977876259 0.09146416635
541.875 -0.02840580008 0.1030175063
542.5 -0.04058559168 0.05010992321
543.125 -0.03295544155 0.04514872387
543.75 0.02720883534 0.1015393552
544.375 0.06443861691 0.1096212942
545.0 0.1073296761 0.02048626961
545.625 0.08717788594 -0.04435514043
546.25 0.08268842984 -0.08804804801
546.875 0.08663347222 -0.08260669003
547.5 0.09373834174 -0.0796121549
548.125 0.1061729498 -0.05952216739
548.75 0.1407004665 -0.0298005153
549.375 0.1403663212 -0.006576044319
550.0 0.1466731701 0.03208992444
550.625 0.1525615453 0.03649329715
551.25 0.09593421752 0.08752388834
551.875 0.06760817626 0.03313784244
552.5 0.0805753761 0.01585002485
553.125 0.0692459563 0.01666148534
553.75 0.04890537401 0.0414442106
554.375 0.03607541645 0.02330302518
555.0 0.0616027579 0.02307004205
555.625 0.09011412705 0.02683048865
556.25 0.06222203207 0.05163094101
556.875 0.04213356083 0.04733447304
557.5 0.0588473472 0.05891523642
558.125 0.07362775966 0.09614957106
558.75 0.02713973974 0.1072285472
559.375 0.05139746439 0.08826527151
560.0 0.08476439143 0.09496118408
560.625 0.07406366322 0.06397374311
561.25 0.06158125399 0.02681182477
561.875 0.06836812806 0.01528227536
562.5 0.07276353505 0.01703508305
563.125 0.05820301478 0.019980884
563.75 0.05990246038 0.001981962742
564.375 0.08162106529 -0.01886018273
565.0 0.1406130609 -0.01207843647
565.625 0.1077754256 -0.006991862837
566.25 0.09349969273 -0.006612554321
566.875 0.1059108646 -0.0008040139491
567.5 0.1039398542 0.05284490666
568.125 0.06674364432 0.07602297099
568.75 0.05529031853 0.08183697106
569.375 0.0698721639 0.08906859571
570.0 0.06975654064 0.07792885034
570.625 0.06531848648 0.05437972135
571.25 0.07250554283 0.03692672088
571.875 0.06478140909 0.03661146092
572.5 0.05318218948 0.01039171124
573.125 0.04654908264 0.008529598876
573.75 0.07193712983 0.02491139428
574.375 0.1031309692 -0.01400552026
575.0 0.073395652 -0.02323900788
575.625 0.04905641547 -0.03640822591
576.25 0.07429031972 -0.03464345081
576.875 0.07693507773 -0.01285512668
577.5 0.08456449344 -0.01810548755
578.125 0.0803347053 -0.03277945802
578.75 0.1064242563 -0.04404380256
579.375 0.1108106231 -0.02751915345
580.0 0.09075374956 -0.0378599744
580.625 0.08379054325 -0.07023589832
581.25 0.06929949386 -0.06219868012
581.875 0.05091463967 -0.02184134399
582.5 0.04018618462 -0.007239866788
583.125 0.07549201106 -0.02163809576
583.75 0.07689525615 0.019864979
584.375 0.06603229342 0.01078843614
585.0 0.05849615575 0.0199918978
585.625 0.07962875632 0.01991689918
586.25 0.05961306115 0.05452127726
586.875 0.05617138752 0.02770994259
587.5 0.06634381624 0.007756718355
588.125 0.09220978089 -0.02136752687
588.75 0.09245200568 0.01126682042
589.375 0.07056754937 -0.04651172441
590.0 0.03135065674 -0.08032346549
590.625 0.01576051308 -0.0785118182
591.25 0.03165319844 -0.0125562545
591.875 0.03503133537 -0.01434586675
592.5 0.0446944865 -0.04336161887
593.125 0.06393967443 -0.05428285333
593.75 0.0762850683 -0.006018412538
594.375 0.07263958784 -0.005626825223
595.0 0.08685111605 0.0194648087
595.625 0.09056272315 0.025184448
596.25 0.05648553395 0.04859884546
596.875 0.04955917452 0.04546406051
597.5 0.05455340065 0.05485916302
598.125 0.0638415913 0.05137746735
598.75 0.06124289031 0.04874131225
599.375 0.05968902678 0.0343122435
600.0 0.04652239909 0.02186400786
600.625 0.0391495217 0.001330459192
601.25 -0.003723080316 0.03146805193
601.875 -0.000432788854 0.03387826549
602.5 0.0003469566449 0.03490524226
603.125 -0.004352351505 0.04004068845
603.75 0.002900421259 0.04453829441
604.375 -0.0112148109 0.06814191421
605.0 -0.0176738257 0.04991781799
605.625 -0.02511939638 0.02814630806
606.25 -0.02250603316 0.02656194072
606.875 -0.0817148059 0.04612431762
607.5 -0.03970242445 0.05353891771
608.125 -0.001566820614 0.04768841607
608.75 0.001585843083 0.04205148557
609.375 -0.01633850923 0.03870147245
610.0 -0.01663297125 0.02971419452
610.625 -0.00168681564 0.01244176011
611.25 0.01174735546 0.0006369924755
611.875 -0.02883587547 -0.03361048917
612.5 -0.02561088335 -0.03694081131
613.125 -0.02738035645 -0.03094488552
613.75 -0.02033013837 -0.00904620078
614.375 -0.01352852218 -0.009526943643
615.0 -0.008191333879 -0.01603977341
615.625 -0.0063985355 -0.02050948213
616.25 -0.01721122167 -0.01698831759
616.875 0.0004820551949 0.001218417598
617.5 0.002412146525 -0.009644487637
618.125 0.01626660277 -0.02390294165
618.75 0.0144737219 -0.01783643504
619.375 0.02679484385 -0.008565969779
620.0 0.04025092002 -0.02443794817
620.625 0.03890496128 -0.05806260883
621.25 0.05110657471 -0.0409127908
621.875 0.0218920053 -0.07230325746
622.5 -0.03089964828 -0.05093062194
623.125 -0.02141238655 -0.01738709273
623.75 -0.008580125861 -0.007866633877
624.375 0.01419849647 -0.00384003191
625.0 0.01537765066 -0.005085513834
625.625 0.01208554486 0.006919924801
626.25 0.034646116 0.02268964607
626.875 0.06886146655 0.04471814721
627.5 0.0645205981 0.00901086409
628.125 0.05882877693 0.02628443889
628.75 0.06438084455 0.0324905922
629.375 0.06647119833 0.07382793746
630.0 0.07139976482 0.04188292615
630.625 0.05267123908 0.04361708482
631.25 0.04056756337 0.0507967773
631.875 0.02215077703 0.06387720743
632.5 0.0364260622 0.02839393429
633.125 0.01027107552 0.03152455259
633.75 0.006180365028 0.05068042768
634.375 -0.01447270772 0.06047404299
635.0 -0.01293891837 0.0568156987
635.625 -0.0002598290649 0.06002214695
636.25 0.006876138088 0.07765282443
636.875 -0.000970713514 0.07951227766
637.5 -0.01998684445 0.06313027546
638.125 -0.003161060091 0.04809737326
638.75 -0.02743560858 0.09134580887
639.375 -0.04921946409 0.08316866638
640.0 -0.05650195628 0.04333358655
640.625 -0.03177210365 0.03922948651
641.25 -0.08211324934 0.01225963594
641.875 -0.06463968182 -0.006247322246
642.5 -0.06793970511 -0.01719481145
643.125 -0.06046255982 -0.00671168357
643.75 -0.06946124296 -0.03769421421
644.375 -0.0707916462 -0.04634611283
645.0 -0.09050995568 -0.03587782961
645.625 -0.08723409029 -0.004861956851
646.25 -0.09046284766 -0.02222704547
646.875 -0.06711284636 -0.04551358172
647.5 -0.07186720109 -0.03753749587
648.125 -0.08167898568 -0.03517485084
648.75 -0.05791434253 -0.04953575695
649.375 -0.02610483014 -0.05074761374
650.0 -0.005621301005 -0.06352803762
650.625 0.02832362119 -0.08800074567
651.25 0.04826857787 -0.05737290507
651.875 0.06586639196 -0.03853115466
652.5 0.1026797533 -0.03069877079
653.125 0.1442451105 0.01809380381
653.75 0.1144695222 0.02569577268
654.375 0.1113956105 0.01720408221
655.0 0.1269885543 0.04752364579
655.625 0.08158318853 0.0619397555
656.25 0.05501636121 0.03062100361
656.875 0.0742708635 0.01560979046
657.5 0.08482712659 0.03938469928
658.125 0.06013902804 0.07093094601
658.75 0.0167956757 0.04268871304
659.375 0.06428441193 0.0498363465
660.0 0.1127978159 0.04100797632
660.625 0.1283695128 0.03003908234
661.25 0.09735705773 0.0006539665831
661.875 0.121898412 -0.04668735588
662.5 0.1089711897 -0.06686004353
663.125 0.1148133047 -0.04941329172
663.75 0.08536818698 -0.01349056606
664.375 0.08267076101 0.06372693089
665.0 0.02799218365 0.09146807994
665.625 -0.005826860005 0.06664595167
666.25 -0.02111292124 0.079212329
666.875 -0.08876870459 0.06996595743
667.5 -0.1076303269 0.01801552864
668.125 -0.09754631641 0.02571062635
668.75 -0.1040057609 0.070114834
669.375 -0.126091664 0.07090185544
670.0 -0.1076819101 0.02493292402
670.625 -0.09043724705 0.0258499237
671.25 -0.08588263857 0.05600951826
671.875 -0.08141250611 0.08067330905
672.5 -0.04319601793 0.07483784862
673.125 -0.03243054431 0.07957280834
673.75 -0.04950926901 0.09068340972
674.375 -0.08393476463 0.09015102876
675.0 -0.0999785367 0.05492060508
675.625 -0.1276694816 0.02869293471
676.25 -0.1249899686 -0.04172755045
676.875 -0.1175170521 -0.062560154
677.5 -0.1216603575 -0.04222835405
678.125 -0.159202616 -0.03473716238
678.75 -0.08097881268 -0.05509262451
679.375 -0.04297519547 -0.04657252555
680.0 -0.05101495962 -0.03853108654
680.625 -0.09907513248 -0.05839089478
681.25 -0.07424219211 -0.07200102707
681.875 -0.0577465858 -0.06140853238
682.5 -0.09833300661 -0.02509716848
683.125 -0.1491653029 -0.009216386139
683.75 -0.1626295864 -0.05329758613
684.375 -0.05939363011 -0.09795481777
685.0 -0.007020281174 -0.1302989181
685.625 0.0823939823 -0.1316401734
686.25 0.1269053112 -0.09475144495
686.875 0.101577639 -0.03573283985
687.5 0.1011289044 -0.003150974527
688.125 0.08375643444 0.02150785129
688.75 0.06587563061 0.04695891934
689.375 0.04616469947 0.06845727462
690.0 0.06950157469 0.1098482044
690.625 0.04530224568 0.1030365319
691.25 0.0830033249 0.08430511328
691.875 0.1483593264 0.005530154528
692.5 0.1651025122 -0.1218654516
693.125 0.03943018751 -0.154471655
693.75 -0.05294412243 -0.09786710079
694.375 -0.0911139845 -0.09925604611
695.0 0.01421503936 -0.1297089133
695.625 0.1048791425 -0.07273207092
696.25 0.07737540548 0.03169973844
696.875 0.02291351414 0.09988350718
697.5 -0.06450578691 0.1036269952
698.125 -0.1104851884 0.06201973518
698.75 -0.1150758256 0.07350350306
699.375 -0.1181998947 0.08087832481
700.0 -0.1026520236 0.01771506326
700.625 -0.1068240771 0.006309043236
701.25 -0.125267782 0.003593867545
701.875 -0.1339397918 0.009744831997
702.5 -0.06510809843 0.0006636711841
703.125 -0.05587677865 0.04150095157
703.75 -0.02196567852 0.1331196718
704.375 0.02182180863 0.1781961135
705.0 0.03034924395 0.1315469551
705.625 -0.02448456115 0.1020856527
706.25 -0.1019364922 0.1015434466
706.875 -0.1588143262 -0.04018980977
707.5 -0.1048122774 -0.0888933167
708.125 -0.03268476707 -0.087475119
708.75 0.009280607778 -0.09806081977
709.375 0.08425710135 -0.04158673443
710.0 0.09148748658 0.01017240624
710.625 0.07825111556 0.02546435595
711.25 0.04882087205 0.05658286884
711.875 0.04148650113 0.07123509477
712.5 0.08102268309 0.06221852591
713.125 0.1469057727 0.04670744762
713.75 0.1024766964 -0.1128596194
714.375 -0.006290065724 -0.1358394967
715.0 -0.06996363475 -0.1149107874
715.625 -0.07198939776 -0.1422114819
716.25 0.05612679178 -0.08836323412
716.875 0.05669389175 -0.04119476768
717.5 0.07530526024 -0.005100604354
718.125 0.1013612124 0.01107577704
718.75 0.05722150767 0.07977138811
719.375 0.03500321771 0.05955073538
720.0 -0.01337807852 0.06973687396
720.625 -0.07922879983 0.04186673461
721.25 -0.08131533362 -0.09248830951
721.875 0.01012666377 -0.1168298201
722.5 0.02775885281 -0.121170982
723.125 -0.06173494493 -0.09944933917
723.75 -0.04749703121 -0.07869298645
724.375 -0.07107348111 -0.00241617775
725.0 -0.04844749311 0.03905123253
725.625 -0.0316478271 0.03498347317
726.25 -0.02236277873 0.02670941035
726.875 -0.09421754167 -0.01180305599
727.5 -0.1011138281 -0.05175499991
728.125 -0.06484541672 -0.06089632436
728.75 -0.06505398013 -0.01324174671
729.375 -0.07909264118 -0.06038076646
730.0 -0.061395852 -0.02671349723
730.625 -0.04826868722 -0.03725103194
731.25 -0.02559276695 -0.03592875799
731.875 -0.007788030525 -0.03204056454
732.5 0.05527621023 0.008730110394
733.125 0.03570298709 0.03743379195
733.75 0.02628182833 0.02687225083
734.375 0.06269087725 0.04374826107
735.0 0.06005416469 -0.006977509903
735.625 0.04951410877 -0.01492675898
736.25 0.03482789283 -0.03914962091
736.875 0.01358987356 -0.03850908589
737.5 -0.005062109562 -0.01685410968
738.125 -0.007394573771 0.01253957221
738.75 -0.01823812773 0.04498251411
739.375 -0.01401946615 0.04352498729
740.0 0.05129062972 0.0581067678
740.625 0.03853117073 0.0279700071
741.25 0.01759912197 0.06146438827
741.875 -0.02976683866 0.02214596497
742.5 -0.03801526899 -0.007196080283
743.125 -0.01941402201 -0.04081035005
743.75 0.01085977393 -0.05636635908
744.375 0.03970341858 -0.02412531689
745.0 -0.02144762973 -0.08383019606
745.625 -0.02769593852 -0.04527499494
746.25 -0.003509609496 -0.02344345237
746.875 0.02874436875 -0.0341838215
747.5 -0.004275207258 -0.05053457408
748.125 -0.03651258222 -0.04609315613
748.75 -0.05515858102 -0.002589116521
749.375 -0.05040970269 0.03656252372
750.0 -0.03069062182 0.08667240339
