!Created with skrf (http://scikit-rf.org).
# GHz S RI R 50.0 
!freq ReS11 ImS11
500.0 -0.01137086833 0.02256160501
500.625 0.0271056758 0.02377646735
501.25 0.03235247778 0.02422082974
501.875 0.0123178198 0.05020876693
502.5 0.005462459184 0.04833380501
503.125 0.03402547873 0.04038059323
503.75 0.04601358762 0.03021343031
504.375 0.04582524286 -0.00947331496
505.0 0.05123876773 -0.02173602946
505.625 0.06627597635 -0.0340644163
506.25 0.04446818719 -0.04794878764
506.875 0.05948841029 -0.04060146423
507.5 0.04169200695 -0.04809410255
508.125 0.07883277002 -0.02432609521
508.75 0.06757766532 -0.0437766569
509.375 0.009422679191 -0.05764548021
510.0 0.05146228518 -0.04145447525
510.625 -0.007230057186 -0.06712422647
511.25 -0.02364383623 -0.06428488129
511.875 -0.04656019751 -0.01295065275
512.5 -0.03263640329 0.001685189454
513.125 -0.02689662517 0.02638730569
513.75 -0.0444733968 0.04142269893
514.375 -0.0147412221 0.05717596944
515.0 0.00293293782 0.07679785408
515.625 -0.04901961686 0.08631808191
516.25 0.01427057351 0.1155330589
516.875 -0.03333320375 0.1142006257
517.5 0.0471164516 0.09459494142
518.125 -0.06640460027 0.1019626717
518.75 0.01827734491 0.05058320983
519.375 -0.002059911719 0.07595437954
520.0 0.04052310292 0.06997592308
520.625 0.05339389707 0.05099491302
521.25 0.05199506499 0.03963670065
521.875 0.03391151571 0.03983434303
522.5 0.06242443908 0.005619533943
523.125 0.1131886294 -0.002886741311
523.75 0.1110226889 -0.01876335896
524.375 0.06099660315 -0.05518375159
525.0 -0.002635094286 0.003363560519
525.625 -0.00139155311 0.03178442385
526.25 0.007114867275 0.03505359992
526.875 0.01227453918 0.03526436631
527.5 0.02412028569 0.03357879154
528.125 0.04629139144 0.01302402025
528.75 0.06823505719 0.002585631173
529.375 0.04721251826 -0.03018013687
530.0 0.02467054447 -0.02436279357
530.625 0.007979072111 -0.09937762315
531.25 0.0145031113 -0.1304618081
531.875 -0.04005646874 -0.1447808586
532.5 -0.08237084213 -0.07657962681
533.125 -0.07258283149 -0.06990546142
533.75 -0.06425354822 -0.06548112181
534.375 -0.06574750327 -0.04649211662
535.0 -0.05894280507 -0.02626505946
535.625 -0.02550639459 -0.04007651705
536.25 -0.02474753686 -0.03229202248
536.875 -0.03563593877 -0.05951162372
537.5 -0.04049794426 -0.08569116836
538.125 -0.07155543233 -0.0751715102
538.75 -0.05079828857 -0.02607640546
539.375 -0.02886469365 -0.04999705882
540.0 -0.04419435736 -0.09931298106
540.625 -0.059247401 -0.1273550616
541.25 -0.0313827985 -0.07077362393
541.875 -0.03549082549 -0.07768587308
542.5 -0.04862100036 -0.09383430767
543.125 -0.09794620097 -0.07551703634
543.75 -0.08181751759 0.01870095321
544.375 -0.06281295146 0.0334531501
545.0 -0.03577716859 0.04773070989
545.625 -0.02032816596 0.05730611909
546.25 0.004753292531 0.07993594341
546.875 0.01420268384 0.06104039881
547.5 0.00528345481 0.09072957447
548.125 -0.003538013887 0.07927240129
548.75 -0.006752883311 0.04895379006
549.375 -0.02921910382 0.06261246659
550.0 -0.04121592252 0.0185798029
550.625 -0.01942083634 -0.007077662848
551.25 -0.02322045001 -0.03980709384
551.875 -0.05045600587 -0.05294389498
552.5 -0.06936018486 -0.05528184683
553.125 -0.07607586616 -0.02805049046
553.75 -0.07292837469 -0.03477429
554.375 -0.09685176771 -0.002869061962
555.0 -0.09764268655 0.01498819313
555.625 -0.07805889954 0.02649254314
556.25 -0.09316324243 0.01968904477
556.875 -0.08103459995 0.007907501806
557.5 -0.08277234923 0.02238986675
558.125 -0.07235706055 0.0228010603
558.75 -0.07157422659 -9.431351709e-05
559.375 -0.03828659627 -0.001721761229
560.0 -0.02735459575 -0.009979014732
560.625 -0.0318155789 -0.03749505314
561.25 -0.06467982486 -0.04254546651
561.875 -0.07245757603 -0.02750756609
562.5 -0.0724094772 0.01074615063
563.125 -0.07492018312 0.05189106737
563.75 -0.06234824163 0.07824571519
564.375 -0.02842406092 0.08156684954
565.0 -0.02276538789 0.07472806201
565.625 -0.0205042395 0.06182754434
566.25 -0.05126619328 0.0459180702
566.875 -0.05059676914 0.01473169234
567.5 -0.05481128382 0.007619764996
568.125 -0.05823119968 0.004442392054
568.75 -0.05144777444 0.00113100309
569.375 -0.01170540106 -0.01988671199
570.0 -0.0174642609 -0.03772224962
570.625 -0.03731538557 -0.05304707161
571.25 -0.04418397583 -0.03798705142
571.875 -0.04151186172 -0.04740809492
572.5 -0.08361404796 -0.02706540965
573.125 -0.1076301237 0.01102996872
573.75 -0.06419380459 0.06604489229
574.375 -0.03989325898 0.04912453273
575.0 -0.05294618994 0.05260657706
575.625 -0.05788799029 0.06403042492
576.25 -0.0364221061 0.07169401093
576.875 -0.01549487131 0.07257138183
577.5 -0.0131314487 0.07108410057
578.125 -0.02018265442 0.04790941393
578.75 -0.01313108911 0.04403006649
579.375 -0.01859422076 0.0280504136
580.0 -0.02342828368 0.01957888605
580.625 -0.03493340848 0.00157893795
581.25 -0.05406706395 0.0141277418
581.875 -0.0791310868 0.01351835307
582.5 -0.07863775408 0.03450774098
583.125 -0.06346160141 0.04951046093
583.75 -0.06159149736 0.03327433656
584.375 -0.07105136891 0.01154976366
585.0 -0.07268626065 0.002736827413
585.625 -0.06397247774 0.01765553375
586.25 -0.05854033518 0.02280838374
586.875 -0.05308263075 -0.01502464483
587.5 -0.05512129693 0.01003085993
588.125 -0.02971943615 0.04393779176
588.75 -0.02294919417 0.04307147987
589.375 -0.03946707204 0.01192114644
590.0 -0.04567244346 0.01788040346
590.625 -0.04584982897 0.0530397097
591.25 -0.04053841249 0.08133669031
591.875 -0.0229067358 0.09429472328
592.5 -0.008552252953 0.071112957
593.125 0.00403608456 0.0591376447
593.75 -0.01067077448 0.06409864804
594.375 -0.03091091851 0.04160649455
595.0 -0.03271372936 0.0235536314
595.625 -0.02991567312 0.00166551192
596.25 -0.03324235582 -0.01851469878
596.875 -0.03533015197 -0.01400341173
597.5 -0.02926007134 -0.02364797094
598.125 -0.02332199253 -0.01643177874
598.75 -0.01721887995 -0.01246892275
599.375 -0.005458651326 -0.05089714563
600.0 -0.01711667892 -0.0604330069
600.625 -0.02043850961 -0.07624826624
601.25 -0.04342494994 -0.06257830706
601.875 -0.0490597757 -0.04855922655
602.5 -0.05238222118 -0.0355399847
603.125 -0.05040418514 -0.03145749316
603.75 -0.03332661968 -0.02277963281
604.375 -0.02351218859 -0.008002276424
605.0 0.01077522434 -0.04899552532
605.625 -0.000797813789 -0.04734250072
606.25 -0.002988345911 -0.03748427061
606.875 -0.0233148013 -0.009753336663
607.5 0.01484855223 -0.003078679737
608.125 0.0315919084 -0.0176902851
608.75 0.01883746919 -0.01602655035
609.375 0.01477983425 -0.002910893042
610.0 0.06591505279 -0.005728909935
610.625 0.05347441728 -0.01112724324
611.25 0.05440796916 -0.0191949152
611.875 0.02548919982 -0.01777969469
612.5 0.04314758398 -0.001997187691
613.125 0.01516429308 -0.005143766481
613.75 0.003547564533 0.00606506185
614.375 0.01641421993 0.01945160944
615.0 0.01547628227 0.009923124416
615.625 0.01665273029 0.01485902819
616.25 0.02267358648 0.02653045232
616.875 0.01043747298 0.0321989666
617.5 0.01553469192 0.03168986593
618.125 0.01839193005 0.02896733119
618.75 0.02477663048 0.03267845524
619.375 0.01157332554 0.03611918529
620.0 0.0264492009 0.03699882056
620.625 0.02757553026 0.007603002643
621.25 0.01291909028 -0.007700132559
621.875 -0.006935894018 -0.01712557229
622.5 -0.04286218292 0.008459529167
623.125 -0.02263834882 0.04269458263
623.75 -0.02085695578 0.05718604609
624.375 -0.03797536788 0.04234228154
625.0 -0.0607759785 0.01773044479
625.625 -0.04195386056 0.06536030451
626.25 -0.03789244117 0.06330240125
626.875 -0.0234832248 0.06099539625
627.5 -0.02915026389 0.02277647544
628.125 -0.02942556528 0.03371149513
628.75 -0.02811556415 0.01518047249
629.375 -0.02321872897 0.00775960383
630.0 -0.006289721406 -0.001473882379
630.625 -0.01294203354 -0.007418706706
631.25 -0.003341446911 -0.0295207958
631.875 -0.005415758874 -0.04814360509
632.5 -0.002596535867 -0.07367507171
633.125 -0.0206657552 -0.06192124815
633.75 -0.01981256703 -0.05891064285
634.375 -0.01401839434 -0.06808099634
635.0 -0.03214328923 -0.06365166663
635.625 -0.03286441962 -0.056024616
636.25 -0.04252068796 -0.01651078773
636.875 -0.01596467749 -0.04327168491
637.5 -0.01689989184 -0.06806226431
638.125 -0.02714512783 -0.05060321489
638.75 -0.0341257919 -0.01570350742
639.375 0.01339105242 -0.02316245906
640.0 0.06339576777 -0.01151956078
640.625 0.05975997062 -0.01469271504
641.25 0.0572057622 -0.02260063621
641.875 0.05489568697 -0.02066854557
642.5 0.05399788696 -0.003752610244
643.125 0.0662957807 0.02243378143
643.75 0.05697182826 -0.00724188213
644.375 0.05536589345 -0.005306385469
645.0 0.04528732581 4.579952579e-05
645.625 0.04189049625 0.02466678489
646.25 0.0536950704 0.02464206015
646.875 0.06844788665 0.02992038893
647.5 0.05619529638 0.02100974977
648.125 0.04941893445 0.02618986545
648.75 0.04946012304 0.06490834735
649.375 0.04076206299 0.06907493291
650.0 0.03862089467 0.06299174571
650.625 0.03508752186 0.06560047002
651.25 -0.000781087672 0.08508666951
651.875 -0.008314827873 0.05742354143
652.5 -0.02364783768 0.0479420404
653.125 -0.02488431314 0.03553939164
653.75 -0.04378708922 -0.004721019938
654.375 -0.02245091429 -0.03565348285
655.0 -0.02651586116 -0.05792767484
655.625 -0.04441832209 -0.06576013773
656.25 -0.07625408459 -0.07546127675
656.875 -0.06358559883 -0.0332923225
657.5 -0.06984137551 -0.04748651504
658.125 -0.09134964807 -0.05552976451
658.75 -0.1058690891 -0.0443290396
659.375 -0.0762656043 0.01937750477
660.0 -0.06636982241 0.0286609156
660.625 -0.0678722251 0.02206129921
661.25 -0.05665212967 0.01216579976
661.875 -0.04632798918 0.02645853765
662.5 -0.04439240365 0.02472447636
663.125 -0.06055894135 0.004925564898
663.75 -0.07135838316 -0.03628035353
664.375 -0.03966817215 -0.05399896479
665.0 -0.0117317721 -0.08116525334
665.625 0.02159908597 -0.1033175215
666.25 0.03803740065 -0.08989311711
666.875 0.04683557512 -0.08046146551
667.5 0.05576323456 -0.0660830821
668.125 0.05971899794 -0.05104531398
668.75 0.04508101693 -0.03893149633
669.375 0.03781708266 -0.01520955438
670.0 0.06483664474 -0.01624414206
670.625 0.07120262969 -0.01364622182
671.25 0.06896429491 -0.03513809198
671.875 0.05526854255 -0.02419007915
672.5 0.06106401098 -0.08039908904
673.125 0.03039392247 -0.0930931054
673.75 0.01195759777 -0.1045065206
674.375 0.03154109081 -0.07505823437
675.0 0.06089983606 -0.04691796964
675.625 0.06138445901 -0.02795526591
676.25 0.07040918964 -0.00465630729
676.875 0.05547937164 0.02642799701
677.5 0.0262802733 0.04169033763
678.125 0.03020219349 0.05067183174
678.75 0.05553004982 0.081309225
679.375 0.03231534903 0.09337743734
680.0 0.04325614799 0.08411482327
680.625 0.07426908524 0.06042277824
681.25 0.0984910665 0.04282036888
681.875 0.1198037009 0.01992127577
682.5 0.08047201488 -0.02283593515
683.125 0.05637623391 -0.02026833168
683.75 0.06674554453 0.0002951585101
684.375 0.05783117134 0.060845886
685.0 0.001909304206 0.05596296072
685.625 -0.04124762987 0.03009379428
686.25 -0.06692663415 0.0003364493835
686.875 -0.089526919 -0.03266427681
687.5 -0.07627941456 -0.05658467585
688.125 -0.1016352731 -0.07000871861
688.75 -0.09467249096 -0.07775230006
689.375 -0.08122384147 -0.06313844015
690.0 -0.08049147909 -0.05380533628
690.625 -0.08782998129 -0.05781821606
691.25 -0.08523732342 -0.04768421981
691.875 -0.0531673043 0.009422470389
692.5 -0.04579234115 0.02756220506
693.125 -0.06034558056 0.05325050742
693.75 -0.03021097362 0.1086262306
694.375 0.00293668904 0.09668145608
695.0 -0.02011812853 0.1052612625
695.625 -0.09928240979 0.06550839611
696.25 -0.1020753367 -0.05768282061
696.875 -0.01954551649 -0.109139923
697.5 0.04176580453 -0.09150445305
698.125 0.05651098562 -0.07454508905
698.75 0.0434221791 -0.03684955873
699.375 0.05888311522 -0.02399494184
700.0 0.08668511502 -0.0101406156
700.625 0.05205298415 0.04078720949
701.25 0.05864891357 0.03763383692
701.875 0.099296225 0.02544219525
702.5 0.1427127436 -0.02488870949
703.125 0.09346844705 -0.08082180067
703.75 -0.006056440257 -0.07909297906
704.375 -0.02678859019 -0.06145065651
705.0 -0.0121150449 -0.0820914922
705.625 0.02473169639 -0.08213387379
706.25 0.0511700511 -0.0167583274
706.875 0.04712154493 0.02988677654
707.5 0.02799693794 0.0754625131
708.125 -0.03459211445 0.08890000781
708.75 -0.07480826315 0.06626821393
709.375 -0.09078018305 0.02400165618
710.0 -0.08202899231 -0.02808179832
710.625 -0.07311031922 -0.0494672208
711.25 -0.06323915473 -0.07736845998
711.875 -0.06154580372 -0.06779762461
712.5 -0.06824713317 -0.009113068327
713.125 -0.04085413217 0.04124101491
713.75 -0.03479860578 0.04442716575
714.375 -0.05378833385 0.05214725227
715.0 -0.0383328066 0.0551762768
715.625 -0.03398416186 0.06165515463
716.25 -0.0512281085 0.07515137148
716.875 -0.1200122595 -0.01652195909
717.5 -0.08664266362 -0.03272258369
718.125 -0.07252311073 -0.03425396807
718.75 -0.06094708635 -0.05837830757
719.375 -0.04599049541 -0.07215979487
720.0 0.03540576803 -0.06930405725
720.625 0.05570293479 -0.02582198769
721.25 0.03957706881 0.02154424497
721.875 -0.02487449461 0.02541026048
722.5 -0.0496718572 0.02070473032
723.125 -0.06420459664 0.05327078643
723.75 0.0005837260766 0.09667573456
724.375 0.06426279074 0.04212653776
725.0 0.07797334388 0.001714193936
725.625 0.08848842967 -0.01748864166
726.25 0.06222578638 -0.02702876335
726.875 0.03314995292 -0.03878143267
727.5 0.04510622477 0.04035479211
728.125 0.02285456796 0.05488313158
728.75 0.01629112555 0.04315294731
729.375 0.03129997646 0.03962853443
730.0 0.0300136223 0.0200596777
730.625 0.0005865547396 0.07043551617
731.25 -0.03245758599 0.05790132778
731.875 -0.03918840417 0.02887738183
732.5 -0.03137755398 0.00820398801
733.125 -0.04768026927 -0.03952149717
733.75 -0.041348584 -0.03268768458
734.375 -0.02449487772 -0.01712946302
735.0 -0.01992239166 -0.01143981948
735.625 -0.02719311632 -0.01427563757
736.25 -0.04556051869 -0.01014955643
736.875 -0.04164459713 -0.0281257581
737.5 -0.0481262137 -0.02607901196
738.125 -0.07801780238 -0.04441243063
738.75 -0.05880098062 -0.03171728301
739.375 -0.008927301234 -0.01237479654
740.0 0.02603391478 -0.01065933447
740.625 -0.02076672232 -0.04965436001
741.25 -0.02165505902 -0.03248403427
741.875 0.0089195427 -0.01442013631
742.5 0.01754409689 0.01643117329
743.125 -0.003281599184 0.0340840683
743.75 -0.02279278638 0.02403387309
744.375 -0.04662648202 0.01801253211
745.0 -0.05804273918 0.004184537707
745.625 -0.03827674119 0.07940465334
746.25 -0.01121250115 0.07207016954
746.875 0.03988250705 0.04438794304
747.5 0.03234078921 0.009870203765
748.125 0.004314316973 0.01699829089
748.75 0.03876203985 -0.006997858577
749.375 0.02564123161 -0.009603580527
750.0 0.006322758492 -0.03294059911
