!Created with skrf (http://scikit-rf.org).
# GHz S RI R 50.0 
!freq ReS11 ImS11
500.0 -0.01423636116 0.02346971517
500.625 0.01656644118 0.04267546901
501.25 0.0464313328 0.004393106339
501.875 0.02856090848 0.0134132323
502.5 0.009870664105 0.04178793156
503.125 0.03577048232 0.03133496279
503.75 0.04374365452 0.01441088051
504.375 0.04873774514 0.0004539489324
505.0 0.04775183035 -0.02147402912
505.625 0.05911164 -0.04201368227
506.25 0.0414150016 -0.05266195339
506.875 0.06808416508 -0.02883886571
507.5 0.06960869204 -0.03275334267
508.125 0.06710152081 -0.05154141291
508.75 0.03261784759 -0.06298866595
509.375 0.01871029271 -0.05197434344
510.0 0.09209944433 -0.02872422509
510.625 -0.0241005117 -0.06117026069
511.25 -0.03492769895 -0.05008790805
511.875 -0.04665160832 -0.02139380387
512.5 -0.03627274881 5.054657065e-05
513.125 -0.01798228791 0.0329541282
513.75 -0.01083596003 0.03875316491
514.375 -0.009435661973 0.05335329019
515.0 0.0007997083815 0.09370944457
515.625 -0.0406991894 0.09074873122
516.25 0.03433671956 0.08826313756
516.875 -0.03734150773 0.1147542109
517.5 0.0287192004 0.1175067395
518.125 -0.04135799868 0.1284915225
518.75 0.01688914191 0.05502173018
519.375 0.0004808376814 0.07498509375
520.0 0.05123179913 0.0611534504
520.625 0.06093560242 0.04417105257
521.25 0.05485486652 0.02983618795
521.875 0.0367437219 0.04231088109
522.5 0.0684176736 0.01680730311
523.125 0.1147007233 -0.03109446765
523.75 0.09250673874 -0.07838363617
524.375 0.06138582511 -0.0336748269
525.0 0.0037745355 0.0100520318
525.625 0.001129777366 0.02026688485
526.25 0.01110255759 0.04607712172
526.875 0.01541066385 0.04346750169
527.5 0.02497756842 0.02658623833
528.125 0.04319832842 0.007646152489
528.75 0.05435849765 -0.004216351193
529.375 0.04787534002 -0.0345372256
530.0 0.01280203508 -0.01434521639
530.625 0.01145097861 -0.06851738848
531.25 0.01268396489 -0.1483946846
531.875 -0.05121746876 -0.1600767766
532.5 -0.08071366796 -0.06142949436
533.125 -0.07847008042 -0.05673285899
533.75 -0.07533287265 -0.07029297784
534.375 -0.06999628851 -0.04624172448
535.0 -0.06939299183 -0.02742279767
535.625 -0.03032448818 -0.0340634138
536.25 -0.03461400486 -0.03690805052
536.875 -0.04905375843 -0.06844467075
537.5 -0.03870718214 -0.06776154165
538.125 -0.06328714768 -0.05174033082
538.75 -0.0585707237 -0.03339838983
539.375 -0.0404665111 -0.05575825808
540.0 -0.04673167669 -0.0872675836
540.625 -0.05148709054 -0.1020583405
541.25 -0.03928910629 -0.0808872244
541.875 -0.05415833381 -0.08982332066
542.5 -0.04307174644 -0.07807309054
543.125 -0.09213254872 -0.06325394592
543.75 -0.09743849489 0.01743639458
544.375 -0.06592063413 0.03628809318
545.0 -0.03757213751 0.06085305741
545.625 -0.01497505868 0.05793360497
546.25 0.008142255828 0.06164382012
546.875 0.01696802875 0.06529177075
547.5 0.0121123009 0.08597406062
548.125 0.004101120791 0.06954056175
548.75 -0.008705870899 0.06823676965
549.375 -0.02527438672 0.0750277848
550.0 -0.04621135048 0.03071761106
550.625 -0.019496607 -0.001302574731
551.25 -0.0112764473 -0.03487562958
551.875 -0.052379928 -0.04501475172
552.5 -0.06565414492 -0.04863205289
553.125 -0.07158944994 -0.02472463325
553.75 -0.08015279045 -0.02353649622
554.375 -0.0950066028 0.003143778018
555.0 -0.09631229667 0.02213078389
555.625 -0.07178037015 0.02792532317
556.25 -0.0764587164 0.01365603885
556.875 -0.08973094473 0.0155855845
557.5 -0.09331271801 0.03570747151
558.125 -0.0621462611 0.02448328628
558.75 -0.0593898453 0.00597325681
559.375 -0.0413474889 -0.0005578213133
560.0 -0.02568970728 -0.004855513019
560.625 -0.03198008025 -0.03210381764
561.25 -0.05963707681 -0.03860512288
561.875 -0.07365017429 -0.02273961352
562.5 -0.07672227956 0.02675664689
563.125 -0.07024138056 0.05669955322
563.75 -0.05757252436 0.09039340791
564.375 -0.02577227159 0.08605201128
565.0 -0.01878390945 0.07411598294
565.625 -0.01513754767 0.06302083223
566.25 -0.04631029313 0.04758920478
566.875 -0.05287357212 0.02169253515
567.5 -0.06522173983 0.02546508894
568.125 -0.04762510563 0.003835632216
568.75 -0.04470887585 0.001954046402
569.375 -0.0279309047 -0.01273937524
570.0 -0.03024200085 -0.02951656945
570.625 -0.0274110779 -0.04893676735
571.25 -0.03598674494 -0.03944887722
571.875 -0.05049244283 -0.03641972444
572.5 -0.09128261453 -0.003905136161
573.125 -0.09775573565 0.008205669853
573.75 -0.06195787689 0.06109126866
574.375 -0.03490675856 0.06264650102
575.0 -0.03846687915 0.0754982672
575.625 -0.05374496543 0.05762203245
576.25 -0.03380862833 0.07014201158
576.875 -0.01224729421 0.07801108746
577.5 -0.0006625984634 0.0783253697
578.125 -0.01741587812 0.04999866331
578.75 -0.01479985189 0.03393984726
579.375 -0.013709126 0.03664587039
580.0 -0.01350584954 0.04148865126
580.625 -0.03415881097 -0.005150527867
581.25 -0.05723714873 0.0009631690879
581.875 -0.06939043093 0.02966307941
582.5 -0.07444425641 0.05247864574
583.125 -0.06352043053 0.04617491815
583.75 -0.058114467 0.03354290372
584.375 -0.06993731944 0.02683538666
585.0 -0.07525748341 0.00662663604
585.625 -0.06236644164 0.0163502653
586.25 -0.05673874734 0.01191059234
586.875 -0.06056436484 0.007308180082
587.5 -0.05780847553 0.02747103916
588.125 -0.03313731311 0.04294957181
588.75 -0.02272209534 0.04045761736
589.375 -0.02952700534 0.02781962418
590.0 -0.0450157704 0.02101089554
590.625 -0.04245757355 0.05411275772
591.25 -0.03604461213 0.08049386486
591.875 -0.03046456642 0.08806024244
592.5 -0.007655010718 0.07181654721
593.125 0.008535432261 0.06333798783
593.75 -0.009981965003 0.06103380944
594.375 -0.02562501982 0.05460951386
595.0 -0.03075938022 0.0324314704
595.625 -0.02955506157 0.01365053019
596.25 -0.03452653239 -0.014290517
596.875 -0.03197922763 -0.02729029878
597.5 -0.0306590082 -0.02485879037
598.125 -0.02416442356 -0.02363185738
598.75 -0.01073047906 -0.03493674623
599.375 -0.01130353584 -0.0369733119
600.0 -0.0217488695 -0.04077681518
600.625 -0.01784654007 -0.08770676373
601.25 -0.04212197946 -0.06409492488
601.875 -0.05598687063 -0.03718598173
602.5 -0.05620516089 -0.03497086324
603.125 -0.05409003655 -0.02287623306
603.75 -0.02533472794 -0.03247854631
604.375 -0.01088353986 -0.02832515409
605.0 -0.002630573676 -0.04167768212
605.625 -0.0180354899 -0.03549649485
606.25 0.008324124974 -0.04267264909
606.875 -0.005210039653 -0.02033778437
607.5 -0.001460772445 -0.001738592045
608.125 0.005494927067 0.0004021580703
608.75 0.02849561819 -0.02284623175
609.375 0.04389730361 -0.0227162446
610.0 0.05005734436 -0.01242679258
610.625 0.03154813337 -0.01040565899
611.25 0.07053207247 -0.02545639223
611.875 0.05481642346 -0.01471912774
612.5 0.02832605966 -0.01351927841
613.125 0.01954934197 -0.005833317232
613.75 0.009659328022 0.004664818261
614.375 0.0284744466 0.02257437926
615.0 0.03681383935 0.02013174131
615.625 0.02373930739 0.01200725988
616.25 -0.0109427467 0.01424642871
616.875 0.02991194396 0.04270166927
617.5 0.02252125032 0.03082321387
618.125 0.02510048586 0.02770636562
618.75 0.004432029109 0.02279779295
619.375 0.02551863373 0.04383747061
620.0 0.02427307632 0.02669003128
620.625 0.02929156248 0.003981152297
621.25 0.02087370786 -0.0008921890429
621.875 -0.003858154842 -0.01326536501
622.5 -0.0346705357 0.006467758898
623.125 -0.02418394763 0.04159909332
623.75 -0.04099662828 0.05153727439
624.375 -0.02590844225 0.05324961334
625.0 -0.03429250042 0.04722214173
625.625 -0.04406056514 0.05146154897
626.25 -0.05113016783 0.04511087697
626.875 -0.01309424005 0.08002887281
627.5 -0.01287023134 0.0488295941
628.125 -0.03144110165 0.01968308166
628.75 -0.03043296664 0.005816020504
629.375 -0.02250870305 0.02231645823
630.0 -0.01150983214 0.0009457748016
630.625 -0.003266557311 -0.01788655363
631.25 0.01098879926 -0.05475344332
631.875 -0.02167417428 -0.03273185812
632.5 -0.01950281298 -0.048155094
633.125 -0.01162446112 -0.06608939386
633.75 -0.02428058485 -0.05381776749
634.375 -0.01933032808 -0.06298255479
635.0 -0.04840255705 -0.05081533039
635.625 -0.0564259786 -0.02658224367
636.25 -0.03767196325 -0.0240087599
636.875 -0.01203235978 -0.06066163481
637.5 -0.02778797025 -0.05774503777
638.125 -0.03807081892 -0.04696517939
638.75 -0.03001854761 -0.02564514799
639.375 0.007478421195 -0.02145774101
640.0 0.05003306657 -0.01775826354
640.625 0.05498145694 -0.02199770354
641.25 0.04288817513 -0.02695293989
641.875 0.05438137694 -0.02209507806
642.5 0.04426610539 -0.02376400362
643.125 0.05319936283 -0.0003007184936
643.75 0.06517692047 0.0001329256922
644.375 0.06647692343 -0.0005805279291
645.0 0.04023153312 -0.01458942201
645.625 0.04210446009 0.01385078648
646.25 0.05817238154 0.02717854181
646.875 0.06678704604 0.0241637091
647.5 0.06633160086 0.02045285321
648.125 0.05073724727 0.0171849569
648.75 0.03972972131 0.04093619288
649.375 0.04803858333 0.07164500669
650.0 0.04336339711 0.07475750237
650.625 0.04357268909 0.04647658271
651.25 0.01961771461 0.061549399
651.875 -0.01675821562 0.06442727461
652.5 -0.03355384214 0.05441569398
653.125 -0.006656060177 0.04140715397
653.75 -0.02004451196 0.00909407395
654.375 -0.02408474831 -0.03019452751
655.0 -0.02686210692 -0.04980157856
655.625 -0.04282905349 -0.05332050137
656.25 -0.06057846379 -0.04718344029
656.875 -0.07341196513 -0.03454669591
657.5 -0.08816300995 -0.05108101407
658.125 -0.08866091913 -0.04316816096
658.75 -0.1055205374 -0.02827376472
659.375 -0.08730356507 0.02047563907
660.0 -0.06489317357 0.03551806449
660.625 -0.06001533183 0.03140444121
661.25 -0.05484415314 0.02178849763
661.875 -0.03509064761 0.02699424941
662.5 -0.04694601145 0.0321665261
663.125 -0.04198051122 0.01083504457
663.75 -0.06272914939 -0.0266979875
664.375 -0.05409793615 -0.05448860252
665.0 -0.03523429154 -0.09849910481
665.625 0.0122661891 -0.1016571726
666.25 0.03340573944 -0.08962187228
666.875 0.04080684874 -0.08432246997
667.5 0.05656638973 -0.09094711526
668.125 0.04828816797 -0.05359332887
668.75 0.03508151785 -0.03605381214
669.375 0.04276695992 -0.02735999592
670.0 0.07776772814 -0.04104835767
670.625 0.05591448392 -0.01807746182
671.25 0.05140594897 -0.03141309105
671.875 0.06046881442 -0.03943173406
672.5 0.05443106488 -0.0933257699
673.125 0.02060223534 -0.08142749906
673.75 0.003702739412 -0.09678700241
674.375 0.02472655278 -0.07993776083
675.0 0.06044298733 -0.06110016653
675.625 0.0469448343 -0.02985900147
676.25 0.06871221979 -0.01512864479
676.875 0.06077429816 0.01339865624
677.5 0.04235152011 0.04058337837
678.125 0.01807116718 0.04390312872
678.75 0.04468272557 0.07383803306
679.375 0.06005763631 0.0985407895
680.0 0.06112724815 0.09292062766
680.625 0.07104337274 0.05693667026
681.25 0.1000528651 0.03117071002
681.875 0.1245307004 0.008975224366
682.5 0.08411651268 -0.02873302749
683.125 0.07631006178 -0.0398386307
683.75 0.04922781868 -0.001164207654
684.375 0.05184741132 0.04813781507
685.0 0.01787545615 0.06314238398
685.625 -0.03697787241 0.05738190871
686.25 -0.06023937762 0.001383220798
686.875 -0.07976472811 -0.02992806168
687.5 -0.08751811893 -0.03951576028
688.125 -0.1254817552 -0.05179182855
688.75 -0.09545294923 -0.06858296465
689.375 -0.08069946046 -0.05635497875
690.0 -0.08631023444 -0.04982096345
690.625 -0.09270291943 -0.05259187898
691.25 -0.09207147859 -0.03734699157
691.875 -0.05087077739 0.01271578705
692.5 -0.04019198087 0.02240544292
693.125 -0.03877549022 0.06831086552
693.75 0.003001280399 0.1294428835
694.375 -0.001816369699 0.08906150649
695.0 -0.01649774343 0.09926794738
695.625 -0.09349970373 0.07623577321
696.25 -0.1067857189 -0.05215688226
696.875 -0.04365300574 -0.1131237918
697.5 0.0386349104 -0.0762473094
698.125 0.04949692143 -0.05632600529
698.75 0.04045128868 -0.04346421157
699.375 0.05263832177 -0.02295266467
700.0 0.0793885977 -0.005686648706
700.625 0.07011800665 0.02718895104
701.25 0.06136396053 0.03104557596
701.875 0.09607932615 0.0258533782
702.5 0.1368865711 -0.0318740551
703.125 0.08975341306 -0.07984497025
703.75 -0.01832107201 -0.08708927491
704.375 -0.06391373415 -0.0558567776
705.0 -0.0008561027565 -0.07955721941
705.625 0.02648640326 -0.07623654513
706.25 0.04465796689 -0.04000100735
706.875 0.0571972552 0.008716206115
707.5 0.02420284461 0.0731558319
708.125 -0.03159754333 0.0892252522
708.75 -0.06175321201 0.07990354386
709.375 -0.08852353202 0.03599098867
710.0 -0.08865163275 -0.01290285529
710.625 -0.06604833901 -0.0555623771
711.25 -0.08365336355 -0.07337197316
711.875 -0.0992790915 -0.05880788354
712.5 -0.0663410639 -0.01172460089
713.125 -0.0406247053 0.03592070247
713.75 -0.02561126909 0.05257705012
714.375 -0.0440569714 0.0594597791
715.0 -0.01367975255 0.06033952458
715.625 -0.05066629646 0.06173039936
716.25 -0.07304761343 0.06571488126
716.875 -0.1094548547 0.0294118499
717.5 -0.0958057186 -0.01725322068
718.125 -0.07852809691 -0.02487581165
718.75 -0.06640158317 -0.05100645552
719.375 -0.02978317101 -0.08759163226
720.0 0.01190053516 -0.07758493079
720.625 0.03411974599 -0.06339098147
721.25 0.04139327819 0.01512270557
721.875 -0.002859119031 0.02494787595
722.5 -0.02643149692 0.03133477585
723.125 -0.07987815821 0.0545981914
723.75 0.001055696298 0.09734397099
724.375 0.06846557559 0.05799741937
725.0 0.08336486494 -0.004647823382
725.625 0.045830827 -0.05141077915
726.25 0.07478220835 -0.01517901871
726.875 0.05389485475 -0.01698204026
727.5 0.0458638617 0.01074655295
728.125 0.02930242962 0.01992668979
728.75 0.01482592557 0.0520185481
729.375 0.03219683344 0.04157118706
730.0 0.03998936195 0.03672477841
730.625 0.01514819839 0.05156325291
731.25 -0.0003856341379 0.02699440079
731.875 -0.06082880065 0.03324940774
732.5 -0.06997012709 -0.004986790716
733.125 -0.04285738742 -0.01531850789
733.75 -0.01716960022 0.01465143821
734.375 -0.0283614147 -0.01661043301
735.0 -0.03261198994 -0.009472950003
735.625 -0.03340150113 -0.009638336686
736.25 -0.01073056696 -0.0172242575
736.875 -0.05984413098 -0.02058797788
737.5 -0.07693695657 -0.02576092623
738.125 -0.07052941198 -0.02942823667
738.75 -0.02033188097 0.003276540781
739.375 -0.03562341619 -0.04845876149
740.0 -0.01838421181 -0.04286219951
740.625 -0.01647139261 -0.03278690475
741.25 -0.01128649149 -0.01805979933
741.875 0.009945378705 -0.01950498004
742.5 0.03339933376 0.006432750122
743.125 -0.01278372795 0.02327248679
743.75 -0.02243849729 0.01218969801
744.375 -0.03691921112 0.04029697915
745.0 -0.04224909924 0.03522212713
745.625 -0.04406206458 0.05827102555
746.25 -0.003327926094 0.07236872653
746.875 0.02590927018 0.04596084944
747.5 0.03822181172 0.009424216779
748.125 0.03190749604 -0.006167173754
748.75 0.02661980438 0.005656696376
749.375 0.02934969932 -0.003988501559
750.0 -0.01193474958 -0.03237690589
