!Created with skrf (http://scikit-rf.org).
# GHz S RI R 50.0 
!freq ReS11 ImS11
500.0 -0.02038101693 0.02523367668
500.625 0.01655852369 0.0328195671
501.25 0.02744853114 0.02322383086
501.875 0.01768128882 0.03853061221
502.5 -0.000922120151 0.06572274779
503.125 0.03126094198 0.02976338609
503.75 0.04152548557 0.01040665448
504.375 0.04708845416 -0.0014821357
505.0 0.0635075545 -0.0161426249
505.625 0.04552414779 -0.05781587651
506.25 0.03974290262 -0.0534484694
506.875 0.05754144074 -0.04473210801
507.5 0.06036250031 -0.03211961172
508.125 0.07352264726 -0.01581108725
508.75 0.04799448059 -0.0462446368
509.375 0.03461417471 -0.04450327328
510.0 0.06774743283 -0.03144443435
510.625 -0.005362230138 -0.06774991384
511.25 -0.0306951881 -0.05222386526
511.875 -0.04813283746 -0.01083444288
512.5 -0.03864847584 -0.008190886154
513.125 -0.01554655965 0.03513812235
513.75 -0.03008067074 0.03594587447
514.375 -0.02697367246 0.06965781734
515.0 0.03202595024 0.06388514846
515.625 -0.03898263967 0.08531751875
516.25 0.02105039115 0.1070211651
516.875 -0.05892594054 0.1180447434
517.5 0.0295215955 0.1070185776
518.125 -0.05086799184 0.1170198363
518.75 0.02434441574 0.04630440393
519.375 -0.01121341897 0.09053187965
520.0 0.05518500833 0.0503855724
520.625 0.05742231865 0.04189813318
521.25 0.0584637129 0.02455909608
521.875 0.02870558072 0.0535295915
522.5 0.06420690763 0.002620499978
523.125 0.1108227762 -0.01967950576
523.75 0.09806214392 -0.03831156274
524.375 0.05036798995 -0.007408808422
525.0 0.006551981177 -0.0145775383
525.625 -0.002111917344 0.01564649304
526.25 0.004886232094 0.04095523792
526.875 0.01323875396 0.0468067611
527.5 0.01763770644 0.01220549267
528.125 0.0328898624 0.006155567276
528.75 0.05730331094 -0.004408286404
529.375 0.06053813459 -0.03514420208
530.0 0.03000180671 -0.0250276167
530.625 0.01493951718 -0.08634728417
531.25 0.02912208562 -0.1603825682
531.875 -0.044964017 -0.1649280099
532.5 -0.08046124292 -0.07619171178
533.125 -0.06411504049 -0.047145464
533.75 -0.06568642878 -0.05929262872
534.375 -0.07430734371 -0.05395731506
535.0 -0.05020011962 -0.005101660167
535.625 -0.02669886216 -0.03053212772
536.25 -0.02918835001 -0.0377571614
536.875 -0.04357401243 -0.0703433092
537.5 -0.04118208843 -0.08954538671
538.125 -0.06500938761 -0.06513173452
538.75 -0.05296023505 -0.03373429977
539.375 -0.03763213528 -0.05874106722
540.0 -0.03003149236 -0.06735330322
540.625 -0.05035361026 -0.1121064248
541.25 -0.03456230978 -0.08957567481
541.875 -0.04507807273 -0.08792723089
542.5 -0.05007230586 -0.09779236553
543.125 -0.08808198062 -0.06435335606
543.75 -0.09239818776 0.01369548445
544.375 -0.07173044664 0.03533691091
545.0 -0.01588186952 0.04223491122
545.625 -0.01580100452 0.05332615798
546.25 0.00833453996 0.07230000433
546.875 0.01429901365 0.07439328131
547.5 0.01367680324 0.06001109861
548.125 -0.002338865191 0.06883246974
548.75 -0.01640101782 0.06510297462
549.375 -0.03224654969 0.07906714115
550.0 -0.01658900532 0.01912584137
550.625 -0.01260290879 -0.007722451677
551.25 -0.01517789233 -0.03651151541
551.875 -0.06255955953 -0.04703473523
552.5 -0.05581249871 -0.04887930542
553.125 -0.06476058808 -0.03128743017
553.75 -0.07684405889 -0.03148970932
554.375 -0.1053795552 0.00596949736
555.0 -0.07772831221 0.01132236385
555.625 -0.07375802273 0.02410976547
556.25 -0.08936982115 0.01813805917
556.875 -0.0969296481 0.01340475438
557.5 -0.09255780243 0.0300372788
558.125 -0.07481398227 0.02274766414
558.75 -0.06431305385 0.003671314765
559.375 -0.04771395824 -0.00319317423
560.0 -0.01182786005 -0.008670691076
560.625 -0.02779079379 -0.03628691741
561.25 -0.05570058267 -0.04161863964
561.875 -0.08142068226 -0.02257713622
562.5 -0.07226837042 0.01470970097
563.125 -0.07242188784 0.04495498853
563.75 -0.05936734616 0.07669535174
564.375 -0.02896931954 0.08988739832
565.0 -0.01979010558 0.06224591264
565.625 -0.01821416119 0.05667054314
566.25 -0.0432000087 0.03689495974
566.875 -0.05802275055 0.0233629521
567.5 -0.06238812411 0.01577349008
568.125 -0.06291782694 0.005480186701
568.75 -0.04198111802 -0.002410558189
569.375 -0.02370372185 -0.01886506771
570.0 -0.02723559997 -0.03439368177
570.625 -0.0360383168 -0.05068304943
571.25 -0.04086806256 -0.03909538088
571.875 -0.055342309 -0.03867520298
572.5 -0.08982378777 -0.01563946531
573.125 -0.1103360601 0.01798799905
573.75 -0.06409288843 0.05603361607
574.375 -0.03605485242 0.06701526973
575.0 -0.04850908452 0.05492993667
575.625 -0.05832486147 0.05911236685
576.25 -0.03721060074 0.06613896207
576.875 -0.009274308452 0.08205371121
577.5 -0.01628343594 0.0550150874
578.125 -0.01798682527 0.04441073143
578.75 -0.01369061976 0.03945988951
579.375 -0.01389445152 0.04124283316
580.0 -0.0204671664 0.03346058577
580.625 -0.03394145955 0.008294703785
581.25 -0.05647237938 0.009070634478
581.875 -0.07651706607 0.02459266162
582.5 -0.07740833104 0.04746351461
583.125 -0.06787586137 0.0286112716
583.75 -0.06301486372 0.01851532045
584.375 -0.07109645387 0.01385845744
585.0 -0.07938034802 0.01492134101
585.625 -0.0607548979 0.01549975302
586.25 -0.05732319635 0.007816279594
586.875 -0.05980765398 -0.00137380859
587.5 -0.05791860792 0.02059851639
588.125 -0.03630412372 0.03204015393
588.75 -0.03186067727 0.02961819986
589.375 -0.03867836733 0.01942376436
590.0 -0.03767532651 0.02776361779
590.625 -0.06299980398 0.0444543497
591.25 -0.05349005166 0.07731435386
591.875 -0.02921688917 0.0872068301
592.5 0.003125606355 0.07720751172
593.125 -0.017273743 0.05290888791
593.75 -0.02696217409 0.054622117
594.375 -0.03442497458 0.04257283835
595.0 -0.02816190183 0.03791114473
595.625 -0.02837151047 -0.01623158963
596.25 -0.03024201763 -0.02596625458
596.875 -0.03257139623 -0.02085587598
597.5 -0.03590084157 -0.009871735756
598.125 -0.01039848521 -0.0345254424
598.75 -0.01723835473 -0.02656468854
599.375 -0.01137697088 -0.04294750135
600.0 -0.02119745233 -0.04484936029
600.625 -0.02528715123 -0.07455983213
601.25 -0.03242061042 -0.07772669599
601.875 -0.050271562 -0.0512041383
602.5 -0.05667392451 -0.0178858088
603.125 -0.03096363975 -0.05565406838
603.75 -0.02807800395 -0.02997113335
604.375 -0.01709256765 -0.01971582403
605.0 -0.007205434199 -0.03613087405
605.625 -0.01510809693 -0.03834814771
606.25 -0.006941643266 -0.03962065034
606.875 -0.006496787794 -0.01986691467
607.5 0.01324161571 -0.008120248541
608.125 0.01395943003 -0.008973029023
608.75 0.02778143328 -0.02177423885
609.375 0.02489693818 -0.0135205546
610.0 0.0396942359 -0.008239287219
610.625 0.03741540108 -0.0122182714
611.25 0.05126379292 -0.02106058305
611.875 0.04723000599 -0.0196057103
612.5 0.0412654825 -0.009015375041
613.125 -0.001177843804 -0.01184270975
613.75 0.03313611813 0.02206361652
614.375 0.0277506897 0.02494034243
615.0 0.02451745855 0.02071368544
615.625 0.001213214381 0.004647539166
616.25 0.0104093803 0.02264352374
616.875 0.02082395524 0.03581342724
617.5 0.03080914653 0.04566451807
618.125 0.001741854114 0.02069565489
618.75 0.02790171759 0.04208259647
619.375 0.02391575966 0.04280429457
620.0 0.03415715151 0.03896766478
620.625 0.01271994266 0.0003719761153
621.25 0.02893113006 0.01032953676
621.875 -0.002791432743 -0.006112956468
622.5 -0.02335852454 0.01607903405
623.125 -0.0432854603 0.03942023825
623.75 -0.01442530911 0.06582311717
624.375 -0.02854074222 0.05062861748
625.0 -0.04808209574 0.02684297106
625.625 -0.05239955297 0.03721177161
626.25 -0.04759750262 0.04618634182
626.875 -0.01977253391 0.05725811033
627.5 -0.01615386495 0.03893698967
628.125 -0.02361659457 0.02943690289
628.75 -0.02850376959 -0.004715817951
629.375 -0.02444388756 0.01785232175
630.0 -0.01290866344 0.01441823554
630.625 -0.003900960754 -0.01680253179
631.25 0.001552962896 -0.03757807869
631.875 -0.002809110492 -0.04985418929
632.5 -0.00910408907 -0.05498263406
633.125 -0.01589445288 -0.0606887598
633.75 -0.01433552353 -0.07398991922
634.375 -0.04566256883 -0.04473219832
635.0 -0.04134292643 -0.05201870567
635.625 -0.03786729214 -0.04579195039
636.25 -0.02791710189 -0.03269254837
636.875 -0.008221943103 -0.05580921153
637.5 -0.03638281584 -0.0506892842
638.125 -0.04231660871 -0.0374573562
638.75 -0.02731415526 -0.0204214179
639.375 0.02480402072 -0.03241064807
640.0 0.02676481525 -0.02642861581
640.625 0.04366182132 -0.02439141235
641.25 0.04723792163 -0.0288229157
641.875 0.06677528139 -0.01909659782
642.5 0.05776447533 0.0008733056655
643.125 0.05573591211 0.01583343935
643.75 0.05756248767 0.002436364644
644.375 0.06734085938 0.004198972135
645.0 0.04026841893 -0.0005663254829
645.625 0.03115793042 0.007690374104
646.25 0.05053542088 0.02319253991
646.875 0.08176628409 0.04102351089
647.5 0.05199227253 -0.0004638331451
648.125 0.04554872712 0.01609720091
648.75 0.05079146174 0.05474668501
649.375 0.04380911139 0.08541409803
650.0 0.04369675932 0.05867020558
650.625 0.03414598291 0.0669692348
651.25 0.002370283518 0.07607196812
651.875 -0.02960710785 0.06267725101
652.5 -0.03370781456 0.04935896765
653.125 -0.02651475753 0.03423529973
653.75 -0.03743762863 0.004533347947
654.375 -0.03228558344 -0.04076755956
655.0 -0.01480160104 -0.0342501902
655.625 -0.04074851453 -0.05913530993
656.25 -0.0723302544 -0.06959624313
656.875 -0.07744825963 -0.04439285274
657.5 -0.08171191224 -0.05633138415
658.125 -0.08077168756 -0.04517683049
658.75 -0.09439814491 -0.0299642029
659.375 -0.08113482673 0.01435557846
660.0 -0.07890714949 0.0308118415
660.625 -0.03743037088 0.03093269401
661.25 -0.04041122925 0.01691776274
661.875 -0.03825886536 0.02725721048
662.5 -0.05444054212 0.03289219749
663.125 -0.06837646563 0.006837798061
663.75 -0.05805924596 -0.03137079763
664.375 -0.04549017572 -0.06073246343
665.0 -0.02404333994 -0.08998221565
665.625 0.01899050797 -0.09631195279
666.25 0.02934382361 -0.08355283339
666.875 0.04979217803 -0.09231731126
667.5 0.04535702906 -0.06887938501
668.125 0.0504444342 -0.04962212812
668.75 0.03629519404 -0.0371713782
669.375 0.05348646548 -0.02476306822
670.0 0.06881835899 -0.02744681372
670.625 0.07233651028 -0.01777200254
671.25 0.06239708106 -0.02613809175
671.875 0.0672936182 -0.03803459188
672.5 0.06231063263 -0.09545643408
673.125 0.03311208147 -0.09639873586
673.75 0.008871483407 -0.0931023498
674.375 0.03410211366 -0.09168357085
675.0 0.0408583705 -0.03819817097
675.625 0.05885126602 -0.0285233813
676.25 0.05733204284 -0.008165752111
676.875 0.07399269948 0.02157864583
677.5 0.02018518695 0.03550470291
678.125 0.03057102982 0.04888431402
678.75 0.04513085504 0.07978703546
679.375 0.05244605027 0.1065698117
680.0 0.05308665925 0.09275143543
680.625 0.06058788608 0.06013150707
681.25 0.09026644921 0.03822030466
681.875 0.1049188541 0.01522412518
682.5 0.09466673319 -0.02480455088
683.125 0.06618363808 -0.02640737601
683.75 0.06812586797 0.0003303588901
684.375 0.04841605905 0.05650354696
685.0 0.002792349378 0.05694208422
685.625 -0.04349524858 0.04764294977
686.25 -0.06213013782 -0.003016243681
686.875 -0.07773685316 -0.04068995879
687.5 -0.08836248356 -0.05093039703
688.125 -0.1194880005 -0.06374278325
688.75 -0.08052282288 -0.07679613071
689.375 -0.07072507553 -0.05859910787
690.0 -0.06847566453 -0.05141116886
690.625 -0.1050112906 -0.05569501658
691.25 -0.05653103546 -0.03241166188
691.875 -0.04897665252 0.007982783653
692.5 -0.03968514271 0.01978171909
693.125 -0.04108864286 0.07783897864
693.75 -0.01330123135 0.1272804319
694.375 0.006443700439 0.1012312213
695.0 -0.02941319683 0.09329227627
695.625 -0.09553701073 0.05108315906
696.25 -0.1180145837 -0.05079257963
696.875 -0.01443519968 -0.0964941651
697.5 0.03692666823 -0.0948925406
698.125 0.05625944984 -0.06897891648
698.75 0.04285707488 -0.05115209151
699.375 0.05857628751 -0.0164682162
700.0 0.07756276081 0.007279180135
700.625 0.06262810598 0.03595311584
701.25 0.06543283157 0.02755804599
701.875 0.08139562793 0.0507699905
702.5 0.1344005961 -0.001579589017
703.125 0.087125526 -0.07129760207
703.75 -0.02155385675 -0.09086317295
704.375 -0.03538651774 -0.05920107638
705.0 -0.02432741321 -0.09051183659
705.625 0.03546745394 -0.06890273533
706.25 0.05234446989 -0.0307350143
706.875 0.05669741907 0.01550818565
707.5 -0.008352309079 0.08040201453
708.125 -0.05148665809 0.08192948683
708.75 -0.07682876826 0.06769603187
709.375 -0.09018251592 0.039241344
710.0 -0.06803943996 -0.04247291923
710.625 -0.0688121907 -0.05349389628
711.25 -0.05852778145 -0.08516531049
711.875 -0.08609610902 -0.06631002705
712.5 -0.06019505895 -0.02082571791
713.125 -0.04525686814 0.02227669737
713.75 -0.04687012337 0.03051636457
714.375 -0.02755698114 0.06892717045
715.0 -0.04737047229 0.04974875757
715.625 -0.03315200429 0.0616856668
716.25 -0.07500262799 0.07229462415
716.875 -0.1194933267 0.01959065507
717.5 -0.09516222098 -0.01296225377
718.125 -0.05804411595 -0.06099418416
718.75 -0.05353497338 -0.06817626673
719.375 -0.03214844062 -0.07722415258
720.0 0.007547059251 -0.0804775202
720.625 0.05010661282 -0.03724306831
721.25 0.0347922842 0.028025673
721.875 -0.0153408169 0.03115735389
722.5 -0.02576177383 0.02743785633
723.125 -0.07254456013 0.05541934513
723.75 -0.02688148432 0.1089953846
724.375 0.06156165411 0.05499339558
725.0 0.06151396955 -0.02076781263
725.625 0.07273060165 -0.02673241201
726.25 0.05991005123 -0.03303099945
726.875 0.04618529542 -0.02477097368
727.5 0.04136320488 0.006144329505
728.125 0.02521961856 0.01708973862
728.75 -0.01349632414 0.08354441256
729.375 0.0265842923 0.06505847664
730.0 0.03375597403 0.03719341273
730.625 0.01393757249 0.03556063002
731.25 -0.02330684354 0.04693152936
731.875 -0.04376991804 0.02636565164
732.5 -0.05420506708 -0.0009950211611
733.125 -0.04788030927 -0.02668383116
733.75 -0.03679247002 -0.01495943501
734.375 -0.02839352082 -0.03461544623
735.0 -0.03959527818 -0.03164171515
735.625 0.001694861785 -0.01011067916
736.25 -0.05291849895 -0.01816109941
736.875 -0.06080019352 -0.02571024177
737.5 -0.06631541499 -0.03602491632
738.125 -0.05689148763 -0.0226204706
738.75 -0.04503567858 -0.02055207027
739.375 -0.01389525925 -0.01314498254
740.0 -0.006070943061 -0.03350575846
740.625 -0.02527235673 -0.03691139384
741.25 0.002247021396 -0.01792034494
741.875 0.01229962033 -0.062393637
742.5 0.03172004416 0.003934121388
743.125 0.006138637472 0.03549614356
743.75 -0.0405384537 0.003945107849
744.375 -0.03604047847 0.03851760239
745.0 -0.04309199659 0.03788939817
745.625 -0.04021280334 0.05706426755
746.25 -0.03333909093 0.06631705045
746.875 0.06220552319 0.05660684206
747.5 0.03998206088 0.003474719193
748.125 0.01447804744 0.01081048712
748.75 0.019385659 0.008071010465
749.375 0.03315518667 0.007429123327
750.0 -0.01003028244 -0.03100371316
