!Created with skrf (http://scikit-rf.org).
# GHz S RI R 50.0 
!freq ReS11 ImS11
500.0 -0.003614323566 0.008345788081
500.625 0.009129839199 0.004220078707
501.25 0.008615434531 -0.02031355417
501.875 -0.01169634289 -0.03113562371
502.5 -0.007761499138 -0.01280855737
503.125 0.0008967472998 -0.0009748786111
503.75 -5.991129446e-05 -0.01151273985
504.375 -0.007100924226 -0.01898461862
505.0 -0.005685689772 -0.02008572933
505.625 -0.008010052401 -0.03059423444
506.25 -0.0312403156 -0.03959611789
506.875 -0.03631138662 -0.07421912175
507.5 -0.04900963308 -0.04991901757
508.125 -0.0326101804 -0.05985291958
508.75 -0.08351145955 -0.03715403822
509.375 -0.0828208013 -0.0213936403
510.0 -0.05708484689 -0.02317332095
510.625 -0.03395171213 0.01969604661
511.25 -0.05531348076 0.03556209014
511.875 -0.03417732304 0.05953701359
512.5 0.01079753469 0.04930263246
513.125 0.07258148902 0.0105981698
513.75 0.09318184771 -0.009365733038
514.375 0.0673686989 -0.03363487617
515.0 0.03820608327 -0.05036713878
515.625 0.08342961296 -0.02577755726
516.25 0.08243417757 -0.04387982164
516.875 0.08884747316 0.05066346528
517.5 0.1059387431 -0.03152789276
518.125 0.2017778551 0.104782898
518.75 0.1050194483 -0.06625319837
519.375 0.07422906302 -0.03735476024
520.0 0.04642618134 -0.06912043612
520.625 0.06846178644 -0.1042823188
521.25 0.03991927625 -0.1051263632
521.875 0.04517725574 -0.05034571496
522.5 0.009729270136 -0.09065536709
523.125 0.04062640207 -0.2345133494
523.75 -0.008421290525 -0.3003522946
524.375 -0.01050023271 -0.2895897266
525.0 -0.02173990674 -0.1436241563
525.625 -0.01467151683 -0.1134976582
526.25 0.01108312416 -0.08953947612
526.875 -0.01663570024 -0.07882237467
527.5 -0.0543135719 -0.0858445843
528.125 -0.06772447374 -0.0488300799
528.75 -0.07297149375 -0.03498551335
529.375 -0.1200199457 0.03720909944
530.0 -0.08305621643 0.1063737096
530.625 0.00810518525 0.1028185641
531.25 0.001895562415 0.07310278884
531.875 -0.01465416168 0.1149659926
532.5 -0.02064799062 0.1664087576
533.125 -0.01052395056 0.1288219978
533.75 0.02330205388 0.0910571074
534.375 0.03459458431 0.1056595171
535.0 0.03877924092 0.1353560301
535.625 -0.003888531771 0.1033431628
536.25 0.06613590688 0.06047344995
536.875 0.05528456732 0.08218444256
537.5 -0.01243672404 0.09585259629
538.125 -0.008967321195 0.08293408609
538.75 0.03794104368 0.1116383815
539.375 0.01407790765 0.154450584
540.0 0.01945203801 0.1236244667
540.625 0.01553914427 0.09458434871
541.25 0.02133614854 0.111998668
541.875 1.013291136e-05 0.1196598569
542.5 -0.02719629564 0.05847008151
543.125 -0.009092141521 0.06290839308
543.75 0.05792478454 0.09633098005
544.375 0.09502571259 0.1079968162
545.0 0.1147253704 0.005205233372
545.625 0.08377337184 -0.06507697138
546.25 0.06854196759 -0.1137493699
546.875 0.07353244429 -0.1028012731
547.5 0.08126450925 -0.09343139629
548.125 0.1090489241 -0.1060175997
548.75 0.1521806732 -0.0729654702
549.375 0.1595416263 -0.03286161225
550.0 0.1527165201 0.01432241848
550.625 0.187693359 0.01400060901
551.25 0.1242068247 0.08570470073
551.875 0.09226168745 0.03470833037
552.5 0.08663252915 0.003283199901
553.125 0.1127807152 -0.008789675607
553.75 0.0805776007 0.03459028375
554.375 0.05126623444 0.01397242631
555.0 0.0650314817 0.006675244042
555.625 0.09852536674 -0.001362138762
556.25 0.08791372595 0.03473201644
556.875 0.05541314261 0.03488868443
557.5 0.07175264645 0.04019576976
558.125 0.08641703287 0.07802209612
558.75 0.04935362513 0.1062233677
559.375 0.07108676631 0.08877953154
560.0 0.09887826406 0.08160343828
560.625 0.09876970956 0.05956169325
561.25 0.0780900879 0.01835351051
561.875 0.07667426699 -0.002455468139
562.5 0.08292785505 -0.006005720334
563.125 0.0759855589 -0.008038689504
563.75 0.05932699067 -0.0159949106
564.375 0.07079901408 -0.04648284631
565.0 0.1333895347 -0.04119383003
565.625 0.1125563772 -0.03409109204
566.25 0.09534020868 -0.02452581285
566.875 0.1039357129 -0.02388584913
567.5 0.1183269097 0.02461293979
568.125 0.08093942422 0.06615380696
568.75 0.08879648525 0.06745700366
569.375 0.1031365527 0.07847117997
570.0 0.09937821757 0.07241253701
570.625 0.082328684 0.0474491747
571.25 0.08967300971 0.02154301123
571.875 0.09785313578 0.02003880542
572.5 0.06669128806 -0.006224451777
573.125 0.04850121727 -0.007642789894
573.75 0.07807445956 -0.02507777607
574.375 0.0992334289 -0.04880779964
575.0 0.0737965422 -0.04603966465
575.625 0.03927855012 -0.04825500186
576.25 0.05609606019 -0.0605327431
576.875 0.08205419388 -0.04315818315
577.5 0.08017015262 -0.03555282904
578.125 0.07148415945 -0.05114180067
578.75 0.08990427229 -0.07669266065
579.375 0.1101993147 -0.06015506651
580.0 0.08791662034 -0.05556102561
580.625 0.07460104262 -0.08470960434
581.25 0.06017677655 -0.1017489652
581.875 0.05303559935 -0.06208037441
582.5 0.04261005785 -0.03050187332
583.125 0.0669316592 -0.03827965211
583.75 0.09071858687 -0.03356324997
584.375 0.07794164777 -0.01731565098
585.0 0.06302034491 -0.003286315259
585.625 0.07910897707 0.003013326726
586.25 0.09219728761 0.01309368272
586.875 0.07076594992 0.001568814571
587.5 0.0675682639 -0.01772877348
588.125 0.08552454668 -0.04068966747
588.75 0.09571401662 -0.04330757555
589.375 0.06178935703 -0.07211379582
590.0 0.008936445908 -0.1003764024
590.625 -0.007413839878 -0.09547804883
591.25 0.008807978985 -0.04693652731
591.875 0.0205001232 -0.02689400822
592.5 0.02555677144 -0.05019306589
593.125 0.04360401207 -0.07322300135
593.75 0.05826694251 -0.05112712969
594.375 0.06250880554 -0.02690155115
595.0 0.08196984221 -0.01970142321
595.625 0.09622782649 0.001371101055
596.25 0.07903632429 0.01975191554
596.875 0.0629674785 0.02706573471
597.5 0.06782757346 0.03901816227
598.125 0.07516242647 0.04173816244
598.75 0.08253490245 0.01705571111
599.375 0.0830809253 -8.265686733e-05
600.0 0.07260681983 -0.00430772207
600.625 0.04844414563 -0.004073179509
601.25 0.02862120142 -0.006330795186
601.875 0.02446358535 0.007473059396
602.5 0.01941075487 0.02301920877
603.125 0.008227793852 0.03130599511
603.75 0.01259966774 0.03645033529
604.375 0.02549219168 0.04245930834
605.0 0.02079708387 0.04073005468
605.625 0.002004197649 0.02664203297
606.25 -0.01577781108 0.02867879384
606.875 -0.02184155867 0.04764568918
607.5 -0.007232050581 0.05973982361
608.125 0.01671700338 0.04652241108
608.75 0.0198438468 0.03555782386
609.375 0.01522496177 0.03666965155
610.0 0.01413317446 0.03310555848
610.625 0.01891367274 0.01878555687
611.25 0.01527740093 0.005340055368
611.875 0.008154989184 -0.005852507921
612.5 -0.002167918042 -0.01470297247
613.125 -0.01324246357 -0.01264080587
613.75 -0.01588127364 -0.001897611605
614.375 -0.005201016571 0.003580534576
615.0 0.002964133905 -0.003937037163
615.625 0.001139613385 -0.011759783
616.25 -0.005618475389 -0.005154016239
616.875 0.003270382189 0.004812092016
617.5 0.01696007508 0.001123337429
618.125 0.02515463909 -0.005818121994
618.75 0.02473084249 -0.005673432962
619.375 0.03445628186 -0.000974754065
620.0 0.05186206955 -0.00877056615
620.625 0.05513304202 -0.03548592322
621.25 0.04857697082 -0.04501509019
621.875 0.03551775895 -0.05453920228
622.5 -0.01768830106 -0.04855382717
623.125 -0.01529867179 -0.02137346671
623.75 0.001863737963 -0.0074004292
624.375 0.02116284528 -0.002118355752
625.0 0.02735239868 0.01163633497
625.625 0.02537996938 0.02096231587
626.25 0.03931824226 0.02885870605
626.875 0.06815399965 0.03368091239
627.5 0.07163924457 0.04760896828
628.125 0.06043634164 0.0453249269
628.75 0.06253319246 0.0461658532
629.375 0.07411359482 0.06114308918
630.0 0.06265081703 0.07638075696
630.625 0.04610779043 0.06439921519
631.25 0.04648084761 0.05735634037
631.875 0.03698149321 0.06136937303
632.5 0.01792610301 0.057316891
633.125 0.002094281881 0.04802073759
633.75 0.009061169417 0.05840761115
634.375 -0.001809729118 0.06761412974
635.0 -0.005570595713 0.06581940513
635.625 0.002683803841 0.07557577398
636.25 0.01550113282 0.09522520538
636.875 0.003548024228 0.09182345795
637.5 -0.006137871385 0.0654163115
638.125 -0.01195484818 0.08259863901
638.75 -0.03251960939 0.1196182727
639.375 -0.06047381178 0.09567337723
640.0 -0.05381931312 0.05560788657
640.625 -0.05647039324 0.05056812055
641.25 -0.09301542033 0.03170662565
641.875 -0.08680617329 -0.0056850614
642.5 -0.07204751625 -0.006544660303
643.125 -0.0842783878 -0.004704243762
643.75 -0.09951756181 -0.03622390367
644.375 -0.09102704645 -0.05338663706
645.0 -0.0942122816 -0.02306132405
645.625 -0.119789004 -0.007090189114
646.25 -0.1143916072 -0.009939768984
646.875 -0.08662139803 -0.03166385911
647.5 -0.08330268781 -0.02519260867
648.125 -0.1071877949 -0.02994855647
648.75 -0.08059056223 -0.05018140935
649.375 -0.04496767114 -0.04798704692
650.0 -0.02746428078 -0.06530844802
650.625 0.006844792459 -0.09102284743
651.25 0.04198744212 -0.08073143376
651.875 0.06021372517 -0.05761994753
652.5 0.1004880399 -0.0546828927
653.125 0.1467164192 -0.01046775284
653.75 0.1303221488 0.01312285977
654.375 0.1242335448 0.009516933507
655.0 0.1405788379 0.02182165309
655.625 0.1172682216 0.05085746577
656.25 0.07551719827 0.02937742727
656.875 0.08779619548 -0.004379373967
657.5 0.1076153992 0.01894632731
658.125 0.08322662478 0.04893367474
658.75 0.05182601422 0.05036952587
659.375 0.08272909781 0.02825208815
660.0 0.1305353067 0.01452892243
660.625 0.1325397142 0.002713036998
661.25 0.1193547633 -0.02476905811
661.875 0.1172249818 -0.07547106293
662.5 0.1166511931 -0.1020781701
663.125 0.1108314725 -0.07540596608
663.75 0.1150905368 -0.04095001731
664.375 0.1260256666 0.05081012134
665.0 0.05331396472 0.09323693649
665.625 0.01576629069 0.08253221891
666.25 0.002538634055 0.08728205534
666.875 -0.06790662223 0.1089384135
667.5 -0.1095053921 0.04963309973
668.125 -0.09156182365 0.04668421392
668.75 -0.08492850775 0.09274577464
669.375 -0.1127627036 0.1136424667
670.0 -0.1148996699 0.0598951793
670.625 -0.08735756206 0.0432337973
671.25 -0.08277650122 0.09706795321
671.875 -0.07059296037 0.12374399
672.5 -0.02672446944 0.1134631678
673.125 -0.009240647002 0.08966959256
673.75 -0.02107239839 0.1051579774
674.375 -0.05926668568 0.1072776824
675.0 -0.08564850674 0.07829664379
675.625 -0.1147593003 0.05809473763
676.25 -0.1443484977 -0.009241050555
676.875 -0.1357446704 -0.03765856572
677.5 -0.1342548902 -0.01869553235
678.125 -0.166561654 0.002834353096
678.75 -0.1467902446 -0.04928348821
679.375 -0.07672494303 -0.04548521143
680.0 -0.07017833771 -0.02618210129
680.625 -0.1090713041 -0.02514478381
681.25 -0.1232209876 -0.04371078522
681.875 -0.08172048545 -0.04351190797
682.5 -0.09426628677 -0.0007496282677
683.125 -0.14056742 0.02678180196
683.75 -0.1707852199 -0.008664156395
684.375 -0.1113510503 -0.09271991573
685.0 -0.04014849768 -0.1291958551
685.625 0.05188318493 -0.154676415
686.25 0.1086395316 -0.1222794217
686.875 0.1166914199 -0.09232073864
687.5 0.1270733447 -0.05174574561
688.125 0.1069591298 -0.005933179169
688.75 0.07975424062 0.02555392942
689.375 0.08675132138 0.03285894903
690.0 0.1137982333 0.07585393663
690.625 0.08275614392 0.09691832172
691.25 0.09755302375 0.06372047256
691.875 0.1394375805 -0.02628348787
692.5 0.1289806786 -0.1697133866
693.125 -0.00163969614 -0.1914544344
693.75 -0.08520725113 -0.09727605588
694.375 -0.1130379521 -0.0752877677
695.0 -0.07678500779 -0.1503839722
695.625 0.08170234844 -0.1295845675
696.25 0.1011505028 0.006060077601
696.875 0.06172144079 0.08699673412
697.5 -0.03104370145 0.1141545942
698.125 -0.08351584838 0.09979888028
698.75 -0.09109096536 0.10416969
699.375 -0.1003795869 0.1053774186
700.0 -0.104837034 0.07544540473
700.625 -0.1091373553 0.04622271802
701.25 -0.1323432281 0.06029035842
701.875 -0.1427354498 0.05398877723
702.5 -0.07406665465 0.05903134114
703.125 -0.03594413068 0.0612770602
703.75 0.02991099371 0.1169319468
704.375 0.08713597196 0.1668222394
705.0 0.06060714101 0.1302590402
705.625 0.02525525731 0.1079355305
706.25 -0.04740166112 0.132689632
706.875 -0.1782914489 0.03934662766
707.5 -0.1348150853 -0.07300845521
708.125 -0.08255608147 -0.08100207639
708.75 -0.03664389457 -0.1090536127
709.375 0.05711121667 -0.09854896998
710.0 0.1001847033 -0.02648779407
710.625 0.08897457207 0.0009379032849
711.25 0.0790027708 0.0265627445
711.875 0.06420210614 0.0387720549
712.5 0.0868227729 0.03622715587
713.125 0.1329810816 -0.04906424312
713.75 0.06247730874 -0.1474795904
714.375 -0.04229022434 -0.1357137854
715.0 -0.1009279413 -0.09129571509
715.625 -0.1152471141 -0.1208280027
716.25 -0.02381021936 -0.1459554775
716.875 0.03163829144 -0.08874337476
717.5 0.0592403717 -0.0560958559
718.125 0.1002195352 -0.03376071182
718.75 0.1072373581 0.01802849154
719.375 0.0623768152 0.04146123821
720.0 0.03028798477 0.05353775947
720.625 -0.04364920475 0.06528607563
721.25 -0.1003776645 -0.02988173983
721.875 -0.04156336929 -0.1057917198
722.5 -0.03202237282 -0.1166541079
723.125 -0.08518607758 -0.09392100693
723.75 -0.1064459463 -0.01284687838
724.375 -0.07411230822 0.04249237737
725.0 -0.02699843858 0.06634917508
725.625 -0.002179219694 0.05427561634
726.25 -0.007420252048 0.03678532629
726.875 -0.03672993482 0.02939303315
727.5 -0.07322022149 0.01883087523
728.125 -0.08351741001 -0.004284401015
728.75 -0.07116020381 0.003989245109
729.375 -0.05259449925 0.02361293749
730.0 -0.05204537389 0.01671094403
730.625 -0.05263791308 0.00220580858
731.25 -0.04102253833 -0.01261682995
731.875 -0.02507905657 -0.02755225826
732.5 -0.0036444776 -0.02781946122
733.125 0.007870354856 -0.007284872097
733.75 0.01590176973 0.004859895695
734.375 0.02668537367 -9.800681816e-05
735.0 0.02405484452 -0.0181793372
735.625 0.01427183934 -0.02030439099
736.25 0.007557760355 -0.0282247284
736.875 -0.00992449753 -0.03073797055
737.5 -0.02644157765 -0.01748762783
738.125 -0.03727475961 0.006092781212
738.75 -0.03345875239 0.02935181003
739.375 -0.01407539795 0.0379347884
740.0 0.0001940109785 0.02533038748
740.625 -0.005985934821 0.02265842573
741.25 -0.01600249254 0.03329831788
741.875 -0.03272271111 0.02132568901
742.5 -0.03490320672 -0.01903694753
743.125 0.004900986906 -0.04271199263
743.75 0.03484755108 -0.03173136775
744.375 0.03297022342 -0.03188844528
745.0 0.02577875743 -0.03954330164
745.625 0.01165774006 -0.03359366119
746.25 0.02588998745 -0.01837756528
746.875 0.02853874736 -0.03961811496
747.5 -0.001329043543 -0.06009297744
748.125 -0.03452283756 -0.05533893551
748.75 -0.06035878196 -0.02623612239
749.375 -0.06567931612 0.0266909357
750.0 -0.0120872875 0.08872264185
