!Created with skrf (http://scikit-rf.org).
# GHz S RI R 50.0 
!freq ReS11 ImS11
500.0 -0.002407655984 0.022415724
500.625 0.02406803508 0.02568736445
501.25 0.02894334691 0.01223280338
501.875 0.0212892236 0.03613124526
502.5 0.01431951838 0.01423562162
503.125 0.02693145799 0.02944906717
503.75 0.043263001 0.01165944855
504.375 0.04895399024 -0.0002433048317
505.0 0.03557053394 -0.02811475884
505.625 0.04326137861 -0.05030903322
506.25 0.03037879671 -0.0623780138
506.875 0.07101413258 -0.04242655484
507.5 0.04313601975 -0.05405170386
508.125 0.07958924464 -0.03584103033
508.75 0.04619707573 -0.06575885176
509.375 0.005799195413 -0.05462908356
510.0 0.04699315836 -0.05035183569
510.625 -0.01458305563 -0.07441347905
511.25 -0.04221359744 -0.05622480679
511.875 -0.05563424583 -0.01486905957
512.5 -0.03836268898 0.0181969651
513.125 -0.01563872594 0.03951529635
513.75 -0.01813612182 0.05271031793
514.375 0.01948539807 0.03844450188
515.0 0.03715273931 0.05696404349
515.625 -0.0237077838 0.09961992774
516.25 0.0435770439 0.1159398427
516.875 0.003011317436 0.1142600342
517.5 0.06595326574 0.1084629223
518.125 -0.03068257812 0.150483887
518.75 0.03708213844 0.06252521519
519.375 0.03180832943 0.06803436946
520.0 0.06601578801 0.06022945487
520.625 0.07464712761 0.0389124253
521.25 0.08034079055 0.02731677789
521.875 0.05280366313 0.02139539093
522.5 0.07876880318 -0.005983003184
523.125 0.1343454838 -0.04731984967
523.75 0.1409590349 -0.08441004012
524.375 0.09574365791 -0.07389701114
525.0 0.01950019961 -0.01445114727
525.625 0.01649754839 0.01295752074
526.25 0.03390784783 0.03972837156
526.875 0.0380632526 0.02510411798
527.5 0.03034196531 0.008261077863
528.125 0.03928426413 -0.01093154668
528.75 0.06736278 -0.04046670119
529.375 0.02116049527 -0.06352320134
530.0 0.008523331641 -0.04193648265
530.625 -0.0184883007 -0.06649782353
531.25 -0.03108313903 -0.1417974149
531.875 -0.08769437752 -0.1384050547
532.5 -0.1142102038 -0.06787442528
533.125 -0.09164120484 -0.02849211248
533.75 -0.1195372241 -0.04245487272
534.375 -0.08683508702 -0.02458280625
535.0 -0.06911691865 0.00670668039
535.625 -0.0500649703 -0.01683348305
536.25 -0.06172197324 -0.01722833948
536.875 -0.05880491161 -0.04586805096
537.5 -0.07255796618 -0.07208789878
538.125 -0.09873288053 -0.03748085749
538.75 -0.09031113984 -0.02149669181
539.375 -0.05923117706 -0.03135128138
540.0 -0.06543533359 -0.05478128344
540.625 -0.1039105629 -0.0789980644
541.25 -0.07094334598 -0.07552264156
541.875 -0.06791436451 -0.06341164184
542.5 -0.07875750622 -0.0720544137
543.125 -0.1214764977 -0.03918899652
543.75 -0.1107758114 0.04490456697
544.375 -0.06039825986 0.06064880142
545.0 -0.002140412862 0.06955687017
545.625 0.01012478096 0.07768263064
546.25 0.04835202237 0.08246539297
546.875 0.04020243449 0.04854233759
547.5 0.05234695211 0.07557322552
548.125 0.03055470616 0.09567485312
548.75 0.01537814352 0.0845713346
549.375 0.01507383909 0.08700507172
550.0 -0.02215974213 0.06201236872
550.625 -0.01986660641 0.02703502957
551.25 -0.03327584951 -0.003359946458
551.875 -0.04342113753 -0.01309249287
552.5 -0.08278560747 -0.01219579085
553.125 -0.07334003485 -0.0006164859925
553.75 -0.08028342519 0.00237025532
554.375 -0.079715408 0.02501228075
555.0 -0.08401684644 0.04829296311
555.625 -0.06375211305 0.05042553321
556.25 -0.07527644684 0.05226910754
556.875 -0.08176998887 0.04154171414
557.5 -0.08653289202 0.05772727735
558.125 -0.08432539235 0.05899549105
558.75 -0.07887566074 0.03935469272
559.375 -0.05285989156 0.0254806248
560.0 -0.03283361792 0.01094605731
560.625 -0.03340481162 -0.006206248201
561.25 -0.06636376447 0.001341297031
561.875 -0.07033693492 -0.002115110364
562.5 -0.06564661627 0.03898994521
563.125 -0.04841116722 0.07152194778
563.75 -0.01941308497 0.1146568503
564.375 -0.004259570436 0.1011432299
565.0 0.001307231536 0.09160209998
565.625 0.01138385256 0.07662915196
566.25 -0.01480688515 0.08812834896
566.875 -0.04327574163 0.03749251411
567.5 -0.05273725119 0.0438427509
568.125 -0.0621543938 0.04443975894
568.75 -0.05983578531 0.03230134194
569.375 -0.04429254975 0.01175677118
570.0 -0.03403821702 -0.008381443741
570.625 -0.05185396905 -0.01309629036
571.25 -0.06218679291 -0.009523428207
571.875 -0.05337806417 -0.01067566227
572.5 -0.07573823431 0.01223923289
573.125 -0.09088557891 0.06142840211
573.75 -0.05248983965 0.08917958557
574.375 -0.0190335888 0.06899855335
575.0 -0.01577510137 0.07370516661
575.625 -0.02644876129 0.08663630557
576.25 -0.01066457627 0.09413317551
576.875 0.003353321161 0.08464361133
577.5 0.01539271477 0.07619217081
578.125 0.004922363549 0.07293154752
578.75 0.008267702387 0.06248974658
579.375 -0.001988378785 0.04215513043
580.0 0.009239617886 0.04863103932
580.625 -0.009098004516 0.0364374595
581.25 -0.03233730776 0.02999710466
581.875 -0.04342528127 0.04710082865
582.5 -0.0533281834 0.07181559731
583.125 -0.05003390078 0.06655739467
583.75 -0.04424931561 0.05501805529
584.375 -0.04812048644 0.05587310639
585.0 -0.07682701661 0.02698016467
585.625 -0.05769466184 0.04923386308
586.25 -0.0487732749 0.04369317708
586.875 -0.05126714161 0.04031341219
587.5 -0.05331242476 0.04768799742
588.125 -0.01776814298 0.06050245694
588.75 3.139977333e-05 0.05542262619
589.375 0.01086284297 0.05044099277
590.0 -0.03258085685 0.03292855315
590.625 -0.03041765281 0.05806072132
591.25 -0.01232759778 0.08150568603
591.875 0.02599083297 0.09419902417
592.5 -6.409909586e-05 0.082052767
593.125 0.0151530057 0.06435897583
593.75 0.01560321047 0.0708516987
594.375 0.003419903596 0.07698125512
595.0 -0.02485580778 0.05354531983
595.625 -0.03246394947 0.0191762882
596.25 -0.04054929169 0.01172457792
596.875 -0.04488339081 0.0172193526
597.5 -0.04387635702 -0.02084434392
598.125 -0.03504854652 -0.0008413514851
598.75 -0.02275230881 0.007144020688
599.375 -0.02050030079 -0.0133255029
600.0 -0.02624055969 -0.03247504271
600.625 -0.04273132608 -0.03784859766
601.25 -0.0601047968 -0.05254645522
601.875 -0.06354348134 -0.01834617563
602.5 -0.06860326987 -0.03214881986
603.125 -0.06894717758 -0.02969108691
603.75 -0.04679219739 -0.019128658
604.375 -0.0348855876 -0.005662707388
605.0 -0.02083351005 -0.0361881762
605.625 -0.02840290297 -0.04013294808
606.25 -0.03657974727 -0.03172900189
606.875 -0.02948412059 -0.01860707185
607.5 -0.01910314434 0.004048340687
608.125 0.0006948098425 -0.01194849786
608.75 0.009716976908 -0.02863424686
609.375 0.007052133814 -0.006113939348
610.0 0.04519875082 -0.02720475334
610.625 0.03613125916 -0.02161449259
611.25 0.0276989073 -0.0225716379
611.875 0.03181182618 -0.02836471328
612.5 0.01958624085 -0.02540823553
613.125 0.0349673292 -0.0161989287
613.75 0.02633218712 -0.004774868037
614.375 0.03371866341 0.00795782029
615.0 0.007311048837 0.00847883275
615.625 0.04726304292 0.007743323188
616.25 0.01676273093 0.00846608091
616.875 0.02329983024 0.02233950615
617.5 0.009866765902 0.03066270777
618.125 0.04639038648 0.02577727481
618.75 0.03625192394 0.02559928993
619.375 0.04229445559 0.03847074746
620.0 0.02376061008 0.02918445582
620.625 0.04400820892 0.005736881915
621.25 0.03054520694 -0.0107827318
621.875 0.009607074854 -0.01280436982
622.5 -0.04029356513 0.01482695972
623.125 0.007688230608 0.02719096294
623.75 0.000617467211 0.05267642515
624.375 -0.01028617226 0.05488127996
625.0 -0.04838877505 0.03681500181
625.625 -0.0208111286 0.06090714068
626.25 -0.03187157403 0.07177152
626.875 -0.02442834652 0.06342125726
627.5 -0.01770089687 0.04938181464
628.125 -0.03212718973 0.0318936731
628.75 -0.03213906992 0.03496998518
629.375 -0.02248417 0.022867069
630.0 -0.01235194982 0.01844774153
630.625 -0.01361678759 -0.01155546382
631.25 -0.01256517882 -0.02124145503
631.875 -0.01378011459 -0.05115204158
632.5 -0.02698336763 -0.05048834431
633.125 -0.03229830894 -0.0688207422
633.75 -0.04953692958 -0.03542653846
634.375 -0.0449248629 -0.03679755027
635.0 -0.06301823079 -0.03257979693
635.625 -0.07026276502 -0.04475974424
636.25 -0.0547229642 -0.003068790638
636.875 -0.04030865566 -0.03834880693
637.5 -0.04693505335 -0.05235590491
638.125 -0.05978106247 -0.04273328126
638.75 -0.04466630631 -0.02945610147
639.375 -0.01905116769 -0.01568678399
640.0 0.01807952768 -0.03481151681
640.625 0.04372513973 -0.04170069031
641.25 0.04743147986 -0.05257672043
641.875 0.03485229782 -0.04595238265
642.5 0.06800912205 -0.03777141511
643.125 0.07349916092 -0.0122934848
643.75 0.07160981714 -0.01746363541
644.375 0.05704532378 -0.0412466428
645.0 0.0561481461 -0.02788758582
645.625 0.04509170235 -0.01241275342
646.25 0.06476659119 -0.0008682359068
646.875 0.05177344616 -0.01695288802
647.5 0.06129776128 -0.01588683272
648.125 0.05541956035 -0.006092990538
648.75 0.07186501973 0.03070484952
649.375 0.05943753872 0.03032624933
650.0 0.06660075525 0.05295387304
650.625 0.06390475323 0.05502575007
651.25 0.04558059846 0.08012373293
651.875 0.01847593574 0.07637909418
652.5 -0.01286444648 0.07535314341
653.125 -0.0203700249 0.06745610653
653.75 -0.03789874974 0.05258278019
654.375 -0.03067869782 0.006813965376
655.0 -0.03041809628 -0.02488264252
655.625 -0.04899030481 -0.02495738062
656.25 -0.09726364486 -0.01627948968
656.875 -0.0763600621 -0.00425935202
657.5 -0.09020344876 -0.01414485312
658.125 -0.1023078207 -0.01708371696
658.75 -0.1243289139 0.0136841947
659.375 -0.1053647593 0.04824502672
660.0 -0.0514024544 0.0658524599
660.625 -0.03920114751 0.0635569144
661.25 -0.0445631346 0.06824586824
661.875 -0.02968698302 0.0667539696
662.5 -0.01665567421 0.05260803471
663.125 -0.03715808306 0.06228467842
663.75 -0.07429757501 0.0146709142
664.375 -0.07373875682 -0.03180701224
665.0 -0.05389576821 -0.06453651088
665.625 -0.04106366429 -0.095283097
666.25 -0.001256301896 -0.1200028157
666.875 0.01262534003 -0.09013385736
667.5 0.01577113286 -0.0964364804
668.125 0.01913168008 -0.0973978258
668.75 0.02343911261 -0.08168559772
669.375 0.02115799223 -0.04397824457
670.0 0.0404399039 -0.05882686532
670.625 0.05638979689 -0.06971871626
671.25 0.0394601911 -0.06602347599
671.875 0.03202652818 -0.06499909534
672.5 0.006682299922 -0.09373792611
673.125 -0.01798989096 -0.1133549332
673.75 -0.04134056571 -0.1109110418
674.375 -0.01395809433 -0.08065889941
675.0 0.02483761625 -0.08169569535
675.625 0.04996107386 -0.06628834363
676.25 0.06698411458 -0.06100762028
676.875 0.05147093771 -0.02680101598
677.5 0.05987119784 0.005316649584
678.125 0.04837982179 0.01854160167
678.75 0.06471934219 0.03490123357
679.375 0.08870149279 0.05299007714
680.0 0.1040490067 0.06620671292
680.625 0.09539585794 0.03545309405
681.25 0.1050363407 -0.004657969544
681.875 0.1274287082 -0.06314586245
682.5 0.08406457979 -0.06418843448
683.125 0.06458065216 -0.06849479948
683.75 0.06519154307 -0.04869242993
684.375 0.09607445599 0.003159271885
685.0 0.0622475326 0.06399255736
685.625 0.00580979815 0.07057782625
686.25 -0.04220369153 0.04899493751
686.875 -0.07920414209 0.02252153914
687.5 -0.09384461559 -0.002075082905
688.125 -0.1214574606 -0.004567934772
688.75 -0.1406140846 -0.02234202613
689.375 -0.116947389 -0.03136013002
690.0 -0.1115800893 -0.01269051588
690.625 -0.1068248138 -0.01090252101
691.25 -0.122375533 0.01793596311
691.875 -0.06445742632 0.04365909107
692.5 -0.006002358305 0.06939255546
693.125 0.002222579469 0.05617789424
693.75 0.06968623651 0.09106134849
694.375 0.06763306213 0.09909409853
695.0 0.02786415063 0.0987318841
695.625 -0.03574604969 0.1112539658
696.25 -0.1190518126 -0.0002829015271
696.875 -0.07092803919 -0.09793487796
697.5 -0.01186657436 -0.1143165102
698.125 0.005666182513 -0.1165956733
698.75 0.02543836111 -0.06496144096
699.375 0.02588960367 -0.07004009639
700.0 0.05551495957 -0.06032452794
700.625 0.08669251482 -0.03231386309
701.25 0.06735203663 0.006800127453
701.875 0.08458532128 -0.008559728211
702.5 0.1003128928 -0.08076942503
703.125 0.0450920468 -0.1691130018
703.75 -0.04003229738 -0.09196757465
704.375 -0.081899428 -0.03615245932
705.0 -0.09116766636 -0.03472736763
705.625 -0.04210341473 -0.1067233681
706.25 0.02016849736 -0.08045765488
706.875 0.05503679005 -0.02227422775
707.5 0.05490010771 0.03658844394
708.125 0.01629503407 0.09102672699
708.75 -0.01584018738 0.09856154196
709.375 -0.06894279967 0.06507912758
710.0 -0.0908144051 0.01137458256
710.625 -0.08857861276 -0.01534042481
711.25 -0.108291519 -0.0249750702
711.875 -0.1186776769 -0.02781201022
712.5 -0.1085295344 0.02012893892
713.125 -0.03441948432 0.07299243321
713.75 0.03808556759 0.06644929252
714.375 -0.01023121523 0.07904888166
715.0 0.007031678898 0.07115949474
715.625 0.006308066904 0.05795084417
716.25 -0.01058631654 0.07522384065
716.875 -0.07340743735 0.08098169506
717.5 -0.1076739094 0.01655510329
718.125 -0.09077981077 -0.01504216395
718.75 -0.08354444099 -0.01601958078
719.375 -0.08881565746 -0.0204757128
720.0 -0.02274092195 -0.09503154935
720.625 0.03346056156 -0.0753412414
721.25 0.06756968366 -0.01434444921
721.875 0.04822867976 0.0232899302
722.5 -0.002387413514 0.04226553224
723.125 -0.003804732099 0.06253504488
723.75 0.04441287623 0.07816597942
724.375 0.06881571268 -0.007186603991
725.0 0.09066190614 -0.02949536818
725.625 0.04980334734 -0.06848426285
726.25 0.02355244929 -0.07558394887
726.875 0.03504959178 -0.05960843213
727.5 0.04760879886 -0.02877820669
728.125 0.05065902632 0.00611477425
728.75 0.05957456253 0.04905317366
729.375 0.0513826741 0.02360237115
730.0 0.02514198615 -0.01481725457
730.625 0.04786878289 0.04978442392
731.25 0.01188968361 0.05112348898
731.875 -0.02260260892 0.03951329556
732.5 -0.03649328982 0.02348420657
733.125 -0.04149874772 0.01504899061
733.75 -0.05243327049 0.009237538651
734.375 -0.03987528193 0.008760459115
735.0 0.0027641811 0.004301708346
735.625 -0.05008324568 0.02367454024
736.25 -0.0331915562 0.009663136129
736.875 -0.05166056969 0.003610620912
737.5 -0.03955739516 -0.02621946697
738.125 -0.09750407414 -0.01333202855
738.75 -0.0629718743 -0.002489882329
739.375 -0.03055432113 -0.01137542561
740.0 -0.004238437386 -0.02258393757
740.625 -0.0107065831 -0.02306862641
741.25 -0.03167818061 -0.01230326778
741.875 -0.02615196931 -0.03785975448
742.5 0.03554678552 -0.02033785343
743.125 -0.00390511224 0.02827950429
743.75 -0.004904080291 0.02721692255
744.375 -0.01465014826 0.02647832572
745.0 -0.02999444774 0.03550495006
745.625 -0.03901212272 0.05655579372
746.25 0.03028880868 0.07342944053
746.875 0.07576407197 0.03048173698
747.5 0.05341241762 -0.003796580455
748.125 0.02722542542 0.008858948731
748.75 0.02506816268 -0.01157199296
749.375 0.01875637511 -0.03238458676
750.0 -0.01749171584 -0.02773933164
