!Created with skrf (http://scikit-rf.org).
# GHz S RI R 50.0 
!freq ReS11 ImS11
500.0 -0.01135180901 0.02365441646
500.625 0.02698234109 0.0242706196
501.25 0.02236353616 0.03756406218
501.875 0.03434918198 0.01136461248
502.5 0.005165483704 0.04478963802
503.125 0.025451469 0.04754737852
503.75 0.04688278316 0.00502684911
504.375 0.04518006031 -0.003656020196
505.0 0.05273882208 -0.0190169321
505.625 0.06207614334 -0.03817860935
506.25 0.05178922969 -0.04401442758
506.875 0.06001542935 -0.038692343
507.5 0.04054607669 -0.05339125179
508.125 0.08658927005 0.006015687256
508.75 0.02339459198 -0.07120690591
509.375 0.01319636982 -0.05256816703
510.0 0.05729180618 -0.0391719477
510.625 0.007646121965 -0.0739771166
511.25 -0.04739786844 -0.04517881576
511.875 -0.04770717999 -0.01330837046
512.5 -0.03573456255 0.001517492484
513.125 -0.02850282835 0.02419757642
513.75 -0.002753089564 0.04319409472
514.375 -0.01381364337 0.05103511547
515.0 0.01009547888 0.07634515732
515.625 -0.05882587003 0.09126535677
516.25 0.03399173764 0.09012610409
516.875 -0.03382398091 0.1122892852
517.5 0.05175700304 0.0933903544
518.125 -0.07558459783 0.1056052521
518.75 0.01790648384 0.05083967508
519.375 -0.002600145097 0.07730193195
520.0 0.04079478686 0.06894065863
520.625 0.05416065012 0.05690097004
521.25 0.05457601727 0.02733403927
521.875 0.03533581451 0.0395285195
522.5 0.0629911113 0.006057531347
523.125 0.1178618201 0.001842768638
523.75 0.09512887507 -0.0955889185
524.375 0.05829872999 -0.04628580423
525.0 0.000203685675 0.0008002536893
525.625 0.003456282286 0.0133427535
526.25 0.005395842917 0.03786018786
526.875 0.01539907133 0.03545955052
527.5 0.02217117854 0.02818665599
528.125 0.04196869674 0.007688874267
528.75 0.05639888159 -0.004871049914
529.375 0.04701011859 -0.03172774118
530.0 0.03566575738 -0.03596484531
530.625 0.01174443602 -0.05480961488
531.25 0.01750383183 -0.1408912507
531.875 -0.04921391092 -0.1447587458
532.5 -0.08592924954 -0.0955775351
533.125 -0.07313179345 -0.05712990255
533.75 -0.06888552631 -0.06555874077
534.375 -0.06777375515 -0.04575692665
535.0 -0.05960529324 -0.02140689012
535.625 -0.03067789097 -0.04376378677
536.25 -0.0286623919 -0.0347868757
536.875 -0.03508486723 -0.05450110585
537.5 -0.05013769115 -0.1024194299
538.125 -0.05986527743 -0.03981678318
538.75 -0.05309857385 -0.03124077154
539.375 -0.03194075912 -0.045151259
540.0 -0.04510509651 -0.09289813937
540.625 -0.04592701705 -0.07972120016
541.25 -0.03437476376 -0.078484019
541.875 -0.04049557325 -0.07255111065
542.5 -0.05828285549 -0.1073696102
543.125 -0.08506022469 -0.05172687315
543.75 -0.09161001305 0.0150195136
544.375 -0.06406203704 0.03515203982
545.0 -0.03182049875 0.04937366717
545.625 -0.01989055052 0.0635558242
546.25 0.007812836463 0.06142943566
546.875 0.01468087296 0.06115845666
547.5 0.008730629163 0.08470153274
548.125 0.009241101152 0.0546743588
548.75 -0.009739896033 0.0613831074
549.375 -0.02242990272 0.06941753495
550.0 -0.03619870402 0.02170248127
550.625 -0.02146873545 -0.003880184873
551.25 -0.01217417382 -0.03466274381
551.875 -0.05552263654 -0.048570594
552.5 -0.07215280058 -0.05336278271
553.125 -0.06513227716 -0.02968245651
553.75 -0.07490799287 -0.02904569194
554.375 -0.09809275126 0.0006959936928
555.0 -0.09420215202 0.01728395907
555.625 -0.0806510314 0.03112044421
556.25 -0.07131052555 0.01090073869
556.875 -0.08406768414 0.01105550272
557.5 -0.0826550234 0.02778697847
558.125 -0.08681204947 0.02772318157
558.75 -0.05863651792 0.004236884812
559.375 -0.04204932305 -0.00211818582
560.0 -0.02655921574 -0.007645163275
560.625 -0.0388644341 -0.0331467108
561.25 -0.05581166146 -0.03996314313
561.875 -0.07439018208 -0.02495367539
562.5 -0.07256978766 0.01542780423
563.125 -0.07279386128 0.05515343723
563.75 -0.0588765463 0.08272687091
564.375 -0.02736822743 0.08341814186
565.0 -0.02093766729 0.07813103926
565.625 -0.01728438746 0.06981579416
566.25 -0.04476421163 0.04236135028
566.875 -0.05084629316 0.01670997246
567.5 -0.05324140464 0.01073612434
568.125 -0.0708473955 0.0141711151
568.75 -0.0331473983 -0.001479390972
569.375 -0.02383781676 -0.01937221789
570.0 -0.01814310065 -0.0341573995
570.625 -0.04628910185 -0.04830829063
571.25 -0.03448088161 -0.04039168079
571.875 -0.04751739436 -0.04182997705
572.5 -0.08221652647 -0.02211975309
573.125 -0.1153309873 0.03110031204
573.75 -0.05952049131 0.05003129484
574.375 -0.03789476284 0.0545079754
575.0 -0.04784022776 0.05769233355
575.625 -0.05460477576 0.07128386005
576.25 -0.03573754153 0.06771089411
576.875 -0.01211964353 0.07884629052
577.5 -0.01052530189 0.0684935621
578.125 -0.01755156181 0.05651406613
578.75 -0.0156196154 0.03085753582
579.375 -0.01804050308 0.03098389129
580.0 -0.02107528498 0.02000080486
580.625 -0.02935424716 0.0206955444
581.25 -0.05796121939 -0.0083446984
581.875 -0.07597742671 0.02428044907
582.5 -0.07764548704 0.03795984886
583.125 -0.06311306888 0.049581718
583.75 -0.06044980055 0.02600051865
584.375 -0.07082753828 0.01788718165
585.0 -0.07518276186 0.005735971848
585.625 -0.06192043109 0.0303118155
586.25 -0.05056588852 -0.004073684554
586.875 -0.05764083416 -0.002020198286
587.5 -0.05499801235 0.01269429087
588.125 -0.02982209008 0.04665338349
588.75 -0.02837702007 0.03190706263
589.375 -0.03635316739 0.0186605537
590.0 -0.04462819099 0.0224338795
590.625 -0.04687903947 0.05195019815
591.25 -0.03911513661 0.0793946025
591.875 -0.03129269255 0.08802519041
592.5 -0.008038107945 0.07252912045
593.125 -0.001414020813 0.05907095145
593.75 -0.01309700924 0.05424697954
594.375 -0.02861697694 0.04670919588
595.0 -0.02955625415 0.02640075663
595.625 -0.0298261649 0.0007040225351
596.25 -0.03607857461 -0.01111085006
596.875 -0.03164342579 -0.02617401093
597.5 -0.03171727541 -0.0251410707
598.125 -0.02326904564 -0.01541167573
598.75 -0.004600517171 -0.04483376116
599.375 -0.009315264807 -0.0423773548
600.0 -0.01857999548 -0.05754728694
600.625 -0.03354582866 -0.05656375684
601.25 -0.03663208166 -0.0673191174
601.875 -0.0502521185 -0.04535022907
602.5 -0.05751637714 -0.03206395275
603.125 -0.04641493494 -0.03787187357
603.75 -0.03867393138 -0.0144767888
604.375 -0.003925098486 -0.03432703523
605.0 0.003254634489 -0.04663270099
605.625 -0.001594804335 -0.04885643059
606.25 -0.0241158738 -0.03050918727
606.875 0.01127307165 -0.0200816256
607.5 0.0102404741 -0.005472205299
608.125 0.03281321399 -0.01822457607
608.75 0.01174121247 -0.01175843107
609.375 0.05145412566 -0.02109586543
610.0 0.06076519526 -0.00968841245
610.625 0.05439693174 -0.01220415607
611.25 0.03004657359 -0.01707898495
611.875 0.07126822585 -0.008938236191
612.5 0.04001835159 -0.007439643733
613.125 0.01399446868 -0.01076807035
613.75 0.01400245106 0.006764365026
614.375 0.00811608586 0.01533465341
615.0 0.02743315465 0.02158385754
615.625 0.02297266653 0.01185422582
616.25 0.01822372065 0.02144846259
616.875 -0.0007769818441 0.02881597769
617.5 0.02294210462 0.03794158196
618.125 0.01859898383 0.0235659408
618.75 0.02408352934 0.03454123838
619.375 0.008152387183 0.02969672513
620.0 0.02881607469 0.03301599219
620.625 0.02899051639 0.006956431648
621.25 0.0152005202 -0.01343627801
621.875 -0.00998192454 -0.02385965594
622.5 -0.03225412315 0.00848509394
623.125 -0.01761107128 0.03900402893
623.75 -0.01905609392 0.05645496653
624.375 -0.04211528825 0.04024276463
625.0 -0.03420348021 0.05346408343
625.625 -0.03837760305 0.05970991069
626.25 -0.03661470946 0.06618013926
626.875 -0.03072139429 0.04363658019
627.5 -0.0129106182 0.06494373907
628.125 -0.0248255056 0.03138124352
628.75 -0.03383399437 0.01336542238
629.375 -0.016750505 -0.00014813979
630.0 -0.01108273012 -0.0007065068442
630.625 -0.004221535915 -0.01231844076
631.25 -0.001659003081 -0.02949999601
631.875 0.008502534272 -0.06190182128
632.5 -0.03240842438 -0.03964544707
633.125 -0.01780438261 -0.05935248033
633.75 -0.01910082097 -0.05943890178
634.375 -0.02463617059 -0.0576521911
635.0 -0.03258763226 -0.06797857285
635.625 -0.06268568334 -0.02602361049
636.25 -0.03958166332 -0.01490433137
636.875 -0.0219376473 -0.04140883839
637.5 -0.01798120392 -0.06824287337
638.125 -0.04495868857 -0.04221026869
638.75 -0.03106851958 -0.01888541545
639.375 0.01695121095 -0.02279225417
640.0 0.05289471977 -0.01365849609
640.625 0.05177181968 -0.02202581726
641.25 0.04363019922 -0.02975182311
641.875 0.05362262598 -0.02337980738
642.5 0.0714457458 0.01046881246
643.125 0.04898960087 -0.01120812738
643.75 0.05629675245 -0.00157372191
644.375 0.05891054602 -0.01002089222
645.0 0.05155641239 0.0115778789
645.625 0.03981754244 0.01307342498
646.25 0.05437195023 0.02356800133
646.875 0.06617655308 0.02849596289
647.5 0.05779293251 0.01461669916
648.125 0.05639008936 0.02648111566
648.75 0.04172075268 0.04322109428
649.375 0.04485261202 0.06681196628
650.0 0.04146983307 0.06239752183
650.625 0.0357530958 0.07855882516
651.25 0.02421304899 0.05683969222
651.875 -0.0103438349 0.05909286159
652.5 -0.02088232304 0.05209451266
653.125 -0.03859321878 0.03820489792
653.75 -0.02115674874 0.009327738224
654.375 -0.02618032253 -0.03406291275
655.0 -0.02504419111 -0.05131119323
655.625 -0.05175486473 -0.064910668
656.25 -0.05744527257 -0.04364705252
656.875 -0.06586581157 -0.03193384941
657.5 -0.07256342127 -0.04016641089
658.125 -0.09507780027 -0.05543089524
658.75 -0.09765947983 -0.02123083648
659.375 -0.07908202306 0.01799702298
660.0 -0.07024856708 0.03242309146
660.625 -0.06089295551 0.02615789087
661.25 -0.05056642271 0.01941277112
661.875 -0.03442723758 0.02723938836
662.5 -0.0419410721 0.02974387173
663.125 -0.08013844568 0.01858143684
663.75 -0.05445726336 -0.02010787546
664.375 -0.04686772006 -0.05580691105
665.0 -0.02038527143 -0.08389079885
665.625 0.0150377996 -0.1139201959
666.25 0.03162081066 -0.08658017875
666.875 0.04640844552 -0.08416084672
667.5 0.05053827449 -0.0742678816
668.125 0.06174049844 -0.05977703374
668.75 0.03475831891 -0.03836935771
669.375 0.03939451884 -0.02043893545
670.0 0.06615315265 -0.02368509292
670.625 0.07944574136 -0.02199232434
671.25 0.04116363518 -0.0211468295
671.875 0.05863689352 -0.03378382469
672.5 0.05458413066 -0.0836908058
673.125 0.02811834466 -0.1074144901
673.75 0.002976258347 -0.09540506545
674.375 0.02774012578 -0.08139625406
675.0 0.05497778952 -0.04961676787
675.625 0.06447632771 -0.03605030448
676.25 0.06546044433 -0.01422996512
676.875 0.0560695786 0.01955572231
677.5 0.02961967523 0.03578113633
678.125 0.04097364156 0.04766624865
678.75 0.0291114196 0.06718749766
679.375 0.05194190967 0.09470248774
680.0 0.04657948584 0.08002602452
680.625 0.07861331554 0.06165754229
681.25 0.1045002458 0.0322292887
681.875 0.1192518745 0.01136475727
682.5 0.08217820427 -0.02518168597
683.125 0.06027712629 -0.02841739567
683.75 0.07908997789 -0.009691613046
684.375 0.03411472035 0.03843310829
685.0 0.009711087635 0.05796540106
685.625 -0.0352865741 0.03105730721
686.25 -0.07246084764 0.01324157959
686.875 -0.06968538407 -0.0359203451
687.5 -0.08585902104 -0.04194547339
688.125 -0.1016108309 -0.05898724955
688.75 -0.1048544319 -0.07815223204
689.375 -0.07245907719 -0.05230407896
690.0 -0.08008994382 -0.04850588349
690.625 -0.09851525097 -0.0542717183
691.25 -0.08624857648 -0.03995439252
691.875 -0.05774889977 0.01847417191
692.5 -0.03861345055 0.02242476961
693.125 -0.0486132051 0.05964495857
693.75 -0.01924385052 0.1067829396
694.375 0.02418550796 0.1048215015
695.0 -0.02373779543 0.09030375268
695.625 -0.09193779552 0.06767527911
696.25 -0.1107225594 -0.04937214589
696.875 -0.02605985366 -0.1053651455
697.5 0.02951026073 -0.1110088918
698.125 0.04704477821 -0.04937425054
698.75 0.04257859016 -0.04346006594
699.375 0.05867354667 -0.03931791828
700.0 0.07047523105 0.006429898289
700.625 0.06275443268 0.0327101445
701.25 0.06238628612 0.0286756676
701.875 0.09465425664 0.02381320266
702.5 0.1325407184 -0.02356197315
703.125 0.08687685256 -0.07641307555
703.75 -0.01167502168 -0.0829292824
704.375 -0.04134132117 -0.05928260657
705.0 -0.05649060743 -0.08462126686
705.625 0.03279942036 -0.06329101401
706.25 0.04845492857 -0.03206256484
706.875 0.0482903996 0.02492254341
707.5 0.02634682668 0.07115568387
708.125 -0.03727218157 0.08836221974
708.75 -0.06967343313 0.07492881221
709.375 -0.08892720335 0.03002188467
710.0 -0.08250224119 -0.0255924135
710.625 -0.08110904885 -0.0376542293
711.25 -0.07239947069 -0.07763529797
711.875 -0.06585539631 -0.06837484325
712.5 -0.07997659348 -0.009770196466
713.125 -0.03903578409 0.02385595157
713.75 -0.02808917239 0.04544586094
714.375 -0.05200455355 0.05765190506
715.0 -0.03336566809 0.0561540317
715.625 -0.01170163268 0.05999065958
716.25 -0.09841223123 0.0561438458
716.875 -0.1196537082 0.01346909149
717.5 -0.09139936625 -0.02407574278
718.125 -0.07287615542 -0.03887877905
718.75 -0.06777869556 -0.05033122413
719.375 -0.03146296708 -0.07745778473
720.0 0.02358146827 -0.07698441126
720.625 0.05351628805 -0.03782718335
721.25 0.04895851281 0.007574195537
721.875 -0.01408177156 0.03226324002
722.5 -0.04172722934 0.02336989981
723.125 -0.03339849842 0.05844319288
723.75 -0.005201671338 0.0940086539
724.375 0.06605340585 0.05519640287
725.0 0.08156401186 -0.005003131054
725.625 0.0793833296 -0.03372834362
726.25 0.03924317992 -0.0549510266
726.875 0.0581562399 -0.002416500455
727.5 0.0493283105 0.02018142025
728.125 0.02018771613 0.04030166899
728.75 0.01511175292 0.05033198987
729.375 0.03384653841 0.04506758937
730.0 0.03251200441 0.03648044732
730.625 0.008111141443 0.06568379427
731.25 -0.02216034229 0.05396017565
731.875 -0.02339204333 0.02185912214
732.5 -0.08163643043 -0.02104620949
733.125 -0.05542425622 -0.02697333445
733.75 -0.04077077479 -0.01996559436
734.375 -0.01734853724 -0.00526621175
735.0 -0.03376148731 -0.01515553352
735.625 -0.02659537144 -0.005342717032
736.25 -0.04066082266 -0.01204997944
736.875 -0.03328123118 -0.02771401179
737.5 -0.06850746332 -0.03051462404
738.125 -0.08079498763 -0.03651127015
738.75 -0.05525965906 -0.02100900523
739.375 0.006566163385 0.00548738435
740.0 -0.01634789502 -0.07582111338
740.625 -0.0266272678 -0.03921046499
741.25 -0.01661054644 -0.03395347736
741.875 0.005624068671 -0.02539252366
742.5 0.01337063494 0.01927828001
743.125 -0.0007631184908 0.03038500095
743.75 -0.02749395024 0.02370869263
744.375 -0.04068163682 0.006002363276
745.0 -0.04038397798 0.05050498488
745.625 -0.03719612496 0.06311899583
746.25 -0.01242594784 0.06884994874
746.875 0.04638721896 0.0454978464
747.5 0.02437111607 0.01283792205
748.125 0.03481273698 -0.006000884017
748.75 0.02933641024 -0.004654884873
749.375 0.02930131435 -0.01036314117
750.0 0.0153254898 -0.02861216801
