!Created with skrf (http://scikit-rf.org).
# GHz S RI R 50.0 
!freq ReS11 ImS11
500.0 0.0005921132209 0.02705719856
500.625 0.02224077572 0.02655837788
501.25 0.0299968169 0.01982020069
501.875 0.01540643019 0.04701194321
502.5 0.01925170838 0.02962844159
503.125 0.02872056782 0.03781055341
503.75 0.04427590592 0.01612362535
504.375 0.0479829458 0.003322876001
505.0 0.04697686085 -0.02651757899
505.625 0.05609482302 -0.0415241988
506.25 0.037697721 -0.05405943468
506.875 0.07311039003 -0.02803458329
507.5 0.04383057071 -0.04862314385
508.125 0.07246612495 -0.01951715427
508.75 0.05724593751 -0.05067454109
509.375 0.01023788917 -0.05682370615
510.0 0.05641780395 -0.04033169813
510.625 0.001382264565 -0.07350450626
511.25 -0.03072658415 -0.05717500101
511.875 -0.04905978923 -0.0251197079
512.5 -0.0354764477 0.007878266956
513.125 -0.02332950216 0.0292127273
513.75 -0.03695726346 0.0440250075
514.375 0.00907051625 0.04734211153
515.0 0.02447646896 0.06683550876
515.625 -0.03655972142 0.09115490034
516.25 0.02252392507 0.1189649063
516.875 -0.009622488846 0.1158660766
517.5 0.04856449884 0.1008447135
518.125 -0.04045697503 0.1302558791
518.75 0.01757950327 0.06170458119
519.375 0.01217377844 0.07446411211
520.0 0.04703850435 0.06474363501
520.625 0.06225376707 0.04370995243
521.25 0.06353674679 0.04015833203
521.875 0.04668130574 0.02936730287
522.5 0.06725735083 -0.0002700808258
523.125 0.1201798815 -0.03179566086
523.75 0.1224227258 -0.03898524371
524.375 0.07297759675 -0.06066112291
525.0 0.006632885926 -0.007389454898
525.625 0.003389503425 0.02129108489
526.25 0.0129443974 0.0502536547
526.875 0.01969013292 0.03655462803
527.5 0.02227301224 0.02111315702
528.125 0.04005805168 0.004018901815
528.75 0.07523673492 -0.01043153389
529.375 0.03913675982 -0.04104702693
530.0 0.02306924886 -0.03194686989
530.625 0.001433074749 -0.08560365125
531.25 0.003137890167 -0.1445021428
531.875 -0.05549157014 -0.1476890771
532.5 -0.09082405788 -0.0857537336
533.125 -0.07746478957 -0.04998717296
533.75 -0.0859332275 -0.07301354773
534.375 -0.07120655864 -0.03878254695
535.0 -0.05732875352 -0.01104541707
535.625 -0.03325974065 -0.03154933784
536.25 -0.03880672867 -0.03908141987
536.875 -0.0423032849 -0.05927798221
537.5 -0.05125512812 -0.08581846647
538.125 -0.07909994247 -0.06316341241
538.75 -0.06491423998 -0.03490407141
539.375 -0.04049251671 -0.04629191906
540.0 -0.04879631601 -0.08264646858
540.625 -0.07106404944 -0.1112114355
541.25 -0.04361030524 -0.07796434454
541.875 -0.04682718489 -0.07733412731
542.5 -0.05701521564 -0.09332372586
543.125 -0.1019348293 -0.06540713701
543.75 -0.1004033674 0.01983332192
544.375 -0.06107929113 0.04170307615
545.0 -0.0218452507 0.052154517
545.625 -0.01168119099 0.06142305634
546.25 0.01757967956 0.08512136349
546.875 0.02256070853 0.0499292924
547.5 0.01896119005 0.08059611559
548.125 0.00585977183 0.08090616721
548.75 -0.00328272961 0.07025777051
549.375 -0.01465036888 0.07231613754
550.0 -0.03011778012 0.02858642503
550.625 -0.01876945808 0.001942258002
551.25 -0.03038246626 -0.0281070721
551.875 -0.04834784114 -0.03828440154
552.5 -0.07374892748 -0.04605501572
553.125 -0.07300805005 -0.02131258357
553.75 -0.08397114749 -0.01936604535
554.375 -0.08974888517 0.006217376327
555.0 -0.09183645549 0.02301379873
555.625 -0.07117486267 0.03090597859
556.25 -0.08894939109 0.03075369006
556.875 -0.07974658312 0.01605778848
557.5 -0.08678593912 0.03515058448
558.125 -0.0805237457 0.0318032768
558.75 -0.07850827091 0.01285693505
559.375 -0.04289890954 0.002479241669
560.0 -0.02707420231 -0.003803006307
560.625 -0.03224119399 -0.02686038101
561.25 -0.06935217758 -0.02775240469
561.875 -0.06775945576 -0.02066618557
562.5 -0.07043762698 0.01974032253
563.125 -0.06593092216 0.05791372498
563.75 -0.05295988 0.10131617
564.375 -0.02348799334 0.08601585676
565.0 -0.01765408635 0.08100918362
565.625 -0.01192654594 0.06565159678
566.25 -0.04311132998 0.06338045102
566.875 -0.04436891723 0.01689580932
567.5 -0.05712461628 0.02105045551
568.125 -0.06363017801 0.01636183866
568.75 -0.05262215342 0.00746798512
569.375 -0.03125564872 -0.01233253449
570.0 -0.02609387257 -0.02849243227
570.625 -0.03840463196 -0.04170890254
571.25 -0.05062918549 -0.03050406679
571.875 -0.04883060892 -0.03359590694
572.5 -0.08420072996 -0.0108372437
573.125 -0.1066909981 0.03136226964
573.75 -0.06177577697 0.0689153313
574.375 -0.03537669445 0.05249062676
575.0 -0.0418812126 0.06014865659
575.625 -0.05082676259 0.06369942986
576.25 -0.029066563 0.08069390394
576.875 -0.01223293663 0.07879434593
577.5 -0.007498113376 0.06787520285
578.125 -0.01552206758 0.05396822676
578.75 -0.00684661472 0.05098683945
579.375 -0.01558108158 0.02867742419
580.0 -0.01651019884 0.03226817184
580.625 -0.0287036781 0.01639884124
581.25 -0.04844388793 0.01889151756
581.875 -0.06659501859 0.03553715255
582.5 -0.07365253648 0.04941288528
583.125 -0.06296607632 0.05117966994
583.75 -0.05849541458 0.03640983439
584.375 -0.06528139305 0.03841879555
585.0 -0.07312606307 0.005659208805
585.625 -0.06176507282 0.0336760835
586.25 -0.05393951678 0.0257041702
586.875 -0.05950227593 0.01370875146
587.5 -0.05785583064 0.02331827909
588.125 -0.02931836375 0.04866467594
588.75 -0.01946731849 0.04461921951
589.375 -0.02160133741 0.04034282101
590.0 -0.04385168693 0.02079196709
590.625 -0.04567735947 0.05260150377
591.25 -0.03564491713 0.08072897782
591.875 -0.002295677066 0.09850359453
592.5 -0.01444366307 0.06970772242
593.125 -0.0002696349879 0.06059347287
593.75 -0.00889610723 0.06484348007
594.375 -0.01677076078 0.06196961172
595.0 -0.03150058125 0.03038201638
595.625 -0.03361896236 2.420649709e-05
596.25 -0.03861035889 -0.0132102246
596.875 -0.04052332234 -0.001907317201
597.5 -0.02831284889 -0.03509525268
598.125 -0.02379007055 -0.0170503167
598.75 -0.01982378412 -0.009824709355
599.375 -0.01234594553 -0.0313557491
600.0 -0.02168223198 -0.04876874417
600.625 -0.03613260547 -0.05533937689
601.25 -0.04653641718 -0.06703540015
601.875 -0.05801299167 -0.03042290003
602.5 -0.05668501792 -0.04209426369
603.125 -0.05059022276 -0.04533513378
603.75 -0.02956953579 -0.03146566647
604.375 -0.02614595923 -0.01018086428
605.0 -0.00194084642 -0.04687366789
605.625 -0.01154907549 -0.04536810828
606.25 -0.02458397636 -0.0342019054
606.875 -0.01934468203 -0.01668310096
607.5 -0.009628404683 0.00242177271
608.125 0.02031646838 -0.01691437626
608.75 0.02466682045 -0.02520064469
609.375 0.01390711527 -0.005492237886
610.0 0.06558860545 -0.01630517365
610.625 0.04420198339 -0.01664414402
611.25 0.03860109615 -0.02396750363
611.875 0.03648522825 -0.02299186858
612.5 0.02425623549 -0.0192367122
613.125 0.02439649778 -0.002447064829
613.75 0.02396282879 0.006863238511
614.375 0.03007315859 0.02210495828
615.0 0.005026480909 0.008839337063
615.625 0.03497962473 0.0193489981
616.25 0.01807386488 0.01773168458
616.875 0.0268765526 0.03704084164
617.5 0.007670961957 0.02973714327
618.125 0.03063703863 0.03539702266
618.75 0.03380705332 0.0353514895
619.375 0.02806519934 0.04373052375
620.0 0.01766170085 0.02597962174
620.625 0.03714739367 0.007794847275
621.25 0.02069982769 -0.01027856314
621.875 0.001431908701 -0.01198551535
622.5 -0.04730037295 0.01188919749
623.125 -6.25284373e-05 0.04449441303
623.75 -0.006253157403 0.05961431837
624.375 -0.02357776874 0.05435492626
625.0 -0.05589317635 0.02484378453
625.625 -0.0309050219 0.06976441298
626.25 -0.03739260185 0.06088282854
626.875 -0.02637089314 0.05537479895
627.5 -0.02125982285 0.03745453959
628.125 -0.0324839012 0.01650151578
628.75 -0.02590970628 0.01724891354
629.375 -0.01776934584 0.01006372943
630.0 -0.009708658058 0.01003545456
630.625 -0.005976558759 -0.01849710473
631.25 -0.003486401519 -0.03068118211
631.875 -0.0004998049735 -0.05418087444
632.5 -0.01484669744 -0.06076117853
633.125 -0.009968705478 -0.07268396347
633.75 -0.0345486054 -0.04847939418
634.375 -0.03260957378 -0.04680744963
635.0 -0.04871288566 -0.04552055279
635.625 -0.04520519783 -0.05454173553
636.25 -0.04940265131 -0.009290635758
636.875 -0.02403314257 -0.04672391897
637.5 -0.02829374672 -0.0645291218
638.125 -0.0407333292 -0.04567845937
638.75 -0.03045710052 -0.02870125751
639.375 -0.0006422021721 -0.02236224039
640.0 0.03873204204 -0.02099986995
640.625 0.04942157289 -0.02486110269
641.25 0.05824172419 -0.03540361657
641.875 0.04519284888 -0.03072063373
642.5 0.06558162083 -0.01011644265
643.125 0.06645120164 0.008012357566
643.75 0.06723129435 -0.000103406294
644.375 0.06131860224 -0.01542501458
645.0 0.05127555131 0.001825562923
645.625 0.03879107927 0.008906367681
646.25 0.06432960576 0.02293161658
646.875 0.06109243701 0.005890528913
647.5 0.05622655105 0.003309223605
648.125 0.04996464398 0.01347634252
648.75 0.06103631334 0.05601467086
649.375 0.05281400564 0.0473769556
650.0 0.04788733078 0.05759226958
650.625 0.043872381 0.06382866637
651.25 0.01535238481 0.0858733851
651.875 0.001047802216 0.06336616154
652.5 -0.02403029816 0.05586220378
653.125 -0.03004488148 0.04566203791
653.75 -0.0495556115 0.01555926039
654.375 -0.02593485217 -0.01890874675
655.0 -0.02464949967 -0.04122424033
655.625 -0.04651279458 -0.04903864992
656.25 -0.08969660903 -0.05702659476
656.875 -0.06519130111 -0.02102361004
657.5 -0.08054964545 -0.03892800096
658.125 -0.09890470062 -0.04555493889
658.75 -0.1113004868 -0.02589937737
659.375 -0.09266984573 0.0208392653
660.0 -0.05986960674 0.04296299941
660.625 -0.05308314538 0.03664212966
661.25 -0.05179392504 0.03023342824
661.875 -0.04385488092 0.04259138459
662.5 -0.0354659671 0.03425854777
663.125 -0.06123903231 0.03030015042
663.75 -0.06845689301 -0.02276901462
664.375 -0.05785510137 -0.05431679482
665.0 -0.03168337365 -0.08266447839
665.625 0.0009899969835 -0.1015104387
666.25 0.02815963365 -0.1022907702
666.875 0.03210393175 -0.08315102486
667.5 0.03791665828 -0.07977334828
668.125 0.04594477206 -0.0652602023
668.75 0.04046424164 -0.05613031845
669.375 0.0301885844 -0.02429046523
670.0 0.06127974525 -0.03572513157
670.625 0.06935234765 -0.03045242165
671.25 0.05754982928 -0.04337433234
671.875 0.05388004949 -0.04301350232
672.5 0.04365270017 -0.09187069794
673.125 0.01660142557 -0.1029937014
673.75 -0.007544075828 -0.1115920259
674.375 0.01148865515 -0.07349533348
675.0 0.04533837988 -0.05580817925
675.625 0.05299289221 -0.03626405372
676.25 0.07595092399 -0.02667516601
676.875 0.0461781548 0.003554287638
677.5 0.03201323855 0.03015793414
678.125 0.03492817681 0.03986883842
678.75 0.05835313695 0.06553477718
679.375 0.0656675513 0.09032648271
680.0 0.06199590697 0.08625577388
680.625 0.08172311727 0.05599444867
681.25 0.1006105441 0.02608807597
681.875 0.1378451861 -0.009316887411
682.5 0.07462671525 -0.03212038653
683.125 0.06498829843 -0.03742608433
683.75 0.06674089636 -0.01762609786
684.375 0.07182627538 0.04379835858
685.0 0.02586564102 0.06824301304
685.625 -0.03105045511 0.04781401292
686.25 -0.06589805329 0.02021019201
686.875 -0.08551618685 -0.0184916068
687.5 -0.0899355926 -0.03032192944
688.125 -0.1167220523 -0.04792826736
688.75 -0.1169431164 -0.06780724535
689.375 -0.08912042053 -0.05300552947
690.0 -0.09683164864 -0.04062782959
690.625 -0.09329871549 -0.04222057444
691.25 -0.09269744753 -0.03251187513
691.875 -0.05228614075 0.01850309445
692.5 -0.03357677001 0.04784833543
693.125 -0.04108305141 0.05422854524
693.75 0.005024028263 0.1190769541
694.375 0.0247629116 0.1010506213
695.0 -0.00736978268 0.1020602409
695.625 -0.07940584578 0.09240789219
696.25 -0.1094627861 -0.04296204168
696.875 -0.02877732497 -0.1042861358
697.5 0.02299790324 -0.1022851089
698.125 0.04318180791 -0.0924667479
698.75 0.03730715219 -0.04133839343
699.375 0.05264489204 -0.04756840892
700.0 0.07816029279 -0.02087940272
700.625 0.07623356112 0.01722757356
701.25 0.0605598515 0.02727820461
701.875 0.09403661935 0.02066928212
702.5 0.1321214474 -0.04103779501
703.125 0.08986697605 -0.1136789764
703.75 -0.01320525222 -0.08021762362
704.375 -0.0486197599 -0.05497255228
705.0 -0.05222439984 -0.07747051885
705.625 0.01215269636 -0.08879683
706.25 0.04235689117 -0.05072690571
706.875 0.05526788524 0.01021909836
707.5 0.03051824822 0.06921739123
708.125 -0.02574656922 0.0914864174
708.75 -0.0502782121 0.09084040929
709.375 -0.08388261959 0.03655136522
710.0 -0.08285336721 -0.02331387842
710.625 -0.07208278983 -0.04610959496
711.25 -0.09310739792 -0.06033180188
711.875 -0.08833063024 -0.06162711857
712.5 -0.08491502896 -0.008113789278
713.125 -0.04176106226 0.04555890384
713.75 0.0006080107391 0.06336549913
714.375 -0.05797399576 0.05279561998
715.0 -0.03313056106 0.06003031678
715.625 -0.02191872671 0.06040140108
716.25 -0.04488998407 0.07751696361
716.875 -0.1110209991 0.03517972772
717.5 -0.09612154672 -0.01985614403
718.125 -0.07542216831 -0.04014414551
718.75 -0.07012313654 -0.04868266734
719.375 -0.07053197806 -0.05383145217
720.0 0.018929385 -0.0800216834
720.625 0.05033359998 -0.04838236072
721.25 0.04896019753 0.01540928488
721.875 0.01094905707 0.03259692303
722.5 -0.03164608107 0.03161931453
723.125 -0.03623811123 0.06309051754
723.75 0.005043642186 0.09917794027
724.375 0.06822131954 0.02005783302
725.0 0.09394939926 7.424634867e-06
725.625 0.07516063474 -0.03845909128
726.25 0.04669627817 -0.04935635511
726.875 0.040886707 -0.04053937205
727.5 0.05529564898 0.007665313084
728.125 0.03338384221 0.03199982257
728.75 0.02015343021 0.06783148652
729.375 0.03833016435 0.04553955154
730.0 0.02690443303 -7.780620806e-05
730.625 0.01440012683 0.07570094501
731.25 -0.01427698417 0.05861402415
731.875 -0.04740935589 0.03475425196
732.5 -0.04311778391 0.008165325829
733.125 -0.04500863321 -0.006272777048
733.75 -0.04050230407 -0.0130155767
734.375 -0.03458078374 -0.01493953625
735.0 -0.003573458207 -0.003054360271
735.625 -0.04337645649 -0.008539452157
736.25 -0.04979744973 -0.001014168896
736.875 -0.06163434834 -0.01862221888
737.5 -0.03598404279 -0.028023165
738.125 -0.09081584608 -0.04087496991
738.75 -0.0576873264 -0.01754768963
739.375 -0.02478974756 -0.02113940255
740.0 0.005097110548 -0.02253510693
740.625 -0.007731627434 -0.02960709283
741.25 -0.02375207586 -0.02131748891
741.875 -0.003318269611 -0.03708410898
742.5 0.03797734049 -0.001741839396
743.125 -0.01602850648 0.02412788359
743.75 -0.02479707373 0.03284650553
744.375 -0.02908857751 0.01775379986
745.0 -0.0392385328 0.02625942467
745.625 -0.04364916866 0.05683949902
746.25 0.0001305709263 0.08418345219
746.875 0.06190955859 0.04597083971
747.5 0.04028487362 0.004604199898
748.125 0.01255145164 0.01747067095
748.75 0.03038015663 -0.001533368367
749.375 0.02760652357 -0.01511599977
750.0 -0.0001265722695 -0.02821573326
