!Created with skrf (http://scikit-rf.org).
# GHz S RI R 50.0 
!freq ReS11 ImS11
500.0 -0.01981284128 0.02750223909
500.625 0.02521905227 0.02850316826
501.25 0.03302907589 0.01685965437
501.875 0.02495752285 0.02694595085
502.5 0.01169756932 0.04834500415
503.125 0.03328312385 0.03089999834
503.75 0.04574278938 0.01021569956
504.375 0.05564766743 0.01417840959
505.0 0.04127738462 -0.03283075644
505.625 0.05810459056 -0.04366537688
506.25 0.05257849181 -0.04320667229
506.875 0.07732932267 -0.02043621758
507.5 0.04146327766 -0.0531561015
508.125 0.0680081647 -0.02779113275
508.75 0.04189599695 -0.05237323908
509.375 0.05232482192 -0.04132142226
510.0 0.06656143733 -0.03711261515
510.625 -0.01406366669 -0.06180110052
511.25 -0.03372955403 -0.05273183592
511.875 -0.04557013145 -0.02928013801
512.5 -0.03341850089 0.01870515764
513.125 -0.01824972337 0.03032920883
513.75 -0.02312665112 0.03876163017
514.375 -0.01745977775 0.05852217354
515.0 0.004516079065 0.08417455757
515.625 -0.06012028048 0.09193470168
516.25 0.02290866568 0.09940533178
516.875 -0.06679637856 0.1181123362
517.5 0.05157242598 0.09570203341
518.125 -0.06045780337 0.1031198655
518.75 0.009298193841 0.06145059529
519.375 0.0199813576 0.06137583312
520.0 0.0459615291 0.06023040623
520.625 0.05399175575 0.05591348204
521.25 0.05594316251 0.03642923617
521.875 0.02895988911 0.05646550591
522.5 0.06341735021 0.01047418783
523.125 0.112434176 -0.006646571004
523.75 0.0973894361 -0.05294463537
524.375 0.04992731157 0.01234858195
525.0 0.0009304015799 0.005039057834
525.625 0.00137472357 0.0197088451
526.25 0.004429404975 0.06118484585
526.875 0.0167883308 0.02039913601
527.5 0.020651703 0.02578629928
528.125 0.04396136465 0.009834916163
528.75 0.064786953 0.001156848196
529.375 0.02435999733 -0.02906347087
530.0 0.02573594159 -0.01875801886
530.625 0.01396857025 -0.07947842806
531.25 0.02976192197 -0.1841074323
531.875 -0.04840391971 -0.1190528123
532.5 -0.07479025111 -0.06997680331
533.125 -0.07273277566 -0.06030479318
533.75 -0.07365909977 -0.08075781887
534.375 -0.05771919997 -0.029877065
535.0 -0.06190735496 -0.02521363631
535.625 -0.03103251378 -0.0428484519
536.25 -0.03713190323 -0.04912881005
536.875 -0.02981442163 -0.05637205654
537.5 -0.03617835328 -0.08363163308
538.125 -0.06281517044 -0.06075497855
538.75 -0.06083637932 -0.04571329816
539.375 -0.02386136564 -0.03315036807
540.0 -0.0383412538 -0.08943577592
540.625 -0.04859079628 -0.1081318325
541.25 -0.03806657958 -0.1009233172
541.875 -0.03738650712 -0.07721919185
542.5 -0.0430096672 -0.09459501079
543.125 -0.08872555755 -0.06312145813
543.75 -0.1068158984 0.008214124137
544.375 -0.04858927898 0.03637484457
545.0 -0.03543211189 0.05160075358
545.625 -0.02106233339 0.06182872465
546.25 0.002442166113 0.07097099948
546.875 0.01352377469 0.07667289579
547.5 0.006219182404 0.0791992725
548.125 -0.000591998003 0.06798420013
548.75 -0.01916270027 0.08005505064
549.375 -0.0108775612 0.04602700348
550.0 -0.03740413506 0.02096206989
550.625 -0.02069766809 -0.004110339047
551.25 -0.01710626361 -0.03884302337
551.875 -0.03381794361 -0.05102925923
552.5 -0.06263695219 -0.05510982231
553.125 -0.0696677716 -0.02779899787
553.75 -0.08809158324 -0.02483733797
554.375 -0.0885287125 -0.002570000346
555.0 -0.0917190688 0.01577254133
555.625 -0.08046376656 0.02874256193
556.25 -0.0823521182 0.01416032145
556.875 -0.1000643181 0.01477752893
557.5 -0.07623471112 0.02131279754
558.125 -0.07004497317 0.01948061507
558.75 -0.06455246252 -0.0001117694186
559.375 -0.03065711202 0.002391923944
560.0 -0.02202154679 -0.01022627373
560.625 -0.03830937926 -0.03563281593
561.25 -0.063140652 -0.04195488809
561.875 -0.07204873083 -0.02617114948
562.5 -0.07413186716 0.01594993376
563.125 -0.0729327089 0.05320899354
563.75 -0.06370673899 0.09249094306
564.375 -0.02622574234 0.06939102016
565.0 -0.02381393925 0.07055194393
565.625 -0.01832668763 0.06715181047
566.25 -0.05030381407 0.04635247187
566.875 -0.05922130747 0.02463940396
567.5 -0.05496948077 0.009785976265
568.125 -0.05769164998 0.002540589656
568.75 -0.04048676693 -0.002074022687
569.375 -0.0370970418 -0.01594340166
570.0 -0.008479103706 -0.03779279922
570.625 -0.03778050818 -0.0516154316
571.25 -0.04000051685 -0.04017080261
571.875 -0.06202254642 -0.03207803012
572.5 -0.08290950448 -0.02341407713
573.125 -0.1080139832 0.0114937914
573.75 -0.06254413771 0.05598606856
574.375 -0.03561891122 0.07086775593
575.0 -0.05105594946 0.06129724
575.625 -0.05763466481 0.06576400038
576.25 -0.0347607335 0.07117584733
576.875 -0.0178902047 0.06183166246
577.5 -0.009987097186 0.07168668791
578.125 -0.0198257743 0.05314144056
578.75 -0.01566101613 0.03790725769
579.375 -0.01301823282 0.04346542948
580.0 -0.02172501347 0.01899965371
580.625 -0.03704104055 0.001762985223
581.25 -0.05765887089 0.003442541756
581.875 -0.06817833071 0.03933165693
582.5 -0.07763700287 0.02304769559
583.125 -0.06670956713 0.0415935917
583.75 -0.06129055472 0.02811533961
584.375 -0.06994231773 0.03179152025
585.0 -0.07334747385 0.0009275893548
585.625 -0.064037657 0.01398612642
586.25 -0.0543701653 0.008833964716
586.875 -0.06264354058 0.01776928447
587.5 -0.05321968527 0.003268179846
588.125 -0.03429278417 0.03952841136
588.75 -0.02529914976 0.03462146946
589.375 -0.02539789166 0.03729120215
590.0 -0.05008621241 0.01490563768
590.625 -0.05085715458 0.05021059972
591.25 -0.0399485001 0.07881829815
591.875 -0.02739224418 0.09031725511
592.5 -0.005973013652 0.07196785876
593.125 -0.003683606499 0.06021690658
593.75 -0.01160835822 0.05469275648
594.375 -0.0205004485 0.05792524363
595.0 -0.03515019071 0.004130457506
595.625 -0.02932845501 0.002229060341
596.25 -0.03452809762 -0.01189968914
596.875 -0.03297560123 -0.02189645466
597.5 -0.03229591449 -0.02014008819
598.125 -0.01901589652 -0.024322172
598.75 -0.01270923531 -0.03192595774
599.375 -0.01275971573 -0.02421287175
600.0 -0.01237821533 -0.07574458078
600.625 -0.01902870932 -0.08578721599
601.25 -0.03796027192 -0.06444970995
601.875 -0.05532157041 -0.0314970637
602.5 -0.05096957782 -0.0376795805
603.125 -0.04541444319 -0.03503312588
603.75 -0.03311371604 -0.02499858353
604.375 -0.0137404841 -0.02354021013
605.0 -0.01310251933 -0.02428158691
605.625 0.01533858164 -0.05597822563
606.25 0.003699457304 -0.04231915964
606.875 -0.00567953519 -0.01746968233
607.5 -0.008364278229 0.005338719177
608.125 0.03257270735 -0.01501357452
608.75 0.01966970155 -0.01500423083
609.375 0.03548540561 -0.01644805175
610.0 0.03063830845 -0.004228775855
610.625 0.06592009514 -0.01370964059
611.25 0.06124403789 -0.0234660583
611.875 0.04991793925 -0.0168154623
612.5 0.01428709052 -0.0185069231
613.125 0.02234618395 0.001303210524
613.75 0.01690524877 0.01123357277
614.375 0.01465469367 0.01856411642
615.0 0.0234260467 0.01515793466
615.625 0.01450631604 0.01261818938
616.25 0.009796306012 0.01978944011
616.875 0.01144123426 0.0311873746
617.5 0.01359865171 0.03041354887
618.125 0.02594382187 0.0373887206
618.75 0.01686014953 0.02941623456
619.375 0.01382712609 0.03270210923
620.0 0.01210902383 0.02111039026
620.625 0.0494072686 0.02619125184
621.25 0.02163722529 -0.0008884937949
621.875 -0.01453848532 -0.02054253305
622.5 -0.04310700206 0.008461291102
623.125 -0.04279462621 0.04039399134
623.75 -0.02856754914 0.05451124777
624.375 -0.03650939071 0.04212171611
625.0 -0.04280173521 0.03676521225
625.625 -0.06151334281 0.03045823081
626.25 -0.03247301554 0.08207304194
626.875 -0.01369575584 0.06708277525
627.5 -0.01702851731 0.04332608497
628.125 -0.03526689107 0.001336990968
628.75 -0.03786110977 0.03920317418
629.375 -0.01965168982 0.01974645879
630.0 -0.01153163478 -0.00165131104
630.625 0.005825448905 -0.04094517902
631.25 0.003662917654 -0.03973283847
631.875 -0.008180795879 -0.03806612521
632.5 -0.01441096897 -0.05281461717
633.125 0.0006317808612 -0.07850425644
633.75 -0.03018523736 -0.05248625638
634.375 -0.02649221864 -0.05612868673
635.0 -0.03425499003 -0.06241128635
635.625 -0.04610635136 -0.03819244223
636.25 -0.02845246003 -0.03908120538
636.875 -0.02963338172 -0.03095614438
637.5 -0.02641526236 -0.05873656787
638.125 -0.03739175283 -0.04619815799
638.75 -0.01838442303 -0.03641716357
639.375 -0.002767897759 -0.01841153789
640.0 0.04712429178 -0.01652404496
640.625 0.05464014135 -0.02015662617
641.25 0.05408505119 -0.02607962889
641.875 0.03286542236 -0.0331370135
642.5 0.04707456615 -0.006013534365
643.125 0.05510973443 0.008201540366
643.75 0.07154528464 0.01401523205
644.375 0.04515132836 -0.02447147168
645.0 0.03862111038 -0.005230293964
645.625 0.04261990602 0.01554630773
646.25 0.06421047944 0.03317878346
646.875 0.06953715459 0.02716303709
647.5 0.06218998642 0.01773889863
648.125 0.05758459106 0.0249866877
648.75 0.04393603937 0.05526104439
649.375 0.04511011861 0.08619394639
650.0 0.04015985836 0.06823130076
650.625 0.03263657717 0.06024652738
651.25 0.009924019013 0.07000673388
651.875 -0.03466487748 0.06672454391
652.5 -0.01248621172 0.04873787954
653.125 -0.01792299672 0.03434680651
653.75 -0.03356138787 0.001889070153
654.375 -0.01818502112 -0.02360253889
655.0 -0.02220222604 -0.04765519266
655.625 -0.04878543158 -0.06568611736
656.25 -0.06637170807 -0.059959979
656.875 -0.08122243353 -0.04438167157
657.5 -0.06544062831 -0.03878147958
658.125 -0.08529138058 -0.04948551016
658.75 -0.1012115296 -0.02979207025
659.375 -0.09441755755 0.01248712971
660.0 -0.05384153883 0.03462108381
660.625 -0.05635562306 0.02554371932
661.25 -0.05343314734 0.0177422062
661.875 -0.042674064 0.0280884994
662.5 -0.02587143277 0.01776523358
663.125 -0.05896665494 0.003500379929
663.75 -0.05901299914 -0.02770889761
664.375 -0.06032396465 -0.0665376099
665.0 -0.01817237872 -0.08989967886
665.625 0.01805721007 -0.1109674297
666.25 0.03626254726 -0.092060721
666.875 0.03600414693 -0.07978955431
667.5 0.0545224969 -0.07934258948
668.125 0.06253716809 -0.05592583068
668.75 0.04040421476 -0.03777001685
669.375 0.05438637623 -0.03127642436
670.0 0.07006880032 -0.02658992161
670.625 0.07209195406 -0.01438342672
671.25 0.05707226174 -0.02846759876
671.875 0.07294945743 -0.04737476993
672.5 0.05031919895 -0.06502183862
673.125 0.0307086664 -0.09259170281
673.75 0.008609706921 -0.1017730942
674.375 0.02781546034 -0.07972108079
675.0 0.05928167754 -0.04986761558
675.625 0.0613515061 -0.0284142855
676.25 0.07412604883 -0.01037084143
676.875 0.06794326565 0.01971498799
677.5 0.0327208484 0.04057397093
678.125 0.02928669603 0.05119907785
678.75 0.04490565506 0.07450556457
679.375 0.07067655742 0.1116091861
680.0 0.0435345999 0.07822840081
680.625 0.06808788973 0.06197332549
681.25 0.1005209329 0.03217444569
681.875 0.1287661352 0.0131724331
682.5 0.08974913168 -0.02592874546
683.125 0.06304304979 -0.02585053472
683.75 0.06657736763 0.001179138975
684.375 0.04906864735 0.05083054803
685.0 0.01447024059 0.06948612892
685.625 -0.03724415051 0.0305692181
686.25 -0.0652116278 -0.002567262552
686.875 -0.07599843779 -0.03470544184
687.5 -0.1008039633 -0.03803786761
688.125 -0.09260090175 -0.06566067318
688.75 -0.09046032413 -0.07427379975
689.375 -0.07529165533 -0.05669535483
690.0 -0.08550264983 -0.0523638189
690.625 -0.07790844899 -0.0504494857
691.25 -0.07994231214 -0.03998300184
691.875 -0.05644414939 0.01331182778
692.5 -0.04424882025 0.02727783601
693.125 -0.03462949036 0.08110783816
693.75 -0.03196718625 0.101931314
694.375 0.001383563828 0.09780610426
695.0 -0.02311228563 0.09430978507
695.625 -0.09446031304 0.07472718603
696.25 -0.09330133109 -0.05698216978
696.875 -0.02988489606 -0.1082856316
697.5 0.04169910729 -0.09091596202
698.125 0.05317328591 -0.0601268517
698.75 0.04187842391 -0.03760238254
699.375 0.0558991352 -0.01982571652
700.0 0.07325856668 0.002171986082
700.625 0.07824318575 0.02435107881
701.25 0.05173611804 0.04177070261
701.875 0.09428186017 0.03356233996
702.5 0.1374955596 -0.02272226828
703.125 0.09195142048 -0.08381673861
703.75 -0.02587535582 -0.09408817403
704.375 -0.04153289075 -0.06040321512
705.0 -0.01104548413 -0.08911771663
705.625 0.03019257686 -0.06643061791
706.25 0.04627581363 -0.05170856241
706.875 0.03692275506 0.04001651746
707.5 0.01815401548 0.07549446255
708.125 -0.03696950528 0.08744115366
708.75 -0.0598694988 0.08532031738
709.375 -0.09077714417 0.005103959318
710.0 -0.08372746403 -0.02515767144
710.625 -0.07643898845 -0.04690108179
711.25 -0.08454394026 -0.07223799821
711.875 -0.05742868885 -0.07556257319
712.5 -0.06509660758 -0.01595119863
713.125 -0.04159486374 0.02679447523
713.75 -0.02075687218 0.05595092673
714.375 -0.0382021428 0.06396524133
715.0 -0.02762497626 0.05634678118
715.625 -0.03340052578 0.06526019523
716.25 -0.07452788226 0.06858814014
716.875 -0.1028231201 0.05485435245
717.5 -0.08011795132 -0.05058374483
718.125 -0.07108409032 -0.03917918401
718.75 -0.06483409962 -0.04990621503
719.375 -0.03604366333 -0.08047418181
720.0 -0.01018089885 -0.08122095135
720.625 0.04823855393 -0.04186454236
721.25 0.04757479143 0.01168223699
721.875 0.01444183624 0.02720990641
722.5 -0.07708793111 0.0146139232
723.125 -0.07655198943 0.05663264501
723.75 -0.002217161075 0.09344767081
724.375 0.06474056836 0.04694190142
725.0 0.07373659073 -0.0003965769474
725.625 0.07136129942 -0.03088193416
726.25 0.06865881535 -0.02377509217
726.875 0.048719368 -0.01994966594
727.5 0.03108520109 -0.01972039891
728.125 0.009292004304 0.0842557853
728.75 0.01099846626 0.06257478874
729.375 0.02674365828 0.04203803647
730.0 0.03225605696 0.02442812222
730.625 0.01610291624 0.024885248
731.25 -0.0188666923 0.04664366208
731.875 -0.03980149321 0.02780631011
732.5 -0.0624016091 -0.003902214467
733.125 -0.03150977813 0.005269480466
733.75 -0.03598273107 -0.01399321791
734.375 -0.01881351624 -0.01332229138
735.0 -0.01781655425 -0.004968459484
735.625 -0.0388811051 -0.02466360872
736.25 -0.03003844199 -0.01350192571
736.875 -0.03634937269 -0.02543827877
737.5 -0.06087716505 -0.02643348916
738.125 -0.04610247261 -0.01701906907
738.75 -0.04779906618 -0.01577188513
739.375 -0.02114119428 -0.01642644813
740.0 -0.002376589999 -0.04088781571
740.625 0.01009207082 -0.0248017732
741.25 -0.0450812206 -0.04949256874
741.875 0.007354016641 -0.03062843317
742.5 0.01259619806 0.01739156133
743.125 -0.02318844747 0.02262988554
743.75 -0.01301781422 0.05818319554
744.375 -0.02925471519 0.03418831078
745.0 -0.04537517668 0.03695404157
745.625 -0.07152138439 0.03677592838
746.25 0.01479623062 0.0905862803
746.875 0.03536889585 0.04612948212
747.5 0.02233202618 0.01532127537
748.125 0.02011750035 0.002358341308
748.75 0.01472785152 0.02781018292
749.375 0.02723044973 -0.03514565888
750.0 -0.009353086898 -0.03331214751
