!Created with skrf (http://scikit-rf.org).
# GHz S RI R 50.0 
!freq ReS11 ImS11
500.0 -0.02056365053 0.02617236387
500.625 0.0285517341 0.02317113566
501.25 0.03640946217 0.01118932282
501.875 0.0178495649 0.03054087674
502.5 0.005280410361 0.05826705988
503.125 0.0305372541 0.0395782828
503.75 0.04713474511 0.01238665742
504.375 0.0544728484 0.01140218435
505.0 0.045601895 -0.03012163061
505.625 0.05978830625 -0.04347196879
506.25 0.04676511899 -0.04676412415
506.875 0.07104136977 -0.02678544401
507.5 0.03154281735 -0.06199111708
508.125 0.06875964249 -0.03495719122
508.75 0.04437563787 -0.05289077943
509.375 0.05804751812 -0.04506692151
510.0 0.05193940722 -0.04870802385
510.625 -0.01147807022 -0.06563838048
511.25 -0.03743142546 -0.05057849459
511.875 -0.04589742418 -0.02499559734
512.5 -0.03457968242 0.01712193736
513.125 -0.02328089018 0.02903655504
513.75 -0.02314942418 0.03767785175
514.375 -0.02267139207 0.06778075919
515.0 0.008900845259 0.08071836286
515.625 -0.0552513891 0.08936360932
516.25 0.02103631042 0.1039876548
516.875 -0.07083205169 0.1266077729
517.5 0.06269981799 0.0902299198
518.125 -0.05096205393 0.111444498
518.75 0.01639959009 0.05644060632
519.375 0.01553836829 0.06596603528
520.0 0.04683562996 0.06385284634
520.625 0.05442250571 0.05566055062
521.25 0.05541950925 0.0310575937
521.875 0.03170316275 0.06181315463
522.5 0.06515873168 0.006215824689
523.125 0.1105915221 -0.01608918315
523.75 0.09785225521 -0.0498284855
524.375 0.05980474303 0.01769488282
525.0 0.00278301845 0.002232656658
525.625 0.005241861534 0.01736322421
526.25 0.006964915697 0.0576897597
526.875 0.01918810028 0.01802348026
527.5 0.02326113827 0.02591280122
528.125 0.04391694984 0.007158862183
528.75 0.05814124297 -0.003223426678
529.375 0.02948267957 -0.03052172926
530.0 0.02232869537 -0.01892623298
530.625 0.008135746107 -0.07905161908
531.25 0.02453840856 -0.1873275549
531.875 -0.05253012686 -0.1160665235
532.5 -0.08129285245 -0.07579899752
533.125 -0.07740053721 -0.05724457603
533.75 -0.07322255097 -0.07301430378
534.375 -0.06136578525 -0.03284740408
535.0 -0.06153664628 -0.02114254245
535.625 -0.03168175969 -0.04307000813
536.25 -0.03850002164 -0.04586387631
536.875 -0.03009821999 -0.04755108229
537.5 -0.03845832488 -0.08040312697
538.125 -0.0674919058 -0.05931226503
538.75 -0.0625824454 -0.04280295698
539.375 -0.0264692713 -0.02951589485
540.0 -0.04558197858 -0.08765787086
540.625 -0.05832172967 -0.09846933143
541.25 -0.04371300947 -0.1009418887
541.875 -0.03741386623 -0.06788302671
542.5 -0.04468398778 -0.08729431259
543.125 -0.09318180462 -0.05787703718
543.75 -0.1072184578 0.01271731155
544.375 -0.05276321275 0.03776737641
545.0 -0.03095422505 0.05405945047
545.625 -0.01917889902 0.06336073487
546.25 0.008659308168 0.07215274981
546.875 0.01963654213 0.08111903232
547.5 0.01285446313 0.08337035041
548.125 0.00475598893 0.06502107544
548.75 -0.01561913891 0.08182245558
549.375 -0.009598694072 0.05281955377
550.0 -0.03764693426 0.02485231676
550.625 -0.0244327164 -0.001849917809
551.25 -0.01631274387 -0.03634522411
551.875 -0.04049251748 -0.04841843176
552.5 -0.06650898137 -0.05207970413
553.125 -0.06739865297 -0.02585676642
553.75 -0.08635254362 -0.0246255235
554.375 -0.09280524116 0.001145992917
555.0 -0.09404454728 0.01837712783
555.625 -0.07790737755 0.02841369105
556.25 -0.08597429986 0.01816424013
556.875 -0.1027457847 0.0202290172
557.5 -0.0718944712 0.02387568152
558.125 -0.071176535 0.02421943768
558.75 -0.06609194587 0.002835328388
559.375 -0.03622926783 0.003522870861
560.0 -0.02477053524 -0.006427955081
560.625 -0.03625099448 -0.03365400631
561.25 -0.05836939093 -0.04139586739
561.875 -0.07771399071 -0.02086811431
562.5 -0.07214959602 0.01810939037
563.125 -0.07181962086 0.05818797313
563.75 -0.0599283541 0.08978047654
564.375 -0.02376799581 0.0745079346
565.0 -0.01974421658 0.07433295589
565.625 -0.01703729032 0.06941998973
566.25 -0.04614349051 0.04554872362
566.875 -0.06038755693 0.03076812258
567.5 -0.05021444697 0.009312762588
568.125 -0.05400069385 0.004136571197
568.75 -0.04071303196 0.002186291839
569.375 -0.03796051323 -0.01318013846
570.0 -0.007316878537 -0.03481975131
570.625 -0.03484705786 -0.05076823187
571.25 -0.04084180928 -0.03774690006
571.875 -0.06319657695 -0.02645642656
572.5 -0.07860900164 -0.02619231432
573.125 -0.1038657821 0.0105861008
573.75 -0.06057504993 0.05747430262
574.375 -0.03037532946 0.07462633399
575.0 -0.04745839213 0.06070957553
575.625 -0.05624115009 0.06365942767
576.25 -0.03472879577 0.06929072816
576.875 -0.01025320401 0.06562689148
577.5 -0.008056159775 0.0704312192
578.125 -0.01816887901 0.05339827866
578.75 -0.01321361769 0.04110656136
579.375 -0.009131137825 0.0467090013
580.0 -0.02220190459 0.01580308775
580.625 -0.03589855579 0.0003510002729
581.25 -0.05564957663 0.007170851183
581.875 -0.06661282836 0.03950197332
582.5 -0.07596434846 0.02445065691
583.125 -0.0632921057 0.04569361945
583.75 -0.05867636625 0.02847891585
584.375 -0.06843776348 0.03115589191
585.0 -0.07509569962 0.006780250885
585.625 -0.06394446746 0.0209557627
586.25 -0.05236161486 0.009222222447
586.875 -0.06207151049 0.01864045957
587.5 -0.0523512501 0.002343568058
588.125 -0.03104355752 0.04280429496
588.75 -0.02494847969 0.03532928706
589.375 -0.02505869837 0.03650388938
590.0 -0.04697426911 0.01951235508
590.625 -0.04586335324 0.05057514455
591.25 -0.0350096847 0.08107652771
591.875 -0.0303308535 0.09082140617
592.5 0.004992459372 0.07683155891
593.125 0.0009333533626 0.06027247985
593.75 -0.008931622944 0.05492869001
594.375 -0.02351522193 0.0567067248
595.0 -0.03330831181 0.01097520734
595.625 -0.02896044974 0.003716625411
596.25 -0.03802150456 -0.007096227634
596.875 -0.03282264321 -0.02104722171
597.5 -0.0366234056 -0.004650551648
598.125 -0.01981083752 -0.0190440258
598.75 -0.01401973377 -0.02731574333
599.375 -0.01296324794 -0.02486569219
600.0 -0.01304589896 -0.0752394604
600.625 -0.02318338811 -0.07697629597
601.25 -0.03679100233 -0.06294954047
601.875 -0.05525190097 -0.03489786595
602.5 -0.05298926252 -0.02596892385
603.125 -0.04762043368 -0.03419920794
603.75 -0.03015507688 -0.02910676012
604.375 -0.01585506377 -0.02140510384
605.0 -0.01689660029 -0.01878766635
605.625 0.01545412604 -0.05647374047
606.25 -0.002742239069 -0.0382852713
606.875 -0.001993757945 -0.0164814646
607.5 -0.005938113387 0.0007883687801
608.125 0.03817420924 -0.02031750611
608.75 0.02240007261 -0.02154193736
609.375 0.02809153175 -0.01399174893
610.0 0.02438545215 -0.000755386674
610.625 0.0699374681 -0.01303794935
611.25 0.05860381457 -0.02044680339
611.875 0.04836634204 -0.01390439049
612.5 0.01918860183 -0.01853891848
613.125 0.015025015 -0.00514462221
613.75 0.01254349934 0.009180240433
614.375 0.02295041417 0.01859963498
615.0 0.03000190144 0.01732627936
615.625 0.005629534628 0.006775634427
616.25 0.01673870331 0.02269384732
616.875 0.02254348022 0.03366513369
617.5 0.01936898988 0.03278743276
618.125 0.01743852261 0.03364387429
618.75 0.02075810338 0.03273020115
619.375 0.02254996592 0.0371392475
620.0 0.02089295453 0.02652190291
620.625 0.04171946083 0.02249369913
621.25 0.01982371907 -0.004752369325
621.875 -0.01050124641 -0.02337984266
622.5 -0.03629338851 0.006621431291
623.125 -0.0544278211 0.04342572714
623.75 -0.02078270718 0.0554324301
624.375 -0.02836049287 0.04470496514
625.0 -0.04445628918 0.03164463174
625.625 -0.0669803214 0.02775654187
626.25 -0.0310456309 0.08918967259
626.875 -0.01761679235 0.0661766044
627.5 -0.01751292552 0.04416809055
628.125 -0.03235053863 0.006801170443
628.75 -0.03790254342 0.04122627966
629.375 -0.01968947104 0.01444807119
630.0 -0.008592344363 -0.0007079519272
630.625 0.004659998012 -0.03713455771
631.25 -0.003497426265 -0.03038663285
631.875 -0.01049557278 -0.04206967618
632.5 -0.01658450966 -0.05526706568
633.125 -0.001317670357 -0.07470264663
633.75 -0.02662519059 -0.0594617515
634.375 -0.02642865783 -0.06076013795
635.0 -0.03755776328 -0.05392790459
635.625 -0.0416168265 -0.0411894482
636.25 -0.02970789996 -0.04320118646
636.875 -0.03618278429 -0.02728047941
637.5 -0.02562193163 -0.061554422
638.125 -0.04280181469 -0.04662972557
638.75 -0.02028850765 -0.03412156674
639.375 0.00257832881 -0.0234801896
640.0 0.0494318992 -0.01773707942
640.625 0.05397273983 -0.02224335198
641.25 0.04525532452 -0.02709074096
641.875 0.03817718889 -0.03018352789
642.5 0.05157164346 -0.01170427406
643.125 0.05629685898 0.008550591913
643.75 0.06985269746 0.01217460933
644.375 0.04505890615 -0.02741577513
645.0 0.04395491783 -0.002125687169
645.625 0.04173649843 0.01461802411
646.25 0.05837803011 0.03116524615
646.875 0.07658361401 0.03196472821
647.5 0.06052564267 0.01526235137
648.125 0.05607955715 0.02565980063
648.75 0.04658436305 0.05297645955
649.375 0.04998789323 0.09110092917
650.0 0.04252698337 0.06354304442
650.625 0.03814219059 0.05526328373
651.25 0.008596917183 0.07334664315
651.875 -0.03495318567 0.07109577845
652.5 -0.007709959634 0.05137790436
653.125 -0.01889673762 0.03699468532
653.75 -0.03439531488 0.005324112725
654.375 -0.02365635826 -0.02629139476
655.0 -0.02495707153 -0.04859727682
655.625 -0.04459381581 -0.06216376224
656.25 -0.07117839055 -0.06324550064
656.875 -0.08364722623 -0.04379526523
657.5 -0.06208265401 -0.03096942483
658.125 -0.09019489931 -0.05205987513
658.75 -0.1032390227 -0.02728110339
659.375 -0.09313529474 0.01438320339
660.0 -0.06082551959 0.03623397317
660.625 -0.06030263579 0.0288652163
661.25 -0.05371636928 0.01987684529
661.875 -0.03759834787 0.02776578756
662.5 -0.02817736667 0.02260154415
663.125 -0.05389731476 0.008595543763
663.75 -0.06117502827 -0.02502472297
664.375 -0.05997977747 -0.06395146771
665.0 -0.02008697216 -0.07861031671
665.625 0.01576341503 -0.1086194389
666.25 0.03361669495 -0.08996359591
666.875 0.03594294419 -0.08574526682
667.5 0.05098746529 -0.07679322183
668.125 0.05669467726 -0.05435978639
668.75 0.03648189035 -0.03859316595
669.375 0.05436617761 -0.03536368298
670.0 0.06283015969 -0.02278365044
670.625 0.06528009257 -0.01576567257
671.25 0.0551175233 -0.02950280518
671.875 0.07145013462 -0.05044023578
672.5 0.04713316337 -0.06496051434
673.125 0.02602804831 -0.08811969438
673.75 0.006500042366 -0.09617893604
674.375 0.02869179619 -0.08987158319
675.0 0.05411005587 -0.05235455265
675.625 0.05565370365 -0.02862711331
676.25 0.07184253919 -0.01205433943
676.875 0.07806790976 0.0170913458
677.5 0.03156954279 0.03708813288
678.125 0.02454157795 0.04863602648
678.75 0.04139921161 0.07183831462
679.375 0.07222206934 0.1088342222
680.0 0.04281507559 0.07312495213
680.625 0.07262826497 0.06162108101
681.25 0.1042399249 0.03468274375
681.875 0.1255842764 0.01163958722
682.5 0.0970704734 -0.02963967512
683.125 0.05598876946 -0.02890933621
683.75 0.06005999509 0.000431641947
684.375 0.0485276952 0.04452368621
685.0 0.01494195117 0.06758839734
685.625 -0.03401789612 0.02434056903
686.25 -0.06682761403 0.00498740679
686.875 -0.07570892262 -0.03088316043
687.5 -0.09983292717 -0.03628287153
688.125 -0.08697359902 -0.06258647637
688.75 -0.09781570918 -0.07525945809
689.375 -0.07705923456 -0.05464739092
690.0 -0.08451132726 -0.0505967663
690.625 -0.08784280142 -0.04868146167
691.25 -0.08469676563 -0.03877131025
691.875 -0.05406444916 0.01301213136
692.5 -0.03947380696 0.02413314427
693.125 -0.0276104194 0.08356596125
693.75 -0.03224368917 0.09377472565
694.375 0.005097221983 0.09581861792
695.0 -0.01976430855 0.09450911059
695.625 -0.09452997584 0.07338452244
696.25 -0.1017377971 -0.04956710221
696.875 -0.02721977945 -0.1075289351
697.5 0.03932667063 -0.08578366624
698.125 0.05140222194 -0.06966197791
698.75 0.0389911707 -0.04506136394
699.375 0.05684981842 -0.02939938187
700.0 0.07306338286 -0.002770893155
700.625 0.077497722 0.02336051336
701.25 0.05579761607 0.03661911231
701.875 0.09252442665 0.02714813449
702.5 0.1291911007 -0.02577162183
703.125 0.08924493002 -0.07888678
703.75 -0.03178786426 -0.09475385102
704.375 -0.04343116684 -0.05747311337
705.0 -0.01541198207 -0.08298149755
705.625 0.0238070245 -0.07259702291
706.25 0.04482687702 -0.05213349092
706.875 0.03648880369 0.03773880892
707.5 0.02297167135 0.07100873872
708.125 -0.03571329824 0.08578416764
708.75 -0.06076172311 0.08274980425
709.375 -0.08896169574 0.01225812961
710.0 -0.08251884337 -0.02259708269
710.625 -0.07250374054 -0.04959113572
711.25 -0.07923335987 -0.07560767912
711.875 -0.05184623217 -0.07275473899
712.5 -0.07110523635 -0.01211788401
713.125 -0.03939494337 0.03136188293
713.75 -0.02450497646 0.05360777987
714.375 -0.01657408421 0.07174307994
715.0 -0.02935449207 0.05677874886
715.625 -0.04060118243 0.06382650392
716.25 -0.07677349361 0.06685225314
716.875 -0.09964591452 0.05751621261
717.5 -0.08149492246 -0.04330979189
718.125 -0.0727126867 -0.03580940874
718.75 -0.0689449932 -0.0481093223
719.375 -0.03872439707 -0.08058502965
720.0 -0.01922010065 -0.07963094563
720.625 0.05489941504 -0.03848024781
721.25 0.04929394457 0.008378733384
721.875 0.01280343703 0.02874649196
722.5 -0.07561074468 0.01567325352
723.125 -0.061046015 0.05260380407
723.75 -0.0002328225875 0.09013333725
724.375 0.06531476601 0.05346545577
725.0 0.06884054828 -0.01585782964
725.625 0.07423322818 -0.02761546451
726.25 0.06742149921 -0.02871672637
726.875 0.046474012 -0.02424169458
727.5 0.02705266615 -0.02612240053
728.125 0.01075614496 0.08393758971
728.75 0.01289680739 0.05411720046
729.375 0.03310863019 0.04278687562
730.0 0.0357474507 0.03337427203
730.625 0.01444469304 0.01592066308
731.25 -0.02156118145 0.04909649965
731.875 -0.0495457028 0.03261091765
732.5 -0.05447670852 -0.003844443549
733.125 -0.03538726182 0.001873506083
733.75 -0.04754560469 -0.02637863587
734.375 -0.02377330679 -0.003795154712
735.0 -0.02542990349 -0.0104172281
735.625 -0.02822634544 -0.02246772505
736.25 -0.03584367061 -0.01024240652
736.875 -0.04864394356 -0.0210210684
737.5 -0.0695327809 -0.02706280725
738.125 -0.03663783746 -0.01490525675
738.75 -0.05533657171 -0.02548708278
739.375 -0.0278348656 -0.03084634484
740.0 -0.003386427804 -0.04171548107
740.625 0.002736803364 -0.02468041114
741.25 -0.04682712892 -0.04937067903
741.875 0.0137088472 -0.02480205892
742.5 0.02349627925 0.008852619696
743.125 -0.01173428781 0.02538612226
743.75 -0.01488353331 0.05063250301
744.375 -0.03331145116 0.02541504071
745.0 -0.045609127 0.03521551967
745.625 -0.06602416255 0.03951324799
746.25 0.006205154379 0.08279696426
746.875 0.04143820823 0.0437758607
747.5 0.03021821969 0.01077838691
748.125 0.01830395362 0.006125806766
748.75 0.01508833438 0.02913188312
749.375 0.0269608918 -0.03531602031
750.0 -0.0005887928228 -0.02874170219
