!Created with skrf (http://scikit-rf.org).
# GHz S RI R 50.0 
!freq ReS11 ImS11
500.0 -0.01190832029 0.027360402
500.625 0.01988939671 0.03195842517
501.25 0.03277669512 0.01612091694
501.875 0.02125048984 0.02787121472
502.5 0.01560177286 0.0365428155
503.125 0.02985097322 0.04662968929
503.75 0.04470526935 0.01530931568
504.375 0.04442568161 0.0005664163118
505.0 0.04440713875 -0.02593042342
505.625 0.07335466155 -0.03445690111
506.25 0.02855870638 -0.06640309614
506.875 0.05500767335 -0.05206007631
507.5 0.04968589877 -0.03830380171
508.125 0.07292759353 -0.01869433245
508.75 0.04626779721 -0.05556451385
509.375 0.04537861098 -0.04444781987
510.0 0.07401627567 -0.03046913707
510.625 0.004430592327 -0.0704418119
511.25 -0.03219183828 -0.05188159727
511.875 -0.04862935475 -0.006643847727
512.5 -0.03275468246 0.007849377347
513.125 -0.0321428728 0.02352689857
513.75 -0.02559985162 0.04064044429
514.375 -0.004046787689 0.05545930909
515.0 -0.005016277848 0.0997539018
515.625 -0.01543770207 0.09060150498
516.25 0.028696822 0.09762189501
516.875 -0.04562743922 0.1194843199
517.5 0.03542479794 0.101788141
518.125 -0.02075503546 0.1319798089
518.75 0.03009405104 0.04193445541
519.375 0.007709784626 0.06840360886
520.0 0.04037973787 0.07459181561
520.625 0.06630233347 0.02692283176
521.25 0.05552580378 0.0172937057
521.875 0.03503348936 0.04605247372
522.5 0.06661506616 0.01832829887
523.125 0.1130605096 -0.04651399965
523.75 0.1016560371 -0.05214823472
524.375 0.05875682083 -0.005139378441
525.0 0.002986724127 0.01502426029
525.625 0.001318447435 0.0193128661
526.25 0.002982292655 0.03787334733
526.875 0.01443351195 0.0328594534
527.5 0.02892318157 0.03283488154
528.125 0.03258308657 0.002474211238
528.75 0.04991616186 -0.006821967919
529.375 0.03783966792 -0.03022663683
530.0 0.03016145619 -0.02683866311
530.625 0.0110192224 -0.08037921054
531.25 0.02778418607 -0.1702364898
531.875 -0.04470915289 -0.1409981519
532.5 -0.08455042654 -0.09319928192
533.125 -0.06652311731 -0.0435189068
533.75 -0.06478883183 -0.05131859406
534.375 -0.06422096419 -0.03943384766
535.0 -0.07229931159 -0.03052536634
535.625 -0.02670265259 -0.01697521288
536.25 -0.0276565857 -0.0376386862
536.875 -0.03664576931 -0.0642035706
537.5 -0.04463595768 -0.09021720297
538.125 -0.06683444145 -0.06002455035
538.75 -0.05401329478 -0.03527364886
539.375 -0.03045905217 -0.04705896615
540.0 -0.05590608383 -0.09865715058
540.625 -0.05270547455 -0.1078397645
541.25 -0.03784515374 -0.09433939957
541.875 -0.04609854528 -0.08476163071
542.5 -0.04969177863 -0.09417050205
543.125 -0.09246852122 -0.06287020693
543.75 -0.09776030559 0.01323185556
544.375 -0.05824266754 0.03556881276
545.0 -0.04050534931 0.06217980093
545.625 -0.005982616723 0.04573166935
546.25 0.007207593131 0.06677651021
546.875 0.01867828138 0.06703504966
547.5 0.0105681421 0.09635390682
548.125 0.002263272171 0.07001385766
548.75 -0.01624365378 0.07210020917
549.375 -0.02071865042 0.0622341187
550.0 -0.05048567424 0.02996401589
550.625 -0.003412191381 -0.004964568455
551.25 -0.01339919489 -0.0363693099
551.875 -0.04489597876 -0.04931329686
552.5 -0.07680217055 -0.05337223225
553.125 -0.06714757222 -0.02609766619
553.75 -0.07609852686 -0.03066775441
554.375 -0.09172566477 -0.0001821159987
555.0 -0.1025745658 0.0240963829
555.625 -0.06173234925 0.02124786867
556.25 -0.08312534505 0.01695643207
556.875 -0.09340333942 0.0155650233
557.5 -0.08606766241 0.02733083344
558.125 -0.07937583906 0.02551551059
558.75 -0.06189608539 0.002492550974
559.375 -0.03647492737 0.0005001025452
560.0 -0.0313148946 -0.00518290865
560.625 -0.01496620961 -0.03319735838
561.25 -0.05127563022 -0.04172351483
561.875 -0.06763006981 -0.02430307474
562.5 -0.07694281455 0.02359835305
563.125 -0.06516955321 0.04147345032
563.75 -0.05753173383 0.07279387664
564.375 -0.02594193154 0.07847060115
565.0 -0.02075177816 0.08212276723
565.625 -0.01469832852 0.04588608642
566.25 -0.04059589878 0.03330392272
566.875 -0.05340276342 0.02158175448
567.5 -0.06139895201 0.01702558816
568.125 -0.05971593471 0.006077354947
568.75 -0.04371891011 0.001401659026
569.375 -0.02997840529 -0.01718276746
570.0 -0.02039849051 -0.03487060642
570.625 -0.02635174011 -0.04804083367
571.25 -0.03837397342 -0.03916688184
571.875 -0.0591418752 -0.03373801886
572.5 -0.08905622294 -0.01486361727
573.125 -0.1066321934 0.01755445001
573.75 -0.06158597418 0.05995255119
574.375 -0.03481161832 0.06469271196
575.0 -0.04301884872 0.07334886641
575.625 -0.05441049992 0.0496191878
576.25 -0.03916923031 0.06298556584
576.875 -0.01509793053 0.07060232664
577.5 -0.001200726857 0.08031649502
578.125 -0.01787567914 0.03423101998
578.75 -0.01533965503 0.03622998142
579.375 -0.0138492915 0.03738938466
580.0 -0.0203483135 0.03030597044
580.625 -0.03292415522 0.00772421932
581.25 -0.05506050942 0.006368352772
581.875 -0.07554579557 0.02793312144
582.5 -0.07771539447 0.03794017824
583.125 -0.06096329159 0.05507071434
583.75 -0.06009303577 0.02208092936
584.375 -0.07170980849 0.01255922487
585.0 -0.07026311166 0.0007984730683
585.625 -0.06291949618 0.02998883565
586.25 -0.05675689924 0.0100057655
586.875 -0.06122150377 0.003881103573
587.5 -0.0570518074 0.01363877238
588.125 -0.02801633907 0.0506978015
588.75 -0.02660036989 0.03514380467
589.375 -0.03975622429 0.02005015683
590.0 -0.0480559148 0.0174585921
590.625 -0.03466701694 0.05379328201
591.25 -0.05462526164 0.07455776947
591.875 -0.03636465217 0.08522549494
592.5 -0.009507969252 0.06794765827
593.125 0.01360879172 0.06244112811
593.75 -0.02499292935 0.05661243451
594.375 -0.03643984113 0.04017038532
595.0 -0.0339275594 0.01991531768
595.625 -0.02756308522 0.01747185544
596.25 -0.0274782626 -0.03484655079
596.875 -0.03211908086 -0.02433536556
597.5 -0.02710248957 -0.0240241135
598.125 -0.02707141762 -0.00924698688
598.75 -0.01233845306 -0.02603989735
599.375 -0.01299385175 -0.03856955452
600.0 -0.02009829316 -0.0590438967
600.625 -0.03216280125 -0.06250153319
601.25 -0.03414859759 -0.07521531823
601.875 -0.05002556785 -0.05320269311
602.5 -0.0520347686 -0.04280264333
603.125 -0.05469700393 -0.0150822111
603.75 -0.0168591991 -0.03613948111
604.375 -0.01672918858 -0.02168887976
605.0 -0.01061642804 -0.02899643792
605.625 -0.002443227448 -0.04886537186
606.25 -0.01897347272 -0.0346665938
606.875 -0.006965418956 -0.01735758421
607.5 0.01622431368 -0.01187007196
608.125 0.01771271939 -0.0128428653
608.75 0.04257841623 -0.03158927377
609.375 0.03405348328 -0.01291225558
610.0 0.03960740498 -0.004343723968
610.625 0.05202507498 -0.01484645657
611.25 0.04397428986 -0.0213069308
611.875 0.04743130076 -0.01921385123
612.5 0.04602222976 -0.008781428175
613.125 0.02265498679 -0.002555126078
613.75 -0.005742915792 0.002699223317
614.375 0.04276920997 0.03911038588
615.0 0.03501438619 0.02349114252
615.625 0.02181642271 0.01695617145
616.25 0.0009485659219 0.01759881251
616.875 0.03290661591 0.04599498465
617.5 0.03947110788 0.04707400158
618.125 0.02778110761 0.03307438398
618.75 0.001586961091 0.02240721031
619.375 0.03445349216 0.06131447982
620.0 0.04183779693 0.04377248434
620.625 0.0391066203 0.0115116973
621.25 0.005379190625 -0.01292105961
621.875 0.004887773674 0.006759800325
622.5 -0.01656456306 0.01384187095
623.125 -0.0284477336 0.04372487856
623.75 -0.04414903918 0.05035281127
624.375 -0.01897101461 0.06617558939
625.0 -0.04467979035 0.03570379874
625.625 -0.05620499049 0.04026057564
626.25 -0.0370747273 0.06244456786
626.875 -0.02211240411 0.05220402433
627.5 -0.01492758046 0.04057700761
628.125 -0.01866681501 0.03544232744
628.75 -0.02871718566 0.0212304991
629.375 -0.01743773937 0.001566823938
630.0 -0.01657801666 0.01876951006
630.625 0.0009723248041 -0.01820161375
631.25 0.008284864166 -0.04339053471
631.875 0.003963500208 -0.05062960463
632.5 -0.01196674243 -0.05414077641
633.125 -0.01882597993 -0.05364389657
633.75 -0.02755224158 -0.05133124675
634.375 -0.01423230818 -0.07701937913
635.0 -0.06040112096 -0.03881359222
635.625 -0.04558933606 -0.03888056013
636.25 -0.03235663151 -0.03337148153
636.875 -0.01713052595 -0.04152538632
637.5 -0.01450191669 -0.07388018885
638.125 -0.04211993165 -0.04316070182
638.75 -0.02689231448 -0.01674953511
639.375 0.004552048655 -0.01883049447
640.0 0.06646230812 -0.01617365185
640.625 0.04416086967 -0.02799360825
641.25 0.0388197388 -0.0322090814
641.875 0.04574759311 -0.02530889209
642.5 0.06239793315 0.0001464269378
643.125 0.05761308594 0.008888580838
643.75 0.05433502695 0.001626710892
644.375 0.05130770819 -0.007132556822
645.0 0.04928126106 0.01042308533
645.625 0.03049873907 0.004644344162
646.25 0.04380987557 0.0166827165
646.875 0.067108093 0.0175882972
647.5 0.06851936164 0.02449258847
648.125 0.03916111609 0.002827621572
648.75 0.04375691435 0.04877981208
649.375 0.04667698038 0.0742195951
650.0 0.04178295619 0.07570541114
650.625 0.03707174641 0.06150254041
651.25 0.01023543524 0.07250256348
651.875 -0.027039441 0.06617095837
652.5 -0.02336772625 0.04872765054
653.125 -0.03167141079 0.03526168933
653.75 -0.02826640712 0.006129262772
654.375 -0.01927450475 -0.0282644637
655.0 -0.03277977203 -0.05563157517
655.625 -0.03408726213 -0.04125547037
656.25 -0.06671341323 -0.05728429909
656.875 -0.07625434872 -0.03740729721
657.5 -0.07405554258 -0.04622735557
658.125 -0.0993355525 -0.05773941289
658.75 -0.1007763857 -0.03035856038
659.375 -0.08039044811 0.01637615037
660.0 -0.05999358026 0.03319938208
660.625 -0.07116743608 0.03027563241
661.25 -0.03930758431 0.0233604677
661.875 -0.03064802433 0.0238244145
662.5 -0.03955633248 0.0239848893
663.125 -0.06605558646 0.01249148749
663.75 -0.06175885155 -0.02895949334
664.375 -0.04736716818 -0.05993017896
665.0 -0.02507696269 -0.09461956807
665.625 0.005513229144 -0.08052937556
666.25 0.02748516002 -0.077888365
666.875 0.03927844359 -0.07916260174
667.5 0.0619441506 -0.0889427534
668.125 0.03171827401 -0.04956008603
668.75 0.03146665075 -0.03595823157
669.375 0.04536406966 -0.03092661694
670.0 0.07603165853 -0.02969180357
670.625 0.06120837997 -0.01680746435
671.25 0.05638548014 -0.03325869284
671.875 0.06854541199 -0.04477335132
672.5 0.05487128374 -0.08012546974
673.125 0.02568399129 -0.09393720329
673.75 0.005859166982 -0.08795193564
674.375 0.0221115918 -0.07405796149
675.0 0.06361866355 -0.06116444532
675.625 0.0467925261 -0.02771152723
676.25 0.05620435142 -0.007837967532
676.875 0.06069793182 0.01277242415
677.5 0.04174047354 0.04266934443
678.125 0.02682907631 0.04643575161
678.75 0.04488065003 0.07480791514
679.375 0.05905661769 0.1047810973
680.0 0.04979913223 0.08579333978
680.625 0.080934864 0.06031419729
681.25 0.08093073906 0.03288826786
681.875 0.1056673018 0.012531364
682.5 0.08481748579 -0.02828443184
683.125 0.06999456043 -0.03190167289
683.75 0.05966165275 0.0003527239511
684.375 0.05087676969 0.05155869564
685.0 0.004178902786 0.05448595882
685.625 -0.03923685612 0.04404745112
686.25 -0.07229501211 0.0127665823
686.875 -0.08014830583 -0.03148831879
687.5 -0.09461731799 -0.04420837922
688.125 -0.1090248063 -0.06107726352
688.75 -0.1097016589 -0.07523238576
689.375 -0.07687421536 -0.05582965168
690.0 -0.06887282981 -0.05056838095
690.625 -0.08565270207 -0.05279451359
691.25 -0.1012430464 -0.03991014717
691.875 -0.03603348369 0.007440750663
692.5 -0.03766098649 0.01696704969
693.125 -0.03689113525 0.07276118278
693.75 -0.01713941769 0.114655897
694.375 0.01323780007 0.1023340307
695.0 -0.02320791636 0.09779654641
695.625 -0.0929621049 0.05282671275
696.25 -0.09987006414 -0.05401546085
696.875 -0.04298017965 -0.1143079125
697.5 0.03387513249 -0.08845169822
698.125 0.0490707546 -0.06261760988
698.75 0.03796667265 -0.03454421868
699.375 0.05968199086 -0.04128375068
700.0 0.07565922495 -0.003650928128
700.625 0.06467903882 0.03317107383
701.25 0.0566154575 0.03528217116
701.875 0.09874009178 0.01535135649
702.5 0.1307306629 -0.00817424614
703.125 0.08775962371 -0.06820589081
703.75 -0.02034294398 -0.08824870494
704.375 -0.05805324646 -0.05933977181
705.0 -0.03072341968 -0.08838431363
705.625 0.02703084923 -0.07388642802
706.25 0.05043431334 -0.03513183403
706.875 0.05001893905 0.02470338791
707.5 0.0375644886 0.06668686182
708.125 -0.04604117503 0.08163016641
708.75 -0.07501465898 0.06482590214
709.375 -0.09019802922 0.02342978838
710.0 -0.09005820209 -0.009494892932
710.625 -0.06020931285 -0.0598560971
711.25 -0.05653326569 -0.08869993126
711.875 -0.07553899229 -0.07015259962
712.5 -0.08025767555 -0.006988047501
713.125 -0.04485312307 0.03481947021
713.75 -0.04630611311 0.0328958559
714.375 -0.04067758436 0.05511090527
715.0 -0.01175846403 0.06085096775
715.625 -0.03934467008 0.0615598796
716.25 -0.06812210333 0.0681157034
716.875 -0.1163560984 0.03298586134
717.5 -0.08976223285 -0.03376029621
718.125 -0.07995576826 -0.01772536679
718.75 -0.0482879909 -0.07654936669
719.375 -0.03239332954 -0.0845268223
720.0 -0.005164251711 -0.07897896054
720.625 0.04389960418 -0.05040168617
721.25 0.02516531778 0.03911966614
721.875 -0.01448246945 0.03439623795
722.5 -0.0514902027 0.02681041808
723.125 -0.03927292657 0.05683715405
723.75 -0.02375127142 0.108262405
724.375 0.06459501541 0.06304779998
725.0 0.08255052313 0.007546042968
725.625 0.05898211897 -0.04450212116
726.25 0.05524798122 -0.03942443553
726.875 0.04792251414 -0.02499382372
727.5 0.03745382796 -0.007511906041
728.125 0.02745838995 0.05388060368
728.75 0.02242453532 0.029334113
729.375 0.03033186539 0.06412261619
730.0 0.03651814368 0.04678021617
730.625 0.009319023215 0.03818081501
731.25 -0.005043845962 0.03620212235
731.875 -0.06162256099 0.03150285465
732.5 -0.05684417147 -0.001228545725
733.125 -0.05519446194 -0.02638219544
733.75 -0.03251009118 0.0001696872744
734.375 -0.04095805877 -0.05284689858
735.0 -0.05719611782 -0.02963134232
735.625 -0.04149421934 -0.0113520966
736.25 -0.007582943803 -0.01914789419
736.875 -0.08898231736 -0.02588954397
737.5 -0.07602948627 -0.0357865107
738.125 -0.05967502036 -0.02505938595
738.75 -0.03804737528 -0.006950201164
739.375 -0.02174987572 -0.04055143938
740.0 -0.003685662206 -0.03467433923
740.625 -0.02945982382 -0.03728053432
741.25 -0.03091702179 -0.03000264827
741.875 0.02343558695 0.001865892746
742.5 0.06034332654 0.001824209447
743.125 0.01755041097 0.03970395634
743.75 -0.00989836229 0.02856882547
744.375 -0.04444630449 0.00604760455
745.0 -0.04376558734 0.02657130856
745.625 -0.03963999716 0.05614388847
746.25 0.005672014311 0.07961884706
746.875 0.01800029314 0.04779211011
747.5 0.05982164522 0.00581798112
748.125 0.0259790862 -0.001216529699
748.75 0.01752101101 0.01098384083
749.375 0.02585059224 -0.0163132662
750.0 0.01485959345 -0.02836302593
