!Created with skrf (http://scikit-rf.org).
# GHz S RI R 50.0 
!freq ReS11 ImS11
500.0 -0.007770370541 0.007357508665
500.625 0.01418085181 0.002271285395
501.25 0.007423540581 -0.0192579562
501.875 -0.006732940304 -0.03282795091
502.5 -0.005682372763 -0.01045688741
503.125 0.002552565896 0.0008460749149
503.75 0.001207909129 -0.01279685088
504.375 -0.00421540596 -0.02167175568
505.0 -0.00371962324 -0.02119729025
505.625 -0.006346055356 -0.03202730594
506.25 -0.03012494728 -0.03934669086
506.875 -0.03527869506 -0.07987185326
507.5 -0.04692676912 -0.05216923797
508.125 -0.02914442142 -0.06185965027
508.75 -0.08319224699 -0.04392104927
509.375 -0.08128268013 -0.02627602393
510.0 -0.0553090309 -0.02647212071
510.625 -0.03688526021 0.01676414832
511.25 -0.05923407159 0.03177040667
511.875 -0.03744785538 0.05961594543
512.5 0.008173647663 0.05149841494
513.125 0.07271984448 0.01237028877
513.75 0.09379038224 -0.004378627408
514.375 0.06849293061 -0.02698132527
515.0 0.04223026543 -0.04802025572
515.625 0.0887727668 -0.0198675884
516.25 0.09177194243 -0.03975549854
516.875 0.08911089768 0.05956841392
517.5 0.1084646041 -0.02890971971
518.125 0.1977625699 0.1151038751
518.75 0.1089925276 -0.06038820171
519.375 0.07629529163 -0.03359532401
520.0 0.05137298063 -0.06791371359
520.625 0.07477090974 -0.1009849991
521.25 0.0462784649 -0.1029906464
521.875 0.04754767473 -0.04890061907
522.5 0.01376343848 -0.09182792648
523.125 0.05232596447 -0.2337022288
523.75 0.004625116821 -0.3020813303
524.375 -0.001990702416 -0.2879260577
525.0 -0.01499584295 -0.1434622705
525.625 -0.008496017159 -0.1122885665
526.25 0.01576792515 -0.08757195736
526.875 -0.01217437335 -0.07924757551
527.5 -0.04747552575 -0.08813650463
528.125 -0.06297285506 -0.05194480161
528.75 -0.070993031 -0.0391364236
529.375 -0.1219365818 0.03022635098
530.0 -0.08726698529 0.09932384015
530.625 0.001377854701 0.09881476727
531.25 -0.004009451716 0.07173211963
531.875 -0.02559626951 0.1160912475
532.5 -0.03299978575 0.1642701526
533.125 -0.01828114961 0.1269154977
533.75 0.01833750869 0.09320947107
534.375 0.02768979153 0.1102585652
535.0 0.02905527668 0.1376100275
535.625 -0.008785981161 0.1015587963
536.25 0.06282403557 0.06390239527
536.875 0.04887866003 0.08508361381
537.5 -0.0209697815 0.09359566478
538.125 -0.01428788614 0.08296374441
538.75 0.0323169566 0.1157878102
539.375 0.00298927039 0.1526153548
540.0 0.01011354493 0.1218191093
540.625 0.008509433008 0.09526018653
541.25 0.01272931788 0.114789714
541.875 -0.01066301106 0.1183420175
542.5 -0.03200815235 0.05606969743
543.125 -0.01297132398 0.06515077632
543.75 0.05446884014 0.1027560877
544.375 0.08933889168 0.1141305948
545.0 0.1137493325 0.01075112304
545.625 0.0878712831 -0.061437802
546.25 0.07712781458 -0.1102647513
546.875 0.07970429056 -0.09757387939
547.5 0.08618902235 -0.08906555823
548.125 0.1156560421 -0.1008180626
548.75 0.1573546957 -0.06381281453
549.375 0.1596986929 -0.02470403256
550.0 0.1523595529 0.01994989195
550.625 0.1861364839 0.02442815464
551.25 0.1177363875 0.09006062678
551.875 0.08710027622 0.03785415499
552.5 0.08473936731 0.007891229897
553.125 0.1121342981 0.0003549194641
553.75 0.07483723916 0.04003369101
554.375 0.049053315 0.01818213728
555.0 0.06492539462 0.01189793741
555.625 0.09883563935 0.006648432749
556.25 0.08473786483 0.04152309694
556.875 0.05351665243 0.0388872491
557.5 0.07090944264 0.04657030358
558.125 0.08215311109 0.08469748493
558.75 0.04414058652 0.1093406215
559.375 0.06680196597 0.0920487313
560.0 0.09416531656 0.08692349722
560.625 0.09271363947 0.06347433677
561.25 0.07492178057 0.02223963153
561.875 0.07564926763 0.003652274573
562.5 0.08248695111 0.0006167704389
563.125 0.07589178634 -0.001252390703
563.75 0.06126145289 -0.01198972533
564.375 0.07658084042 -0.04290888645
565.0 0.1374576771 -0.03062745194
565.625 0.1143877533 -0.02787375473
566.25 0.09675063547 -0.02029294917
566.875 0.1061015305 -0.01762566906
567.5 0.1170189683 0.03342577983
568.125 0.07665528312 0.06993092526
568.75 0.08679176493 0.07188867842
569.375 0.09919285975 0.08354572509
570.0 0.09368627363 0.07683717732
570.625 0.07722878114 0.05080780162
571.25 0.08814768526 0.02624049296
571.875 0.09392377001 0.02677879868
572.5 0.06426017707 -0.0006159772679
573.125 0.04866336947 -0.002187354382
573.75 0.08199861136 -0.01885513974
574.375 0.1036880875 -0.04157728788
575.0 0.07546914774 -0.04059285425
575.625 0.04287308833 -0.04539464985
576.25 0.06277702575 -0.05734061188
576.875 0.08592412683 -0.03734140213
577.5 0.08255946912 -0.03117802865
578.125 0.07476772969 -0.04844163109
578.75 0.09563924254 -0.07276229436
579.375 0.1126856303 -0.0525271643
580.0 0.08972310704 -0.0515692925
580.625 0.07833784419 -0.08077711235
581.25 0.0650424006 -0.09667845913
581.875 0.05551806426 -0.05579468289
582.5 0.04409799795 -0.02641285304
583.125 0.07105688197 -0.03268869818
583.75 0.09285646232 -0.02614825596
584.375 0.07825732285 -0.01161578271
585.0 0.06332148371 0.002034374336
585.625 0.08017829356 0.009155194854
586.25 0.09122623197 0.01915148137
586.875 0.07022916212 0.005515211005
587.5 0.06969265831 -0.01314757885
588.125 0.0891986951 -0.03400183963
588.75 0.09806864897 -0.03780706221
589.375 0.06401147619 -0.0690559328
590.0 0.01478755171 -0.0992707673
590.625 0.0009916372547 -0.09255572308
591.25 0.01313619083 -0.04371350612
591.875 0.02355244224 -0.02552322132
592.5 0.03111587455 -0.04984920242
593.125 0.05056739515 -0.07078163528
593.75 0.06173399862 -0.04743489793
594.375 0.06445044246 -0.0248041622
595.0 0.08468900253 -0.01543633218
595.625 0.09622919597 0.007381393433
596.25 0.07709643025 0.02414226859
596.875 0.06189141322 0.02951432075
597.5 0.06588202864 0.0436763937
598.125 0.0722762028 0.04624080946
598.75 0.08127008206 0.01992874129
599.375 0.08201047726 0.003079705193
600.0 0.07066376122 -0.0005852703925
600.625 0.04559813298 -0.0007243031009
601.25 0.02705489973 -0.003613002962
601.875 0.02299950862 0.01013314095
602.5 0.01658223387 0.02672033568
603.125 0.005880637872 0.03360264113
603.75 0.01080417014 0.03899059903
604.375 0.02393743171 0.04380484647
605.0 0.01812095221 0.04172005696
605.625 -0.0002508531785 0.02712125412
606.25 -0.01836611867 0.02957987878
606.875 -0.02351218597 0.04763739224
607.5 -0.008487209433 0.05918043967
608.125 0.01492011053 0.04674783828
608.75 0.01776579149 0.03661488955
609.375 0.01460444388 0.03600161897
610.0 0.01279027426 0.03275261391
610.625 0.01777788552 0.01842554258
611.25 0.01340264114 0.005127700248
611.875 0.008446605237 -0.006387400282
612.5 -0.001413197302 -0.01506662593
613.125 -0.01416652333 -0.01322453595
613.75 -0.01677622184 -0.002422201965
614.375 -0.005955582021 0.003210039929
615.0 0.004725205613 -0.003630422279
615.625 0.0006585174112 -0.01171216611
616.25 -0.004941177733 -0.004730337186
616.875 0.002924267921 0.005207818588
617.5 0.0191516968 0.00190512999
618.125 0.02500584125 -0.004949179984
618.75 0.0253180354 -0.004449622603
619.375 0.03432593308 0.0001540473651
620.0 0.05400954977 -0.006675264208
620.625 0.05560466306 -0.03361111848
621.25 0.04818326342 -0.04332802071
621.875 0.03576421717 -0.05238357614
622.5 -0.01425797516 -0.04715606975
623.125 -0.01377316971 -0.01943872866
623.75 0.003648870411 -0.005375956479
624.375 0.02145337684 0.0006003540618
625.0 0.02805761176 0.01555119149
625.625 0.02494930913 0.02411437289
626.25 0.03970084681 0.03216705894
626.875 0.06736903204 0.03784132905
627.5 0.07017044427 0.05198881202
628.125 0.05865682714 0.04892271378
628.75 0.06055469021 0.04957590171
629.375 0.07024284731 0.06480799552
630.0 0.05744684786 0.07821959215
630.625 0.04240975232 0.06568429362
631.25 0.04272836691 0.05877963854
631.875 0.03178482774 0.06157520443
632.5 0.01232133225 0.05773348479
633.125 -0.00208030455 0.04813004912
633.75 0.004035590311 0.05891789501
634.375 -0.007722249294 0.06686588605
635.0 -0.01099080339 0.06541660847
635.625 -0.002136076643 0.07782322239
636.25 0.009324229383 0.09725098647
636.875 -0.003296798629 0.0910315688
637.5 -0.01114500189 0.06445426293
638.125 -0.01771925667 0.08396477459
638.75 -0.04037037211 0.1185643823
639.375 -0.06430255749 0.09073775082
640.0 -0.05515103763 0.05150552412
640.625 -0.0604482189 0.04636192807
641.25 -0.09657388448 0.02350358151
641.875 -0.08476172894 -0.01146438319
642.5 -0.07091387626 -0.01068210639
643.125 -0.08527357171 -0.01093486422
643.75 -0.09781833096 -0.04480270041
644.375 -0.08655161827 -0.05878572833
645.0 -0.09290553912 -0.02734275414
645.625 -0.1192483662 -0.01452490104
646.25 -0.1128172082 -0.01830423319
646.875 -0.08216950411 -0.03768659975
647.5 -0.08140309127 -0.0304541072
648.125 -0.10417813 -0.03800093698
648.75 -0.07521173003 -0.05566832907
649.375 -0.0394955924 -0.05113569272
650.0 -0.02153486494 -0.06902458186
650.625 0.01447580201 -0.09107595801
651.25 0.04795814619 -0.07852644498
651.875 0.06458924018 -0.05493708719
652.5 0.1066503886 -0.04922544203
653.125 0.1465126926 -0.0003785870361
653.75 0.1294802031 0.01950285402
654.375 0.1235289149 0.01523001994
655.0 0.1375879399 0.03120205384
655.625 0.1085175218 0.05870633477
656.25 0.07134161233 0.03354583627
656.875 0.08761278998 0.002163129224
657.5 0.1046543613 0.02843165003
658.125 0.07613549609 0.05664934957
658.75 0.047527539 0.05522827258
659.375 0.08405482347 0.03495127227
660.0 0.1310823441 0.02472032155
660.625 0.1323457903 0.0117636868
661.25 0.120899433 -0.01770544014
661.875 0.1236099906 -0.06839138546
662.5 0.1229565993 -0.09337828303
663.125 0.1131812077 -0.06702425001
663.75 0.1169630519 -0.03351186009
664.375 0.1202792828 0.06054084788
665.0 0.04532170259 0.09504505341
665.625 0.0087242598 0.08178291607
666.25 -0.004801043215 0.08854292386
666.875 -0.07953793395 0.102399526
667.5 -0.1127685713 0.04066183495
668.125 -0.09500351418 0.04159370602
668.75 -0.0919750365 0.08983565055
669.375 -0.1213276019 0.1050270965
670.0 -0.1168015743 0.04974895042
670.625 -0.08915344037 0.03801348507
671.25 -0.09008422157 0.09183175181
671.875 -0.07974060228 0.1170053663
672.5 -0.03614724277 0.1079039541
673.125 -0.01742618968 0.08765571148
673.75 -0.03029055144 0.105260512
674.375 -0.06796985482 0.1030199029
675.0 -0.09152499543 0.07274610911
675.625 -0.1203458954 0.04998631804
676.25 -0.1433839043 -0.01915040889
676.875 -0.1325633931 -0.04600618754
677.5 -0.1333609469 -0.02499596692
678.125 -0.1666515292 -0.008903989416
678.75 -0.137954838 -0.05959754204
679.375 -0.07059254262 -0.04964701246
680.0 -0.06731090252 -0.03147104928
680.625 -0.1068268336 -0.03661392538
681.25 -0.1168578639 -0.05710229979
681.875 -0.07786555146 -0.05032384034
682.5 -0.09706064746 -0.00722130144
683.125 -0.1456262416 0.01746663991
683.75 -0.1707274737 -0.02281143612
684.375 -0.1038784097 -0.0994905524
685.0 -0.03337560394 -0.132589993
685.625 0.06227156336 -0.1513192274
686.25 0.1153113471 -0.1136495206
686.875 0.1205836767 -0.08316786737
687.5 0.1280729293 -0.04062891332
688.125 0.1043983861 0.003927822698
688.75 0.0758502752 0.0327994952
689.375 0.08534495873 0.04103523919
690.0 0.1080223886 0.08775750691
690.625 0.07422124608 0.102978614
691.25 0.09384814599 0.0708891603
691.875 0.1446986505 -0.01849996129
692.5 0.1437023982 -0.1619073244
693.125 0.01246830139 -0.18567325
693.75 -0.07771653116 -0.1001619449
694.375 -0.1069761174 -0.08381352599
695.0 -0.06340287506 -0.1568476956
695.625 0.09178702148 -0.1193733238
696.25 0.09860936657 0.01375948767
696.875 0.05391886388 0.0931435111
697.5 -0.04181905349 0.1122563408
698.125 -0.09250183129 0.09443888634
698.75 -0.0993795708 0.09824284233
699.375 -0.1074868981 0.097438136
700.0 -0.1091969867 0.06750577242
700.625 -0.111782297 0.03926282782
701.25 -0.1374083074 0.04961720934
701.875 -0.1424399083 0.03890028568
702.5 -0.07719237262 0.0499135702
703.125 -0.04176841672 0.05870196632
703.75 0.01977412953 0.1245236184
704.375 0.07177982611 0.1755967466
705.0 0.0504392767 0.1320648403
705.625 0.01902123967 0.1098461359
706.25 -0.05760487277 0.1321798055
706.875 -0.1819649858 0.02466715989
707.5 -0.1258832311 -0.07994840208
708.125 -0.07685517553 -0.08424507601
708.75 -0.02772741724 -0.1105769875
709.375 0.06636571245 -0.0910619143
710.0 0.100570377 -0.01600509885
710.625 0.08738032161 0.008885985429
711.25 0.07569046115 0.03378256805
711.875 0.06078701978 0.04637716018
712.5 0.08654383464 0.04556751956
713.125 0.1394944624 -0.04022061229
713.75 0.0712801151 -0.1439351182
714.375 -0.03408443259 -0.1374907669
715.0 -0.09645432493 -0.09725664381
715.625 -0.104944159 -0.1300009916
716.25 -0.01247444098 -0.1431189912
716.875 0.03650922306 -0.08375421432
717.5 0.06361001216 -0.05045134451
718.125 0.1040817917 -0.02296886527
718.75 0.1037356283 0.02898598801
719.375 0.05835964382 0.04521460634
720.0 0.02567682219 0.05687575181
720.625 -0.05100893102 0.06285463302
721.25 -0.09984374327 -0.03905555365
721.875 -0.03646958598 -0.1080183026
722.5 -0.02523048635 -0.1188374826
723.125 -0.07705015499 -0.09922365229
723.75 -0.1029067731 -0.02056549529
724.375 -0.07506785269 0.03679392168
725.0 -0.0333194501 0.06206264071
725.625 -0.007143914971 0.0524647581
726.25 -0.01265247826 0.03568554628
726.875 -0.04000003689 0.02720955291
727.5 -0.07586073428 0.01401234855
728.125 -0.08354604748 -0.01027210156
728.75 -0.07134484137 -0.001590485729
729.375 -0.05456497835 0.01933834766
730.0 -0.05215646886 0.01368545945
730.625 -0.0525466945 -0.001667042708
731.25 -0.03951754451 -0.01493465445
731.875 -0.02194074631 -0.02971550282
732.5 -0.002262203074 -0.02644168068
733.125 0.007841329959 -0.005729583967
733.75 0.01664830167 0.006493451304
734.375 0.02851820065 0.001312414504
735.0 0.02349903147 -0.01666768633
735.625 0.01611357307 -0.02084746489
736.25 0.00832275125 -0.02812544098
736.875 -0.009019723194 -0.03156939356
737.5 -0.02785679652 -0.0157423939
738.125 -0.03778195757 0.006270123464
738.75 -0.03459792999 0.02896094418
739.375 -0.01370607315 0.03727999617
740.0 -0.002492584515 0.0247192796
740.625 -0.009355976275 0.02299853604
741.25 -0.01752878678 0.03203353938
741.875 -0.03266724317 0.01955999322
742.5 -0.03289325919 -0.02016304747
743.125 0.009963668767 -0.04234789539
743.75 0.03568369148 -0.02793998399
744.375 0.03290613851 -0.02878101064
745.0 0.02870290528 -0.03594460237
745.625 0.0172308257 -0.03057178018
746.25 0.02934401872 -0.01543302802
746.875 0.03218012265 -0.03921397826
747.5 0.002108632597 -0.0611580091
748.125 -0.03139293314 -0.05896739112
748.75 -0.05829013196 -0.03073666453
749.375 -0.06687251232 0.02153266772
750.0 -0.01809966518 0.08622771349
