!Created with skrf (http://scikit-rf.org).
# GHz S RI R 50.0 
!freq ReS11 ImS11
500.0 -0.02624252134 0.02623154361
500.625 0.02958991048 0.02544252574
501.25 0.03197694825 0.01695170043
501.875 0.02500002753 0.02863575146
502.5 -0.002241289422 0.06452779388
503.125 0.02936453701 0.03498804244
503.75 0.04192983286 0.01915557727
504.375 0.04471066494 -0.0009671179699
505.0 0.05765902472 -0.01713502183
505.625 0.05917848635 -0.04579980591
506.25 0.03200846484 -0.05872709088
506.875 0.06043240013 -0.03749629735
507.5 0.04424578518 -0.04848033912
508.125 0.07000760009 -0.01938681115
508.75 0.0448306985 -0.05099433847
509.375 0.04553302617 -0.04405483115
510.0 0.05182653459 -0.05034837159
510.625 -0.00372575857 -0.06675632008
511.25 -0.02718514173 -0.06049054622
511.875 -0.0456722928 -0.01541614869
512.5 -0.03474336271 -0.002889128587
513.125 -0.02070698988 0.03020329279
513.75 -0.02592271938 0.04418926609
514.375 -0.02943880023 0.07012465874
515.0 0.03150031916 0.06417911465
515.625 -0.02619740204 0.0875966006
516.25 0.03139069639 0.09973128667
516.875 -0.0707977696 0.1253014259
517.5 0.05110680625 0.09705146952
518.125 -0.03615276119 0.1183835019
518.75 0.01575872468 0.05387895701
519.375 -0.007706298439 0.08077952879
520.0 0.04529562074 0.06236629829
520.625 0.05880871431 0.03616368177
521.25 0.05557534455 0.02945572064
521.875 0.02932749518 0.06052967192
522.5 0.06684951311 -0.006719835048
523.125 0.1113578492 -0.02743722284
523.75 0.102978746 -0.05839869587
524.375 0.05377120877 0.008277248008
525.0 0.006772090702 -0.01327863994
525.625 -0.001833765252 0.0257168537
526.25 0.004454378038 0.04319203483
526.875 0.01266576062 0.04087943963
527.5 0.02004174623 0.02020485264
528.125 0.03639881208 0.008148123165
528.75 0.05622813373 -0.004163822307
529.375 0.05329325519 -0.03205724182
530.0 0.02836341721 -0.02656091478
530.625 0.008289541848 -0.08437540508
531.25 0.02904090935 -0.170877251
531.875 -0.04489888309 -0.1544329152
532.5 -0.08136928597 -0.08039408896
533.125 -0.0667803287 -0.05282246475
533.75 -0.06917333 -0.06763449198
534.375 -0.07046728145 -0.05037372919
535.0 -0.05325412028 -0.006838815188
535.625 -0.02608105112 -0.02580650615
536.25 -0.02993524974 -0.03811992036
536.875 -0.04012149394 -0.05669700634
537.5 -0.04344474165 -0.08921228356
538.125 -0.06775495306 -0.06041487855
538.75 -0.05449834086 -0.03413773677
539.375 -0.03496043527 -0.05157402038
540.0 -0.04045474077 -0.0825419024
540.625 -0.06065907815 -0.1186978608
541.25 -0.0385792799 -0.09376388523
541.875 -0.0409681327 -0.07337684393
542.5 -0.04733309068 -0.09398966462
543.125 -0.09534011468 -0.06726385249
543.75 -0.09595177682 0.01503228463
544.375 -0.06742971085 0.03588896176
545.0 -0.01667435531 0.0444063754
545.625 -0.01186638048 0.05050079722
546.25 0.01137973766 0.06475465753
546.875 0.01810155468 0.07953348023
547.5 0.01212596171 0.07281000938
548.125 -0.001060469456 0.07444593254
548.75 -0.01538918395 0.0715841862
549.375 -0.02907827502 0.07439501889
550.0 -0.02257706672 0.02127223024
550.625 -0.01074050459 -0.005971448582
551.25 -0.01045671643 -0.03325525813
551.875 -0.05701456273 -0.04779665053
552.5 -0.06473229395 -0.05119642555
553.125 -0.07128592543 -0.0289967368
553.75 -0.07755800469 -0.03099378198
554.375 -0.1027889074 0.003781194471
555.0 -0.08520757273 0.01593165725
555.625 -0.06893462077 0.0233771454
556.25 -0.08048389582 0.01662745725
556.875 -0.1007350412 0.01754411686
557.5 -0.08442751255 0.02732707777
558.125 -0.07792808377 0.02532282901
558.75 -0.06032089885 0.005843518468
559.375 -0.04474125401 -0.001451859249
560.0 -0.02090534177 -0.007610857853
560.625 -0.02220023129 -0.03544679085
561.25 -0.05775318921 -0.03967553839
561.875 -0.08095465059 -0.02089225699
562.5 -0.06508230021 0.00887259299
563.125 -0.06976845183 0.04658773334
563.75 -0.06109385593 0.08528781964
564.375 -0.02851886451 0.08656180805
565.0 -0.01889508333 0.07277844437
565.625 -0.01757663127 0.05287388116
566.25 -0.04487495874 0.04246872162
566.875 -0.05990784809 0.02925315087
567.5 -0.05302940351 0.01230491784
568.125 -0.05922980922 0.005999609679
568.75 -0.04762203906 0.001434581306
569.375 -0.02819308169 -0.01762393584
570.0 -0.02006830493 -0.03384870433
570.625 -0.03231758429 -0.05095412606
571.25 -0.03641547678 -0.03816955667
571.875 -0.05857887495 -0.03399107582
572.5 -0.08008317367 -0.022137771
573.125 -0.1073572646 0.01593493405
573.75 -0.06268776124 0.06264417871
574.375 -0.03172283409 0.0726928506
575.0 -0.05018259298 0.04230685184
575.625 -0.05618821359 0.0561473709
576.25 -0.03371169941 0.06902945518
576.875 -0.01034794813 0.07742576193
577.5 -0.01536386118 0.05492787075
578.125 -0.01964119307 0.03985904767
578.75 -0.012460906 0.03455641647
579.375 -0.01045118199 0.04636079299
580.0 -0.01957700503 0.02169644948
580.625 -0.0340002255 0.006388307953
581.25 -0.05350517824 0.005579741075
581.875 -0.07396597292 0.02717931829
582.5 -0.07736918761 0.04044555167
583.125 -0.06293386765 0.04194327692
583.75 -0.06271697142 0.02638830768
584.375 -0.0720618271 0.01917432171
585.0 -0.07871830577 0.01374637447
585.625 -0.06241349361 0.021373165
586.25 -0.05760975688 0.01950361896
586.875 -0.06145809761 0.00451831795
587.5 -0.05606655895 0.01245047852
588.125 -0.0328781449 0.0406877184
588.75 -0.02682714007 0.03759102683
589.375 -0.03591196608 0.02269172744
590.0 -0.03964931935 0.02529397614
590.625 -0.05374854787 0.04558118169
591.25 -0.04843216218 0.07864644826
591.875 -0.03216956506 0.08547519422
592.5 0.005804286866 0.07766720804
593.125 -0.008974651191 0.0531080389
593.75 -0.02033875365 0.06062609718
594.375 -0.02966886355 0.04853399487
595.0 -0.03070851203 0.03254997519
595.625 -0.03020596121 -0.01077030068
596.25 -0.03132705642 -0.02881037371
596.875 -0.02942997006 -0.02501721621
597.5 -0.03665678898 -0.006005603604
598.125 -0.01598286027 -0.02091045209
598.75 -0.01061007922 -0.02533393714
599.375 -0.01174005322 -0.04044710876
600.0 -0.01946483022 -0.05401458388
600.625 -0.02654147894 -0.07254996111
601.25 -0.04014077607 -0.07087778608
601.875 -0.05319879595 -0.04499036684
602.5 -0.05661934613 -0.02001324394
603.125 -0.03723597665 -0.05027769484
603.75 -0.02396845267 -0.03078806525
604.375 -0.01606644488 -0.02247031854
605.0 -0.01313770024 -0.02752493663
605.625 -0.005114043758 -0.04438367894
606.25 -0.009420474287 -0.03791523491
606.875 -0.01834214878 -0.01391482424
607.5 0.007067506283 -0.005234268444
608.125 0.02886648901 -0.0169238995
608.75 0.03263970246 -0.02699323619
609.375 0.0347378574 -0.01216311972
610.0 0.02969239704 -0.003894233143
610.625 0.05107943167 -0.01438356982
611.25 0.04895438662 -0.02051139034
611.875 0.03823049337 -0.01774191145
612.5 0.03724357855 -0.01016192271
613.125 0.005845145798 -0.01034807824
613.75 0.02499165817 0.01485955914
614.375 0.03599604118 0.0297177961
615.0 0.02858821795 0.02301673791
615.625 -0.0007410859381 0.004344045004
616.25 0.02846958553 0.03230519088
616.875 0.02733123655 0.03881160002
617.5 0.02239886776 0.03590406656
618.125 0.009115975213 0.02308314295
618.75 0.03610989839 0.04850599687
619.375 0.028840094 0.04994433789
620.0 0.0269432313 0.03197277428
620.625 0.02400950029 0.002814730693
621.25 0.0183885345 -0.001037227
621.875 0.004217768891 -0.002895753969
622.5 -0.03324663805 0.00889610512
623.125 -0.05236866485 0.04202382369
623.75 -0.002798826704 0.07082911334
624.375 -0.02356330106 0.0556228671
625.0 -0.04729512508 0.03852287863
625.625 -0.06124535669 0.02975350028
626.25 -0.04076049056 0.06347122254
626.875 -0.0222135348 0.05718394088
627.5 -0.02391977186 0.03343810439
628.125 -0.02398811433 0.02570560683
628.75 -0.02633292645 0.00359409578
629.375 -0.01948491796 0.01334909256
630.0 -0.01039741311 0.01374504445
630.625 -0.002033000733 -0.01629989269
631.25 -0.01501894477 -0.02493759194
631.875 -0.002489991585 -0.04916140603
632.5 -0.008785209623 -0.06312740412
633.125 -0.01289859138 -0.06229065308
633.75 -0.01558382054 -0.06821456571
634.375 -0.03721473869 -0.05383403382
635.0 -0.04810237121 -0.04518053387
635.625 -0.04864917892 -0.03917303723
636.25 -0.02861824769 -0.03939631128
636.875 -0.01704001391 -0.0441400421
637.5 -0.0262821059 -0.06297257092
638.125 -0.03365140071 -0.04518677215
638.75 -0.02664888585 -0.02048052205
639.375 0.01862250827 -0.02653424568
640.0 0.04234210966 -0.02064646695
640.625 0.04592641927 -0.02069279436
641.25 0.04573622867 -0.02669346905
641.875 0.05936649432 -0.01789751404
642.5 0.05785294749 -0.0006588274088
643.125 0.06163926453 0.0111067928
643.75 0.05779840333 0.00339144187
644.375 0.06028255629 -0.001245985681
645.0 0.04426218107 0.001790565031
645.625 0.03183909546 0.01235671207
646.25 0.05498707867 0.02667004223
646.875 0.08163066296 0.03943943193
647.5 0.05266650915 0.002066537573
648.125 0.04090593781 0.01287374432
648.75 0.04524704389 0.04586251923
649.375 0.04797804202 0.09055064487
650.0 0.04772825544 0.05067902255
650.625 0.03452919667 0.0620784316
651.25 0.01689085951 0.07402166767
651.875 -0.03405141223 0.06673331037
652.5 -0.02389056532 0.04983802771
653.125 -0.02757046273 0.03441177197
653.75 -0.02728921404 0.01005466121
654.375 -0.02831715426 -0.03800714879
655.0 -0.02044890395 -0.04114795146
655.625 -0.03747464 -0.05131922759
656.25 -0.06746805663 -0.05402924591
656.875 -0.08148472368 -0.04522714113
657.5 -0.0735513361 -0.04485642679
658.125 -0.08871950717 -0.05062159918
658.75 -0.1043286064 -0.03725767157
659.375 -0.08310201446 0.01604325415
660.0 -0.07393464051 0.03134218048
660.625 -0.04973587773 0.02928481421
661.25 -0.04536514712 0.01727169964
661.875 -0.03471811064 0.02820939278
662.5 -0.05033475527 0.03071596876
663.125 -0.06510301191 0.01123354064
663.75 -0.06760745793 -0.03196904954
664.375 -0.04741561147 -0.06156556461
665.0 -0.02101406914 -0.07285755906
665.625 0.01300865697 -0.08982871427
666.25 0.03179646529 -0.0875417429
666.875 0.04656554349 -0.09029498989
667.5 0.03497687256 -0.06541057469
668.125 0.04406736334 -0.05145044921
668.75 0.03341743061 -0.03211700077
669.375 0.05357204869 -0.03200505215
670.0 0.0542895772 -0.0188070105
670.625 0.06647277708 -0.01708716892
671.25 0.06026242703 -0.03230619264
671.875 0.06984071157 -0.04226138091
672.5 0.06049660963 -0.0915818162
673.125 0.03005815195 -0.09207226966
673.75 0.004391742531 -0.09446679007
674.375 0.03106971877 -0.09304326807
675.0 0.04041337547 -0.04113127524
675.625 0.05452914766 -0.02666984164
676.25 0.06930182246 -0.01030856022
676.875 0.07850131458 0.01841818938
677.5 0.01776306269 0.0296211072
678.125 0.02787620243 0.05075620395
678.75 0.05423283645 0.07618709325
679.375 0.05947984356 0.1077630632
680.0 0.04863905339 0.08193271024
680.625 0.06953582611 0.05941210963
681.25 0.08826819155 0.03863840856
681.875 0.121524976 0.01351953405
682.5 0.09679890361 -0.02872579918
683.125 0.05372626933 -0.02478497518
683.75 0.06367578378 0.001354334596
684.375 0.05840107237 0.05543456827
685.0 0.00864434487 0.05938633016
685.625 -0.03667485362 0.03329253573
686.25 -0.06732785097 0.001691632754
686.875 -0.0842712267 -0.03317723651
687.5 -0.09288904373 -0.04666220804
688.125 -0.105090484 -0.06310386707
688.75 -0.09544059123 -0.07438389933
689.375 -0.08080482157 -0.05951899909
690.0 -0.08120790987 -0.05087000206
690.625 -0.1011241002 -0.05425455819
691.25 -0.07080870004 -0.03594483505
691.875 -0.04285964155 0.008851938556
692.5 -0.03608243127 0.02128330979
693.125 -0.03220802374 0.08256258568
693.75 -0.02158189602 0.1133652624
694.375 0.01162438877 0.09968747613
695.0 -0.01892764076 0.1026336731
695.625 -0.09515707386 0.06832939278
696.25 -0.1142954734 -0.04962773368
696.875 -0.009701121866 -0.0929851292
697.5 0.03929198537 -0.09095987581
698.125 0.04840487859 -0.05990046226
698.75 0.04110053946 -0.05184454453
699.375 0.05944061096 -0.02838292928
700.0 0.08275060875 -0.009215242394
700.625 0.06549330961 0.03317465265
701.25 0.06394359643 0.02886374902
701.875 0.08854797414 0.03351639499
702.5 0.1365137856 -0.0149970146
703.125 0.08637568617 -0.07756079394
703.75 -0.02905073798 -0.09464920188
704.375 -0.0197489929 -0.05513730431
705.0 -0.02524735131 -0.08542899713
705.625 0.02552773097 -0.0802330812
706.25 0.04894040693 -0.03455354272
706.875 0.05171666689 0.01964532761
707.5 0.01405702449 0.07303377894
708.125 -0.04273772176 0.08627436159
708.75 -0.07034207654 0.07427319642
709.375 -0.0912199838 0.03542311661
710.0 -0.07137857072 -0.03591162997
710.625 -0.06552291446 -0.05484058568
711.25 -0.07466106624 -0.07943472254
711.875 -0.06876979419 -0.06643057855
712.5 -0.06854609206 -0.01528673426
713.125 -0.04530400214 0.03607417268
713.75 -0.0294640274 0.0502043094
714.375 -0.01556099926 0.07185361847
715.0 -0.04932492443 0.0477614474
715.625 -0.03708243211 0.06305214164
716.25 -0.05521987588 0.07597619028
716.875 -0.114793679 0.03481451787
717.5 -0.09416619344 -0.02019153261
718.125 -0.06426554848 -0.05259652783
718.75 -0.05493141404 -0.07021553651
719.375 -0.02725063417 -0.08163905691
720.0 -0.008391060187 -0.08061933674
720.625 0.05759413158 -0.02101015419
721.25 0.03302310915 0.03231038186
721.875 -0.01020016635 0.03014829897
722.5 -0.03770675562 0.03000485265
723.125 -0.06101623273 0.0568873605
723.75 -0.01621265772 0.1043960085
724.375 0.06190776481 0.05503660832
725.0 0.05980626854 -0.02294706311
725.625 0.09494271383 -0.008963413697
726.25 0.05922461324 -0.03686235273
726.875 0.03965452827 -0.02798321572
727.5 0.03467238868 -0.006750563916
728.125 0.02785056454 0.03325501126
728.75 0.003715377014 0.07129382884
729.375 0.0307652456 0.05712123913
730.0 0.0321285306 0.03461778001
730.625 0.01456546504 0.02089208756
731.25 -0.04201909991 0.06345464632
731.875 -0.0532485773 0.03071156927
732.5 -0.04863506546 0.001915630289
733.125 -0.05368020014 -0.02059219647
733.75 -0.04030392336 -0.04032463545
734.375 -0.03956470607 -0.03900666183
735.0 -0.02966811172 -0.01423938341
735.625 -0.008554450195 -0.01031671796
736.25 -0.06665042726 -0.01244805189
736.875 -0.07327084022 -0.02041027628
737.5 -0.07520890687 -0.03294164051
738.125 -0.04581379407 -0.01665094183
738.75 -0.06408689127 -0.04143104701
739.375 -0.01959901619 -0.02783067441
740.0 0.002888750794 -0.02892955654
740.625 -0.02146678149 -0.03486593209
741.25 -0.009856631444 -0.01944970343
741.875 0.01148448444 -0.04347601258
742.5 0.04466279964 0.005262708975
743.125 -0.00384401486 0.02645243931
743.75 -0.02762421144 0.01440224116
744.375 -0.03144843454 0.02375403277
745.0 -0.04221456698 0.02145614748
745.625 -0.03917960802 0.05730329147
746.25 -0.01846298396 0.06612812683
746.875 0.06607375857 0.05726311371
747.5 0.05079035347 0.003128643859
748.125 0.02674334206 0.00146446607
748.75 0.015787663 0.01482500224
749.375 0.02740109682 -0.0003456024625
750.0 -0.00151114748 -0.02707223304
