!Created with skrf (http://scikit-rf.org).
# GHz S RI R 50.0 
!freq ReS11 ImS11
500.0 -0.009618494727 -0.003906788338
500.625 0.00996006273 0.001323661539
501.25 -0.03039053064 -0.001941042678
501.875 -0.03611316006 -0.01197993988
502.5 -0.01918237931 -0.009022339963
503.125 -0.008018791614 0.004921376694
503.75 -0.005981706918 0.0006860258861
504.375 -0.00809248916 -0.01364208191
505.0 -0.003599392078 -0.007175690207
505.625 -0.002751360196 -0.02566777236
506.25 -0.01203669485 -0.005456179726
506.875 -0.03679715657 -0.0529681005
507.5 -0.04923657016 -0.0425722425
508.125 -0.03181537999 -0.01534107505
508.75 -0.06407857819 -0.01292085789
509.375 -0.06895527282 0.01196123037
510.0 -0.05706554062 -0.01983051629
510.625 -0.01661989671 0.01390439982
511.25 -0.04269468279 0.02865822689
511.875 -0.0271759724 0.05309466882
512.5 0.01267708409 0.04234264575
513.125 0.0640854659 0.004309231202
513.75 0.07246498657 -0.02337677333
514.375 0.0497467708 -0.03646170523
515.0 0.03632315064 -0.05072139468
515.625 0.03361070695 -0.02818925134
516.25 0.05029347087 -0.03360312446
516.875 0.06893517014 0.03409172382
517.5 0.1012304328 -0.03141612175
518.125 0.1313232829 0.04155077783
518.75 0.09079616584 -0.06368252594
519.375 0.0642272513 -0.03580184459
520.0 0.04497579807 -0.0665974682
520.625 0.04171398117 -0.0762745604
521.25 0.02247373749 -0.08547091682
521.875 0.03274959544 -0.043577545
522.5 0.008622300625 -0.08923329524
523.125 0.01400503958 -0.1596171174
523.75 -0.01826966626 -0.2721013504
524.375 -0.02893659645 -0.2589885117
525.0 -0.02477278905 -0.1417108693
525.625 -0.02017556243 -0.1022168746
526.25 0.007683924538 -0.08499185407
526.875 -0.01711308155 -0.07258035489
527.5 -0.05387816648 -0.0820734398
528.125 -0.06329907768 -0.03700571024
528.75 -0.05922600774 -0.02374056044
529.375 -0.1083263441 0.03566421353
530.0 -0.05412528576 0.09693400335
530.625 0.01929789086 0.09245697901
531.25 0.01843914312 0.05830137177
531.875 -0.01282958413 0.1008168371
532.5 -0.01900070905 0.1416999602
533.125 -0.004061348901 0.1138915676
533.75 0.02040961194 0.08488314791
534.375 0.03024520339 0.09567790719
535.0 0.03962510986 0.1326598876
535.625 0.002060077095 0.08619465821
536.25 0.06400450775 0.05717270593
536.875 0.05435481341 0.07712878806
537.5 -0.007504660633 0.06791110363
538.125 -0.01071852125 0.07320360382
538.75 0.03668292694 0.1089207925
539.375 0.01432063838 0.1461446461
540.0 0.01995123275 0.1211831313
540.625 0.01540658079 0.08494799776
541.25 0.01880660651 0.09060792615
541.875 0.003110668635 0.1179190896
542.5 -0.0225656741 0.03824207232
543.125 -0.01198173406 0.05656080159
543.75 0.05650294406 0.09358417139
544.375 0.08782453942 0.1030975293
545.0 0.1137490332 0.004245904272
545.625 0.07387029347 -0.05165414538
546.25 0.06589884619 -0.09232320171
546.875 0.06225166823 -0.08864077748
547.5 0.0800555367 -0.09165771608
548.125 0.1041806647 -0.09720136553
548.75 0.1416450408 -0.07044519709
549.375 0.1510894257 -0.03136975775
550.0 0.1513994882 0.01313271191
550.625 0.1654396409 0.01323798499
551.25 0.1098191775 0.07302907482
551.875 0.08764811852 0.03074367582
552.5 0.08498064163 0.002611439802
553.125 0.1022956806 -0.006250561616
553.75 0.07786066561 0.03194975448
554.375 0.04770104005 0.01287817829
555.0 0.06372266776 0.005935350543
555.625 0.0723191552 0.01124373061
556.25 0.07697764669 0.03399180883
556.875 0.04331344943 0.03347490131
557.5 0.06878851153 0.03942730153
558.125 0.06983052521 0.07528000524
558.75 0.03807794651 0.09986281347
559.375 0.06726762147 0.0860346768
560.0 0.098309475 0.08001880059
560.625 0.07940233456 0.05054073993
561.25 0.06649182484 0.01619400193
561.875 0.07160845274 -0.002176364742
562.5 0.08262479297 -0.008894307663
563.125 0.06461009729 -0.003731609504
563.75 0.05723049184 -0.01299240636
564.375 0.06883338935 -0.04007119232
565.0 0.1308420967 -0.04028838153
565.625 0.1012967633 -0.02109127302
566.25 0.0874723855 -0.01707435127
566.875 0.09079937794 -0.01516334861
567.5 0.1168423095 0.0222465377
568.125 0.0626870209 0.06671468911
568.75 0.08293326418 0.0669015264
569.375 0.1016083444 0.0756427216
570.0 0.09685706255 0.07039577966
570.625 0.05956115518 0.04463427176
571.25 0.07685693738 0.02566328793
571.875 0.0817210898 0.01990330156
572.5 0.06617756256 -0.007781589415
573.125 0.03658377606 0.00596211634
573.75 0.07368990151 -0.01702445302
574.375 0.09199885667 -0.03067663256
575.0 0.07248099626 -0.04794806801
575.625 0.04383494397 -0.0282814419
576.25 0.05796768331 -0.04077164121
576.875 0.07887738814 -0.03561578847
577.5 0.07884434739 -0.03578816494
578.125 0.07560600241 -0.03659542413
578.75 0.09196562013 -0.0587542169
579.375 0.1063035149 -0.04142463456
580.0 0.08684840058 -0.05538830563
580.625 0.07676391852 -0.06457964169
581.25 0.06031207624 -0.09108913209
581.875 0.05155207554 -0.0592359244
582.5 0.04150485211 -0.02770219594
583.125 0.06663055358 -0.03606705823
583.75 0.08604933311 -0.01986074461
584.375 0.07526863814 -0.01343831366
585.0 0.06065543232 0.001096033762
585.625 0.07516527087 0.01097401073
586.25 0.0851564946 0.0187370268
586.875 0.06704710918 0.005580476927
587.5 0.06627835728 -0.01448389688
588.125 0.0844284767 -0.0374667015
588.75 0.09488994499 -0.0321539898
589.375 0.06293116407 -0.06914124984
590.0 0.01430124766 -0.09622571725
590.625 -0.00710270741 -0.09295408858
591.25 0.01641643415 -0.03598970424
591.875 0.03345849293 -0.01704028022
592.5 0.03606159542 -0.0430740061
593.125 0.04573603277 -0.07194457898
593.75 0.06574480261 -0.04136725481
594.375 0.06548288073 -0.02110253031
595.0 0.08686668746 -0.009448092253
595.625 0.09459107791 0.0027668329
596.25 0.06808267988 0.04005541834
596.875 0.05248072446 0.04479207512
597.5 0.05774319367 0.05150031287
598.125 0.07204749795 0.04400368649
598.75 0.07718100082 0.02953132029
599.375 0.08296419952 0.002135759451
600.0 0.06757502453 0.001639970438
600.625 0.0349004066 0.006549419687
601.25 0.02050979 0.007798216235
601.875 0.01899052345 0.02023348477
602.5 0.01202711935 0.03071147665
603.125 0.005784316306 0.03282578078
603.75 -0.006671685662 0.07035689279
604.375 0.0147213966 0.05956530684
605.0 -0.00573390247 0.04751264272
605.625 -0.004240131774 0.02923454193
606.25 -0.03222118627 0.03987692805
606.875 -0.03789721549 0.05127856593
607.5 -0.02123043127 0.06282478916
608.125 0.01319370077 0.04631900605
608.75 -0.02004764418 0.06101866699
609.375 -0.004435987799 0.04262268428
610.0 -0.01480663992 0.03074576047
610.625 0.01093969009 0.01870010871
611.25 -0.01677582818 0.005633605835
611.875 -0.01118795741 -0.0107953535
612.5 -0.0134445495 -0.02105423526
613.125 -0.02387008079 -0.01739758936
613.75 -0.02137300139 -0.005049686737
614.375 -0.04282582318 -0.02983280603
615.0 -0.02826737544 -0.01971960673
615.625 -0.01592724221 -0.02267990922
616.25 -0.005104839748 -0.007361865069
616.875 -0.0408281462 -0.02613257333
617.5 -0.01091246774 -0.01154815333
618.125 0.01537062868 -0.01462165026
618.75 0.02605085009 -0.00771746768
619.375 -0.001982395251 -0.03585656327
620.0 0.03702132877 -0.01436469796
620.625 0.03937527508 -0.04579770101
621.25 0.04494346043 -0.04894311936
621.875 0.008882477519 -0.07865458047
622.5 -0.05071990797 -0.05035992908
623.125 -0.04686187127 -0.0251893878
623.75 0.001754155609 -0.009998334764
624.375 -0.02458002802 -0.03112466751
625.0 0.01483980754 -0.01136466809
625.625 0.01570197465 -0.007891645042
626.25 0.03293169575 0.02343852129
626.875 0.04562032197 0.007041560625
627.5 0.06353745067 0.0250630343
628.125 0.05630010253 0.03504660463
628.75 0.05813780537 0.03164194148
629.375 0.07079983927 0.04163825908
630.0 0.07356961667 0.05271261973
630.625 0.0489167029 0.0614477675
631.25 0.04885155496 0.05686557251
631.875 0.05727304865 0.03769156125
632.5 0.03163318618 0.04070995766
633.125 0.009279161008 0.04032184891
633.75 0.01373074638 0.04993137595
634.375 0.002217418664 0.06340300184
635.0 0.02059477546 0.02675313693
635.625 0.009539986129 0.05805232296
636.25 0.0291115407 0.07205773371
636.875 0.01040369811 0.08589072647
637.5 -0.003394451887 0.06273959654
638.125 -0.008043184283 0.06894611866
638.75 -0.02847767907 0.1111818195
639.375 -0.04908694373 0.09562424057
640.0 -0.05054458633 0.05635069148
640.625 -0.04071788617 0.04832739835
641.25 -0.05702738159 0.03254976557
641.875 -0.07604453392 0.0005308506142
642.5 -0.05662307757 0.008916075452
643.125 -0.06992331066 1.726634053e-05
643.75 -0.09260631475 -0.03101635317
644.375 -0.08506350976 -0.04576020686
645.0 -0.0861120603 -0.01484608693
645.625 -0.1061141024 0.005084621298
646.25 -0.1047111221 -0.003854683651
646.875 -0.08024073601 -0.02090480213
647.5 -0.08232144818 -0.02340767469
648.125 -0.08350075622 -0.01113364526
648.75 -0.07005691174 -0.02939375279
649.375 -0.03977389567 -0.02913033468
650.0 -0.02946148554 -0.0639836374
650.625 0.002910182052 -0.05699081438
651.25 0.03349089071 -0.07081754081
651.875 0.04614682034 -0.04963741887
652.5 0.09474234742 -0.05243292548
653.125 0.1229739429 -0.008234568868
653.75 0.1122886279 0.007378122371
654.375 0.1189442035 0.007502440893
655.0 0.1378504661 0.01940333415
655.625 0.08867142009 0.02049865353
656.25 0.06570176194 0.0206865504
656.875 0.07251821031 -0.01238988008
657.5 0.1029151288 0.01483979199
658.125 0.08131042261 0.04394535221
658.75 0.04495589923 0.04474481756
659.375 0.07780337918 0.02771576023
660.0 0.1223362727 0.01509415869
660.625 0.1297092515 0.001153959912
661.25 0.1088144814 -0.02231768271
661.875 0.1016378124 -0.06081017548
662.5 0.1090542193 -0.09545081167
663.125 0.08846105423 -0.06958944445
663.75 0.1058429929 -0.0421926155
664.375 0.1226956203 0.04517105551
665.0 0.0558170748 0.0921914854
665.625 0.01270647966 0.06368866737
666.25 -0.0001081304123 0.07282421841
666.875 -0.0624896678 0.1017077699
667.5 -0.108551349 0.051595777
668.125 -0.07680651167 0.02987550406
668.75 -0.07979431029 0.07552044908
669.375 -0.09480978294 0.09468646407
670.0 -0.1134976833 0.06318183473
670.625 -0.06941200219 0.03007298325
671.25 -0.07755196623 0.08706179731
671.875 -0.06434378642 0.1086801948
672.5 -0.02339872718 0.105071166
673.125 -0.01352601722 0.06510864924
673.75 -0.02599400527 0.08629092903
674.375 -0.05591499673 0.09982137057
675.0 -0.08374275606 0.07830886302
675.625 -0.0966202725 0.03030620422
676.25 -0.1312281641 -0.01147625565
676.875 -0.1220978286 -0.03578420653
677.5 -0.134157193 -0.01650689143
678.125 -0.1330404791 -0.01203220857
678.75 -0.1357408557 -0.04212868667
679.375 -0.07454599279 -0.0387596712
680.0 -0.06778037768 -0.02481935578
680.625 -0.1047897218 -0.02482477251
681.25 -0.09872487331 -0.04001929267
681.875 -0.07206229359 -0.04283972009
682.5 -0.08607234154 -0.007891556581
683.125 -0.138863101 0.0286468274
683.75 -0.1371983094 -0.03017568439
684.375 -0.102911555 -0.08895127256
685.0 -0.03638306708 -0.1253514674
685.625 0.05033949623 -0.1522833684
686.25 0.1044210059 -0.1154087545
686.875 0.1094153155 -0.0861613156
687.5 0.1240378126 -0.05155837642
688.125 0.1028587831 -0.006366041343
688.75 0.07743634719 0.0241957945
689.375 0.0792584897 0.03509365198
690.0 0.09335676888 0.08002109915
690.625 0.07844435981 0.09347993536
691.25 0.09616090661 0.06238515987
691.875 0.1317376655 -0.0006246741428
692.5 0.1355335572 -0.1387756815
693.125 0.003455926344 -0.1662290029
693.75 -0.08338486934 -0.0950379535
694.375 -0.09184816929 -0.08051240776
695.0 -0.06401844317 -0.1418491389
695.625 0.08252986916 -0.1073962786
696.25 0.09696433897 0.007837761355
696.875 0.06343144092 0.0846048206
697.5 -0.05426315937 0.08598985005
698.125 -0.09028391489 0.08580880647
698.75 -0.08986736544 0.09725465184
699.375 -0.09781083313 0.09916224451
700.0 -0.1009447864 0.0674435607
700.625 -0.1070060271 0.04384114255
701.25 -0.1279938128 0.05082489645
701.875 -0.1395394184 0.05295471384
702.5 -0.06739388144 0.04715083741
703.125 -0.04543060815 0.0476272322
703.75 0.001229473324 0.1139767443
704.375 0.08963402408 0.1624860075
705.0 0.03424348452 0.1203444752
705.625 0.01810998589 0.1063429694
706.25 -0.05080172091 0.1274093503
706.875 -0.1724715709 0.032502875
707.5 -0.1319428757 -0.07259310099
708.125 -0.07091294307 -0.08120617658
708.75 -0.02898804551 -0.1049876686
709.375 0.05999362949 -0.08548123441
710.0 0.09827915697 -0.02600797863
710.625 0.06961451347 0.03365059996
711.25 0.06917707758 0.0352586573
711.875 0.06062740747 0.04084269788
712.5 0.08328905606 0.04258659858
713.125 0.1375559998 -0.03206706278
713.75 0.08003028867 -0.1350906242
714.375 -0.02344358968 -0.1325117393
715.0 -0.1007668157 -0.08829575684
715.625 -0.04318585341 -0.1538865386
716.25 -0.007836559749 -0.1334440907
716.875 0.03533856343 -0.0745543785
717.5 0.06778888074 -0.04628809403
718.125 0.09649277347 -0.02830061785
718.75 0.08866049568 0.05125628451
719.375 0.04012873381 0.05845531387
720.0 0.008036831 0.06248669973
720.625 -0.04060744843 0.06279019895
721.25 -0.09538228291 -0.073865057
721.875 -0.03186902401 -0.1099062142
722.5 -0.01729113945 -0.1198664409
723.125 -0.06544407575 -0.1050946427
723.75 -0.09543066939 -0.03671810143
724.375 -0.08713765241 -0.002515510403
725.0 -0.04432350314 0.05379904306
725.625 -6.340892245e-05 0.05145671262
726.25 -0.04030351053 0.03190451131
726.875 -0.06331947987 0.01863753848
727.5 -0.09477391069 -0.01683986688
728.125 -0.08496762866 -0.02329709456
728.75 -0.07112005179 -0.001836593753
729.375 -0.0689311857 -0.003032932595
730.0 -0.08599744838 -0.03349517903
730.625 -0.05297935138 -0.03836676681
731.25 -0.03781459737 -0.0113593339
731.875 0.02807719617 -0.07616481552
732.5 0.02871045902 -0.02425659535
733.125 0.01917592223 -0.0001324358682
733.75 0.01424304917 0.008057914644
734.375 0.07723218522 0.01295777502
735.0 0.07132322671 -0.02397469393
735.625 0.0309138353 -0.02667820806
736.25 0.009723358884 -0.02416684073
736.875 0.05382822024 -0.07612411162
737.5 0.01663390028 -0.03918163305
738.125 0.006687484473 0.01027265474
738.75 -0.0339778979 0.03349989901
739.375 0.05729761341 0.08307756085
740.0 0.02966627271 0.03506423031
740.625 0.008605934163 0.02195273029
741.25 0.01314463197 0.02745614996
741.875 -0.02796247015 0.02710388872
742.5 -0.05393037924 0.04345993892
743.125 -0.02007405554 -0.03695950652
743.75 0.008730577599 -0.04308821829
744.375 0.018404536 -0.04724552347
745.0 0.004590682103 -0.05186401744
745.625 0.003197143191 -0.03626408036
746.25 0.003123728415 -0.01371628582
746.875 0.02576808276 -0.04050306782
747.5 -0.02822816118 -0.02696298302
748.125 -0.04457455792 -0.0272795919
748.75 -0.06134339283 -0.003844999996
749.375 -0.04956099458 0.0359639732
750.0 0.005428488536 0.07567455809
