!Created with skrf (http://scikit-rf.org).
# GHz S RI R 50.0 
!freq ReS11 ImS11
500.0 -0.01385437551 0.02353813098
500.625 0.01900748987 0.03386406825
501.25 0.02560930935 0.02531006506
501.875 0.01821899802 0.03188490515
502.5 0.009029651088 0.04689694983
503.125 0.03114566834 0.05155849079
503.75 0.04593992573 0.01018445818
504.375 0.04325296127 -0.002747442622
505.0 0.04519700961 -0.02755022143
505.625 0.07965110731 -0.03798140315
506.25 0.02624385452 -0.06445229874
506.875 0.05260856182 -0.05063855968
507.5 0.05066312878 -0.04174438698
508.125 0.08360834199 -0.004420214447
508.75 0.04916281729 -0.05344121737
509.375 0.04052485481 -0.04601577852
510.0 0.07099960118 -0.03542829322
510.625 0.004258495723 -0.07702332112
511.25 -0.03490586966 -0.05678906011
511.875 -0.04784818865 -0.00720339241
512.5 -0.03572889606 0.006836934434
513.125 -0.03627547847 0.02969881343
513.75 -0.02675619099 0.04287088782
514.375 -0.01108406715 0.06218855237
515.0 0.003149217763 0.1034246053
515.625 -0.01388025456 0.08876865977
516.25 0.02552042405 0.1044579759
516.875 -0.05235286703 0.1304139909
517.5 0.04107658417 0.1069410417
518.125 -0.04171610099 0.1274641437
518.75 0.03033259834 0.04404924726
519.375 0.009219410181 0.07408446484
520.0 0.04564410144 0.08382215082
520.625 0.06641299504 0.03028582734
521.25 0.05884285651 0.02477985769
521.875 0.03946524336 0.05285275721
522.5 0.07141847951 0.01627748648
523.125 0.1161228449 -0.03171133112
523.75 0.1108580169 -0.05267952855
524.375 0.06994555614 0.0004728586034
525.0 0.009643054133 0.01535787631
525.625 0.002271857231 0.01364071556
526.25 0.01048537277 0.03581236522
526.875 0.01968351389 0.03574542552
527.5 0.03439110644 0.03112626574
528.125 0.02888300178 -0.000671450604
528.75 0.06042455291 -0.01086782435
529.375 0.04081525005 -0.04087329739
530.0 0.03036147034 -0.03837262835
530.625 0.004496067856 -0.07839241501
531.25 0.01178791749 -0.1784003274
531.875 -0.05438014034 -0.1475933296
532.5 -0.09663495652 -0.09290574177
533.125 -0.06664576266 -0.03431299098
533.75 -0.07259020335 -0.05200275674
534.375 -0.07182057456 -0.04068671372
535.0 -0.0781905801 -0.02481738626
535.625 -0.02920958971 -0.0171344162
536.25 -0.0349255716 -0.03281864283
536.875 -0.04435054855 -0.06297655061
537.5 -0.05777758388 -0.09633902308
538.125 -0.07652997297 -0.05734074257
538.75 -0.05902997014 -0.03041626473
539.375 -0.04037137008 -0.04553179358
540.0 -0.06854169597 -0.09146809732
540.625 -0.06907289179 -0.1040351103
541.25 -0.04834905609 -0.09590051606
541.875 -0.05296901147 -0.08013951651
542.5 -0.06508912285 -0.09696879376
543.125 -0.1004795323 -0.05932003343
543.75 -0.09817542019 0.02086076291
544.375 -0.0626759941 0.04411816627
545.0 -0.03314381882 0.0735355267
545.625 -0.005220951623 0.05160221709
546.25 0.01515046173 0.07436103198
546.875 0.02843767885 0.0704547075
547.5 0.02739371488 0.1021529569
548.125 0.004676074749 0.07716379698
548.75 -0.009958070444 0.07561460499
549.375 -0.01520136511 0.07368324259
550.0 -0.05164112068 0.04357609966
550.625 -0.007327810829 -0.001137501547
551.25 -0.01894569078 -0.02912793615
551.875 -0.04853938137 -0.03841295944
552.5 -0.08735793249 -0.04343017944
553.125 -0.06575708881 -0.0236880273
553.75 -0.07414782956 -0.02594306146
554.375 -0.09108293388 0.006413544561
555.0 -0.1039963254 0.03459856976
555.625 -0.06791616135 0.02872743598
556.25 -0.08414879689 0.02692331851
556.875 -0.1023388361 0.02749435483
557.5 -0.08818170998 0.03425975039
558.125 -0.08763931289 0.03512082744
558.75 -0.06863278636 0.01060832278
559.375 -0.04185503545 0.003658295552
560.0 -0.03591180796 -0.0009882147003
560.625 -0.02201728856 -0.03029311611
561.25 -0.06018844686 -0.03347257898
561.875 -0.07788395375 -0.01624068435
562.5 -0.0761679086 0.0278121606
563.125 -0.0649951358 0.04567935781
563.75 -0.0540649781 0.08270219648
564.375 -0.02317000213 0.08730160601
565.0 -0.01513408447 0.08968506
565.625 -0.01331873165 0.05360577775
566.25 -0.0420850603 0.04869292835
566.875 -0.05540213199 0.03172046854
567.5 -0.06092215755 0.02413677973
568.125 -0.06866058694 0.01979000999
568.75 -0.04821778796 0.007671244185
569.375 -0.03142896698 -0.01320964213
570.0 -0.02548270691 -0.02859847205
570.625 -0.04190292868 -0.04157556344
571.25 -0.04523142827 -0.03448483724
571.875 -0.06134884108 -0.0256985679
572.5 -0.08713852637 -0.007327342157
573.125 -0.1118892047 0.03740614933
573.75 -0.06198697667 0.06554386257
574.375 -0.02826606025 0.07452713005
575.0 -0.03454855017 0.07519020996
575.625 -0.05301211527 0.0666881285
576.25 -0.03568780927 0.07349637274
576.875 -0.01138692846 0.07717176991
577.5 0.007517086108 0.08359642476
578.125 -0.01839775823 0.04313803128
578.75 -0.00868266231 0.04546881143
579.375 -0.008065670168 0.04496477201
580.0 -0.01538313629 0.03793229481
580.625 -0.02786395709 0.02339300764
581.25 -0.05066022988 0.01345859531
581.875 -0.06931528218 0.03393430508
582.5 -0.07518037052 0.04840163568
583.125 -0.05547903757 0.06418472134
583.75 -0.06105418702 0.02480159754
584.375 -0.07054031757 0.02112843416
585.0 -0.07593945474 0.0124984191
585.625 -0.06246288055 0.03807803633
586.25 -0.05418141123 0.02159777446
586.875 -0.06179969237 0.01416882587
587.5 -0.05925896253 0.02105650377
588.125 -0.02199758179 0.05705218186
588.75 -0.02548225077 0.03623751308
589.375 -0.03599581518 0.02590156751
590.0 -0.0443677909 0.02229858956
590.625 -0.02767609916 0.05544219442
591.25 -0.04986864406 0.07997778845
591.875 -0.0222945747 0.09646575613
592.5 0.001249582324 0.07740838727
593.125 0.02039429245 0.0632826959
593.75 -0.02329802169 0.06091440411
594.375 -0.03416039079 0.0492645012
595.0 -0.03159424503 0.03092412334
595.625 -0.02673553893 0.02391256688
596.25 -0.03650096163 -0.02898501392
596.875 -0.0387283497 -0.01818932141
597.5 -0.03659993417 -0.01347637353
598.125 -0.03004519847 0.001919271096
598.75 -0.01893669467 -0.0188560912
599.375 -0.01589387488 -0.03909405422
600.0 -0.02374461356 -0.05225489976
600.625 -0.03756316703 -0.05142091285
601.25 -0.0389189092 -0.0783760933
601.875 -0.05530859091 -0.04981894854
602.5 -0.05845105089 -0.0309095628
603.125 -0.05771594799 -0.009770826444
603.75 -0.03186727613 -0.0290252568
604.375 -0.02214166544 -0.01797889594
605.0 -0.01796655049 -0.02861197796
605.625 -0.009693429189 -0.04891499912
606.25 -0.02724144984 -0.03178702662
606.875 -0.0135399064 -0.01702404475
607.5 0.01073856133 -0.01348306984
608.125 0.01284373182 -0.01419897027
608.75 0.0255267113 -0.03032730571
609.375 0.02231460233 -0.01360067948
610.0 0.02988388271 -0.008779277536
610.625 0.04728681788 -0.01868695889
611.25 0.03196385632 -0.01906288861
611.875 0.04542419263 -0.02278232136
612.5 0.0463172093 -0.01007792814
613.125 0.02320239401 -0.003390867106
613.75 -0.008388723934 0.002625383182
614.375 0.03822598531 0.02337991253
615.0 0.02961444995 0.01580893278
615.625 0.01570440019 0.01059529632
616.25 0.0008565414208 0.01373132582
616.875 0.02204612411 0.03415184107
617.5 0.03375699139 0.04061872942
618.125 0.02799053951 0.03333326519
618.75 0.005039529014 0.02374698654
619.375 0.03318210939 0.05111768703
620.0 0.0434569303 0.04086186487
620.625 0.03629781813 0.009225976983
621.25 0.0004790694071 -0.01383263142
621.875 0.01272026427 0.005421159517
622.5 -0.02252087543 0.01192510299
623.125 -0.03285386988 0.04711634789
623.75 -0.03959235848 0.05254211962
624.375 -0.02055153432 0.06073711406
625.0 -0.04698813502 0.03470235583
625.625 -0.05554880653 0.03699714062
626.25 -0.03558242038 0.06323559025
626.875 -0.02983836071 0.04941608022
627.5 -0.01885335017 0.04427250604
628.125 -0.01917591549 0.03971795219
628.75 -0.02994717621 0.01925197717
629.375 -0.02348766249 -0.0009019103483
630.0 -0.01646944442 0.02693972433
630.625 -0.006084644261 -0.01009032202
631.25 0.004824144108 -0.04392359191
631.875 0.003403217619 -0.05978528047
632.5 -0.01788496779 -0.05549211593
633.125 -0.02510877059 -0.05383795262
633.75 -0.03304213565 -0.05374662067
634.375 -0.02217700476 -0.07879377405
635.0 -0.05489541205 -0.04079968315
635.625 -0.05105457255 -0.04376570081
636.25 -0.03364866772 -0.03574709573
636.875 -0.02096576043 -0.04397361597
637.5 -0.02434115917 -0.08082571086
638.125 -0.05180310834 -0.03847791422
638.75 -0.03359260253 -0.01855371011
639.375 -0.002692512103 -0.02185227034
640.0 0.06702620189 -0.0299530856
640.625 0.03672663319 -0.03347662664
641.25 0.04481781386 -0.03168125643
641.875 0.048542319 -0.03138918681
642.5 0.07447562738 -0.0005892946625
643.125 0.06160951858 0.005090467457
643.75 0.05643127559 -0.005272626893
644.375 0.06009329883 -0.01546985071
645.0 0.06060193587 0.003755915687
645.625 0.02930302877 -0.003773400149
646.25 0.04739159554 0.01285066557
646.875 0.07729687342 0.01687572317
647.5 0.07566697089 0.01877332002
648.125 0.03971440143 0.001884775198
648.75 0.0520262607 0.04635567483
649.375 0.06140479503 0.07353607875
650.0 0.04864591821 0.07499371427
650.625 0.04279372825 0.07021824585
651.25 0.02001583908 0.07789116773
651.875 -0.0248589876 0.0764574256
652.5 -0.02467881711 0.05455924201
653.125 -0.0354789759 0.04611620093
653.75 -0.03622368441 0.01637405141
654.375 -0.0248791665 -0.01985981289
655.0 -0.03884365019 -0.05071211107
655.625 -0.03954090751 -0.04425225309
656.25 -0.08023459458 -0.05374354756
656.875 -0.08615858057 -0.03922999137
657.5 -0.08057538635 -0.04399908149
658.125 -0.1075907423 -0.04666599206
658.75 -0.105125564 -0.01780593829
659.375 -0.08390969906 0.02214660315
660.0 -0.05804282271 0.04215863045
660.625 -0.07223946126 0.04387031859
661.25 -0.03612404335 0.03036798603
661.875 -0.03575424642 0.03440714404
662.5 -0.037156169 0.03439302097
663.125 -0.07390533335 0.03158533974
663.75 -0.0652491797 -0.0190589257
664.375 -0.05182602923 -0.05534158507
665.0 -0.03504423464 -0.09193909218
665.625 0.0005527529313 -0.08598701367
666.25 0.02387986432 -0.09055253633
666.875 0.03459951112 -0.08463758441
667.5 0.05127894065 -0.09802747738
668.125 0.04099308352 -0.06466126072
668.75 0.03441900061 -0.04615842078
669.375 0.04938646657 -0.0403488384
670.0 0.06987002803 -0.0436052047
670.625 0.07393005618 -0.02962791704
671.25 0.05480997719 -0.03809633733
671.875 0.06312746149 -0.04999263575
672.5 0.04412195499 -0.09239237117
673.125 0.02075366414 -0.1086712495
673.75 -0.0007614251541 -0.1003350819
674.375 0.0158623117 -0.09061483681
675.0 0.05895608278 -0.07523620935
675.625 0.05717473829 -0.03675034933
676.25 0.06344181574 -0.01727784777
676.875 0.07245762988 0.003508426382
677.5 0.0536947311 0.03730907159
678.125 0.03795116175 0.04331039515
678.75 0.05378843964 0.06848741307
679.375 0.0737184802 0.09689806104
680.0 0.06411546016 0.0892087253
680.625 0.08969221979 0.05581815759
681.25 0.0870143765 0.02827843994
681.875 0.1193023032 -0.003639771299
682.5 0.09497142874 -0.03866928742
683.125 0.07308933459 -0.03997776582
683.75 0.07255335626 -0.0152010296
684.375 0.06706320464 0.04276565387
685.0 0.01618714969 0.05859973701
685.625 -0.03263919965 0.05392843715
686.25 -0.06786338552 0.0290008139
686.875 -0.0832782611 -0.02424525221
687.5 -0.09504088713 -0.03945684953
688.125 -0.1195081406 -0.04957921386
688.75 -0.1283724044 -0.06487651368
689.375 -0.08189370379 -0.05431345575
690.0 -0.0812517706 -0.04352515395
690.625 -0.09342361126 -0.04282148521
691.25 -0.1233658017 -0.02606539687
691.875 -0.04802823576 0.01489272424
692.5 -0.03546033275 0.03425945214
693.125 -0.01679017617 0.08042976526
693.75 0.006795638182 0.1238308554
694.375 0.03154298643 0.1063402926
695.0 -0.01588914873 0.09751175286
695.625 -0.08609971071 0.0723652757
696.25 -0.1084850503 -0.04433433475
696.875 -0.05518787284 -0.11331744
697.5 0.02342550671 -0.1074794635
698.125 0.04652303778 -0.08143462465
698.75 0.0390662168 -0.05137468605
699.375 0.05246022716 -0.05540825838
700.0 0.07829451855 -0.01393259457
700.625 0.07199883864 0.02468669972
701.25 0.05963936191 0.02916599133
701.875 0.09767178128 0.0009621001705
702.5 0.1295676032 -0.01862872647
703.125 0.09281408838 -0.09424120839
703.75 -0.03275143114 -0.09426290913
704.375 -0.06669078136 -0.05302179285
705.0 -0.06818748851 -0.07735964933
705.625 0.020040808 -0.08388966954
706.25 0.04702105401 -0.04264876922
706.875 0.054551414 0.01156312712
707.5 0.05320364482 0.05313422501
708.125 -0.04320068598 0.08769938952
708.75 -0.07041705033 0.07561983614
709.375 -0.08874457138 0.03761934183
710.0 -0.09441457745 0.002750744667
710.625 -0.07686986036 -0.04783432927
711.25 -0.07267512376 -0.08307371531
711.875 -0.09366710045 -0.06268790237
712.5 -0.09542962101 0.003159285949
713.125 -0.04430381766 0.03576080299
713.75 -0.02744918545 0.04751391403
714.375 -0.02014878089 0.06839669444
715.0 -0.0005484014301 0.06541156618
715.625 -0.01811964499 0.06350283868
716.25 -0.05320943071 0.07477620368
716.875 -0.1109317023 0.05644613613
717.5 -0.0978393863 -0.01995703146
718.125 -0.08353430847 -0.008917344127
718.75 -0.06192939427 -0.0702651013
719.375 -0.0502716978 -0.07963401856
720.0 -0.01568389014 -0.08428295645
720.625 0.03991409669 -0.06117680384
721.25 0.03999546964 0.03546782707
721.875 -0.006036160952 0.04027035774
722.5 -0.0358677635 0.03465923664
723.125 -0.01994157643 0.0554101087
723.75 -0.01625312134 0.1169816695
724.375 0.07415634732 0.04562387419
725.0 0.07141227019 -0.01366950156
725.625 0.05359540936 -0.05453743516
726.25 0.03919834192 -0.06059653532
726.875 0.04661329572 -0.03390233817
727.5 0.03946121403 -0.02114402428
728.125 0.03556654415 0.03475985394
728.75 0.02719774374 0.01568397659
729.375 0.03625327182 0.06795915453
730.0 0.04029244656 0.0263399213
730.625 0.01587600771 0.02818376481
731.25 -0.0004235181601 0.03654391546
731.875 -0.04113241971 0.03716128568
732.5 -0.05277528346 0.005554190158
733.125 -0.06140108621 -0.02317633916
733.75 -0.03464394058 0.003781892836
734.375 -0.05220103844 -0.04262262665
735.0 -0.04688345325 -0.01198869748
735.625 -0.04174981291 -0.008557523982
736.25 -0.008882253551 -0.01696329773
736.875 -0.07304390987 -0.01716326059
737.5 -0.06978206307 -0.02338083537
738.125 -0.04689993095 -0.01563258429
738.75 -0.03912597782 -0.003623870793
739.375 -0.01432861515 -0.01969562406
740.0 -0.006751548793 -0.03588276829
740.625 -0.03789231422 -0.03757167724
741.25 -0.02479477737 -0.02662399644
741.875 0.02514640872 -5.408867518e-05
742.5 0.05157210849 -0.003211499436
743.125 0.02048132842 0.03441708735
743.75 -0.01991434164 0.02962197827
744.375 -0.05088397539 0.002057751058
745.0 -0.03641256415 0.0409396986
745.625 -0.02867098403 0.061976714
746.25 0.008902720379 0.07805956007
746.875 0.02230706157 0.05213929939
747.5 0.06059452758 -0.0006518656432
748.125 0.01788165286 0.003867333875
748.75 0.02062941678 0.01089695967
749.375 0.0242444332 -0.01526092432
750.0 0.01633575405 -0.036541007
