!Created with skrf (http://scikit-rf.org).
# GHz S RI R 50.0 
!freq ReS11 ImS11
500.0 -0.02456553913 0.02469641073
500.625 0.03422272536 0.0211171385
501.25 0.03854995961 0.01159314038
501.875 0.02591975949 0.02507293171
502.5 1.571327522e-05 0.05771437205
503.125 0.02862580676 0.03635968459
503.75 0.04447978898 0.02136861233
504.375 0.05078807426 0.007610851827
505.0 0.05095908052 -0.02041508702
505.625 0.06050851228 -0.04415718282
506.25 0.03547198764 -0.05298119189
506.875 0.06267423953 -0.03505622483
507.5 0.03072475183 -0.06532328513
508.125 0.06826761534 -0.0288912925
508.75 0.03913221415 -0.05937972668
509.375 0.05591356769 -0.04266585574
510.0 0.04178793489 -0.05682602385
510.625 -0.00755455084 -0.06365889938
511.25 -0.03724437456 -0.05341744648
511.875 -0.04475544853 -0.017975699
512.5 -0.03548691868 0.005628016251
513.125 -0.02358094685 0.02867128813
513.75 -0.0173119208 0.04143852567
514.375 -0.0252852115 0.06587005841
515.0 0.01240502042 0.0784695061
515.625 -0.03796021051 0.08395080361
516.25 0.02490765751 0.1014262844
516.875 -0.06657881182 0.123426861
517.5 0.06619281581 0.09089573504
518.125 -0.03373007376 0.1198308537
518.75 0.01890939469 0.04967094088
519.375 0.0006590578351 0.07568557639
520.0 0.04527287119 0.06491021606
520.625 0.05398298703 0.04253490842
521.25 0.05350032597 0.02903618856
521.875 0.02996610312 0.05904148528
522.5 0.06610033967 -0.0002565007735
523.125 0.1086390217 -0.03025125643
523.75 0.1004660554 -0.0677558881
524.375 0.05767136216 0.01780527994
525.0 0.003258720031 -0.0002181229545
525.625 0.002752521238 0.02544742916
526.25 0.003437295013 0.05020539145
526.875 0.01785552156 0.02879223393
527.5 0.02256766018 0.02533970022
528.125 0.04762874924 0.01168923497
528.75 0.062658571 -0.001878819463
529.375 0.0447880955 -0.03108725241
530.0 0.02609077949 -0.02198159018
530.625 0.01159750476 -0.07233601701
531.25 0.02767654685 -0.1851849623
531.875 -0.04999589304 -0.1332169222
532.5 -0.08091567927 -0.07562504276
533.125 -0.07782691231 -0.06784584519
533.75 -0.06886413886 -0.06678990177
534.375 -0.06633549778 -0.04349514432
535.0 -0.06039988661 -0.01845957258
535.625 -0.02654819952 -0.03551048114
536.25 -0.03254854833 -0.04294270085
536.875 -0.030020102 -0.04732634484
537.5 -0.0392803113 -0.08387775089
538.125 -0.06628365794 -0.05365264601
538.75 -0.05863494529 -0.03878868159
539.375 -0.03247480236 -0.0381940603
540.0 -0.04367282419 -0.08748438906
540.625 -0.05327194631 -0.1004453792
541.25 -0.04127095867 -0.1005663954
541.875 -0.03586474859 -0.0640908354
542.5 -0.04568655647 -0.0895446661
543.125 -0.09379178103 -0.06222310951
543.75 -0.1032606373 0.01200756948
544.375 -0.06219123314 0.03710325849
545.0 -0.02902763146 0.05151011235
545.625 -0.01726516222 0.05625043471
546.25 0.008677203644 0.07083334859
546.875 0.01672233382 0.07900778751
547.5 0.009607563586 0.08196767563
548.125 0.005369089994 0.06755666052
548.75 -0.01748395502 0.07857664219
549.375 -0.01968292189 0.06542541709
550.0 -0.03400296098 0.02322048826
550.625 -0.01943854203 -0.005604769668
551.25 -0.01779959715 -0.03664788996
551.875 -0.05069268091 -0.0498527586
552.5 -0.06742688227 -0.05320067306
553.125 -0.07594661121 -0.025558594
553.75 -0.08177963235 -0.02846466881
554.375 -0.1020706914 0.00406016238
555.0 -0.09206861433 0.01560949405
555.625 -0.07078011177 0.02349037074
556.25 -0.0796698764 0.01693783619
556.875 -0.1025457251 0.01841836769
557.5 -0.07299880266 0.02341523577
558.125 -0.07417014465 0.022061449
558.75 -0.06646225348 0.002745312019
559.375 -0.04223846312 -0.0007122034406
560.0 -0.02377660872 -0.006627263632
560.625 -0.02679998248 -0.0360960693
561.25 -0.05987418259 -0.0408525045
561.875 -0.07913335462 -0.02276076147
562.5 -0.06766984074 0.01055690713
563.125 -0.07279325939 0.05683567359
563.75 -0.06178708544 0.0818365421
564.375 -0.0276499524 0.08194796709
565.0 -0.02088597815 0.07335827401
565.625 -0.01948878803 0.06060571342
566.25 -0.04633022342 0.0416881741
566.875 -0.05991197796 0.02778659593
567.5 -0.04715919412 0.006477143709
568.125 -0.05483893774 0.003777829829
568.75 -0.04267273683 0.001412405324
569.375 -0.0344008278 -0.01529066702
570.0 -0.009794156477 -0.03554175452
570.625 -0.02691805574 -0.05148896886
571.25 -0.03951245099 -0.03870715594
571.875 -0.06260816316 -0.0291645396
572.5 -0.07552887455 -0.02954398644
573.125 -0.1035075319 0.0125450947
573.75 -0.05999728012 0.06005957142
574.375 -0.03144781045 0.0745589312
575.0 -0.04978933573 0.04746414964
575.625 -0.05742158479 0.05341641661
576.25 -0.03696606041 0.06912769425
576.875 -0.01135696864 0.074644513
577.5 -0.01056329246 0.06802265073
578.125 -0.02014100803 0.04749366631
578.75 -0.01418684978 0.03793254307
579.375 -0.0100196237 0.04624722166
580.0 -0.02270165228 0.01162887799
580.625 -0.03403203859 0.001529343275
581.25 -0.0563312265 0.0008259893162
581.875 -0.07104778093 0.03511965896
582.5 -0.07548603687 0.0281885009
583.125 -0.06359343245 0.04440256583
583.75 -0.05950240255 0.03767088455
584.375 -0.07000676794 0.02271300098
585.0 -0.07833889319 0.01261621329
585.625 -0.0623723997 0.01934917492
586.25 -0.05363533425 0.009658406891
586.875 -0.06268711878 0.01326133503
587.5 -0.05286073733 0.002810886296
588.125 -0.03131342419 0.04223145494
588.75 -0.01990894466 0.04316965634
589.375 -0.03192102922 0.02727777692
590.0 -0.04024600161 0.02499746531
590.625 -0.04901321592 0.05021047563
591.25 -0.04013197987 0.08160230642
591.875 -0.02660751925 0.09031892031
592.5 0.001365109314 0.07631035882
593.125 -0.002413865183 0.05866377752
593.75 -0.006719917669 0.06632254867
594.375 -0.02939544936 0.04852494638
595.0 -0.02933344607 0.0227944734
595.625 -0.0288287643 -0.001058891597
596.25 -0.03570558789 -0.02040712928
596.875 -0.03324153156 -0.02075385797
597.5 -0.03618775464 -0.01086952132
598.125 -0.02029756202 -0.02201648361
598.75 -0.01007908687 -0.03240425139
599.375 -0.01281370718 -0.03170678722
600.0 -0.01363072212 -0.06793240251
600.625 -0.02455945437 -0.07784675562
601.25 -0.04392745351 -0.06388996324
601.875 -0.0534859818 -0.04287338144
602.5 -0.05598660621 -0.02370464629
603.125 -0.04471646352 -0.03855046519
603.75 -0.02215807326 -0.03487618229
604.375 -0.01207492641 -0.02621876626
605.0 -0.01598564381 -0.02047606307
605.625 0.01034475064 -0.05058644617
606.25 -0.003731586007 -0.03984084386
606.875 -0.003844685311 -0.0171688668
607.5 0.002946704721 -0.003719566488
608.125 0.04199732777 -0.02045217209
608.75 0.03103904486 -0.02708301801
609.375 0.03684117799 -0.01604951875
610.0 0.02425883214 -0.0004289682372
610.625 0.06777142939 -0.01175871736
611.25 0.05365532727 -0.02339245156
611.875 0.05249299887 -0.01223254542
612.5 0.03055121057 -0.01436997713
613.125 0.009397290914 -0.01117206581
613.75 0.01557067039 0.008317166591
614.375 0.03269413074 0.02749392639
615.0 0.02277581855 0.01452929477
615.625 0.004481724489 0.005685752109
616.25 0.02907491842 0.031985623
616.875 0.03209669258 0.04318062694
617.5 0.02604114608 0.03690673272
618.125 0.01220266791 0.02284618543
618.75 0.02724363703 0.03872158729
619.375 0.0297265793 0.04660189259
620.0 0.02938878451 0.03139948111
620.625 0.03076000496 0.008402487043
621.25 0.01853606687 -0.004703025824
621.875 0.000576732602 -0.01455559136
622.5 -0.03099070342 0.009434282217
623.125 -0.04897015499 0.04186055066
623.75 -0.01390157806 0.06412567977
624.375 -0.02243569132 0.05320017292
625.0 -0.04451845794 0.04013461593
625.625 -0.06781652447 0.02629990808
626.25 -0.03415031663 0.0836727654
626.875 -0.01518981068 0.0605391347
627.5 -0.01802031162 0.04670265417
628.125 -0.02727103375 0.01647573134
628.75 -0.03300257245 0.02181263594
629.375 -0.01915875963 0.01453173958
630.0 -0.00693462174 -0.004753113974
630.625 0.00411318205 -0.02966061312
631.25 -0.01575856035 -0.02384761482
631.875 -0.002159748711 -0.04292499455
632.5 -0.0181584826 -0.05341346898
633.125 -0.006094610075 -0.06738442685
633.75 -0.01598102368 -0.06531514127
634.375 -0.02418177134 -0.05726433031
635.0 -0.04463204031 -0.04397710897
635.625 -0.05131439448 -0.03785803214
636.25 -0.02876346894 -0.04379758485
636.875 -0.03351002886 -0.03047243416
637.5 -0.02377982431 -0.06326618482
638.125 -0.03172978828 -0.04773778844
638.75 -0.02121497605 -0.02653007867
639.375 0.01472056625 -0.02376928319
640.0 0.050116021 -0.01544418207
640.625 0.06039748857 -0.01503271047
641.25 0.04964660491 -0.02724712586
641.875 0.04991970965 -0.02145165604
642.5 0.05621009035 -0.006014946385
643.125 0.05489996421 0.002743310558
643.75 0.06152360057 0.01078418178
644.375 0.05450397996 -0.01667161823
645.0 0.03931952627 -0.0003165183261
645.625 0.04417150193 0.02242910484
646.25 0.05249450277 0.02820580286
646.875 0.07845219424 0.03797236656
647.5 0.05564436174 0.01526897842
648.125 0.0458145874 0.0222932474
648.75 0.0441230034 0.05367037592
649.375 0.04662029963 0.08903308294
650.0 0.04241891375 0.0580327496
650.625 0.03558134393 0.05702716077
651.25 0.01392408167 0.06757964736
651.875 -0.03702583246 0.0690449843
652.5 -0.01125842335 0.05172494413
653.125 -0.02373434042 0.03386031076
653.75 -0.03225263256 0.003646651085
654.375 -0.02603754199 -0.03758400136
655.0 -0.02300764291 -0.04914232317
655.625 -0.03886506961 -0.05584183746
656.25 -0.06415200168 -0.05897990126
656.875 -0.08355644743 -0.04555661045
657.5 -0.06192708908 -0.03236681524
658.125 -0.08932739347 -0.05394843012
658.75 -0.1038409245 -0.03691707773
659.375 -0.08746016665 0.01347743935
660.0 -0.07192558966 0.03079857005
660.625 -0.05943873813 0.02650059513
661.25 -0.05884378489 0.01550599095
661.875 -0.04111685245 0.02674608779
662.5 -0.04224703964 0.02535267454
663.125 -0.05983122422 0.01176074081
663.75 -0.06648375231 -0.02846258958
664.375 -0.05310136573 -0.06484102308
665.0 -0.0171072938 -0.06799704973
665.625 0.01801377756 -0.101386859
666.25 0.03328184485 -0.08643839047
666.875 0.04802822393 -0.08976023692
667.5 0.04555979811 -0.06909820672
668.125 0.04663044937 -0.04600987819
668.75 0.04085123415 -0.03734501762
669.375 0.05574706963 -0.03268155736
670.0 0.05288404769 -0.01677871109
670.625 0.06049849551 -0.01359966828
671.25 0.05231440673 -0.02860315945
671.875 0.07252168196 -0.04697286769
672.5 0.05432187967 -0.07799773188
673.125 0.02802900555 -0.08808568744
673.75 0.008928380423 -0.09939775232
674.375 0.03234299032 -0.08874781161
675.0 0.05334039797 -0.04953994281
675.625 0.05113138828 -0.02368679579
676.25 0.06588724367 -0.007694781105
676.875 0.07485453964 0.02128044275
677.5 0.02400285035 0.03711845969
678.125 0.02244841782 0.04848580831
678.75 0.04151471275 0.07525316005
679.375 0.06635576489 0.1112936415
680.0 0.04128834474 0.07374265541
680.625 0.07296974275 0.06143687897
681.25 0.1012379596 0.03839947845
681.875 0.1165830462 0.01685759967
682.5 0.09484394574 -0.02649039876
683.125 0.04628047477 -0.02235503284
683.75 0.05606058589 0.003793550296
684.375 0.04368105048 0.04892408991
685.0 0.007613764011 0.06336021294
685.625 -0.03360198256 0.02039870457
686.25 -0.06844903507 -0.0002426077442
686.875 -0.08133283083 -0.02982459946
687.5 -0.09853607068 -0.04271714034
688.125 -0.08600892878 -0.06520118138
688.75 -0.09521824005 -0.07861649424
689.375 -0.07881124832 -0.05902177904
690.0 -0.0764693684 -0.05250048842
690.625 -0.09672823069 -0.05747553898
691.25 -0.07871155696 -0.04113589216
691.875 -0.04643750211 0.008421598639
692.5 -0.04301034151 0.02513248419
693.125 -0.03168272566 0.08421111033
693.75 -0.03529437024 0.09297597342
694.375 0.00493041451 0.09799078544
695.0 -0.01906325334 0.1005327077
695.625 -0.0967460404 0.0623876833
696.25 -0.110211574 -0.05485528284
696.875 -0.01895112074 -0.1025531784
697.5 0.04382413604 -0.08056638051
698.125 0.05161407427 -0.05880292503
698.75 0.04186513733 -0.04837848691
699.375 0.05954557765 -0.0284408423
700.0 0.07769610197 -0.005198643959
700.625 0.07078324028 0.03031129012
701.25 0.05985313607 0.03288013481
701.875 0.09241111297 0.03288076095
702.5 0.1395068181 -0.03159925489
703.125 0.09069837226 -0.07604645359
703.75 -0.02834358791 -0.09495087588
704.375 -0.02317576247 -0.05671115798
705.0 -0.0128020527 -0.0858707002
705.625 0.02810808156 -0.07391029787
706.25 0.05097199461 -0.04259314426
706.875 0.0432168242 0.03619845209
707.5 0.01754348767 0.07791443387
708.125 -0.03007992682 0.09033342065
708.75 -0.07124341504 0.07453884294
709.375 -0.09093296576 0.02303928396
710.0 -0.07834670248 -0.0297445484
710.625 -0.06281899495 -0.06070232462
711.25 -0.06610898962 -0.08503491499
711.875 -0.04671709339 -0.07249228503
712.5 -0.06861619574 -0.0146802293
713.125 -0.03970349881 0.03855429102
713.75 -0.03684499745 0.04209133114
714.375 -0.02517363514 0.06759914576
715.0 -0.03882424135 0.05255628985
715.625 -0.04954558348 0.06179554487
716.25 -0.07876484029 0.06335442093
716.875 -0.1076070228 0.04643934619
717.5 -0.08494498838 -0.03270283072
718.125 -0.06909258678 -0.04241864871
718.75 -0.06402843872 -0.05331914446
719.375 -0.0378211722 -0.07993971556
720.0 -0.01422302435 -0.07942554345
720.625 0.05843766003 -0.01662551245
721.25 0.04014458511 0.02556588377
721.875 -0.0003864650976 0.03539588745
722.5 -0.0617813859 0.02575401961
723.125 -0.0714568142 0.05561518145
723.75 0.005926359508 0.09468591036
724.375 0.06325859365 0.04891301923
725.0 0.06527621265 -0.01727836388
725.625 0.09295172783 -0.007176758394
726.25 0.06356801287 -0.02682810511
726.875 0.04756513221 -0.01474277491
727.5 0.0287782175 -0.0199926913
728.125 0.004628230896 0.05937812209
728.75 0.006937866424 0.05960117126
729.375 0.03249155058 0.03605717748
730.0 0.03159828826 0.02711929
730.625 0.01273954552 0.01479421579
731.25 -0.04157021146 0.06039927662
731.875 -0.0631741388 0.02884745836
732.5 -0.06274832322 -0.008916935985
733.125 -0.03983274493 -0.01303224993
733.75 -0.04360386035 -0.04737268632
734.375 -0.02803299831 -0.0165489871
735.0 -0.03323392869 -0.02099378133
735.625 -0.01060010377 -0.008992363517
736.25 -0.05159738221 -0.01646154083
736.875 -0.07094122892 -0.02375336193
737.5 -0.05977306847 -0.0289431792
738.125 -0.03731808551 -0.01466774917
738.75 -0.06326285357 -0.04416449967
739.375 -0.02755866084 -0.04345872905
740.0 0.001010948318 -0.0462590558
740.625 -0.01020706717 -0.0287896238
741.25 -0.02240331399 -0.03602367587
741.875 0.01291862126 -0.02828875962
742.5 0.04176114512 0.003868514835
743.125 -0.00143995143 0.02903394527
743.75 -0.0328458411 0.03478211782
744.375 -0.03751547764 0.02514948656
745.0 -0.06053919855 0.0168715206
745.625 -0.05542276684 0.04413145122
746.25 -0.0133109619 0.07007218435
746.875 0.04341924613 0.04719371657
747.5 0.04259451661 0.005184780081
748.125 0.01982979843 0.007176818411
748.75 0.01254361137 0.02724022914
749.375 0.02552492006 -0.0155047627
750.0 0.0003212737282 -0.02905889638
