!Created with skrf (http://scikit-rf.org).
# GHz S RI R 50.0 
!freq ReS11 ImS11
500.0 -0.01779004072 0.02622920314
500.625 0.01692446783 0.03217877657
501.25 0.02387077721 0.0336443726
501.875 0.02104539356 0.02813730562
502.5 0.005184644545 0.0494462226
503.125 0.02804947528 0.05531524325
503.75 0.0480747573 -0.0004484907424
504.375 0.0427822827 -0.007970850837
505.0 0.04863479536 -0.0286546665
505.625 0.07239279694 -0.03504235092
506.25 0.04171130233 -0.05142600572
506.875 0.05732503368 -0.04472739759
507.5 0.05319183723 -0.03842554226
508.125 0.08311265797 0.002913429647
508.75 0.03905779197 -0.05698231332
509.375 0.02549536066 -0.04594200354
510.0 0.07082519816 -0.03125629761
510.625 0.009759086563 -0.07672268418
511.25 -0.04422143955 -0.04720737938
511.875 -0.04716273677 -0.01141224486
512.5 -0.0356254477 0.007768728327
513.125 -0.03662820999 0.02434118479
513.75 -0.01986768492 0.03810750952
514.375 -0.02418907875 0.06470603862
515.0 0.004216803681 0.08668273907
515.625 -0.04170839814 0.09438038088
516.25 0.02607439025 0.1004459717
516.875 -0.04994369083 0.1124466472
517.5 0.03441859117 0.1031154039
518.125 -0.06400663127 0.110873832
518.75 0.02066289387 0.04541638608
519.375 0.009192552015 0.07097002647
520.0 0.04011756273 0.0769511368
520.625 0.0586215538 0.04364077932
521.25 0.05656355954 0.02919408045
521.875 0.03099728084 0.04765960794
522.5 0.06370689371 0.008684265608
523.125 0.1150681101 -0.008268959875
523.75 0.1017048979 -0.06033128196
524.375 0.05160220594 -0.02145450332
525.0 0.0002829216309 0.007395417692
525.625 0.002375587167 0.004853301532
526.25 0.007185891961 0.03461806244
526.875 0.01638622357 0.0309458987
527.5 0.02678283199 0.03314198822
528.125 0.03014323381 0.002626456014
528.75 0.05973766372 -0.002970932854
529.375 0.03667108176 -0.03209384725
530.0 0.03517621615 -0.03504052083
530.625 0.01023194113 -0.06778397285
531.25 0.02384804483 -0.1462239315
531.875 -0.04937325346 -0.1389388515
532.5 -0.09003445317 -0.09814740462
533.125 -0.06543448332 -0.03749316817
533.75 -0.06362303907 -0.06098039651
534.375 -0.06635576455 -0.03759336058
535.0 -0.06480085155 -0.0265936437
535.625 -0.02900815327 -0.03052218641
536.25 -0.0258215341 -0.0325678925
536.875 -0.03968403082 -0.06397438655
537.5 -0.04926838578 -0.100770268
538.125 -0.06367558057 -0.05196860353
538.75 -0.05157149575 -0.02675462174
539.375 -0.03187995445 -0.04433366099
540.0 -0.05402380396 -0.09886061086
540.625 -0.04826137033 -0.08729670463
541.25 -0.03279657086 -0.08122346971
541.875 -0.04549206024 -0.08545737214
542.5 -0.05600672997 -0.1058302234
543.125 -0.08356466972 -0.0508843315
543.75 -0.08583582134 0.01764819427
544.375 -0.05737536133 0.03833185298
545.0 -0.03628094586 0.0552478594
545.625 -0.01344210587 0.05556576762
546.25 0.006429310112 0.06919290906
546.875 0.01398838874 0.0703018835
547.5 0.00881557691 0.09437922092
548.125 0.006999133085 0.05822552862
548.75 -0.009681322253 0.05775263464
549.375 -0.01728583121 0.06152939999
550.0 -0.04354589473 0.02481473306
550.625 -0.009555216702 -0.002012018264
551.25 -0.01645224184 -0.03742919269
551.875 -0.04396890574 -0.04877110575
552.5 -0.07899439716 -0.05316010495
553.125 -0.05717031485 -0.02909662459
553.75 -0.07309311891 -0.03263747068
554.375 -0.09354858052 0.003176131934
555.0 -0.1005386519 0.02074714192
555.625 -0.07705323636 0.02713742995
556.25 -0.08245285269 0.01629501738
556.875 -0.09204513195 0.01148482947
557.5 -0.08607719376 0.02846676171
558.125 -0.08624448688 0.02731301725
558.75 -0.0652481814 0.004072222152
559.375 -0.03766662991 0.003668243249
560.0 -0.03105022807 -0.006072888135
560.625 -0.03008541664 -0.03268628844
561.25 -0.05877140406 -0.03953550514
561.875 -0.07504487907 -0.02264883215
562.5 -0.0743891535 0.01767537566
563.125 -0.06896129744 0.04455480222
563.75 -0.0611034144 0.07887471214
564.375 -0.02537162558 0.07739320727
565.0 -0.02071206491 0.08280425848
565.625 -0.01747061462 0.05775633898
566.25 -0.04489675276 0.04141117892
566.875 -0.05587049723 0.0221041583
567.5 -0.06116665051 0.01725124837
568.125 -0.06952777457 0.01251550972
568.75 -0.03217274912 -0.001675311438
569.375 -0.01843591439 -0.01820298303
570.0 -0.02135853019 -0.03385278348
570.625 -0.04547591728 -0.04805694112
571.25 -0.03933697388 -0.03853704342
571.875 -0.05059288782 -0.04080483976
572.5 -0.08810616982 -0.01437167955
573.125 -0.1144323629 0.02828957123
573.75 -0.05984611443 0.04938990805
574.375 -0.03544120022 0.06458654378
575.0 -0.04745990818 0.06197766867
575.625 -0.05600683165 0.06962895841
576.25 -0.03446189271 0.06820868584
576.875 -0.009547662199 0.06697679476
577.5 -0.00730085649 0.07473304027
578.125 -0.01822128459 0.04707365164
578.75 -0.01368691028 0.03728466454
579.375 -0.01440987364 0.04091394315
580.0 -0.01929860584 0.03118413274
580.625 -0.0304566501 0.01885840296
581.25 -0.05578985362 0.00172864089
581.875 -0.07748540734 0.0190513414
582.5 -0.07585626836 0.03972527804
583.125 -0.06013040986 0.05574407474
583.75 -0.05968067379 0.0127265054
584.375 -0.06983309474 0.0137065934
585.0 -0.07488436245 0.008332211054
585.625 -0.06205975436 0.03384895662
586.25 -0.05134046808 -0.002752071083
586.875 -0.05663658024 -0.006285893696
587.5 -0.0556378814 0.01506282882
588.125 -0.02570388699 0.05195987584
588.75 -0.03335007212 0.02210992495
589.375 -0.0383742464 0.01570191816
590.0 -0.04419129387 0.0189755481
590.625 -0.03869814239 0.05270221493
591.25 -0.05294986237 0.07511822186
591.875 -0.03041857026 0.09075840903
592.5 -0.002516027534 0.07531226405
593.125 0.006953605603 0.05943451665
593.75 -0.0299275602 0.04892259145
594.375 -0.0313627326 0.0420750168
595.0 -0.0321166399 0.01937001082
595.625 -0.02988270899 0.008482471189
596.25 -0.03038744185 -0.0229143283
596.875 -0.03236824007 -0.02107962748
597.5 -0.03441267317 -0.0163003024
598.125 -0.02605039956 -0.006510126498
598.75 -0.0117276004 -0.03323576323
599.375 -0.008403833688 -0.04809396938
600.0 -0.02138594239 -0.05752203562
600.625 -0.03404436424 -0.05245918738
601.25 -0.02712809799 -0.08100565788
601.875 -0.05018688877 -0.0490827317
602.5 -0.05362090325 -0.03126742807
603.125 -0.05004185682 -0.02786613505
603.75 -0.03432269269 -0.02028653346
604.375 -0.01280084879 -0.02487660579
605.0 -0.004488771106 -0.0409526602
605.625 -0.003611209418 -0.04483400057
606.25 -0.02698208657 -0.02840260778
606.875 0.007368816903 -0.01994576685
607.5 0.0131975198 -0.008950788789
608.125 0.01717907408 -0.01127196213
608.75 0.02192329977 -0.01707893407
609.375 0.03287265868 -0.01516852445
610.0 0.04589793435 -0.01114103276
610.625 0.04893684956 -0.01273335872
611.25 0.03006127038 -0.01724886851
611.875 0.06231239376 -0.01300817085
612.5 0.0452305685 -0.00546984788
613.125 0.01505447226 -0.002600135645
613.75 0.00102983983 0.003127329628
614.375 0.01756891467 0.0235229786
615.0 0.02590697546 0.01771944778
615.625 0.007086610885 0.007022064196
616.25 0.01028285425 0.01880678628
616.875 0.00355695192 0.02878311813
617.5 0.02710519692 0.03662477256
618.125 0.01881408989 0.03340191985
618.75 0.02163302384 0.02756378976
619.375 0.01478036588 0.03822033347
620.0 0.03211977914 0.03707165312
620.625 0.03647367838 0.01429757642
621.25 0.001460807199 -0.01693470088
621.875 -0.004949718158 -0.006246514902
622.5 -0.03027725335 0.01076672871
623.125 -0.03322866096 0.03943639928
623.75 -0.02463621971 0.05483131742
624.375 -0.03536708592 0.04571558661
625.0 -0.04412002595 0.03619011472
625.625 -0.0454077212 0.0439400651
626.25 -0.04010994181 0.06032847753
626.875 -0.03135855819 0.04357627479
627.5 -0.01217899003 0.05595445552
628.125 -0.02348706286 0.03492689406
628.75 -0.03314778044 0.02109884324
629.375 -0.01978878466 -0.005967883248
630.0 -0.01730934513 0.01589259231
630.625 -0.009356428255 -0.005605752567
631.25 0.005303660053 -0.03699657028
631.875 0.008884340341 -0.06327339332
632.5 -0.02492154106 -0.04460047001
633.125 -0.02038924493 -0.05688669101
633.75 -0.02746159015 -0.0602802992
634.375 -0.01652316058 -0.06961648297
635.0 -0.03945656817 -0.06173278465
635.625 -0.04797569119 -0.04191258742
636.25 -0.03051473636 -0.02586121756
636.875 -0.01694451386 -0.04543415217
637.5 -0.0131641156 -0.07837506226
638.125 -0.05516238701 -0.03611094974
638.75 -0.03418826436 -0.01676644155
639.375 0.004024309042 -0.02388771696
640.0 0.06567403877 -0.01461153528
640.625 0.03950306173 -0.03147594125
641.25 0.0491598854 -0.02935220315
641.875 0.04635607682 -0.02711329412
642.5 0.07119080574 0.009756230077
643.125 0.05053619527 -3.357658831e-05
643.75 0.05399395883 -0.004162142554
644.375 0.05394393126 -0.01156293495
645.0 0.05512949556 0.0133771211
645.625 0.03103025174 -0.0003509213416
646.25 0.05074926682 0.02224804018
646.875 0.07868638336 0.03343041061
647.5 0.06199029251 0.02083956444
648.125 0.04864097049 0.0146355727
648.75 0.04442103777 0.05150529749
649.375 0.04342094495 0.07850450927
650.0 0.04083142848 0.06560241252
650.625 0.03364169603 0.07612240774
651.25 0.01135284013 0.06941435216
651.875 -0.02356766577 0.06064105097
652.5 -0.02526771018 0.0496006124
653.125 -0.03914614716 0.03772642075
653.75 -0.03049252706 0.005783163241
654.375 -0.02291757433 -0.02628842451
655.0 -0.03025102464 -0.05571126183
655.625 -0.04577296589 -0.05953522149
656.25 -0.06873219514 -0.05818946197
656.875 -0.07438533517 -0.04128132923
657.5 -0.07533156176 -0.04910460615
658.125 -0.1026072951 -0.05911723442
658.75 -0.09069610594 -0.01421274093
659.375 -0.07696818281 0.01937396543
660.0 -0.06127741868 0.03623502595
660.625 -0.06975562644 0.02831975769
661.25 -0.03687534817 0.02347354319
661.875 -0.03814319418 0.02859586497
662.5 -0.03536805938 0.02690327465
663.125 -0.07924981991 0.0168667968
663.75 -0.04844889122 -0.02101462046
664.375 -0.04094634055 -0.05525296292
665.0 -0.0255465113 -0.08949649649
665.625 0.01023913719 -0.09961249181
666.25 0.03181130548 -0.08536037248
666.875 0.03819071201 -0.08765201955
667.5 0.05458986564 -0.07761732691
668.125 0.05615820188 -0.05736703951
668.75 0.03659321538 -0.0394119843
669.375 0.04646085587 -0.02367493534
670.0 0.0703040108 -0.02753927171
670.625 0.07890840077 -0.01958147543
671.25 0.04956791203 -0.02237964087
671.875 0.06057451765 -0.03218456775
672.5 0.05288938042 -0.07709206116
673.125 0.03060714325 -0.1057645687
673.75 0.006467020638 -0.09726165308
674.375 0.02811280149 -0.08393509429
675.0 0.06023881235 -0.05419848634
675.625 0.06408633836 -0.03424783613
676.25 0.06467202021 -0.00904342191
676.875 0.07227893438 0.02034548451
677.5 0.03336671169 0.04111886222
678.125 0.03884172723 0.0497287492
678.75 0.03198079888 0.07007512488
679.375 0.04489532965 0.09765082561
680.0 0.05141751915 0.08710651767
680.625 0.08320543749 0.06237523243
681.25 0.08932930631 0.03266166128
681.875 0.1148814491 0.01368559931
682.5 0.09299712746 -0.02686875912
683.125 0.0678840183 -0.0325332621
683.75 0.07698616097 -0.005765242606
684.375 0.03578720522 0.04339484597
685.0 0.004869253471 0.05707262868
685.625 -0.03859793905 0.04451704695
686.25 -0.07467353639 0.01640329655
686.875 -0.0652729604 -0.03951555944
687.5 -0.08305503043 -0.05185139851
688.125 -0.1098118593 -0.06029330953
688.75 -0.1130080222 -0.07801985866
689.375 -0.06438341483 -0.05194796438
690.0 -0.07609579225 -0.05133021657
690.625 -0.08761369398 -0.04580413495
691.25 -0.09617456706 -0.04262639324
691.875 -0.05214896186 0.01221650434
692.5 -0.04058570402 0.02435162444
693.125 -0.04308514583 0.07438776411
693.75 -0.01796490993 0.1177537994
694.375 0.02179623918 0.1054477885
695.0 -0.03235153443 0.08265055968
695.625 -0.09511291973 0.06211883864
696.25 -0.09889905957 -0.04764762564
696.875 -0.02942369853 -0.1112307002
697.5 0.03310618952 -0.1072316211
698.125 0.05299666615 -0.06285320427
698.75 0.04230456432 -0.04504698606
699.375 0.05923994953 -0.04480353225
700.0 0.06566174672 0.0156715141
700.625 0.05783095862 0.03706104937
701.25 0.05500620925 0.03607160453
701.875 0.09888345135 0.01752386522
702.5 0.1253228689 0.003407691005
703.125 0.08916847499 -0.0801470999
703.75 -0.02066869269 -0.0914869116
704.375 -0.04488959082 -0.05979088331
705.0 -0.05128777054 -0.08673120309
705.625 0.03860870296 -0.05516206897
706.25 0.05199128506 -0.024714236
706.875 0.0462507424 0.02338395745
707.5 0.03699049785 0.06884509676
708.125 -0.05566387484 0.077347872
708.75 -0.07576706678 0.06992745158
709.375 -0.089908499 0.02145537494
710.0 -0.08486395985 -0.01855949565
710.625 -0.07730757866 -0.0420864102
711.25 -0.06638206774 -0.08130216985
711.875 -0.07880954048 -0.0669821842
712.5 -0.084300144 -0.005153251218
713.125 -0.04237208338 0.01204680997
713.75 -0.03847689489 0.04265520226
714.375 -0.02934682267 0.06911027862
715.0 -0.02661311486 0.05949556794
715.625 -0.01689037373 0.06134937924
716.25 -0.09421722843 0.05932886411
716.875 -0.124699612 0.005068311715
717.5 -0.08616408465 -0.03403191693
718.125 -0.07719957043 -0.03020061881
718.75 -0.04900975459 -0.06429031296
719.375 -0.03745044424 -0.07815391776
720.0 0.01186469679 -0.0830072642
720.625 0.04872846945 -0.04372255514
721.25 0.04124460826 0.02892007987
721.875 -0.01957191074 0.03194951557
722.5 -0.05548837384 0.02278623847
723.125 -0.02723160857 0.05472626809
723.75 -0.03057562716 0.1070007404
724.375 0.064042999 0.05144557489
725.0 0.06618603007 -0.01539582227
725.625 0.07217992534 -0.03616795999
726.25 0.04023016394 -0.05258710756
726.875 0.05144523961 -0.01051046504
727.5 0.04902040778 0.01859367163
728.125 0.01898604969 0.05631065612
728.75 0.02172244662 0.03422700798
729.375 0.02643258078 0.06805400771
730.0 0.03282059452 0.03113964013
730.625 0.01768198827 0.04309896447
731.25 -0.01608339059 0.04893290757
731.875 -0.02569456197 0.02535546779
732.5 -0.06819936512 -0.01323259663
733.125 -0.05426495007 -0.03612982696
733.75 -0.0351150305 -0.01092482801
734.375 -0.01738354547 -0.03696810539
735.0 -0.0379701759 -0.01910479632
735.625 -0.02464728734 -0.01814566392
736.25 -0.03340409584 -0.01152625967
736.875 -0.04652340548 -0.0267111912
737.5 -0.06429732802 -0.03073319065
738.125 -0.07198383964 -0.02608609585
738.75 -0.04601492683 -0.0151360903
739.375 0.0001631745082 0.002065335781
740.0 -0.01097135428 -0.05829856262
740.625 -0.02937672393 -0.04604740786
741.25 -0.02616491338 -0.03508402112
741.875 0.01525954981 -0.006408758989
742.5 0.02344333669 0.01758259733
743.125 0.007761546336 0.03249183173
743.75 -0.01872733622 0.0345139234
744.375 -0.05069064619 -0.005203164379
745.0 -0.03988078053 0.06195726898
745.625 -0.03162905663 0.072835444
746.25 -0.0008886117068 0.08245254153
746.875 0.03343202102 0.04203158622
747.5 0.03976390314 0.01105868291
748.125 0.02295689027 0.001694721742
748.75 0.02937813468 -0.005335429141
749.375 0.03147113227 -0.01824384916
750.0 0.02433423162 -0.03329038505
