!Created with skrf (http://scikit-rf.org).
# GHz S RI R 50.0 
!freq ReS11 ImS11
500.0 -0.01873910804 0.02238896987
500.625 0.0149964119 0.03313605827
501.25 0.02191877385 0.03593712804
501.875 0.01898070811 0.0336826641
502.5 0.007506236758 0.05208711614
503.125 0.02693202044 0.05690944419
503.75 0.04594562204 0.0043989638
504.375 0.04403642031 -0.005791495772
505.0 0.04930412195 -0.02686430643
505.625 0.07754548313 -0.03008757256
506.25 0.03937879958 -0.05624038261
506.875 0.05441731622 -0.04395488326
507.5 0.0592244529 -0.03384742896
508.125 0.08314391089 0.005589602127
508.75 0.04778324221 -0.05313374162
509.375 0.03488842191 -0.04202907065
510.0 0.07295986551 -0.02704879882
510.625 0.01100715372 -0.07455304582
511.25 -0.03672147434 -0.05136295931
511.875 -0.04804093342 -0.009295430416
512.5 -0.03529752011 0.005124331222
513.125 -0.03926058489 0.02377820356
513.75 -0.02620647068 0.03827620091
514.375 -0.0190403151 0.06498781323
515.0 -0.004508256056 0.09172871703
515.625 -0.0355793123 0.08918448779
516.25 0.0211714083 0.1056778307
516.875 -0.06478207434 0.1192144618
517.5 0.03066512802 0.1055037845
518.125 -0.06169796542 0.1047867342
518.75 0.02182687749 0.04816707962
519.375 0.006778469593 0.07299294276
520.0 0.037086124 0.08091698357
520.625 0.05845348456 0.04075072718
521.25 0.05316297396 0.02862342283
521.875 0.02955256315 0.05690175644
522.5 0.06397991819 0.01618047349
523.125 0.115403318 -0.01010327373
523.75 0.09987561605 -0.0498619677
524.375 0.04609468454 -0.008341484571
525.0 0.0002251407794 0.01178331392
525.625 -0.0004189280042 0.008062768582
526.25 0.004298516044 0.03529363477
526.875 0.0124549878 0.0392007219
527.5 0.02828116198 0.03552938427
528.125 0.02963574948 0.003418280896
528.75 0.06144486185 -0.001909412424
529.375 0.04008516165 -0.0341799436
530.0 0.03769769907 -0.03338587746
530.625 0.01249914804 -0.08115298655
531.25 0.03212386414 -0.1632488271
531.875 -0.04574108929 -0.1516557157
532.5 -0.08617726641 -0.09894663864
533.125 -0.06158511769 -0.03996145755
533.75 -0.06264599428 -0.06144777665
534.375 -0.06418366612 -0.04096746098
535.0 -0.06680276891 -0.03166987574
535.625 -0.02504944255 -0.02739864491
536.25 -0.02552619494 -0.03542079809
536.875 -0.0412109675 -0.06880659821
537.5 -0.04709794583 -0.1026006876
538.125 -0.063714872 -0.06252922521
538.75 -0.04976197861 -0.03053996479
539.375 -0.032659684 -0.0517360848
540.0 -0.05492009905 -0.1027766604
540.625 -0.04972882976 -0.1013745181
541.25 -0.03305710339 -0.09061361177
541.875 -0.04435108843 -0.08729773315
542.5 -0.05537659252 -0.1077972805
543.125 -0.08506927607 -0.05851889216
543.75 -0.08843517172 0.01446760024
544.375 -0.05843576077 0.03697141909
545.0 -0.04056597305 0.05691161474
545.625 -0.01343569053 0.05061281095
546.25 0.005788560021 0.07351744273
546.875 0.01364363963 0.07745540327
547.5 0.006972557601 0.09757278761
548.125 0.0009639527403 0.06306939932
548.75 -0.01581656841 0.06080349154
549.375 -0.02245881895 0.06047977058
550.0 -0.05028130477 0.02501652658
550.625 -0.008028507214 -0.00786411968
551.25 -0.01851972102 -0.03828229236
551.875 -0.04531537381 -0.04939778478
552.5 -0.07921873723 -0.05609032728
553.125 -0.05899104424 -0.03213005588
553.75 -0.07248511653 -0.03470912924
554.375 -0.09192980855 -0.0004690706674
555.0 -0.1030721813 0.02058229705
555.625 -0.07317147112 0.02596064782
556.25 -0.08462534202 0.01429848115
556.875 -0.09746644339 0.01293015687
557.5 -0.09028883945 0.02726971733
558.125 -0.08553320493 0.02386962527
558.75 -0.06578994313 0.0003855675581
559.375 -0.03543723913 0.0004013088173
560.0 -0.03167964104 -0.008286405232
560.625 -0.02514562152 -0.03478694383
561.25 -0.05787867773 -0.04399283953
561.875 -0.07265874237 -0.02289460368
562.5 -0.07648600837 0.01741683376
563.125 -0.07036683294 0.03915746451
563.75 -0.06268447447 0.07534823584
564.375 -0.02666583654 0.07688274412
565.0 -0.02299765841 0.08258600713
565.625 -0.01958883928 0.05250264672
566.25 -0.04803989786 0.03869220735
566.875 -0.05993879337 0.02389696357
567.5 -0.06207022359 0.01423254464
568.125 -0.06968587082 0.009496694982
568.75 -0.03644586492 -0.003767009258
569.375 -0.01927322836 -0.02060219514
570.0 -0.02340037715 -0.0358290801
570.625 -0.03909112982 -0.05145891796
571.25 -0.04061269633 -0.04028834342
571.875 -0.05613391645 -0.04012399903
572.5 -0.08993913205 -0.01853206151
573.125 -0.1158459025 0.0252417762
573.75 -0.06326646322 0.05093626843
574.375 -0.03829806996 0.06614157526
575.0 -0.05021325226 0.06519353587
575.625 -0.05777400376 0.06267534145
576.25 -0.03647759913 0.06791466294
576.875 -0.0170269044 0.06890605207
577.5 -0.008853213665 0.07658415093
578.125 -0.01938991957 0.04167634427
578.75 -0.01535240008 0.03853807317
579.375 -0.01588248441 0.0412268067
580.0 -0.02164831947 0.03058224983
580.625 -0.03295690005 0.01596465173
581.25 -0.05714782327 0.004645466997
581.875 -0.07852750189 0.01951117261
582.5 -0.07845742864 0.04071275765
583.125 -0.06185287818 0.05575309252
583.75 -0.06153984888 0.01137060352
584.375 -0.07344634982 0.01037402153
585.0 -0.07375078143 0.001689504024
585.625 -0.06340568544 0.03239955125
586.25 -0.05282182054 0.0004764849112
586.875 -0.05729071031 -0.005811911622
587.5 -0.05779065967 0.016270999
588.125 -0.02638886467 0.05202576297
588.75 -0.0353074053 0.02174051273
589.375 -0.04308580626 0.01230555212
590.0 -0.04766773037 0.01650588481
590.625 -0.03719957432 0.05442875042
591.25 -0.05937730164 0.07382629808
591.875 -0.02907945331 0.08894837373
592.5 -0.003324445465 0.07415745892
593.125 0.01084993642 0.06164263264
593.75 -0.03140491426 0.04896444472
594.375 -0.03305750287 0.03915952584
595.0 -0.03395065175 0.0175622192
595.625 -0.02837570406 0.01294796386
596.25 -0.02879751754 -0.03108963904
596.875 -0.03219468632 -0.01955742979
597.5 -0.03212785961 -0.015442779
598.125 -0.02635151113 -0.005427815722
598.75 -0.01208887052 -0.02878053698
599.375 -0.009322846753 -0.04827641393
600.0 -0.01965216142 -0.05369779419
600.625 -0.03312014438 -0.05718771452
601.25 -0.02631181551 -0.08133952666
601.875 -0.0499396032 -0.0521614932
602.5 -0.05133377208 -0.03453728195
603.125 -0.05324097867 -0.01998570569
603.75 -0.0312014578 -0.02324567524
604.375 -0.01517469267 -0.02280726273
605.0 -0.005893368523 -0.03603900397
605.625 -0.007628604873 -0.04341817316
606.25 -0.02380213911 -0.03008285352
606.875 -0.0008639101128 -0.0174628714
607.5 0.01602921747 -0.008761084028
608.125 0.01644727431 -0.00898840513
608.75 0.02377861466 -0.01954968516
609.375 0.03282699032 -0.01286046995
610.0 0.04146132157 -0.00846147975
610.625 0.04280391109 -0.01217514303
611.25 0.03302036658 -0.01616751681
611.875 0.05123668322 -0.01563929304
612.5 0.0470602897 -0.00326923818
613.125 0.0181337411 -0.002865881831
613.75 -0.006153825737 0.003258880088
614.375 0.01992973801 0.02434447208
615.0 0.02259302727 0.01889635921
615.625 0.01179886648 0.01072904065
616.25 0.007326861802 0.01981984103
616.875 0.01033476711 0.03401969726
617.5 0.02236657719 0.03876382677
618.125 0.0194131732 0.0332350644
618.75 0.009021460379 0.02511406595
619.375 0.01385225183 0.0432922935
620.0 0.03196431452 0.0405297722
620.625 0.03504383754 0.01251748726
621.25 -0.003187622312 -0.01745466711
621.875 -0.003998256228 -6.043186906e-06
622.5 -0.03194411112 0.009729669547
623.125 -0.04935337061 0.04046185612
623.75 -0.03658757754 0.05235530319
624.375 -0.03606314481 0.04926544979
625.0 -0.0469371335 0.03335325518
625.625 -0.05036473816 0.03699462993
626.25 -0.04448381813 0.0511711604
626.875 -0.0296174468 0.04233840175
627.5 -0.02017328606 0.04334618146
628.125 -0.02291982415 0.03666104589
628.75 -0.03055371548 0.01008322502
629.375 -0.01947009047 -0.009365960145
630.0 -0.01765047419 0.01951087596
630.625 -0.007725466722 -0.01135935794
631.25 0.007454754871 -0.03983578143
631.875 0.0120552493 -0.06083499751
632.5 -0.01772650024 -0.0555435068
633.125 -0.01957474425 -0.05468033323
633.75 -0.02536762426 -0.05904897191
634.375 -0.01080545777 -0.07674185031
635.0 -0.0406308733 -0.06015200165
635.625 -0.04380428741 -0.04208021996
636.25 -0.02709144988 -0.03196042959
636.875 -0.008984586891 -0.05321744459
637.5 -0.009208086049 -0.08135792988
638.125 -0.05068857255 -0.03651645246
638.75 -0.03026865263 -0.01620503213
639.375 0.005789844341 -0.02301303529
640.0 0.07107671284 -0.01339016792
640.625 0.04039360348 -0.02859629661
641.25 0.0495195569 -0.02631885373
641.875 0.04755077597 -0.02302253565
642.5 0.06827311106 0.01356088802
643.125 0.05636435541 0.01124723467
643.75 0.05211485239 -0.001007001286
644.375 0.05959161128 -0.0006598395449
645.0 0.05392081136 0.01589773549
645.625 0.02869874712 0.002477152419
646.25 0.04979425437 0.02211338922
646.875 0.07529908322 0.03066098578
647.5 0.06429621646 0.02668894603
648.125 0.04445388528 0.01369035105
648.75 0.04657908682 0.058219079
649.375 0.04242003725 0.09027393833
650.0 0.03865021128 0.07294847707
650.625 0.02988952751 0.077313707
651.25 0.007860102836 0.07201967944
651.875 -0.02959752152 0.06095990953
652.5 -0.030996619 0.04742378209
653.125 -0.03934803398 0.03363372918
653.75 -0.0363961471 -0.001105744422
654.375 -0.02080581953 -0.0309941798
655.0 -0.03090004566 -0.05982742425
655.625 -0.04315067721 -0.05764678899
656.25 -0.06616054682 -0.06567498193
656.875 -0.07547316463 -0.0462381585
657.5 -0.07795346622 -0.05523935927
658.125 -0.1025524304 -0.06336838309
658.75 -0.08983103104 -0.02145092898
659.375 -0.07663718659 0.01544620962
660.0 -0.06119869486 0.03131452191
660.625 -0.07340770493 0.02421917114
661.25 -0.03526822617 0.01863459944
661.875 -0.04055943074 0.02526769218
662.5 -0.04122958479 0.02124195112
663.125 -0.08040651226 0.01056391238
663.75 -0.05114171175 -0.02883706441
664.375 -0.04050448538 -0.05975062602
665.0 -0.02003017316 -0.09112003284
665.625 0.01529034321 -0.09315295577
666.25 0.03590096327 -0.08515865696
666.875 0.04219913758 -0.07969976503
667.5 0.06454354471 -0.07933716226
668.125 0.05159240541 -0.05421987758
668.75 0.04168984862 -0.03527157975
669.375 0.05506269326 -0.02526013203
670.0 0.07575915503 -0.02400104039
670.625 0.07764135827 -0.01466703173
671.25 0.05658459142 -0.02528708179
671.875 0.06795278388 -0.03330947314
672.5 0.0636648853 -0.08300224242
673.125 0.03491288619 -0.1031953744
673.75 0.01322227994 -0.09568641201
674.375 0.03185747255 -0.07928137234
675.0 0.06542271867 -0.05278497052
675.625 0.06331547368 -0.0280723757
676.25 0.06678912564 -0.002878264744
676.875 0.07033637711 0.02552500823
677.5 0.03454091723 0.04611456962
678.125 0.03686561757 0.05353163223
678.75 0.03755391843 0.07519472638
679.375 0.04430522902 0.105866523
680.0 0.04925332397 0.09181252143
680.625 0.08141075802 0.06616886433
681.25 0.08362972364 0.03987631587
681.875 0.1161929179 0.02174068728
682.5 0.09010879137 -0.02408418241
683.125 0.06764489956 -0.02369040248
683.75 0.07646906123 0.0003782750627
684.375 0.04074941387 0.05059161727
685.0 -0.00232844002 0.05765004911
685.625 -0.04489636562 0.04324930972
686.25 -0.07821520811 0.01232856173
686.875 -0.07029038244 -0.04288567171
687.5 -0.08688789607 -0.05731314079
688.125 -0.1148268285 -0.06761588932
688.75 -0.1095714767 -0.08338097449
689.375 -0.06281209016 -0.05630435814
690.0 -0.07602351546 -0.05441371845
690.625 -0.08171258325 -0.05308704366
691.25 -0.09438567797 -0.0476403786
691.875 -0.04866465918 0.007881886881
692.5 -0.04430976229 0.02053530311
693.125 -0.0472672299 0.07672928256
693.75 -0.01989953021 0.1218334352
694.375 0.01551920308 0.1073528315
695.0 -0.0369712254 0.08535891321
695.625 -0.09899008359 0.06046136389
696.25 -0.09533207435 -0.05458252667
696.875 -0.03046485037 -0.1132068688
697.5 0.03908029809 -0.1043638529
698.125 0.05830060339 -0.06014612793
698.75 0.03935994583 -0.03724962763
699.375 0.06299763359 -0.04116243719
700.0 0.06969009793 0.01715650564
700.625 0.05718354197 0.04120772486
701.25 0.05451569204 0.03833093988
701.875 0.1004473815 0.01988303319
702.5 0.1274149715 0.009266496886
703.125 0.08984206925 -0.07232094379
703.75 -0.01865405218 -0.09125079369
704.375 -0.04290369181 -0.06222523944
705.0 -0.0422717399 -0.09332755622
705.625 0.04065441827 -0.05766308221
706.25 0.05381546513 -0.02294943708
706.875 0.04930362789 0.02358330965
707.5 0.0354227565 0.07168118411
708.125 -0.05962266353 0.07777695284
708.75 -0.08018939036 0.06611483095
709.375 -0.09010855442 0.01790413158
710.0 -0.08800441231 -0.01769574547
710.625 -0.07175790301 -0.05113257462
711.25 -0.05984936945 -0.08489492009
711.875 -0.0795234212 -0.06819352339
712.5 -0.0828474092 -0.007282187041
713.125 -0.04367065938 0.01029941348
713.75 -0.03858421748 0.04050602055
714.375 -0.03664379946 0.05945609018
715.0 -0.02380825908 0.05931678264
715.625 -0.02188789682 0.0623574446
716.25 -0.08474282247 0.06203589947
716.875 -0.1243015795 0.01201378807
717.5 -0.08591909323 -0.03360316786
718.125 -0.07739145556 -0.02462175045
718.75 -0.04399407512 -0.07706923834
719.375 -0.03655321578 -0.07714756238
720.0 0.01014626848 -0.0807283874
720.625 0.04897498464 -0.04120953338
721.25 0.02747220679 0.03412513703
721.875 -0.02477263056 0.03156377189
722.5 -0.04662815496 0.02324456255
723.125 -0.03036553059 0.05464951769
723.75 -0.03749983587 0.1091133591
724.375 0.06190431615 0.05336295875
725.0 0.07037217068 -0.004265738668
725.625 0.07152279748 -0.03546926169
726.25 0.0449363719 -0.04745607418
726.875 0.04459869858 -0.01895333161
727.5 0.04368109143 0.004675061447
728.125 0.02402396098 0.03613283642
728.75 0.02026955671 0.02717305007
729.375 0.02254046469 0.0731395396
730.0 0.03296290328 0.03185894419
730.625 0.01210412992 0.03888204987
731.25 -0.01674633817 0.04666670345
731.875 -0.03772998987 0.02739751089
732.5 -0.05636915482 -0.007332873046
733.125 -0.05247091761 -0.03779331905
733.75 -0.03095974699 -0.009404084942
734.375 -0.02750804839 -0.04484440967
735.0 -0.03258794592 -0.0196657887
735.625 -0.03143844817 -0.02079143711
736.25 -0.01859718735 -0.01596243983
736.875 -0.05453957204 -0.03209858046
737.5 -0.05859588139 -0.03391562828
738.125 -0.05516908613 -0.01915602669
738.75 -0.0444528424 -0.01222878483
739.375 0.0002749046157 -0.001772727017
740.0 -0.002852025532 -0.04351568045
740.625 -0.03106431184 -0.04692872956
741.25 -0.01469985867 -0.02752692348
741.875 0.0231240086 0.003591654508
742.5 0.03131322815 0.01995996635
743.125 0.00496104035 0.03698901644
743.75 -0.02024333267 0.02808237601
744.375 -0.05397973903 -0.01130244264
745.0 -0.04370204148 0.05202211276
745.625 -0.03308552889 0.06768038761
746.25 -0.006628529129 0.08079589895
746.875 0.02379010123 0.04776814626
747.5 0.04273820968 0.01072079014
748.125 0.01552078939 0.006886018052
748.75 0.02044106391 0.005988919661
749.375 0.03193866605 -0.007825039775
750.0 0.03028447625 -0.03316611039
