!Created with skrf (http://scikit-rf.org).
# GHz S RI R 50.0 
!freq ReS11 ImS11
500.0 -0.008535737141 0.02667567945
500.625 0.02474328351 0.03147550068
501.25 0.02293869958 0.04041540416
501.875 0.03452073568 0.004301759418
502.5 0.009916506488 0.03899112156
503.125 0.02814903241 0.04477277576
503.75 0.04785189121 0.01743445891
504.375 0.04937756133 0.003666096738
505.0 0.04858978539 -0.02168947977
505.625 0.0587297874 -0.04084110364
506.25 0.05746433186 -0.0470905257
506.875 0.06402979192 -0.03695229855
507.5 0.05416311161 -0.04472772325
508.125 0.09005615975 0.0007811303162
508.75 0.02277208743 -0.06970580216
509.375 0.02743208724 -0.04651230045
510.0 0.06461881815 -0.04293049635
510.625 0.0004834273263 -0.07466121651
511.25 -0.03964609151 -0.05062008989
511.875 -0.04957158229 -0.01725387565
512.5 -0.03921115875 -0.0008447545071
513.125 -0.02769158125 0.02885164826
513.75 -0.0005808161609 0.04181154917
514.375 -0.005449358158 0.05006601912
515.0 0.01408921079 0.08295835795
515.625 -0.06136600052 0.1021627975
516.25 0.04415128177 0.08245521925
516.875 -0.03267398459 0.1149431386
517.5 0.04358703323 0.1085593125
518.125 -0.08864017138 0.1206902988
518.75 0.02452645266 0.05333377965
519.375 0.00261513125 0.07966969878
520.0 0.04604492666 0.07012674549
520.625 0.05830961228 0.06402511093
521.25 0.06134760247 0.02548773383
521.875 0.04071342801 0.0385202635
522.5 0.06989593196 0.008089886636
523.125 0.1345904671 0.003641735071
523.75 0.09504355357 -0.09824865955
524.375 0.06918850694 -0.02718153064
525.0 0.007438759748 0.003088668346
525.625 0.008163216293 0.02480935926
526.25 0.01403251776 0.0471673888
526.875 0.02148573866 0.0462282467
527.5 0.02655439603 0.02563521091
528.125 0.05349952582 0.005629153364
528.75 0.05127007983 -0.01340498589
529.375 0.04862729647 -0.04046284818
530.0 0.0301932778 -0.03913745891
530.625 0.009029791729 -0.05967496083
531.25 0.0155813932 -0.1637744237
531.875 -0.05962408394 -0.162961932
532.5 -0.09461224043 -0.08914495675
533.125 -0.091607515 -0.06414931114
533.75 -0.08065999456 -0.06447904365
534.375 -0.07423168755 -0.04611202407
535.0 -0.06788231625 -0.01825001589
535.625 -0.04230563095 -0.04222264849
536.25 -0.04130328253 -0.03747656369
536.875 -0.04733240201 -0.05915851707
537.5 -0.05817220121 -0.09745332766
538.125 -0.06634121235 -0.04341957282
538.75 -0.06532931327 -0.03489763062
539.375 -0.04392830315 -0.05105250822
540.0 -0.05429852071 -0.0853233758
540.625 -0.0585660787 -0.09491103415
541.25 -0.04480307652 -0.08928526138
541.875 -0.05344699052 -0.07796477088
542.5 -0.0700747688 -0.1014253381
543.125 -0.1019396969 -0.05873520087
543.75 -0.101869745 0.01979584051
544.375 -0.06649049563 0.04213664843
545.0 -0.0271788204 0.06132023581
545.625 -0.01596267683 0.07450373281
546.25 0.01346149817 0.05640682492
546.875 0.02184160482 0.06172773306
547.5 0.02160359584 0.08890082341
548.125 0.007071335579 0.07214123983
548.75 -0.009527477141 0.07275211782
549.375 -0.02085659466 0.08088858731
550.0 -0.03905396378 0.03430410385
550.625 -0.0304823034 0.006487528124
551.25 -0.007692421365 -0.03203121655
551.875 -0.05691212283 -0.03730096391
552.5 -0.07728457231 -0.04496061546
553.125 -0.07708785191 -0.02038346025
553.75 -0.08144412363 -0.02330450881
554.375 -0.09692791092 0.007590160871
555.0 -0.09606283133 0.02591178217
555.625 -0.08137656119 0.03988370469
556.25 -0.07223128711 0.01525753838
556.875 -0.09142365357 0.0192909918
557.5 -0.08848131804 0.03570544166
558.125 -0.08745987638 0.03411813759
558.75 -0.05624288235 0.00933120549
559.375 -0.04764866462 0.002739916605
560.0 -0.0291614955 -0.004756233029
560.625 -0.0433596272 -0.02453614911
561.25 -0.05717139239 -0.03496990736
561.875 -0.07582951468 -0.01975153464
562.5 -0.07162072124 0.02115176388
563.125 -0.06828354498 0.06929781578
563.75 -0.05460267985 0.0913917776
564.375 -0.02500342627 0.09126660437
565.0 -0.01728180917 0.08163076337
565.625 -0.009330123182 0.07817800005
566.25 -0.04138203032 0.05063236737
566.875 -0.0526454746 0.02209828381
567.5 -0.05937073684 0.02293886169
568.125 -0.07332724609 0.02413352465
568.75 -0.04833308451 0.005612886322
569.375 -0.03290885763 -0.0128139246
570.0 -0.02623653185 -0.02582781318
570.625 -0.05641127278 -0.03745236089
571.25 -0.03551784798 -0.03994360086
571.875 -0.05654228729 -0.03030741561
572.5 -0.08575497268 -0.007812194047
573.125 -0.1143295363 0.04358830304
573.75 -0.06177588726 0.06412725442
574.375 -0.0355402126 0.06452676823
575.0 -0.0410777467 0.06372025159
575.625 -0.04793485928 0.08567454223
576.25 -0.03321757319 0.07061790809
576.875 -0.008360313915 0.08221955553
577.5 -0.001943697643 0.07489699776
578.125 -0.01310193272 0.06830016957
578.75 -0.01572016279 0.03259625088
579.375 -0.01433625747 0.03710852885
580.0 -0.01515600246 0.03630630029
580.625 -0.02677632111 0.02722160523
581.25 -0.05777498833 -0.001260760523
581.875 -0.06667816641 0.03605719158
582.5 -0.07264436898 0.05407859063
583.125 -0.06298862363 0.05361197889
583.75 -0.0577581058 0.04549373914
584.375 -0.06828858846 0.03058003418
585.0 -0.07832172432 0.009351864067
585.625 -0.06367951995 0.03298176726
586.25 -0.05609453065 0.01500406931
586.875 -0.06346833254 0.01157111476
587.5 -0.05902191725 0.02343741069
588.125 -0.02883566323 0.0490068602
588.75 -0.01489842928 0.04776663175
589.375 -0.02552587173 0.03488277073
590.0 -0.04351791887 0.0263734828
590.625 -0.04161710468 0.05468303113
591.25 -0.02072309864 0.0834815055
591.875 -0.03238683179 0.09107940999
592.5 -0.008005815193 0.07421956425
593.125 0.005272267304 0.06193079615
593.75 0.005868572423 0.06828531703
594.375 -0.02361951283 0.05603203856
595.0 -0.03136272153 0.0374236912
595.625 -0.03152490026 0.007790994271
596.25 -0.03889582593 0.005121833803
596.875 -0.03357710329 -0.03138141111
597.5 -0.03406794835 -0.02674197449
598.125 -0.02580367239 -0.01402636496
598.75 -0.0145307095 -0.04165129205
599.375 -0.01489332191 -0.03083842649
600.0 -0.01966782909 -0.04590231287
600.625 -0.03705450602 -0.05726040592
601.25 -0.05040465208 -0.05443248229
601.875 -0.05667441863 -0.03927600442
602.5 -0.06107285396 -0.03343994508
603.125 -0.05292786578 -0.03448713566
603.75 -0.04624750913 -0.005545715061
604.375 -0.01035257472 -0.03514758677
605.0 -0.01021449338 -0.03704819153
605.625 -0.01414845943 -0.0422768155
606.25 -0.02293230536 -0.03455277354
606.875 -0.004807736292 -0.02118924248
607.5 -0.00116049236 -0.002881528083
608.125 0.01525615157 -0.01166318928
608.75 0.005892514648 -0.005223031639
609.375 0.04782500786 -0.02681904609
610.0 0.04822624699 -0.01502130572
610.625 0.04324299306 -0.01856418358
611.25 0.0316816424 -0.01929299619
611.875 0.06146231827 -0.01907678686
612.5 0.03146686279 -0.01412607379
613.125 0.01733709522 -0.009905899613
613.75 0.01399025434 0.005196385753
614.375 9.83487505e-05 0.01153976492
615.0 0.04099750268 0.02325467337
615.625 0.02871490888 0.01327539773
616.25 0.01788586865 0.02192593682
616.875 -0.008480837108 0.02955777718
617.5 0.02469248291 0.03557145583
618.125 0.02305987514 0.02371831596
618.75 0.02093146326 0.03075958991
619.375 0.0002034471863 0.02949540661
620.0 0.02621304741 0.03530692157
620.625 0.03003523223 0.002568530551
621.25 0.01964138892 -0.007759275474
621.875 -0.01725813322 -0.02355831736
622.5 -0.03078606788 0.01104281736
623.125 -0.01447651606 0.03884447119
623.75 -0.02180826786 0.05507017674
624.375 -0.04856045562 0.04193910683
625.0 -0.0300631309 0.05477560925
625.625 -0.04433735095 0.05459209905
626.25 -0.04677707369 0.06476223973
626.875 -0.02893532733 0.04854633609
627.5 -0.01439654674 0.05794429106
628.125 -0.02927248658 0.02366913414
628.75 -0.03375455228 0.0003599917809
629.375 -0.01916116853 0.004831654768
630.0 -0.01241391908 -0.01129821791
630.625 -0.004970645214 -0.02292552037
631.25 -0.007335652785 -0.03421683546
631.875 0.00360631014 -0.0593425121
632.5 -0.02750729601 -0.04468051559
633.125 -0.01522585334 -0.06820734549
633.75 -0.02365728177 -0.05749796046
634.375 -0.02754171228 -0.05721165571
635.0 -0.04150753684 -0.07404916248
635.625 -0.06607797425 -0.0201793579
636.25 -0.03869080292 -0.02174419428
636.875 -0.02407764121 -0.04927799467
637.5 -0.02695094298 -0.06312791301
638.125 -0.03733530776 -0.0524797488
638.75 -0.02991342584 -0.02762258421
639.375 0.008770320873 -0.02577916297
640.0 0.04982302811 -0.0229496416
640.625 0.06668055964 -0.02292258719
641.25 0.03939774876 -0.03673427509
641.875 0.05379994126 -0.02737641771
642.5 0.07688519043 0.001782066335
643.125 0.05176045405 -0.007939339502
643.75 0.06503679966 -0.001337648194
644.375 0.07121905203 -0.008272281207
645.0 0.05590725677 0.003551864042
645.625 0.05481832828 0.01831771259
646.25 0.05780067686 0.01783336691
646.875 0.06769691525 0.01680779134
647.5 0.06493801173 0.01104788059
648.125 0.06458160173 0.02210781075
648.75 0.04112271098 0.03113626619
649.375 0.04974927234 0.06356758986
650.0 0.04674761276 0.06788397137
650.625 0.04256536804 0.07861853939
651.25 0.02674243908 0.05652770896
651.875 -0.01521576424 0.06875977251
652.5 -0.02453527724 0.05665868279
653.125 -0.03585911101 0.04379822006
653.75 -0.01453816438 0.0199494581
654.375 -0.03193265761 -0.03085077681
655.0 -0.02830308186 -0.04741049732
655.625 -0.06013086481 -0.05886047313
656.25 -0.05944636868 -0.0381993573
656.875 -0.07507629348 -0.0338170389
657.5 -0.08201476949 -0.04080241245
658.125 -0.09909480892 -0.04680504922
658.75 -0.1175547746 -0.02648288727
659.375 -0.09138265663 0.02065845726
660.0 -0.07000856892 0.0376692187
660.625 -0.06027790494 0.0382076917
661.25 -0.07027833329 0.03072869089
661.875 -0.02942550593 0.0314155257
662.5 -0.04343757484 0.03787965745
663.125 -0.07759313417 0.03156158596
663.75 -0.07026185478 -0.01854646161
664.375 -0.05828987666 -0.05609555904
665.0 -0.03358162109 -0.08216826038
665.625 -0.002343467405 -0.1235062113
666.25 0.02629846632 -0.09315989612
666.875 0.03984828501 -0.08839755317
667.5 0.04620239902 -0.0882142438
668.125 0.06484376854 -0.0788573003
668.75 0.02971863246 -0.0387021203
669.375 0.04104182936 -0.03058672679
670.0 0.0580528602 -0.0384899359
670.625 0.08581452238 -0.03573914726
671.25 0.04803910588 -0.03189671874
671.875 0.06327020935 -0.04595139973
672.5 0.0470449535 -0.1006612387
673.125 0.02104209803 -0.1161156514
673.75 -3.715784478e-05 -0.0931304545
674.375 0.01845134846 -0.08432128618
675.0 0.05272901123 -0.062692856
675.625 0.06705222002 -0.0447050861
676.25 0.06783630412 -0.0211227795
676.875 0.06218824766 0.005280370251
677.5 0.041921889 0.03627714847
678.125 0.04582513469 0.04402166178
678.75 0.04638145784 0.06722501115
679.375 0.07000927824 0.09170718655
680.0 0.06392987583 0.08870051644
680.625 0.08305319207 0.05793422751
681.25 0.113753328 0.02321534305
681.875 0.1260066478 -0.002538201658
682.5 0.08813965184 -0.03205558169
683.125 0.06709951799 -0.03700636513
683.75 0.08093177413 -0.0201317917
684.375 0.05734587122 0.04030423485
685.0 0.01889556764 0.06485443675
685.625 -0.03395314374 0.05146480315
686.25 -0.06840705313 0.02291129858
686.875 -0.08562969901 -0.01830453154
687.5 -0.09468261914 -0.03680472523
688.125 -0.1174171426 -0.04915760607
688.75 -0.11617316 -0.07030588106
689.375 -0.09156133377 -0.05493330314
690.0 -0.08758245784 -0.04764839258
690.625 -0.1045363654 -0.04404854768
691.25 -0.1031738197 -0.03272665128
691.875 -0.06535497167 0.02463142894
692.5 -0.03509088966 0.02278183245
693.125 -0.0312759854 0.06871390779
693.75 0.005780823998 0.1226987818
694.375 0.0305207659 0.1076644168
695.0 -0.007574852431 0.1054684831
695.625 -0.08608225676 0.07978005132
696.25 -0.1208432866 -0.041572536
696.875 -0.0383923647 -0.1125311104
697.5 0.02013819653 -0.1179749313
698.125 0.0484406433 -0.05755231435
698.75 0.04042655215 -0.04735065129
699.375 0.05549179632 -0.04805684683
700.0 0.07827063385 -0.02086148871
700.625 0.07804713505 0.01928509294
701.25 0.06628436687 0.02593003963
701.875 0.09635493898 0.0167633919
702.5 0.1320284833 -0.06098657802
703.125 0.09223410734 -0.08501813077
703.75 -0.01932455597 -0.08957659139
704.375 -0.05123920029 -0.05331367495
705.0 -0.07136668121 -0.07701230594
705.625 0.01618600141 -0.09163965576
706.25 0.04408259262 -0.04867983113
706.875 0.05767225099 0.004637188207
707.5 0.03815352622 0.06767231004
708.125 -0.01124429533 0.0966733803
708.75 -0.05909783159 0.08257133313
709.375 -0.08745298252 0.04331840139
710.0 -0.08822012075 -0.0157237146
710.625 -0.0873958487 -0.02855667641
711.25 -0.08012785803 -0.07311622747
711.875 -0.0889478858 -0.0547396373
712.5 -0.08797333038 -0.006486692453
713.125 -0.04083829618 0.04794619778
713.75 -0.02105773978 0.05442768873
714.375 -0.04238420035 0.06512331753
715.0 -0.0215793428 0.06392032826
715.625 -0.003266219301 0.06028688864
716.25 -0.07024760827 0.07010730672
716.875 -0.1167994407 0.04512065685
717.5 -0.102011845 -0.005933134893
718.125 -0.0792153236 -0.03301628204
718.75 -0.07893202621 -0.02612341436
719.375 -0.03061847624 -0.09265002279
720.0 0.004261549069 -0.08769186401
720.625 0.05200915871 -0.04667097396
721.25 0.05815394443 -0.006859910478
721.875 0.006840947193 0.03885663107
722.5 -0.01651507167 0.03328840657
723.125 -0.0316783569 0.0595050563
723.75 0.02815176216 0.07730042951
724.375 0.07013231111 0.05811559031
725.0 0.08487247439 -0.007383057793
725.625 0.07813404253 -0.03861175909
726.25 0.03788649221 -0.06024111895
726.875 0.05823812198 -0.01459080732
727.5 0.04677500926 -0.005762642691
728.125 0.03238345435 0.01017990623
728.75 0.02222797822 0.05194781656
729.375 0.03405658609 0.01809308713
730.0 0.04095272182 0.04139257212
730.625 0.02246457702 0.05216946842
731.25 -0.01804885762 0.05647457519
731.875 -0.01289527793 0.02077457823
732.5 -0.07842740599 -0.004280834727
733.125 -0.04939960124 -0.008036022604
733.75 -0.04188944306 -0.01452607035
734.375 -0.007229042973 0.009333549885
735.0 -0.03507232734 -0.003307342857
735.625 -0.0334489111 -0.002067405647
736.25 -0.03216779192 -0.008958636523
736.875 -0.02220571344 -0.03231569424
737.5 -0.08848643673 -0.0222472488
738.125 -0.07375429198 -0.030829491
738.75 -0.05535989526 -0.02163722998
739.375 0.01196527451 0.008490721464
740.0 -0.01628166997 -0.06262046855
740.625 -0.01431113305 -0.03125799633
741.25 -0.008597846955 -0.01807191181
741.875 0.004442600316 -0.02600909257
742.5 0.01127345797 0.02929901613
743.125 -0.0001971889048 0.02876720954
743.75 -0.02833678529 0.01087056457
744.375 -0.03668869102 0.01157214037
745.0 -0.04628212849 0.02905526973
745.625 -0.04583196551 0.05201734059
746.25 -0.001854381874 0.07287159469
746.875 0.04402294465 0.04696701457
747.5 0.02368730886 0.01892171853
748.125 0.04280281029 -0.01398259848
748.75 0.02325661229 0.002544996498
749.375 0.03387283068 -0.0005114875004
750.0 0.008332224346 -0.03271028568
