!Created with skrf (http://scikit-rf.org).
# GHz S RI R 50.0 
!freq ReS11 ImS11
500.0 -0.01365880566 0.02446868166
500.625 0.02561742946 0.02443920715
501.25 0.03120860424 0.01611886835
501.875 0.01477501241 0.04354880264
502.5 0.008540765653 0.04283224379
503.125 0.03151413996 0.02790630981
503.75 0.04898526136 0.03250410255
504.375 0.04223326503 -0.01706930867
505.0 0.04444756081 -0.02699582089
505.625 0.05802930412 -0.04690533366
506.25 0.04780103643 -0.04696280096
506.875 0.04842405183 -0.06834630275
507.5 0.03629561205 -0.04980560022
508.125 0.07274322948 -0.02539737862
508.75 0.06238848163 -0.04715391047
509.375 0.02702256775 -0.04805460568
510.0 0.0566786527 -0.03654132848
510.625 -0.01089361709 -0.06420419793
511.25 -0.02752723526 -0.06509715029
511.875 -0.0536700809 0.002969393859
512.5 -0.03346232361 0.01230983045
513.125 -0.01593575278 0.03434819467
513.75 -0.0363834835 0.04210594866
514.375 -0.01469977035 0.05635090651
515.0 0.009078655924 0.0859707554
515.625 -0.05169318544 0.09306857684
516.25 0.02170970857 0.11146422
516.875 -0.04116948314 0.1193568464
517.5 0.04919482081 0.09415609968
518.125 -0.05450870966 0.1185209483
518.75 0.04156801822 0.03712722968
519.375 0.01025513749 0.06811998697
520.0 0.05374193289 0.06057927734
520.625 0.06079332532 0.0542512246
521.25 0.05868118683 0.01815964764
521.875 0.03742014802 0.04703000783
522.5 0.06718069354 0.01356964884
523.125 0.116009123 -0.01507619307
523.75 0.1170494675 -0.03486262884
524.375 0.06462854584 -0.02547428682
525.0 0.00430559364 0.003577612901
525.625 0.007579987432 0.03398468308
526.25 0.01421810341 0.02112566393
526.875 0.01638619073 0.02485432681
527.5 0.02491297413 0.02307675072
528.125 0.05309003276 0.008161540071
528.75 0.0572015166 -0.008185514874
529.375 0.0351320056 -0.03155935466
530.0 0.02580906035 -0.02376518508
530.625 0.001146997974 -0.09196410795
531.25 0.0106352345 -0.1529221821
531.875 -0.04977497482 -0.1279188977
532.5 -0.08535925049 -0.07225467826
533.125 -0.08902535296 -0.06704876532
533.75 -0.06715753366 -0.03602822096
534.375 -0.06574851606 -0.03659553765
535.0 -0.06572188669 -0.01954381229
535.625 -0.03481753449 -0.04047683755
536.25 -0.02507665175 -0.02177311261
536.875 -0.03351855694 -0.05697792738
537.5 -0.04547118302 -0.08460668957
538.125 -0.07764757493 -0.06809119207
538.75 -0.05245161973 -0.01695431854
539.375 -0.02913033021 -0.03764311339
540.0 -0.04837350334 -0.08107676488
540.625 -0.07135463213 -0.1208484962
541.25 -0.04060879718 -0.08127850023
541.875 -0.04230394792 -0.07784857188
542.5 -0.05071052052 -0.0925674615
543.125 -0.1067325075 -0.07230998205
543.75 -0.08400126127 0.02336113843
544.375 -0.05867154011 0.03705546917
545.0 -0.03039211954 0.0583273076
545.625 -0.01796348006 0.06508361254
546.25 0.0103227183 0.07817560675
546.875 0.01999103571 0.06935357415
547.5 0.0177320955 0.08295754756
548.125 0.002441221429 0.08388132655
548.75 -0.005173345801 0.05799877901
549.375 -0.01321966375 0.06185748789
550.0 -0.03645924725 0.03151123655
550.625 -0.02722013984 0.001658742906
551.25 -0.02116994455 -0.03254430854
551.875 -0.04610362661 -0.04655449218
552.5 -0.06481592094 -0.04422737366
553.125 -0.08094435085 -0.01968912405
553.75 -0.0642182904 -0.0273060536
554.375 -0.09359664556 0.002608818511
555.0 -0.09218831857 0.0238832368
555.625 -0.07822413338 0.03158810571
556.25 -0.09010466247 0.02544489596
556.875 -0.09253676584 0.01788224359
557.5 -0.08014310954 0.02697532231
558.125 -0.07637772496 0.02655789642
558.75 -0.07075029804 0.006681640783
559.375 -0.04019085467 0.00151400715
560.0 -0.02469866757 -0.004331032716
560.625 -0.03811452309 -0.03006810077
561.25 -0.05478793439 -0.03403689659
561.875 -0.07432968966 -0.02054022681
562.5 -0.07611577811 0.02309359054
563.125 -0.0697919231 0.06610583831
563.75 -0.05157659388 0.06881910764
564.375 -0.02549831728 0.08065448445
565.0 -0.01683318511 0.07424963843
565.625 -0.01420939219 0.07128244867
566.25 -0.03942570923 0.04017307358
566.875 -0.0540538041 0.02532902849
567.5 -0.05731639525 0.01601770538
568.125 -0.06051657792 0.01000012035
568.75 -0.05695179319 0.008434840176
569.375 -0.01658887649 -0.01543528942
570.0 -0.01604201038 -0.03340211022
570.625 -0.03946362468 -0.04600675755
571.25 -0.04589576986 -0.03488086344
571.875 -0.05220303388 -0.03539871805
572.5 -0.0847097411 -0.0165948884
573.125 -0.1065318738 0.02123571123
573.75 -0.06211036812 0.07311992198
574.375 -0.03312349571 0.06317597844
575.0 -0.04333439345 0.06821624646
575.625 -0.05436029157 0.06753436904
576.25 -0.03929288544 0.06867290231
576.875 -0.009735998077 0.07184674398
577.5 0.0004638490578 0.07688938085
578.125 -0.01666553543 0.05863082609
578.75 -0.009855257057 0.04708034566
579.375 -0.01163887918 0.03954148292
580.0 -0.02060090244 0.02606481631
580.625 -0.03131311826 0.009335872603
581.25 -0.05049326925 0.01649365063
581.875 -0.07565078748 0.01724518763
582.5 -0.07750071094 0.03439436757
583.125 -0.06207844212 0.04631825157
583.75 -0.05713231069 0.04711650381
584.375 -0.0687008381 0.005966133647
585.0 -0.07526194119 0.006855800579
585.625 -0.06042951149 0.02004220713
586.25 -0.05599631758 0.03138431504
586.875 -0.0563414177 -0.004441266061
587.5 -0.05693898316 0.01041440146
588.125 -0.03170491345 0.04173599934
588.75 -0.01154282295 0.05272808478
589.375 -0.04256890197 0.008507892963
590.0 -0.0455647366 0.02088032603
590.625 -0.04402691069 0.0512263022
591.25 -0.0239727248 0.08301007718
591.875 -0.02501502584 0.09289617999
592.5 -0.00214253554 0.07381994136
593.125 0.002913199399 0.06254094717
593.75 0.005215027899 0.06846055456
594.375 -0.03928440547 0.03444180893
595.0 -0.03338761009 0.02064582195
595.625 -0.02863578741 0.006876206675
596.25 -0.03896915276 -0.003331230622
596.875 -0.03671749407 -0.01536273084
597.5 -0.03558145864 -0.01962666788
598.125 -0.02163446201 -0.02266635366
598.75 -0.01868223451 -0.0114951315
599.375 -0.009788323308 -0.05199820224
600.0 -0.02003773937 -0.06613362063
600.625 -0.02926884555 -0.07632099316
601.25 -0.05108970116 -0.05033406372
601.875 -0.04776873066 -0.05991600149
602.5 -0.05531290748 -0.03509025823
603.125 -0.05043764375 -0.0291483912
603.75 -0.03431719545 -0.02701154855
604.375 -0.02535821084 -0.01077166645
605.0 -0.007233478822 -0.0362015517
605.625 0.003491096974 -0.05642060024
606.25 -0.006715932635 -0.04137265558
606.875 -0.02536055735 -0.01037274271
607.5 0.02607483256 -0.01494021135
608.125 0.02640301751 -0.01965880495
608.75 0.01741338166 -0.01806034522
609.375 0.01659797133 -0.007294247108
610.0 0.04641910713 -0.009947890839
610.625 0.06138827451 -0.01915521617
611.25 0.05279078224 -0.02522530365
611.875 0.02869855354 -0.01988844648
612.5 0.05664846941 0.00109698365
613.125 0.02304516722 -0.005539950677
613.75 0.01307542981 0.006341498642
614.375 0.01933856579 0.01534397948
615.0 0.02666561405 0.01585784364
615.625 0.01696077641 0.009728053274
616.25 0.0146812473 0.01625315469
616.875 0.02063371118 0.03393345847
617.5 0.03438854433 0.04860972803
618.125 0.02777367393 0.03150525075
618.75 0.01017891612 0.02531698805
619.375 0.0186847809 0.03482746234
620.0 0.04778791531 0.05453255971
620.625 0.04085200485 0.01361580498
621.25 0.02309673312 0.001433193504
621.875 -0.00926709597 -0.0220021567
622.5 -0.020351816 0.01531292842
623.125 -0.03017193063 0.04327504688
623.75 -0.03510408357 0.04925226657
624.375 -0.03214591467 0.04450186198
625.0 -0.05363342861 0.02427485005
625.625 -0.04521918481 0.0480621995
626.25 -0.02719916014 0.0767660458
626.875 -0.01674755802 0.0626868588
627.5 -0.02765891731 0.02950237457
628.125 -0.02318770234 0.05538020079
628.75 -0.02925556345 0.0328830217
629.375 -0.02329554895 0.02114202724
630.0 -0.0101291571 -0.01142568369
630.625 -0.01898584847 0.002063179504
631.25 0.001603582637 -0.03305860203
631.875 -0.006512665134 -0.04364092033
632.5 -0.009328655708 -0.06915739057
633.125 -0.0400847502 -0.04833578169
633.75 -0.02889324471 -0.05169411844
634.375 -0.02720504342 -0.06039951305
635.0 -0.03832603493 -0.05777694687
635.625 -0.04149057221 -0.05193631322
636.25 -0.03854634134 -0.02574713897
636.875 -0.02627653396 -0.03172626301
637.5 -0.03598300313 -0.05663069797
638.125 -0.02999796267 -0.05954117455
638.75 -0.04550677852 -0.01090443747
639.375 0.002857435739 -0.02085801859
640.0 0.04714250883 -0.02378727513
640.625 0.06614500531 -0.02067893394
641.25 0.04409038984 -0.03723109429
641.875 0.04124363573 -0.02932661104
642.5 0.0545314207 -0.007340356624
643.125 0.0671815625 0.01499784289
643.75 0.05016917041 -0.01865333436
644.375 0.0475585404 -0.02029989872
645.0 0.04226986957 -0.005618892317
645.625 0.05293778708 0.02057761038
646.25 0.04071907894 0.003500689596
646.875 0.07359732377 0.02187619513
647.5 0.06449031346 0.0131046642
648.125 0.05683587617 0.02237509952
648.75 0.05192918574 0.05453310009
649.375 0.05025238047 0.07431693965
650.0 0.04413614917 0.0725133243
650.625 0.03829082433 0.06070194672
651.25 0.009888600921 0.08377619798
651.875 -0.01853611443 0.0655947995
652.5 -0.01559115878 0.05139564604
653.125 -0.02177688828 0.03846877841
653.75 -0.04253462668 0.008807000119
654.375 -0.02385614317 -0.02576327054
655.0 -0.02768896475 -0.04343249549
655.625 -0.05066031627 -0.05887597627
656.25 -0.08355437404 -0.06262650651
656.875 -0.07529642617 -0.03398248258
657.5 -0.06891461677 -0.0376842479
658.125 -0.08723874234 -0.0413363719
658.75 -0.1221285175 -0.03729562563
659.375 -0.0710087274 0.02907039111
660.0 -0.06141155281 0.03749410391
660.625 -0.05679956927 0.03635499318
661.25 -0.06716378877 0.02488291587
661.875 -0.03359705909 0.03324857411
662.5 -0.03379020937 0.02678341673
663.125 -0.06036370994 0.01466203164
663.75 -0.07947719377 -0.02549172771
664.375 -0.03839686166 -0.04487300224
665.0 -0.02542669296 -0.0895204742
665.625 0.008793646079 -0.1122720904
666.25 0.02164867247 -0.08357253981
666.875 0.03745344638 -0.0829597414
667.5 0.05530941213 -0.08698399417
668.125 0.05762235862 -0.06085515546
668.75 0.03586817242 -0.04128336166
669.375 0.04630276062 -0.02674655706
670.0 0.06998431148 -0.03286854167
670.625 0.07135799981 -0.02125529356
671.25 0.0618459762 -0.04338372389
671.875 0.0570211854 -0.03663019343
672.5 0.04637617371 -0.07819071452
673.125 0.02447646865 -0.09602482601
673.75 0.0008288276385 -0.09489573523
674.375 0.02362271067 -0.0842834966
675.0 0.05559883559 -0.05972839145
675.625 0.05741505805 -0.03366421266
676.25 0.05434720726 -0.01481150553
676.875 0.06888410638 0.0100134302
677.5 0.04173986591 0.04066422188
678.125 0.03137233617 0.0466670568
678.75 0.06151504411 0.0696748445
679.375 0.04945812293 0.09203724071
680.0 0.04976128484 0.08113782014
680.625 0.07068098191 0.05404479225
681.25 0.1102207294 0.02920461248
681.875 0.1073516684 0.005415596517
682.5 0.08991991643 -0.02969000337
683.125 0.06546763584 -0.03101795004
683.75 0.06701883635 -0.00549877366
684.375 0.0715654985 0.05080095057
685.0 0.004782698335 0.0450126582
685.625 -0.03677979334 0.03820217318
686.25 -0.06176254808 0.001747235531
686.875 -0.09347514915 -0.01673368855
687.5 -0.07903035095 -0.04905647471
688.125 -0.10206559 -0.05866463657
688.75 -0.09666844236 -0.06663424517
689.375 -0.09525252858 -0.05687259269
690.0 -0.07100144251 -0.04432634323
690.625 -0.09145069596 -0.05108048901
691.25 -0.09127059836 -0.03258804361
691.875 -0.05705177897 0.01807543532
692.5 -0.03483537596 0.02843852271
693.125 -0.03504680755 0.07020478064
693.75 -0.0192326716 0.1086417769
694.375 0.0132568401 0.09929221557
695.0 -0.001700905378 0.1101674279
695.625 -0.0881738443 0.05681289822
696.25 -0.1058452159 -0.05034333501
696.875 -0.04495599397 -0.1122047239
697.5 0.03453203727 -0.09699781321
698.125 0.04928460921 -0.08383946664
698.75 0.0417617996 -0.04447667032
699.375 0.05660575981 -0.02396725666
700.0 0.0829653193 -0.03166202962
700.625 0.05335918615 0.03653593101
701.25 0.05907360468 0.03199596828
701.875 0.09209789364 0.02296467637
702.5 0.1349019816 -0.05454407727
703.125 0.08923550171 -0.08105383902
703.75 -0.02309302791 -0.08799527651
704.375 -0.05248666085 -0.05765574365
705.0 -0.03428125036 -0.08557926199
705.625 0.006363518194 -0.09701046821
706.25 0.04970470269 -0.02135905161
706.875 0.04592150875 0.02798120773
707.5 0.02450520428 0.06554550585
708.125 -0.01379362475 0.09397309869
708.75 -0.07983417398 0.05808826043
709.375 -0.0915380524 0.02440666009
710.0 -0.08422626736 -0.01805126805
710.625 -0.07476920523 -0.04626657503
711.25 -0.05088476629 -0.0874121355
711.875 -0.07040628611 -0.07447906225
712.5 -0.06880831656 -0.01633268164
713.125 -0.03763988665 0.05777783776
713.75 -0.0394374489 0.02997790571
714.375 -0.02992194691 0.06399102503
715.0 -0.01738889146 0.06256336903
715.625 -0.02962088202 0.0654285302
716.25 -0.04001493925 0.07581657919
716.875 -0.1207813289 0.01430263655
717.5 -0.08976673377 -0.03450089297
718.125 -0.07691419293 -0.03274275007
718.75 -0.07601777664 -0.03493264015
719.375 -0.04884068752 -0.07265300579
720.0 0.004560012612 -0.08264436816
720.625 0.05123818606 -0.04814068633
721.25 0.05187096489 0.004844062611
721.875 -0.0302720681 0.03499044262
722.5 -0.06219239795 0.02972062903
723.125 -0.0650341215 0.06118964748
723.75 0.02388304406 0.08001232689
724.375 0.06809136992 0.05150139894
725.0 0.07473196542 -0.01210017629
725.625 0.07220479242 -0.04218460385
726.25 0.06268123935 -0.03814468231
726.875 0.03615533381 -0.04157808633
727.5 0.04742894693 0.009532809903
728.125 0.02651925058 0.06678380833
728.75 0.01323658102 0.0528234093
729.375 0.03314165619 0.0195025288
730.0 0.03856858374 0.0307698342
730.625 0.01841438123 0.04984283531
731.25 -0.01306039912 0.04952529085
731.875 -0.04216603338 0.03317320413
732.5 -0.03633422402 0.01020748398
733.125 -0.06171150956 -0.04940653353
733.75 -0.04059117154 -0.007853386831
734.375 -0.0165179812 -0.00114140091
735.0 -0.04710812552 -0.03272279023
735.625 -0.03816458844 -0.009614107807
736.25 -0.02102866069 -0.009538554665
736.875 -0.04617540296 -0.01981069902
737.5 -0.06591409345 -0.03234799004
738.125 -0.0681621662 -0.02548263772
738.75 -0.05103849302 -0.008503279831
739.375 -0.02213920346 -0.01933848476
740.0 0.01994232016 -0.018177869
740.625 -0.04614769851 -0.05706478131
741.25 -0.03918258293 -0.03415881689
741.875 0.00774383616 -0.02754675299
742.5 0.02152568575 0.00546237525
743.125 0.02593789738 0.05202037846
743.75 -0.0152553351 0.04021840408
744.375 -0.02378409796 0.04236528187
745.0 -0.06572362248 0.003309582317
745.625 -0.01981803872 0.08786769249
746.25 0.008511641634 0.07525094362
746.875 0.03640325805 0.04710255733
747.5 0.03074042935 0.01149122231
748.125 0.01053997895 0.01105395192
748.75 0.03134471005 -0.00336495648
749.375 0.02356624676 -0.0270895518
750.0 -0.01264767825 -0.03061466083
