!Created with skrf (http://scikit-rf.org).
# GHz S RI R 50.0 
!freq ReS11 ImS11
500.0 0.0009135992482 0.01402382919
500.625 0.00306055783 0.003268032014
501.25 0.003478713986 -0.01720537123
501.875 -0.01217343145 -0.02444133284
502.5 0.007454413009 -0.0009033579
503.125 -0.001335512874 0.005591401483
503.75 0.005996397796 -0.003526479533
504.375 0.003319854142 -0.01583306955
505.0 0.006219237231 -0.02876106788
505.625 0.001946847385 -0.01873800111
506.25 -0.01715269135 -0.02712586347
506.875 -0.01155411237 -0.07833976266
507.5 -0.03267219231 -0.04768197546
508.125 -0.01240828413 -0.05888719255
508.75 -0.06136543963 -0.05882803
509.375 -0.06093982899 -0.0438392167
510.0 -0.03576036968 -0.01713372643
510.625 -0.03669938242 0.002703104895
511.25 -0.06656973216 0.0101415954
511.875 -0.0471086423 0.04392710684
512.5 -0.004237087294 0.05187372879
513.125 0.05579162869 0.0205121011
513.75 0.07406941346 0.0185414326
514.375 0.06834572646 0.002701389151
515.0 0.01382968847 -0.02940806884
515.625 0.05992004474 0.004853546123
516.25 0.08377583172 -0.0136854458
516.875 0.07619003336 0.08873453807
517.5 0.107298693 -0.003734729105
518.125 0.1420346666 0.1419678531
518.75 0.1060064235 -0.02452661867
519.375 0.08079364793 -0.006952636067
520.0 0.05862667133 -0.0459626875
520.625 0.07717236886 -0.06318171596
521.25 0.05524187469 -0.07641213143
521.875 0.0621414806 -0.03506250969
522.5 0.0254687257 -0.06587236785
523.125 0.09341416849 -0.1891358033
523.75 0.05110579846 -0.25792457
524.375 0.05119946339 -0.269265768
525.0 -0.009840748046 -0.1018782354
525.625 0.01625427073 -0.08145516841
526.25 0.03044036222 -0.06195396267
526.875 0.01329839185 -0.0732698557
527.5 -0.0179171441 -0.06298185069
528.125 -0.03146819472 -0.04263679635
528.75 -0.04569233419 -0.0431359483
529.375 -0.1213131861 -0.01369755851
530.0 -0.08923423044 0.05140974969
530.625 -0.02457660964 0.05971563181
531.25 -0.03838189526 0.04476455548
531.875 -0.09837994037 0.09507832858
532.5 -0.08610158004 0.1155581774
533.125 -0.04763510818 0.08452218791
533.75 -0.01547032567 0.09171707432
534.375 -0.02360926177 0.1224461463
535.0 -0.009924828783 0.09231554448
535.625 -0.02631037927 0.07194807498
536.25 0.03050937007 0.07044783708
536.875 0.005595719198 0.08213052249
537.5 -0.0595882687 0.05800459718
538.125 -0.04463855108 0.07095174829
538.75 -0.01392181399 0.1172163862
539.375 -0.04870131022 0.1221382714
540.0 -0.02686675821 0.07410992278
540.625 -0.03320943225 0.08238024673
541.25 -0.04620226325 0.1051325094
541.875 -0.05880505501 0.0716811901
542.5 -0.05484477395 0.03221599414
543.125 -0.04819568979 0.06610607054
543.75 0.0100229835 0.1278574104
544.375 0.04314226467 0.1380353809
545.0 0.07921826024 0.03394452422
545.625 0.09373464948 -0.02225807927
546.25 0.1009451279 -0.05732442814
546.875 0.1052076254 -0.05836265218
547.5 0.09565512653 -0.04212044011
548.125 0.1407612227 -0.05046296669
548.75 0.1549992448 0.004840551353
549.375 0.1466935379 0.02296455638
550.0 0.1144278514 0.05335324869
550.625 0.1273520519 0.06939726785
551.25 0.06455649495 0.0837927224
551.875 0.05255760641 0.04865292319
552.5 0.05576523976 0.02971377768
553.125 0.06761700741 0.05052033585
553.75 0.02841591573 0.05483421106
554.375 0.02967797627 0.04145026267
555.0 0.03582736123 0.04771825568
555.625 0.06840381252 0.05894959501
556.25 0.03850175819 0.07096676001
556.875 0.0335675665 0.06301026295
557.5 0.0471943099 0.08480700679
558.125 0.03919356476 0.1133211229
558.75 -3.945482312e-05 0.1052817492
559.375 0.03895469961 0.1037072888
560.0 0.0425272218 0.09605197859
560.625 0.04345747678 0.06517457519
561.25 0.038619806 0.03348493941
561.875 0.05738654912 0.04077348384
562.5 0.04349481523 0.04434926179
563.125 0.04739867032 0.04040077356
563.75 0.06534531469 0.02044549156
564.375 0.1047104604 -0.006473833707
565.0 0.1199250509 0.04014084487
565.625 0.1005453969 0.01868518045
566.25 0.08869301246 0.01592411206
566.875 0.1083399037 0.02718182503
567.5 0.06940673826 0.08177132129
568.125 0.04214156628 0.08406106916
568.75 0.05424640685 0.09773625149
569.375 0.05243715423 0.1018075992
570.0 0.04468946443 0.08875859378
570.625 0.03530849879 0.05677390149
571.25 0.04978746407 0.05276790442
571.875 0.05111918513 0.05623234927
572.5 0.02921417889 0.02732971826
573.125 0.03459212436 0.03516707673
573.75 0.08488674247 0.03447146335
574.375 0.1089009774 0.01294021459
575.0 0.06250569581 0.01069031243
575.625 0.06162557807 -0.01028714095
576.25 0.07706154566 0.0005266302278
576.875 0.09827652038 0.003537928621
577.5 0.0788885922 0.01662243262
578.125 0.09144794563 -0.009251052905
578.75 0.1104292125 -0.008033307048
579.375 0.1090318496 -0.005608722497
580.0 0.08925849755 -0.01457436443
580.625 0.09096620393 -0.04013958005
581.25 0.07874455478 -0.04444807589
581.875 0.04847422507 -0.004601193132
582.5 0.04723277316 0.00309005847
583.125 0.0706250072 0.02924538687
583.75 0.07621405571 0.03652775023
584.375 0.06244043968 0.02899869253
585.0 0.05595425579 0.03282179097
585.625 0.06107256676 0.05823752201
586.25 0.06308926884 0.05778022691
586.875 0.0519507825 0.03673217221
587.5 0.07019146291 0.03082850251
588.125 0.08579583751 0.02754522859
588.75 0.09118799963 0.01844266469
589.375 0.07239642846 -0.03660479907
590.0 0.0470206947 -0.07813289703
590.625 0.04418832793 -0.01835884035
591.25 0.03721266954 0.006011953192
591.875 0.04768535034 0.00702618086
592.5 0.06298470479 -0.03518274339
593.125 0.0920365857 0.003608354569
593.75 0.08116435117 0.002314864433
594.375 0.07606972444 0.005372107259
595.0 0.08980646079 0.0222793093
595.625 0.04969960034 0.07362914342
596.25 0.03506729573 0.0612987633
596.875 0.02610585539 0.06089702833
597.5 0.04197696744 0.0653406967
598.125 0.02284265705 0.0673506225
598.75 0.05381761375 0.04577318617
599.375 0.05185016635 0.03381611941
600.0 0.04396390637 0.0201624464
600.625 0.01084867707 0.01361276602
601.25 -0.009284388602 0.02755031247
601.875 -0.008639054975 0.03477413555
602.5 -0.005351362616 0.03633974024
603.125 -0.04563827359 0.05320653725
603.75 -0.0218160315 0.05735019199
604.375 -0.01144490043 0.05774955946
605.0 -0.01289593915 0.04055404679
605.625 -0.02126595304 0.02308528635
606.25 -0.05014047966 0.02345880164
606.875 -0.05233291941 0.03947368248
607.5 -0.03332660033 0.04686636505
608.125 -0.01634985893 0.04225120119
608.75 -0.02247459716 0.04026466976
609.375 -0.01645901628 0.02033618954
610.0 -0.002257206963 0.01979916299
610.625 -0.0007391561499 0.00444488832
611.25 -0.00419321155 -0.01270622305
611.875 0.00163401117 -0.02023155448
612.5 -0.01048152441 -0.03360897519
613.125 -0.01064475902 -0.01900846786
613.75 -0.03088438377 -0.05088889394
614.375 -0.01477661342 -0.02446556271
615.0 -0.006038731804 -0.03251756473
615.625 0.00665983573 -0.01153263381
616.25 -0.01471862434 -0.04364265195
616.875 -0.006227423316 -0.01088948189
617.5 0.01101464288 -0.009316346319
618.125 0.03178266209 0.002239365967
618.75 0.01734418793 -0.05176576664
619.375 0.02978136423 -0.0167946316
620.0 0.05375950725 -0.006817731751
620.625 0.05817202101 -0.02445827958
621.25 0.04471766794 -0.05725814747
621.875 0.02684353115 -0.07266959742
622.5 -0.02244754853 -0.04589853497
623.125 -0.002722314062 -0.005077978479
623.75 -0.02077493482 -0.02980682716
624.375 0.01315937567 -0.004530604543
625.0 0.0255476865 0.0194061429
625.625 0.01636034462 0.03602275573
626.25 0.03410195974 0.04363989402
626.875 0.05645110083 0.04886996012
627.5 0.05103328145 0.06475656546
628.125 0.04328693547 0.0515715904
628.75 0.04329966867 0.0651717036
629.375 0.05066196471 0.06490075679
630.0 0.05383021983 0.05657491661
630.625 0.02872917274 0.05614636668
631.25 0.04265695589 0.04562181612
631.875 0.007168637437 0.04811657024
632.5 -0.01670519962 0.03987094031
633.125 -0.01946172415 0.03262688504
633.75 -0.03271184848 0.0566972213
634.375 -0.001460313358 0.04161642965
635.0 -0.02582623294 0.04836738014
635.625 -0.02590247484 0.06779487965
636.25 -0.02919286208 0.09025357947
636.875 -0.03263196965 0.06829695209
637.5 -0.02534722371 0.04522284592
638.125 -0.04478758404 0.06563406037
638.75 -0.06699116861 0.08527938388
639.375 -0.07985476541 0.05236442651
640.0 -0.04063791499 0.03502186086
640.625 -0.04886889118 0.01455154555
641.25 -0.0729817943 -0.01282217272
641.875 -0.06255983863 -0.04333997254
642.5 -0.05545217379 -0.0294091789
643.125 -0.06924876161 -0.05484778506
643.75 -0.0531923309 -0.07998369388
644.375 -0.04690363358 -0.0810328562
645.0 -0.07211196082 -0.04695600669
645.625 -0.07964615532 -0.0405971081
646.25 -0.06996336527 -0.05953587958
646.875 -0.04180559833 -0.06780156899
647.5 -0.04433028009 -0.03102383008
648.125 -0.05634102205 -0.05369471082
648.75 -0.03471578202 -0.05526982036
649.375 0.001181249454 -0.06097300643
650.0 0.01395157852 -0.04152541375
650.625 0.05752370631 -0.06935299247
651.25 0.07101688496 -0.04501753486
651.875 0.08764200866 -0.02464719076
652.5 0.1267154313 0.01023839532
653.125 0.1180864699 0.04917483221
653.75 0.101916826 0.04077656302
654.375 0.1079544291 0.05441571796
655.0 0.08006320857 0.05487364728
655.625 0.03786709775 0.05931523802
656.25 0.03624951652 0.04087760604
656.875 0.06914125945 0.04829719549
657.5 0.05350603073 0.07467644489
658.125 0.01072641649 0.07323577557
658.75 0.00696197395 0.07210432326
659.375 0.0658358246 0.08433722207
660.0 0.1116403251 0.09190115254
660.625 0.09014718648 0.05738158833
661.25 0.09963747956 0.02806231973
661.875 0.1197679571 -0.01331300979
662.5 0.1385700272 -0.02168775952
663.125 0.1043772635 -0.01393886807
663.75 0.1026811934 0.02325969832
664.375 0.04885830513 0.09172721048
665.0 -0.00867551734 0.07144757428
665.625 -0.03066948623 0.04954443791
666.25 -0.05631598692 0.06323921857
666.875 -0.1351937212 0.02778853702
667.5 -0.08484409261 -0.02070337064
668.125 -0.09909386128 -0.002618490483
668.75 -0.117779188 0.03876983663
669.375 -0.1452022203 0.01892628229
670.0 -0.08093859436 -0.01183259736
670.625 -0.08728911943 -0.005764566344
671.25 -0.1207786361 0.03097159362
671.875 -0.1129940022 0.04282787254
672.5 -0.07527813327 0.05264057813
673.125 -0.06111851552 0.05377326123
673.75 -0.08126906165 0.06119381639
674.375 -0.1151270682 0.05705928888
675.0 -0.09528669895 0.004904436817
675.625 -0.1262537216 -0.02660695448
676.25 -0.1050236798 -0.07316652687
676.875 -0.09408976349 -0.09220788328
677.5 -0.08589155244 -0.06611832665
678.125 -0.1115177324 -0.08965259426
678.75 -0.05248442166 -0.08779108164
679.375 -0.01658548272 -0.05677862513
680.0 -0.03004144957 -0.06209048713
680.625 -0.04349940796 -0.09784945347
681.25 -0.02217230175 -0.09889579724
681.875 -0.03608109064 -0.08045934878
682.5 -0.1042499622 -0.05810949875
683.125 -0.1339165486 -0.06552279981
683.75 -0.1164340042 -0.1066185974
684.375 -0.04131072117 -0.1192647744
685.0 0.02949215926 -0.1348266098
685.625 0.1150061522 -0.09132490962
686.25 0.1284074713 -0.03416520608
686.875 0.1132624119 -0.006444762377
687.5 0.08981304808 0.0350141612
688.125 0.05434507516 0.06243106873
688.75 0.02593596147 0.07347073141
689.375 0.03857969524 0.09995762144
690.0 0.01569819185 0.1329601828
690.625 0.0124380475 0.1262636698
691.25 0.03981621496 0.1064737453
691.875 0.1452996635 0.06276965021
692.5 0.1842164419 -0.03596024345
693.125 0.07125527018 -0.1218548549
693.75 -0.01950314953 -0.1003907831
694.375 -0.03120838346 -0.1215658035
695.0 0.06216933953 -0.1386638456
695.625 0.1087860629 -0.01683206962
696.25 0.07129865111 0.05925209522
696.875 -0.04525509204 0.08690898615
697.5 -0.1093503844 0.060348795
698.125 -0.125673056 0.01684077789
698.75 -0.1366176374 0.0417762068
699.375 -0.1292750462 0.02113894062
700.0 -0.1127289075 -0.0006865246999
700.625 -0.1065226986 -0.02365529008
701.25 -0.1347783666 -0.03797650548
701.875 -0.07381530394 -0.04944290448
702.5 -0.05992713686 -0.02865122858
703.125 -0.08051366377 0.006428107888
703.75 -0.07521091214 0.1416269409
704.375 -0.07073320539 0.1380880855
705.0 -0.01570983499 0.1182945967
705.625 -0.03598109443 0.1076884103
706.25 -0.1335264058 0.07416410992
706.875 -0.1494819016 -0.08260473446
707.5 -0.040360186 -0.09434929667
708.125 -0.00745558353 -0.08670993234
708.75 0.04709101134 -0.08417531239
709.375 0.1006633006 -0.0144595589
710.0 0.04232877049 0.06578115415
710.625 0.04775641452 0.06363891377
711.25 0.02158648964 0.07544477189
711.875 0.006941377661 0.08990236212
712.5 0.04817986095 0.1172648275
713.125 0.1443316537 0.0613729187
713.75 0.1208803662 -0.07447076808
714.375 0.0218731681 -0.1300251013
715.0 0.02028177731 -0.1343818507
715.625 0.01717959295 -0.1413152468
716.25 0.05369384894 -0.08155370872
716.875 0.06119358582 -0.02430495301
717.5 0.07624583721 0.005410531252
718.125 0.04083432324 0.1133058713
718.75 0.01207976991 0.08977166229
719.375 -0.004459441021 0.06775845842
720.0 -0.02570734272 0.06507881092
720.625 -0.112038372 -0.02420430893
721.25 -0.03066947991 -0.1167016678
721.875 0.02699931916 -0.1068182431
722.5 0.02994741353 -0.111432805
723.125 0.01124140099 -0.09923683605
723.75 -0.009298186765 -0.07680405458
724.375 -0.04291774688 -0.04898953388
725.0 -0.05059249351 0.02016404627
725.625 -0.05877912713 -0.01471083714
726.25 -0.05299639932 0.00115536721
726.875 -0.06564091716 -0.01396031181
727.5 -0.0776798405 -0.0457052474
728.125 -0.06100293798 -0.04954196255
728.75 -0.03644089919 -0.0831495342
729.375 -0.04233395741 -0.07719939333
730.0 -0.02919289933 -0.06628258824
730.625 -0.0343530147 -0.02845581979
731.25 0.01293716226 -0.06230936971
731.875 0.02670456613 -0.02921722276
732.5 0.01673910737 -0.002420214927
733.125 0.01228984773 0.0338203708
733.75 0.02959625547 0.07128948909
734.375 0.05890869461 0.07376464619
735.0 0.05518164864 0.01691916828
735.625 0.01992078214 -0.009179706505
736.25 0.09615456167 -0.01499013416
736.875 0.03593547555 -0.02503945569
737.5 0.005840321412 0.004973692958
738.125 -0.03441660568 0.01795848035
738.75 -0.01270757927 0.081321802
739.375 -0.009669824188 0.06243808582
740.0 0.0004504912869 0.03106071254
740.625 -0.004570186912 0.03443792685
741.25 -0.02475958514 0.0264961149
741.875 -0.03061109132 0.06237291851
742.5 -0.04734045885 -0.01025690225
743.125 0.01181557368 -0.03686354122
743.75 0.04097892336 -0.01142121809
744.375 0.03697645326 -0.03455764277
745.0 0.01765167501 -0.02900194701
745.625 0.01729281878 -0.01983721339
746.25 0.04921837681 0.006322781642
746.875 5.663589017e-05 -0.04137135138
747.5 -0.0008386022076 -0.05249826017
748.125 -0.02983146433 -0.05769121417
748.75 -0.03877420388 -0.03805236224
749.375 -0.06480790367 -0.008694304706
750.0 -0.02679388927 0.06472957547
