!Created with skrf (http://scikit-rf.org).
# GHz S RI R 50.0 
!freq ReS11 ImS11
500.0 -0.02615050537 0.0250173944
500.625 0.03448927011 0.02278170927
501.25 0.03972193802 0.01474434457
501.875 0.02240244319 0.03167590966
502.5 -0.002123678925 0.06649489477
503.125 0.02981901931 0.03820594964
503.75 0.04615521701 0.01525783614
504.375 0.05295287524 0.01537510734
505.0 0.05139280061 -0.02465660909
505.625 0.06114620567 -0.03939317237
506.25 0.04357193816 -0.04531152752
506.875 0.06802054558 -0.02816807217
507.5 0.03454735032 -0.06341218765
508.125 0.07121091855 -0.02623365629
508.75 0.04625467572 -0.05534735391
509.375 0.05950908228 -0.04140938134
510.0 0.04738377288 -0.05032465412
510.625 -0.004151881809 -0.06547222696
511.25 -0.03666674208 -0.05370466299
511.875 -0.04269041898 -0.02291191093
512.5 -0.03407679114 0.008761385016
513.125 -0.02460428768 0.02745669938
513.75 -0.02410574377 0.04035400918
514.375 -0.03097593265 0.06735413928
515.0 0.005120699529 0.07912162163
515.625 -0.05351831859 0.08501635389
516.25 0.01878097022 0.1031692538
516.875 -0.07329367235 0.1203852731
517.5 0.06194708054 0.09041158396
518.125 -0.04794510505 0.1103306601
518.75 0.01119968808 0.05294092646
519.375 0.002754742487 0.07040803547
520.0 0.04339141338 0.06445834489
520.625 0.04929699486 0.05098085861
521.25 0.05220314009 0.03048619173
521.875 0.02647332563 0.06141865203
522.5 0.065096598 0.006735884484
523.125 0.1057876966 -0.01877039553
523.75 0.09442533903 -0.04652425279
524.375 0.04644846889 0.02191200926
525.0 -0.0006758130738 0.002267804808
525.625 0.002741015765 0.02317101337
526.25 -0.0006281213405 0.05698903105
526.875 0.01511323257 0.02465311902
527.5 0.02142298441 0.02827154727
528.125 0.0466786414 0.01472613597
528.75 0.05874375622 0.001994365173
529.375 0.03933510415 -0.02651148856
530.0 0.0274205364 -0.02041969113
530.625 0.01408703041 -0.07511284595
531.25 0.03611511953 -0.1850157379
531.875 -0.04479814358 -0.1245561943
532.5 -0.07674338211 -0.08324563403
533.125 -0.07171966729 -0.06973442454
533.75 -0.06366287297 -0.0735971149
534.375 -0.06247804534 -0.04036033885
535.0 -0.0563969275 -0.02471798573
535.625 -0.02427678616 -0.0440981444
536.25 -0.03172390492 -0.04861675458
536.875 -0.0277764331 -0.04998341007
537.5 -0.03747020157 -0.08518512022
538.125 -0.05914136163 -0.05761714207
538.75 -0.05602363121 -0.04469021488
539.375 -0.02418473336 -0.03445045395
540.0 -0.03940120461 -0.09226380204
540.625 -0.04744613701 -0.1025788663
541.25 -0.0361428015 -0.1020236518
541.875 -0.03217498828 -0.06720995371
542.5 -0.04022469434 -0.09249431774
543.125 -0.08677715054 -0.06402833095
543.75 -0.1033365857 0.005622019004
544.375 -0.05706837543 0.03228029997
545.0 -0.0333358704 0.04714484066
545.625 -0.02312657518 0.05756428082
546.25 0.0005384191377 0.07260392149
546.875 0.01130433174 0.08040999724
547.5 0.002022944185 0.08080322118
548.125 0.002061900558 0.06373386211
548.75 -0.02221015081 0.07688906565
549.375 -0.01895418982 0.05338912715
550.0 -0.03691922645 0.0162076669
550.625 -0.02370798591 -0.008144674834
551.25 -0.01674734235 -0.04203490944
551.875 -0.04617796714 -0.05644607531
552.5 -0.06462277484 -0.05654476955
553.125 -0.06976053386 -0.02925990662
553.75 -0.08493691502 -0.03035698453
554.375 -0.09847525925 -0.002438828612
555.0 -0.09346767335 0.01253568601
555.625 -0.07651620132 0.02142728167
556.25 -0.0839600442 0.01188152519
556.875 -0.1018562111 0.01265417075
557.5 -0.07164264226 0.01947164346
558.125 -0.07081848526 0.01900839982
558.75 -0.06466571973 -0.00240180288
559.375 -0.03577435743 -0.002709740412
560.0 -0.02273657309 -0.009737529609
560.625 -0.03108167833 -0.03984415168
561.25 -0.05669858504 -0.04596920768
561.875 -0.07963075642 -0.02517915911
562.5 -0.0710679487 0.01043118892
563.125 -0.07670447744 0.05446778406
563.75 -0.0649332045 0.08210888702
564.375 -0.02917893528 0.07496545584
565.0 -0.02294839005 0.07112880365
565.625 -0.02237407985 0.06269347034
566.25 -0.04776513991 0.03538808211
566.875 -0.0611050078 0.0248767962
567.5 -0.04735975911 0.002772091037
568.125 -0.05305298633 -0.0001480602814
568.75 -0.03910155407 -0.001361437482
569.375 -0.03352891335 -0.01866528861
570.0 -0.004213209493 -0.03807558079
570.625 -0.02580073254 -0.05542559878
571.25 -0.03935388177 -0.04022252427
571.875 -0.06267487539 -0.03288116778
572.5 -0.07600957095 -0.0333306731
573.125 -0.1042965106 0.006528468511
573.75 -0.0610915131 0.05516048998
574.375 -0.03511854526 0.07246884635
575.0 -0.05364402421 0.05217874572
575.625 -0.05911898984 0.053985283
576.25 -0.03817403318 0.06554094956
576.875 -0.01051824276 0.06847449522
577.5 -0.01342685283 0.06552713826
578.125 -0.02194435862 0.04615985388
578.75 -0.01564754377 0.03685855529
579.375 -0.01314536519 0.04443432977
580.0 -0.02418723118 0.008503952202
580.625 -0.0353943637 -0.00175268033
581.25 -0.05777552937 0.0009286410546
581.875 -0.0725344284 0.03510146106
582.5 -0.07649822402 0.01994079708
583.125 -0.0671306251 0.0424980865
583.75 -0.06097289278 0.02818649776
584.375 -0.07265946862 0.02095700239
585.0 -0.07609840971 0.007555886113
585.625 -0.06158917581 0.01873979774
586.25 -0.05214243403 0.00515817534
586.875 -0.06259253816 0.01164505857
587.5 -0.05092212103 -0.0006651272089
588.125 -0.03043527285 0.04053597038
588.75 -0.02752022403 0.03481930107
589.375 -0.03289864413 0.02822806397
590.0 -0.04573814124 0.01995362919
590.625 -0.05005969028 0.0503058177
591.25 -0.03603363837 0.08256853698
591.875 -0.03350495254 0.08691113878
592.5 0.003358447906 0.07610760937
593.125 -0.00414172834 0.06056841459
593.75 -0.01129850206 0.05930280814
594.375 -0.02830173539 0.04877119805
595.0 -0.03079399088 0.01327648982
595.625 -0.02819811178 -0.001126247584
596.25 -0.03675646037 -0.01529083649
596.875 -0.03262007407 -0.0206947341
597.5 -0.03562228564 -0.007651802833
598.125 -0.01752405005 -0.0214542811
598.75 -0.01109424923 -0.03218297761
599.375 -0.01198313376 -0.02896656882
600.0 -0.00896220405 -0.07755130533
600.625 -0.02040858821 -0.07640259992
601.25 -0.03923024369 -0.06305736266
601.875 -0.05153345998 -0.04124226208
602.5 -0.05244079065 -0.02010516829
603.125 -0.04520726097 -0.03818473402
603.75 -0.02361198028 -0.031864023
604.375 -0.01158041745 -0.02256969288
605.0 -0.01505972761 -0.01997557832
605.625 0.01899663976 -0.05338858142
606.25 -0.003856600972 -0.03723581133
606.875 -0.001105654389 -0.01586043832
607.5 0.002588282391 0.0004770864804
608.125 0.04339805161 -0.01810567405
608.75 0.02842222381 -0.02294543773
609.375 0.0334642371 -0.01462158655
610.0 0.02370936594 0.0003946925089
610.625 0.06981290492 -0.009425523016
611.25 0.05489925737 -0.02070493164
611.875 0.05396076787 -0.01364123478
612.5 0.02310813786 -0.01583069195
613.125 0.006888194029 -0.006998998201
613.75 0.01280989777 0.01003333586
614.375 0.02713603135 0.0246589829
615.0 0.02362237205 0.01950712283
615.625 0.0002656936681 0.004773361902
616.25 0.02217223645 0.02908986237
616.875 0.0241976888 0.04241373352
617.5 0.02500185802 0.03577667685
618.125 0.008922708904 0.02590316678
618.75 0.01679891364 0.03669882729
619.375 0.02409857413 0.04125870057
620.0 0.02239467804 0.02733837683
620.625 0.03347160966 0.01654510463
621.25 0.01264483229 -0.005618530917
621.875 -0.0083896654 -0.02217115274
622.5 -0.03166801556 0.007813314169
623.125 -0.05736186509 0.04215004495
623.75 -0.02425937865 0.05723219511
624.375 -0.0267550054 0.04722559315
625.0 -0.04701543772 0.03263703903
625.625 -0.06911718209 0.02272251998
626.25 -0.03573662049 0.08599084192
626.875 -0.02084644167 0.05940288653
627.5 -0.0189580471 0.04639510842
628.125 -0.02885905914 0.007417818235
628.75 -0.03511480593 0.026282965
629.375 -0.01824113999 0.009908241896
630.0 -0.004231176327 -0.006824744337
630.625 0.008681245239 -0.0365226986
631.25 -0.006787526587 -0.02942699144
631.875 -0.004696696624 -0.04643986231
632.5 -0.01560152365 -0.0521766932
633.125 -0.001782525982 -0.07118406509
633.75 -0.01897139068 -0.0673341477
634.375 -0.02049911881 -0.05930264156
635.0 -0.03644288744 -0.05153765361
635.625 -0.04045097854 -0.03791345311
636.25 -0.02547608732 -0.04545190354
636.875 -0.03336296829 -0.03035990096
637.5 -0.01820617975 -0.06532032647
638.125 -0.03330842732 -0.04857934626
638.75 -0.01536545726 -0.03172432963
639.375 0.01464245042 -0.02648438459
640.0 0.0521809333 -0.01491390613
640.625 0.05995646683 -0.01583409405
641.25 0.04867866612 -0.02422945433
641.875 0.04751026083 -0.02517722669
642.5 0.05492008726 -0.003698714878
643.125 0.05183376671 0.006153236711
643.75 0.06590334447 0.01663656787
644.375 0.04831455065 -0.01791857195
645.0 0.04086392361 0.006497080959
645.625 0.04204693119 0.02366059409
646.25 0.05565105926 0.03442160286
646.875 0.07797780281 0.04524413766
647.5 0.05598398338 0.01857990569
648.125 0.05029286019 0.03027836312
648.75 0.04298544195 0.06007283729
649.375 0.04251229238 0.09394635834
650.0 0.03776362513 0.06301896106
650.625 0.032266659 0.05730762797
651.25 0.005979097249 0.07287833705
651.875 -0.03950527455 0.06483862552
652.5 -0.01002780499 0.04829866202
653.125 -0.02268863323 0.03337083531
653.75 -0.03404502148 -0.003557238216
654.375 -0.02383457975 -0.03488439179
655.0 -0.02206945267 -0.05247846726
655.625 -0.03971009147 -0.06423653034
656.25 -0.0630617373 -0.0657690585
656.875 -0.08216704481 -0.04719096619
657.5 -0.06052986538 -0.03461923732
658.125 -0.08759804946 -0.05736788159
658.75 -0.09692872065 -0.03683994604
659.375 -0.08929816305 0.009406840981
660.0 -0.06888330891 0.02803287552
660.625 -0.05884476237 0.02284018498
661.25 -0.05633161917 0.01103584692
661.875 -0.03952350808 0.02285252807
662.5 -0.03724195172 0.01850766702
663.125 -0.05900468302 0.006965182927
663.75 -0.05916130703 -0.02877395732
664.375 -0.05434589202 -0.06993119829
665.0 -0.0119487652 -0.07492291519
665.625 0.0254961328 -0.1022178197
666.25 0.03594376616 -0.08303698444
666.875 0.0492261632 -0.08136351768
667.5 0.05840475626 -0.0672599596
668.125 0.05417098267 -0.04357232869
668.75 0.03942867989 -0.03420005675
669.375 0.05788914602 -0.02961162219
670.0 0.06026942183 -0.01366305096
670.625 0.06129525658 -0.008801119556
671.25 0.05403420705 -0.0248577252
671.875 0.07601481035 -0.0438539802
672.5 0.0558215307 -0.06733718361
673.125 0.03239666704 -0.08560520707
673.75 0.01262580062 -0.09505682923
674.375 0.03779988446 -0.08908302168
675.0 0.05598370606 -0.04326552559
675.625 0.05407687627 -0.02240969219
676.25 0.06670733862 -0.003184019378
676.875 0.07348125397 0.0279410428
677.5 0.02380319216 0.04191595861
678.125 0.01964395594 0.05271610569
678.75 0.03892673917 0.07590912441
679.375 0.06117256871 0.1167726925
680.0 0.03793154119 0.07381050772
680.625 0.06875407214 0.06387791213
681.25 0.1010117554 0.04412627498
681.875 0.1159105003 0.02449786589
682.5 0.09300250529 -0.02286433921
683.125 0.04901098318 -0.01872622927
683.75 0.05439664819 0.007368084599
684.375 0.03758279212 0.05216452111
685.0 0.003157108384 0.06420254853
685.625 -0.03664967748 0.01707078719
686.25 -0.07100067736 -0.002607565404
686.875 -0.07525245349 -0.0390301391
687.5 -0.0992533091 -0.04493556189
688.125 -0.08196359084 -0.06896151957
688.75 -0.08910764534 -0.08198229209
689.375 -0.07391188774 -0.05692490655
690.0 -0.07507992699 -0.05622106713
690.625 -0.08890449572 -0.06004406923
691.25 -0.07149065291 -0.04680340904
691.875 -0.04901772151 0.006335658873
692.5 -0.04375692415 0.01751339269
693.125 -0.03956674884 0.08411573429
693.75 -0.04143713173 0.0892815063
694.375 0.0007903024157 0.09624646094
695.0 -0.02704213636 0.09554046948
695.625 -0.1012949544 0.0587873967
696.25 -0.1019995817 -0.05776554239
696.875 -0.01964613573 -0.105749008
697.5 0.04440904349 -0.07747915224
698.125 0.05476253146 -0.05673577609
698.75 0.04409478405 -0.04450280642
699.375 0.06393900909 -0.01871503445
700.0 0.07338489285 0.003229599921
700.625 0.0710956235 0.03319099472
701.25 0.05761109532 0.03742735581
701.875 0.09281890589 0.03557384391
702.5 0.1385193877 -0.01729867904
703.125 0.09079819707 -0.06853391816
703.75 -0.02487919331 -0.09384756323
704.375 -0.02703477446 -0.05743115852
705.0 -0.003762008898 -0.08237522801
705.625 0.03075880797 -0.06433418596
706.25 0.04990661158 -0.04293165193
706.875 0.03437892991 0.04440770233
707.5 0.01229595926 0.07776524919
708.125 -0.03801476599 0.08756274353
708.75 -0.07217435661 0.07459006663
709.375 -0.09154829582 0.01185967129
710.0 -0.07799313636 -0.03043143416
710.625 -0.06556231861 -0.06164300042
711.25 -0.06835270031 -0.08348687153
711.875 -0.0416306439 -0.07216300559
712.5 -0.06567946741 -0.01682149621
713.125 -0.03777427911 0.0266682014
713.75 -0.03847997261 0.04229794064
714.375 -0.02878677692 0.06613435258
715.0 -0.03646256529 0.05251774966
715.625 -0.05257819952 0.06288828263
716.25 -0.08497648866 0.05898051964
716.875 -0.1069932968 0.04354355891
717.5 -0.08075896522 -0.03993385297
718.125 -0.0697919535 -0.04371648371
718.75 -0.06212820189 -0.05463835807
719.375 -0.03212962114 -0.08001468699
720.0 -0.01234991304 -0.07850404994
720.625 0.05829617569 -0.0217446357
721.25 0.04196457736 0.01867264749
721.875 0.002619719098 0.02990896639
722.5 -0.07165953121 0.01078428546
723.125 -0.06413078406 0.05338177551
723.75 -0.001896977715 0.09269691095
724.375 0.06253731651 0.05692630895
725.0 0.06279241153 -0.01795540179
725.625 0.08580293944 -0.01289149475
726.25 0.06705888474 -0.02592851009
726.875 0.04639503627 -0.0106179162
727.5 0.02768932578 -0.0204573561
728.125 0.003437486416 0.07463417118
728.75 0.006600785632 0.05599712906
729.375 0.02845646969 0.0394956659
730.0 0.0316102318 0.03602939458
730.625 0.01143672874 0.01542830414
731.25 -0.03271830908 0.0526425793
731.875 -0.05889545751 0.02777253322
732.5 -0.06012347517 -0.01372214064
733.125 -0.03857599549 -0.002634460627
733.75 -0.04001392321 -0.04045091905
734.375 -0.02696441943 -0.01269014546
735.0 -0.03201669656 -0.02294318697
735.625 -0.01915635596 -0.01408869834
736.25 -0.03582308953 -0.01445319077
736.875 -0.05622700327 -0.02415142282
737.5 -0.06383647647 -0.03324619781
738.125 -0.03491936947 -0.01444543153
738.75 -0.06040402419 -0.03609544816
739.375 -0.02120046452 -0.03931969709
740.0 -0.0006432381579 -0.04800409829
740.625 -0.0003021764036 -0.0282687554
741.25 -0.03019138343 -0.04657590886
741.875 0.0156400813 -0.02117716745
742.5 0.02572249463 0.006241990173
743.125 -0.01136908459 0.02538989734
743.75 -0.03430464258 0.04229960542
744.375 -0.03607337238 0.01804286846
745.0 -0.05042710264 0.02927459616
745.625 -0.06474215014 0.03646350087
746.25 -0.009881841934 0.07707415044
746.875 0.03670550789 0.0488538922
747.5 0.03081280181 0.007877249363
748.125 0.01472313921 0.005517231365
748.75 0.009969058917 0.0306490192
749.375 0.032343431 -0.02070611796
750.0 0.005147931076 -0.02648085739
