!Created with skrf (http://scikit-rf.org).
# GHz S RI R 50.0 
!freq ReS11 ImS11
500.0 -0.02505632387 0.02733990306
500.625 0.02907780349 0.02594647318
501.25 0.03322808126 0.01230594726
501.875 0.02293398265 0.02504069894
502.5 0.002367613183 0.05971765381
503.125 0.0306331891 0.03428806945
503.75 0.04142284972 0.01566166563
504.375 0.04444801468 -0.001748607159
505.0 0.05537573235 -0.01761204931
505.625 0.05396706573 -0.05095918522
506.25 0.02902829917 -0.06017452427
506.875 0.06122713352 -0.03973032462
507.5 0.04283945404 -0.05146054026
508.125 0.07266266667 -0.02261723998
508.75 0.04504491544 -0.05737085448
509.375 0.04169012521 -0.04581892801
510.0 0.04743797875 -0.05010075391
510.625 -0.007170828151 -0.06591050365
511.25 -0.03007060723 -0.05815463155
511.875 -0.04889195565 -0.013891496
512.5 -0.03660790497 0.001311169817
513.125 -0.01852671922 0.03308379616
513.75 -0.02249438549 0.04326040482
514.375 -0.02362375165 0.07045535093
515.0 0.03700717343 0.05909460937
515.625 -0.02256420069 0.08468573404
516.25 0.03795403436 0.09738921951
516.875 -0.0634021342 0.1284439758
517.5 0.05434142171 0.09982251229
518.125 -0.03270749697 0.1208316729
518.75 0.01986224642 0.0534907719
519.375 -0.0003034204231 0.0818951892
520.0 0.05392771362 0.06432381778
520.625 0.06160553756 0.03261549759
521.25 0.06049824089 0.02643303105
521.875 0.03580087403 0.06024912062
522.5 0.06865290477 -0.009223153376
523.125 0.1161491061 -0.03430000916
523.75 0.1139426468 -0.064527814
524.375 0.0683885769 0.0003865778725
525.0 0.01022582734 -0.01683111629
525.625 0.001022775728 0.02163880827
526.25 0.01039293591 0.04115432357
526.875 0.0173647705 0.04084074053
527.5 0.02113474345 0.0162477659
528.125 0.0353066232 0.004296374188
528.75 0.05394080614 -0.01220461611
529.375 0.05030948285 -0.03872221166
530.0 0.02494815683 -0.02758440148
530.625 0.002318129453 -0.08125482182
531.25 0.01512372867 -0.1715049022
531.875 -0.05217470058 -0.1544997125
532.5 -0.0869719446 -0.07646568458
533.125 -0.07047311611 -0.04632989231
533.75 -0.07741117481 -0.0649890378
534.375 -0.0744157039 -0.04639943111
535.0 -0.05391937854 -0.001967291349
535.625 -0.02870619242 -0.02310638943
536.25 -0.03429900254 -0.03444621137
536.875 -0.04048070537 -0.05601565134
537.5 -0.04882955942 -0.0865779245
538.125 -0.07466253212 -0.056612053
538.75 -0.06009012822 -0.03125330949
539.375 -0.04136855579 -0.04973425225
540.0 -0.04675633041 -0.07253355925
540.625 -0.06943934633 -0.1113507614
541.25 -0.0459724657 -0.09210742644
541.875 -0.04549474654 -0.07254822008
542.5 -0.05413704666 -0.08860744862
543.125 -0.0996653407 -0.06327025626
543.75 -0.09741469058 0.02022011526
544.375 -0.06802529794 0.04128336211
545.0 -0.01187150861 0.04828463382
545.625 -0.00811323635 0.05317697111
546.25 0.01686303598 0.06478450596
546.875 0.02586281935 0.07924970962
547.5 0.02191750953 0.07253499368
548.125 0.003762354386 0.07768550744
548.75 -0.009088595772 0.07458317315
549.375 -0.02101694944 0.07999501024
550.0 -0.02071456077 0.02882159677
550.625 -0.01080624543 -0.001027328533
551.25 -0.01256887039 -0.02661660423
551.875 -0.05800998978 -0.04043001835
552.5 -0.06836383801 -0.04445098107
553.125 -0.07124578313 -0.02391024394
553.75 -0.0782098673 -0.02567038982
554.375 -0.1004652999 0.01219205295
555.0 -0.08441274812 0.02130243847
555.625 -0.06883743459 0.02730391949
556.25 -0.07864386517 0.02397636202
556.875 -0.1005689003 0.02476057511
557.5 -0.08493897062 0.03419966862
558.125 -0.07836104236 0.03097190085
558.75 -0.06277590497 0.01037926723
559.375 -0.04927260432 0.003381299751
560.0 -0.02208878518 -0.00307531169
560.625 -0.02344920294 -0.03000348965
561.25 -0.05812497021 -0.0335375943
561.875 -0.08271175506 -0.01480720066
562.5 -0.06429233926 0.01274137813
563.125 -0.0649572078 0.05091842771
563.75 -0.05399324835 0.09252246752
564.375 -0.02360596342 0.09104931428
565.0 -0.01761797927 0.07662822496
565.625 -0.01246390922 0.05675844096
566.25 -0.04095794058 0.04926020707
566.875 -0.05857949605 0.03594097741
567.5 -0.05353472047 0.0183598205
568.125 -0.05939421664 0.01411122219
568.75 -0.04990992109 0.006773103657
569.375 -0.03013376385 -0.01239091588
570.0 -0.02414315827 -0.02902468324
570.625 -0.03629587884 -0.04465287818
571.25 -0.03866382901 -0.03358514196
571.875 -0.05862935523 -0.02684517302
572.5 -0.08022974695 -0.01565908506
573.125 -0.1076771779 0.02429991865
573.75 -0.06172150487 0.06706732368
574.375 -0.02556129325 0.07546689139
575.0 -0.04541879559 0.0473665173
575.625 -0.05180733906 0.06181810123
576.25 -0.02886808779 0.07159073061
576.875 -0.004806256474 0.07916621147
577.5 -0.01047004885 0.05836105336
578.125 -0.01728355705 0.0447638153
578.75 -0.01062717285 0.03838455791
579.375 -0.004930255063 0.04931744305
580.0 -0.0165672207 0.02863142555
580.625 -0.02982244744 0.01147575746
581.25 -0.05200550744 0.01042917219
581.875 -0.06947410899 0.03145457384
582.5 -0.07524167849 0.04767719238
583.125 -0.06140317514 0.0461152778
583.75 -0.06115605463 0.03113989712
584.375 -0.06778833331 0.02663843837
585.0 -0.07963544615 0.02153964535
585.625 -0.06134167471 0.02579353629
586.25 -0.05547459073 0.02464764174
586.875 -0.06031404237 0.01096440317
587.5 -0.05719807288 0.01882542612
588.125 -0.03077148628 0.04525630496
588.75 -0.0229102878 0.04236763497
589.375 -0.03001999416 0.03020844504
590.0 -0.03520793942 0.02896317466
590.625 -0.05030100966 0.04902571475
591.25 -0.04324750704 0.07969479126
591.875 -0.02837256686 0.08727613821
592.5 0.01105964407 0.07953298307
593.125 -0.006643853361 0.05732056321
593.75 -0.01657410111 0.06433564567
594.375 -0.02524799777 0.05348845105
595.0 -0.02880936986 0.03766643745
595.625 -0.03090377253 -0.006837890861
596.25 -0.03657498204 -0.02390000787
596.875 -0.03148691824 -0.02091864114
597.5 -0.03854015233 -0.0006341374094
598.125 -0.02012058909 -0.01805153487
598.75 -0.01416904901 -0.02056917325
599.375 -0.01374438829 -0.03668442511
600.0 -0.02182011832 -0.04842138455
600.625 -0.02867280034 -0.0685606061
601.25 -0.04396431017 -0.0713788963
601.875 -0.05511332169 -0.04171353155
602.5 -0.0571025673 -0.01672784347
603.125 -0.0432051112 -0.05070564119
603.75 -0.02935412971 -0.03207141284
604.375 -0.01756837256 -0.01807079206
605.0 -0.01527295684 -0.02722455377
605.625 -0.01089841434 -0.0431614895
606.25 -0.01267720986 -0.03972326368
606.875 -0.0183024513 -0.01629960597
607.5 0.00271208644 -0.006633184271
608.125 0.02162284051 -0.0182209767
608.75 0.03152013773 -0.02709683583
609.375 0.03169407129 -0.01484343431
610.0 0.02903053869 -0.005229250981
610.625 0.04762362822 -0.01658813584
611.25 0.04689370361 -0.02237145399
611.875 0.03954507075 -0.0205809387
612.5 0.03725108136 -0.01596545617
613.125 0.006259124057 -0.0131444403
613.75 0.02743773019 0.01206943359
614.375 0.03765994486 0.02349245009
615.0 0.03462619074 0.02180078262
615.625 0.001369471877 0.004150335972
616.25 0.02982831012 0.02665503159
616.875 0.03027127787 0.03484956155
617.5 0.02761767502 0.03326367291
618.125 0.009922069653 0.02438839235
618.75 0.04090898452 0.04520564925
619.375 0.03326150119 0.04924886493
620.0 0.02780172496 0.03271175209
620.625 0.02684626174 0.003229862813
621.25 0.02521904995 -0.003936192317
621.875 0.008952597398 -0.001763087389
622.5 -0.02936105323 0.009089863148
623.125 -0.04834770087 0.04324278561
623.75 0.003588260632 0.06795163354
624.375 -0.01975611849 0.05725934419
625.0 -0.04406682731 0.0393559379
625.625 -0.05774239034 0.03367963051
626.25 -0.03688258866 0.06480894264
626.875 -0.01832149574 0.06072443907
627.5 -0.02065949037 0.03804134418
628.125 -0.02334371785 0.02922629882
628.75 -0.0283750233 0.00921839303
629.375 -0.02105863829 0.01808625237
630.0 -0.01157234258 0.0178914216
630.625 -0.005046866068 -0.01349880392
631.25 -0.01771264885 -0.02203792119
631.875 -0.003559218077 -0.04663380603
632.5 -0.01169897651 -0.05896487696
633.125 -0.01697162002 -0.06000427296
633.75 -0.02132459455 -0.06700691739
634.375 -0.04195702037 -0.04591623452
635.0 -0.05337439886 -0.04145599438
635.625 -0.05443690022 -0.03773838139
636.25 -0.03361032575 -0.03647006061
636.875 -0.02223608206 -0.04260868209
637.5 -0.02913268624 -0.05811725614
638.125 -0.0406429796 -0.04272535696
638.75 -0.03241446489 -0.02051366857
639.375 0.01026107409 -0.02926723362
640.0 0.03415349647 -0.02675123329
640.625 0.04279163101 -0.02560504541
641.25 0.04275790223 -0.03713134137
641.875 0.05585485467 -0.02563567762
642.5 0.0602285327 -0.007935732936
643.125 0.06392315852 0.005870345799
643.75 0.05877389232 -0.002966021434
644.375 0.06259111906 -0.007902818026
645.0 0.04634817308 -0.006076354812
645.625 0.03274551781 0.005517743544
646.25 0.05627246159 0.02146230216
646.875 0.08574877651 0.0282076817
647.5 0.05344785939 -0.005260822336
648.125 0.04233124917 0.0067609868
648.75 0.049648403 0.03917286935
649.375 0.05785567843 0.0850559189
650.0 0.05238400534 0.04801490662
650.625 0.04096302648 0.05842772118
651.25 0.02216905699 0.07244270311
651.875 -0.02745671946 0.07393737855
652.5 -0.02243953509 0.05537107822
653.125 -0.02435553852 0.04278829901
653.75 -0.02728389658 0.02022577101
654.375 -0.03434931933 -0.03062596001
655.0 -0.02066780031 -0.0362727283
655.625 -0.03970082568 -0.04457393117
656.25 -0.07091071209 -0.04626189991
656.875 -0.08564017761 -0.03856863064
657.5 -0.08022997807 -0.03543830737
658.125 -0.09273616146 -0.04048822485
658.75 -0.1092332065 -0.02607803071
659.375 -0.08554180618 0.02167886075
660.0 -0.07316879194 0.04131786528
660.625 -0.04562074387 0.03820400013
661.25 -0.04524273174 0.02778476226
661.875 -0.03006655423 0.03414663623
662.5 -0.04346311375 0.03784640954
663.125 -0.06094143902 0.0216684815
663.75 -0.06959556121 -0.02315671657
664.375 -0.05192599372 -0.05345884781
665.0 -0.02813157763 -0.06918536478
665.625 0.002336740181 -0.08903308996
666.25 0.0244252796 -0.09111113133
666.875 0.03912839911 -0.09593771019
667.5 0.02884566786 -0.07053782699
668.125 0.03968889729 -0.0601462098
668.75 0.02707185355 -0.04211095741
669.375 0.04784721274 -0.03885447461
670.0 0.05083600482 -0.02811094798
670.625 0.06653286258 -0.02462923186
671.25 0.05677919155 -0.0400990478
671.875 0.06357176553 -0.04915917562
672.5 0.04814716562 -0.09665173899
673.125 0.02032035135 -0.09716462112
673.75 -0.005972975332 -0.09392891903
674.375 0.0198063597 -0.09955380512
675.0 0.03715045981 -0.04805245775
675.625 0.05336544059 -0.03487541852
676.25 0.06758784385 -0.02027466545
676.875 0.08283615395 0.003164696872
677.5 0.02323828549 0.02469806805
678.125 0.03037718031 0.04160874745
678.75 0.05722366297 0.06703992158
679.375 0.06851225098 0.09702933797
680.0 0.06034581978 0.08100399579
680.625 0.07582377836 0.05257460611
681.25 0.09169488363 0.0283851981
681.875 0.1254758861 -0.001442286648
682.5 0.1013825675 -0.0397666188
683.125 0.0542847813 -0.03403474368
683.75 0.06422236117 -0.008693222598
684.375 0.06826239213 0.04573177106
685.0 0.0191667064 0.06095492926
685.625 -0.03037188693 0.04328283024
686.25 -0.06233062745 0.01125693531
686.875 -0.08517518363 -0.02222187377
687.5 -0.09216756542 -0.03873468686
688.125 -0.1122720629 -0.04947594332
688.75 -0.1049513909 -0.0670978641
689.375 -0.08679231884 -0.05500421162
690.0 -0.08601012978 -0.04286687144
690.625 -0.1093574103 -0.04193522006
691.25 -0.0812273146 -0.02932523348
691.875 -0.04504725167 0.01633157546
692.5 -0.03167961786 0.02732705617
693.125 -0.01830942686 0.08177237875
693.75 -0.003661836499 0.1152410897
694.375 0.01993300663 0.09913561874
695.0 -0.01019517271 0.102157468
695.625 -0.08570155263 0.07770776401
696.25 -0.1214771681 -0.03745109589
696.875 -0.01932570806 -0.09416494666
697.5 0.02992120643 -0.09724845103
698.125 0.04532319514 -0.06884904369
698.75 0.03734914433 -0.05913697867
699.375 0.05187831522 -0.03616886237
700.0 0.07854738926 -0.01907665487
700.625 0.07019423505 0.02366581629
701.25 0.06475356748 0.02278322106
701.875 0.08874780546 0.02712308806
702.5 0.1316721163 -0.02740413391
703.125 0.08708922025 -0.08922319549
703.75 -0.03748431316 -0.09557822258
704.375 -0.02974481609 -0.05385405592
705.0 -0.0419228252 -0.07918181676
705.625 0.01707778025 -0.0859812599
706.25 0.04663178881 -0.04223894044
706.875 0.05553690613 0.01063711833
707.5 0.02181501319 0.0690761032
708.125 -0.03477452598 0.08926575753
708.75 -0.06113407814 0.08128790569
709.375 -0.08660277194 0.04372137569
710.0 -0.07548028865 -0.03039951718
710.625 -0.07230200727 -0.0499479841
711.25 -0.08255061123 -0.07303387662
711.875 -0.08013947022 -0.06024668744
712.5 -0.07507709684 -0.01122690574
713.125 -0.04387347735 0.04237498918
713.75 -0.01895313166 0.05286518419
714.375 -0.0008770976962 0.07449289894
715.0 -0.04370425987 0.05220566956
715.625 -0.03082705504 0.06529404172
716.25 -0.04822125838 0.07731114901
716.875 -0.1115843801 0.0478174165
717.5 -0.09715059228 -0.01257792077
718.125 -0.06848845581 -0.04843662255
718.75 -0.0639637115 -0.06457432322
719.375 -0.03964235905 -0.08062312166
720.0 -0.0134516837 -0.08277220335
720.625 0.05715322232 -0.03108204089
721.25 0.04207413794 0.03043404175
721.875 -0.001438463737 0.03325403075
722.5 -0.02603873206 0.03340744322
723.125 -0.05400968863 0.06214903817
723.75 -0.005705627673 0.1078634217
724.375 0.06600108735 0.05203172307
725.0 0.05732779896 -0.02821790971
725.625 0.09391483914 -0.02065138821
726.25 0.05669029109 -0.04381946482
726.875 0.04294413836 -0.03328508367
727.5 0.0392389695 -0.01257553744
728.125 0.03445929996 0.02365319938
728.75 0.00746713182 0.06586651174
729.375 0.03787280104 0.05506491577
730.0 0.0351035008 0.03317636801
730.625 0.0168732857 0.01905114271
731.25 -0.03429353408 0.06816679646
731.875 -0.05016921668 0.03656745178
732.5 -0.05065415872 0.005556461626
733.125 -0.05583989536 -0.01680560596
733.75 -0.0468302151 -0.03260810055
734.375 -0.04519404752 -0.03309275425
735.0 -0.03521094336 -0.007023947208
735.625 -0.008270794929 -0.005559405722
736.25 -0.06532806675 -0.004060219351
736.875 -0.0726133559 -0.01783591752
737.5 -0.0805792061 -0.02315448165
738.125 -0.04985286864 -0.01316248435
738.75 -0.06700367257 -0.0353631054
739.375 -0.03104285567 -0.02503772161
740.0 -0.0002986141691 -0.02442081278
740.625 -0.02397074164 -0.033608353
741.25 -0.01311441348 -0.01835777178
741.875 -0.001612070848 -0.04613614149
742.5 0.0472999968 -0.002494823143
743.125 -0.0005455644038 0.0250810658
743.75 -0.02377538709 0.0183534169
744.375 -0.02635235026 0.0282134742
745.0 -0.04109065347 0.03023166326
745.625 -0.03525930318 0.05878162087
746.25 -0.01426449741 0.06931171331
746.875 0.07432961741 0.0538980715
747.5 0.05473435784 0.00142839414
748.125 0.03036594 0.001353950141
748.75 0.01875850713 0.008806007352
749.375 0.02738598929 -0.005928296421
750.0 -0.006785597485 -0.0286698152
