!Created with skrf (http://scikit-rf.org).
# GHz S RI R 50.0 
!freq ReS11 ImS11
500.0 -0.0141274624 0.025487674
500.625 0.0170878196 0.03469566282
501.25 0.02982784878 0.01908216251
501.875 0.01824129141 0.02838628577
502.5 0.01296097251 0.03994183393
503.125 0.03109498039 0.03179152847
503.75 0.04801273419 0.02773928114
504.375 0.04491809243 -0.006465399666
505.0 0.03878245862 -0.03078376107
505.625 0.05323246702 -0.04966411949
506.25 0.05503369075 -0.04452929486
506.875 0.04964793252 -0.06453039927
507.5 0.04510746084 -0.0408783691
508.125 0.07130026572 -0.01950598007
508.75 0.05098836678 -0.04955247469
509.375 0.03028004277 -0.04495121047
510.0 0.07663702128 -0.03042954111
510.625 -0.01071522522 -0.0625234269
511.25 -0.02879688226 -0.06096562499
511.875 -0.05190253774 -0.0006410745502
512.5 -0.0320793099 0.01522166408
513.125 -0.01786337416 0.03072748236
513.75 -0.02835884109 0.04017533901
514.375 -0.006779519068 0.05612147416
515.0 0.0191359027 0.08344275035
515.625 -0.06033436864 0.1027590942
516.25 0.03406513524 0.09867452766
516.875 -0.04292253109 0.1194151699
517.5 0.0380725915 0.1000498138
518.125 -0.06898953117 0.1201462413
518.75 0.04199200609 0.03731432827
519.375 0.01847998198 0.06065827887
520.0 0.05189460497 0.05885089604
520.625 0.0599028015 0.06103424175
521.25 0.06210594801 0.006293335371
521.875 0.03785529085 0.04512156665
522.5 0.06800998943 0.007887359627
523.125 0.122837634 -0.005979871569
523.75 0.1053266908 -0.04969478185
524.375 0.06148650432 -0.01698632099
525.0 0.007323640159 0.0005607539698
525.625 0.006646014051 0.03231141166
526.25 0.01177743025 0.03131985991
526.875 0.01538024758 0.02744687365
527.5 0.02156920371 0.01777637971
528.125 0.05467660142 0.007492754754
528.75 0.04319447 -0.01536056758
529.375 0.02832092989 -0.03177903235
530.0 0.02671906242 -0.02562561166
530.625 0.003987348025 -0.08929181824
531.25 0.01374595683 -0.1596479058
531.875 -0.05033752703 -0.1346281333
532.5 -0.08426126466 -0.0752210746
533.125 -0.09064046293 -0.06805526855
533.75 -0.06725433867 -0.03775904072
534.375 -0.06173527617 -0.03324141945
535.0 -0.06405021519 -0.01597999461
535.625 -0.03832402171 -0.04516169141
536.25 -0.02969535824 -0.02955951243
536.875 -0.03941309307 -0.06251397829
537.5 -0.04424239951 -0.08815140074
538.125 -0.0742893265 -0.06645993419
538.75 -0.05543431534 -0.02689934801
539.375 -0.03123568369 -0.04305345582
540.0 -0.04009244522 -0.0772164957
540.625 -0.0664177056 -0.1186876975
541.25 -0.04044163395 -0.08701250337
541.875 -0.04679155858 -0.08332955636
542.5 -0.05098146131 -0.09655193839
543.125 -0.1031040071 -0.07004066438
543.75 -0.09509353544 0.01917119883
544.375 -0.05367098148 0.03824349491
545.0 -0.02837343331 0.05548798581
545.625 -0.018468611 0.06975417208
546.25 0.01239825225 0.06725027247
546.875 0.01919140324 0.06653929122
547.5 0.01758105796 0.07356966161
548.125 0.002822317944 0.08075833378
548.75 -0.008467040319 0.06922987455
549.375 -0.01447889202 0.05740309404
550.0 -0.03111599422 0.02903278185
550.625 -0.02897194537 0.003801739036
551.25 -0.009315734072 -0.03087587023
551.875 -0.03831504199 -0.04642293876
552.5 -0.0657833172 -0.04764329937
553.125 -0.07982418972 -0.02024479602
553.75 -0.07085481043 -0.02663823772
554.375 -0.08862475218 0.001737900061
555.0 -0.08620685172 0.0203147555
555.625 -0.08006976779 0.03487449307
556.25 -0.08496442032 0.02014871204
556.875 -0.09398376618 0.0189622261
557.5 -0.08622331275 0.0290428283
558.125 -0.0773638424 0.02660917591
558.75 -0.06072769309 0.006993872898
559.375 -0.03465294384 0.002835340758
560.0 -0.02131069464 -0.00410296842
560.625 -0.04231077332 -0.02807131808
561.25 -0.04488007302 -0.03994668529
561.875 -0.07267453165 -0.0212698862
562.5 -0.07367872545 0.02232389366
563.125 -0.06958589977 0.06836423265
563.75 -0.05186772833 0.06839028234
564.375 -0.02455138718 0.07634285598
565.0 -0.01863133856 0.07372062574
565.625 -0.0124952267 0.07570334305
566.25 -0.03525276845 0.03013454346
566.875 -0.05307082632 0.02388240403
567.5 -0.06146966249 0.0187993056
568.125 -0.06206556993 0.01125527679
568.75 -0.05360525528 0.00697574891
569.375 -0.02769779538 -0.01316098954
570.0 -0.02185600445 -0.03305392085
570.625 -0.04481705326 -0.0455982707
571.25 -0.03858643555 -0.03710088947
571.875 -0.05504911631 -0.03355891659
572.5 -0.08834327513 -0.01232037535
573.125 -0.1090086231 0.02249207854
573.75 -0.06195448563 0.06964155801
574.375 -0.03414142015 0.06654201041
575.0 -0.03977707945 0.06797117293
575.625 -0.05340934783 0.07174996433
576.25 -0.03710907432 0.05882482066
576.875 -0.01683716138 0.06741329293
577.5 -0.004520943171 0.07093164161
578.125 -0.01479973123 0.06326562655
578.75 -0.0134189109 0.03885070867
579.375 -0.01026130522 0.03935098202
580.0 -0.01857105275 0.03492042247
580.625 -0.03178284616 0.01134197527
581.25 -0.05304181216 0.01261546519
581.875 -0.07178096249 0.02608972039
582.5 -0.0778629728 0.03814143371
583.125 -0.06358738934 0.04432706105
583.75 -0.0568447185 0.04743991014
584.375 -0.06984173453 0.008869963926
585.0 -0.0731619312 0.003710094723
585.625 -0.06265560436 0.02215453812
586.25 -0.05660132885 0.02710704534
586.875 -0.05877863222 0.006405886947
587.5 -0.05771437787 0.01534076545
588.125 -0.03118386699 0.04260223982
588.75 -0.01240192804 0.05143834346
589.375 -0.03879426369 0.01587256588
590.0 -0.04919416088 0.01855935384
590.625 -0.05109269959 0.04922072221
591.25 -0.02124066938 0.08253842863
591.875 -0.03843137207 0.08230973815
592.5 -0.006627693471 0.07371852407
593.125 -0.002850532276 0.05856607496
593.75 0.007026673761 0.06769181473
594.375 -0.03811357066 0.03632949081
595.0 -0.03704651598 0.01611858352
595.625 -0.02836090311 0.00266667511
596.25 -0.03777532794 0.003351714575
596.875 -0.02980954659 -0.02416890685
597.5 -0.03404333944 -0.02348346792
598.125 -0.02146785787 -0.02338031911
598.75 -0.01795541548 -0.01993408683
599.375 -0.01292286018 -0.04184010071
600.0 -0.02240697338 -0.05989383994
600.625 -0.02776218231 -0.0765016933
601.25 -0.05108699014 -0.04800251201
601.875 -0.04896480844 -0.05740114306
602.5 -0.05563237791 -0.03807858409
603.125 -0.04512230105 -0.03852874888
603.75 -0.03841930448 -0.01939201168
604.375 -0.02061551794 -0.01780108614
605.0 -0.01019259338 -0.03521754555
605.625 -0.003558822048 -0.05160911095
606.25 -0.006694624365 -0.04264857015
606.875 -0.02111618333 -0.01297946423
607.5 0.02198389677 -0.01396299237
608.125 0.01853749402 -0.01408816492
608.75 0.01162264553 -0.0117812859
609.375 0.0276867074 -0.01531015541
610.0 0.04193004748 -0.008345138892
610.625 0.05079668348 -0.01749899159
611.25 0.05204978094 -0.02568833949
611.875 0.03345950746 -0.02193125962
612.5 0.04998410158 -0.003748780563
613.125 0.02554618588 -0.0007056938517
613.75 0.02467947142 0.0122251981
614.375 0.008257127551 0.01324493858
615.0 0.0419249868 0.02820425084
615.625 0.02310267534 0.01195160664
616.25 -0.0003120569928 0.01549007024
616.875 0.008507352616 0.03147324192
617.5 0.04579789811 0.05293739233
618.125 0.02944267227 0.03698430791
618.75 0.01657151057 0.0325573727
619.375 0.008089689333 0.03021591781
620.0 0.04617467771 0.05233030029
620.625 0.04865117715 0.01695177504
621.25 0.02581691751 -0.002441383778
621.875 -0.01892352699 -0.0273976384
622.5 -0.008423202884 0.01693474205
623.125 -0.02515588706 0.04178349925
623.75 -0.02586880809 0.05758851505
624.375 -0.04066911839 0.04098594148
625.0 -0.04526046358 0.03337754009
625.625 -0.04979446082 0.04404201763
626.25 -0.03335315447 0.06197490404
626.875 -0.01536306933 0.06069732733
627.5 -0.02329281025 0.03159336545
628.125 -0.02218235776 0.04515325531
628.75 -0.02860268971 0.03262982512
629.375 -0.01938005672 0.01758956454
630.0 -0.01146221978 -0.01537402698
630.625 -0.008641447193 -0.01282512512
631.25 0.009191679451 -0.04539516856
631.875 -0.002846981453 -0.042832784
632.5 -0.009384563235 -0.06495416057
633.125 -0.03109145496 -0.05191416468
633.75 -0.0325718679 -0.0489733876
634.375 -0.03498051121 -0.05124373419
635.0 -0.03483451347 -0.06737615899
635.625 -0.04678529479 -0.04154527326
636.25 -0.03421776251 -0.02857386024
636.875 -0.01657054073 -0.04163267526
637.5 -0.02887061852 -0.05826086895
638.125 -0.0296116379 -0.05781038981
638.75 -0.03646460644 -0.0165418651
639.375 -0.004981927279 -0.01652929884
640.0 0.03825527003 -0.02339517627
640.625 0.06777061277 -0.02068918327
641.25 0.02946366497 -0.03815462357
641.875 0.03611059016 -0.02907675277
642.5 0.05597706732 -0.00353855154
643.125 0.06431567688 0.01410852757
643.75 0.05365609448 -0.007507374572
644.375 0.04892222032 -0.01518792638
645.0 0.04162505495 -0.003190291499
645.625 0.0547543049 0.02088299946
646.25 0.04088143342 0.005075959985
646.875 0.06868656321 0.01951676081
647.5 0.06175251229 0.01133551252
648.125 0.0630714927 0.02534400917
648.75 0.04690928313 0.04231936444
649.375 0.0497928719 0.0711363865
650.0 0.04657786557 0.06635693859
650.625 0.03607783588 0.06417397431
651.25 0.01187600194 0.07485674908
651.875 -0.0215232642 0.0668136144
652.5 -0.02381681198 0.04949068684
653.125 -0.02280756725 0.03757244392
653.75 -0.02899515738 0.01536605846
654.375 -0.01868474926 -0.02196501056
655.0 -0.02187072493 -0.03878558997
655.625 -0.05547123742 -0.06204295953
656.25 -0.07365729189 -0.05467144466
656.875 -0.07722582747 -0.03618101976
657.5 -0.07698310519 -0.0461423192
658.125 -0.08807528174 -0.04659138342
658.75 -0.1188232737 -0.03809149096
659.375 -0.07755631728 0.02326406069
660.0 -0.05498243098 0.03718706613
660.625 -0.04741939028 0.03344826418
661.25 -0.06844501359 0.02408375214
661.875 -0.0218963281 0.02679534863
662.5 -0.03197401242 0.02358684617
663.125 -0.06439258241 0.01470222378
663.75 -0.07611604135 -0.02659330322
664.375 -0.04651070822 -0.05280400051
665.0 -0.0278082325 -0.09389750961
665.625 0.008067276442 -0.1198985283
666.25 0.01945628054 -0.07529342554
666.875 0.03282601219 -0.08006777385
667.5 0.04982113682 -0.0837734914
668.125 0.06176210289 -0.0647197177
668.75 0.02539338891 -0.03556223448
669.375 0.04492851344 -0.03052517449
670.0 0.07269351575 -0.03564642574
670.625 0.07571034246 -0.02285255256
671.25 0.06090900374 -0.04025791149
671.875 0.06242700062 -0.04114831411
672.5 0.05177542681 -0.07654240478
673.125 0.02661259748 -0.09891633153
673.75 0.002500110193 -0.0814013344
674.375 0.02218240566 -0.0811401162
675.0 0.05177069956 -0.05606899704
675.625 0.06045109539 -0.03703980051
676.25 0.04775100586 -0.01166415064
676.875 0.06209104325 0.01371880138
677.5 0.03754918176 0.03475875605
678.125 0.03418006936 0.04733416854
678.75 0.05775159978 0.07151639841
679.375 0.05990040125 0.09738517097
680.0 0.05341197035 0.08765319338
680.625 0.07218181744 0.05757680951
681.25 0.1127891856 0.02744906867
681.875 0.09690398271 0.006934295806
682.5 0.08544776465 -0.02961207182
683.125 0.07191338367 -0.0363390469
683.75 0.07190827455 -0.006475393563
684.375 0.06612875713 0.05310403602
685.0 0.005426471803 0.04749956603
685.625 -0.03830060989 0.04610590929
686.25 -0.06382184714 0.00658487006
686.875 -0.09111306828 -0.02071737615
687.5 -0.09212759242 -0.04713718085
688.125 -0.1141702789 -0.0573366515
688.75 -0.09848232853 -0.06980180215
689.375 -0.09322816198 -0.05689109871
690.0 -0.06452688811 -0.04499661561
690.625 -0.08437632267 -0.04851658297
691.25 -0.07817497917 -0.03070785607
691.875 -0.06006150219 0.02074372522
692.5 -0.03142579179 0.01319883829
693.125 -0.03385404459 0.07367774198
693.75 -0.009741259192 0.1212008833
694.375 0.01357125112 0.1003795525
695.0 -0.0039206798 0.1090964183
695.625 -0.08871543771 0.04682735497
696.25 -0.09959147671 -0.05361595963
696.875 -0.03468811329 -0.1058954285
697.5 0.03386275541 -0.1033522072
698.125 0.05008993066 -0.07022375265
698.75 0.03695417575 -0.0424850003
699.375 0.0570861117 -0.02993124838
700.0 0.08199832203 -0.02630077758
700.625 0.06092591976 0.03243793977
701.25 0.05455528653 0.03626345089
701.875 0.08934866763 0.03014663418
702.5 0.134582871 -0.05635314808
703.125 0.08272553407 -0.06260418387
703.75 -0.02350922522 -0.09087695002
704.375 -0.05620981811 -0.05683054566
705.0 -0.03556612484 -0.08778258546
705.625 0.01127029014 -0.0926053196
706.25 0.04618475346 -0.03353432907
706.875 0.04827768712 0.02427959478
707.5 0.01745672741 0.07317735133
708.125 -0.01273839732 0.09348928628
708.75 -0.07746734125 0.05986188002
709.375 -0.09145593061 0.01951992371
710.0 -0.08187796147 -0.02151765042
710.625 -0.07828966639 -0.03986875806
711.25 -0.0484213361 -0.08776067021
711.875 -0.08118354133 -0.06987461022
712.5 -0.0717723574 -0.01411928269
713.125 -0.03827245634 0.05344604863
713.75 -0.05006703131 0.02510006309
714.375 -0.04406060946 0.0629995802
715.0 -0.02238343201 0.0550944635
715.625 -0.0232657147 0.06439803272
716.25 -0.04638394274 0.07731631393
716.875 -0.1173206102 0.03116593998
717.5 -0.09123982477 -0.03832411655
718.125 -0.06961996096 -0.03899692931
718.75 -0.07634750957 -0.02793649813
719.375 -0.02768564276 -0.0851669245
720.0 -3.08956705e-05 -0.08015732562
720.625 0.04068042899 -0.05746375017
721.25 0.05323248535 -0.005035414107
721.875 -0.01735587852 0.03104434533
722.5 -0.05644906146 0.02851707093
723.125 -0.06187963365 0.06097555682
723.75 0.02577211986 0.07459248715
724.375 0.06209286614 0.07059222772
725.0 0.08359891934 -0.006785497181
725.625 0.05857954259 -0.04772614689
726.25 0.06288237659 -0.04045201445
726.875 0.03841594005 -0.03719339066
727.5 0.04362317585 -0.0005643067791
728.125 0.028749137 0.05967538856
728.75 0.006875439592 0.06868811835
729.375 0.03156479449 0.0143128198
730.0 0.03648967882 0.05596004041
730.625 0.01564737503 0.0392183596
731.25 -0.005569533499 0.0362808238
731.875 -0.03214900983 0.02982634968
732.5 -0.04299546344 0.009316376416
733.125 -0.05949398154 -0.03323421827
733.75 -0.03294661417 -0.001457992937
734.375 -0.005111506254 0.009933964934
735.0 -0.06559141893 -0.03933338271
735.625 -0.04649357224 -0.01494597217
736.25 -0.02886574753 -0.01789569708
736.875 -0.03146607506 -0.02491021835
737.5 -0.08926653619 -0.03500641723
738.125 -0.06454342108 -0.02293092351
738.75 -0.04144037366 -0.003375909903
739.375 -0.01213761254 -0.007065559989
740.0 0.01072166787 -0.01861132304
740.625 -0.03804563381 -0.04588984143
741.25 -0.0403606876 -0.03302585417
741.875 0.002031741645 -0.04229830937
742.5 0.01148551221 0.01926153331
743.125 0.02445281872 0.05093804458
743.75 -0.002653076513 0.04390118859
744.375 -0.02583544024 0.0283957281
745.0 -0.05906461543 0.007517912284
745.625 -0.02849476941 0.06694627367
746.25 0.01769554815 0.08599124072
746.875 0.0392463502 0.04852005545
747.5 0.02265724839 0.01750846587
748.125 0.02478020512 0.001526077126
748.75 0.02511680349 0.003713303122
749.375 0.02168298325 -0.02726084835
750.0 -0.00603931043 -0.02896537541
