!Created with skrf (http://scikit-rf.org).
# GHz S RI R 50.0 
!freq ReS11 ImS11
500.0 -0.01459703758 0.0272509512
500.625 0.01336803461 0.0416646537
501.25 0.04405703275 0.006325139712
501.875 0.02726026343 0.01510333111
502.5 0.007626945236 0.04163499786
503.125 0.03455490556 0.02685397709
503.75 0.04533973364 0.01479838496
504.375 0.04882027 -0.00116791786
505.0 0.05238485746 -0.0217483315
505.625 0.05982411209 -0.04381625223
506.25 0.04169160427 -0.05253905475
506.875 0.0672251446 -0.03041032881
507.5 0.07133576283 -0.0307067427
508.125 0.06800788492 -0.04960426999
508.75 0.03043376519 -0.06218252554
509.375 0.02240561849 -0.05127966866
510.0 0.09435123934 -0.02843998747
510.625 -0.02558321378 -0.06038093982
511.25 -0.0371980685 -0.05273160446
511.875 -0.04807601027 -0.01963424955
512.5 -0.03684158948 -0.0009749088101
513.125 -0.01762871459 0.03378091581
513.75 -0.01028626625 0.0384330168
514.375 -0.01071170393 0.05228382012
515.0 -0.002425869028 0.09696917504
515.625 -0.04343432832 0.08943882787
516.25 0.03231743458 0.08968949916
516.875 -0.04054466223 0.1146153276
517.5 0.02519587212 0.1171792564
518.125 -0.04494242593 0.123684385
518.75 0.01438961737 0.05496256793
519.375 -0.001970458728 0.07704190786
520.0 0.04990838329 0.06154600968
520.625 0.05845040646 0.0462385955
521.25 0.05560804955 0.03232064973
521.875 0.03529882953 0.04277470872
522.5 0.06689853109 0.01799053403
523.125 0.1141512249 -0.02454867801
523.75 0.08991069969 -0.07995188407
524.375 0.05941081081 -0.024766621
525.0 0.001339007437 0.01277695772
525.625 -0.0006151227333 0.01993836207
526.25 0.008452704212 0.04520956958
526.875 0.01436154341 0.04573683231
527.5 0.02453217812 0.02647640747
528.125 0.04383180748 0.007807197193
528.75 0.05713196404 -0.001346654588
529.375 0.04964028858 -0.03262260939
530.0 0.01406717617 -0.01402407922
530.625 0.01216253762 -0.06981078809
531.25 0.01755998743 -0.1465277768
531.875 -0.04892187145 -0.1628033448
532.5 -0.07920185552 -0.05997878092
533.125 -0.07525407394 -0.06003634349
533.75 -0.07128215883 -0.07074969504
534.375 -0.06983081527 -0.04769653048
535.0 -0.06890165916 -0.02973321567
535.625 -0.0279330053 -0.03655994173
536.25 -0.03295863099 -0.03809836987
536.875 -0.04793595059 -0.07013031975
537.5 -0.03743737788 -0.06861225579
538.125 -0.06139913519 -0.05247362274
538.75 -0.05611530511 -0.03399071469
539.375 -0.03952520665 -0.05820540639
540.0 -0.04264323275 -0.08723351728
540.625 -0.04702481943 -0.101457809
541.25 -0.03555654948 -0.08028148251
541.875 -0.052122209 -0.09156039186
542.5 -0.04157829004 -0.07922826097
543.125 -0.09019366224 -0.06573023446
543.75 -0.09505203901 0.01482584414
544.375 -0.06616938174 0.03494738884
545.0 -0.04019656923 0.05869318002
545.625 -0.01638155985 0.05788532042
546.25 0.005951004653 0.06263557379
546.875 0.01612095033 0.06537733016
547.5 0.01017641377 0.08380221052
548.125 0.004139960282 0.06766355834
548.75 -0.01003344168 0.06625274526
549.375 -0.02831335491 0.07280649351
550.0 -0.04501417966 0.02572887175
550.625 -0.01964004606 -0.003442275854
551.25 -0.01250085717 -0.03747084311
551.875 -0.05319159661 -0.04691153593
552.5 -0.06180060862 -0.05107051248
553.125 -0.0700862893 -0.02713363222
553.75 -0.07787695789 -0.02498049323
554.375 -0.09600785514 0.0001959616956
555.0 -0.09610177448 0.01818692359
555.625 -0.07444927974 0.02716353856
556.25 -0.07699885495 0.01196008098
556.875 -0.09013921823 0.01233862747
557.5 -0.09375272658 0.03365827451
558.125 -0.06146762681 0.02267448228
558.75 -0.05988074948 0.002987564816
559.375 -0.04151447558 -0.001730895916
560.0 -0.02395049746 -0.005533275323
560.625 -0.03041635586 -0.03351965383
561.25 -0.06022709028 -0.04034868075
561.875 -0.07339385573 -0.0243976987
562.5 -0.07763436982 0.02466864552
563.125 -0.07175486548 0.0546942868
563.75 -0.06099558512 0.0885470081
564.375 -0.0271682097 0.08525104244
565.0 -0.01895414027 0.07182422527
565.625 -0.01654361971 0.06175352901
566.25 -0.04772323345 0.04727992477
566.875 -0.05302963736 0.01942228723
567.5 -0.06570792171 0.02307202431
568.125 -0.04708625701 0.002012085537
568.75 -0.04391539131 -4.025208775e-05
569.375 -0.02639475065 -0.01664203068
570.0 -0.02971311179 -0.03142839314
570.625 -0.02825899444 -0.04970434768
571.25 -0.03592299308 -0.04114662805
571.875 -0.04883767809 -0.03910987972
572.5 -0.09215564489 -0.006287103595
573.125 -0.0977273472 0.005831346516
573.75 -0.06243896886 0.059274567
574.375 -0.03672630044 0.06121523708
575.0 -0.04205195134 0.07372597311
575.625 -0.05533332192 0.05839561568
576.25 -0.03434702794 0.07058483252
576.875 -0.01324292883 0.07763236621
577.5 -0.002591654969 0.07880536568
578.125 -0.01776039096 0.0482616901
578.75 -0.01643510801 0.0327431513
579.375 -0.01583071848 0.03570969073
580.0 -0.01526165936 0.04012675311
580.625 -0.03473037773 -0.006922475984
581.25 -0.05774625204 -0.001986298329
581.875 -0.07367679892 0.02884801518
582.5 -0.07556287827 0.05102650423
583.125 -0.06340392397 0.04323768682
583.75 -0.061197285 0.03158433052
584.375 -0.06812635962 0.02282729995
585.0 -0.0757853356 0.00429487549
585.625 -0.06269498163 0.01215269171
586.25 -0.05711569748 0.009704930593
586.875 -0.05921406596 0.00348773681
587.5 -0.05791297442 0.02596676851
588.125 -0.03319083049 0.03953806978
588.75 -0.02495814862 0.03715666972
589.375 -0.03358574338 0.02546873217
590.0 -0.04554671857 0.01975862603
590.625 -0.04417372672 0.05345154358
591.25 -0.03848190942 0.08046109842
591.875 -0.03057275788 0.09034908652
592.5 -0.008665283031 0.07168476199
593.125 0.005713099934 0.06419974386
593.75 -0.01237491219 0.0603246629
594.375 -0.02798145002 0.05084538142
595.0 -0.03030788197 0.03093752411
595.625 -0.02856222253 0.0120151064
596.25 -0.03403029464 -0.01508046742
596.875 -0.03216367457 -0.02695581511
597.5 -0.02968493027 -0.02569417457
598.125 -0.02281718335 -0.02520751839
598.75 -0.01082230274 -0.0391432204
599.375 -0.009451661651 -0.03855658316
600.0 -0.02148210616 -0.04101465223
600.625 -0.01309336847 -0.09128757523
601.25 -0.04081544206 -0.0657709344
601.875 -0.05314041347 -0.03893951239
602.5 -0.05559272752 -0.03571258707
603.125 -0.05168597781 -0.02465828795
603.75 -0.02667768635 -0.03092933004
604.375 -0.009585043659 -0.03085718777
605.0 -0.002043527905 -0.03952316069
605.625 -0.0183571831 -0.03517198451
606.25 0.01184518782 -0.04294574461
606.875 -0.002480369945 -0.01763799384
607.5 0.0005414855078 -0.001820046294
608.125 0.006266069331 0.0008552620997
608.75 0.02715075077 -0.01868828134
609.375 0.04443570086 -0.02103867322
610.0 0.04982454314 -0.009858815732
610.625 0.03151046127 -0.009278355662
611.25 0.07135889702 -0.02349420803
611.875 0.05902912272 -0.01916548854
612.5 0.03054019092 -0.01098356935
613.125 0.01931302508 -0.005530999726
613.75 0.009491793123 0.003348275932
614.375 0.02463006503 0.02429751717
615.0 0.03369023792 0.01873435141
615.625 0.02242476969 0.01253921066
616.25 -0.008939395938 0.01499090803
616.875 0.02528191019 0.0408934454
617.5 0.01886500144 0.03156323257
618.125 0.02450547768 0.02843448167
618.75 0.00317192864 0.02368674846
619.375 0.02375288753 0.04045858238
620.0 0.02477443467 0.02948607816
620.625 0.02638491887 0.004070554588
621.25 0.01935484937 0.003627839102
621.875 -0.007046730803 -0.01430049085
622.5 -0.03808748413 0.006556154405
623.125 -0.0239160232 0.03940113206
623.75 -0.0428050462 0.05089398747
624.375 -0.02950624725 0.0511283834
625.0 -0.03464090489 0.04632643835
625.625 -0.04439661427 0.04825171543
626.25 -0.05210342658 0.04331066298
626.875 -0.01435590831 0.0792202835
627.5 -0.01251441161 0.05062318594
628.125 -0.03212073181 0.02162051211
628.75 -0.02948522959 0.000796284755
629.375 -0.02664329853 0.02424463964
630.0 -0.00918401416 0.002019001397
630.625 -0.003076047763 -0.01853131299
631.25 0.01266901294 -0.05306344257
631.875 -0.02107430443 -0.03429381745
632.5 -0.02052290064 -0.04760194012
633.125 -0.01479762808 -0.06835963796
633.75 -0.02423239357 -0.05437184776
634.375 -0.02164150686 -0.06409951865
635.0 -0.04444186455 -0.05470880059
635.625 -0.05445791444 -0.02838517273
636.25 -0.0342379528 -0.02290061616
636.875 -0.01003983996 -0.0622008067
637.5 -0.02870962088 -0.0571451743
638.125 -0.03854142241 -0.04465799797
638.75 -0.02967753447 -0.02619146168
639.375 0.01299343322 -0.0208379038
640.0 0.05074446252 -0.0196739221
640.625 0.0552921325 -0.02191492541
641.25 0.04507170123 -0.02614633338
641.875 0.05801525766 -0.02183610581
642.5 0.04482683506 -0.0223983577
643.125 0.05199371601 0.0001580578271
643.75 0.06254360335 0.0008238779385
644.375 0.06811829899 0.001514132105
645.0 0.03672695076 -0.01480650734
645.625 0.04180545279 0.01570078912
646.25 0.05683671256 0.02858483739
646.875 0.06675509549 0.02748174638
647.5 0.06632749806 0.02294884674
648.125 0.05118261848 0.01884326246
648.75 0.04131698501 0.04400927815
649.375 0.04768600588 0.07124327364
650.0 0.04209986184 0.07541415629
650.625 0.04205624579 0.04715280568
651.25 0.01673772035 0.06062980205
651.875 -0.02031459995 0.06202552184
652.5 -0.03452661354 0.05326269941
653.125 -0.007042565804 0.04051941175
653.75 -0.02200661282 0.007945071402
654.375 -0.02343750189 -0.03114667368
655.0 -0.02619241018 -0.04877864205
655.625 -0.04481836299 -0.05611512588
656.25 -0.0599588883 -0.05006961369
656.875 -0.07199068166 -0.03620399353
657.5 -0.0875885978 -0.05321044159
658.125 -0.08585580093 -0.04187286115
658.75 -0.1020766155 -0.03034107856
659.375 -0.08561431474 0.01740208591
660.0 -0.06579569146 0.0320158257
660.625 -0.06011063332 0.02754989087
661.25 -0.05463069786 0.02048292898
661.875 -0.03752483811 0.02630481135
662.5 -0.04733191018 0.03110984988
663.125 -0.04275554256 0.009290020077
663.75 -0.06229729801 -0.02850324433
664.375 -0.05163675109 -0.05763564753
665.0 -0.03270072604 -0.09979864672
665.625 0.01253881082 -0.1020837695
666.25 0.03315079432 -0.08972883445
666.875 0.04332152272 -0.081923853
667.5 0.06065770347 -0.08881815495
668.125 0.05102192018 -0.05345990544
668.75 0.03744768908 -0.037321606
669.375 0.0446693122 -0.02614004457
670.0 0.07872782139 -0.03743769141
670.625 0.05826491306 -0.01650992007
671.25 0.05280967679 -0.02689637873
671.875 0.05950614889 -0.03873554995
672.5 0.05827032309 -0.09475401987
673.125 0.02180030122 -0.08194891644
673.75 0.005651362977 -0.0987743913
674.375 0.0266287165 -0.08009567632
675.0 0.06243441118 -0.05949679868
675.625 0.04983376195 -0.02871375259
676.25 0.07147234961 -0.01128587674
676.875 0.05905983731 0.01755690853
677.5 0.04102773681 0.04259838237
678.125 0.01874772966 0.04549632727
678.75 0.04332700246 0.07381970935
679.375 0.05683791488 0.0986711547
680.0 0.05984998282 0.09278917459
680.625 0.06790331357 0.05698474262
681.25 0.1001506675 0.03451251691
681.875 0.124689999 0.009406080648
682.5 0.08364614084 -0.02694554912
683.125 0.07623724473 -0.03756019423
683.75 0.05052973575 0.002337412126
684.375 0.04729294134 0.05006726755
685.0 0.01395591412 0.06238983987
685.625 -0.03863923742 0.05634870752
686.25 -0.05905085611 -0.001584430224
686.875 -0.08171336473 -0.03236778844
687.5 -0.08653772373 -0.04154672723
688.125 -0.1249303064 -0.05401494589
688.75 -0.09122328266 -0.07045920824
689.375 -0.07837326145 -0.05692657754
690.0 -0.08677566867 -0.05083960384
690.625 -0.09222420427 -0.05571091092
691.25 -0.08864057639 -0.03885694114
691.875 -0.0511871584 0.01251621828
692.5 -0.04102242673 0.02356491464
693.125 -0.0401309235 0.06718164069
693.75 0.0004268014994 0.1300995178
694.375 -0.002990510549 0.08882501208
695.0 -0.0208855791 0.09848980953
695.625 -0.09311531193 0.07664044542
696.25 -0.1081493174 -0.05224044595
696.875 -0.04241279054 -0.1140680875
697.5 0.03912366314 -0.07717821367
698.125 0.05223112958 -0.05516092432
698.75 0.04058225177 -0.04250334377
699.375 0.05484163571 -0.02033133285
700.0 0.07672646501 -0.004973538057
700.625 0.06727601291 0.02831940631
701.25 0.06100006186 0.03022629878
701.875 0.09262647329 0.0272324362
702.5 0.1342032448 -0.02921559565
703.125 0.0903485277 -0.07877744387
703.75 -0.01794257498 -0.08738114879
704.375 -0.061545384 -0.05846364307
705.0 0.001825520183 -0.07921211394
705.625 0.02938642136 -0.07620298655
706.25 0.0456249275 -0.03842179975
706.875 0.05788476362 0.008620483078
707.5 0.0228277854 0.07330259393
708.125 -0.03142510932 0.08973642811
708.75 -0.06493597146 0.07792708854
709.375 -0.08855339214 0.03540468315
710.0 -0.08825561893 -0.01424555217
710.625 -0.06584669448 -0.05326576638
711.25 -0.08420646598 -0.07207882951
711.875 -0.09794029166 -0.05962020903
712.5 -0.06605469779 -0.0181410847
713.125 -0.04520620629 0.03235198157
713.75 -0.02537887411 0.05400994032
714.375 -0.03360896605 0.06169849502
715.0 -0.01822909756 0.05979425954
715.625 -0.04932087796 0.0625394714
716.25 -0.07972866365 0.06708511492
716.875 -0.1123052419 0.01839742295
717.5 -0.09484618169 -0.01823022933
718.125 -0.07568776229 -0.03121224509
718.75 -0.06503980695 -0.05189657731
719.375 -0.03028894556 -0.08661056019
720.0 0.005665320341 -0.08183781145
720.625 0.03913113224 -0.05944584871
721.25 0.04293367977 0.01772575968
721.875 -0.007012429291 0.02631222293
722.5 -0.02312247272 0.02995808443
723.125 -0.08362404289 0.05438605516
723.75 0.001852551345 0.09740273356
724.375 0.06781029081 0.0556581195
725.0 0.08081416192 -0.01021251455
725.625 0.05306281944 -0.04853732863
726.25 0.07430090809 -0.0138854092
726.875 0.05437775013 -0.01430309591
727.5 0.03892788697 0.01106155337
728.125 0.0298121675 0.015982031
728.75 0.01345832802 0.05622513713
729.375 0.03305015568 0.04322135963
730.0 0.04005335841 0.03554122942
730.625 0.0112731135 0.04069512109
731.25 -0.003274789167 0.03321703636
731.875 -0.05760822149 0.03027043807
732.5 -0.07407532413 -0.006723588874
733.125 -0.04616300823 -0.01959104927
733.75 -0.02173382619 0.008996268819
734.375 -0.02218152879 -0.01814892336
735.0 -0.03109530562 -0.008331626513
735.625 -0.03337151744 -0.01008110742
736.25 -0.01602633391 -0.01609062682
736.875 -0.05612628237 -0.02377487298
737.5 -0.07331733178 -0.02489209273
738.125 -0.06371899529 -0.02336889245
738.75 -0.02752880232 0.001407694729
739.375 -0.03057544476 -0.04526463017
740.0 -0.01316652612 -0.05118641739
740.625 -0.01710186677 -0.03446695401
741.25 -0.005681497553 -0.01869229769
741.875 0.01563147232 -0.0211559317
742.5 0.02974328815 0.008611626672
743.125 -0.01044100521 0.02534342241
743.75 -0.0256851638 0.01413746243
744.375 -0.0301449627 0.0430945962
745.0 -0.0457452691 0.03659192113
745.625 -0.04610487919 0.0645738835
746.25 -0.006838375048 0.07240556569
746.875 0.02849771707 0.0437205007
747.5 0.03654899763 0.008955180919
748.125 0.03226568934 -0.005913104387
748.75 0.02781236659 0.003830689952
749.375 0.02854746259 0.001278874516
750.0 -0.01530920984 -0.03153032635
