!Created with skrf (http://scikit-rf.org).
# GHz S RI R 50.0 
!freq ReS11 ImS11
500.0 -0.006557112787 0.01904303165
500.625 0.02292068812 0.02728871255
501.25 0.03255032054 0.0225765435
501.875 0.02539800888 -0.0001696703283
502.5 0.01031266951 0.01917968318
503.125 0.02889502273 0.02940599764
503.75 0.04819619652 0.01838815687
504.375 0.0440028724 -0.006127226779
505.0 0.03294154621 -0.02897807487
505.625 0.04528317441 -0.05110645826
506.25 0.05236611057 -0.06210117619
506.875 0.05548482778 -0.05997943829
507.5 0.04292007994 -0.05660890346
508.125 0.08256808402 -0.03476578997
508.75 0.02387362076 -0.0758073564
509.375 0.01368756756 -0.05638403242
510.0 0.04961809936 -0.05311088618
510.625 -0.02075063493 -0.06631927165
511.25 -0.04618484475 -0.05307301806
511.875 -0.05524859918 -0.003921984165
512.5 -0.03452074548 0.01831252773
513.125 -0.01255175313 0.04350757357
513.75 0.0007406052982 0.04754900666
514.375 0.01362542663 0.0454675268
515.0 0.04030216889 0.06283225003
515.625 -0.0381729297 0.1227394341
516.25 0.05533868031 0.07131742863
516.875 -0.01472711424 0.1274414101
517.5 0.07541384641 0.1123893489
518.125 -0.06589702834 0.1656077798
518.75 0.0474217991 0.04472033629
519.375 0.0318769309 0.06555376652
520.0 0.07021974471 0.05813390338
520.625 0.0835566277 0.05749085682
521.25 0.06857056331 -0.002914044087
521.875 0.05421114017 0.03373224956
522.5 0.08392412187 -0.00688454058
523.125 0.1552334847 -0.02711225804
523.75 0.1140653182 -0.1190809735
524.375 0.1116592836 -0.06483155533
525.0 0.02672170726 -0.01346971264
525.625 0.02402321869 0.01596018175
526.25 0.03164388507 0.02543272532
526.875 0.04050764055 0.0258664798
527.5 0.03468467537 0.008178167197
528.125 0.04730077502 -0.01603590399
528.75 0.02875360249 -0.03331187752
529.375 0.0185403973 -0.06259094907
530.0 0.003915179935 -0.04174675989
530.625 -0.01353128498 -0.05219504805
531.25 -0.04707633288 -0.1468490136
531.875 -0.09638880886 -0.1396971315
532.5 -0.1169466894 -0.05820536582
533.125 -0.1056713647 -0.02759903932
533.75 -0.1037608413 -0.02180037664
534.375 -0.08804423127 -0.02266945696
535.0 -0.07462709174 0.01049383803
535.625 -0.06386687213 -0.01744409236
536.25 -0.05356643207 -0.006285014088
536.875 -0.06555507867 -0.04378234255
537.5 -0.07671907183 -0.06918506568
538.125 -0.09122992473 -0.0216135486
538.75 -0.087088905 -0.01062115767
539.375 -0.06534046795 -0.02950210411
540.0 -0.07236958065 -0.04931893092
540.625 -0.1028815936 -0.06790232281
541.25 -0.08258572192 -0.07600809638
541.875 -0.07372833644 -0.0565375302
542.5 -0.08690134085 -0.06851905467
543.125 -0.129059178 -0.03210230059
543.75 -0.1086139168 0.05371915097
544.375 -0.0583876581 0.06595304594
545.0 0.005219823596 0.07496110906
545.625 0.01963981234 0.09422399738
546.25 0.03901011403 0.05422007285
546.875 0.05131712081 0.05802974438
547.5 0.06342163404 0.07689702071
548.125 0.04251145047 0.095866921
548.75 0.02440296284 0.08755918045
549.375 0.01858428182 0.09101879121
550.0 -0.02063711715 0.07340908365
550.625 -0.02706948805 0.04304505335
551.25 -0.009156437016 -0.007629959649
551.875 -0.04310481934 -0.009046237322
552.5 -0.07880070961 -0.003483750321
553.125 -0.07713747408 0.009605139488
553.75 -0.07308530365 0.001274547162
554.375 -0.07829794906 0.03073864031
555.0 -0.08302504023 0.05914022006
555.625 -0.06925078693 0.06837265291
556.25 -0.06490491484 0.04206415031
556.875 -0.08540494444 0.05462801371
557.5 -0.0861002714 0.06648418621
558.125 -0.08145412757 0.06584436584
558.75 -0.05961496696 0.03203650006
559.375 -0.05560476388 0.03119692757
560.0 -0.03501284393 0.01675181674
560.625 -0.04379675869 0.008641185515
561.25 -0.04831022643 -0.01277191579
561.875 -0.0739640629 0.008407959489
562.5 -0.06178728636 0.04369977747
563.125 -0.03968680363 0.0822111094
563.75 -0.01689490587 0.1005569196
564.375 0.0002684341614 0.1033994059
565.0 0.007279936218 0.09227596553
565.625 0.02442681577 0.08669910558
566.25 -0.01590346096 0.06446928353
566.875 -0.0453148148 0.05496175742
567.5 -0.05077382707 0.04910522919
568.125 -0.06163738959 0.05557109543
568.75 -0.06199532105 0.04187993813
569.375 -0.0439467994 0.01718001562
570.0 -0.03662489076 -0.0006682851805
570.625 -0.05845600525 0.003396470497
571.25 -0.04631830169 -0.01982282224
571.875 -0.05505113127 -0.00185089366
572.5 -0.06997248339 0.01901476885
573.125 -0.08634162403 0.07289318161
573.75 -0.04739074689 0.09753248013
574.375 -0.007056524338 0.07785022178
575.0 -0.005082477281 0.07313737344
575.625 -0.005874759984 0.1017442358
576.25 -0.0201432861 0.07855821914
576.875 0.009798588451 0.08381068547
577.5 0.02440141143 0.07625516271
578.125 0.02607404497 0.08797271435
578.75 -0.0001366741046 0.04830790375
579.375 0.01123995817 0.05124819219
580.0 0.01765835739 0.05211565672
580.625 -0.0007335098221 0.04248278279
581.25 -0.03289161164 0.02174397841
581.875 -0.04056105542 0.04607448004
582.5 -0.04483813135 0.07836017116
583.125 -0.04389705679 0.07160755659
583.75 -0.03338735796 0.06877911385
584.375 -0.04862873648 0.05157658714
585.0 -0.07716235497 0.03927592076
585.625 -0.05620024452 0.0507401321
586.25 -0.04341845878 0.04964887094
586.875 -0.04904630788 0.04447540235
587.5 -0.04979019062 0.0570212694
588.125 -0.0143478784 0.06335689829
588.75 0.01389246101 0.06026203042
589.375 0.007324877994 0.04572127123
590.0 -0.02639739712 0.03865025658
590.625 -0.02024616639 0.05563904696
591.25 0.005168741554 0.07464230962
591.875 -0.009465633747 0.1022971046
592.5 0.01514946525 0.08563960417
593.125 0.02535039519 0.06477197288
593.75 0.03324153312 0.0639555219
594.375 -0.00476034784 0.07575392414
595.0 -0.02309267318 0.0573372781
595.625 -0.02846259641 0.02845780942
596.25 -0.0292132069 0.03231424771
596.875 -0.04893600102 -0.01561961087
597.5 -0.04644180122 -0.003778125199
598.125 -0.03425142152 0.004321975293
598.75 -0.02479127553 -0.003769296352
599.375 -0.0192593574 -0.01362956032
600.0 -0.02772813098 -0.02329903888
600.625 -0.04467492592 -0.04241202471
601.25 -0.05988068974 -0.02988836889
601.875 -0.06781817154 -0.02653427636
602.5 -0.07059216491 -0.02208390318
603.125 -0.06993031148 -0.01736713694
603.75 -0.0541145707 0.009156223111
604.375 -0.02944274452 -0.01808933208
605.0 -0.02560238913 -0.02608960034
605.625 -0.03497668616 -0.03339272153
606.25 -0.0353051899 -0.0393620059
606.875 -0.02979787278 -0.01851178694
607.5 -0.01338203472 -0.006844496342
608.125 -0.001348718691 -0.008067770697
608.75 -0.001283834714 0.0007441934493
609.375 0.02065403716 -0.03030180229
610.0 0.02869708829 -0.02292980765
610.625 0.02608335622 -0.0208077876
611.25 0.03035155293 -0.02768868039
611.875 0.04035758698 -0.03530170115
612.5 0.03759834431 -0.02899624906
613.125 0.03277618128 -0.02278344719
613.75 0.015310624 -0.007035177237
614.375 0.000987126486 0.01124373671
615.0 0.06425839059 0.002698747822
615.625 0.03783406174 0.0007262509129
616.25 0.01211112673 0.009964992637
616.875 0.0009341981281 0.02923327224
617.5 0.05768864729 0.02476415308
618.125 0.04591063088 0.01962778857
618.75 0.03481345634 0.02361521668
619.375 0.00824150542 0.03570143462
620.0 0.04903069421 0.03051358476
620.625 0.05057084496 -0.001237242006
621.25 0.03612466472 -0.007989611248
621.875 -0.01263122648 -0.0136882058
622.5 -0.0006887577628 -0.001658048556
623.125 -0.007989165843 0.02897188814
623.75 0.002948568994 0.04797539992
624.375 -0.03786003938 0.05473967457
625.0 -0.01969986081 0.04946920179
625.625 -0.02950388363 0.05563012233
626.25 -0.03612020067 0.07040712621
626.875 -0.01647607289 0.06768391433
627.5 -0.008094397258 0.05717187462
628.125 -0.01799647387 0.04814178284
628.75 -0.02858642493 0.03653953341
629.375 -0.02215385556 0.02896369202
630.0 -0.02195586713 0.009108396419
630.625 -0.01450910474 -0.0007336220482
631.25 -0.02147829406 -0.01792831129
631.875 -0.01771230839 -0.0430753661
632.5 -0.03264876971 -0.03754782435
633.125 -0.04235036447 -0.04949161296
633.75 -0.04547802167 -0.03257221824
634.375 -0.04847000012 -0.04274068098
635.0 -0.06870268077 -0.05506697607
635.625 -0.07378343672 -0.00500213234
636.25 -0.05604191056 -0.01128996882
636.875 -0.04161468279 -0.0397162308
637.5 -0.05459095377 -0.04378219975
638.125 -0.0671071698 -0.05337060533
638.75 -0.05260079061 -0.01687811648
639.375 -0.02294867097 -0.0149514472
640.0 0.01536017029 -0.04145677728
640.625 0.05454017963 -0.05146582891
641.25 0.01201049553 -0.04627160575
641.875 0.03041433384 -0.04500201833
642.5 0.06077443884 -0.04126419944
643.125 0.06101339794 -0.02599165033
643.75 0.05984228889 -0.02704917493
644.375 0.05608940052 -0.04293494239
645.0 0.05114031755 -0.03960129852
645.625 0.05699041484 -0.01724473791
646.25 0.0489063363 -0.01018603559
646.875 0.05748049881 -0.01742769803
647.5 0.07039056113 -0.02351222629
648.125 0.06908902301 -0.01350909471
648.75 0.04194419874 0.006479457816
649.375 0.07044526904 0.03709980996
650.0 0.07640640552 0.04836143426
650.625 0.06878810187 0.05734371477
651.25 0.05171368653 0.05535395205
651.875 0.01791655538 0.08579062419
652.5 -0.01259906537 0.08312853145
653.125 -0.01194551754 0.07004549893
653.75 0.001674694571 0.04568273188
654.375 -0.03272426251 0.01563631302
655.0 -0.03920538488 -0.01749822804
655.625 -0.06693251022 -0.02028919816
656.25 -0.06624511857 -0.006079213649
656.875 -0.09138650914 0.00272880983
657.5 -0.09647514468 -0.007476806109
658.125 -0.09839203309 -0.007202328807
658.75 -0.1318976003 0.02941482153
659.375 -0.09359257413 0.05702324114
660.0 -0.05129172261 0.069025269
660.625 -0.03715354096 0.07453489118
661.25 -0.04441980365 0.08829463734
661.875 -0.004462087072 0.04987438227
662.5 -0.01047650403 0.05794209572
663.125 -0.03175266076 0.06502923417
663.75 -0.07862136251 0.0296532797
664.375 -0.06841220002 -0.02271945795
665.0 -0.06068710764 -0.05152967291
665.625 -0.06544819385 -0.09905026412
666.25 -0.01018852087 -0.09427546554
666.875 0.004663473013 -0.09522281971
667.5 0.002889387453 -0.0986495597
668.125 0.009703094784 -0.1277678498
668.75 0.003745278147 -0.05984599515
669.375 0.01843171358 -0.05596959492
670.0 0.03087034243 -0.06203795402
670.625 0.05340585484 -0.0900043994
671.25 0.02857454313 -0.0665209691
671.875 0.02434722402 -0.07358892492
672.5 -0.003434649188 -0.09559585051
673.125 -0.03139365193 -0.1179362752
673.75 -0.03356890284 -0.08486393856
674.375 -0.02489895 -0.09037838483
675.0 0.01372597131 -0.09261802525
675.625 0.05068851724 -0.08523379221
676.25 0.05242447767 -0.05136125897
676.875 0.05942111358 -0.04460800352
677.5 0.05969716186 -0.01443363606
678.125 0.05727122642 0.01001362408
678.75 0.06325494624 0.02670546924
679.375 0.09102495036 0.04145058572
680.0 0.120372246 0.05492379504
680.625 0.09798591547 0.02804606693
681.25 0.1101639757 -0.02214400714
681.875 0.1098043364 -0.05069967534
682.5 0.0927008763 -0.08654894993
683.125 0.06109282202 -0.08158208458
683.75 0.06543074592 -0.06445085841
684.375 0.09579809071 -0.0110134873
685.0 0.06572287138 0.05254507742
685.625 0.01954960908 0.07351785605
686.25 -0.03114091566 0.05437194212
686.875 -0.07281053289 0.04149021128
687.5 -0.08972159529 0.00564922963
688.125 -0.1172053128 0.0148602593
688.75 -0.1368257683 -0.006373711005
689.375 -0.1322893335 -0.01743253828
690.0 -0.09685046259 -0.01517000841
690.625 -0.1090063704 0.001478816395
691.25 -0.1289412337 0.0431669098
691.875 -0.08071518258 0.07615278381
692.5 -0.008495736365 0.04414991336
693.125 0.02563624609 0.05838530909
693.75 0.09161709969 0.07579451394
694.375 0.08045559303 0.0905092756
695.0 0.04732659869 0.09525906002
695.625 -0.04112778743 0.09268074171
696.25 -0.1231000164 0.01444389963
696.875 -0.07993458523 -0.08991610477
697.5 -0.03232215943 -0.1239113962
698.125 0.01052899841 -0.09785166104
698.75 0.01540146832 -0.07814963714
699.375 0.01811074344 -0.07318459664
700.0 0.04083803061 -0.0767382598
700.625 0.08031108865 -0.0363876669
701.25 0.07038127592 -0.0034162259
701.875 0.07778380909 -0.02126440995
702.5 0.07769728668 -0.09866294538
703.125 0.06384601343 -0.1296476805
703.75 -0.06409460532 -0.09939142515
704.375 -0.08819833487 -0.02616297176
705.0 -0.09882760326 -0.02095409295
705.625 -0.07953876969 -0.09893549528
706.25 0.01842420555 -0.08087058108
706.875 0.05475015434 -0.03566224499
707.5 0.05931491577 0.01591591561
708.125 0.04941367619 0.07745923668
708.75 -0.01864933362 0.09530804113
709.375 -0.06401010786 0.07267066928
710.0 -0.08786661605 0.02964428563
710.625 -0.09319061003 0.01173850765
711.25 -0.1018872743 -0.03885298432
711.875 -0.1305280338 -0.007756979539
712.5 -0.1080392056 0.0329861984
713.125 -0.02276771951 0.08839027297
713.75 0.01552260268 0.063145586
714.375 0.03320765248 0.0746798647
715.0 0.02030999318 0.06617426582
715.625 0.02829937406 0.049176713
716.25 -0.006851773991 0.07022289688
716.875 -0.05518859671 0.08868313474
717.5 -0.1099507208 0.03057624745
718.125 -0.08968373835 0.002627828925
718.75 -0.07897890052 0.01519631122
719.375 -0.08135782369 -0.07313600953
720.0 -0.04594922594 -0.08667825557
720.625 0.02233941306 -0.07949759714
721.25 0.05902075804 -0.04896434139
721.875 0.04580002857 0.03302307365
722.5 0.01170753469 0.03995662074
723.125 0.002845826993 0.05865889741
723.75 0.05375512209 0.04290519793
724.375 0.09586783651 0.04043208179
725.0 0.07333186168 -0.04173280653
725.625 0.0379220433 -0.06718856377
726.25 0.02027595005 -0.07934149333
726.875 0.04485741332 -0.06051921718
727.5 0.03576012535 -0.04196700281
728.125 0.05006985729 -0.01310214833
728.75 0.05071004778 0.02979940528
729.375 0.03954935006 -0.004397427762
730.0 0.06869775321 0.02218440974
730.625 0.03888893361 0.01875282623
731.25 0.01333687622 0.04355581839
731.875 -0.002673360257 0.02327328621
732.5 -0.05155899169 0.02867206772
733.125 -0.05846679759 0.006918578325
733.75 -0.04725824747 0.01244599826
734.375 -0.002231535967 0.01771981118
735.0 -0.05919996341 0.02050727244
735.625 -0.03950641949 0.03351515766
736.25 -0.02884505454 0.01752086775
736.875 -0.02204393253 -0.02890208909
737.5 -0.09837654016 0.01514193321
738.125 -0.08115233007 -0.005694948437
738.75 -0.06318694894 -0.0005171014746
739.375 -0.004728798712 0.002769551538
740.0 -0.028911384 -0.0122427122
740.625 -0.03805064827 -0.02206981152
741.25 -0.03160838412 -0.008364018675
741.875 -0.02307974921 -0.02740851525
742.5 0.02397844447 0.0177983942
743.125 0.02748187517 0.02564884683
743.75 0.006135454208 0.02785224474
744.375 -0.00935359072 0.02919853516
745.0 -0.04237004567 0.03047512697
745.625 -0.01751702992 0.05866635254
746.25 0.03195704845 0.06278066963
746.875 0.07463927484 0.02584188835
747.5 0.0458289491 0.01677323337
748.125 0.03768495586 -0.0371978176
748.75 0.02768196403 -0.01438350386
749.375 0.01275500963 -0.02992634868
750.0 -0.02352517926 -0.02708984785
