!Created with skrf (http://scikit-rf.org).
# GHz S RI R 50.0 
!freq ReS11 ImS11
500.0 -0.005053925666 0.00577640169
500.625 0.01347950423 0.003096931252
501.25 0.004821784289 -0.0204567706
501.875 -0.0129840907 -0.03226897848
502.5 -0.01031206686 -0.01183988258
503.125 -0.001528460249 0.0005314202087
503.75 -0.001986466117 -0.01048072601
504.375 -0.008806530405 -0.01788243143
505.0 -0.005158687614 -0.01802966859
505.625 -0.005859455502 -0.02755385727
506.25 -0.03258426403 -0.03392569961
506.875 -0.0420539395 -0.0733062381
507.5 -0.050846079 -0.04627408388
508.125 -0.03427217321 -0.05649446754
508.75 -0.08479169494 -0.03210903689
509.375 -0.0841493263 -0.01662829572
510.0 -0.05958687389 -0.01980635106
510.625 -0.03178025811 0.02069454599
511.25 -0.05169635928 0.03569973211
511.875 -0.0326267713 0.06184008306
512.5 0.0152252968 0.04824051634
513.125 0.06983494419 0.008739802876
513.75 0.09522393303 -0.01382677989
514.375 0.0650385354 -0.0368316595
515.0 0.03529608826 -0.05178667653
515.625 0.08013412556 -0.0306120736
516.25 0.07686229297 -0.05038280573
516.875 0.08841866725 0.04605446941
517.5 0.09917823379 -0.03236213503
518.125 0.203484092 0.09231584932
518.75 0.1027949093 -0.0721012956
519.375 0.07227012722 -0.04100254117
520.0 0.04231750218 -0.0684139215
520.625 0.06396389312 -0.1060332225
521.25 0.03439897717 -0.1075677761
521.875 0.04224977762 -0.05176096454
522.5 0.007027632839 -0.08842374293
523.125 0.03080441732 -0.2340792606
523.75 -0.01639707276 -0.3027802088
524.375 -0.01770367404 -0.2898859581
525.0 -0.02721685036 -0.1428743495
525.625 -0.01981152176 -0.1146085154
526.25 0.007726290634 -0.09183834503
526.875 -0.0195859246 -0.07855142789
527.5 -0.05833552078 -0.08304050369
528.125 -0.07151793479 -0.04639599086
528.75 -0.07518458092 -0.03200634014
529.375 -0.1176423968 0.04244476611
530.0 -0.07776503296 0.111518389
530.625 0.01413607453 0.1067666029
531.25 0.00750473112 0.07480156058
531.875 -0.006021380038 0.1132549124
532.5 -0.01073143165 0.1653479175
533.125 -0.004542455488 0.1299447981
533.75 0.02703694113 0.08994967733
534.375 0.0388591935 0.101820596
535.0 0.04526575897 0.1326810462
535.625 0.000231165631 0.1045813142
536.25 0.06923653509 0.05768910595
536.875 0.06057278834 0.07962646618
537.5 -0.00534766605 0.09621780337
538.125 -0.004642538588 0.08307709464
538.75 0.04244486107 0.1086473901
539.375 0.02201470516 0.1549438508
540.0 0.025659115 0.1235926907
540.625 0.02106182765 0.09420322675
541.25 0.02813033549 0.1096999876
541.875 0.00935620865 0.1199790106
542.5 -0.02283782928 0.06000218594
543.125 -0.005429755122 0.06086555907
543.75 0.06101920779 0.09059420665
544.375 0.09873880989 0.1027025119
545.0 0.1148564112 0.001404037451
545.625 0.08096037367 -0.06713093681
546.25 0.06233073195 -0.1166466221
546.875 0.06858991664 -0.1060601366
547.5 0.07732437778 -0.09582299536
548.125 0.1035343917 -0.1103113215
548.75 0.147529558 -0.08071646846
549.375 0.1587985088 -0.03961422131
550.0 0.1525896821 0.009908811949
550.625 0.1882896389 0.005609316912
551.25 0.1300784119 0.08241991068
551.875 0.09576788438 0.03198700291
552.5 0.08750520483 -2.172366708e-07
553.125 0.1130757319 -0.01595816726
553.75 0.08632639866 0.02934615004
554.375 0.05288612476 0.009971398749
555.0 0.06427590767 0.002116946926
555.625 0.09730329099 -0.008804714828
556.25 0.09135289512 0.02765056806
556.875 0.05699407302 0.03119097238
557.5 0.07194744349 0.03520192565
558.125 0.08858355982 0.07300107463
558.75 0.05367462579 0.1038292851
559.375 0.07385324624 0.08624131528
560.0 0.101450021 0.07711537101
560.625 0.1036115879 0.05572668909
561.25 0.08130946919 0.0144939389
561.875 0.07684934193 -0.008119687487
562.5 0.08301913134 -0.01244567807
563.125 0.07554033351 -0.01399750994
563.75 0.0577431296 -0.01969567543
564.375 0.06642827689 -0.04864929682
565.0 0.129355456 -0.0478005548
565.625 0.1108911874 -0.03872493362
566.25 0.09418786149 -0.02841376573
566.875 0.1015463031 -0.0283526448
567.5 0.1187976663 0.01679264126
568.125 0.08413504279 0.06270015216
568.75 0.09059519893 0.06324940725
569.375 0.1070224992 0.07357761795
570.0 0.1038272216 0.06841714503
570.625 0.08596166761 0.04444237112
571.25 0.09123415811 0.01745529968
571.875 0.1009140679 0.01425583719
572.5 0.06866576485 -0.01122227643
573.125 0.04787733984 -0.01217209245
573.75 0.0741090993 -0.03087007121
574.375 0.09489769929 -0.05515817661
575.0 0.07171373429 -0.05103942976
575.625 0.03608093378 -0.05040221051
576.25 0.04993359132 -0.06379820182
576.875 0.07889125642 -0.04683017319
577.5 0.07816094257 -0.03861518564
578.125 0.06847481157 -0.0529969258
578.75 0.08406792622 -0.08081544044
579.375 0.1070512726 -0.06655484134
580.0 0.08597780754 -0.05944523621
580.625 0.07108843158 -0.08757036116
581.25 0.05517368111 -0.1069028206
581.875 0.05026784197 -0.06858839516
582.5 0.04121618011 -0.03395576287
583.125 0.06361134031 -0.04171866606
583.75 0.08876391026 -0.0395028885
584.375 0.07770594317 -0.02273819757
585.0 0.06250810762 -0.006834903222
585.625 0.07782299911 -0.001046675206
586.25 0.09283904192 0.007057549609
586.875 0.07128673775 -0.002703140226
587.5 0.06551390492 -0.02137445548
588.125 0.08212613013 -0.04508283911
588.75 0.09315901738 -0.04837688114
589.375 0.05947772642 -0.0751411402
590.0 0.005064528256 -0.1007195054
590.625 -0.01289694379 -0.09667753888
591.25 0.005040697937 -0.04956568707
591.875 0.01716268805 -0.02861817506
592.5 0.02151521695 -0.04997194707
593.125 0.03823429471 -0.07466386992
593.75 0.0545816248 -0.05477221124
594.375 0.0598519451 -0.02970472555
595.0 0.07960721788 -0.02287822109
595.625 0.09584803133 -0.002404622024
596.25 0.08036654178 0.01607034347
596.875 0.064322283 0.02354395184
597.5 0.06906168306 0.03572761824
598.125 0.07673732611 0.03894712389
598.75 0.0840240541 0.01286956744
599.375 0.08415848672 -0.004783021996
600.0 0.07424836062 -0.007825868546
600.625 0.05022446243 -0.00609949783
601.25 0.03002712403 -0.00903403749
601.875 0.02576752238 0.003265419495
602.5 0.0210311014 0.02090246958
603.125 0.009401633322 0.03035898955
603.75 0.01373957827 0.03506923619
604.375 0.0272916003 0.03961032583
605.0 0.0233036065 0.03931309436
605.625 0.004011094871 0.02626926785
606.25 -0.01447771858 0.02859541654
606.875 -0.01907817642 0.04683898746
607.5 -0.003983068259 0.05901843053
608.125 0.01837062799 0.04626170024
608.75 0.02101286088 0.03531547409
609.375 0.01736965312 0.03572899123
610.0 0.01524575331 0.03347516309
610.625 0.01989553524 0.01905555784
611.25 0.01533253896 0.006077788666
611.875 0.009494650218 -0.005431279127
612.5 -0.0007680794261 -0.01403582639
613.125 -0.01355221965 -0.01237237634
613.75 -0.01718512827 -0.001840117019
614.375 -0.00556630871 0.003679718867
615.0 0.004032757093 -0.003827743597
615.625 6.328310062e-05 -0.01207357699
616.25 -0.006267150306 -0.005534265252
616.875 0.002226543229 0.004410233852
617.5 0.01749411528 0.0005598294249
618.125 0.02379538348 -0.006922790121
618.75 0.02337359653 -0.006840757357
619.375 0.03331635942 -0.002366228929
620.0 0.05213623514 -0.01008447803
620.625 0.05374152322 -0.03720007608
621.25 0.04687580386 -0.04700998789
621.875 0.03504865864 -0.05632331335
622.5 -0.01835300288 -0.05040188157
623.125 -0.01784771432 -0.02272034234
623.75 -0.0005539507911 -0.009026759953
624.375 0.01947856043 -0.004895371044
625.0 0.02845517511 0.008584175061
625.625 0.02555028588 0.01751582974
626.25 0.0384644831 0.02561519331
626.875 0.066686672 0.02923060979
627.5 0.07377585314 0.04444429488
628.125 0.06267958085 0.04338216204
628.75 0.06359996491 0.04314479639
629.375 0.07558468801 0.05637724625
630.0 0.06690617449 0.07466131948
630.625 0.04923630983 0.06440706386
631.25 0.04998431115 0.05570668463
631.875 0.04208725552 0.05920953633
632.5 0.0234528782 0.05782053367
633.125 0.005877102418 0.04916180717
633.75 0.01345582285 0.05676784133
634.375 0.003467265513 0.06639083539
635.0 -0.0007898315862 0.06518827905
635.625 0.006977219807 0.0747474796
636.25 0.02032892593 0.09322115104
636.875 0.009344059955 0.09194539642
637.5 -0.001599513062 0.06500660717
638.125 -0.006787377848 0.08105072772
638.75 -0.02483776475 0.1215263728
639.375 -0.05576665426 0.09987347649
640.0 -0.05164790513 0.05922689302
640.625 -0.05282062359 0.05448436911
641.25 -0.09089679249 0.03938117839
641.875 -0.08768050002 -0.0005201392902
642.5 -0.07225988905 -0.003032697462
643.125 -0.08393144626 0.0004677829536
643.75 -0.101812569 -0.02846949524
644.375 -0.09507824055 -0.04697175765
645.0 -0.09468272359 -0.01817305811
645.625 -0.1198602691 0.001264818052
646.25 -0.1169084128 -0.0008034718786
646.875 -0.09004075001 -0.02465413338
647.5 -0.08431094603 -0.02000792784
648.125 -0.1089487034 -0.02304936056
648.75 -0.08561204522 -0.04600884056
649.375 -0.04900948274 -0.04498422991
650.0 -0.0319963487 -0.06175573344
650.625 0.000522622694 -0.08997132973
651.25 0.03629894348 -0.08328900854
651.875 0.0558614778 -0.05991225991
652.5 0.09425083275 -0.05923785203
653.125 0.1450451653 -0.01943102011
653.75 0.1318032192 0.007217403051
654.375 0.1243878699 0.004846185162
655.0 0.1414142883 0.01389345468
655.625 0.1234008755 0.04312037301
656.25 0.07966537642 0.02578799438
656.875 0.08740287457 -0.01007853959
657.5 0.1095899841 0.00991934316
658.125 0.08811625355 0.04060050586
658.75 0.05583055019 0.04541382741
659.375 0.08174017853 0.02211927183
660.0 0.1287288499 0.006121612353
660.625 0.1313685203 -0.00415507061
661.25 0.1176665451 -0.03007271517
661.875 0.113159838 -0.08116161595
662.5 0.110697153 -0.1085675147
663.125 0.1076745755 -0.08219535952
663.75 0.1134165907 -0.04756499246
664.375 0.1317274745 0.04065227925
665.0 0.06137945947 0.0910647257
665.625 0.02223042877 0.08270721123
666.25 0.009349772194 0.08632890024
666.875 -0.05774718731 0.1126598308
667.5 -0.1063131485 0.05667015672
668.125 -0.08864555182 0.05019086596
668.75 -0.07879115615 0.09539517332
669.375 -0.1046673841 0.1199633503
670.0 -0.1123092954 0.06915504264
670.625 -0.08525437777 0.04805794458
671.25 -0.07561890563 0.1015850332
671.875 -0.06198895512 0.1296653652
672.5 -0.01817671243 0.1174250645
673.125 -0.002550211949 0.09053252344
673.75 -0.01291360645 0.1052453775
674.375 -0.05179216415 0.1100035079
675.0 -0.0804220642 0.08219062606
675.625 -0.109369861 0.06435790522
676.25 -0.145185264 0.0005774600318
676.875 -0.1376421516 -0.03024914935
677.5 -0.1345919413 -0.01308707945
678.125 -0.1649865329 0.01200380528
678.75 -0.1539203758 -0.03986308668
679.375 -0.08179132717 -0.0419853605
680.0 -0.07223662486 -0.02207199649
680.625 -0.1093390586 -0.01696316686
681.25 -0.1270140051 -0.03241338878
681.875 -0.08545498177 -0.03709702938
682.5 -0.09153695557 0.004318198947
683.125 -0.1351689646 0.03471180599
683.75 -0.1691016263 0.003279176536
684.375 -0.1180814926 -0.08595296996
685.0 -0.04654557655 -0.1259412351
685.625 0.04355534903 -0.1565877356
686.25 0.1027013426 -0.127532197
686.875 0.1134538286 -0.09906485334
687.5 0.1261727106 -0.06063471359
688.125 0.1082776995 -0.01357348009
688.75 0.08199723033 0.01977624512
689.375 0.08764674169 0.02568806581
690.0 0.1190810408 0.06401639397
690.625 0.08969211902 0.09084278497
691.25 0.09987098852 0.05721372469
691.875 0.1342281295 -0.03228242961
692.5 0.1156770483 -0.1760958206
693.125 -0.01366884507 -0.1950029445
693.75 -0.09109450692 -0.09468853006
694.375 -0.1166673927 -0.06871058949
695.0 -0.08702454085 -0.1445421603
695.625 0.0728141565 -0.1381512461
696.25 0.1028235676 0.000101372254
696.875 0.06719914459 0.08170844145
697.5 -0.02253532057 0.1146556653
698.125 -0.07540694433 0.1044209391
698.75 -0.08458034253 0.1078047126
699.375 -0.09492615607 0.1098252153
700.0 -0.101146794 0.08138974154
700.625 -0.1069997278 0.05188566625
701.25 -0.1277850183 0.06777390082
701.875 -0.1410281004 0.06588367972
702.5 -0.07102852438 0.06711794326
703.125 -0.03010277025 0.06396348043
703.75 0.037022037 0.1102113585
704.375 0.09850813063 0.1584924929
705.0 0.06786628063 0.1281846767
705.625 0.03004400754 0.1063852513
706.25 -0.03895347069 0.1326067172
706.875 -0.1744065075 0.04924556183
707.5 -0.1399507242 -0.06791072175
708.125 -0.08666294234 -0.07862787518
708.75 -0.04435167657 -0.1076373917
709.375 0.04950301845 -0.1033706857
710.0 0.09890769434 -0.03428346738
710.625 0.08970892104 -0.005389251849
711.25 0.08218788945 0.01895054816
711.875 0.06663078328 0.0321023176
712.5 0.08632998195 0.02983195335
713.125 0.1266348357 -0.05617936523
713.75 0.05363892822 -0.1508984489
714.375 -0.0479392298 -0.1339692522
715.0 -0.1036714815 -0.08698878566
715.625 -0.1210340355 -0.1143512941
716.25 -0.03420204088 -0.1476369246
716.875 0.02686608977 -0.09335080922
717.5 0.0557976582 -0.05993089568
718.125 0.09720176528 -0.04022839699
718.75 0.1092224263 0.008867223484
719.375 0.06679967242 0.03666963875
720.0 0.03411389479 0.0505034054
720.625 -0.03745964319 0.06699606599
721.25 -0.1000882451 -0.02251139974
721.875 -0.04748794555 -0.1023838499
722.5 -0.03686444077 -0.1148095375
723.125 -0.08940960214 -0.09117179136
723.75 -0.1089059192 -0.006380375568
724.375 -0.07145552802 0.04964348772
725.0 -0.02317253037 0.06919540806
725.625 0.001917056475 0.05557079936
726.25 -0.004425940602 0.03765191633
726.875 -0.03216718635 0.03117170954
727.5 -0.07011624403 0.02294828834
728.125 -0.08349549414 -0.0003180439281
728.75 -0.07176526012 0.005937296664
729.375 -0.05074833886 0.02682463062
730.0 -0.04893672041 0.02100961175
730.625 -0.05293902348 0.004915537104
731.25 -0.04214786667 -0.01092114649
731.875 -0.02683872145 -0.02702203627
732.5 -0.006847670389 -0.02801997326
733.125 0.005242077117 -0.009389531696
733.75 0.01506273826 0.00363100938
734.375 0.0254666395 -0.001269932022
735.0 0.02120753877 -0.01779547397
735.625 0.0138853682 -0.02103142651
736.25 0.007519547681 -0.029015832
736.875 -0.009961949906 -0.03117479023
737.5 -0.02737838534 -0.01650491588
738.125 -0.03653177458 0.005940845101
738.75 -0.03247241736 0.02956728442
739.375 -0.01246976409 0.0385599319
740.0 0.0004987111455 0.02625872649
740.625 -0.005745739527 0.02400673975
741.25 -0.01384583485 0.03372116728
741.875 -0.03052435849 0.02316062721
742.5 -0.03595725169 -0.01700644364
743.125 0.003717077186 -0.04460367267
743.75 0.03295957578 -0.03409585092
744.375 0.03023537256 -0.03459923041
745.0 0.0241362606 -0.04249804935
745.625 0.00950919105 -0.03710582027
746.25 0.02175661781 -0.01995447346
746.875 0.02517848968 -0.03863702836
747.5 -0.003970386898 -0.0587341382
748.125 -0.03684269567 -0.05422984578
748.75 -0.06205456769 -0.02350988578
749.375 -0.06388817121 0.03010298079
750.0 -0.006615072169 0.08816237795
