!Created with skrf (http://scikit-rf.org).
# GHz S RI R 50.0 
!freq ReS11 ImS11
500.0 -0.02160142724 0.02771295732
500.625 0.01857534899 0.0334930624
501.25 0.02951721016 0.02049892906
501.875 0.01477212955 0.03413172473
502.5 0.0006531290291 0.0630374181
503.125 0.03034942226 0.02783774195
503.75 0.04126191847 0.008861767727
504.375 0.0437288564 -0.00413235799
505.0 0.06368522123 -0.01836483853
505.625 0.04254755392 -0.05879275884
506.25 0.03770806549 -0.05449457327
506.875 0.05492956044 -0.04587839089
507.5 0.06028755293 -0.03472930002
508.125 0.07357650498 -0.01889809475
508.75 0.05110837866 -0.04734467326
509.375 0.02975500949 -0.04391007147
510.0 0.07035689587 -0.03521752484
510.625 -0.009446912968 -0.06524130787
511.25 -0.03354031982 -0.04968800598
511.875 -0.05066653072 -0.009162546102
512.5 -0.03938536704 -0.005561217384
513.125 -0.01333718154 0.03637542933
513.75 -0.03058031178 0.03782013058
514.375 -0.02534394519 0.06718656919
515.0 0.03484208619 0.06107809011
515.625 -0.03548707586 0.08754868536
516.25 0.02588633782 0.1049776994
516.875 -0.0516874082 0.1212034868
517.5 0.03390799547 0.109413321
518.125 -0.04605035121 0.1210490837
518.75 0.02502712955 0.04513384096
519.375 -0.007390413513 0.090687773
520.0 0.05782639611 0.04900157015
520.625 0.05954368112 0.04215894283
521.25 0.05892839563 0.02416526109
521.875 0.03326400676 0.05210303043
522.5 0.0678810169 0.0006404662875
523.125 0.1160818215 -0.02309682438
523.75 0.1065003277 -0.03890905065
524.375 0.0559418762 -0.01407558673
525.0 0.009175790509 -0.01741937021
525.625 -0.0007664136069 0.01176243032
526.25 0.007841919655 0.03845841103
526.875 0.01682915787 0.04548278879
527.5 0.01875614629 0.009418726324
528.125 0.03229034868 0.003403899269
528.75 0.05723065569 -0.009728999391
529.375 0.05734011363 -0.04020306016
530.0 0.02403571324 -0.02596010202
530.625 0.01299363019 -0.08061699632
531.25 0.02107881969 -0.1579183955
531.875 -0.05205923183 -0.1623178906
532.5 -0.0847074054 -0.07320596884
533.125 -0.06501773283 -0.04338405605
533.75 -0.07052885342 -0.05664084952
534.375 -0.07698928647 -0.05055895525
535.0 -0.0519854794 -0.0008041017542
535.625 -0.02834359713 -0.02829032423
536.25 -0.03108110278 -0.03377435333
536.875 -0.04651815673 -0.06699676141
537.5 -0.04451231046 -0.08741679081
538.125 -0.0713604298 -0.06249702213
538.75 -0.05651786369 -0.03011050507
539.375 -0.04290562423 -0.05507917073
540.0 -0.03342145066 -0.06142529416
540.625 -0.05487911955 -0.105001226
541.25 -0.03997794582 -0.0867586778
541.875 -0.04987134685 -0.08445659985
542.5 -0.05427839796 -0.09441407346
543.125 -0.09364415772 -0.05991500239
543.75 -0.09186443835 0.01931492319
544.375 -0.07140088873 0.04037470873
545.0 -0.01172530069 0.04531800072
545.625 -0.01193153433 0.05502762825
546.25 0.0139561039 0.07119913021
546.875 0.02056091824 0.07347256751
547.5 0.01943222492 0.05976592609
548.125 0.001230328856 0.07175281745
548.75 -0.01111872209 0.06698558759
549.375 -0.02565794259 0.08268979598
550.0 -0.01475330628 0.02420331924
550.625 -0.01134480748 -0.0022289239
551.25 -0.01660713381 -0.03078879875
551.875 -0.06221391091 -0.04098137124
552.5 -0.05630925242 -0.04612356244
553.125 -0.06427252503 -0.02709768252
553.75 -0.07428946887 -0.02845718725
554.375 -0.103483216 0.0101450994
555.0 -0.07641689032 0.01543938724
555.625 -0.07255971744 0.02805558883
556.25 -0.08705035194 0.0215024683
556.875 -0.09658205599 0.01789865666
557.5 -0.09205069848 0.0350129157
558.125 -0.07566882911 0.02598978295
558.75 -0.06692348057 0.009450236974
559.375 -0.05025164291 0.0007334307601
560.0 -0.01248437048 -0.005149058976
560.625 -0.02959824243 -0.03271396568
561.25 -0.0570628967 -0.03652979001
561.875 -0.0820104721 -0.01842128089
562.5 -0.06965970797 0.01830042532
563.125 -0.06830185668 0.04811461623
563.75 -0.05566433143 0.0804002491
564.375 -0.02550413873 0.09251458323
565.0 -0.01643258588 0.06403221668
565.625 -0.0154000881 0.05924438517
566.25 -0.04066251053 0.0413613618
566.875 -0.05736367434 0.02735906937
567.5 -0.06054234499 0.02141604343
568.125 -0.0624718659 0.01062156695
568.75 -0.04407058119 0.001785938911
569.375 -0.02562101871 -0.01635921485
570.0 -0.02959307621 -0.02994384922
570.625 -0.03842282649 -0.04789014305
571.25 -0.04103882792 -0.03524726096
571.875 -0.0551594956 -0.03493973828
572.5 -0.08794279029 -0.01063390562
573.125 -0.1080651043 0.02312602263
573.75 -0.06157904428 0.06005752584
574.375 -0.03196687542 0.0685313095
575.0 -0.04813712211 0.05578332699
575.625 -0.05413902089 0.06248246748
576.25 -0.03394435969 0.06779957102
576.875 -0.005540790754 0.08291770434
577.5 -0.01293958313 0.05635787548
578.125 -0.01735110865 0.04771928632
578.75 -0.01054889131 0.04281130026
579.375 -0.01147666212 0.04336975697
580.0 -0.01608171108 0.036491963
580.625 -0.03189791241 0.01067589927
581.25 -0.05413498937 0.01014562232
581.875 -0.07304665557 0.02615700997
582.5 -0.07436254009 0.05200116515
583.125 -0.06572488848 0.03240313386
583.75 -0.06152662741 0.02237205385
584.375 -0.07039038527 0.01735076747
585.0 -0.07924882145 0.01894856681
585.625 -0.05965986084 0.01810704962
586.25 -0.05704584335 0.01033516127
586.875 -0.05969888653 0.001697568002
587.5 -0.05818093215 0.02471729662
588.125 -0.03526723141 0.03572668768
588.75 -0.03027021336 0.03226760926
589.375 -0.03532855453 0.02156770405
590.0 -0.03505311506 0.02916237681
590.625 -0.06037228607 0.04524834053
591.25 -0.04915841945 0.07755336391
591.875 -0.02791873047 0.09033215874
592.5 0.005860815139 0.07771360494
593.125 -0.0145817934 0.05429599127
593.75 -0.02371110884 0.05656702348
594.375 -0.03179923931 0.04526243277
595.0 -0.02618632146 0.04064772224
595.625 -0.02907285961 -0.01319676263
596.25 -0.03305436354 -0.02287001379
596.875 -0.03148531158 -0.01853636129
597.5 -0.03687510219 -0.007328347602
598.125 -0.01370825045 -0.03203398395
598.75 -0.01849653417 -0.02039467736
599.375 -0.01176821211 -0.04159364139
600.0 -0.02213308651 -0.04123736906
600.625 -0.02784156756 -0.0745417422
601.25 -0.03509770258 -0.07700894975
601.875 -0.05197999662 -0.04874791099
602.5 -0.05799872432 -0.01629775511
603.125 -0.03492701708 -0.05511228108
603.75 -0.02951774019 -0.02995138915
604.375 -0.02130429107 -0.01697083227
605.0 -0.008887685741 -0.03579893196
605.625 -0.01752532652 -0.03636182312
606.25 -0.007382056458 -0.03952117731
606.875 -0.005791587155 -0.02128550503
607.5 0.01094175891 -0.009649592458
608.125 0.01279319852 -0.007319806249
608.75 0.02546804218 -0.0241171871
609.375 0.02024067317 -0.01084447713
610.0 0.03961534024 -0.008472241387
610.625 0.03468828234 -0.01284866923
611.25 0.05169160955 -0.02352717841
611.875 0.05032610246 -0.02175525787
612.5 0.04318985424 -0.009016953938
613.125 -0.000163500328 -0.01235662917
613.75 0.03449817179 0.01946646416
614.375 0.02803200803 0.02343041891
615.0 0.02660982909 0.01695615628
615.625 0.003016923098 0.00439815418
616.25 0.0134999553 0.01728888321
616.875 0.02081959078 0.03928589122
617.5 0.03203738817 0.0431371019
618.125 0.003625360614 0.02124595269
618.75 0.03134320906 0.04055164338
619.375 0.02531163997 0.04287532962
620.0 0.03574870006 0.03848895118
620.625 0.01486658327 0.001024676129
621.25 0.03319016867 0.01015530444
621.875 0.001811703077 -0.006981839674
622.5 -0.02299333922 0.0139805228
623.125 -0.0407224216 0.03944333803
623.75 -0.009604244104 0.06375257753
624.375 -0.02576414067 0.05016780775
625.0 -0.05022994222 0.02626829419
625.625 -0.05067723328 0.04078618519
626.25 -0.04865756678 0.04810694881
626.875 -0.01854845327 0.06189186468
627.5 -0.01284673695 0.04365192338
628.125 -0.02267664389 0.03265882287
628.75 -0.02995882119 -0.002665198614
629.375 -0.02197313854 0.02132414461
630.0 -0.01295784101 0.01751381216
630.625 -0.006529615833 -0.01266274671
631.25 -0.0006081238106 -0.03760028212
631.875 -0.005948510595 -0.0457603765
632.5 -0.01378149304 -0.04996175293
633.125 -0.01855273072 -0.05815066292
633.75 -0.01759488522 -0.07237412204
634.375 -0.04838215332 -0.04200744802
635.0 -0.0439595156 -0.04979587454
635.625 -0.03949504741 -0.04761435908
636.25 -0.03213975611 -0.02994984031
636.875 -0.01255721726 -0.05764081531
637.5 -0.04147235145 -0.04973945716
638.125 -0.04724399118 -0.03762391154
638.75 -0.03095799656 -0.01806663749
639.375 0.01995616515 -0.03342998812
640.0 0.02315679595 -0.02800901903
640.625 0.04142439855 -0.02628356577
641.25 0.0470203877 -0.03350621964
641.875 0.06468226347 -0.02320208707
642.5 0.05822570219 -0.004527544628
643.125 0.05529948134 0.01004101028
643.75 0.05657909573 -0.00170540364
644.375 0.06890684049 -0.001280458648
645.0 0.04117414466 -0.004379623663
645.625 0.02948567597 0.004441157552
646.25 0.04841582774 0.01969337889
646.875 0.08321317753 0.03530268608
647.5 0.05259376784 -0.0046932063
648.125 0.04600643114 0.01284796042
648.75 0.04946046379 0.04979266762
649.375 0.0487300571 0.08172780475
650.0 0.04789703883 0.05648859292
650.625 0.03824392727 0.06518019047
651.25 0.008123949372 0.07931750553
651.875 -0.02463846206 0.06561682446
652.5 -0.03222931725 0.05376033388
653.125 -0.02239390769 0.03633094954
653.75 -0.03432327525 0.007812226672
654.375 -0.03450373551 -0.03628110856
655.0 -0.01590113655 -0.03035506565
655.625 -0.04049025698 -0.05529822379
656.25 -0.07774969519 -0.0653828617
656.875 -0.07737275165 -0.04025883793
657.5 -0.08559119786 -0.05056747825
658.125 -0.08210189331 -0.03958327979
658.75 -0.09678341983 -0.02334292788
659.375 -0.08135885801 0.02006757018
660.0 -0.07794624457 0.03704289416
660.625 -0.0356975228 0.03608485348
661.25 -0.04067855038 0.02386550451
661.875 -0.03415141303 0.03140611618
662.5 -0.04921015629 0.03719681272
663.125 -0.06166443118 0.01442287428
663.75 -0.05765201624 -0.02513603942
664.375 -0.04777055195 -0.05543981469
665.0 -0.03090655358 -0.08589094091
665.625 0.009643342964 -0.09829828082
666.25 0.02495954777 -0.08413761719
666.875 0.0442822018 -0.09495539848
667.5 0.04022493048 -0.07317475133
668.125 0.04954380766 -0.05598867933
668.75 0.0321185359 -0.04182512704
669.375 0.04898581345 -0.02934064656
670.0 0.06677950473 -0.03091395744
670.625 0.0708157922 -0.0210685854
671.25 0.05912378598 -0.03347823732
671.875 0.06368115812 -0.04030909772
672.5 0.05390467462 -0.09828640376
673.125 0.02736625468 -0.09704358419
673.75 0.002223072174 -0.09434165762
674.375 0.02664327008 -0.09552862077
675.0 0.03723434931 -0.04284839458
675.625 0.05644750445 -0.0314037916
676.25 0.05880110931 -0.01223097229
676.875 0.07641025543 0.01367004567
677.5 0.02431071399 0.03246332901
678.125 0.03286543186 0.04636382119
678.75 0.04609658084 0.07390174872
679.375 0.05643839167 0.1013813198
680.0 0.05895389474 0.09189145493
680.625 0.06553569146 0.055307294
681.25 0.09171375771 0.03238206714
681.875 0.1100071805 0.006470768544
682.5 0.09583286042 -0.03219575279
683.125 0.06807885134 -0.03355409805
683.75 0.06766251457 -0.006007660497
684.375 0.05186975244 0.04985317919
685.0 0.008678246899 0.05789665466
685.625 -0.03715021314 0.05246179655
686.25 -0.0619238049 -0.0005148840697
686.875 -0.07764235525 -0.03202936707
687.5 -0.0885645162 -0.04577636505
688.125 -0.1228887086 -0.05399406409
688.75 -0.08624687053 -0.06884611762
689.375 -0.07327267759 -0.0555837597
690.0 -0.0736942494 -0.04563622239
690.625 -0.1093083239 -0.04778061625
691.25 -0.06184528869 -0.0279080109
691.875 -0.05012818202 0.01295204033
692.5 -0.03493640463 0.02676002733
693.125 -0.03347978034 0.0768680282
693.75 -0.0002152265542 0.1270962374
694.375 0.01228734627 0.09740660069
695.0 -0.02487848848 0.09350161652
695.625 -0.08870595417 0.05857558547
696.25 -0.1213702669 -0.0427895562
696.875 -0.01756826841 -0.0979077058
697.5 0.03263731524 -0.09738743055
698.125 0.05103290887 -0.07746262201
698.75 0.03944484263 -0.05517038337
699.375 0.05612506865 -0.02108551672
700.0 0.07503213509 0.00103700131
700.625 0.06451026091 0.03078751057
701.25 0.06565277805 0.02270229718
701.875 0.08139523507 0.04339602244
702.5 0.1329148752 -0.01131105454
703.125 0.08732820305 -0.0808637537
703.75 -0.0265985578 -0.09177448713
704.375 -0.04018458251 -0.05704788508
705.0 -0.03079788893 -0.0860362645
705.625 0.03042626428 -0.07058994471
706.25 0.04908289472 -0.03464403685
706.875 0.05736908137 0.008392114586
707.5 -0.001373227245 0.07752310138
708.125 -0.04570176441 0.08319420875
708.75 -0.07081679488 0.07080685737
709.375 -0.08817533939 0.04472828784
710.0 -0.07026442366 -0.03826664387
710.625 -0.07295198382 -0.05118299071
711.25 -0.06424447543 -0.08085053916
711.875 -0.0942811217 -0.06185605546
712.5 -0.06485530869 -0.02139058434
713.125 -0.04428005777 0.02708919323
713.75 -0.03905523491 0.0351131021
714.375 -0.01857663589 0.07117296288
715.0 -0.04232725839 0.05109440384
715.625 -0.0289353203 0.06166090847
716.25 -0.0717364259 0.0741039887
716.875 -0.118638797 0.02561138372
717.5 -0.09627490498 -0.008329969037
718.125 -0.06142430277 -0.05749713115
718.75 -0.0569850765 -0.06355096177
719.375 -0.03806406754 -0.07428172056
720.0 0.002359349488 -0.08127063306
720.625 0.04818133965 -0.04435027237
721.25 0.03484114733 0.0235133383
721.875 -0.0115668407 0.03006207761
722.5 -0.01827127503 0.0303910515
723.125 -0.06467573013 0.06114766298
723.75 -0.0195433026 0.1096216409
724.375 0.06606908919 0.05006839145
725.0 0.06065488387 -0.02525556216
725.625 0.07393507287 -0.03292753604
726.25 0.06046188237 -0.0352226132
726.875 0.04900736544 -0.0268113222
727.5 0.04386735169 0.001276195107
728.125 0.0310965397 0.01087950374
728.75 -0.00752891533 0.08465037005
729.375 0.03249762091 0.06390308494
730.0 0.0344548776 0.03139490484
730.625 0.01560846867 0.03436706144
731.25 -0.01928620221 0.04680870221
731.875 -0.04362421408 0.02700112192
732.5 -0.05919595646 0.002934224072
733.125 -0.05619032788 -0.02499907446
733.75 -0.03677353264 -0.009582850083
734.375 -0.02947427748 -0.03444721039
735.0 -0.04501928393 -0.02544009512
735.625 0.0008537269205 -0.008122489399
736.25 -0.05345950035 -0.009798294336
736.875 -0.05986525514 -0.02109794425
737.5 -0.0681895676 -0.02735839635
738.125 -0.06179410863 -0.01988829821
738.75 -0.05123531325 -0.01618960014
739.375 -0.01581702237 -0.01706236927
740.0 -0.002670162059 -0.02967786466
740.625 -0.02776481614 -0.03936169412
741.25 0.001750379685 -0.01850147994
741.875 0.006884244598 -0.06445004467
742.5 0.03619976383 0.007633806817
743.125 0.007933481113 0.03640300211
743.75 -0.03855106409 0.009318403121
744.375 -0.03168655822 0.03992878854
745.0 -0.0359953655 0.03924705539
745.625 -0.03470737692 0.06058624276
746.25 -0.03024478844 0.06867113004
746.875 0.06663762601 0.05573921153
747.5 0.04298291186 0.007885509011
748.125 0.01711438809 0.003306512721
748.75 0.02048187413 0.003025502994
749.375 0.03347179284 0.003898997412
750.0 -0.01142817238 -0.03132768766
