!Created with skrf (http://scikit-rf.org).
# GHz S RI R 50.0 
!freq ReS11 ImS11
500.0 -0.01101053137 0.02457329336
500.625 0.02578702494 0.02313412509
501.25 0.03685522451 0.02004773018
501.875 0.0150291158 0.04843293768
502.5 0.00843240975 0.04394136867
503.125 0.03465559043 0.04277936493
503.75 0.04543742033 0.02529447888
504.375 0.04401278827 -0.009531317284
505.0 0.05048841841 -0.02501281782
505.625 0.06253955865 -0.03871110659
506.25 0.04309828069 -0.04917730282
506.875 0.05977585438 -0.04083984895
507.5 0.03979583416 -0.05055697801
508.125 0.07510596437 -0.02816462252
508.75 0.06598634386 -0.04570512181
509.375 0.005067339756 -0.05945072585
510.0 0.04635312713 -0.04458318199
510.625 -0.01119001212 -0.0669199729
511.25 -0.02708345643 -0.06363571428
511.875 -0.05175191329 -0.01242269023
512.5 -0.03561722851 0.004935663981
513.125 -0.02820879615 0.03011782805
513.75 -0.04076703111 0.04282182181
514.375 -0.01067295772 0.05613761141
515.0 0.01113813526 0.07370433374
515.625 -0.04566387888 0.09257722337
516.25 0.01814781673 0.1189428676
516.875 -0.02415043977 0.1148359858
517.5 0.05132791713 0.09525067028
518.125 -0.05869435069 0.113112868
518.75 0.02014710584 0.05482842674
519.375 0.005471379343 0.07464410602
520.0 0.04266506277 0.06965253966
520.625 0.05561598708 0.04850705092
521.25 0.05679763309 0.03948070754
521.875 0.0407215819 0.0363262408
522.5 0.06464142834 0.0008839328177
523.125 0.1175425182 -0.01058710395
523.75 0.1202402833 -0.02814149801
524.375 0.07144502158 -0.06529407451
525.0 0.0006548006087 -4.109037923e-05
525.625 0.001739352059 0.02819131003
526.25 0.01130850389 0.03524848176
526.875 0.01556029152 0.03292096675
527.5 0.02577165593 0.02966043822
528.125 0.04333337109 0.008820304173
528.75 0.07048199074 -0.003432782042
529.375 0.04363398018 -0.03509362327
530.0 0.02185278201 -0.02286137282
530.625 0.002250628396 -0.09461073221
531.25 0.005658480529 -0.127020743
531.875 -0.04844784252 -0.1413914665
532.5 -0.08540792266 -0.07657934747
533.125 -0.0759689058 -0.06012104583
533.75 -0.07139787113 -0.06566703481
534.375 -0.06872414239 -0.04279183634
535.0 -0.05987545549 -0.02132904607
535.625 -0.03010728038 -0.03641827471
536.25 -0.02913898472 -0.03006862594
536.875 -0.03876167237 -0.0566176339
537.5 -0.04627475484 -0.08187061265
538.125 -0.07737919679 -0.07048471505
538.75 -0.05444509668 -0.02615806594
539.375 -0.03338115761 -0.04475105478
540.0 -0.04819502743 -0.09278832378
540.625 -0.06855248177 -0.1212671172
541.25 -0.03668810383 -0.06791256294
541.875 -0.04082568077 -0.07445045658
542.5 -0.05151181787 -0.08900655469
543.125 -0.1019690095 -0.0707400222
543.75 -0.08489362833 0.02171826872
544.375 -0.06183961133 0.0377068125
545.0 -0.03092761586 0.05175496282
545.625 -0.01610509079 0.0599999263
546.25 0.01070115294 0.08280481091
546.875 0.01878337298 0.05834094934
547.5 0.01274447226 0.09109406258
548.125 0.001139559046 0.0816546914
548.75 -0.00219598417 0.05233304684
549.375 -0.02155604011 0.06988626126
550.0 -0.03898230131 0.02469680996
550.625 -0.01958085881 -0.002165769505
551.25 -0.026144901 -0.03454318314
551.875 -0.05029758557 -0.04604658723
552.5 -0.07434119215 -0.05134074265
553.125 -0.07648836008 -0.02419002302
553.75 -0.07358414352 -0.02682448067
554.375 -0.09471332926 0.002207681241
555.0 -0.0962127148 0.01991988417
555.625 -0.07691193578 0.03121308692
556.25 -0.09170171021 0.02601061798
556.875 -0.07949362112 0.01235730417
557.5 -0.08484368857 0.02812486252
558.125 -0.07325130554 0.02812181137
558.75 -0.07558769824 0.006245031519
559.375 -0.0411956382 0.0009721986051
560.0 -0.02855413194 -0.006526907682
560.625 -0.03426913896 -0.0308227238
561.25 -0.06648497124 -0.03553069327
561.875 -0.07323981677 -0.02286668916
562.5 -0.06985996874 0.01396593296
563.125 -0.07161364451 0.05582458865
563.75 -0.05832251752 0.08787026109
564.375 -0.02672752291 0.08377413743
565.0 -0.01958762496 0.07978346027
565.625 -0.0162466701 0.06504227258
566.25 -0.04702556061 0.05386598724
566.875 -0.04892433272 0.01728527101
567.5 -0.05606167423 0.01393270421
568.125 -0.05707157186 0.01052590356
568.75 -0.0535915834 0.005233547983
569.375 -0.01716597653 -0.0161501322
570.0 -0.02072990003 -0.03298266244
570.625 -0.03926517522 -0.04733149522
571.25 -0.04757529043 -0.03438656043
571.875 -0.04243556504 -0.04316842342
572.5 -0.08243898179 -0.01977399888
573.125 -0.1047039806 0.01728267518
573.75 -0.06254322168 0.06894615462
574.375 -0.03693901676 0.05042043282
575.0 -0.04895087648 0.05406234054
575.625 -0.05608939752 0.06764509175
576.25 -0.03331019973 0.07573060791
576.875 -0.01052613258 0.07417338997
577.5 -0.00847877011 0.07171916245
578.125 -0.01724115831 0.05228497098
578.75 -0.009653219555 0.04776125664
579.375 -0.01604388475 0.02894600084
580.0 -0.01998962678 0.02375484017
580.625 -0.03132645361 0.005521955575
581.25 -0.05058670189 0.01746647705
581.875 -0.07377233079 0.01916916312
582.5 -0.077156863 0.03905454037
583.125 -0.06127518808 0.05493734097
583.75 -0.06071799592 0.03694485374
584.375 -0.06906362424 0.02046354911
585.0 -0.07325123216 0.00633354874
585.625 -0.06204570706 0.02335352298
586.25 -0.05728513 0.02663621149
586.875 -0.05663192778 -0.008816462226
587.5 -0.0573225894 0.01351588064
588.125 -0.02691848737 0.04855456834
588.75 -0.01983333386 0.04538293133
589.375 -0.03167165772 0.01891113732
590.0 -0.0453768717 0.02116204853
590.625 -0.04400429617 0.05189032146
591.25 -0.03945202595 0.0813546578
591.875 -0.01595011542 0.09548956429
592.5 -0.005889650412 0.07185765761
593.125 0.004289850341 0.05898513136
593.75 -0.009279739319 0.06682359213
594.375 -0.02793183414 0.04840679789
595.0 -0.03028685364 0.02694091171
595.625 -0.03200041692 0.002816670102
596.25 -0.03628940509 -0.01541121164
596.875 -0.03724846397 -0.008913643676
597.5 -0.02937282996 -0.02264121154
598.125 -0.02523518243 -0.01039609331
598.75 -0.01880208275 -0.009165027401
599.375 -0.006575194903 -0.04631796057
600.0 -0.02078320517 -0.05885242891
600.625 -0.02491327542 -0.07341833759
601.25 -0.04507506979 -0.06304481385
601.875 -0.05008651432 -0.0452119939
602.5 -0.05453109075 -0.03496474321
603.125 -0.05408173173 -0.03318960795
603.75 -0.03521255062 -0.0238249795
604.375 -0.02527924953 -0.007419474097
605.0 0.006723389047 -0.05029889757
605.625 -0.002511480561 -0.04977103826
606.25 -0.005635132895 -0.03722977305
606.875 -0.02307411197 -0.01088083997
607.5 0.008306946067 -0.004218113285
608.125 0.02823245557 -0.01840422508
608.75 0.01876847285 -0.01624251839
609.375 0.01292028473 -0.002544608934
610.0 0.06773943254 -0.01127537273
610.625 0.05187928386 -0.01627913928
611.25 0.05372025025 -0.02218451207
611.875 0.02723932975 -0.01888622176
612.5 0.04157718732 -0.007784005705
613.125 0.01946853288 -0.007324125341
613.75 0.008791485877 0.003586325225
614.375 0.0174431606 0.0162370777
615.0 0.01142156619 0.0093538456
615.625 0.01983222131 0.01348734916
616.25 0.02467301014 0.02486831762
616.875 0.01641922701 0.03229541407
617.5 0.01337421396 0.02881473801
618.125 0.02298010693 0.03045818785
618.75 0.03046087178 0.03430184495
619.375 0.01567462143 0.03561677211
620.0 0.02560542571 0.03421780472
620.625 0.03113947229 0.009551797325
621.25 0.01536626081 -0.009905501301
621.875 -0.002916297632 -0.01513354976
622.5 -0.04336335959 0.008174023666
623.125 -0.01563803289 0.04396386025
623.75 -0.01066538504 0.05745969903
624.375 -0.03399263172 0.04431670437
625.0 -0.060193749 0.0209707677
625.625 -0.03605439052 0.06994720538
626.25 -0.03569461255 0.06462823496
626.875 -0.02179877142 0.0641520422
627.5 -0.02813354988 0.02811343509
628.125 -0.0323080421 0.03507393593
628.75 -0.03110610347 0.01723063484
629.375 -0.02446432959 0.009633376877
630.0 -0.008590751989 0.005155728431
630.625 -0.01041524267 -0.003715507924
631.25 -0.007024882753 -0.02462418096
631.875 -0.00976696695 -0.04665925234
632.5 -0.007751161439 -0.07062679075
633.125 -0.02026779087 -0.05995599681
633.75 -0.02469883592 -0.05485134075
634.375 -0.02279609348 -0.06321524809
635.0 -0.03854576553 -0.05927030995
635.625 -0.03929293036 -0.0570387264
636.25 -0.04763432209 -0.01162204002
636.875 -0.01833126026 -0.0375071144
637.5 -0.02381686885 -0.06378473697
638.125 -0.0332891766 -0.05103885109
638.75 -0.03867785531 -0.01913196224
639.375 0.007395942405 -0.0224838961
640.0 0.05796332058 -0.01811821825
640.625 0.05500622837 -0.01976671005
641.25 0.05719637019 -0.02993690638
641.875 0.05088877251 -0.02576867009
642.5 0.0551251788 -0.01099436599
643.125 0.0683660587 0.01657278866
643.75 0.05750881154 -0.009178908729
644.375 0.05431928947 -0.01170707187
645.0 0.04769105581 -0.004370199177
645.625 0.04098928321 0.0172094228
646.25 0.05578161304 0.02165393854
646.875 0.06959239663 0.02171871256
647.5 0.05783353373 0.01465201397
648.125 0.05160750841 0.01852183739
648.75 0.05580372774 0.05942837966
649.375 0.04968580625 0.06181278698
650.0 0.0437851148 0.05917198257
650.625 0.04175245329 0.06058401293
651.25 0.008621424839 0.0869716563
651.875 -0.0006842809783 0.06118970296
652.5 -0.02157318768 0.05011785591
653.125 -0.02132494045 0.0421489438
653.75 -0.04756809629 0.00658451544
654.375 -0.02560137464 -0.02877259554
655.0 -0.02933750788 -0.05059189659
655.625 -0.05056630535 -0.0588415205
656.25 -0.08584711419 -0.06627782967
656.875 -0.06480613342 -0.02493816041
657.5 -0.07195014203 -0.04359143837
658.125 -0.09527895135 -0.04852075516
658.75 -0.1122655057 -0.03521409619
659.375 -0.07935543943 0.02280647132
660.0 -0.06552184726 0.03669605978
660.625 -0.06510362259 0.03202421662
661.25 -0.05491376299 0.02214457494
661.875 -0.04457245651 0.0359263592
662.5 -0.04118571131 0.03136967629
663.125 -0.05654992454 0.01768388915
663.75 -0.07234504633 -0.02740216929
664.375 -0.04529182596 -0.04840965757
665.0 -0.02058042128 -0.07684557268
665.625 0.01042776216 -0.1065310062
666.25 0.0321016274 -0.0970171607
666.875 0.03737494355 -0.08610486197
667.5 0.04654620985 -0.0754903922
668.125 0.05581020472 -0.06224468969
668.75 0.04171814723 -0.04728688356
669.375 0.03206594832 -0.02033449157
670.0 0.06049522667 -0.02262409747
670.625 0.07123722259 -0.02137394058
671.25 0.06356056161 -0.04255928748
671.875 0.04977620812 -0.02941980678
672.5 0.05416752073 -0.08523937944
673.125 0.02117135395 -0.09430457635
673.75 0.002316018103 -0.107540691
674.375 0.02200273688 -0.08231286872
675.0 0.05528319438 -0.05566330185
675.625 0.05788011553 -0.03348886069
676.25 0.07564687531 -0.01855831313
676.875 0.05579847694 0.01149280144
677.5 0.02929789648 0.03610132124
678.125 0.03010381147 0.04599996342
678.75 0.0599268478 0.07172683225
679.375 0.04151365827 0.08756639663
680.0 0.05344324878 0.08317330562
680.625 0.07840046661 0.05880153872
681.25 0.1009476165 0.03173945082
681.875 0.1309492957 0.002588843946
682.5 0.08230837783 -0.02991342963
683.125 0.05676059694 -0.02815075947
683.75 0.06537463751 -0.007418272736
684.375 0.06927172034 0.05236522154
685.0 0.008789426294 0.05933559002
685.625 -0.03354762464 0.03685767192
686.25 -0.06306126313 0.01327139682
686.875 -0.08967476607 -0.02283983078
687.5 -0.07831400651 -0.04487174905
688.125 -0.1093530301 -0.06104500675
688.75 -0.1069229501 -0.07032116527
689.375 -0.08802605322 -0.05763278873
690.0 -0.08933403066 -0.0470509402
690.625 -0.09470766455 -0.04778826239
691.25 -0.09750453572 -0.03778871595
691.875 -0.05586282681 0.01757707767
692.5 -0.03941035133 0.03892177475
693.125 -0.04779419464 0.05328203371
693.75 -0.01157069122 0.112941393
694.375 0.01302672791 0.09338689254
695.0 -0.0110195831 0.1062630091
695.625 -0.09069902878 0.08028927729
696.25 -0.1089834424 -0.04882281239
696.875 -0.02748167068 -0.1061308347
697.5 0.03101427592 -0.09508023983
698.125 0.04863013388 -0.08665826043
698.75 0.03961608919 -0.04305281584
699.375 0.05427230518 -0.03572540433
700.0 0.08156127806 -0.02064987342
700.625 0.05907987731 0.03169141462
701.25 0.06073092431 0.03090653088
701.875 0.09641844362 0.0163931023
702.5 0.1371452285 -0.03689825209
703.125 0.09131020517 -0.09769335685
703.75 -0.01152835193 -0.08014639633
704.375 -0.0357334429 -0.05874387895
705.0 -0.0313615251 -0.0798042813
705.625 0.01551313779 -0.08832666034
706.25 0.05008041366 -0.03057578109
706.875 0.05050485013 0.02002178425
707.5 0.03501664678 0.06688412349
708.125 -0.02778561379 0.0898819681
708.75 -0.06378301778 0.07482445051
709.375 -0.09038361884 0.03208297553
710.0 -0.08595690649 -0.02246345687
710.625 -0.0759002163 -0.04445025204
711.25 -0.07720776152 -0.07585148429
711.875 -0.07477021523 -0.06108682328
712.5 -0.07907231934 -0.00529428906
713.125 -0.04202213906 0.04735225724
713.75 -0.01676011041 0.0563755274
714.375 -0.04852967358 0.05985993232
715.0 -0.03425182623 0.05842811811
715.625 -0.02938399917 0.06249247238
716.25 -0.0422125016 0.0759633726
716.875 -0.123835023 -0.003183498803
717.5 -0.09154483629 -0.02291158829
718.125 -0.07989400032 -0.03168567164
718.75 -0.06559465459 -0.05044709718
719.375 -0.06112338913 -0.06405111059
720.0 0.03000122894 -0.07537795793
720.625 0.05640446486 -0.03295408259
721.25 0.04823481258 0.01667452485
721.875 -0.01464812682 0.03548746343
722.5 -0.04591358947 0.02691145773
723.125 -0.05213255531 0.05886111469
723.75 0.002944173701 0.09734508099
724.375 0.06771892088 0.03148506147
725.0 0.07941187539 -0.006803783721
725.625 0.08847203158 -0.02766940588
726.25 0.0612664005 -0.03386614738
726.875 0.03346694754 -0.04293094328
727.5 0.05267703342 0.03183295971
728.125 0.03031781233 0.04877507816
728.75 0.02195706505 0.04372572501
729.375 0.03463030254 0.041934982
730.0 0.02976178022 0.01008989124
730.625 0.009236836705 0.07318775143
731.25 -0.02730639978 0.06178082835
731.875 -0.04005019755 0.03168843152
732.5 -0.0324826538 0.009699207891
733.125 -0.05159503066 -0.03263499031
733.75 -0.0494791625 -0.02801960572
734.375 -0.02918781381 -0.01599090995
735.0 -0.01093575886 -0.003300262143
735.625 -0.03402636744 -0.01248025547
736.25 -0.04683499443 -0.005966783726
736.875 -0.04382968238 -0.02111410493
737.5 -0.04746388997 -0.02711675303
738.125 -0.08805067506 -0.04368924846
738.75 -0.06401323243 -0.02963615794
739.375 -0.01820822468 -0.01689202525
740.0 0.02057850336 -0.01289680879
740.625 -0.02672723495 -0.04187142777
741.25 -0.0230528336 -0.0287718966
741.875 0.004748517282 -0.02432534454
742.5 0.02118909585 0.0108526863
743.125 0.002893520027 0.03010789223
743.75 -0.02177869356 0.02181996979
744.375 -0.03834551371 0.02091822939
745.0 -0.04903959244 0.01402382576
745.625 -0.035372298 0.07456958886
746.25 -0.004623807381 0.07650505383
746.875 0.05143930043 0.04229145224
747.5 0.03699656472 0.009827959274
748.125 0.008613966788 0.01761481805
748.75 0.039482432 -0.01494065765
749.375 0.02465943627 -0.01318635979
750.0 0.004578324693 -0.0320575916
