!Created with skrf (http://scikit-rf.org).
# GHz S RI R 50.0 
!freq ReS11 ImS11
500.0 -0.01752376504 0.02302296461
500.625 0.01633935024 0.04337990116
501.25 0.02987942012 0.02491416019
501.875 0.01809483926 0.02829166616
502.5 0.001450208709 0.05692227169
503.125 0.03563808547 0.02257858538
503.75 0.04459817941 0.01107730297
504.375 0.04679821465 0.001557665765
505.0 0.06482077741 -0.0162641864
505.625 0.04625854859 -0.05675739104
506.25 0.04810670751 -0.04766613528
506.875 0.06218838592 -0.04221814836
507.5 0.06862689602 -0.02831701094
508.125 0.07288673892 -0.01987012793
508.75 0.0436658917 -0.05009431291
509.375 0.04529234272 -0.04168284428
510.0 0.08891193518 -0.02314541582
510.625 -0.01765439467 -0.06226102757
511.25 -0.03628748634 -0.04995146818
511.875 -0.05043664743 -0.01393105126
512.5 -0.03928985376 -0.009046374334
513.125 -0.01077345084 0.03759487477
513.75 -0.02546157034 0.03416781852
514.375 -0.02733773112 0.06090429395
515.0 0.009190265287 0.0849602623
515.625 -0.05825036977 0.08850394394
516.25 0.01430468439 0.1046427712
516.875 -0.05516981808 0.1159398126
517.5 0.02236672805 0.1136840218
518.125 -0.06153181564 0.1011585426
518.75 0.02137745794 0.05175075803
519.375 -0.01440509611 0.08889607607
520.0 0.05436214732 0.04964404426
520.625 0.05288838588 0.0526042945
521.25 0.05365703171 0.03427779849
521.875 0.03080050074 0.05069740828
522.5 0.06367900224 0.01550209911
523.125 0.1156130789 -0.005057816793
523.75 0.09397407746 -0.04599634281
524.375 0.04891871664 -0.001499306587
525.0 0.001177356169 0.000931386301
525.625 0.001201396413 0.01900335568
526.25 0.003885718595 0.04134225766
526.875 0.01282583099 0.0509552621
527.5 0.01792097668 0.01786810047
528.125 0.04366802371 0.0110995891
528.75 0.07059945523 0.001375287256
529.375 0.0614649174 -0.03290685368
530.0 0.02597375935 -0.02081835564
530.625 0.01771500614 -0.0767972545
531.25 0.03311661006 -0.1731738692
531.875 -0.04490425873 -0.1714529238
532.5 -0.07397822203 -0.06149105606
533.125 -0.0695656803 -0.06318250888
533.75 -0.06852488004 -0.06208974676
534.375 -0.07361942537 -0.0561578425
535.0 -0.05883533579 -0.01838832944
535.625 -0.02602648232 -0.03947864257
536.25 -0.03056865968 -0.03750020869
536.875 -0.04498267752 -0.07233462276
537.5 -0.03523117453 -0.08631058005
538.125 -0.05904508377 -0.06040921348
538.75 -0.05374624568 -0.03379916415
539.375 -0.03989485313 -0.06190194151
540.0 -0.0299372082 -0.07367432403
540.625 -0.0447321018 -0.1015597463
541.25 -0.03496783358 -0.09611415156
541.875 -0.04813323467 -0.09270798688
542.5 -0.04810057418 -0.09754472539
543.125 -0.08527481054 -0.06284579494
543.75 -0.0962654917 0.01160251609
544.375 -0.07122170555 0.03385462382
545.0 -0.03041484679 0.04819128338
545.625 -0.02018627862 0.05823273372
546.25 0.001793033017 0.07483723453
546.875 0.01176966426 0.06968801683
547.5 0.007397704737 0.06583056455
548.125 -0.001356965061 0.06274020173
548.75 -0.01873245996 0.06928661467
549.375 -0.0361046425 0.07871996383
550.0 -0.03002006269 0.01894695255
550.625 -0.01939462023 -0.007329143251
551.25 -0.02146970602 -0.04153397691
551.875 -0.061514463 -0.05028081018
552.5 -0.05025757965 -0.05225399324
553.125 -0.0686395399 -0.03208225609
553.75 -0.07511566087 -0.03185844408
554.375 -0.1042245497 0.0008929443337
555.0 -0.08475014839 0.01008199896
555.625 -0.0770952696 0.02665501327
556.25 -0.08634967804 0.01185474914
556.875 -0.09543445512 0.01085913578
557.5 -0.09445619733 0.02970771711
558.125 -0.06825663903 0.02105465338
558.75 -0.06960190574 -0.0004928932472
559.375 -0.04504501384 -0.004920364387
560.0 -0.01284237304 -0.01124573783
560.625 -0.03214904366 -0.03747473662
561.25 -0.06071270251 -0.04308920693
561.875 -0.07778004729 -0.02577884051
562.5 -0.07899414962 0.01962247738
563.125 -0.07420569984 0.05122003855
563.75 -0.05981251497 0.07762580413
564.375 -0.03076821775 0.08796246336
565.0 -0.02188024883 0.05888341844
565.625 -0.02042423829 0.06248418813
566.25 -0.04856529878 0.03916466278
566.875 -0.05622846477 0.01889984656
567.5 -0.06538118984 0.01767829901
568.125 -0.06031706296 0.003391974385
568.75 -0.03881638708 -0.004475312893
569.375 -0.02644607093 -0.01912998675
570.0 -0.02913271067 -0.03478628766
570.625 -0.03544594969 -0.05365603792
571.25 -0.04195773606 -0.04109285936
571.875 -0.05867615605 -0.0378169931
572.5 -0.09273887358 -0.01317182235
573.125 -0.1099457965 0.0123820615
573.75 -0.06430041624 0.05261127094
574.375 -0.03968393919 0.06417468825
575.0 -0.04850549534 0.0683684292
575.625 -0.05865906039 0.06158986207
576.25 -0.03823050996 0.06887260403
576.875 -0.01210312398 0.08139074911
577.5 -0.01233099156 0.0677480307
578.125 -0.02074290465 0.04961321274
578.75 -0.01641937574 0.04073649235
579.375 -0.01688718845 0.0371464872
580.0 -0.02006402446 0.03632265485
580.625 -0.03512367946 0.002571041498
581.25 -0.05916778438 0.001181115807
581.875 -0.07465529403 0.02641873294
582.5 -0.07757578844 0.05020130977
583.125 -0.0691874571 0.02588344072
583.75 -0.06149670379 0.02389662735
584.375 -0.07067861472 0.01259988656
585.0 -0.07809280608 0.007904178827
585.625 -0.06143844121 0.00424862927
586.25 -0.05631820659 0.0004768478912
586.875 -0.05917883557 0.001847498429
587.5 -0.05945632635 0.02251279983
588.125 -0.03964843381 0.02861868445
588.75 -0.03132203909 0.03205733372
589.375 -0.03929615343 0.01765800464
590.0 -0.04074901885 0.02525710502
590.625 -0.05892692074 0.04750109127
591.25 -0.04385472908 0.07939286376
591.875 -0.02448948622 0.09292587742
592.5 -0.00256236275 0.0752299331
593.125 -0.0116875404 0.05780675347
593.75 -0.0163290684 0.05394556977
594.375 -0.03046512025 0.0410261955
595.0 -0.02768096174 0.03802789374
595.625 -0.02672961947 -0.005356351479
596.25 -0.03398330395 -0.0195811015
596.875 -0.03489749688 -0.0186409921
597.5 -0.03300590887 -0.01720885962
598.125 -0.008693883298 -0.03854197529
598.75 -0.01191800809 -0.03330605076
599.375 -0.01183836381 -0.03950512561
600.0 -0.02028672672 -0.03870188672
600.625 -0.01374595087 -0.08911029364
601.25 -0.03548829224 -0.06959932265
601.875 -0.04860132672 -0.0485212785
602.5 -0.0555053197 -0.02632067971
603.125 -0.03647912152 -0.04285913172
603.75 -0.03106943651 -0.02301948408
604.375 -0.01357460572 -0.02437415352
605.0 -0.007797972832 -0.03044536341
605.625 -0.01953645068 -0.03081513107
606.25 0.008182113349 -0.04058765393
606.875 0.002830188718 -0.01952678747
607.5 0.01301234781 -0.004702017667
608.125 0.009213193244 -0.003622901719
608.75 0.02216364953 -0.01524094478
609.375 0.03014519304 -0.01417520488
610.0 0.04120760034 -0.005986937113
610.625 0.03074221805 -0.007665716953
611.25 0.06199059623 -0.02059708496
611.875 0.0586485995 -0.01414159535
612.5 0.03828103675 -0.006262893639
613.125 0.002539693663 -0.009867028742
613.75 0.02581497472 0.01740792833
614.375 0.01559153399 0.02024923384
615.0 0.01014772521 0.0103188261
615.625 0.007651916653 0.007604417522
616.25 -0.007887362919 0.01599382749
616.875 0.0126944879 0.03287701059
617.5 0.01394435781 0.04208375715
618.125 0.005845458736 0.02188480918
618.75 0.01137653706 0.03121148758
619.375 0.01194289414 0.03693312146
620.0 0.02762258202 0.03819290895
620.625 0.01099184378 -0.001515109646
621.25 0.03045051818 0.0144453773
621.875 -0.007900942133 -0.01714604738
622.5 -0.03742300369 0.01467355249
623.125 -0.03497886347 0.03983733566
623.75 -0.03390545168 0.05485444594
624.375 -0.03742636966 0.0444718901
625.0 -0.04364063612 0.02889935728
625.625 -0.05449283648 0.03783467404
626.25 -0.05420088575 0.04054313685
626.875 -0.01839794327 0.06757273051
627.5 -0.01350230883 0.0489209884
628.125 -0.03015146269 0.02699279258
628.75 -0.02898961327 -0.01234919169
629.375 -0.02604346595 0.02852195172
630.0 -0.008410511325 -0.0001222268683
630.625 -0.003606193997 -0.02656720611
631.25 0.01593019286 -0.05102573563
631.875 -0.008357916354 -0.03865020148
632.5 -0.01712074973 -0.04838449141
633.125 -0.01500327111 -0.06372429975
633.75 -0.01278430077 -0.07087525582
634.375 -0.03634460221 -0.05466204201
635.0 -0.03526758691 -0.06298239259
635.625 -0.03812945074 -0.04230923336
636.25 -0.0276828038 -0.03269203662
636.875 -0.004783762835 -0.06401941044
637.5 -0.03952771423 -0.04862591594
638.125 -0.03788695509 -0.04356223992
638.75 -0.02611565945 -0.02222410024
639.375 0.02606390477 -0.02997544069
640.0 0.03273657027 -0.02299454571
640.625 0.05426432511 -0.01798675789
641.25 0.05784172792 -0.02653619646
641.875 0.06873445277 -0.01644960791
642.5 0.05061549181 -0.002275967215
643.125 0.05105757743 0.008604667205
643.75 0.05894568309 0.002586021858
644.375 0.07266682699 0.009157002487
645.0 0.03366606433 -0.01040749685
645.625 0.03760074444 0.02021773529
646.25 0.05418657179 0.02301164674
646.875 0.07519472784 0.0408046983
647.5 0.05740952304 0.01514679788
648.125 0.04965132568 0.02662635105
648.75 0.04445239939 0.06197376701
649.375 0.04123764096 0.08065140894
650.0 0.03784995079 0.07067881089
650.625 0.03251208586 0.06650777639
651.25 0.002837428868 0.0717274533
651.875 -0.03029249406 0.06140627607
652.5 -0.03725891406 0.05019815973
653.125 -0.0167766045 0.03396654695
653.75 -0.03655565467 -0.006350797227
654.375 -0.02885093268 -0.04249381425
655.0 -0.01526320453 -0.04253365917
655.625 -0.04549199544 -0.06504167171
656.25 -0.06676229609 -0.07077124471
656.875 -0.07420016475 -0.04600054531
657.5 -0.08455264256 -0.05923750233
658.125 -0.07477783239 -0.04246631888
658.75 -0.09475051998 -0.03517097552
659.375 -0.08203816795 0.0168105633
660.0 -0.07703114588 0.02769080495
660.625 -0.0438788411 0.0250959805
661.25 -0.05287650062 0.01144562869
661.875 -0.04702051461 0.02762284273
662.5 -0.05644320432 0.03210314845
663.125 -0.06164057882 0.002207903244
663.75 -0.05757233275 -0.03121177417
664.375 -0.04570258104 -0.06249303305
665.0 -0.02332890525 -0.1013696184
665.625 0.0204995576 -0.106709082
666.25 0.03353946487 -0.0866871948
666.875 0.05184206454 -0.08863196899
667.5 0.06148273506 -0.0781376353
668.125 0.05816970052 -0.05169159127
668.75 0.04477838063 -0.03827463297
669.375 0.05264589973 -0.02446173675
670.0 0.08248022174 -0.02821308451
670.625 0.07113012946 -0.01445004957
671.25 0.05697153008 -0.02185217682
671.875 0.07274914713 -0.03928498783
672.5 0.06491086017 -0.09727343584
673.125 0.03228607357 -0.09450277213
673.75 0.01227134832 -0.1018219668
674.375 0.03566271927 -0.08475057548
675.0 0.05541928497 -0.04334368156
675.625 0.06066441979 -0.02707448442
676.25 0.06311062901 -0.007783729752
676.875 0.06578309024 0.02776835483
677.5 0.03099790058 0.04210640698
678.125 0.02891600627 0.05387508433
678.75 0.03613570322 0.0793913404
679.375 0.0549314872 0.1099021408
680.0 0.0528787004 0.09440759644
680.625 0.05703378039 0.05851863743
681.25 0.0967719732 0.04257449146
681.875 0.1135030204 0.01920839816
682.5 0.08934975971 -0.02085879695
683.125 0.0747030311 -0.0281869757
683.75 0.06692208916 0.005263410921
684.375 0.03948309633 0.05219543709
685.0 0.007279910911 0.05465357007
685.625 -0.04621242048 0.04912492081
686.25 -0.0594762888 -0.01546241855
686.875 -0.07659653915 -0.04211846953
687.5 -0.0937557749 -0.05165864224
688.125 -0.1222876479 -0.0644474736
688.75 -0.07380416463 -0.07422075265
689.375 -0.07125554581 -0.05904813122
690.0 -0.07483443075 -0.04958472334
690.625 -0.1005186639 -0.05989483554
691.25 -0.06118495367 -0.03721360708
691.875 -0.05285478124 0.009884830834
692.5 -0.04600573454 0.02889100766
693.125 -0.04720437116 0.07406324186
693.75 -0.01420133099 0.1300504554
694.375 -0.00126328582 0.09707358234
695.0 -0.02969861107 0.09500860541
695.625 -0.09582818536 0.05874310096
696.25 -0.1142859623 -0.05492586918
696.875 -0.02523042974 -0.1105150023
697.5 0.04316211654 -0.09275630623
698.125 0.05701296352 -0.06331954286
698.75 0.04425613686 -0.04508791893
699.375 0.05808133015 -0.003558043358
700.0 0.07618179682 0.01072035358
700.625 0.06089375937 0.03633606299
701.25 0.06482108018 0.03042598241
701.875 0.08350113853 0.05160260448
702.5 0.1376928757 -0.01380841792
703.125 0.09422203824 -0.08062999176
703.75 -0.01664555069 -0.08880674233
704.375 -0.05257247516 -0.06329237848
705.0 -0.01093414925 -0.08709778155
705.625 0.03741917916 -0.06573537198
706.25 0.05390922071 -0.03296864285
706.875 0.05869953861 0.01253902255
707.5 -0.008979977247 0.0833570348
708.125 -0.04577583169 0.09060204921
708.75 -0.07513427426 0.06564930819
709.375 -0.09089164516 0.03859354674
710.0 -0.07652347904 -0.03363061529
710.625 -0.07197181556 -0.05207059565
711.25 -0.05943615722 -0.0827153051
711.875 -0.08854446441 -0.06479716137
712.5 -0.0520021295 -0.0240032878
713.125 -0.04381661975 0.02194411706
713.75 -0.03316856939 0.03321928599
714.375 -0.04152907945 0.06326826666
715.0 -0.03070165206 0.05617399825
715.625 -0.03590514014 0.0620412527
716.25 -0.09152002324 0.06611103326
716.875 -0.1180939492 0.0296232302
717.5 -0.09580642511 -0.01148366002
718.125 -0.06444176133 -0.04973580674
718.75 -0.06227110923 -0.06072517186
719.375 -0.04854518923 -0.07393735911
720.0 0.002472339191 -0.08042726599
720.625 0.04067967685 -0.05362100062
721.25 0.0416733938 0.02430268238
721.875 -0.01796172581 0.03000651101
722.5 -0.01805265436 0.02782309099
723.125 -0.09563541481 0.05166952124
723.75 -0.008435846865 0.09921636418
724.375 0.06237061972 0.03896371192
725.0 0.06866651881 -0.01310877878
725.625 0.05430821877 -0.04405779069
726.25 0.06498587248 -0.02167457746
726.875 0.05158984117 -0.01245290177
727.5 0.0364850239 -0.005983918338
728.125 0.02442917656 0.005639863095
728.75 -0.008658017399 0.07741497375
729.375 0.02972259069 0.04793626393
730.0 0.02700978766 0.01528094416
730.625 0.01034041326 0.04162794805
731.25 -0.005801794945 0.03116771348
731.875 -0.04300765311 0.0252542273
732.5 -0.06733613561 -0.01015254091
733.125 -0.04415974638 -0.02757272325
733.75 -0.02377122789 0.006539590968
734.375 -0.02195403844 -0.02220627049
735.0 -0.0183283824 -0.0252788532
735.625 -0.005100700562 -0.0074181982
736.25 -0.02421796115 -0.01697330176
736.875 -0.04343132573 -0.03171706232
737.5 -0.04947611918 -0.02494798942
738.125 -0.0559838876 -0.0238366737
738.75 -0.02761593176 -0.0007093246116
739.375 -0.003327238522 -0.01896709561
740.0 -0.0100305505 -0.05009204636
740.625 -0.01759409077 -0.04339621959
741.25 0.01381308105 -0.01683356019
741.875 0.01765070896 -0.04837035668
742.5 0.01942034228 0.01627013546
743.125 -0.002663942137 0.03594827988
743.75 -0.04324264323 -0.001840771459
744.375 -0.03468799072 0.05612109419
745.0 -0.03952696435 0.04091272209
745.625 -0.0510149795 0.05735840024
746.25 -0.03220897958 0.0638895678
746.875 0.03416636265 0.04862104723
747.5 0.0286891379 0.01377374101
748.125 0.01361979457 0.004477980961
748.75 0.01451131272 0.01809018002
749.375 0.03727977665 0.01133934918
750.0 -0.02023360114 -0.03590533953
