!Created with skrf (http://scikit-rf.org).
# GHz S RI R 50.0 
!freq ReS11 ImS11
500.0 -0.02780534103 0.02319805588
500.625 0.03303498906 0.02470113363
501.25 0.03876814742 0.01367989728
501.875 0.0220691175 0.02876090114
502.5 -0.002265036018 0.06098745417
503.125 0.03112018815 0.03879139214
503.75 0.04769662282 0.02285356344
504.375 0.05170358257 0.01364120398
505.0 0.05462108027 -0.02118911709
505.625 0.06478711678 -0.03775193727
506.25 0.0426563998 -0.04464443587
506.875 0.06766808258 -0.0256180304
507.5 0.03597674565 -0.06093674706
508.125 0.0688845394 -0.02327513075
508.75 0.03827806219 -0.05691207949
509.375 0.0624479012 -0.03925389183
510.0 0.04744548801 -0.0524372672
510.625 -0.002716439016 -0.06423921613
511.25 -0.0301828395 -0.0549161916
511.875 -0.04331845275 -0.02385790697
512.5 -0.03507175112 0.003141407775
513.125 -0.0256961217 0.0252799235
513.75 -0.01736464777 0.03730747152
514.375 -0.03240893976 0.0644524059
515.0 0.0004041739483 0.08358320117
515.625 -0.05257955649 0.08265944127
516.25 0.02036798004 0.09910940721
516.875 -0.07481885814 0.1168591042
517.5 0.05779354326 0.09118791959
518.125 -0.04772534097 0.1090312047
518.75 0.01048013405 0.05236429889
519.375 -0.005234923074 0.07348685766
520.0 0.038903072 0.06533303535
520.625 0.04722332347 0.05073691095
521.25 0.04965672528 0.03324967054
521.875 0.02319027988 0.05901374561
522.5 0.0619913056 0.005061281565
523.125 0.1036337863 -0.01903308178
523.75 0.08837242758 -0.06163118578
524.375 0.03822836878 0.02428851193
525.0 -0.002367851114 0.003855668858
525.625 -0.000722120709 0.02992435534
526.25 -0.003923456336 0.05498821829
526.875 0.01093355788 0.0303980555
527.5 0.02032933922 0.03072904408
528.125 0.04757164701 0.01840600511
528.75 0.0566452389 0.005129716001
529.375 0.04582815897 -0.02077573324
530.0 0.03130813532 -0.01781319469
530.625 0.01654080938 -0.07722175819
531.25 0.04268322361 -0.1843445013
531.875 -0.04260035013 -0.1338453969
532.5 -0.07038538587 -0.08147273482
533.125 -0.06877303852 -0.07636534674
533.75 -0.06013690256 -0.0753122771
534.375 -0.06257874949 -0.04719988918
535.0 -0.05525227294 -0.02693047254
535.625 -0.01942345491 -0.04424344868
536.25 -0.02758208761 -0.04913859064
536.875 -0.02583078841 -0.05346680041
537.5 -0.03349168063 -0.08809096292
538.125 -0.05626944574 -0.05684113113
538.75 -0.05182090213 -0.04535716969
539.375 -0.02127009513 -0.04275336598
540.0 -0.03398601927 -0.0987711888
540.625 -0.04058765869 -0.1096633273
541.25 -0.03113461397 -0.1027829378
541.875 -0.02868760186 -0.07044421681
542.5 -0.03574818719 -0.09558343834
543.125 -0.08450545084 -0.070343288
543.75 -0.1006240541 0.002257378778
544.375 -0.06069324545 0.02909002836
545.0 -0.0361943206 0.04282346493
545.625 -0.02534557392 0.0538393497
546.25 -0.002329950507 0.06534007641
546.875 0.005299036629 0.07798910712
547.5 -0.004300917638 0.0792580649
548.125 -0.00282392664 0.06440320236
548.75 -0.02648480358 0.07352973418
549.375 -0.02793078625 0.05509152475
550.0 -0.03657708921 0.0113620448
550.625 -0.02232061203 -0.01222107262
551.25 -0.01068636489 -0.04442157689
551.875 -0.04810991374 -0.06026563506
552.5 -0.0633533753 -0.05991118758
553.125 -0.07271324079 -0.03430239512
553.75 -0.0835341505 -0.03448140584
554.375 -0.1017204157 -0.006975907643
555.0 -0.09366358246 0.009528788982
555.625 -0.07430176958 0.01766113032
556.25 -0.08169809831 0.005996508658
556.875 -0.1008491406 0.008071952152
557.5 -0.0723333542 0.01548259492
558.125 -0.07042281632 0.01484407849
558.75 -0.05775638554 -0.006522454838
559.375 -0.03416576773 -0.006873102533
560.0 -0.02185388111 -0.01335610868
560.625 -0.02697929651 -0.04494477119
561.25 -0.05461651971 -0.05191470689
561.875 -0.07614345079 -0.03020983202
562.5 -0.07105765024 0.005238034667
563.125 -0.08057524561 0.04963245336
563.75 -0.06967979804 0.07667702967
564.375 -0.03135214522 0.07490813195
565.0 -0.02614930227 0.06947459499
565.625 -0.02683678602 0.05721263523
566.25 -0.05060315077 0.03165225633
566.875 -0.06079981803 0.01816178014
567.5 -0.04767641777 -0.001124677114
568.125 -0.05145692228 -0.004265363853
568.75 -0.04015705024 -0.005385135084
569.375 -0.03033047325 -0.02273154652
570.0 -0.00422877619 -0.04206157722
570.625 -0.02132306149 -0.05852462004
571.25 -0.03504291267 -0.04451624625
571.875 -0.06208571874 -0.03828111687
572.5 -0.07641631745 -0.0376510406
573.125 -0.1036799206 0.000602517494
573.75 -0.0627421116 0.05467580892
574.375 -0.04014068436 0.06945192313
575.0 -0.05604967424 0.04425649058
575.625 -0.06033321458 0.04898177787
576.25 -0.04102651414 0.06369999751
576.875 -0.01812908325 0.07022249933
577.5 -0.0199527753 0.06493831073
578.125 -0.02319069198 0.04102057985
578.75 -0.01797912308 0.03122720439
579.375 -0.01712069239 0.04121879167
580.0 -0.02653591894 0.005403508902
580.625 -0.03933221651 -0.005893664428
581.25 -0.06085509811 -0.007354947386
581.875 -0.07652737755 0.03147109241
582.5 -0.07840515426 0.02028319698
583.125 -0.06648374392 0.03842606818
583.75 -0.06432390133 0.0270331387
584.375 -0.07309318789 0.01644464646
585.0 -0.07504735662 0.004097178588
585.625 -0.06189545896 0.01362300403
586.25 -0.05280410187 0.004070262823
586.875 -0.06290502841 0.006259293932
587.5 -0.05074702589 -0.00290697892
588.125 -0.03447528868 0.03966474944
588.75 -0.02898400336 0.03539194706
589.375 -0.03603043768 0.0216988126
590.0 -0.04650203437 0.01914765193
590.625 -0.05246370229 0.04939408349
591.25 -0.04240959293 0.08087555521
591.875 -0.03885482572 0.08107298831
592.5 -0.003620287994 0.0733765798
593.125 -0.006069085522 0.05821040421
593.75 -0.01426258217 0.0637327668
594.375 -0.02898782058 0.04527129625
595.0 -0.02950405847 0.01465935062
595.625 -0.02877488898 -0.004480549311
596.25 -0.0327480432 -0.02053977948
596.875 -0.02780015742 -0.02747971785
597.5 -0.03285936635 -0.01561942753
598.125 -0.01632423025 -0.0241321199
598.75 -0.003446645214 -0.03937912634
599.375 -0.01037874623 -0.03231138051
600.0 -0.007328106266 -0.07415842916
600.625 -0.01742863317 -0.08000553458
601.25 -0.04074853257 -0.06255638269
601.875 -0.05068188395 -0.04235450294
602.5 -0.05320008666 -0.02698823354
603.125 -0.03797084719 -0.03768828677
603.75 -0.01912103236 -0.03166125643
604.375 -0.004341468388 -0.02818238625
605.0 -0.01339548836 -0.0206454251
605.625 0.01652132274 -0.04979889082
606.25 -0.001471596914 -0.03809265692
606.875 -0.00388706628 -0.01335184657
607.5 0.003595458025 0.0007010122389
608.125 0.04523230239 -0.01543500082
608.75 0.03305915966 -0.02314078644
609.375 0.04319237111 -0.01296982064
610.0 0.0245422744 0.001333579911
610.625 0.06940975353 -0.00667532766
611.25 0.05533237559 -0.0194710651
611.875 0.04974929942 -0.00996920132
612.5 0.02380617724 -0.01100996768
613.125 0.008335671117 -0.007871782134
613.75 0.009214670517 0.0110846384
614.375 0.02629364353 0.02930099859
615.0 0.02475581036 0.02401199493
615.625 0.002723427152 0.004681730322
616.25 0.02169412354 0.03470515865
616.875 0.0232875199 0.04526712955
617.5 0.02086238196 0.03617624213
618.125 0.01027861422 0.02303122535
618.75 0.01829828947 0.03792768888
619.375 0.02105537877 0.04427328933
620.0 0.01996979825 0.02698192088
620.625 0.02736628354 0.01037515616
621.25 0.009861337544 -0.007659834663
621.875 -0.007753333907 -0.02188781944
622.5 -0.0369688814 0.009779385478
623.125 -0.05371602171 0.04129195103
623.75 -0.02459918485 0.06095365252
624.375 -0.02969773133 0.04961333489
625.0 -0.04479563417 0.03603120926
625.625 -0.069587227 0.01818653137
626.25 -0.03896148324 0.08052785331
626.875 -0.01927298832 0.05642532267
627.5 -0.02113635344 0.03753540673
628.125 -0.02705159545 0.005523920243
628.75 -0.03359553304 0.01483768418
629.375 -0.0163802478 0.01006278776
630.0 -0.002420003971 -0.009203193798
630.625 0.01328665965 -0.03720079696
631.25 -0.006811019347 -0.02937381854
631.875 0.0005564312533 -0.04749872133
632.5 -0.008516584005 -0.05690031644
633.125 0.002741366143 -0.06877855816
633.75 -0.009603222592 -0.06596569711
634.375 -0.01407802215 -0.06018537757
635.0 -0.03541099049 -0.05190324913
635.625 -0.04122694921 -0.03876622159
636.25 -0.02025946747 -0.04723729308
636.875 -0.0276618751 -0.03374588565
637.5 -0.01156972932 -0.0666614403
638.125 -0.02465680211 -0.04927908638
638.75 -0.01127964558 -0.02916557958
639.375 0.02288961785 -0.01988214089
640.0 0.05823248929 -0.009946934678
640.625 0.06116117688 -0.009374187619
641.25 0.04850103954 -0.02144078688
641.875 0.05297907629 -0.0155577465
642.5 0.05576115107 0.001509663921
643.125 0.05078051971 0.0108365216
643.75 0.06248872464 0.01989288754
644.375 0.05008773302 -0.006404468482
645.0 0.0372781248 0.008570770217
645.625 0.04000327606 0.03206875372
646.25 0.0540719026 0.03989539109
646.875 0.07040454837 0.05098216842
647.5 0.05409033263 0.023626241
648.125 0.04542455968 0.0349238655
648.75 0.0380009083 0.05931486594
649.375 0.0332389409 0.09300065265
650.0 0.03534037825 0.06227538163
650.625 0.02754178616 0.05747947329
651.25 0.003476541759 0.06549906463
651.875 -0.04293414963 0.05830065338
652.5 -0.0137683789 0.04326510902
653.125 -0.02535591778 0.02585088021
653.75 -0.02669727037 -0.008766147103
654.375 -0.01766292904 -0.04384498459
655.0 -0.02008229717 -0.05698113187
655.625 -0.03363434553 -0.06798260603
656.25 -0.05536632804 -0.06870475605
656.875 -0.07923928641 -0.05268512958
657.5 -0.05812730216 -0.0414140859
658.125 -0.08372582289 -0.06502306831
658.75 -0.09502443888 -0.04609560032
659.375 -0.08539724606 0.004566304825
660.0 -0.06900585232 0.01856972128
660.625 -0.0615752995 0.01194599046
661.25 -0.05504016499 0.001939784674
661.875 -0.04030126448 0.01580838372
662.5 -0.04617805137 0.01770186768
663.125 -0.06091352266 -0.005024629474
663.75 -0.06073296389 -0.03903955164
664.375 -0.04896944104 -0.07562920049
665.0 -0.00530998293 -0.07379672599
665.625 0.03367293848 -0.09722002267
666.25 0.04147846101 -0.08096497429
666.875 0.05756811631 -0.07971068328
667.5 0.05814274528 -0.06069289582
668.125 0.05173361264 -0.03490246689
668.75 0.04046332189 -0.02554561589
669.375 0.06192947537 -0.02284697018
670.0 0.0597117505 -0.006932026881
670.625 0.06093043864 -0.003236454844
671.25 0.06180864202 -0.01856408758
671.875 0.08114152979 -0.03699736863
672.5 0.06985922931 -0.06616450502
673.125 0.03644246933 -0.08125582338
673.75 0.0237303107 -0.08903143627
674.375 0.04604841836 -0.07681506572
675.0 0.05846039229 -0.03354575666
675.625 0.05329084973 -0.01628686767
676.25 0.06643162344 0.006187203182
676.875 0.06378730829 0.03965361173
677.5 0.01820673733 0.04531361051
678.125 0.01688251461 0.05757399107
678.75 0.03631262911 0.08351209455
679.375 0.04884541361 0.1250272828
680.0 0.03253590909 0.07600027076
680.625 0.06464667283 0.06994309
681.25 0.09568438853 0.05250754291
681.875 0.1079994863 0.0338999549
682.5 0.08788243516 -0.01551389429
683.125 0.04641358587 -0.01144604635
683.75 0.05191323463 0.01889993039
684.375 0.03028335234 0.05902797566
685.0 -0.003262873067 0.06339469679
685.625 -0.0424288663 0.01151226098
686.25 -0.07174772412 -0.01491149575
686.875 -0.07792224505 -0.04635003164
687.5 -0.09937344059 -0.05501746626
688.125 -0.07771405678 -0.07706899512
688.75 -0.08160488531 -0.085911644
689.375 -0.07125178973 -0.0621246746
690.0 -0.06902907433 -0.06117285703
690.625 -0.08156499663 -0.07080454926
691.25 -0.06421516034 -0.04689107741
691.875 -0.04458427707 -0.0007936422804
692.5 -0.04792418239 0.005802553618
693.125 -0.05409535229 0.08228665213
693.75 -0.05058891901 0.08668196363
694.375 -0.008424015981 0.09854018503
695.0 -0.03375246038 0.09860324004
695.625 -0.1076202907 0.04927369651
696.25 -0.09554374971 -0.06719235959
696.875 -0.007916979761 -0.1045491472
697.5 0.05215518604 -0.06999618375
698.125 0.05704097571 -0.04391847044
698.75 0.0474729195 -0.03777381975
699.375 0.0642955331 -0.01186718165
700.0 0.07937341652 0.01225657622
700.625 0.06463724352 0.04144726859
701.25 0.05715920971 0.04318103362
701.875 0.09139157827 0.04414304133
702.5 0.1434948268 -0.008572185645
703.125 0.08926200237 -0.05873838869
703.75 -0.0166696737 -0.09189881965
704.375 -0.01317754056 -0.06095958291
705.0 0.01138980875 -0.08593562738
705.625 0.03688090124 -0.06575440495
706.25 0.05475856027 -0.03415901984
706.875 0.03417387118 0.04589463007
707.5 0.00509624311 0.08292138017
708.125 -0.04309853814 0.08784656178
708.75 -0.07814396272 0.06930280221
709.375 -0.09566727503 0.00919850579
710.0 -0.0735661218 -0.03593794417
710.625 -0.05796052699 -0.06681272052
711.25 -0.05872390884 -0.08865117184
711.875 -0.03376318376 -0.07224440236
712.5 -0.060249994 -0.02038579242
713.125 -0.04062941235 0.02368947611
713.75 -0.04726497138 0.03065778647
714.375 -0.04457293972 0.05838448027
715.0 -0.04325429249 0.05094194896
715.625 -0.05900868291 0.05876790722
716.25 -0.08614878474 0.06010995432
716.875 -0.1117781858 0.03344382839
717.5 -0.08021214927 -0.04251405164
718.125 -0.06390354919 -0.04724276308
718.75 -0.05622707172 -0.06182095363
719.375 -0.0168299638 -0.08212164677
720.0 -0.005837118444 -0.07705013383
720.625 0.0565204316 -0.01042266376
721.25 0.03320423537 0.02453735938
721.875 -0.008151208097 0.02695582202
722.5 -0.07034860589 0.007585070282
723.125 -0.07803928628 0.04659211529
723.75 -0.007691498746 0.09312742832
724.375 0.05509376454 0.06429479134
725.0 0.06867640833 -0.009496665351
725.625 0.08631578567 0.0003978222227
726.25 0.05975365282 -0.01596260557
726.875 0.04725531128 -0.00559024489
727.5 0.02733906955 -0.01628291606
728.125 -0.0006425058513 0.06500260525
728.75 0.002358446415 0.052544037
729.375 0.02567098684 0.03916667722
730.0 0.02491814413 0.04353815197
730.625 0.009513420381 0.01873558468
731.25 -0.04407246634 0.05086353702
731.875 -0.06234244799 0.02305943064
732.5 -0.06220389001 -0.01879611943
733.125 -0.03714308533 -0.009196943515
733.75 -0.03344405837 -0.04859814716
734.375 -0.02356630223 -0.01856658433
735.0 -0.02641571538 -0.02568866163
735.625 -0.01393925256 -0.01227764161
736.25 -0.04186296416 -0.01694140384
736.875 -0.06252416174 -0.02998900265
737.5 -0.06629236567 -0.03852130598
738.125 -0.0328056234 -0.01383023593
738.75 -0.05258445157 -0.04448110273
739.375 -0.01567215824 -0.04151497018
740.0 0.01122212479 -0.04216224617
740.625 -0.0006468196987 -0.0263247664
741.25 -0.02047202549 -0.0377573238
741.875 0.01915077206 -0.01683671018
742.5 0.03162426975 0.01212868726
743.125 -0.01193710367 0.02298058051
743.75 -0.03380579825 0.02483193364
744.375 -0.04429338926 0.01898595588
745.0 -0.0586411587 0.01353526712
745.625 -0.06444354543 0.03019737114
746.25 -0.01607054684 0.06901266143
746.875 0.03014257854 0.04719588402
747.5 0.03040952674 0.007602303575
748.125 0.0201378868 0.004950723423
748.75 0.0058220995 0.0329009829
749.375 0.03093107763 -0.01018500331
750.0 0.00816291261 -0.02937431719
