!Created with skrf (http://scikit-rf.org).
# GHz S RI R 50.0 
!freq ReS11 ImS11
500.0 -0.008839147448 0.02811024063
500.625 0.02371973485 0.03052361724
501.25 0.03676384195 0.01943212823
501.875 0.01305140898 0.05183849783
502.5 0.00952418111 0.0449387034
503.125 0.02928545009 0.04311103492
503.75 0.04310008891 0.02636586634
504.375 0.04797968451 -0.004804903143
505.0 0.04867194938 -0.02379024351
505.625 0.06176220621 -0.03661096505
506.25 0.04582699352 -0.04693433109
506.875 0.06135463136 -0.03402723285
507.5 0.05066189842 -0.04305185944
508.125 0.07501551681 -0.02272414629
508.75 0.06423691701 -0.04097373375
509.375 0.008154690715 -0.05867047708
510.0 0.0613451347 -0.03566967063
510.625 -0.005862207883 -0.0658033894
511.25 -0.0236809128 -0.06133649975
511.875 -0.04770972827 -0.01670725043
512.5 -0.03129430398 0.001498343501
513.125 -0.02884580561 0.02391194214
513.75 -0.04170805176 0.03947024304
514.375 -0.008492018635 0.05276462227
515.0 0.01128507566 0.07093424604
515.625 -0.04972796794 0.08891887943
516.25 0.01001641606 0.1190506864
516.875 -0.02199430881 0.1153613926
517.5 0.04117457789 0.09854111079
518.125 -0.05863638816 0.1102385598
518.75 0.01273714664 0.05350426159
519.375 -0.0004494113846 0.0718328047
520.0 0.03810349773 0.06765126378
520.625 0.05104555036 0.04903286051
521.25 0.05344758508 0.04145342921
521.875 0.04002118764 0.03651016624
522.5 0.0628841742 0.00147129637
523.125 0.1115631684 -0.01095577508
523.75 0.1076698892 -0.02008746639
524.375 0.0660592961 -0.05934012512
525.0 -0.001748888838 -0.002748903274
525.625 -0.002700997679 0.02843713717
526.25 0.005368045703 0.03976773935
526.875 0.01076082063 0.03730901819
527.5 0.0208797347 0.03047273408
528.125 0.04122542507 0.01189878133
528.75 0.07102875978 0.003413390423
529.375 0.04443906057 -0.02538508018
530.0 0.02574893396 -0.02067204526
530.625 0.01112611136 -0.09697992822
531.25 0.01225519044 -0.1282901503
531.875 -0.04293626169 -0.1478273836
532.5 -0.08318513874 -0.08205685205
533.125 -0.06625182874 -0.06218427599
533.75 -0.06469860414 -0.06966780848
534.375 -0.06303636188 -0.04504522945
535.0 -0.05482185635 -0.02281134202
535.625 -0.02457586137 -0.03883702104
536.25 -0.02697068294 -0.03387675723
536.875 -0.03682149158 -0.06292483495
537.5 -0.04027419959 -0.0843422151
538.125 -0.06897327712 -0.07385618945
538.75 -0.05127038932 -0.02915812343
539.375 -0.02959172201 -0.04936401855
540.0 -0.04007635148 -0.09472346434
540.625 -0.05541660609 -0.1237441781
541.25 -0.03256430562 -0.06830148615
541.875 -0.03951139277 -0.0793298128
542.5 -0.04577209064 -0.09212753479
543.125 -0.09366473309 -0.07155073148
543.75 -0.08498080677 0.01757403527
544.375 -0.06047850246 0.03334202783
545.0 -0.03055865108 0.04356645611
545.625 -0.01890736492 0.05579712142
546.25 0.004701679613 0.08148358268
546.875 0.01465253765 0.05409505786
547.5 0.002516892955 0.08366879748
548.125 -0.003318643937 0.07594114412
548.75 -0.005799002399 0.05200904586
549.375 -0.02810069665 0.06145673836
550.0 -0.0356932719 0.0161551024
550.625 -0.01812245979 -0.007544746673
551.25 -0.02472861402 -0.039619403
551.875 -0.04691470082 -0.05276875024
552.5 -0.07033700798 -0.05633842122
553.125 -0.07378144888 -0.02967789481
553.75 -0.07423236846 -0.03197976451
554.375 -0.0920247868 -0.004299874918
555.0 -0.09398779456 0.01367638773
555.625 -0.07769060285 0.0248937061
556.25 -0.09256865884 0.01905888305
556.875 -0.07620418635 0.008256086706
557.5 -0.08451241856 0.0252209727
558.125 -0.07171026223 0.02308020578
558.75 -0.07315391348 0.0003644467899
559.375 -0.03553906371 -0.00172428727
560.0 -0.02457160848 -0.01024106903
560.625 -0.03265039217 -0.03609147891
561.25 -0.06555567801 -0.04185185788
561.875 -0.07058575674 -0.02726768916
562.5 -0.06985032285 0.0103187674
563.125 -0.07401406598 0.0507322516
563.75 -0.06352355602 0.08227693325
564.375 -0.02877177104 0.07816033007
565.0 -0.02340523639 0.07451900661
565.625 -0.02134993761 0.06076414116
566.25 -0.05052434044 0.04723362949
566.875 -0.0453081305 0.01193653118
567.5 -0.05537117241 0.01084411854
568.125 -0.05438388017 0.004660888531
568.75 -0.04758289431 0.0007114131297
569.375 -0.01527887756 -0.01881923803
570.0 -0.01856173896 -0.03605085828
570.625 -0.0327595604 -0.05224391638
571.25 -0.04448732365 -0.03665676086
571.875 -0.03971525331 -0.04659235388
572.5 -0.08476513668 -0.02440389162
573.125 -0.1030053274 0.01088451621
573.75 -0.06317458633 0.06250626768
574.375 -0.03954332511 0.04456113289
575.0 -0.05228992935 0.04937373551
575.625 -0.05724906418 0.05913992852
576.25 -0.03556977826 0.0729312599
576.875 -0.01426548041 0.07106202263
577.5 -0.01621378724 0.0647515484
578.125 -0.02034625183 0.04806105457
578.75 -0.01215628109 0.04510642281
579.375 -0.01940066641 0.02290463636
580.0 -0.02050963806 0.02273216293
580.625 -0.03228873438 0.0008820457217
581.25 -0.0539755555 0.01286064993
581.875 -0.0764997982 0.0170531028
582.5 -0.07683432677 0.03498805756
583.125 -0.06365870432 0.047424688
583.75 -0.06294476791 0.02825231984
584.375 -0.07009308604 0.01515670484
585.0 -0.07048867833 0.001040981116
585.625 -0.06273305065 0.02071626464
586.25 -0.05733797404 0.01846491731
586.875 -0.05367200364 -0.01078896819
587.5 -0.05509320554 0.01189093461
588.125 -0.03041344918 0.04605613755
588.75 -0.02496345567 0.03908083207
589.375 -0.03671077984 0.01654103805
590.0 -0.04871971978 0.01599954957
590.625 -0.04944945368 0.05081995774
591.25 -0.04477498968 0.07821267568
591.875 -0.01993531788 0.09373900008
592.5 -0.01187819227 0.06762244372
593.125 -0.002273803541 0.05797086449
593.75 -0.0177593087 0.06057914256
594.375 -0.02830778162 0.04540855645
595.0 -0.03234672192 0.02130264327
595.625 -0.02986382645 -0.003363294795
596.25 -0.03139694788 -0.01959230209
596.875 -0.03548089116 -0.01071113448
597.5 -0.02475785113 -0.03084052492
598.125 -0.02177630082 -0.01591780029
598.75 -0.01673509984 -0.01455160097
599.375 -0.006260061826 -0.04624350997
600.0 -0.01827922894 -0.05811693725
600.625 -0.01964268583 -0.07267314585
601.25 -0.03870413588 -0.06742411331
601.875 -0.05064255774 -0.04524125075
602.5 -0.05214375638 -0.03761747658
603.125 -0.04598556587 -0.03902521768
603.75 -0.02885422874 -0.02494876923
604.375 -0.02270920525 -0.009648854489
605.0 0.01226526685 -0.04852840241
605.625 -0.0005036806017 -0.04321147743
606.25 -0.00441925995 -0.03576997725
606.875 -0.01925759853 -0.01224108465
607.5 0.008365756326 -0.002407515394
608.125 0.02547995709 -0.01332144586
608.75 0.02315138606 -0.01621004986
609.375 0.01532956218 -0.003191120337
610.0 0.06954929249 -0.003727638011
610.625 0.04997784506 -0.01103181848
611.25 0.0550783239 -0.01825139268
611.875 0.02967315011 -0.01812827216
612.5 0.03704866835 -0.006684428625
613.125 0.01849473991 -0.002925148317
613.75 0.01173357333 0.008122405761
614.375 0.018249177 0.01976429827
615.0 0.01045885968 0.01111629023
615.625 0.02095899846 0.01647927863
616.25 0.01897993946 0.02527913912
616.875 0.01506252753 0.03781131682
617.5 0.009644843471 0.02954882274
618.125 0.02237334976 0.03166073045
618.75 0.02944462491 0.03934103418
619.375 0.01597528925 0.03619194646
620.0 0.0238457182 0.02964197727
620.625 0.0322947862 0.008117726082
621.25 0.01368631361 -0.01166394686
621.875 -0.006958892186 -0.01552495975
622.5 -0.04825376486 0.008322038797
623.125 -0.01559571411 0.0469550083
623.75 -0.01260840356 0.06074288375
624.375 -0.03416663616 0.04362939019
625.0 -0.05946717084 0.01772849652
625.625 -0.04147206186 0.06967001677
626.25 -0.03990838784 0.05858409497
626.875 -0.02141959466 0.06084788272
627.5 -0.02563559069 0.02485486459
628.125 -0.02818586435 0.02528078829
628.75 -0.02872148988 0.01039889541
629.375 -0.02034295688 0.004445792195
630.0 -0.007615827069 0.00278018836
630.625 -0.008817526644 -0.01412776267
631.25 -0.002184669133 -0.03252375309
631.875 -0.004345157531 -0.04687049033
632.5 -0.002706943648 -0.06961706152
633.125 -0.0151842593 -0.06363728298
633.75 -0.02416844544 -0.05700979933
634.375 -0.01976433461 -0.06061656835
635.0 -0.03321389596 -0.05747658743
635.625 -0.03273417337 -0.05514062194
636.25 -0.04589181219 -0.01417341588
636.875 -0.01336861732 -0.04595623645
637.5 -0.014309158 -0.06675946666
638.125 -0.02919814531 -0.04803977785
638.75 -0.03181459575 -0.02199347589
639.375 0.01138872188 -0.02035601896
640.0 0.05548449152 -0.008980002731
640.625 0.05281789656 -0.01744982907
641.25 0.05926271158 -0.02433282646
641.875 0.05100659974 -0.01846720001
642.5 0.05598515687 -0.005998233975
643.125 0.06395261701 0.02144534626
643.75 0.05907085878 -0.001529031887
644.375 0.05753471709 -0.001769311542
645.0 0.04420504526 0.003660128117
645.625 0.03598886438 0.01820580682
646.25 0.05478277629 0.03022837396
646.875 0.06625121129 0.02837341935
647.5 0.05280454169 0.01674623238
648.125 0.04779737155 0.0251070727
648.75 0.05097571191 0.06710626069
649.375 0.04482504167 0.06152299651
650.0 0.04017874843 0.05792779394
650.625 0.03699155938 0.06168778866
651.25 -0.0006345628823 0.08372519463
651.875 -0.00412629269 0.05860394065
652.5 -0.02467784983 0.04776344559
653.125 -0.0236464001 0.03648029856
653.75 -0.04556080546 -0.004823045317
654.375 -0.0190919147 -0.03160034289
655.0 -0.02239677478 -0.05479336679
655.625 -0.04372913546 -0.0660107302
656.25 -0.07579261206 -0.07609471702
656.875 -0.06062527096 -0.02778919307
657.5 -0.07405198894 -0.05134729075
658.125 -0.09100717098 -0.05924794954
658.75 -0.1019924082 -0.0424022181
659.375 -0.07949233499 0.0180879804
660.0 -0.06275237103 0.02918849926
660.625 -0.06192207651 0.02124417464
661.25 -0.0492594137 0.01228021913
661.875 -0.04692509916 0.02826017265
662.5 -0.04380904597 0.02334303542
663.125 -0.0604640169 0.009710360817
663.75 -0.06676513302 -0.03471020284
664.375 -0.04394764269 -0.05564672245
665.0 -0.02075183162 -0.07959309776
665.625 0.02123548758 -0.1019181504
666.25 0.03804436014 -0.09168544375
666.875 0.04499127993 -0.07603649737
667.5 0.04953925134 -0.06357320859
668.125 0.05717566654 -0.04851257529
668.75 0.04464692825 -0.04120831134
669.375 0.03250796275 -0.0158929651
670.0 0.06420229992 -0.0183660748
670.625 0.06737274386 -0.01245002043
671.25 0.06645738459 -0.03429693587
671.875 0.05268575724 -0.02467383555
672.5 0.06129338654 -0.08102285342
673.125 0.02506698549 -0.09062519141
673.75 0.01022942146 -0.1054637803
674.375 0.02440678013 -0.0765282539
675.0 0.05605052892 -0.04288668171
675.625 0.05609410525 -0.0278462825
676.25 0.07524352594 -0.008561444609
676.875 0.04733178861 0.0183316231
677.5 0.02285821825 0.03743808301
678.125 0.02438103046 0.04912105027
678.75 0.05320945101 0.08070267117
679.375 0.03594800011 0.09421612835
680.0 0.0470866421 0.08500535419
680.625 0.07453061786 0.06328201751
681.25 0.09634159945 0.03936653839
681.875 0.1267676907 0.01806944515
682.5 0.07319587356 -0.02028308023
683.125 0.05871341392 -0.02369788145
683.75 0.05972780729 0.001617789699
684.375 0.05475160527 0.0585680705
685.0 0.00500455287 0.05996923427
685.625 -0.04170534181 0.03430972402
686.25 -0.06953836857 0.004345710902
686.875 -0.08439454543 -0.03516737602
687.5 -0.07679702938 -0.04838618
688.125 -0.1058208988 -0.0674313253
688.75 -0.09664678927 -0.08167691972
689.375 -0.07893107691 -0.06061772798
690.0 -0.08570004214 -0.05288122951
690.625 -0.08229519777 -0.05924240829
691.25 -0.07845236512 -0.04454385142
691.875 -0.05222753154 0.01040695319
692.5 -0.04476592962 0.03051411295
693.125 -0.0588873384 0.04499923526
693.75 -0.0251773096 0.1114874727
694.375 0.004323305392 0.09462080432
695.0 -0.02190928895 0.1033406722
695.625 -0.09901402335 0.07294027805
696.25 -0.09716864299 -0.05756870257
696.875 -0.01502589577 -0.1033645303
697.5 0.04052157988 -0.08377313648
698.125 0.05526190755 -0.07446944878
698.75 0.04077835409 -0.03511151729
699.375 0.06165153033 -0.02618226946
700.0 0.08259994091 -0.004543928474
700.625 0.05649294957 0.03910615672
701.25 0.05640916013 0.03694359634
701.875 0.09599249395 0.02990318991
702.5 0.1371842903 -0.01470227958
703.125 0.09155928275 -0.08349147092
703.75 -0.004170542144 -0.0731477698
704.375 -0.0258210079 -0.05822689644
705.0 -0.0123704191 -0.08302258756
705.625 0.02568758256 -0.07764331277
706.25 0.04902071281 -0.02311910723
706.875 0.04725720658 0.02589053326
707.5 0.0207958306 0.0760358826
708.125 -0.04029205653 0.08526570441
708.75 -0.07160452559 0.07197359683
709.375 -0.09240373801 0.02229016964
710.0 -0.07808649488 -0.0319735566
710.625 -0.06766962238 -0.05067289794
711.25 -0.07193787972 -0.07563851534
711.875 -0.068794666 -0.06696542149
712.5 -0.07223380797 -0.01073987862
713.125 -0.04370607822 0.03772633969
713.75 -0.02296902641 0.05239760076
714.375 -0.06038748961 0.04080982077
715.0 -0.04170884297 0.05222766781
715.625 -0.04225080857 0.06149628784
716.25 -0.05627857942 0.07444396656
716.875 -0.1154030642 -0.01242501651
717.5 -0.08688090976 -0.02987458745
718.125 -0.07232812441 -0.04196690969
718.75 -0.05905973837 -0.05887058273
719.375 -0.0518051963 -0.06705412737
720.0 0.03562975719 -0.06730556416
720.625 0.05378727838 -0.02831400664
721.25 0.03998171555 0.02107093619
721.875 -0.01640256314 0.02939777835
722.5 -0.04444346569 0.02275976343
723.125 -0.05855879796 0.05306107924
723.75 -0.009948358091 0.1002725143
724.375 0.06368013047 0.03696862482
725.0 0.08237573422 0.004642769562
725.625 0.08308209071 -0.01726487253
726.25 0.05788602212 -0.02501276151
726.875 0.03553962402 -0.03685001373
727.5 0.04451014592 0.04017079656
728.125 0.02277810845 0.04205021247
728.75 0.01133760565 0.05338975346
729.375 0.02910116513 0.04955226818
730.0 0.02776052623 0.01254001399
730.625 -0.006288321855 0.07483376302
731.25 -0.02874404216 0.05296627671
731.875 -0.04306249369 0.02851494116
732.5 -0.03542316449 0.006848628908
733.125 -0.04794462095 -0.02813272881
733.75 -0.0399632727 -0.02626322035
734.375 -0.02161711293 -0.02182275993
735.0 -0.008632253624 -0.005957910757
735.625 -0.031988757 -0.01886481708
736.25 -0.05311188492 -0.008260332719
736.875 -0.04686258632 -0.02664311202
737.5 -0.04180945708 -0.02852858765
738.125 -0.0797916264 -0.04878004562
738.75 -0.05009515139 -0.02964671686
739.375 -0.01396623919 -0.01956114255
740.0 0.01953945138 -0.01289725808
740.625 -0.01561859579 -0.04248796751
741.25 -0.01849142486 -0.02627421712
741.875 0.007945976503 -0.0216294983
742.5 0.0225769313 0.01372605334
743.125 -0.00871781164 0.02691718622
743.75 -0.02518146258 0.0227944593
744.375 -0.0394602914 0.01575564755
745.0 -0.05005688463 0.01360613772
745.625 -0.04178728517 0.07025358912
746.25 -0.006422844217 0.07464968933
746.875 0.0483719761 0.04783748613
747.5 0.02993299042 0.008779081593
748.125 0.002754558836 0.01945642298
748.75 0.03965273834 -0.007006842151
749.375 0.03082326914 -0.007391163274
750.0 0.01046190606 -0.02859326126
