!Created with skrf (http://scikit-rf.org).
# GHz S RI R 50.0 
!freq ReS11 ImS11
500.0 -0.01264600285 0.0246932511
500.625 0.02550300189 0.02860932143
501.25 0.02045698108 0.03954627089
501.875 0.03742256471 0.01127903576
502.5 0.0104327545 0.03750139746
503.125 0.0266199333 0.0410270711
503.75 0.04517637744 0.01836022077
504.375 0.0496929607 0.003121815629
505.0 0.04745355832 -0.02161219149
505.625 0.06006218639 -0.04014395601
506.25 0.05477045064 -0.04368947504
506.875 0.06273103616 -0.03719236513
507.5 0.05187961365 -0.04753365395
508.125 0.08366214249 0.003716184389
508.75 0.02762983609 -0.06819098865
509.375 0.02837498919 -0.04764964171
510.0 0.06282955338 -0.04063428839
510.625 0.004097409066 -0.0693190742
511.25 -0.03782099673 -0.05303953636
511.875 -0.0462708506 -0.01668976799
512.5 -0.03525991441 -0.001485898102
513.125 -0.02496551451 0.02711622291
513.75 -0.004739075582 0.0411922122
514.375 -0.004671125294 0.04866516023
515.0 0.001166344034 0.0855846735
515.625 -0.06396975777 0.0928028284
516.25 0.04315942398 0.08585739613
516.875 -0.03209445061 0.115012835
517.5 0.04328678182 0.1007547093
518.125 -0.08459875523 0.1084743994
518.75 0.02175373745 0.05139993846
519.375 -0.002034934281 0.0710502217
520.0 0.04402762154 0.06488657843
520.625 0.05248685858 0.06001647684
521.25 0.05799111316 0.02289472703
521.875 0.03719049846 0.03665654166
522.5 0.06557045432 0.008262424107
523.125 0.1222992344 0.006308588861
523.75 0.09163100209 -0.09457600742
524.375 0.05317650374 -0.02663368553
525.0 0.001426925297 0.007064698379
525.625 0.002417751797 0.02679826531
526.25 0.005474015872 0.04693637834
526.875 0.01288582467 0.04466474694
527.5 0.02243147133 0.02794201506
528.125 0.04905439517 0.01239912629
528.75 0.04883924507 -0.007931108959
529.375 0.04726094892 -0.02943922682
530.0 0.03522326457 -0.03359328712
530.625 0.01300496189 -0.06492279753
531.25 0.02401709751 -0.1547732194
531.875 -0.04598982954 -0.1604085412
532.5 -0.08286437941 -0.08984675801
533.125 -0.07778939184 -0.07016910032
533.75 -0.06747415841 -0.06393912751
534.375 -0.06526152883 -0.04834137942
535.0 -0.06342830713 -0.02724583461
535.625 -0.03125648709 -0.04572703282
536.25 -0.03189463824 -0.04033348452
536.875 -0.04091120882 -0.05986880968
537.5 -0.04717244693 -0.1017298219
538.125 -0.06148661798 -0.04668106626
538.75 -0.05654805776 -0.03668579464
539.375 -0.03546860423 -0.05472598125
540.0 -0.04292878691 -0.0907066416
540.625 -0.04713914845 -0.0992933317
541.25 -0.03439068747 -0.0855551442
541.875 -0.04283807965 -0.07753897014
542.5 -0.05679051903 -0.1076869054
543.125 -0.09257132808 -0.06330012637
543.75 -0.09708168428 0.01342907661
544.375 -0.06347313067 0.03352322303
545.0 -0.03616820109 0.05411538192
545.625 -0.02154438169 0.06469296344
546.25 0.00843277584 0.05192396559
546.875 0.01442300989 0.05794419022
547.5 0.008337677634 0.08441685973
548.125 0.005928280944 0.06670747494
548.75 -0.01403456969 0.06539274981
549.375 -0.02831223763 0.0688153235
550.0 -0.04265784171 0.02404915058
550.625 -0.02613643097 -0.002630075533
551.25 -0.002092941295 -0.03482553498
551.875 -0.05096357357 -0.05070120787
552.5 -0.06840570049 -0.05337730617
553.125 -0.07538861456 -0.02799774896
553.75 -0.07969193247 -0.02917465374
554.375 -0.09428226442 -0.002253869159
555.0 -0.09498365367 0.01796718142
555.625 -0.08187129886 0.0316988604
556.25 -0.07069660188 0.009057299638
556.875 -0.08797554413 0.01168917135
557.5 -0.08508178467 0.0290528387
558.125 -0.08336948272 0.02568204187
558.75 -0.04994684517 0.004533300091
559.375 -0.03839776414 -0.002891347142
560.0 -0.02459908826 -0.008243724439
560.625 -0.04006270972 -0.03345460559
561.25 -0.05099007652 -0.04122613068
561.875 -0.07000801408 -0.02694595382
562.5 -0.07129438705 0.01644715977
563.125 -0.07522746053 0.06070779208
563.75 -0.06112615467 0.08065664454
564.375 -0.02852444134 0.08243363371
565.0 -0.02208077987 0.0741125257
565.625 -0.01765652067 0.07046630526
566.25 -0.04376680612 0.03744191634
566.875 -0.04911792173 0.01377639186
567.5 -0.05608427653 0.01391137461
568.125 -0.07057930187 0.01244148578
568.75 -0.04273472041 -0.001501775155
569.375 -0.02748309685 -0.01799332491
570.0 -0.02211735861 -0.03330951695
570.625 -0.04863436961 -0.04777699698
571.25 -0.02961270418 -0.04242013625
571.875 -0.05340823718 -0.03933088456
572.5 -0.08170648965 -0.01823843034
573.125 -0.1160791398 0.02899385848
573.75 -0.06118258793 0.05834550888
574.375 -0.04091814484 0.05744120441
575.0 -0.04670034544 0.05828804749
575.625 -0.05549566852 0.07483483244
576.25 -0.03427253376 0.06321445861
576.875 -0.01628025456 0.07627112036
577.5 -0.007358448093 0.07263798601
578.125 -0.01850647534 0.05749248889
578.75 -0.01695358564 0.02631566021
579.375 -0.01777523247 0.02991158311
580.0 -0.02151165667 0.02527124923
580.625 -0.03110694203 0.01892892836
581.25 -0.05908528456 -0.007164561636
581.875 -0.07226638384 0.02956543498
582.5 -0.07654807871 0.04344795854
583.125 -0.06463029159 0.04552191988
583.75 -0.0617310688 0.03602604228
584.375 -0.06973046521 0.0201839917
585.0 -0.07345520424 -0.0003683365247
585.625 -0.0628548921 0.02509963615
586.25 -0.05702428986 0.007186676616
586.875 -0.05897119814 0.002322270901
587.5 -0.05612348397 0.01610523947
588.125 -0.0318275771 0.0430019229
588.75 -0.02383938306 0.0418347718
589.375 -0.035631664 0.02578661457
590.0 -0.04878083027 0.01845637671
590.625 -0.04593200638 0.05300800053
591.25 -0.0320323191 0.08247376306
591.875 -0.04214358571 0.08160814685
592.5 -0.01403454956 0.06868625269
593.125 0.002948516513 0.06199097031
593.75 -0.006899458953 0.06601355558
594.375 -0.02918098446 0.04650249543
595.0 -0.03363157154 0.02719169827
595.625 -0.02926826298 0.006910422423
596.25 -0.03698047327 -0.006596824118
596.875 -0.02629223597 -0.03518523864
597.5 -0.0268054636 -0.03289619412
598.125 -0.02103360154 -0.02189866866
598.75 -0.006848572206 -0.04389467121
599.375 -0.01063997127 -0.0370875268
600.0 -0.01952217883 -0.0514953822
600.625 -0.03217654077 -0.06533209732
601.25 -0.04560143077 -0.06028161568
601.875 -0.05162188146 -0.04418666886
602.5 -0.05489096656 -0.04216218877
603.125 -0.05020186273 -0.02961224721
603.75 -0.04092379553 -0.01100834253
604.375 -0.004858560226 -0.03393344871
605.0 -0.002555408996 -0.03891887413
605.625 -0.007814039217 -0.04250785358
606.25 -0.01679262446 -0.03393982534
606.875 -0.0008930034538 -0.01545000631
607.5 0.007217155495 -0.003946426
608.125 0.02367890779 -0.01283681497
608.75 0.009029245179 -0.007603947897
609.375 0.05321299503 -0.02095304595
610.0 0.05424043743 -0.00692650371
610.625 0.04529955611 -0.009614502996
611.25 0.03699592814 -0.02054282551
611.875 0.06065144841 -0.01406053949
612.5 0.03326112881 -0.01184815757
613.125 0.02196707854 -0.004749554541
613.75 0.01051859982 0.009435946164
614.375 0.003297795977 0.01366945259
615.0 0.03953359971 0.03123050401
615.625 0.02696701396 0.01908612536
616.25 0.01503554523 0.02375326501
616.875 -0.006427868018 0.02929326282
617.5 0.02807857372 0.03866000482
618.125 0.02682603214 0.0304907055
618.75 0.01600234523 0.02954341986
619.375 0.001933748543 0.02853394325
620.0 0.02814928351 0.03608329385
620.625 0.03221684303 0.004349479469
621.25 0.01823017151 -0.004521817915
621.875 -0.01369161304 -0.02470764627
622.5 -0.02847257694 0.008407593697
623.125 -0.01294281709 0.04297703493
623.75 -0.02853886928 0.05531881606
624.375 -0.0470972228 0.03924702519
625.0 -0.03495983567 0.05466495005
625.625 -0.04280063724 0.05142685683
626.25 -0.04481458422 0.05904282985
626.875 -0.02666203278 0.04849627155
627.5 -0.01696267346 0.05416132697
628.125 -0.02530427603 0.0210681395
628.75 -0.02671140172 0.002165660965
629.375 -0.01719482199 0.005991975737
630.0 -0.005954092864 -0.008935499038
630.625 -0.0007771947546 -0.02273799964
631.25 -0.002239276575 -0.0357337462
631.875 0.005269894789 -0.05551564171
632.5 -0.02304799314 -0.04783091512
633.125 -0.01171213791 -0.06467522171
633.75 -0.02259611639 -0.0518795627
634.375 -0.02196893954 -0.06190823336
635.0 -0.03278477917 -0.07377442526
635.625 -0.06348330184 -0.02516622806
636.25 -0.03679293508 -0.02277683188
636.875 -0.01791803167 -0.05070640221
637.5 -0.02144822957 -0.06161652532
638.125 -0.03121162434 -0.04746524091
638.75 -0.02559070389 -0.02538549802
639.375 0.01155527515 -0.01856191951
640.0 0.05173535862 -0.01634988538
640.625 0.06136963885 -0.01557721169
641.25 0.03768434161 -0.03205618799
641.875 0.05280501423 -0.01933255922
642.5 0.06777556576 0.01135165473
643.125 0.05233370368 -0.004062376248
643.75 0.06230340268 0.004564720289
644.375 0.0652292647 0.002238840982
645.0 0.04688483866 0.009472290929
645.625 0.04583889803 0.0235678588
646.25 0.05178018992 0.02452789773
646.875 0.06180049538 0.02121919044
647.5 0.06187644044 0.02057002252
648.125 0.05801357289 0.02892195181
648.75 0.03983263505 0.03269813375
649.375 0.04458847101 0.06273526207
650.0 0.04367602444 0.06781234931
650.625 0.03367773654 0.07830060121
651.25 0.0232047545 0.05612145314
651.875 -0.01783942632 0.06152137587
652.5 -0.02772623079 0.05054668046
653.125 -0.0338773588 0.03577422432
653.75 -0.01387335047 0.0159954529
654.375 -0.02075237731 -0.03223117381
655.0 -0.02423027778 -0.05047009687
655.625 -0.05409225961 -0.06727354904
656.25 -0.05605031162 -0.04169716027
656.875 -0.06857072141 -0.03611459158
657.5 -0.07838174981 -0.04462378643
658.125 -0.09026931139 -0.05531917222
658.75 -0.1056108915 -0.03664669654
659.375 -0.08568915618 0.01605757293
660.0 -0.06485348445 0.03003183439
660.625 -0.06028161137 0.02662730025
661.25 -0.06151746238 0.01545180468
661.875 -0.02775509246 0.02439908033
662.5 -0.04718302232 0.02743489946
663.125 -0.08036803118 0.01462817292
663.75 -0.06652561537 -0.02871844542
664.375 -0.05123314307 -0.06132515205
665.0 -0.02575043273 -0.07888990371
665.625 0.01780710938 -0.1162817433
666.25 0.03221803206 -0.0828790249
666.875 0.04423694083 -0.07840145752
667.5 0.05513190538 -0.07897750097
668.125 0.06526020965 -0.06042984198
668.75 0.02704369142 -0.03160238686
669.375 0.04381654658 -0.02198763769
670.0 0.0666034108 -0.02374722923
670.625 0.08200272147 -0.02081561002
671.25 0.04991714637 -0.02552511911
671.875 0.06547193996 -0.03602757108
672.5 0.06153466986 -0.09101265344
673.125 0.03035694786 -0.1069902624
673.75 0.004786272266 -0.08584135682
674.375 0.02609225322 -0.07281732822
675.0 0.05994161649 -0.05318289563
675.625 0.06634004192 -0.03589100459
676.25 0.06548120573 -0.008719131465
676.875 0.0503250198 0.01879193354
677.5 0.03220289555 0.04174401861
678.125 0.04051081165 0.04997486151
678.75 0.04067130905 0.07399635757
679.375 0.05456869613 0.1025091866
680.0 0.05030724217 0.08609462973
680.625 0.07341820449 0.06130299926
681.25 0.1075321398 0.03600235893
681.875 0.1166485768 0.01251267317
682.5 0.07811798209 -0.02346341429
683.125 0.05871476576 -0.02799157468
683.75 0.07925477491 -0.006680993213
684.375 0.04465067132 0.04568090804
685.0 0.007086861481 0.06367596761
685.625 -0.03542801297 0.03771596326
686.25 -0.07204193221 0.007175478142
686.875 -0.08042308082 -0.03313659215
687.5 -0.09289704587 -0.04713895282
688.125 -0.1080601639 -0.06170825547
688.75 -0.0970281328 -0.07801549056
689.375 -0.08124136489 -0.05962055949
690.0 -0.077417473 -0.05534383507
690.625 -0.08891000666 -0.0564623652
691.25 -0.0848424646 -0.04087669851
691.875 -0.05964402983 0.01724974997
692.5 -0.03719875676 0.01116756386
693.125 -0.04585022309 0.06238414509
693.75 -0.01508681842 0.1136179
694.375 0.01851384385 0.1054715632
695.0 -0.01882592156 0.1022547144
695.625 -0.09386485168 0.06408233316
696.25 -0.1038416224 -0.05699553499
696.875 -0.02898642365 -0.1084952632
697.5 0.03272554924 -0.1095413743
698.125 0.0488629323 -0.04383381794
698.75 0.0418544694 -0.03584757816
699.375 0.06187680055 -0.03210514346
700.0 0.07987016776 -0.006775899815
700.625 0.06704635303 0.03260132404
701.25 0.05996315726 0.0342242688
701.875 0.09451577906 0.0285689971
702.5 0.1405516279 -0.03523927829
703.125 0.08646010939 -0.06710771223
703.75 -0.01194669753 -0.08271869772
704.375 -0.03913980892 -0.05584751952
705.0 -0.04940992786 -0.0876859832
705.625 0.02836728413 -0.07750889957
706.25 0.04920853599 -0.03943651259
706.875 0.05451735671 0.01594560589
707.5 0.02234324287 0.07390629508
708.125 -0.02821246105 0.09232806983
708.75 -0.07218421227 0.07425203975
709.375 -0.09261137488 0.02977857144
710.0 -0.08597074517 -0.02151589021
710.625 -0.0812019784 -0.03716262798
711.25 -0.06772132125 -0.07941424036
711.875 -0.0753061023 -0.06042838479
712.5 -0.07411737044 -0.01545577871
713.125 -0.04149267376 0.0359514473
713.75 -0.0332989601 0.04528355473
714.375 -0.05997614901 0.04882833513
715.0 -0.02811095483 0.05877231588
715.625 -0.01332029242 0.0609169304
716.25 -0.08124362472 0.06398559769
716.875 -0.1162967283 0.02029515146
717.5 -0.09483012093 -0.02223049213
718.125 -0.07485135143 -0.03164287793
718.75 -0.07120667419 -0.04203369215
719.375 -0.01145457336 -0.09031215747
720.0 0.01318476543 -0.07639371983
720.625 0.05308844718 -0.03713683354
721.25 0.05080418539 0.006592379082
721.875 -0.005608825709 0.03035877199
722.5 -0.02882103863 0.02883137519
723.125 -0.04784266724 0.06055451527
723.75 0.01003641783 0.08897199501
724.375 0.06144040429 0.06943192996
725.0 0.08774430955 0.007525059015
725.625 0.0790528832 -0.02803376332
726.25 0.04673028393 -0.05092796763
726.875 0.05338741402 -0.008619668848
727.5 0.04841832181 0.008862947429
728.125 0.02775070935 0.02420957347
728.75 0.01445263934 0.05355463675
729.375 0.03329240346 0.03181610313
730.0 0.03837654633 0.05192204879
730.625 0.01144310301 0.05899554894
731.25 -0.02271575961 0.05036242996
731.875 -0.01734222855 0.02048012062
732.5 -0.07506722267 -0.01327534478
733.125 -0.05039841432 -0.01531699737
733.75 -0.03735239365 -0.02120787111
734.375 -0.0135153682 -0.003588269659
735.0 -0.04053481186 -0.01733618602
735.625 -0.04113025582 -0.01033983035
736.25 -0.02775694277 -0.01343312359
736.875 -0.02675942198 -0.03114754523
737.5 -0.08799712775 -0.03890115293
738.125 -0.07274181389 -0.03315799822
738.75 -0.04993476965 -0.02325434377
739.375 0.0110923164 0.009539679704
740.0 -0.01489022855 -0.05656397066
740.625 -0.01753093916 -0.03300058273
741.25 -0.01131637819 -0.02082803378
741.875 0.01369781622 -0.02114854573
742.5 0.007857344287 0.02441503609
743.125 -0.001202721176 0.02980484768
743.75 -0.02366883349 0.01651833045
744.375 -0.03511539462 0.01490366181
745.0 -0.04816742416 0.02574019811
745.625 -0.04983228742 0.05106968388
746.25 0.0007276212565 0.06968055046
746.875 0.03279319424 0.04777110959
747.5 0.02067213849 0.01473220442
748.125 0.04353066278 -0.006591963226
748.75 0.02473526049 0.00417860681
749.375 0.02974149161 -0.0008882961165
750.0 0.007731545818 -0.02554711419
