!Created with skrf (http://scikit-rf.org).
# GHz S MA R 50.0 
!freq magS11 angS11
500.0 0.012510452189 168.03272432
500.625 0.00881311137401 92.1427815827
501.25 0.00964453061994 -172.94218123
501.875 0.0198737578256 -147.476950201
502.5 0.0308478842404 165.519623052
503.125 0.0179985680428 113.120487703
503.75 0.0164521655206 -33.0497091578
504.375 0.0125925376487 141.004049713
505.0 0.00468001132971 -58.9009305085
505.625 0.0161880356036 -82.7183353187
506.25 0.0480753005226 -101.698849741
506.875 0.0523667159236 -141.143503439
507.5 0.0382409047435 -127.524278164
508.125 0.0458904604851 -95.8714390802
508.75 0.0766895787002 -116.433602985
509.375 0.0482105514896 -147.875490126
510.0 0.0354463268196 -114.058070874
510.625 0.0341399603276 -156.780126112
511.25 0.0698234303654 -168.585182549
511.875 0.0461499176282 124.740846507
512.5 0.034260832964 91.7094198572
513.125 0.0461061372598 35.6833869376
513.75 0.0642908984976 48.0423067752
514.375 0.0414086437808 20.6579259888
515.0 0.0577158632191 3.40111292482
515.625 0.10174310204 52.7594064229
516.25 0.0957124672356 31.0289545446
516.875 0.11054501246 69.0638229684
517.5 0.113449297529 22.1346178895
518.125 0.201359668209 72.2262540878
518.75 0.0738706515059 -6.04589517406
519.375 0.0603884494487 17.1033894369
520.0 0.0810923794388 -7.70911470003
520.625 0.112672175341 -2.4798012588
521.25 0.0771275333556 -32.1527277763
521.875 0.0673394786268 -0.0534821420778
522.5 0.103504916929 -31.2135785427
523.125 0.18324840279 -33.4015401947
523.75 0.223286088383 -54.0109694456
524.375 0.202968986393 -53.5816664261
525.0 0.0736621554372 -47.2798314475
525.625 0.0475360724111 -22.7389253112
526.25 0.0317199429875 -33.2494735654
526.875 0.0435794168692 -27.1248940731
527.5 0.0426742146464 -36.6931408338
528.125 0.0517733428503 -56.0003264053
528.75 0.0566125537606 -75.8229556295
529.375 0.0755565831071 -113.101005482
530.0 0.0460788356866 -129.245732588
530.625 0.0466260273306 -145.687704175
531.25 0.114567556172 -134.020142247
531.875 0.152076040427 -146.472798626
532.5 0.13327916306 -170.984909429
533.125 0.114740024356 174.963256461
533.75 0.0845555744207 165.328209651
534.375 0.0998532510536 178.859242224
535.0 0.0842216938027 160.129634165
535.625 0.0734929280614 178.724436205
536.25 0.0421826682143 159.888274643
536.875 0.0746818391996 -157.106817719
537.5 0.097470144416 -143.013815174
538.125 0.113384126693 -173.579149038
538.75 0.0849106438415 176.59202737
539.375 0.0659812531567 -162.080231104
540.0 0.0809911533592 -154.888971176
540.625 0.144290698907 -157.07424269
541.25 0.122040767165 -141.31933869
541.875 0.0977507640604 -141.529300946
542.5 0.108957786553 -140.819905172
543.125 0.150663851126 -167.56338053
543.75 0.117083994656 158.725996909
544.375 0.0893834744318 135.152156055
545.0 0.0862683148565 89.6684654977
545.625 0.108905833483 83.5820771385
546.25 0.0931949841733 69.1654900498
546.875 0.0884979934073 55.0305125222
547.5 0.101542246144 58.672301151
548.125 0.127271597467 78.5628524531
548.75 0.0804355985296 89.5624239789
549.375 0.0838173998611 87.6022223873
550.0 0.0790537739512 122.519312344
550.625 0.0586208755848 153.086404124
551.25 0.0383568571981 -138.692474436
551.875 0.0620345376038 -153.732354461
552.5 0.0972042296833 -159.907014643
553.125 0.0991130205805 -171.991226497
553.75 0.0803529630127 -162.916147945
554.375 0.106406976511 169.217070686
555.0 0.117855738277 164.290552634
555.625 0.099811827458 157.29474761
556.25 0.104403063573 160.858508018
556.875 0.117225588494 166.151734035
557.5 0.108733039707 168.409354955
558.125 0.0960441120446 165.402994816
558.75 0.0817674168913 178.654999167
559.375 0.0587816726842 -171.683931061
560.0 0.0373494946571 -145.574961297
560.625 0.060194724888 -141.320790952
561.25 0.0824717211941 -145.910377784
561.875 0.101045675943 -159.761561926
562.5 0.0965793870444 171.913752906
563.125 0.110493524823 142.048031045
563.75 0.109507669678 136.659960668
564.375 0.0975046541464 123.379159293
565.0 0.0774148706645 121.701253021
565.625 0.088108017485 115.752860006
566.25 0.0795600764947 160.887341637
566.875 0.0740467255233 -178.729472442
567.5 0.0736392883732 -176.083509163
568.125 0.0792326226832 -169.03036853
568.75 0.0775717638622 -152.07730742
569.375 0.045176839987 -101.897641894
570.0 0.0607392982918 -103.685713319
570.625 0.091271719269 -114.956702405
571.25 0.0909052141165 -120.402614413
571.875 0.0890858267066 -125.31880729
572.5 0.113874261563 -155.168881072
573.125 0.139313649719 -172.776084177
573.75 0.111077077392 159.12859949
574.375 0.0830779862003 149.772454429
575.0 0.110442869411 149.709017229
575.625 0.110052038396 155.014591559
576.25 0.0829230581132 151.144165413
576.875 0.0744817083877 131.427687461
577.5 0.0811156759917 135.26023083
578.125 0.0625895641563 157.572237528
578.75 0.0499394022257 161.592201606
579.375 0.0538558185187 162.989729068
580.0 0.0687091346024 -175.194828942
580.625 0.0785600213447 -148.877932471
581.25 0.0894369099029 -168.013392225
581.875 0.112513639831 -170.055501568
582.5 0.112525397614 -170.654952248
583.125 0.0863009547525 -164.165046301
583.75 0.0843828032591 -174.296236644
584.375 0.0956923547501 -144.926142909
585.0 0.0919336518264 -139.498306678
585.625 0.069056026594 -143.221416185
586.25 0.0733561093851 -147.009724039
586.875 0.0786702886058 -128.009039088
587.5 0.0709308816523 -138.676356
588.125 0.0561496486029 -165.803979425
588.75 0.0678766310327 -177.883563876
589.375 0.0856917407532 -139.530116376
590.0 0.096236327689 -164.263152059
590.625 0.105126490769 168.539387617
591.25 0.122781632485 146.737123539
591.875 0.0910643486311 161.423078294
592.5 0.0627628190046 150.392049718
593.125 0.0631822743554 157.778633881
593.75 0.0746332967853 157.457990773
594.375 0.0571598254577 -128.341300638
595.0 0.0467882701337 -107.138951804
595.625 0.0549912120032 -95.3019862539
596.25 0.0706030589173 -95.5844832869
596.875 0.0655167300003 -70.2258128775
597.5 0.060019841737 -58.7848882965
598.125 0.0719205938181 -48.1951608709
598.75 0.0748370283349 -68.6910886875
599.375 0.0980793868237 -57.0914923409
600.0 0.108646333906 -60.1123328632
600.625 0.101086222547 -63.5867479466
601.25 0.0837114058403 -86.4072622871
601.875 0.0693672199515 -69.3804164548
602.5 0.063762898328 -75.6181778816
603.125 0.0412288352864 -49.1911554252
603.75 0.0298181268535 -39.9202622689
604.375 0.0342809769123 -34.3482066995
605.0 0.0612119212778 -15.150516098
605.625 0.0584598185506 5.19471259012
606.25 0.0288448507944 17.5806781123
606.875 0.0229983678418 41.507812737
607.5 0.087559370937 53.0065033558
608.125 0.0757159829437 29.8377193861
608.75 0.05699552322 20.0705616311
609.375 0.0542286318705 23.0435829572
610.0 0.0717530937104 44.5665054507
610.625 0.0717685253458 43.6939498725
611.25 0.0545920079277 35.3507876718
611.875 0.0313340469182 26.9873831496
612.5 0.0434335532312 113.56698672
613.125 0.0351948938188 125.118812956
613.75 0.053808842303 130.201878702
614.375 0.0382132245553 122.104415343
615.0 0.0409452842654 121.270369663
615.625 0.0375021304926 134.447931938
616.25 0.040077656881 133.731025514
616.875 0.0477920318503 128.297947158
617.5 0.0556217968406 135.413259248
618.125 0.0362992880301 132.966846823
618.75 0.0202650251462 147.676650158
619.375 0.0120007596928 147.631141034
620.0 0.0315750404978 163.640192054
620.625 0.0190024703923 -144.06746153
621.25 0.0459863060101 -124.102786011
621.875 0.0635392788868 -94.3548136425
622.5 0.0906466735561 -176.511318745
623.125 0.0738380921596 170.756801284
623.75 0.051805213505 171.630102026
624.375 0.0388313513223 -170.010894018
625.0 0.0281242564155 -129.741180047
625.625 0.0380695949153 -156.365551783
626.25 0.033421162289 174.826665822
626.875 0.00393951473288 65.2135563372
627.5 0.0417295818367 -10.0205925037
628.125 0.0415973638578 -69.1712831682
628.75 0.030952355345 -44.9312128733
629.375 0.043523315618 -15.8460582744
630.0 0.0849831179172 9.91870949503
630.625 0.0731056855676 -9.25494269215
631.25 0.066858765454 6.9055437998
631.875 0.0641075515603 -5.86229066535
632.5 0.0635597421959 10.0771867851
633.125 0.0612769959133 -22.8235238613
633.75 0.0374938031383 -4.59034707263
634.375 0.049966074431 1.4133861587
635.0 0.0392094161472 33.2808001653
635.625 0.0471500988498 50.4821803167
636.25 0.0523923757956 39.4036644096
636.875 0.0582046962431 29.9710785456
637.5 0.0399833385097 22.3645165862
638.125 0.0578591604167 71.1468248021
638.75 0.0532900769775 61.05720646
639.375 0.0858614123945 88.1116109765
640.0 0.0708164206071 93.8768329206
640.625 0.068390709076 112.194372842
641.25 0.0587811900452 109.189657535
641.875 0.0560184267056 140.763450702
642.5 0.0561648849288 160.491299061
643.125 0.0676176015054 164.855311617
643.75 0.0496745968239 154.054798698
644.375 0.0612566551525 -177.947752088
645.0 0.0732721955964 178.376633418
645.625 0.108958110836 170.526404859
646.25 0.0746716473685 146.301922972
646.875 0.0629966733609 175.376037993
647.5 0.0660607782195 178.961448071
648.125 0.0974772402347 -173.024273116
648.75 0.0764389143339 -161.099056846
649.375 0.0475558948095 -148.58496474
650.0 0.055594817013 -116.205408591
650.625 0.0648603729638 -85.7843884828
651.25 0.0787971579027 -63.4008166223
651.875 0.064498368649 -40.9575644962
652.5 0.0796223452505 -21.1746175228
653.125 0.118062885267 -0.189430894769
653.75 0.11307084106 5.76468105684
654.375 0.101502033664 7.29654252387
655.0 0.108248196783 8.99828490829
655.625 0.0994139779625 29.0969805981
656.25 0.068080698027 24.5059985343
656.875 0.0680515097359 9.31554123069
657.5 0.0728305361638 23.7175277556
658.125 0.0567441137189 46.0717808447
658.75 0.0696471458982 59.0302179586
659.375 0.0624530043715 46.4104754896
660.0 0.109174744688 28.1549014041
660.625 0.104097374618 17.5408462556
661.25 0.12104783317 3.28514654092
661.875 0.11223030525 -12.3456671023
662.5 0.109101653676 -20.4146680785
663.125 0.104366707233 -15.2293498101
663.75 0.114555334974 4.8850995016
664.375 0.0744162975352 50.8082064015
665.0 0.0759316157105 93.5635033914
665.625 0.0716696497294 112.046104093
666.25 0.0615655796418 134.303774565
666.875 0.107605799348 175.037795319
667.5 0.104545002666 -170.878988367
668.125 0.107353617253 -179.191798622
668.75 0.121912868728 169.829028701
669.375 0.125485472406 178.701292383
670.0 0.0895959625184 -169.213945967
670.625 0.0876430893923 -169.972824229
671.25 0.123929804 174.254067547
671.875 0.097924922155 167.111696676
672.5 0.066401802942 158.68593151
673.125 0.0833965067589 156.165626256
673.75 0.101453183059 162.325666079
674.375 0.111016202814 171.058781098
675.0 0.10917628252 -175.586109126
675.625 0.127685006385 -149.055349819
676.25 0.10328725916 -122.050959046
676.875 0.115989415149 -120.481558653
677.5 0.128260935391 -130.111793824
678.125 0.123961668191 -114.741661273
678.75 0.0786863352798 -93.8655668138
679.375 0.0460964271715 -70.1294632852
680.0 0.0754947786248 -74.0404393096
680.625 0.108034689783 -74.263673742
681.25 0.113488791833 -76.1694683097
681.875 0.0899578838514 -83.5088450522
682.5 0.138469248855 -119.016121548
683.125 0.16963192063 -121.764789925
683.75 0.137845577068 -104.422646773
684.375 0.125634199069 -81.3413468495
685.0 0.109880054696 -34.8350360657
685.625 0.126898936983 0.136946941106
686.25 0.10174369627 23.4983045493
686.875 0.101927805201 42.1468482064
687.5 0.0696612292798 94.7876913233
688.125 0.0790073734652 113.647438653
688.75 0.0998561808462 120.135542324
689.375 0.152660652129 114.218218919
690.0 0.117749267707 139.885653659
690.625 0.11739607334 128.23597862
691.25 0.134136825751 100.80831419
691.875 0.196808205723 67.6782821685
692.5 0.130247291052 40.8771438119
693.125 0.0880546622 -14.7488041774
693.75 0.0926736656214 -34.4459752251
694.375 0.137543984897 -28.2575123936
695.0 0.140585642924 6.22383070825
695.625 0.0922375621733 65.9942406839
696.25 0.117374122051 116.482112618
696.875 0.13906976064 170.771832709
697.5 0.143142049932 -144.166225322
698.125 0.144697322487 -135.576631893
698.75 0.128387862163 -129.419928788
699.375 0.101608910393 -121.811343226
700.0 0.102471344684 -119.539891553
700.625 0.0999824785306 -77.284939722
701.25 0.0966924116882 -59.3897235742
701.875 0.0773146486473 -51.6699247883
702.5 0.0990406832839 -91.0185500675
703.125 0.169480092865 -114.779736773
703.75 0.183392246308 -153.750390825
704.375 0.133028930327 168.430105862
705.0 0.111456426472 160.01691408
705.625 0.151654676115 -178.996760843
706.25 0.128498612037 -102.025145499
706.875 0.0855999949091 -56.9161376187
707.5 0.0679882865269 -28.5126203055
708.125 0.093890851019 5.04345494318
708.75 0.111551068162 81.0231709069
709.375 0.106941626468 111.546339958
710.0 0.0943597530271 133.439569235
710.625 0.108417204062 153.649924645
711.25 0.121138070022 -174.68144407
711.875 0.14902368004 170.69916062
712.5 0.149757514606 150.297443125
713.125 0.132680766255 92.8424485449
713.75 0.0920419947329 62.0403670002
714.375 0.109729057083 22.6018732372
715.0 0.111394829982 21.9042514032
715.625 0.0871347641934 52.604342513
716.25 0.0754355555 68.0330165772
716.875 0.121090459746 110.240822661
717.5 0.150830909967 155.861504662
718.125 0.113676828276 171.654720936
718.75 0.0961105999252 162.186105234
719.375 0.115468743151 -167.599053433
720.0 0.131581146625 -127.931360149
720.625 0.113590578752 -78.8368062158
721.25 0.0956959648213 -32.7688823546
721.875 0.0851030444696 54.2030920785
722.5 0.0795315678156 87.5241870125
723.125 0.0871911703745 79.1362470182
723.75 0.0906360743383 28.8491373866
724.375 0.115854045725 4.98554877369
725.0 0.0967419860335 -37.3684394178
725.625 0.0971612455838 -71.1098588916
726.25 0.116489653635 -67.646909297
726.875 0.0997289203142 -59.819191235
727.5 0.0804220944577 -31.0397662122
728.125 0.0963495464965 11.6596250478
728.75 0.0988418614427 35.5251361506
729.375 0.0661260739837 -0.139943559871
730.0 0.0717169649338 13.9737959984
730.625 0.066751782389 24.1788755305
731.25 0.0608372554186 58.6581096598
731.875 0.0705374687039 114.172185132
732.5 0.0614537623501 143.080628332
733.125 0.112348640496 -171.270853195
733.75 0.0758615377704 168.191675934
734.375 0.0436747356345 143.129819039
735.0 0.0887595359369 170.573806094
735.625 0.0666910931449 146.857133658
736.25 0.0243625523907 147.856504184
736.875 0.0404820421156 172.392593822
737.5 0.0891123323881 -179.636360377
738.125 0.09494528221 -174.346614772
738.75 0.0712977584657 -178.441617592
739.375 0.0578899402133 -173.067036237
740.0 0.0172176771836 -131.812066096
740.625 0.0945061282257 -145.173504275
741.25 0.0724663284131 -154.963261408
741.875 0.0504322015845 -103.954555569
742.5 0.0238783385404 1.30321954377
743.125 0.0728960167094 51.7449104059
743.75 0.0530778729406 86.1916241128
744.375 0.0450783629941 103.587564759
745.0 0.0533351403498 173.465667881
745.625 0.0875005739413 99.8721764651
746.25 0.0853089616106 74.4071416773
746.875 0.0679110809112 52.0612145198
747.5 0.0299463736455 22.7311947647
748.125 0.0170617961423 21.187595831
748.75 0.028278807176 -9.9120227902
749.375 0.0421846576108 -62.5704416019
750.0 0.0352089453454 -97.5550262308
