!Created with skrf (http://scikit-rf.org).
# GHz S RI R (50+0j) 
!freq	ReS11	ImS11	
500.0	-0.325731606	-1.538892577	
500.625	0.3837245148	-0.5179808185	
501.25	-0.69246263	-1.081127343	
501.875	-0.3838769493	-0.2049125708	
502.5	0.02481556303	-0.1687962773	
503.125	-0.108161604	0.04797333628	
503.75	0.01555836309	0.03588468394	
504.375	0.06815451639	0.002619426893	
505.0	-0.01202680658	-0.03556722104	
505.625	0.05662009963	-0.04626751007	
506.25	-0.168364437	-0.06811914903	
506.875	0.03172521701	-0.2214512312	
507.5	-0.2823305021	-0.7164557766	
508.125	0.04116501423	-0.2718494142	
508.75	1.052584909	-0.7943052247	
509.375	0.01623760761	-1.787355213	
510.0	-0.2952346346	-0.1377739292	
510.625	0.0004884462376	-0.2192590983	
511.25	-0.1833221655	0.02828948795	
511.875	-0.003666070335	-0.04477639743	
512.5	-0.02945662826	0.05953404782	
513.125	-0.05928484547	-0.04652016438	
513.75	0.02018789638	-0.07012975539	
514.375	-0.1693519544	-0.05224961451	
515.0	0.19503084	0.1821670189	
515.625	-0.1961578065	-0.6891550435	
516.25	-0.1112281639	-0.1541229461	
516.875	0.1280099893	-0.5700938234	
517.5	-0.1528593844	-0.2897021923	
518.125	0.04331146701	0.001807413535	
518.75	-0.1496249089	-0.1195606885	
519.375	-0.02019521251	0.05728839006	
520.0	0.06926358264	0.09465616172	
520.625	0.2390115905	-0.06048848199	
521.25	-0.05054102499	-0.2887923233	
521.875	-0.03479314831	-0.04773715366	
522.5	-0.1492216557	0.02582993031	
523.125	0.08421717098	0.03130496689	
523.75	-0.1951404196	-0.1523456921	
524.375	-0.1412583597	0.2084273724	
525.0	-0.05380749296	-0.0148910194	
525.625	0.008817551798	0.1518388094	
526.25	-0.0978941103	-0.08003006926	
526.875	-0.07610388737	0.139991857	
527.5	0.06002768299	0.125517782	
528.125	-0.09032332358	0.22622057	
528.75	0.068443063	0.2237584168	
529.375	0.03487050895	-0.03489192532	
530.0	-0.00793948249	0.1679093059	
530.625	0.2170397716	0.2267741966	
531.25	0.2312172249	0.1238826936	
531.875	0.4082839907	-0.2414793562	
532.5	-0.2002952499	-0.06568062007	
533.125	0.2296430932	-0.1353638732	
533.75	-0.03371381935	-0.2624349891	
534.375	0.08053374516	-0.2756601931	
535.0	-0.3622671028	-0.1482107411	
535.625	-0.09652841913	0.1134146043	
536.25	-0.03956526305	0.08910545728	
536.875	0.1432402781	0.001287031492	
537.5	0.02985500939	-0.02676055688	
538.125	0.1910773626	-0.04988698413	
538.75	0.1294889765	-0.1390994963	
539.375	-0.0194189207	-0.1416912211	
540.0	-0.1946379172	-0.2440284013	
540.625	-0.1919263413	0.04596137848	
541.25	-0.03205642721	0.004915209179	
541.875	-0.1212095903	-0.02335135867	
542.5	-0.03743087474	0.03138032223	
543.125	-0.1201375015	-0.1220383453	
543.75	-0.1583519848	0.1121461404	
544.375	-0.05753338599	-0.02305840926	
545.0	0.02162235441	0.1161308687	
545.625	0.01927109552	0.007532384881	
546.25	0.1020819482	0.1241927269	
546.875	0.1178996681	-0.09118751713	
547.5	0.08539646932	-0.06520617614	
548.125	-0.03467609928	-0.2393691426	
548.75	-0.1797446743	-0.06112810244	
549.375	-0.05460335868	-0.08506731457	
550.0	-0.1353619144	0.006835008425	
550.625	-0.00843260762	0.01284996604	
551.25	-0.1104914867	0.0009284015252	
551.875	-0.05755271185	0.09949557218	
552.5	-0.05519687535	0.04627207862	
553.125	-0.0153037081	0.09026614859	
553.75	0.04621711866	0.02966066698	
554.375	0.1095831155	0.01215676112	
555.0	0.1048912083	-0.08181295922	
555.625	0.09493528307	-0.1083209505	
556.25	0.082105024	-0.1523390829	
556.875	-0.03909211426	-0.1773317536	
557.5	-0.1074724138	-0.1109782968	
558.125	-0.1221187043	-0.04966139095	
558.75	-0.1269570043	-0.009330463772	
559.375	-0.116540745	0.02812249305	
560.0	-0.1096913294	0.06782801807	
560.625	-0.06743367959	0.1391191756	
561.25	0.03082462481	0.08718206975	
561.875	0.002674832554	0.06948660526	
562.5	0.04391156228	0.03995539212	
563.125	0.03555033626	0.09977539859	
563.75	0.2027898424	0.02029834674	
564.375	0.09738426674	-0.1108595534	
565.0	0.1326863147	-0.1223094827	
565.625	-0.07141252236	-0.2147226496	
566.25	-0.09172008554	-0.04080482046	
566.875	-0.151954323	-0.1516726848	
567.5	-0.2040167464	-0.07491527102	
568.125	-0.02746784002	-0.1403040976	
568.75	-0.3048681214	-0.1272243398	
569.375	-0.1659321254	0.1753036633	
570.0	-0.1599555039	0.12563853	
570.625	-0.1044950756	0.2870328163	
571.25	0.076068836	0.04940334366	
571.875	0.01199868076	0.1745692311	
572.5	0.1651163703	-0.08668495948	
573.125	0.06139628584	0.0009692062172	
573.75	0.1412155221	-0.1721806901	
574.375	-0.0857842523	-0.08452749288	
575.0	0.1144567985	0.01616967962	
575.625	-0.007288271207	-0.1576186396	
576.25	0.005350059082	-0.01160266382	
576.875	0.06818808089	-0.2227644363	
577.5	-0.09288825612	-0.1863984611	
578.125	0.001282508959	-0.07400404542	
578.75	-0.0165274112	-0.2508479161	
579.375	-0.1994541394	-0.02169348841	
580.0	0.06780491218	-0.02292312084	
580.625	-0.2407524638	-0.02747013239	
581.25	0.0129085659	0.06469581886	
581.875	-0.1599756335	0.1854849427	
582.5	0.1376884817	0.2545877747	
583.125	0.07697732771	-0.03286805556	
583.75	0.007282360287	0.1300108768	
584.375	0.07542639798	-0.07584699617	
585.0	0.02596935011	0.145929741	
585.625	0.2729633706	-0.02998165958	
586.25	0.07665599751	-0.1118731438	
586.875	0.1569236242	-0.09057927465	
587.5	-0.03947824461	-0.2450699251	
588.125	-0.04796537579	-0.04817667907	
588.75	0.1335133084	-0.1781416621	
589.375	-0.03036000127	-0.2722152786	
590.0	0.0009102613822	-0.0924291724	
590.625	-0.2625924308	-0.1401497054	
591.25	-0.07889955903	0.1946448197	
591.875	-0.08814415648	-0.01968568212	
592.5	-0.01801211201	0.159266793	
593.125	-0.007353181872	-0.04458234984	
593.75	0.03066052398	0.2412663724	
594.375	0.140807333	-0.02718331551	
595.0	0.07924063773	0.1080396915	
595.625	0.2458565036	0.1641107505	
596.25	0.1707252184	-0.05787720376	
596.875	0.1259370758	0.1407794005	
597.5	0.2563935529	0.09796640456	
598.125	0.1204581369	0.04186803904	
598.75	0.1587712643	0.1718865416	
599.375	0.2809949609	-0.05558739491	
600.0	0.09010915016	-0.1284008477	
600.625	0.2232891203	-0.1290007693	
601.25	0.05042205494	-0.2954448009	
601.875	-0.09124010783	0.01008678659	
602.5	-0.1423543593	-0.1443122431	
603.125	-0.1234120305	0.1442393604	
603.75	-0.06672811677	-0.03475167938	
604.375	-0.220429154	0.1043908216	
605.0	0.0451712148	0.08656350641	
605.625	-0.1381648061	-0.05021376341	
606.25	-0.09304927283	0.1490856264	
606.875	-0.07282550341	0.06657773944	
607.5	-0.1737948094	0.2497364202	
608.125	0.03280593378	0.3614557712	
608.75	0.1260940073	0.1204567218	
609.375	0.2900696635	0.05063692253	
610.0	0.1995727559	-0.2059148178	
610.625	0.03638626556	-0.07232523935	
611.25	0.1114928689	-0.2179041043	
611.875	-0.1828803717	-0.06022272705	
612.5	-0.03372295774	-0.1205919715	
613.125	-0.3388043905	0.02510576351	
613.75	0.02914267545	0.191633158	
614.375	-0.09340051091	0.09189192802	
615.0	0.1658972868	0.06208366786	
615.625	-0.04275718762	-0.03784318366	
616.25	-0.1475396477	0.2447066802	
616.875	-0.006123166231	0.1911349749	
617.5	-0.1182583915	0.2529025042	
618.125	-0.09127852295	0.321241133	
618.75	0.1421131757	0.205033445	
619.375	0.02960065823	0.1295993314	
620.0	0.154034987	0.1904074147	
620.625	0.03981168273	-0.1683950508	
621.25	0.009131595941	-0.1971935194	
621.875	-0.306052734	-0.1628956903	
622.5	-0.1953335535	0.1782980667	
623.125	-0.1319018851	0.1220322306	
623.75	0.230034797	0.09599987169	
624.375	-0.04485729421	-0.08101968614	
625.0	0.1426411497	-0.005486310191	
625.625	-0.03237312815	-0.1197810195	
626.25	0.04460761959	-0.1138708143	
626.875	-0.1979819573	-0.1473533656	
627.5	-0.1549058972	0.0437782123	
628.125	-0.1057206548	-0.06363715672	
628.75	-0.156745067	-0.1848586428	
629.375	-0.1035821682	-0.1052431695	
630.0	-0.1587018508	-0.1942067839	
630.625	-0.3699766147	-3.167579866e-05	
631.25	-0.0800097838	0.1775104819	
631.875	-0.1407822808	0.1779598026	
632.5	0.2237895068	0.2570930129	
633.125	0.1622931874	-0.08660518415	
633.75	0.2116337052	0.03026358256	
634.375	0.03361131123	-0.2427219993	
635.0	0.01576683712	-0.04696395333	
635.625	-0.1739550988	-0.2191717894	
636.25	-0.1573899203	0.1548901806	
636.875	-0.04284003928	0.04049947146	
637.5	-0.1384195481	0.174275871	
638.125	0.03242628157	0.05421937016	
638.75	-0.1900581123	0.1164690218	
639.375	0.03851646783	0.3630293857	
640.0	0.1430158126	0.1444792414	
640.625	0.1725907823	0.2901094216	
641.25	0.4262899324	0.05256069623	
641.875	0.09033477784	-0.1774366656	
642.5	0.1413216656	-0.121392061	
643.125	-0.2705809421	-0.1933514045	
643.75	0.06446278159	0.1623997132	
644.375	-0.2812781131	-0.1289325431	
645.0	-0.08095372013	0.3185530235	
645.625	-0.04468420497	0.1032879737	
646.25	0.2534152884	0.371877485	
646.875	0.08825345151	-0.1819090092	
647.5	0.02418303842	0.1892024846	
648.125	0.2656967696	-0.04644613504	
648.75	0.0978841799	-0.03345564313	
649.375	0.4483290313	-0.2169632862	
650.0	0.07812937814	-0.4604354179	
650.625	0.09824454323	-0.1062352292	
651.25	0.4021280413	-0.2285819865	
651.875	0.2397359549	-0.3487783481	
652.5	0.1691887544	0.03172018799	
653.125	0.4672966708	0.0005654041375	
653.75	0.1585665205	-0.368038706	
654.375	0.06523981393	-0.1816455192	
655.0	-0.4193094107	-0.2745214914	
655.625	-0.1043342328	0.3333013815	
656.25	-0.07521996506	0.007118133731	
656.875	0.1041267406	0.2696289066	
657.5	0.01499775584	-0.08339578231	
658.125	0.1046610365	0.3840489083	
658.75	0.4029867144	0.002764731569	
659.375	0.202184707	-0.01914529889	
660.0	0.4084103254	-0.2114132105	
660.625	0.1137777004	-0.5071991347	
661.25	0.1005668596	-0.1671014143	
661.875	0.426552769	-0.246578844	
662.5	0.274013297	-0.3254853351	
663.125	0.1837105515	-0.08651860036	
663.75	0.3490538735	-0.325283377	
664.375	-0.1618977959	-0.3627326923	
665.0	-0.1405892415	-0.2259174222	
665.625	-0.457325062	-0.01186051508	
666.25	-0.02001113336	0.4207414709	
666.875	-0.006967001149	0.1516622899	
667.5	0.2697881882	0.2070069672	
668.125	0.1691330124	-0.1257805661	
668.75	0.2426040246	0.06795998252	
669.375	0.1396512303	-0.4096713458	
670.0	-0.06997231277	-0.1374118567	
670.625	0.1705672492	-0.240629095	
671.25	0.04525484642	-0.300938806	
671.875	0.06054618488	-0.03394647659	
672.5	0.3753216191	-0.07800009267	
673.125	0.1682446457	-0.2836408875	
673.75	0.1467461591	-0.1222035648	
674.375	0.2096097088	-0.2879067313	
675.0	-0.1985117896	-0.3165091956	
675.625	-0.0443448467	-0.1033966909	
676.25	-0.2683123636	-0.1620579233	
676.875	-0.1833371863	0.1145734344	
677.5	-0.06610964214	-0.09521344525	
678.125	-0.3767624709	0.2099908871	
678.75	0.1327356565	0.1842561176	
679.375	-0.03367049636	0.2311979046	
680.0	0.3701759725	-0.09027688548	
680.625	-0.1205801696	-0.1458810685	
681.25	0.221074185	0.1984885209	
681.875	0.1767971609	-0.2129339878	
682.5	0.04830749214	0.05416205612	
683.125	0.2967766305	0.3253825084	
683.75	0.3202162257	-0.1601216619	
684.375	0.04984514855	0.08616469475	
685.0	0.3991151158	0.06346391348	
685.625	0.3726491302	-0.126279372	
686.25	0.122852129	0.1085108977	
686.875	0.6226562421	-0.1275338871	
687.5	0.2306836232	-0.2431146217	
688.125	0.2083764448	-0.3658296396	
688.75	-0.5247519856	-0.4295893364	
689.375	-0.1951879195	0.4174886682	
690.0	-0.2206501953	0.2614476762	
690.625	0.4054714804	0.4414418332	
691.25	0.2584391923	0.1345525636	
691.875	0.3482593142	0.6394486597	
692.5	0.8974403384	0.03165569274	
693.125	0.4552682042	0.08049323877	
693.75	0.7742761383	-0.03515679575	
694.375	0.4149490059	-0.5654128263	
695.0	0.2430780071	-0.262432081	
695.625	0.7242851721	-0.08594722487	
696.25	0.6461428164	0.05924652363	
696.875	0.2415724442	0.3346624721	
697.5	0.2585035442	0.5992396608	
698.125	0.7658136654	0.3003600874	
698.75	0.355397205	-0.1626350536	
699.375	-0.2308518815	-0.6982921519	
700.0	-0.3621559531	0.4663068303	
700.625	0.1257421824	0.1008550434	
701.25	0.2367768674	0.4570526545	
701.875	0.3660987846	0.07519323608	
702.5	0.1689427698	0.3188170577	
703.125	0.6050740695	0.2451519328	
703.75	0.3505721194	-0.2236412406	
704.375	0.240714824	0.005288136461	
705.0	0.3256648366	-0.2171253619	
705.625	0.2025455853	-0.1218300986	
706.25	0.4043614609	0.09519973905	
706.875	0.3857175703	0.414735862	
707.5	0.21957454	0.1926514812	
708.125	0.3710723007	0.3820455472	
708.75	0.591661493	-0.1925510685	
709.375	-0.2969488008	-0.2284098269	
710.0	-0.3235770955	-0.04536695789	
710.625	0.07866858733	0.395609042	
711.25	-0.03554087974	-0.06758334639	
711.875	0.2481958014	0.297053113	
712.5	0.3555030009	-0.1430367792	
713.125	0.2128712486	-0.005012421205	
713.75	0.2884276203	-0.2808153516	
714.375	-0.07849377439	-0.2843156756	
715.0	0.05843263858	-0.1016060328	
715.625	0.06977005118	-0.3130545794	
716.25	-0.002018875885	-0.249582393	
716.875	0.2850210185	-0.09469541579	
717.5	0.7785734817	-0.03433531994	
718.125	0.4820515465	-0.156907339	
718.75	0.7143070574	0.3804406057	
719.375	1.233361351	-0.3010821226	
720.0	0.05020960143	-0.8271701972	
720.625	0.8906209997	-0.734959686	
721.25	-0.1149753736	-1.593488	
721.875	-0.4110316131	-0.06918459702	
722.5	-0.2901430232	-1.21033496	
723.125	-1.041363479	-0.1880502524	
723.75	-0.2717721176	0.2787870403	
724.375	-0.3423749187	0.5537941003	
725.0	0.3784051494	0.3493030985	
725.625	-0.02691352627	0.3526931298	
726.25	-0.13002093	0.9169571664	
726.875	0.1904456684	1.068809736	
727.5	-0.2205341007	0.7772694554	
728.125	-0.733895048	2.479427424	
728.75	0.536655974	3.214000101	
729.375	-1.118776909	1.892550061	
730.0	-2.726833397	4.555871429	
730.625	1.49407683	4.79381139	
731.25	-1.817909435	1.715348849	
731.875	-5.496720966	1.602746399	
732.5	-2.725621666	1.921700927	
733.125	-0.5549152815	-1.974885399	
733.75	-1.760829991	1.604811457	
734.375	0.879078349	0.2430609633	
735.0	0.366004655	-0.1860931861	
735.625	-0.8887500125	-0.02438906334	
736.25	0.1621757363	0.2908285024	
736.875	-0.01952185517	0.9284790599	
737.5	1.523768541	0.2811946138	
738.125	1.036651693	-0.8092571628	
738.75	2.000212296	0.3136418453	
739.375	4.349950426	-2.897755743	
740.0	0.6109412695	-2.28992885	
740.625	0.8451613768	3.849509038	
741.25	3.541288223	4.583270798	
741.875	0.5625124831	-2.379405886	
742.5	0.3679651611	-4.82923836	
743.125	-1.037748766	-3.305638799	
743.75	0.2039080773	-0.2832504935	
744.375	-0.5146054503	-0.5856308813	
745.0	0.220753266	0.1274414614	
745.625	0.06734305769	0.2079395391	
746.25	-0.0603519741	-0.210370615	
746.875	-0.1369607502	-0.01629691686	
747.5	-0.3280649199	0.3541817346	
748.125	0.1813107811	0.618981004	
748.75	0.1438349299	0.3883114449	
749.375	-0.02264132267	0.6010403379	
750.0	-0.416610288	0.3829062262	
