!Created with skrf (http://scikit-rf.org).
# GHz S RI R (50+0j) 
!freq	ReS11	ImS11	
500.0	-0.2512627176	-1.017352762	
500.625	0.8544576774	-0.5341254335	
501.25	-0.6601153384	-1.032455507	
501.875	-0.2221341973	-0.2561129905	
502.5	0.02525065729	-0.1825750698	
503.125	-0.07741288414	0.05081080209	
503.75	-0.02581803069	0.03805828365	
504.375	0.06258423846	-0.01462308239	
505.0	-0.01115125851	-0.01022717663	
505.625	0.04315483845	-0.1032516061	
506.25	-0.1516891359	-0.01579901915	
506.875	-0.0536364764	-0.2399513149	
507.5	-0.4769514952	-0.4206331058	
508.125	0.116577551	-0.2597008913	
508.75	1.148569243	-0.9544045889	
509.375	-0.3209506613	-1.881631166	
510.0	-0.1963935397	-0.3497974414	
510.625	-0.07093005839	-0.2797978085	
511.25	-0.09824443221	0.04644769548	
511.875	-0.09559968693	-0.1867373594	
512.5	-0.03765069777	0.06444020133	
513.125	-0.01179131053	-0.00140769962	
513.75	0.001524688051	-0.08067412338	
514.375	-0.1733013372	0.003183305751	
515.0	0.3691756836	-0.317153356	
515.625	-0.3354141117	-0.5645067045	
516.25	0.05425071902	-0.1396300528	
516.875	-0.03255457929	-0.7626030713	
517.5	-0.1688510019	-0.115105486	
518.125	0.06251183064	-0.03501275917	
518.75	-0.1331352805	-0.1590053914	
519.375	-0.02233407724	0.02227644917	
520.0	0.1205484773	0.07725912407	
520.625	0.2294811888	-0.09627540042	
521.25	-0.09133663774	-0.1985680532	
521.875	-0.06777748098	-0.1220516295	
522.5	-0.128122824	0.05322236885	
523.125	0.05101395639	-0.0772534798	
523.75	-0.256441679	-0.04444347779	
524.375	-0.05413334589	0.1530396205	
525.0	-0.2058752479	0.04247690314	
525.625	0.07184766544	0.1637363286	
526.25	-0.09311841353	-0.06003920437	
526.875	-0.0157460129	0.1151468777	
527.5	-0.1521088433	0.1692140709	
528.125	-0.085768519	0.3463965958	
528.75	0.146188922	0.3416316083	
529.375	-0.03326198028	-0.007684095144	
530.0	0.07538613629	0.3257677292	
530.625	0.1393259417	0.1222314423	
531.25	0.2877069519	0.272649785	
531.875	0.373906137	-0.2952444703	
532.5	-0.1115708353	0.03769068888	
533.125	0.1450373389	-0.2003117939	
533.75	-0.01910235047	-0.1019196448	
534.375	0.06037363778	-0.3907738284	
535.0	-0.3666820782	-0.120434759	
535.625	-0.1119604098	0.05932870313	
536.25	-0.0442823986	0.114758788	
536.875	0.125150891	-0.01558164177	
537.5	0.04853116061	0.004119483412	
538.125	0.1903068364	-0.0973053707	
538.75	0.09969931048	-0.1234301906	
539.375	-0.0181601241	-0.1897983185	
540.0	-0.141293912	-0.2196483898	
540.625	-0.1236062427	0.03465630286	
541.25	-0.05315295276	-0.03572294949	
541.875	-0.122416744	-0.03977810206	
542.5	0.03083349574	-0.05838968125	
543.125	-0.1469419133	-0.09770638391	
543.75	-0.06927634664	0.09974625498	
544.375	-0.1071655291	-0.001909148871	
545.0	0.05400400889	0.1246832411	
545.625	-0.0126033711	0.04889026992	
546.25	0.1666847906	0.07463956991	
546.875	0.07357551664	-0.06234612914	
547.5	0.118153334	-0.05362285539	
548.125	-0.0707490195	-0.2349281753	
548.75	-0.1278870521	-0.05563657768	
549.375	-0.07268382169	-0.1231034135	
550.0	-0.1234021339	0.008994553697	
550.625	-0.01469597193	-0.01730674306	
551.25	-0.1281084069	0.04234356913	
551.875	-0.0407434749	0.06504717933	
552.5	-0.07435682553	0.04250424182	
553.125	-0.003976774998	0.08179136736	
553.75	0.03133501388	0.04488241366	
554.375	0.1158217805	0.005375940479	
555.0	0.09971064321	-0.08436705066	
555.625	0.1013378114	-0.1050242592	
556.25	0.08400947652	-0.1524988671	
556.875	-0.03521181434	-0.1759130647	
557.5	-0.1001322628	-0.1153586052	
558.125	-0.1258996461	-0.05580892841	
558.75	-0.1266404246	-0.006686506762	
559.375	-0.1138781405	0.01691377062	
560.0	-0.1232001491	0.06450120148	
560.625	-0.05743863185	0.1379527646	
561.25	0.005125160285	0.08180925816	
561.875	0.02255212169	0.08211271098	
562.5	0.02863360301	0.0276644755	
563.125	0.0502006124	0.1183769388	
563.75	0.190415397	-0.01800902712	
564.375	0.1050698276	-0.06321022158	
565.0	0.1727321608	-0.1450343003	
565.625	-0.076640976	-0.1771081663	
566.25	-0.05553654597	-0.1096767726	
566.875	-0.1933424802	-0.1411254499	
567.5	-0.1649632029	-0.01843944003	
568.125	-0.08241281875	-0.2217265712	
568.75	-0.315776039	-0.08882306565	
569.375	-0.1492307251	0.09650243554	
570.0	-0.226281572	0.1593249951	
570.625	-0.03698086774	0.2723721213	
571.25	-0.002759175858	0.04174832298	
571.875	0.07688669738	0.1867348114	
572.5	0.08442634716	-0.0940951495	
573.125	0.1447697065	-0.02147691062	
573.75	0.07941483902	-0.2198318984	
574.375	-0.06469403405	-0.01249307001	
575.0	0.137382074	-0.05405805977	
575.625	-0.04538373044	-0.09591369814	
576.25	0.1164724116	-0.03107509909	
576.875	-0.001488603961	-0.2444896594	
577.5	-0.1355811706	-0.1262031825	
578.125	0.04705360357	-0.1198535123	
578.75	-0.1266971327	-0.2334053552	
579.375	-0.1259950046	0.05420370365	
580.0	0.05032457844	-0.1398799827	
580.625	-0.1541764468	0.03957061713	
581.25	-0.04292112389	-0.0114206343	
581.875	-0.1002870413	0.2932379319	
582.5	0.1817762544	0.1420645324	
583.125	-0.04200656432	0.01379933679	
583.75	0.08503830087	0.1347599264	
584.375	-0.004919116869	-0.06235622969	
585.0	0.09644652323	0.1809031766	
585.625	0.2106687525	-0.09084584488	
586.25	0.06751187632	-0.03585972641	
586.875	0.1794145642	-0.1416587752	
587.5	-0.1022882177	-0.1797450771	
588.125	0.04855716838	-0.05760644785	
588.75	0.0937078942	-0.2403655026	
589.375	-0.05967486088	-0.1669782187	
590.0	0.05546535464	-0.1694558315	
590.625	-0.4071892443	-0.05141135752	
591.25	-0.03650789375	0.1383495707	
591.875	-0.1130057573	0.05672694145	
592.5	0.04885597144	0.1439785415	
593.125	-0.1957502833	-0.01150906408	
593.75	0.1465739184	0.2151182614	
594.375	0.08457362156	0.0299154834	
595.0	0.113705272	0.1840035092	
595.625	0.2768392228	0.03751436957	
596.25	0.08669232171	-0.0284568206	
596.875	0.1828781811	0.1506435853	
597.5	0.235835377	0.04209302945	
598.125	0.1062398295	0.1308903929	
598.75	0.2113100412	0.1903625092	
599.375	0.2372525207	-0.109365952	
600.0	0.1464413543	-0.06748148836	
600.625	0.2428471178	-0.2079206435	
601.25	-0.009796309003	-0.2569771272	
601.875	0.03834191709	-0.06985593633	
602.5	-0.2245278427	-0.08315082706	
603.125	0.02830142956	0.0860395092	
603.75	-0.1266396057	-0.04060265574	
604.375	-0.1888839834	0.149759878	
605.0	0.01689231176	0.01653520158	
605.625	-0.1833552004	0.0556524723	
606.25	-0.08320149677	0.1084362939	
606.875	-0.1265034493	-0.007816946712	
607.5	-0.2286207326	0.2330567551	
608.125	0.02822715031	0.2523239029	
608.75	0.07374527119	0.1918142924	
609.375	0.3692366745	0.01215104944	
610.0	0.1286128187	-0.1908283522	
610.625	0.1179887917	-0.05459193309	
611.25	0.03326771886	-0.3057791873	
611.875	-0.09814214255	-0.01964235361	
612.5	-0.1172137705	-0.1964829319	
613.125	-0.3079562403	0.1192393238	
613.75	-0.02930133765	-0.01206667683	
614.375	-0.07534278604	0.1882156811	
615.0	0.1683088027	0.01829890082	
615.625	-0.1275543315	0.03268617468	
616.25	0.03192134084	0.206984482	
616.875	0.02368607991	0.1280566101	
617.5	-0.1789615414	0.1851994637	
618.125	-0.02377974323	0.3575034132	
618.75	0.0532579595	0.2551838524	
619.375	-0.01611123035	0.2295123531	
620.0	0.2810253201	0.08234205735	
620.625	0.05935716583	-0.09248714028	
621.25	0.08382600758	-0.2039673612	
621.875	-0.3116607856	-0.0754113898	
622.5	-0.1245298705	0.03983182527	
623.125	-0.1649446204	0.2069293233	
623.75	0.2365507011	0.03720812882	
624.375	-0.03203297237	0.0004908992097	
625.0	0.123571284	-0.09965378425	
625.625	-0.01424776589	-0.03382894053	
626.25	0.0331030662	-0.1902605031	
626.875	-0.2210141022	-0.1028849318	
627.5	-0.08880486882	0.01645456432	
628.125	-0.09533387782	-0.1164706243	
628.75	-0.1582284875	-0.114639475	
629.375	-0.1024030881	-0.1008695243	
630.0	-0.2185224823	-0.1926562753	
630.625	-0.3169583927	0.1037540714	
631.25	-0.06992633467	0.1512411999	
631.875	-0.1389268756	0.3247983829	
632.5	0.2114756443	0.1928535042	
633.125	0.104096743	0.0450993268	
633.75	0.2901867899	-0.02166053264	
634.375	-0.04877400781	-0.2259642441	
635.0	0.08594953222	-0.1134077852	
635.625	-0.2314047682	-0.1513024789	
636.25	-0.106521328	0.1201688286	
636.875	-0.1358985997	0.02935384847	
637.5	-0.06192186739	0.2352610486	
638.125	-0.03836068307	-0.01341507326	
638.75	-0.1776332433	0.2230099822	
639.375	0.09897306289	0.2873898512	
640.0	0.1291274439	0.1571902248	
640.625	0.2664604096	0.2896774091	
641.25	0.3354034653	-0.09886704641	
641.875	0.1318095565	-0.07019130643	
642.5	0.1572123327	-0.3389246795	
643.125	-0.2265367453	-0.04470195236	
643.75	0.07666858366	-0.09565561829	
644.375	-0.3467837788	-0.009267192597	
645.0	0.05131461309	0.1607519125	
645.625	-0.141658604	0.2053634983	
646.25	0.3856028728	0.1320863785	
646.875	-0.02322244759	-0.08287949664	
647.5	0.1703582329	0.1788807586	
648.125	0.1674005142	-0.08668483252	
648.75	0.2248392518	0.1274887282	
649.375	0.4106674497	-0.3681293025	
650.0	-0.01921578579	-0.3366060453	
650.625	0.2592796189	-0.1443568857	
651.25	0.3513805796	-0.3779675394	
651.875	0.1093193423	-0.2333012353	
652.5	0.3110972198	0.1060782967	
653.125	0.4482831266	-0.1955692802	
653.75	0.07753875293	-0.1745257756	
654.375	0.1717040409	-0.3474407876	
655.0	-0.614642835	-0.1963300593	
655.625	-0.0561523588	0.2013428966	
656.25	-0.143415706	0.1656410017	
656.875	0.2400376913	0.1772284962	
657.5	-0.1845351387	0.009701329531	
658.125	0.3476188119	0.3341500341	
658.75	0.2891349649	-0.03681400071	
659.375	0.2970822712	0.0420973551	
660.0	0.4258326689	-0.3786683678	
660.625	-0.07014098469	-0.364035512	
661.25	0.2537831741	-0.1495946511	
661.875	0.3496780194	-0.3452787142	
662.5	0.1877303799	-0.2655536097	
663.125	0.3182992525	-0.02684430362	
663.75	0.2691965576	-0.4163877189	
664.375	-0.09399948442	-0.2553451113	
665.0	-0.1449086283	-0.3158069302	
665.625	-0.4738832639	0.08977175671	
666.25	-0.01983124056	0.2226354564	
666.875	-0.0129535625	0.285462965	
667.5	0.3705377737	0.1137107002	
668.125	0.1086193565	-0.03138162105	
668.75	0.3403630559	-0.06775173545	
669.375	-0.000312497005	-0.3532476315	
670.0	0.09004384629	-0.08799368917	
670.625	0.1130620403	-0.2810382766	
671.25	-0.04859047602	-0.2390664082	
671.875	0.2311721719	-0.003296071467	
672.5	0.342768444	-0.2222429303	
673.125	0.1405688862	-0.2039522143	
673.75	0.2155128974	-0.1073792936	
674.375	0.1607552768	-0.3925042329	
675.0	-0.1488659375	-0.1301260884	
675.625	-0.05420473804	-0.2291693607	
676.25	-0.3169665844	-0.07859532098	
676.875	-0.08275889138	0.09409989857	
677.5	-0.1642649364	-0.2011755003	
678.125	-0.1914595963	0.2863893217	
678.75	0.03709301072	0.09035863279	
679.375	0.1451352963	0.3610349688	
680.0	0.2693236532	-0.2983957676	
680.625	-0.115485637	0.2318071596	
681.25	0.3092407918	0.009785611364	
681.875	0.1028495557	-0.1040998896	
682.5	0.04702461185	0.2485674726	
683.125	0.5042307914	0.10779886	
683.75	0.1812384959	-0.1250088422	
684.375	0.2147825169	0.2536274428	
685.0	0.4430135982	0.08411070024	
685.625	0.1951993662	-0.1232948651	
686.25	0.3990088899	0.1546326201	
686.875	0.4560963092	-0.3414746129	
687.5	0.2131434075	-0.181035143	
688.125	0.2327861504	-0.4951657566	
688.75	-0.6096975487	-0.3021492474	
689.375	-0.1431875226	0.171412059	
690.0	-0.1371134312	0.5336877497	
690.625	0.4054607295	0.2389051307	
691.25	-0.09981039898	0.3415498484	
691.875	0.5701021706	0.6424081068	
692.5	0.6940580036	0.04482223553	
693.125	0.5928505414	0.2230435345	
693.75	0.8289083454	-0.220726145	
694.375	0.3547854767	-0.4600415531	
695.0	0.4376112426	0.0004025347299	
695.625	0.7710595594	-0.07102816441	
696.25	0.4905061935	0.04301953614	
696.875	0.3344070272	0.4389048371	
697.5	0.467966897	0.7946124944	
698.125	0.5545179969	0.06956456517	
698.75	0.6099509869	-0.08989095488	
699.375	-0.2650365996	-0.7350325995	
700.0	-0.2346649409	0.4241810082	
700.625	-0.1148159524	0.2267059308	
701.25	0.4454412928	0.3065036985	
701.875	0.08817448631	0.1125958526	
702.5	0.2634848775	0.4457198283	
703.125	0.6125501708	0.1328149269	
703.75	0.234548045	-0.08638714036	
704.375	0.4437499109	-0.16801363	
705.0	0.2941533328	-0.2173016603	
705.625	0.120360786	0.01634521306	
706.25	0.2481344064	0.2273354032	
706.875	0.3621745195	0.2511920835	
707.5	0.4856449695	0.3085892865	
708.125	0.4883518419	0.3502656669	
708.75	0.4306080463	-0.4392255662	
709.375	-0.06227237197	-0.1943753933	
710.0	-0.4078430491	-0.1223070162	
710.625	0.1851519466	0.1474938606	
711.25	-0.08038384031	0.1475931116	
711.875	0.3643489652	0.2229850745	
712.5	0.1899169253	-0.06169224613	
713.125	0.3693709162	-0.01246231809	
713.75	0.1989649851	-0.3670776738	
714.375	-0.05376637264	-0.1763682296	
715.0	0.07405193564	-0.2212924408	
715.625	-0.0765061437	-0.3423805043	
716.25	0.1009373002	-0.1033458005	
716.875	0.418962387	-0.09241970224	
717.5	0.6575854737	-0.2347592761	
718.125	0.6503488496	-0.176123392	
718.75	1.070496783	0.1846737731	
719.375	0.7715755002	-0.7079250621	
720.0	0.1993599779	-0.4228245396	
720.625	1.195913456	-0.986577837	
721.25	-0.3552469716	-0.9669692774	
721.875	0.474622654	-0.6876546538	
722.5	-0.6235033996	-1.221787445	
723.125	-0.8543306677	0.06286424623	
723.75	-0.4460505072	0.08986863676	
724.375	-0.04250763758	0.7358181701	
725.0	0.2138595859	0.2084182465	
725.625	-0.05910391642	0.518299318	
726.25	0.09065694728	0.9506075273	
726.875	0.09545637453	0.694534681	
727.5	-0.7333188303	1.16838714	
728.125	-0.00378195599	2.729055701	
728.75	0.4873173151	2.34570577	
729.375	-2.354556305	2.63282718	
730.0	-0.08171713035	5.977527158	
730.625	0.6324133913	3.288269971	
731.25	-2.945126754	1.551851524	
731.875	-3.328443913	4.224836366	
732.5	-1.709726554	0.4970021893	
733.125	-3.293817678	-1.837634852	
733.75	-1.156519102	2.049417006	
734.375	0.5434322338	0.2583364751	
735.0	0.5549353391	-0.6536867609	
735.625	-0.6276539804	0.3629430754	
736.25	-0.2831380693	0.06113824969	
736.875	0.3287765025	0.984745562	
737.5	1.327089658	-0.05871375331	
738.125	0.6185574483	-0.1008776528	
738.75	3.379378901	-0.288994272	
739.375	1.98319323	-3.051753083	
740.0	0.7843109098	0.2284274041	
740.625	4.584304863	2.765944688	
741.25	4.976724011	0.4302778315	
741.875	-2.243199209	-5.35811947	
742.5	-2.812704913	-3.85149638	
743.125	-0.9115187828	-0.9751706812	
743.75	0.8645504867	-0.8632887153	
744.375	-1.106220579	-0.3303853993	
745.0	0.1295272862	-0.03487946881	
745.625	0.2015905799	0.121367361	
746.25	-0.07102495197	-0.1014853417	
746.875	-0.1699381702	-0.185625714	
747.5	-0.2013285761	0.4365497874	
748.125	0.1610543353	0.5177980775	
748.75	0.07771700992	0.4665025043	
749.375	0.09121462538	0.6318884761	
750.0	-0.2708436252	0.2312689815	
