!Created with skrf (http://scikit-rf.org).
# GHz S RI R (50+0j) 
!freq	ReS11	ImS11	
500.0	2.085667769	-4.600448128	
500.625	0.482567647	-1.292112854	
501.25	-1.969759685	-3.471295548	
501.875	-0.4009035765	-0.764729502	
502.5	-0.3113607493	-0.496890403	
503.125	-0.1629686514	0.1707648357	
503.75	-0.06193700852	0.04814737583	
504.375	0.1993938644	-0.01640171888	
505.0	-0.09995574178	-0.04994553958	
505.625	0.1880420563	-0.1941712915	
506.25	-0.4783020748	-0.01698168239	
506.875	-0.129464906	-0.7056336545	
507.5	-1.791795812	-0.0907274219	
508.125	1.550283885	-0.9051146273	
508.75	1.371033505	-4.667596654	
509.375	-2.679076338	-1.802458665	
510.0	-0.4971230859	-0.9841917576	
510.625	-0.9387561241	-1.186398714	
511.25	-0.2057557846	-0.02068979216	
511.875	-0.4937245405	-0.1789013099	
512.5	-0.08483698913	0.2148713441	
513.125	-0.03668561679	-0.1926248629	
513.75	-0.2168927772	-0.2953003535	
514.375	-0.4533594296	0.1003365685	
515.0	1.307342694	-0.3614736298	
515.625	-2.509100049	-0.8901146948	
516.25	1.258805791	-0.2608669052	
516.875	-1.493624598	-2.780213017	
517.5	-0.8094786091	0.1980580286	
518.125	0.04370660706	-0.4586304758	
518.75	-0.5864753308	0.2187524274	
519.375	-0.231414878	-0.03079963653	
520.0	0.5167430005	0.2073465794	
520.625	0.2487600131	-0.314729263	
521.25	0.1679574708	-0.5725437826	
521.875	-0.5009355112	0.1129096793	
522.5	-0.05845570905	-0.02851331431	
523.125	-0.1263185433	0.2760937217	
523.75	-0.1501407358	-0.1104377037	
524.375	-0.5766386093	0.4088086903	
525.0	-0.01685406389	0.09478933853	
525.625	0.07168015915	0.2974114567	
526.25	-0.1878789673	-0.2624717669	
526.875	0.01009424835	0.3051348811	
527.5	-0.1549193206	0.1635070827	
528.125	0.09888040621	1.128571919	
528.75	0.5155769471	0.4098685566	
529.375	-0.06083841409	0.2870888163	
530.0	0.4466693447	0.232669374	
530.625	-0.1293575286	0.863295852	
531.25	1.259233221	-0.3017452113	
531.875	0.4903158196	-0.2336168262	
532.5	-0.516953807	-0.4230578898	
533.125	0.8253251856	0.02831870138	
533.75	-0.4068314878	-0.7077488031	
534.375	0.1563483014	-0.471511026	
535.0	-1.107561968	-0.2411549447	
535.625	-0.08066918186	0.186068836	
536.25	-0.1173562734	0.3146597794	
536.875	0.3017737518	-0.1473723358	
537.5	0.1369433068	0.06436756745	
538.125	0.411178632	-0.2959023345	
538.75	0.1055615531	-0.2653846221	
539.375	-0.04961285216	-0.4132351621	
540.0	-0.4988843369	-0.361282672	
540.625	-0.3178583448	0.01635839982	
541.25	-0.1910400965	-0.03346116065	
541.875	-0.1332573423	0.04225104089	
542.5	-0.06898030242	-0.1674556171	
543.125	-0.2677710434	-0.1016367425	
543.75	-0.1276846229	0.1274226943	
544.375	-0.1730464929	-0.03752381551	
545.0	0.1365262635	0.2758487981	
545.625	-0.1386176546	-0.02405591873	
546.25	0.4738467674	0.2457257054	
546.875	0.02446711829	-0.1925766892	
547.5	0.3712851006	-0.1833525827	
548.125	-0.357970706	-0.4847177032	
548.75	-0.06240732645	-0.1265036942	
549.375	-0.2967149032	-0.3367683002	
550.0	-0.2099802943	0.1690835179	
550.625	-0.04636618783	-0.1152810327	
551.25	-0.2618877664	0.1805230171	
551.875	-0.06881024834	0.117990831	
552.5	-0.1733717284	0.2073260897	
553.125	0.02286411045	0.1437875055	
553.75	0.1000919162	0.1377163255	
554.375	0.2309021996	-0.03346013301	
555.0	0.2112240627	-0.1567608846	
555.625	0.2002368255	-0.252472806	
556.25	0.1432350642	-0.3514781024	
556.875	-0.1070404473	-0.3721637696	
557.5	-0.2250208829	-0.2259625282	
558.125	-0.2688193102	-0.09759173694	
558.75	-0.2614959424	0.01709791972	
559.375	-0.221517883	0.03284778245	
560.0	-0.2608021499	0.1939870888	
560.625	-0.03234202433	0.2505751343	
561.25	-0.06999489781	0.2007037042	
561.875	0.1609096161	0.1410124749	
562.5	-0.04227680587	0.0329575504	
563.125	0.2008660419	0.2803566426	
563.75	0.2880901388	-0.1436194918	
564.375	0.2839057024	-0.07983984057	
565.0	0.1692242668	-0.4792302597	
565.625	-0.1092798405	-0.1988738091	
566.25	-0.2287278123	-0.3828335497	
566.875	-0.4108486452	-0.03729004692	
567.5	-0.1610264197	-0.2317315005	
568.125	-0.3712881949	-0.5380129789	
568.75	-0.6163647832	-0.001406744727	
569.375	-0.3049855113	0.07478898237	
570.0	-0.5980637088	0.5797246816	
570.625	0.2048629864	0.471966139	
571.25	-0.2823700163	0.07875516577	
571.875	0.5288400283	0.2076686757	
572.5	-0.07453657313	0.2008687009	
573.125	0.506050877	-0.4646101088	
573.75	-0.2541289568	-0.3161928316	
574.375	0.218468332	0.1153461576	
575.0	0.08329140663	-0.4213443285	
575.625	0.001195081176	0.1592793551	
576.25	0.3356383129	-0.4128603887	
576.875	-0.2988838852	-0.289384517	
577.5	0.2186257303	-0.1431225838	
578.125	-0.1593239943	-0.6692263469	
578.75	-0.3357199187	-0.06319730961	
579.375	0.01575125425	-0.1084193395	
580.0	-0.2361845233	-0.2815656862	
580.625	-0.07305642593	0.2040969713	
581.25	-0.3501228723	-0.1601576958	
581.875	0.1402638649	0.6861047127	
582.5	0.2436336897	-0.04893533511	
583.125	-0.1652515982	0.4366921897	
583.75	0.4491128394	-0.2669519597	
584.375	-0.223386451	0.4542630656	
585.0	0.6164054105	-0.05349900112	
585.625	-0.06728539607	-0.06491213144	
586.25	0.5434845571	0.1102136417	
586.875	0.1041090146	-0.6019066382	
587.5	-0.04881989424	-0.03698037073	
588.125	0.1541299838	-0.5084856277	
588.75	-0.2278391584	-0.346327494	
589.375	0.4584044357	-0.1288576865	
590.0	-0.3536326278	-0.5229623102	
590.625	-0.1528686093	-0.01011042827	
591.25	-0.50363719	0.1655753997	
591.875	-0.0456353354	0.4535936526	
592.5	0.1761855823	-0.02255570214	
593.125	-0.3377392257	0.234848834	
593.75	0.4128387269	0.128090625	
594.375	-0.03957162954	0.2660259747	
595.0	0.72812508	0.4782655004	
595.625	0.1502755043	-0.1945586586	
596.25	0.4140934279	0.4645245448	
596.875	0.5706585315	-0.2576758757	
597.5	-0.138943305	0.3271659921	
598.125	0.6648252132	0.515498498	
598.75	0.4060772371	-0.06088823902	
599.375	0.3605304247	0.1095303193	
600.0	0.5441941291	-0.4129246444	
600.625	0.1164299476	-0.4376688727	
601.25	0.3114731569	-0.323715166	
601.875	-0.3234123418	-0.4185373955	
602.5	-0.09647119064	-0.03233118964	
603.125	-0.3947072403	0.1147135136	
603.75	-0.1354927354	0.1810019314	
604.375	-0.19821756	0.1653256515	
605.0	-0.1801972115	-0.008534893095	
605.625	-0.2133592966	0.3888054193	
606.25	0.002989165063	-0.07825911921	
606.875	-0.8631637583	0.2470751927	
607.5	0.1049916225	0.4386870468	
608.125	-0.4415397605	0.3765859679	
608.75	0.8987394344	0.4509693348	
609.375	0.07596092339	-0.04887005293	
610.0	0.7486950721	-0.2693820828	
610.625	-0.1083045869	-0.5031932889	
611.25	0.3273395801	-0.1843293648	
611.875	-0.4541182359	-0.2610432045	
612.5	-0.1255868154	-0.234189434	
613.125	-0.6361655026	0.1096053006	
613.75	0.04599021184	0.1968040026	
614.375	-0.05379144405	0.4896971332	
615.0	0.2185586772	-0.1184280977	
615.625	-0.3027004348	0.3854292353	
616.25	0.2623677757	0.3785081989	
616.875	-0.3675710324	0.1375718823	
617.5	-0.1825593827	0.8007235991	
618.125	0.190035389	0.2628319195	
618.75	-0.1798093808	0.5890546406	
619.375	0.4263778862	0.2460819634	
620.0	0.2511769942	0.2076942455	
620.625	0.3199947605	-0.5092844004	
621.25	-0.1763298269	-0.2725663412	
621.875	-0.5930872106	-0.2301865741	
622.5	-0.2877798619	0.1732458978	
623.125	-0.3663505434	0.4503633791	
623.75	0.5202398126	-0.1185843516	
624.375	-0.01316635929	0.2879958871	
625.0	-0.08038727656	-0.4169595086	
625.625	0.3191094658	0.07136551742	
626.25	-0.2897399263	-0.5891884209	
626.875	-0.1309532368	0.1853555472	
627.5	-0.3416771328	-0.5173406688	
628.125	-0.476625219	0.07794701318	
628.75	0.02431057306	-0.1098226299	
629.375	-0.1319083058	-0.5154406269	
630.0	-0.6006118555	-0.06974474754	
630.625	-0.3492169423	0.02234340583	
631.25	-0.4140774152	0.5543748352	
631.875	0.1176487232	0.4818963894	
632.5	0.1365275032	0.4919063591	
633.125	0.6748121064	-0.00390663757	
633.75	0.2205327797	-0.1392692062	
634.375	0.1914419216	-0.2588621955	
635.0	0.01950798751	-0.4777786815	
635.625	-0.4705812036	0.08254038131	
636.25	-0.1558734201	-0.2877256892	
636.875	-0.3485632785	0.6535380134	
637.5	0.3087147247	0.006073498713	
638.125	-0.6049851197	0.2971380638	
638.75	0.411972841	0.3196299208	
639.375	-0.4645437722	0.4381083194	
640.0	0.7281637227	0.8127755008	
640.625	0.3409671049	-0.1370286149	
641.25	0.5276270808	0.4407252428	
641.875	0.609448892	-0.799265599	
642.5	-0.3616082824	-0.3241711486	
643.125	0.08859176955	-0.3296516643	
643.75	-0.6423683124	-0.175023187	
644.375	0.03395125785	0.06142983016	
645.0	-0.6580269564	0.4575844543	
645.625	0.40050878	0.3973107271	
646.25	0.1138549141	0.1073639804	
646.875	0.479782756	0.2244410197	
647.5	-0.04842070759	-0.3507348744	
648.125	0.3023311286	0.58079699	
648.75	0.9534241447	-0.5212521378	
649.375	-0.176895399	-0.4669086812	
650.0	1.037223432	-0.2438730751	
650.625	0.02168783256	-1.411475224	
651.25	0.01651444916	0.08122039126	
651.875	1.308444438	-0.4102592641	
652.5	0.2367148817	-0.8948902571	
653.125	0.3999158932	0.3338976635	
653.75	0.7456520431	-0.8787918083	
654.375	-0.6344077948	-0.5304907046	
655.0	-0.1522259915	-0.2774729372	
655.625	-0.9025301519	0.6279348376	
656.25	0.5000850302	0.1053167967	
656.875	-0.2397910408	0.3059278212	
657.5	0.4695097135	0.1618826528	
658.125	-0.04041099212	0.1854855536	
658.75	0.8960620388	0.5118494443	
659.375	0.7358470978	-0.7407292763	
660.0	0.1419928418	-0.4810628459	
660.625	0.6280124926	-0.4935453004	
661.25	0.3049229272	-1.320515657	
661.875	-0.00619825409	-0.07840788085	
662.5	1.084321796	-0.5841127906	
663.125	0.1861299571	-0.7625514312	
663.75	0.5275928924	-0.1058596194	
664.375	-0.3705621779	-1.316149801	
665.0	-0.5730074727	0.07552994144	
665.625	-0.5567772265	-0.1053772277	
666.25	-0.4215679174	0.8108585577	
666.875	0.5669707753	0.2315836823	
667.5	0.1687655809	0.4794879547	
668.125	0.6552159171	-0.2841791245	
668.75	0.1605912887	-0.1503103666	
669.375	0.5575345092	-0.660090755	
670.0	-0.4121320052	-0.4417421975	
670.625	0.1964544708	-0.2262499546	
671.25	0.2355505403	-0.5280055582	
671.875	0.2091546051	-0.6433062044	
672.5	0.04671505206	-0.2130387361	
673.125	0.921465024	-0.2061056099	
673.75	-0.05700397467	-0.810600404	
674.375	0.2712005679	-0.2200242083	
675.0	-0.3126982699	-1.014037311	
675.625	-0.3889237309	0.3684704704	
676.25	-0.3071287345	-0.6692455302	
676.875	-0.6595819389	0.5113290493	
677.5	0.1614792137	0.005002901795	
678.125	-0.7401611155	0.2265934838	
678.75	0.4958397865	0.7001762395	
679.375	0.1618242537	-0.05670600868	
680.0	0.5593580672	0.01912172561	
680.625	-0.005144372571	-0.584731212	
681.25	0.17438309	0.5037024716	
681.875	0.600581797	-0.2218419989	
682.5	0.1890977985	0.08113663735	
683.125	0.5282727145	0.4317724204	
683.75	0.9215363449	0.1104328244	
684.375	0.4799064648	-0.3388241579	
685.0	0.2450184044	0.4764192811	
685.625	1.344688627	-0.04670021217	
686.25	0.04726741842	-0.6622484734	
686.875	1.340810866	0.410406476	
687.5	-0.2190394278	-1.547691755	
688.125	0.4526904546	-0.3777030798	
688.75	-1.561824289	-0.895464693	
689.375	0.3049430073	1.120352004	
690.0	-0.5921937704	0.7030081366	
690.625	1.208226929	0.5761808153	
691.25	0.4768380933	0.2985867317	
691.875	0.9860909644	0.9367177624	
692.5	1.59162474	0.2263286498	
693.125	1.278784064	0.05969869943	
693.75	1.368940493	-0.6408664509	
694.375	0.8621216969	-0.9765753027	
695.0	1.063467987	-0.717880325	
695.625	0.9745375634	-0.321189048	
696.25	1.396804213	0.6388483753	
696.875	1.314316468	0.1601483309	
697.5	0.3430440804	1.094903947	
698.125	2.276968345	0.3120367995	
698.75	-0.009677708808	-0.6421803028	
699.375	-0.8114237261	-1.602733489	
700.0	-0.144507324	1.37670765	
700.625	-0.3924596913	0.3246590892	
701.25	1.200305098	0.5150638559	
701.875	0.1854576656	0.1970285328	
702.5	0.9817313458	0.9957023054	
703.125	0.9393934071	-0.2899806898	
703.75	0.9241174612	0.305053666	
704.375	0.7227813606	-0.8883144193	
705.0	0.1404694137	-0.09179329545	
705.625	1.295304703	0.06997585513	
706.25	0.2377192075	-0.1776380277	
706.875	0.3596310759	1.111864193	
707.5	1.43432874	0.3906599787	
708.125	0.3917512848	0.5333106194	
708.75	0.9661532301	-1.330970763	
709.375	-1.008864801	-0.217485239	
710.0	-0.4493804191	0.2844799911	
710.625	0.3246705342	0.5076288661	
711.25	0.1231958769	0.1807049164	
711.875	0.6284261139	0.3218429959	
712.5	0.5816557387	-0.1172257647	
713.125	0.5943241733	-0.4974051905	
713.75	0.2371057339	-0.5345098831	
714.375	0.164939339	-0.6629632484	
715.0	-0.402525223	-0.4391132432	
715.625	0.3769835807	-0.1164580653	
716.25	0.6023622699	-1.359088488	
716.875	-0.3428800999	-0.2414586844	
717.5	1.830176141	0.69561084	
718.125	2.413135815	-1.290083651	
718.75	0.112972358	1.015143705	
719.375	3.798119903	-2.521885163	
720.0	-0.5110224709	-0.9639531924	
720.625	1.912921617	-2.020997794	
721.25	-1.675720282	-3.523189104	
721.875	-1.339433393	-1.00248847	
722.5	-0.9375567767	-2.361644719	
723.125	-2.356364202	0.09149598006	
723.75	-0.3818642786	1.157185246	
724.375	-0.1672486147	0.8852900949	
725.0	0.9003631559	0.9791273903	
725.625	0.2367144952	0.703757981	
726.25	-0.07977553786	1.707114855	
726.875	0.351318987	3.013659296	
727.5	1.410968238	1.558632399	
728.125	-2.678797877	4.905490009	
728.75	3.551246305	13.37679251	
729.375	4.343224006	2.898677885	
730.0	-10.62516464	9.367702205	
730.625	14.30735086	9.090687175	
731.25	-6.006646858	1.589007977	
731.875	-11.03986279	14.28106553	
732.5	-0.2987755005	7.328326302	
733.125	-7.860677076	-2.538555969	
733.75	-1.396710935	5.58829911	
734.375	2.063153296	-0.07386046867	
735.0	0.03618261375	-0.6380940765	
735.625	-1.974049914	0.07069726552	
736.25	1.036534654	0.8627832244	
736.875	0.3208025447	1.922583777	
737.5	3.527194579	-0.09648037242	
738.125	1.830567063	-2.365595807	
738.75	6.119789993	-0.2303150506	
739.375	8.158070493	-8.932653345	
740.0	-3.127263625	-8.242409525	
740.625	1.334962014	11.97093325	
741.25	43.99720542	29.46681576	
741.875	8.352103449	-11.29344493	
742.5	-17.28484918	-24.4829956	
743.125	-6.979509084	-3.412994082	
743.75	2.2732435	-0.2993467267	
744.375	-2.32577157	-0.04652010569	
745.0	0.2168978163	-0.351174346	
745.625	0.4282491585	0.02627123292	
746.25	-0.3992142495	-0.2530773435	
746.875	-0.2008693049	0.00768831517	
747.5	-0.4149679501	1.202805052	
748.125	0.648229031	1.15763241	
748.75	0.5459099725	0.8322042398	
749.375	0.02466861877	1.710895985	
750.0	-0.300803193	0.0534730814	
