!Created with skrf (http://scikit-rf.org).
# GHz S MA R 50.0 
!freq magS11 angS11
500.0 0.0182025898043 -173.767363548
500.625 0.00630044992363 89.6877157971
501.25 0.00687126731345 -56.5538553773
501.875 0.0229286603127 -167.642415292
502.5 0.0475977235365 178.556574602
503.125 0.0230158242276 110.542645361
503.75 0.00649312059322 45.8259584785
504.375 0.0177565524348 -57.1875261243
505.0 0.00562799946856 76.4436728558
505.625 0.0134715835374 -64.2423465694
506.25 0.0335946019986 -120.324465096
506.875 0.0760270009947 -91.3524319697
507.5 0.0429557193131 -124.210665982
508.125 0.0502723030197 -89.1160295174
508.75 0.0597487836189 -130.94682396
509.375 0.0569328238989 -138.335041472
510.0 0.0348200696097 -122.662450952
510.625 0.034152634859 -157.478585908
511.25 0.0557746215914 -175.649562741
511.875 0.0614300083615 150.620352687
512.5 0.035463532667 89.5285755388
513.125 0.0465149182195 32.6544688776
513.75 0.0569938573014 34.435696928
514.375 0.0316476895446 -13.2459980011
515.0 0.0450116569187 -1.37574640992
515.625 0.0711714619041 40.1691626525
516.25 0.0985415968132 29.5362770526
516.875 0.101555447238 66.2522194228
517.5 0.119835739971 19.7208699162
518.125 0.187367532865 67.9782292042
518.75 0.0969570193835 15.5616809097
519.375 0.0529599875984 9.06389543914
520.0 0.0774128475657 -7.17252473609
520.625 0.0972374111535 -13.4555863867
521.25 0.0968459854215 -21.3701269656
521.875 0.0615513004347 -4.80629294584
522.5 0.0914426209786 -35.4422393783
523.125 0.180337806873 -39.9049900377
523.75 0.212579865393 -57.9788145772
524.375 0.214783371606 -52.7276685892
525.0 0.0672308357267 -51.8129234379
525.625 0.0360785171124 -35.4072656271
526.25 0.0541043644188 -6.54855077412
526.875 0.048666787478 -26.8507320481
527.5 0.0381177854949 -37.4884514116
528.125 0.0365842137126 -62.7884267753
528.75 0.0768723545685 -72.7900039973
529.375 0.0704667041846 -122.751048056
530.0 0.0506000276937 -129.556312237
530.625 0.0372760244819 -140.031939828
531.25 0.129702745498 -140.07841558
531.875 0.160890062425 -148.23103168
532.5 0.13271918281 -170.450965917
533.125 0.0951369972593 173.716947383
533.75 0.133503697059 165.986517739
534.375 0.0924172325465 175.018413235
535.0 0.0813744579916 160.671165905
535.625 0.0585860106148 171.378897974
536.25 0.0702518762382 163.179605577
536.875 0.0780030074609 -162.345397192
537.5 0.100023816453 -144.277604479
538.125 0.102274333256 -173.15952077
538.75 0.114080333983 -179.753568317
539.375 0.0732602449046 -163.13688559
540.0 0.0795626854451 -151.938883968
540.625 0.128812980327 -155.512585992
541.25 0.137051918175 -142.425049001
541.875 0.0968371656123 -144.678741105
542.5 0.113681242748 -143.205323481
543.125 0.13888444916 -166.598370024
543.75 0.139311394934 159.856166057
544.375 0.0850518743591 133.11447093
545.0 0.0827039802692 89.0734310453
545.625 0.0897994079756 79.9177854534
546.25 0.0980198863059 66.515359465
546.875 0.0799896211698 52.1807192459
547.5 0.0980943797566 59.3734050498
548.125 0.114990055253 77.8021231957
548.75 0.0987834060607 89.3007072028
549.375 0.0833694634619 85.3121102453
550.0 0.0772818458939 123.342614286
550.625 0.0372936607192 150.166695282
551.25 0.044367660841 -150.895211416
551.875 0.0537867109312 -148.174547088
552.5 0.098079635523 -159.866584719
553.125 0.0915728083099 -168.673758291
553.75 0.0951395525543 -174.572210194
554.375 0.0934706938677 172.173434298
555.0 0.115786146164 165.485085783
555.625 0.091954807631 156.875918031
556.25 0.101121506196 161.064729942
556.875 0.118478120402 165.453745243
557.5 0.112395505958 165.732356975
558.125 0.0982119953435 164.238092261
558.75 0.0880766710049 175.757601193
559.375 0.0490533730479 -172.104766722
560.0 0.0377455198043 -141.79147359
560.625 0.0516357764369 -136.704887972
561.25 0.0928483963216 -156.420443013
561.875 0.090428105372 -156.597088732
562.5 0.0925686034931 172.865145822
563.125 0.0967496597837 146.875861153
563.75 0.140218757504 127.039451257
564.375 0.0924642507486 122.685665748
565.0 0.0790987258724 121.65850437
565.625 0.0747369042115 118.024680987
566.25 0.104385394013 146.6825225
566.875 0.0694039942868 -177.79156006
567.5 0.0737148573474 -178.726824572
568.125 0.0843270090922 -172.941480226
568.75 0.0707906412169 -148.223527856
569.375 0.0528611803405 -118.788986018
570.0 0.0599697521394 -109.354287235
570.625 0.0890290509774 -119.292045131
571.25 0.092060270664 -123.549191853
571.875 0.0894228126054 -131.253635661
572.5 0.11262003691 -156.966491585
573.125 0.143734099177 -176.328630681
573.75 0.105435964402 160.939046192
574.375 0.082596717707 149.401805826
575.0 0.104878234959 154.144770835
575.625 0.106555047646 155.277463241
576.25 0.0945423609403 141.249232775
576.875 0.0727715809796 136.089482103
577.5 0.080073946309 136.473000948
578.125 0.05296635811 161.429230974
578.75 0.0508541124462 157.496530412
579.375 0.0513973424185 165.714398474
580.0 0.0666814955217 -179.624763103
580.625 0.078487271001 -155.188889097
581.25 0.089344716985 -164.795712254
581.875 0.116660372811 177.042492922
582.5 0.114930852874 -175.499136515
583.125 0.0897578601863 -163.856581968
583.75 0.082738660968 -165.864231379
584.375 0.106110998495 -166.099474012
585.0 0.0855298882319 -133.943138166
585.625 0.0695596774458 -144.004726926
586.25 0.0718000358139 -139.641319194
586.875 0.0845914836375 -143.909326533
587.5 0.0730629592506 -143.049394106
588.125 0.0583350643675 -166.900483347
588.75 0.0685958227641 -164.441741256
589.375 0.0817054406578 -162.039559012
590.0 0.0959363352424 -157.606058884
590.625 0.106825889395 169.20252687
591.25 0.11641043585 157.425480561
591.875 0.102521489005 149.288139484
592.5 0.0588430734884 159.693281359
593.125 0.0656486819955 159.792567095
593.75 0.0770631038832 174.415890482
594.375 0.0597861089924 -165.390107165
595.0 0.0469451163674 -105.893722797
595.625 0.0627638552539 -94.8707434473
596.25 0.0766736968074 -77.9940600101
596.875 0.0669707269136 -81.6893533646
597.5 0.065662565994 -49.4100285381
598.125 0.0744209357333 -51.9916090565
598.75 0.0808794098396 -63.0008935658
599.375 0.082736856065 -72.1142779783
600.0 0.102997411275 -66.3666870481
600.625 0.101077296283 -65.409873754
601.25 0.0840558550342 -73.4093423124
601.875 0.0692157872279 -99.3975174894
602.5 0.0673553566888 -60.254477317
603.125 0.0448042566084 -44.3360602122
603.75 0.0278369234523 -32.0481287226
604.375 0.0412862480788 -26.3264703848
605.0 0.0560911124202 -23.6514609585
605.625 0.0530251021848 -7.89170401636
606.25 0.0286684159962 10.1089019529
606.875 0.0364009588384 44.8749732733
607.5 0.043560819975 36.1658097935
608.125 0.0724099430433 26.2358900895
608.75 0.0677624478105 21.0210065956
609.375 0.0618165557871 27.3137747439
610.0 0.0684128367767 43.2607875498
610.625 0.0675662868362 37.5227517071
611.25 0.052807204883 30.5478797704
611.875 0.0395531997155 49.9509124098
612.5 0.0133378528788 42.4521254821
613.125 0.0524949677796 128.5011192
613.75 0.0621590663097 124.295317549
614.375 0.0521692341525 133.802075942
615.0 0.016786199496 106.349637642
615.625 0.0578917374536 133.922254678
616.25 0.0461834901127 135.158234806
616.875 0.0449264720124 135.861037178
617.5 0.016221440759 106.12001602
618.125 0.0563522382451 137.261327165
618.75 0.0384921109363 144.495908183
619.375 0.0276974175116 155.593074636
620.0 0.0148215565684 -24.3910133225
620.625 0.0223228264008 -167.353245076
621.25 0.040887478667 -129.416406159
621.875 0.0692257622492 -121.91193326
622.5 0.0708164169938 -149.481945779
623.125 0.0875954575339 165.258858394
623.75 0.0674014067948 163.445911303
624.375 0.0546896533224 -168.341810697
625.0 0.0370254991513 -147.533519005
625.625 0.0383072454682 -151.904147969
626.25 0.0245063349043 174.650498894
626.875 0.00776811899043 50.2264608762
627.5 0.0230779419128 -28.4202663308
628.125 0.0499030945381 -5.77475049525
628.75 0.0302517408883 -38.1257687931
629.375 0.0360854650183 -21.9130701631
630.0 0.0593338869769 -16.5112871133
630.625 0.0782901255315 18.5359412725
631.25 0.0668972367606 0.992033719821
631.875 0.0656956034182 -4.7071568677
632.5 0.0587081377604 -8.34286879869
633.125 0.0505976445073 24.944855433
633.75 0.0513605921756 -29.8403801669
634.375 0.0438152281177 -11.1154257677
635.0 0.0373758201302 4.37771677885
635.625 0.037835230325 45.0899382625
636.25 0.0518787011552 39.7061503789
636.875 0.061525204314 33.1380046168
637.5 0.0354924716711 18.3663902156
638.125 0.0359497064605 69.8120880091
638.75 0.0916213905766 78.5542375278
639.375 0.0783146037928 72.9176141292
640.0 0.0638617138648 90.2721107877
640.625 0.0532311614582 97.4393262156
641.25 0.0825552573653 128.075713825
641.875 0.052113795739 130.97730075
642.5 0.0586427418454 163.17406948
643.125 0.0543177181064 158.911766924
643.75 0.0828395518852 176.050054731
644.375 0.0668972291749 -178.316535147
645.0 0.070750823055 177.9270783
645.625 0.0847732686271 164.236011883
646.25 0.106674821416 168.575585307
646.875 0.0537308592533 154.848172488
647.5 0.0596825098618 177.40886576
648.125 0.0740147294121 177.122081972
648.75 0.0829062502141 -160.382826431
649.375 0.040940547669 -163.884048575
650.0 0.0417560226441 -120.99772039
650.625 0.0732787862165 -88.1114466396
651.25 0.0711659597759 -64.279553109
651.875 0.0652660592427 -45.5091912045
652.5 0.0868082913325 -25.0758012556
653.125 0.120931755063 -1.01232148887
653.75 0.116554796664 5.84515335807
654.375 0.0897970797066 -0.679860885895
655.0 0.0992569999374 7.28860207529
655.625 0.0890577698824 17.3583587679
656.25 0.0654288143425 21.9069406291
656.875 0.0661761194248 4.65731077841
657.5 0.0787551657579 19.270248204
658.125 0.0549904232287 47.1384272612
658.75 0.0584943749747 62.8450984516
659.375 0.0926531733768 35.9061269728
660.0 0.0876799646895 25.5335908758
660.625 0.098670464548 18.6205010684
661.25 0.101991267652 3.71770096165
661.875 0.135894407812 -14.6144660535
662.5 0.107075718711 -23.7265889521
663.125 0.111439173183 -15.7795390285
663.75 0.101473918311 3.89759936256
664.375 0.11205705101 53.3353019546
665.0 0.0746065179212 90.0628185722
665.625 0.0569411633928 108.745401226
666.25 0.0951447608238 126.345871731
666.875 0.0822679419114 172.215004337
667.5 0.0948250328107 -170.011732365
668.125 0.0963986378691 -179.682511795
668.75 0.140047755034 164.32415747
669.375 0.127336703849 174.034570765
670.0 0.0873613093879 -172.167347463
670.625 0.0899008017995 -174.189655396
671.25 0.112565715766 174.509139467
671.875 0.114136037738 165.966732341
672.5 0.0686579542559 155.357371755
673.125 0.0891576846029 150.292288642
673.75 0.121760396683 154.027235713
674.375 0.0942670485906 172.18302566
675.0 0.109923503974 -172.954136659
675.625 0.124946362425 -151.565211981
676.25 0.134018828316 -128.898634973
676.875 0.103530963095 -121.148114944
677.5 0.12014484921 -129.833184111
678.125 0.139980502256 -118.839279587
678.75 0.0702084353762 -94.2838998227
679.375 0.0598259986382 -81.41000382
680.0 0.0771789609378 -79.6101038119
680.625 0.107039653265 -73.6739666038
681.25 0.0950929188511 -71.2557507033
681.875 0.105186324117 -98.206749816
682.5 0.126351134003 -114.92401912
683.125 0.165299677942 -124.965091206
683.75 0.14787375354 -108.456835158
684.375 0.118230955736 -80.0564635681
685.0 0.14394357849 -44.270007415
685.625 0.128062340874 -3.65098059155
686.25 0.103186737903 22.2177976795
686.875 0.0931862216857 44.4607648556
687.5 0.0862331300642 76.354374832
688.125 0.0784692717057 108.007957795
688.75 0.0989284690668 118.242432452
689.375 0.143285307949 118.572192504
690.0 0.142639769745 128.361132725
690.625 0.10768261102 132.610216534
691.25 0.134240735174 101.859006045
691.875 0.17423129258 67.414945757
692.5 0.157420069607 36.0277184853
693.125 0.0870547087292 -17.2718315021
693.75 0.0931459763619 -40.7070513161
694.375 0.139771343564 -32.8220998156
695.0 0.131315212658 10.4564119773
695.625 0.107657783289 46.6641417736
696.25 0.1051265006 123.239988475
696.875 0.13607706232 172.445396798
697.5 0.146347127705 -149.591897656
698.125 0.14276339352 -135.887450007
698.75 0.114914591409 -124.314954977
699.375 0.102879139081 -122.187670245
700.0 0.0982594331944 -114.906936991
700.625 0.120611709194 -98.7058232207
701.25 0.086576614638 -53.6601766365
701.875 0.0791936453262 -52.4179041853
702.5 0.0980541352999 -83.206095961
703.125 0.170476418966 -130.422733647
703.75 0.180941749871 -153.789237857
704.375 0.128080974556 170.494647329
705.0 0.113716644211 155.254883446
705.625 0.147235912361 -173.21450216
706.25 0.155092951971 -120.023670102
706.875 0.0904792963792 -63.350112458
707.5 0.0736111881846 -26.8069935352
708.125 0.0891486057487 19.4457502905
708.75 0.111814219426 53.9773596143
709.375 0.102251548553 111.982285702
710.0 0.102733408587 134.774573619
710.625 0.101387672695 152.503241802
711.25 0.117375648929 162.841569122
711.875 0.144182527824 165.997989336
712.5 0.151342441005 149.228739807
713.125 0.127946004748 99.2182924958
713.75 0.108327201817 36.2258594846
714.375 0.103799580171 34.8873705818
715.0 0.113867564011 31.0945530558
715.625 0.0856355338447 40.0562802189
716.25 0.0806086128057 75.2381137709
716.875 0.109303373257 92.7031911839
717.5 0.148496788311 154.486676073
718.125 0.118024818944 172.652035881
718.75 0.102693034349 177.97914314
719.375 0.109548431489 177.76885872
720.0 0.1280195624 -133.616935886
720.625 0.114128336582 -77.9051625987
721.25 0.0962033560582 -17.3658704431
721.875 0.0891653523424 16.9070964411
722.5 0.0787095308007 77.2163689244
723.125 0.0906458219699 77.8127918568
723.75 0.114000578954 45.620333476
724.375 0.097311993081 -15.1680373468
725.0 0.111102780575 -28.3720191859
725.625 0.100813261674 -67.2080214723
726.25 0.11036034272 -72.2332892767
726.875 0.10514277376 -50.3082603271
727.5 0.0794663929868 -44.8433441453
728.125 0.0811738526235 6.01028864635
728.75 0.114428089753 32.6992297582
729.375 0.0897542826948 23.5435883636
730.0 0.0546192671578 -15.0054552719
730.625 0.0617784788097 24.6421877082
731.25 0.0713219163787 62.709912946
731.875 0.0607752802263 108.732476667
732.5 0.0767519861415 150.802535327
733.125 0.0683920317184 160.870401491
733.75 0.078728459106 167.240477076
734.375 0.0744102229038 -177.535394582
735.0 0.0281430358938 116.795909046
735.625 0.0956038241645 158.330873594
736.25 0.0521532553426 139.469318527
736.875 0.0605270441178 178.198675823
737.5 0.0505822820751 -173.54661718
738.125 0.0917451846639 -174.278494868
738.75 0.0733735097884 -176.123394369
739.375 0.0432618193393 -177.397596989
740.0 0.0489006784563 -148.71978923
740.625 0.0264206593118 -140.53945418
741.25 0.0618662890669 -155.710301868
741.875 0.0662742569228 -112.695925922
742.5 0.0467286851374 -7.56405918806
743.125 0.0194219340842 114.648481543
743.75 0.0567608528867 74.7872758972
744.375 0.0503904518563 94.3887118095
745.0 0.0471131784381 130.323273517
745.625 0.0604920775311 139.939111849
746.25 0.101929317211 66.2381219139
746.875 0.0748996627543 33.5860516764
747.5 0.054435671858 11.0617477975
748.125 0.0147861335803 13.4311877569
748.75 0.022324427548 45.7878807841
749.375 0.0408820204745 -55.3805775966
750.0 0.0369016324057 -117.950025448
