!Created with skrf (http://scikit-rf.org).
# GHz S RI R (50+0j) 
!freq	ReS11	ImS11	
500.0	1.135450882	-2.062017926	
500.625	-0.4217245383	-4.087087744	
501.25	-0.6008652579	-0.6424690714	
501.875	-0.3564239377	-1.981287926	
502.5	-0.4153007696	-0.1647618137	
503.125	-0.1127095271	-0.04302514636	
503.75	0.09874349584	0.4301958234	
504.375	-0.05998267119	-0.05646879518	
505.0	0.2306136275	-0.09054455321	
505.625	-0.2211231546	-0.02130816696	
506.25	0.2536282765	-0.4011747157	
506.875	-0.4324507258	0.9248695069	
507.5	0.9111049839	-0.7450975097	
508.125	0.2506762546	-3.070398886	
508.75	-0.7006992211	-2.579670202	
509.375	1.629692043	-3.317182393	
510.0	-2.432522264	-0.3288415254	
510.625	-0.09646347797	-0.1121082511	
511.25	-0.4210461976	-0.2614472847	
511.875	-0.4032506096	0.1027869142	
512.5	-0.04592161977	0.08580623646	
513.125	-0.01036755443	-0.3042705913	
513.75	-0.4072456858	-0.1191653779	
514.375	0.1108443903	-0.01596897958	
515.0	-1.173933514	-0.6982319591	
515.625	1.851124543	0.2586050677	
516.25	-2.367404823	-4.096948661	
516.875	-0.8177597921	0.7290214909	
517.5	0.5764065901	-0.7920249802	
518.125	-0.3643758551	0.2778184552	
518.75	0.302596364	-0.7393686949	
519.375	-0.1748631862	0.2529473434	
520.0	0.2122408394	0.03953919576	
520.625	0.6002190485	-0.01162871142	
521.25	-0.3982241547	-0.8253249968	
521.875	-0.1334734307	-0.02401865554	
522.5	-0.2552138415	0.1230910779	
523.125	-0.02161837009	-0.1201032244	
523.75	-0.4365378912	0.1696202453	
524.375	-0.1094266708	-0.08914620174	
525.0	-0.2721130125	0.6273909864	
525.625	0.1712477479	-0.1687938694	
526.25	0.009359133844	0.1815302416	
526.875	-0.1228612547	-0.07950757994	
527.5	-0.2309545953	0.8789750594	
528.125	0.448646032	0.3645642913	
528.75	-0.3057741171	0.6666332036	
529.375	0.3682828228	0.07957445545	
530.0	-0.3484834534	0.6126616672	
530.625	0.7536369114	0.530436773	
531.25	0.7976246049	0.5933119752	
531.875	0.64223971	-1.016111602	
532.5	0.1572725496	0.08731528808	
533.125	-0.2761392294	-0.7023577961	
533.75	0.73035529	0.008985559552	
534.375	-0.9081046237	-1.035874743	
535.0	-0.2172920777	-0.009391639227	
535.625	-0.6851458085	0.191078266	
536.25	0.1771323837	0.2513335675	
536.875	0.1014081881	0.1351929813	
537.5	0.2544544358	-0.1728484115	
538.125	0.09165798335	-0.1718992894	
538.75	0.4943938333	-0.155330973	
539.375	-0.3625407252	-0.3893872401	
540.0	-0.2117682923	-0.2484279614	
540.625	-0.44480045	-0.1465422158	
541.25	-0.204823784	0.1112100427	
541.875	-0.04775123445	-0.04554149395	
542.5	-0.1590209817	-0.1785058342	
543.125	-0.2092128032	0.0481292147	
543.75	-0.1131488404	-0.164489388	
544.375	-0.1502926724	0.2835903816	
545.0	-0.05054572046	-0.09432442537	
545.625	0.2697208537	0.3696678472	
546.25	0.08219777409	-0.1848898997	
546.875	0.3798735348	0.2171075643	
547.5	-0.03049307492	-0.5105550174	
548.125	0.04706906706	-0.1719801176	
548.75	-0.2917587899	-0.4585244476	
549.375	-0.394134526	-0.0333932307	
550.0	-0.0256887704	-0.0734216151	
550.625	-0.2622187818	0.09512460212	
551.25	-0.04392453465	0.01224268617	
551.875	-0.2837253213	0.1812779537	
552.5	-0.0007717717248	0.2141437291	
553.125	-0.0858652494	0.1322025891	
553.75	0.1457405493	0.1083990508	
554.375	0.1975676135	-0.0108674624	
555.0	0.2395734342	-0.1581548269	
555.625	0.1827871628	-0.2709203411	
556.25	0.1294556534	-0.3273163616	
556.875	-0.07967846224	-0.3727423979	
557.5	-0.2396660674	-0.2448917963	
558.125	-0.2713893709	-0.06874038809	
558.75	-0.2306590941	-0.01661904709	
559.375	-0.2849893251	0.04962883286	
560.0	-0.1684133123	0.1927400867	
560.625	-0.1580779275	0.2037242058	
561.25	0.05174137193	0.3028886502	
561.875	0.05449169561	-0.0003340221221	
562.5	0.02113579711	0.2369242969	
563.125	0.1617186461	0.02257145803	
563.75	0.2920218322	0.143866755	
564.375	0.3378993291	-0.363098846	
565.0	0.03643478108	-0.2254400218	
565.625	0.04617724357	-0.4207650695	
566.25	-0.3881579616	-0.191851004	
566.875	-0.1805050623	-0.1255096986	
567.5	-0.3580941146	-0.3950509711	
568.125	-0.4731888076	-0.2410168408	
568.75	-0.2916672509	-0.2655013564	
569.375	-0.7810139787	0.2812965671	
570.0	-0.001569640056	0.5083171676	
570.625	-0.3112478171	0.1251683339	
571.25	0.09876011088	0.6598494978	
571.875	-0.1582274856	-0.08195288982	
572.5	0.6052062335	0.1293647862	
573.125	-0.1361223918	-0.406325855	
573.75	0.2578529747	0.05686780869	
574.375	0.0723197074	-0.5015211576	
575.0	-0.0902769927	0.1728904293	
575.625	0.3161040519	-0.3399385064	
576.25	-0.1978060988	-0.3135581301	
576.875	0.2675203171	-0.1165993567	
577.5	-0.01655150015	-0.6539064668	
578.125	-0.2848078205	-0.2013715883	
578.75	0.03378179455	-0.2272118996	
579.375	-0.2765800483	-0.3617309182	
580.0	-0.1793414131	0.1841640537	
580.625	-0.09979251779	-0.3314307107	
581.25	-0.2874052825	0.4368771426	
581.875	0.1139855134	0.02964051642	
582.5	-0.2401732785	0.4632454124	
583.125	0.6336116565	0.231541028	
583.75	-0.3347396417	-0.05916721488	
584.375	0.5021838949	0.3054242452	
585.0	-0.1723912298	-0.1070022944	
585.625	0.5952182433	0.3124970429	
586.25	0.2884629019	-0.4700757064	
586.875	0.08773188926	-0.01783785163	
587.5	0.1177385462	-0.551923181	
588.125	-0.3404660219	-0.2369843663	
588.75	0.3325963343	-0.1049560187	
589.375	0.2105145221	-0.6123869071	
590.0	-0.1593820127	-0.1224978349	
590.625	-0.3922391003	-0.3109169371	
591.25	-0.3423706736	0.4369774357	
591.875	0.0319698379	0.1532815211	
592.5	-0.1471192576	0.09340038223	
593.125	0.1215407451	0.1610260814	
593.75	-0.1776453451	0.2394461323	
594.375	0.652870546	0.3958210681	
595.0	0.2886512027	-0.1244344423	
595.625	0.1513775048	0.5202608575	
596.25	0.8229317096	-0.07965359662	
596.875	-0.1304786108	0.1215359613	
597.5	0.6164628202	0.4978639632	
598.125	0.3677314134	-0.08441178693	
598.75	0.1727091975	0.4461900528	
599.375	0.6768397702	-0.2319038201	
600.0	0.1614631184	-0.282122389	
600.625	0.4539805654	-0.2392177675	
601.25	0.1727029877	-0.6239975765	
601.875	-0.1241007013	-0.1301681418	
602.5	-0.3436982018	-0.1731903873	
603.125	-0.193602029	0.1456575034	
603.75	-0.2454817059	0.1663053206	
604.375	-0.1850099053	0.07402037257	
605.0	-0.3008138278	0.2584867335	
605.625	0.08758197721	0.06664609679	
606.25	-0.6023481936	0.07682090519	
606.875	-0.09762028185	0.4484396451	
607.5	-0.4926753259	-0.02957381863	
608.125	0.06031512409	1.06050083	
608.75	0.1529439917	-0.01480097523	
609.375	0.7576264614	0.2547690065	
610.0	0.2241757248	-0.6347125726	
610.625	0.3215539148	0.03061735076	
611.25	-0.1006090258	-0.6522136212	
611.875	-0.05070625603	-0.05928511084	
612.5	-0.5186520161	-0.3928820005	
613.125	-0.2132571404	0.321822115	
613.75	-0.4859727572	0.1899472693	
614.375	0.3546791141	0.3288349498	
615.0	-0.2583443685	0.02810600191	
615.625	0.3655207934	0.2993902595	
616.25	-0.2827233435	0.01668564437	
616.875	-0.3466050286	0.7116432111	
617.5	0.2194948558	0.3643170931	
618.125	-0.3771065359	0.4623166071	
618.75	0.2932608852	0.5231062027	
619.375	0.056164941	0.2119878772	
620.0	0.591942454	0.1846566442	
620.625	0.0958188125	-0.3070340288	
621.25	-0.1484681682	-0.5113848917	
621.875	-0.4596558967	-0.05974739474	
622.5	-0.4639408607	-0.04554274852	
623.125	0.06026508768	0.6220638538	
623.75	-0.04716794652	0.03001611215	
624.375	0.3993325458	-0.3000853142	
625.0	-0.1360126905	0.2039334469	
625.625	0.3915740325	-0.464648905	
626.25	-0.3935684079	0.06879033592	
626.875	-0.0319925771	-0.5257068097	
627.5	-0.6344707481	0.02595896087	
628.125	-0.006186234522	0.0224752509	
628.75	-0.08912266498	-0.5495031653	
629.375	-0.4177138448	-0.1642952213	
630.0	-0.2249698822	-0.2879047856	
630.625	-0.6484710253	0.1121912908	
631.25	-0.141738633	0.542291796	
631.875	-0.1445720412	0.3856576626	
632.5	0.4089535013	0.5642189082	
633.125	0.4590703229	0.02235052413	
633.75	0.2979484234	-0.1310348143	
634.375	0.2953551082	-0.3062840833	
635.0	-0.3031037939	-0.3105116748	
635.625	-0.0412236242	-0.2981508194	
636.25	-0.6216117033	0.2846852328	
636.875	0.1994174381	0.2957972996	
637.5	-0.5013275637	-0.09502979146	
638.125	0.2701754183	0.5521731485	
638.75	-0.3559854727	-0.06815020522	
639.375	-0.03442501115	1.015691709	
640.0	0.5780831534	0.1811535495	
640.625	0.1251931812	0.4508823779	
641.25	0.9960058027	-0.03956640508	
641.875	0.02653812973	-0.5516847932	
642.5	0.2536156652	-0.2455483884	
643.125	-0.6158090218	-0.5730758634	
643.75	0.02425893392	0.2336607942	
644.375	-0.6122820795	-0.286258569	
645.0	-0.1992482522	0.6075941553	
645.625	0.1431348357	0.1920570027	
646.25	0.2097105212	0.4964306321	
646.875	0.4584618413	-0.3640590417	
647.5	-0.224718448	0.24060724	
648.125	0.7885881246	0.1373601136	
648.75	0.07372739876	-0.5062598486	
649.375	0.9459378014	0.09544752864	
650.0	0.310399445	-1.438618433	
650.625	-0.2644155881	-0.19391721	
651.25	1.122827715	-0.2583118718	
651.875	0.4001177683	-1.195978511	
652.5	0.09583459253	0.2289024883	
653.125	1.130327162	-0.2586304107	
653.75	-0.0310443606	-0.8324586012	
654.375	0.1140791579	-0.2546436779	
655.0	-1.028079765	-0.5965497417	
655.625	-0.02142787359	0.7305549223	
656.25	-0.1390198415	0.0181510517	
656.875	0.2654412705	0.5442646642	
657.5	0.01480676311	-0.2020831749	
658.125	0.2635205073	0.766348965	
658.75	0.8464431884	-0.0997952666	
659.375	0.4397167874	-0.3607852148	
660.0	0.6914068034	-0.3042802798	
660.625	0.2566360216	-1.360259573	
661.25	-0.1129413295	-0.2457225298	
661.875	0.9497498379	-0.4243203158	
662.5	0.5096849781	-0.9720245779	
663.125	0.07201157894	-0.08777702055	
663.75	0.8610927608	-0.952521134	
664.375	-0.6316741097	-0.499980946	
665.0	-0.1560920363	-0.51528878	
665.625	-1.076002847	0.2627795309	
666.25	0.2036750814	0.6200797371	
666.875	-0.06793382775	0.4427155719	
667.5	0.6830444567	0.2913612014	
668.125	0.24544701	-0.2879856334	
668.75	0.5911007439	-0.006450593487	
669.375	0.05756263395	-0.8513591789	
670.0	-0.03351991937	-0.2221735607	
670.625	0.1815627924	-0.4787222626	
671.25	0.00888342445	-0.5945934547	
671.875	0.04121178012	-0.1595062444	
672.5	0.7566382089	-0.2704098159	
673.125	0.3054255523	-0.733900446	
673.75	0.1049136511	-0.2051437316	
674.375	0.5285660043	-0.731422936	
675.0	-0.8698427687	-0.4335361595	
675.625	0.2187894757	-0.2650239171	
676.25	-0.9348730165	-0.1551359964	
676.875	0.02390060991	0.4856753071	
677.5	-0.5536557221	-0.4639280665	
678.125	-0.1127454568	0.8862218246	
678.75	0.005112128731	0.1180745257	
679.375	0.4207548914	0.4730055636	
680.0	0.5242057951	-0.6042066351	
680.625	-0.2316359363	0.1601305464	
681.25	0.6076088342	-0.07368977011	
681.875	0.2157826738	-0.1714286434	
682.5	0.2035278019	0.3489406954	
683.125	0.8205195318	0.2620635084	
683.75	0.5325443706	-0.1674336687	
684.375	0.3470590825	0.1230804338	
685.0	0.9254840079	0.417979287	
685.625	0.6450107741	-0.7920566157	
686.25	0.3235532228	0.7704630996	
686.875	1.203421006	-1.244036296	
687.5	-0.2183244347	-0.1041666858	
688.125	0.5572957359	-1.385322117	
688.75	-1.747749651	0.3267783214	
689.375	-0.2742437309	-0.1554216848	
690.0	0.3566578227	1.588592186	
690.625	0.5917750112	-0.03886613113	
691.25	0.4144768851	0.9613772937	
691.875	1.494486497	0.5371652292	
692.5	1.034225925	0.2968459816	
693.125	1.586304935	0.01430538785	
693.75	1.277578278	-0.751468257	
694.375	0.9358379979	-0.7792472087	
695.0	0.9188150239	-0.8483547536	
695.625	1.000192218	0.02752580784	
696.25	1.617677739	0.01862167317	
696.875	0.4537897867	0.4537037018	
697.5	1.321910198	1.689323296	
698.125	1.200452505	-0.6362590715	
698.75	1.359785252	-0.3536756542	
699.375	-1.754580525	-0.9196788723	
700.0	0.2111502253	0.4413799415	
700.625	0.1162357628	1.474393805	
701.25	0.6439980756	-0.1996543514	
701.875	0.2240971597	0.8984905843	
702.5	1.390127871	0.2925964628	
703.125	0.3870352138	0.2902248304	
703.75	1.312056856	-0.2563764756	
704.375	0.1339635193	-0.6752895007	
705.0	0.8972974476	0.25186501	
705.625	0.6693217799	-0.6749897592	
706.25	0.01694662046	0.529825207	
706.875	1.173329743	1.101785123	
707.5	0.4117518886	-0.02711250535	
708.125	1.303172898	0.702435064	
708.75	0.292218942	-1.437679752	
709.375	-0.3157108025	-0.3303314137	
710.0	-0.6742301466	0.6136263268	
710.625	0.4442046668	0.1312393998	
711.25	0.1441221544	0.3966421753	
711.875	0.5542681887	0.09796405417	
712.5	0.8179646738	-0.04238259644	
713.125	0.4688535365	-0.5012691579	
713.75	0.3591911319	-0.396186667	
714.375	-0.07833965628	-0.8224525591	
715.0	-0.1830018614	-0.01428183596	
715.625	0.5373709865	-0.9075137813	
716.25	-0.4614685952	-0.7234595826	
716.875	0.9317047279	0.4180202635	
717.5	2.37963933	-0.6027172244	
718.125	-0.1801686635	-0.9774846539	
718.75	3.274036688	0.9847939523	
719.375	0.8417389569	-3.008197228	
720.0	0.6566053769	-0.8219408615	
720.625	1.248654977	-3.789746435	
721.25	-1.720935091	-1.743537628	
721.875	0.2065440346	-2.151860664	
722.5	-2.074463052	-2.128387686	
723.125	-1.955274313	0.6029175863	
723.75	-0.7548857091	0.5515884542	
724.375	0.1194090164	1.563890371	
725.0	0.5876323839	0.4895131053	
725.625	0.1767712956	0.8656547444	
726.25	-0.1261043512	2.025120341	
726.875	1.409621374	2.223260147	
727.5	-1.682199025	1.667996668	
728.125	0.2192009135	7.075289329	
728.75	3.927133554	4.834743841	
729.375	-6.893307782	1.643662321	
730.0	7.215361371	21.30203491	
730.625	3.907102985	0.4299049807	
731.25	-9.609196743	11.7415545	
731.875	-4.689695445	15.43856864	
732.5	-1.817246034	-1.25098733	
733.125	-9.359830309	1.678850908	
733.75	-0.3293708073	4.179081422	
734.375	1.370020599	-0.1111661571	
735.0	0.8687580218	-2.016752531	
735.625	-0.8479685405	1.551931105	
736.25	-0.7234865995	0.5777834244	
736.875	1.383791227	1.886661929	
737.5	3.143671678	-0.8234435671	
738.125	1.036388791	-0.4556627066	
738.75	8.771521678	-2.124290134	
739.375	5.31861552	-9.878651431	
740.0	-3.07008256	1.292213461	
740.625	15.62000637	13.9993161	
741.25	24.94289217	-10.34253932	
741.875	-19.75616436	-14.29458421	
742.5	-18.31572617	-6.431796853	
743.125	-0.1939204192	2.772971667	
743.75	1.334615554	-4.589986005	
744.375	-1.858701336	1.129631378	
745.0	-0.1489196342	-0.1542353154	
745.625	0.3911108447	-0.05953770967	
746.25	-0.09182028517	-0.03410311989	
746.875	-0.3347476408	-0.08226979868	
747.5	-0.1282295637	0.9930484928	
748.125	0.7899524302	0.8503943029	
748.75	0.171898298	1.064219355	
749.375	0.5507924708	1.268440484	
750.0	-0.2372868783	0.6969816341	
