!Created with skrf (http://scikit-rf.org).
# GHz S MA R 50.0 
!freq magS11 angS11
500.0 0.0152537802703 177.474958014
500.625 0.0108104978928 58.9702531722
501.25 0.01160149082 -153.739381908
501.875 0.0206961061194 -158.594422972
502.5 0.0318990160371 166.642455903
503.125 0.01679439814 100.099995227
503.75 0.014513076008 -30.3468712352
504.375 0.00541594526736 122.353322468
505.0 0.00474335549948 -27.8755879628
505.625 0.0185275978281 -77.3634660228
506.25 0.0554751797348 -102.274841933
506.875 0.0509545597921 -137.323631445
507.5 0.0438798618755 -118.903394281
508.125 0.0466560468964 -92.0876855287
508.75 0.076160358163 -117.369132306
509.375 0.0487357603766 -141.662765185
510.0 0.0450110341234 -108.031040282
510.625 0.0372123651085 -153.485849945
511.25 0.0700449329706 -166.816438299
511.875 0.0439359093618 128.445163745
512.5 0.0354194747601 93.8487502407
513.125 0.0491737439502 40.6445256485
513.75 0.0611516015857 45.9392395135
514.375 0.0379183820805 17.5620142882
515.0 0.0503251254026 -5.11866094655
515.625 0.109557453459 53.5223670456
516.25 0.0884928761536 28.2359796528
516.875 0.11258042285 69.4337690339
517.5 0.122992699196 22.6977064642
518.125 0.214189199195 72.7136790986
518.75 0.0729842031296 -5.96268532262
519.375 0.0579850713345 16.4128977759
520.0 0.0872227746763 -5.44150994771
520.625 0.117876934368 -2.20635110755
521.25 0.0727452451119 -34.4089192915
521.875 0.0677129304395 -0.251812677641
522.5 0.100035071674 -33.0511268382
523.125 0.187518312696 -32.8294236819
523.75 0.219209388328 -55.2634045343
524.375 0.207013475228 -51.9909263442
525.0 0.0693078573685 -51.8090543203
525.625 0.0471212064663 -23.9756350339
526.25 0.0374498790865 -24.7931851621
526.875 0.0464914866714 -24.6753556521
527.5 0.039697317217 -36.8569411928
528.125 0.0523758866813 -56.8017170868
528.75 0.050979696997 -79.4003859146
529.375 0.0742788086961 -115.639438214
530.0 0.0466359011047 -130.701475568
530.625 0.0465184786053 -147.04396679
531.25 0.114924451549 -136.052342471
531.875 0.159376897741 -146.575553092
532.5 0.140491476686 -170.069731458
533.125 0.115096722605 174.488158203
533.75 0.0863835212086 165.95848802
534.375 0.0971548783833 178.959491313
535.0 0.0828805662094 158.082189357
535.625 0.0758675632167 177.576091362
536.25 0.0489083093714 162.225342607
536.875 0.082511633443 -158.72005901
537.5 0.0974759463973 -143.272523865
538.125 0.113292687744 -174.472635832
538.75 0.0920988573748 178.403663217
539.375 0.0714195455302 -162.677642528
540.0 0.0804361583708 -153.499660332
540.625 0.143322742051 -157.792042522
541.25 0.123359318 -140.102355411
541.875 0.102071153229 -143.27470463
542.5 0.10992386258 -141.704724951
543.125 0.149911744918 -167.980389347
543.75 0.124749705594 158.972367318
544.375 0.0881625729189 135.511422433
545.0 0.0822420252248 88.4347983167
545.625 0.112741824684 82.2650019427
546.25 0.0881417834455 67.911809625
546.875 0.0880371736247 54.717852663
547.5 0.10003147187 57.913020224
548.125 0.127870677908 77.7411119719
548.75 0.0884678241068 91.2640138782
549.375 0.0859651509274 88.5298427096
550.0 0.0786219988091 122.101998423
550.625 0.0606503000767 151.495578978
551.25 0.0335066176632 -134.606570198
551.875 0.0606874432818 -153.668844061
552.5 0.10399989891 -161.728579576
553.125 0.098816308269 -172.080593138
553.75 0.083575641233 -164.936664196
554.375 0.102730461883 169.255857021
555.0 0.113682124016 163.646927332
555.625 0.102100439143 156.228135456
556.25 0.101571294722 161.915116121
556.875 0.119890147461 164.774552175
557.5 0.114984479475 167.046343068
558.125 0.0967656963562 165.03351921
558.75 0.07776150601 178.357078661
559.375 0.0576514970848 -171.024543307
560.0 0.0379966558142 -141.911788179
560.625 0.0616718069921 -145.501498846
561.25 0.0808986982886 -142.83335644
561.875 0.101058975772 -161.443738102
562.5 0.095067091674 170.996096789
563.125 0.110888077442 140.911604024
563.75 0.111271203417 135.719366643
564.375 0.0974218141551 123.07011184
565.0 0.0814737380911 120.59038784
565.625 0.090088626314 113.575336837
566.25 0.0754704560599 162.077076947
566.875 0.0747164718315 179.830341326
567.5 0.0765419263952 -179.106133417
568.125 0.0801330364261 -170.651085509
568.75 0.0772846411827 -152.893547196
569.375 0.047587558513 -109.285703461
570.0 0.0612554841866 -109.286216096
570.625 0.0942201275038 -118.694138339
571.25 0.0882930262153 -118.801266561
571.875 0.0874796537724 -126.944946367
572.5 0.114291238622 -158.334965277
573.125 0.139737498554 -173.656997681
573.75 0.110905347836 158.763522545
574.375 0.083568899175 148.300985494
575.0 0.107780181306 150.068905816
575.625 0.111637774964 152.796947199
576.25 0.0793591463888 152.934866085
576.875 0.0753294421999 132.886815944
577.5 0.0772974529227 136.041801562
578.125 0.0649585788712 153.784254917
578.75 0.0459986247635 162.640492509
579.375 0.0545862204503 160.918750442
580.0 0.070427685044 178.358246555
580.625 0.078364274438 -150.479909673
581.25 0.0884422886566 -167.97043652
581.875 0.114371618434 -174.182805307
582.5 0.115488234468 -173.407541344
583.125 0.0902326362217 -165.980096857
583.75 0.0844755075474 -175.156220586
584.375 0.0980380039734 -148.450937149
585.0 0.0926334961893 -140.5640007
585.625 0.0718153338423 -146.090955335
586.25 0.0729963169606 -147.501940248
586.875 0.0806741334078 -134.266683642
587.5 0.0736714475249 -142.809502518
588.125 0.0581786064523 -171.566587764
588.75 0.067382390394 -178.748982307
589.375 0.0848263535082 -145.485449354
590.0 0.0945927132985 -163.679211227
590.625 0.104355924542 168.494955284
591.25 0.122906578485 144.612454442
591.875 0.0901818625104 163.475715515
592.5 0.0629945817356 149.205335983
593.125 0.0617657545201 157.666946522
593.75 0.073787364911 155.601582542
594.375 0.0580198987313 -132.902531107
595.0 0.0470246032066 -108.361256042
595.625 0.0579453867288 -93.8202594287
596.25 0.0692304415319 -99.4451216859
596.875 0.0673841483531 -66.8894836999
597.5 0.0607966774401 -59.30097393
598.125 0.066874483966 -55.61433492
598.75 0.0751019261373 -70.092504643
599.375 0.0930349443826 -62.0960127412
600.0 0.105374963912 -64.7459959194
600.625 0.101398146221 -65.9793630697
601.25 0.0837336846292 -86.6539804103
601.875 0.0704778494849 -72.8797996007
602.5 0.0651473711364 -77.3929895373
603.125 0.0404840318581 -45.5155541148
603.75 0.028838387416 -48.8068663557
604.375 0.0348064071323 -34.2512090304
605.0 0.0586666554209 -19.5619576336
605.625 0.0566022318849 -4.47270797564
606.25 0.0274397082085 11.8689310852
606.875 0.0227661930445 40.8901061122
607.5 0.0833278663429 50.393578476
608.125 0.0682208909895 25.4453181977
608.75 0.0512427037883 15.9726008958
609.375 0.0606638737362 24.3368681399
610.0 0.0701164590721 41.8658489307
610.625 0.0663260922447 36.5171698451
611.25 0.0547063895472 34.8052365997
611.875 0.0318727107031 26.0544175725
612.5 0.0377112635701 106.089616191
613.125 0.0379686328409 127.658104921
613.75 0.0585399264597 127.661831696
614.375 0.0312572978096 116.315423464
615.0 0.0507499927712 125.186613377
615.625 0.0381424402567 130.002064861
616.25 0.0305694935314 144.233879518
616.875 0.0398303714343 127.73097038
617.5 0.061017355774 132.347126691
618.125 0.039971096589 133.430551843
618.75 0.0291352452109 156.340962155
619.375 0.00645268842946 116.863716851
620.0 0.030141534237 159.217709553
620.625 0.0163277104854 -161.273318503
621.25 0.0382134318068 -112.803753605
621.875 0.0666579377278 -91.7512522043
622.5 0.0912150718486 178.103206069
623.125 0.0748183694938 169.41720498
623.75 0.0611744650144 172.240192889
624.375 0.0336166031676 -163.462802548
625.0 0.035344942716 -136.760479817
625.625 0.0363998366347 -152.435249298
626.25 0.0240560935433 162.456696502
626.875 0.00359915145899 62.6465852171
627.5 0.0417975767077 -10.4438880157
628.125 0.0355142147196 -59.1635650354
628.75 0.0321174185236 -37.1504440301
629.375 0.0434375662331 -9.9565035196
630.0 0.0873276342319 9.08578528294
630.625 0.0765731904775 -0.103372794054
631.25 0.0719474502445 11.3873266135
631.875 0.0664154222324 -5.20307746422
632.5 0.0642810011765 9.60277938712
633.125 0.0533313314627 -17.7343248488
633.75 0.0371461179518 -12.2581289313
634.375 0.0467819641339 -3.97809506328
635.0 0.0443956951806 36.1075809457
635.625 0.0407199649153 44.5845194146
636.25 0.0556853684435 41.7156372533
636.875 0.0600792364793 39.6121989102
637.5 0.0395920466125 33.239123084
638.125 0.0564316762631 70.1957185185
638.75 0.058179848856 72.011018629
639.375 0.0831098181254 85.9665022349
640.0 0.0651979657599 92.8924724081
640.625 0.0687789147858 111.725393634
641.25 0.0522155087131 100.913664982
641.875 0.0520090698478 139.293555703
642.5 0.0548629505188 158.54769119
643.125 0.0679553109431 163.972627598
643.75 0.0548458818528 163.827011257
644.375 0.0643310563978 -175.04621725
645.0 0.0768689499498 -179.784253067
645.625 0.109538994428 169.672190563
646.25 0.0747197254445 147.286141906
646.875 0.0646199866611 175.399863023
647.5 0.0624963219112 175.952451466
648.125 0.101303007314 -173.902479566
648.75 0.0731037407295 -167.78566598
649.375 0.0477279283499 -151.619328218
650.0 0.0496701315129 -122.665019833
650.625 0.0656247931879 -87.0240634762
651.25 0.0744563972425 -64.7166951801
651.875 0.0670464092446 -43.4715013578
652.5 0.0887116047027 -21.2297976635
653.125 0.11802715127 -1.37774981303
653.75 0.10884671799 3.3107078711
654.375 0.0992961629408 6.35452815927
655.0 0.10515159384 6.37892745602
655.625 0.107333436854 28.2913883876
656.25 0.0634445852745 21.5427266164
656.875 0.0709948039538 5.53405159832
657.5 0.0827268256125 24.7005672694
658.125 0.0644018889029 47.2743968077
658.75 0.068935949717 58.5456128489
659.375 0.0689231077957 43.4564250296
660.0 0.104498550519 27.4305038805
660.625 0.100360793338 18.3153606294
661.25 0.121250008481 2.30214885098
661.875 0.103595270246 -14.3191779371
662.5 0.109535271761 -20.1199773572
663.125 0.105378531641 -16.0467556586
663.75 0.113283853187 4.11511275857
664.375 0.086028104363 51.5836376792
665.0 0.0820893751329 91.4254974141
665.625 0.0749656124163 109.425000261
666.25 0.0568036122703 136.198192709
666.875 0.102820944915 172.693288283
667.5 0.097793013282 -172.290591565
668.125 0.108773817926 178.884466343
668.75 0.10975215993 165.366575463
669.375 0.12835229484 176.563991101
670.0 0.0937662370554 -170.84056411
670.625 0.0916558681376 -172.938187276
671.25 0.124110579972 172.855229948
671.875 0.1009177647 167.682440773
672.5 0.0701321410311 158.328581358
673.125 0.0834357415654 153.911554783
673.75 0.0956427353045 164.231885156
674.375 0.11120151425 169.77469898
675.0 0.107405205145 -175.099301619
675.625 0.135063817326 -150.979307836
676.25 0.102025027994 -122.478125017
676.875 0.114379778837 -118.842320983
677.5 0.122078331791 -129.17298761
678.125 0.128399737127 -116.472516789
678.75 0.0791220902429 -95.2857418753
679.375 0.051356698197 -75.6850586525
680.0 0.0801656427819 -79.2213156482
680.625 0.117808711406 -73.6814402195
681.25 0.114937030061 -77.9200961131
681.875 0.0894257727958 -83.9460199254
682.5 0.134136754561 -118.342206032
683.125 0.174428247441 -124.355113828
683.75 0.141741321282 -105.378938787
684.375 0.125638388387 -81.9641702342
685.0 0.113570146382 -35.2450957778
685.625 0.132834558107 -2.69518888179
686.25 0.109531411102 22.1942569738
686.875 0.101971705506 41.2515717522
687.5 0.0791263829592 89.1105395655
688.125 0.0835167441215 107.906044392
688.75 0.100791285625 115.239639883
689.375 0.150635769016 113.197310833
690.0 0.117500516079 140.021973048
690.625 0.116628042864 128.640143024
691.25 0.133944306628 101.301642855
691.875 0.199741410552 64.2753500893
692.5 0.123720020802 41.4133038137
693.125 0.0905585672629 -16.1935913007
693.75 0.0981611890504 -40.511510528
694.375 0.135825140901 -29.6328146263
695.0 0.140632353005 5.40484501819
695.625 0.0913349135609 66.0854366845
696.25 0.112141337813 116.462042689
696.875 0.133252344366 172.351423787
697.5 0.143794916697 -146.180351209
698.125 0.139951128072 -133.934352535
698.75 0.12801044442 -130.844323911
699.375 0.108686523266 -123.964938532
700.0 0.102270005608 -119.876729824
700.625 0.105460438908 -85.8311132693
701.25 0.0957267948928 -59.0134039741
701.875 0.0758922398698 -54.2609343934
702.5 0.0981242040605 -92.512302471
703.125 0.164021025223 -111.702026456
703.75 0.185332497404 -155.430685032
704.375 0.132148894349 167.683061543
705.0 0.110413118538 158.797046045
705.625 0.150692800796 -178.863226877
706.25 0.133734309097 -107.062576104
706.875 0.0888491236691 -60.4371203151
707.5 0.0694626950296 -30.3262190271
708.125 0.0939482899053 3.0755234937
708.75 0.111209426157 77.6207509869
709.375 0.106993131864 110.813722839
710.0 0.0982689329183 134.172694696
710.625 0.106395594072 149.713085532
711.25 0.121386338276 -176.066696608
711.875 0.146521700962 165.747800088
712.5 0.152953967341 146.686911475
713.125 0.134006973073 92.8995977587
713.75 0.0934311397873 61.2670809282
714.375 0.112403090556 24.4091548779
715.0 0.106386195214 27.9683917775
715.625 0.0852599721478 47.6798508608
716.25 0.0755993551006 67.0467943455
716.875 0.120397007744 103.636705407
717.5 0.152742279613 153.413883882
718.125 0.113939214788 172.868000743
718.75 0.0960146786288 159.958498219
719.375 0.114334048986 -164.030280237
720.0 0.132660486778 -130.445652498
720.625 0.115228186622 -83.3231612201
721.25 0.0977311622893 -35.8860573038
721.875 0.0871762965358 44.8391444934
722.5 0.0765976559538 79.2646967108
723.125 0.0854514702055 72.0663923314
723.75 0.0882813565928 26.0354175371
724.375 0.121883763945 10.522801048
725.0 0.10047363176 -38.8641613107
725.625 0.0918795812101 -75.3190313701
726.25 0.116330663663 -67.7325576772
726.875 0.100159555058 -61.3625917545
727.5 0.0813303626417 -33.1817611438
728.125 0.0928384460564 3.91292835788
728.75 0.106997399614 33.6143467341
729.375 0.0652982382758 -3.18116384698
730.0 0.0854135246175 16.6188410769
730.625 0.0643695157781 17.7085567339
731.25 0.0543845017132 51.7480444251
731.875 0.0624710940612 105.375882551
732.5 0.0599256869657 142.735429891
733.125 0.104527845417 -178.34977829
733.75 0.0676335207105 160.440004486
734.375 0.0399022327685 135.507001601
735.0 0.0980637316969 169.090198102
735.625 0.0703586954408 145.849101969
736.25 0.0338085470536 162.15892454
736.875 0.0318846547253 -177.570848019
737.5 0.101939700296 -179.11886396
738.125 0.0888636136207 -176.825244801
738.75 0.0610281999214 176.220100079
739.375 0.0406171880082 177.948184878
740.0 0.0156729826519 -131.134300003
740.625 0.0805387870166 -151.105738536
741.25 0.0690864246371 -159.065169958
741.875 0.0571117850783 -103.351197016
742.5 0.0140507091487 23.2364219732
743.125 0.0707383771833 49.1510091625
743.75 0.0483672833764 75.7529415788
744.375 0.0330295602509 106.679916696
745.0 0.0501666712104 169.952612333
745.625 0.0786516343741 110.458366525
746.25 0.0884964047566 71.3441807735
746.875 0.0785453264457 44.2718675312
747.5 0.0259594317165 38.8281110128
748.125 0.0249474538027 2.54127449448
748.75 0.025004810742 0.0418242782014
749.375 0.038146186784 -59.3097994622
750.0 0.0265924340448 -97.0019431329
