!Created with skrf (http://scikit-rf.org).
# GHz S MA R 50.0 
!freq magS11 angS11
500.0 0.0206998633163 162.789110472
500.625 0.00905295255019 88.3155852596
501.25 0.0119382412027 -41.8726542078
501.875 0.0322431911679 -177.613815759
502.5 0.0124210436491 149.371059946
503.125 0.0134924284932 26.3406264385
503.75 0.017948402022 127.576816192
504.375 0.00389561087697 123.14090172
505.0 0.011465879299 -79.254847007
505.625 0.0422582678977 -82.2202090316
506.25 0.0398487007224 -104.940679921
506.875 0.0535508634313 -107.016340594
507.5 0.0431150211881 -120.815181954
508.125 0.0665660633959 -79.384522089
508.75 0.0571441185263 -143.937355306
509.375 0.0449883848371 -152.453203295
510.0 0.0363416913233 -112.078757662
510.625 0.0562768154356 -156.345122521
511.25 0.0441483606748 170.482716596
511.875 0.0492389801584 144.488890998
512.5 0.0393800648185 97.5676745449
513.125 0.0660871115799 55.6369856662
513.75 0.0494928876185 24.1573995345
514.375 0.0519161161668 31.7901124566
515.0 0.0593921839293 10.3723791676
515.625 0.0860647528649 48.9375038443
516.25 0.0893900743624 29.3319567516
516.875 0.117972233704 71.4168968321
517.5 0.121458331655 22.1784924876
518.125 0.212179882179 75.7288386805
518.75 0.0806097046688 10.0500908999
519.375 0.0684124845035 15.023850908
520.0 0.113972047004 -1.04483289234
520.625 0.102540448044 -5.94443499767
521.25 0.0830752947064 -22.951490519
521.875 0.0703039244712 3.05308297772
522.5 0.0962719304441 -31.6919801753
523.125 0.189467095513 -32.5970564206
523.75 0.196413534243 -61.274833478
524.375 0.196949476964 -54.73356569
525.0 0.0723456043321 -39.0480394999
525.625 0.0322776518903 -62.7567230138
526.25 0.0375853117365 -14.071481555
526.875 0.0482802650888 -25.7111774052
527.5 0.0564352454663 -23.8422990374
528.125 0.0325178619696 -62.5281946963
528.75 0.0652762370675 -71.5961560638
529.375 0.0813609769907 -111.1904661
530.0 0.0586783186912 -125.365443417
530.625 0.0281231269899 -127.389201106
531.25 0.106818521188 -128.886673185
531.875 0.159221592646 -149.170847754
532.5 0.159212550808 -169.893514429
533.125 0.0857684485538 173.35495974
533.75 0.111094878029 170.128788755
534.375 0.106613192574 178.414579014
535.0 0.0923696266791 164.727394453
535.625 0.0624238582925 176.594090036
536.25 0.0519574073765 166.520611443
536.875 0.0800673754062 -157.106743599
537.5 0.107641836246 -145.003835328
538.125 0.0913085134434 -171.247425538
538.75 0.0940898326282 179.849274268
539.375 0.0678595720108 -163.133035524
540.0 0.106134883736 -156.528646318
540.625 0.105870282996 -152.115880395
541.25 0.11656382355 -139.059865415
541.875 0.100185319026 -141.572892295
542.5 0.118119004333 -143.618206477
543.125 0.117761793217 -164.55572392
543.75 0.119278147307 160.143080358
544.375 0.0921778944882 134.259885537
545.0 0.0929450980468 92.2492531727
545.625 0.096190842287 83.5428948538
546.25 0.090495916582 69.805999531
546.875 0.0929625323414 56.0792526218
547.5 0.122191182654 58.2759708662
548.125 0.0932442895573 77.8443626255
548.75 0.079078631622 91.5358211357
549.375 0.0897359313214 84.4253542584
550.0 0.0953197396784 127.7423606
550.625 0.0415066176909 160.809556414
551.25 0.0413614553852 -138.182248267
551.875 0.0623215505649 -159.654189088
552.5 0.121772957456 -167.151423597
553.125 0.0820290095075 -160.806792701
553.75 0.0886461234969 -167.233152083
554.375 0.108812985976 165.962611655
555.0 0.133548831726 163.07088639
555.625 0.100235937799 158.228907821
556.25 0.0968337776174 164.385900507
556.875 0.119689490615 167.624963623
557.5 0.111699499359 167.414529359
558.125 0.104104401748 164.348574288
558.75 0.0805270655793 178.671529549
559.375 0.0617135992869 -175.514027756
560.0 0.0505915482357 -150.564969642
560.625 0.0579795415999 -138.772458156
561.25 0.0888283090186 -150.303985639
561.875 0.108369117804 -164.348021175
562.5 0.0947945544642 174.245073778
563.125 0.101097687366 149.984010163
563.75 0.127689007018 133.902756901
564.375 0.0995402830559 121.305529123
565.0 0.0929531241059 118.713886227
565.625 0.0789544813361 119.161189037
566.25 0.0941779865048 154.960672387
566.875 0.0772621599891 179.337120447
567.5 0.0745695533703 -177.372834051
568.125 0.0869218662718 -172.699622327
568.75 0.0554392710036 -136.510581035
569.375 0.0473728731732 -102.004499961
570.0 0.0600983735933 -105.618084577
570.625 0.0953439129389 -119.751152675
571.25 0.0895063313816 -118.302633992
571.875 0.0879633678856 -123.063354891
572.5 0.114292651239 -156.157276431
573.125 0.146549910529 -176.390511143
573.75 0.0916958824904 168.028419953
574.375 0.0828582332788 150.325629133
575.0 0.10653883639 154.433873366
575.625 0.113895107191 152.886291461
576.25 0.0876552258959 146.385290667
576.875 0.0727763095691 127.111311529
577.5 0.0865987359678 135.280773319
578.125 0.0576026324848 161.459773937
578.75 0.0478345897074 167.151965063
579.375 0.0573782933803 162.925092034
580.0 0.0692809659286 -175.962683617
580.625 0.0791613083516 -155.21147987
581.25 0.0898299640485 -159.365739862
581.875 0.115768552534 -171.764042129
582.5 0.112821547674 -171.850960881
583.125 0.0976933421089 -173.578622514
583.75 0.0791827124407 -156.34593607
584.375 0.102345943688 -154.430239706
585.0 0.0935096484443 -144.714981857
585.625 0.0757713249987 -152.997388787
586.25 0.0673681634401 -124.33001072
586.875 0.0812632244685 -127.964018152
587.5 0.0708984389793 -142.234426046
588.125 0.0607621057335 177.571769865
588.75 0.06916522793 -144.611179924
589.375 0.0835245957908 -147.416576923
590.0 0.0908151158578 -166.238317162
590.625 0.103514357259 161.297279076
591.25 0.118457094673 160.808259442
591.875 0.0951271592489 158.252010852
592.5 0.066815770777 141.832015829
593.125 0.0589407503982 144.562525423
593.75 0.0670094748386 -169.377435528
594.375 0.058059716674 -145.255061496
595.0 0.0429193114465 -109.906608255
595.625 0.0555738390827 -106.38160345
596.25 0.0732284600121 -79.442863917
596.875 0.0676582376177 -70.3933043315
597.5 0.0563530533247 -68.1030520084
598.125 0.0574982170003 -69.9748628912
598.75 0.0888350815181 -56.9594625304
599.375 0.0946560040316 -58.9427425584
600.0 0.105529131312 -60.962001948
600.625 0.0969616865634 -74.4181370274
601.25 0.0836802782774 -62.5630100396
601.875 0.0686949939105 -82.3082013254
602.5 0.0553749120818 -93.1498231099
603.125 0.0450439990494 -68.5570482124
603.75 0.0275201986198 -50.6549085039
604.375 0.0465557900091 -13.8761022508
605.0 0.0665608461699 -12.5086712103
605.625 0.05305719418 2.4688911512
606.25 0.0189793612949 -20.2862169703
606.875 0.0551717394014 55.4603611154
607.5 0.0676497000472 46.7988944536
608.125 0.0707731378752 27.9546376437
608.75 0.0569414237717 16.6965229641
609.375 0.0701949896889 34.3333298077
610.0 0.0766233774351 44.895435996
610.625 0.0651505983798 40.743239122
611.25 0.0428639972418 15.2964268647
611.875 0.0473368463942 72.8642577505
612.5 0.0296727923839 98.4522179062
613.125 0.0235620343301 140.233469645
613.75 0.0300310299178 128.333735008
614.375 0.0393924998241 118.793872832
615.0 0.0337898664512 114.777093037
615.625 0.0218266415567 136.273222943
616.25 0.0458351006067 136.015618945
616.875 0.0313990000426 125.641511084
617.5 0.0382100065637 118.499010436
618.125 0.0212267566022 143.839203399
618.75 0.0298815076137 144.264428809
619.375 0.0129216927042 136.584326336
620.0 0.00861236982186 138.020321562
620.625 0.0202229229065 -118.328505555
621.25 0.0547245586962 -77.6584957795
621.875 0.0653065264308 -113.714511642
622.5 0.0743837723055 -165.536406588
623.125 0.0655208545881 175.877611159
623.75 0.0582162567474 164.730306092
624.375 0.0373597461052 -164.832881414
625.0 0.0476179076933 -150.640765222
625.625 0.0418702975276 -158.162536991
626.25 0.0245739866783 179.488471481
626.875 0.0244555261978 -2.7815188092
627.5 0.0222916253603 -83.8887825388
628.125 0.0320613194381 -35.0587653191
628.75 0.0367898312717 -31.9732451929
629.375 0.0659983176544 1.95291861585
630.0 0.0602867032422 -14.7886397619
630.625 0.0683622313501 -2.83324905363
631.25 0.0668458139198 2.77811126278
631.875 0.0752119866963 10.8575639723
632.5 0.0673385191944 -25.9654240406
633.125 0.0457839548375 -4.36481412674
633.75 0.0459284934841 10.9900504761
634.375 0.0495921311477 29.3749382665
635.0 0.0393986917604 34.8911378272
635.625 0.0302271224434 35.5818186335
636.25 0.0475958131841 42.9300148148
636.875 0.0600332035776 36.3862102628
637.5 0.0575484893931 56.7282653603
638.125 0.0238037123106 36.4588956189
638.75 0.0643765565872 72.320739491
639.375 0.0903552036283 91.9069850375
640.0 0.0798269282639 112.04331755
640.625 0.0514989809455 86.888050603
641.25 0.0664449907085 124.136796109
641.875 0.0624704040801 143.892714641
642.5 0.0672121116198 164.988058428
643.125 0.0475779775613 148.84595859
643.75 0.0598227639574 167.484955835
644.375 0.0654188597657 -177.766900471
645.0 0.0922397564718 -178.166031385
645.625 0.0784734309645 158.69904092
646.25 0.086004684819 164.336695525
646.875 0.0783984643206 -175.737708154
647.5 0.0732983404601 -171.679327951
648.125 0.0834030630307 179.430559218
648.75 0.0741390441631 -162.735848053
649.375 0.0528637139452 -143.829785239
650.0 0.0478788554319 -114.809440574
650.625 0.0791075223632 -86.3972375674
651.25 0.0625457859422 -64.0687529994
651.875 0.0636997193407 -39.2306145207
652.5 0.0869815897708 -22.1481121551
653.125 0.136610926727 -0.443850157044
653.75 0.109392556163 7.61543697993
654.375 0.110533000517 5.14945131943
655.0 0.127968889289 15.0061254504
655.625 0.0964610423042 28.7698957947
656.25 0.0585653538566 19.6640378159
656.875 0.0670939442757 9.51488694364
657.5 0.0773007976819 23.603344737
658.125 0.0840715002341 49.6282983674
658.75 0.0403575491523 71.8279303756
659.375 0.0777230279125 45.4587510708
660.0 0.115760649025 25.2579171786
660.625 0.123760433291 18.2486346527
661.25 0.0941552169267 5.58462615397
661.875 0.122763172774 -12.1463429654
662.5 0.1167493322 -21.6911239882
663.125 0.115809475502 -14.7044761798
663.75 0.077048693603 1.93341539586
664.375 0.0869314545508 54.4621621197
665.0 0.0765646325059 93.2405053159
665.625 0.0644863395808 112.816298089
666.25 0.0827307233301 133.307402975
666.875 0.11475911855 169.954929775
667.5 0.101851427449 -167.755124603
668.125 0.107163682177 -179.358189846
668.75 0.128362138758 167.80592245
669.375 0.126775936252 179.569872331
670.0 0.0873519821502 -168.57524041
670.625 0.0960152142038 -172.576865181
671.25 0.0939825096554 177.035878045
671.875 0.0926356414278 170.248264443
672.5 0.0684213691453 158.474256836
673.125 0.0922769090375 152.09688284
673.75 0.112858792264 160.356927628
674.375 0.122854138873 167.956463838
675.0 0.12136748271 -175.107395448
675.625 0.138783652122 -150.782948819
676.25 0.122185276326 -123.52092156
676.875 0.11920904662 -119.909198899
677.5 0.126756670035 -126.720696881
678.125 0.140015339898 -116.290946256
678.75 0.0521168908506 -90.393978311
679.375 0.0480494315531 -65.9724057521
680.0 0.0779715649194 -76.7409246183
680.625 0.134272653238 -80.2800405899
681.25 0.101030454095 -69.5946773484
681.875 0.101639697791 -90.5722046495
682.5 0.14304511379 -120.613850907
683.125 0.168767902059 -120.876712088
683.75 0.147664435801 -106.047282735
684.375 0.102339524408 -73.8622193321
685.0 0.12939284616 -37.8863439355
685.625 0.128703414372 -0.632676951785
686.25 0.120370803078 19.7531863095
686.875 0.066556893916 54.6337851658
687.5 0.0704993528526 90.7363360189
688.125 0.0803426058107 111.174883648
688.75 0.107650554063 107.965561629
689.375 0.126380682534 130.966439127
690.0 0.133695549673 135.334324087
690.625 0.118920884404 126.482493138
691.25 0.147316447386 95.1285289795
691.875 0.191932571523 67.5791250245
692.5 0.14032309484 40.2628018732
693.125 0.0890982683065 -13.116627418
693.75 0.0952634515686 -35.6332100775
694.375 0.14721325799 -34.3011784846
695.0 0.113189721747 23.9028551405
695.625 0.101759601114 58.2122294562
696.25 0.111542163367 112.81378193
696.875 0.140775166766 173.006647658
697.5 0.149725227568 -148.156055926
698.125 0.136011017977 -131.197936993
698.75 0.136502645841 -132.983687102
699.375 0.116701116668 -128.82337758
700.0 0.0856133315475 -100.632226362
700.625 0.1086595721 -82.8840700268
701.25 0.0961463949684 -62.30325314
701.875 0.0856379980293 -66.0463609943
702.5 0.102288181284 -75.2557937294
703.125 0.169498105385 -122.035378315
703.75 0.186878091818 -154.002053421
704.375 0.129195807025 171.131907005
705.0 0.115144394236 153.957401141
705.625 0.134296132057 -156.12401855
706.25 0.141066929936 -105.031898096
706.875 0.085064377937 -57.6761087156
707.5 0.080437234992 -44.9648838085
708.125 0.0872799011364 32.6421322323
708.75 0.111845205072 67.6400712038
709.375 0.103065422177 108.698535072
710.0 0.102700087755 127.051613595
710.625 0.108822935569 148.743174107
711.25 0.120710334823 175.328482755
711.875 0.146764899859 168.889894933
712.5 0.157439380745 137.4807548
713.125 0.113775705225 111.9303386
713.75 0.102385685005 50.2428584352
714.375 0.114444993618 17.6297830448
715.0 0.116862332257 27.5922714531
715.625 0.0851522585425 41.5087202794
716.25 0.0903563491879 90.6167941025
716.875 0.127466172702 111.314022016
717.5 0.139886545078 151.894861753
718.125 0.116802449622 162.20140713
718.75 0.103350066432 177.381051129
719.375 0.11812762826 -170.3797822
720.0 0.13339429767 -123.912911968
720.625 0.115376015188 -74.5987263649
721.25 0.0973650699057 -20.247905789
721.875 0.0796157117866 40.5298598462
722.5 0.0781385793931 81.7816500782
723.125 0.068291017137 53.61305802
723.75 0.126802286258 50.8614010804
724.375 0.109667976066 -1.79502057848
725.0 0.087602800723 -47.7602419805
725.625 0.103370370523 -66.015532361
726.25 0.103687534501 -79.5028168624
726.875 0.109460714077 -37.5334668254
727.5 0.0862699707851 -24.5494750542
728.125 0.0925922027119 8.86975002756
728.75 0.0704428717466 7.09986911521
729.375 0.0992612905387 29.2758245263
730.0 0.0672557846545 3.82009537359
730.625 0.0678452587293 22.21576453
731.25 0.0722994077728 64.6138267663
731.875 0.0553487452444 101.20389383
732.5 0.0909681306145 160.882313213
733.125 0.0954234063487 -178.249917471
733.75 0.0754666071846 170.716933476
734.375 0.0594946175068 -175.514581966
735.0 0.0604076546123 151.015109928
735.625 0.0456963792148 143.996854216
736.25 0.0414178557237 142.062481269
736.875 0.0399524420127 176.877664166
737.5 0.0770101575123 -179.211914118
738.125 0.0950351052304 -176.366350624
738.75 0.0753294591406 -176.721821282
739.375 0.0281002967721 166.800128296
740.0 0.0870911591114 -139.051783886
740.625 0.0662116081596 -143.337304615
741.25 0.0608462239376 -145.485578421
741.875 0.0183216201999 -86.9875633325
742.5 0.0239301685823 5.27073683843
743.125 0.0383360768688 52.9966099199
743.75 0.0517176226131 103.112901341
744.375 0.0427197441449 178.58928028
745.0 0.0885199612549 106.6613546
745.625 0.07697903608 107.45744147
746.25 0.0829522055604 86.7511296433
746.875 0.0591461333145 45.8179830009
747.5 0.0386966186938 14.6047135432
748.125 0.0224188999036 -2.56717741724
748.75 0.0308298344877 -23.6121809797
749.375 0.0390065941883 -48.17903515
750.0 0.0435892066145 -44.1653874054
