!Created with skrf (http://scikit-rf.org).
# GHz S MA R 50.0 
!freq magS11 angS11
500.0 0.0121037264924 121.668366663
500.625 0.00874644558147 114.709284343
501.25 0.00904092969005 -159.909251612
501.875 0.0269068562533 -161.140512402
502.5 0.00271539823318 108.838610875
503.125 0.0163540433973 103.11290937
503.75 0.00778683024422 53.658302858
504.375 0.00272716760981 -43.5515401671
505.0 0.0254126270268 -70.0241718665
505.625 0.0145829169615 -71.4727594851
506.25 0.0265126130063 -120.378463872
506.875 0.0552887514001 -104.164860851
507.5 0.0462038349403 -122.251168177
508.125 0.0511030652223 -93.7474244144
508.75 0.0691114977762 -123.053532376
509.375 0.0580910447933 -137.668320952
510.0 0.0316359311887 -136.748395521
510.625 0.0353539764416 -162.228114191
511.25 0.0628885880868 -169.555675447
511.875 0.0518941521944 144.463291102
512.5 0.0463269390824 108.050626372
513.125 0.0485828012753 38.9272442064
513.75 0.0614646620156 39.6156159015
514.375 0.0608724957531 25.5214073771
515.0 0.0304174711877 -30.0993472033
515.625 0.0613012923759 40.7377780626
516.25 0.0860046979195 21.0701305406
516.875 0.127812092455 67.5110254345
517.5 0.120898189933 18.1730489076
518.125 0.182741040669 66.1383727259
518.75 0.0833396641485 7.52077949861
519.375 0.0819793625993 21.0789436616
520.0 0.0802619674709 -8.4469311108
520.625 0.0918519375385 -13.3413716831
521.25 0.0825041798302 -31.0240416867
521.875 0.0774603809124 -1.15898831126
522.5 0.0793443464724 -42.9971776385
523.125 0.173336067167 -39.2286655661
523.75 0.224313459568 -58.3424821467
524.375 0.224420180798 -50.5732104594
525.0 0.0707527262859 -67.2807417295
525.625 0.0376554925294 -38.4792874877
526.25 0.0455276799502 -14.9289185798
526.875 0.0658769856727 -21.6329115178
527.5 0.0391341282807 -45.9201796176
528.125 0.0332614469902 -63.5581101293
528.75 0.054703636373 -81.1470367908
529.375 0.106445620194 -111.285280494
530.0 0.0499622657932 -137.062722791
530.625 0.0439315113029 -152.55589522
531.25 0.121299693382 -141.096520864
531.875 0.194501755407 -151.741641911
532.5 0.13787297556 -174.474943733
533.125 0.0899778941851 172.991418839
533.75 0.114005025698 164.991873332
534.375 0.128105170647 176.421775514
535.0 0.0718503626357 152.466307533
535.625 0.0554214399198 171.471528725
536.25 0.0603658338458 158.878668976
536.875 0.0832430577461 -168.11944497
537.5 0.0966228967054 -147.166511783
538.125 0.110056388258 -177.667286703
538.75 0.105233476344 176.308844088
539.375 0.0909282542136 -168.813427087
540.0 0.0768634701408 -157.738087018
540.625 0.13578577759 -162.107459445
541.25 0.133580003314 -145.986893931
541.875 0.0969058082191 -146.121284273
542.5 0.108025095529 -145.196838659
543.125 0.140069146383 -169.759417047
543.75 0.133390819577 156.549184439
544.375 0.106425811576 133.303526972
545.0 0.0706896441632 84.8474750118
545.625 0.0883465536332 78.2931195601
546.25 0.0888637264481 61.4333260335
546.875 0.100090596268 48.8250733415
547.5 0.0967308981284 54.6135441022
548.125 0.124543365552 74.9347393889
548.75 0.092118537593 87.2733705442
549.375 0.110037220241 81.9566408936
550.0 0.0683879142568 116.203799444
550.625 0.0392529100089 152.068113208
551.25 0.0316970153976 -145.101487329
551.875 0.0676858303388 -173.582700498
552.5 0.0987734114961 -166.756139105
553.125 0.0899854390993 -170.224480389
553.75 0.0899298096273 -171.991547724
554.375 0.113966339708 159.913644091
555.0 0.110735496243 163.071727985
555.625 0.0934130448669 156.127243334
556.25 0.0979606581516 158.255875937
556.875 0.125448364705 160.217237757
557.5 0.12173850793 161.519318973
558.125 0.0987944137138 160.912864831
558.75 0.0786926846334 172.083688436
559.375 0.0775092917816 179.736491682
560.0 0.0377772854183 -147.991033625
560.625 0.0523340549094 -138.042906236
561.25 0.0808927951714 -149.719028678
561.875 0.109810059783 -170.604365408
562.5 0.086011255261 173.74172209
563.125 0.0993450466595 146.301185535
563.75 0.130734823664 127.557611112
564.375 0.114318014656 115.627745789
565.0 0.0819807459644 117.964733558
565.625 0.0752170093292 117.82173873
566.25 0.0848994282071 148.953715565
566.875 0.0821329887954 171.213011731
567.5 0.0736732078937 178.453988787
568.125 0.0816675017131 -175.281300495
568.75 0.0731120102316 -154.623155779
569.375 0.0498549657676 -118.154831451
570.0 0.0601662573508 -120.424873234
570.625 0.088203163185 -118.635581382
571.25 0.0833718685455 -123.83085873
571.875 0.0883527836656 -133.170886683
572.5 0.111120346467 -159.153508858
573.125 0.14047270989 -178.164937104
573.75 0.108596813978 158.437317198
574.375 0.0868839647698 140.589650606
575.0 0.0954019485569 157.490924752
575.625 0.108385193404 153.299490543
576.25 0.0829427291946 143.893823615
576.875 0.0861887058468 121.575416414
577.5 0.071456916037 141.146508741
578.125 0.0561183026885 160.461433575
578.75 0.0446537337828 158.584426286
579.375 0.0580363702133 147.178477167
580.0 0.0649793966835 174.849893146
580.625 0.0756028805715 -155.717728994
581.25 0.0855782750843 -170.165191371
581.875 0.114963805006 179.26529915
582.5 0.122385354294 175.949016112
583.125 0.091489307832 -168.050828775
583.75 0.0809169013557 -167.444348746
584.375 0.102534287092 -163.251649673
585.0 0.101630171542 -153.598302548
585.625 0.0716608285304 -149.633603209
586.25 0.0713370190864 -147.61975395
586.875 0.083636874552 -140.360218927
587.5 0.0760266923196 -151.985174157
588.125 0.0588179262871 -173.876512459
588.75 0.0677650529112 -166.568023185
589.375 0.0817123580572 -158.102911891
590.0 0.0893001058953 -177.912558531
590.625 0.105986379138 169.353345281
591.25 0.120954613406 156.502202608
591.875 0.0944916126619 157.94847356
592.5 0.0705174275482 133.39401786
593.125 0.0614794191498 162.805276296
593.75 0.0783575892855 174.157685773
594.375 0.0594687747803 -157.705099693
595.0 0.0413378042405 -136.786287133
595.625 0.067714306795 -90.0844220367
596.25 0.0793170807401 -80.6934457998
596.875 0.0640636975252 -70.8337217893
597.5 0.053126798276 -80.1485972834
598.125 0.0682039631977 -55.9334883569
598.75 0.0727796359769 -69.8193308524
599.375 0.0878269385493 -68.3569165954
600.0 0.0955029806152 -76.8798809864
600.625 0.102543238712 -68.2383747296
601.25 0.0880221611948 -73.5557679504
601.875 0.0717416992818 -91.5447829513
602.5 0.0625094365779 -106.68113368
603.125 0.0511808931604 -36.2817711976
603.75 0.0338658701371 -37.1163582412
604.375 0.035640520913 -35.7021492493
605.0 0.0532001969356 -32.4734731561
605.625 0.0473648121919 -31.3732731788
606.25 0.0252606400505 8.20656392308
606.875 0.0255277433041 37.4521365566
607.5 0.0579368891247 37.6926379058
608.125 0.0690292485946 21.8615004935
608.75 0.068257669948 20.2279198567
609.375 0.0587630993113 26.9000977491
610.0 0.0622537517965 31.9238343956
610.625 0.0583903188357 26.9704826279
611.25 0.0530064256396 30.0528399125
611.875 0.0341961216707 25.1623184039
612.5 0.0232956287183 76.3819759274
613.125 0.00737195086412 138.855223772
613.75 0.0668958753988 122.136952949
614.375 0.057301959227 118.694290856
615.0 0.0437329398336 121.086545808
615.625 0.0103632898478 156.578792906
616.25 0.0599833368388 132.963619475
616.875 0.0564542815674 126.184017179
617.5 0.0443103003749 119.643126141
618.125 0.00644381691396 123.68568462
618.75 0.0617242763158 143.236431258
619.375 0.032780114933 142.810627257
620.0 0.00669848685692 107.631122386
620.625 0.029506065962 -68.2805948597
621.25 0.0394515838339 -116.604019047
621.875 0.0656045037897 -128.073058866
622.5 0.0772676094518 -172.530928806
623.125 0.0639061435389 -172.568063351
623.75 0.0898800334593 157.465587137
624.375 0.055289678489 179.313084821
625.0 0.0416181393204 -142.068169667
625.625 0.0310621557774 -138.517801491
626.25 0.011990229128 171.105244913
626.875 0.00358043331833 43.6710356582
627.5 0.0364574630961 -15.4469917031
628.125 0.0367097877476 -25.3303858743
628.75 0.04557021519 -4.11108294083
629.375 0.0418850193221 -16.4809848704
630.0 0.057509792233 -20.8981297612
630.625 0.0690014649885 6.36554666025
631.25 0.0702687525215 -9.2705533059
631.875 0.0684217096518 -7.83499799177
632.5 0.0660899033078 2.25692350036
633.125 0.045458192117 3.76640125598
633.75 0.0505184761432 21.1586458944
634.375 0.0496943766173 -22.5269358664
635.0 0.034983268986 -0.0371558547608
635.625 0.0388076149422 32.3829537622
636.25 0.0617061880759 45.4110122715
636.875 0.0729517718753 42.1883264341
637.5 0.0394456547706 27.6241012034
638.125 0.0345177288768 62.5525301386
638.75 0.0726169535708 74.2948879658
639.375 0.107888457324 94.4718737836
640.0 0.0677863203547 87.4233612896
640.625 0.0491861759531 90.0250823745
641.25 0.053078289066 102.165834905
641.875 0.0791440556396 152.372180843
642.5 0.0580168143621 153.028093912
643.125 0.0670903951912 158.794568018
643.75 0.067825769145 168.146090984
644.375 0.0893704310189 -174.23988195
645.0 0.0748159599559 173.318734133
645.625 0.0785291955783 160.01986216
646.25 0.0911123220703 160.515467993
646.875 0.0888084092725 177.234021224
647.5 0.0483577037671 161.252269541
648.125 0.0697211875595 174.016487122
648.75 0.0754541725596 -174.039371325
649.375 0.0631542846845 -150.615863907
650.0 0.0261812765962 -146.043888916
650.625 0.0660294419351 -94.620410676
651.25 0.0701560822451 -71.5614895534
651.875 0.0716171453675 -48.0648336476
652.5 0.0966233088278 -29.5621279279
653.125 0.119276588622 -6.02539857137
653.75 0.106392683482 -1.35673520667
654.375 0.12127638493 4.36960298057
655.0 0.0989301681551 1.48544214409
655.625 0.0878643667591 17.0220460629
656.25 0.0660277353197 11.9636644997
656.875 0.0803070550928 2.65457370283
657.5 0.0890215256159 16.711505288
658.125 0.0643826182246 39.8312169417
658.75 0.0573715852898 58.2987707538
659.375 0.0806839133745 35.8768018101
660.0 0.128796075283 18.730760268
660.625 0.0961830355599 14.4939376276
661.25 0.097448768264 1.64680135576
661.875 0.109809009517 -19.2109297685
662.5 0.138708003809 -25.2181076299
663.125 0.107728438374 -20.456601017
663.75 0.104499166906 1.27045820415
664.375 0.102048478614 48.2670746297
665.0 0.0710709364843 78.4624892675
665.625 0.0556506768784 109.553274439
666.25 0.0743010189663 124.888031002
666.875 0.129381679671 160.400292429
667.5 0.0801888560443 -170.273443702
668.125 0.0959153961071 178.207531145
668.75 0.115481544389 162.006751171
669.375 0.141247977299 171.219050727
670.0 0.0801754107442 -178.53143956
670.625 0.0849591469799 -174.651119621
671.25 0.120611925569 168.241942058
671.875 0.110362530983 161.659896549
672.5 0.090095015979 146.305971659
673.125 0.0822533286742 147.396940978
673.75 0.0992452614937 154.643256028
674.375 0.124155610113 160.624531745
675.0 0.0943357878877 -174.157991781
675.625 0.124455549405 -154.081011702
676.25 0.119547950643 -128.477590212
676.875 0.126040434994 -127.080605268
677.5 0.103837843637 -130.054271087
678.125 0.12857340737 -123.12781729
678.75 0.0806627641452 -99.2693158462
679.375 0.0548559685593 -82.1028733195
680.0 0.0792205560047 -88.2450586132
680.625 0.112398802883 -81.7628590853
681.25 0.0974865779411 -74.7521904256
681.875 0.094468765568 -96.1465672858
682.5 0.141052776425 -129.448994905
683.125 0.156043575237 -127.421498898
683.75 0.140688531458 -109.170309561
684.375 0.124325564997 -84.95723007
685.0 0.134858300728 -45.0554479668
685.625 0.131936537653 -8.4867992548
686.25 0.110099430988 16.2100579351
686.875 0.0961707568808 39.0245583275
687.5 0.0807994797263 75.4685518025
688.125 0.0831772837131 98.9364656449
688.75 0.0999180326481 111.039143337
689.375 0.140340682941 114.363039985
690.0 0.13149161375 130.215716933
690.625 0.126128746927 117.458655158
691.25 0.131389753879 99.6091898061
691.875 0.177988366178 64.4796100442
692.5 0.135842904931 34.7669896576
693.125 0.100655367202 -24.5174378797
693.75 0.0979711410969 -50.0942460345
694.375 0.134777744938 -37.2908894651
695.0 0.13344913379 6.08556753803
695.625 0.0981216458367 50.7865946207
696.25 0.118221174265 99.9967806081
696.875 0.125140361533 177.280371914
697.5 0.139924587668 -149.83326197
698.125 0.136887198709 -137.849582096
698.75 0.143916386633 -142.639745488
699.375 0.10778047512 -129.366585199
700.0 0.0990269355557 -119.941090562
700.625 0.114977965693 -98.1909719999
701.25 0.112700271317 -78.7953049276
701.875 0.077270394476 -58.5378621156
702.5 0.0953963164997 -84.462557153
703.125 0.158352049175 -122.438002907
703.75 0.198792004642 -166.193690252
704.375 0.123147242269 172.125616519
705.0 0.111653474961 153.886380895
705.625 0.147251280109 -178.093234598
706.25 0.148120162406 -120.09852123
706.875 0.10392483259 -74.5260992502
707.5 0.0685140101036 -33.2793945085
708.125 0.0882566777616 15.9540666651
708.75 0.109858883972 56.4869585807
709.375 0.106930016045 91.7560604893
710.0 0.101527018765 138.437643774
710.625 0.105613649456 151.495564725
711.25 0.119658313451 168.026276956
711.875 0.138443095086 157.780638519
712.5 0.1591291126 141.9027384
713.125 0.130797042476 96.3627140597
713.75 0.101275914037 43.2888363193
714.375 0.116464904239 0.309769165349
715.0 0.111780120502 41.2071938249
715.625 0.0831637663963 45.158954622
716.25 0.0759856915243 63.8365785738
716.875 0.113952596061 95.5332615285
717.5 0.140988718097 129.95504693
718.125 0.122826533203 174.915492764
718.75 0.105853831044 174.208969025
719.375 0.112430975299 -171.08975157
720.0 0.127376857675 -141.504232668
720.625 0.117560479332 -73.6234601582
721.25 0.101920510824 -17.8783277809
721.875 0.0902417932777 23.5083441165
722.5 0.0715608464345 44.1839294308
723.125 0.0826306091407 69.971629967
723.75 0.119679348708 43.1172553642
724.375 0.115782248885 1.16260567632
725.0 0.0787138463114 -59.9533000917
725.625 0.114454285259 -62.5487767863
726.25 0.109539835561 -73.0369994905
726.875 0.100182853472 -64.8707723874
727.5 0.0827504449559 -47.6888308073
728.125 0.0703797211205 -28.6549376349
728.75 0.114831391268 29.7151040671
729.375 0.0953708817079 21.8004714512
730.0 0.076626670818 7.61579227675
730.625 0.0477972049016 -1.64382495643
731.25 0.0890882267944 73.5363326435
731.875 0.0784947398387 108.486646307
732.5 0.0586589837528 139.431913986
733.125 0.0865331010302 167.755845495
733.75 0.0852601895484 174.795781243
734.375 0.0886449837843 175.068681715
735.0 0.0672635451215 148.766121486
735.625 0.0231419078151 101.074390482
736.25 0.0777283138522 146.746203035
736.875 0.0602763890873 157.87233364
737.5 0.0923794592519 177.717910086
738.125 0.0719018563354 179.57931044
738.75 0.0915849454616 -169.700089152
739.375 0.06045322036 -172.340266926
740.0 0.026232764294 -150.115948001
740.625 0.0505812683483 -155.205874833
741.25 0.0233498680932 -157.737195481
741.875 0.0732473682385 -114.881196354
742.5 0.0466407478447 -31.3496837413
743.125 0.0327948928833 47.8370410807
743.75 0.0234270712497 133.186793619
744.375 0.035548532086 105.046148377
745.0 0.0453111260452 124.839244603
745.625 0.0634501730258 114.867961903
746.25 0.068657303206 102.227286506
746.875 0.103141802257 25.0271098103
747.5 0.0584864909674 -2.27339918714
748.125 0.0297791549989 2.44882362437
748.75 0.0192121351068 3.95909677045
749.375 0.0318643816017 -1.48433739675
750.0 0.0275597655983 -108.211854196
