!Created with skrf (http://scikit-rf.org).
# GHz S MA R 50.0 
!freq magS11 angS11
500.0 0.0107963236011 138.732561876
500.625 0.00976262648121 125.702532756
501.25 0.0194157802733 -169.569547161
501.875 0.0293912172493 -171.675348601
502.5 0.0263200494637 161.604439674
503.125 0.0199006847309 122.032991802
503.75 0.0103008229939 115.66496985
504.375 0.0228863105607 -66.1919496848
505.0 0.00129249619547 -13.8360065749
505.625 0.0219167855334 -71.0404091246
506.25 0.0461073628072 -103.463541751
506.875 0.078547516352 -92.8313296281
507.5 0.0405131504181 -148.265840882
508.125 0.0388226701553 -109.085269935
508.75 0.0603750920638 -129.837553672
509.375 0.0600341728936 -129.782182558
510.0 0.0293698696217 -137.968243386
510.625 0.0230584390879 -172.898599039
511.25 0.0545439649547 178.341904073
511.875 0.062867101562 152.595165396
512.5 0.0345703471157 81.7267253959
513.125 0.0470858025058 35.9265198006
513.75 0.0558890644872 33.7890157392
514.375 0.0452441595811 21.8235339093
515.0 0.0534303298908 2.99892821365
515.625 0.0959586058248 49.7183022053
516.25 0.0886328338735 28.9855152893
516.875 0.124961630295 69.3363801877
517.5 0.105037294506 16.1562443546
518.125 0.204699292222 70.5380297436
518.75 0.0951038080168 14.975578845
519.375 0.0568845674959 10.1733725378
520.0 0.0886208259986 -5.67735486995
520.625 0.110742475747 -4.56725144154
521.25 0.0890095861186 -24.202944136
521.875 0.075405236732 0.357197627217
522.5 0.0954985967099 -35.1564737037
523.125 0.185888176555 -34.23832884
523.75 0.209685618606 -58.5969110761
524.375 0.225177586194 -48.445330928
525.0 0.0743738525503 -46.0780883946
525.625 0.0374444524281 -50.8876222039
526.25 0.0583762030545 -7.9426840557
526.875 0.0406293886598 -40.9529801445
527.5 0.0445186892557 -33.0429612867
528.125 0.0387675841255 -67.1887803638
528.75 0.0666831383009 -72.1247773719
529.375 0.0702504276005 -122.473415456
530.0 0.0377077669305 -141.353282897
530.625 0.0359642180452 -140.755867277
531.25 0.135441578964 -142.100365549
531.875 0.133338523855 -150.968202864
532.5 0.126145085857 -173.103233537
533.125 0.0965468689038 170.133405007
533.75 0.132045449314 164.418891856
534.375 0.0914443516404 172.47985071
535.0 0.0891051266587 161.23582803
535.625 0.0679343797661 175.674535988
536.25 0.073458852737 160.544879863
536.875 0.0642858911542 -159.259211892
537.5 0.0869781982556 -142.773668034
538.125 0.102328005004 -173.535381793
538.75 0.118360828115 178.988985608
539.375 0.057617275054 -168.863667658
540.0 0.0877818901463 -154.618687482
540.625 0.122352668067 -157.791954617
541.25 0.141845214017 -143.923471109
541.875 0.0893193939409 -142.539335995
542.5 0.103991189214 -140.223866083
543.125 0.127564989946 -168.370764538
543.75 0.14359490008 158.9224752
544.375 0.0855278899769 132.878119594
545.0 0.0894573482769 89.8403435531
545.625 0.105191593131 81.6570220543
546.25 0.0927635739746 66.712742052
546.875 0.0972592881109 52.6068063036
547.5 0.107296543193 57.4952941958
548.125 0.109940209272 76.8603059018
548.75 0.101697401482 88.4442792459
549.375 0.0756258401673 83.4740423477
550.0 0.0885551592135 123.698418174
550.625 0.0489817078267 148.335844159
551.25 0.0397436712646 -142.475212995
551.875 0.0579879023261 -151.481716213
552.5 0.10314884792 -162.762698384
553.125 0.0860913937379 -168.601922127
553.75 0.0955013802414 -175.740005394
554.375 0.102220591923 167.648100459
555.0 0.12294298984 162.912373019
555.625 0.10082476541 156.589623701
556.25 0.0998746042612 161.681847549
556.875 0.127448913085 162.162854841
557.5 0.101925622996 167.233458854
558.125 0.0899089346888 164.573067458
558.75 0.083028990019 176.656505476
559.375 0.0560431351103 -175.200971927
560.0 0.0424590326433 -148.04975546
560.625 0.0590388944143 -144.470829289
561.25 0.0898435755068 -153.469375454
561.875 0.101274640372 -164.099424235
562.5 0.0920043721592 172.403497852
563.125 0.1025752116 143.552567051
563.75 0.138971165174 126.402808875
564.375 0.0941037083065 122.965995066
565.0 0.0839378042057 120.148382888
565.625 0.0846495158059 114.646997906
566.25 0.0988167253184 148.745000545
566.875 0.0803481178133 175.297765971
567.5 0.0689356348528 -175.368523333
568.125 0.0758286052783 -169.698394077
568.75 0.0613157258922 -146.950861251
569.375 0.0536683967099 -121.981098456
570.0 0.0580781531945 -98.5241431559
570.625 0.0912667835992 -117.305101146
571.25 0.0895313376158 -121.136174337
571.875 0.0897884488374 -133.225754432
572.5 0.107758243868 -154.217889664
573.125 0.13656216967 -172.239824374
573.75 0.0985281294199 164.377439847
574.375 0.0878321285393 143.789962229
575.0 0.10373392165 153.472678894
575.625 0.111462907414 153.686928071
576.25 0.090798122471 143.085651593
576.875 0.0714295607952 131.984552091
577.5 0.0839337927938 132.938295116
578.125 0.06452833049 154.119521573
578.75 0.0488221328671 161.544954207
579.375 0.057477103307 153.279815076
580.0 0.0642554469545 -169.829779599
580.625 0.0773264988965 -146.363730902
581.25 0.0890022322862 -165.099996426
581.875 0.115490371977 174.500292389
582.5 0.108471534787 -168.6107775
583.125 0.092480919678 -168.338975606
583.75 0.0772270422161 -166.477185227
584.375 0.105582094024 -168.051189026
585.0 0.093788544879 -142.697582264
585.625 0.0711497101042 -142.13333877
586.25 0.0675494251425 -135.891353376
586.875 0.0847281748877 -147.124094373
587.5 0.0687683253281 -134.937365418
588.125 0.0585541650564 -171.342486888
588.75 0.0648986208964 -160.670617358
589.375 0.0805327373741 -165.632742104
590.0 0.0941543257421 -164.166115253
590.625 0.105381763616 165.974093199
591.25 0.121603493921 154.482660216
591.875 0.0967999251327 155.828295717
592.5 0.0652499540933 144.570091401
593.125 0.0623840520525 152.572015791
593.75 0.0611185893777 173.483339926
594.375 0.0606325665674 -167.555642809
595.0 0.0486234980501 -101.789307814
595.625 0.0580722780574 -104.198931918
596.25 0.0723677537215 -89.4192221493
596.875 0.0682285288188 -72.5223869912
597.5 0.0583084689447 -67.3932776361
598.125 0.0716126341324 -57.8084769261
598.75 0.081191216775 -63.5128405138
599.375 0.0790971892756 -75.1846694698
600.0 0.111424894246 -56.388919179
600.625 0.104951190112 -58.4121957069
601.25 0.0802231999337 -72.9624629318
601.875 0.0688121313824 -101.23226011
602.5 0.0625012324572 -80.4899691153
603.125 0.0450140888603 -58.2959558592
603.75 0.0306436105857 -47.7591301764
604.375 0.04096805478 -25.9125010664
605.0 0.0506841762323 -34.1621882624
605.625 0.063171861641 12.2512246607
606.25 0.0360438122241 27.4375564741
606.875 0.0389272950388 49.8114959561
607.5 0.0398434082286 36.99681058
608.125 0.0792643720712 35.1476924875
608.75 0.055994148537 14.8799693884
609.375 0.0643535297394 28.5353129991
610.0 0.060013810254 32.2144600882
610.625 0.0792964583874 49.4828755758
611.25 0.0631223523509 44.6477864714
611.875 0.0419970206545 52.8356903145
612.5 0.0109881974629 11.9329445209
613.125 0.0361437158144 129.403457474
613.75 0.0502220716488 122.37186315
614.375 0.0356326034733 117.263442771
615.0 0.0340313014293 111.783031102
615.625 0.0306363296468 133.737276374
616.25 0.0522887401362 135.272333027
616.875 0.0484471860516 124.892088934
617.5 0.0270651833659 111.530576405
618.125 0.0381928516444 139.262803628
618.75 0.0309039122889 141.129390169
619.375 0.0106461611799 130.209973141
620.0 0.0158946336626 -27.4118561553
620.625 0.0249561799351 -171.193984476
621.25 0.0423312542921 -113.185055703
621.875 0.061893239619 -105.643981712
622.5 0.0696272133213 -158.949062648
623.125 0.064301693939 -179.897303994
623.75 0.0607188598642 165.966196595
624.375 0.0362390032916 -169.071295082
625.0 0.0402437243391 -150.01080603
625.625 0.0219663634786 -136.550971113
626.25 0.0473253422569 -177.656784672
626.875 0.0158014514016 168.55143105
627.5 0.0214048380835 -40.4575941864
628.125 0.0556390147189 -5.14008667684
628.75 0.0355304825804 -61.0412529035
629.375 0.0407249291505 -24.9887772608
630.0 0.071769418698 -7.9320791495
630.625 0.0851144595371 20.8511964037
631.25 0.0707131766555 -1.26201039089
631.875 0.0679601404586 -20.8995682015
632.5 0.0606340489323 -12.7076137561
633.125 0.0552747120766 27.1935160031
633.75 0.0450315098453 -11.4711997
634.375 0.0437585893757 3.07980370376
635.0 0.0408319057666 33.0102109539
635.625 0.0349072335705 38.7816367372
636.25 0.06636814464 47.2682954365
636.875 0.0568909449946 12.3972978965
637.5 0.0415696653578 28.1395599491
638.125 0.0329709908791 53.220120969
638.75 0.098688501097 76.8594138305
639.375 0.0835306176651 81.7418801652
640.0 0.0659373923273 98.6325646896
640.625 0.0598505908387 94.2546925206
641.25 0.0686583399727 124.492853811
641.875 0.0522613663591 125.663854949
642.5 0.0450545922283 150.251390905
643.125 0.0551603193942 156.85294799
643.75 0.089479261152 175.349548371
644.375 0.0546726316438 168.406746957
645.0 0.0653122982657 174.318519361
645.625 0.0899033597216 161.028152719
646.25 0.107396600513 168.035182626
646.875 0.0700112064731 175.023838609
647.5 0.0688425694799 179.531396643
648.125 0.0898832846233 -177.034618288
648.75 0.075455347695 -163.966810862
649.375 0.057834263426 -146.538995233
650.0 0.0470393342418 -121.737118804
650.625 0.0580793710484 -89.6154148471
651.25 0.0694713910751 -64.779949943
651.875 0.0754152622695 -44.5090042925
652.5 0.0651555850371 -25.7969636031
653.125 0.102830794263 -4.28357840924
653.75 0.110734717094 5.35515842923
654.375 0.098072869329 2.02288518286
655.0 0.110075389969 9.29476043009
655.625 0.103837213272 27.8547153616
656.25 0.0619132226248 20.1260236066
656.875 0.0801974469247 6.32764957656
657.5 0.061128275884 12.4636370429
658.125 0.0598189188009 47.149049665
658.75 0.0485173398678 61.9997288902
659.375 0.0945040308436 32.9368298633
660.0 0.102328612282 24.6247310314
660.625 0.10865046381 16.3621950449
661.25 0.101663547999 -0.159069538637
661.875 0.125043466826 -13.81738411
662.5 0.100302806028 -25.674722781
663.125 0.0948948063702 -17.9368372718
663.75 0.0917421609074 -0.126541273175
664.375 0.117666017673 52.3429342882
665.0 0.0716165700808 93.6070302998
665.625 0.0723654300941 108.89790459
666.25 0.0873704599784 126.850688331
666.875 0.102721023321 167.845199917
667.5 0.0992723538441 -170.29681746
668.125 0.106540570758 179.266942909
668.75 0.1297549903 168.009548987
669.375 0.143056019402 174.736719783
670.0 0.0856580993137 -172.708049101
670.625 0.0889997227531 -172.541653842
671.25 0.108247328986 172.364373478
671.875 0.117635137399 164.665364351
672.5 0.0572893811335 155.918798355
673.125 0.0776077102412 154.377831106
673.75 0.114187243337 156.373880911
674.375 0.113780574539 167.907395857
675.0 0.114640825111 -176.892054928
675.625 0.130771377408 -151.659726016
676.25 0.128755750215 -127.801100523
676.875 0.120869948775 -122.476754035
677.5 0.125446384655 -130.590891466
678.125 0.121304302484 -118.123782685
678.75 0.0665639794148 -96.5171222653
679.375 0.0613320985399 -83.4062612473
680.0 0.0656172926505 -72.267008602
680.625 0.111854249989 -74.6584862103
681.25 0.106050113106 -76.4121532788
681.875 0.101722916287 -96.3541015723
682.5 0.140029546884 -123.411042558
683.125 0.161360070655 -119.852418796
683.75 0.137119524822 -105.004346177
684.375 0.113978501147 -81.330855196
685.0 0.145326283749 -45.2702054319
685.625 0.118048290644 -0.819109067317
686.25 0.100123171281 20.1575549299
686.875 0.0782249064113 43.7873784603
687.5 0.0887315523174 73.2316420823
688.125 0.0718533985764 116.798279996
688.75 0.0960797561373 114.652311979
689.375 0.130278194056 120.745408784
690.0 0.13898408815 129.674230205
690.625 0.115369132469 128.28200779
691.25 0.139710578179 98.8337404418
691.875 0.198624688898 63.7746453042
692.5 0.147514377326 37.8433517667
693.125 0.0985376300301 -20.3589841813
693.75 0.0821801053716 -31.7821471902
694.375 0.126134467647 -24.87784604
695.0 0.11819829603 12.5477110118
695.625 0.104192581518 49.92477995
696.25 0.109235479122 116.340595852
696.875 0.135768725179 169.517184827
697.5 0.143696842947 -144.817092553
698.125 0.14042863075 -134.137077179
698.75 0.131147194531 -132.178604855
699.375 0.10238130583 -123.336440985
700.0 0.0910693574823 -111.089734795
700.625 0.122175797383 -102.018444761
701.25 0.0904627850714 -59.9384067036
701.875 0.081998101355 -58.8692795173
702.5 0.0957595991811 -82.7408989727
703.125 0.168811678512 -126.107795774
703.75 0.196130072393 -160.887009709
704.375 0.129568154038 170.69688688
705.0 0.107690915339 162.799936092
705.625 0.136994088368 -167.895455245
706.25 0.158764620157 -123.378551541
706.875 0.0815100050052 -52.9652763194
707.5 0.0772436092842 -33.2884563077
708.125 0.0808533232991 19.1335689252
708.75 0.112063952997 52.4991438526
709.375 0.105332651319 114.86807418
710.0 0.100862522236 128.57811941
710.625 0.108246094578 151.502172572
711.25 0.117580108311 163.614684034
711.875 0.146555583728 173.513879988
712.5 0.149757263125 147.410700568
713.125 0.11707181499 102.131519541
713.75 0.107324192572 39.6716377001
714.375 0.112976471558 14.198016196
715.0 0.11678900079 25.1852506874
715.625 0.0884374713956 52.3503777855
716.25 0.0807126875334 78.105765888
716.875 0.104638700616 89.4632979266
717.5 0.151646414958 159.580114208
718.125 0.116830179294 166.516956799
718.75 0.0990638308982 168.040681334
719.375 0.115614748136 -172.133544705
720.0 0.127078383366 -139.611371633
720.625 0.112284109904 -75.1847438796
721.25 0.0995479085512 -27.0536682552
721.875 0.0874102760698 10.3489739152
722.5 0.0837509147948 92.3532469381
723.125 0.0933492414117 81.8159403926
723.75 0.100491172874 44.5185818313
724.375 0.10989158407 -5.92880573965
725.0 0.0929596732943 -43.1023552302
725.625 0.103279140744 -65.2170557322
726.25 0.128337276802 -59.6428189931
726.875 0.105841269458 -49.466481073
727.5 0.0778463967439 -51.3704975055
728.125 0.104893314121 16.0725095985
728.75 0.0982557148557 24.941328044
729.375 0.0743883462951 21.7366677133
730.0 0.0659976719908 -2.2773043321
730.625 0.0505403749644 4.96390201122
731.25 0.0761897827813 64.3026351045
731.875 0.0719601558964 109.653307272
732.5 0.0780874736419 150.642629952
733.125 0.0585698769533 155.601935452
733.75 0.0787028066109 172.900009888
734.375 0.0422766387584 156.824115582
735.0 0.0435533157394 129.617182453
735.625 0.0646697342322 154.59843169
736.25 0.0403633518675 145.052330789
736.875 0.0402055114054 168.818124988
737.5 0.074753173802 174.354221638
738.125 0.0674936639427 179.715662647
738.75 0.0754194863422 -174.182540831
739.375 0.0522739263405 -176.888611994
740.0 0.0544722019127 -143.003893935
740.625 0.0207863588709 -116.934741616
741.25 0.0847105146517 -153.015610057
741.875 0.0466378851184 -115.26608732
742.5 0.0209968738046 -17.5924268779
743.125 0.0220854431461 115.311649828
743.75 0.0684199758385 78.5077476495
744.375 0.0525906122787 101.146007629
745.0 0.0676274862405 119.257874624
745.625 0.0700762903586 147.474019663
746.25 0.0943132923076 72.0508793619
746.875 0.0640136645183 40.4140493167
747.5 0.0320017857289 21.5114238287
748.125 0.0214893257397 -12.3100447841
748.75 0.0262956129794 54.4568680919
749.375 0.0555559221348 -66.7329007266
750.0 0.0372692691963 -116.156698545
