!Created with skrf (http://scikit-rf.org).
# GHz S MA R 50.0 
!freq magS11 angS11
500.0 0.0163299537048 163.093442163
500.625 0.0107621925388 121.039850271
501.25 0.0147810131587 -42.8131478807
501.875 0.0548314608605 178.19103474
502.5 0.0209831925086 155.075105031
503.125 0.0107965936172 47.7476025263
503.75 0.0163729180313 113.168757635
504.375 0.000302717747877 13.8416027457
505.0 0.0203022710435 -71.3480583624
505.625 0.0343771682433 -76.4783046422
506.25 0.0488277101274 -103.886956791
506.875 0.0562767474548 -108.400668117
507.5 0.0427397462805 -141.379373485
508.125 0.0698439880915 -84.5884315091
508.75 0.0514432307227 -166.244801007
509.375 0.044596891965 -167.896127064
510.0 0.0312854839569 -134.681618865
510.625 0.0548267271176 -160.61913238
511.25 0.0405735459216 163.54251732
511.875 0.0501673382296 144.151142824
512.5 0.0422345299641 98.5708834208
513.125 0.0620196309795 51.0373759434
513.75 0.0474379816597 7.08031078653
514.375 0.0459756271613 25.0617672122
515.0 0.0503992878892 3.21309973176
515.625 0.100782210703 50.8971460639
516.25 0.0777117735483 23.5549403138
516.875 0.0983840997654 69.7478752614
517.5 0.108418127529 17.4477708801
518.125 0.215612135273 72.3626191791
518.75 0.0869978227949 8.21219468351
519.375 0.077585210221 17.3717421619
520.0 0.104558483695 -4.92591890131
520.625 0.111473353337 -4.05783958085
521.25 0.0846535520626 -26.4862916055
521.875 0.0611351923616 -2.37071630588
522.5 0.0973472141792 -34.6839069124
523.125 0.195035844264 -33.9286529929
523.75 0.200574862327 -68.3988141361
524.375 0.194029933303 -60.9511766488
525.0 0.0720174257033 -46.7667187469
525.625 0.0375857558152 -54.9566072737
526.25 0.0423265687304 -15.9704599499
526.875 0.0536760529111 -32.1469538711
527.5 0.0536024834133 -30.7783419594
528.125 0.0408672078437 -63.5579780151
528.75 0.0613499373119 -75.7202185456
529.375 0.0974583215088 -114.851492229
530.0 0.0632962360066 -133.594366822
530.625 0.0163106261961 -127.100402537
531.25 0.0949162404764 -132.125318316
531.875 0.162695531753 -153.844793717
532.5 0.158133515838 -173.76677265
533.125 0.097734623026 171.844552795
533.75 0.114488864083 164.617441922
534.375 0.117708531979 176.587790946
535.0 0.0892713884344 160.403410253
535.625 0.0710364354302 174.446692483
536.25 0.0573939168121 160.357218754
536.875 0.0682703677665 -165.25105233
537.5 0.107946871526 -149.767622675
538.125 0.0818749386753 -176.194610448
538.75 0.101560052916 176.398273987
539.375 0.0739233386157 -171.668094821
540.0 0.098633504044 -159.828069864
540.625 0.0976276010863 -156.084210461
541.25 0.114189886658 -144.565402932
541.875 0.0911963782994 -146.437078385
542.5 0.116568151202 -148.534011671
543.125 0.117269187571 -168.063606803
543.75 0.128281762934 156.795044564
544.375 0.101451447394 132.826316692
545.0 0.0895980140899 87.828751215
545.625 0.109159972369 79.3143244874
546.25 0.087238565623 63.282117575
546.875 0.0857952653538 51.9551184525
547.5 0.118049220124 54.2724222037
548.125 0.0940694309006 72.4226958679
548.75 0.084014227147 86.8765945344
549.375 0.0991715069209 78.9451244111
550.0 0.0913674193149 121.481760098
550.625 0.0536256812373 147.170563971
551.25 0.0364938103588 -145.622822797
551.875 0.0646886023749 -168.717608622
552.5 0.115369002434 -170.548809903
553.125 0.0843117812294 -168.547993145
553.75 0.0878697732397 -170.294955828
554.375 0.11242481219 161.394967883
555.0 0.13051455673 159.550233392
555.625 0.103712651116 153.845513699
556.25 0.0892063901482 164.090292786
556.875 0.112112631026 164.483345116
557.5 0.110386764122 162.769011149
558.125 0.108039790679 160.100655442
558.75 0.0803965498219 172.523066134
559.375 0.0752480954566 -179.047863005
560.0 0.0490372762393 -155.744708062
560.625 0.0593363979531 -148.957906065
561.25 0.0861428464524 -152.938676198
561.875 0.106596713003 -166.363701018
562.5 0.0942629086026 170.15575556
563.125 0.104882290302 142.064271149
563.75 0.130977395109 126.639978699
564.375 0.10986978388 117.072150733
565.0 0.0920465341652 115.607371662
565.625 0.0882460803602 111.932882653
566.25 0.0941473982836 148.056505191
566.875 0.0737094024203 177.725742372
567.5 0.0701338452129 179.664127939
568.125 0.0893827513046 -179.880319855
568.75 0.0566495907058 -144.382268294
569.375 0.0484784958548 -113.149636067
570.0 0.0567412200071 -109.110467882
570.625 0.0924220823409 -125.318993349
571.25 0.0875009743919 -119.947336498
571.875 0.086079549483 -125.873839254
572.5 0.107685812809 -157.538832821
573.125 0.147813787824 178.182674231
573.75 0.0944750888746 164.061558457
574.375 0.0795722287836 148.598680871
575.0 0.106267748213 148.47034281
575.625 0.114781717971 148.189699675
576.25 0.089799917217 143.926926058
576.875 0.0838501331568 123.752447673
577.5 0.0858261020475 131.203136466
578.125 0.0658563209751 151.347277757
578.75 0.0468926250251 165.630845448
579.375 0.0536223592676 161.762649331
580.0 0.0618005899652 -178.088275451
580.625 0.0772290485048 -163.033435748
581.25 0.0901306620859 -158.05718148
581.875 0.114075868125 -178.700461437
582.5 0.112181956447 -176.870805414
583.125 0.0976396740598 -175.53569641
583.75 0.0793242360736 -167.311778888
584.375 0.101689865055 -160.352870959
585.0 0.0996674415815 -149.796594699
585.625 0.0768889573148 -157.013485089
586.25 0.0674017825011 -129.499175696
586.875 0.0800847140485 -136.631971759
587.5 0.0697207911448 -144.496625694
588.125 0.0606178328964 176.024445353
588.75 0.0671731747535 -159.858858451
589.375 0.0821813397472 -155.316674985
590.0 0.0896735753899 -175.163444019
590.625 0.103053338211 160.333165259
591.25 0.121294168821 150.325265002
591.875 0.0974170553153 155.748722224
592.5 0.0664899547582 142.844220473
593.125 0.0634341150911 143.869530049
593.75 0.0626870433292 169.855887515
594.375 0.0595788295891 -155.090434531
595.0 0.0418578560501 -126.784971057
595.625 0.0577550956605 -106.1161942
596.25 0.0712996990506 -94.1786123801
596.875 0.0688994100259 -73.1569136622
597.5 0.059824573454 -65.211997596
598.125 0.0590110523872 -68.708032778
598.75 0.0898972917431 -54.4681353422
599.375 0.0877536024001 -65.5916664221
600.0 0.0986673784552 -64.898917465
600.625 0.0976066849261 -78.6480584778
601.25 0.0851267569362 -74.5022965506
601.875 0.0705567182721 -88.5787712114
602.5 0.0618137028125 -91.5102609233
603.125 0.0473285003143 -63.0374654973
603.75 0.0284113597024 -61.7489690603
604.375 0.0535803911935 -14.1246385777
605.0 0.0697588835699 -14.5725538246
605.625 0.0509251112253 -4.94434044373
606.25 0.0203964266095 -33.2299528098
606.875 0.0547712308568 51.1265218511
607.5 0.0628002468605 41.8319966422
608.125 0.0757126609524 30.1505824667
608.75 0.0514613235687 10.7517851289
609.375 0.0813078679329 34.8079263598
610.0 0.0816109962752 45.764486713
610.625 0.0690506252638 41.1821596806
611.25 0.0421615277493 8.81173310557
611.875 0.0550598908318 72.0465264545
612.5 0.0244039971421 89.4406469083
613.125 0.0165099861659 114.221334986
613.75 0.036376657696 119.719685502
614.375 0.0307015743112 111.747621554
615.0 0.0346526359235 116.614728208
615.625 0.0281418625711 131.40035757
616.25 0.0467616288114 131.814994908
616.875 0.0317100063139 120.578065244
617.5 0.0360675538136 115.436864599
618.125 0.0185617479809 122.549446195
618.75 0.0309266524717 139.599171132
619.375 0.00697744270795 113.447246699
620.0 0.00501420249443 122.555882537
620.625 0.0280184611837 -90.0943191169
621.25 0.0445829704361 -85.8983456273
621.875 0.0611167244357 -102.98772383
622.5 0.0708209386342 -167.346090102
623.125 0.0771789953795 162.273042517
623.75 0.0607808362222 164.463147844
624.375 0.0334406943993 -162.990082514
625.0 0.0656855477174 -161.00324545
625.625 0.0547558730162 -166.156451995
626.25 0.0344116978243 -173.190515158
626.875 0.0229469461237 -13.6512551499
627.5 0.0261169901385 -113.704852529
628.125 0.0360744676848 -33.9821098833
628.75 0.0374866233538 -27.3888327323
629.375 0.0611292669407 -2.40274920471
630.0 0.0662752249597 -5.96391680718
630.625 0.0707274671006 0.438324005627
631.25 0.0662076654405 -2.05986614356
631.875 0.0793076777379 8.21087293636
632.5 0.0744164408465 -34.4867858803
633.125 0.0478533750956 -2.5829530412
633.75 0.0420965497653 15.0095072691
634.375 0.0460342666703 17.7927989876
635.0 0.0453490765217 34.1086693893
635.625 0.027673837887 -2.16662825526
636.25 0.0424349764455 25.9498549831
636.875 0.0607688254634 23.5460979137
637.5 0.0512157846838 45.9049791502
638.125 0.0284052038694 46.0758183942
638.75 0.0673448042943 75.4286414169
639.375 0.101083032576 94.4443175357
640.0 0.0769868518801 104.161940663
640.625 0.059030529179 93.938312696
641.25 0.0630948044403 116.26159192
641.875 0.0699157158654 147.227544174
642.5 0.0703492862121 159.71767557
643.125 0.0435140321609 131.880460812
643.75 0.0630712164904 168.152957952
644.375 0.070860140151 177.113747311
645.0 0.0912772701969 177.608784209
645.625 0.0890581213691 161.612662019
646.25 0.0932563410954 159.993301368
646.875 0.0759767699361 177.87964134
647.5 0.0664592931277 -178.685430533
648.125 0.0929756050011 -178.274664609
648.75 0.0733257454322 -172.429104381
649.375 0.0438702611544 -155.458702945
650.0 0.0473044896453 -123.771873036
650.625 0.0805133327718 -94.5200133346
651.25 0.0501573653175 -71.9428517855
651.875 0.0553527558865 -44.8836368947
652.5 0.0785897087404 -30.2080833607
653.125 0.137824148162 -6.01382415042
653.75 0.103698000532 3.38759588855
654.375 0.116143521725 5.49996649242
655.0 0.123167924448 10.1148767895
655.625 0.110773104168 24.1566156984
656.25 0.0515677714911 10.0693541385
656.875 0.0593730437855 -0.0674534788393
657.5 0.071795843652 12.4623606475
658.125 0.0809799161229 41.5553660756
658.75 0.04353997186 59.3848914976
659.375 0.0779119673265 37.5819689039
660.0 0.123969844327 20.8087666036
660.625 0.118561671828 13.8750524307
661.25 0.105745396485 0.445803023727
661.875 0.120464478362 -16.7154886809
662.5 0.127266349951 -27.6166236636
663.125 0.121274988401 -20.07708148
663.75 0.0843487123119 -2.38486955611
664.375 0.0965799784711 49.6164365828
665.0 0.0729919093938 86.3626423607
665.625 0.0730973688987 106.028099721
666.25 0.0820684562991 125.529999759
666.875 0.125336749827 163.320573927
667.5 0.100163802004 -172.796738856
668.125 0.108573584836 175.517818624
668.75 0.12504696111 165.259281097
669.375 0.118839733515 172.199050329
670.0 0.0891383481031 -174.070831953
670.625 0.0962523689748 -178.139259651
671.25 0.0877028687964 170.682421288
671.875 0.093999061516 163.971753555
672.5 0.0747784408624 151.619245603
673.125 0.0918963098524 144.112492826
673.75 0.106758881445 154.77726709
674.375 0.116704813404 164.38234185
675.0 0.115438405916 -178.798018763
675.625 0.139117422632 -157.228309284
676.25 0.124121241048 -129.87240085
676.875 0.116675741933 -123.599485264
677.5 0.128163660803 -131.648300894
678.125 0.14726202599 -123.811979645
678.75 0.0536566008495 -98.3397883647
679.375 0.0479963910738 -77.6229928856
680.0 0.0693207866646 -80.0718651238
680.625 0.128395503367 -86.524640738
681.25 0.107256245903 -80.7571012734
681.875 0.0981723908142 -96.7033220785
682.5 0.135137509282 -124.035086531
683.125 0.160163683217 -125.081018614
683.75 0.15328672592 -111.695945208
684.375 0.1009962365 -77.4738777367
685.0 0.132917763604 -42.9667007526
685.625 0.121622588864 -7.8941193194
686.25 0.123092478741 14.1995943535
686.875 0.0736204019302 44.9783147007
687.5 0.0712579503205 76.0392811873
688.125 0.0721912755324 106.146008955
688.75 0.102632287215 104.017466031
689.375 0.127734602836 119.902852085
690.0 0.133034891319 128.3025763
690.625 0.125168093548 120.191805001
691.25 0.1441161199 92.8281969731
691.875 0.200259813476 59.8564337717
692.5 0.145642517082 35.8297529417
693.125 0.0859256222491 -16.201330385
693.75 0.0851028754847 -43.3135181771
694.375 0.146061744033 -43.8344979589
695.0 0.117902458262 11.2458470538
695.625 0.100673829127 50.028362061
696.25 0.117293235027 103.48525823
696.875 0.137679716761 167.59206967
697.5 0.149669659787 -154.53126052
698.125 0.129386748549 -130.712766599
698.75 0.138295833371 -138.773166856
699.375 0.118932303363 -133.761935918
700.0 0.08841180184 -109.918979954
700.625 0.110872619571 -94.9407505726
701.25 0.108563285477 -75.4927335595
701.875 0.0827956025594 -70.1619246487
702.5 0.0929675262115 -86.580855354
703.125 0.166306530381 -126.092819503
703.75 0.184620092674 -155.622043135
704.375 0.133275828345 166.556517777
705.0 0.115377614523 147.747945204
705.625 0.135567274817 -165.765655153
706.25 0.147823218256 -116.453417844
706.875 0.0881822209719 -67.2946484096
707.5 0.0790860598795 -47.1571404591
708.125 0.0878221656309 13.7748938251
708.75 0.111710327442 59.2002745218
709.375 0.0992676305556 97.8460332771
710.0 0.100874755839 126.103116092
710.625 0.107565164708 143.316645724
711.25 0.119904680086 167.484236951
711.875 0.144148294877 168.542511078
712.5 0.158751338069 134.106244303
713.125 0.121419710948 102.686317156
713.75 0.104215017847 41.1069170009
714.375 0.115890364567 13.9916182
715.0 0.116593084756 20.4663717005
715.625 0.0854175020686 31.6190760602
716.25 0.0885082717183 87.6429091676
716.875 0.119973587981 104.136637255
717.5 0.139289318175 141.120229686
718.125 0.12211588609 162.037780076
718.75 0.0997992932878 165.157590156
719.375 0.116424134829 -175.944104031
720.0 0.134395256834 -125.476800583
720.625 0.118318421565 -79.0099783179
721.25 0.101778146888 -33.6986296874
721.875 0.088988173414 28.334992705
722.5 0.0625331850009 69.9605671116
723.125 0.0674470718174 46.2614170123
723.75 0.106062590664 39.5555025221
724.375 0.10857423985 -4.89626618395
725.0 0.0902581473291 -49.7840002329
725.625 0.10100157805 -71.5745172095
726.25 0.0989154410115 -87.9899179756
726.875 0.11462099507 -35.8719927443
727.5 0.0930912993872 -28.1366729623
728.125 0.0770151604043 -5.00474430318
728.75 0.081370657143 6.33784923629
729.375 0.0847254497057 14.8415430574
730.0 0.0684056995721 -1.14742814146
730.625 0.0782815717522 23.8502631114
731.25 0.0689151270905 56.7650595072
731.875 0.0528915880406 96.3280379042
732.5 0.100946526105 159.40843567
733.125 0.0923936511995 170.700839353
733.75 0.0797061502373 169.382328851
734.375 0.0513934489544 152.231004772
735.0 0.0497150717316 148.372294822
735.625 0.0327277123753 114.939407595
736.25 0.0388204708531 135.32134083
736.875 0.0288009243397 176.442600582
737.5 0.0798201828447 176.339911894
738.125 0.111490324461 -175.929886147
738.75 0.0805440816166 178.583500828
739.375 0.0266692696366 157.801353323
740.0 0.0998771847478 -144.43136535
740.625 0.0592199148006 -157.788590183
741.25 0.0491578636174 -147.715401665
741.875 0.027978997091 -114.812816658
742.5 0.0149040440016 10.7949850954
743.125 0.0304621535187 52.8667742444
743.75 0.0497236450112 122.769216813
744.375 0.0362695804359 169.502411617
745.0 0.0758705359629 103.385919873
745.625 0.0631620484117 107.215461045
746.25 0.0701892449834 96.18995379
746.875 0.0641838494873 36.9975548794
747.5 0.0289365283641 23.6945161876
748.125 0.0380504070186 -15.8323615153
748.75 0.0302237204082 -29.5196427467
749.375 0.0353649345544 -40.1848741111
750.0 0.0384748988952 -52.2996451131
