!Created with skrf (http://scikit-rf.org).
# GHz S MA R 50.0 
!freq magS11 angS11
500.0 0.0191932469153 171.605746574
500.625 0.01008546347 59.397149276
501.25 0.00792779227839 -105.837317256
501.875 0.0359410465131 -168.794938755
502.5 0.0374123453866 167.599842411
503.125 0.0165912866254 102.055389813
503.75 0.0136328774597 -24.5146348627
504.375 0.00265820883921 -47.7942933057
505.0 0.00533352468513 -7.80558057592
505.625 0.0243694923617 -74.4487780726
506.25 0.0566821713557 -104.259297637
506.875 0.0538762636995 -122.839197703
507.5 0.0512377410117 -111.77841376
508.125 0.0502975645041 -89.070858688
508.75 0.0640199073395 -127.568461092
509.375 0.0504685070068 -141.51039181
510.0 0.0462482971139 -111.954081745
510.625 0.0356081640962 -157.02073324
511.25 0.068165659509 -167.683722795
511.875 0.0476944008101 135.185332206
512.5 0.0366545642256 96.8415352706
513.125 0.050618157104 45.2402343039
513.75 0.0569269012663 32.5253681608
514.375 0.0358504359684 12.134140182
515.0 0.0403971902949 -4.94263334268
515.625 0.112411531726 51.2567419879
516.25 0.0767783320962 23.7606146144
516.875 0.103404354825 68.219459255
517.5 0.130697146504 22.651436967
518.125 0.219862910826 73.4314815035
518.75 0.0743151277579 -1.26906762201
519.375 0.059433537742 16.4794070292
520.0 0.0912844819535 -3.05142200019
520.625 0.119166560122 -3.10023611754
521.25 0.0722408891178 -37.3973520848
521.875 0.0633479129572 -0.992143290942
522.5 0.0936572552292 -38.5456324719
523.125 0.197488862477 -32.3362051321
523.75 0.211121691629 -60.1404172229
524.375 0.206012277958 -52.3041610519
525.0 0.0695831051622 -55.5656642033
525.625 0.0447681662379 -23.6309954
526.25 0.0426217553228 -13.9278018202
526.875 0.0509657682008 -18.2191933607
527.5 0.0441298500487 -31.598480754
528.125 0.0509656461548 -55.9045288924
528.75 0.0444172629779 -82.3849615639
529.375 0.0773762192602 -114.795017988
530.0 0.0460008024959 -130.130785296
530.625 0.0410171200559 -141.790020714
531.25 0.120045445381 -136.46288269
531.875 0.172054588433 -145.65282549
532.5 0.139084554679 -170.402111664
533.125 0.113721629684 174.87149003
533.75 0.096263072405 167.457624485
534.375 0.100936866932 178.452465705
535.0 0.0772333809688 159.371264436
535.625 0.0761963120134 178.347889471
536.25 0.0571298881702 164.752315581
536.875 0.0865010491281 -160.604108907
537.5 0.0980345070464 -143.522059631
538.125 0.105759827661 -173.797539409
538.75 0.100042358074 -179.215614667
539.375 0.079998617227 -161.981897763
540.0 0.0894275223173 -152.888403069
540.625 0.141016842908 -157.066842043
541.25 0.126553551184 -141.440715295
541.875 0.104329080326 -144.185662144
542.5 0.113384080472 -142.136119378
543.125 0.14916011889 -166.957445451
543.75 0.127346392314 160.521738359
544.375 0.0892244486 135.826194217
545.0 0.0795010409266 91.374554602
545.625 0.112928365641 83.1454191078
546.25 0.0793588654399 67.5727422385
546.875 0.0852824801222 55.9653159919
547.5 0.10712344862 59.4201459961
548.125 0.126930384148 78.5239211132
548.75 0.0884750720775 90.5439416648
549.375 0.0905588508231 88.2105544435
550.0 0.0756562743112 123.056605922
550.625 0.0598503042786 152.658359518
551.25 0.0315237971693 -121.446329097
551.875 0.0605831878897 -153.993814131
552.5 0.109905644167 -162.436757956
553.125 0.0980738395324 -171.302362046
553.75 0.0882036111511 -168.781982206
554.375 0.102119852065 171.120364985
555.0 0.119644176879 163.773508578
555.625 0.103805394774 155.822209921
556.25 0.0951550738016 163.764382674
556.875 0.117926063011 166.033718171
557.5 0.118104548697 166.282274261
558.125 0.0961714591862 165.427223722
558.75 0.0703492094794 -179.564483066
559.375 0.0564045877235 -169.391873715
560.0 0.0425980173652 -144.537243607
560.625 0.0617258736614 -145.910263725
561.25 0.0786205942555 -140.534636536
561.875 0.098199126762 -158.723205943
562.5 0.0898216238056 172.984603115
563.125 0.111371045116 141.926158202
563.75 0.116664687555 134.985286718
564.375 0.0980896534278 122.659888441
565.0 0.0855016300474 121.15847958
565.625 0.0904804005294 113.891067063
566.25 0.0743313442728 162.882233293
566.875 0.073674752895 -177.865099512
567.5 0.0775281129496 179.586693114
568.125 0.0831507626983 -171.566595332
568.75 0.0767897039028 -151.651159524
569.375 0.0487865549029 -109.59948994
570.0 0.0627519849532 -112.393444592
570.625 0.0946497704412 -119.956143735
571.25 0.0859124655342 -114.095944987
571.875 0.0881772704559 -127.426505226
572.5 0.114832769362 -159.121480111
573.125 0.143335962821 -174.997253006
573.75 0.110431977824 159.280827953
574.375 0.0825375591377 150.168667109
575.0 0.100425158335 152.936189287
575.625 0.114003256707 151.267331711
576.25 0.0781808310706 152.675876872
576.875 0.0780290940383 134.877802667
577.5 0.0759062751203 140.235307187
578.125 0.0647906032128 153.982642656
578.75 0.0454113776367 171.601242098
579.375 0.0540922048146 165.951865452
580.0 0.0704581545546 175.519856502
580.625 0.0790584200738 -151.886168371
581.25 0.0898574532258 -163.535280809
581.875 0.115707655215 -175.88025002
582.5 0.119090698113 -175.608484026
583.125 0.0925898881967 -167.580924823
583.75 0.0842352391258 -173.040792474
584.375 0.102008034978 -151.927964694
585.0 0.0901237289886 -137.292824061
585.625 0.0718238944749 -145.45983318
586.25 0.0728312709253 -146.354372475
586.875 0.0820261677621 -134.731908086
587.5 0.0745505442348 -145.916051391
588.125 0.059968285898 -173.539914573
588.75 0.0678351569852 -175.204732393
589.375 0.0810362974321 -149.075701867
590.0 0.0961733048985 -160.99947397
590.625 0.102867455139 167.495117609
591.25 0.123299202027 146.122221344
591.875 0.0856541959027 169.327360655
592.5 0.0616869390711 152.872763773
593.125 0.0560493784044 155.629334932
593.75 0.0729208555415 159.54874404
594.375 0.0562095135048 -139.795638751
595.0 0.0458992925068 -110.989800857
595.625 0.0625477749047 -91.9588476825
596.25 0.0693031326038 -98.4254679552
596.875 0.0708851015911 -59.0241949192
597.5 0.0632983804362 -56.2030816585
598.125 0.0683339840236 -58.6249802328
598.75 0.0779260140083 -61.7908197142
599.375 0.0901621485345 -64.4402443302
600.0 0.101944225203 -68.2392017699
600.625 0.101140790111 -64.5650293703
601.25 0.0843565773156 -84.2200173674
601.875 0.069157669809 -78.5430592361
602.5 0.0645667318252 -69.9527490707
603.125 0.0423691915158 -43.4401744539
603.75 0.0263965746115 -58.6915760576
604.375 0.0389765828759 -21.8232401021
605.0 0.0601457324943 -20.9461469989
605.625 0.0504478870719 -12.6380798742
606.25 0.0281609702818 15.6307907543
606.875 0.0243870148627 42.8648431949
607.5 0.0738584416982 47.5990304184
608.125 0.0611278580227 24.4907358795
608.75 0.0474982932635 12.8389323539
609.375 0.0654426370928 34.3192322479
610.0 0.0721880978622 42.6757626407
610.625 0.0617778585065 30.3845483807
611.25 0.0548660785864 35.0731729481
611.875 0.0341607402419 34.5072033005
612.5 0.0260965483616 97.0623727313
613.125 0.0444104480195 124.974784021
613.75 0.0511235100037 127.319865719
614.375 0.0252977606559 115.78384609
615.0 0.059491880815 128.494635171
615.625 0.0440944200185 131.824143694
616.25 0.0430154561173 142.159499282
616.875 0.0308344112432 129.52054721
617.5 0.0611705898114 132.850900883
618.125 0.046933449329 133.182387877
618.75 0.0403103693957 152.983184023
619.375 0.00147139422972 54.8641242329
620.0 0.0215949808589 154.316971037
620.625 0.0130231269176 -153.752149556
621.25 0.0404482374457 -104.706095156
621.875 0.0672844245767 -91.504648703
622.5 0.0920076202041 178.111184842
623.125 0.0775448383511 166.341957701
623.75 0.0715091717218 167.896819202
624.375 0.0316123642181 -152.34442831
625.0 0.0476532844695 -147.637896206
625.625 0.0378312714463 -156.712815011
626.25 0.0141521234829 161.670784772
626.875 0.00327276174917 84.9055197705
627.5 0.0351507981036 -14.2106839437
628.125 0.0352753965305 -36.3633186371
628.75 0.0299732971188 -23.3122776403
629.375 0.0428741498833 -9.25099230965
630.0 0.083420610221 9.34710895454
630.625 0.0725651259135 4.00406243019
631.25 0.0727024631095 3.2681474167
631.875 0.0643915386698 -7.11336296563
632.5 0.0612664255111 2.92751686627
633.125 0.0490940265078 -4.58919173369
633.75 0.0415129525468 -21.0366556642
634.375 0.0460350964388 5.79499626618
635.0 0.0489301979182 41.0269867729
635.625 0.0334431938184 29.7217144575
636.25 0.0529657318119 38.7495479668
636.875 0.0668296147268 46.2067093653
637.5 0.0420880001862 43.0284018414
638.125 0.0531473597217 72.1753537166
638.75 0.0701864696417 78.2639467253
639.375 0.0795943857438 83.558816346
640.0 0.0671323385753 99.79105641
640.625 0.0659874967021 111.761068365
641.25 0.0507351900434 92.4885592669
641.875 0.0579397759803 141.404196274
642.5 0.0534814018275 162.697998555
643.125 0.0615615725827 159.478570563
643.75 0.0651367233393 171.636028164
644.375 0.0719754957051 -169.929892702
645.0 0.0757070092544 179.449133193
645.625 0.106424448936 169.872193551
646.25 0.0765906119626 155.082872297
646.875 0.0611265888752 170.168601692
647.5 0.0580495938519 175.785983578
648.125 0.101855184038 -173.375614335
648.75 0.0657459680323 -175.847761805
649.375 0.0438667848908 -152.076246066
650.0 0.041797773699 -127.6623922
650.625 0.0721229335616 -87.2469792315
651.25 0.0646063378053 -65.6747563653
651.875 0.0653382286658 -43.2592821711
652.5 0.0969362315956 -22.3970465864
653.125 0.117938781711 -0.881588287046
653.75 0.0981425609378 0.679200616222
654.375 0.0967715589633 5.02054690151
655.0 0.109260421964 9.79687701174
655.625 0.109903091424 29.096485262
656.25 0.055709346819 16.3741822438
656.875 0.0665058640487 5.8242856341
657.5 0.0886367144311 25.0123004429
658.125 0.0675260513073 49.7941313847
658.75 0.0678949644312 60.2885473527
659.375 0.0798064856349 42.6615302688
660.0 0.101275296629 28.4805705177
660.625 0.108325769163 18.114162751
661.25 0.120008923067 3.3832417552
661.875 0.0961128033422 -14.4743786285
662.5 0.116481725499 -21.2112546664
663.125 0.106926739545 -14.3018415518
663.75 0.112035698773 4.90038363005
664.375 0.0946288132752 53.9756398428
665.0 0.078249794864 88.1793125144
665.625 0.0753235380314 109.419637633
666.25 0.0565325137498 137.103011868
666.875 0.0980006070194 175.305108456
667.5 0.0911623779549 -170.615031015
668.125 0.111587449862 177.881038205
668.75 0.102384588684 169.805281934
669.375 0.126814641701 177.854764625
670.0 0.0879586779722 -173.18073364
670.625 0.0946122984079 -172.555257494
671.25 0.119332585498 174.115336407
671.875 0.103723768383 170.238392148
672.5 0.0767637659472 157.616496758
673.125 0.088203436176 153.121384644
673.75 0.0891277659828 165.385081792
674.375 0.108044358889 172.495454225
675.0 0.104434793008 -173.004718544
675.625 0.138193786186 -152.269179587
676.25 0.103253964046 -122.406209264
676.875 0.111022528979 -119.621615761
677.5 0.116147452121 -127.832052266
678.125 0.134542431314 -117.590090873
678.75 0.0783956971448 -94.3994329638
679.375 0.0525182642671 -74.1458629106
680.0 0.0829446801758 -81.155443963
680.625 0.12139581361 -75.0740540986
681.25 0.114196962451 -77.4352074095
681.875 0.090779027568 -84.5150852069
682.5 0.132061657807 -118.324713356
683.125 0.168055692832 -124.596199172
683.75 0.143867535716 -107.150381716
684.375 0.12527298195 -81.5650430315
685.0 0.12260197663 -36.6198930028
685.625 0.136220532479 -3.75283992002
686.25 0.109037583122 21.9978485644
686.875 0.101232545292 42.1154337234
687.5 0.0759836861383 82.803637233
688.125 0.083593373363 104.71742563
688.75 0.102795103279 113.134296784
689.375 0.150319962388 114.689081886
690.0 0.117755123593 140.181989453
690.625 0.115197453472 130.432534945
691.25 0.140401953366 100.334450581
691.875 0.202951382612 64.1009366738
692.5 0.114968764494 44.4096182693
693.125 0.0886640518032 -13.7551132725
693.75 0.101811700559 -42.7631893595
694.375 0.135969985011 -28.6687148865
695.0 0.138573770539 6.25823955388
695.625 0.0921251535088 65.1742426951
696.25 0.112198820979 118.732016075
696.875 0.133045854575 174.866744
697.5 0.147715789065 -148.194166087
698.125 0.134270397939 -130.469702814
698.75 0.125117229579 -127.792160765
699.375 0.10937670016 -123.662919875
700.0 0.101706751881 -118.849215898
700.625 0.110748334244 -89.3847431388
701.25 0.0951461749932 -57.9053137801
701.875 0.0813933091199 -57.7201554097
702.5 0.0987171281385 -90.952297154
703.125 0.163983875129 -108.938060225
703.75 0.181414123173 -152.405220515
704.375 0.124294998083 170.903660239
705.0 0.112288884211 157.8487257
705.625 0.150223643322 -177.521447144
706.25 0.142982508287 -111.035278559
706.875 0.0942159187953 -63.5499222009
707.5 0.0750367251189 -34.5346919559
708.125 0.0938680926586 5.80370633283
708.75 0.11002714055 72.3778979857
709.375 0.106580729343 108.066946155
710.0 0.0957762065325 136.147517399
710.625 0.107774898914 146.353486471
711.25 0.12421911489 -179.05374094
711.875 0.148044502819 162.765813443
712.5 0.153068794381 144.7559447
713.125 0.131620763123 94.1822577364
713.75 0.0936491885482 59.8931632004
714.375 0.108245771246 26.79707605
715.0 0.105460191694 34.4047167146
715.625 0.0859481437798 42.8983085797
716.25 0.0763136366216 67.9624858324
716.875 0.116764566412 102.450320579
717.5 0.150323329755 150.697651256
718.125 0.115022611434 172.533450524
718.75 0.0967507550418 160.927121206
719.375 0.127487066174 -155.901103349
720.0 0.12954492012 -130.126389256
720.625 0.106662859199 -79.7689029114
721.25 0.0977692855916 -36.5750764851
721.875 0.0865784925379 34.5483122282
722.5 0.0748624838466 71.7296323718
723.125 0.0872719435267 73.2044794721
723.75 0.0923381366883 28.9928909361
724.375 0.130421122693 13.9136305957
725.0 0.0997232551402 -33.8356938185
725.625 0.102595754098 -67.5877870143
726.25 0.114387758868 -66.3165456721
726.875 0.10004493512 -53.8690439542
727.5 0.0798885697868 -36.436248141
728.125 0.0861441616793 -3.39809193877
728.75 0.0983323953104 26.7681257624
729.375 0.0699635322717 0.387219514948
730.0 0.0900725302232 20.9848726983
730.625 0.0662372072571 25.2181054574
731.25 0.0660434461241 68.79197686
731.875 0.0532736048363 102.425124494
732.5 0.070087239908 147.451937738
733.125 0.0836371867532 178.732974395
733.75 0.0670047064344 169.865365958
734.375 0.0394693286308 136.816510698
735.0 0.0979963474223 169.625522169
735.625 0.0803067007246 151.968480323
736.25 0.0509387135209 158.565924398
736.875 0.0273620695049 -164.078552072
737.5 0.118961122736 178.721270484
738.125 0.0939938519692 -174.399786994
738.75 0.0758489815707 -178.91586235
739.375 0.0328388686892 170.925735884
740.0 0.0299184867337 -139.404713457
740.625 0.061406150519 -151.279389709
741.25 0.0536077600561 -162.449482675
741.875 0.0500430089947 -110.21267743
742.5 0.0176605024851 48.1182473622
743.125 0.0584904956556 52.5679259564
743.75 0.0419944407069 76.5174321004
744.375 0.0374221921785 111.152106693
745.0 0.048705567424 167.411251105
745.625 0.0666590211233 117.144339403
746.25 0.0873000651202 70.2493654837
746.875 0.0833796789963 36.4311634345
747.5 0.0260894388581 43.311352931
748.125 0.034013538659 -12.9492776723
748.75 0.0237652760832 2.4329082063
749.375 0.0335776212472 -45.988606059
750.0 0.0264857605773 -93.0916109329
