!Created with skrf (http://scikit-rf.org).
# GHz S MA R 50.0 
!freq magS11 angS11
500.0 0.0191402604322 -171.06987434
500.625 0.00494505517815 111.939479898
501.25 0.008356357073 -80.2983051578
501.875 0.052876250825 -177.488867821
502.5 0.0407748276588 167.381655772
503.125 0.0178329438487 97.3331263475
503.75 0.0127780163696 -17.0791104368
504.375 0.00339873764998 -53.0835094524
505.0 0.0070050861476 -17.1049061714
505.625 0.0263170954003 -69.9014796092
506.25 0.0568864549864 -103.535939731
506.875 0.0596157122675 -110.591898202
507.5 0.0509719947623 -117.08469688
508.125 0.0593482359635 -86.656217387
508.75 0.0594171957304 -142.530542146
509.375 0.0490070596067 -154.212714009
510.0 0.0403372342715 -132.39029633
510.625 0.0368939680205 -157.63479749
511.25 0.0594003474971 -171.466825632
511.875 0.0506592491261 143.753899709
512.5 0.038118380641 104.339493454
513.125 0.050118255151 42.519364679
513.75 0.0502933798384 21.6644725218
514.375 0.0315008630943 2.4639056759
515.0 0.0444828211578 -4.67173979254
515.625 0.110166488669 50.6694159605
516.25 0.0642401074433 17.1542321274
516.875 0.101527770938 67.7340038679
517.5 0.127534353196 19.9495189952
518.125 0.224653372552 74.5932628463
518.75 0.0794783801553 4.10558178219
519.375 0.0630950135256 18.7087230721
520.0 0.0918584782585 -3.26853309859
520.625 0.116477674768 -2.79424045672
521.25 0.0713225794237 -35.0046237363
521.875 0.0616911893071 -4.61242542683
522.5 0.08866256384 -38.8646067613
523.125 0.198998410961 -32.9486836686
523.75 0.202281515987 -64.2929205538
524.375 0.199487845621 -55.3349659438
525.0 0.0695575465824 -51.0887829437
525.625 0.044435530668 -25.4568387386
526.25 0.0437052550124 -14.335668757
526.875 0.0588428142917 -17.9121023054
527.5 0.047093074845 -28.5495450293
528.125 0.0490427584282 -56.4007973026
528.75 0.0442743859918 -84.5441852556
529.375 0.0821691070662 -112.844353265
530.0 0.0519005359642 -130.784384063
530.625 0.0325281444541 -139.34079193
531.25 0.113739471256 -135.226836517
531.875 0.185148875666 -148.617072123
532.5 0.137884325628 -171.3746332
533.125 0.11126827108 174.661593184
533.75 0.106284283617 165.310286474
534.375 0.106274108876 179.290314206
535.0 0.0832707646684 160.426181203
535.625 0.0747606736261 177.700446293
536.25 0.0576182716602 163.357949509
536.875 0.0869322203029 -163.775811164
537.5 0.102360306359 -144.793009004
538.125 0.0968222307654 -173.57490219
538.75 0.100970173885 179.366214762
539.375 0.0830647697661 -162.63120156
540.0 0.0929600451811 -155.214969929
540.625 0.128225284013 -156.901927983
541.25 0.125995491165 -142.087983589
541.875 0.0983300681921 -145.066624484
542.5 0.114247979999 -143.659925571
543.125 0.144635774768 -167.295711359
543.75 0.128674070795 159.607294549
544.375 0.0929744261898 136.727545535
545.0 0.0841980854862 89.5443466024
545.625 0.111831819455 82.2818582077
546.25 0.0724413197232 65.2701884717
546.875 0.0816061869131 54.774610472
547.5 0.111806419773 58.4560282215
548.125 0.117935340045 75.7204169961
548.75 0.0892015615204 89.5287182585
549.375 0.0968909938195 88.1090534111
550.0 0.0832102426637 124.938018204
550.625 0.0588256683568 151.157932067
551.25 0.0289046192976 -118.7480461
551.875 0.0618855638622 -158.229325968
552.5 0.10770670245 -163.124559639
553.125 0.0971697474511 -171.957049089
553.75 0.0877384052779 -170.449023543
554.375 0.10158014273 169.385250451
555.0 0.12527078529 163.760405449
555.625 0.104316623043 154.866749259
556.25 0.0896691601167 165.984641329
556.875 0.115293846897 166.185972168
557.5 0.122957075337 164.275159436
558.125 0.099876349565 163.532727303
558.75 0.0661682297368 178.852165211
559.375 0.0593381674376 -170.518103427
560.0 0.0449511961629 -147.809380304
560.625 0.061031698722 -147.219928283
561.25 0.0781387116322 -142.151064519
561.875 0.0962912268947 -158.698838974
562.5 0.0873160525733 172.541810422
563.125 0.110238373421 141.72676826
563.75 0.121764498433 130.97165382
564.375 0.102217673783 121.499421771
565.0 0.085727634254 120.166747467
565.625 0.0900458748611 113.314050352
566.25 0.0778581886473 158.270486161
566.875 0.071137473823 -177.626904738
567.5 0.0724432328428 178.537944482
568.125 0.0847076891834 -174.212830641
568.75 0.073767980749 -151.012160448
569.375 0.0494159612415 -111.501897338
570.0 0.0619529215599 -114.772942866
570.625 0.0946994826015 -122.933507827
571.25 0.082118447735 -111.451159102
571.875 0.0879582182021 -127.632774077
572.5 0.111275440678 -158.465501746
573.125 0.144144795641 -176.901947782
573.75 0.107835494215 159.801875003
574.375 0.0819565532173 149.847965205
575.0 0.0974185528661 155.28795842
575.625 0.114949875228 149.647420153
576.25 0.0789309297256 150.321061006
576.875 0.0821877034755 132.411395596
577.5 0.0783007302663 137.32745137
578.125 0.0651411568775 152.835732231
578.75 0.0420538798257 176.923323023
579.375 0.0529743460762 165.71826649
580.0 0.0663407328808 177.91096842
580.625 0.0777988356575 -154.969553906
581.25 0.0902215604053 -160.248105118
581.875 0.113911418359 -178.17379223
582.5 0.121182680083 -179.628334125
583.125 0.0928988676712 -169.386077868
583.75 0.0845382812276 -173.029257175
584.375 0.101934843595 -156.975228605
585.0 0.0903683516368 -137.884864663
585.625 0.072579632702 -145.881383837
586.25 0.0726447377369 -143.168837111
586.875 0.083255321223 -136.835383332
587.5 0.0756736229392 -151.044573505
588.125 0.0596316220415 -174.01726646
588.75 0.067663226397 -175.398288886
589.375 0.083472259455 -151.915131214
590.0 0.0961069177375 -162.262652095
590.625 0.105838351472 164.713443761
591.25 0.123203149327 147.090776357
591.875 0.0854479107094 169.008299192
592.5 0.0612628090049 155.562730069
593.125 0.0619042771738 152.493620755
593.75 0.0734031427868 160.815495941
594.375 0.0590450386926 -148.462905186
595.0 0.0455484924823 -117.51688805
595.625 0.0619626610577 -99.0172261756
596.25 0.0698475316356 -97.0065848906
596.875 0.0732125660587 -56.8704374286
597.5 0.0650890214665 -53.1058550787
598.125 0.0682712165921 -59.5710448219
598.75 0.0808476088785 -56.5844720397
599.375 0.089192178346 -64.8469915326
600.0 0.10110442744 -71.0153703944
600.625 0.100920582731 -66.0444487313
601.25 0.0846494192896 -83.5737951482
601.875 0.0670050586812 -85.9057577683
602.5 0.065220614831 -69.274680525
603.125 0.0446877132327 -51.0826334932
603.75 0.026154707022 -64.2761093778
604.375 0.0453411962191 -14.7423678808
605.0 0.0652280253253 -16.3256762081
605.625 0.0505041680448 -18.447616585
606.25 0.0261505575671 11.4847309977
606.875 0.0328495221008 46.9904374978
607.5 0.0651385856874 40.9209312548
608.125 0.0649644457283 24.4507026499
608.75 0.0470546879502 10.1816443917
609.375 0.0776102118981 37.2895028662
610.0 0.0769785362875 44.4427836479
610.625 0.0589127575346 28.5660673367
611.25 0.0505990706631 29.2114534452
611.875 0.0371862187563 51.8748153635
612.5 0.0240698170125 91.1595382565
613.125 0.0418202054728 124.352994232
613.75 0.0475030493971 122.266568488
614.375 0.0240034160204 115.428411941
615.0 0.0600304210814 128.231603257
615.625 0.050687064603 131.726586734
616.25 0.0554754112058 143.953181051
616.875 0.0267233333752 127.902630627
617.5 0.0561517623395 127.375153798
618.125 0.0451450357804 130.938496491
618.75 0.0454087597896 147.010055285
619.375 0.00145329088076 14.6419223096
620.0 0.0115141884692 142.505597422
620.625 0.0105924737146 -122.786370006
621.25 0.0382784338729 -106.743156842
621.875 0.0648186960741 -94.6049341011
622.5 0.0861525874367 -179.450301749
623.125 0.0856422417545 164.039716654
623.75 0.0748705347618 162.106568694
624.375 0.0315753985781 -150.941650039
625.0 0.0600883672518 -155.586362447
625.625 0.0448873174916 -160.397591845
626.25 0.0115221067547 162.622803641
626.875 0.00888152795154 30.1512806422
627.5 0.0273778374973 -37.109775899
628.125 0.0343800133411 -29.0534477766
628.75 0.0366479345058 -9.98067616906
629.375 0.0431471175868 -11.644959493
630.0 0.0787801993065 6.98450482645
630.625 0.0680762672767 6.53566317907
631.25 0.0746066135322 -6.02514574617
631.875 0.0660216188473 -2.72558086282
632.5 0.0648290709364 -8.04841818339
633.125 0.049730867689 0.281733052596
633.75 0.0398713179037 -21.0730658472
634.375 0.0423654527328 9.58208271137
635.0 0.0502866018558 40.2442738036
635.625 0.0332979798109 5.04090454491
636.25 0.0471889158821 36.3944932014
636.875 0.0709582917244 45.7343383972
637.5 0.0413958076844 37.8051965645
638.125 0.0521264073194 70.7212659274
638.75 0.0744071801341 74.3873862665
639.375 0.0834285012692 86.132435229
640.0 0.0699189195025 102.482694146
640.625 0.063941641614 109.947433519
641.25 0.0508233710406 91.7414495428
641.875 0.0593349816989 147.869375102
642.5 0.0596302132883 162.836591701
643.125 0.0557602849383 149.56541307
643.75 0.0669511664571 170.160226666
644.375 0.081696182447 -169.836728842
645.0 0.0752592162698 178.755162611
645.625 0.103226423279 169.120209709
646.25 0.0855774557646 158.628817287
646.875 0.0568095383826 165.936407676
647.5 0.0618120579959 179.801242468
648.125 0.0994209166572 -174.183265404
648.75 0.0623756123552 175.998478734
649.375 0.0415833849705 -159.410742236
650.0 0.0361377142042 -126.213580795
650.625 0.0756616485143 -89.9867135491
651.25 0.055491390272 -68.0340838487
651.875 0.0617439528121 -42.9380208897
652.5 0.0987332620798 -24.3441709499
653.125 0.123554975338 -2.23713129185
653.75 0.0906161900178 0.0262328779043
654.375 0.0991167244816 4.01103380958
655.0 0.112655545944 12.097581375
655.625 0.111286421844 28.0073349083
656.25 0.0511016933028 6.36359097816
656.875 0.0638643824945 5.08131045254
657.5 0.0891109653356 23.0332609233
658.125 0.0658228063287 46.8449800863
658.75 0.067128232871 59.0351864247
659.375 0.0811723612644 40.1459391411
660.0 0.102785766319 27.4815560458
660.625 0.111878590708 18.0777534196
661.25 0.118305870284 2.9599774645
661.875 0.0955277730722 -15.9867017138
662.5 0.121519486972 -20.6197868606
663.125 0.111962294828 -16.7896361099
663.75 0.112145394452 3.74952231776
664.375 0.0981763354543 50.7663863137
665.0 0.0711473691708 81.7683734449
665.625 0.0748705555309 108.218016376
666.25 0.0621947852951 136.520751923
666.875 0.0975841308321 172.646213776
667.5 0.0881741635642 -170.473234792
668.125 0.111473864058 176.780412482
668.75 0.100481774896 168.181705513
669.375 0.122679148157 177.129999886
670.0 0.083009854828 -176.377771648
670.625 0.0971476062543 -175.347838284
671.25 0.108776787831 173.565724534
671.875 0.103637689343 166.001074439
672.5 0.0809533841293 154.812255689
673.125 0.0892187795985 149.913192018
673.75 0.0880804995622 163.575847943
674.375 0.102515231281 171.008094553
675.0 0.108772247692 -175.438632472
675.625 0.140575555428 -154.509979683
676.25 0.108623387818 -124.296590153
676.875 0.107444516825 -119.534547468
677.5 0.112233473857 -128.25604758
678.125 0.141239099676 -119.566853144
678.75 0.0724470027337 -93.9634801263
679.375 0.0533740524006 -77.5350235078
680.0 0.0850219936485 -85.296637412
680.625 0.11918015337 -76.0684822736
681.25 0.113677437174 -78.0399314577
681.875 0.0940039633079 -87.5343385516
682.5 0.127808439879 -117.501114863
683.125 0.158609179018 -122.427680815
683.75 0.148829145322 -109.167417419
684.375 0.120308682103 -79.492149873
685.0 0.133097808678 -40.1507260492
685.625 0.132898544782 -5.08651338242
686.25 0.108548661591 20.7314949511
686.875 0.100004594559 41.2677775165
687.5 0.0772406714728 81.2358990614
688.125 0.0843020502863 103.003393771
688.75 0.102165675504 113.156986092
689.375 0.149726256917 113.649799874
690.0 0.123576187093 137.411105988
690.625 0.115554374315 128.5249994
691.25 0.142438136698 97.7613710954
691.875 0.203351522189 62.6754847464
692.5 0.115021481824 42.9419729117
693.125 0.087607022723 -15.2568353731
693.75 0.100294208742 -45.1334574485
694.375 0.141277343914 -33.4428306788
695.0 0.138789855963 5.42739913444
695.625 0.0951368988512 60.2504449402
696.25 0.111568528101 116.069562809
696.875 0.130201456546 176.332505478
697.5 0.148380135885 -151.15043098
698.125 0.129402726147 -127.286256401
698.75 0.123817120599 -127.776809925
699.375 0.107435515414 -125.347238478
700.0 0.101881300546 -119.897456438
700.625 0.112689989921 -91.9991070872
701.25 0.0972628782576 -61.352173734
701.875 0.0819115754243 -60.7915250144
702.5 0.0983885644418 -90.5664871229
703.125 0.16361614774 -110.092770574
703.75 0.18200579162 -152.918829753
704.375 0.120847374873 172.029057064
705.0 0.113949096894 154.967531427
705.625 0.149854114427 -178.526097866
706.25 0.143396060704 -113.235559488
706.875 0.0975393075662 -68.6308155231
707.5 0.0768720708385 -37.2874127911
708.125 0.092885882712 6.27162050808
708.75 0.111074145281 65.8138324167
709.375 0.106968144343 104.33839634
710.0 0.100738093923 131.554536018
710.625 0.107063268842 144.365038112
711.25 0.119917420797 175.237765023
711.875 0.145041289042 160.377970814
712.5 0.153425873148 144.859359935
713.125 0.13193967654 94.0592247605
713.75 0.0980327224699 54.3793637782
714.375 0.106430364296 30.4680813572
715.0 0.108691788135 37.4600950334
715.625 0.0834192442904 37.5948352699
716.25 0.0800205312895 74.5209521584
716.875 0.115056026052 100.956891191
717.5 0.145934169178 143.261395346
718.125 0.119989521189 168.413414285
718.75 0.0972445413542 162.054780716
719.375 0.127529571001 -155.540312531
720.0 0.133934368728 -126.79072181
720.625 0.112248528391 -73.0722801973
721.25 0.0990058067839 -35.1270901855
721.875 0.0833946188914 32.1887141038
722.5 0.0708092750979 61.1216275419
723.125 0.0867325481026 72.5604070139
723.75 0.09584773519 30.9382101103
724.375 0.130122220579 13.5877899054
725.0 0.10637462606 -32.9420255484
725.625 0.106651330112 -60.3971697582
726.25 0.110959865876 -73.6502139772
726.875 0.105041031949 -47.8648972861
727.5 0.083162462691 -34.3340508477
728.125 0.0729230911428 -11.0181894064
728.75 0.0934199620169 18.6808424441
729.375 0.0737831873449 3.23722007148
730.0 0.0900142654949 20.5500358142
730.625 0.0693782963941 24.3823860519
731.25 0.0752344400296 76.0136572037
731.875 0.0492481187129 96.4130333041
732.5 0.0775679102059 154.700812575
733.125 0.0855198825751 176.678598292
733.75 0.0760860392202 176.632020444
734.375 0.0410852773522 145.346303945
735.0 0.0882878749993 165.696187937
735.625 0.076964009451 152.413430384
736.25 0.0570992898718 155.083912638
736.875 0.0258321291174 -162.322705838
737.5 0.119967055277 178.673763838
738.125 0.102561389416 -173.478210686
738.75 0.0791621200968 -166.956516124
739.375 0.0223579632278 155.321769891
740.0 0.0508121312166 -132.544851249
740.625 0.0592616790078 -149.904435635
741.25 0.0439496371149 -164.717867888
741.875 0.043363378126 -113.249542279
742.5 0.017558250541 52.8400230466
743.125 0.0423452712251 61.297896739
743.75 0.0277925117943 78.999957177
744.375 0.0381384646884 111.937986113
745.0 0.0456677978759 161.090713272
745.625 0.0606336495146 111.435001418
746.25 0.082905310413 72.0189152417
746.875 0.0814317356411 33.8654046653
747.5 0.0258342189998 37.8457607584
748.125 0.0501548058005 -15.1488877499
748.75 0.0228815002305 5.72986731944
749.375 0.027257674493 -25.0434726247
750.0 0.0291818810825 -95.9200477323
