!Created with skrf (http://scikit-rf.org).
# GHz S MA R 50.0 
!freq magS11 angS11
500.0 0.0124494771162 175.017781048
500.625 0.00619503844673 104.907817541
501.25 0.00875861502795 -127.322154547
501.875 0.0296376671762 178.399713693
502.5 0.0396036440283 171.817708661
503.125 0.0233089944029 126.298569245
503.75 0.00739983535925 91.0795620529
504.375 0.0215880245593 -56.152410697
505.0 0.00647261564279 99.8671747716
505.625 0.0172110363286 -71.9721255604
506.25 0.0413905865235 -111.071110846
506.875 0.0810645809257 -88.7074935207
507.5 0.0446883645521 -123.572017182
508.125 0.0456902184314 -92.5246180101
508.75 0.0599341439266 -128.533747115
509.375 0.0612148303918 -128.585775962
510.0 0.03353994673 -121.209738912
510.625 0.0273549241047 -164.659353682
511.25 0.0557524325937 -171.077088824
511.875 0.0648832049126 153.799353874
512.5 0.0350792134506 82.2165465385
513.125 0.0440724319779 31.0496592888
513.75 0.052925307385 39.7442188975
514.375 0.0378672776223 8.22830472552
515.0 0.0459010812864 4.32973178421
515.625 0.0852779584254 41.2284749064
516.25 0.0908070372559 32.9622034878
516.875 0.112114423627 69.9844821056
517.5 0.11617272804 21.2335019453
518.125 0.202727452595 72.7454732895
518.75 0.0976753359562 18.632199113
519.375 0.0529493546558 9.62328009732
520.0 0.0814650936077 -4.46948977666
520.625 0.102725036259 -7.67272105976
521.25 0.0942355684657 -18.9584388699
521.875 0.067816215789 3.32992486809
522.5 0.0964119088254 -31.3038217936
523.125 0.185394459341 -33.1161003825
523.75 0.208348943877 -57.4482750873
524.375 0.221810417373 -46.2872146763
525.0 0.0666667699644 -48.2660385396
525.625 0.0350204856792 -40.837000759
526.25 0.0570136509618 -5.22706581803
526.875 0.041706576036 -32.5460086538
527.5 0.0429598821762 -32.8464593491
528.125 0.0334863119167 -60.6769438994
528.75 0.0720002142044 -70.8385599951
529.375 0.0664286831677 -124.328077959
530.0 0.0439013138352 -131.125951576
530.625 0.0384637157976 -136.718282891
531.25 0.137661454162 -138.248850213
531.875 0.143838155978 -147.279543979
532.5 0.126727426543 -171.57424039
533.125 0.0904360782045 173.88141796
533.75 0.135199016411 167.288787021
534.375 0.0871215236773 174.954060923
535.0 0.0830600802962 162.609225322
535.625 0.0605658359581 173.658938254
536.25 0.072292651395 162.987908162
536.875 0.0761058737021 -158.040991033
537.5 0.0951791559069 -142.208785315
538.125 0.102812740317 -172.354510555
538.75 0.115287703802 -179.491943806
539.375 0.0639792495401 -165.328172142
540.0 0.0822539721087 -153.306605958
540.625 0.130758250921 -155.070456155
541.25 0.138921567583 -141.955258285
541.875 0.0960938075719 -143.888234833
542.5 0.111184660218 -141.664894185
543.125 0.136946146266 -166.548667128
543.75 0.139411851337 159.411378039
544.375 0.0816592638935 131.680465729
545.0 0.0834652437471 91.9394085011
545.625 0.0928106443129 80.8881005845
546.25 0.0950118123659 67.981234767
546.875 0.0874642728192 53.0797662207
547.5 0.102425342016 59.3354574614
548.125 0.115444433274 79.4790549443
548.75 0.0982707946041 90.939528254
549.375 0.0743302086477 85.9267268688
550.0 0.0808603502772 126.692821097
550.625 0.0386010020432 154.153610621
551.25 0.0432952798764 -144.264049267
551.875 0.0543529079523 -145.281086538
552.5 0.0976930576232 -158.434300785
553.125 0.0873789807576 -165.791873106
553.75 0.0960243117543 -171.806761104
554.375 0.0947950164074 173.970912874
555.0 0.1203276233 165.612013579
555.625 0.0976027007011 157.301641921
556.25 0.0991572491914 163.437285099
556.875 0.124838169351 164.617534964
557.5 0.108910299653 167.549306297
558.125 0.0922922104406 165.240064147
558.75 0.0855419248009 177.69094801
559.375 0.0477191697004 -170.855232669
560.0 0.0392087724032 -141.743128056
560.625 0.0541850168767 -139.440499218
561.25 0.092269481248 -153.606388118
561.875 0.0946292579646 -158.14836975
562.5 0.0937418386441 173.687204559
563.125 0.100762613796 148.10602118
563.75 0.140576293111 128.483471566
564.375 0.0894041322128 124.807950679
565.0 0.0785878081364 123.335836468
565.625 0.0759911617677 117.917331672
566.25 0.102718911583 149.540498901
566.875 0.0740335779781 -179.543552636
567.5 0.0718209424065 -176.375449684
568.125 0.0813558363947 -169.029495631
568.75 0.0690026887382 -145.722405619
569.375 0.0531622868628 -117.193830337
570.0 0.0593059121214 -103.612001811
570.625 0.0943295379157 -119.358313815
571.25 0.0918422306352 -120.560700428
571.875 0.0906763097929 -130.888343773
572.5 0.112127496674 -154.822870236
573.125 0.140632440825 -173.177739087
573.75 0.103732175651 162.647523276
574.375 0.0865637301275 147.01360767
575.0 0.10734564004 153.950590436
575.625 0.113524598034 152.982249167
576.25 0.0925717131117 142.804576155
576.875 0.0710886960501 137.701775468
577.5 0.0818167861206 139.536073359
578.125 0.0549089155524 161.447486986
578.75 0.0494701150138 163.565298784
579.375 0.0555799173836 161.837251905
580.0 0.0685126259856 -175.32712507
580.625 0.0789299254773 -149.977385606
581.25 0.0903439770715 -163.044456496
581.875 0.116786870464 177.59070244
582.5 0.111915245992 -170.19967107
583.125 0.0894003022966 -163.55694932
583.75 0.0773522752525 -161.521195904
584.375 0.106306579039 -165.389075339
585.0 0.0869836364235 -134.348369945
585.625 0.0690751740528 -138.815275204
586.25 0.0713198538903 -137.673277625
586.875 0.0851831025016 -141.956278611
587.5 0.0701246641044 -137.875497257
588.125 0.0570630243123 -163.95200947
588.75 0.0665847750974 -157.478244768
589.375 0.0815849768034 -162.065372404
590.0 0.0963423029237 -156.262752963
590.625 0.107566383116 168.282782325
591.25 0.117396909397 158.970876759
591.875 0.0984960158353 154.587473456
592.5 0.0600492249626 154.553387328
593.125 0.064961458896 156.993407956
593.75 0.0722635200101 -174.592131269
594.375 0.0598178859701 -164.873404547
595.0 0.049294179675 -97.9817270693
595.625 0.0614349795898 -95.7462129966
596.25 0.0725817161508 -78.6586546931
596.875 0.0673061467807 -74.7500185452
597.5 0.0614415776673 -54.6737753283
598.125 0.0744291467935 -50.4991563704
598.75 0.081072335875 -60.7226747108
599.375 0.0821462434329 -72.0730825018
600.0 0.106979693041 -59.3174290285
600.625 0.103990392882 -58.970648432
601.25 0.0848132154923 -66.6067433509
601.875 0.0682539376662 -100.04098441
602.5 0.0630900770425 -63.5791544897
603.125 0.0466056245413 -49.4184673154
603.75 0.0277036755378 -43.6999602904
604.375 0.0430172661131 -23.3529412289
605.0 0.0517218754237 -31.544715178
605.625 0.0565284720869 5.97114479399
606.25 0.0337748500503 25.5749489263
606.875 0.0362224771402 48.0220140567
607.5 0.040393138167 38.212010696
608.125 0.0713081201912 31.0278675655
608.75 0.0585472775142 21.0370216876
609.375 0.0669932022069 30.3678990984
610.0 0.063414006389 35.1564696853
610.625 0.0691058937684 44.0956774519
611.25 0.0572998762908 41.6987105962
611.875 0.039147320599 50.1989481444
612.5 0.010588250588 23.8121596605
613.125 0.0519327686586 129.635926944
613.75 0.0535669685105 123.803131373
614.375 0.0413341831482 122.308638915
615.0 0.02577809034 113.806638557
615.625 0.0451299882745 137.997915333
616.25 0.0465099880154 134.298544655
616.875 0.0340582879105 129.74363944
617.5 0.017772682059 107.802734925
618.125 0.0548922180075 139.026785789
618.75 0.0305681429292 147.784573509
619.375 0.0163537638546 149.85523577
620.0 0.0180046707324 -30.3904674097
620.625 0.0287073879309 -170.664542574
621.25 0.0439518240746 -127.668555489
621.875 0.0716257437764 -113.946783656
622.5 0.0706022846223 -150.06037017
623.125 0.0764664634291 171.13968378
623.75 0.0594697362242 167.314868182
624.375 0.0414847443403 -166.548605248
625.0 0.0413060766462 -152.310365332
625.625 0.0239795484317 -139.274250625
626.25 0.0303427495505 -176.512869348
626.875 0.00792737513567 146.072740995
627.5 0.0248520501698 -22.1640067063
628.125 0.0546820971719 -2.95971574621
628.75 0.0338015833471 -55.1361308803
629.375 0.0356129347047 -28.5838893036
630.0 0.0637258437388 -12.7446124532
630.625 0.0799804186111 21.3147717246
631.25 0.0672645428957 0.269753750787
631.875 0.0628432992623 -13.5186682006
632.5 0.0585689219211 -3.80931040236
633.125 0.0524564374297 30.9537684257
633.75 0.0492705860767 -26.0337209241
634.375 0.0393053384535 1.92537480832
635.0 0.0403182477304 25.7784081693
635.625 0.0343344989626 40.7485919867
636.25 0.063781383974 49.4347785387
636.875 0.0587906434932 31.4448755433
637.5 0.0358345695533 18.420728491
638.125 0.036409689444 58.7972542059
638.75 0.0963883676657 79.376309574
639.375 0.0788080783634 74.691817882
640.0 0.0681619690321 96.2015750431
640.625 0.0509139196668 94.0207715533
641.25 0.0761540920445 129.38769594
641.875 0.0520947740981 124.904796798
642.5 0.0511433666141 160.560785084
643.125 0.0556209221778 160.953360537
643.75 0.0873998503304 177.775847177
644.375 0.0592892078974 176.177198218
645.0 0.0654479778443 175.927560205
645.625 0.0808406565331 162.039809632
646.25 0.108557958438 170.443596944
646.875 0.0598222672845 166.811235208
647.5 0.0611685415636 -177.380902328
648.125 0.0806438825253 179.694740689
648.75 0.0780340772516 -158.475714822
649.375 0.0475987059274 -151.032327854
650.0 0.0492400379757 -119.558682611
650.625 0.067402472699 -85.1337385676
651.25 0.0685574606375 -63.9613836328
651.875 0.0750900232739 -42.3032782096
652.5 0.0797765846429 -24.2607750286
653.125 0.111310633346 -0.893185118294
653.75 0.113910705394 9.00927369797
654.375 0.0900272644221 1.41202878526
655.0 0.107120465458 10.2107001489
655.625 0.0935882024532 26.8140068573
656.25 0.0598006834114 22.7915844323
656.875 0.0750144378429 8.84367935513
657.5 0.0748295706598 21.0782006298
658.125 0.0530698563302 49.1209303163
658.75 0.0542793438778 63.1467460094
659.375 0.0956420548283 36.3252521736
660.0 0.0888850401557 27.3050620504
660.625 0.104431286651 19.412657136
661.25 0.0985861259995 3.27934904081
661.875 0.130635070048 -12.2513814663
662.5 0.0985810061086 -24.1410750662
663.125 0.104748324095 -14.0333560227
663.75 0.0953273921229 5.29385378069
664.375 0.114419570218 55.4345520531
665.0 0.0715550876118 92.163416539
665.625 0.0594481770812 109.060182613
666.25 0.095589271711 129.605824214
666.875 0.0850323732275 174.994959098
667.5 0.0982710717366 -170.727973724
668.125 0.104512913724 178.767403802
668.75 0.135368575549 167.200602113
669.375 0.139666538199 177.486724555
670.0 0.0863268480702 -171.33769569
670.625 0.0934021115926 -171.073667142
671.25 0.113595828203 176.46952688
671.875 0.114669693971 168.454428823
672.5 0.0601430000197 158.896763619
673.125 0.0851800801394 154.29352054
673.75 0.11833356711 157.312743011
674.375 0.104067855374 172.624376163
675.0 0.112083558033 -173.554079919
675.625 0.135364947858 -151.329594436
676.25 0.133246628193 -126.876641889
676.875 0.109547468551 -121.026397662
677.5 0.124100577946 -126.924784111
678.125 0.132769215771 -115.567428416
678.75 0.0699966001868 -90.9670258855
679.375 0.0602156451422 -78.6560193494
680.0 0.0734629725774 -75.289169269
680.625 0.107719401884 -68.6076986597
681.25 0.0987433112344 -70.1604870145
681.875 0.105753408008 -96.3456376537
682.5 0.130741319436 -118.579065839
683.125 0.163206702082 -121.082972492
683.75 0.144831217796 -104.843388473
684.375 0.118739949937 -78.7906469896
685.0 0.145215676163 -43.0888676343
685.625 0.126856330277 -0.243730884098
686.25 0.0971032924526 26.2185799948
686.875 0.0861143845931 48.6056646258
687.5 0.0860246179381 78.1703425038
688.125 0.0794570574478 113.073542046
688.75 0.0992783182182 121.489256313
689.375 0.138376961789 123.125860562
690.0 0.142451809943 130.41495625
690.625 0.108447443659 134.153223694
691.25 0.136822256438 101.455385947
691.875 0.184970818276 67.1870300129
692.5 0.149866846561 39.5858346238
693.125 0.0942629715767 -16.5150173207
693.75 0.0911826739911 -35.5871060781
694.375 0.132724050611 -26.6359141049
695.0 0.124819431158 14.919104325
695.625 0.107331498246 49.171190701
696.25 0.106590807519 125.169820032
696.875 0.13873968639 172.970866691
697.5 0.146005597695 -145.824458365
698.125 0.138560635962 -131.629734973
698.75 0.121341218425 -125.111213373
699.375 0.0997148605602 -117.327846678
700.0 0.0928074634128 -111.164412346
700.625 0.121495193663 -97.7733962423
701.25 0.0859347512676 -51.196593463
701.875 0.079494853556 -52.4634558431
702.5 0.099026031002 -77.2456663162
703.125 0.171454515833 -126.765459774
703.75 0.188554007232 -155.209159962
704.375 0.12770106341 171.129668741
705.0 0.110970328007 159.830392515
705.625 0.141414379015 -167.354797762
706.25 0.155677439749 -118.848494361
706.875 0.0842942260129 -54.8504073751
707.5 0.0720494459092 -26.304150399
708.125 0.0845723683759 26.1880481827
708.75 0.112664961837 54.772879659
709.375 0.105552593105 117.467254057
710.0 0.103389809124 134.233134477
710.625 0.10750719231 149.151737709
711.25 0.118160364498 164.329077719
711.875 0.151852376852 169.367180989
712.5 0.150317782756 153.277552663
713.125 0.123279411512 102.945322369
713.75 0.107221472785 38.4972410096
714.375 0.108127705119 27.5741643557
715.0 0.11276154522 31.6370385161
715.625 0.0864683065896 46.4750336444
716.25 0.0820817358506 75.5968049508
716.875 0.110180213148 94.1642273
717.5 0.152532991603 162.097714988
718.125 0.120086132009 171.15953604
718.75 0.0938843834577 178.609500349
719.375 0.113747019046 -175.285375067
720.0 0.126608704606 -137.307348607
720.625 0.115940910987 -75.4310687564
721.25 0.0909681839111 -17.3809348043
721.875 0.086181689622 15.3555166817
722.5 0.0825476148241 91.1536607123
723.125 0.101279640332 84.3638741388
723.75 0.117555759954 50.8024982362
724.375 0.103604189211 -7.69973966858
725.0 0.103606510766 -32.203635283
725.625 0.102380223152 -65.7719060311
726.25 0.120511362111 -64.0756817783
726.875 0.105834580699 -48.6645029983
727.5 0.0766376146669 -47.2265351462
728.125 0.0994588499366 15.8104716755
728.75 0.104913540204 33.0461212565
729.375 0.0872366534303 30.4129556156
730.0 0.059172058938 -6.23734424042
730.625 0.0535854539829 15.6623160225
731.25 0.0707342394644 65.1835702954
731.875 0.0570534775108 105.878644054
732.5 0.0754688236733 152.805351921
733.125 0.0629155265599 158.443711907
733.75 0.0781448098513 174.592268572
734.375 0.0581090122729 -166.486078193
735.0 0.0297511882781 124.297989165
735.625 0.0940663871496 160.118321169
736.25 0.0397504735857 145.541880663
736.875 0.0431329664794 -179.597363989
737.5 0.0645029656359 -177.841816313
738.125 0.0735736717547 -178.839910533
738.75 0.0776714603651 -175.693260919
739.375 0.0391617050871 179.885018666
740.0 0.0469823049221 -143.79624812
740.625 0.0219058581307 -120.380479957
741.25 0.079755816588 -151.844808637
741.875 0.0501374134253 -111.346174195
742.5 0.0258202588902 7.01394852616
743.125 0.0224678750374 123.921668495
743.75 0.0693000220709 81.4012254797
744.375 0.057704827034 94.8118731078
745.0 0.0564657361829 122.711730804
745.625 0.0648598238102 145.009002668
746.25 0.104882389993 67.8032147499
746.875 0.0717247774897 36.8418306635
747.5 0.0430879606997 16.4896141941
748.125 0.0186606226655 -12.464146343
748.75 0.0227213359363 50.9160343028
749.375 0.0519332994057 -62.6886076881
750.0 0.0414530173235 -122.113621955
