!Created with skrf (http://scikit-rf.org).
# GHz S RI R (50+0j) 
!freq	ReS11	ImS11	
500.0	0.171017968	-1.111971912	
500.625	-0.2611906003	-0.5960788227	
501.25	0.09964649635	-0.6507178874	
501.875	-0.4773572195	-0.3607432214	
502.5	-0.03081534691	-0.04439463664	
503.125	-0.09513177851	-0.02368102081	
503.75	0.07151799577	0.06202861995	
504.375	0.01451722164	0.0211601087	
505.0	0.01644632883	-0.05042564835	
505.625	0.009307517124	0.01091205873	
506.25	-0.04946202693	-0.1266059809	
506.875	0.09280240279	0.1546349172	
507.5	0.1506102842	-0.4252906471	
508.125	-0.1969117335	-0.6476024491	
508.75	0.3122588995	-0.3548435662	
509.375	0.2239457089	-1.26780067	
510.0	-0.5696119077	-0.0414655775	
510.625	-0.01703749417	-0.08693082242	
511.25	-0.09129014787	-0.08328863636	
511.875	-0.09740351925	0.01662079046	
512.5	-0.02218924504	0.02019495791	
513.125	-0.02873171119	-0.1040989244	
513.75	-0.03306747839	0.03098650416	
514.375	-0.03743928917	-0.09351833109	
515.0	-0.1430929169	0.1549773681	
515.625	0.2894626374	-0.5545601067	
516.25	-0.6392952184	-0.13387938	
516.875	0.0001364685961	-0.114780815	
517.5	0.0308581859	-0.2172422196	
518.125	-0.05611506589	0.03360540346	
518.75	-0.0724302419	-0.1821905261	
519.375	-0.05033697938	0.05044667589	
520.0	0.07394726613	0.02741138175	
520.625	0.1230024839	-0.0001514654445	
521.25	-0.02900221448	-0.1708054889	
521.875	-0.08957238363	0.04765314756	
522.5	-0.05328070877	-0.04014601321	
523.125	-0.04573134171	0.12109885	
523.75	0.0139531599	-0.02454944258	
524.375	-0.2690223509	0.007365743808	
525.0	0.09892201931	0.1352948648	
525.625	-0.04273001717	0.009678133396	
526.25	0.05559954883	-0.03546268411	
526.875	-0.1010496966	0.03900266969	
527.5	0.05307398607	0.1920010092	
528.125	0.05518730544	0.09188092052	
528.75	0.05978030883	0.2424726492	
529.375	0.07257891321	0.03750784493	
530.0	0.08122047554	0.1128948135	
530.625	0.07416093974	0.2771473155	
531.25	0.2876700683	-0.07601571772	
531.875	0.1756628725	-0.05909849139	
532.5	-0.01307827184	-0.216102039	
533.125	0.1073152719	0.06797062918	
533.75	0.1541978536	-0.3295310081	
534.375	-0.1127258686	-0.1263631172	
535.0	-0.1656252172	-0.144335892	
535.625	-0.1581198532	0.1596979713	
536.25	0.02501754039	0.0490221575	
536.875	0.08097970262	0.04341744332	
537.5	0.04922569214	-0.07002141022	
538.125	0.07528148787	-0.008076713728	
538.75	0.126298828	-0.1528477521	
539.375	-0.08830974064	-0.08370507173	
540.0	-0.1094358708	-0.1312412437	
540.625	-0.1746679626	-0.03141192938	
541.25	-0.06521192719	0.05328166597	
541.875	0.001832609263	-0.05642240478	
542.5	-0.1263247562	-0.0767932183	
543.125	-0.001076559421	0.0002119096461	
543.75	-0.1443911677	-0.04493613622	
544.375	0.02071236027	0.05252463108	
545.0	-0.04532300779	0.07161263857	
545.625	0.0917039775	0.01406919556	
546.25	0.002405332481	0.04208168512	
546.875	0.1614417358	-0.03271547581	
547.5	-0.008008620903	-0.1243744786	
548.125	-0.001959273257	-0.09600614333	
548.75	-0.1307992386	-0.1427853511	
549.375	-0.1197187705	-0.007360943943	
550.0	-0.04613042966	-0.02719160129	
550.625	-0.05529648316	0.04905769626	
551.25	-0.04829830161	0.001291050052	
551.875	-0.08175853052	0.08478751285	
552.5	-0.007515181361	0.06778459748	
553.125	-0.02482534084	0.05477060393	
553.75	0.06066080689	0.03624643081	
554.375	0.07153436998	-0.007755185917	
555.0	0.09122420702	-0.06690371535	
555.625	0.06497553787	-0.1039338305	
556.25	0.04504980127	-0.1224548172	
556.875	-0.04179317931	-0.1395433447	
557.5	-0.0977493898	-0.08422007767	
558.125	-0.1031754048	-0.0214142721	
558.75	-0.09623922832	-0.001078085114	
559.375	-0.1060189637	0.02938420549	
560.0	-0.0675894159	0.07683070226	
560.625	-0.05195560927	0.09095404553	
561.25	0.02536940798	0.1134458663	
561.875	0.02049436842	0.01074190596	
562.5	0.02104818431	0.0778234474	
563.125	0.05946486601	0.02356770508	
563.75	0.1156658741	0.03422278279	
564.375	0.1294403225	-0.1288159722	
565.0	0.005416312678	-0.1197292971	
565.625	0.006611129935	-0.1495463608	
566.25	-0.196845002	-0.09211730644	
566.875	-0.06774781293	-0.03802416423	
567.5	-0.1587015968	-0.1392760408	
568.125	-0.1726313611	-0.0348464842	
568.75	-0.1488889412	-0.1239487275	
569.375	-0.2523426954	0.1722554511	
570.0	-0.01308067226	0.1614147371	
570.625	-0.09995427528	0.09527915783	
571.25	0.02639442266	0.1938212215	
571.875	0.02067932832	-0.01773206019	
572.5	0.1679615885	0.04740611635	
573.125	-0.01033924248	-0.1649160769	
573.75	0.0632132461	-0.007185423781	
574.375	-0.0009066966024	-0.1587424545	
575.0	0.001387482466	0.04724852232	
575.625	0.08225101907	-0.1320280376	
576.25	-0.04750454648	-0.1323810972	
576.875	-0.01003935033	-0.03563592203	
577.5	0.07258545465	-0.1799528122	
578.125	-0.1387960032	-0.1697777672	
578.75	-0.02452760871	0.02035766863	
579.375	-0.06523174218	-0.1606682447	
580.0	-0.09069656148	0.0866377786	
580.625	-0.09283063702	-0.174437242	
581.25	-0.03129172438	0.1952913479	
581.875	-0.03028626691	0.002093608643	
582.5	-0.03835005865	0.2045026002	
583.125	0.1965401616	0.06967039859	
583.75	-0.04009517771	-0.05771806438	
584.375	0.1011497001	0.1466981235	
585.0	0.1043048911	-0.04968930004	
585.625	0.1073007502	0.08736414636	
586.25	0.1844648056	-0.1383177484	
586.875	0.01620203736	-0.04612011018	
587.5	0.03964939816	-0.1832947457	
588.125	-0.09835622811	-0.1060789248	
588.75	0.05247944528	-0.03666316322	
589.375	0.131585479	-0.1933081611	
590.0	-0.1592178594	-0.1260654691	
590.625	-0.06035069249	-0.027351997	
591.25	-0.201605105	0.07672691575	
591.875	0.1277166768	0.1645738063	
592.5	-0.09699062711	-0.00950374959	
593.125	0.06892523644	0.06180914233	
593.75	-0.04141957695	0.09189398586	
594.375	0.2978824643	0.06139257363	
595.0	0.1142100767	-0.02396059774	
595.625	0.08332398217	0.1164063117	
596.25	0.2161018407	0.05059697978	
596.875	0.08102343008	-0.03023898255	
597.5	0.07906878771	0.1263296747	
598.125	0.1947541947	0.07299062589	
598.75	0.1046720393	0.04333400549	
599.375	0.204865059	-0.01505924029	
600.0	0.1365412944	-0.197898889	
600.625	0.05642982651	-0.1231252255	
601.25	0.1264791411	-0.1628496843	
601.875	-0.1669268983	-0.148817858	
602.5	-0.0193387642	0.01688549115	
603.125	-0.1876436484	0.006331592399	
603.75	-0.005384067777	0.136256482	
604.375	-0.1058499206	-0.0451228359	
605.0	-0.1168636168	0.1396435927	
605.625	0.03509180388	0.01455928478	
606.25	-0.190432661	0.1174474658	
606.875	-0.1061874754	0.1459978389	
607.5	-0.2078844307	0.1210842258	
608.125	-0.08612117536	0.2355458223	
608.75	0.2358175015	0.123981035	
609.375	0.1811329592	-0.02991154031	
610.0	0.2180866063	-0.102997353	
610.625	0.004237099231	-0.1825768443	
611.25	-0.02558155197	-0.08868339775	
611.875	-0.1060865068	-0.1786674207	
612.5	-0.1882772847	0.07949085497	
613.125	-0.1178629133	-0.05327711103	
613.75	-0.1556610217	0.198073399	
614.375	0.1414094665	0.03353290289	
615.0	-0.01928371398	0.13477542	
615.625	0.1032021701	0.06201914031	
616.25	-0.06332508915	0.04470000737	
616.875	-0.06622496051	0.2655398423	
617.5	-0.08497117488	0.102469421	
618.125	-0.07333208229	0.1768946849	
618.75	0.04615391325	0.2491550617	
619.375	0.1341340429	0.1145989075	
620.0	0.1200140704	-0.1171420471	
620.625	0.1574325695	-0.149461162	
621.25	-0.1895674413	-0.1552370988	
621.875	-0.1118505488	-0.1053915155	
622.5	-0.318329146	0.02239710431	
623.125	0.05047161123	0.1401912725	
623.75	0.08539626485	0.1086681857	
624.375	0.04189387326	-0.1358199853	
625.0	0.01548877631	0.05762395574	
625.625	0.08222793752	-0.1415281291	
626.25	-0.116952047	-0.08037346275	
626.875	-0.08368824056	-0.06720917477	
627.5	-0.1619776081	-0.05927634267	
628.125	-0.1356123932	-0.06662705899	
628.75	-0.02878778931	-0.1050790163	
629.375	-0.09833097658	-0.165827395	
630.0	-0.1162688688	-0.04007532664	
630.625	-0.178031595	0.0251771193	
631.25	-0.1030041653	0.2391468657	
631.875	0.1013059436	0.2044643471	
632.5	0.03390309024	0.1643762807	
633.125	0.3550125553	0.07340984138	
633.75	0.06263926354	-0.1146576208	
634.375	0.1232797371	-0.09295934703	
635.0	-0.09252750463	-0.1782169884	
635.625	-0.04000590248	-0.0152134679	
636.25	-0.2258853847	0.06678464064	
636.875	0.03227773424	0.152762077	
637.5	-0.06275121838	0.005113458943	
638.125	-0.05835525373	0.1801229801	
638.75	0.03778642432	0.06694467209	
639.375	-0.07927266446	0.2259246261	
640.0	0.2051512427	0.2609156747	
640.625	0.2064161052	0.02521894061	
641.25	0.1524110964	0.04340595825	
641.875	0.1998348359	-0.264663631	
642.5	-0.1537780531	-0.1103408955	
643.125	-0.007564430837	-0.1786641058	
643.75	-0.3345089836	-0.005252668418	
644.375	0.02137152313	-0.007139998767	
645.0	-0.3510128738	0.1680391151	
645.625	0.200222162	0.1733161809	
646.25	-0.07534468119	0.01311116318	
646.875	0.2292645928	0.09071003793	
647.5	-0.07361194541	-0.08064464052	
648.125	0.235907628	0.1539628711	
648.75	0.1876785459	-0.2486059424	
649.375	0.0882779508	-0.1138763862	
650.0	0.2841026472	-0.2824463569	
650.625	-0.009287295411	-0.4334317465	
651.25	0.04854821723	-0.07597788437	
651.875	0.3444791352	-0.1241337819	
652.5	0.2436433628	-0.2505734356	
653.125	0.07872224154	-0.01948889529	
653.75	0.3034152668	-0.2764007838	
654.375	-0.2121978964	-0.2097435556	
655.0	-0.1058065029	-0.1110346607	
655.625	-0.3301086704	0.2142511454	
656.25	0.2764486063	0.1302660793	
656.875	-0.09991510639	0.0252165437	
657.5	0.1724681676	0.1705237866	
658.125	0.03806938305	-0.03427049185	
658.75	0.2587438136	0.2180186656	
659.375	0.2561041403	-0.3803705321	
660.0	0.0947965406	-0.1417095816	
660.625	0.2144987696	-0.3241809829	
661.25	0.01638999248	-0.3891898161	
661.875	0.1208215035	-0.05092647338	
662.5	0.3562802295	-0.2016007412	
663.125	0.154193842	-0.3119376079	
663.75	0.06444909234	-0.1707066478	
664.375	0.03792567021	-0.3414710205	
665.0	-0.352960169	-0.0871361072	
665.625	-0.1934346669	0.0194002899	
666.25	-0.1510639766	0.3183597236	
666.875	0.2139173829	0.1028434726	
667.5	0.06983092964	0.1374721589	
668.125	0.3183346249	-0.06576668285	
668.75	-0.001344891099	-0.1891009585	
669.375	0.1224013215	-0.1069755086	
670.0	0.002704089658	-0.3243137673	
670.625	-0.1108261252	-0.02160165085	
671.25	0.1751303454	-0.1903624595	
671.875	0.04229425799	-0.2387100121	
672.5	0.07642349041	-0.06134040014	
673.125	0.3250996534	-0.2053727349	
673.75	-0.002260465589	-0.2737712833	
674.375	0.04092286884	-0.1228560383	
675.0	-0.02502279647	-0.2690126459	
675.625	-0.2805473921	-0.07665402884	
676.25	-0.03568457755	0.009308680931	
676.875	-0.234304463	-0.06143032843	
677.5	-0.07289091349	0.1360897741	
678.125	-0.1350598895	0.01119124371	
678.75	0.07068961548	0.3500630753	
679.375	0.1669514391	-0.1271450053	
680.0	0.1120036891	0.07810882142	
680.625	0.1726875558	-0.2413932095	
681.25	-0.094190375	-0.0670625054	
681.875	0.3339781442	0.3090711536	
682.5	0.3107556304	-0.1209483665	
683.125	0.06765935987	0.04302198779	
683.75	0.349255375	0.1484942118	
684.375	0.310285256	-0.1674334046	
685.0	0.2097120133	0.2768027519	
685.625	0.4213566025	-0.03005637223	
686.25	0.1812843472	-0.1199400554	
686.875	0.1796914713	-0.005191603263	
687.5	0.2772050668	-0.3780600898	
688.125	-0.2427886912	-0.3161291943	
688.75	-0.2457649874	-0.1734025465	
689.375	-0.372269566	0.363371474	
690.0	0.3079668952	0.2630986219	
690.625	0.0240579994	0.2992015668	
691.25	0.5117743846	0.1747504427	
691.875	0.2529040301	0.0960214937	
692.5	0.6196369489	0.3975836366	
693.125	0.7222328312	-0.2475832797	
693.75	0.2685465098	-0.1840263098	
694.375	0.56126224	-0.4700295562	
695.0	0.4090993945	-0.4148853736	
695.625	0.430747327	0.0728739642	
696.25	0.4736398138	0.2415811194	
696.875	0.5759943416	0.2290852574	
697.5	0.3857880587	0.3851940389	
698.125	0.4813393143	0.1592174429	
698.75	0.3324190143	-0.5162075685	
699.375	-0.3360372578	-0.1952735726	
700.0	-0.3943709289	0.2674797492	
700.625	0.3127482928	0.3736394733	
701.25	0.0873188994	0.06790522863	
701.875	0.2784272854	0.3357354638	
702.5	0.4113000391	0.0128455126	
703.125	0.2435498929	0.1695957972	
703.75	0.459033436	-0.1130324954	
704.375	0.1330776987	-0.2893598965	
705.0	0.2949306162	-0.044216721	
705.625	0.3500303819	-0.05795342367	
706.25	0.1919757978	0.1942093656	
706.875	0.1820372953	0.2781555656	
707.5	0.3059537309	0.3349446962	
708.125	0.3378774065	-0.05577791962	
708.75	-0.03828975431	-0.2700383743	
709.375	-0.2757011424	-0.295886714	
710.0	-0.02369519158	0.2209066324	
710.625	-0.06269990708	0.06650218757	
711.25	0.3730490357	0.2101033531	
711.875	0.05451223052	0.05531283417	
712.5	0.3671238773	0.04024612958	
713.125	0.1833858246	-0.27555164	
713.75	0.05868532778	-0.1207791506	
714.375	0.07311988347	-0.2660909826	
715.0	-0.1508633813	-0.158030427	
715.625	0.04575350561	-0.1086474049	
716.25	0.1682364789	-0.3147524017	
716.875	0.1703119141	-0.240987623	
717.5	0.3814218438	0.04440534545	
718.125	0.7520928055	-0.01838306066	
718.75	0.4825424501	-0.3620993583	
719.375	0.2052052763	-0.2639068438	
720.0	0.6571400676	-1.030716381	
720.625	-0.2385831689	-0.5963092987	
721.25	0.1954993156	-0.8110498149	
721.875	-0.5730974782	-1.376977479	
722.5	-0.5181366086	-0.1543209024	
723.125	-0.7325168551	-0.4867026848	
723.75	-0.2341852843	0.5957622988	
724.375	0.1198681635	0.1567819377	
725.0	0.03625903376	0.3956222271	
725.625	0.3920052559	0.3999652191	
726.25	0.1204140315	0.2733321268	
726.875	-0.2085116439	0.8913705141	
727.5	0.2885118957	1.325173673	
728.125	0.2273443804	1.018379558	
728.75	-0.4956904122	2.729904934	
729.375	0.7478081457	3.399784455	
730.0	0.06425919492	1.683517815	
730.625	-0.5874177555	4.632352602	
731.25	1.078388135	3.367286339	
731.875	-0.7836075751	0.5387453997	
732.5	-3.838779607	0.4631494861	
733.125	-2.142951555	2.108375396	
733.75	-0.3004559757	0.5084836303	
734.375	1.003569553	0.6856038664	
735.0	-0.5536114155	-0.337229469	
735.625	-0.2743872665	-0.1493134535	
736.25	0.01797561918	0.7241348797	
736.875	0.4185784705	-0.04208787058	
737.5	0.6879368166	0.7119412779	
738.125	1.671151998	-0.742332708	
738.75	0.6304253758	-1.514596978	
739.375	0.7923028226	0.01279186326	
740.0	4.87832608	-0.8320797756	
740.625	0.5901531363	-3.575415691	
741.25	-3.668685604	2.102133821	
741.875	-3.241485676	2.661356569	
742.5	0.5465970965	-0.03498280001	
743.125	1.109723082	-2.433195617	
743.75	-0.6790906219	-1.054093165	
744.375	-0.009710328326	0.1052127173	
745.0	-0.04021636971	0.2310251587	
745.625	-0.1030145282	-0.1164130614	
746.25	0.08530267517	-0.1455581482	
746.875	-0.2947426252	0.1270243274	
747.5	0.02753970845	0.1729067432	
748.125	-0.02593586556	0.4138480927	
748.75	0.3932320249	0.3886956436	
749.375	0.09203985357	0.21892588	
750.0	-0.4678158942	0.294743589	
