!Created with skrf (http://scikit-rf.org).
# GHz S RI R (50+0j) 
!freq	ReS11	ImS11	
500.0	-0.3093818984	-0.7271927879	
500.625	0.6201378435	-0.5484458846	
501.25	-0.6283600577	-0.5957869863	
501.875	-0.07562417644	-0.2068777413	
502.5	-0.05776294091	-0.1412400232	
503.125	-0.03436345813	0.02956620517	
503.75	-0.05813780056	0.06220900086	
504.375	0.04519054441	-0.02873418478	
505.0	-0.005909881343	0.006668801434	
505.625	0.02259652072	-0.08129924035	
506.25	-0.07980753637	0.04318966907	
506.875	-0.1504756378	-0.1825440675	
507.5	-0.2984462327	0.03416638516	
508.125	0.3933462757	-0.3592284131	
508.75	0.4331261253	-1.234540528	
509.375	-0.37325297	-0.6616668721	
510.0	-0.1196676977	-0.3598426385	
510.625	-0.1614811187	-0.2245067024	
511.25	-0.08798534066	-0.01526428785	
511.875	-0.08745292879	-0.07749444785	
512.5	-0.008714787969	0.0496354965	
513.125	0.006821353849	-0.02225575854	
513.75	-0.05651286447	-0.08564281688	
514.375	-0.05853827232	0.08724878712	
515.0	0.1944278326	-0.2586265184	
515.625	-0.4358093141	0.03537520041	
516.25	0.363107224	-0.3819287591	
516.875	-0.2634626755	-0.6320594297	
517.5	-0.07455339784	0.0225492648	
518.125	-0.02539019403	-0.08796236071	
518.75	-0.09894908838	-0.004180707745	
519.375	-0.04083480703	0.0008581891365	
520.0	0.1125747427	0.06455271527	
520.625	0.09665456502	-0.06654401571	
521.25	-0.04323031191	-0.132912485	
521.875	-0.1138951654	-0.07485500854	
522.5	-0.0689227488	0.02451275625	
523.125	0.007551886763	-0.02256604855	
523.75	-0.1782713444	-0.03065710264	
524.375	-0.03241900886	0.06070213622	
525.0	-0.1305904426	0.1030016391	
525.625	0.1265751656	0.08617355014	
526.25	-0.08458537239	-0.01289713335	
526.875	0.01477069701	0.07167297848	
527.5	-0.06258058239	0.06727172492	
528.125	0.0934590719	0.2869637274	
528.75	0.1375440439	0.177427976	
529.375	-0.03455833332	0.03223629047	
530.0	0.1551275219	0.1283883786	
530.625	0.2015465813	0.3328093817	
531.25	0.3764730005	0.02750351072	
531.875	0.1175899173	-0.2181035932	
532.5	0.01323142486	-0.03299495449	
533.125	0.1621317937	-0.1602084287	
533.75	-0.00668405724	-0.09701502588	
534.375	-0.03719980343	-0.2977986994	
535.0	-0.2862384728	-0.02425851727	
535.625	-0.06846917478	0.06545958531	
536.25	-0.01348893904	0.1028451585	
536.875	0.0736957018	-0.03366223196	
537.5	0.07248662582	-0.008405710404	
538.125	0.1108492548	-0.1125941743	
538.75	0.05628845195	-0.07115818853	
539.375	-0.03374374964	-0.1675055652	
540.0	-0.1962665327	-0.1215936268	
540.625	-0.1812186968	0.02185908075	
541.25	-0.06153591347	-0.01254520537	
541.875	-0.0953832084	-0.007984746365	
542.5	-0.01450791834	-0.06438967608	
543.125	-0.1337731063	-0.08604232936	
543.75	-0.0316639398	0.0329203008	
544.375	-0.08068380504	0.04981160003	
545.0	0.06323718661	0.06142309615	
545.625	-0.0417864119	0.04471175143	
546.25	0.155267868	0.03043662773	
546.875	0.04806140641	-0.06517573871	
547.5	0.09705568621	-0.08206118547	
548.125	-0.1085677555	-0.1803612563	
548.75	-0.06859936844	-0.03928404266	
549.375	-0.1074540484	-0.09645944749	
550.0	-0.07291025861	0.06091342901	
550.625	-0.03101922826	-0.03612003716	
551.25	-0.08069046457	0.06571820255	
551.875	-0.02778406121	0.05047432869	
552.5	-0.05337196686	0.07036055688	
553.125	0.01035361716	0.06487375435	
553.75	0.03450541199	0.03693179872	
554.375	0.08826226674	-0.0168719648	
555.0	0.07155131949	-0.06928864982	
555.625	0.07054431023	-0.09772624455	
556.25	0.04555862555	-0.1360183473	
556.875	-0.04977717143	-0.1345226506	
557.5	-0.09203935412	-0.07952518836	
558.125	-0.1093987272	-0.02676407267	
558.75	-0.1026833135	0.01316877499	
559.375	-0.08985605662	0.02597965083	
560.0	-0.09292819105	0.07618863043	
560.625	-0.01787529747	0.1082447435	
561.25	-0.006004738564	0.07261221313	
561.875	0.04958739534	0.06207193206	
562.5	-0.0008239904639	0.006965638497	
563.125	0.06838350113	0.0980843749	
563.75	0.1423768	-0.04628884219	
564.375	0.07640830194	-0.06481214409	
565.0	0.09049450219	-0.1636799243	
565.625	-0.08917402207	-0.1114910217	
566.25	-0.07035605326	-0.1154884524	
566.875	-0.1871611347	-0.04596386026	
567.5	-0.06829104717	-0.03959032661	
568.125	-0.1304785396	-0.1957846516	
568.75	-0.2715265153	0.04223520472	
569.375	-0.09714865567	0.06956636231	
570.0	-0.1774500078	0.1757215431	
570.625	0.02866854078	0.234393323	
571.25	-0.01702444595	0.01913651556	
571.875	0.13352295	0.124762036	
572.5	0.001585082846	-0.02293684126	
573.125	0.1697116677	-0.1135735333	
573.75	-0.07285249933	-0.1576715723	
574.375	0.02370506643	0.04508131043	
575.0	0.06924002374	-0.1486118116	
575.625	-0.05145313437	-0.02235986458	
576.25	0.1024998593	-0.04411378869	
576.875	-0.0368803762	-0.2024925722	
577.5	-0.07682917663	-0.06796969351	
578.125	0.04725443785	-0.1524361651	
578.75	-0.1885857355	-0.1352683348	
579.375	-0.01578607907	0.0339563515	
580.0	-0.06509639329	-0.1467804961	
580.625	-0.05646498362	0.09484041532	
581.25	-0.09710863571	-0.09567618685	
581.875	0.001201705528	0.2931434847	
582.5	0.1666676069	0.05452444182	
583.125	-0.04633960603	0.02606408629	
583.75	0.155611002	0.05075463151	
584.375	-0.08418591929	-0.003039925186	
585.0	0.1851769687	0.1049909718	
585.625	0.08997694224	-0.1036014024	
586.25	0.1342392035	0.04761979699	
586.875	0.09454878016	-0.2200296146	
587.5	-0.09308852915	-0.05434809668	
588.125	0.05534461987	-0.09719487631	
588.75	0.0071571845	-0.2012353571	
589.375	-0.0299422937	-0.08840368899	
590.0	0.02015818859	-0.1973478314	
590.625	-0.2321443282	0.06235211863	
591.25	-0.02069415059	0.04136457634	
591.875	-0.1162769035	0.1304110022	
592.5	0.1264133779	0.06524086821	
593.125	-0.1703386799	0.03759010944	
593.75	0.2081151571	0.06402959372	
594.375	0.03268025	0.02437581322	
595.0	0.1391120845	0.1722843289	
595.625	0.2106253884	-0.04158584874	
596.25	0.06312926377	0.1103394334	
596.875	0.2278636035	0.02296885021	
597.5	0.09990848118	-0.01481446879	
598.125	0.08311390304	0.1398700111	
598.75	0.2243037605	0.02106251144	
599.375	0.1235698095	-0.09242468939	
600.0	0.1364613885	-0.07950128952	
600.625	0.1560437513	-0.2166671906	
601.25	-0.01163247949	-0.1876434394	
601.875	-0.005126174533	-0.1222580436	
602.5	-0.1898801386	0.03924724245	
603.125	-0.009900136695	0.0271645602	
603.75	-0.1827481207	0.03572523854	
604.375	0.002434288783	0.2098132551	
605.0	-0.04478788662	-0.05746147044	
605.625	-0.140101356	0.1293097539	
606.25	-0.003110614988	0.105570325	
606.875	-0.2829364442	0.08302481058	
607.5	-0.1092513128	0.2633774842	
608.125	-0.01952748082	0.160094054	
608.75	0.2362843519	0.1716363883	
609.375	0.1385897956	-0.05877544756	
610.0	0.1197797802	-0.08688939429	
610.625	0.09690808515	-0.1541879144	
611.25	-0.08496575234	-0.1776659691	
611.875	-0.1617686761	-0.02217109584	
612.5	-0.1487153643	-0.1087757833	
613.125	-0.1999456962	0.1479932645	
613.75	0.002094914793	0.03931056736	
614.375	0.005413783957	0.1972412217	
615.0	0.09274261861	-0.0619696969	
615.625	-0.09080933115	0.1372902563	
616.25	0.09368139435	0.1388971375	
616.875	-0.09512505097	0.07818400548	
617.5	-0.1171462657	0.2589726368	
618.125	0.09263901536	0.227250226	
618.75	0.03751746343	0.2389398815	
619.375	0.1136290807	0.09286812563	
620.0	0.1811651498	-9.333976842e-05	
620.625	0.07359720207	-0.09945882627	
621.25	-0.09519905459	-0.1892617959	
621.875	-0.2911755607	-0.03526035365	
622.5	-0.1371518212	0.03646372318	
623.125	-0.06749382081	0.2061023577	
623.75	0.220535267	-0.05431471551	
624.375	-0.02166770171	0.0397430205	
625.0	0.05462374649	-0.1290844504	
625.625	-0.005679481333	-0.0147517513	
626.25	-0.02001944641	-0.1767109856	
626.875	-0.1845684345	-0.01830413127	
627.5	-0.0537640433	-0.01252327311	
628.125	-0.1531054836	-0.1117805885	
628.75	-0.09704827766	-0.03760725321	
629.375	-0.04298492652	-0.1391445166	
630.0	-0.1833468335	-0.08824514566	
630.625	-0.1847570576	0.1273649352	
631.25	-0.03051502783	0.1387871896	
631.875	0.00586151096	0.2654695267	
632.5	0.2782219891	0.1109338298	
633.125	0.1131539958	0.02048934748	
633.75	0.1997615691	-0.1265280441	
634.375	-0.07988901645	-0.09665779856	
635.0	0.0821937184	-0.1562795177	
635.625	-0.277070579	-0.002800746702	
636.25	-0.02023120857	0.08814669856	
636.875	-0.1324649522	0.07871279927	
637.5	0.03768610975	0.1692981797	
638.125	-0.04692259474	-0.02840036001	
638.75	-0.08442573959	0.2433281389	
639.375	0.1224091532	0.1636989788	
640.0	0.04310413511	0.2217578506	
640.625	0.3477350845	0.1211244917	
641.25	0.1577345942	-0.114217072	
641.875	0.1617819971	-0.09892234242	
642.5	-0.03376428667	-0.296753066	
643.125	-0.260293353	0.0641961611	
643.75	0.005250745335	-0.1052082874	
644.375	-0.2658578496	0.07790631168	
645.0	0.02745571312	0.1116267353	
645.625	-0.1447707483	0.3027721068	
646.25	0.3147244634	-0.05211828404	
646.875	-0.06380181267	0.01783847066	
647.5	0.2889780226	0.027953011	
648.125	-0.07343568098	-0.06108661607	
648.75	0.354941257	0.07440542152	
649.375	0.1896977081	-0.4328820601	
650.0	-0.05826233285	-0.1799044963	
650.625	0.2227856626	-0.1690357384	
651.25	0.1755613216	-0.4456726277	
651.875	0.01861567204	-0.08510568042	
652.5	0.371927436	-0.0516945513	
653.125	0.1624914004	-0.2955588429	
653.75	0.08825555023	-0.08009342433	
654.375	-0.06072341414	-0.3974861174	
655.0	-0.3664977091	0.1048854127	
655.625	0.02789821978	0.09165600169	
656.25	-0.1382115714	0.2298117165	
656.875	0.2799560656	0.0033874816	
657.5	-0.1485014889	0.1576378825	
658.125	0.3175614781	0.1268723028	
658.75	0.07999518185	-0.1067127875	
659.375	0.375527624	0.03169565337	
660.0	0.1522040362	-0.4914730335	
660.625	-0.04338210874	-0.1293350434	
661.25	0.2709001807	-0.276939363	
661.875	0.1512879135	-0.3723458792	
662.5	0.05663479502	-0.1813997269	
663.125	0.3307556756	-0.145023286	
663.75	-0.03646475112	-0.370043474	
664.375	-0.02812823162	-0.1661709682	
665.0	-0.3161166656	-0.2556450136	
665.625	-0.2467465517	0.2535710805	
666.25	-0.02075764802	0.1406233217	
666.875	0.08703552067	0.2599935651	
667.5	0.273726502	-0.04096754973	
668.125	0.05529803563	0.01875833997	
668.75	0.2802916406	-0.2139684474	
669.375	-0.09505758631	-0.1941060718	
670.0	0.1182887234	-0.1237143817	
670.625	-0.04229338891	-0.3215756599	
671.25	-0.1032899018	0.05103233522	
671.875	0.2925355393	-0.144008669	
672.5	0.1391316916	-0.2845967091	
673.125	0.05750561535	-0.1366724451	
673.75	0.1859377244	-0.157202871	
674.375	-0.08278485727	-0.3611221043	
675.0	-0.02441624926	-0.073225453	
675.625	-0.2137434837	-0.1898412804	
676.25	-0.2007365813	0.1187553646	
676.875	-0.0175456256	-0.05081085718	
677.5	-0.2454582916	0.1237269086	
678.125	0.04214791203	0.1787515334	
678.75	-0.008419396744	0.1071951078	
679.375	0.2760396591	0.1660478162	
680.0	0.06538951396	-0.3035886359	
680.625	0.01562916071	0.1311052527	
681.25	0.2744410476	-0.169444817	
681.875	-0.0434051108	-0.0647012081	
682.5	0.2400899739	0.3226944384	
683.125	0.3261015182	-0.2756329899	
683.75	0.01346112272	0.09877843186	
684.375	0.5451629349	0.04014217275	
685.0	0.2740685288	-0.2226946577	
685.625	0.06044163122	0.08660309631	
686.25	0.4669613884	-0.03037627891	
686.875	0.09225261914	-0.2033167936	
687.5	0.1795982068	-0.2016983646	
688.125	-0.1044039998	-0.502696931	
688.75	-0.397308928	0.1170261796	
689.375	-0.2376713858	0.2791865133	
690.0	0.2274014719	0.4158359159	
690.625	0.2568799419	0.006093680599	
691.25	0.1639214805	0.3069614987	
691.875	0.6839927895	0.2357291324	
692.5	0.3816000561	-0.06501558041	
693.125	0.5954448689	0.1268723345	
693.75	0.6403803682	-0.4606499777	
694.375	0.0768167944	-0.3514359184	
695.0	0.6902577699	-0.2956276246	
695.625	0.4394508229	-0.3385971901	
696.25	0.2814464685	0.02893653512	
696.875	0.6667469813	0.2469252155	
697.5	0.5640362279	0.1339114516	
698.125	0.6353027099	0.09231437445	
698.75	0.3053630687	-0.4892211982	
699.375	-0.5392283816	-0.1867045061	
700.0	-0.06797270259	0.4537376426	
700.625	0.1086875591	0.2771952499	
701.25	0.3151012117	0.00912723219	
701.875	0.1340042911	0.106487552	
702.5	0.3371524338	0.3228387353	
703.125	0.44199749	-0.1014062044	
703.75	0.2051327722	-0.04295360313	
704.375	0.3621218709	-0.2557867423	
705.0	0.1180845783	-0.2537174049	
705.625	0.2564177184	0.1190239486	
706.25	0.3723867031	0.09417299313	
706.875	0.195829743	0.08264601784	
707.5	0.311916245	0.2988719858	
708.125	0.3265271189	-0.03543487732	
708.75	0.1046938015	-0.3335122668	
709.375	-0.2305441253	-0.2188865553	
710.0	-0.2253706689	0.1362758031	
710.625	0.2000357084	0.06932751726	
711.25	0.007336835099	0.1311801662	
711.875	0.3316397047	0.02040216748	
712.5	0.1176440466	-0.05396209544	
713.125	0.3664908889	-0.1063172505	
713.75	0.01866809443	-0.3141448028	
714.375	-0.0206617137	-0.09697823087	
715.0	0.002406145889	-0.3116490165	
715.625	-0.1147060217	-0.1699094035	
716.25	0.1105010797	-0.1286346476	
716.875	0.3823973963	-0.2226049422	
717.5	0.3128801	-0.257232792	
718.125	0.4307044904	-0.03396478599	
718.75	0.7066100656	-0.2103925343	
719.375	0.3752446737	-0.687076683	
720.0	0.1813715652	-0.5318235558	
720.625	0.1968065874	-1.151656707	
721.25	-0.5355788078	-0.4582563425	
721.875	-0.1184340431	-0.755133261	
722.5	-0.9107425844	-0.5063393897	
723.125	-0.5153684105	0.2689107604	
723.75	-0.5313991908	0.1000122021	
724.375	0.2782109801	0.5655049413	
725.0	0.1562303882	0.08934194418	
725.625	0.01488435224	0.5713758326	
726.25	0.3184250395	0.6736902015	
726.875	-0.01952170714	0.4041711512	
727.5	-0.2432103343	1.421186107	
728.125	0.8078999779	1.679694804	
728.75	0.369244807	1.089128273	
729.375	-0.9429246869	3.746217282	
730.0	2.081968501	2.936601307	
730.625	0.6372312235	1.778131701	
731.25	-1.262553838	3.350282374	
731.875	-0.3210474443	3.727695416	
732.5	-0.5978836201	0.2100455303	
733.125	-2.537931848	0.8303328368	
733.75	0.3991737606	1.6565044	
734.375	0.1623276713	-0.000886777378	
735.0	-0.04970968275	-0.8736763494	
735.625	-0.1011669253	0.4890975594	
736.25	-0.4357069161	0.3105073663	
736.875	0.7553801182	0.6648102398	
737.5	0.595630592	-0.5114879163	
738.125	1.084369702	0.5438479213	
738.75	1.930663585	-2.295417837	
739.375	0.01877518508	-2.102862173	
740.0	1.695467274	1.043689998	
740.625	5.947639806	-0.2459783378	
741.25	1.388612628	-1.831849087	
741.875	-4.851993299	-0.8569393466	
742.5	-3.400240544	-1.3447523	
743.125	0.02997531085	-0.1983087219	
743.75	-0.007396888211	-1.167628709	
744.375	-0.4682143095	0.3808905839	
745.0	0.002479584996	-0.04811683375	
745.625	0.1559000472	-0.07831056789	
746.25	-0.03466758531	0.007695596743	
746.875	-0.2652082522	-0.05140111631	
747.5	0.07412484206	0.3834943461	
748.125	0.2078663395	0.2141400862	
748.75	0.1522510169	0.4231002648	
749.375	0.2635750017	0.4857033569	
750.0	-0.2446690805	0.1837494052	
