!Created with skrf (http://scikit-rf.org).
# GHz S RI R (50+0j) 
!freq	ReS11	ImS11	
500.0	0.9815509641	-1.592470046	
500.625	1.874988278	-3.568967127	
501.25	-3.290571737	-2.862275636	
501.875	-0.8485197135	0.2280194251	
502.5	-0.01460394629	-0.6819267213	
503.125	-0.1315271005	0.2349995309	
503.75	-0.1461124065	0.2362716188	
504.375	0.1040637382	-0.1121721051	
505.0	0.08826977959	0.1037727153	
505.625	-0.1329456598	-0.3984788905	
506.25	0.09269736284	0.2409092172	
506.875	-0.9456873562	-0.7044096817	
507.5	-1.719144622	-0.1382736184	
508.125	1.476989421	-0.9305452483	
508.75	1.333908095	-5.054181417	
509.375	-2.084171282	-1.800193165	
510.0	-1.899024329	-1.643426461	
510.625	-0.9986285319	0.1879295524	
511.25	-0.326659855	-0.2895451308	
511.875	-0.6423677243	-0.1390251388	
512.5	-0.02888445522	0.1772365636	
513.125	-0.03266643148	-0.1074208925	
513.75	-0.1943903458	-0.5026530122	
514.375	-0.5297853364	0.3799544197	
515.0	0.8718862726	-1.172965054	
515.625	-1.631678513	0.4762705419	
516.25	1.759141374	-3.017791545	
516.875	-2.540356021	-1.757430008	
517.5	0.1672901404	0.4062698622	
518.125	-0.37338508	-0.4214306849	
518.75	0.1062189858	0.2028714287	
519.375	-0.3195583522	0.117624386	
520.0	0.5068872328	0.07228045849	
520.625	0.2581282404	-0.09395455603	
521.25	0.2456434697	-1.040267209	
521.875	-0.4110819056	0.1874560291	
522.5	-0.1588527265	-0.0938615407	
523.125	0.04351382995	0.2111352498	
523.75	-0.4747135921	-0.2579112468	
524.375	-0.09549653516	0.3849658635	
525.0	-0.3810466001	0.1531001565	
525.625	0.3392286881	0.2909100805	
526.25	-0.3058362977	-0.03597019257	
526.875	0.07785008551	0.1578401484	
527.5	-0.4508336543	0.3314547371	
528.125	0.5025684056	1.175610216	
528.75	0.08924028848	0.1764091316	
529.375	0.2153914126	0.4127167798	
530.0	-0.1965693861	0.07690049713	
530.625	0.6356046359	1.443229717	
531.25	0.6256335544	-0.04445439387	
531.875	0.9906930319	-0.3211991079	
532.5	-0.53752075	-0.1233295217	
533.125	0.5689208726	-0.4104416536	
533.75	-0.2620445344	-0.1816617335	
534.375	0.2523136241	-1.356197107	
535.0	-0.8986425941	0.2188805738	
535.625	-0.2999646939	0.05766869028	
536.25	-0.07938424677	0.3356346672	
536.875	0.2465051204	-0.1035505254	
537.5	0.2447768541	0.02928471051	
538.125	0.2519608676	-0.3340038681	
538.75	0.2633419746	-0.07448023522	
539.375	-0.2039204184	-0.625734649	
540.0	-0.4899149557	-0.09461894889	
540.625	-0.2761650092	-0.1841388725	
541.25	-0.2428264623	-0.03714272817	
541.875	-0.2167445472	0.001452334923	
542.5	0.05377987724	-0.09137366112	
543.125	-0.3734334023	-0.2134857091	
543.75	-0.01363828779	0.1382462898	
544.375	-0.2987796766	0.07801327011	
545.0	0.1675980895	0.08086585694	
545.625	-0.07433152468	0.3208863386	
546.25	0.4590336146	-0.1038956367	
546.875	0.03758240911	0.1106438185	
547.5	0.4313403085	-0.4126658515	
548.125	-0.3204275237	-0.3375825378	
548.75	-0.08333776007	-0.2532311807	
549.375	-0.3654827526	-0.3202200467	
550.0	-0.1022369292	0.1650555967	
550.625	-0.2338107599	-0.1287032648	
551.25	-0.08856777447	0.1878564757	
551.875	-0.23435384	0.03820675396	
552.5	-0.1279072988	0.2968135867	
553.125	-0.01196236605	0.113014419	
553.75	0.09853051756	0.1568586702	
554.375	0.2469758695	-0.0152013746	
555.0	0.2304197317	-0.1461355439	
555.625	0.2345924518	-0.2637174155	
556.25	0.1604198237	-0.3550942259	
556.875	-0.0784200889	-0.3893508531	
557.5	-0.2230055052	-0.2682608371	
558.125	-0.2942414774	-0.1039815542	
558.75	-0.2426641338	0.003951789302	
559.375	-0.2635102906	0.006399522765	
560.0	-0.2588451703	0.2159313938	
560.625	-0.07272081552	0.2258474388	
561.25	-0.06207129664	0.2615310964	
561.875	0.1641292646	0.07299405424	
562.5	-0.1002705069	0.1537968039	
563.125	0.2940713934	0.1294768012	
563.75	0.1681006885	0.05324698154	
564.375	0.4712191746	-0.2110279961	
565.0	0.05592441934	-0.444196774	
565.625	0.001524316932	-0.249872813	
566.25	-0.2574428635	-0.405230284	
566.875	-0.3957130256	-0.03595892738	
567.5	-0.1623493077	-0.3202511479	
568.125	-0.5066307011	-0.5049023723	
568.75	-0.4028028418	-0.04499890517	
569.375	-0.7180919731	-0.02612795635	
570.0	-0.2549642652	0.7428921189	
570.625	0.04319340406	0.1577643987	
571.25	-0.3976848842	0.4404042758	
571.875	0.3784778417	-0.1176029131	
572.5	0.213131487	0.3830377974	
573.125	0.2963316374	-0.5858951719	
573.75	-0.1579278928	-0.02904892471	
574.375	0.3958964551	-0.2510740886	
575.0	-0.2835139822	-0.1190849048	
575.625	0.3746513818	-0.04056883605	
576.25	0.0856492672	-0.5687564124	
576.875	-0.1614235075	-0.05759490591	
577.5	0.3030193249	-0.3950895184	
578.125	-0.2894032373	-0.5523245533	
578.75	-0.2023906717	-0.08052314982	
579.375	-0.0242027895	-0.3304204162	
580.0	-0.3707053516	-0.01919968524	
580.625	0.1156909329	-0.1783969474	
581.25	-0.5043720315	0.2665656345	
581.875	0.316593881	0.3468022841	
582.5	-0.1389607467	0.01409830287	
583.125	0.1498109736	0.7002491814	
583.75	0.1376834046	-0.4813812984	
584.375	0.0394540948	0.5892579546	
585.0	0.3776386905	-0.2863907923	
585.625	0.1650652531	0.4195039419	
586.25	0.6571886672	-0.4272061141	
586.875	-0.09177405518	-0.126925313	
587.5	0.2925819571	-0.3522786329	
588.125	-0.2108188518	-0.5684930251	
588.75	-0.1091246625	-0.04548662025	
589.375	0.4970316732	-0.3447819412	
590.0	-0.2702465245	-0.4778985039	
590.625	-0.2556372516	-0.1056339991	
591.25	-0.481567269	0.183924662	
591.875	0.06693178046	0.3473096307	
592.5	-0.1306806693	0.05609229407	
593.125	0.03258367221	0.1800414015	
593.75	-0.01703065787	0.118166105	
594.375	0.3340127127	0.6155649513	
595.0	0.8217097641	0.03910329699	
595.625	-0.08553453071	0.1198422941	
596.25	0.6738556491	0.4882897233	
596.875	0.2427502731	-0.318572084	
597.5	0.1605641297	0.5844017364	
598.125	0.6721101994	0.1016987824	
598.75	0.02759385552	0.2240707659	
599.375	0.8962060619	0.02903398634	
600.0	0.1852313108	-0.4492668511	
600.625	0.3163541185	-0.1766234103	
601.25	0.3778222043	-0.5051289909	
601.875	-0.2759943541	-0.2965863244	
602.5	-0.2663154633	-0.0923247577	
603.125	-0.2489387758	0.06474866607	
603.75	-0.343367399	0.1926838704	
604.375	-0.1040519229	0.1493259765	
605.0	-0.3038162192	0.1173468088	
605.625	-0.03450502098	0.2639973627	
606.25	-0.3714729019	-0.1326572988	
606.875	-0.4926038115	0.5833630739	
607.5	-0.1659526733	0.03831977812	
608.125	-0.5457409717	0.9124308468	
608.75	0.6326581449	-0.000537630966	
609.375	0.4136104067	0.36383308	
610.0	0.6148836052	-0.5269806134	
610.625	-0.05542419248	-0.05710698842	
611.25	0.2855220013	-0.6835068748	
611.875	-0.2657271169	-0.01420564207	
612.5	-0.2695354617	-0.446541825	
613.125	-0.5688789429	0.3669508842	
613.75	-0.2749553272	-0.02137652051	
614.375	0.2180585512	0.5322046422	
615.0	-0.09695233098	-0.1888482218	
615.625	0.1453191425	0.5850216981	
616.25	-0.001432185651	-0.04860016228	
616.875	-0.5351216718	0.5441654305	
617.5	0.13815447	0.7110504889	
618.125	-0.2160183003	0.1694976897	
618.75	0.07338840229	0.7250704134	
619.375	0.2154198179	0.179200623	
620.0	0.4572564548	0.336500742	
620.625	0.1618792083	-0.4090044046	
621.25	-0.04000138188	-0.4500697159	
621.875	-0.5539183007	-0.1760630728	
622.5	-0.3966511497	0.02669872869	
623.125	-0.1956497623	0.6138459287	
623.75	0.1509522778	-0.1649658297	
624.375	0.492363333	0.06951551696	
625.0	-0.3117872871	-0.04319809064	
625.625	0.5091836051	-0.1333823649	
626.25	-0.4913968323	-0.399448624	
626.875	0.114190089	-0.1333142404	
627.5	-0.6644894916	-0.2601742748	
628.125	-0.1753756671	0.1305550834	
628.75	0.07492321227	-0.5524532205	
629.375	-0.5348105765	-0.274728788	
630.0	-0.1439816098	-0.2582520551	
630.625	-0.6560302543	-0.01695000488	
631.25	-0.3632374602	0.5931567692	
631.875	-0.02276850775	0.5187783018	
632.5	0.1941951222	0.4206947599	
633.125	0.5945838369	0.2678886111	
633.75	0.3009517203	-0.2423269427	
634.375	0.2754624227	-0.1979873536	
635.0	-0.185844553	-0.4619254148	
635.625	-0.07534618439	-0.2361176795	
636.25	-0.6053367831	0.1505116857	
636.875	0.08980374078	0.407608183	
637.5	-0.2030363781	-0.2190454947	
638.125	-0.2357950815	0.7790157063	
638.75	0.09873086922	-0.03329380159	
639.375	-0.4207027785	0.6710044481	
640.0	0.6284578335	0.6838789269	
640.625	0.3225096967	0.1002024456	
641.25	0.9052786417	0.4020427748	
641.875	0.1471817743	-0.6607439756	
642.5	0.291778483	-0.2190668786	
643.125	-0.4224753549	-0.7254107854	
643.75	-0.2694697566	0.3642993729	
644.375	-0.3371265178	-0.4770693166	
645.0	-0.5314993146	0.5337885691	
645.625	0.3581924097	0.4591496105	
646.25	-0.043436727	0.07648297534	
646.875	0.7521506373	0.127484136	
647.5	-0.3438776093	-0.03397543777	
648.125	0.7321072766	0.3641566807	
648.75	0.3468406515	-0.6111741982	
649.375	0.6501641344	0.2172935322	
650.0	0.7810612717	-1.412362428	
650.625	-0.4005380475	-0.5905600251	
651.25	0.8590234503	0.1544670333	
651.875	1.056001049	-1.008621632	
652.5	-0.0166509876	-0.3267660114	
653.125	0.9697232328	0.2281014421	
653.75	0.3988022851	-1.010463462	
654.375	-0.06068523371	-0.1934336622	
655.0	-0.6331658932	-0.8898253073	
655.625	-0.3381799778	0.9209487544	
656.25	0.06297433075	-0.02989012869	
656.875	-0.04833262992	0.5540374707	
657.5	0.3053335017	-0.07902595185	
658.125	-0.0893068805	0.6242024237	
658.75	1.039510406	0.141928474	
659.375	0.5180093746	-0.400745536	
660.0	0.5913703618	-0.2665514745	
660.625	0.6653893176	-1.270465504	
661.25	-0.275522185	-0.5654520309	
661.875	0.896511892	-0.08764723273	
662.5	0.8953058932	-0.9331830557	
663.125	0.04387912271	-0.4711161188	
663.75	1.009586679	-0.4211313985	
664.375	-0.6151643608	-0.895623658	
665.0	-0.0834036387	-0.4179387442	
665.625	-1.213596791	0.05915820645	
666.25	0.1469595501	0.7629370473	
666.875	-0.1080807263	0.309799337	
667.5	0.5846633208	0.5035527961	
668.125	0.5112029349	-0.3180310019	
668.75	0.3152063645	-0.02740650079	
669.375	0.4896102419	-0.7200486796	
670.0	-0.2058301152	-0.3462794208	
670.625	0.2259089223	-0.430816258	
671.25	0.05022241961	-0.619243433	
671.875	0.1392631937	-0.1245704444	
672.5	0.7607098614	-0.3294982072	
673.125	0.4531548903	-0.7020097216	
673.75	0.02319542176	-0.3120535166	
674.375	0.6076766534	-0.4168070462	
675.0	-0.5987254585	-1.056083706	
675.625	0.03882528426	0.2260816137	
676.25	-0.8431746447	-0.5467164437	
676.875	-0.2156055945	0.5431970777	
677.5	-0.4091699358	-0.6773540289	
678.125	-0.2872910536	0.9842407992	
678.75	-0.08290048025	-0.007703404753	
679.375	0.3726065673	0.5852294881	
680.0	0.733618735	-0.4378017774	
680.625	-0.3469523556	-0.2008703497	
681.25	0.555094181	0.2685945205	
681.875	0.4102673101	-0.1039461004	
682.5	0.3095146426	0.1090887948	
683.125	0.5736700817	0.5027463737	
683.75	0.7087490775	-0.1140195809	
684.375	0.4425018584	0.1692704074	
685.0	0.8334544492	0.4486206007	
685.625	0.8318671426	-0.6053469644	
686.25	0.1087630882	0.6787191654	
686.875	1.714922941	-0.8442336287	
687.5	-0.4207918594	-0.4885655979	
688.125	0.9040899882	-1.06165903	
688.75	-1.843596473	-0.4932537514	
689.375	-0.04198154844	0.06438785763	
690.0	-0.109277108	1.672423796	
690.625	0.6938578476	0.02197989433	
691.25	0.2502981705	1.072266575	
691.875	1.604810816	0.6629700477	
692.5	1.061578916	0.3597698852	
693.125	1.621970889	0.1600257492	
693.75	1.386295378	-0.6402381224	
694.375	1.126920587	-0.8145118064	
695.0	0.9517785057	-0.8747781693	
695.625	1.012336912	0.2041675476	
696.25	1.793344714	0.2424705078	
696.875	0.4933114251	0.4712578878	
697.5	0.9301786402	2.044392326	
698.125	1.511498207	-0.2846362529	
698.75	1.376025811	0.03373367946	
699.375	-1.467241526	-1.534520974	
700.0	0.08956155514	0.6547396991	
700.625	-0.2753458878	1.419807994	
701.25	0.7453449383	-0.07603174508	
701.875	0.1219389637	0.8688714858	
702.5	1.459304228	0.5055747181	
703.125	0.3994428245	0.2995984848	
703.75	1.37580601	-0.1090159772	
704.375	0.2144037787	-0.7349966869	
705.0	0.865371481	0.3078014737	
705.625	0.8059034284	-0.7079319897	
706.25	0.01924719863	0.4896350876	
706.875	1.00406784	1.299328664	
707.5	0.6270382301	0.1056030107	
708.125	1.10399879	1.01265276	
708.75	0.7204689589	-1.369143096	
709.375	-0.2181953415	-0.4065302998	
710.0	-0.9396181651	0.4739944137	
710.625	0.460737126	0.2297652584	
711.25	0.0504254848	0.4342503045	
711.875	0.5320381237	0.1927951723	
712.5	0.8997540695	0.1533763266	
713.125	0.4750302595	-0.6015447691	
713.75	0.4637747382	-0.2737982715	
714.375	-0.01360966731	-0.901054954	
715.0	-0.1812870143	-0.0354245991	
715.625	0.5124777757	-0.9703419172	
716.25	-0.4083028083	-0.6612286562	
716.875	1.014435971	0.4398652643	
717.5	2.518048513	-0.4901927995	
718.125	0.02656356431	-1.108011541	
718.75	2.936874082	1.782952769	
719.375	1.900612617	-2.79805564	
720.0	0.776374706	-1.147982493	
720.625	2.159256511	-3.345396072	
721.25	-1.496109552	-2.230760659	
721.875	0.7888682181	-2.821196435	
722.5	-1.746512858	-2.55032353	
723.125	-2.040457303	0.2568427388	
723.75	-0.9283820728	0.4008662492	
724.375	-0.1540966551	1.597113423	
725.0	0.7632442742	0.7237179889	
725.625	0.1332559553	0.7093988119	
726.25	-0.3448757504	2.153238223	
726.875	1.422101913	2.56620697	
727.5	-1.870694524	2.026844233	
728.125	-0.7993901483	8.644018794	
728.75	3.72667216	5.355780349	
729.375	-11.68886755	4.262858854	
730.0	6.993325199	17.67059114	
730.625	2.86580814	0.6176327737	
731.25	-10.30396767	11.32590998	
731.875	-8.466652806	13.78368814	
732.5	-1.83052813	1.163463304	
733.125	-9.692315669	-1.837931322	
733.75	-1.577196691	4.109555144	
734.375	0.9306395642	0.5757631695	
735.0	1.135412256	-2.524829113	
735.625	-0.5766836798	1.22797779	
736.25	-1.003435057	0.7427821641	
736.875	1.202735302	2.045433235	
737.5	3.761315964	-0.07451820941	
738.125	0.6808210648	-1.523001772	
738.75	10.04558642	-0.6637630871	
739.375	4.992583861	-10.76157284	
740.0	-3.405466659	3.047028671	
740.625	24.52239351	3.282333455	
741.25	6.810657948	-15.24837203	
741.875	-11.56710359	-8.392070749	
742.5	-13.93620372	-0.6489424224	
743.125	0.781052641	3.029322097	
743.75	2.988621539	-3.812180828	
744.375	-2.539106923	0.3776815339	
745.0	0.06479091078	-0.1091457415	
745.625	0.4613482063	-0.01092558612	
746.25	-0.06545433782	-0.03707836344	
746.875	-0.3244690834	-0.1586592843	
747.5	0.1137262146	1.325023909	
748.125	0.5536365718	1.271507684	
748.75	0.6162289221	1.545834844	
749.375	1.500213113	1.603097338	
750.0	-0.7445376809	0.4599299292	
