!Created with skrf (http://scikit-rf.org).
# GHz S MA R 50.0 
!freq magS11 angS11
500.0 0.0180605835904 -164.937995451
500.625 0.00979474558728 78.9223608524
501.25 0.00822022425475 -85.5094836126
501.875 0.0164695586305 -144.691027517
502.5 0.0461805998904 177.367581163
503.125 0.0186467902607 102.880267009
503.75 0.0069526310969 44.28689983
504.375 0.0188594760642 -54.9455444718
505.0 0.00339207965018 21.6689881993
505.625 0.0170327282999 -68.3316455118
506.25 0.0305633885435 -123.125264956
506.875 0.0749612674543 -90.3109970159
507.5 0.0433070960817 -117.64669844
508.125 0.0627593921728 -82.9447200712
508.75 0.0643992973738 -120.575256428
509.375 0.0499307421539 -140.928010005
510.0 0.0387084225146 -118.980859211
510.625 0.0380752220489 -155.038070567
511.25 0.0564498071574 -173.325720551
511.875 0.0595243991737 153.091151299
512.5 0.0373789467474 95.0428559598
513.125 0.0466269332211 40.4391777023
513.75 0.056713366557 42.4245649969
514.375 0.0317960241234 -12.0535001045
515.0 0.0449778997119 -1.74560194263
515.625 0.0666292023561 40.0775046197
516.25 0.104688986584 31.6663141409
516.875 0.0963479920456 63.2864900129
517.5 0.123369155847 21.2778564372
518.125 0.189549814471 66.0265112151
518.75 0.0957127703678 17.5890692538
519.375 0.057371929307 14.0646332045
520.0 0.0831474582678 -6.38832133475
520.625 0.0927130658556 -11.9359281584
521.25 0.0969597156023 -20.7005265984
521.875 0.0587290721246 -5.34749580112
522.5 0.0917975941668 -33.0076410464
523.125 0.179013455693 -39.0029117914
523.75 0.219140388587 -56.47361162
524.375 0.205722336274 -53.8228653618
525.0 0.0685890661238 -52.6696747674
525.625 0.0380895688586 -31.1637831664
526.25 0.0544753187419 -5.07112434904
526.875 0.0549390935051 -22.599705994
527.5 0.0392650022411 -34.1628801983
528.125 0.0402894479795 -59.883082334
528.75 0.0781936224464 -71.9546928305
529.375 0.0744083762793 -117.703912319
530.0 0.0516416619035 -128.015842604
530.625 0.0400231928615 -139.201601628
531.25 0.125403312143 -136.744411143
531.875 0.17389422037 -146.98406073
532.5 0.141774164866 -169.498650492
533.125 0.097936868487 175.401573664
533.75 0.133180694132 167.208579162
534.375 0.0980028312458 177.402060552
535.0 0.0788233352018 161.018839653
535.625 0.0567307907099 173.108440117
536.25 0.0704157335748 164.063018783
536.875 0.0813425731514 -161.791500388
537.5 0.103653949214 -145.146689645
538.125 0.105883519989 -172.99122908
538.75 0.113700726256 -178.882014331
539.375 0.0763732983827 -161.916982114
540.0 0.0813345950962 -150.588979828
540.625 0.12982831154 -155.621728559
541.25 0.131874988734 -141.2161978
541.875 0.098460626591 -143.553728707
542.5 0.116436300898 -144.272115368
543.125 0.139643229652 -166.081009956
543.75 0.138863943196 160.58854763
544.375 0.0877482980319 134.280309971
545.0 0.0805531013319 92.0674326242
545.625 0.0880890590344 82.6743147783
546.25 0.101217187481 67.6575465808
546.875 0.0765660921698 54.7087780777
547.5 0.100319421635 59.7998613372
548.125 0.115999917364 79.0120078702
548.75 0.0976724455398 90.6167507981
549.375 0.0873286019306 87.2230503648
550.0 0.0748509472064 124.841689481
550.625 0.0400754825941 156.436128013
551.25 0.0454781252627 -150.355746856
551.875 0.05637693362 -151.964683245
552.5 0.102448101374 -160.831218697
553.125 0.0945497600325 -167.952714886
553.75 0.0955699936919 -172.777034661
554.375 0.0958817360217 172.971722953
555.0 0.116223511284 166.681677312
555.625 0.0924517258151 158.653733351
556.25 0.102382038622 160.975560584
556.875 0.115547871631 166.737751596
557.5 0.115118576939 166.809137901
558.125 0.100532561978 164.357460024
558.75 0.0904878057824 176.152205968
559.375 0.0521869979247 -169.971990979
560.0 0.0391306954442 -140.844791073
560.625 0.0528176750922 -133.587300171
561.25 0.0935388682376 -156.046620394
561.875 0.0916581165369 -156.053352073
562.5 0.0918395799545 174.610879939
563.125 0.10098113701 146.459026316
563.75 0.13927094274 128.384540646
564.375 0.0956451859769 123.212579644
565.0 0.0798811017281 122.418207608
565.625 0.0740350543347 119.627436567
566.25 0.104819296164 147.984598792
566.875 0.0674762510544 -175.2377813
567.5 0.0743468256906 -177.533022395
568.125 0.0864920865318 -173.403570693
568.75 0.0703179095478 -147.191452251
569.375 0.0527434479092 -117.034813859
570.0 0.0618202342363 -108.369132029
570.625 0.0865713744073 -116.297714719
571.25 0.0934092540287 -124.025547244
571.875 0.0885724251504 -129.023133533
572.5 0.112888562513 -157.094739926
573.125 0.14619961346 -176.969812108
573.75 0.105493318753 161.86182401
574.375 0.0809991551884 151.097530978
575.0 0.106292553034 155.851687923
575.625 0.103103219202 157.567557577
576.25 0.0947472760151 142.30762079
576.875 0.0761562085128 135.43264832
577.5 0.0774682227519 138.786376561
578.125 0.052870719538 163.781382757
578.75 0.0515275973842 157.646168108
579.375 0.0519338662599 170.937038417
580.0 0.0684956836597 -178.661870427
580.625 0.0794393587753 -154.060406294
581.25 0.0899532440067 -165.905552931
581.875 0.116779669219 177.906308211
582.5 0.115962519086 -175.143523897
583.125 0.0902098888471 -163.716792763
583.75 0.0825927782379 -166.880130423
584.375 0.106582074249 -164.489804682
585.0 0.0861478251477 -133.451091144
585.625 0.0717640457377 -144.052241182
586.25 0.0710217939436 -139.689776869
586.875 0.0846028435293 -143.19115287
587.5 0.0734304339144 -143.512397707
588.125 0.0587016244405 -167.81999587
588.75 0.0686006394628 -164.764921784
589.375 0.0824901800849 -160.130136557
590.0 0.0962954920444 -157.004007247
590.625 0.107116086971 170.508684309
591.25 0.121083633624 156.936330056
591.875 0.103003809616 150.38573172
592.5 0.0584412502069 162.554316883
593.125 0.0629883335499 162.705351743
593.75 0.0755607302128 172.626482429
594.375 0.0595852570169 -162.254254876
595.0 0.0471575202055 -108.305076871
595.625 0.0646469499785 -92.7372491582
596.25 0.0755631743607 -76.8724359811
596.875 0.0649921192419 -82.5356919154
597.5 0.0672423177653 -46.3071289322
598.125 0.0726601277618 -52.3572788994
598.75 0.0777752160902 -65.0644726092
599.375 0.083606139245 -71.0323574042
600.0 0.102423249089 -64.8546087367
600.625 0.101508161288 -65.4531978581
601.25 0.084518975377 -74.2474886484
601.875 0.0691907643011 -96.8489087648
602.5 0.066825196278 -59.7721885224
603.125 0.0471736789413 -41.0948597682
603.75 0.0278726231537 -26.2846150229
604.375 0.0374632641662 -28.1836946755
605.0 0.0589449715975 -18.3174072826
605.625 0.0521256208087 -5.61712511307
606.25 0.0267888345646 11.0756136957
606.875 0.0358627216313 47.1802780735
607.5 0.0459866471159 37.8265530799
608.125 0.0681118564784 26.1747134007
608.75 0.0648005996491 29.9011405548
609.375 0.0574478358604 26.2789765324
610.0 0.0715653088565 47.0025787788
610.625 0.0644789097614 38.404270754
611.25 0.0514584075407 29.1861029633
611.875 0.037551888038 50.7946919434
612.5 0.0129490997939 42.1717738384
613.125 0.0504617426505 129.156425141
613.75 0.0617547801106 123.667290588
614.375 0.0516931033449 128.780772022
615.0 0.0140913317047 103.553787458
615.625 0.0581562008661 135.468390803
616.25 0.0510663166801 135.684154347
616.875 0.0524435535332 135.918861836
617.5 0.0161954373451 107.465579951
618.125 0.0538711263298 137.531299762
618.75 0.0352816037777 145.315971664
619.375 0.0292608965059 162.575526705
620.0 0.0144569648768 -24.0409024908
620.625 0.0174574662396 -152.045865836
621.25 0.040676423992 -121.634453334
621.875 0.0681968679547 -122.943677756
622.5 0.0706625338224 -148.199039616
623.125 0.092435761151 162.824758869
623.75 0.0653494883113 163.345992676
624.375 0.0551682020352 -173.581234557
625.0 0.0339225480611 -136.192075212
625.625 0.0426063725868 -155.257745161
626.25 0.0225285068122 170.467867146
626.875 0.00931155363863 32.7290964167
627.5 0.0241232536099 -24.9885805021
628.125 0.0498341067842 -4.27067909083
628.75 0.0360178014495 -22.7614690817
629.375 0.0421941227459 -10.4597317146
630.0 0.0641756143923 -7.16214611365
630.625 0.0785595203354 19.3734215109
631.25 0.0677849421728 2.30772108177
631.875 0.0638844866275 0.700841271405
632.5 0.0596073708617 -6.71605550334
633.125 0.0500263874357 25.4138127842
633.75 0.0489668383064 -26.464016554
634.375 0.0428797281651 -10.0926728337
635.0 0.0378647804839 8.80173085204
635.625 0.0433051478807 46.6674668624
636.25 0.0514226753684 35.1729794549
636.875 0.0664823415321 39.4337244558
637.5 0.0361004805502 29.5436063914
638.125 0.0410522478019 70.4021084699
638.75 0.0927010732634 79.8856972007
639.375 0.0781473016525 79.4294486609
640.0 0.0645942241767 94.1915294982
640.625 0.0535554337343 101.851045306
641.25 0.0850691510185 129.670573565
641.875 0.0560631866653 137.693178429
642.5 0.0602959220576 163.833243055
643.125 0.058395408882 160.77444857
643.75 0.0838560698933 177.920451135
644.375 0.0742436409072 -171.747152072
645.0 0.0776653150018 -178.162288474
645.625 0.0867648708739 167.40729113
646.25 0.106220190729 170.13406019
646.875 0.0539526034477 157.943919199
647.5 0.0568355660332 -179.549511169
648.125 0.0737821023771 177.765037028
648.75 0.0880668742553 -157.794302879
649.375 0.0397764729997 -167.982151398
650.0 0.0428985996525 -116.872311862
650.625 0.0770705399669 -87.7887592792
651.25 0.0746860346077 -64.932863718
651.875 0.0627173262616 -43.6649464619
652.5 0.0884507527427 -23.6810636553
653.125 0.123940418564 -0.890533487298
653.75 0.120869233244 6.65580236463
654.375 0.0927866988256 1.53055245045
655.0 0.101183376049 8.96084850208
655.625 0.0900529377128 20.4581946818
656.25 0.066627119976 23.3124662571
656.875 0.0628342934048 2.70566851014
657.5 0.0806372795149 22.9974126234
658.125 0.0603472673526 48.3413645592
658.75 0.0606822045379 63.7813488589
659.375 0.094111381211 36.7388546143
660.0 0.092891289083 27.2252639737
660.625 0.101267303419 18.8594678028
661.25 0.106109480535 4.96707850421
661.875 0.137230479823 -13.8019723294
662.5 0.11237685788 -21.4598374415
663.125 0.11263147724 -14.6297246897
663.75 0.101802755714 5.22478379217
664.375 0.112235091939 55.0991098261
665.0 0.0768643415827 91.9898113443
665.625 0.0567709216282 108.872177135
666.25 0.095722892316 127.793334931
666.875 0.0854957191657 174.240512506
667.5 0.0972856492011 -168.816951855
668.125 0.0959714160856 179.250820435
668.75 0.14142282253 164.988081154
669.375 0.122844256069 175.959589872
670.0 0.0860271618129 -170.147279545
670.625 0.0877430905357 -172.420441905
671.25 0.112657477986 175.328727054
671.875 0.109985739146 168.215768555
672.5 0.0750291620563 157.71310098
673.125 0.0889372101092 152.076835086
673.75 0.123077490118 155.151571503
674.375 0.0954588798013 173.500099813
675.0 0.107678559387 -172.240496411
675.625 0.125225741592 -151.891676762
676.25 0.13360433197 -127.745079263
676.875 0.0992216639173 -118.892155987
677.5 0.121719803908 -127.186058851
678.125 0.131564302622 -116.937004627
678.75 0.070495407445 -93.8528737642
679.375 0.0596024362578 -78.8472082182
680.0 0.0793370021912 -80.7821986849
680.625 0.116529981454 -72.2789887056
681.25 0.0995636955382 -70.3386148751
681.875 0.105179558298 -96.9876429535
682.5 0.122910752766 -112.812093969
683.125 0.16768314544 -122.069717918
683.75 0.141023872058 -107.359483024
684.375 0.118858000691 -78.6056703251
685.0 0.143106245533 -42.8320808067
685.625 0.131441196885 -2.42699541944
686.25 0.107680545621 22.8841349021
686.875 0.0908357103038 45.2211976539
687.5 0.0867563120468 78.3650000885
688.125 0.0829695948204 109.240397493
688.75 0.102052278615 117.567351574
689.375 0.145199121871 119.305471796
690.0 0.142856233997 129.595538954
690.625 0.110612837436 133.014071569
691.25 0.136726311181 102.47613277
691.875 0.171986465777 68.8258278934
692.5 0.157302914691 37.0946599005
693.125 0.0832517712865 -13.7542160085
693.75 0.0964980441495 -39.018086112
694.375 0.141291181983 -31.8388383149
695.0 0.131900809037 10.8751900553
695.625 0.107033508721 48.7041696555
696.25 0.108448178495 122.786574531
696.875 0.138198661718 174.399395534
697.5 0.14263819676 -147.983056337
698.125 0.143262911955 -135.686344813
698.75 0.116240396654 -123.536897621
699.375 0.10607651152 -121.528779482
700.0 0.0973119861841 -113.58452907
700.625 0.120467307172 -97.2410485756
701.25 0.0892269046724 -55.4767785577
701.875 0.0805607466791 -52.6161409965
702.5 0.100096253639 -83.6662356916
703.125 0.171422452886 -130.251173882
703.75 0.176191358607 -151.263935017
704.375 0.127762151722 172.180983127
705.0 0.112989671566 155.4515336
705.625 0.146355637313 -170.966475969
706.25 0.154695759008 -118.369438335
706.875 0.0903155911021 -63.2320325
707.5 0.0723539309167 -27.5024600073
708.125 0.0925160745989 17.050219918
708.75 0.112439832941 55.9403994956
709.375 0.102568651851 109.827742501
710.0 0.10444578699 136.597559378
710.625 0.104337283589 157.246370362
711.25 0.118102676129 164.846463842
711.875 0.141076606689 165.565277816
712.5 0.15203116771 147.661132476
713.125 0.127515825325 98.846984441
713.75 0.108045047201 37.6229623283
714.375 0.108867669464 39.9670731348
715.0 0.111078358714 32.1888775288
715.625 0.0828632734883 47.4215499585
716.25 0.0816701181279 75.917059617
716.875 0.110271534845 94.9383575128
717.5 0.150967787211 150.770173607
718.125 0.121527757694 175.17122825
718.75 0.0999422132147 175.266648601
719.375 0.109529971993 177.487199209
720.0 0.131090554021 -129.49196332
720.625 0.115446686826 -74.6729891598
721.25 0.0938439803428 -14.2664039283
721.875 0.0875404763084 17.4590055476
722.5 0.0683511223513 73.6821044428
723.125 0.0839429549439 71.0479142273
723.75 0.110994200027 44.3169445954
724.375 0.0958167437773 -14.7533524045
725.0 0.111123304745 -27.4550123043
725.625 0.105862046857 -64.2908776326
726.25 0.111587522652 -72.7374440143
726.875 0.102803070301 -50.9421747521
727.5 0.0812490760473 -39.8033047881
728.125 0.0850953604299 -4.1465484763
728.75 0.109825453621 33.6164170189
729.375 0.0903855522068 20.5208887221
730.0 0.0534043381779 -15.9191086509
730.625 0.0719245399567 25.8320839156
731.25 0.0727640462845 68.3214639681
731.875 0.0682476288612 116.894135411
732.5 0.0731018945344 150.473914662
733.125 0.067781593982 161.57064044
733.75 0.0748914203936 170.427673323
734.375 0.0815158841166 178.857873355
735.0 0.0273972959104 118.026589632
735.625 0.0929944675398 157.684091937
736.25 0.0468476721338 146.485281342
736.875 0.0649266431309 171.881354616
737.5 0.0484650837211 -170.763407049
738.125 0.094191659229 -169.005444137
738.75 0.0768048758997 -173.490585733
739.375 0.0325093065522 -144.477160349
740.0 0.0470894615093 -148.729692595
740.625 0.0263785334579 -140.997913425
741.25 0.0524213336347 -157.754241977
741.875 0.0648041303413 -109.345050644
742.5 0.051334713491 -14.3777386661
743.125 0.017680071513 114.872354123
743.75 0.0466253797673 78.5391682833
744.375 0.0423953621069 104.287170076
745.0 0.0458774264163 132.916168154
745.625 0.0624753169244 140.327264812
746.25 0.0942926600817 69.0181685037
746.875 0.0768695239643 34.9259870354
747.5 0.0580730416296 6.05175041346
748.125 0.0117982031621 31.3866013889
748.75 0.0211643933522 33.3100310414
749.375 0.0377203455577 -39.0094668244
750.0 0.0272495710283 -101.237953529
