!Created with skrf (http://scikit-rf.org).
# GHz S MA R 50.0 
!freq magS11 angS11
600.0 0.676976083757 107.78705595
600.125 0.629645478709 131.290700997
600.25 0.867663425667 91.1557345526
600.375 0.720253893712 101.344832143
600.5 0.53888366515 126.059235213
600.625 0.75342214414 99.7091541516
600.75 0.609904419878 124.525872803
600.875 0.800675987845 98.9532177004
601.0 0.667999361371 109.308311213
601.125 0.53218709851 113.361494554
601.25 0.635376026513 107.852637929
601.375 0.638248155287 103.153732899
601.5 0.820559475162 88.9191730531
601.625 0.701766262264 98.8610659809
601.75 0.551949741895 157.552491942
601.875 0.670842385469 107.502105573
602.0 0.759788974763 94.6515165093
602.125 0.706118493627 89.5942871335
602.25 0.664419113153 94.7664175254
602.375 0.502591720464 165.641964685
602.5 0.750446742622 99.8189475372
602.625 0.683921349045 98.1630480378
602.75 0.822032216343 82.0282001151
602.875 0.653136236056 89.0446291456
603.0 0.454699698814 169.511377449
603.125 0.436470684533 163.218890104
603.25 0.692646514406 95.3471916066
603.375 0.489385304794 133.883465189
603.5 0.614313603068 84.8009245856
603.625 0.340889541599 151.152866407
603.75 0.15683881033 153.552523593
603.875 0.557825468369 82.2216685222
604.0 0.387467555046 119.421574742
604.125 0.637944300715 79.4102240869
604.25 0.435335952214 177.79371364
604.375 0.384001343664 96.2552054836
604.5 0.597766106926 69.6812681023
604.625 0.234292591287 132.871836956
604.75 0.247344476074 151.956206688
604.875 0.516444760079 81.6673234591
605.0 0.307786762447 123.549773468
605.125 0.705156510996 51.6595484218
605.25 0.369925507752 81.8663855412
605.375 0.168906303836 60.9767586898
605.5 0.257809813888 65.3386925996
605.625 0.169708331591 167.720250986
605.75 0.643479799743 50.4720745951
605.875 0.164460408714 79.7169407045
606.0 0.38682956017 40.0496251224
606.125 0.135474236562 59.0196252584
606.25 0.172024592596 51.1464986444
606.375 0.757923077361 34.4351765475
606.5 0.655147261168 32.3236154815
606.625 0.197664728738 -148.606490045
606.75 0.660159730542 21.3382312325
606.875 0.545051639256 25.784774921
607.0 0.758931515254 17.7881367397
607.125 0.610780591245 26.8702467624
607.25 0.0623616426979 -102.934211977
607.375 0.68706404008 15.1845835166
607.5 0.424424605054 10.3693459803
607.625 0.866525556992 8.45034695577
607.75 0.644673977796 8.76276255397
607.875 0.100859630756 -85.211433215
608.0 0.324015098072 -9.65269034498
608.125 0.867572800243 1.32932844027
608.25 0.759729406209 4.78618798228
608.375 0.525345361661 -6.44269063323
608.5 0.657573916303 -6.51547983592
608.625 0.525931326969 -5.87211476577
608.75 0.304696007787 -26.1773657809
608.875 0.761512433219 -1.63582082878
609.0 0.57179416239 -1.09266827554
609.125 0.909836523828 -6.09676738912
609.25 0.712121336867 -10.9882105738
609.375 0.477340679656 -10.9533724654
609.5 0.814054130126 -5.10880655343
609.625 0.761236392013 -7.99029092392
609.75 0.647401359223 -12.8403809884
609.875 0.900194313923 -9.19506143674
610.0 0.431714186177 -15.782675566
610.125 0.687578543096 -13.0809764116
610.25 0.884831608166 -11.3868922399
610.375 0.751253235335 -16.2125580305
610.5 0.838315839897 -11.369722917
610.625 0.548150766499 -11.1409288922
610.75 0.860080258131 -12.1892838532
610.875 0.873334681837 -10.446246111
611.0 0.916762154618 -12.2755609886
611.125 0.897537153375 -13.9726332691
611.25 0.572598905407 -8.15874688044
611.375 0.79049456011 -7.74717319565
611.5 0.921600492652 -13.0515525842
611.625 0.744914824436 -7.9904181199
611.75 0.887417647533 -13.5432042804
611.875 0.757855347921 -12.4236280087
612.0 0.688253559942 -9.37808508711
612.125 0.930427732691 -9.05952233187
612.25 0.821607581205 -9.12402640722
612.375 0.935388032584 -9.56817962282
612.5 0.760227414144 -7.19772023055
612.625 0.796083273734 -9.8788587168
612.75 0.875547779799 -11.0958402234
612.875 0.846665784369 -6.75926001259
613.0 0.966828929058 -13.4555884238
613.125 0.738531816051 -5.83110290093
613.25 0.793962505219 -7.5334465926
613.375 0.90471408124 -14.4984282511
613.5 0.858442616534 -10.5370682769
613.625 0.806742996159 -8.00455007982
613.75 0.919375846712 -10.9824357272
613.875 0.788452429685 -7.7315828486
614.0 0.950286426501 -12.7330499133
614.125 0.844799763195 -11.092612939
614.25 0.822659479978 -9.72175952584
614.375 0.845034634351 -6.24383624254
614.5 0.787982706634 -3.10704655666
614.625 0.914225044275 -12.29654771
614.75 0.82580879294 -5.51429980227
614.875 0.889258660566 -13.1407758652
615.0 0.851412866335 -11.1321992049
615.125 0.793653440661 -2.70361144374
615.25 1.0040858795 -13.4894330084
615.375 0.910764825231 -13.8633253332
615.5 0.714371196524 2.79431120633
615.625 0.910493667751 -14.2532742525
615.75 0.831789647273 -11.6755976101
615.875 0.910020359906 -11.8909476675
616.0 0.910372628983 -9.52567921417
616.125 0.751725929389 0.646799701674
616.25 0.892023795296 -14.2422173113
616.375 0.774707440081 -4.63285520392
616.5 0.898786157045 -16.5383275418
616.625 0.797883276631 -7.44598433707
616.75 0.687078648973 13.9477825574
616.875 0.837047134132 -12.8964539218
617.0 0.861169718306 -15.5227939589
617.125 0.674383076762 -4.83149216723
617.25 0.825528918249 -16.7233442169
617.375 0.726575888913 -6.71449936387
617.5 0.654691916363 10.4297908356
617.625 0.845193530727 -15.510847088
617.75 0.819767129219 -17.7785497657
617.875 0.59291533122 6.2609740073
618.0 0.764225756741 -17.7872955242
618.125 0.620060146853 -0.240479612233
618.25 0.817205131326 -25.4915390069
618.375 0.754370191118 -10.9666975528
618.5 0.631453789885 -4.74535261496
618.625 0.64934881605 -17.6353395032
618.75 0.542659774707 9.86574491104
618.875 0.719224245023 -28.4026664124
619.0 0.698487449783 -25.282310593
619.125 0.580548325697 22.6920838759
619.25 0.667349241183 -13.4222521411
619.375 0.667622644237 -30.8618275893
619.5 0.607141252977 -22.7082140533
619.625 0.458971081068 7.057432042
619.75 0.409025492372 19.8407789164
619.875 0.652263588681 -31.6204148977
620.0 0.475174371956 -9.62495446274
620.125 0.634386609593 -41.7753517006
620.25 0.463950399179 33.9422963882
620.375 0.33851167468 -21.1148880405
620.5 0.563835681009 -39.2519078135
620.625 0.371801093137 14.634640397
620.75 0.447465708978 47.6600540782
620.875 0.50742968835 -41.5280093905
621.0 0.767923262763 -60.4187087659
621.125 0.584855884191 -48.3125314959
621.25 0.316892714274 40.8203121764
621.375 0.55462794465 -54.8592416532
621.5 0.370774999721 -19.8166123636
621.625 0.740538085564 -70.789636129
621.75 0.471771741312 -46.0295742031
621.875 0.218272094778 -1.42228115327
622.0 0.355837928131 -62.5218979473
622.125 0.224156608087 7.58034771995
622.25 0.773387326549 -82.0593450871
622.375 0.591359865331 -74.7056366054
622.5 0.372327644886 59.6350640661
622.625 0.247622462994 -80.0291740565
622.75 0.495790422802 -85.6865356848
622.875 0.438859714179 -95.2545811861
623.0 0.599888707922 -81.6648947049
623.125 0.313449687475 68.1674764243
623.25 0.386449555163 -83.8959114168
623.375 0.556414394029 -89.5948729043
623.5 0.751501864548 -99.6482068199
623.625 0.609527246698 -90.4393277986
623.75 0.238674565814 77.7872019097
623.875 0.142762057405 91.3844957621
624.0 0.539404457429 -102.144483347
624.125 0.123595094673 -74.9918114215
624.25 0.504242281831 -96.9115028592
624.375 0.0833591285238 -74.5795000645
624.5 0.101622418712 139.896877965
624.625 0.598614308913 -110.102904262
624.75 0.178165224073 -120.714988425
624.875 0.63298779238 -102.500986839
625.0 0.0908330555538 98.419193385
625.125 0.219820475204 -117.135481145
625.25 0.647253525178 -110.448851356
625.375 0.277569350216 -126.849768268
625.5 0.116323517687 -156.299539073
625.625 0.604092834266 -101.621820522
625.75 0.279083053198 -97.7947623119
625.875 0.789869040785 -108.226079771
626.0 0.559965178757 -108.922600012
626.125 0.296827131253 -121.974749127
626.25 0.439966708473 -104.749536947
626.375 0.168425070479 -124.848876347
626.5 0.710796818499 -106.392139881
626.625 0.430369997523 -109.908619293
626.75 0.542936494138 -110.720152079
626.875 0.722013827421 -105.557353082
627.0 0.429555725606 -101.052459563
627.125 0.611651846131 -117.397593762
627.25 0.71568762404 -105.721887234
627.375 0.165612637441 -157.144331237
627.5 0.708773395418 -107.127680876
627.625 0.695565566007 -103.519018893
627.75 0.862377003026 -108.835054823
627.875 0.752808447017 -105.786988726
628.0 0.194149148373 -135.318526513
628.125 0.77889831971 -98.8690295516
628.25 0.634173551158 -99.6125097524
628.375 0.889194284047 -103.391458905
628.5 0.724951177765 -101.720638321
628.625 0.218335392454 -128.623878586
628.75 0.607884752326 -98.4185566743
628.875 0.735255097809 -97.86761539
629.0 0.494511090651 -100.158784824
629.125 0.816027922313 -98.4537486774
629.25 0.274212844263 -113.670436268
629.375 0.543273235632 -104.781556291
629.5 0.734345525811 -99.4367564815
629.625 0.581713317405 -96.2620838345
629.75 0.827102599519 -93.6570204318
629.875 0.310605057285 -109.922451605
630.0 0.672381705183 -94.365158396
630.125 0.773357515921 -91.6941188993
630.25 0.469861743472 -97.7112520961
630.375 0.812994877688 -90.4693070681
630.5 0.695937785077 -88.7646384253
630.625 0.811547531308 -89.558137965
630.75 0.634899936558 -82.9542667625
630.875 0.359045127064 -94.0856142359
631.0 0.424367122317 -91.784056072
631.125 0.809765882151 -84.2121977498
631.25 0.892635786237 -84.6255628857
631.375 0.376631111877 -89.5093719169
631.5 0.703715691036 -82.1766062376
631.625 0.885705742311 -80.3614147201
631.75 0.851744643884 -83.4272100131
631.875 0.844661246663 -77.7459727012
632.0 0.440590549901 -80.6950350181
632.125 0.617336518881 -76.0462631654
632.25 0.788603983095 -74.700636986
632.375 0.6113585327 -71.9680411658
632.5 0.810871208477 -74.1194816979
632.625 0.629631292067 -71.2475027629
632.75 0.528876630604 -68.5015489855
632.875 0.865720667229 -77.2193827096
633.0 0.601296867586 -72.8611252731
633.125 0.871122087088 -65.6451730376
633.25 0.579921981881 -64.7172873726
633.375 0.593761831786 -68.6763926884
633.5 0.872703751584 -64.3015416427
633.625 0.768160730109 -69.4365606798
633.75 0.832339210596 -67.8882094469
633.875 0.711025041825 -58.3097232562
634.0 0.586884207835 -57.6644037744
634.125 0.935427476855 -65.1454227508
634.25 0.8284638891 -57.8706146905
634.375 0.735882378365 -60.269317749
634.5 0.823513675488 -64.0707745695
634.625 0.654584779633 -53.8148728521
634.75 0.935615749853 -53.5789991189
634.875 0.815407722164 -54.8902684693
635.0 0.779713368111 -53.6188543483
635.125 0.854629990625 -51.0405022598
635.25 0.677445676057 -52.5591099987
635.375 0.807525599604 -52.2366790646
635.5 0.694015902073 -47.7960652581
635.625 0.875621937193 -49.3701664018
635.75 0.74353631806 -46.6462876339
635.875 0.799490285531 -43.8198092545
636.0 1.01340584019 -49.8090051155
636.125 0.811100292877 -49.3121747326
636.25 0.599745182577 -40.0361611087
636.375 0.947494414115 -43.1572585472
636.5 0.891420072907 -40.5200413283
636.625 0.98663919956 -42.516118524
636.75 0.958371934242 -40.4830793709
636.875 0.696233379226 -38.7285307045
637.0 0.879543391292 -39.1812634298
637.125 0.833177330171 -33.9142022648
637.25 0.934154051806 -38.0719389826
637.375 0.916482360083 -35.1625519769
637.5 0.804370833943 -33.4764411926
637.625 0.915117532691 -32.977379775
637.75 0.907775158635 -33.4577278743
637.875 0.938283208466 -33.2155501741
638.0 0.902090124165 -33.2864292653
638.125 0.72406974663 -25.5690303195
638.25 0.7929425436 -26.1505744389
638.375 0.945254407039 -25.9147507665
638.5 0.955641962917 -26.4622397425
638.625 0.744715702951 -24.1630468367
638.75 0.908846956493 -28.7836287487
638.875 0.878217084822 -21.5387263016
639.0 1.01224719346 -25.2252905531
639.125 0.906735040373 -21.3415727634
639.25 0.822082552649 -17.3949398729
639.375 0.925955603838 -22.4445922222
639.5 0.83555044993 -20.3560067236
639.625 0.959403083216 -20.2472171979
639.75 0.913155553715 -16.970339647
639.875 0.77466912862 -12.4317148775
640.0 0.934056288066 -16.0011829412
640.125 1.05309217931 -18.4130760742
640.25 0.933428766699 -21.7185774395
640.375 0.950198128149 -18.603591815
640.5 0.780925830346 -9.3431930596
640.625 0.926505764922 -16.3086172375
640.75 0.934633024316 -15.2789808978
640.875 1.08142586148 -15.3303126292
641.0 1.04043325927 -21.4794974126
641.125 0.773668237552 -10.1827754387
641.25 0.965468994642 -18.6389008413
641.375 0.923035018201 -15.9640526177
641.5 0.872842535507 -14.5566754587
641.625 1.01671705729 -15.3306255297
641.75 1.0346830446 -22.6482524006
641.875 0.853873038391 -17.8145236498
642.0 0.98602538006 -26.2718813042
642.125 0.910301942541 -22.83185957
642.25 0.758946591928 -7.97139904294
642.375 0.783758558121 -11.0862963832
642.5 0.96900999413 -30.9122333018
642.625 0.838179500644 -26.5636088793
642.75 0.806280641591 -27.9962214956
642.875 0.756379815776 -25.0896654288
643.0 0.71515536503 -26.6085861426
643.125 0.877411703875 -50.7663814119
643.25 0.751258999073 -42.9479167302
643.375 0.610696001234 -26.433707246
643.5 0.646877441739 -51.6188548189
643.625 0.562597860263 -29.1990556034
643.75 0.620954187784 -69.4851862791
643.875 0.485549506474 -53.9375756076
644.0 0.350873308476 -55.6775835529
644.125 0.324905735549 -76.9849894641
644.25 0.402126091763 -19.187575976
644.375 0.596105708284 -118.139709089
644.5 0.365052774246 -111.00035929
644.625 0.227638730828 -16.385700433
644.75 0.322795518438 -119.233422742
644.875 0.447307943081 -145.411091623
645.0 0.555767613654 -161.772990103
645.125 0.490490770236 -166.135148041
645.25 0.251073342832 9.31763159056
645.375 0.513491816729 -173.83247471
645.5 0.403008239171 -175.12392976
645.625 0.719734384987 173.235522292
645.75 0.568720526697 169.778340508
645.875 0.193587495747 35.1348368229
646.0 0.362330674923 155.906132384
646.125 0.593721778076 159.505147839
646.25 0.262045954361 144.088137358
646.375 0.675307003118 157.217555027
646.5 0.148051727634 104.989798138
646.625 0.39669008863 124.142219419
646.75 0.665435563778 147.845574415
646.875 0.502751738751 141.122896974
647.0 0.749262761213 146.370942729
647.125 0.197957453923 106.322562979
647.25 0.577334581226 146.220773814
647.375 0.853277697813 144.440735943
647.5 0.447139373745 132.252934423
647.625 0.787859138401 146.92893635
647.75 0.364732937771 138.898836392
647.875 0.423896975432 144.320618441
648.0 0.814420702641 147.791270824
648.125 0.619365052519 143.517377762
648.25 0.647222404945 143.87983463
648.375 0.659560264687 147.16068607
648.5 0.435601910484 138.615708027
648.625 0.771335346935 142.876144179
648.75 0.49006879716 148.511415005
648.875 0.773752616507 148.383324106
649.0 0.548887553626 149.110140607
649.125 0.505603999605 146.960512492
649.25 0.94299334109 150.320991325
649.375 0.722965451472 149.070754105
649.5 0.396396193381 146.181474683
649.625 0.844405182496 155.536904662
649.75 0.798079973835 157.758830275
649.875 0.95787737614 156.046998609
650.0 0.862920476442 157.660434375
