!Created with skrf (http://scikit-rf.org).
# GHz S RI R (50+0j) 
!freq	ReS11	ImS11	
500.0	1.385934536	-1.965509577	
500.625	0.1637996439	-3.640081306	
501.25	-2.439160803	-1.109189745	
501.875	-1.039386653	-0.7027597931	
502.5	-0.05609525055	-0.6583596646	
503.125	-0.1641060901	0.2659818024	
503.75	-0.1573162784	0.1005333836	
504.375	0.1422751163	-0.1087640514	
505.0	0.02098824404	0.1017655655	
505.625	-0.1148706372	-0.3841178178	
506.25	0.10614663	0.2682512395	
506.875	-1.329967779	-0.4372938933	
507.5	-1.247137333	0.1254603511	
508.125	1.32944146	-0.8444461305	
508.75	1.796263335	-5.17633421	
509.375	-2.083900029	-1.893778903	
510.0	-1.365189398	-1.949328518	
510.625	-1.017970282	0.1371430593	
511.25	-0.2708452119	-0.3671640694	
511.875	-0.5982360666	0.0424394196	
512.5	0.009541494516	0.1462543914	
513.125	-0.040193377	-0.2149585979	
513.75	-0.1739569834	-0.4031310106	
514.375	-0.5495756923	0.3032941999	
515.0	1.122506741	-0.9528709471	
515.625	-1.685750592	0.05582691647	
516.25	1.255831803	-2.079963388	
516.875	-2.359373509	-1.749775462	
517.5	0.05443298517	0.4253164887	
518.125	-0.349001194	-0.4358017982	
518.75	-0.05861170323	0.2466950366	
519.375	-0.2714004146	0.07123154113	
520.0	0.4603759004	0.09786274249	
520.625	0.2220560524	-0.1717412903	
521.25	0.1931059555	-0.9290430632	
521.875	-0.385645035	0.2417397111	
522.5	-0.1304184569	-0.1142306155	
523.125	0.001117991864	0.3125448279	
523.75	-0.2784480449	-0.2824443349	
524.375	-0.1897692719	0.4251481131	
525.0	-0.3314071233	0.1216781873	
525.625	0.3550310957	0.2635494325	
526.25	-0.3026808034	-0.03999667527	
526.875	0.08764158188	0.1781950828	
527.5	-0.3419948299	0.2360198006	
528.125	0.4125426965	1.115010374	
528.75	0.2622255442	0.1102328365	
529.375	0.1068272894	0.420277765	
530.0	-0.03602291521	0.0367260619	
530.625	0.7483901389	1.298401768	
531.25	0.4161411735	-0.1913956767	
531.875	1.137746526	-0.2971131283	
532.5	-0.697575024	0.06935174654	
533.125	0.6633841734	-0.4855148201	
533.75	-0.3460839477	-0.2044699173	
534.375	0.1177332765	-1.138280165	
535.0	-0.8600489613	0.2602490304	
535.625	-0.3110384715	0.002160520562	
536.25	-0.04621920652	0.3644502042	
536.875	0.2366477208	-0.1153251396	
537.5	0.1801231854	0.03203404172	
538.125	0.3230072582	-0.3085031307	
538.75	0.1622066114	-0.1577091143	
539.375	-0.13261428	-0.5575297445	
540.0	-0.5302535	-0.1051275678	
540.625	-0.2335693597	-0.1931450974	
541.25	-0.3158701444	0.0294603827	
541.875	-0.08358902696	0.02795234624	
542.5	-0.002929700191	-0.1164259792	
543.125	-0.357122455	-0.1748521365	
543.75	-0.00487466293	0.2024038067	
544.375	-0.3054311366	0.01188745633	
545.0	0.2210729027	0.1256964779	
545.625	-0.1173951801	0.2657706697	
546.25	0.470085934	-0.08293132405	
546.875	0.02050094311	0.07368205291	
547.5	0.3967077503	-0.4119854511	
548.125	-0.3364992904	-0.2866668918	
548.75	-0.09379093164	-0.2059429028	
549.375	-0.3469021963	-0.2863430639	
550.0	-0.1176681608	0.175472363	
550.625	-0.1972997785	-0.1214116771	
551.25	-0.07746147698	0.193825403	
551.875	-0.2151288629	0.05591966483	
552.5	-0.09136250128	0.2994968249	
553.125	-0.003249324843	0.09612986177	
553.75	0.107544219	0.1379003749	
554.375	0.2378704396	-0.03257091791	
555.0	0.1966309454	-0.1642622825	
555.625	0.2000675161	-0.2549504461	
556.25	0.1320613337	-0.3502834386	
556.875	-0.09989134227	-0.3636702385	
557.5	-0.234174029	-0.2412416361	
558.125	-0.2809686588	-0.07415793941	
558.75	-0.2318785813	0.01610684615	
559.375	-0.2483519759	0.02471056594	
560.0	-0.2400019048	0.2180381006	
560.625	-0.04349410525	0.2432584197	
561.25	-0.04662547656	0.1951049437	
561.875	0.1611716989	0.1248652921	
562.5	-0.08207918438	0.0849537154	
563.125	0.2906069986	0.1307013739	
563.75	0.1757607657	0.05891465857	
564.375	0.4147955343	-0.2696901892	
565.0	-0.01132181499	-0.3926201319	
565.625	0.03550645683	-0.2414288702	
566.25	-0.2600173477	-0.3663939433	
566.875	-0.4436549427	-0.05043966734	
567.5	-0.1373960105	-0.1754299578	
568.125	-0.4122846522	-0.5759979661	
568.75	-0.5076288137	0.08192070412	
569.375	-0.5791957391	-0.02123617011	
570.0	-0.1778397998	0.7072854794	
570.625	-0.02863475556	0.1589196716	
571.25	-0.2479148102	0.4667536031	
571.875	0.3485022513	-0.1766404614	
572.5	0.204326318	0.3556040804	
573.125	0.3252343896	-0.5298174248	
573.75	-0.21990711	-0.2006988501	
574.375	0.321328609	-0.03571196112	
575.0	-0.2355487948	-0.2650527779	
575.625	0.3314605881	-0.01069803907	
576.25	0.004739137067	-0.5254334254	
576.875	-0.1167080053	-0.02644545003	
577.5	0.3077896363	-0.4517548737	
578.125	-0.3437934026	-0.5023184114	
578.75	-0.2277358675	-0.0603604274	
579.375	0.02579848473	-0.2167428304	
580.0	-0.3760075062	-0.1341962501	
580.625	0.1366319668	-0.01754755967	
581.25	-0.5078405622	0.2285101405	
581.875	0.324536963	0.3339453802	
582.5	-0.1217979686	0.05810306033	
583.125	0.2101201033	0.5999616735	
583.75	0.1159939647	-0.4581943768	
584.375	0.02375647453	0.5553417817	
585.0	0.4279324356	-0.2563126195	
585.625	0.0748440148	0.2614862203	
586.25	0.6480147599	-0.3049525538	
586.875	-0.133995529	-0.1887645836	
587.5	0.2547257007	-0.3406579477	
588.125	-0.280171163	-0.4922548927	
588.75	-0.07430525649	-0.01581082053	
589.375	0.4688723274	-0.4080998183	
590.0	-0.3440226216	-0.4131855017	
590.625	-0.2615290744	-0.02228244016	
591.25	-0.3694255512	0.129811872	
591.875	-0.01061114719	0.4590699992	
592.5	-0.04946793532	-0.04978862377	
593.125	0.02736290283	0.2101435849	
593.75	-0.000598067903	0.152240109	
594.375	0.4205749612	0.4742585211	
595.0	0.6480453926	-0.0186373009	
595.625	-0.02905754512	0.1094072169	
596.25	0.6168124224	0.4491269243	
596.875	0.3476734821	-0.3423595268	
597.5	0.09929341615	0.3934445323	
598.125	0.6668181617	0.1927948448	
598.75	0.08456527848	0.121768881	
599.375	0.8386709267	-0.02240938333	
600.0	0.05005157631	-0.4319858625	
600.625	0.371022677	-0.1643176498	
601.25	0.2830363817	-0.5597619813	
601.875	-0.3440673782	-0.240565213	
602.5	-0.2272210911	-0.07633179268	
603.125	-0.193291094	0.06505326855	
603.75	-0.4017733796	0.2354436542	
604.375	0.02207016292	0.1789902498	
605.0	-0.3381182959	0.09713406256	
605.625	-0.009809546953	0.2920400284	
606.25	-0.298363886	-0.05749212609	
606.875	-0.4631911503	0.5053746104	
607.5	-0.1463387364	0.1264279239	
608.125	-0.4407993178	0.8040112508	
608.75	0.6981844364	-0.03180976641	
609.375	0.3305722757	0.265762498	
610.0	0.5634673669	-0.5095314222	
610.625	-0.09473069981	-0.1368036838	
611.25	0.2457213395	-0.6359967528	
611.875	-0.2805260113	0.0211383366	
612.5	-0.2589631001	-0.4058625248	
613.125	-0.5549343038	0.4148229011	
613.75	-0.1734184406	-0.02915937706	
614.375	0.1875091763	0.5300561873	
615.0	-0.01143355678	-0.2066692283	
615.625	0.02943934175	0.5865442827	
616.25	0.08750773442	-0.01661608005	
616.875	-0.4856087113	0.4760186177	
617.5	0.1337556548	0.7225583986	
618.125	-0.1555221703	0.1184948794	
618.75	0.1164833342	0.7056972208	
619.375	0.2655562067	0.1216742642	
620.0	0.4225525957	0.2740236408	
620.625	0.09557933774	-0.4430800275	
621.25	-0.07415210245	-0.4321657939	
621.875	-0.5607350694	-0.03843350494	
622.5	-0.3459516375	0.02341450588	
623.125	-0.1500825009	0.6216321118	
623.75	0.1656865253	-0.1864241764	
624.375	0.4047947295	0.006377823298	
625.0	-0.2727945032	-0.03021283979	
625.625	0.4511016357	-0.1560086989	
626.25	-0.5170155587	-0.3818615279	
626.875	0.0800210607	-0.02769231441	
627.5	-0.5506047818	-0.3159138695	
628.125	-0.2992943122	0.08511475176	
628.75	0.06437875635	-0.3442422911	
629.375	-0.4983944913	-0.3924216806	
630.0	-0.161358627	-0.1582510924	
630.625	-0.6516769646	0.09274529801	
631.25	-0.2303046418	0.6230099851	
631.875	0.0344787961	0.3769867723	
632.5	0.2376938202	0.4597435419	
633.125	0.5765968988	0.1718112641	
633.75	0.2802355507	-0.3417697297	
634.375	0.1982510384	-0.1078371073	
635.0	-0.158796902	-0.5944705563	
635.625	-0.03385046714	0.01365415708	
636.25	-0.6056690389	0.1326515098	
636.875	0.1178070296	0.3950789949	
637.5	-0.2145439962	-0.1370829473	
638.125	-0.0688126348	0.7438556602	
638.75	0.05290414707	-0.1139728664	
639.375	-0.3786739298	0.7380878519	
640.0	0.6869520906	0.6274373111	
640.625	0.4569036119	0.003916746435	
641.25	0.5956019801	0.3878351978	
641.875	0.2253860385	-0.7621326489	
642.5	0.1576271642	-0.1476019223	
643.125	-0.4739764506	-0.6244205104	
643.75	-0.1384657727	0.3705785137	
644.375	-0.4485377944	-0.4212434862	
645.0	-0.395155637	0.648158657	
645.625	0.3514519173	0.3549460448	
646.25	0.02738744001	-0.008584392554	
646.875	0.650332792	0.2865329337	
647.5	-0.3278131729	-0.2551018342	
648.125	0.6776881587	0.4388104554	
648.75	0.3925736615	-0.6727934347	
649.375	0.5354292616	0.1596498764	
650.0	0.6183520351	-1.353989227	
650.625	-0.3886982035	-0.53230382	
651.25	0.7636497998	0.1132269547	
651.875	1.018420728	-0.9790963943	
652.5	0.002565549753	-0.496568718	
653.125	0.7555805499	0.1919979485	
653.75	0.3815956335	-1.026137466	
654.375	-0.1567371652	-0.1541059018	
655.0	-0.7637603243	-0.7084769901	
655.625	-0.1158423426	0.878162245	
656.25	0.02895741268	-0.02624741004	
656.875	0.005151793909	0.5319242446	
657.5	0.336992635	-0.06772593682	
658.125	-0.07746469512	0.3985753596	
658.75	1.044720064	0.2915459388	
659.375	0.478290211	-0.602825093	
660.0	0.3955886636	-0.3145032152	
660.625	0.5963882296	-1.178451302	
661.25	-0.2543233076	-0.4772724278	
661.875	0.8414235179	-0.2959535034	
662.5	0.6777900957	-0.9312705974	
663.125	0.001991821197	-0.4990286219	
663.75	0.8129354019	-0.3728202795	
664.375	-0.5600129963	-1.022331453	
665.0	-0.2776321013	-0.130722467	
665.625	-1.008617865	0.05386436415	
666.25	0.207506232	0.7597457755	
666.875	-0.1302381932	0.4133613458	
667.5	0.6893936112	0.2740886468	
668.125	0.3412212941	-0.326190131	
668.75	0.3414436363	-0.005390544876	
669.375	0.4074807751	-0.7447822477	
670.0	-0.2956475131	-0.4703372215	
670.625	0.1077455799	-0.253995111	
671.25	0.2359653205	-0.5659586007	
671.875	-0.03507436037	-0.404530933	
672.5	0.673835174	-0.1536366995	
673.125	0.3347081591	-0.6571113391	
673.75	0.1038722582	-0.3099332008	
674.375	0.4831704292	-0.5400490445	
675.0	-0.7272163776	-0.875978279	
675.625	0.005206985289	0.2972648011	
676.25	-0.6542955332	-0.5608827677	
676.875	-0.3424170233	0.5238671974	
677.5	-0.1625528653	-0.3924002563	
678.125	-0.4182487808	0.8989644258	
678.75	0.08982047243	0.008640435846	
679.375	0.4320899238	0.5131433619	
680.0	0.5328768	-0.6210280349	
680.625	-0.3296828972	0.02937290179	
681.25	0.6277822721	0.1445359358	
681.875	0.3673930485	-0.1891733759	
682.5	0.2941146414	0.08631902114	
683.125	0.4201875655	0.4044069942	
683.75	0.9678814195	-0.05415244183	
684.375	0.2437912926	-0.07268180312	
685.0	0.7852169733	0.434415353	
685.625	0.8035082197	-0.6319355263	
686.25	0.1559358912	0.4913689501	
686.875	1.390100267	-1.008091911	
687.5	-0.4427409405	-0.4795371102	
688.125	0.6605410894	-1.033011031	
688.75	-1.816870202	-0.3112613023	
689.375	0.1237509646	0.3359574488	
690.0	-0.1214679148	1.445873167	
690.625	0.8184260474	-0.03000691129	
691.25	0.2500883421	0.9054279592	
691.875	1.650914144	0.5318648718	
692.5	0.9132076504	0.264435632	
693.125	1.585176253	0.04838942992	
693.75	1.290872378	-0.7488988946	
694.375	0.9589844256	-0.8282502678	
695.0	0.8489471093	-0.940173554	
695.625	0.8542104413	0.07868066515	
696.25	1.809586552	0.2410682489	
696.875	0.5935576605	0.2236473486	
697.5	0.9856857182	1.693002364	
698.125	1.519164329	-0.5463702097	
698.75	1.028229114	-0.3064070907	
699.375	-1.685436202	-1.143220301	
700.0	0.2781517428	0.7339553597	
700.625	-0.2213562258	1.246033661	
701.25	0.8731721515	-0.1535319597	
701.875	0.1376737956	0.7262153466	
702.5	1.416046326	0.506811057	
703.125	0.3488273099	0.09934290186	
703.75	1.310462707	-0.1167612774	
704.375	0.2260864859	-0.7801173442	
705.0	0.7076220137	0.272820749	
705.625	0.8016003516	-0.7067220932	
706.25	0.01721498398	0.3896148428	
706.875	0.9790535556	1.189784362	
707.5	0.8238527628	-0.02056489578	
708.125	1.02591728	0.6291574278	
708.75	0.5142049052	-1.367893399	
709.375	-0.4888240258	-0.1885476545	
710.0	-0.6929032266	0.5465931221	
710.625	0.5283489521	0.1634248775	
711.25	0.05636859595	0.473720908	
711.875	0.6293398633	0.09737000087	
712.5	0.7234841348	-0.02675097827	
713.125	0.4513850314	-0.5843710123	
713.75	0.3332259479	-0.2445798487	
714.375	-0.005317207732	-0.9619093542	
715.0	-0.3677369153	-0.0164851919	
715.625	0.6999046066	-0.728523001	
716.25	-0.4732811881	-0.942750094	
716.875	0.8146992778	0.4124720757	
717.5	2.354998055	-0.5943820141	
718.125	-0.1523928158	-1.081896748	
718.75	3.409463749	1.261914545	
719.375	1.004934061	-3.29337398	
720.0	0.5126358361	-0.8225839693	
720.625	1.559821556	-3.046235852	
721.25	-1.903631525	-2.683574245	
721.875	0.12871622	-1.826349342	
722.5	-2.125680202	-2.061816754	
723.125	-1.895343153	0.5449614467	
723.75	-0.8043987494	0.4663186592	
724.375	0.1644673155	1.598528773	
725.0	0.6261518353	0.4715885987	
725.625	0.174911247	0.7910582254	
726.25	-0.3052976507	2.009368691	
726.875	1.281909115	2.880386181	
727.5	-1.076046292	1.031676199	
728.125	-1.194024693	7.795465163	
728.75	4.241146788	5.737667606	
729.375	-8.588171585	3.102421564	
730.0	12.27679862	22.92895868	
730.625	3.430372589	0.4246807827	
731.25	-8.25755443	12.00281751	
731.875	-3.601339582	15.60954451	
732.5	-1.044360994	2.041030895	
733.125	-8.718707483	-0.02646260778	
733.75	-0.4699384987	4.67046872	
734.375	1.475392651	-0.1755927674	
735.0	0.6787739382	-2.201933861	
735.625	-0.3834781941	1.319642297	
736.25	-0.8533438734	0.8974044598	
736.875	1.537399276	1.895946142	
737.5	3.174251378	-0.8550405124	
738.125	0.6663423847	-1.382899762	
738.75	7.660505227	0.5199708526	
739.375	6.996526508	-12.4183852	
740.0	-5.061525296	-1.454655645	
740.625	11.98969015	13.94083782	
741.25	13.00362925	-12.68905065	
741.875	-23.90938458	-5.078833141	
742.5	-16.47494347	-0.5669101702	
743.125	2.14990122	2.481116073	
743.75	1.149298864	-5.489850378	
744.375	-1.949230545	1.029798308	
745.0	0.07538110578	-0.1639122066	
745.625	0.2828801999	0.08661975605	
746.25	-0.2350939649	-0.1378443182	
746.875	-0.7788253997	-0.4441039461	
747.5	0.2655770037	1.259450105	
748.125	0.594715266	1.06929293	
748.75	0.4316729474	1.432201871	
749.375	1.319061984	1.710790017	
750.0	-0.07817619153	0.2683312177	
