!Created with skrf (http://scikit-rf.org).
# GHz S RI R (50+0j) 
!freq	ReS11	ImS11	
500.0	-0.3057128253	-0.8714382728	
500.625	0.2841131678	-0.3598280696	
501.25	-0.3167333627	-0.8593772728	
501.875	-0.4077644661	-0.1623979783	
502.5	0.02521132318	-0.07323232039	
503.125	-0.09423909473	0.008019822361	
503.75	0.04030328932	0.005064907795	
504.375	0.04906775105	0.0157406399	
505.0	-0.02011448887	-0.03391965535	
505.625	0.05225921414	-0.04004213075	
506.25	-0.1620491414	-0.007346818439	
506.875	0.08108041383	-0.1018564568	
507.5	-0.1901351232	-0.5634658684	
508.125	-0.2962704095	-0.4339394954	
508.75	0.6367540307	-0.3514415219	
509.375	-0.2213612344	-1.276154877	
510.0	-0.2273712594	-0.05863107323	
510.625	-0.02304524354	-0.1619689625	
511.25	-0.08331346216	0.005757655384	
511.875	-0.05009663205	-0.07092361192	
512.5	-0.03474965435	0.05010412538	
513.125	-0.03944342743	-0.04637009626	
513.75	-0.008733872216	-0.01084428428	
514.375	-0.1316467163	-0.08274455335	
515.0	0.1481755343	0.2700441565	
515.625	-0.4011224139	-0.7660294742	
516.25	-0.3438174274	0.07404951494	
516.875	0.0604659181	-0.6882033778	
517.5	-0.2221719089	-0.173748367	
518.125	0.0503181634	-0.01838333477	
518.75	-0.1163391983	-0.1507846527	
519.375	-0.02837327802	0.04942705283	
520.0	0.05512522564	0.03745237613	
520.625	0.133220816	-0.07262420065	
521.25	-0.08298608971	-0.200907959	
521.875	-0.1710573563	0.006224182936	
522.5	-0.06106901009	0.03435720575	
523.125	-0.01014911736	0.03485854143	
523.75	-0.1486813912	-0.0621603755	
524.375	-0.2250237292	0.1206261718	
525.0	0.04015723297	0.01736865969	
525.625	-0.03710834077	0.0916125244	
526.25	0.03223577894	-0.08606434778	
526.875	-0.09013020012	0.100559336	
527.5	0.062730592	0.1065139112	
528.125	-0.03938639425	0.2571704399	
528.75	0.1020094044	0.2727400484	
529.375	-0.00533804616	-0.02779263048	
530.0	0.02332119335	0.2413550014	
530.625	0.1743370128	0.1492771869	
531.25	0.4200712744	-0.1074780778	
531.875	0.2045770069	-0.1207523871	
532.5	-0.1270518691	-0.06719494686	
533.125	0.1176100093	0.1276909327	
533.75	-0.01379967534	-0.2580211618	
534.375	-0.02235813236	-0.1722590656	
535.0	-0.2527329158	-0.1430135397	
535.625	-0.06768958759	0.1700968841	
536.25	-0.02084219823	0.05724545113	
536.875	0.1138325062	0.02238267991	
537.5	0.02053233748	-0.05244051544	
538.125	0.1307654547	-0.005514769134	
538.75	0.0786061357	-0.154046745	
539.375	-0.03620218805	-0.1047105594	
540.0	-0.1580704941	-0.1691672249	
540.625	-0.151984222	0.03199435244	
541.25	-0.05878970291	0.03196523079	
541.875	-0.03923680715	-0.04083352432	
542.5	-0.03518221097	-0.01138808807	
543.125	-0.01378500006	-0.05579774719	
543.75	-0.169516938	0.01607797421	
544.375	0.003817522868	-0.0008776619322	
545.0	-0.03605108753	0.1054853093	
545.625	0.06517551918	-0.04142596333	
546.25	0.0712141007	0.08538439023	
546.875	0.1153806017	-0.1233716331	
547.5	0.02085612047	-0.0581582	
548.125	0.004596832392	-0.1657056247	
548.75	-0.1786065245	-0.09790956536	
549.375	-0.06276005218	-0.0132602914	
550.0	-0.0993011754	-0.02315182833	
550.625	-0.01355369247	0.03818350216	
551.25	-0.09354398363	0.007008782029	
551.875	-0.03384982685	0.08783719811	
552.5	-0.04166026595	0.04435825996	
553.125	-0.01384583546	0.07172789505	
553.75	0.04740125139	0.02432916089	
554.375	0.07856738673	0.001119172296	
555.0	0.0898909108	-0.07537017815	
555.625	0.06067019444	-0.1011877966	
556.25	0.050578876	-0.1253873976	
556.875	-0.0405470353	-0.1446432461	
557.5	-0.1001925709	-0.08202771033	
558.125	-0.102533065	-0.02692383917	
558.75	-0.1041766916	0.00135526291	
559.375	-0.09320591369	0.03582805084	
560.0	-0.07765862139	0.0621322028	
560.625	-0.05914503408	0.1083249744	
561.25	0.03717041512	0.09736104896	
561.875	-0.0002073590604	0.02597999362	
562.5	0.04619806169	0.06262539382	
563.125	0.02720829456	0.05603245641	
563.75	0.1691976239	-0.008621929472	
564.375	0.06042464523	-0.09950255506	
565.0	0.09425006666	-0.1102394648	
565.625	-0.0633928212	-0.1846671503	
566.25	-0.1114549687	-0.03475346963	
566.875	-0.06663047945	-0.1132956067	
567.5	-0.2064003437	-0.1165579163	
568.125	-0.1172347731	-0.04529491087	
568.75	-0.2133692929	-0.1546080351	
569.375	-0.1802225958	0.2081638145	
570.0	-0.07608974182	0.07644583556	
570.625	-0.09792909744	0.246943809	
571.25	0.0951541667	0.04337904718	
571.875	-0.00412595993	0.1460900107	
572.5	0.164019762	-0.09738600911	
573.125	-0.01049479392	-0.04663935237	
573.75	0.1429323325	-0.09208628856	
574.375	-0.08963621113	-0.1245266696	
575.0	0.06895781092	0.05048346708	
575.625	-0.004116824074	-0.1562960633	
576.25	0.001036401407	-0.01561892203	
576.875	0.05757959419	-0.1722234644	
577.5	-0.07672700224	-0.1931928794	
578.125	-0.06696631278	-0.03257590111	
578.75	0.006215634466	-0.1436019751	
579.375	-0.223464465	-0.1084410874	
580.0	0.06251565143	0.08118151576	
580.625	-0.1579368223	-0.09238481279	
581.25	0.03802873934	0.1233329623	
581.875	-0.1368833691	0.08930286679	
582.5	0.1341848101	0.2544283003	
583.125	0.09319550829	-0.07840442632	
583.75	-0.01903302583	0.1444902744	
584.375	0.1167932797	-0.02951257332	
585.0	-0.01342655893	0.0691233309	
585.625	0.2364142905	0.03118451743	
586.25	0.05452311474	-0.1392700439	
586.875	0.122572448	-0.05176268994	
587.5	-0.07746507416	-0.2049938605	
588.125	-0.03250126371	-0.02181376191	
588.75	0.09081245513	-0.165850606	
589.375	0.0002624745636	-0.2049828556	
590.0	-0.05787548194	-0.05740491426	
590.625	-0.1411914694	-0.135619196	
591.25	-0.1419187026	0.2659296738	
591.875	0.0570561131	0.01070405998	
592.5	-0.09256660647	0.1560685554	
593.125	0.04374018059	-0.07197216853	
593.75	0.06326349409	0.2781622183	
594.375	0.165117483	-0.06950997795	
595.0	0.03159659545	0.09834122886	
595.625	0.2630404395	0.1274066413	
596.25	0.1189726806	-0.06421878919	
596.875	0.05217408214	0.0495612019	
597.5	0.2144422568	0.0905813978	
598.125	0.1520420799	0.005576412014	
598.75	0.1162017728	0.1156266546	
599.375	0.2036827715	-0.1031509193	
600.0	0.07821798239	-0.0978160338	
600.625	0.1767097969	-0.143399838	
601.25	0.02434290242	-0.1918303691	
601.875	-0.1045684894	-0.06053015632	
602.5	-0.05510117631	-0.0968170228	
603.125	-0.16582461	0.1535990868	
603.75	0.027884268	0.0349948991	
604.375	-0.1643541151	-0.001172111667	
605.0	0.05601437678	0.1899856106	
605.625	-0.08653700344	-0.08151865115	
606.25	-0.1384698635	0.1798815919	
606.875	-0.04641360404	-0.005090422293	
607.5	-0.2412061517	0.2262266604	
608.125	0.09763648663	0.2100989062	
608.75	0.1214907977	0.1133021959	
609.375	0.2264013194	0.01317328922	
610.0	0.1279258954	-0.09074774246	
610.625	0.02245720313	-0.1364704148	
611.25	0.07018159263	-0.1538989465	
611.875	-0.1409585282	-0.1016897118	
612.5	-0.08980474134	-0.01249067783	
613.125	-0.229384491	-0.009593923505	
613.75	-0.01496505697	0.2008811518	
614.375	-0.04226636887	0.01163899964	
615.0	0.1017406967	0.129669152	
615.625	-0.04405671282	-0.02991823985	
616.25	-0.1322388461	0.1807425671	
616.875	0.02910664396	0.2445140406	
617.5	-0.08177787265	0.08951469634	
618.125	0.006301587139	0.2436945358	
618.75	0.06350640138	0.1044330128	
619.375	0.09629733553	0.1567862078	
620.0	0.1356384511	0.004821180352	
620.625	0.064814167	-0.1729309613	
621.25	-0.09566521114	-0.1182542631	
621.875	-0.1215538678	-0.1507284091	
622.5	-0.2313938425	0.1267159843	
623.125	0.07031660963	0.01829421856	
623.75	0.1283730108	0.1219957415	
624.375	-0.032521537	-0.1189050766	
625.0	0.08973760608	0.01812651572	
625.625	-0.03081997576	-0.150284891	
626.25	-0.00466486807	-0.04684066381	
626.875	-0.1393752038	-0.142587823	
627.5	-0.1769426928	0.02290534208	
628.125	-0.05183457635	-0.03929949133	
628.75	-0.09423726807	-0.1652534298	
629.375	-0.1032668017	-0.068950501	
630.0	-0.1571642897	-0.05547197423	
630.625	-0.2129060836	0.0707526471	
631.25	-0.08468059638	0.2150110226	
631.875	-0.02659692387	0.2084072105	
632.5	0.1463025581	0.2299512636	
633.125	0.2346602494	-0.06629220839	
633.75	0.07138334809	0.01051853498	
634.375	0.1415893101	-0.2046068225	
635.0	-0.1261914209	-0.04716075875	
635.625	-0.07454627921	-0.1465836024	
636.25	-0.1701390734	0.2098386377	
636.875	0.0166227132	0.03265766982	
637.5	-0.1315368174	0.1280631224	
638.125	0.07669431267	0.08061822449	
638.75	-0.1385655115	0.08517589383	
639.375	0.03913086198	0.3285139019	
640.0	0.2161137818	0.1241783562	
640.625	0.1393538376	0.08179344459	
641.25	0.3156569298	0.004129813115	
641.875	0.07428647627	-0.2480419861	
642.5	0.03338624113	-0.1387036425	
643.125	-0.19586576	-0.1745333412	
643.75	-0.05514611873	0.08896536433	
644.375	-0.1924748702	-0.08630654995	
645.0	-0.1248459443	0.2833156649	
645.625	0.1089212656	-0.05935671986	
646.25	0.03513688525	0.2650605142	
646.875	0.2513925866	-0.2370470848	
647.5	-0.1427750725	0.1322475044	
648.125	0.3453571884	-0.0420785207	
648.75	0.05054029355	-0.1275755588	
649.375	0.3652492116	-0.10176801	
650.0	0.03535893586	-0.4783445262	
650.625	0.001270933313	-0.1208955389	
651.25	0.3115167649	-0.1706952925	
651.875	0.2237406211	-0.370542346	
652.5	0.05726350362	-0.08384683881	
653.125	0.3243375783	-0.02895764053	
653.75	0.1098258673	-0.3647770788	
654.375	-0.08904667859	-0.1127441955	
655.0	-0.2824417401	-0.2181040198	
655.625	-0.07434770973	0.3455473585	
656.25	0.03794940599	0.01429308814	
656.875	0.008738446625	0.2743952015	
657.5	0.1296428223	-0.1209808713	
658.125	-0.0409471721	0.2791761977	
658.75	0.5168525413	-0.0598997163	
659.375	0.07035208661	-0.1981944035	
660.0	0.2768129543	-0.1405490675	
660.625	0.1110544196	-0.496328016	
661.25	-0.05162330145	-0.1201126774	
661.875	0.3257242814	-0.1933269624	
662.5	0.1738482261	-0.3332398018	
663.125	0.09482075476	-0.1423056588	
663.75	0.2693095387	-0.2657789521	
664.375	-0.2102312795	-0.3340962039	
665.0	-0.1663752312	-0.06638117337	
665.625	-0.3345607234	0.02840046591	
666.25	-0.002633205207	0.3406622674	
666.875	0.0556561353	0.07414110023	
667.5	0.2225753975	0.1642530828	
668.125	0.1714024974	-0.157480066	
668.75	0.1068853537	-0.02037216693	
669.375	0.1992249478	-0.3635465142	
670.0	-0.2107698926	-0.1423727359	
670.625	0.1117579537	-0.06897160668	
671.25	0.04891340682	-0.3043907381	
671.875	-0.05135136771	-0.104812225	
672.5	0.277382557	-0.01901334715	
673.125	0.1408049719	-0.3348535384	
673.75	0.05878899088	-0.09422518016	
674.375	0.09923066888	-0.2896444409	
675.0	-0.2296340565	-0.2511303927	
675.625	-0.07979022308	0.02324230153	
676.25	-0.193583873	-0.1374953628	
676.875	-0.1461784783	0.1302392884	
677.5	-0.03302667941	-0.007039567836	
678.125	-0.2300115525	0.1642135928	
678.75	0.1922710496	0.1656368606	
679.375	0.05189560439	0.05066085914	
680.0	0.2812903006	-0.06962768808	
680.625	-0.1012901786	-0.2094087381	
681.25	0.1280841192	0.2604894827	
681.875	0.3368701562	-0.121978057	
682.5	-0.0982307142	-0.02864771762	
683.125	0.2223780179	0.3081573172	
683.75	0.4833007364	-0.05579115318	
684.375	-0.08628688689	0.0247608902	
685.0	0.4437188119	0.1111159876	
685.625	0.2055107189	-0.1862553052	
686.25	0.1305712021	0.04357778784	
686.875	0.3950724447	-0.2990360444	
687.5	0.02891053318	-0.2606191663	
688.125	0.02038836761	-0.316272404	
688.75	-0.4674093049	-0.1867555429	
689.375	-0.1497245959	0.3999406194	
690.0	0.03542182915	0.1621397195	
690.625	0.2854863082	0.3624058612	
691.25	0.3336195734	0.04062057355	
691.875	0.2433932158	0.3360369857	
692.5	0.7828051291	0.1407220895	
693.125	0.2798741718	-0.2085319323	
693.75	0.6006295338	-0.04830007367	
694.375	0.4547655067	-0.5727078472	
695.0	0.1043917644	-0.09650732494	
695.625	0.5688863361	0.09690887815	
696.25	0.4684811168	-0.1441657631	
696.875	0.2288497543	0.3166253129	
697.5	0.3938642778	0.4398758405	
698.125	0.5932310758	-0.01577023772	
698.75	0.3708554995	-0.4785796352	
699.375	-0.4312985247	-0.3068080436	
700.0	-0.2819490458	0.3184409072	
700.625	0.2423051572	0.1504998074	
701.25	0.09693478722	0.2123362437	
701.875	0.3960517604	0.1801119372	
702.5	0.1615290044	0.04503473446	
703.125	0.393371389	0.1922419544	
703.75	0.3507165678	-0.2874680692	
704.375	0.09944196792	-0.05761657325	
705.0	0.3618883122	-0.1347725544	
705.625	0.1241498474	-0.09559869904	
706.25	0.1746771056	0.2508423236	
706.875	0.3806698122	0.2615724035	
707.5	0.1873562941	0.1917357026	
708.125	0.4841315427	-0.08066177812	
708.75	0.1496411496	-0.2626992686	
709.375	-0.3386303675	-0.2098564258	
710.0	0.01457606041	0.242784765	
710.625	0.04204023746	0.187878739	
711.25	0.1657368877	-0.03580322909	
711.875	0.1067921276	0.15967284	
712.5	0.3815895394	-0.1284418798	
713.125	-0.003911994782	-0.1465568944	
713.75	0.2154857285	-0.1787681696	
714.375	-0.09019471138	-0.2851869097	
715.0	-0.0551268353	-0.05867632642	
715.625	0.1148215319	-0.2482724539	
716.25	0.0208062671	-0.2913107952	
716.875	0.2048463148	-0.09170332403	
717.5	0.5790263371	-0.04296947438	
718.125	0.4905340814	-0.2132905329	
718.75	0.479495827	-0.12661665	
719.375	0.6414510581	-0.6271953679	
720.0	0.09547868843	-0.9913873743	
720.625	-0.07729120211	-0.4408724551	
721.25	0.2254725102	-1.177424943	
721.875	-0.8569132639	-0.536667084	
722.5	-0.2942280873	-0.5481846404	
723.125	-0.938352636	-0.04456913457	
723.75	0.05913578123	0.5236315724	
724.375	-0.1599084828	0.2427728065	
725.0	0.5348295343	0.4692008262	
725.625	0.09494344049	0.0710749386	
726.25	-0.1412861457	0.6539040596	
726.875	0.2468817265	1.014566956	
727.5	0.2829812109	0.7531705069	
728.125	-0.4253537129	1.724880443	
728.75	0.7201250336	2.802507501	
729.375	0.9594514373	1.694995734	
730.0	-0.8790139529	3.745873917	
730.625	2.503286755	3.826713021	
731.25	0.1731219726	1.660422346	
731.875	-2.563908977	2.067666911	
732.5	-3.210883895	2.399796291	
733.125	-0.3615026247	0.7928395509	
733.75	-1.462999222	1.172205683	
734.375	1.230406976	-0.2720922076	
735.0	-0.1191649603	-0.1131347111	
735.625	-0.8454083502	-0.07682808447	
736.25	0.6228422291	0.3232981021	
736.875	-0.1391425411	0.5229700516	
737.5	1.459870359	0.1418050627	
738.125	0.6024204838	-1.027860453	
738.75	0.7476849571	-0.1427051166	
739.375	3.581399487	-1.505783415	
740.0	0.7721219217	-3.794728917	
740.625	-0.2618281563	1.548560035	
741.25	1.59244127	5.379127305	
741.875	2.126621794	0.6171898525	
742.5	-0.0800027599	-3.873922165	
743.125	-1.316954423	-1.951640588	
743.75	-0.2867368637	-0.2220529537	
744.375	-0.2771164435	-0.3070558564	
745.0	0.2807764098	0.170638635	
745.625	-0.005891891854	0.09860769088	
746.25	-0.06249325696	-0.199166659	
746.875	-0.07605859618	0.1517744111	
747.5	-0.1841662404	0.2265053693	
748.125	0.2408853806	0.5471097298	
748.75	0.261645832	0.1571613176	
749.375	-0.01390551697	0.408188688	
750.0	-0.2119040394	0.3646189696	
