!Created with skrf (http://scikit-rf.org).
# GHz S RI R (50+0j) 
!freq	ReS11	ImS11	
500.0	0.1211009857	-0.8604043162	
500.625	0.2257527915	-0.7261230715	
501.25	-0.3052634348	-0.4837056271	
501.875	-0.1763231658	-0.3569574528	
502.5	-0.03110638195	-0.1069184126	
503.125	-0.05763731684	0.004767934465	
503.75	0.010787458	0.06622769255	
504.375	0.02173771121	-0.007573330621	
505.0	0.01557312813	-0.01696612555	
505.625	-0.00347548144	-0.04018310592	
506.25	-0.05060081356	-0.04476026394	
506.875	-0.09416067201	0.0004564404764	
507.5	-0.09249682636	-0.27363338	
508.125	0.107665762	-0.5165560036	
508.75	0.4081830374	-0.7664360106	
509.375	-0.01163406507	-0.8949403742	
510.0	-0.3784684498	-0.2084250598	
510.625	-0.08452442101	-0.06887114509	
511.25	-0.07961868317	-0.04090259703	
511.875	-0.1192417744	-0.0210551156	
512.5	-0.008697923991	0.04275437812	
513.125	-0.03279067422	-0.04784823306	
513.75	-0.04794767089	-0.03843750106	
514.375	-0.04469894527	-0.00954758067	
515.0	0.01254052361	-0.03017541946	
515.625	-0.01779390027	-0.2958122559	
516.25	-0.2448566531	-0.5866569008	
516.875	-0.1744242062	-0.3236068596	
517.5	-0.03438157346	-0.1168060138	
518.125	-0.02092245106	-0.02457081361	
518.75	-0.05009028476	-0.09499679207	
519.375	-0.04420225921	0.02972168416	
520.0	0.0864377496	0.04060489921	
520.625	0.1229054383	-0.05754524798	
521.25	-0.03081975199	-0.2050202184	
521.875	-0.121058798	-0.01245978186	
522.5	-0.03731090862	0.02250230551	
523.125	-0.0474524637	0.0254157016	
523.75	-0.088363163	-0.0005202191664	
524.375	-0.1253577305	0.0334557459	
525.0	-0.02909292046	0.1160032318	
525.625	0.03018859301	0.03424084751	
526.25	-0.009469115365	-0.01054982705	
526.875	-0.04013003384	0.04418987078	
527.5	-0.03384695888	0.1501639998	
528.125	0.05396204192	0.204565845	
528.75	0.03443761981	0.1672491406	
529.375	0.0296569345	0.04901853824	
530.0	0.02999184524	0.1229669655	
530.625	0.1049210321	0.2285321383	
531.25	0.3395126117	0.06148816893	
531.875	0.1691633299	-0.1638554874	
532.5	-0.0542655763	-0.08398163843	
533.125	0.04099145405	-0.04624689821	
533.75	0.06868401864	-0.1527169057	
534.375	-0.09461484374	-0.2180052401	
535.0	-0.2015599232	-0.07094226377	
535.625	-0.1289371518	0.1030753456	
536.25	0.001974437589	0.08058392593	
536.875	0.07920915256	0.00996134952	
537.5	0.05502170798	-0.03762339822	
538.125	0.09352939239	-0.05368243432	
538.75	0.103302808	-0.1057437228	
539.375	-0.06647935688	-0.1366621892	
540.0	-0.1448834362	-0.1178928731	
540.625	-0.1414566231	-0.01474149315	
541.25	-0.0735213753	0.008011458517	
541.875	-0.03751171569	-0.01517336707	
542.5	-0.04076208915	-0.044036042	
543.125	-0.07104087713	-0.03328423042	
543.75	-0.07444990913	0.002379690583	
544.375	-0.03688804008	0.03765541872	
545.0	-0.001256371428	0.0501262932	
545.625	0.04833319259	0.05136240534	
546.25	0.08475384954	0.02579677774	
546.875	0.1009082663	-0.02881408761	
547.5	0.05311175056	-0.1089617231	
548.125	-0.04140243064	-0.135772752	
548.75	-0.1093548148	-0.09430311416	
549.375	-0.1002045345	-0.05444678966	
550.0	-0.06708341837	0.008670117249	
550.625	-0.04527339865	0.01095208876	
551.25	-0.06609179713	0.02857302965	
551.875	-0.05758338367	0.06343506528	
552.5	-0.03283754446	0.0696030202	
553.125	-0.00816698873	0.05416124482	
553.75	0.04417095258	0.03602120121	
554.375	0.08271173442	-0.00772431647	
555.0	0.08127298293	-0.06869973837	
555.625	0.06892629457	-0.1007358352	
556.25	0.05117972031	-0.1284663542	
556.875	-0.03880637384	-0.1400748998	
557.5	-0.09475651959	-0.08776589314	
558.125	-0.1063362916	-0.02799367226	
558.75	-0.09962929897	0.003260967825	
559.375	-0.09794848659	0.02532145245	
560.0	-0.0835629839	0.07102810294	
560.625	-0.04104897071	0.09973136572	
561.25	0.01151339334	0.08914638971	
561.875	0.02880151633	0.03869140916	
562.5	0.01261995057	0.04695647927	
563.125	0.06698348199	0.0605472048	
563.75	0.1255043088	-0.005683389801	
564.375	0.1082233593	-0.09308398792	
565.0	0.05733805774	-0.1363822185	
565.625	-0.03799974762	-0.1368785111	
566.25	-0.1066064559	-0.08988351405	
566.875	-0.1263148955	-0.0608873202	
567.5	-0.1267859529	-0.08815861444	
568.125	-0.1319816114	-0.1307777127	
568.75	-0.1992572665	-0.05584168756	
569.375	-0.1973288278	0.09706823326	
570.0	-0.09396397721	0.1811881206	
570.625	-0.04060747571	0.1541466417	
571.25	0.007151652709	0.1025052445	
571.875	0.05420701069	0.06178555359	
572.5	0.1092778592	-0.008395161123	
573.125	0.07155780478	-0.1017879705	
573.75	0.0316167472	-0.1002579795	
574.375	0.007038992515	-0.06123579881	
575.0	0.02279141199	-0.0348230327	
575.625	0.03057363246	-0.06476381131	
576.25	0.0363295843	-0.09727661462	
576.875	-0.009020394286	-0.1247049329	
577.5	-0.007809627558	-0.1397754811	
578.125	-0.04571339842	-0.1370166925	
578.75	-0.07969119314	-0.1032513219	
579.375	-0.07851860588	-0.0544638717	
580.0	-0.04795849933	-0.02456343568	
580.625	-0.06278365337	-0.02093954346	
581.25	-0.085051188	0.07209129658	
581.875	0.01471613724	0.136544098	
582.5	0.05479112508	0.1199852449	
583.125	0.06963342393	0.06502253917	
583.75	0.03645530664	0.01674610012	
584.375	0.03282448501	0.04754466098	
585.0	0.09897387366	0.04462685102	
585.625	0.1355119028	-0.01007349073	
586.25	0.1271544116	-0.0635176905	
586.875	0.05617024417	-0.1221617916	
587.5	-0.01955604321	-0.1215953433	
588.125	-0.02094083043	-0.1215287102	
588.75	0.02202139678	-0.1277083874	
589.375	0.05041014249	-0.1368411939	
590.0	-0.05808566713	-0.1496592041	
590.625	-0.1635503549	-0.02517093077	
591.25	-0.1066600696	0.1050209413	
591.875	-0.02566494205	0.1058954922	
592.5	0.008472566776	0.04316701551	
593.125	-0.02360597946	0.04491708759	
593.75	0.05217320461	0.100698396	
594.375	0.1335979037	0.08070719269	
595.0	0.1497215662	0.08252170338	
595.625	0.1509931473	0.06396166027	
596.25	0.1395782894	0.03074793029	
596.875	0.1384587042	0.02553825788	
597.5	0.1306236529	0.06274896762	
598.125	0.1352141303	0.09038245465	
598.75	0.1595538117	0.06122387487	
599.375	0.1816602538	-0.04491021992	
600.0	0.1345486242	-0.1368339685	
600.625	0.110683517	-0.1615420166	
601.25	0.04940391822	-0.1693488055	
601.875	-0.07565755885	-0.1206082029	
602.5	-0.1139918952	-0.005759274541	
603.125	-0.09200530227	0.04930320913	
603.75	-0.08868832522	0.06892100109	
604.375	-0.08161152388	0.06975915323	
605.0	-0.05742570248	0.0705288171	
605.625	-0.05995000149	0.05834800358	
606.25	-0.09479323381	0.06116057949	
606.875	-0.1427304889	0.08424125066	
607.5	-0.1341428202	0.1656325634	
608.125	-0.007836198183	0.2160000099	
608.75	0.1709409664	0.1331418662	
609.375	0.2028933156	-0.04657293237	
610.0	0.1385040804	-0.1189471142	
610.625	0.06309964668	-0.146083607	
611.25	-0.005996847682	-0.1399815431	
611.875	-0.08452787851	-0.1045502339	
612.5	-0.1463379892	-0.04625314037	
613.125	-0.167250026	0.04040752081	
613.75	-0.07333309922	0.1331877257	
614.375	0.04853556296	0.09338254255	
615.0	0.03804154622	0.03641346441	
615.625	0.00114741658	0.07608469994	
616.25	-0.03047659642	0.1278253509	
616.875	-0.06157256846	0.1692172843	
617.5	-0.04469151794	0.197674909	
618.125	0.003208638287	0.190065906	
618.75	0.03928155801	0.1660861625	
619.375	0.09643431688	0.1365628912	
620.0	0.1733311604	0.022086696	
620.625	0.082132022	-0.1487596081	
621.25	-0.09494123799	-0.1550146503	
621.875	-0.1878910329	-0.05988762525	
622.5	-0.1860889866	0.0696512293	
623.125	-0.01850623501	0.1680655865	
623.75	0.1203120747	0.02668458755	
624.375	0.03110022537	-0.05180284049	
625.0	0.03315271979	-0.02663723382	
625.625	0.03903762887	-0.08293610683	
626.25	-0.05133358265	-0.1190827703	
626.875	-0.1276995863	-0.06814827208	
627.5	-0.1312208646	-0.03071153765	
628.125	-0.102608361	-0.05496807615	
628.75	-0.07078790859	-0.1043112054	
629.375	-0.09161097281	-0.1283405773	
630.0	-0.1729756687	-0.07314940416	
630.625	-0.1913915299	0.07760668437	
631.25	-0.109651192	0.1858123186	
631.875	0.0001909567906	0.220024719	
632.5	0.1483942838	0.1586783637	
633.125	0.1900304302	0.02828786649	
633.75	0.1434064535	-0.07670647778	
634.375	0.04369937653	-0.1270486632	
635.0	-0.02693463963	-0.1304992274	
635.625	-0.1378282882	-0.06600719619	
636.25	-0.1327885464	0.07794665884	
636.875	-0.04615328248	0.1188657438	
637.5	-0.0238264756	0.08243113078	
638.125	-0.0509959358	0.08349944453	
638.75	-0.04767618971	0.1526521304	
639.375	0.02148940956	0.2203760984	
640.0	0.1445036283	0.2014789427	
640.625	0.2252430917	0.1070349656	
641.25	0.2434189164	-0.03259122277	
641.875	0.131640059	-0.1809594929	
642.5	-0.0304344458	-0.1887351991	
643.125	-0.1204446071	-0.09471053796	
643.75	-0.125694766	-0.05119255952	
644.375	-0.1577576198	0.01619376078	
645.0	-0.1159254046	0.1504245133	
645.625	0.06818102913	0.1862998274	
646.25	0.1540371542	0.05360924111	
646.875	0.08733860293	-0.02517667488	
647.5	0.05132212619	0.02405498233	
648.125	0.1452193218	0.03466564628	
648.75	0.2265573173	-0.08020720063	
649.375	0.1791928926	-0.2298058182	
650.0	0.118711825	-0.2773226058	
650.625	0.1112171677	-0.2620633468	
651.25	0.1505543577	-0.222667661	
651.875	0.2035079194	-0.1696950473	
652.5	0.2304776802	-0.1164131665	
653.125	0.2209551699	-0.1320903627	
653.75	0.1389988379	-0.2293322279	
654.375	-0.09188512714	-0.2600671043	
655.0	-0.2655025545	-0.04336209525	
655.625	-0.1378734002	0.1826922162	
656.25	0.04822750599	0.150856696	
656.875	0.05399710394	0.0547512416	
657.5	0.04296703203	0.08711203873	
658.125	0.1423606136	0.1249521893	
658.75	0.2661554294	0.0403680881	
659.375	0.2706637129	-0.157385836	
660.0	0.1690913578	-0.2784346663	
660.625	0.09039845292	-0.3004961519	
661.25	0.1124817868	-0.2721398543	
661.875	0.1625941212	-0.2399401969	
662.5	0.205017187	-0.2040499383	
663.125	0.2041957626	-0.2005457341	
663.75	0.1068728249	-0.2666793516	
664.375	-0.0720097487	-0.2838318239	
665.0	-0.2572685187	-0.155063921	
665.625	-0.2666250803	0.1104826251	
666.25	-0.05969486209	0.2492082444	
666.875	0.1245501201	0.1698770508	
667.5	0.1721577648	0.06183883426	
668.125	0.1900316831	-0.03525937936	
668.75	0.1535773361	-0.1441363998	
669.375	0.06377719081	-0.2047055516	
670.0	-0.01424508201	-0.1958165108	
670.625	-0.01143704484	-0.1679161605	
671.25	0.03546513826	-0.1597125676	
671.875	0.1035018371	-0.1606457699	
672.5	0.1614808542	-0.1503118499	
673.125	0.1624263489	-0.1732619107	
673.75	0.1122839689	-0.2103764115	
674.375	0.01368699835	-0.2329351817	
675.0	-0.1033156701	-0.1982421678	
675.625	-0.1799039898	-0.09206091451	
676.25	-0.1621272679	0.0003354242447	
676.875	-0.1274230387	0.02732133453	
677.5	-0.1263935595	0.04630497147	
678.125	-0.1000942709	0.1416441738	
678.75	0.06130557149	0.1911342325	
679.375	0.1901097594	0.04037222238	
680.0	0.1208087678	-0.09560870434	
680.625	0.05329336108	-0.07730351168	
681.25	0.07812282868	-0.01852009705	
681.875	0.1349819358	0.03113994071	
682.5	0.1847815708	0.06406952593	
683.125	0.2206736891	0.04973368395	
683.75	0.2371430205	0.03745907381	
684.375	0.2463865092	0.01268737959	
685.0	0.2543031435	0.008988734205	
685.625	0.2534591894	-0.02797047723	
686.25	0.2549247091	-0.07068127455	
686.875	0.2453977712	-0.1654354528	
687.5	0.1744696489	-0.2942891212	
688.125	-0.09069149363	-0.3736738401	
688.75	-0.3883675941	-0.1008495833	
689.375	-0.2039142129	0.317830366	
690.0	0.1360943024	0.2946025826	
690.625	0.2359874548	0.1920132117	
691.25	0.3027130969	0.2034295664	
691.875	0.4217498588	0.2276333255	
692.5	0.5430270294	0.1313775542	
693.125	0.5765244791	-0.07707842473	
693.75	0.4923387967	-0.263198455	
694.375	0.3450115117	-0.3780212635	
695.0	0.3639138679	-0.2909554561	
695.625	0.4264321633	-0.1259416632	
696.25	0.4426330492	0.07960281408	
696.875	0.3933692449	0.2662643594	
697.5	0.4010809579	0.3108725625	
698.125	0.5169139812	0.08430533239	
698.75	0.2904130184	-0.430883398	
699.375	-0.4000078832	-0.2527601469	
700.0	-0.1827345175	0.3331459372	
700.625	0.1604751213	0.2381103072	
701.25	0.2117038125	0.1344169021	
701.875	0.2444595623	0.1805775538	
702.5	0.3188885066	0.178187696	
703.125	0.3741425654	0.0659707624	
703.75	0.3289847791	-0.1195586477	
704.375	0.2270885747	-0.1881868022	
705.0	0.1978732019	-0.1362124088	
705.625	0.2243305767	-0.02278233961	
706.25	0.2307763063	0.1283420771	
706.875	0.2306253878	0.2217321351	
707.5	0.2828145299	0.2455461807	
708.125	0.3918337382	0.02653184548	
708.75	0.1738987808	-0.3475666853	
709.375	-0.2800075638	-0.1850238657	
710.0	-0.1164311653	0.2118550149	
710.625	0.08417151121	0.1176121313	
711.25	0.09662502821	0.0846265309	
711.875	0.1938841594	0.0718068052	
712.5	0.2620362935	-0.05733741511	
713.125	0.2099884014	-0.176930837	
713.75	0.09347566039	-0.2295383643	
714.375	-0.01039464183	-0.2088049706	
715.0	-0.03749500035	-0.1743160893	
715.625	0.0003923857862	-0.1886742408	
716.25	0.1127082268	-0.2141365887	
716.875	0.2633583958	-0.1791843901	
717.5	0.4187165408	-0.08826988233	
718.125	0.5442522353	-0.05464144537	
718.75	0.6019090596	-0.2059570021	
719.375	0.539394362	-0.458520903	
720.0	0.2522307853	-0.7277294479	
720.625	0.02385725807	-0.7848176676	
721.25	-0.1930994686	-0.7944546604	
721.875	-0.3547984174	-0.7735226705	
722.5	-0.6307710477	-0.5176848515	
723.125	-0.6695076633	0.01943234747	
723.75	-0.2709131206	0.4298614544	
724.375	0.08460218687	0.387457795	
725.0	0.1795664618	0.2956181809	
725.625	0.1749870505	0.3700938747	
726.25	0.09156705067	0.5603466089	
726.875	0.02207548999	0.7796598474	
727.5	0.05793841732	1.117652404	
728.125	0.2111927254	1.530273577	
728.75	0.2728080167	2.280082355	
729.375	-0.02291424783	2.847610744	
730.0	0.5637090842	2.956901782	
730.625	0.7934947428	3.131384859	
731.25	-0.1884507673	3.169077941	
731.875	-1.548216051	2.408444424	
732.5	-2.365202429	1.2478177	
733.125	-1.789397319	0.8576239123	
733.75	-0.4045591246	1.212593926	
734.375	0.7719655131	0.1705895208	
735.0	-0.1239738628	-0.5042994134	
735.625	-0.3808060627	0.1577203064	
736.25	0.005018200204	0.4441414164	
736.875	0.4036822647	0.4150024301	
737.5	0.8631879868	0.03335844129	
738.125	1.113578924	-0.5099151418	
738.75	1.244724991	-1.079059983	
739.375	1.587569067	-1.415477191	
740.0	2.052150684	-1.3800132	
740.625	2.129915425	-0.1425333832	
741.25	0.596571719	2.039708775	
741.875	-1.883025578	0.4749837021	
742.5	-0.5897954371	-1.495809081	
743.125	-0.08674008972	-1.506631059	
743.75	-0.1761241357	-0.8080243142	
744.375	-0.4282609529	-0.005568778728	
745.0	0.08836113349	0.06330227494	
745.625	0.04199848246	-0.0128879164	
746.25	-0.04360430259	-0.11322467	
746.875	-0.1667243691	0.0430468545	
747.5	-0.03410922647	0.2918253091	
748.125	0.1545949755	0.3838612516	
748.75	0.2480953115	0.3594854079	
749.375	0.1333452358	0.3788747289	
750.0	-0.2363248099	0.2328040171	
