!Created with skrf (http://scikit-rf.org).
# GHz S RI R (50+0j) 
!freq	ReS11	ImS11	
500.0	0.3678766231	-1.175527089	
500.625	-0.2826281897	-0.7369061397	
501.25	0.01527161435	-0.6549952727	
501.875	-0.4083356329	-0.4220642862	
502.5	-0.006290310224	-0.06086491852	
503.125	-0.09415281578	-0.01728730364	
503.75	0.06042342108	0.05121825809	
504.375	0.01741653993	0.02007840724	
505.0	0.002138600047	-0.05447359847	
505.625	0.0130886739	0.006357891454	
506.25	-0.1291929707	-0.1203149639	
506.875	0.03710527599	0.1377918841	
507.5	0.1576653543	-0.4632921718	
508.125	-0.2225223216	-0.7042960694	
508.75	0.1750222773	-0.4224803648	
509.375	0.0881775444	-1.37687223	
510.0	-0.4656505793	-0.1082179594	
510.625	-0.01986185319	-0.145082425	
511.25	-0.1197962553	0.0001941357727	
511.875	-0.05365900508	0.01253991058	
512.5	-0.04065747289	0.0348545358	
513.125	-0.03662240237	-0.05686845746	
513.75	-0.03750903788	0.01583619403	
514.375	-0.02000948153	-0.0876437121	
515.0	-0.2180866796	0.08727081809	
515.625	0.1944207907	-0.9448968269	
516.25	-0.6765828816	-0.516555714	
516.875	0.06868012112	-0.1417211462	
517.5	-0.07733864157	-0.2674824769	
518.125	0.06271640331	0.01897476932	
518.75	-0.006269784823	-0.2086288659	
519.375	-0.03370931261	0.05003521407	
520.0	0.07663144011	0.01290465445	
520.625	0.119786217	-0.06556004324	
521.25	0.009796206561	-0.3039214935	
521.875	-0.11527434	0.07509375641	
522.5	-0.04624703133	-0.04598601564	
523.125	-0.08190205977	0.07765466081	
523.75	-0.04873322552	-0.1087051694	
524.375	-0.2248743077	0.1321442902	
525.0	0.06980337731	0.04501335327	
525.625	-0.05582204002	0.03865677783	
526.25	0.06825082041	0.002132130618	
526.875	-0.1030787146	0.05981924199	
527.5	0.01268156697	0.2481592333	
528.125	-0.0005574526762	0.1696934808	
528.75	-0.06297591742	0.2155467972	
529.375	0.02751148721	0.006330796006	
530.0	0.01098395272	0.1601740747	
530.625	0.2375576626	0.2482868366	
531.25	0.1798471456	-0.01701854426	
531.875	0.09745492004	-0.08924593147	
532.5	-0.06577466243	-0.1858924831	
533.125	-0.01373787772	0.1383596648	
533.75	0.0640783237	-0.2648307821	
534.375	-0.1355814267	-0.1182309977	
535.0	-0.1865353277	-0.1750067554	
535.625	-0.1775583481	0.1727519947	
536.25	0.0008182288491	0.04705370025	
536.875	0.09630702092	0.04291459593	
537.5	0.04166790539	-0.07282164494	
538.125	0.08190390603	0.008203386408	
538.75	0.1370467138	-0.1747364745	
539.375	-0.0686106686	-0.1022191803	
540.0	-0.09336209447	-0.1695112704	
540.625	-0.2043151287	-0.006217350441	
541.25	-0.02392703245	0.04638971572	
541.875	-0.02812346093	-0.05567435414	
542.5	-0.1030329412	-0.06264757201	
543.125	-0.007194581793	-0.0440177197	
543.75	-0.1354209151	-0.0131753828	
544.375	0.04217180739	0.06909648034	
545.0	-0.04515818629	0.07669911959	
545.625	0.1324874855	0.009979526121	
546.25	0.02722621804	0.06001561858	
546.875	0.1514318878	-0.06337382032	
547.5	0.005937586884	-0.08312128625	
548.125	0.008804741155	-0.1371242143	
548.75	-0.1490413161	-0.1316819079	
549.375	-0.1110303831	0.001581371778	
550.0	-0.05641698381	-0.03915054519	
550.625	-0.06184028878	0.04077115683	
551.25	-0.05731275195	-0.00603445539	
551.875	-0.08042771621	0.08609568712	
552.5	-0.01602245308	0.04908060533	
553.125	-0.02588902398	0.06355080541	
553.75	0.04758185963	0.0299586078	
554.375	0.07368073872	0.0009830269109	
555.0	0.09063486694	-0.06810767092	
555.625	0.06692122388	-0.1049547356	
556.25	0.05203655691	-0.1220726906	
556.875	-0.034470045	-0.1422015306	
557.5	-0.09597280909	-0.0893129202	
558.125	-0.1029895599	-0.02666407935	
558.75	-0.09901674078	-0.003398221116	
559.375	-0.1038536936	0.03297208742	
560.0	-0.0739189178	0.06567932639	
560.625	-0.06322356327	0.09477513662	
561.25	0.02266185268	0.1084094729	
561.875	0.01559901199	0.01258324284	
562.5	0.0221629265	0.07895490904	
563.125	0.05503502489	0.02582389591	
563.75	0.1376716416	0.03134516586	
564.375	0.1114748469	-0.1320720289	
565.0	0.04573433635	-0.094318142	
565.625	0.01558748055	-0.1790196033	
566.25	-0.1466030788	-0.06451819633	
566.875	-0.07810523144	-0.0727989717	
567.5	-0.1598155523	-0.1459960965	
568.125	-0.1828700696	-0.0413100445	
568.75	-0.149425092	-0.1186493743	
569.375	-0.2514253814	0.1513283561	
570.0	-0.005930339197	0.1257581261	
570.625	-0.1529765477	0.1490561367	
571.25	0.08322475984	0.1499786944	
571.875	-0.01651720448	0.0389634034	
572.5	0.1934263494	0.01067603413	
573.125	-0.02308611264	-0.1484754647	
573.75	0.0658564739	-0.01296923306	
574.375	0.02195373221	-0.1509218228	
575.0	-0.009683685071	0.04197660971	
575.625	0.07693118883	-0.1508337817	
576.25	-0.04330039328	-0.07550324826	
576.875	0.06300942816	-0.08709328199	
577.5	-0.005679523616	-0.2146848583	
578.125	-0.1588451356	-0.1098127583	
578.75	-0.006349744755	-0.04036648065	
579.375	-0.08569339949	-0.1394311258	
580.0	-0.1088812306	0.09287558442	
580.625	-0.04926085715	-0.1836059074	
581.25	-0.07128093603	0.1810902154	
581.875	-0.004060567961	0.02766834285	
582.5	0.003845935614	0.2743369936	
583.125	0.1739137062	0.004601213601	
583.75	-0.08533798681	0.05603210939	
584.375	0.1279593024	0.07715920337	
585.0	0.03448107374	-0.02476047784	
585.625	0.1301998198	0.09317694168	
586.25	0.1897639248	-0.1308889796	
586.875	-0.00382639485	-0.0708776635	
587.5	0.03763612275	-0.1775372482	
588.125	-0.1005594483	-0.1210715269	
588.75	0.08199068943	-0.07017723188	
589.375	0.07200193778	-0.2133664547	
590.0	-0.1072682626	-0.08671886581	
590.625	-0.09693178609	-0.08277426436	
591.25	-0.2404516986	0.1559942704	
591.875	0.09471904269	0.1253942253	
592.5	-0.08538871219	0.002705252752	
593.125	0.06234089574	0.07782577708	
593.75	-0.07421695622	0.1549331127	
594.375	0.2461710788	0.11935803	
595.0	0.05470781631	-0.008382633366	
595.625	0.1050642682	0.1385133656	
596.25	0.1882828252	-0.06317261546	
596.875	0.07641915473	-0.02223073327	
597.5	0.1041791552	0.1417803499	
598.125	0.2097154171	0.06993616915	
598.75	0.09025145004	0.04063454697	
599.375	0.2357519216	0.006189887949	
600.0	0.1169328324	-0.1664801249	
600.625	0.08539321384	-0.1024220433	
601.25	0.104048596	-0.1826386399	
601.875	-0.1516918603	-0.1252231706	
602.5	-0.02337429281	0.003579842807	
603.125	-0.1847862983	0.01127712761	
603.75	0.02978115771	0.1327524669	
604.375	-0.07452888155	-0.0291597481	
605.0	-0.1217014995	0.1421528587	
605.625	0.00946097665	-0.08136031651	
606.25	-0.2044551719	0.1036289006	
606.875	-0.07282827508	0.1554246778	
607.5	-0.150730274	0.06439821366	
608.125	-0.03065034499	0.2744455596	
608.75	0.1467083998	0.1231833187	
609.375	0.1118441556	-0.02721677769	
610.0	0.2331743708	-0.08037634634	
610.625	0.06145041453	-0.181430114	
611.25	0.01616379915	-0.0857613431	
611.875	-0.1624652696	-0.17288887	
612.5	-0.07809605121	0.0139945134	
613.125	-0.1798276396	-0.05481670871	
613.75	-0.07400775154	0.2368654055	
614.375	0.09370114893	-0.02404435644	
615.0	-0.05426685679	0.1427179067	
615.625	0.1170583402	0.06982323036	
616.25	-0.07572006357	0.0456659074	
616.875	-0.03266832705	0.2385833656	
617.5	0.06655437077	0.174807942	
618.125	-0.07657429241	0.1937382701	
618.75	0.08668133475	0.2492142706	
619.375	0.0582369053	0.1859394664	
620.0	0.1870297684	0.09697714516	
620.625	0.138871639	-0.1305594506	
621.25	-0.116017661	-0.097523387	
621.875	-0.02626128437	-0.03878866348	
622.5	-0.2697527305	0.06314293187	
623.125	0.05894742106	0.1534071876	
623.75	0.04977157466	0.1015544606	
624.375	0.07869518556	-0.1466330182	
625.0	0.04603933458	0.0552159623	
625.625	0.03313314873	-0.1623054507	
626.25	-0.06678663401	-0.03369357864	
626.875	-0.07504791736	-0.1360752995	
627.5	-0.2117844093	-0.03351667773	
628.125	-0.07846745532	0.01298708554	
628.75	-0.04541384074	-0.1131756791	
629.375	-0.1279680919	-0.1583952673	
630.0	-0.2277051183	-0.02952828303	
630.625	-0.2303222345	0.03257891641	
631.25	-0.1111506603	0.2226646524	
631.875	0.02516594202	0.1783018812	
632.5	0.1214561949	0.2449289724	
633.125	0.2368846578	0.001087617013	
633.75	0.05943996566	-0.06177701043	
634.375	0.1286706419	-0.132373259	
635.0	-0.1415398383	-0.1762995866	
635.625	-0.03074946728	-0.06686163761	
636.25	-0.2289615148	0.07729103641	
636.875	0.03989804231	0.1479580346	
637.5	-0.08051298553	0.01538919237	
638.125	-0.05114704137	0.1925227883	
638.75	-0.02644452193	0.05167789957	
639.375	-0.09140211546	0.2735491181	
640.0	0.2357365818	0.2204992864	
640.625	0.1784097593	0.04116346236	
641.25	0.2705097952	0.08146410544	
641.875	0.1894190963	-0.261754245	
642.5	-0.0707987841	-0.1018650111	
643.125	-0.09353483151	-0.2107490832	
643.75	-0.1994805	0.03139226005	
644.375	0.03889419266	-0.08280063814	
645.0	-0.2824940728	0.1984634648	
645.625	0.2852584369	0.1490712308	
646.25	-0.01157748146	0.02854984013	
646.875	0.2411690955	0.05088739582	
647.5	-0.08250269945	-0.05792587465	
648.125	0.3215540207	0.1879569308	
648.75	0.1524929604	-0.2111924176	
649.375	0.2046773551	-0.07003590945	
650.0	0.2292005103	-0.4036832017	
650.625	-0.07218095184	-0.2986382675	
651.25	0.168951022	-0.05070022533	
651.875	0.3701788345	-0.1839192504	
652.5	0.2266250008	-0.2342669224	
653.125	0.1041923098	-0.02672828547	
653.75	0.2914676644	-0.2375247644	
654.375	-0.1912358683	-0.2069386028	
655.0	-0.1778521199	-0.1815081038	
655.625	-0.2962801273	0.3140047625	
656.25	0.1033991706	0.04785775752	
656.875	-0.03653032725	0.1370478578	
657.5	0.2445187255	0.07766129138	
658.125	-0.02059827228	0.0456667532	
658.75	0.3578718181	0.2679352401	
659.375	0.3242970812	-0.3075052255	
660.0	0.08000701389	-0.1552369238	
660.625	0.2213204465	-0.2885530201	
661.25	0.01805388352	-0.4053179758	
661.875	0.1695767762	-0.07556029598	
662.5	0.3075721525	-0.3052786962	
663.125	0.1113046553	-0.2154898258	
663.75	0.1967995935	-0.1433880629	
664.375	-0.02665684202	-0.4185757441	
665.0	-0.3161087797	-0.08973719929	
665.625	-0.1564041098	0.03210333719	
666.25	-0.173364593	0.2831577836	
666.875	0.2039194376	0.1249955994	
667.5	0.09518445416	0.1455155663	
668.125	0.3122002572	-0.09994863139	
668.75	0.05492161458	-0.1054201252	
669.375	0.1815273573	-0.1786201679	
670.0	-0.09145728393	-0.3280553752	
670.625	-0.02842123872	0.03604404229	
671.25	0.1631420647	-0.1834155966	
671.875	0.07029811129	-0.2432517081	
672.5	0.09087086972	-0.04513654298	
673.125	0.3360177748	-0.1801109181	
673.75	0.01970012677	-0.2473475442	
674.375	0.09050943465	-0.1545183542	
675.0	-0.0630275477	-0.3018015325	
675.625	-0.2421459674	0.01479278071	
676.25	-0.02933952336	-0.06158095463	
676.875	-0.2472176798	-0.01919467138	
677.5	-0.06713071819	0.111983086	
678.125	-0.150251841	0.0139584342	
678.75	0.06440599982	0.3293717571	
679.375	0.1501876772	-0.07140452679	
680.0	0.1400683754	0.09906771779	
680.625	0.1412402468	-0.2230586194	
681.25	-0.2102187654	0.1075819261	
681.875	0.2973811217	0.2227637651	
682.5	0.2601562919	-0.08993085844	
683.125	0.04426767299	0.1428330596	
683.75	0.409161218	0.1777497887	
684.375	0.2819484784	-0.1602069506	
685.0	0.08096060347	0.1930831881	
685.625	0.3651208897	-0.1203056064	
686.25	0.1685409812	-0.1106372433	
686.875	0.3159394621	0.006579817752	
687.5	0.2985329434	-0.4583794066	
688.125	-0.07029691038	-0.246609806	
688.75	-0.2584953965	-0.2646836219	
689.375	-0.3617202913	0.3264948932	
690.0	0.258357083	0.2355775347	
690.625	0.01770384743	0.2939227372	
691.25	0.4745951099	0.1960175088	
691.875	0.217953883	0.1268595442	
692.5	0.6019838329	0.3836273876	
693.125	0.6471501872	-0.2511318697	
693.75	0.346540061	0.0400020416	
694.375	0.5941312585	-0.410053108	
695.0	0.2141512056	-0.4102345441	
695.625	0.2623072429	-0.05806666184	
696.25	0.5042035984	0.2646546459	
696.875	0.5793323035	0.2441607156	
697.5	0.348720147	0.4224640372	
698.125	0.520062849	0.2878274268	
698.75	0.2974781012	-0.5213641314	
699.375	-0.1940348361	-0.3216395616	
700.0	-0.2939689798	0.2706960843	
700.625	0.2518613083	0.2144568596	
701.25	0.06542528265	0.1006828502	
701.875	0.2947572245	0.3589828731	
702.5	0.4041790675	-0.03062809706	
703.125	0.2044572223	0.149081192	
703.75	0.4713206721	-0.05736125189	
704.375	0.1238235509	-0.2748553774	
705.0	0.2731295466	0.02826054026	
705.625	0.2713009321	-0.129082142	
706.25	0.09931523713	0.06928195165	
706.875	0.278219615	0.3226525743	
707.5	0.42545964	0.2761280068	
708.125	0.5127045302	0.1067382909	
708.75	0.3045774827	-0.269234152	
709.375	-0.1575682224	-0.3502237016	
710.0	-0.04501188362	0.2270634347	
710.625	-0.08905638493	0.001247533083	
711.25	0.1919688819	0.04159223637	
711.875	-0.01249554191	0.07654196267	
712.5	0.3812294574	-0.005371554445	
713.125	0.1300304575	-0.302674655	
713.75	0.1171413878	-0.09074667051	
714.375	0.05503662603	-0.3222502667	
715.0	-0.1329264785	-0.145641094	
715.625	0.06793558473	-0.1071883155	
716.25	0.1942170052	-0.3241736731	
716.875	0.1032546861	-0.191231532	
717.5	0.4131245241	0.07011902545	
718.125	0.789715862	-0.1161928727	
718.75	0.5937045864	-0.2580612018	
719.375	0.8508624683	-0.2399991268	
720.0	0.1312181624	-0.9693183786	
720.625	-0.06417120074	-0.5932748022	
721.25	0.5480519765	-0.5724168163	
721.875	-0.455522087	-1.088960786	
722.5	-0.5141462606	0.02203747841	
723.125	-0.7586002608	-0.3718991051	
723.75	-0.2211486841	0.7240962766	
724.375	0.04546330639	0.1885178836	
725.0	0.1286529856	0.5407642749	
725.625	0.3727631303	0.2111145203	
726.25	-0.1438998972	0.4078600494	
726.875	-0.1525336531	0.9987355281	
727.5	0.2904095771	1.252092181	
728.125	0.1185995678	0.9475255776	
728.75	-0.4718195409	3.028251922	
729.375	0.5510724946	3.549706854	
730.0	-0.5927686068	1.838928405	
730.625	0.1681856448	5.523090394	
731.25	0.6939989036	1.996089338	
731.875	-2.093846291	0.9515806494	
732.5	-3.388839573	1.258203513	
733.125	-1.625271642	1.35094431	
733.75	-0.5580172474	0.2699595586	
734.375	1.277759122	1.094818717	
735.0	-0.3766468532	-0.4407928004	
735.625	-0.3080698507	-0.1723642838	
736.25	0.03611560597	0.7595235246	
736.875	0.1114553678	-0.159544004	
737.5	1.000282762	0.7016516349	
738.125	1.38896921	-0.9605056377	
738.75	0.4652004305	-0.9078142894	
739.375	1.712659337	0.3188835999	
740.0	4.896639095	-2.665696382	
740.625	-0.1098808053	-2.605731915	
741.25	-2.263225879	3.18092154	
741.875	-1.968816373	3.429718875	
742.5	0.8071998721	-0.5840352114	
743.125	0.1235997593	-2.658080431	
743.75	-0.5570958847	-0.7449100022	
744.375	-0.04361338169	-0.1263121962	
745.0	0.002115287075	0.2913679892	
745.625	-0.05437625479	-0.04909105397	
746.25	0.06614375284	-0.1875306875	
746.875	-0.2350373954	0.07815989708	
747.5	0.01567482671	0.135004402	
748.125	-0.003046439512	0.4848039332	
748.75	0.3702674126	0.3799016078	
749.375	0.06670362309	0.2740162133	
750.0	-0.4206285489	0.2733391954	
