!Created with skrf (http://scikit-rf.org).
# GHz S RI R (50+0j) 
!freq	ReS11	ImS11	
500.0	-0.1137165957	-0.5547199394	
500.625	0.6031208046	-0.7561585175	
501.25	-0.6371440032	-0.4951411951	
501.875	-0.0781051949	-0.1634929095	
502.5	-0.008200357025	-0.1921668206	
503.125	-0.0570731051	0.04137390707	
503.75	-0.03011884109	0.04031624306	
504.375	0.04474269715	-0.01521387397	
505.0	0.002009430444	0.02267367005	
505.625	0.01113772095	-0.08519007583	
506.25	-0.07667330572	0.02527761537	
506.875	-0.09205670757	-0.1807833885	
507.5	-0.4153402675	-0.06288862564	
508.125	0.2031666712	-0.1891827443	
508.75	0.648830289	-1.045690649	
509.375	-0.3563098925	-0.907951904	
510.0	-0.1363924674	-0.3487715917	
510.625	-0.1080908859	-0.2469473767	
511.25	-0.05344247963	0.0009031826257	
511.875	-0.09694977405	-0.08299411844	
512.5	-0.0009026277253	0.07104847056	
513.125	-0.009011533702	5.850216291e-05	
513.75	-0.007764182898	-0.09904372807	
514.375	-0.1064226736	0.07782092049	
515.0	0.2431764162	-0.0731293544	
515.625	-0.3276193509	-0.3164430745	
516.25	0.4494463088	-0.5295712488	
516.875	-0.3871075241	-0.6153478983	
517.5	-0.02177354486	0.03172897812	
518.125	0.02821756194	-0.07011102922	
518.75	-0.1373781446	-0.09179318909	
519.375	-0.04242032326	0.01462961494	
520.0	0.08111187529	0.08430203991	
520.625	0.1621565439	-0.09088088755	
521.25	-0.04787917754	-0.154864149	
521.875	-0.09922860473	-0.06369990973	
522.5	-0.04810181592	0.08309018908	
523.125	-0.05518530854	-0.0850062273	
523.75	-0.1801771044	-0.001782880035	
524.375	-0.005960266432	0.0764450062	
525.0	-0.146774513	0.03911521433	
525.625	0.07813082016	0.1227520556	
526.25	-0.06641889743	-0.07746014841	
526.875	0.01757068875	0.05272135085	
527.5	-0.04714874783	0.04986979398	
528.125	-0.0179605686	0.3154005656	
528.75	0.09733561378	0.1043617359	
529.375	0.03192847411	0.07649398244	
530.0	0.11850212	0.1510528781	
530.625	0.1194491113	0.2215741861	
531.25	0.3220609116	0.2484498515	
531.875	0.3668080147	-0.1016219754	
532.5	-0.03398849317	0.01618754828	
533.125	0.06249517741	-0.1929126168	
533.75	0.03061415902	-0.03172361064	
534.375	0.06181130828	-0.3010350298	
535.0	-0.2222468838	-0.004165419844	
535.625	-0.116104451	0.03222590963	
536.25	-0.01643773021	0.109941274	
536.875	0.09778542823	-0.02612847026	
537.5	0.0461878312	0.004542729192	
538.125	0.1310924097	-0.0913593081	
538.75	0.04112838589	-0.08648826897	
539.375	-0.04816279013	-0.1430901176	
540.0	-0.2094781389	-0.1130345036	
540.625	-0.09679376669	0.005740259756	
541.25	-0.1055893932	-0.04289226721	
541.875	-0.1070316823	-0.01982684521	
542.5	0.003725134051	-0.05348238815	
543.125	-0.1250550679	-0.0619235603	
543.75	-0.02110702899	0.0317935194	
544.375	-0.09464930685	-0.03299641468	
545.0	0.04602108427	0.05891078723	
545.625	-0.01272658014	0.06899145921	
546.25	0.1689909007	0.04108062775	
546.875	0.03676765734	-0.03837492934	
547.5	0.1062250442	-0.09493914528	
548.125	-0.08664465868	-0.1736269573	
548.75	-0.08323024505	-0.04506898774	
549.375	-0.06705046982	-0.1045581686	
550.0	-0.09202914658	0.04371735669	
550.625	-0.02095537987	-0.02639663902	
551.25	-0.0912359474	0.04619706617	
551.875	-0.03483040915	0.05112600281	
552.5	-0.05747393036	0.07493632215	
553.125	0.005467301963	0.05313276134	
553.75	0.03169033342	0.04564599339	
554.375	0.09563917553	-0.0009942591916	
555.0	0.07916398664	-0.06740891138	
555.625	0.07668063836	-0.09366052401	
556.25	0.05855034879	-0.1298535432	
556.875	-0.03737097435	-0.138962439	
557.5	-0.08613707313	-0.08767758748	
558.125	-0.1076748449	-0.03523437572	
558.75	-0.1018559651	0.008062422185	
559.375	-0.09084895323	0.01875892548	
560.0	-0.09527284123	0.06826673489	
560.625	-0.03315800065	0.1119901908	
561.25	0.003794422947	0.06241101399	
561.875	0.0274183372	0.07205471908	
562.5	0.01468128588	0.01330128373	
563.125	0.06509275851	0.09888228249	
563.75	0.1263225119	-0.04011520942	
564.375	0.09470628325	-0.0477379464	
565.0	0.09016905583	-0.1645087217	
565.625	-0.06575193862	-0.1109368047	
566.25	-0.05166023678	-0.09887341946	
566.875	-0.1747961834	-0.1046848715	
567.5	-0.1180165553	0.01191246228	
568.125	-0.07039123116	-0.1835153551	
568.75	-0.2668532042	-0.0283495093	
569.375	-0.132998449	0.07645656902	
570.0	-0.2213177635	0.1967883151	
570.625	0.03413691049	0.1945257429	
571.25	-0.05718265277	0.02573119289	
571.875	0.1078899448	0.1102638256	
572.5	0.01714401636	-0.0570500799	
573.125	0.1443276387	-0.03237982148	
573.75	0.02434594827	-0.1881782178	
574.375	-0.04036178719	0.01439728625	
575.0	0.09430874624	-0.09521032464	
575.625	-0.03979748478	-0.02910961952	
576.25	0.1097877528	-0.07430700958	
576.875	-0.04987795234	-0.1978315494	
577.5	-0.04568567092	-0.07584479925	
578.125	0.03783728391	-0.1419186607	
578.75	-0.1536888834	-0.2211934898	
579.375	-0.09136671996	0.06405809744	
580.0	0.03427897562	-0.1656708149	
580.625	-0.1248589339	0.07906113582	
581.25	-0.06850471915	-0.07883703452	
581.875	-0.02131965251	0.2409481682	
582.5	0.1547635089	0.003010158651	
583.125	-0.04502693791	0.06051890005	
583.75	0.1180372903	0.06225898277	
584.375	-0.03395375279	-0.02337644966	
585.0	0.1586113274	0.1463337821	
585.625	0.1612143541	-0.09506808229	
586.25	0.06181117365	-0.004557796472	
586.875	0.1407488551	-0.1525080308	
587.5	-0.07881401604	-0.06518321614	
588.125	0.05691950887	-0.1008263665	
588.75	0.009387333265	-0.2032860421	
589.375	-0.01641477722	-0.08844960961	
590.0	0.05267627233	-0.1886544816	
590.625	-0.2583044527	0.003916714734	
591.25	-0.02867131586	0.08988929669	
591.875	-0.1522164284	0.06211138768	
592.5	0.1153117574	0.1174889669	
593.125	-0.1210700598	-0.009493718974	
593.75	0.1456788464	0.1269606699	
594.375	0.04988179327	0.03575264034	
595.0	0.2156446948	0.1895179752	
595.625	0.2213149544	0.004728060044	
596.25	0.05123440707	0.02072598619	
596.875	0.216911908	0.05460418011	
597.5	0.1470580793	-0.00480612186	
598.125	0.06041538733	0.0881462394	
598.75	0.2168657853	0.09547783635	
599.375	0.1454718409	-0.1085214766	
600.0	0.1605573724	-0.1085324457	
600.625	0.1540306022	-0.2091863352	
601.25	-0.02714224499	-0.1670675078	
601.875	0.01362738948	-0.1031214702	
602.5	-0.2225516532	-0.008047284803	
603.125	-0.009915119705	0.0764491422	
603.75	-0.1366729268	-0.02160272206	
604.375	-0.08610661814	0.2137418866	
605.0	0.02931565465	0.003423260999	
605.625	-0.1231070563	0.1842793293	
606.25	-0.001246023918	0.1010167705	
606.875	-0.184481368	-0.005662939734	
607.5	-0.1837956233	0.2483971835	
608.125	-0.07772750863	0.168791537	
608.75	0.09314573421	0.1813595698	
609.375	0.2195633388	-0.04369523588	
610.0	0.06695998851	-0.1494937839	
610.625	0.0227661444	-0.1216912386	
611.25	-0.04359216267	-0.220973285	
611.875	-0.06517933168	-0.02590711162	
612.5	-0.1665619662	-0.1530435095	
613.125	-0.2288374933	0.1326207955	
613.75	-0.02069485244	0.02547349446	
614.375	-0.01566410003	0.1919574221	
615.0	0.09649808438	-0.06458886514	
615.625	-0.1186007386	0.1034494888	
616.25	0.05232460474	0.1531704854	
616.875	-0.01235765097	0.06419807896	
617.5	-0.1167703954	0.2219272108	
618.125	0.03906723392	0.1649210472	
618.75	0.04041243681	0.112301861	
619.375	0.0657640957	0.2269622793	
620.0	0.1975130039	-0.01462581519	
620.625	0.03355921322	-0.1744668746	
621.25	-0.04371141921	-0.209871303	
621.875	-0.2549835494	-0.00645780685	
622.5	-0.08179451157	0.0504296663	
623.125	-0.1233945255	0.1881800171	
623.75	0.185589009	-0.03045231578	
624.375	0.0004371365614	0.03180812959	
625.0	0.06337679414	-0.1187034231	
625.625	0.021217978	-0.0006541722027	
626.25	-0.0005845971029	-0.172020477	
626.875	-0.1968642956	-0.03668995464	
627.5	-0.05754825791	-0.00729561095	
628.125	-0.1181642789	-0.1492472176	
628.75	-0.08475196564	-0.1021785967	
629.375	-0.0358324555	-0.1278030707	
630.0	-0.2278964529	-0.128467461	
630.625	-0.1428858006	0.1175678833	
631.25	-0.07907867823	0.1110074332	
631.875	-0.03127300285	0.2640574495	
632.5	0.2003795829	0.1234104797	
633.125	0.1242799829	0.07792858597	
633.75	0.2779055976	-0.02324286901	
634.375	-0.03825692371	-0.1255940365	
635.0	0.07494744482	-0.119841893	
635.625	-0.2427240228	-0.08813309543	
636.25	-0.05659977215	0.07838321447	
636.875	-0.1364033784	0.03467957188	
637.5	0.0271607641	0.1600990219	
638.125	-0.0838702267	-0.006559238448	
638.75	-0.08960855112	0.2338885249	
639.375	0.1133737899	0.1873446904	
640.0	0.02117260815	0.2044606845	
640.625	0.297502509	0.1946117835	
641.25	0.2703673255	-0.09375000192	
641.875	0.06661472569	-0.09009682213	
642.5	0.0435282347	-0.2729553765	
643.125	-0.1900696088	-0.009460961537	
643.75	-0.05829323185	-0.1473426202	
644.375	-0.3672655502	0.04669320533	
645.0	0.01102739385	0.1063661908	
645.625	-0.06083361749	0.2691344584	
646.25	0.3205752623	0.02392544613	
646.875	-0.097226725	-0.04703549194	
647.5	0.1815234545	0.09807117487	
648.125	0.04750272284	-0.06811962711	
648.75	0.2570616893	0.1399254089	
649.375	0.2467169897	-0.3825192822	
650.0	-0.009668002564	-0.2009861654	
650.625	0.2428083251	-0.1603874651	
651.25	0.2152583341	-0.4063595005	
651.875	0.05533951099	-0.1118774806	
652.5	0.337026785	0.05632173886	
653.125	0.2718932513	-0.2289408271	
653.75	0.02460149311	-0.1504849823	
654.375	0.1164873944	-0.3330255267	
655.0	-0.3675084331	-0.01106744816	
655.625	-0.04116074504	0.1080467683	
656.25	-0.1739716822	0.1927501166	
656.875	0.2131335297	0.04594135035	
657.5	-0.264602517	0.1182423121	
658.125	0.2901100611	0.2092326522	
658.75	0.2003312122	-0.04847167034	
659.375	0.2865246073	0.01057856807	
660.0	0.2891400322	-0.4607930559	
660.625	-0.03480305054	-0.2192146714	
661.25	0.2409284622	-0.2078799096	
661.875	0.1956007237	-0.3464339713	
662.5	0.06766946533	-0.1690282771	
663.125	0.3227628108	-0.07073565471	
663.75	0.1032294245	-0.3687234828	
664.375	-0.05579331172	-0.18215729	
665.0	-0.1962589106	-0.2717396524	
665.625	-0.3371126971	0.1630912671	
666.25	-0.0100347805	0.1545740765	
666.875	0.02097592503	0.2705223751	
667.5	0.2524316192	0.01014956386	
668.125	0.08325628181	0.02155481376	
668.75	0.3569635543	-0.164142889	
669.375	-0.03219710651	-0.2376926573	
670.0	0.1089468648	-0.08217267255	
670.625	0.05266893228	-0.2842903464	
671.25	-0.09298169767	-0.1302536702	
671.875	0.1971006852	-0.04906730097	
672.5	0.1611360382	-0.2883392111	
673.125	0.09407969442	-0.128609216	
673.75	0.2223745997	-0.1453238709	
674.375	-0.01709399473	-0.3619768587	
675.0	-0.09396948928	-0.07931285267	
675.625	-0.1237032556	-0.2191383188	
676.25	-0.2523716249	0.03344489848	
676.875	-0.02781096097	0.04011339007	
677.5	-0.2212254735	-0.05635410763	
678.125	-0.0637804581	0.241336547	
678.75	0.001071422465	0.08221767347	
679.375	0.2149409012	0.1940896078	
680.0	0.1032524636	-0.3356107956	
680.625	-0.008285892599	0.117819104	
681.25	0.2279147042	-0.07340331785	
681.875	-0.03800003344	-0.09313491484	
682.5	0.1131560148	0.3162035545	
683.125	0.447128116	-0.1932852312	
683.75	0.005486972861	-0.01880142412	
684.375	0.2992621205	0.1793134245	
685.0	0.3588871177	-0.05178672112	
685.625	0.08940676491	0.08893866649	
686.25	0.4125011966	0.1033013476	
686.875	0.2146433587	-0.3188972282	
687.5	0.161463996	-0.1257826241	
688.125	-0.01994310618	-0.4746488354	
688.75	-0.4942412994	-0.02087238278	
689.375	-0.1636066407	0.1096401579	
690.0	0.02323797836	0.4492540447	
690.625	0.3512706526	0.09305038629	
691.25	0.08271247935	0.2589072088	
691.875	0.6222324119	0.3841458263	
692.5	0.3436375439	-0.09255848887	
693.125	0.5096948298	0.1393278134	
693.75	0.6606528605	-0.531941488	
694.375	0.1216466518	-0.3999268759	
695.0	0.4320691922	-0.02558903154	
695.625	0.4606620752	-0.2613695253	
696.25	0.3194931946	0.1892973647	
696.875	0.2972419641	0.3795253082	
697.5	0.5293500837	0.3990050235	
698.125	0.4969951609	0.1762398414	
698.75	0.3901187793	-0.3251615591	
699.375	-0.4544991955	-0.4069054148	
700.0	-0.05349644928	0.3125910491	
700.625	-0.06814545512	0.3164668608	
701.25	0.3773159887	0.1858207809	
701.875	0.1105486183	0.1013289458	
702.5	0.3001159076	0.3469036051	
703.125	0.4976649556	-0.06287791361	
703.75	0.1683281796	-0.04475805052	
704.375	0.3680322961	-0.211530914	
705.0	0.1527560601	-0.265678802	
705.625	0.08058691191	0.07233976585	
706.25	0.3527780582	0.2726238363	
706.875	0.1390515782	0.2560545409	
707.5	0.1431898827	0.3240088331	
708.125	0.4944567913	0.161756304	
708.75	0.2091409751	-0.3796401069	
709.375	-0.2582303298	-0.09429157508	
710.0	-0.2560549346	0.253050822	
710.625	0.1481384368	0.08711458386	
711.25	-0.06454173778	0.1521474877	
711.875	0.4336965795	0.1527645933	
712.5	0.1217661908	-0.03676663353	
713.125	0.334995923	-0.1091782498	
713.75	0.07866300447	-0.3260129412	
714.375	-0.03688921243	-0.1016990433	
715.0	0.06152046887	-0.2372377783	
715.625	-0.1044670776	-0.2118585158	
716.25	0.1155023452	-0.08013568436	
716.875	0.4507330483	-0.1676384133	
717.5	0.3991546843	-0.1595017383	
718.125	0.3923642561	0.2299427272	
718.75	0.8991183674	-0.1713499247	
719.375	0.7281085601	-0.6062010573	
720.0	0.5551567207	-0.3526103056	
720.625	0.8027090529	-1.146840887	
721.25	-0.2808236727	-0.527211091	
721.875	0.04702789148	-0.874214433	
722.5	-0.8164616183	-0.936108355	
723.125	-0.595905539	0.1898300764	
723.75	-0.4889909488	0.1910620227	
724.375	0.1999915404	0.6873887076	
725.0	0.1361133719	0.09630769767	
725.625	0.001607022653	0.5238218262	
726.25	0.2563918803	0.6857256588	
726.875	0.0345196221	0.4805111258	
727.5	-0.4049247151	1.264234595	
728.125	0.3219318107	2.083381516	
728.75	0.2708001098	1.322626727	
729.375	-1.860581668	3.228262404	
730.0	1.102007316	4.122890822	
730.625	-0.1910484347	1.891649418	
731.25	-2.345126595	2.443698899	
731.875	-1.732668948	3.544335972	
732.5	-1.277439549	0.1560328972	
733.125	-2.648175245	0.1310293325	
733.75	-0.1857685831	1.807866083	
734.375	0.3319616761	0.1803720468	
735.0	0.3971189096	-0.9089950386	
735.625	-0.2423648345	0.569181203	
736.25	-0.380871094	0.2844749462	
736.875	0.558669332	0.7131416401	
737.5	0.8032782787	-0.3596071008	
738.125	0.8152160905	0.2313148906	
738.75	2.559589088	-1.435245746	
739.375	0.671142931	-2.324881755	
740.0	1.139427087	0.5543215314	
740.625	4.856289126	0.5263351929	
741.25	3.243189186	-2.001743668	
741.875	-4.628416442	-2.113587354	
742.5	-2.706834712	-1.325320476	
743.125	-0.1830189033	-0.4734311886	
743.75	0.6792860894	-0.9154661602	
744.375	-0.6360131503	0.02118457089	
745.0	0.03354196648	-0.005867287442	
745.625	0.1281679691	0.01027258815	
746.25	-0.07260059313	0.0205876915	
746.875	-0.217646212	-0.09271675663	
747.5	-0.03373530761	0.379032668	
748.125	0.1876935419	0.2768955906	
748.75	0.1218915229	0.401115471	
749.375	0.210892883	0.5170510319	
750.0	-0.194918798	0.1945998988	
