!Created with skrf (http://scikit-rf.org).
# GHz S RI R (50+0j) 
!freq	ReS11	ImS11	
500.0	0.4973437943	-0.8682899174	
500.625	-0.1084453453	-1.101194764	
501.25	-0.01492840047	-0.3360700516	
501.875	-0.3582661117	-0.6659148271	
502.5	-0.07442729993	-0.03598104255	
503.125	-0.05433969754	-0.030363963	
503.75	0.05515184547	0.1106236799	
504.375	-0.0006123722254	-0.004745606877	
505.0	0.03815529282	-0.04966406703	
505.625	-0.0389333225	-0.007798878417	
506.25	0.02017767484	-0.09337875038	
506.875	-0.1530138806	0.2024368319	
507.5	0.211360284	-0.3133492363	
508.125	0.1497148894	-0.8397805163	
508.75	0.03571222526	-0.5933555523	
509.375	0.3690744453	-0.8892093635	
510.0	-0.6162013744	-0.3979092923	
510.625	-0.03585477996	-0.04610257106	
511.25	-0.1066476556	-0.1154041723	
511.875	-0.1336584761	0.004208728114	
512.5	-0.03249400196	0.01696926255	
513.125	0.02485113757	-0.08627579701	
513.75	-0.06404996931	0.02982239476	
514.375	0.04109920927	-0.06900383496	
515.0	-0.2086380972	-0.0979730866	
515.625	0.3040501226	-0.1468984711	
516.25	-0.6769610135	-0.7608120557	
516.875	-0.1273493776	-0.04448052378	
517.5	0.0474662034	-0.1792148551	
518.125	-0.09921417712	-0.00989890271	
518.75	0.0681000614	-0.07325008903	
519.375	-0.03874165203	0.05044047533	
520.0	0.09596467652	0.007724442354	
520.625	0.0772972262	-0.01235283917	
521.25	0.06122126672	-0.2814690747	
521.875	-0.1570437111	0.01893930915	
522.5	0.006828155089	-0.02398091667	
523.125	-0.132281592	0.09740138391	
523.75	0.0002650250908	0.05336298287	
524.375	-0.215274741	-0.08998952844	
525.0	0.06544904613	0.2032565603	
525.625	-0.01819206018	-0.03230028007	
526.25	0.02766604733	0.04908183349	
526.875	-0.107617886	0.026081207	
527.5	-0.0513810221	0.2539150248	
528.125	0.1663806376	0.1394517081	
528.75	-0.05397353102	0.1351521996	
529.375	0.02556698154	0.006783077957	
530.0	-0.02210897339	0.04024892959	
530.625	0.06136188019	0.1959865251	
531.25	0.3961756577	-0.00672891722	
531.875	-0.002936623028	-0.233196838	
532.5	-0.03281090815	-0.1765240643	
533.125	-0.0207000814	0.07814043774	
533.75	0.1664953308	-0.2448579715	
534.375	-0.2095066239	-0.2204061801	
535.0	-0.1311086181	-0.1049344018	
535.625	-0.1958190459	0.1223928885	
536.25	0.03212950007	0.06586865771	
536.875	0.06146544018	0.04216182672	
537.5	0.07251437892	-0.06799314247	
538.125	0.0486495549	-0.04245604673	
538.75	0.1674268304	-0.09656056569	
539.375	-0.08301543257	-0.14462585	
540.0	-0.09492601326	-0.09983677089	
540.625	-0.1336420284	-0.04698935706	
541.25	-0.09731850841	0.03971427489	
541.875	0.01743331149	-0.008195537567	
542.5	-0.08617425847	-0.05962962953	
543.125	-0.05092257176	0.03678260067	
543.75	-0.1047164165	-0.05226885461	
544.375	-0.02617938183	0.1412869943	
545.0	-0.03392482908	0.01686265828	
545.625	0.0953516514	0.07469246878	
546.25	0.04937265255	-0.02303391146	
546.875	0.1308590356	0.03633857956	
547.5	0.03066165101	-0.1580447842	
548.125	-0.0259844197	-0.07907051919	
548.75	-0.1049589231	-0.1462170511	
549.375	-0.151334806	-0.02927512371	
550.0	-0.02423312612	-0.006129271073	
550.625	-0.08395088344	0.02314920688	
551.25	-0.03460819941	0.02588914475	
551.875	-0.08142488085	0.03672255305	
552.5	-0.02020864184	0.08573722516	
553.125	-0.01847165226	0.04085175453	
553.75	0.05234069454	0.04296819589	
554.375	0.07383119552	-0.01274091076	
555.0	0.09073620431	-0.05983116507	
555.625	0.07483105533	-0.1013049218	
556.25	0.04914391528	-0.1253794889	
556.875	-0.03160533301	-0.1411722387	
557.5	-0.09575390095	-0.09449591534	
558.125	-0.1097295725	-0.02781399402	
558.75	-0.09440696999	0.0006444719978	
559.375	-0.1084868833	0.01793818571	
560.0	-0.07939899048	0.08348727147	
560.625	-0.04383490132	0.08724201894	
561.25	0.003742191573	0.1117109553	
561.875	0.04382378167	0.01213473598	
562.5	-0.01029020821	0.07159425039	
563.125	0.09065146046	0.03993618471	
563.75	0.09561580797	0.02104651663	
564.375	0.1630269555	-0.08671554013	
565.0	0.02341317685	-0.1514185457	
565.625	0.008772930456	-0.1244699759	
566.25	-0.1480849904	-0.1267440178	
566.875	-0.1010604432	0.002605761375	
567.5	-0.09652879409	-0.1565470227	
568.125	-0.2014047634	-0.1217603996	
568.75	-0.1075999372	-0.04149468099	
569.375	-0.2659231277	0.06206131431	
570.0	-0.0176304842	0.2413365283	
570.625	-0.03528961509	0.08087155922	
571.25	-0.02877437548	0.1839653754	
571.875	0.0741331944	-0.02186100561	
572.5	0.1348961801	0.08586272479	
573.125	0.07071282875	-0.1897803883	
573.75	-0.02375679914	-0.01448844353	
574.375	0.09940759688	-0.1010663951	
575.0	-0.06421500225	-0.04402126577	
575.625	0.1047161597	-0.03241463013	
576.25	0.02157321683	-0.1786880825	
576.875	-0.06042917785	-0.04965449935	
577.5	0.08015558793	-0.1338310828	
578.125	-0.1082802352	-0.1960384362	
578.75	-0.09094495232	0.01913536331	
579.375	0.01262529239	-0.1387152805	
580.0	-0.1775658218	0.007718330965	
580.625	0.06250284677	-0.05152499764	
581.25	-0.2076651141	0.1784377819	
581.875	0.1033275966	0.1125925504	
582.5	-0.07978137801	0.1104019573	
583.125	0.1203073819	0.1778768738	
583.75	0.02419043727	-0.08901556819	
584.375	0.01972719327	0.1471747475	
585.0	0.1274596969	-0.05431706968	
585.625	0.05046854762	0.04555346015	
586.25	0.2324222278	-0.06319130047	
586.875	-0.02094928699	-0.157462468	
587.5	0.05048863807	-0.09063052381	
588.125	-0.02796365227	-0.2074365141	
588.75	-0.05682855313	-0.08498004404	
589.375	0.1410428389	-0.1050924245	
590.0	-0.1537546622	-0.2106893687	
590.625	-0.07871525448	0.01829207417	
591.25	-0.1755291733	0.04419591819	
591.875	0.02783152614	0.2193781192	
592.5	-0.04943839381	-0.1022891202	
593.125	0.0123901381	0.1478803179	
593.75	0.03400915536	0.01129053353	
594.375	0.1029137961	0.1693197447	
595.0	0.2218286766	-0.02499182024	
595.625	0.05239657541	0.03176108997	
596.25	0.1790871042	0.1045527706	
596.875	0.137720611	-0.05228646084	
597.5	0.0652211644	0.1018541268	
598.125	0.2042437158	0.1507913023	
598.75	0.1340905922	0.01141694313	
599.375	0.1505464642	0.0290769981	
600.0	0.1717160359	-0.1401638337	
600.625	0.03647157465	-0.1948538183	
601.25	0.08741195758	-0.09584500348	
601.875	-0.1046289916	-0.1999715999	
602.5	-0.06802930874	0.08285524817	
603.125	-0.1187239551	-0.05189409609	
603.75	-0.1258065252	0.1696837816	
604.375	-0.008313084622	-0.03983204864	
605.0	-0.1584727521	0.07724399936	
605.625	0.09236417227	0.03560361634	
606.25	-0.1188725307	-0.04494109853	
606.875	-0.155170757	0.1626714087	
607.5	-0.02835972097	0.169092823	
608.125	-0.0569829789	0.2424071669	
608.75	0.2403668387	0.2049471786	
609.375	0.1939745537	-0.03690735566	
610.0	0.1622019347	-0.06838708305	
610.625	0.1201486998	-0.1432239122	
611.25	-0.03714888473	-0.06955277752	
611.875	-0.01224287213	-0.1451285236	
612.5	-0.2334386029	0.01828280325	
613.125	-0.04102889561	0.02349025727	
613.75	-0.1773931826	0.1298545932	
614.375	0.1512945772	0.1120151182	
615.0	-0.08184826255	0.01589748078	
615.625	0.1179814883	0.1235893268	
616.25	-0.01440601218	0.05075913025	
616.875	-0.1695901376	0.1553625025	
617.5	-0.01461004916	0.2804840388	
618.125	-0.05492163522	0.2014746778	
618.75	-0.04954873784	0.2200535285	
619.375	0.1762938421	0.1382330032	
620.0	0.08610667754	0.02519500437	
620.625	0.09616626477	-0.03072513767	
621.25	-0.1418507401	-0.1660449164	
621.875	-0.09697627058	-0.0743137008	
622.5	-0.2589648083	0.009846563481	
623.125	0.01149311288	0.2415582641	
623.75	0.04598161611	0.003392241904	
624.375	0.1229167467	-0.05353998736	
625.0	-0.04736939212	-0.02584575472	
625.625	0.1145696079	-0.07143074981	
626.25	-0.1057661298	-0.1526093061	
626.875	-0.06657377536	-0.02226898595	
627.5	-0.1520291818	-0.09195595483	
628.125	-0.1540816215	-0.008018856609	
628.75	-0.07859010792	-0.08191453744	
629.375	-0.09989493668	-0.1833296976	
630.0	-0.1864590779	-0.004884755814	
630.625	-0.1728594883	0.001821611284	
631.25	-0.1911624808	0.191217048	
631.875	0.02295972999	0.2506079541	
632.5	0.09231515205	0.07459701381	
633.125	0.2579355133	0.08364835741	
633.75	0.120857463	-0.1960188261	
634.375	0.07639026066	-0.05281903055	
635.0	-0.03310936496	-0.2025496261	
635.625	-0.1178939815	0.02532067323	
636.25	-0.1576922043	-0.03621705194	
636.875	-0.07614603821	0.2212575971	
637.5	0.03104466762	0.0195912685	
638.125	-0.1412664921	0.1011660752	
638.75	0.03037732081	0.1790581976	
639.375	-0.0516695164	0.1307700955	
640.0	0.1334720379	0.3093498227	
640.625	0.2619483227	0.04471745226	
641.25	0.1541051507	0.01539869828	
641.875	0.288302732	-0.1106535095	
642.5	-0.1058858929	-0.2174014703	
643.125	0.01063968924	-0.01214010397	
643.75	-0.2129050726	-0.1211597239	
644.375	-0.04485430207	0.2395416553	
645.0	-0.2067630046	-0.01159958999	
645.625	0.1362623754	0.272863099	
646.25	0.1051557795	-0.03860119311	
646.875	0.1047252011	0.1814325906	
647.5	0.1152816087	-0.1317349416	
648.125	0.07081738919	0.1703535252	
648.75	0.3946661544	-0.1626042492	
649.375	0.03807133405	-0.2323870323	
650.0	0.2093447785	-0.1461664884	
650.625	0.2228851288	-0.4155660904	
651.25	-0.03581366178	-0.2012992121	
651.875	0.2927598451	-0.002898920629	
652.5	0.3526197505	-0.1908976828	
653.125	0.1030949708	-0.1470711692	
653.75	0.2915205967	-0.05699188254	
654.375	-0.133693808	-0.4418907995	
655.0	-0.1872859439	0.04523374968	
655.625	-0.244666263	0.04908628614	
656.25	0.1325363537	0.3998149021	
656.875	-0.04266423429	-0.1193720394	
657.5	0.1049114815	0.3000764787	
658.125	0.2004476094	-0.01616617013	
658.75	0.133114676	0.1714371802	
659.375	0.4475878832	-0.1683477713	
660.0	-0.004967715047	-0.2619039124	
660.625	0.1996995979	-0.1692728079	
661.25	0.215592849	-0.3508230113	
661.875	0.03607694265	-0.2841540591	
662.5	0.3038015411	-0.006827203784	
663.125	0.3085203693	-0.2917251185	
663.75	0.03958085922	-0.2111999105	
664.375	0.07467137098	-0.2875495483	
665.0	-0.3567096203	-0.2168294905	
665.625	-0.180221398	0.1157639226	
666.25	-0.1872559834	0.1845476541	
666.875	0.1935264629	0.2830500439	
667.5	0.1016058049	-0.006934935929	
668.125	0.2543771995	0.09807561484	
668.75	0.1399111273	-0.269715769	
669.375	0.04279263927	-0.07249712628	
670.0	0.1074881768	-0.2844548928	
670.625	-0.148410109	-0.2025286073	
671.25	0.1800141726	-0.02648219387	
671.875	0.1850189024	-0.2498712705	
672.5	0.07287505956	-0.1321753848	
673.125	0.1874626996	-0.0355870804	
673.75	0.2370077347	-0.3110512805	
674.375	-0.06492626548	-0.148857157	
675.0	0.03597375476	-0.2114845818	
675.625	-0.2530354537	-0.1834642263	
676.25	-0.1171179039	0.08512442267	
676.875	-0.1360972785	-0.1308541124	
677.5	-0.2020804035	0.128992695	
678.125	-0.02365110298	0.0483294682	
678.75	-0.1196763941	0.2428497027	
679.375	0.3383799256	0.02907770176	
680.0	-0.1093119251	-0.01520539208	
680.625	0.2426335007	-0.01327640021	
681.25	0.05752467086	-0.1637554987	
681.875	-0.02847547272	0.1916334865	
682.5	0.47272674	0.04274132559	
683.125	0.03905905578	-0.0573195428	
683.75	0.1706297825	0.2169116212	
684.375	0.3946142145	-0.001797588102	
685.0	0.1465868983	-0.1697595163	
685.625	0.3850252881	0.1484722089	
686.25	0.3416822326	-0.1939290157	
686.875	0.1317397936	-0.1048726991	
687.5	0.3783035181	-0.1551439037	
688.125	-0.1243734141	-0.415190311	
688.75	-0.1995257312	-0.0869567361	
689.375	-0.4187713575	0.2072509417	
690.0	0.2236299112	0.4018685163	
690.625	0.06815352855	0.03395462945	
691.25	0.3554421136	0.4708778888	
691.875	0.4960566961	0.07341291578	
692.5	0.3354531008	0.2846260685	
693.125	0.8245077632	0.0462486427	
693.75	0.1819025939	-0.3335544019	
694.375	0.4145093883	-0.09825642669	
695.0	0.5645505283	-0.3514246184	
695.625	0.3551194706	-0.1780385601	
696.25	0.4836669443	0.2701931643	
696.875	0.5058318077	0.5107790563	
697.5	0.3196796164	0.2119564106	
698.125	0.4964966163	0.165436036	
698.75	0.4824244578	-0.3042705328	
699.375	-0.4170836213	-0.2466523811	
700.0	-0.2646016103	0.09802192705	
700.625	0.2141579878	0.4197787942	
701.25	0.2227689732	-0.00791485489	
701.875	0.1451844071	0.2962130096	
702.5	0.4795272982	0.2265825737	
703.125	0.2393661504	-0.0187844109	
703.75	0.4070768376	0.02667920841	
704.375	0.2841433943	-0.2875860317	
705.0	0.06608858832	-0.09248328113	
705.625	0.3057392177	0.117310873	
706.25	0.3372293198	0.03489876336	
706.875	0.2905116729	0.3570069398	
707.5	0.2664821978	0.3832553902	
708.125	0.479380778	-0.01542127703	
708.75	0.2047176145	-0.1318674231	
709.375	-0.0192248854	-0.2131992899	
710.0	-0.1647002641	0.2528415162	
710.625	0.02220863823	0.03838487349	
711.25	0.1372627786	0.2318751861	
711.875	0.1787219684	-0.150158357	
712.5	0.2357995813	0.08371821616	
713.125	0.3009295114	-0.2226165374	
713.75	0.01167666684	-0.2172348841	
714.375	0.1056385274	-0.1648884296	
715.0	-0.08590078654	-0.2778279566	
715.625	-0.03602944042	-0.09132473273	
716.25	0.2325364839	-0.1789915579	
716.875	0.2965203794	-0.3248685666	
717.5	0.3922705705	-0.1082199215	
718.125	0.6546030945	0.1865725858	
718.75	0.7300500411	-0.3538743161	
719.375	0.3728523867	-0.4968182179	
720.0	0.7383548983	-0.6251705542	
720.625	-0.2255493359	-1.177443601	
721.25	0.193233487	-0.6509577905	
721.875	-0.1548162648	-1.086591355	
722.5	-1.139382368	-0.531021139	
723.125	-0.3474447172	-0.1102162039	
723.75	-0.5158400359	0.4775549687	
724.375	0.2387623188	0.3546785004	
725.0	-0.04574840296	0.2483233622	
725.625	0.2410748551	0.5667575062	
726.25	0.279180189	0.404972539	
726.875	-0.3062388769	0.637140038	
727.5	-0.100981113	1.490962393	
728.125	0.6614794698	1.462274695	
728.75	-0.7408278456	1.647076187	
729.375	-0.7454402214	4.022193513	
730.0	1.073889976	2.592555034	
730.625	-1.088943057	2.189945161	
731.25	-1.280968687	4.754598581	
731.875	-0.637582077	1.967547128	
732.5	-2.724798602	-0.9814146955	
733.125	-2.503962872	0.7539993247	
733.75	0.04151362149	0.984375274	
734.375	0.4247260553	0.7149026335	
735.0	-0.2050234525	-0.9085819382	
735.625	0.0294809845	0.05312529033	
736.25	-0.3045778091	0.5216242531	
736.875	0.6829136185	0.4856268502	
737.5	0.2516649355	-0.02124138674	
738.125	1.761950177	0.1650465945	
738.75	1.308103369	-1.899479051	
739.375	0.3522255399	-0.8528959849	
740.0	3.371687955	1.405945235	
740.625	4.286574943	-2.627447821	
741.25	-2.661593287	-1.562055541	
741.875	-4.088843471	0.3523138472	
742.5	-2.128582241	-0.120855894	
743.125	1.003411348	-0.9733187055	
743.75	0.2076689084	-1.637985859	
744.375	-0.3729575936	0.1594823152	
745.0	-0.1009882674	0.05230086303	
745.625	0.08429301699	-0.09333602766	
746.25	0.116250997	-0.03076041948	
746.875	-0.2799983893	-0.00413565612	
747.5	-0.007676254107	0.3274945	
748.125	-0.0157781798	0.2819032824	
748.75	0.199379189	0.4977307587	
749.375	0.2477569588	0.2937837529	
750.0	-0.3374871138	0.04496816636	
