!Created with skrf (http://scikit-rf.org).
# GHz S RI R (50+0j) 
!freq	ReS11	ImS11	
500.0	0.4811798103	-1.384796856	
500.625	-0.007828377799	-0.9112377081	
501.25	-0.1211284174	-0.8803211102	
501.875	-0.4676237278	-0.5264738108	
502.5	0.00990379169	-0.05517959006	
503.125	-0.1009049481	-0.02627753045	
503.75	0.08949203399	0.06160290328	
504.375	0.01464061437	0.02476684217	
505.0	0.01467950587	-0.06354896875	
505.625	0.0004130566478	0.005655915294	
506.25	-0.06668275911	-0.1733231718	
506.875	0.01126479152	0.1744423737	
507.5	0.2122060055	-0.5696450544	
508.125	-0.06563732879	-0.9299147678	
508.75	0.395790035	-0.4347192775	
509.375	0.4935646919	-1.911703394	
510.0	-0.6670399797	-0.1441873386	
510.625	-0.0008979145101	-0.06771777065	
511.25	-0.1433808479	-0.1188581446	
511.875	-0.1291262912	-0.01972221541	
512.5	-0.0535612678	0.02079519357	
513.125	-0.04085335158	-0.1115571286	
513.75	-0.02901050533	0.008545799336	
514.375	-0.0856480762	-0.1867967894	
515.0	-0.2526163057	0.206354746	
515.625	0.3440110209	-0.6945360922	
516.25	-0.6780099972	-0.5804409493	
516.875	0.1546422603	-0.3390420591	
517.5	0.08972400439	-0.2797282818	
518.125	-0.07185511512	0.0469441772	
518.75	0.07337945704	-0.2221341193	
519.375	-0.04335168315	0.05156363698	
520.0	0.07901371231	0.0202316666	
520.625	0.1713992029	0.009708901817	
521.25	-0.03248647513	-0.3996185674	
521.875	-0.1583685691	0.0131574672	
522.5	-0.05699548169	-0.05532145095	
523.125	-0.04738644967	0.166083864	
523.75	0.01608935008	-0.09281615872	
524.375	-0.3415450127	0.01525377711	
525.0	0.1019747578	0.1106465946	
525.625	-0.06778261609	0.04529102611	
526.25	0.08042869444	-0.01762896358	
526.875	-0.1288054715	0.05134693027	
527.5	0.03149356049	0.2885381044	
528.125	-0.007348864342	0.1746541035	
528.75	-0.1264626425	0.2566223784	
529.375	0.01916379482	0.05002317385	
530.0	-0.1583386856	0.1071427996	
530.625	0.1631336747	0.3807330289	
531.25	0.4608670564	0.03998809797	
531.875	0.2448498455	-0.02922686572	
532.5	-0.1664644753	-0.203080106	
533.125	0.03860047921	0.1246159278	
533.75	0.08144513567	-0.3245421867	
534.375	-0.1227620657	-0.1379675714	
535.0	-0.2071627778	-0.2156695795	
535.625	-0.1910866778	0.1798495509	
536.25	0.0006938684663	0.05400065001	
536.875	0.1167613168	0.05783505692	
537.5	0.04868876232	-0.08046188784	
538.125	0.09826973686	0.007474453547	
538.75	0.1765331992	-0.1747473793	
539.375	-0.1015828335	-0.1212874565	
540.0	-0.09163622544	-0.1833312288	
540.625	-0.2010761813	-0.05485173771	
541.25	-0.09655770432	0.04013356571	
541.875	-0.04729445233	-0.1006834798	
542.5	-0.08150612364	0.01455209983	
543.125	0.0148614957	-0.01670970913	
543.75	-0.1575862772	-0.03706524365	
544.375	0.06235128767	0.05910244531	
545.0	-0.05743725284	0.08000659409	
545.625	0.1135150794	0.03625928687	
546.25	0.03055637598	0.06148489565	
546.875	0.2048464132	-0.01001404704	
547.5	0.01108461073	-0.1251587857	
548.125	0.02931079496	-0.1448829073	
548.75	-0.1709304334	-0.1691342297	
549.375	-0.1065362004	-0.003983190726	
550.0	-0.07678742966	-0.04950741459	
550.625	-0.06117081627	0.05093822083	
551.25	-0.06586189708	-0.01784746106	
551.875	-0.1119292061	0.07709067093	
552.5	-0.0168273898	0.06796396844	
553.125	-0.0369946034	0.05519097866	
553.75	0.05791815797	0.04373033954	
554.375	0.07851871641	0.004471600461	
555.0	0.1132520464	-0.0755699408	
555.625	0.08686355093	-0.1126523661	
556.25	0.07295587082	-0.1390749371	
556.875	-0.02826796989	-0.1709640471	
557.5	-0.1062680103	-0.1132923798	
558.125	-0.1184745406	-0.04120333094	
558.75	-0.1154297068	-0.01141378067	
559.375	-0.1263036325	0.02600708666	
560.0	-0.08885547618	0.07719398213	
560.625	-0.07583645459	0.1071770364	
561.25	0.02337467445	0.1220476601	
561.875	0.007741873528	0.0126281734	
562.5	0.02267463925	0.09279881336	
563.125	0.05758979859	0.03743728678	
563.75	0.1545158595	0.05182905402	
564.375	0.1589699309	-0.1457038478	
565.0	0.04860696113	-0.115527563	
565.625	0.02023017633	-0.2005975961	
566.25	-0.1604656411	-0.08023944277	
566.875	-0.05324019218	-0.06941689699	
567.5	-0.1837408123	-0.1639864396	
568.125	-0.1588070812	-0.09404684798	
568.75	-0.1478636641	-0.1904356186	
569.375	-0.3182346579	0.1592748298	
570.0	-0.04892908408	0.175678596	
570.625	-0.1330220059	0.1422377903	
571.25	0.0569508444	0.1906404976	
571.875	-0.03633219269	0.02129158438	
572.5	0.2171455748	0.02943186421	
573.125	0.008736899646	-0.1452964501	
573.75	0.1147230612	-0.006153189616	
574.375	0.02234012038	-0.192547962	
575.0	-0.02948094949	0.04003298266	
575.625	0.114124919	-0.1286444178	
576.25	-0.03920838504	-0.1364960422	
576.875	0.05630999272	-0.04266777272	
577.5	0.0396610283	-0.2570217122	
578.125	-0.1372827142	-0.1260366208	
578.75	0.01058263003	-0.08270062628	
579.375	-0.1261944028	-0.2192822129	
580.0	-0.07261554798	0.08410230079	
580.625	-0.0653305138	-0.1418774306	
581.25	-0.1037496146	0.2065287975	
581.875	0.01287766391	0.02744572002	
582.5	-0.03786446776	0.2155364958	
583.125	0.2086643476	0.09689132876	
583.75	-0.0897897308	-0.006852333775	
584.375	0.1260653177	0.1199034322	
585.0	0.004365114829	-0.02097565269	
585.625	0.1697431236	0.1139212708	
586.25	0.1836390917	-0.1788270362	
586.875	0.01738394283	-0.06013288383	
587.5	0.07329034552	-0.1844036872	
588.125	-0.1052263196	-0.1838777017	
588.75	0.03233305945	-0.03337762987	
589.375	0.1493096843	-0.2293145847	
590.0	-0.1826356213	-0.1181565677	
590.625	-0.09192342037	-0.09855214712	
591.25	-0.2645845346	0.1647681926	
591.875	0.07204953425	0.1169073221	
592.5	-0.1674334812	0.05809586919	
593.125	0.07570282183	0.07935946514	
593.75	-0.101306739	0.1388718972	
594.375	0.2352243696	0.1851836254	
595.0	0.1093633234	-0.009178147248	
595.625	0.09541512215	0.1483841357	
596.25	0.2564402111	0.03694266935	
596.875	0.1002822396	-0.03562687098	
597.5	0.1777483711	0.1793844765	
598.125	0.2460557766	0.08434349565	
598.75	0.1062718674	0.0658859034	
599.375	0.2706403121	0.02291555561	
600.0	0.1717832632	-0.222070083	
600.625	0.07420504682	-0.113269479	
601.25	0.1635567125	-0.1993799166	
601.875	-0.1707765539	-0.1591743453	
602.5	0.02119074495	-0.009966520798	
603.125	-0.232110512	0.01786770783	
603.75	-0.03449957362	0.1416537936	
604.375	-0.1194459142	-0.03564904442	
605.0	-0.1016909281	0.2131424842	
605.625	0.02432288233	-0.002099130399	
606.25	-0.2247415321	0.004001823154	
606.875	-0.09259719827	0.1339747427	
607.5	-0.113344488	0.09070637999	
608.125	-0.1275812755	0.3098918868	
608.75	0.2956653868	0.1334018452	
609.375	0.163159727	0.006982201706	
610.0	0.2067640138	-0.1097766336	
610.625	0.02040440136	-0.2291119423	
611.25	0.07069540545	-0.06389291654	
611.875	-0.1006708864	-0.2307679465	
612.5	-0.1380257367	0.05121124112	
613.125	-0.1594285615	-0.1120718339	
613.75	-0.158693965	0.2542912145	
614.375	0.116842827	0.008333979755	
615.0	-0.04960552888	0.1502584865	
615.625	0.04864173241	-0.03128134317	
616.25	-0.1152677672	0.05098445611	
616.875	-0.1659555872	0.2964121696	
617.5	0.07681136351	0.247466249	
618.125	0.03948100871	0.306618438	
618.75	0.03328813592	0.2918680327	
619.375	0.154521274	0.07936701757	
620.0	0.1244330538	0.1441571519	
620.625	0.2578708327	-0.1361868954	
621.25	-0.1019075661	-0.1082726207	
621.875	-0.1627139638	-0.1658430659	
622.5	-0.3024298877	0.1158417478	
623.125	0.07872018468	0.180363499	
623.75	0.06631904158	0.1216874929	
624.375	0.06897856493	-0.1516353286	
625.0	0.01257380572	0.05936098024	
625.625	0.1097734923	-0.1600988267	
626.25	-0.1091836	-0.07338720972	
626.875	-0.06079345963	-0.1420853522	
627.5	-0.2168458986	-0.053136414	
628.125	-0.09168763554	0.005415561078	
628.75	-0.03043563635	-0.1476049247	
629.375	-0.1803666875	-0.1708475524	
630.0	-0.1586636331	-0.06226509346	
630.625	-0.2419768666	-0.004140227464	
631.25	-0.1538108304	0.2657628755	
631.875	0.006486620239	0.1799794651	
632.5	0.0184648114	0.2350723877	
633.125	0.29233524	0.01906200824	
633.75	0.007076197996	-0.0813872956	
634.375	0.1569616816	-0.1403946196	
635.0	-0.1097874243	-0.1564138739	
635.625	-0.02285687527	-0.1022123422	
636.25	-0.291581252	0.05255873994	
636.875	0.01918379976	0.1634255829	
637.5	-0.07550641877	0.002439904839	
638.125	-0.1097453039	0.2067520098	
638.75	-0.008708277308	0.07517174936	
639.375	-0.1308197596	0.2735274941	
640.0	0.2407039896	0.2879804989	
640.625	0.1971857779	0.07537565668	
641.25	0.3266266686	0.1468494325	
641.875	0.2847082833	-0.2963657976	
642.5	-0.0332634359	-0.0977194869	
643.125	0.02145787456	-0.235842261	
643.75	-0.2775574494	-0.01257992278	
644.375	0.04308703478	-0.1125692112	
645.0	-0.2949617385	0.2067615583	
645.625	0.2424040906	0.1870581039	
646.25	0.02364978376	0.09787830564	
646.875	0.3756456912	0.05797766264	
647.5	-0.105478809	-0.05982655135	
648.125	0.2849641885	0.1808064071	
648.75	0.2421801298	-0.2156444014	
649.375	0.1262448447	-0.1037745004	
650.0	0.3775457416	-0.3305041791	
650.625	0.02335179546	-0.4047795344	
651.25	0.15485263	-0.05199287811	
651.875	0.4494563256	-0.1702695088	
652.5	0.2212822132	-0.2517331911	
653.125	0.2153445111	0.06310651237	
653.75	0.3608612021	-0.3242629275	
654.375	-0.2682454324	-0.298586507	
655.0	-0.1282201776	-0.1573677799	
655.625	-0.3537471962	0.255050939	
656.25	0.2179244508	0.1279492275	
656.875	-0.1894976051	0.07143775774	
657.5	0.1970516487	0.132986786	
658.125	0.002387063991	0.04054714564	
658.75	0.4342056082	0.3407106823	
659.375	0.3225210017	-0.3067967587	
660.0	0.2083446691	-0.09092998303	
660.625	0.3031525899	-0.3417834201	
661.25	0.08672091925	-0.4568944021	
661.875	0.1571726678	-0.1051550797	
662.5	0.4596035017	-0.2274476542	
663.125	0.2142323746	-0.2907284901	
663.75	0.1812873752	-0.14302321	
664.375	0.03902057439	-0.4729959852	
665.0	-0.3272243735	-0.1225804106	
665.625	-0.2630981002	-0.0309308787	
666.25	-0.2058228538	0.3504447069	
666.875	0.2853153212	0.1689375961	
667.5	0.05091044658	0.1573224689	
668.125	0.3345612562	-0.03284424051	
668.75	0.1062790285	-0.1521543207	
669.375	0.2626982713	-0.1064064762	
670.0	-0.02553507634	-0.3749721045	
670.625	-0.03081903675	-0.07468414945	
671.25	0.2098625473	-0.2771149323	
671.875	0.0692799232	-0.2626491971	
672.5	0.1380360158	-0.03390684366	
673.125	0.3595967961	-0.1281018656	
673.75	0.1019820696	-0.3289792422	
674.375	0.1192389045	-0.1535910569	
675.0	-0.005498525343	-0.3517466286	
675.625	-0.2996232778	-0.09115582949	
676.25	-0.03842904044	-0.06016651827	
676.875	-0.2843730544	-0.02439163783	
677.5	-0.08219364388	0.1205958706	
678.125	-0.1991111386	-0.004107212956	
678.75	0.003290369199	0.4519096686	
679.375	0.2013146724	-0.1154967275	
680.0	0.1456401106	0.1009901606	
680.625	0.2166330117	-0.2124043324	
681.25	-0.1282635356	-0.02053265758	
681.875	0.2498514114	0.2499362519	
682.5	0.1802372651	-0.221309813	
683.125	0.07981847385	0.10942875	
683.75	0.3370866695	0.2587886981	
684.375	0.221858092	-0.21687202	
685.0	0.04792232691	0.1554463702	
685.625	0.4946717388	0.06663676681	
686.25	0.2567636541	-0.1666143399	
686.875	0.2815100946	0.04542676869	
687.5	0.4621222709	-0.4458789269	
688.125	-0.1340422913	-0.3377608053	
688.75	-0.2524584469	-0.3637012316	
689.375	-0.4739525837	0.3689612378	
690.0	0.2276895218	0.2479810959	
690.625	-0.06250206909	0.4329087796	
691.25	0.5528646256	0.278149281	
691.875	0.316011709	0.1979039005	
692.5	0.566724919	0.4549797613	
693.125	0.8059235804	-0.3146537741	
693.75	0.4007695003	-0.107200421	
694.375	0.6584140041	-0.2885917534	
695.0	0.3585284483	-0.4190267986	
695.625	0.2968104974	-0.1092218981	
696.25	0.660895144	0.02721268478	
696.875	0.5661379163	0.2625994031	
697.5	0.174808019	0.398705318	
698.125	0.5594639647	0.4133611613	
698.75	0.6335167157	-0.3945853112	
699.375	-0.1922138324	-0.2656125298	
700.0	-0.4741888872	0.2067315706	
700.625	0.2822923321	0.3132292466	
701.25	0.04110420515	0.08223434302	
701.875	0.3398955711	0.4356873373	
702.5	0.4069420486	0.0421362392	
703.125	0.2733641016	0.2365498251	
703.75	0.553878324	-0.1244988723	
704.375	0.1861932129	-0.3172997756	
705.0	0.2077356097	0.05241787146	
705.625	0.3191636239	-0.1048223584	
706.25	0.1907005341	0.07398661163	
706.875	0.2430801621	0.3170025815	
707.5	0.4094322551	0.4262624223	
708.125	0.4461556947	0.08832543213	
708.75	0.4903402788	-0.2010555804	
709.375	-0.101343495	-0.5911705406	
710.0	-0.1029744147	0.226997868	
710.625	-0.1474340986	0.2067507126	
711.25	0.2539142036	0.04706595555	
711.875	0.01300275305	0.179752615	
712.5	0.4293254887	0.07138009081	
713.125	0.2425175483	-0.2995670415	
713.75	0.13226168	-0.1004550902	
714.375	0.09741867757	-0.3270387326	
715.0	-0.1355264742	-0.1768818825	
715.625	0.1314996426	-0.1289935797	
716.25	0.2179260542	-0.3351708021	
716.875	0.2136827708	-0.2077748997	
717.5	0.4074502877	0.06997045864	
718.125	0.9232197043	0.05380632902	
718.75	0.5631313859	-0.2463521735	
719.375	0.8969476071	0.06096368289	
720.0	1.041778713	-1.079472737	
720.625	0.1461465668	-0.5691219365	
721.25	0.4577856947	-1.119655157	
721.875	-0.4964430613	-1.306942573	
722.5	-0.3380683867	-0.1448446744	
723.125	-0.8397541976	-0.5351087285	
723.75	-0.4303227242	0.6537312506	
724.375	0.02176150619	0.2739008855	
725.0	-0.009436283505	0.5961962767	
725.625	0.412882487	0.4065693758	
726.25	-0.1363856895	0.4656157598	
726.875	-0.3459304406	1.167916072	
727.5	0.2191931178	1.551717353	
728.125	-0.1634542052	1.162376447	
728.75	-1.133749427	3.251077639	
729.375	0.4790280228	3.833798986	
730.0	-1.018629514	1.956627411	
730.625	-2.107944628	5.016950025	
731.25	0.8527321494	3.981600482	
731.875	-3.094458396	0.6819876634	
732.5	-5.257524551	-0.2124783429	
733.125	-2.263338285	1.216615012	
733.75	-1.097445771	0.4189768115	
734.375	1.17913765	0.8965557688	
735.0	-0.1803400946	-0.4790093302	
735.625	-0.3671705402	-0.4009633143	
736.25	-0.1590705212	0.8821400293	
736.875	0.3858889352	0.1596563845	
737.5	0.8704800518	0.8442602332	
738.125	2.156485412	-0.7489020992	
738.75	0.8833574676	-1.393892001	
739.375	2.271307022	0.4261624997	
740.0	6.95043613	-2.205263129	
740.625	-0.1883032773	-1.900459255	
741.25	-3.606179985	4.049933027	
741.875	-3.479475377	3.524300063	
742.5	1.424940718	-1.497204996	
743.125	1.007608823	-3.034128184	
743.75	-0.7334439292	-1.3701575	
744.375	-0.09407209005	0.01423721378	
745.0	-0.1609535698	0.2967822647	
745.625	-0.06715384551	-0.04597168141	
746.25	0.1240319761	-0.2258868551	
746.875	-0.2866204966	0.05116871035	
747.5	-0.08296419751	0.2486858977	
748.125	-0.1009409596	0.6165398428	
748.75	0.4049306611	0.5319686661	
749.375	0.04833038484	0.3148573727	
750.0	-0.5106572873	0.1234702259	
