!Created with skrf (http://scikit-rf.org).
# GHz S RI R (50+0j) 
!freq	ReS11	ImS11	
500.0	0.04678858676	-0.84863447	
500.625	0.22689844	-0.8388744401	
501.25	-0.3385504524	-0.5117892476	
501.875	-0.2305195767	-0.3810480118	
502.5	-0.05029740762	-0.1044983589	
503.125	-0.06098473044	0.006640796179	
503.75	0.013130728	0.06757274736	
504.375	0.022087358	-0.005500011368	
505.0	0.01707418758	-0.01834968778	
505.625	0.0004984025855	-0.03989111641	
506.25	-0.04832337743	-0.04493826845	
506.875	-0.09210485221	0.008764684001	
507.5	-0.07958204107	-0.2655306563	
508.125	0.1024868331	-0.5439745011	
508.75	0.450613099	-0.7712445979	
509.375	-0.09969802903	-0.961771244	
510.0	-0.3862200021	-0.2144842052	
510.625	-0.04906578955	-0.1661768942	
511.25	-0.08268438739	-0.03993991721	
511.875	-0.1002926954	0.003512993996	
512.5	-0.03086497523	0.03024221424	
513.125	-0.01251832735	-0.04592868071	
513.75	-0.04841297475	-0.03324100475	
514.375	-0.04855140192	0.0005569908998	
515.0	0.008221041116	-0.05171754459	
515.625	-0.01258573353	-0.2762420587	
516.25	-0.1370486085	-0.4761925483	
516.875	-0.1658630521	-0.338155791	
517.5	-0.04996537709	-0.1183756392	
518.125	-0.02055950395	-0.02259659296	
518.75	-0.04764499258	-0.1041123821	
519.375	-0.04389426506	0.03437974229	
520.0	0.09034290206	0.04133432775	
520.625	0.1312165657	-0.04784493197	
521.25	-0.02016093505	-0.2109354075	
521.875	-0.1214015382	-0.01744716036	
522.5	-0.03939298635	0.02311971343	
523.125	-0.05041622146	0.02352330484	
523.75	-0.08881181076	-0.004948822422	
524.375	-0.129653414	0.02822239378	
525.0	-0.03061989115	0.1170530967	
525.625	0.03185789365	0.038952201	
526.25	-0.01087758767	-0.01083842784	
526.875	-0.03987432931	0.04546333971	
527.5	-0.02943291758	0.1535821544	
528.125	0.05570389582	0.2048742047	
528.75	0.03226513499	0.1638709705	
529.375	0.02756701122	0.04797735405	
530.0	0.02139106575	0.1207062017	
530.625	0.09303006024	0.229098783	
531.25	0.3398606447	0.07509931861	
531.875	0.1806863666	-0.1528193511	
532.5	-0.04715855339	-0.09120305506	
533.125	0.04385883858	-0.04905462676	
533.75	0.08271823484	-0.1485562253	
534.375	-0.07253948029	-0.2297970773	
535.0	-0.1986856663	-0.08048333127	
535.625	-0.1366916903	0.09424484788	
536.25	0.002041567055	0.08250097528	
536.875	0.08049621729	0.01110960966	
537.5	0.05538750047	-0.03924582533	
538.125	0.09490624286	-0.05586980694	
538.75	0.1023194779	-0.1090814437	
539.375	-0.06914934785	-0.1392378719	
540.0	-0.1450056368	-0.1246152906	
540.625	-0.1422532312	-0.01757860904	
541.25	-0.07566540532	0.00563665769	
541.875	-0.03890972834	-0.01658482649	
542.5	-0.04193863522	-0.04590351506	
543.125	-0.06994477475	-0.03736941667	
543.75	-0.07412069573	-0.002705035391	
544.375	-0.04018762273	0.03742658561	
545.0	-0.002690345438	0.05187178879	
545.625	0.04750303125	0.0542187823	
546.25	0.08615563559	0.02918444851	
546.875	0.1023825599	-0.02563316364	
547.5	0.05584708164	-0.1098658813	
548.125	-0.04207665996	-0.1400367215	
548.75	-0.1090769965	-0.09720759882	
549.375	-0.100633398	-0.05765955418	
550.0	-0.0676047758	0.00796365412	
550.625	-0.04629827206	0.008371168263	
551.25	-0.06620716237	0.02503080081	
551.875	-0.06163173019	0.06021745872	
552.5	-0.03653212788	0.06949903944	
553.125	-0.01027917095	0.05593039846	
553.75	0.04193885794	0.04070899264	
554.375	0.0835278725	-0.003065678827	
555.0	0.08601678551	-0.06569031509	
555.625	0.07433177106	-0.09829905171	
556.25	0.0549027122	-0.1276973898	
556.875	-0.03595587416	-0.141894069	
557.5	-0.09109395901	-0.09226281848	
558.125	-0.1073568474	-0.03185257747	
558.75	-0.09923528449	0.001984538786	
559.375	-0.1000185648	0.02304179271	
560.0	-0.08484717269	0.07087280329	
560.625	-0.04465282566	0.09937317858	
561.25	0.009126983439	0.08869578481	
561.875	0.02776400092	0.0400976696	
562.5	0.01020055256	0.04855247415	
563.125	0.06555923566	0.06385527557	
563.75	0.1268483228	-0.0002133532497	
564.375	0.1113373797	-0.08988002609	
565.0	0.06248811894	-0.1360253989	
565.625	-0.03319862108	-0.1404698715	
566.25	-0.1056181978	-0.09477764505	
566.875	-0.1264981792	-0.06576779584	
567.5	-0.1266880628	-0.0915887646	
568.125	-0.131596413	-0.1304824415	
568.75	-0.2016559923	-0.06179253969	
569.375	-0.2035288318	0.09321787767	
570.0	-0.09957107637	0.1810336885	
570.625	-0.04162230359	0.1547680611	
571.25	0.007800335838	0.102747282	
571.875	0.05327063728	0.06395723203	
572.5	0.1112580587	-0.004761572974	
573.125	0.07468734728	-0.1013276641	
573.75	0.0345464091	-0.1005420666	
574.375	0.008451188691	-0.06210653759	
575.0	0.02410663141	-0.03529939099	
575.625	0.03241600146	-0.06586198547	
576.25	0.03673500927	-0.09860912468	
576.875	-0.006463532459	-0.1270483507	
577.5	-0.006991333189	-0.1415958393	
578.125	-0.04509041606	-0.1391465486	
578.75	-0.07882498543	-0.1060651171	
579.375	-0.07853266602	-0.05591136476	
580.0	-0.04760436794	-0.02556016657	
580.625	-0.06330403473	-0.02331193165	
581.25	-0.08916768035	0.06913067474	
581.875	0.009728682597	0.1386286315	
582.5	0.05391858318	0.1222696921	
583.125	0.07063520075	0.06469263856	
583.75	0.03632402637	0.01773126504	
584.375	0.03259880408	0.05037109852	
585.0	0.09915340272	0.05073121063	
585.625	0.1379170862	-0.003285845823	
586.25	0.1320374846	-0.05998214809	
586.875	0.06272122455	-0.1206527647	
587.5	-0.01335246289	-0.124435731	
588.125	-0.0190763715	-0.1228671143	
588.75	0.02395972227	-0.128718398	
589.375	0.0511572028	-0.1384326039	
590.0	-0.05381600709	-0.1539102813	
590.625	-0.1632994777	-0.03469089947	
591.25	-0.1122564625	0.1010777228	
591.875	-0.02638034642	0.1058699017	
592.5	0.009412103982	0.04310923154	
593.125	-0.02461327436	0.0454062956	
593.75	0.04982016845	0.1037858082	
594.375	0.135506056	0.08402423508	
595.0	0.1518874474	0.0804607763	
595.625	0.1518501647	0.06181445649	
596.25	0.141107734	0.03151204483	
596.875	0.138997324	0.02727794236	
597.5	0.1316369092	0.06646979222	
598.125	0.1346908523	0.09382250292	
598.75	0.1590802499	0.06897528874	
599.375	0.1860701216	-0.03700003626	
600.0	0.1418909607	-0.132661994	
600.625	0.1137933825	-0.161224152	
601.25	0.04892463412	-0.1707836102	
601.875	-0.07397565278	-0.1234059062	
602.5	-0.1150860815	-0.0113586929	
603.125	-0.09659156141	0.04416636271	
603.75	-0.09215035467	0.06629455937	
604.375	-0.08435301434	0.06962115238	
605.0	-0.05883763649	0.06976691019	
605.625	-0.06271571532	0.05691517778	
606.25	-0.09678011699	0.05979939798	
606.875	-0.148261392	0.08019548858	
607.5	-0.1384507134	0.1616460832	
608.125	-0.01884213346	0.2206018289	
608.75	0.1673217552	0.1454801846	
609.375	0.2091817413	-0.0345565682	
610.0	0.1459802288	-0.1137870216	
610.625	0.07042288232	-0.1454456765	
611.25	-0.0003584272051	-0.1424623424	
611.875	-0.08014654402	-0.1087041332	
612.5	-0.1488163054	-0.05306017137	
613.125	-0.1697922521	0.03844633633	
613.75	-0.07712501622	0.1326339489	
614.375	0.04497210252	0.09653747962	
615.0	0.03723740112	0.03727696676	
615.625	0.0001804156327	0.07691960249	
616.25	-0.03246220666	0.1297810501	
616.875	-0.06555141615	0.1706092779	
617.5	-0.05246700393	0.1982994029	
618.125	-0.007910456171	0.1911344426	
618.75	0.02867399894	0.1696866699	
619.375	0.08847726637	0.1425763561	
620.0	0.1721842075	0.03759323935	
620.625	0.09627650608	-0.1431370786	
621.25	-0.08345683018	-0.1638290389	
621.875	-0.1857984294	-0.07192886357	
622.5	-0.1919186392	0.06027871922	
623.125	-0.02970899843	0.1689307514	
623.75	0.1183677021	0.03492497308	
624.375	0.03467868644	-0.04861800878	
625.0	0.03582786237	-0.02488077734	
625.625	0.04326983622	-0.0813671206	
626.25	-0.04701784437	-0.1228716709	
626.875	-0.1276564066	-0.07270181781	
627.5	-0.1318906961	-0.03393292906	
628.125	-0.1019316603	-0.05732145404	
628.75	-0.07097010218	-0.1060029062	
629.375	-0.08757857512	-0.1344298566	
630.0	-0.1703024	-0.08316409626	
630.625	-0.19841857	0.06414616906	
631.25	-0.1249749232	0.1791670255	
631.875	-0.01553725061	0.2231266506	
632.5	0.1348212501	0.1731473466	
633.125	0.191150576	0.043995822	
633.75	0.1511219892	-0.06319248746	
634.375	0.05559750077	-0.1235441547	
635.0	-0.01542950936	-0.1355848766	
635.625	-0.1328885821	-0.08046865107	
636.25	-0.1399334366	0.06699910771	
636.875	-0.05660642904	0.1168229459	
637.5	-0.0312479869	0.08204110415	
638.125	-0.05804280279	0.08125931494	
638.75	-0.0605394449	0.1504419005	
639.375	0.004162630897	0.2240087834	
640.0	0.1313311881	0.2159046851	
640.625	0.2178457013	0.1277562268	
641.25	0.2485577259	-0.007859008647	
641.875	0.1531012936	-0.1683123603	
642.5	-0.009330223503	-0.1929608946	
643.125	-0.1110155932	-0.1084087586	
643.75	-0.1220192233	-0.06455693664	
644.375	-0.1605651895	0.001902594207	
645.0	-0.1309993944	0.1426238884	
645.625	0.05419245733	0.1918761701	
646.25	0.1512666534	0.06522983431	
646.875	0.0892856377	-0.01866089555	
647.5	0.05042537633	0.02870262988	
648.125	0.1443883764	0.04474271545	
648.75	0.2341529735	-0.0682287477	
649.375	0.1952622234	-0.2220749964	
650.0	0.1356889326	-0.274594662	
650.625	0.1267863425	-0.2582665699	
651.25	0.1682706712	-0.2162092369	
651.875	0.2208949203	-0.1543639316	
652.5	0.2450136919	-0.09259122283	
653.125	0.2390856905	-0.1030717882	
653.75	0.1756413942	-0.2054303983	
654.375	-0.05097126888	-0.2752181642	
655.0	-0.2592754931	-0.08808039469	
655.625	-0.1610569091	0.1649773481	
656.25	0.02992242955	0.1566789438	
656.875	0.04690998552	0.06120604835	
657.5	0.03377788194	0.09355859143	
658.125	0.1309216196	0.1413998923	
658.75	0.2648016479	0.06648894751	
659.375	0.2879465593	-0.1325661862	
660.0	0.1939962641	-0.2670779573	
660.625	0.1147203694	-0.2962346836	
661.25	0.1328106125	-0.2672041286	
661.875	0.1849198411	-0.229671934	
662.5	0.22562613	-0.1862998638	
663.125	0.2302135803	-0.1792071445	
663.75	0.139946207	-0.2547555661	
664.375	-0.03701189394	-0.2953950187	
665.0	-0.2400636929	-0.1864915978	
665.625	-0.2837139862	0.07919987096	
666.25	-0.08996409411	0.2428872209	
666.875	0.1059546077	0.1858608286	
667.5	0.1666127806	0.08236559989	
668.125	0.1967804418	-0.01408597364	
668.75	0.1704310365	-0.128686552	
669.375	0.08346863476	-0.2003114653	
670.0	0.001903552853	-0.198917497	
670.625	0.0002647675841	-0.1714318155	
671.25	0.04732706047	-0.1590926382	
671.875	0.1165663282	-0.1545534195	
672.5	0.1761047218	-0.1374240822	
673.125	0.183110405	-0.1575170691	
673.75	0.1402317091	-0.1977373074	
674.375	0.04543343631	-0.2333399742	
675.0	-0.07832068864	-0.2153267399	
675.625	-0.1686958537	-0.1159749266	
676.25	-0.1625380463	-0.02291396822	
676.875	-0.1304846188	0.007355060929	
677.5	-0.136520316	0.02302154538	
678.125	-0.126146938	0.1256183542	
678.75	0.0275511224	0.2017721274	
679.375	0.1872806463	0.06787796183	
680.0	0.1330629285	-0.08168270415	
680.625	0.06003534339	-0.07175620372	
681.25	0.08007830656	-0.01441444316	
681.875	0.1364157199	0.04054659096	
682.5	0.1818333606	0.07489656926	
683.125	0.2175227201	0.06518302193	
683.75	0.2367343097	0.05789377729	
684.375	0.2476686993	0.03630366232	
685.0	0.2513166825	0.03618996438	
685.625	0.25733876	0.001267891697	
686.25	0.2674533234	-0.03659374979	
686.875	0.2696504127	-0.1287316385	
687.5	0.2284425884	-0.2607070474	
688.125	-0.01857603862	-0.3892166282	
688.75	-0.3661338843	-0.176753972	
689.375	-0.263651163	0.2765001231	
690.0	0.08721935555	0.3162752332	
690.625	0.2114735773	0.2218306112	
691.25	0.2878055383	0.2366369912	
691.875	0.4095514417	0.2632644171	
692.5	0.5397543082	0.1727799748	
693.125	0.5883579337	-0.03542441257	
693.75	0.5177276877	-0.2306595616	
694.375	0.3799631082	-0.3575431075	
695.0	0.3900996065	-0.2657574153	
695.625	0.4448002226	-0.08615869285	
696.25	0.438620649	0.1371412212	
696.875	0.3561444102	0.3356555485	
697.5	0.3451964368	0.3901675367	
698.125	0.494557825	0.2047141407	
698.75	0.3972348206	-0.3481227239	
699.375	-0.3273328719	-0.350571624	
700.0	-0.2570042938	0.2917708372	
700.625	0.1222783288	0.2634882299	
701.25	0.1987172295	0.1582773971	
701.875	0.2357385206	0.201121047	
702.5	0.3117592206	0.1991739872	
703.125	0.3737596824	0.0946411768	
703.75	0.3404116963	-0.09882409035	
704.375	0.2400962581	-0.1756284193	
705.0	0.2085780992	-0.1275684519	
705.625	0.2339238495	-0.005118633585	
706.25	0.2268698239	0.1497123613	
706.875	0.2079845661	0.2504525601	
707.5	0.2381675641	0.2994240596	
708.125	0.3863629056	0.1147867974	
708.75	0.2629791146	-0.2921857485	
709.375	-0.2218809487	-0.255300749	
710.0	-0.1706146693	0.1763471928	
710.625	0.0553952795	0.1327847803	
711.25	0.07973135344	0.1015480488	
711.875	0.183199492	0.1001989316	
712.5	0.2698629565	-0.02456076117	
713.125	0.2286956567	-0.1563873701	
713.75	0.1145338299	-0.2217798743	
714.375	0.006398426395	-0.2099888501	
715.0	-0.02681845516	-0.1782366344	
715.625	0.009621936629	-0.1897281591	
716.25	0.1258309311	-0.2092994831	
716.875	0.2792129335	-0.1623979387	
717.5	0.4300290845	-0.04334216199	
718.125	0.5584817672	0.03097944178	
718.75	0.6426295933	-0.09860219014	
719.375	0.631179217	-0.348446632	
720.0	0.4162497026	-0.6929435994	
720.625	0.1943111715	-0.7738566495	
721.25	-0.04476144632	-0.8188021935	
721.875	-0.1931946074	-0.8390858873	
722.5	-0.51987392	-0.6303816464	
723.125	-0.669462522	-0.1041810905	
723.75	-0.344165983	0.3777733834	
724.375	0.0363087247	0.3970223165	
725.0	0.1591680261	0.3143195187	
725.625	0.1587424117	0.3837703059	
726.25	0.06560252687	0.5627419351	
726.875	-0.0332592178	0.7918710001	
727.5	-0.06516980322	1.127229036	
728.125	0.03412331861	1.624516425	
728.75	-0.111972301	2.08422613	
729.375	-0.5141226183	2.820301294	
730.0	0.09830642411	3.230661088	
730.625	0.126126028	3.148654154	
731.25	-0.6759809681	2.990875196	
731.875	-2.008301248	2.015022069	
732.5	-2.734697556	0.839472276	
733.125	-1.995862693	0.4106440338	
733.75	-0.7077621457	1.095016459	
734.375	0.6997560765	0.3935700347	
735.0	0.006824349585	-0.5239518449	
735.625	-0.4092268433	0.08747997685	
736.25	-0.05063595357	0.4466862229	
736.875	0.3589915951	0.4652948045	
737.5	0.8648515506	0.1395586113	
738.125	1.172744762	-0.3615818871	
738.75	1.359823594	-0.963239183	
739.375	1.695804039	-1.295969731	
740.0	2.226283171	-0.9174405688	
740.625	2.176821003	-0.2533448577	
741.25	0.8283660672	1.855222797	
741.875	-2.421899369	0.01322721677	
742.5	-0.9617812684	-1.731684763	
743.125	0.1488839618	-1.519446394	
743.75	-0.0939491874	-0.8621369112	
744.375	-0.3438497353	-0.0604630814	
745.0	0.03705334305	0.08888423984	
745.625	0.05024948853	-0.01146825466	
746.25	-0.01242506967	-0.1200063405	
746.875	-0.1942211323	0.002804824253	
747.5	-0.07530941167	0.2858061259	
748.125	0.08975344197	0.4251208664	
748.75	0.2405173241	0.3618012171	
749.375	0.07915273323	0.4017816757	
750.0	-0.3082059966	0.2446069223	
