!Created with skrf (http://scikit-rf.org).
# GHz S MA R 50.0 
!freq magS11 angS11
500.0 0.0131821782634 150.655515041
500.625 0.00918019741952 103.313038631
501.25 0.00902616980443 -53.3211805967
501.875 0.0312060901078 -175.191357034
502.5 0.0195717730479 163.890496353
503.125 0.00952535728161 34.0752595044
503.75 0.0197678530052 121.516230427
504.375 0.0091172294289 118.663629654
505.0 0.00749979549181 -55.8426201958
505.625 0.0428876353093 -83.7302315652
506.25 0.0357213064348 -110.3852002
506.875 0.0479566233723 -110.418594759
507.5 0.0415600958866 -120.746583035
508.125 0.0635011032043 -84.5928852429
508.75 0.0586893456944 -138.603430139
509.375 0.0465151786641 -149.358572921
510.0 0.0329820820546 -121.953085106
510.625 0.0529921710295 -159.569555857
511.25 0.0433233948953 169.941037215
511.875 0.0471649390023 140.862081255
512.5 0.0383095191316 91.9597274472
513.125 0.0672773439959 52.891790121
513.75 0.056662432116 26.1581463609
514.375 0.0557150372876 25.9627196792
515.0 0.0602822506216 4.9932091289
515.625 0.079126538397 38.5203323795
516.25 0.0868346684089 27.3806839125
516.875 0.113327351102 68.9556729044
517.5 0.121344146655 20.718363719
518.125 0.208990135779 70.1669786116
518.75 0.0815464770487 6.70847060961
519.375 0.0668279604613 13.7320014381
520.0 0.114300868183 -3.15288050884
520.625 0.0967837667046 -9.91794072064
521.25 0.0837828814034 -26.2667651022
521.875 0.0706547918535 0.411382485308
522.5 0.0961535863284 -35.3737049331
523.125 0.186161158992 -35.0478121039
523.75 0.21862054927 -61.9801236257
524.375 0.207112091559 -53.7334967181
525.0 0.0778035643725 -41.863892393
525.625 0.0343613144091 -66.6721808668
526.25 0.0381703632523 -21.2091034735
526.875 0.0489518031406 -31.3058860545
527.5 0.0596610489093 -28.5285995329
528.125 0.0293243501714 -69.4969277016
528.75 0.0651054540907 -75.3167427045
529.375 0.0829362647017 -116.433492053
530.0 0.0593938006845 -130.962833154
530.625 0.0279417195981 -137.27081988
531.25 0.105936343232 -133.8584524
531.875 0.158888570068 -151.222767634
532.5 0.158914242914 -173.234135077
533.125 0.0816726606423 170.770151235
533.75 0.108278629315 166.04460692
534.375 0.105704507431 173.334198241
535.0 0.0956191703125 160.058999046
535.625 0.0600031547051 172.42329858
536.25 0.0502711571603 161.823149273
536.875 0.0812031571776 -163.409029703
537.5 0.106113397617 -147.971733241
538.125 0.0947729266358 -176.429777076
538.75 0.0935461970148 176.31071344
539.375 0.0729801292125 -169.171577331
540.0 0.104903676922 -162.191914752
540.625 0.10763762599 -156.00253251
541.25 0.118529856916 -143.143833362
541.875 0.0999747996111 -145.563443723
542.5 0.115887549284 -146.416910689
543.125 0.118736339993 -166.933607722
543.75 0.121559227571 157.50759319
544.375 0.0939743129652 131.971078387
545.0 0.0955183683966 88.2592314892
545.625 0.093364332983 80.4018301675
546.25 0.0933776682513 64.3740610779
546.875 0.0940856694642 52.0777192794
547.5 0.124569972553 53.7948633356
548.125 0.0997954150785 74.8435995362
548.75 0.0826351791988 87.5734992193
549.375 0.0892415890944 81.7879777052
550.0 0.10014352306 121.763463896
550.625 0.0399808672921 150.708026741
551.25 0.0391021440957 -146.190402314
551.875 0.0598477973613 -160.779222717
552.5 0.119502645052 -172.979269428
553.125 0.0803501101837 -164.154507647
553.75 0.0858233862298 -169.167148009
554.375 0.104316567933 164.550050581
555.0 0.135608667179 158.529273388
555.625 0.0989249455609 155.395367167
556.25 0.0973011012461 161.077108536
556.875 0.12094782213 163.621290167
557.5 0.115316426519 164.38965518
558.125 0.106304343087 160.929631628
558.75 0.0840476822016 174.344459523
559.375 0.0619711285886 179.645855344
560.0 0.051924411182 -158.871869427
560.625 0.0548721392987 -141.680745769
561.25 0.0883684024079 -153.501995138
561.875 0.103914290575 -166.748529741
562.5 0.0942528231209 170.732210256
563.125 0.0988232401489 147.481265381
563.75 0.127854228365 129.494181079
564.375 0.100154925776 118.546786795
565.0 0.0956676235646 115.023620078
565.625 0.0771334529435 115.517719209
566.25 0.0923498010575 149.99898585
566.875 0.0782409349359 175.317071935
567.5 0.075935751006 178.373293778
568.125 0.0877083353665 -177.247880286
568.75 0.0579117636618 -143.603095043
569.375 0.0466469563472 -108.218196428
570.0 0.0581999358697 -111.452744429
570.625 0.0932523630931 -124.152937523
571.25 0.0894402905692 -122.756809463
571.875 0.0864259635617 -127.99622995
572.5 0.11268678096 -159.721997397
573.125 0.146953228985 179.851453943
573.75 0.0953379052619 164.3767437
574.375 0.0856056982839 144.699569386
575.0 0.106322934869 149.938332905
575.625 0.113267770428 150.311922352
576.25 0.0889022439344 144.147010806
576.875 0.0742655939249 126.468359354
577.5 0.090521343013 128.849904428
578.125 0.0584382493861 157.884401433
578.75 0.0492525767601 159.927106024
579.375 0.0571715894303 153.865200908
580.0 0.0681136263876 176.258962202
580.625 0.0784989853513 -159.827309142
581.25 0.0882034932164 -163.484914314
581.875 0.114181617255 -174.425816997
582.5 0.11566113533 -177.474111491
583.125 0.099855395852 -178.04802075
583.75 0.0788488016988 -159.605981715
584.375 0.102148880714 -157.302137932
585.0 0.0938136719335 -147.938646545
585.625 0.077844230737 -157.064876452
586.25 0.0681381510726 -130.711575769
586.875 0.0817499695638 -132.985268265
587.5 0.0735191796434 -146.35669715
588.125 0.0619355980153 172.954996568
588.75 0.0679496696993 -150.623514537
589.375 0.0844650469197 -151.048681211
590.0 0.0902495719416 -168.167645274
590.625 0.101421042767 157.304507459
591.25 0.12067485542 159.956405266
591.875 0.0990344739557 154.549113848
592.5 0.0674975616991 139.302067292
593.125 0.0614996799052 137.258825101
593.75 0.0720063502371 -173.940051505
594.375 0.058771895459 -149.213930319
595.0 0.0436342679902 -114.817282794
595.625 0.0547766033667 -113.508823697
596.25 0.0755850363566 -82.0548037023
596.875 0.067107208214 -75.5590976055
597.5 0.0564336379395 -72.949867332
598.125 0.0560982716836 -76.0656528025
598.75 0.0808767829089 -62.3238513291
599.375 0.0960310825456 -62.1283179419
600.0 0.103093651442 -66.7716601572
600.625 0.0978145184894 -77.0306396481
601.25 0.0864653429788 -64.3042709341
601.875 0.0695116945432 -84.8267122496
602.5 0.0595997851725 -90.2581204694
603.125 0.0458260744254 -76.9851555877
603.75 0.0294198096723 -52.7009364267
604.375 0.0412214364855 -22.1316463691
605.0 0.0624278534419 -21.7019055532
605.625 0.0529278867196 -8.88461499429
606.25 0.0211499434092 -26.8826520516
606.875 0.0503648755447 49.3228149421
607.5 0.0686428716396 42.5764982307
608.125 0.0676519804773 23.8925582402
608.75 0.0584340777976 18.5981738068
609.375 0.0660194010952 26.8176783065
610.0 0.0712286608934 37.0706254354
610.625 0.0675016492354 35.4945246487
611.25 0.0451209303551 13.5240318852
611.875 0.0459288707823 64.0813526149
612.5 0.0311320489839 92.2626375689
613.125 0.0281211791096 132.340442517
613.75 0.023826700036 125.224172376
614.375 0.0422157250315 121.758036902
615.0 0.032016001054 110.214988069
615.625 0.0182008051333 144.349990619
616.25 0.0460682583207 131.555956536
616.875 0.0353682488293 122.488168243
617.5 0.0416237508934 115.557283009
618.125 0.0286740848178 136.108592209
618.75 0.0272741173849 134.544756735
619.375 0.017767591699 141.947513554
620.0 0.0107763987936 143.93667506
620.625 0.019288480058 -127.488555846
621.25 0.054901396394 -79.6852577815
621.875 0.0677900001786 -119.181880984
622.5 0.0707909171279 -171.91405275
623.125 0.066638390097 174.223703076
623.75 0.0586195952867 165.096899191
624.375 0.043067709176 -169.477410295
625.0 0.0440636513711 -147.971606104
625.625 0.035567004294 -156.973275187
626.25 0.0262967115812 170.484083899
626.875 0.019600650414 -4.30517664473
627.5 0.0199192246793 -81.14420419
628.125 0.0301913180806 -45.4806203391
628.75 0.0302127752335 -40.098381761
629.375 0.0638289867874 -1.34288573001
630.0 0.0583410036168 -25.7670825127
630.625 0.0683544499189 -8.18299947361
631.25 0.0662766838664 0.546731827059
631.875 0.0749909268516 6.85638890559
632.5 0.0680609518661 -26.0723904617
633.125 0.0503604480273 -11.0493581274
633.75 0.0499425013553 -1.75588228637
634.375 0.0547238206579 28.4238919736
635.0 0.0394833590221 21.6988367385
635.625 0.0358632451894 29.489251684
636.25 0.0537462267369 40.9338561109
636.875 0.0631759080628 34.1663629083
637.5 0.0587904628971 50.7101167423
638.125 0.0226486221118 26.5383756534
638.75 0.0594563797385 68.4020011362
639.375 0.090959012058 84.4462579679
640.0 0.083131024794 108.659740572
640.625 0.0496581159425 77.6979038737
641.25 0.0670367397224 120.0209403
641.875 0.0586730514361 140.045169447
642.5 0.0665794866486 159.882483875
643.125 0.0498766121256 147.246314789
643.75 0.0565248000199 159.830756189
644.375 0.0685225596186 177.715048356
645.0 0.0912295542274 178.306871278
645.625 0.0728157666034 153.760159405
646.25 0.0861131595477 159.018622995
646.875 0.0800593656583 175.201290471
647.5 0.0756248979303 -178.843392072
648.125 0.0777846776198 174.522921691
648.75 0.0772179947179 -167.15026363
649.375 0.0541698638253 -150.992548528
650.0 0.0481255157059 -123.01185636
650.625 0.0777920403188 -92.313057958
651.25 0.066063328852 -69.96331179
651.875 0.066647721567 -44.0708869286
652.5 0.0854492651817 -26.3495666564
653.125 0.135086082948 -4.82328448297
653.75 0.109954623418 3.91980154043
654.375 0.105723276197 2.20117010838
655.0 0.132698334314 9.74873839936
655.625 0.0993387424222 20.4404776452
656.25 0.0611452688578 16.0687298911
656.875 0.0727842927781 5.18046238232
657.5 0.0810943263628 19.1863725316
658.125 0.0849518874585 41.9852127044
658.75 0.0375824691756 65.5089523806
659.375 0.0714795944654 40.9906215789
660.0 0.105288055702 20.4082610282
660.625 0.124751187704 12.8449507114
661.25 0.0901669083176 2.04028857469
661.875 0.123326106841 -15.9650604864
662.5 0.117081151826 -26.2160881541
663.125 0.117511686155 -19.1233550534
663.75 0.0786583741018 -2.67177621525
664.375 0.0863769448065 48.9455124297
665.0 0.0761369278532 87.6675907974
665.625 0.0602707269785 108.301119507
666.25 0.0765887611538 128.345303283
666.875 0.108834852534 159.461127882
667.5 0.100914795846 -173.361224803
668.125 0.102640921887 177.197652429
668.75 0.127618397945 164.168820162
669.375 0.132077586563 174.389961399
670.0 0.0896929013014 -173.790416868
670.625 0.0956618418072 -177.356864509
671.25 0.0993944117202 171.942002386
671.875 0.0965789895631 163.809719406
672.5 0.0689252922156 149.230983586
673.125 0.0902566650732 146.102784736
673.75 0.108861115058 153.501742299
674.375 0.116488353386 163.756708058
675.0 0.121578495032 179.902804901
675.625 0.138644945332 -156.034266958
676.25 0.121019301313 -127.759120199
676.875 0.123311072087 -124.635914233
677.5 0.131260234609 -132.033740546
678.125 0.144103989974 -122.553041879
678.75 0.0576851617179 -98.3854087455
679.375 0.0469633419241 -75.2545542468
680.0 0.0766110367472 -84.7569171156
680.625 0.131922540676 -87.3782822951
681.25 0.0974148266887 -73.8353665609
681.875 0.0974009619654 -94.1033961576
682.5 0.141237531882 -126.289981909
683.125 0.16701039838 -125.620556688
683.75 0.150310814851 -110.632571964
684.375 0.10561836303 -78.4142556749
685.0 0.127061923304 -41.555408533
685.625 0.133688194625 -5.8955776253
686.25 0.12421150153 14.0869850989
686.875 0.0704134290943 46.6746791319
687.5 0.0721838970315 84.3057146804
688.125 0.0808711234427 104.417396668
688.75 0.104394877811 102.798930244
689.375 0.124017093847 125.840952242
690.0 0.132315653476 131.130457833
690.625 0.114052175365 122.49233255
691.25 0.146055302664 90.2800498265
691.875 0.188961390771 62.9290726244
692.5 0.149322955113 34.8647588058
693.125 0.0964188008978 -20.2490177244
693.75 0.0957977763718 -44.0380125658
694.375 0.144344335214 -40.6145662586
695.0 0.114070879765 17.876724368
695.625 0.101391100777 53.7051471577
696.25 0.106343384461 109.382969021
696.875 0.140107288393 166.234091844
697.5 0.148758797206 -153.215826737
698.125 0.139398723278 -135.461509806
698.75 0.134498756306 -137.617102691
699.375 0.119184358839 -134.288544184
700.0 0.086257528396 -106.573143412
700.625 0.109440189131 -88.3716929538
701.25 0.0965168193769 -68.4395162851
701.875 0.0849458988059 -72.555104321
702.5 0.098671655901 -76.4456092374
703.125 0.168387882713 -126.897579243
703.75 0.193852889995 -161.233323555
704.375 0.132531849292 166.941001205
705.0 0.115286139244 150.073447173
705.625 0.13369872426 -162.700388426
706.25 0.140849636924 -111.132097156
706.875 0.0910646196707 -64.9093044777
707.5 0.0816906821209 -51.8386228517
708.125 0.088294300805 29.2637572237
708.75 0.110484955426 63.9729992114
709.375 0.101411669289 104.502553772
710.0 0.102760458342 121.713951876
710.625 0.107611148123 145.644402653
711.25 0.117666017351 170.283437795
711.875 0.143370427613 161.99804365
712.5 0.158958533 132.627920807
713.125 0.118407791326 107.452755715
713.75 0.104075449147 46.1283586737
714.375 0.116287302792 7.12210881079
715.0 0.118935881415 16.9709792463
715.625 0.0866689923742 35.69129311
716.25 0.087787006663 83.5027498685
716.875 0.123435446738 105.033661601
717.5 0.13999964713 147.484746728
718.125 0.116911656444 155.449713926
718.75 0.103763875327 175.954643488
719.375 0.113939789926 -175.581545993
720.0 0.133165895089 -133.180999592
720.625 0.119500828236 -79.4592512593
721.25 0.101151701393 -20.1144469812
721.875 0.087338403087 36.5149940625
722.5 0.0792086269269 74.5369632992
723.125 0.0683936138765 46.0385484761
723.75 0.126589985201 50.0253351233
724.375 0.109851271894 -7.992032869
725.0 0.084581531025 -52.477485434
725.625 0.0992738239678 -70.6106337364
726.25 0.104837269538 -83.1869954777
726.875 0.110004964932 -45.0531577494
727.5 0.0879965150073 -32.1877238837
728.125 0.0849825078367 2.58312863174
728.75 0.0705198186584 -3.88797723178
729.375 0.108078897717 27.9824166262
730.0 0.068600592191 -4.25117339535
730.625 0.0599767030873 13.2823490464
731.25 0.0721103077406 56.6286777207
731.875 0.0551016505136 97.3688230277
732.5 0.0857938375127 153.949595598
733.125 0.101349907767 176.465758332
733.75 0.0803617808675 165.206607758
734.375 0.0692165197352 177.64760106
735.0 0.0651924076115 148.101497614
735.625 0.0471717561509 150.314429952
736.25 0.0352537644787 129.476256786
736.875 0.0440631250653 167.319422346
737.5 0.073035686069 177.085311775
738.125 0.0920600929062 177.836378761
738.75 0.076602756086 -179.695243034
739.375 0.0294158066572 161.518796723
740.0 0.0743634605505 -146.35927249
740.625 0.0709061039182 -157.164227332
741.25 0.0629515052668 -157.085601454
741.875 0.0112642362067 -81.2794799744
742.5 0.0307181910224 -12.5284816476
743.125 0.0386218927342 40.0801891957
743.75 0.0475230330364 85.6229291988
744.375 0.0411156542734 172.987824212
745.0 0.0856567462534 99.3512044517
745.625 0.0740593140968 97.2041311171
746.25 0.0882968445667 81.2312388221
746.875 0.0574288297414 46.7645458603
747.5 0.0468892442622 10.5605529384
748.125 0.0275640248186 -9.53836001383
748.75 0.0296417403035 -27.7409870934
749.375 0.0409594980221 -52.7420704053
750.0 0.0425119989062 -50.6705757368
