!Created with skrf (http://scikit-rf.org).
# GHz S RI R (50+0j) 
!freq	ReS11	ImS11	
500.0	0.01352493999	-0.3644081429	
500.625	0.4588423978	-1.088717787	
501.25	-0.7070527724	-0.4000364637	
501.875	0.0570236608	-0.2720720278	
502.5	-0.1066797978	-0.1968139989	
503.125	-0.01140632922	0.02769782705	
503.75	-0.05284753643	0.1088000408	
504.375	0.02024490343	-0.04754913251	
505.0	0.03950051604	0.02077783769	
505.625	-0.04294677036	-0.08030806064	
506.25	0.02134771392	0.041149626	
506.875	-0.3654460312	-0.03942302642	
507.5	-0.0499085233	0.1567365829	
508.125	0.4646690173	-0.6436006171	
508.75	0.1482556485	-1.188817513	
509.375	-0.08599602541	-0.4774426704	
510.0	-0.4777118069	-0.4929638368	
510.625	-0.1682818778	-0.1053150573	
511.25	-0.05233134149	-0.02889784934	
511.875	-0.1295604193	-0.05953475676	
512.5	-0.02438715666	0.04810315946	
513.125	0.01237979663	-0.01794844615	
513.75	-0.0759442738	-0.0787193604	
514.375	0.01447303901	0.113040437	
515.0	-0.03097729692	-0.4124421744	
515.625	-0.02967923858	0.3933234206	
516.25	0.2245580607	-1.12861466	
516.875	-0.6165670489	-0.1125892551	
517.5	0.08457156656	0.007026809553	
518.125	-0.1001913376	-0.06219168988	
518.75	0.05791921172	-0.01412034373	
519.375	-0.07027474366	0.03851321501	
520.0	0.1049691547	0.01365535933	
520.625	0.09828915307	-0.006350815505	
521.25	-0.06446081637	-0.2741895203	
521.875	-0.06649798409	-0.0009617225226	
522.5	-0.08590004442	0.04071134181	
523.125	0.02188540697	-0.0446168346	
523.75	-0.2100589758	0.03624065129	
524.375	0.01895878465	0.02325667952	
525.0	-0.1753173965	0.1537025212	
525.625	0.1390212199	-0.01798953241	
526.25	-0.05654559753	0.05912318632	
526.875	0.005413707566	-0.007011755815	
527.5	-0.1227312867	0.1865505623	
528.125	0.1713261211	0.1647967313	
528.75	-0.07647576002	0.1254919103	
529.375	0.1040404487	0.05111427901	
530.0	-0.07214111067	0.1091461821	
530.625	0.3109451846	0.1832564649	
531.25	0.1016899545	0.1220762952	
531.875	0.3835427744	-0.3121895223	
532.5	-0.06048941145	0.09723294654	
533.125	0.1072408958	-0.2697813019	
533.75	-0.02321273928	0.05310713795	
534.375	-0.05499204472	-0.4137018046	
535.0	-0.2189551928	0.05515610644	
535.625	-0.1178343336	0.03632385424	
536.25	-0.0008761841569	0.1180152121	
536.875	0.05668939623	-0.03485399779	
537.5	0.07994781847	-0.01374188432	
538.125	0.08399001919	-0.09773819981	
538.75	0.08501389048	-0.08252369208	
539.375	-0.06433883312	-0.1456734024	
540.0	-0.1572229795	-0.1342839708	
540.625	-0.1373106531	0.03674530753	
541.25	-0.04429357909	-0.04395930095	
541.875	-0.1146114823	0.03338804463	
542.5	0.04955844079	-0.04387381719	
543.125	-0.1961853742	-0.06927318534	
543.75	0.05962387691	0.05257162945	
544.375	-0.151926874	0.03474827402	
545.0	0.09515702387	0.01363734982	
545.625	-0.02752725063	0.1211153378	
546.25	0.1586034347	-0.02649208222	
546.875	0.0261428883	-0.008352549283	
547.5	0.1156035374	-0.1290806893	
548.125	-0.1275671696	-0.1266346601	
548.75	-0.04064218129	-0.06721531511	
549.375	-0.1294285128	-0.1047144444	
550.0	-0.05230380144	0.06230816159	
550.625	-0.04902385812	-0.02725234439	
551.25	-0.07280921967	0.06180793171	
551.875	-0.03369267906	0.04504011376	
552.5	-0.05478628423	0.07856818846	
553.125	0.01832926077	0.0552940319	
553.75	0.03198038109	0.04378626445	
554.375	0.09340304546	-0.02212209581	
555.0	0.06783440812	-0.06510565159	
555.625	0.07541208719	-0.09995407832	
556.25	0.04037105925	-0.1365210528	
556.875	-0.0473549587	-0.130338307	
557.5	-0.09449724287	-0.08233583641	
558.125	-0.112733845	-0.02322476612	
558.75	-0.09474103845	0.018325865	
559.375	-0.09194135823	0.02235462994	
560.0	-0.09048752455	0.08744928553	
560.625	-0.0129429383	0.1003863534	
561.25	-0.01682568915	0.07813248383	
561.875	0.06668744232	0.05200757689	
562.5	-0.01754475858	0.02258239813	
563.125	0.09849486926	0.08446249389	
563.75	0.1031939871	-0.04697653045	
564.375	0.1109844927	-0.04664333898	
565.0	0.06502216188	-0.1897228348	
565.625	-0.07466567246	-0.07991099961	
566.25	-0.06126638835	-0.1352752477	
566.875	-0.2167611756	-0.02678703585	
567.5	-0.03205357212	-0.03793585528	
568.125	-0.1714742739	-0.2242782997	
568.75	-0.2078418579	0.08722052731	
569.375	-0.1567675743	-0.009667271591	
570.0	-0.1331976537	0.3005679678	
570.625	0.07713182557	0.1154693717	
571.25	-0.08940983155	0.09538325979	
571.875	0.1612008417	0.03228373582	
572.5	-0.0001997435061	0.03449394708	
573.125	0.1733303363	-0.1566195534	
573.75	-0.08800187318	-0.1384478966	
574.375	0.0772153222	0.03787707986	
575.0	-0.00859088393	-0.1401532423	
575.625	0.0176935701	0.02152447695	
576.25	0.1044789058	-0.135478448	
576.875	-0.09952332206	-0.1504184514	
577.5	-0.0003399610883	-0.03984094304	
578.125	0.03706517381	-0.2201547923	
578.75	-0.2290147617	-0.08276251752	
579.375	0.04188189557	0.03943159839	
580.0	-0.1324418574	-0.1645644515	
580.625	0.0247719187	0.1268954072	
581.25	-0.2302769902	-0.05754658226	
581.875	0.1552460613	0.2461427669	
582.5	0.04959472444	-0.04411952336	
583.125	-0.008519576326	0.181941944	
583.75	0.149046348	-0.07011058657	
584.375	-0.08461101268	0.1170061996	
585.0	0.2227372967	0.02542510734	
585.625	0.03004766294	-0.06882431766	
586.25	0.1866332571	0.03477818158	
586.875	0.01151003973	-0.2234864632	
587.5	-0.0151695535	-0.03896183484	
588.125	0.03261748275	-0.1635427346	
588.75	-0.03622969076	-0.1705521238	
589.375	0.01777355901	-0.04392215702	
590.0	-0.03890748924	-0.2592779302	
590.625	-0.1817866481	0.1032646554	
591.25	-0.05982129475	-0.01835524851	
591.875	-0.1360625058	0.2130884781	
592.5	0.1699300168	-0.05933036335	
593.125	-0.1261135919	0.2089006446	
593.75	0.1180881601	-0.04963476939	
594.375	0.01809529366	0.1888371848	
595.0	0.2813543462	0.0927985294	
595.625	0.07577218249	-0.05598367107	
596.25	0.145705389	0.1318215415	
596.875	0.2011587636	-0.0571125634	
597.5	0.04851127387	0.03543187891	
598.125	0.1561809575	0.1631444261	
598.75	0.1718124721	-0.01321198241	
599.375	0.153901442	-0.009378033828	
600.0	0.1513359711	-0.1488548555	
600.625	0.1209712923	-0.1938121307	
601.25	-0.02462311446	-0.1441905265	
601.875	0.003899985678	-0.1714730004	
602.5	-0.1783790351	0.0905009506	
603.125	0.005989148191	-0.03108205008	
603.75	-0.2584951673	0.1098777487	
604.375	0.1148305136	0.1091284137	
605.0	-0.204985591	-0.018940897	
605.625	0.01925928471	0.2092709055	
606.25	-0.07335953776	-0.09738659011	
606.875	-0.2279540696	0.2179093874	
607.5	-0.01814355875	0.09622005133	
608.125	-0.09802864712	0.2506868705	
608.75	0.2511717833	0.06988607618	
609.375	0.1570760419	0.01062547724	
610.0	0.1730848822	-0.1678455955	
610.625	0.01188081947	-0.09114472246	
611.25	-0.005644033302	-0.2145078176	
611.875	-0.06506952746	0.0076384547	
612.5	-0.1761645772	-0.1555231526	
613.125	-0.1418214226	0.2076029082	
613.75	-0.1356575634	-0.003066998181	
614.375	0.1278901715	0.2036784199	
615.0	-0.03793205492	-0.07385915285	
615.625	0.04610189226	0.2148756797	
616.25	0.01456876563	0.01027844819	
616.875	-0.1579107951	0.2102761877	
617.5	0.06224064247	0.2218675969	
618.125	-0.1119528856	0.1285428426	
618.75	0.1422502302	0.2339089706	
619.375	-0.006786413873	0.04954828359	
620.0	0.3273312993	0.05440643316	
620.625	-0.06606009691	-0.1002086383	
621.25	0.01544909899	-0.267655693	
621.875	-0.3193064483	0.07190574993	
622.5	-0.04194777016	-0.05302374375	
623.125	-0.09933038108	0.2888256047	
623.75	0.1415150031	-0.1165279155	
624.375	0.07858987278	0.06300430428	
625.0	-0.0215663476	-0.1070382113	
625.625	0.06423335585	-0.01348368666	
626.25	-0.05774725112	-0.1820037175	
626.875	-0.149643638	0.0001334256913	
627.5	-0.08139907959	-0.06620236984	
628.125	-0.1317421186	-0.06486168322	
628.75	-0.08694376785	-0.09743218673	
629.375	-0.07224268011	-0.1067331527	
630.0	-0.1872181555	-0.1366088401	
630.625	-0.1782509296	0.1872041519	
631.25	-0.1074950698	0.05416194451	
631.875	-0.02386818099	0.3270638795	
632.5	0.2276912757	0.02893720654	
633.125	0.07022891642	0.1531396334	
633.75	0.2779268108	-0.2198105151	
634.375	-0.05312273308	0.01870741093	
635.0	0.07131633844	-0.2520437374	
635.625	-0.1900651305	0.05832258781	
636.25	-0.05122675718	0.004540263721	
636.875	-0.1552875735	0.1796811301	
637.5	0.09661320276	0.09286967373	
638.125	-0.1360236789	0.01978421814	
638.75	-0.01622067378	0.2633710516	
639.375	0.06766857918	0.09799957605	
640.0	0.0626292368	0.2669767159	
640.625	0.32010992	0.116819535	
641.25	0.1842920239	-0.112339438	
641.875	0.1577139363	-0.0476187718	
642.5	-0.06155631774	-0.3536202687	
643.125	-0.1003801903	0.09517357109	
643.75	-0.06584674936	-0.2671581828	
644.375	-0.2440639744	0.2537119687	
645.0	-0.01065428427	-0.09771144426	
645.625	0.01368420557	0.4848700141	
646.25	0.2360545478	-0.1943583488	
646.875	-0.06173142149	0.1846449596	
647.5	0.22742845	-0.1057761088	
648.125	-0.09192113303	0.07791934732	
648.75	0.4463400584	-0.04076100148	
649.375	0.03225685333	-0.3765624715	
650.0	0.0801291513	-0.1021548384	
650.625	0.3178796327	-0.3059991354	
651.25	-0.02688503745	-0.3770958878	
651.875	0.1462150536	0.0335042923	
652.5	0.4058163887	-0.1446201929	
653.125	0.1440719607	-0.2438870878	
653.75	0.1321933281	-0.04003318288	
654.375	-0.07268151851	-0.4564034418	
655.0	-0.3075168432	0.1598947246	
655.625	-0.06744125569	-0.03967906966	
656.25	-0.02852166897	0.408997238	
656.875	0.1460234486	-0.2312283004	
657.5	-0.03953515748	0.3340874897	
658.125	0.3103927039	-0.02807296175	
658.75	0.005515201596	0.07612703635	
659.375	0.5309589949	-0.1035343947	
660.0	-0.04834447328	-0.433323674	
660.625	0.139776172	-0.1030726411	
661.25	0.2227896892	-0.3526165517	
661.875	0.06825929173	-0.362373279	
662.5	0.136554316	-0.006945270467	
663.125	0.3555120982	-0.2811630983	
663.75	-0.04486737499	-0.2673630885	
664.375	0.04877214851	-0.2375906958	
665.0	-0.3386596194	-0.2294586759	
665.625	-0.1919562554	0.2139510384	
666.25	-0.1058806962	0.1338880293	
666.875	0.1702741338	0.2913544266	
667.5	0.1760117786	-0.09624132861	
668.125	0.1603877614	0.1629064465	
668.75	0.1996258898	-0.334156196	
669.375	-0.06454066433	-0.06308975213	
670.0	0.1689466895	-0.2232910071	
670.625	-0.1944905971	-0.3052051521	
671.25	0.0806393989	0.08234090825	
671.875	0.2384070736	-0.3162935741	
672.5	0.03326626826	-0.1845937834	
673.125	0.1543496711	-0.06249813708	
673.75	0.2367296342	-0.2958883913	
674.375	-0.1516798706	-0.1830600303	
675.0	0.03214728028	-0.1885729606	
675.625	-0.2724406291	-0.1550721027	
676.25	-0.1167980789	0.119090889	
676.875	-0.09822480088	-0.09254657327	
677.5	-0.1918686391	0.1315128342	
678.125	0.01007788756	0.1186710926	
678.75	-0.07226776603	0.1746193763	
679.375	0.3903630408	0.07861000494	
680.0	-0.124359676	-0.1643591732	
680.625	0.2448066691	0.09365910293	
681.25	0.06864520654	-0.3086926835	
681.875	-0.1516089391	0.2043942508	
682.5	0.5642494068	0.2020383441	
683.125	0.01350766373	-0.2756819317	
683.75	0.1727751388	0.3160486436	
684.375	0.4373827598	-0.07576271607	
685.0	0.04160048478	-0.1314353662	
685.625	0.3635175038	0.198271881	
686.25	0.261071157	-0.2498101825	
686.875	0.1737717317	-0.09808418398	
687.5	0.2879915684	-0.29192761	
688.125	-0.2269225703	-0.3756223565	
688.75	-0.3096733758	-0.08229434837	
689.375	-0.2103470399	0.2980003873	
690.0	0.171525221	0.4065997101	
690.625	0.2379873804	-0.01484697305	
691.25	0.2183287388	0.4931828478	
691.875	0.6711524891	-0.02317481552	
692.5	0.1991228519	0.1985279917	
693.125	0.9030684422	0.05616844057	
693.75	0.237950815	-0.5933811753	
694.375	0.4631656256	0.007109925481	
695.0	0.489491538	-0.6080632169	
695.625	0.11180093	-0.1026787771	
696.25	0.5859272003	0.3305368553	
696.875	0.50820737	0.03336153107	
697.5	0.2089236713	0.3929652559	
698.125	0.7016436506	-0.01183835533	
698.75	0.1932455795	-0.2881124889	
699.375	-0.4770456027	-0.3516731146	
700.0	-0.01329558908	0.3969375411	
700.625	-0.06913126158	0.3014084985	
701.25	0.4004609795	-0.02867266007	
701.875	0.04365325175	0.1963737205	
702.5	0.5068479079	0.3043196924	
703.125	0.2160404769	-0.1326664988	
703.75	0.4291866204	0.04702460771	
704.375	0.2090515323	-0.3321040669	
705.0	0.08696146288	-0.04224738577	
705.625	0.3862803539	-0.04878983317	
706.25	0.1097283623	0.06418279983	
706.875	0.2402587603	0.3539605001	
707.5	0.3476382768	0.0652755908	
708.125	0.3398160601	0.2453641107	
708.75	0.1405573594	-0.5942022695	
709.375	-0.0443792449	0.01445966388	
710.0	-0.4271160025	0.3140475215	
710.625	0.2477176065	-0.1259343999	
711.25	-0.03463308664	0.3273732353	
711.875	0.3421433887	-0.233371024	
712.5	0.1300244764	0.1265199284	
713.125	0.362507013	-0.2643410959	
713.75	-0.04809919963	-0.2674340134	
714.375	0.09832773192	-0.1581067776	
715.0	-0.04178055629	-0.2405664647	
715.625	-0.06210260395	-0.1433144217	
716.25	0.1650689467	-0.1276029359	
716.875	0.3249547594	-0.259396003	
717.5	0.3587589668	-0.1483001361	
718.125	0.4571342315	0.03720336129	
718.75	0.7835698589	-0.1180270469	
719.375	0.276605196	-0.8070519645	
720.0	0.4344519688	-0.05825004486	
720.625	-0.1314893282	-1.726451794	
721.25	-0.3147315276	0.07008220979	
721.875	0.07592377578	-1.242056411	
722.5	-1.270733928	-0.4494940309	
723.125	-0.04469910154	0.05129331047	
723.75	-0.7339513636	0.5813035857	
724.375	0.4213438852	0.3112886685	
725.0	-0.06699568084	0.2065864086	
725.625	0.2391501341	0.6189600355	
726.25	0.3308400409	0.4566786084	
726.875	-0.2404990722	0.5274546106	
727.5	-0.1307638173	1.506291634	
728.125	0.8567345152	1.532336348	
728.75	-0.3429795758	1.31205398	
729.375	-0.7373886594	4.028134474	
730.0	1.821348824	2.722834154	
730.625	-0.3023365603	1.91807382	
731.25	-1.244014243	4.974450508	
731.875	0.708133457	3.121089708	
732.5	-2.242438207	-1.007083245	
733.125	-3.115075616	1.352694525	
733.75	0.5992230896	1.202292818	
734.375	0.0489133671	0.7881750137	
735.0	-0.5472052523	-1.121601063	
735.625	0.1673994109	0.08477606873	
736.25	-0.3694535765	0.6758156145	
736.875	0.8606871084	0.299280223	
737.5	0.1034264758	-0.05233109877	
738.125	1.98955073	0.05688781312	
738.75	1.127915648	-2.302851948	
739.375	0.2435424541	-0.9609198016	
740.0	3.113824451	1.258182641	
740.625	5.242870631	-3.455464441	
741.25	-2.31063897	-1.351258468	
741.875	-4.904223913	1.045643399	
742.5	-2.303360242	0.1419124725	
743.125	1.079803983	-0.6470168906	
743.75	-0.1605984293	-1.517028443	
744.375	-0.315687936	0.3420361028	
745.0	-0.1733780748	-0.01553553706	
745.625	0.1122800207	-0.193128693	
746.25	0.1323472312	-0.02337153637	
746.875	-0.3120973133	0.009515419129	
747.5	0.126008005	0.2840021219	
748.125	0.008218115385	0.2679195594	
748.75	0.2547242241	0.5448623706	
749.375	0.3166401417	0.2894589438	
750.0	-0.2896769222	0.1096649594	
