!Created with skrf (http://scikit-rf.org).
# GHz S RI R (50+0j) 
!freq	ReS11	ImS11	
500.0	-0.02639280293	-0.7574896406	
500.625	0.09199046906	-0.7919275179	
501.25	-0.3304027016	-0.4877809073	
501.875	-0.2510072932	-0.330862197	
502.5	-0.04821554086	-0.09802526313	
503.125	-0.0584604271	0.007135985407	
503.75	0.012311055	0.06854020256	
504.375	0.02225472981	-0.006136616069	
505.0	0.0142750717	-0.01848074685	
505.625	-0.003629361279	-0.03917401556	
506.25	-0.05166908165	-0.04182272132	
506.875	-0.09642996371	0.01420255329	
507.5	-0.07891453015	-0.2683952986	
508.125	0.09724373462	-0.5196599335	
508.75	0.3595265044	-0.7466999636	
509.375	-0.04050504492	-0.8200022407	
510.0	-0.4001087758	-0.2013024563	
510.625	-0.09965168121	-0.067446595	
511.25	-0.07786547681	-0.06312839059	
511.875	-0.08889603365	-0.03181103198	
512.5	-0.01231244599	0.02878831003	
513.125	-0.005936253819	-0.06056015614	
513.75	-0.04074872049	-0.03568393746	
514.375	-0.03996172182	-0.003651032792	
515.0	0.00170339583	-0.03117626253	
515.625	-0.04658512106	-0.2676668014	
516.25	-0.1983293857	-0.5208190753	
516.875	-0.1709030857	-0.3214527476	
517.5	-0.05308095446	-0.1173282957	
518.125	-0.02159305796	-0.01877486942	
518.75	-0.04503798978	-0.09972709881	
519.375	-0.04393224605	0.02848495732	
520.0	0.08467895119	0.03906955349	
520.625	0.1223184636	-0.05406606352	
521.25	-0.02870559192	-0.2025329966	
521.875	-0.1178737173	-0.01073307038	
522.5	-0.03743118133	0.02297840396	
523.125	-0.04617687474	0.02660793931	
523.75	-0.08603296455	-0.002549864969	
524.375	-0.1238522183	0.03246747984	
525.0	-0.02570242068	0.113548362	
525.625	0.03059820762	0.03722834756	
526.25	-0.01047932091	-0.009673528573	
526.875	-0.0377870834	0.04359291047	
527.5	-0.02811701065	0.1451991726	
528.125	0.05131984733	0.1965773005	
528.75	0.04134934989	0.1630341	
529.375	0.03756161822	0.0460234384	
530.0	0.02695062178	0.1143384264	
530.625	0.1059663005	0.207353674	
531.25	0.330793683	0.04533725508	
531.875	0.165225036	-0.1633518006	
532.5	-0.05455589209	-0.08326420195	
533.125	0.03719509476	-0.0480336845	
533.75	0.0634991873	-0.1534731997	
534.375	-0.09383497823	-0.214303105	
535.0	-0.2018310136	-0.06562972392	
535.625	-0.1230319961	0.1044025995	
536.25	0.005695574188	0.08056232063	
536.875	0.07952642362	0.006288065731	
537.5	0.0527925674	-0.0395448454	
538.125	0.08988556594	-0.05605809606	
538.75	0.09599930514	-0.1095643105	
539.375	-0.06990315033	-0.1345212344	
540.0	-0.1472603479	-0.1150887467	
540.625	-0.1396491909	-0.01216859166	
541.25	-0.07339869418	0.007222468717	
541.875	-0.0406657933	-0.01574610344	
542.5	-0.04255051311	-0.0414980565	
543.125	-0.06948745281	-0.03344898295	
543.75	-0.07369142322	0.00163374368	
544.375	-0.03691103725	0.03742890633	
545.0	-0.0009252249015	0.05016325507	
545.625	0.04855654925	0.0500780554	
546.25	0.084448794	0.02463796484	
546.875	0.0981169236	-0.03186872076	
547.5	0.04769555751	-0.1112332661	
548.125	-0.04771389974	-0.1341611219	
548.75	-0.1123468813	-0.09055736664	
549.375	-0.1004635522	-0.04995649155	
550.0	-0.06579324122	0.01454941403	
550.625	-0.04336780204	0.0136167741	
551.25	-0.06263910317	0.03000543903	
551.875	-0.05702895115	0.0661808176	
552.5	-0.02905777555	0.07080470257	
553.125	-0.004490830334	0.05496028662	
553.75	0.04458363724	0.03466449293	
554.375	0.08111099846	-0.01151202475	
555.0	0.07961438932	-0.06967848701	
555.625	0.06462487777	-0.102939515	
556.25	0.04126359588	-0.1298511634	
556.875	-0.04579699137	-0.1358648793	
557.5	-0.09803302065	-0.07946793302	
558.125	-0.1078710928	-0.0225488653	
558.75	-0.09848618698	0.00980346349	
559.375	-0.09574767123	0.03143250215	
560.0	-0.07879385336	0.07669819086	
560.625	-0.03691561098	0.1025184428	
561.25	0.01599830896	0.08964924538	
561.875	0.03174946133	0.03750882929	
562.5	0.01521271996	0.04547544362	
563.125	0.06910957795	0.05757587148	
563.75	0.1238554729	-0.009217063784	
564.375	0.1048320937	-0.09587594613	
565.0	0.04983370416	-0.1372152404	
565.625	-0.04447266654	-0.135558696	
566.25	-0.1115202931	-0.08401268356	
566.875	-0.1282345824	-0.05570532496	
567.5	-0.1298172246	-0.08170703715	
568.125	-0.1409074666	-0.1157730079	
568.75	-0.2014118553	-0.03549944007	
569.375	-0.186167876	0.1144400264	
570.0	-0.07734815882	0.1882589477	
570.625	-0.02552427931	0.156297597	
571.25	0.02029132295	0.09970313639	
571.875	0.06114353098	0.05392261323	
572.5	0.1071292068	-0.01758232854	
573.125	0.06528272221	-0.1046350988	
573.75	0.02552892967	-0.1016986258	
574.375	0.00286616516	-0.0606237575	
575.0	0.01963240757	-0.03592736875	
575.625	0.02412150369	-0.06786577939	
576.25	0.02854313565	-0.09922130927	
576.875	-0.01083222328	-0.1235775981	
577.5	-0.01198846228	-0.1392071371	
578.125	-0.05074831473	-0.1354759526	
578.75	-0.08323349337	-0.09989693454	
579.375	-0.07972442586	-0.05047254712	
580.0	-0.04962290203	-0.02145379884	
580.625	-0.06404940499	-0.01588645719	
581.25	-0.08185779198	0.07460658234	
581.875	0.01539407374	0.1353970804	
582.5	0.05483083642	0.1200988024	
583.125	0.07089821407	0.06367123147	
583.75	0.03681875272	0.01453522793	
584.375	0.03491475482	0.04646090688	
585.0	0.09887331107	0.04253358444	
585.625	0.1349379239	-0.01103873393	
586.25	0.1269880062	-0.06617586387	
586.875	0.04998468731	-0.1240224955	
587.5	-0.0245795406	-0.1200538924	
588.125	-0.02387099334	-0.1194428515	
588.75	0.01853832287	-0.1275664652	
589.375	0.04203657832	-0.138281194	
590.0	-0.0674863799	-0.1439315659	
590.625	-0.1633531627	-0.01741366766	
591.25	-0.101943103	0.1085560817	
591.875	-0.02174112828	0.1060909834	
592.5	0.01135406589	0.04285061883	
593.125	-0.01890530513	0.04584074433	
593.75	0.05606899308	0.09709951042	
594.375	0.1351475038	0.07603131659	
595.0	0.1495190504	0.07696700444	
595.625	0.1509480509	0.05660861361	
596.25	0.140105059	0.02474818568	
596.875	0.1379239358	0.01964298132	
597.5	0.1322601858	0.05890267572	
598.125	0.137619725	0.08248299871	
598.75	0.159986494	0.05276813247	
599.375	0.1784198431	-0.04872445931	
600.0	0.131198694	-0.1367294815	
600.625	0.1072553992	-0.1619100951	
601.25	0.04165068012	-0.1696248008	
601.875	-0.08268616314	-0.114933779	
602.5	-0.1127013362	-0.0001505999514	
603.125	-0.08936133209	0.05060163072	
603.75	-0.08662297594	0.06856275813	
604.375	-0.08019499021	0.0712397366	
605.0	-0.05414685931	0.07191013596	
605.625	-0.05673582605	0.05972479102	
606.25	-0.09359914957	0.06197564898	
606.875	-0.1421802589	0.08641163101	
607.5	-0.1285028472	0.1680882588	
608.125	0.0002385041959	0.216384173	
608.75	0.1747733381	0.1269473119	
609.375	0.2002921299	-0.05112330098	
610.0	0.136422259	-0.1193241523	
610.625	0.06015738139	-0.146362298	
611.25	-0.01368556071	-0.138215189	
611.875	-0.08745021811	-0.09941584323	
612.5	-0.147865624	-0.04482779294	
613.125	-0.1654672383	0.04353959925	
613.75	-0.06884133234	0.1342908008	
614.375	0.04859621538	0.09258459833	
615.0	0.04050731778	0.03628466782	
615.625	0.003367527258	0.07414172645	
616.25	-0.03257380375	0.1277461583	
616.875	-0.06222771052	0.1685355659	
617.5	-0.04503748143	0.1964659404	
618.125	0.001369667211	0.1889688359	
618.75	0.03884705966	0.1653918657	
619.375	0.09906889826	0.1329902966	
620.0	0.1718703393	0.01607020729	
620.625	0.07657731834	-0.1511600582	
621.25	-0.09746330008	-0.1525071821	
621.875	-0.1855539506	-0.06040709913	
622.5	-0.1864112643	0.06973912629	
623.125	-0.01600146277	0.1682983673	
623.75	0.1212841545	0.02223591784	
624.375	0.02979133511	-0.05165696832	
625.0	0.03290697861	-0.02639261739	
625.625	0.03886281869	-0.08201893921	
626.25	-0.05238428761	-0.1175944319	
626.875	-0.128445194	-0.06717147679	
627.5	-0.1313118936	-0.0301506408	
628.125	-0.1004172945	-0.05711324113	
628.75	-0.07168537509	-0.1026598759	
629.375	-0.09139353228	-0.1250165725	
630.0	-0.1731604533	-0.06827148098	
630.625	-0.1889339445	0.07881529853	
631.25	-0.1049842146	0.1860349875	
631.875	0.008717491281	0.2196122326	
632.5	0.1492558429	0.1551946281	
633.125	0.1912721499	0.02247978565	
633.75	0.1395316836	-0.07926395157	
634.375	0.04049390888	-0.1277256999	
635.0	-0.03095380482	-0.1287679044	
635.625	-0.1377253556	-0.06213985336	
636.25	-0.1302044439	0.08069216707	
636.875	-0.04476064304	0.1205776986	
637.5	-0.0223041792	0.08271553147	
638.125	-0.04777211149	0.0843774822	
638.75	-0.04433194495	0.1530126691	
639.375	0.0242099325	0.2180389902	
640.0	0.1450927108	0.2012415251	
640.625	0.225758275	0.1051644125	
641.25	0.2418319058	-0.03595497601	
641.875	0.1274699075	-0.1849193918	
642.5	-0.03279543814	-0.1877553826	
643.125	-0.1213007932	-0.09306358397	
643.75	-0.125611887	-0.05028679428	
644.375	-0.1573984937	0.01806991521	
645.0	-0.1139171585	0.1521174148	
645.625	0.0714108323	0.1851127395	
646.25	0.15363055	0.05139020506	
646.875	0.08752623397	-0.02599336534	
647.5	0.05149965607	0.02193576794	
648.125	0.1441855612	0.03233768974	
648.75	0.2241482233	-0.08232025712	
649.375	0.1764390964	-0.2312480517	
650.0	0.1160579848	-0.2777654599	
650.625	0.1093865981	-0.2593346907	
651.25	0.1495476645	-0.2226487804	
651.875	0.2044816147	-0.1682477561	
652.5	0.2298063337	-0.1144492251	
653.125	0.2206742564	-0.1287587828	
653.75	0.137371267	-0.227237179	
654.375	-0.09462063752	-0.2596306138	
655.0	-0.2625813195	-0.04148873647	
655.625	-0.1322810179	0.1850230614	
656.25	0.05255199736	0.1480760066	
656.875	0.05531555832	0.05214633149	
657.5	0.04461739636	0.08379437898	
658.125	0.1430143654	0.1222723064	
658.75	0.2653330558	0.03525619392	
659.375	0.2674635055	-0.1594791752	
660.0	0.1646914365	-0.2802264817	
660.625	0.08429139468	-0.2970898853	
661.25	0.109122934	-0.2690442105	
661.875	0.1634071972	-0.237941763	
662.5	0.2043695625	-0.2020755641	
663.125	0.2028827662	-0.2001754587	
663.75	0.1045960059	-0.2660065144	
664.375	-0.07516794687	-0.2810324213	
665.0	-0.2572069491	-0.1500240089	
665.625	-0.2652433574	0.1135246562	
666.25	-0.05573755696	0.2488841633	
666.875	0.1275685414	0.1665339157	
667.5	0.1727046364	0.05833935252	
668.125	0.1888062308	-0.03947768896	
668.75	0.1498537383	-0.1472472178	
669.375	0.0604158704	-0.2048962282	
670.0	-0.01531195917	-0.195149977	
670.625	-0.01171247733	-0.1675820639	
671.25	0.03655977761	-0.1598128327	
671.875	0.1049648388	-0.1590033009	
672.5	0.1610845754	-0.1494996098	
673.125	0.1621707999	-0.1727907218	
673.75	0.1105545984	-0.2097967988	
674.375	0.01192672528	-0.2329181367	
675.0	-0.1075031263	-0.1959998514	
675.625	-0.1801626914	-0.08939842016	
676.25	-0.1619578708	0.003936090558	
676.875	-0.126293197	0.03036033572	
677.5	-0.1263386115	0.04780641891	
678.125	-0.09755793032	0.1438966523	
678.75	0.06491451699	0.1893159578	
679.375	0.1923254398	0.03507377446	
680.0	0.1193303476	-0.09804672411	
680.625	0.05243959537	-0.07839726813	
681.25	0.07817423581	-0.021032525	
681.875	0.1344731703	0.0293838388	
682.5	0.1828162286	0.06219074927	
683.125	0.2217528855	0.04810517836	
683.75	0.237355717	0.03664970684	
684.375	0.2442991325	0.01118352291	
685.0	0.2498704099	0.008528391564	
685.625	0.2556946916	-0.03185921057	
686.25	0.2562429641	-0.07707188115	
686.875	0.2395364661	-0.1735175982	
687.5	0.1637381688	-0.2988871106	
688.125	-0.0994686756	-0.3708107213	
688.75	-0.3908347688	-0.08740528932	
689.375	-0.1929794135	0.322812793	
690.0	0.1446125814	0.2923005322	
690.625	0.2402047167	0.1843948613	
691.25	0.306421677	0.1972368104	
691.875	0.4247765806	0.2193337498	
692.5	0.5451029264	0.1257843459	
693.125	0.57512937	-0.08293400421	
693.75	0.4917354436	-0.2656078771	
694.375	0.3470946354	-0.3793855999	
695.0	0.3620081536	-0.2901395414	
695.625	0.4251612966	-0.1237631212	
696.25	0.4444275015	0.08332498326	
696.875	0.3891846569	0.2690243019	
697.5	0.3998162934	0.3088356566	
698.125	0.5161338787	0.07690700905	
698.75	0.2820947338	-0.4297787908	
699.375	-0.4040218419	-0.2447334909	
700.0	-0.1742047254	0.3402647576	
700.625	0.1641202026	0.2295147189	
701.25	0.2130508423	0.1260729081	
701.875	0.2467671932	0.1748730345	
702.5	0.3222511626	0.1703327637	
703.125	0.3711733053	0.05951949404	
703.75	0.3275443205	-0.1202507167	
704.375	0.2269734316	-0.1868906631	
705.0	0.2019020251	-0.1347601435	
705.625	0.2263087765	-0.01522723244	
706.25	0.2277461113	0.1337764382	
706.875	0.2277245642	0.2249667921	
707.5	0.2726496337	0.2512245711	
708.125	0.3906864271	0.02894543161	
708.75	0.1756316209	-0.34266507	
709.375	-0.2810458819	-0.1815198503	
710.0	-0.1129618939	0.2143048362	
710.625	0.08737701855	0.11366051	
711.25	0.1001972501	0.08041543841	
711.875	0.195219319	0.06272426056	
712.5	0.2597244268	-0.0638201936	
713.125	0.204070223	-0.1824560493	
713.75	0.08870118238	-0.2320398118	
714.375	-0.01383434342	-0.2092714274	
715.0	-0.03784501166	-0.1746531296	
715.625	7.823342781e-05	-0.1873162988	
716.25	0.1142410188	-0.2135246369	
716.875	0.2624012653	-0.1784737193	
717.5	0.4151922088	-0.08822445776	
718.125	0.5450631611	-0.05683447025	
718.75	0.5950343821	-0.2102050355	
719.375	0.5289856739	-0.4679560921	
720.0	0.2378701864	-0.7353243533	
720.625	0.01004063795	-0.7838079303	
721.25	-0.2051449412	-0.7722838324	
721.875	-0.3715421123	-0.7546409859	
722.5	-0.6350038431	-0.5052289705	
723.125	-0.6710974716	0.03051917659	
723.75	-0.2610643777	0.4374688476	
724.375	0.08954424564	0.3856091978	
725.0	0.1799485468	0.2975550897	
725.625	0.1724825835	0.3746922216	
726.25	0.08111384741	0.555931346	
726.875	0.02274787402	0.7711035981	
727.5	0.03396549659	1.109833823	
728.125	0.1901011076	1.531631896	
728.75	0.3331897304	2.145956201	
729.375	-0.008791446288	2.88940739	
730.0	0.5307650185	2.896848758	
730.625	0.7361044573	2.870314627	
731.25	-0.26607321	2.924419134	
731.875	-1.607639592	2.400019021	
732.5	-2.346406522	1.216129065	
733.125	-1.792365575	0.7926265937	
733.75	-0.4094962115	1.202205735	
734.375	0.7781271393	0.1769024453	
735.0	-0.1306462814	-0.5066133291	
735.625	-0.37719471	0.1620322087	
736.25	0.01194686458	0.4404500805	
736.875	0.408759958	0.411569476	
737.5	0.8752157431	0.02749435345	
738.125	1.116692839	-0.4998621283	
738.75	1.302503765	-1.120725202	
739.375	1.556593023	-1.413488436	
740.0	2.246034004	-1.37736739	
740.625	2.119016409	-0.1678767369	
741.25	0.6601540429	1.549711728	
741.875	-1.717454306	0.2629002607	
742.5	-1.246947267	-1.690901557	
743.125	-0.1571851929	-1.485481016	
743.75	-0.1913539059	-0.8106498821	
744.375	-0.3875234187	-0.01341824291	
745.0	0.06488637892	0.07028558875	
745.625	0.0304650265	0.002210660708	
746.25	-0.03373710152	-0.1211718083	
746.875	-0.1650350932	0.05552287104	
747.5	-0.01126096143	0.294436737	
748.125	0.1629151214	0.3971240462	
748.75	0.2357714084	0.3509865616	
749.375	0.114397148	0.393072272	
750.0	-0.3160079	0.30085427	
