!Created with skrf (http://scikit-rf.org).
# GHz S RI R (50+0j) 
!freq	ReS11	ImS11	
500.0	3.250175161	-2.955356806	
500.625	0.1475237589	-5.243038274	
501.25	-0.663893381	-0.8648914889	
501.875	-0.9984384184	-2.346505574	
502.5	-0.4045798048	-0.1865221665	
503.125	-0.1297332215	-0.06741669034	
503.75	0.1069137434	0.469434905	
504.375	-0.04687412152	-0.0516114796	
505.0	0.2456382079	-0.1011983325	
505.625	-0.2237835727	-0.01922961576	
506.25	0.2371570988	-0.4212865501	
506.875	-0.4654803671	1.058795031	
507.5	0.974020988	-0.8887270813	
508.125	0.3015524423	-3.266994407	
508.75	-0.7667574293	-2.159186005	
509.375	1.985333792	-3.581512998	
510.0	-2.674966276	-0.6728380887	
510.625	-0.1366063602	-0.3470977073	
511.25	-0.5470492426	-0.2425613021	
511.875	-0.4148634243	0.1129948802	
512.5	-0.07449875784	0.06787991869	
513.125	-0.05899788417	-0.3377442745	
513.75	-0.4195823278	-0.08822205861	
514.375	0.1078438163	-0.1064233728	
515.0	-1.014746598	-0.7083421007	
515.625	2.057497023	0.08915015549	
516.25	-2.402643818	-5.143614955	
516.875	-0.7529814343	0.6068256418	
517.5	0.5799340812	-0.824849179	
518.125	-0.3826610764	0.2442121534	
518.75	0.3060372161	-0.8568146739	
519.375	-0.2279564749	0.2697374266	
520.0	0.1998777921	0.03997755339	
520.625	0.5824151808	-0.02693138732	
521.25	-0.388284574	-0.8182923622	
521.875	-0.2002889008	-0.05264505946	
522.5	-0.201622865	0.06023038678	
523.125	-0.08825965028	0.01587711381	
523.75	-0.4395212699	0.1920771563	
524.375	-0.2436001201	-0.1083939087	
525.0	-0.2070419779	0.6233356641	
525.625	0.138428966	-0.1510136899	
526.25	0.01247247772	0.1530173013	
526.875	-0.1500564299	-0.07826468844	
527.5	-0.2495709721	0.9415121352	
528.125	0.4547167282	0.4224023383	
528.75	-0.4152578959	0.7591918047	
529.375	0.3794937373	0.1550779443	
530.0	-0.3992983943	0.6182030235	
530.625	0.6778451416	0.6176336551	
531.25	0.8311953587	0.5507253862	
531.875	0.7301086462	-0.8894353706	
532.5	0.171047993	0.0343712106	
533.125	-0.2000489856	-0.5812332738	
533.75	0.7499743363	-0.05783363264	
534.375	-0.8281678155	-1.055425574	
535.0	-0.2809459	-0.1013027133	
535.625	-0.6788157721	0.1920839477	
536.25	0.1295313651	0.269333051	
536.875	0.1128410219	0.1471224949	
537.5	0.273343095	-0.1715802	
538.125	0.0926195882	-0.1476627917	
538.75	0.5388300288	-0.178255327	
539.375	-0.357678159	-0.3962668474	
540.0	-0.201245692	-0.2973736415	
540.625	-0.4810246143	-0.169987049	
541.25	-0.205695796	0.119128442	
541.875	-0.04713745339	-0.08927251412	
542.5	-0.1758948218	-0.1816846722	
543.125	-0.1964415735	0.0303727905	
543.75	-0.1563003889	-0.1429285194	
544.375	-0.1420671511	0.2857496556	
545.0	-0.0720675214	-0.07323632848	
545.625	0.257555484	0.3578964282	
546.25	0.05630805034	-0.163837865	
546.875	0.4149603771	0.2305688454	
547.5	-0.02135169109	-0.5047496689	
548.125	0.0798451286	-0.2001839871	
548.75	-0.2972851969	-0.4926609134	
549.375	-0.3999120487	-0.04544729291	
550.0	-0.03497778244	-0.09923600833	
550.625	-0.2655225416	0.09619779969	
551.25	-0.0554632995	-0.01729039185	
551.875	-0.310622861	0.1854293256	
552.5	-0.01584459461	0.2104709109	
553.125	-0.1037864843	0.1413817246	
553.75	0.1460704369	0.1204720654	
554.375	0.2059469161	0.01254417621	
555.0	0.2626736535	-0.1498625955	
555.625	0.2129126065	-0.2701218483	
556.25	0.1624923913	-0.3341604502	
556.875	-0.06151859652	-0.403944352	
557.5	-0.2352509778	-0.2817961431	
558.125	-0.2831530119	-0.09062272337	
558.75	-0.2387977282	-0.03797766067	
559.375	-0.3039218961	0.0396367361	
560.0	-0.1824898639	0.1833141308	
560.625	-0.1862931972	0.2125432825	
561.25	0.05433547418	0.3147851847	
561.875	0.04234114428	0.005100068607	
562.5	0.02443664192	0.2503899071	
563.125	0.1483273511	0.03633295989	
563.75	0.3206330777	0.1692565645	
564.375	0.3557077197	-0.3659915524	
565.0	0.07104998443	-0.2097296386	
565.625	0.06459706364	-0.4563955699	
566.25	-0.3912559807	-0.1999371927	
566.875	-0.1776200429	-0.164835722	
567.5	-0.3841759384	-0.4175886999	
568.125	-0.4582266483	-0.2482565499	
568.75	-0.3083196743	-0.3421794524	
569.375	-0.8230195072	0.2662572502	
570.0	-0.04404857218	0.491751454	
570.625	-0.3736421747	0.1457104616	
571.25	0.1404612681	0.6776984708	
571.875	-0.1739059753	-0.0491329513	
572.5	0.6286540922	0.1410167732	
573.125	-0.1247458068	-0.3859987115	
573.75	0.3141473535	0.04825748016	
574.375	0.04953484115	-0.524666567	
575.0	-0.06068942917	0.1920751836	
575.625	0.3223204239	-0.3678108387	
576.25	-0.2157322371	-0.2854801556	
576.875	0.3109631132	-0.1667264203	
577.5	-0.02560837283	-0.6746495535	
578.125	-0.2800219667	-0.2113835252	
578.75	0.04958582797	-0.263972555	
579.375	-0.3005899936	-0.3871877491	
580.0	-0.1599919313	0.1942380514	
580.625	-0.1234322664	-0.3616550559	
581.25	-0.2894630824	0.4531751557	
581.875	0.06118779006	0.03141678265	
582.5	-0.2345271411	0.53941396	
583.125	0.6516806021	0.1758631428	
583.75	-0.3431013223	-0.008129684924	
584.375	0.5242855868	0.2741809123	
585.0	-0.1916054922	-0.04771800467	
585.625	0.6481695506	0.3217937565	
586.25	0.2937408024	-0.4592954541	
586.875	0.1153812079	-0.01180070437	
587.5	0.1333730684	-0.5886648026	
588.125	-0.334471148	-0.2166391989	
588.75	0.3730325522	-0.1447907196	
589.375	0.2195405863	-0.6220836539	
590.0	-0.1201235191	-0.1388585924	
590.625	-0.3974542728	-0.3640151411	
591.25	-0.3931828981	0.434799963	
591.875	0.003876358926	0.1597242315	
592.5	-0.1767960204	0.1054201081	
593.125	0.1376001231	0.1429366169	
593.75	-0.207510807	0.299146028	
594.375	0.6948765802	0.371110146	
595.0	0.2376968697	-0.0880577763	
595.625	0.1985840729	0.5733226331	
596.25	0.7840489291	-0.1073493147	
596.875	-0.1254101603	0.2228244948	
597.5	0.6478736813	0.499561501	
598.125	0.3496174595	-0.06252173439	
598.75	0.191783399	0.5169491594	
599.375	0.7197188921	-0.1691254983	
600.0	0.1987773721	-0.2679095533	
600.625	0.5075394786	-0.2434434291	
601.25	0.1999286447	-0.6268746923	
601.875	-0.1165047023	-0.1765406326	
602.5	-0.3388640643	-0.1918456597	
603.125	-0.2402397673	0.1474254907	
603.75	-0.2000944598	0.1551092841	
604.375	-0.2205771049	0.05647860212	
605.0	-0.277328844	0.3007945724	
605.625	0.04941427596	0.002771782833	
606.25	-0.6344263332	0.1253938274	
606.875	-0.09633993956	0.4015157244	
607.5	-0.5766769312	-0.0305187093	
608.125	-0.02391422436	1.041847902	
608.75	0.1834854803	0.05566088922	
609.375	0.8191062698	0.2868068588	
610.0	0.2982850495	-0.604755092	
610.625	0.3266738809	0.02167508382	
611.25	-0.08159343481	-0.6498589603	
611.875	-0.01575492347	-0.09848762423	
612.5	-0.4781055348	-0.3686997975	
613.125	-0.2363599433	0.2256984074	
613.75	-0.473284852	0.2228771796	
614.375	0.2558620992	0.2794737627	
615.0	-0.3277232057	0.1163604421	
615.625	0.3076451202	0.2368842601	
616.25	-0.2633049288	0.1080172373	
616.875	-0.3274369289	0.6925147569	
617.5	0.1850270817	0.3062424403	
618.125	-0.4119517896	0.5112750992	
618.75	0.2663979432	0.5867269388	
619.375	0.02249534436	0.2070095736	
620.0	0.6142251367	0.2448193535	
620.625	0.1444042326	-0.2938331669	
621.25	-0.1191103324	-0.5589389917	
621.875	-0.497855251	-0.1324354846	
622.5	-0.5498731267	-0.1067812847	
623.125	0.01562635321	0.5987668058	
623.75	0.05303799393	0.07513779107	
624.375	0.333401949	-0.2542918492	
625.0	-0.09369217012	0.2375499686	
625.625	0.3664541993	-0.4556178968	
626.25	-0.311834577	0.03097713615	
626.875	-0.0888172863	-0.5626139918	
627.5	-0.6222250285	0.03467890476	
628.125	-0.02887835132	-0.002837854267	
628.75	-0.08113993758	-0.5786492275	
629.375	-0.3943467258	-0.171970719	
630.0	-0.2202911717	-0.3406551919	
630.625	-0.7060662012	0.1030586727	
631.25	-0.177605598	0.5016137962	
631.875	-0.2461583556	0.4102925018	
632.5	0.4183906152	0.6119474612	
633.125	0.456518042	0.06939400545	
633.75	0.329531728	-0.08744552586	
634.375	0.3365888521	-0.3105412865	
635.0	-0.2376814525	-0.3167399015	
635.625	-0.0233653197	-0.3644235621	
636.25	-0.6429634327	0.2422584068	
636.875	0.1614099053	0.2955625424	
637.5	-0.5768092709	-0.06608898356	
638.125	0.2602485155	0.5080058709	
638.75	-0.4069947512	-0.04166514497	
639.375	-0.05105147147	1.047063476	
640.0	0.5399961853	0.2060441248	
640.625	0.1076948396	0.5561258436	
641.25	1.028126796	0.005661344765	
641.875	0.06831179404	-0.5285436121	
642.5	0.3382560724	-0.2663827547	
643.125	-0.645941949	-0.6126818166	
643.75	0.05246319175	0.1663747867	
644.375	-0.6428895636	-0.3173544372	
645.0	-0.2252502893	0.5970086585	
645.625	0.08170273583	0.1993015348	
646.25	0.2544997882	0.5821753862	
646.875	0.4238121833	-0.3793441796	
647.5	-0.1971662694	0.280291892	
648.125	0.7897636963	0.1381131573	
648.75	0.02635623866	-0.4298659003	
649.375	1.097526175	0.04639417817	
650.0	0.2990679563	-1.42780768	
650.625	-0.1753203923	-0.1423196039	
651.25	1.24477051	-0.3169278703	
651.875	0.4252567544	-1.181886213	
652.5	0.1595449339	0.2952700253	
653.125	1.223473322	-0.1876838584	
653.75	0.05215854138	-0.8116070351	
654.375	0.2615440423	-0.2935814588	
655.0	-1.070658291	-0.6966192033	
655.625	-0.09689126949	0.6752059648	
656.25	-0.2210204519	0.03379146312	
656.875	0.2646775963	0.5789013376	
657.5	-0.02657647594	-0.2056463326	
658.125	0.2565404772	0.8311351944	
658.75	0.8724364088	-0.02185672268	
659.375	0.4785625804	-0.3098735286	
660.0	0.8339485101	-0.2794546589	
660.625	0.244433322	-1.380817546	
661.25	0.03219084754	-0.2089627279	
661.875	1.043805608	-0.4927035839	
662.5	0.5422309099	-0.9618652608	
663.125	0.1686999529	0.01665174563	
663.75	0.9549077487	-0.9858863741	
664.375	-0.5414175067	-0.5571846527	
665.0	-0.1339147815	-0.5962073973	
665.625	-1.137741821	0.1645190115	
666.25	0.15121247	0.594651113	
666.875	-0.1098318986	0.5238451322	
667.5	0.7010987677	0.3284423556	
668.125	0.2442536275	-0.2192826455	
668.75	0.7126106348	0.01684671374	
669.375	0.08118875686	-0.8476317789	
670.0	0.003883881062	-0.2458065672	
670.625	0.2293273657	-0.4939977383	
671.25	0.02442450109	-0.6288658936	
671.875	0.08892889235	-0.1166287637	
672.5	0.8336187414	-0.2819277831	
673.125	0.3445833578	-0.7056852041	
673.75	0.1853425907	-0.1603616337	
674.375	0.6283159643	-0.802968185	
675.0	-0.8102607872	-0.4435137336	
675.625	0.2280907056	-0.3739224736	
676.25	-0.9714165161	-0.1973411878	
676.875	0.004558101879	0.4516576444	
677.5	-0.5457305991	-0.5257711668	
678.125	-0.1927149938	0.8525772153	
678.75	-0.0495208303	0.1559279288	
679.375	0.3964227062	0.5745325027	
680.0	0.5623976241	-0.6027100844	
680.625	-0.1795322995	0.2180960751	
681.25	0.6058279302	-0.06011518146	
681.875	0.2065863461	-0.1368086735	
682.5	0.1962371503	0.4047996325	
683.125	0.8988277869	0.355094381	
683.75	0.5281091712	-0.1508941676	
684.375	0.3638410548	0.2110780111	
685.0	0.9966917877	0.4539727669	
685.625	0.5832597286	-0.7112724518	
686.25	0.4627709125	0.9228366129	
686.875	1.241770533	-1.191258533	
687.5	-0.007618744386	-0.09342395714	
688.125	0.7439830926	-1.406063976	
688.75	-1.754854442	0.1383151403	
689.375	-0.383203775	-0.1736538154	
690.0	0.3334616771	1.664818825	
690.625	0.5759262503	0.07476380829	
691.25	0.388410633	1.055538844	
691.875	1.472141508	0.6896084871	
692.5	1.052511687	0.4819309401	
693.125	1.589131122	0.1204808035	
693.75	1.442570043	-0.6371061305	
694.375	1.045312183	-0.8352280646	
695.0	0.9695587358	-0.6825646504	
695.625	1.153727453	0.2036021789	
696.25	1.581032349	0.05869516183	
696.875	0.4561438091	0.7119338508	
697.5	1.213060771	1.909506467	
698.125	1.173414699	-0.3141068845	
698.75	1.582840722	-0.1675612407	
699.375	-1.60972639	-1.29590384	
700.0	-0.001837799033	0.4302943298	
700.625	-0.09017027494	1.428944982	
701.25	0.626458603	-0.08661381122	
701.875	0.2083035975	0.9533393236	
702.5	1.307743769	0.4731096332	
703.125	0.4369708942	0.5067898043	
703.75	1.28074415	-0.2199216105	
704.375	0.3312065335	-0.5610711398	
705.0	0.9942682899	0.1142237454	
705.625	0.6279212019	-0.544340126	
706.25	0.147520993	0.6336244488	
706.875	1.11495943	1.082545106	
707.5	0.3253254051	0.1673148036	
708.125	1.204150484	0.885629174	
708.75	0.5966976213	-1.341462587	
709.375	-0.2587562303	-0.463795161	
710.0	-0.9078688656	0.4974095006	
710.625	0.4497843363	0.1822085149	
711.25	0.09352478831	0.454606488	
711.875	0.5740651884	0.1546826914	
712.5	0.8279094858	0.02492982286	
713.125	0.5933053016	-0.4250583354	
713.75	0.4731809489	-0.4049359562	
714.375	-0.04333357909	-0.8148169162	
715.0	-0.1257211836	-0.1028425508	
715.625	0.4607251773	-0.9684159563	
716.25	-0.4224214508	-0.6243522655	
716.875	0.9920135256	0.3327111111	
717.5	2.437417237	-0.5983320999	
718.125	-0.04900358854	-0.7206187966	
718.75	3.352592026	1.323681003	
719.375	1.186014614	-2.455970519	
720.0	0.9826859812	-0.4201080628	
720.625	2.1279478	-4.29486809	
721.25	-1.583236571	-1.793556183	
721.875	0.7696293814	-2.503062414	
722.5	-1.875550464	-2.536310012	
723.125	-2.054439613	0.326769255	
723.75	-0.9829774569	0.4368079305	
724.375	0.04716849066	1.635826733	
725.0	0.5463101385	0.5462008137	
725.625	0.1531398329	0.9889584252	
726.25	-0.1165381428	2.231540418	
726.875	1.320061797	2.178835863	
727.5	-1.593085875	1.903900325	
728.125	-0.2660529475	8.477352522	
728.75	4.716564099	6.199729795	
729.375	-8.71002472	3.006226006	
730.0	4.845960266	18.11678393	
730.625	2.506926543	0.3902727217	
731.25	-9.062598006	11.82168674	
731.875	-2.785005621	16.70939223	
732.5	-2.738931167	-2.971480087	
733.125	-10.57159223	-0.1179962162	
733.75	-1.26813061	4.20085399	
734.375	1.19438043	0.4166939833	
735.0	1.344089801	-2.152219491	
735.625	-0.865566676	1.322866882	
736.25	-0.9058953527	0.7003426663	
736.875	1.348883475	2.061393194	
737.5	3.17736812	-0.7188280995	
738.125	1.505780793	0.3665418672	
738.75	8.602095004	-2.381331752	
739.375	4.391845732	-9.001733356	
740.0	-2.325220292	2.989596108	
740.625	18.5086191	6.83527239	
741.25	17.99235392	-21.30251886	
741.875	-12.31898734	-12.2703604	
742.5	-16.84031062	-3.645836205	
743.125	0.2886183494	2.463284723	
743.75	3.553281312	-6.217071639	
744.375	-1.936735401	0.9867296414	
745.0	-0.2103598334	-0.1314241587	
745.625	0.426721549	-0.1240534176	
746.25	-0.07761710248	0.02981938775	
746.875	-0.3409299461	-0.3950143332	
747.5	-0.01113666796	0.7943334084	
748.125	0.4750471988	0.757689174	
748.75	0.3518098277	1.075358029	
749.375	0.4041537854	2.209137518	
750.0	-0.5328891668	-0.1091935693	
