!Created with skrf (http://scikit-rf.org).
# GHz S RI R (50+0j) 
!freq	ReS11	ImS11	
500.0	0.5035328073	-1.076853679	
500.625	-0.01165492832	-0.5282111322	
501.25	-0.04864549033	-0.9647875598	
501.875	-0.4892433707	-0.3428354855	
502.5	0.02373256426	-0.05856211903	
503.125	-0.09574923175	-0.01206522401	
503.75	0.05180793602	0.04274441294	
504.375	0.03036500762	0.02050865537	
505.0	0.002148233083	-0.04793484545	
505.625	0.02152882523	-0.0009459594933	
506.25	-0.08842059833	-0.1400169394	
506.875	0.1449976017	0.0535116919	
507.5	0.2156696001	-0.5413175011	
508.125	0.01377927217	-0.6734172496	
508.75	0.7732803473	-0.2659284329	
509.375	0.698470157	-1.125743492	
510.0	-0.6674040028	-0.3805442015	
510.625	0.02790974314	-0.09793158883	
511.25	-0.1273778853	-0.07071730907	
511.875	-0.04718206168	0.009195621773	
512.5	-0.0266363481	0.02530295734	
513.125	-0.03016678581	-0.08380520938	
513.75	-0.002386054996	0.002706560573	
514.375	-0.06814266006	-0.1238412321	
515.0	-0.1936090243	0.1405083593	
515.625	0.2429124774	-0.7469280477	
516.25	-0.2949430975	-0.1513198108	
516.875	0.2093534481	-0.2800831963	
517.5	0.1583818389	-0.2539519703	
518.125	-0.02318599255	0.01901262874	
518.75	-0.01888310498	-0.1776538087	
519.375	-0.06002361115	0.03192932433	
520.0	0.04563738546	0.04547612048	
520.625	0.1603133309	0.03575974063	
521.25	0.1120036977	-0.2254888608	
521.875	-0.1123998268	0.01077279261	
522.5	-0.05713742429	-0.06124238955	
523.125	-0.04674404927	0.1166207469	
523.75	0.01715829576	-0.1187781357	
524.375	-0.2872354859	0.01389900102	
525.0	0.05026187549	0.07523665876	
525.625	-0.07598377857	0.03331036575	
526.25	0.05945169342	-0.0396695004	
526.875	-0.1309271515	-0.01703272833	
527.5	-0.05664814945	0.2118814063	
528.125	-0.07374603841	0.1164825611	
528.75	0.05565693553	0.1964181515	
529.375	0.05841994899	0.07504590745	
530.0	-0.1030370066	0.1216236183	
530.625	-0.1284515627	0.3582897099	
531.25	0.2176781644	0.1193002504	
531.875	0.3217402101	0.08400351429	
532.5	-0.05763751836	-0.2053814723	
533.125	0.1184418045	0.0973739337	
533.75	0.1597988014	-0.2595133272	
534.375	-0.000148786871	-0.1302007128	
535.0	-0.1335980667	-0.2500391071	
535.625	-0.1824594171	0.1016697793	
536.25	-0.0316691889	0.03941183256	
536.875	0.07643732758	0.08786855458	
537.5	0.05691725563	-0.03476583892	
538.125	0.1007765609	0.04153865985	
538.75	0.1769738671	-0.06690309001	
539.375	-0.01791008066	-0.1026857131	
540.0	-0.01935768778	-0.18893865	
540.625	-0.1367413487	-0.1212487887	
541.25	-0.05472415281	0.009932307628	
541.875	-0.03197322656	-0.09714515149	
542.5	-0.08180211562	-0.04964063849	
543.125	0.02418244292	-0.05321732341	
543.75	-0.1348853649	-0.04920798433	
544.375	0.008057622922	0.01178283894	
545.0	-0.06449865674	0.06443812717	
545.625	0.07264181103	0.04870548991	
546.25	-0.0167415461	0.0632685076	
546.875	0.1659305558	0.03874611506	
547.5	0.04718504925	-0.07306589197	
548.125	0.08311459063	-0.1161348572	
548.75	-0.08590215733	-0.1774824221	
549.375	-0.05930399786	-0.04640742213	
550.0	-0.0545256622	-0.06974660583	
550.625	-0.0507978988	0.01934785789	
551.25	-0.03397087336	-0.02069319667	
551.875	-0.1060333693	0.04342867749	
552.5	-0.04039926398	0.04783884971	
553.125	-0.05400227319	0.03675524314	
553.75	0.03155631064	0.05245577482	
554.375	0.06282715899	0.03910381991	
555.0	0.1135680036	-0.01768002398	
555.625	0.1062263904	-0.05224561716	
556.25	0.1145890526	-0.06930021935	
556.875	0.05105866599	-0.1415791385	
557.5	-0.0295342529	-0.1220701169	
558.125	-0.06858452696	-0.07862010652	
558.75	-0.07913580036	-0.05817809167	
559.375	-0.1014888133	-0.0296791959	
560.0	-0.09465184476	0.0164214971	
560.625	-0.1029974005	0.05418236952	
561.25	-0.02025966567	0.1037662599	
561.875	-0.00702793167	0.02280862322	
562.5	-0.002622470652	0.07512489359	
563.125	0.01978934094	0.05416130502	
563.75	0.1049658803	0.09333830607	
564.375	0.1449253689	-0.06602718094	
565.0	0.07294824792	-0.06324188358	
565.625	0.08256977475	-0.1574497728	
566.25	-0.1294889862	-0.1020208665	
566.875	0.0008491743141	-0.09788996265	
567.5	-0.08479132047	-0.1866871174	
568.125	-0.07832367594	-0.09872080615	
568.75	-0.06235967571	-0.2327987356	
569.375	-0.2815298362	0.007480307653	
570.0	-0.1123581856	0.085342323	
570.625	-0.1833616632	0.05582964984	
571.25	0.00469450685	0.1750169103	
571.875	-0.05296809925	0.02409978868	
572.5	0.1591176746	0.08542290766	
573.125	0.03090124646	-0.08724910387	
573.75	0.1160977787	0.01962189919	
574.375	0.06372663408	-0.1329309933	
575.0	-0.01406774426	0.04016002662	
575.625	0.1372656129	-0.06334386753	
576.25	0.01192646948	-0.1183395349	
576.875	0.1006809093	-0.04055968509	
577.5	0.1159963362	-0.1879623567	
578.125	-0.0607357035	-0.1300035925	
578.75	0.1055942016	-0.04944621044	
579.375	-0.05812793585	-0.2295246986	
580.0	-0.05970045152	0.04478904419	
580.625	-0.03361885206	-0.1887237612	
581.25	-0.07289483474	0.1492796098	
581.875	-0.04488169679	0.01910093777	
582.5	-0.1023224994	0.1703484962	
583.125	0.1382660438	0.1005367962	
583.75	-0.07214420592	-0.008993529768	
584.375	0.08799989428	0.1124405073	
585.0	0.007594541672	0.01352245739	
585.625	0.1284140734	0.1613599227	
586.25	0.1745166339	-0.06169703176	
586.875	0.05105206197	-0.02549713051	
587.5	0.1201386993	-0.133291856	
588.125	-0.02724210752	-0.1641075329	
588.75	0.07511370003	0.008009920179	
589.375	0.203677523	-0.1375120622	
590.0	-0.05312624006	-0.1213556991	
590.625	-0.02594446648	-0.1540653961	
591.25	-0.2523507248	0.07201061355	
591.875	0.08700205487	0.008727881756	
592.5	-0.1280671831	0.0214148145	
593.125	0.05123801173	0.03860242042	
593.75	-0.1138769285	0.09785606396	
594.375	0.1481650649	0.1890374426	
595.0	0.09196697896	0.06646250834	
595.625	0.007469935925	0.1810723117	
596.25	0.1608690237	0.129848398	
596.875	0.01712022676	0.0785044467	
597.5	0.05257938639	0.1990816575	
598.125	0.122487228	0.1239012869	
598.75	0.06774330887	0.1292297318	
599.375	0.2045647047	0.1110900015	
600.0	0.1797827271	-0.1205447802	
600.625	0.1074061112	-0.02452819666	
601.25	0.2128917671	-0.1176529813	
601.875	-0.0907179485	-0.1601242221	
602.5	0.0131875992	-0.05434514563	
603.125	-0.2183104391	-0.01634937874	
603.75	-0.02033413112	0.06949821403	
604.375	-0.1881048898	-0.08019838974	
605.0	-0.09442617676	0.1316321008	
605.625	0.01997853769	0.01056665623	
606.25	-0.1921877293	0.0007653906465	
606.875	-0.1068801433	-0.02170334574	
607.5	-0.1812007439	0.0002925045857	
608.125	-0.217679535	0.1980556325	
608.75	0.1395017735	0.1749957721	
609.375	0.1972056327	0.02843546899	
610.0	0.2070330097	0.002982697737	
610.625	0.06081121789	-0.1465023079	
611.25	0.08543204916	-0.03826252197	
611.875	-0.0316278354	-0.2541103341	
612.5	-0.08173469063	-0.01141986855	
613.125	-0.1320068886	-0.1549276408	
613.75	-0.1918734049	0.1706857358	
614.375	0.05786095626	-0.00438525197	
615.0	0.06601573265	0.1494194566	
615.625	0.03575383163	0.01947674185	
616.25	-0.1423449383	-0.00174345435	
616.875	-0.1619403695	0.1949932326	
617.5	-0.1653567421	0.1344041502	
618.125	-0.1751160621	0.08520467202	
618.75	-0.06507989304	0.2215204181	
619.375	0.03818401938	0.1303481367	
620.0	0.04900988409	0.1287249396	
620.625	0.1756606485	-0.1649376874	
621.25	-0.05785864825	-0.1277269248	
621.875	-0.08333281431	-0.1912234357	
622.5	-0.2983712961	0.002174733313	
623.125	-0.00916217347	0.0971960518	
623.75	0.03709895288	0.1492819607	
624.375	0.07808099079	-0.1041863008	
625.0	0.01717826667	0.05117446158	
625.625	0.1074301852	-0.1135015264	
626.25	-0.03855111005	-0.06060161085	
626.875	-0.03178302096	-0.1630653389	
627.5	-0.09883176031	-0.1105184405	
628.125	-0.03608617502	-0.05028133562	
628.75	0.07748726111	-0.1626225034	
629.375	0.004727716614	-0.1823840332	
630.0	-0.07025278122	-0.1231801065	
630.625	-0.1845826807	-0.106245138	
631.25	-0.1977326291	0.1359008772	
631.875	-0.03842515088	0.1446197635	
632.5	-0.1242377869	0.2701417469	
633.125	0.2199780443	0.0998708468	
633.75	0.09449483547	0.02232708306	
634.375	0.1972577878	-0.07760823161	
635.0	-0.04168761352	-0.1410837383	
635.625	0.03747584148	-0.1111348039	
636.25	-0.2440860438	-0.02032472751	
636.875	-0.03725904362	0.1016239858	
637.5	-0.08603167396	-0.02839252998	
638.125	-0.1182034717	0.1287186378	
638.75	-0.07481675037	0.02037471683	
639.375	-0.2007262468	0.2198044338	
640.0	0.05488308753	0.2826065882	
640.625	0.1188575375	0.1394244166	
641.25	0.1480790217	0.2115938031	
641.875	0.2003347635	-0.1810982493	
642.5	-0.03278234255	-0.08647681491	
643.125	0.1195838394	-0.2860271102	
643.75	-0.2274316359	-0.04820755998	
644.375	-0.05106803348	-0.1418724758	
645.0	-0.3603452528	0.1212789716	
645.625	0.1235283459	0.1455496371	
646.25	-0.06901431218	0.1199877385	
646.875	0.2306856485	0.08481174647	
647.5	-0.1102811363	-0.05308780979	
648.125	0.1585986359	0.246291738	
648.75	0.2438611602	-0.04402887321	
649.375	0.1623036386	0.04398570472	
650.0	0.4339433222	-0.16034615	
650.625	0.1191332277	-0.2691057657	
651.25	0.1963355502	0.04368730423	
651.875	0.3808761349	-0.03601400205	
652.5	0.1823687473	-0.1118561055	
653.125	0.1523926498	0.1092599421	
653.75	0.4333265117	-0.2250327732	
654.375	-0.0588925982	-0.2016291007	
655.0	-0.00158963027	-0.2106196375	
655.625	-0.3801720536	0.1587021474	
656.25	0.1952042645	0.03144976544	
656.875	-0.1801603217	0.08250228273	
657.5	0.1090540426	0.1364516811	
658.125	-0.1341167882	0.04783251712	
658.75	0.2699237554	0.417788759	
659.375	0.2981310419	-0.08192393548	
660.0	0.2269066987	-0.004807881639	
660.625	0.385471946	-0.1485326535	
661.25	0.1752679514	-0.2950978194	
661.875	0.2066398552	0.0637356037	
662.5	0.3941804906	-0.05778840086	
663.125	0.217389099	-0.1384814442	
663.75	0.2164391312	-0.06124446099	
664.375	0.1466955466	-0.3828881416	
665.0	-0.1931643647	-0.1735626717	
665.625	-0.2090177951	-0.1215472454	
666.25	-0.2830703349	0.2448601727	
666.875	0.09270886764	0.1537826001	
667.5	-0.02540467794	0.2079203404	
668.125	0.2993076104	0.06874115784	
668.75	0.05560321141	-0.03075370392	
669.375	0.3089909821	-0.02759473746	
670.0	0.07418004982	-0.293930017	
670.625	0.05319758072	-0.0002081556825	
671.25	0.2142427517	-0.1764121166	
671.875	0.1266972938	-0.142347752	
672.5	0.1295585762	0.03846943813	
673.125	0.3642295343	-0.01767050012	
673.75	0.117532742	-0.1686266972	
674.375	0.1485937771	-0.09476193198	
675.0	0.05263620604	-0.3125119311	
675.625	-0.2111557956	-0.08846419141	
676.25	-0.02742993411	-0.112469972	
676.875	-0.2325472171	-0.06082742359	
677.5	-0.07220215501	0.06725013877	
678.125	-0.1802383358	-0.09504615117	
678.75	-0.0599513434	0.4318355659	
679.375	0.08467709177	-0.06334547556	
680.0	0.1069499755	0.1461127127	
680.625	0.2174201452	-0.1930468965	
681.25	-0.1667493959	0.0607794389	
681.875	0.2229481983	0.3076092942	
682.5	0.1674852009	0.01699815635	
683.125	-0.009796474494	0.1641174343	
683.75	0.2372475056	0.3222959444	
684.375	0.07877064451	-0.01619405256	
685.0	0.09497160987	0.2600671641	
685.625	0.3911913519	0.0839824997	
686.25	0.1969238555	-0.08306136626	
686.875	0.3214498697	0.07400247218	
687.5	0.3448999867	-0.3419246996	
688.125	-0.01526263097	-0.2326964452	
688.75	-0.137112891	-0.3751827177	
689.375	-0.5353415747	0.2085305616	
690.0	0.09857551837	0.1905054829	
690.625	-0.1216424261	0.3945064457	
691.25	0.3447169206	0.3056579834	
691.875	0.008672059115	0.2860482106	
692.5	0.3597604726	0.749560364	
693.125	0.5478630884	0.1298202749	
693.75	0.3225517367	0.1617120136	
694.375	0.6497050541	-0.102666118	
695.0	0.3020049362	-0.03802798313	
695.625	0.292045569	0.1214513959	
696.25	0.4884483127	0.431141444	
696.875	0.3013951731	0.3109442367	
697.5	0.1713870538	0.3949992902	
698.125	0.2997656988	0.3836589093	
698.75	0.3932007551	-0.4110473599	
699.375	-0.08089112412	-0.3265395416	
700.0	-0.5354314637	0.03229117551	
700.625	0.1208903278	0.3080463332	
701.25	-0.06224180826	0.1630498189	
701.875	0.1128204505	0.4879612754	
702.5	0.09277602979	0.1747104034	
703.125	0.06374343049	0.397060259	
703.75	0.4324671219	0.1792324526	
704.375	0.182831809	-0.08026068492	
705.0	0.285793805	0.1068703436	
705.625	0.1143774664	0.0772298337	
706.25	0.1572575562	0.2217508231	
706.875	0.06676381544	0.3807127445	
707.5	0.1641525772	0.3555935094	
708.125	0.4413578818	0.04764192472	
708.75	0.32954983	-0.1543286304	
709.375	-0.2458562513	-0.3352271775	
710.0	-0.089336671	0.2034486883	
710.625	-0.1516874954	0.156749399	
711.25	0.1596303954	0.0919173685	
711.875	-0.02469214446	0.1921801729	
712.5	0.3055330396	0.2466577664	
713.125	0.2179845611	-0.04281530796	
713.75	0.1887131938	0.0375875076	
714.375	0.2254119826	-0.2252974168	
715.0	-0.004802569107	-0.1362766845	
715.625	0.1903726882	-0.08924548825	
716.25	0.2502153462	-0.1166497003	
716.875	0.2776103689	-0.08670076127	
717.5	0.409789205	0.2613218334	
718.125	0.5623519229	0.2150438362	
718.75	0.6058249621	-0.2409135772	
719.375	0.5553865149	0.2365479257	
720.0	0.6614857966	-1.019267963	
720.625	0.1212823165	-0.4284684975	
721.25	0.8325173816	-0.7581875568	
721.875	-0.1012497586	-1.306977596	
722.5	0.2068570018	-0.5290092812	
723.125	-0.2628931872	-0.9243945071	
723.75	-0.5396786501	0.1788139189	
724.375	-0.1755601024	0.1144189045	
725.0	-0.2178620323	0.4784043275	
725.625	0.1183424187	0.3554985883	
726.25	-0.3415591408	0.3197457801	
726.875	-0.6121629691	0.7441570407	
727.5	-0.1835963178	1.035695027	
728.125	-0.7006511249	0.9146500537	
728.75	-0.5981722708	2.396789233	
729.375	0.3415205125	3.00680396	
730.0	-0.6034279945	1.857314657	
730.625	-1.571361374	4.529537866	
731.25	0.3731893575	3.055401406	
731.875	-2.330764899	-0.1789271442	
732.5	-5.078216071	-0.7836918212	
733.125	-1.891070885	0.7076727228	
733.75	-1.08870881	-0.6453960294	
734.375	0.4227515136	1.383034935	
735.0	0.0932227275	-0.3069630738	
735.625	-0.1324927369	-0.4240896666	
736.25	-0.4517182582	0.5828621249	
736.875	0.03400466641	0.1564507937	
737.5	0.2536119008	1.08655973	
738.125	1.489155597	0.2582641975	
738.75	0.8663052003	-0.556359228	
739.375	1.963437516	0.6846711864	
740.0	3.67250902	-2.701352257	
740.625	-0.5153879369	-0.8678679856	
741.25	-0.9454616398	3.450787142	
741.875	-2.241600742	2.945513393	
742.5	1.169894748	-0.4467259556	
743.125	1.731415934	-2.251803288	
743.75	0.01079787669	-0.9334786179	
744.375	0.1408905716	-0.06142832528	
745.0	-0.2784869162	0.3307067877	
745.625	-0.09564202503	-0.07308537187	
746.25	0.1538622646	-0.09875343084	
746.875	-0.2019181517	-0.07166335974	
747.5	-0.1875390898	0.02545609384	
748.125	-0.3051189063	0.4373325703	
748.75	0.1590147923	0.3717946308	
749.375	0.00556526778	0.2457795332	
750.0	-0.40097462	0.2095235771	
