!Created with skrf (http://scikit-rf.org).
# GHz S RI R (50+0j) 
!freq	ReS11	ImS11	
500.0	0.8485691422	-1.692505233	
500.625	2.165730076	-4.364070848	
501.25	-2.972946076	-1.679205639	
501.875	-1.734511274	-0.09029170738	
502.5	0.1047468764	-0.4201836813	
503.125	-0.3573774959	0.2428168613	
503.75	-0.03367024658	-0.03444099921	
504.375	0.2020837867	-0.04226627687	
505.0	-0.08015705377	0.05348288164	
505.625	0.07430403065	-0.4273984956	
506.25	-0.1811267579	0.3824622749	
506.875	-0.7556230834	-0.898810358	
507.5	-1.818788081	-0.8547913328	
508.125	0.3670048544	-0.1470887543	
508.75	2.540715688	-3.910700878	
509.375	-2.998398527	-3.484907484	
510.0	-0.5903071444	-0.7925084653	
510.625	-1.198857499	-0.2843309806	
511.25	0.03195495053	-0.1492183624	
511.875	-0.6206755514	-0.07007561886	
512.5	-0.01175363342	0.2312360766	
513.125	-0.06254953835	-0.2527736179	
513.75	-0.01376699834	-0.3483478306	
514.375	-0.844598601	0.04444304282	
515.0	1.621958339	-0.03338725407	
515.625	-2.457658207	-1.232031348	
516.25	1.420803082	-0.5614418261	
516.875	-1.42228829	-2.742935836	
517.5	-0.6617143049	0.4034007411	
518.125	-0.06170258017	-0.5470930915	
518.75	-0.5615101999	0.2070948346	
519.375	-0.1948029311	0.03047564837	
520.0	0.5357803092	0.2046021711	
520.625	0.311668466	-0.3073120811	
521.25	0.3056709463	-0.6380950587	
521.875	-0.6310676654	0.1209919779	
522.5	-0.00395190858	-0.07340010517	
523.125	-0.1923865459	0.3284074132	
523.75	-0.1355251763	-0.245682129	
524.375	-0.4532497844	0.5043961516	
525.0	-0.1735155148	-0.02089632749	
525.625	0.1452418181	0.3831630934	
526.25	-0.2301390645	-0.2561418851	
526.875	0.03828252371	0.32177913	
527.5	-0.1652726521	0.179016465	
528.125	0.07048221939	1.241909299	
528.75	0.5594865782	0.3838490059	
529.375	-0.07661779755	0.365082195	
530.0	0.184936711	0.009767029292	
530.625	0.2028284582	1.414044249	
531.25	0.9020336526	-0.4690286088	
531.875	0.7835063417	0.0598692909	
532.5	-0.7234514592	-0.4629975132	
533.125	0.7396623088	0.01452405568	
533.75	-0.2810454721	-0.6726972986	
534.375	0.3515743591	-0.6770407799	
535.0	-1.197953588	-0.1079828082	
535.625	-0.1078163713	0.1240398368	
536.25	-0.111162512	0.2883337529	
536.875	0.3542430119	-0.04268132637	
537.5	0.06472981016	-0.008480149995	
538.125	0.4500849061	-0.2569745313	
538.75	0.1128645327	-0.2712553013	
539.375	-0.03563580462	-0.5060986104	
540.0	-0.6746906034	-0.2733323632	
540.625	-0.151749338	-0.05335664462	
541.25	-0.2955389582	-0.05981326487	
541.875	-0.1573974541	-0.000346103992	
542.5	-0.02225748693	-0.00249333831	
543.125	-0.214825639	-0.3131156584	
543.75	-0.258285448	0.2918628374	
544.375	-0.1881159906	-0.1511126513	
545.0	0.152045734	0.3038587183	
545.625	-0.1387352585	0.04192099139	
546.25	0.5477594177	0.1676752239	
546.875	-0.02082088921	-0.1202694984	
547.5	0.4344804506	-0.2326673326	
548.125	-0.3419800849	-0.5192853047	
548.75	-0.1911528736	-0.08333159264	
549.375	-0.2134961347	-0.33065106	
550.0	-0.2704740394	0.1605137707	
550.625	-0.05064721761	-0.1297895698	
551.25	-0.2498241673	0.2237412638	
551.875	-0.0999343724	0.04321995161	
552.5	-0.1881472914	0.2688182879	
553.125	0.02912706975	0.1330963026	
553.75	0.08641853819	0.1376527244	
554.375	0.261719042	-0.005465503496	
555.0	0.2171625642	-0.180032875	
555.625	0.219617666	-0.2483405672	
556.25	0.1577117419	-0.363133817	
556.875	-0.1003979679	-0.3822122441	
557.5	-0.235878524	-0.251502236	
558.125	-0.292081776	-0.1022407557	
558.75	-0.258490058	0.02279186359	
559.375	-0.2342958793	0.0233033517	
560.0	-0.2735152519	0.198406404	
560.625	-0.05281049294	0.292762666	
561.25	-0.02412199927	0.1673160891	
561.875	0.1366640948	0.1853144064	
562.5	-0.0467896539	0.02824979929	
563.125	0.2721823618	0.2554587115	
563.75	0.1900785007	-0.08882001307	
564.375	0.4299940796	-0.1074259348	
565.0	0.1201975219	-0.5078902326	
565.625	-0.09394906117	-0.2145056643	
566.25	-0.1666161051	-0.3390731055	
566.875	-0.5046961867	-0.1872301566	
567.5	-0.2094100254	-0.08484580203	
568.125	-0.3053465272	-0.5918478321	
568.75	-0.6612229619	0.02000734251	
569.375	-0.4200620893	0.01275064332	
570.0	-0.4425509508	0.7285233421	
570.625	0.1599100816	0.3312322337	
571.25	-0.3325011127	0.1877652453	
571.875	0.5574129453	0.1643889762	
572.5	-0.05579016357	0.1405199187	
573.125	0.538091717	-0.3634880691	
573.75	-0.172901068	-0.4236278074	
574.375	0.2071209979	0.1152987756	
575.0	-0.04824863229	-0.4358837261	
575.625	0.193716294	0.1407969617	
576.25	0.2526924754	-0.5294338588	
576.875	-0.3131222547	-0.2331561735	
577.5	0.2260370857	-0.1642936235	
578.125	-0.08000570685	-0.6480421263	
578.75	-0.4109906501	-0.1703587296	
579.375	0.0005905618314	-0.01793546257	
580.0	-0.264273603	-0.3143206322	
580.625	0.02171448889	0.1619235047	
581.25	-0.5125750857	0.002191788017	
581.875	0.246695455	0.5543011353	
582.5	0.1320988491	-0.04601153757	
583.125	-0.1265801668	0.4948408648	
583.75	0.5334458017	-0.2570970625	
584.375	-0.3234649356	0.4018971123	
585.0	0.6427043131	0.02008256881	
585.625	-0.03038325085	-0.04849227801	
586.25	0.6758759126	0.0121287429	
586.875	-0.1343511387	-0.472771441	
587.5	0.1945667337	-0.1392557092	
588.125	-0.04649071508	-0.6270919876	
588.75	-0.2422838932	-0.2519369367	
589.375	0.4214626313	-0.122891052	
590.0	-0.2699041071	-0.6032146456	
590.625	-0.3795484702	0.03440404009	
591.25	-0.2805690329	0.0954070472	
591.875	-0.1970661333	0.4340153214	
592.5	0.1192758757	-0.07090384532	
593.125	-0.09166951274	0.2728727473	
593.75	0.1374100488	0.1155476043	
594.375	0.1781850832	0.4409136236	
595.0	0.8049086318	0.3122079601	
595.625	0.1426894589	-0.2498516012	
596.25	0.3364362508	0.5395929437	
596.875	0.6766443276	-0.2323374935	
597.5	0.001673257276	0.1970030957	
598.125	0.6257367895	0.4814774668	
598.75	0.2370475936	-0.05950339865	
599.375	0.6263893978	0.2521457111	
600.0	0.3153537119	-0.6476045244	
600.625	0.1496805804	-0.2241711228	
601.25	0.3383741519	-0.423287534	
601.875	-0.3263929576	-0.4205683295	
602.5	-0.2257475039	-0.04505264805	
603.125	-0.1937591541	0.09410729306	
603.75	-0.3827972179	0.09339268921	
604.375	-0.08746646541	0.3615058997	
605.0	-0.239791589	-0.03289345124	
605.625	-0.1810863273	0.3795457557	
606.25	-0.1225517162	-0.06744243551	
606.875	-0.7340910929	0.3310896379	
607.5	0.0395781448	0.3826295027	
608.125	-0.5087560758	0.4394843106	
608.75	0.9484433478	0.4179496804	
609.375	0.1292962406	0.04665351281	
610.0	0.7157335342	-0.3038059915	
610.625	-0.1015388829	-0.4393627655	
611.25	0.4234882479	-0.3249447608	
611.875	-0.5073533304	-0.1777099554	
612.5	-0.1303409941	-0.2561002061	
613.125	-0.7496412346	0.1425283976	
613.75	0.1045183701	0.1562153615	
614.375	-0.07788880315	0.534582788	
615.0	0.2288104194	-0.2069470942	
615.625	-0.2857872333	0.4934264773	
616.25	0.3126377717	0.2656116	
616.875	-0.5024491267	0.2228932749	
617.5	-0.08636069881	0.8628121493	
618.125	0.1358829761	0.201391138	
618.75	-0.1883895807	0.6549912006	
619.375	0.4272393218	0.2635784683	
620.0	0.2906830501	0.2409174745	
620.625	0.25751337	-0.5018214343	
621.25	-0.07530164461	-0.3435323746	
621.875	-0.6393116578	-0.2196287251	
622.5	-0.333653605	0.1355110576	
623.125	-0.2975943601	0.4877416312	
623.75	0.4371629311	-0.1325773536	
624.375	0.1425653754	0.2589796999	
625.0	-0.1866539297	-0.4025681896	
625.625	0.3345188634	0.0987226761	
626.25	-0.2767127609	-0.6614486519	
626.875	-0.2352311611	0.1836055766	
627.5	-0.2516909943	-0.4582242084	
628.125	-0.4794519086	-0.01094775418	
628.75	0.05864191888	-0.1928291619	
629.375	-0.3297847669	-0.5886636731	
630.0	-0.3278994673	0.04415216066	
630.625	-0.5841118984	-0.07056703117	
631.25	-0.4296446341	0.6027141358	
631.875	0.09152851957	0.5178954898	
632.5	0.2747215654	0.3851491876	
633.125	0.4186781129	0.2900009968	
633.75	0.5300076341	-0.3618411002	
634.375	0.06290542407	-0.1062095217	
635.0	0.1152193914	-0.5687397627	
635.625	-0.3689597274	0.1276071083	
636.25	-0.5091812164	-0.1387029725	
636.875	-0.07883343277	0.5695393053	
637.5	0.04681806492	-0.09533725329	
638.125	-0.6111950456	0.4579195436	
638.75	0.3991125229	0.3225633133	
639.375	-0.4378789868	0.3454288061	
640.0	0.3821004862	0.9415523432	
640.625	0.7062190127	0.08540697387	
641.25	0.2692266184	0.1720494581	
641.875	0.6826327525	-0.7733329206	
642.5	-0.1900693595	-0.1530997833	
643.125	-0.08134888578	-0.6396630482	
643.75	-0.7051060749	0.1276094607	
644.375	0.07510818128	-0.2981268539	
645.0	-0.7039882239	0.4613479518	
645.625	0.34510613	0.5831192403	
646.25	0.2976195529	-0.1417279168	
646.875	0.1591897389	0.4916346176	
647.5	0.2054192721	-0.558693262	
648.125	0.2960641924	0.6674600728	
648.75	0.8901833845	-0.6154474326	
649.375	-0.04243732094	-0.205574231	
650.0	1.232816853	-0.6942711855	
650.625	-0.2025285067	-1.266972363	
651.25	0.1169533733	0.1720894618	
651.875	1.377333664	-0.3205626261	
652.5	0.4444110054	-0.8355016171	
653.125	0.2631325721	0.2352103579	
653.75	0.887629647	-0.778641695	
654.375	-0.5475296216	-0.4788039053	
655.0	-0.1684414186	-0.5211165309	
655.625	-0.943304969	0.7599957549	
656.25	0.4434856724	0.08289051411	
656.875	-0.2721797076	0.2778031161	
657.5	0.4159955432	0.2945603923	
658.125	0.09267264636	0.08687195702	
658.75	0.7553712426	0.673506381	
659.375	0.7769565067	-0.7113715739	
660.0	0.2882865972	-0.4272649484	
660.625	0.7988301415	-0.6824563726	
661.25	-0.02065666035	-1.220686829	
661.875	0.3517802061	0.04716421996	
662.5	1.21210286	-0.5653020451	
663.125	0.323698743	-0.8891982093	
663.75	0.3634742405	-0.08442756118	
664.375	0.02827818532	-1.29270579	
665.0	-0.5972838685	-0.01105459053	
665.625	-0.8272393035	-0.2649593133	
666.25	-0.1715010028	1.021773499	
666.875	0.1497998916	0.0664573323	
667.5	0.4552111845	0.5886437039	
668.125	0.6865641508	-0.2563587222	
668.75	0.1680184524	-0.2502455177	
669.375	0.4918690692	-0.3665228921	
670.0	-0.0548303075	-0.8024265636	
670.625	-0.04965890992	-0.1808814826	
671.25	0.3315563071	-0.469359503	
671.875	0.1423710257	-0.5786508674	
672.5	0.4220852261	-0.001717990793	
673.125	0.6879950363	-0.6486058506	
673.75	0.02801103068	-0.5574837299	
674.375	0.3513958261	-0.2108892952	
675.0	-0.04791017768	-1.085505789	
675.625	-0.818547975	0.2261607926	
676.25	0.0431458424	-0.5141099302	
676.875	-0.8153716712	0.297602117	
677.5	0.1378013031	-0.05266015549	
678.125	-0.937651645	0.4497774078	
678.75	0.5754893848	0.2428772533	
679.375	0.1460296782	0.4644477494	
680.0	0.7447829182	-0.1926452409	
680.625	-0.1640711973	-0.5335788764	
681.25	0.1337726026	0.5212651759	
681.875	0.6903138537	-0.02250795622	
682.5	0.4299338649	0.0529080896	
683.125	0.2883484352	0.1223794458	
683.75	0.8886737357	0.5530124644	
684.375	0.5428170714	-0.4340639304	
685.0	0.4220948397	0.5290463574	
685.625	1.202115684	-0.1023014814	
686.25	-0.07955222254	-0.3158877568	
686.875	1.638948783	0.2548529508	
687.5	-0.04148351268	-1.569847142	
688.125	0.5533996315	-0.2063981252	
688.75	-1.414462258	-1.198704353	
689.375	-0.1071480717	1.153263751	
690.0	-0.5737011586	0.6893847399	
690.625	1.169554073	0.5273180033	
691.25	0.2883066718	0.4661907903	
691.875	1.262950222	1.17721723	
692.5	1.421446572	0.04704465044	
693.125	1.390472746	0.2049408441	
693.75	1.480331684	-0.6263388421	
694.375	0.937409505	-0.8090523587	
695.0	1.188319563	-0.9149737825	
695.625	0.7818054946	-0.2280424811	
696.25	1.592125125	0.9847852905	
696.875	1.232653699	0.2096812341	
697.5	0.1103107789	1.446655693	
698.125	2.308947146	0.466971222	
698.75	0.3480437927	-0.3664337959	
699.375	-0.7134340141	-1.934460124	
700.0	-0.3512374724	1.379925928	
700.625	-0.4616334852	0.3617415	
701.25	1.251776909	0.4471761435	
701.875	0.1445257127	0.329445786	
702.5	1.039393463	1.041909584	
703.125	0.8158023029	-0.3190609058	
703.75	1.034334557	0.2996680446	
704.375	0.6702363463	-0.9256530919	
705.0	0.1261436923	0.1150448659	
705.625	1.389241981	-0.08414843342	
706.25	0.2083990795	-0.1093782452	
706.875	0.2690372323	1.284879974	
707.5	1.345118311	0.6818192794	
708.125	0.4734148026	0.470518662	
708.75	1.264528079	-1.080044902	
709.375	-0.8434020057	-0.3817653193	
710.0	-0.6701374648	0.1505123656	
710.625	0.3845522225	0.6116798253	
711.25	-0.05392089757	0.1948707497	
711.875	0.6220045701	0.4152479983	
712.5	0.620416339	0.04480950577	
713.125	0.8244055259	-0.6317874347	
713.75	-0.02117057949	-0.3427172129	
714.375	0.5038642445	-0.8191195587	
715.0	-0.5605195812	-0.4242952391	
715.625	0.5800901245	-0.125750006	
716.25	0.3245422552	-1.482767538	
716.875	0.02626158944	0.1479680653	
717.5	2.272190858	0.5970326745	
718.125	2.054072099	-1.63957081	
718.75	0.3157109203	1.752775203	
719.375	4.073720397	-2.241847192	
720.0	-0.2288082805	-1.580495014	
720.625	1.27953129	-1.803287092	
721.25	0.06040643645	-3.8568245	
721.875	-0.8901101296	-1.303029785	
722.5	-1.084613177	-2.901161579	
723.125	-2.418314297	-0.1803034292	
723.75	-0.4697746762	0.8244613654	
724.375	-0.498078586	1.17197955	
725.0	0.884294034	1.00448757	
725.625	0.4907700864	0.6380751379	
726.25	-0.5010168257	1.541967448	
726.875	-0.2839330396	3.61189008	
727.5	1.8398138	1.801411244	
728.125	-3.881582295	5.52645924	
728.75	-0.2469765426	11.48832848	
729.375	0.5613746575	1.393655824	
730.0	-10.0356214	19.55627767	
730.625	11.54160879	7.20959517	
731.25	-7.485573888	2.148871937	
731.875	-11.51672408	10.03775364	
732.5	-6.657613715	8.263655663	
733.125	-3.288565499	-2.338644584	
733.75	-4.04716361	5.135123061	
734.375	2.034373117	0.5373866883	
735.0	0.7806893811	-0.6479642778	
735.625	-2.217779453	0.891255673	
736.25	-0.009933324613	0.04116474096	
736.875	0.7169925154	2.352743977	
737.5	3.629135152	0.3889835006	
738.125	3.385401451	-3.222015715	
738.75	1.209947382	1.692776267	
739.375	15.50112757	-5.362842935	
740.0	-0.4156688304	-12.61991319	
740.625	-3.858510632	14.6752775	
741.25	29.96181411	28.26551647	
741.875	1.077253634	-13.80465859	
742.5	-14.48566633	-13.42783499	
743.125	-6.280799478	-1.883146569	
743.75	3.154986776	-0.4690442269	
744.375	-2.305937685	-1.210978733	
745.0	0.6988236831	-0.104514393	
745.625	0.2026946435	0.2917284912	
746.25	-0.2895604812	-0.4770405612	
746.875	-0.3780108659	-0.2662012196	
747.5	-0.3536005724	1.094803343	
748.125	0.7409147915	1.371612885	
748.75	0.2638172254	1.019249433	
749.375	0.4373906516	1.757079208	
750.0	0.5146854794	-0.171756062	
