!Created with skrf (http://scikit-rf.org).
# GHz S RI R (50+0j) 
!freq	ReS11	ImS11	
500.0	1.532202754	-2.748835265	
500.625	-0.4513305054	-3.99816294	
501.25	-0.6529245966	-0.5782340875	
501.875	-1.283114326	-2.526384219	
502.5	-0.5429401476	-0.2817101037	
503.125	-0.1420034213	-0.08890347054	
503.75	0.1200476932	0.4965119952	
504.375	-0.06682622444	-0.05732075232	
505.0	0.2478101061	-0.08003190641	
505.625	-0.2248944933	-0.06277787136	
506.25	0.2755090397	-0.4664930001	
506.875	-0.4957094224	0.9600247731	
507.5	1.040695161	-0.892433822	
508.125	0.3109645629	-3.466589037	
508.75	-0.7196906613	-2.676934394	
509.375	2.331162804	-5.186266121	
510.0	-3.811724334	-0.2799487634	
510.625	-0.04736420418	-0.1840041733	
511.25	-0.3608791787	-0.1614727448	
511.875	-0.5293270823	-0.03868450981	
512.5	0.0189188098	0.03499517492	
513.125	0.09522166951	-0.4158732556	
513.75	-0.4340322955	-0.1500131219	
514.375	0.1764169656	-0.0539890058	
515.0	-1.237078243	-0.7415984041	
515.625	2.441880373	-0.1742701385	
516.25	-2.038934618	-4.215092571	
516.875	-0.6612545061	0.8118686123	
517.5	0.5315555616	-0.8653778759	
518.125	-0.3704189913	0.2734425309	
518.75	0.2999337737	-0.8836024787	
519.375	-0.2256207825	0.2799978409	
520.0	0.259980031	0.03389431916	
520.625	0.6721593499	0.004207089277	
521.25	-0.2108705859	-0.8966268984	
521.875	-0.1492827201	-0.114855395	
522.5	-0.2371000915	0.08504876695	
523.125	-0.103756632	-0.08715864463	
523.75	-0.3216221597	0.09120790089	
524.375	-0.1595375422	-0.1710519659	
525.0	-0.223413801	0.6536350655	
525.625	0.1287754837	-0.153637897	
526.25	0.02715086441	0.1884021258	
526.875	-0.1664712865	-0.08963792527	
527.5	-0.2596602793	0.9564981076	
528.125	0.3684195268	0.3806317424	
528.75	-0.4500751854	0.6953902998	
529.375	0.4556636897	0.1878925061	
530.0	-0.4150981196	0.5641585987	
530.625	0.6486320207	0.846420988	
531.25	0.8650792287	0.8454158262	
531.875	0.7612928797	-0.808250219	
532.5	0.07021405041	-0.04291098126	
533.125	-0.3276236047	-0.7389608665	
533.75	0.8462731025	-0.05016063381	
534.375	-0.691210485	-1.063441461	
535.0	-0.28771548	-0.1202331614	
535.625	-0.7707256559	0.1623695958	
536.25	0.1588471392	0.2626849158	
536.875	0.1221605824	0.165763882	
537.5	0.2835836328	-0.1757774565	
538.125	0.1053968116	-0.1501805215	
538.75	0.5697743051	-0.1778814753	
539.375	-0.3534390429	-0.4121972119	
540.0	-0.2234337278	-0.3182527826	
540.625	-0.4678579146	-0.1718583171	
541.25	-0.2367999123	0.08102039684	
541.875	-0.04962889734	-0.05016896397	
542.5	-0.165632187	-0.1869144194	
543.125	-0.2052944726	0.01897330135	
543.75	-0.1394418179	-0.2102816	
544.375	-0.1449475938	0.2701282412	
545.0	-0.07861994244	-0.08509311673	
545.625	0.297716419	0.3985754548	
546.25	0.09830843227	-0.1414581282	
546.875	0.4417694583	0.2653274217	
547.5	0.02759351713	-0.5257270313	
548.125	0.05534772963	-0.2090985853	
548.75	-0.2823856468	-0.5110692557	
549.375	-0.4152903353	-0.06902136875	
550.0	-0.03076475406	-0.09567834351	
550.625	-0.283660314	0.1024553643	
551.25	-0.06359695252	-0.01259042535	
551.875	-0.3236021626	0.1821364157	
552.5	-0.02284139384	0.2199698244	
553.125	-0.1080020074	0.1331702989	
553.75	0.1430840209	0.1396802786	
554.375	0.2132039606	0.01375024762	
555.0	0.2773826321	-0.1440069298	
555.625	0.2313372728	-0.2709920035	
556.25	0.178961733	-0.3384719996	
556.875	-0.05334755432	-0.4137794263	
557.5	-0.2352607313	-0.2953136668	
558.125	-0.2865670258	-0.09482354328	
558.75	-0.2479278791	-0.04267326797	
559.375	-0.3119821682	0.03414308179	
560.0	-0.1943569256	0.1869769345	
560.625	-0.1902374885	0.218316569	
561.25	0.03882625191	0.3283877209	
561.875	0.05054826156	0.003457307199	
562.5	0.00745935004	0.261871972	
563.125	0.154305001	0.03659898213	
563.75	0.3231097866	0.1849782817	
564.375	0.3815205517	-0.3602580272	
565.0	0.08251024908	-0.2269510739	
565.625	0.07824068006	-0.4678284244	
566.25	-0.3955238199	-0.2229712113	
566.875	-0.1735716021	-0.1637286682	
567.5	-0.379641469	-0.4470541596	
568.125	-0.482238773	-0.2724430734	
568.75	-0.2971846447	-0.3441776387	
569.375	-0.8872989226	0.2530908009	
570.0	-0.05209873902	0.5198416728	
570.625	-0.3922705158	0.1277939977	
571.25	0.1068704311	0.6830941754	
571.875	-0.1986343348	-0.04505699964	
572.5	0.6472748002	0.1562079789	
573.125	-0.1043579331	-0.406041287	
573.75	0.3060362176	0.05895444296	
574.375	0.07814101076	-0.5402831852	
575.0	-0.08585261489	0.1913992019	
575.625	0.3548877814	-0.3700157502	
576.25	-0.2028858552	-0.3135878385	
576.875	0.2938043746	-0.1631029232	
577.5	-0.006885352112	-0.6879288797	
578.125	-0.2752056804	-0.231464801	
578.75	0.05165084509	-0.246751372	
579.375	-0.2940840784	-0.4163023971	
580.0	-0.1816290193	0.2013357431	
580.625	-0.1035034958	-0.3836391806	
581.25	-0.3191109384	0.4604301464	
581.875	0.07788130757	0.01721755736	
582.5	-0.2741934972	0.5412584023	
583.125	0.6702720803	0.2130186924	
583.75	-0.3731532006	-0.02467209478	
584.375	0.5455178989	0.3013404923	
585.0	-0.1829350591	-0.04240683283	
585.625	0.6181161112	0.3519526398	
586.25	0.3342852248	-0.4523753039	
586.875	0.1298020388	-0.00463032566	
587.5	0.1651186439	-0.5908158363	
588.125	-0.3350197384	-0.2540650855	
588.75	0.3906606445	-0.1387455983	
589.375	0.2366376394	-0.641853494	
590.0	-0.1289886052	-0.1662203919	
590.625	-0.3729813117	-0.3678946762	
591.25	-0.4212117529	0.4112226982	
591.875	0.04910288717	0.1774167898	
592.5	-0.1897293972	0.08501913226	
593.125	0.1544269501	0.1580070776	
593.75	-0.239513307	0.2951460697	
594.375	0.7231945367	0.4084898499	
595.0	0.2462185859	-0.08655808259	
595.625	0.1982944277	0.608034351	
596.25	0.848995329	-0.1595231464	
596.875	-0.07968383435	0.1730921161	
597.5	0.6793939486	0.5102414802	
598.125	0.3891227703	-0.0251706747	
598.75	0.1790727667	0.4741749785	
599.375	0.7323993542	-0.1646210222	
600.0	0.2182644271	-0.3049112667	
600.625	0.4943277166	-0.2322790187	
601.25	0.192114785	-0.6548335138	
601.875	-0.1058643852	-0.1831928408	
602.5	-0.3416254907	-0.187999807	
603.125	-0.2681225053	0.125749501	
603.75	-0.2187763007	0.1897916619	
604.375	-0.2731934773	0.02618701888	
605.0	-0.335164985	0.3174973538	
605.625	0.06805633626	-0.01559658672	
606.25	-0.6358092852	0.137065991	
606.875	-0.1108664944	0.4006226658	
607.5	-0.6102897941	-0.06852746149	
608.125	0.0003621679159	1.087973409	
608.75	0.1387764436	0.07408358615	
609.375	0.7488447275	0.322335465	
610.0	0.2278362184	-0.6115964182	
610.625	0.3307423948	-0.007810526951	
611.25	0.008005745789	-0.6301427976	
611.875	-0.07535813362	-0.1344813566	
612.5	-0.5460720436	-0.4073089127	
613.125	-0.2468307844	0.2118875161	
613.75	-0.4670627797	0.2443538125	
614.375	0.3128565733	0.2853408328	
615.0	-0.1433244759	0.1445751097	
615.625	0.3874549741	0.2181937286	
616.25	-0.3231864908	0.08702159075	
616.875	-0.3453755331	0.7223934037	
617.5	0.1443784299	0.3708938238	
618.125	-0.4268217947	0.5247721525	
618.75	0.2571325861	0.5790929724	
619.375	0.001112412046	0.2476360852	
620.0	0.63131791	0.2655396389	
620.625	0.1613435089	-0.3208170327	
621.25	-0.07150671077	-0.5736439812	
621.875	-0.4425945209	-0.1181065194	
622.5	-0.5317152793	-0.08423275066	
623.125	0.06495981307	0.6537232029	
623.75	-0.01814536543	0.0932332344	
624.375	0.396890656	-0.3097419859	
625.0	-0.08083407519	0.1747080085	
625.625	0.4240947809	-0.5298808131	
626.25	-0.297405169	0.008712421539	
626.875	-0.08591713531	-0.5170911084	
627.5	-0.6213252506	-0.006466073682	
628.125	-0.01337435486	-0.02171769741	
628.75	-0.05735510766	-0.5764476446	
629.375	-0.4124743578	-0.2082910893	
630.0	-0.2263866777	-0.3517809563	
630.625	-0.7254906008	0.05291018457	
631.25	-0.2163627615	0.5167977488	
631.875	-0.2469294548	0.429685677	
632.5	0.3714814123	0.6401958517	
633.125	0.4943264165	0.1110166539	
633.75	0.332492172	-0.08555860596	
634.375	0.3796807723	-0.3031249066	
635.0	-0.2676487213	-0.3384023114	
635.625	-0.03802083636	-0.3505161028	
636.25	-0.7154922701	0.2514914648	
636.875	0.1531064259	0.3098630444	
637.5	-0.5644872539	-0.08290163365	
638.125	0.2676258595	0.5348411701	
638.75	-0.4412346743	-0.07215044194	
639.375	-0.1218361839	1.052894293	
640.0	0.5432482257	0.2833522676	
640.625	0.09320779356	0.551956884	
641.25	1.055548925	0.1020875998	
641.875	0.1092723162	-0.5516457095	
642.5	0.3562710722	-0.2576097841	
643.125	-0.6103641514	-0.6520867381	
643.75	0.04609005867	0.1831242103	
644.375	-0.6227722113	-0.3451878006	
645.0	-0.3015563529	0.5946880658	
645.625	0.1347192672	0.2201082332	
646.25	0.1788015537	0.5944113029	
646.875	0.5179081009	-0.3780008479	
647.5	-0.2627313421	0.273817648	
648.125	0.8617480583	0.1836785091	
648.75	0.08574410988	-0.4445263512	
649.375	1.17499769	0.1136933199	
650.0	0.3528454591	-1.498752497	
650.625	-0.1652499891	-0.1747408532	
651.25	1.237463285	-0.2631772615	
651.875	0.4667557368	-1.179806258	
652.5	0.1517184976	0.2596137273	
653.125	1.232238552	-0.06703316677	
653.75	0.1597944859	-0.8606683517	
654.375	0.2602583815	-0.2557540544	
655.0	-1.029382177	-0.8150515483	
655.625	-0.1583034491	0.7020255075	
656.25	-0.2071308971	0.0382907584	
656.875	0.2241679646	0.6008682195	
657.5	0.01784590283	-0.1933666372	
658.125	0.1699251735	0.849457739	
658.75	0.9310283688	0.05203519247	
659.375	0.4938540598	-0.3305220941	
660.0	0.8715328943	-0.2192958565	
660.625	0.3507278044	-1.434884412	
661.25	0.006089727145	-0.1918276942	
661.875	1.100123552	-0.4275840773	
662.5	0.6255689268	-0.9540543968	
663.125	0.1843749061	-0.004675751387	
663.75	1.039085254	-0.9671791431	
664.375	-0.5196267035	-0.6110962702	
665.0	-0.1115839313	-0.6252579794	
665.625	-1.167341299	0.08893528689	
666.25	0.09360077956	0.6755932893	
666.875	-0.1441138175	0.5076820921	
667.5	0.7059309557	0.3974804986	
668.125	0.2673336129	-0.2206289635	
668.75	0.6875766024	0.0531351757	
669.375	0.1303353935	-0.8643276115	
670.0	0.008794451251	-0.2686845805	
670.625	0.258924238	-0.4726575769	
671.25	0.08582703154	-0.669597483	
671.875	0.04773221992	-0.1337870971	
672.5	0.8951180978	-0.2069081009	
673.125	0.3983283503	-0.722486576	
673.75	0.2078227374	-0.1579854079	
674.375	0.7296658112	-0.7963202794	
675.0	-0.8226949565	-0.5126492289	
675.625	0.2608820936	-0.3826145559	
676.25	-0.9499185222	-0.2811797086	
676.875	-0.0008448710695	0.4590402557	
677.5	-0.5111103159	-0.5434372429	
678.125	-0.3410211783	0.8333267093	
678.75	-0.001695501024	0.1792796977	
679.375	0.3591596172	0.618586713	
680.0	0.6473709265	-0.5642065126	
680.625	-0.2227152953	0.158682069	
681.25	0.6243970765	-0.06410496137	
681.875	0.2695256166	-0.1360454938	
682.5	0.2199075025	0.4009898936	
683.125	0.8688861305	0.4352885694	
683.75	0.6253454044	-0.1838550157	
684.375	0.2752776196	0.2618808225	
685.0	1.040804089	0.578733689	
685.625	0.6465418614	-0.7634285907	
686.25	0.3702410644	0.9394721979	
686.875	1.423436802	-1.203086423	
687.5	-0.05808389433	0.009273673286	
688.125	0.843975503	-1.388914646	
688.75	-1.755972068	-0.1151778267	
689.375	-0.4704117198	-0.2596774174	
690.0	0.07777850573	1.623885076	
690.625	0.5956511598	0.1639404244	
691.25	0.3633472116	1.041562357	
691.875	1.447731782	0.7837619382	
692.5	1.190923168	0.4236305093	
693.125	1.699000894	0.1758431793	
693.75	1.532603254	-0.5185647839	
694.375	1.056631764	-0.9684319548	
695.0	0.9633138366	-0.7560223853	
695.625	1.336749614	0.1578504895	
696.25	1.625193094	0.07915817623	
696.875	0.322443931	0.7654420912	
697.5	1.126749771	2.001869659	
698.125	1.296151007	-0.1186064597	
698.75	1.759190652	0.01775285797	
699.375	-1.396018825	-1.576900063	
700.0	-0.04605287483	0.3004136841	
700.625	-0.02691054611	1.552924478	
701.25	0.6190299592	0.0005526372604	
701.875	0.1825772437	0.9915350557	
702.5	1.356165411	0.2990863755	
703.125	0.5788488274	0.4154071593	
703.75	1.43147232	-0.2546681029	
704.375	0.2638990312	-0.5562308085	
705.0	0.9307132085	0.01532383971	
705.625	0.5868702879	-0.5845152035	
706.25	0.05535696108	0.7167209606	
706.875	0.9948119228	1.092222884	
707.5	0.3563531317	0.2648464025	
708.125	1.238769847	1.049554561	
708.75	0.7920358043	-1.259737253	
709.375	-0.2584516358	-0.526285006	
710.0	-0.9628110955	0.4175254976	
710.625	0.4192453784	0.2325812612	
711.25	0.039537472	0.5049623909	
711.875	0.5625666317	0.1897778215	
712.5	0.8350514459	0.09985984835	
713.125	0.5538185977	-0.4327046873	
713.75	0.4769715577	-0.4039230359	
714.375	-0.07658231584	-0.9215546822	
715.0	-0.1123881487	-0.01636278705	
715.625	0.5041299682	-0.9458596005	
716.25	-0.3969298533	-0.6613427193	
716.875	1.124249164	0.5018174824	
717.5	2.436095801	-0.3975570989	
718.125	-0.0495576782	-0.6597898985	
718.75	3.580456571	1.489638736	
719.375	1.68876145	-2.567170432	
720.0	1.049051636	-0.463558057	
720.625	2.105331504	-3.98155717	
721.25	-1.356095806	-2.129996388	
721.875	0.8677236757	-2.46296907	
722.5	-1.590749944	-2.608898203	
723.125	-2.029115689	0.001627649087	
723.75	-0.9758289297	0.4286742793	
724.375	-0.1255330546	1.661256324	
725.0	0.5960642061	0.6283644679	
725.625	0.06853966332	0.9371016221	
726.25	-0.219520645	2.203481288	
726.875	1.254169233	2.276225664	
727.5	-2.555588814	1.908774679	
728.125	-0.1550309731	8.029303586	
728.75	4.423248536	4.925419183	
729.375	-10.92165331	2.9344569	
730.0	8.031970453	21.45196619	
730.625	2.282533351	0.945180302	
731.25	-14.10174721	9.035154229	
731.875	-5.642462635	16.74689216	
732.5	-2.352228197	-2.532568633	
733.125	-10.47203093	-2.007063433	
733.75	-2.152731887	4.006763159	
734.375	1.154166557	0.4692635647	
735.0	1.628062959	-1.963090856	
735.625	-1.075759212	1.281295309	
736.25	-0.9549510376	0.6017935099	
736.875	1.119904821	2.182309335	
737.5	3.497745817	-0.3535672092	
738.125	1.026675289	0.0358162041	
738.75	9.289065286	-1.31500647	
739.375	5.875409607	-10.16569085	
740.0	-2.601043003	2.72749403	
740.625	25.76397635	17.57052379	
741.25	24.55714227	-13.88856447	
741.875	-15.52534081	-13.56867278	
742.5	-8.837179466	-12.66826592	
743.125	0.2873923728	2.342946164	
743.75	4.03611344	-5.17078594	
744.375	-1.902577203	0.7934129543	
745.0	-0.2130584094	-0.05900107597	
745.625	0.4666811415	0.05535913952	
746.25	-0.1585470243	0.05089966534	
746.875	-0.3659785052	-0.244687835	
747.5	-0.4747934952	0.9402249269	
748.125	0.6091475824	1.133890599	
748.75	0.02580168254	1.250700082	
749.375	0.6132534472	1.514547502	
750.0	-0.6256761945	-1.251403026	
