!Created with skrf (http://scikit-rf.org).
# GHz S MA R 50.0 
!freq magS11 angS11
500.0 0.016128760919 -173.718147851
500.625 0.0108469721195 140.14166853
501.25 0.0223040525066 -165.989956764
501.875 0.00869927611476 -97.136634124
502.5 0.0290980315749 161.899690638
503.125 0.00835973138344 96.0760336494
503.75 0.0125170111823 -17.9954809219
504.375 0.0065367384412 164.223228863
505.0 0.0145257896603 -57.1635764664
505.625 0.0346605039121 -75.6382661456
506.25 0.0368508199021 -108.938013678
506.875 0.059874151561 -102.070049858
507.5 0.0390446416071 -135.771667951
508.125 0.0432901978886 -110.492605262
508.75 0.0861646001578 -114.559838715
509.375 0.0513828254803 -178.822801063
510.0 0.0257980242458 -152.389070588
510.625 0.0340026802273 -168.069144381
511.25 0.0723321981616 -167.869756892
511.875 0.0493400334226 144.16553471
512.5 0.0404224963118 105.82637033
513.125 0.0557575220962 48.2618713531
513.75 0.0705797566816 46.9141667603
514.375 0.0376287588777 18.4438588816
515.0 0.0478066030152 8.89412739939
515.625 0.079968608626 52.2544814166
516.25 0.106983399985 31.8855890614
516.875 0.0924860222416 66.0374350317
517.5 0.108951692744 17.6273573504
518.125 0.188449046197 70.4706312176
518.75 0.0868292688952 12.9921380471
519.375 0.0705429865192 21.8616448928
520.0 0.10354869218 0.0125405463961
520.625 0.0996145830707 -6.02955165908
521.25 0.0919337147206 -20.1080332542
521.875 0.0591786508457 -3.93118537588
522.5 0.0886238022423 -35.6574106744
523.125 0.177044457064 -35.1749857404
523.75 0.2312255688 -53.4166668136
524.375 0.191231594829 -66.1300403948
525.0 0.0672523089328 -45.1470579753
525.625 0.041146054302 -25.4834549148
526.25 0.0404182164834 -18.6505777662
526.875 0.0510259024511 -21.3703642756
527.5 0.0526622458061 -23.9780330895
528.125 0.0422859415624 -54.7462889607
528.75 0.0744474130881 -70.017092162
529.375 0.0884492514993 -108.714604045
530.0 0.0390211197408 -140.282330363
530.625 0.0495042042139 -148.835086298
531.25 0.0829348174701 -127.246831329
531.875 0.166855899462 -144.931171238
532.5 0.136485071586 -174.391891838
533.125 0.1033150836 176.383110318
533.75 0.116418730281 167.958207934
534.375 0.112148154388 -178.935916025
535.0 0.0870975911578 164.237140454
535.625 0.0641105473419 178.524326299
536.25 0.0506611274649 162.640763216
536.875 0.0739227848588 -159.586608456
537.5 0.0876075147077 -143.540380272
538.125 0.116440005451 -174.609444518
538.75 0.0928544543484 178.133409778
539.375 0.0736050609504 -161.948879928
540.0 0.100203921201 -155.561004822
540.625 0.146397806642 -158.551186119
541.25 0.100280948252 -141.225724101
541.875 0.0911001428093 -140.476997049
542.5 0.099432045024 -139.018228587
543.125 0.1496873292 -167.455470872
543.75 0.115532887551 158.471818559
544.375 0.0959786236111 136.065620276
545.0 0.0878207610819 93.0942930483
545.625 0.0986648205751 85.2413377986
546.25 0.101127485796 68.017831189
546.875 0.0784696830814 56.0127305187
547.5 0.118975352713 58.5677743176
548.125 0.129320888431 78.563968061
548.75 0.0711610128233 88.7570469173
549.375 0.0972753170695 88.1917988027
550.0 0.0892149932031 128.425700979
550.625 0.0471879793754 158.533318362
551.25 0.0455149122589 -146.734385076
551.875 0.0667395319928 -159.985333284
552.5 0.114859950705 -163.858406494
553.125 0.0954223976541 -169.891939032
553.75 0.0885925012599 -166.378531003
554.375 0.10866738277 168.36348804
555.0 0.130068681477 164.242039039
555.625 0.0972795248959 158.595317932
556.25 0.105923668575 159.810674866
556.875 0.103657876395 169.562935444
557.5 0.110272587516 167.324518978
558.125 0.089565451793 164.921136033
558.75 0.0891383743972 177.158055272
559.375 0.0643354175634 -172.197209591
560.0 0.0481461624745 -147.858981319
560.625 0.0581599679245 -136.830515984
561.25 0.0930611911452 -153.009048203
561.875 0.102032481684 -160.669637218
562.5 0.0886052935965 176.606142812
563.125 0.105729575493 146.671079735
563.75 0.131568388966 132.382176464
564.375 0.10381994778 121.634454286
565.0 0.0894332140933 119.80129074
565.625 0.0813920975848 119.808742496
566.25 0.101567302656 151.246633449
566.875 0.0681252511861 -175.101107521
567.5 0.0691936202613 -173.099295278
568.125 0.071413249517 -165.43057754
568.75 0.076826133851 -151.108776859
569.375 0.0457362615825 -98.3648389986
570.0 0.0626929158744 -106.771198766
570.625 0.0905153457555 -112.623718695
571.25 0.0944553952483 -123.353590786
571.875 0.0840243229452 -118.423014242
572.5 0.112134777658 -151.906249687
573.125 0.129173320728 -170.325624171
573.75 0.110069182408 159.510623821
574.375 0.0748276035999 157.213649582
575.0 0.100276566158 159.594789787
575.625 0.107725728796 156.959540999
576.25 0.0925774424458 144.129427106
576.875 0.077341644152 128.674586255
577.5 0.0844088454045 138.581245266
578.125 0.0585546664929 162.454919046
578.75 0.0518605278425 156.370983453
579.375 0.0518631238751 174.539896958
580.0 0.0684181379203 -169.420967412
580.625 0.0765361566491 -142.870811228
581.25 0.0883742057576 -169.637139647
581.875 0.112908011582 -170.843543901
582.5 0.115702845874 -172.94918642
583.125 0.096996166311 -172.177538152
583.75 0.0832218497968 -169.055915583
584.375 0.101274196567 -155.475369011
585.0 0.09224103452 -140.87093533
585.625 0.0688749713295 -145.374137441
586.25 0.0727417339969 -147.228217745
586.875 0.0794670889684 -123.785304532
587.5 0.0726322449414 -139.934733754
588.125 0.0594449439956 -176.972063624
588.75 0.0667939444199 -169.921854935
589.375 0.0833335040857 -148.456899325
590.0 0.0937343399762 -166.084178494
590.625 0.104907297199 163.446651898
591.25 0.121443365127 154.767452676
591.875 0.100865312054 152.672239202
592.5 0.0614329349142 148.745457917
593.125 0.0612480580558 147.444114197
593.75 0.0763834914782 168.892347254
594.375 0.0544968657715 -150.174740464
595.0 0.0428397337664 -117.810147289
595.625 0.0613308811563 -101.913638591
596.25 0.0753165830604 -83.7576918176
596.875 0.0647613673477 -80.0694241498
597.5 0.0617618544996 -56.4471431318
598.125 0.0618232471331 -64.5888891321
598.75 0.0709304148384 -72.3361610956
599.375 0.0952256841376 -58.2880466416
600.0 0.103434198872 -63.2756326056
600.625 0.0957903030513 -61.2205447478
601.25 0.0846514978027 -78.22367605
601.875 0.0667473861425 -85.6982426295
602.5 0.0616018659172 -79.4867789733
603.125 0.0452675846233 -61.2126536531
603.75 0.0320328735592 -32.0426294772
604.375 0.0300690765473 -41.1872194742
605.0 0.0774259810427 -1.30028233871
605.625 0.0543429438342 -2.72523497247
606.25 0.02882965492 26.2955939593
606.875 0.0194784691531 45.3024122867
607.5 0.0645130951426 45.405621515
608.125 0.0811155024267 31.5050734312
608.75 0.0633460660618 21.7352999329
609.375 0.0486166236476 19.7019625264
610.0 0.0892431560507 55.073027719
610.625 0.0682557120164 40.4323762032
611.25 0.0547539744795 46.2613230876
611.875 0.0286987820928 16.3627399126
612.5 0.0256267254666 100.956641547
613.125 0.0292397445346 123.160086091
613.75 0.0362532513172 124.888196671
614.375 0.0473261122626 123.393418048
615.0 0.0215325970011 107.68411927
615.625 0.0366259178551 135.91605378
616.25 0.0666556092128 135.592977054
616.875 0.0544074839554 131.113808903
617.5 0.0232922943337 109.047109845
618.125 0.0301401657186 130.777656509
618.75 0.0424164746987 142.242338926
619.375 0.0227752710791 141.757888699
620.0 0.00306483608628 -137.037780735
620.625 0.017719598042 -94.8560163956
621.25 0.045664584154 -92.1508226629
621.875 0.0616496664315 -113.16907806
622.5 0.0686306847463 -154.859611222
623.125 0.0865865316182 164.306783037
623.75 0.0701258712568 159.397770255
624.375 0.0454072386783 -177.899522984
625.0 0.0282724365041 -112.870200598
625.625 0.0670530937189 -158.022672921
626.25 0.0274733203351 176.948381114
626.875 0.00794756134736 -152.865289421
627.5 0.0497147000082 -10.0959964021
628.125 0.0364517052807 -34.8328855853
628.75 0.0336983074604 -20.628448042
629.375 0.0536596134126 -11.8799443928
630.0 0.0635205620964 -1.44513337284
630.625 0.0696456598784 -5.98574169508
631.25 0.0662312863417 -12.1843761659
631.875 0.0736735055962 -12.1639858206
632.5 0.0684835880856 13.8798304715
633.125 0.0490855960971 -1.85611634596
633.75 0.0407756439468 1.81231171774
634.375 0.0438335967823 26.7365985006
635.0 0.0340691060321 24.2681444421
635.625 0.0527476430606 50.2377243272
636.25 0.0407487370015 11.970239916
636.875 0.0583566247978 35.0998207603
637.5 0.0484547753338 45.8382685405
638.125 0.0476717777833 72.8460106691
638.75 0.0678856074448 65.8767654871
639.375 0.0912857966178 92.6669812983
640.0 0.0756729333269 109.456277026
640.625 0.0547895540172 108.036562112
641.25 0.0770543179936 129.990529722
641.875 0.0646698089021 151.803426771
642.5 0.0525649434382 146.72069379
643.125 0.0724678985341 163.843917807
643.75 0.0614392497074 162.909311985
644.375 0.0703668345832 -174.089653673
645.0 0.0767390488605 174.34999578
645.625 0.0925526083831 169.292240009
646.25 0.0922720404216 165.067921283
646.875 0.0658238981704 176.136057933
647.5 0.0650985359677 -173.769317784
648.125 0.0822231053649 -174.765464315
648.75 0.0867745579559 -157.21350196
649.375 0.0405067878731 -161.035190655
650.0 0.0389807315283 -118.706523908
650.625 0.0533388813955 -90.7671453154
651.25 0.0819668284568 -64.8286555974
651.875 0.046672925818 -44.5048216943
652.5 0.0858062574477 -22.1697789038
653.125 0.11136473112 -6.91483353948
653.75 0.12103479097 6.93596915571
654.375 0.108193534799 7.39421102443
655.0 0.123497271679 15.0477196233
655.625 0.0940619536211 27.7479785826
656.25 0.0714337132513 24.6391307203
656.875 0.050366729942 -2.23528505677
657.5 0.0741800508547 24.6190624525
658.125 0.0706289074246 50.0195648403
658.75 0.0648540516531 62.450380278
659.375 0.0742024757302 42.3377058
660.0 0.11482036042 28.1410779458
660.625 0.119634060858 18.5537274536
661.25 0.110215735942 5.9014751891
661.875 0.133582291615 -11.9720482718
662.5 0.125052221007 -19.8227183174
663.125 0.0939232307871 -18.2084800189
663.75 0.108620232811 5.40997560164
664.375 0.0849491795559 50.4881929322
665.0 0.0617449375764 91.8319630075
665.625 0.0634797838655 113.469046155
666.25 0.0926602303906 130.605377701
666.875 0.111557572527 171.259077229
667.5 0.0934859168579 -166.72037343
668.125 0.104095760343 -177.793400441
668.75 0.139422830551 166.586375501
669.375 0.102855669046 177.244845501
670.0 0.0759701306058 -168.265757077
670.625 0.0839407210564 -169.55813845
671.25 0.126660856975 173.379796718
671.875 0.0792286619325 168.959196949
672.5 0.0756542990631 156.435194778
673.125 0.0728911427544 156.586534493
673.75 0.120690178765 157.262196158
674.375 0.111262388319 168.806056989
675.0 0.117589220774 -173.937741828
675.625 0.125580783235 -148.259679142
676.25 0.130186567558 -126.03314796
676.875 0.107450651523 -118.93818413
677.5 0.120538713374 -126.886677908
678.125 0.111744834469 -116.897804874
678.75 0.0796939707957 -94.6059367127
679.375 0.0392898746262 -63.6420566113
680.0 0.0776595021521 -73.4855939233
680.625 0.122767107405 -76.1550479235
681.25 0.105388508934 -71.8210795557
681.875 0.105138729239 -94.2776211652
682.5 0.132882315493 -116.485909075
683.125 0.154146948709 -117.43412033
683.75 0.129438672478 -104.595721233
684.375 0.126560223625 -82.1933644764
685.0 0.127335683596 -40.4698157458
685.625 0.12170613222 -0.0123335830783
686.25 0.106675607274 19.2135053549
686.875 0.099920172563 44.1923953231
687.5 0.0628068046103 91.28486882
688.125 0.0824290282923 113.29949771
688.75 0.102927795165 112.195107424
689.375 0.14838516024 117.203632723
690.0 0.139458315252 131.653972367
690.625 0.120529372283 127.045095809
691.25 0.146793664345 96.6807407288
691.875 0.190383792672 69.9191462445
692.5 0.151500596646 39.0487401726
693.125 0.0732874455159 -8.10418653914
693.75 0.0927659931339 -35.2244635443
694.375 0.124976407584 -24.4267100599
695.0 0.135676330621 9.61650855616
695.625 0.106482338639 51.8936634144
696.25 0.11639701541 112.836846949
696.875 0.137588584717 174.864040492
697.5 0.137099025805 -142.2062433
698.125 0.146265526362 -137.260597366
698.75 0.129819017104 -129.873850197
699.375 0.106633094845 -123.999251914
700.0 0.100988216931 -116.804111218
700.625 0.102236198783 -83.1692318964
701.25 0.0996700005858 -63.5934661306
701.875 0.0835559473222 -63.2898856448
702.5 0.0999898566029 -85.3618425605
703.125 0.172727218516 -126.14775365
703.75 0.170665738867 -146.164811783
704.375 0.122766521057 176.064943905
705.0 0.103199087574 163.397871767
705.625 0.151622577169 -175.348430812
706.25 0.13535815509 -105.335706929
706.875 0.0887767140506 -60.7872270921
707.5 0.0777058119369 -41.8746167309
708.125 0.093604367819 14.7503195921
708.75 0.114531917302 66.3999371966
709.375 0.105202825921 104.839635185
710.0 0.104490993984 130.645554653
710.625 0.108329912535 156.1693644
711.25 0.118620955917 171.449302905
711.875 0.139931236971 170.914787118
712.5 0.15034759911 143.217739789
713.125 0.131851359558 97.518885564
713.75 0.103362062499 42.7251256823
714.375 0.108652526895 30.0191003584
715.0 0.113648032835 35.6003889264
715.625 0.0792018023411 57.6378738215
716.25 0.0741130417177 65.6530503333
716.875 0.132254251386 118.344106614
717.5 0.142889347615 146.964816612
718.125 0.117246992149 165.162990854
718.75 0.101924414299 172.301469779
719.375 0.112493636643 -178.938602351
720.0 0.137380763434 -112.713803502
720.625 0.114097038142 -65.8749187799
721.25 0.0962666698323 -20.9901456892
721.875 0.0742947980219 43.362323395
722.5 0.0737675084365 79.6162964947
723.125 0.0740078507774 81.0281534411
723.75 0.107127218258 42.1767761749
724.375 0.101830647487 -9.48742906367
725.0 0.0914037639895 -37.0482597073
725.625 0.116185054169 -57.4782675758
726.25 0.114832826576 -58.5504695591
726.875 0.0956820981342 -64.7117545612
727.5 0.0909536256709 -12.7985691495
728.125 0.0839484815743 3.37293079351
728.75 0.0830888933979 11.4275001441
729.375 0.0860853219281 15.8701494148
730.0 0.0593151479243 -8.23337887688
730.625 0.089201925637 37.3568140413
731.25 0.0918338996858 74.2653684635
731.875 0.075947985576 116.28992719
732.5 0.0524236862353 140.251129411
733.125 0.0950201612059 -177.550480464
733.75 0.0976408282777 -175.796010041
734.375 0.0646816198083 171.097010561
735.0 0.0393345395139 132.706714748
735.625 0.0569833513313 144.036168119
736.25 0.0574909762728 146.766683703
736.875 0.0513541602616 168.530442033
737.5 0.0558270172719 -177.391164261
738.125 0.12587274221 -167.806392505
738.75 0.0976246326332 -167.690839979
739.375 0.0607275082952 -166.252379064
740.0 0.010870101946 -89.2336804493
740.625 0.0653232739624 -142.112912246
741.25 0.0523391505491 -154.075001098
741.875 0.0294308539175 -115.205350172
742.5 0.0326206587959 -24.3701501242
743.125 0.0301636207678 66.4952915094
743.75 0.0272328840218 99.4858476368
744.375 0.0360366725562 129.564648376
745.0 0.0432973511659 162.61068224
745.625 0.0790773398323 106.830572021
746.25 0.0739583737648 82.0460454384
746.875 0.0702656474629 36.4483473639
747.5 0.0425559836445 5.54149186268
748.125 0.0128765688278 62.8304530935
748.75 0.0474452433997 -28.0717614871
749.375 0.029867595725 -34.9241102689
750.0 0.0371607380384 -79.0753162361
