!Created with skrf (http://scikit-rf.org).
# GHz S MA R 50.0 
!freq magS11 angS11
500.0 0.0128018524036 113.523620481
500.625 0.00907027220969 145.858909804
501.25 0.0104801818211 -167.133143514
501.875 0.0417045915441 -164.053004364
502.5 0.00760707506054 114.703936335
503.125 0.0143850006122 95.4210465357
503.75 0.00787138630248 -3.47548825958
504.375 0.00526691961435 -54.1048153496
505.0 0.0249014263907 -67.9351223214
505.625 0.022500327875 -75.2122376327
506.25 0.0251704508825 -124.103802525
506.875 0.0563716256242 -103.059522203
507.5 0.0434826335757 -128.56857559
508.125 0.0483911390925 -97.5558943855
508.75 0.0696795572754 -130.896273236
509.375 0.0581881229434 -129.564975767
510.0 0.031630807481 -150.867528536
510.625 0.0377915217744 -159.681916551
511.25 0.065516893693 -169.975464675
511.875 0.051173324148 145.159989826
512.5 0.0459359494631 111.066607821
513.125 0.0516086616275 42.8864919256
513.75 0.0606573626377 34.2243117656
514.375 0.0579520766869 31.7446470136
515.0 0.0324237973309 -21.9775256391
515.625 0.0629140628167 42.2420003202
516.25 0.0822555522071 23.8540744547
516.875 0.128937817387 69.0163147719
517.5 0.114148976677 18.5060136898
518.125 0.174644104547 65.3371679356
518.75 0.0825887374703 12.0846080313
519.375 0.0817921248541 24.6484058157
520.0 0.0917241385837 -4.65041249299
520.625 0.0906097826906 -11.3974586686
521.25 0.0798878429149 -26.752082764
521.875 0.0786523622673 1.72893641184
522.5 0.078986832281 -42.3539446825
523.125 0.167803547321 -39.8138186324
523.75 0.213259809545 -60.2132570587
524.375 0.224562665456 -46.7379228906
525.0 0.0665740022492 -63.7614688824
525.625 0.0356602463756 -28.0419920028
526.25 0.0443278619865 -9.149891314
526.875 0.064552298495 -15.6057489487
527.5 0.0416873638783 -33.4510228829
528.125 0.0367977811538 -54.9469852189
528.75 0.0553877789611 -74.2356119739
529.375 0.103175407536 -105.471404508
530.0 0.0483435232834 -130.555925075
530.625 0.0400200000292 -142.073387773
531.25 0.132190430814 -137.700881202
531.875 0.19492673423 -146.929346017
532.5 0.139669875267 -170.198725935
533.125 0.0957613477499 177.397050694
533.75 0.116782377217 169.360043327
534.375 0.125501224173 -178.744006425
535.0 0.0730931843669 157.879775215
535.625 0.0543779984018 176.770264946
536.25 0.0600558540093 166.902165817
536.875 0.0783781276417 -162.368153049
537.5 0.0974654735559 -143.704677492
538.125 0.107285916075 -175.133613107
538.75 0.102585863912 -178.71831257
539.375 0.0865236290003 -162.413696359
540.0 0.0842342831572 -152.709072739
540.625 0.140249607296 -156.704845737
541.25 0.135831729808 -140.848119333
541.875 0.0931517898855 -140.881538756
542.5 0.107572563375 -140.128585472
543.125 0.145710038957 -166.481695762
543.75 0.129807021662 161.047293339
544.375 0.102866995351 137.428336853
545.0 0.0711746036236 90.656310841
545.625 0.0867842744704 85.6653483832
546.25 0.0838165953562 67.1225585523
546.875 0.0991872091804 53.9003210262
547.5 0.102681392137 59.4514655236
548.125 0.125925232149 79.2878942888
548.75 0.0929712205844 91.508173144
549.375 0.107625175684 87.0441816362
550.0 0.0690313247962 124.347112339
550.625 0.0390333872819 161.930797474
551.25 0.0349436813321 -130.174094175
551.875 0.072007054838 -167.06217877
552.5 0.106694378122 -162.101916504
553.125 0.0950322396182 -167.813227441
553.75 0.0919068989655 -169.341222506
554.375 0.116334836141 163.847228359
555.0 0.114977408529 166.807352204
555.625 0.091104042707 161.091701598
556.25 0.0929493227736 162.532327746
556.875 0.127707634515 163.397795933
557.5 0.114862473128 166.683135092
558.125 0.0963747154073 165.589896017
558.75 0.0749524622534 178.380254257
559.375 0.0728867054852 -173.127148648
560.0 0.0407671565514 -142.036451666
560.625 0.0546726518069 -129.501536448
561.25 0.0847108216776 -147.745667696
561.875 0.110165722301 -165.474509867
562.5 0.0834651787272 179.077391863
563.125 0.101226632261 149.103867373
563.75 0.129519557427 131.999224263
564.375 0.111264240678 119.878213792
565.0 0.0832274520312 121.506515829
565.625 0.0735369320122 123.16962536
566.25 0.088859901054 155.97530244
566.875 0.0805784974931 176.091293381
567.5 0.0694381960892 -174.693209974
568.125 0.0778562005465 -167.652690035
568.75 0.0740685157652 -149.936114216
569.375 0.0504231119027 -111.206612355
570.0 0.0623238385522 -111.128374159
570.625 0.0893877272097 -112.892018883
571.25 0.08620598414 -116.140580961
571.875 0.0905696624951 -129.932376165
572.5 0.1086175827 -153.457473794
573.125 0.136932577294 -171.833282913
573.75 0.109087929837 160.549463315
574.375 0.0879184479565 144.225441093
575.0 0.0944909136003 164.818734408
575.625 0.105027740441 159.245611026
576.25 0.0842008377704 145.909375614
576.875 0.0851494223911 126.029105002
577.5 0.0701877885211 147.138700322
578.125 0.0543777570323 168.432486617
578.75 0.043929403754 167.26752628
579.375 0.0584082978371 152.765203354
580.0 0.0674587377955 -172.934337324
580.625 0.0779092752263 -148.350649086
581.25 0.0870797862735 -163.034520381
581.875 0.116153352862 -176.668184959
582.5 0.119817419888 -177.041201912
583.125 0.0920826107618 -166.553264062
583.75 0.0832154070237 -166.353186785
584.375 0.10345134533 -157.009711754
585.0 0.0996852968034 -148.413738833
585.625 0.0716037215163 -144.413490866
586.25 0.0721458393532 -143.203335014
586.875 0.0836367661864 -137.494077916
587.5 0.0727304184027 -144.337850965
588.125 0.0580137268417 -171.300883561
588.75 0.0693993082552 -165.292034018
589.375 0.0831364409612 -152.287879964
590.0 0.0918065369498 -172.783556341
590.625 0.105822092815 170.266212787
591.25 0.120857954518 158.763097138
591.875 0.0876754277689 163.032057926
592.5 0.0678886484276 138.029950688
593.125 0.0587109487094 163.197622352
593.75 0.076464731839 175.321116602
594.375 0.0591557650742 -149.016639513
595.0 0.0414882230215 -128.308329383
595.625 0.0678159379732 -87.6414618805
596.25 0.080703285814 -76.6565395198
596.875 0.0674013477409 -62.8364303935
597.5 0.0538705722502 -73.8753052058
598.125 0.0649996195558 -54.7881450258
598.75 0.0751561258152 -61.2870117498
599.375 0.089890450346 -64.6933180864
600.0 0.100954206915 -70.0632690895
600.625 0.101698953678 -65.4410930152
601.25 0.0854060378767 -72.3522099582
601.875 0.0695233094486 -86.2480728892
602.5 0.0604258663748 -98.6609684191
603.125 0.0473018244684 -35.3904234096
603.75 0.034715592546 -22.3654664104
604.375 0.0381993243511 -23.347692439
605.0 0.0497024680717 -29.639271375
605.625 0.0489124973142 -15.9544197262
606.25 0.026111103308 15.3037765659
606.875 0.0270423470962 46.054501964
607.5 0.0635562698895 42.8920459771
608.125 0.0756347005978 32.9615388365
608.75 0.0734315372715 27.4644496679
609.375 0.0652182360546 33.2756178525
610.0 0.0560797062975 31.8759909845
610.625 0.0615746086194 35.6765842348
611.25 0.0525875149307 32.3134895089
611.875 0.0320233349504 37.8001795121
612.5 0.0223325694274 90.0775521575
613.125 0.0127874001028 133.6149478
613.75 0.0594948255161 127.889492968
614.375 0.0617349215061 129.347751323
615.0 0.045316007537 126.55361205
615.625 0.0127204038429 155.784087442
616.25 0.073604267083 135.841773507
616.875 0.0600098572952 131.374278694
617.5 0.0401639888695 122.863694016
618.125 0.0102422623678 122.993983357
618.75 0.0614752514211 149.992658905
619.375 0.0374742786159 149.984818763
620.0 0.00652720833314 113.281991136
620.625 0.0296173046706 -68.0436142186
621.25 0.0428735926606 -107.871639396
621.875 0.0678447944007 -124.413686717
622.5 0.0739856150712 -170.935224465
623.125 0.0633141812111 -171.024944279
623.75 0.0895411979298 160.855299821
624.375 0.0587165692958 178.480451565
625.0 0.0492578685567 -138.49001414
625.625 0.0207479462429 -123.857040146
626.25 0.0175438262724 170.73494851
626.875 0.00422292010759 14.6385718945
627.5 0.0353438181567 -13.0267238891
628.125 0.0362500659198 -21.1848914893
628.75 0.0474546777256 -0.39656587233
629.375 0.0427034054473 -8.58948647379
630.0 0.060434303328 -12.6366814821
630.625 0.0712155229851 7.40993059164
631.25 0.0726882967698 -13.5280173565
631.875 0.0677052414475 -4.19420184235
632.5 0.0630045871866 3.64156040898
633.125 0.0441579423896 6.02699441792
633.75 0.0459619576836 26.1927722944
634.375 0.0449279032781 -7.33330818907
635.0 0.0329322733524 -4.15501402961
635.625 0.0376436608457 26.993549481
636.25 0.0705761308526 47.7953337974
636.875 0.063556496903 42.3887302214
637.5 0.0406012171545 36.1766839487
638.125 0.0392931488561 74.2649485748
638.75 0.0740311134515 79.5950235508
639.375 0.104387123745 98.8075581539
640.0 0.0674899948767 97.7910798135
640.625 0.0487661095716 101.13979823
641.25 0.0571987147496 117.809066006
641.875 0.0763706851228 158.561264978
642.5 0.0561503378575 158.872281349
643.125 0.0613793204528 159.362250929
643.75 0.0675842752435 175.500206838
644.375 0.0877878896092 -169.15481128
645.0 0.076578245184 -179.708483909
645.625 0.0841754026453 167.504335356
646.25 0.0899285528926 166.474374947
646.875 0.0853374294518 -175.976794811
647.5 0.0490067502947 170.552974821
648.125 0.069997629007 179.482158686
648.75 0.0731883820815 -171.272546409
649.375 0.061384497761 -143.746931406
650.0 0.0262753282243 -137.67457016
650.625 0.0610841666948 -86.6713240601
651.25 0.0668635191866 -70.0210447306
651.875 0.0771405936952 -43.511613472
652.5 0.0938447986988 -23.3722819112
653.125 0.119516309244 -1.69980850049
653.75 0.104072437277 2.50268663348
654.375 0.118876658952 8.02755923274
655.0 0.105407226187 8.74663765803
655.625 0.082868327755 19.9251668682
656.25 0.058737933511 13.9152164751
656.875 0.0828297477529 7.86148607761
657.5 0.0800491357183 22.5168227115
658.125 0.0628936172428 49.2242832522
658.75 0.0613326563477 65.1154927292
659.375 0.0852000717778 41.841733741
660.0 0.129826235674 25.6732433043
660.625 0.103214267636 17.5029006785
661.25 0.103348931409 6.14247847811
661.875 0.114136712009 -13.7909023308
662.5 0.135552645742 -19.6945646848
663.125 0.104740530736 -16.0455889813
663.75 0.104428725168 6.41993850301
664.375 0.0973765600577 55.9904717399
665.0 0.0617914355822 86.4374489737
665.625 0.0527897705518 115.734609475
666.25 0.0786560899042 135.085352613
666.875 0.129386913689 168.756082036
667.5 0.0804448608333 -165.500849838
668.125 0.095039197197 -175.800223177
668.75 0.115238066379 169.021091586
669.375 0.143082900304 176.150192836
670.0 0.0711362708808 -169.841428562
670.625 0.0851423830888 -169.446191454
671.25 0.12090003178 172.93872822
671.875 0.110442748647 168.34104346
672.5 0.0879102680574 154.373713478
673.125 0.080475328694 156.930020779
673.75 0.102074681259 160.198184919
674.375 0.124267478419 166.459159741
675.0 0.098907007609 -168.873586062
675.625 0.121920498613 -146.673457832
676.25 0.12185725254 -124.437571538
676.875 0.124812254276 -122.52363616
677.5 0.102373778639 -125.078303762
678.125 0.120405529226 -115.702094267
678.75 0.0766243444992 -92.9330176748
679.375 0.0566981826384 -76.6295261949
680.0 0.0778363677693 -79.410636931
680.625 0.119818304737 -73.1606057487
681.25 0.0984482467289 -69.3681960555
681.875 0.102072119885 -91.508549174
682.5 0.145741839273 -124.465570328
683.125 0.151456544352 -117.294908103
683.75 0.134182179462 -103.594719216
684.375 0.122892160524 -80.5238618613
685.0 0.13366767349 -38.7222337929
685.625 0.124634504878 -1.77459621041
686.25 0.106622277513 22.2867328055
686.875 0.0965067216365 44.5299279494
687.5 0.0822902767288 83.8009588907
688.125 0.0819771315286 110.040120686
688.75 0.10196288614 116.018531868
689.375 0.146473775808 120.120779545
690.0 0.133053252789 134.668191826
690.625 0.126047653211 123.171653803
691.25 0.13719750636 101.991886439
691.875 0.174228189993 73.3372710975
692.5 0.129401672813 42.3358776151
693.125 0.0991268563628 -19.3189336352
693.75 0.0941564458848 -38.678245761
694.375 0.136275927235 -29.1921286788
695.0 0.132990365204 11.9796026835
695.625 0.102031524361 56.3089321696
696.25 0.121302005516 106.821430511
696.875 0.127737121099 -177.07854991
697.5 0.141389430507 -142.144097121
698.125 0.130349806124 -130.634872622
698.75 0.141342310102 -136.268848621
699.375 0.10512988849 -123.157839621
700.0 0.0981109279509 -114.843067441
700.625 0.114399229315 -90.1756391646
701.25 0.108467100455 -69.8830320207
701.875 0.0803712065873 -55.3135816389
702.5 0.101434002648 -82.7254019917
703.125 0.17111171396 -117.746508551
703.75 0.196620072 -160.04042042
704.375 0.116578743409 179.813739176
705.0 0.11068873683 159.775942375
705.625 0.147743676912 -172.821923414
706.25 0.144785640961 -111.257733696
706.875 0.0966362772168 -66.9426429774
707.5 0.0730309039696 -30.0578638031
708.125 0.0918515243669 19.4369488574
708.75 0.112753711615 65.4740126644
709.375 0.107376876664 98.5662840294
710.0 0.103084532904 141.613315541
710.625 0.105155549399 159.566279258
711.25 0.12057434812 172.183082397
711.875 0.135269113057 167.110569127
712.5 0.150895144091 146.19085311
713.125 0.129246072263 98.3970514481
713.75 0.101952733865 47.8750383161
714.375 0.114659987454 7.99446023558
715.0 0.109289251847 50.1809485561
715.625 0.0871693648565 55.0387687902
716.25 0.0776700653585 69.8228019291
716.875 0.114178707686 97.9347019519
717.5 0.143252543515 136.806486118
718.125 0.119169105816 176.646436516
718.75 0.106801465307 178.410694905
719.375 0.118438782402 -162.366992734
720.0 0.126664246633 -138.181559829
720.625 0.112556588752 -62.1357836217
721.25 0.0998350231628 -13.2441511616
721.875 0.0831324591444 32.3200719495
722.5 0.0684222282913 55.4699301295
723.125 0.0845098430327 75.1206879923
723.75 0.117930731329 47.010650664
724.375 0.116124255879 5.9379562692
725.0 0.0814695469648 -52.6051703634
725.625 0.122464997083 -52.8579912412
726.25 0.114345689402 -67.2962519117
726.875 0.100102659243 -53.447293758
727.5 0.0780670036699 -44.3724246394
728.125 0.0717028935559 -19.2027126157
728.75 0.101300415756 33.1951729994
729.375 0.0927898551551 23.3196843579
730.0 0.0739821653504 13.7140189891
730.625 0.0436845890984 0.934006311193
731.25 0.102583216368 80.5942274938
731.875 0.0796273206704 116.54029882
732.5 0.0670913951969 152.02375497
733.125 0.0865886052518 173.049513689
733.75 0.0922105939218 -170.793850671
734.375 0.0842827460019 -179.423427492
735.0 0.0654208886241 151.998880915
735.625 0.0268360176647 117.657461626
736.25 0.0796483814505 155.236343638
736.875 0.0717580335436 167.417653205
737.5 0.09890954575 -179.967369695
738.125 0.0625925234505 -176.753211592
738.75 0.10314334327 -163.038317938
739.375 0.0604890473524 -160.868789824
740.0 0.0243731279748 -120.205922651
740.625 0.052165982345 -151.897875328
741.25 0.0237204566871 -151.806394871
741.875 0.0617283197281 -109.124145441
742.5 0.059978002529 -25.0574677843
743.125 0.029679107857 53.9894072448
743.75 0.0214548227334 140.562807317
744.375 0.0404237360366 114.172716817
745.0 0.0440006486016 149.653792521
745.625 0.0655711227464 118.395024867
746.25 0.066078919369 102.042029966
746.875 0.102150024097 30.1987359156
747.5 0.0622901218988 2.44033482448
748.125 0.0305914616126 -5.41074677097
748.75 0.0199096751069 35.9745689359
749.375 0.0324688595936 6.17828560821
750.0 0.0293872591387 -92.2309342123
