!Created with skrf (http://scikit-rf.org).
# GHz S RI R (50+0j) 
!freq	ReS11	ImS11	
500.0	-0.3561796286	-0.9705548833	
500.625	0.3482584644	-0.3913319078	
501.25	-0.6049548353	-0.9047170579	
501.875	-0.2825508478	-0.1592985191	
502.5	0.04980044571	-0.1361339972	
503.125	-0.08441195434	0.04711694349	
503.75	0.009529804842	0.01520721958	
504.375	0.04071823101	0.00971072067	
505.0	-0.01948671505	-0.01926731173	
505.625	0.04471890787	-0.04622677788	
506.25	-0.1397907811	-0.02722737765	
506.875	0.06366133184	-0.08946925582	
507.5	-0.286250604	-0.5164929601	
508.125	0.1878085375	-0.1147480024	
508.75	0.8625353481	-0.7503507201	
509.375	-0.2544025242	-1.149391852	
510.0	-0.2431358225	-0.07627006307	
510.625	-0.02114144276	-0.1701902015	
511.25	-0.09939629551	-0.002198365466	
511.875	-0.01528538635	-0.03891550013	
512.5	-0.02863082855	0.05903570056	
513.125	-0.0464508467	-0.03324917928	
513.75	0.01497904022	-0.05379436382	
514.375	-0.1556926109	0.003764227998	
515.0	0.2222419348	0.1086428395	
515.625	-0.4723692517	-0.4067686979	
516.25	-0.1214688962	-0.05751007818	
516.875	0.04771929938	-0.5633515759	
517.5	-0.1436151997	-0.2139219289	
518.125	0.02436745607	-0.06993118029	
518.75	-0.09002835318	-0.2017352315	
519.375	-0.02952107282	0.02035685905	
520.0	0.08207703435	0.06340197645	
520.625	0.1442571712	-0.06405599426	
521.25	-0.09968685232	-0.1888022102	
521.875	-0.06518313156	-0.02803686357	
522.5	-0.1163182394	0.03548097659	
523.125	0.04668354128	0.07331399061	
523.75	-0.1643656213	-0.08750934227	
524.375	-0.1078915383	0.1590169111	
525.0	-0.04971762459	-0.01240186002	
525.625	0.01197298793	0.1285376304	
526.25	-0.00166814638	-0.0958926528	
526.875	-0.03959567004	0.1132476702	
527.5	0.01605618803	0.08277118945	
528.125	-0.03820354259	0.2182094741	
528.75	0.0981743377	0.253729757	
529.375	0.005171858977	0.05942111198	
530.0	0.02933558431	0.08920538304	
530.625	0.1126804415	0.1331125733	
531.25	0.213631703	0.2151676583	
531.875	0.2837786172	-0.148099838	
532.5	-0.1749909004	-0.105544682	
533.125	0.1900153922	-0.07361354421	
533.75	-0.02599385803	-0.1512429591	
534.375	0.04021853458	-0.1651313502	
535.0	-0.282932216	-0.1157289427	
535.625	-0.07081991531	0.09654942561	
536.25	-0.02964604347	0.08651919579	
536.875	0.1117799692	-0.009106477974	
537.5	0.02349413272	-0.01835602397	
538.125	0.1629926068	-0.05246553933	
538.75	0.04917578635	-0.1512281557	
539.375	-0.03787831236	-0.1210370372	
540.0	-0.1348016057	-0.1623942719	
540.625	-0.1465346876	0.02946838033	
541.25	-0.03428301284	-0.04494555709	
541.875	-0.09729197535	0.0004891377906	
542.5	-0.03827081692	0.04340567906	
543.125	-0.09174026353	-0.08196302027	
543.75	-0.05585952271	0.05361656131	
544.375	-0.02443582667	-0.04894930765	
545.0	0.01416622688	0.09859716212	
545.625	0.02064513431	-0.01461158727	
546.25	0.08855579244	0.09268023442	
546.875	0.1078359041	-0.08565616155	
547.5	0.05533871549	-0.0542684145	
548.125	-0.03356383625	-0.1943005151	
548.75	-0.1275203844	-0.04903516398	
549.375	-0.04276454337	-0.07368689558	
550.0	-0.1120592553	0.01369825814	
550.625	-0.008232509287	0.009569232035	
551.25	-0.0977505997	0.01965847299	
551.875	-0.05817513755	0.08994413574	
552.5	-0.0332805505	0.04306516671	
553.125	-0.009580301818	0.07369246835	
553.75	0.0340329011	0.0344943595	
554.375	0.08792542759	0.01215523988	
555.0	0.08735490695	-0.07388369154	
555.625	0.07283229526	-0.08973945164	
556.25	0.06278664619	-0.1276127106	
556.875	-0.03526949156	-0.1434155074	
557.5	-0.09153018958	-0.08939099459	
558.125	-0.104788655	-0.03591532481	
558.75	-0.1057071023	-0.001211169191	
559.375	-0.0968331	0.02869680258	
560.0	-0.08884368502	0.05845984058	
560.625	-0.05382989427	0.1215297938	
561.25	0.02744425122	0.07450661508	
561.875	0.001527583281	0.05999899941	
562.5	0.03894761784	0.03295193484	
563.125	0.03316600018	0.07980287336	
563.75	0.1625303997	-0.007712540645	
564.375	0.07442983496	-0.104892109	
565.0	0.1060836446	-0.1017564544	
565.625	-0.07370975983	-0.1870769707	
566.25	-0.08216121925	-0.05362331397	
566.875	-0.1258407522	-0.1285621297	
567.5	-0.1674417112	-0.05858666574	
568.125	-0.01049485406	-0.1094195037	
568.75	-0.2622398601	-0.1096262857	
569.375	-0.1660715096	0.1432731754	
570.0	-0.1333458632	0.1033806752	
570.625	-0.06401116846	0.2652635731	
571.25	0.05785153333	0.03383021815	
571.875	0.03054595056	0.1320032271	
572.5	0.1196229842	-0.07930657605	
573.125	0.06900220742	0.01919514525	
573.75	0.110774027	-0.1622544781	
574.375	-0.07767149855	-0.06642221753	
575.0	0.09275420416	0.01264878358	
575.625	-0.01007414238	-0.1385224957	
576.25	0.01176346168	-0.02582271184	
576.875	0.06990205144	-0.1942839119	
577.5	-0.08021304988	-0.1595116467	
578.125	0.01352401151	-0.04617623985	
578.75	-0.0430099053	-0.1999630615	
579.375	-0.1772071685	0.003309888919	
580.0	0.0512334297	-0.02880141333	
580.625	-0.2172425711	-0.001374610174	
581.25	0.03619101821	0.05276660508	
581.875	-0.09490129827	0.12395151	
582.5	0.1413545351	0.2079496308	
583.125	0.05225573314	-0.04630965381	
583.75	0.01399161046	0.1175146269	
584.375	0.07270059255	-0.03936961358	
585.0	0.03663960181	0.1628729254	
585.625	0.2281461164	-0.06783514991	
586.25	0.04496089036	-0.08304566158	
586.875	0.1316881537	-0.06759534663	
587.5	-0.05773039587	-0.1916606987	
588.125	-0.03564869747	-0.03780555446	
588.75	0.1016616969	-0.1544426778	
589.375	-0.01287687102	-0.1979817342	
590.0	0.01122320403	-0.05102416503	
590.625	-0.2372501248	-0.1303107098	
591.25	-0.03212090288	0.1811144181	
591.875	-0.05233790911	-0.004233012805	
592.5	0.02296656975	0.1765851255	
593.125	-0.0381747584	-0.06183460447	
593.75	0.07264016355	0.1987965529	
594.375	0.1632432382	-0.01760918694	
595.0	0.0786633914	0.1491885895	
595.625	0.2251335887	0.1120853223	
596.25	0.1003973166	-0.04662874266	
596.875	0.09731989825	0.1140620521	
597.5	0.2083688403	0.04291879959	
598.125	0.08861575238	0.0465624937	
598.75	0.148934191	0.1410553803	
599.375	0.2397251935	-0.09469638819	
600.0	0.08510744166	-0.1031965647	
600.625	0.1715172089	-0.1315038753	
601.25	0.02514040112	-0.2424763992	
601.875	-0.07320155853	-0.03968813327	
602.5	-0.1645097408	-0.1410235893	
603.125	-0.08482157932	0.1423365496	
603.75	-0.08531535272	-0.08538792556	
604.375	-0.1993880097	0.09361839737	
605.0	0.02434201865	0.1341018999	
605.625	-0.154502878	-0.01220727296	
606.25	-0.03346045667	0.1349113052	
606.875	-0.07368219558	0.0210082481	
607.5	-0.2346328085	0.1523365308	
608.125	0.05676527162	0.2737673474	
608.75	0.1701825025	0.2109846404	
609.375	0.2715266886	0.01546090521	
610.0	0.1349426118	-0.1982717687	
610.625	0.03378802007	-0.08299675858	
611.25	0.074751418	-0.1540619747	
611.875	-0.1498479732	-0.05475918006	
612.5	-0.06105710948	-0.09894687392	
613.125	-0.2898229242	0.01991964239	
613.75	0.04284866119	0.1632141885	
614.375	-0.09465865335	0.1447658961	
615.0	0.1545710171	0.07401241275	
615.625	-0.08726522382	0.01460844696	
616.25	-0.1140074973	0.2261390175	
616.875	-0.07604754626	0.06817209121	
617.5	-0.1274283667	0.1238896558	
618.125	0.0335981993	0.1803359207	
618.75	0.1187224594	0.1446552452	
619.375	0.1983922624	0.06438344284	
620.0	0.242057226	0.05939324489	
620.625	0.08887099332	-0.2334410598	
621.25	-0.0331601425	-0.1070871806	
621.875	-0.2527970709	-0.1808699551	
622.5	-0.1494300702	0.1204245005	
623.125	-0.09810362611	0.09966807084	
623.75	0.1939207632	0.06024628157	
624.375	-0.05445578898	-0.07108391744	
625.0	0.1198638304	-0.009985433589	
625.625	-0.03742852297	-0.1003814366	
626.25	0.02831776359	-0.09907710786	
626.875	-0.1698508458	-0.1151941765	
627.5	-0.1230796669	0.04192724101	
628.125	-0.03056044311	-0.1083860866	
628.75	-0.09999385987	-0.1252157081	
629.375	-0.09995547652	-0.1183536048	
630.0	-0.1205855936	-0.1157190507	
630.625	-0.2353822969	0.1162861537	
631.25	-0.07510592265	0.1342879715	
631.875	-0.09775360611	0.1306040418	
632.5	0.176470003	0.2168271547	
633.125	0.1540108338	0.002068448817	
633.75	0.1560352832	0.06932062112	
634.375	0.0413676767	-0.2276512393	
635.0	0.00479955526	0.006775891278	
635.625	-0.1459006105	-0.1812388255	
636.25	-0.1237090283	0.1353619737	
636.875	-0.03669377515	0.03673376947	
637.5	-0.1207013137	0.1470973431	
638.125	0.02724079143	0.03910931148	
638.75	-0.1600718643	0.1385831545	
639.375	0.05353390376	0.3066961211	
640.0	0.1236534553	0.1280809103	
640.625	0.1452886593	0.2151856645	
641.25	0.3177877753	-0.01714863959	
641.875	0.04955355304	-0.2443699121	
642.5	0.1140646249	-0.08783354782	
643.125	-0.2055295372	-0.173911752	
643.75	-0.02176250564	-0.02171628825	
644.375	-0.2595453887	-0.1453503908	
645.0	-0.02910397217	0.3178486004	
645.625	-0.06465721987	0.05671998591	
646.25	0.2164575423	0.2376015165	
646.875	0.04320567399	-0.2192314014	
647.5	0.009773634406	0.1750164224	
648.125	0.2172110324	-0.07311560838	
648.75	0.08834508382	-0.03219110784	
649.375	0.3762049812	-0.1729154526	
650.0	0.05381703015	-0.3994202452	
650.625	0.07401668586	-0.07266876938	
651.25	0.3379387851	-0.219853468	
651.875	0.1448683067	-0.2959605262	
652.5	0.1530449329	0.04305750668	
653.125	0.4025477988	-0.05729183783	
653.75	0.103073828	-0.2870334747	
654.375	0.03005237701	-0.08407196924	
655.0	-0.3486389213	-0.2589313922	
655.625	-0.02343538431	0.3603202938	
656.25	-0.02587358159	-0.00756004329	
656.875	0.07052337089	0.1991127854	
657.5	0.003983174292	-0.1079059073	
658.125	0.1048931557	0.3942303219	
658.75	0.3507977995	-0.03933061538	
659.375	0.1579819491	-0.07318451107	
660.0	0.3779191388	-0.229165948	
660.625	0.03364439611	-0.4443665562	
661.25	0.09384932089	-0.1049688185	
661.875	0.3336568218	-0.23050801	
662.5	0.1856912077	-0.305968871	
663.125	0.1468072711	-0.06137495799	
663.75	0.2774132546	-0.2948368457	
664.375	-0.1418032493	-0.2897733917	
665.0	-0.1303572964	-0.1882928826	
665.625	-0.3855921481	0.01243405066	
666.25	-0.01627342387	0.3129410282	
666.875	-0.03233284638	0.1044912652	
667.5	0.2337022511	0.1567568588	
668.125	0.09757862089	-0.1524460586	
668.75	0.1940227311	0.02778167576	
669.375	0.1255638734	-0.3143464995	
670.0	-0.07798721011	-0.1169835735	
670.625	0.1570979121	-0.2283761871	
671.25	0.005188003652	-0.2728320342	
671.875	0.02784307747	-0.0677973216	
672.5	0.3479522157	-0.1297004463	
673.125	0.1029540845	-0.2332467925	
673.75	0.122243835	-0.1031238209	
674.375	0.1605884567	-0.2821115702	
675.0	-0.2022824563	-0.2373082016	
675.625	-0.01574795399	-0.1376034103	
676.25	-0.2442040904	-0.1177778609	
676.875	-0.1360421489	0.1047821591	
677.5	-0.06290327798	-0.06588016768	
678.125	-0.2914624712	0.1950248282	
678.75	0.1452721967	0.1491531147	
679.375	0.05888581018	0.1233140275	
680.0	0.331650346	-0.1155634251	
680.625	-0.180302725	-0.1052327832	
681.25	0.306819565	0.1730513164	
681.875	0.2057611587	-0.1700323433	
682.5	0.001030378121	0.09731440567	
683.125	0.2917836567	0.2797076463	
683.75	0.2005931715	-0.2121815508	
684.375	0.043945543	0.1381989288	
685.0	0.3859973444	0.1151218686	
685.625	0.2815061718	-0.1200744505	
686.25	0.1363606117	0.1137445622	
686.875	0.5074897109	-0.1758384588	
687.5	0.05001330102	-0.2622991102	
688.125	0.1344025534	-0.3580517059	
688.75	-0.4594621514	-0.2749756212	
689.375	-0.119119171	0.339271694	
690.0	-0.1157992324	0.2733952589	
690.625	0.4025162995	0.3438860411	
691.25	0.2080578221	0.06163624138	
691.875	0.380750906	0.6752559965	
692.5	0.8000978772	0.05200046791	
693.125	0.3825520293	-0.0696259791	
693.75	0.697344631	-0.1047463523	
694.375	0.2237175335	-0.5206176636	
695.0	0.2258226126	-0.1680143977	
695.625	0.6872943825	0.0272463311	
696.25	0.3097787948	0.07159752312	
696.875	0.2037704936	0.2992543723	
697.5	0.3257361117	0.3676117089	
698.125	0.5931324654	0.1154744402	
698.75	0.3489740413	-0.3088750656	
699.375	-0.2294816199	-0.4398987352	
700.0	-0.2587914355	0.3995035181	
700.625	0.06270004497	0.1257160309	
701.25	0.1774763375	0.3651954815	
701.875	0.3184899434	0.04366394742	
702.5	0.15278033	0.2738850858	
703.125	0.4969007579	0.2033384289	
703.75	0.3024055612	-0.2460230458	
704.375	0.2030186318	0.001758509202	
705.0	0.2213412776	-0.236936844	
705.625	0.1322817802	-0.09351743336	
706.25	0.1376515536	0.3036351393	
706.875	0.2334376708	0.2049081918	
707.5	0.1763109076	0.2663962375	
708.125	0.3253144836	0.1408626229	
708.75	0.3263807174	-0.311550036	
709.375	-0.4004577199	-0.2945353824	
710.0	-0.2397907148	0.03189849002	
710.625	0.04050348117	0.4404278965	
711.25	0.02324058238	0.02672343108	
711.875	0.2226343584	0.2445382409	
712.5	0.2828803665	-0.1754706534	
713.125	0.1867161752	-0.02262659728	
713.75	0.2252540368	-0.2707721154	
714.375	-0.08242612104	-0.2305054476	
715.0	0.04072894261	-0.0827865926	
715.625	0.0367089916	-0.2620729286	
716.25	-0.007696272011	-0.1907795432	
716.875	0.3162676896	0.005373645645	
717.5	0.5060488369	-0.007234826855	
718.125	0.3546005371	-0.0851990206	
718.75	0.422278524	0.1113598712	
719.375	0.6969831545	-0.3944388777	
720.0	0.2272180425	-0.4091804459	
720.625	0.5625597105	-0.8010441811	
721.25	-0.1823126691	-1.676974535	
721.875	-0.1441487128	-0.5145071353	
722.5	-0.1766212992	-1.080015811	
723.125	-0.949547906	-0.03244181011	
723.75	-0.1238613006	0.2293404984	
724.375	-0.2535253245	0.4914569306	
725.0	0.3842381254	0.244517359	
725.625	0.001835158024	0.2902104165	
726.25	-0.0357476557	0.7804513125	
726.875	0.2281864942	0.8319596873	
727.5	-0.2943352394	0.7266762886	
728.125	-0.5431649154	2.022797712	
728.75	0.4933016001	2.315592174	
729.375	-0.4862927014	1.516531911	
730.0	-1.036567819	4.126336671	
730.625	1.536890664	2.749284988	
731.25	-1.521660998	1.999255304	
731.875	-4.436358299	1.985185734	
732.5	-2.351439501	1.923446367	
733.125	-1.458603146	-0.4732596713	
733.75	-1.145512223	1.36728752	
734.375	0.7467469589	-0.06862444735	
735.0	0.2390857715	-0.1705022127	
735.625	-0.9010420977	0.1324110306	
736.25	0.1890314022	0.212921548	
736.875	0.07820670581	0.8975062524	
737.5	1.285107818	0.0177559116	
738.125	0.6351202981	-0.6271352143	
738.75	1.648045026	0.06447113878	
739.375	3.32995863	-2.942181804	
740.0	0.2798480525	-2.033606257	
740.625	1.529942358	2.765729629	
741.25	3.754954201	3.805831238	
741.875	0.7661882446	-1.774727167	
742.5	-0.3808643177	-4.843861782	
743.125	-0.6792441124	-2.082325664	
743.75	0.03803884466	0.03033425766	
744.375	-0.4531460166	-0.5310768075	
745.0	0.1692865312	0.09810577389	
745.625	0.04118759273	0.08751944798	
746.25	-0.1077440123	-0.181207012	
746.875	-0.09304908749	0.01563813739	
747.5	-0.2481508506	0.3644840605	
748.125	0.234043036	0.4920647866	
748.75	0.1880174213	0.2619023747	
749.375	0.02053710994	0.513130005	
750.0	-0.2751040417	0.3724271743	
