!Created with skrf (http://scikit-rf.org).
# GHz S RI R (50+0j) 
!freq	ReS11	ImS11	
500.0	0.2374885289	-4.155895202	
500.625	-0.073108016	-1.749241287	
501.25	-0.7602746487	-2.284467586	
501.875	-1.867686498	-1.941368487	
502.5	-0.4497209355	-0.06773380447	
503.125	-0.1806982311	-0.1090266184	
503.75	0.2772537026	0.4268283001	
504.375	-0.03412959588	0.07325527753	
505.0	0.1220014895	-0.2313379175	
505.625	0.04769400975	0.1333827538	
506.25	-0.4366834417	-0.6849259988	
506.875	0.7259527726	0.3929774296	
507.5	0.5885166537	-1.822975756	
508.125	-0.4191670091	-3.11619108	
508.75	-0.3529582614	-2.074902525	
509.375	1.582401132	-5.184826292	
510.0	-2.095036322	0.6025134775	
510.625	-0.143920484	-0.3750013813	
511.25	-0.6277993202	-0.1370253631	
511.875	-0.3267844334	-0.1594805245	
512.5	-0.1301848313	0.1524183769	
513.125	-0.05145374672	-0.3640320478	
513.75	-0.3453574174	0.0738297	
514.375	0.1015310778	-0.397831513	
515.0	-1.711004242	0.100739108	
515.625	2.083139278	-2.091155186	
516.25	-3.343816769	-2.154599314	
516.875	0.5021672571	-0.141727716	
517.5	-0.2321839947	-1.341990818	
518.125	0.08487160523	0.3544698478	
518.75	-0.242737011	-1.057296182	
519.375	-0.1331873551	0.2484931797	
520.0	0.174198305	0.1923727419	
520.625	0.6824296467	-0.188693109	
521.25	-0.2607397953	-0.6744583905	
521.875	-0.2237891134	-0.1769982086	
522.5	-0.1862834923	0.2642707275	
523.125	-0.1983994337	-0.1544225479	
523.75	-0.2573734361	0.08426339924	
524.375	-0.4612259569	-0.1577229019	
525.0	0.2531756284	0.6885362957	
525.625	-0.1124023792	-0.05643494521	
526.25	0.1881557382	0.06963660322	
526.875	-0.3611016883	0.01503415593	
527.5	0.1455576046	0.8595295309	
528.125	0.03790098612	0.3148612277	
528.75	-0.2053116815	1.074042045	
529.375	0.2655383993	-0.06121786002	
530.0	-0.02091410506	0.8705889746	
530.625	0.2440295914	0.5089413997	
531.25	1.524856794	0.8818223994	
531.875	0.0660508143	-0.8488243887	
532.5	0.2593529618	-0.3434902593	
533.125	-0.5560239286	-0.1096574986	
533.75	0.9133355138	-0.7257437996	
534.375	-0.690034803	-0.5942533859	
535.0	-0.2385840344	-0.5369033867	
535.625	-0.7244238439	0.5714211661	
536.25	0.07916512119	0.1129365905	
536.875	0.2200778362	0.1884287228	
537.5	0.221374396	-0.2060908628	
538.125	0.1427592689	-0.03462237545	
538.75	0.5373865829	-0.3901943805	
539.375	-0.2672160146	-0.2390678168	
540.0	-0.2197537945	-0.493774177	
540.625	-0.6194966338	0.007861694693	
541.25	-0.05456844536	0.05458024214	
541.875	-0.09206491513	-0.1164814396	
542.5	-0.2172705833	-0.153671029	
543.125	-0.08295527434	0.06792870159	
543.75	-0.2782093911	-0.2810519611	
544.375	0.02400055893	0.3250700384	
545.0	-0.2693168989	0.03331182733	
545.625	0.3927247064	0.1649615247	
546.25	-0.04019132641	0.07657247914	
546.875	0.6063870664	-0.03910824388	
547.5	-0.1030026768	-0.2146623673	
548.125	0.1441053541	-0.3821056177	
548.75	-0.4251841822	-0.4530691136	
549.375	-0.294873932	0.0111504915	
550.0	-0.1557887966	-0.1866907293	
550.625	-0.1402175157	0.1738299736	
551.25	-0.1768909345	-0.08722059609	
551.875	-0.2321009042	0.3073674434	
552.5	-0.04703242167	0.0897435677	
553.125	-0.09863926762	0.2052707559	
553.75	0.1359475968	0.1095708956	
554.375	0.2146716008	0.02712130252	
555.0	0.2835779384	-0.1583436761	
555.625	0.214103897	-0.2725871552	
556.25	0.1775205667	-0.3366650762	
556.875	-0.06375182573	-0.4201449258	
557.5	-0.247928452	-0.271228726	
558.125	-0.2756123013	-0.1071371671	
558.75	-0.2778963669	-0.04165134013	
559.375	-0.2911975952	0.07401774162	
560.0	-0.2005133669	0.1493354231	
560.625	-0.1977614738	0.2541934735	
561.25	0.0691795385	0.3070773924	
561.875	0.003913414532	0.0263750495	
562.5	0.1106085932	0.2291495101	
563.125	0.02663403176	0.140622072	
563.75	0.4809548631	0.0633066206	
564.375	0.1657247615	-0.30374161	
565.0	0.3067210007	-0.1820594425	
565.625	-0.1035629627	-0.5383485291	
566.25	-0.3252911865	-0.1481105894	
566.875	-0.1668503044	-0.2263874973	
567.5	-0.4577214959	-0.4452915127	
568.125	-0.4238881159	-0.1561702397	
568.75	-0.4278220507	-0.4987926502	
569.375	-0.6946861211	0.4550899181	
570.0	-0.200251688	0.2378232893	
570.625	-0.4481413409	0.5865714036	
571.25	0.3417172879	0.2429034708	
571.875	-0.2097245365	0.3435887042	
572.5	0.6350797148	-0.1764520006	
573.125	-0.08492388433	-0.1553820823	
573.75	0.4335503682	-0.09711648607	
574.375	-0.1593414077	-0.4507445006	
575.0	0.1890713729	0.2163943195	
575.625	0.01873549898	-0.4835114545	
576.25	-0.004442930246	0.07543085778	
576.875	0.251955699	-0.5811421109	
577.5	-0.258478884	-0.5044610553	
578.125	-0.06731388441	-0.12808244	
578.75	0.02086159529	-0.4233029116	
579.375	-0.4438344792	-0.310036205	
580.0	0.05555517313	0.1781224502	
580.625	-0.3444359639	-0.3240565561	
581.25	-0.0002567201672	0.3398290289	
581.875	-0.2963074504	0.143719089	
582.5	0.1900715157	0.7395746173	
583.125	0.3626803417	-0.2021571244	
583.75	-0.2635518503	0.3578606535	
584.375	0.4977339918	-0.1710201967	
585.0	-0.146263375	0.3179173504	
585.625	0.7388696074	0.02260552629	
586.25	0.09275585265	-0.2855702575	
586.875	0.4889155678	-0.1276549277	
587.5	-0.2564418624	-0.5552511799	
588.125	0.05462213707	-0.01479205649	
588.75	0.3667506401	-0.4903340179	
589.375	-0.04104015573	-0.5526388746	
590.0	0.05677612615	-0.2306815484	
590.625	-0.4497791618	-0.3431031493	
591.25	-0.36269373	0.4354477209	
591.875	0.005463325307	0.1020923968	
592.5	-0.154193628	0.274604457	
593.125	-0.006372892066	-0.09858474271	
593.75	0.1378915904	0.546012351	
594.375	0.4436954445	0.04417723485	
595.0	0.06475242793	0.2402095822	
595.625	0.6053626748	0.680044749	
596.25	0.4131658224	-0.3712603294	
596.875	0.09434187255	0.4016472779	
597.5	0.6587855688	0.28877458	
598.125	0.1141343749	0.06739873815	
598.75	0.5760534696	0.555166531	
599.375	0.3456768621	-0.2811649668	
600.0	0.4700417654	-0.04213093309	
600.625	0.5525663391	-0.5508774074	
601.25	-0.01804143183	-0.470072489	
601.875	0.03104738974	-0.3032687947	
602.5	-0.3374485975	-0.1391896279	
603.125	-0.395667082	0.07637304358	
603.75	-0.05988618489	0.1649112129	
604.375	-0.4047243286	-0.000216794378	
605.0	-0.09403401334	0.4093208984	
605.625	-0.2028960739	-0.1524736758	
606.25	-0.3691388954	0.3825175528	
606.875	-0.1625455186	0.02148063572	
607.5	-0.8963535368	0.360462624	
608.125	0.3839390844	0.627110465	
608.75	-0.02891448845	0.4363341023	
609.375	0.9124506516	0.03839016727	
610.0	0.08620568213	-0.2930194005	
610.625	0.5517123546	-0.3345198087	
611.25	-0.1481088723	-0.4297231603	
611.875	0.07555797783	-0.3085386136	
612.5	-0.712840861	-0.05337896811	
613.125	-0.2587959429	-0.04426101149	
613.75	-0.4940790517	0.4848344699	
614.375	0.2588706107	0.07286408529	
615.0	0.01528828253	0.3658407059	
615.625	0.1331477369	-0.03444587722	
616.25	-0.4492864326	0.3868319339	
616.875	0.005257936505	0.7174170261	
617.5	-0.2414855368	0.1241793379	
618.125	-0.2151230264	0.7972753699	
618.75	0.2313672912	0.290922744	
619.375	-0.07836973428	0.4773221042	
620.0	0.5932164933	0.04246276678	
620.625	0.2655218091	-0.1878587591	
621.25	-0.2674390947	-0.5398324234	
621.875	-0.3092669937	-0.197700201	
622.5	-0.7117024104	0.0495581495	
623.125	0.03434339037	0.3612882752	
623.75	0.1851658741	0.3809495138	
624.375	0.05563024325	-0.3882420969	
625.0	0.2131741165	0.217658026	
625.625	-0.03564752749	-0.6015994809	
626.25	0.1541366151	0.02489204755	
626.875	-0.3831788089	-0.524603555	
627.5	-0.4568892896	0.1086870397	
628.125	0.0004552185025	-0.1999373497	
628.75	-0.3705334408	-0.5076466464	
629.375	-0.06705632201	-0.1734001769	
630.0	-0.438365026	-0.4894866724	
630.625	-0.6102828829	0.3105063115	
631.25	-0.2145337382	0.2063072377	
631.875	-0.3169256409	0.676837911	
632.5	0.3784750299	0.5226172247	
633.125	0.5428686317	0.07681350793	
633.75	0.2565645023	-0.016974178	
634.375	0.4477632079	-0.5372474748	
635.0	-0.1525567843	-0.05513214316	
635.625	-0.2679044938	-0.5187072372	
636.25	-0.3965285135	0.3898403675	
636.875	-0.1194980369	-0.1096342845	
637.5	-0.2598153249	0.6395522978	
638.125	0.150036956	-0.09486887568	
638.75	-0.7189892093	0.3894447557	
639.375	0.2532512347	0.9015726126	
640.0	0.3177850664	0.2447211244	
640.625	0.252041791	0.709491856	
641.25	0.9925731778	-0.06741929172	
641.875	0.123279121	-0.2057821175	
642.5	0.4099342055	-0.8128871587	
643.125	-0.45531078	0.137474469	
643.75	0.0235131206	-0.4720608561	
644.375	-0.8100766819	0.09359680595	
645.0	-0.05829520632	0.3966529039	
645.625	-0.1673830522	0.2404178617	
646.25	0.4955592517	0.6925333585	
646.875	0.2580627739	-0.4703246025	
647.5	-0.09564455246	0.5583947358	
648.125	0.7101270703	-0.316677336	
648.75	0.1487450633	0.4297932459	
649.375	1.079815404	-0.9401030863	
650.0	-0.2480735845	-0.7680913803	
650.625	0.6771915836	0.02862092523	
651.25	1.101910892	-1.1795136	
651.875	-0.1622694926	-0.597268288	
652.5	0.6828758862	0.440694553	
653.125	1.126977184	-0.4699502646	
653.75	-3.30479183e-05	-0.4360489097	
654.375	0.5737524449	-0.9230688429	
655.0	-1.042308791	-0.06737367325	
655.625	-0.0387084526	0.1823514796	
656.25	-0.469055611	0.5311546106	
656.875	0.6066908273	0.2057409312	
657.5	-0.4162626175	0.1364427672	
658.125	0.5372918497	0.6857745898	
658.75	0.7638938806	-0.02486645501	
659.375	0.4241064231	-0.03210323769	
660.0	1.180171471	-0.8211933515	
660.625	-0.204935629	-0.7507429727	
661.25	0.7209574036	-0.3018799457	
661.875	0.8565972798	-0.9570628245	
662.5	0.04043559278	-0.6383537569	
663.125	0.8497648631	0.2441211114	
663.75	0.4928567018	-1.228186734	
664.375	-0.2227707832	-0.3344090621	
665.0	-0.3532941912	-0.9238698124	
665.625	-0.9119898119	0.5407706875	
666.25	-0.3299548625	0.1871015933	
666.875	0.2145755629	0.8634797385	
667.5	0.557200735	-0.032931952	
668.125	0.1865563261	0.2718655456	
668.75	0.885958406	-0.3678337448	
669.375	0.001213663767	-0.606613829	
670.0	0.05728742394	-0.3201900798	
670.625	0.2748555637	-0.5449698635	
671.25	-0.1692019308	-0.578364461	
671.875	0.5425897931	-0.09629586388	
672.5	0.5908917766	-0.5767251339	
673.125	0.2442981315	-0.3345739496	
673.75	0.7441568154	-0.1775816156	
674.375	0.05953275859	-1.193464866	
675.0	-0.3314119712	0.08622598214	
675.625	-0.08761680061	-0.8635074966	
676.25	-0.8904235839	0.05161267543	
676.875	0.1310262372	0.05130782501	
677.5	-0.94273173	-0.09686099101	
678.125	0.1056494525	0.3272877259	
678.75	-0.4193292389	0.4828404863	
679.375	1.036891646	0.2457585202	
680.0	-0.1435928158	-0.2332892009	
680.625	0.4761218687	0.08723427456	
681.25	0.3693870981	-0.3220058106	
681.875	0.09530765315	-0.04814334866	
682.5	0.2736553175	0.5306150601	
683.125	0.9737569808	0.2772492537	
683.75	0.3987972221	-0.1544145213	
684.375	0.4454079603	0.6073290429	
685.0	1.309828339	-0.1076450393	
685.625	-0.07704385265	0.1758637101	
686.25	1.470000362	0.1927497663	
686.875	0.2353552159	-0.8846578993	
687.5	0.8674979402	0.2940128181	
688.125	0.2286962432	-2.065500574	
688.75	-0.7626678054	0.3196511513	
689.375	-1.284613905	-0.01946511101	
690.0	0.5675420473	1.17631726	
690.625	0.1595185932	0.2818110387	
691.25	1.188442122	1.153313311	
691.875	0.8819556551	0.3783584631	
692.5	1.263901017	0.811677815	
693.125	1.781187947	0.04265563223	
693.75	1.269595735	-0.5876615532	
694.375	0.9967784724	-0.9152681798	
695.0	0.9154948007	-0.4545288493	
695.625	1.755583035	-0.05181812738	
696.25	1.020894523	-0.07849345318	
696.875	0.2464621294	1.601313843	
697.5	1.729546892	1.152718563	
698.125	0.5685662472	0.653279835	
698.75	2.032214205	-0.9364980237	
699.375	-1.385794828	-0.5596774267	
700.0	-1.015604761	-0.1928741057	
700.625	0.7884226401	1.215250907	
701.25	0.177515716	0.1516903479	
701.875	0.9676522456	1.209150112	
702.5	0.6313155988	0.1068660875	
703.125	0.9331875964	0.7163949129	
703.75	1.094860908	-0.5111552218	
704.375	0.3624188711	0.1020487519	
705.0	0.9300866925	-0.5295351246	
705.625	0.1611038647	-0.1132686015	
706.25	0.6314989657	1.197924624	
706.875	1.074530946	0.3094568511	
707.5	-0.007252098774	0.9672019547	
708.125	1.494180536	0.6878261527	
708.75	0.4347256505	-0.8804688893	
709.375	-0.1304401392	-1.004743709	
710.0	-0.6782508895	0.8393338253	
710.625	-0.01447581963	0.08820173473	
711.25	0.3667395508	0.5302460408	
711.875	0.4221107657	0.2459613246	
712.5	0.776723287	0.02573442163	
713.125	0.5196886271	-0.2783041718	
713.75	0.6978612094	-0.6243826352	
714.375	-0.3113494303	-0.6818171941	
715.0	0.5388335635	-0.104863339	
715.625	-0.2513449833	-1.081257112	
716.25	0.1334136935	0.07489570453	
716.875	1.82676084	-0.362311577	
717.5	0.891250661	-1.316382073	
718.125	1.109925726	2.254994637	
718.75	3.531135363	-0.8720772676	
719.375	0.5245990594	-1.444686585	
720.0	3.261195058	-0.4791096987	
720.625	0.5802297107	-4.166949628	
721.25	-0.2413630852	-1.240880923	
721.875	0.323553912	-3.332447621	
722.5	-2.355090411	-2.127802026	
723.125	-1.099705126	-0.4818392697	
723.75	-1.809375329	1.119937836	
724.375	0.450835634	1.059870953	
725.0	0.174823315	0.7256347827	
725.625	-0.002101884487	1.329695343	
726.25	0.7656970103	2.471210158	
726.875	0.339830018	0.8284493158	
727.5	-2.897607102	3.875171689	
728.125	1.419241023	7.110932577	
728.75	-0.4180832933	0.4493676339	
729.375	-8.560571223	20.14285553	
730.0	10.74971949	7.37448754	
730.625	-7.424714225	5.452848253	
731.25	-3.573818018	23.39287288	
731.875	2.603114908	5.808285695	
732.5	-10.88791225	-4.713220748	
733.125	-9.007574925	1.510967473	
733.75	-1.46647368	4.049227648	
734.375	0.02802373215	2.172864097	
735.0	-0.4253027179	-2.653740294	
735.625	-0.4067074408	-0.2079139917	
736.25	-1.072369842	1.580761673	
736.875	2.101386468	1.437146832	
737.5	1.075355764	-0.3398477964	
738.125	4.350004841	1.908305431	
738.75	8.773983959	-6.428885801	
739.375	-0.1623555532	-8.444089099	
740.0	9.614874671	8.770528701	
740.625	26.07010208	-11.99476247	
741.25	-7.417410988	-14.03297135	
741.875	-20.35907792	-0.7581608515	
742.5	-1.742508754	6.969497489	
743.125	11.74615628	-10.14601153	
743.75	-2.652342164	-6.537668354	
744.375	-0.7066742691	0.6525757861	
745.0	-0.3059344318	0.0733830672	
745.625	0.4785332009	-0.2019982802	
746.25	0.2081885152	-0.02754508529	
746.875	-1.170522941	0.196485518	
747.5	0.1153913572	0.9802848983	
748.125	-0.02336511184	1.483585813	
748.75	0.7139485537	1.650375436	
749.375	0.3798676742	1.144854232	
750.0	-1.548445377	-0.2928568799	
