!Created with skrf (http://scikit-rf.org).
# GHz S RI R (50+0j) 
!freq	ReS11	ImS11	
500.0	0.5224831916	-1.053394102	
500.625	2.268058535	-3.700117072	
501.25	-2.312805553	-1.108146621	
501.875	-1.011781747	-0.2560491647	
502.5	0.1122030687	-0.4449694265	
503.125	-0.3748234734	0.1929911779	
503.75	0.01431420518	-0.03857370234	
504.375	0.2124096655	-0.01102444003	
505.0	-0.09665770652	0.02977483959	
505.625	0.1186041432	-0.404177023	
506.25	-0.2224357818	0.3842160063	
506.875	-0.8864906106	-1.053082806	
507.5	-1.773403629	-0.6164715884	
508.125	0.5386828983	-0.2157291649	
508.75	2.946599718	-3.77338788	
509.375	-2.397538365	-4.047752522	
510.0	-0.6075881731	-1.146025104	
510.625	-0.8063083836	-0.7025343453	
511.25	-0.1542742191	-0.1082455984	
511.875	-0.5826909262	-0.2174628582	
512.5	-0.08067353532	0.2738290209	
513.125	-0.04404946686	-0.2306853354	
513.75	-0.04821813943	-0.3478464919	
514.375	-0.6984129932	0.01073947542	
515.0	1.522714759	0.1815061141	
515.625	-2.790813123	-1.956652891	
516.25	1.27285624	-0.2967659679	
516.875	-1.16925103	-2.927138318	
517.5	-0.7384282993	0.3812874436	
518.125	-0.005598383642	-0.5264812945	
518.75	-0.5818487969	0.1217408936	
519.375	-0.2276832906	0.01444171831	
520.0	0.5006339733	0.2415575754	
520.625	0.321900054	-0.2771935056	
521.25	0.2883774889	-0.6532972705	
521.875	-0.5622573569	-0.06217513278	
522.5	-0.04049524824	-0.01211802161	
523.125	-0.1917365189	0.2977310426	
523.75	-0.2481270806	-0.1253650425	
524.375	-0.4390397182	0.3922864474	
525.0	-0.1950369526	0.03092042127	
525.625	0.1429797476	0.412230089	
526.25	-0.2171216528	-0.2566995612	
526.875	0.01932639644	0.3124479119	
527.5	-0.1738009804	0.1927250908	
528.125	0.03278104996	1.277866665	
528.75	0.5152832673	0.4829031967	
529.375	-0.07539381821	0.3952891972	
530.0	0.2322955508	0.1417020836	
530.625	0.07313040014	1.273379539	
531.25	1.018131537	-0.2802082405	
531.875	0.8772636603	0.07446694534	
532.5	-0.6002124372	-0.4561826761	
533.125	0.8610930872	0.03390239548	
533.75	-0.2284583718	-0.6676699016	
534.375	0.2881129963	-0.7363577029	
535.0	-1.07184973	-0.1969492249	
535.625	-0.1316972411	0.09007016552	
536.25	-0.1349051737	0.2895426722	
536.875	0.3709820057	-0.01784324215	
537.5	0.07106819868	-0.01191620785	
538.125	0.4738233952	-0.2095285136	
538.75	0.1422311813	-0.2807214634	
539.375	-0.0006661108576	-0.5154011085	
540.0	-0.6496195282	-0.3315310013	
540.625	-0.1586873829	-0.06912235916	
541.25	-0.3285928052	-0.06901046807	
541.875	-0.1521880521	0.01417102883	
542.5	-0.02605999103	-0.03648666425	
543.125	-0.2165964221	-0.3160086775	
543.75	-0.2869106765	0.2934692596	
544.375	-0.1698483053	-0.1595429862	
545.0	0.119792603	0.311645022	
545.625	-0.1712332351	0.01130925279	
546.25	0.5131644076	0.2071180869	
546.875	0.02860627899	-0.1267208445	
547.5	0.4363365842	-0.215778526	
548.125	-0.3135251244	-0.5496209704	
548.75	-0.180270604	-0.1023939492	
549.375	-0.1950367816	-0.3565687028	
550.0	-0.286079238	0.1382715989	
550.625	-0.02859569643	-0.1303406558	
551.25	-0.2781942259	0.1909398366	
551.875	-0.1031639346	0.05289320125	
552.5	-0.2140047121	0.2526017814	
553.125	0.01420646175	0.1415094308	
553.75	0.08293532123	0.1513844981	
554.375	0.2687850788	0.009126848744	
555.0	0.2326549497	-0.1690980045	
555.625	0.2403533462	-0.2365141592	
556.25	0.1878996119	-0.3615875319	
556.875	-0.08129526918	-0.4067137587	
557.5	-0.2171931478	-0.2658426985	
558.125	-0.2921585076	-0.1261291298	
558.75	-0.2716322852	0.001322289219	
559.375	-0.2435299264	0.0112581672	
560.0	-0.2941563113	0.1821346819	
560.625	-0.07564464732	0.2938343622	
561.25	-0.03789332486	0.1712446776	
561.875	0.1237306664	0.1988381366	
562.5	-0.04281210012	0.021190492	
563.125	0.2535481469	0.2907935843	
563.75	0.2153352027	-0.09253707934	
564.375	0.4321644587	-0.07871391674	
565.0	0.1629822705	-0.5116547074	
565.625	-0.0831951831	-0.221582776	
566.25	-0.1547674683	-0.36646127	
566.875	-0.4954099473	-0.212093754	
567.5	-0.2066977821	-0.1028974511	
568.125	-0.2600078993	-0.6290421154	
568.75	-0.6968695361	-0.03598433679	
569.375	-0.4116442518	-0.01690891745	
570.0	-0.542569613	0.7061946612	
570.625	0.1404666663	0.3650286778	
571.25	-0.3417226772	0.1594023152	
571.875	0.536115596	0.2262367478	
572.5	-0.06425720665	0.1355144252	
573.125	0.5732815816	-0.320030643	
573.75	-0.1394112606	-0.4591582392	
574.375	0.1797115506	0.1415481108	
575.0	0.00786491585	-0.4491335115	
575.625	0.1723747278	0.1648740769	
576.25	0.3021302578	-0.5157883302	
576.875	-0.2940902187	-0.2785278128	
577.5	0.2230317331	-0.1508697644	
578.125	-0.01342207883	-0.6574794216	
578.75	-0.4190931152	-0.2340486155	
579.375	-0.008621727881	-1.171848384e-06	
580.0	-0.214392241	-0.3745725123	
580.625	-0.01483698301	0.1874346461	
581.25	-0.5187823073	-0.06818228644	
581.875	0.2062696617	0.5942201212	
582.5	0.1237611216	-0.03891762194	
583.125	-0.1578234314	0.4927541634	
583.75	0.5677268296	-0.2351815313	
584.375	-0.3604695199	0.3713348793	
585.0	0.6314061366	0.1160817129	
585.625	0.02406622075	-0.1068544741	
586.25	0.626262697	0.110024771	
586.875	-0.04999520098	-0.5258575464	
587.5	0.190252715	-0.119660316	
588.125	0.01680908675	-0.6382037822	
588.75	-0.2252478454	-0.2584384352	
589.375	0.4646174411	-0.08433744789	
590.0	-0.1937409695	-0.6589435307	
590.625	-0.404885408	0.01374741971	
591.25	-0.2673921814	0.06666219865	
591.875	-0.3081146534	0.407077765	
592.5	0.2227611412	-0.03576388291	
593.125	-0.1821859109	0.2951979043	
593.75	0.1604407292	0.113016804	
594.375	0.141141281	0.4812578486	
595.0	0.7889295649	0.355788882	
595.625	0.1655350232	-0.1749054046	
596.25	0.3194187365	0.5985144321	
596.875	0.7063207144	-0.1270478046	
597.5	0.02595944698	0.139331962	
598.125	0.4829906839	0.5843630294	
598.75	0.3382516685	-0.0146275891	
599.375	0.563708479	0.2880535126	
600.0	0.4242772793	-0.5987759388	
600.625	0.177535955	-0.2395381966	
601.25	0.4120659949	-0.3989601385	
601.875	-0.2721830998	-0.4741023646	
602.5	-0.2416974238	0.002192248799	
603.125	-0.2078681235	0.02958380095	
603.75	-0.4209478648	0.06341252359	
604.375	-0.08240505723	0.3453908211	
605.0	-0.275842206	-0.07840831262	
605.625	-0.212693553	0.418492862	
606.25	-0.1284292427	-0.1206298685	
606.875	-0.7949413052	0.3069537284	
607.5	-0.02000680016	0.3791401589	
608.125	-0.5724188013	0.4209808419	
608.75	0.9162876193	0.5049822483	
609.375	0.1777317622	-0.02790111049	
610.0	0.7182383094	-0.1926944515	
610.625	-0.04770151738	-0.4530814239	
611.25	0.3578538758	-0.273247791	
611.875	-0.4330222833	-0.2761311643	
612.5	-0.1500182433	-0.2708659236	
613.125	-0.6233031571	0.06284398125	
613.75	-0.08502777334	0.2365989568	
614.375	-0.08801196461	0.5450030798	
615.0	0.1846287251	-0.1189875989	
615.625	-0.2010650769	0.406006528	
616.25	0.2610545506	0.2799760999	
616.875	-0.5173519579	0.2102305989	
617.5	-0.1808797362	0.8472335026	
618.125	0.128123638	0.2478089922	
618.75	-0.2556653117	0.6326046331	
619.375	0.3938518848	0.3161890623	
620.0	0.2564483499	0.2749832103	
620.625	0.3459025612	-0.4788616643	
621.25	-0.09050477499	-0.3542586454	
621.875	-0.6573944121	-0.2756500276	
622.5	-0.3677982088	0.09443552504	
623.125	-0.2933510227	0.4356353883	
623.75	0.4193190211	-0.06468015442	
624.375	0.1444739528	0.2708115585	
625.0	-0.09440144322	-0.3219608278	
625.625	0.3030803703	0.0802983869	
626.25	-0.2361151302	-0.6816459636	
626.875	-0.2872366313	0.1226791901	
627.5	-0.1980383513	-0.4221401501	
628.125	-0.4851740174	-0.0940653832	
628.75	0.03492282676	-0.1653283518	
629.375	-0.2372192002	-0.6319628337	
630.0	-0.3778167407	0.005443862063	
630.625	-0.5901520641	-0.135675857	
631.25	-0.4942728219	0.5808274521	
631.875	0.03629134293	0.5261877199	
632.5	0.2201612648	0.4267409949	
633.125	0.4107208087	0.3395458704	
633.75	0.5579398814	-0.2774495563	
634.375	0.06634234032	-0.1256675298	
635.0	0.2012934369	-0.5739435134	
635.625	-0.4242808692	0.04769926968	
636.25	-0.481212934	-0.1995651631	
636.875	-0.1346537174	0.5950790378	
637.5	0.04565129772	-0.06856262966	
638.125	-0.6521002103	0.4666201919	
638.75	0.3680896437	0.3123333072	
639.375	-0.4627902823	0.3341451335	
640.0	0.3045393362	0.98878636	
640.625	0.7429741302	0.1653942436	
641.25	0.260212581	0.159637313	
641.875	0.8279480874	-0.6678765916	
642.5	-0.2211966088	-0.2105952434	
643.125	-0.01302696658	-0.6562677006	
643.75	-0.715218039	0.08512246329	
644.375	0.06345291384	-0.3302185002	
645.0	-0.742822571	0.4439808227	
645.625	0.3257457201	0.6035057418	
646.25	0.3061777719	-0.1121714097	
646.875	0.1152593682	0.4719591458	
647.5	0.320050307	-0.5296480269	
648.125	0.1827253969	0.7311755722	
648.75	0.9986156429	-0.5230296353	
649.375	-0.03021769915	-0.2675856704	
650.0	1.294513963	-0.6040372424	
650.625	-0.1288267879	-1.28419593	
651.25	0.1526733698	0.1421239895	
651.875	1.404640158	-0.2437465544	
652.5	0.5157512288	-0.8176951413	
653.125	0.2320686292	0.2341980611	
653.75	0.9923489128	-0.654702086	
654.375	-0.5194283386	-0.6021768377	
655.0	-0.1236550889	-0.4987283314	
655.625	-1.036347737	0.6730004109	
656.25	0.4355005806	0.1437276648	
656.875	-0.2831096583	0.254976857	
657.5	0.4058003832	0.3241616869	
658.125	0.0793747833	0.09858387434	
658.75	0.7080033965	0.7557342284	
659.375	0.8811579377	-0.678241713	
660.0	0.3062293198	-0.425497751	
660.625	0.8471646891	-0.6268108133	
661.25	0.07493669872	-1.290019577	
661.875	0.3239300145	0.054505691	
662.5	1.261685587	-0.4876074092	
663.125	0.4006651558	-0.8729129045	
663.75	0.4036414408	-0.05879647102	
664.375	0.1404451566	-1.301311226	
665.0	-0.6370165845	-0.08088434356	
665.625	-0.7931756445	-0.3172722039	
666.25	-0.2923149204	1.012289332	
666.875	0.1968596307	0.0949711566	
667.5	0.4054464748	0.6288887159	
668.125	0.7155750533	-0.2256044463	
668.75	0.1985930531	-0.2526899066	
669.375	0.5137282371	-0.3365140451	
670.0	0.01300935766	-0.8336021563	
670.625	-0.08603368065	-0.1921330318	
671.25	0.3892333182	-0.4391019894	
671.875	0.194100278	-0.6238465519	
672.5	0.372172099	0.02899465414	
673.125	0.7814824948	-0.6165879203	
673.75	0.06554312131	-0.5570823572	
674.375	0.3766826374	-0.2177262673	
675.0	0.01398679422	-1.098393388	
675.625	-0.8224625228	0.1681013154	
676.25	0.07892262987	-0.4714486483	
676.875	-0.8446247486	0.1533997198	
677.5	0.08509918168	0.01062189279	
678.125	-0.9426624711	0.306087071	
678.75	0.5352511041	0.3669586799	
679.375	0.115327107	0.437316353	
680.0	0.7701057461	-0.1337173946	
680.625	-0.1055796606	-0.5557080524	
681.25	0.1391448381	0.5449398358	
681.875	0.7066482993	0.05972369335	
682.5	0.4772513642	0.003252603741	
683.125	0.2487395051	0.108154591	
683.75	0.8850284513	0.7042697153	
684.375	0.6338815633	-0.5002990319	
685.0	0.3600736676	0.6503312419	
685.625	1.289730064	-0.05280568453	
686.25	-0.0357505468	-0.2819230521	
686.875	1.714634511	0.3210446988	
687.5	0.04027554463	-1.54007117	
688.125	0.6196830629	-0.2124773722	
688.75	-1.22840231	-1.279504352	
689.375	-0.2642142966	1.122397682	
690.0	-0.4936029117	0.5797463882	
690.625	1.01850339	0.798788302	
691.25	0.3967383716	0.4528539479	
691.875	1.173969125	1.243170887	
692.5	1.534359899	0.2452238368	
693.125	1.41825572	0.1935442359	
693.75	1.523991026	-0.5436258713	
694.375	1.128141939	-0.8423353953	
695.0	1.275483809	-0.9091198304	
695.625	0.8203832596	-0.08299961033	
696.25	1.595537256	0.9386364875	
696.875	1.20729014	0.3247793214	
697.5	0.07600268727	1.507583132	
698.125	2.182194962	0.6808231864	
698.75	0.4963226453	-0.4820024882	
699.375	-0.4663272545	-1.924860401	
700.0	-0.4491134121	1.324747302	
700.625	-0.4500413016	0.3373169528	
701.25	1.043786894	0.6929479998	
701.875	0.2715909176	0.3582271596	
702.5	1.039279125	1.14889243	
703.125	0.9136471355	-0.1093971971	
703.75	0.9976154854	0.2473039392	
704.375	0.7225525263	-0.8599747532	
705.0	0.2727474508	0.03593333813	
705.625	1.479599673	-0.05957906386	
706.25	0.235355363	0.006246173195	
706.875	0.2414891722	1.271283002	
707.5	1.188205298	0.8546261737	
708.125	0.5167438066	0.56573725	
708.75	1.364502343	-0.9235722531	
709.375	-0.8704121717	-0.5568656848	
710.0	-0.6215542821	0.063568963	
710.625	0.3170945429	0.6776099683	
711.25	-0.0810975839	0.1783940938	
711.875	0.6188430137	0.4625508553	
712.5	0.6347654826	0.03867431597	
713.125	0.8775932114	-0.6186013177	
713.75	0.05211418853	-0.3675711096	
714.375	0.4690030048	-0.736490601	
715.0	-0.4992645434	-0.4755865326	
715.625	0.5544456155	-0.1090078145	
716.25	0.4319450603	-1.471726658	
716.875	0.02975246494	0.1173000568	
717.5	2.201054054	0.68406824	
718.125	2.201564603	-1.339358077	
718.75	0.3342498622	1.894278443	
719.375	4.280034392	-1.855721606	
720.0	0.01634095595	-1.684034239	
720.625	1.433697943	-1.560811052	
721.25	0.4074806405	-4.241198918	
721.875	-1.054682019	-1.406547793	
722.5	-0.6819327412	-3.041692383	
723.125	-2.449198478	-0.3417465587	
723.75	-0.5471341168	0.7946303503	
724.375	-0.5256616152	1.172641785	
725.0	0.8127247534	1.041679084	
725.625	0.4652542286	0.6569824779	
726.25	-0.5729531776	1.544144792	
726.875	-0.4299160753	3.758002877	
727.5	1.843832888	2.248871696	
728.125	-5.012507648	4.456128863	
728.75	1.995569565	10.62599145	
729.375	1.378592114	1.561229245	
730.0	-12.57752152	18.111724	
730.625	10.44710791	8.470981223	
731.25	-9.074075582	3.449270161	
731.875	-11.65919184	8.326276728	
732.5	-6.857663528	8.311271873	
733.125	-3.147823168	-3.02907436	
733.75	-4.960144015	4.482651157	
734.375	2.13182244	0.7795141411	
735.0	0.7506066767	-0.5822503669	
735.625	-2.378018386	0.50673727	
736.25	0.07122626961	0.08124063952	
736.875	0.5758122373	2.420452274	
737.5	3.617531468	0.547037959	
738.125	3.251049164	-3.221005301	
738.75	1.443832277	2.136371508	
739.375	16.25717088	-5.534408968	
740.0	1.570321189	-15.95421283	
740.625	0.1595972685	14.03876111	
741.25	13.24643266	32.9023639	
741.875	9.425231817	-17.06565132	
742.5	-6.701660186	-15.87210412	
743.125	-6.039586379	-1.950036392	
743.75	3.17601453	0.2370517463	
744.375	-2.590507762	-1.611930033	
745.0	0.6533798362	-0.01210678702	
745.625	0.1759193432	0.270826226	
746.25	-0.1705366208	-0.5184809176	
746.875	-0.05602986708	0.07176199454	
747.5	-0.6820158758	0.8746658129	
748.125	0.9850854889	1.338354207	
748.75	0.2484372521	1.200888621	
749.375	2.338429356	2.749035604	
750.0	-0.5977758234	0.4020845985	
