!Created with skrf (http://scikit-rf.org).
# GHz S RI R (50+0j) 
!freq	ReS11	ImS11	
500.0	-0.4754629748	-1.36992844	
500.625	2.403832183	-2.842218676	
501.25	-3.279525604	-1.79251677	
501.875	-0.9025241981	0.03096383644	
502.5	-0.1164852055	-0.7776414518	
503.125	-0.1085704419	0.2000402199	
503.75	-0.1135804663	0.2701008861	
504.375	0.09585325232	-0.1111075206	
505.0	0.07889841916	0.1171612241	
505.625	-0.1127081213	-0.4220224564	
506.25	-0.02910094725	0.2383488554	
506.875	-0.5933156525	-0.8941583386	
507.5	-1.690098236	-0.6503546777	
508.125	1.425992262	-0.7412432603	
508.75	1.331619427	-5.254066932	
509.375	-2.346270832	-1.788516562	
510.0	-1.323431546	-1.82042245	
510.625	-1.021937049	-0.05281957589	
511.25	-0.158095545	-0.604342461	
511.875	-0.5560151607	-0.2063846767	
512.5	0.0848356997	0.250961073	
513.125	-0.03913641251	-0.1854034177	
513.75	-0.117454089	-0.4737005255	
514.375	-0.503609193	0.3824245948	
515.0	0.948032087	-1.09245355	
515.625	-1.536177435	0.1778429021	
516.25	1.825513175	-3.217966406	
516.875	-2.512350824	-1.732147421	
517.5	0.04334790363	0.3422884768	
518.125	-0.2919842019	-0.3995500199	
518.75	-0.02523564442	0.1689455186	
519.375	-0.3122981506	0.08763245304	
520.0	0.5013274644	0.06883803323	
520.625	0.27377207	-0.1988497064	
521.25	0.2551301936	-1.051652707	
521.875	-0.4446049646	0.1194297978	
522.5	-0.1100114056	-0.01434031785	
523.125	-0.06029368407	0.09997667992	
523.75	-0.4561072247	-0.2286902896	
524.375	-0.123567144	0.2998473157	
525.0	-0.3579839572	0.1981993849	
525.625	0.2966674689	0.2599627818	
526.25	-0.2542114861	-0.01157850947	
526.875	0.05668535579	0.1366334673	
527.5	-0.4491262225	0.3193567709	
528.125	0.4483190407	1.162740237	
528.75	0.02307018084	0.1827748188	
529.375	0.1720742383	0.4396432735	
530.0	-0.06659589677	0.1120194466	
530.625	0.5657032666	1.416676159	
531.25	0.9001868132	-0.01324459418	
531.875	0.8023533925	-0.2901051799	
532.5	-0.4964297705	-0.176948931	
533.125	0.4922922463	-0.2829507562	
533.75	-0.1972461682	-0.2537746553	
534.375	0.2091946915	-1.258908655	
535.0	-0.8974403388	0.151870811	
535.625	-0.3050691506	0.1065675396	
536.25	-0.07065986042	0.3292673967	
536.875	0.233179814	-0.09247474391	
537.5	0.2567381674	0.01937737244	
538.125	0.2436323605	-0.3350188451	
538.75	0.2740657043	-0.09590102382	
539.375	-0.1798633334	-0.6118828498	
540.0	-0.5052682436	-0.1193094954	
540.625	-0.2935121525	-0.1428688411	
541.25	-0.2360579708	-0.03104285757	
541.875	-0.1803381376	-0.00867197059	
542.5	0.01465412614	-0.1074600284	
543.125	-0.3533529486	-0.1744830993	
543.75	-0.0712620305	0.06452075693	
544.375	-0.2708383266	0.09283522894	
545.0	0.1412597737	0.08513177722	
545.625	-0.05496163231	0.283829854	
546.25	0.4787705871	-0.09552535015	
546.875	0.03631894421	0.07980708222	
547.5	0.4261756984	-0.3731530519	
548.125	-0.3130837973	-0.3533442427	
548.75	-0.0888436153	-0.2567904075	
549.375	-0.3647385752	-0.3142135668	
550.0	-0.09653001156	0.1507937641	
550.625	-0.2276294731	-0.1207618177	
551.25	-0.08263006857	0.1884222326	
551.875	-0.2283475057	0.0360871754	
552.5	-0.1390247863	0.2811594229	
553.125	-0.007645339397	0.119498668	
553.75	0.0925019353	0.1556509478	
554.375	0.251157456	-0.01330646643	
555.0	0.2338980003	-0.1457330895	
555.625	0.2319093966	-0.260824782	
556.25	0.1594828701	-0.357684446	
556.875	-0.07268627526	-0.3947316086	
557.5	-0.2223385941	-0.2657929852	
558.125	-0.2910749729	-0.109534743	
558.75	-0.2450720546	0.002694085831	
559.375	-0.2623214675	0.005406599008	
560.0	-0.2612248884	0.2133592197	
560.625	-0.07272743313	0.2285200991	
561.25	-0.06630626297	0.2623944318	
561.875	0.160394091	0.07004542891	
562.5	-0.09544246345	0.1541837342	
563.125	0.2881415566	0.13975937	
563.75	0.1657955171	0.04224728995	
564.375	0.4674814702	-0.1916518135	
565.0	0.0736748579	-0.4488104717	
565.625	-0.01927599365	-0.2463617724	
566.25	-0.2443138485	-0.4086374886	
566.875	-0.3971033708	-0.04147691184	
567.5	-0.1659904756	-0.3211801974	
568.125	-0.493490006	-0.4989958747	
568.75	-0.4036594096	-0.04698512959	
569.375	-0.6993543747	-0.02035148189	
570.0	-0.2778972964	0.7405525315	
570.625	0.05166795579	0.1758342309	
571.25	-0.4045552178	0.4278134269	
571.875	0.3808270474	-0.08486798727	
572.5	0.1967650132	0.365272899	
573.125	0.3039210804	-0.5706152877	
573.75	-0.1604158772	-0.04063338412	
574.375	0.3889600806	-0.2186996297	
575.0	-0.2652581086	-0.1672141171	
575.625	0.3507619424	-0.006402194436	
576.25	0.111304551	-0.567799904	
576.875	-0.166750946	-0.06973453574	
577.5	0.3021905857	-0.3821139988	
578.125	-0.2823071276	-0.5570461977	
578.75	-0.1938387765	-0.07953241683	
579.375	-0.02058334415	-0.328378745	
580.0	-0.3731757138	-0.03695011091	
580.625	0.1289020693	-0.1442901678	
581.25	-0.5353681139	0.2328556791	
581.875	0.3163788628	0.3897778653	
582.5	-0.1073083079	-0.007555757726	
583.125	0.1216237679	0.7067048106	
583.75	0.1415865563	-0.456026397	
584.375	0.04944662704	0.5768541049	
585.0	0.3601743372	-0.2907473741	
585.625	0.1705672013	0.4362602413	
586.25	0.6701680342	-0.3991000617	
586.875	-0.09338891861	-0.1892915985	
587.5	0.2697613628	-0.2750411206	
588.125	-0.1503383016	-0.6034225935	
588.75	-0.1414611196	-0.1020624096	
589.375	0.4823124705	-0.2870083951	
590.0	-0.2673924991	-0.488486609	
590.625	-0.2399742817	-0.1289891293	
591.25	-0.5063009319	0.2072153597	
591.875	0.08926677895	0.2939256616	
592.5	-0.1431399619	0.05908391612	
593.125	0.02580441625	0.2089557423	
593.75	-0.001431963327	0.07156412046	
594.375	0.259453186	0.6307446962	
595.0	0.8641321521	0.0955557796	
595.625	-0.06592346356	0.07817231488	
596.25	0.6256447929	0.4781207814	
596.875	0.2210541366	-0.3260753571	
597.5	0.1720284914	0.6027478073	
598.125	0.6748318837	0.07706416971	
598.75	0.02698179648	0.2198406227	
599.375	0.8245808266	0.0743417645	
600.0	0.2683718388	-0.4813078779	
600.625	0.2644824401	-0.2019503809	
601.25	0.3723992929	-0.4406668696	
601.875	-0.2511329683	-0.3519412524	
602.5	-0.2610272511	-0.05837028049	
603.125	-0.2698050277	0.05179375002	
603.75	-0.2916571887	0.2180936961	
604.375	-0.1392370849	0.1513806504	
605.0	-0.294388516	0.16236313	
605.625	-0.02846968432	0.2219549677	
606.25	-0.3813785325	-0.1331676339	
606.875	-0.5002321895	0.5778193862	
607.5	-0.15462711	0.05705133133	
608.125	-0.530487052	0.8097120846	
608.75	0.667167202	0.1123731128	
609.375	0.4035805608	0.3579409071	
610.0	0.6281953642	-0.4651784976	
610.625	-0.05317458478	-0.1663637087	
611.25	0.2996708728	-0.6325405746	
611.875	-0.2721495776	-0.03273053834	
612.5	-0.2602824497	-0.3436445339	
613.125	-0.575656052	0.2858132558	
613.75	-0.2717369744	0.03068136591	
614.375	0.1762232529	0.4219628444	
615.0	-0.09884008324	-0.2013598578	
615.625	0.1195537085	0.5362054214	
616.25	-0.01667511686	0.05474212562	
616.875	-0.4933240875	0.5237365464	
617.5	0.1179521308	0.7160923266	
618.125	-0.1922569831	0.1761907356	
618.75	0.03435826933	0.7258815489	
619.375	0.2453944376	0.1881067834	
620.0	0.4330732034	0.3381562775	
620.625	0.1811519551	-0.4327512429	
621.25	-0.03365214799	-0.4417644382	
621.875	-0.5574937293	-0.2379053662	
622.5	-0.3930719371	-0.0006662539717	
623.125	-0.2115416099	0.5961997201	
623.75	0.219246796	-0.1160948358	
624.375	0.3847370238	0.09179934607	
625.0	-0.3180570583	-0.0701838343	
625.625	0.4571035187	-0.120732386	
626.25	-0.4341818968	-0.4060376231	
626.875	0.1200640526	-0.1539513608	
627.5	-0.6831453767	-0.2552225097	
628.125	-0.1731798261	0.1142973978	
628.75	0.07723914309	-0.5357006581	
629.375	-0.5242010048	-0.3187232988	
630.0	-0.1727709645	-0.1928630843	
630.625	-0.6242441987	-0.04536361354	
631.25	-0.3812121411	0.5651356852	
631.875	-0.0292218303	0.5421194302	
632.5	0.1861704221	0.4330369305	
633.125	0.5769948581	0.2032153718	
633.75	0.3131230307	-0.1846911212	
634.375	0.2679629469	-0.248060185	
635.0	-0.1475937767	-0.3903571241	
635.625	-0.08653276106	-0.2487558283	
636.25	-0.5990629372	0.1251227489	
636.875	0.05675261881	0.4393685126	
637.5	-0.1490424589	-0.2444177247	
638.125	-0.3322717585	0.6881590045	
638.75	0.1316355486	0.06429184355	
639.375	-0.4188346793	0.6326201104	
640.0	0.635233204	0.6687178774	
640.625	0.2632298505	0.1352799855	
641.25	0.9879084892	0.3475024699	
641.875	0.1097544107	-0.6303207247	
642.5	0.2694099017	-0.2060006934	
643.125	-0.3562716137	-0.7390174716	
643.75	-0.3988137232	0.3132787139	
644.375	-0.2368701337	-0.4217147977	
645.0	-0.5767122051	0.4688702394	
645.625	0.3544144205	0.4973260951	
646.25	-0.03565647701	0.08063845845	
646.875	0.7301769932	0.08801549648	
647.5	-0.2998087141	0.01982009962	
648.125	0.7025987181	0.3247866811	
648.75	0.3334188586	-0.5944693209	
649.375	0.6134269898	0.1986608148	
650.0	0.8482434551	-1.330812824	
650.625	-0.3910409292	-0.6667791966	
651.25	0.7931352753	0.1831999361	
651.875	1.072218656	-0.9071292005	
652.5	0.03399781465	-0.3890049843	
653.125	0.9476938951	0.2302998637	
653.75	0.3943090379	-1.006651071	
654.375	-0.07281353974	-0.1953808343	
655.0	-0.6052428511	-0.8719198896	
655.625	-0.3890077591	0.9167529665	
656.25	0.07189498535	-0.0281289609	
656.875	-0.06779981808	0.5301536208	
657.5	0.3143895539	-0.05692856923	
658.125	-0.09797113043	0.6072260436	
658.75	1.044573507	0.1740096129	
659.375	0.5210689636	-0.4185167223	
660.0	0.563378876	-0.2603561597	
660.625	0.7282851633	-1.228127186	
661.25	-0.2713396341	-0.6497226859	
661.875	0.8662793865	-0.05043334014	
662.5	0.9180678917	-0.9068727591	
663.125	0.05603856936	-0.4647588775	
663.75	1.017656276	-0.4249092971	
664.375	-0.6004268917	-0.8859531776	
665.0	-0.1071147483	-0.402313655	
665.625	-1.165840072	0.004393962056	
666.25	0.07888587089	0.8229778268	
666.875	-0.03762756725	0.2250409837	
667.5	0.5318996831	0.5394176483	
668.125	0.5456137533	-0.3098002026	
668.75	0.319547351	-0.01974237153	
669.375	0.479125654	-0.7427871973	
670.0	-0.1940413474	-0.3150271889	
670.625	0.2463119971	-0.4456189861	
671.25	0.02883400438	-0.6226740517	
671.875	0.1104112332	-0.1509289872	
672.5	0.7692645336	-0.2476918876	
673.125	0.5230606221	-0.7526433685	
673.75	-0.02660656721	-0.340862201	
674.375	0.5927472757	-0.4032581901	
675.0	-0.5651068936	-1.033879564	
675.625	0.03589471441	0.1886643327	
676.25	-0.8925726742	-0.507734359	
676.875	-0.1983905178	0.5363901141	
677.5	-0.3714243136	-0.6402798758	
678.125	-0.3399414095	0.9676782001	
678.75	0.006095666655	0.02282625736	
679.375	0.2699731134	0.4900530783	
680.0	0.7736644266	-0.3028000741	
680.625	-0.3222155526	-0.2876869449	
681.25	0.4711511112	0.335119831	
681.875	0.3998743927	-0.1027057003	
682.5	0.2648825182	0.1316916981	
683.125	0.6589234737	0.4986085577	
683.75	0.6314954041	-0.169633355	
684.375	0.4738529488	0.2190340339	
685.0	0.846182861	0.4328737194	
685.625	0.8596674169	-0.6074688528	
686.25	-0.03208736237	0.6283488485	
686.875	1.80306448	-0.7153264054	
687.5	-0.3602318822	-0.6023786651	
688.125	0.8391173155	-1.00727821	
688.75	-1.834836258	-0.4771580681	
689.375	-0.04222881291	0.121392344	
690.0	-0.06607154016	1.733427209	
690.625	0.6996809447	0.03673501836	
691.25	0.2462320102	0.9991049042	
691.875	1.475740448	0.8700928546	
692.5	1.094602142	0.3349951867	
693.125	1.503111219	0.1298124002	
693.75	1.429818289	-0.5357468533	
694.375	1.147765979	-0.8594003027	
695.0	0.9103445958	-0.7689040615	
695.625	0.9950269045	0.2132461934	
696.25	1.68895197	0.2233399324	
696.875	0.5404802894	0.6223554831	
697.5	0.900875168	1.942736118	
698.125	1.547207504	-0.2675888109	
698.75	1.306048473	0.01606550676	
699.375	-1.422443466	-1.594563743	
700.0	-0.02568506513	0.7584064632	
700.625	-0.2825548949	1.196041259	
701.25	0.7879108341	0.006408568855	
701.875	0.1208570109	0.8165857469	
702.5	1.305053415	0.6439899163	
703.125	0.3799012498	0.3259586263	
703.75	1.259988894	-0.0654062875	
704.375	0.4182819086	-0.6435067768	
705.0	0.8370401362	0.2499763642	
705.625	0.8066809326	-0.5430885678	
706.25	0.1278962202	0.4399727533	
706.875	0.9048818143	1.267339692	
707.5	0.637318528	0.1363220978	
708.125	1.055674596	0.9158718588	
708.75	0.7603470098	-1.353023541	
709.375	-0.2455840683	-0.3983561303	
710.0	-0.9324811617	0.4400816518	
710.625	0.4664109105	0.2738404978	
711.25	0.05226250874	0.4157212405	
711.875	0.5821733911	0.221975744	
712.5	0.8982164036	0.1604490744	
713.125	0.5473869414	-0.5434752557	
713.75	0.4733022401	-0.2779046103	
714.375	0.01645977395	-0.8580535142	
715.0	-0.1802060194	-0.1438514731	
715.625	0.4733943521	-0.8915901882	
716.25	-0.3493621144	-0.7087994083	
716.875	0.871489587	0.3488507201	
717.5	2.502594363	-0.3310607868	
718.125	0.3639346221	-1.209498518	
718.75	2.616822141	1.710784938	
719.375	1.85422927	-2.795588138	
720.0	0.7799474093	-1.050238058	
720.625	2.28452605	-3.359750597	
721.25	-1.359161495	-2.102462723	
721.875	0.7774294381	-2.723132478	
722.5	-1.816185004	-2.534351556	
723.125	-2.084771239	0.1829061724	
723.75	-0.8620727089	0.5103287886	
724.375	-0.2814686146	1.482924994	
725.0	0.7418284437	0.741361952	
725.625	0.1581369312	0.7858069472	
726.25	-0.3607639633	2.100845391	
726.875	1.237735452	2.512308021	
727.5	-1.753038608	2.104005837	
728.125	-0.1007859146	8.402946588	
728.75	4.167639221	5.09167815	
729.375	-8.922235212	4.956214838	
730.0	2.075314935	21.62136177	
730.625	3.014928463	0.6754295219	
731.25	-12.1808466	8.544093703	
731.875	-9.328092511	12.68562994	
732.5	-1.934141331	1.440967294	
733.125	-9.71093412	-1.379142029	
733.75	-1.410461049	4.003512423	
734.375	0.8756455522	0.700831044	
735.0	1.136385847	-2.487905239	
735.625	-0.7601757032	1.297355644	
736.25	-0.8654270479	0.5876280837	
736.875	1.102368369	2.085670821	
737.5	3.821335385	0.0986134252	
738.125	0.9173532154	-1.816670777	
738.75	9.373784971	-0.2908546078	
739.375	5.056406054	-10.63577883	
740.0	-1.985431619	3.066344557	
740.625	20.99305817	4.059377132	
741.25	24.10432104	-32.96860874	
741.875	-18.77058148	-14.01577626	
742.5	-17.91187296	-12.80131587	
743.125	-0.4871123232	2.439395869	
743.75	3.006474876	-3.428925665	
744.375	-2.414484501	0.06373219641	
745.0	-0.03443430939	-0.210146383	
745.625	0.3802287606	-0.03553893762	
746.25	-0.05810911605	0.02609129842	
746.875	-0.3466843549	-0.1763512735	
747.5	0.1587155849	1.000663367	
748.125	0.2404773611	0.668105013	
748.75	0.3566064767	1.748747445	
749.375	0.7587177442	1.243087724	
750.0	-2.961853507	1.161292182	
