!Created with skrf (http://scikit-rf.org).
# GHz S RI R (50+0j) 
!freq	ReS11	ImS11	
500.0	-2.113238371	-4.355142875	
500.625	0.5749087736	-1.182146034	
501.25	-0.6216942014	-2.312936986	
501.875	-2.190441214	-1.599175369	
502.5	-0.206734991	0.006641180387	
503.125	-0.2892139106	-0.07725602183	
503.75	0.3330129561	0.1634378155	
504.375	0.07003420534	0.09286524058	
505.0	-0.03452967748	-0.1942889095	
505.625	0.2083211628	0.004918772643	
506.25	-0.7059820548	-0.2859902051	
506.875	0.5915218571	-0.1952207343	
507.5	0.01693695376	-1.981353988	
508.125	-1.392263674	-2.329004721	
508.75	1.218359316	-0.7292840203	
509.375	-2.466385461	-5.294884133	
510.0	-0.9725562672	0.5640386742	
510.625	-0.2475296743	-0.7455721422	
511.25	-0.4093587223	0.3626991337	
511.875	-0.3199758911	-0.2061988505	
512.5	-0.09807022575	0.1633222109	
513.125	-0.1504032096	-0.3019209643	
513.75	-0.1788904787	0.03119253111	
514.375	-0.1941544187	-0.3828552476	
515.0	-0.7091886212	0.7474548662	
515.625	0.6711001258	-3.046934803	
516.25	-2.372834001	-0.2499491409	
516.875	0.9102625469	-1.283072665	
517.5	-0.7421284968	-1.051437392	
518.125	0.3061575209	0.09910279884	
518.75	-0.5340726277	-0.7563596301	
519.375	-0.02822086648	0.1330818307	
520.0	0.2795494603	0.3182752182	
520.625	0.5252639172	-0.3882531453	
521.25	-0.2353449433	-0.3716735068	
521.875	-0.3930370383	-0.3492646692	
522.5	-0.01871617622	0.2440176516	
523.125	-0.3793015883	-0.01731707664	
523.75	-0.1405673969	0.1553610631	
524.375	-0.6615955576	-0.122642888	
525.0	0.3378764331	0.3393321949	
525.625	-0.1356080729	0.07923450136	
526.25	0.1966097572	-0.08666370074	
526.875	-0.3566730274	0.1858139552	
527.5	0.2688573558	0.5713626739	
528.125	-0.2012393759	0.4572591877	
528.75	0.1643086073	1.075262857	
529.375	0.02979759701	-0.123772395	
530.0	0.4268942667	0.6586646585	
530.625	-0.03861940995	0.4448984421	
531.25	1.856910838	0.227255105	
531.875	-0.06299332808	-0.439476022	
532.5	0.154488782	-0.5806883894	
533.125	-0.2936310904	0.3713658092	
533.75	0.4266610587	-0.9948771552	
534.375	-0.5625321407	-0.227672737	
535.0	-0.4901992051	-0.6388149381	
535.625	-0.3178908754	0.7385823229	
536.25	-0.01698507212	0.0966826179	
536.875	0.2918909159	0.1393695995	
537.5	0.1130551346	-0.2155190389	
538.125	0.2653220852	0.06948048707	
538.75	0.3300352506	-0.5168700975	
539.375	-0.1027081342	-0.20620978	
540.0	-0.3700623874	-0.5522785382	
540.625	-0.4723716976	0.1617724163	
541.25	-0.08396963837	-0.03713925614	
541.875	-0.1214258695	-0.09903515732	
542.5	-0.2235280512	-0.07456626882	
543.125	-0.001143685548	-0.04688108129	
543.75	-0.4073767551	-0.08912993615	
544.375	0.1299784512	0.1214392697	
545.0	-0.184885372	0.2364163006	
545.625	0.2805325013	-0.05598745558	
546.25	0.01637164838	0.288668899	
546.875	0.456057519	-0.3444332123	
547.5	0.0193741313	-0.05657569923	
548.125	0.07193712539	-0.5026307063	
548.75	-0.494259109	-0.2541703167	
549.375	-0.1160244428	-0.01767731964	
550.0	-0.3033299607	-0.09034185222	
550.625	-0.0013361557	0.1080481915	
551.25	-0.2880775584	-0.01539923435	
551.875	-0.0667121732	0.2840418687	
552.5	-0.1290664166	0.08671442739	
553.125	-0.02526011174	0.2153800595	
553.75	0.116580674	0.07738227754	
554.375	0.2148264159	0.01550535528	
555.0	0.2407942289	-0.1901545036	
555.625	0.1684251303	-0.2612525648	
556.25	0.1490138548	-0.3316100753	
556.875	-0.09960528275	-0.38269807	
557.5	-0.2444586517	-0.2208972558	
558.125	-0.2594518075	-0.08724441608	
558.75	-0.2724644601	-0.006849174049	
559.375	-0.2370408956	0.09215733969	
560.0	-0.2070670966	0.1286349617	
560.625	-0.1569743801	0.2932523189	
561.25	0.1052972903	0.2172923842	
561.875	-0.02710239402	0.1157854788	
562.5	0.1433086564	0.08283745979	
563.125	0.06058473143	0.2310111646	
563.75	0.4332350908	-0.08742080925	
564.375	0.1128418459	-0.1762183956	
565.0	0.3289750548	-0.3140331801	
565.625	-0.2177116868	-0.4088572015	
566.25	-0.2167954451	-0.1130113205	
566.875	-0.250978448	-0.2940740462	
567.5	-0.5172404799	-0.2234569042	
568.125	-0.1674477466	-0.1962704535	
568.75	-0.6656703641	-0.3513041892	
569.375	-0.3925843479	0.4204784227	
570.0	-0.3624264895	0.2360087554	
570.625	-0.1818213603	0.7134148182	
571.25	0.2034002295	-0.001832602889	
571.875	-0.004800628514	0.4953242033	
572.5	0.3279814873	-0.3816000939	
573.125	0.1238916866	0.06925382104	
573.75	0.3521389224	-0.4745722091	
574.375	-0.2718042657	-0.1083749176	
575.0	0.377823432	-0.04150823553	
575.625	-0.2156531562	-0.2734047457	
576.25	0.2827938127	0.04357078684	
576.875	-0.01466750823	-0.6132229432	
577.5	-0.2809556723	-0.2708337607	
578.125	0.1010488346	-0.2181599341	
578.75	-0.1948891922	-0.5033938889	
579.375	-0.3862901162	0.02793759469	
580.0	0.1160407197	-0.1115081229	
580.625	-0.4097365006	0.008026373915	
581.25	0.01780110672	0.03535608985	
581.875	-0.2847312344	0.4566872761	
582.5	0.4480599782	0.4598545041	
583.125	0.04430471366	-0.2103782983	
583.75	0.0649065945	0.5183434405	
584.375	0.07541160821	-0.3670679961	
585.0	0.1671391035	0.5398153993	
585.625	0.5158543572	-0.3246531837	
586.25	0.02129179236	0.04507216135	
586.875	0.4523329253	-0.5028441319	
587.5	-0.3410618504	-0.168584365	
588.125	0.2223987023	-0.2174865398	
588.75	0.1278183093	-0.6101404841	
589.375	-0.1500386119	-0.2828444615	
590.0	0.1208044643	-0.3795160881	
590.625	-0.5935024815	-0.1476598374	
591.25	-0.151095225	0.3201290516	
591.875	-0.1622811693	0.1309048412	
592.5	0.08517661189	0.2620741233	
593.125	-0.2315121589	0.01008015297	
593.75	0.2826101175	0.3041190015	
594.375	0.2630641017	0.03736979631	
595.0	0.1466023466	0.4262289501	
595.625	0.8577460637	0.3036153354	
596.25	-0.01547125764	-0.2056366075	
596.875	0.4470869709	0.479656844	
597.5	0.5540750867	-0.0795231659	
598.125	-0.008767728185	0.353188715	
598.75	0.7770521816	0.1599902376	
599.375	0.1747338806	-0.07793350697	
600.0	0.6234859517	-0.192497984	
600.625	0.2445759921	-0.6609275887	
601.25	0.001665612557	-0.2482160721	
601.875	-0.0393994224	-0.4169465528	
602.5	-0.3462596413	0.01144101865	
603.125	-0.2674704868	0.1644477303	
603.75	-0.1399192378	0.07635615834	
604.375	-0.369186917	0.1604412261	
605.0	0.0389571216	0.2536060058	
605.625	-0.3220873461	0.005587231962	
606.25	-0.1711682298	0.3394645831	
606.875	-0.2934452284	-0.05731757852	
607.5	-0.6289938848	0.7660520211	
608.125	0.2296518977	0.218226109	
608.75	0.1528350794	0.6983723477	
609.375	0.7688047485	-0.4627141482	
610.0	0.1878601869	0.06220673368	
610.625	0.386146441	-0.6013915699	
611.25	-0.2244695011	-0.1614232184	
611.875	0.01679202191	-0.5579953201	
612.5	-0.4254642917	0.2094796711	
613.125	-0.3314896664	-0.1908379226	
613.75	-0.2647375518	0.5826721248	
614.375	0.04360442255	-0.1113195889	
615.0	0.2573033045	0.3866652423	
615.625	-0.08546595679	-0.1534444549	
616.25	-0.3043506298	0.5798573925	
616.875	0.2282481121	0.3777617954	
617.5	-0.4778886079	0.3271162232	
618.125	0.1053574662	0.7785377369	
618.75	0.09930869456	0.1376111757	
619.375	0.166622882	0.6070264423	
620.0	0.4009183604	-0.09151632281	
620.625	0.3530019153	-0.2250825595	
621.25	-0.3550154895	-0.3842966622	
621.875	-0.3210538277	-0.263693798	
622.5	-0.5986293334	0.2840243808	
623.125	-0.05163139465	0.2152214077	
623.75	0.3751997848	0.2845944149	
624.375	-0.1720111019	-0.2561124823	
625.0	0.4574609164	0.063225829	
625.625	-0.3831945633	-0.2199471635	
626.25	0.2737064408	-0.2743965904	
626.875	-0.6086949965	-0.3136635638	
627.5	-0.1583076952	0.1864472787	
628.125	-0.1608307025	-0.4498125435	
628.75	-0.4142576366	-0.08798053378	
629.375	0.05325702752	-0.3454322415	
630.0	-0.6122707844	-0.2779688081	
630.625	-0.3009665532	0.3376453564	
631.25	-0.3923618143	0.2156077555	
631.875	-0.04177781928	0.7233971005	
632.5	0.3909861867	0.3859794663	
633.125	0.4238394948	-0.0161095509	
633.75	0.3721865007	0.0391295657	
634.375	-0.01633367754	-0.5434152009	
635.0	0.1168586931	-0.1544276194	
635.625	-0.4963845973	-0.3202526484	
636.25	-0.08283317698	0.2999117079	
636.875	-0.4601320368	0.1336673082	
637.5	0.1660775686	0.4757584641	
638.125	-0.1595698483	-0.2076971075	
638.75	-0.4131506402	0.759207957	
639.375	0.4762881103	0.45580096	
640.0	-0.01203900729	0.3167538228	
640.625	0.6942109669	0.5942251254	
641.25	0.5965726464	-0.3926744053	
641.875	0.4059825239	-0.05888727068	
642.5	-0.3194394841	-0.8906460807	
643.125	-0.03138960107	0.03355721881	
643.75	-0.3624400535	-0.5378230304	
644.375	-0.4949291793	0.4086565573	
645.0	-0.05099444574	0.08576742364	
645.625	-0.200378037	0.6119639494	
646.25	0.7421841179	0.1851232259	
646.875	-0.08037482876	-0.2719996362	
647.5	0.3822226349	0.4688249258	
648.125	0.01262597647	-0.4086539894	
648.75	0.8672735868	0.3611516885	
649.375	0.4161114358	-1.101842011	
650.0	-0.1012100611	-0.2455877377	
650.625	1.075928025	-0.486211021	
651.25	0.0811321438	-1.374277409	
651.875	0.04121283274	0.1338912122	
652.5	1.193817675	-0.0201707004	
653.125	0.4141962827	-0.8057078108	
653.75	0.2836186394	-0.004672596836	
654.375	-0.2762727901	-1.18210143	
655.0	-0.6300574563	0.2766063739	
655.625	-0.3224842505	-0.05702711828	
656.25	-0.03415183536	0.8775637286	
656.875	0.3325101861	-0.3471117632	
657.5	-0.1125620041	0.5814861838	
658.125	0.6010742789	0.2523578073	
658.75	0.4543880751	-0.05308490209	
659.375	0.8794010843	0.07980730939	
660.0	0.373236546	-1.173347692	
660.625	0.1031627531	-0.357163886	
661.25	0.7067922631	-0.6445360142	
661.875	0.2991282869	-1.134424371	
662.5	0.06417095885	-0.02291366429	
663.125	1.188480957	-0.4288650802	
663.75	-0.1537472484	-0.9108847575	
664.375	0.1720490169	-0.3544476777	
665.0	-0.9439543288	-0.7716507398	
665.625	-0.2514198443	0.448496135	
666.25	-0.5726074809	0.4737795439	
666.875	0.5767827475	0.6117772541	
667.5	0.236092324	-0.1072060175	
668.125	0.5575851784	0.3553952306	
668.75	0.4818837337	-0.6769389232	
669.375	0.0155223582	-0.3687624259	
670.0	0.1836170151	-0.399782814	
670.625	-0.07301204717	-0.6741878112	
671.25	0.01049595775	-0.1037650404	
671.875	0.4477333252	-0.5240231935	
672.5	0.2878713665	-0.4959473279	
673.125	0.3239653436	-0.138119984	
673.75	0.7418613441	-0.6933087959	
674.375	-0.4822921141	-0.6959407178	
675.0	0.2143819394	-0.1252504274	
675.625	-0.6599873158	-0.7077282628	
676.25	-0.4755274753	0.523144714	
676.875	-0.1554004297	-0.5225174237	
677.5	-0.5193306951	0.6668371752	
678.125	-0.1257205846	-0.1162429029	
678.75	-0.1099523515	0.9991173338	
679.375	0.6145079793	-0.4369742729	
680.0	0.1267023928	0.1601301388	
680.625	0.4707002316	-0.2330327716	
681.25	0.0740095526	-0.3743950976	
681.875	0.03185829103	0.3038920258	
682.5	0.7080000767	0.3498819997	
683.125	0.5678596166	-0.1143460441	
683.75	0.3746680173	0.09688308177	
684.375	0.8656873666	0.3597907402	
685.0	0.5215319107	-0.5053973969	
685.625	0.604252362	0.4688753836	
686.25	1.065084768	-0.5025271724	
686.875	-0.1135645939	-0.3327004574	
687.5	1.431849682	-0.3942261717	
688.125	-1.140749902	-1.501233615	
688.75	-0.01945376207	-0.2102096522	
689.375	-1.317656148	1.062097042	
690.0	0.8085196329	0.4549000224	
690.625	-0.0859601749	0.9253468337	
691.25	1.350557779	0.199719668	
691.875	0.5794204685	0.6152840372	
692.5	1.555834574	0.6940327055	
693.125	1.527436963	-0.4383823168	
693.75	1.131726533	-0.4301052492	
694.375	0.9351126551	-1.03911342	
695.0	0.9049364962	-0.4433234789	
695.625	1.467911776	-0.5976663096	
696.25	0.7077856052	0.0616218735	
696.875	1.181069733	1.485320896	
697.5	1.331360009	0.1967089103	
698.125	0.9447244426	0.9190293229	
698.75	1.120683825	-1.883250546	
699.375	-0.6506439336	0.09249026663	
700.0	-1.441877266	0.7579701315	
700.625	0.9342837264	0.406006249	
701.25	-0.1149580989	0.5614196962	
701.875	1.311072937	0.455319795	
702.5	0.2610560275	0.4035847136	
703.125	1.293885177	0.534421821	
703.75	0.4995424183	-0.6894020535	
704.375	0.8744436091	0.05467226025	
705.0	0.5237268925	-0.8827351062	
705.625	0.0884388759	0.2764958724	
706.25	1.337500683	0.694575946	
706.875	0.4166067557	-0.06167820272	
707.5	0.4601963776	1.231219023	
708.125	1.492209271	-0.2626390382	
708.75	0.3944398964	-0.4333826967	
709.375	-0.8705225106	-1.12934028	
710.0	0.008437444888	0.7470426774	
710.625	-0.1604595778	0.4034536719	
711.25	0.4679584424	0.200642804	
711.875	0.3677842857	0.2321984375	
712.5	0.7753474216	-0.115714326	
713.125	0.5391979294	-0.2456698083	
713.75	0.3975684181	-0.8816890937	
714.375	-0.3113566599	-0.1679227396	
715.0	0.3814679392	-0.8197897664	
715.625	-0.536765996	-0.4117356375	
716.25	0.7094052092	-0.001271779102	
716.875	1.28982417	-1.333003374	
717.5	-0.2400717547	-0.2388798457	
718.125	2.843799965	1.052759872	
718.75	2.001533887	-2.117342157	
719.375	0.2939579664	0.4205106528	
720.0	2.775215863	-3.543250191	
720.625	-1.475831232	-2.188164406	
721.25	0.6784861123	-2.20448996	
721.875	-1.033205091	-3.258027516	
722.5	-1.786978119	-0.5106082706	
723.125	-1.847673494	-0.943749357	
723.75	-0.8543893629	1.65274828	
724.375	0.3293132398	0.7073365179	
725.0	0.1861329826	0.774653453	
725.625	0.4350011601	1.551255036	
726.25	1.175007579	1.240355294	
726.875	-0.997833682	1.325602536	
727.5	-0.8108613363	5.093014159	
728.125	2.952529319	3.360749752	
728.75	-5.673457725	5.640755984	
729.375	5.178851004	16.39712139	
730.0	2.298362679	1.650358039	
730.625	-5.205434012	15.9553711	
731.25	10.73481231	9.810559861	
731.875	-4.591906141	-1.79192602	
732.5	-12.43432918	4.484674883	
733.125	-6.138856109	4.512568067	
733.75	-0.1495825265	1.674719565	
734.375	3.39241227	2.029911604	
735.0	-0.8938662342	-0.7089671833	
735.625	-0.9319993614	-0.2096159425	
736.25	-0.08001245141	2.307059822	
736.875	1.326412609	-0.1230377089	
737.5	1.652381788	1.695140524	
738.125	5.651428176	-1.22523737	
738.75	3.697485112	-6.562443273	
739.375	-1.87656522	-1.017974672	
740.0	18.1627949	3.709259293	
740.625	3.46170821	-15.17995764	
741.25	-17.02581812	9.088851653	
741.875	-2.464860127	16.32812509	
742.5	10.84362493	-4.014635263	
743.125	4.285916677	-15.37870145	
743.75	-3.388665847	-1.780211585	
744.375	0.08359261913	-0.1598364239	
745.0	-0.1130204031	0.8058878493	
745.625	-0.2344178295	-0.2390312747	
746.25	0.1843074573	-0.4668315003	
746.875	-0.4540304816	0.1392545101	
747.5	0.08647909832	0.6633801202	
748.125	0.204330399	1.733201227	
748.75	1.292336152	0.78692555	
749.375	0.2095006689	0.8191545409	
750.0	1.06011707	4.254980993	
