!Created with skrf (http://scikit-rf.org).
# GHz S RI R (50+0j) 
!freq	ReS11	ImS11	
500.0	0.407518612	-1.064278138	
500.625	-0.2837858911	-0.7428486387	
501.25	0.2042720987	-0.5898435367	
501.875	-0.4400373719	-0.5247677441	
502.5	-0.03059605258	-0.04623915819	
503.125	-0.09479673578	-0.02178482816	
503.75	0.05686277218	0.05421898749	
504.375	0.01807661464	0.01809137066	
505.0	0.009211341993	-0.0501496993	
505.625	0.02399438343	0.01054888812	
506.25	-0.06091678018	-0.1302649214	
506.875	-0.03303241464	0.1992867795	
507.5	0.2127503334	-0.3603123437	
508.125	-0.2594026617	-0.6286160152	
508.75	0.2499337052	-0.3645134556	
509.375	0.1009024795	-1.125925919	
510.0	-0.5960517537	-0.07967276454	
510.625	-0.02548898226	-0.09767877137	
511.25	-0.1190538496	-0.06244454535	
511.875	-0.07658868846	0.02561968909	
512.5	-0.03938294739	0.0293141709	
513.125	-0.0242029513	-0.09372509005	
513.75	-0.02592003341	0.012076983	
514.375	-0.04265396343	-0.09732338671	
515.0	-0.1370315648	0.258245565	
515.625	0.2382740141	-0.560228838	
516.25	-0.5848756607	-0.4513665119	
516.875	0.1319809477	-0.192212051	
517.5	0.04862991054	-0.2215324905	
518.125	-0.01616191222	0.04735302414	
518.75	0.06320696465	-0.1597124088	
519.375	-0.04414551231	0.05756997359	
520.0	0.06748690897	0.03967324123	
520.625	0.1476761517	-0.00782408174	
521.25	-0.06413000359	-0.3048469304	
521.875	-0.1111863906	0.008132463181	
522.5	-0.04404262229	-0.03902211803	
523.125	-0.08458389184	0.1176644387	
523.75	0.01313038109	-0.05715415197	
524.375	-0.2780823965	0.009948056419	
525.0	0.101443058	0.1022855763	
525.625	-0.04959951494	0.03359534816	
526.25	0.06276144643	-0.02036290326	
526.875	-0.1103507194	0.0392766535	
527.5	0.05324053122	0.1847162333	
528.125	0.05013091836	0.08680591163	
528.75	-0.07059244213	0.208617878	
529.375	0.0573744149	0.04309508662	
530.0	0.1199545455	0.127614877	
530.625	0.1746201752	0.307651976	
531.25	0.2445870834	-0.01254899954	
531.875	0.2638123262	-0.05741734565	
532.5	-0.003004225343	-0.2044510155	
533.125	0.1419210319	0.04565333862	
533.75	0.01921012366	-0.2624064507	
534.375	-0.1040477178	-0.1192596267	
535.0	-0.1453262597	-0.1476585751	
535.625	-0.1614818272	0.1577909526	
536.25	0.01151991043	0.04757296574	
536.875	0.0926430891	0.04420992523	
537.5	0.04699386923	-0.07300404729	
538.125	0.08521699644	0.003619491025	
538.75	0.1312748224	-0.1700198481	
539.375	-0.07732226906	-0.08242900265	
540.0	-0.1118075986	-0.1371201706	
540.625	-0.1940723321	-0.02731393818	
541.25	-0.06303135578	0.05282932527	
541.875	-0.02064961013	-0.08088372457	
542.5	-0.1421826244	-0.09855356972	
543.125	-0.01885804906	-0.04109131571	
543.75	-0.1350775775	0.01177791257	
544.375	0.02288562061	0.03974141505	
545.0	-0.0648231989	0.06621302533	
545.625	0.09191658663	0.009963843809	
546.25	0.02820941047	0.04373066319	
546.875	0.1731779945	-0.01942245236	
547.5	-0.005171455707	-0.1248226102	
548.125	0.006447188163	-0.11286922	
548.75	-0.144274757	-0.132165365	
549.375	-0.09958394955	-0.004263458713	
550.0	-0.06342931164	-0.04225081525	
550.625	-0.0438190612	0.04930184945	
551.25	-0.05590122891	-0.007774891694	
551.875	-0.08176368565	0.08267084763	
552.5	-0.01045363656	0.07125561755	
553.125	-0.02677189515	0.05523621701	
553.75	0.0508149892	0.0321972918	
554.375	0.07028807026	-0.003452449276	
555.0	0.09350405809	-0.06412761776	
555.625	0.06688497412	-0.1021264631	
556.25	0.05333336711	-0.1215293887	
556.875	-0.03589106205	-0.1434095055	
557.5	-0.09511528598	-0.08930746514	
558.125	-0.1022632644	-0.02645239631	
558.75	-0.09710093326	-0.003607455333	
559.375	-0.107837856	0.02715463685	
560.0	-0.07129431909	0.07286660141	
560.625	-0.05708028509	0.09176869111	
561.25	0.02291285665	0.1080131683	
561.875	0.00840430635	0.009696360521	
562.5	0.02789315028	0.07649361389	
563.125	0.04815998452	0.03049018541	
563.75	0.1347901736	0.03474669223	
564.375	0.1269421783	-0.1291849537	
565.0	0.01427156526	-0.11421571	
565.625	0.012436913	-0.1601278821	
566.25	-0.1549132056	-0.07588817154	
566.875	-0.05865225276	-0.04419000641	
567.5	-0.1610077764	-0.1298926881	
568.125	-0.175456605	-0.02261883536	
568.75	-0.1524930411	-0.1231143501	
569.375	-0.2367530818	0.1482888439	
570.0	-0.03095634922	0.1562009572	
570.625	-0.1362836943	0.1217336262	
571.25	0.05096166583	0.1785507702	
571.875	-0.003243513507	0.004284160976	
572.5	0.1772951594	0.02738071761	
573.125	-0.03600522019	-0.1473711341	
573.75	0.0725081042	-0.01071056145	
574.375	-0.0008087420731	-0.1686333012	
575.0	-0.01325416402	0.04357445892	
575.625	0.09030230384	-0.1320695953	
576.25	-0.04191966146	-0.1201729728	
576.875	0.03060916667	-0.0449251688	
577.5	0.05227907958	-0.2154198045	
578.125	-0.1380744346	-0.1216081398	
578.75	-0.002831391738	-0.04156104137	
579.375	-0.1012800792	-0.1734998549	
580.0	-0.06228016736	0.07265686785	
580.625	-0.08175222232	-0.1988092697	
581.25	-0.07307252273	0.1840530565	
581.875	0.02024177205	0.0473310733	
582.5	-0.03666820873	0.1712763795	
583.125	0.2053517417	0.05904967693	
583.75	-0.05621398676	-0.03078484693	
584.375	0.1012600031	0.112049639	
585.0	0.02692138216	-0.03423298509	
585.625	0.1685671931	0.1044966657	
586.25	0.1643413991	-0.1551500109	
586.875	0.004162231535	-0.06000755347	
587.5	0.05477765844	-0.1621451289	
588.125	-0.09500476614	-0.1373294188	
588.75	0.02645934807	-0.03329896853	
589.375	0.1209427559	-0.194231843	
590.0	-0.1560335857	-0.1119516313	
590.625	-0.06471321523	-0.06896400764	
591.25	-0.1966351873	0.140607088	
591.875	0.09006019403	0.09769328156	
592.5	-0.1266579849	0.03798574486	
593.125	0.0891198916	0.0369299363	
593.75	-0.04613601173	0.08428649769	
594.375	0.2009828865	0.1513018644	
595.0	0.1408915637	-0.02223955859	
595.625	0.09201665736	0.1346522394	
596.25	0.2176341553	0.03897409169	
596.875	0.0866802196	-0.03870917362	
597.5	0.1428406371	0.1484627807	
598.125	0.1816193701	0.03242517671	
598.75	0.08594974864	0.0499345104	
599.375	0.2362211901	0.01129167931	
600.0	0.1246371219	-0.2068908824	
600.625	0.05728016238	-0.1233826946	
601.25	0.1284285203	-0.1664094062	
601.875	-0.152633625	-0.1418511832	
602.5	-0.00653893313	0.01930101436	
603.125	-0.2074179926	0.0198593377	
603.75	0.0356672417	0.1266525526	
604.375	-0.09163113015	-0.0265216095	
605.0	-0.1032902225	0.1635397105	
605.625	0.04045624137	0.01894087049	
606.25	-0.1936439411	0.12722766	
606.875	-0.09853308346	0.1685252331	
607.5	-0.07481949285	0.08213556569	
608.125	-0.09856275255	0.2578194051	
608.75	0.178055882	0.1016885104	
609.375	0.128148864	-0.008912258241	
610.0	0.1911900374	-0.1148352304	
610.625	-0.01599446624	-0.1922698873	
611.25	-0.02570382377	-0.09618475192	
611.875	-0.136793062	-0.1764369594	
612.5	-0.09996826537	0.04735642013	
613.125	-0.1301705364	-0.06160825255	
613.75	-0.1316706304	0.2212390876	
614.375	0.1107556535	-0.01425687026	
615.0	-0.04900133185	0.1216446808	
615.625	0.09030170618	0.005738579346	
616.25	-0.08031016335	0.03529353984	
616.875	-0.02516974953	0.2456493443	
617.5	0.06144230646	0.1899045683	
618.125	-0.03622032418	0.2204150754	
618.75	0.05173028125	0.2421446288	
619.375	0.1231801035	0.1835706617	
620.0	0.1156597534	0.1053947549	
620.625	0.1358639478	-0.1735101298	
621.25	-0.1749439291	-0.1448725693	
621.875	-0.1141679984	-0.1226153281	
622.5	-0.2512913732	0.0997984481	
623.125	0.07593662402	0.1745099488	
623.75	0.06279785379	0.09716311232	
624.375	0.07587721084	-0.1402892529	
625.0	0.00911499335	0.04331588084	
625.625	0.08489016523	-0.1406878876	
626.25	-0.1023866881	-0.06280711632	
626.875	-0.05873394069	-0.1015939923	
627.5	-0.2035404281	-0.05048975912	
628.125	-0.08207054099	0.01209269351	
628.75	-0.01449874505	-0.1415501074	
629.375	-0.1117536761	-0.144682465	
630.0	-0.1105091488	-0.05160893192	
630.625	-0.2385540164	0.01587950914	
631.25	-0.1121805534	0.2433518175	
631.875	0.091557336	0.2108291838	
632.5	0.07427303998	0.1974444991	
633.125	0.2467921788	-0.009847011252	
633.75	0.03119300512	-0.0996308638	
634.375	0.145543733	-0.1101911654	
635.0	-0.1507161271	-0.152427261	
635.625	-0.03360086161	-0.06923667268	
636.25	-0.2372710268	0.07788202625	
636.875	0.02318851419	0.1387236423	
637.5	-0.05845002406	-0.002137950127	
638.125	-0.07582741035	0.1759303384	
638.75	0.005271004739	0.06975595415	
639.375	-0.09606837004	0.2325474578	
640.0	0.2213613387	0.2491779325	
640.625	0.1592053062	0.04073081588	
641.25	0.2651081167	0.09113018784	
641.875	0.1550978414	-0.2775391071	
642.5	-0.118156785	-0.1078791994	
643.125	-0.04972877306	-0.1829742622	
643.75	-0.2141298159	0.03033422449	
644.375	-0.004618879235	-0.04719165969	
645.0	-0.3443259287	0.1633882911	
645.625	0.1821187944	0.1647172434	
646.25	0.02273159435	0.05346380038	
646.875	0.3119197962	0.07235968371	
647.5	-0.1192674021	-0.07133705262	
648.125	0.2742704923	0.1418042517	
648.75	0.1914058926	-0.22612951	
649.375	0.1185626482	-0.08431238529	
650.0	0.298179137	-0.3146229437	
650.625	-0.04883733825	-0.4136755117	
651.25	0.09847004789	-0.05792721107	
651.875	0.370219613	-0.1575000119	
652.5	0.1927514298	-0.2434342584	
653.125	0.130496353	0.01959270635	
653.75	0.2787797397	-0.2929847067	
654.375	-0.2197630429	-0.2228079426	
655.0	-0.105683901	-0.1087367281	
655.625	-0.3562729897	0.2452822328	
656.25	0.1966761174	0.1054905954	
656.875	-0.1120969695	0.07809494959	
657.5	0.1603406584	0.1105658849	
658.125	-0.04744635543	-0.01986451516	
658.75	0.3255002964	0.2294915292	
659.375	0.2747977136	-0.2827202508	
660.0	0.1162418044	-0.1013442345	
660.625	0.2443100397	-0.3209450792	
661.25	0.05371652423	-0.389537934	
661.875	0.1036842517	-0.08296114681	
662.5	0.3622530896	-0.2134427734	
663.125	0.1266549061	-0.2831459017	
663.75	0.1223087537	-0.1443938082	
664.375	-0.01329302307	-0.4031510269	
665.0	-0.2998646509	-0.06909665661	
665.625	-0.212308566	0.001725596175	
666.25	-0.1527471451	0.312658886	
666.875	0.2394592407	0.131637105	
667.5	0.0619983005	0.1159146522	
668.125	0.3416974802	-0.054636694	
668.75	0.04821485102	-0.1591074355	
669.375	0.1738640791	-0.1188793999	
670.0	-0.04366097245	-0.3145979324	
670.625	-0.01429197164	0.06949563756	
671.25	0.1704962159	-0.2090158609	
671.875	0.06852284544	-0.2395882927	
672.5	0.08974907743	-0.05028578578	
673.125	0.3361867074	-0.1865583369	
673.75	0.04189123986	-0.3047974611	
674.375	0.07432600089	-0.1280321127	
675.0	-0.04539973861	-0.2953987364	
675.625	-0.2631825895	0.006751583838	
676.25	-0.02970627553	-0.0530512183	
676.875	-0.251746761	0.02614196115	
677.5	-0.04787747708	0.1115422152	
678.125	-0.1550865167	0.03221914764	
678.75	0.06802631795	0.3427485704	
679.375	0.1668280115	-0.08808560121	
680.0	0.104881031	0.0514535276	
680.625	0.2032595258	-0.2412481573	
681.25	-0.1243884361	-0.02174331421	
681.875	0.2343884478	0.2368222909	
682.5	0.2073125414	-0.1967333817	
683.125	0.0652488467	0.07373259823	
683.75	0.5012552677	0.1255256946	
684.375	0.2790982206	-0.2159677793	
685.0	0.04342915425	0.1391889444	
685.625	0.4526615167	0.02445571297	
686.25	0.1826690858	-0.1044571193	
686.875	0.1968441717	0.01008729713	
687.5	0.3698017934	-0.4077778873	
688.125	-0.2201885713	-0.2571520665	
688.75	-0.3122887617	-0.2267234987	
689.375	-0.3365570854	0.4048070438	
690.0	0.2341957363	0.1806874528	
690.625	0.04781035262	0.3095381253	
691.25	0.5000073209	0.1912351002	
691.875	0.2109782398	0.09278839007	
692.5	0.5271551278	0.3749928008	
693.125	0.734654747	-0.2464679011	
693.75	0.2864896553	-0.2029305165	
694.375	0.5953359587	-0.4402651982	
695.0	0.3939294188	-0.4400530162	
695.625	0.2467719354	-0.08937965141	
696.25	0.6196997824	0.09538569442	
696.875	0.5215374723	0.1617643383	
697.5	0.4792979091	0.4954320278	
698.125	0.5522397269	0.2368415852	
698.75	0.3795385789	-0.4254532135	
699.375	-0.3544119473	-0.2306316829	
700.0	-0.3852412525	0.3243716761	
700.625	0.282736411	0.2121456656	
701.25	0.08066541725	0.07201270804	
701.875	0.2867714031	0.345834354	
702.5	0.3652687234	0.02254611404	
703.125	0.2413313656	0.1654084449	
703.75	0.4741810383	-0.102264693	
704.375	0.1525298628	-0.2934346489	
705.0	0.2900211411	-0.01432347424	
705.625	0.370840246	-0.06067447317	
706.25	0.1741919716	0.01783899166	
706.875	0.1690098562	0.3243263915	
707.5	0.2915841407	0.2712763927	
708.125	0.2618722023	-0.01185111845	
708.75	0.3445789787	-0.2586969301	
709.375	-0.236802517	-0.3026404761	
710.0	-0.06391175113	0.2662182522	
710.625	-0.1050953792	-0.05741006632	
711.25	0.2240474212	0.04018437015	
711.875	0.06588013294	0.1187185501	
712.5	0.384341347	0.06723803211	
713.125	0.1791821188	-0.2605564041	
713.75	0.09037660355	-0.1086734755	
714.375	0.06573703965	-0.3053555096	
715.0	-0.1286346991	-0.1448763682	
715.625	0.06319597586	-0.1120159089	
716.25	0.1866429061	-0.3248104756	
716.875	0.110913656	-0.2247606426	
717.5	0.3793124552	0.07771819837	
718.125	0.7099484933	0.002915096482	
718.75	0.4790212582	-0.3720319405	
719.375	0.647797277	-0.1811804343	
720.0	0.2962424059	-1.012059045	
720.625	0.02125632712	-0.4597608397	
721.25	0.2786194291	-0.8058629685	
721.875	-0.6121020258	-0.8692286978	
722.5	-0.4184935651	-0.144614336	
723.125	-0.7208182081	-0.5165950126	
723.75	-0.2794563627	0.5950767295	
724.375	0.1155787832	0.2212478838	
725.0	0.001572818527	0.5044057287	
725.625	0.379245847	0.3268511961	
726.25	-0.08126831895	0.3330715949	
726.875	-0.1857943997	0.9808146189	
727.5	0.3336418241	1.203703339	
728.125	-0.01005080602	0.9507149284	
728.75	-0.3815718792	2.905693393	
729.375	0.7134957388	3.096093923	
730.0	-0.1231849148	1.844381167	
730.625	-0.9878193929	4.287107784	
731.25	1.0864922	2.951954161	
731.875	-0.7713716931	0.2422026034	
732.5	-3.537999265	0.6640319149	
733.125	-1.500508174	1.313217937	
733.75	-0.7608188192	0.5619618169	
734.375	1.304129172	0.5958982447	
735.0	-0.3432605193	-0.3931632265	
735.625	-0.2672513071	-0.2421532672	
736.25	-0.04622651553	0.7263723192	
736.875	0.4272250451	-0.1190376425	
737.5	0.6919345463	0.664978444	
738.125	1.616368165	-0.8323028923	
738.75	0.5001174093	-1.275601102	
739.375	1.414738569	0.472948146	
740.0	4.518401663	-2.382314957	
740.625	-0.1936210824	-1.845686217	
741.25	-2.9864184	3.53915821	
741.875	-3.38879942	2.88924271	
742.5	0.6945145744	-0.2416187728	
743.125	0.7900974722	-2.476727335	
743.75	-0.6205519403	-1.002908566	
744.375	-0.006226359782	0.1418983234	
745.0	-0.04268889619	0.2504999712	
745.625	-0.05958935834	-0.02615415559	
746.25	0.07437901961	-0.1898859045	
746.875	-0.2359684175	0.09638656146	
747.5	0.00089668405	0.1614575824	
748.125	0.0009964037342	0.4595243994	
748.75	0.3628783127	0.4073750064	
749.375	0.1127347868	0.2527670441	
750.0	-0.4094828082	0.2258081096	
