!Created with skrf (http://scikit-rf.org).
# GHz S MA R 50.0 
!freq magS11 angS11
500.0 0.0157474744035 146.857188929
500.625 0.00893909610571 55.3144922177
501.25 0.00939774283642 -147.773635948
501.875 0.018501726526 -169.343376856
502.5 0.00656184593355 128.696779824
503.125 0.0226206123062 130.759565977
503.75 0.0111752798324 105.790972454
504.375 0.00426758774099 -48.6986964485
505.0 0.0280608543016 -73.5282281649
505.625 0.00558928460395 -79.6385096522
506.25 0.0334140973998 -110.151823924
506.875 0.0568289368699 -114.689731653
507.5 0.0553199913679 -104.806979428
508.125 0.047460164939 -96.1146915184
508.75 0.0664779149102 -122.410936998
509.375 0.0475039825507 -143.74817952
510.0 0.0434318885285 -108.700003276
510.625 0.0316369569906 -168.096904069
511.25 0.0507560358859 -175.101565147
511.875 0.0495677485611 142.594477242
512.5 0.0483522998576 112.168506865
513.125 0.0458897248842 24.7007778987
513.75 0.056901011383 41.6790307257
514.375 0.0554173586155 29.3396165697
515.0 0.0384324150415 -15.0204917888
515.625 0.0739402913857 48.6212971657
516.25 0.0980886879758 30.9920133884
516.875 0.117790413887 70.450056848
517.5 0.136688047524 23.8358239175
518.125 0.188443477919 68.5151042401
518.75 0.0760903612052 2.79717346447
519.375 0.0853530747577 24.110123885
520.0 0.0714463189099 -12.6001917241
520.625 0.0952610585123 -5.14946411079
521.25 0.0810523795915 -29.1858932464
521.875 0.071461171192 2.72198066931
522.5 0.0912399977081 -34.6103611022
523.125 0.172255782308 -36.3763127297
523.75 0.216059880611 -55.8439303924
524.375 0.203796579041 -52.8694513368
525.0 0.0659334020332 -61.7002833617
525.625 0.0302203343731 -49.7830173208
526.25 0.0418989635622 -10.365261578
526.875 0.0662732468653 -15.9560864647
527.5 0.0345389288999 -47.2435583683
528.125 0.0328912694959 -60.6952155233
528.75 0.060331019527 -77.7916926265
529.375 0.108424596828 -106.444023974
530.0 0.0436577399032 -132.544025295
530.625 0.0393149566447 -137.758061439
531.25 0.119809285637 -133.734048041
531.875 0.198412037612 -147.243041532
532.5 0.12868963252 -173.004356391
533.125 0.0882811213497 175.355094338
533.75 0.101447691724 166.519235258
534.375 0.129115175387 -179.55716659
535.0 0.0720837362093 156.475150832
535.625 0.0595832371018 177.233821009
536.25 0.058261327851 166.158274491
536.875 0.0915160804255 -162.045801813
537.5 0.0943165715876 -144.113097865
538.125 0.107118730309 -172.083622432
538.75 0.101262642511 -179.494246963
539.375 0.0896471616478 -163.778652681
540.0 0.0677979561962 -150.824308295
540.625 0.125884253366 -154.680449859
541.25 0.125372674795 -141.308240462
541.875 0.106435461792 -145.673204851
542.5 0.108891758898 -141.634877122
543.125 0.13192453689 -165.852881823
543.75 0.13022398652 160.011753033
544.375 0.105143399052 136.129724247
545.0 0.0717810027549 89.5869264834
545.625 0.0934603060867 84.6702827701
546.25 0.0945321181741 67.5913083209
546.875 0.0934370355192 53.8978740231
547.5 0.0881304081455 58.469628579
548.125 0.111004333213 79.7711972694
548.75 0.0888335355448 91.6075674542
549.375 0.110137409638 85.8132809823
550.0 0.0628961262935 120.851164062
550.625 0.0407313839768 159.04744178
551.25 0.0369507068665 -143.081547059
551.875 0.0724577780742 -169.529406418
552.5 0.0913061578345 -156.178591352
553.125 0.0866192699965 -164.550057201
553.75 0.0895662229961 -167.892547222
554.375 0.116934185685 163.176763998
555.0 0.105181934779 167.682107078
555.625 0.0943102600732 159.286867441
556.25 0.102538821487 161.661829104
556.875 0.120882729688 165.796345589
557.5 0.123110579249 165.137197601
558.125 0.0939655523741 163.88281913
558.75 0.0834586175335 176.536262652
559.375 0.0753351853284 -175.00845771
560.0 0.0318832700883 -135.037391555
560.625 0.057316530824 -134.834293392
561.25 0.0822622164119 -149.008283979
561.875 0.109542895825 -165.709578027
562.5 0.0923262499927 173.612501369
563.125 0.102150089222 149.52944714
563.75 0.118872918006 133.841455826
564.375 0.112862723983 118.809478458
565.0 0.0717413403127 123.584259214
565.625 0.0782479092422 120.832433107
566.25 0.0844276298351 155.836988391
566.875 0.0769129801647 177.629496608
567.5 0.0786943795468 178.603540838
568.125 0.0788435132433 -169.824954468
568.75 0.0647475842898 -144.561486364
569.375 0.0504058034502 -110.846026221
570.0 0.0630629692017 -116.000515669
570.625 0.0900725665084 -115.784816998
571.25 0.0912340265126 -121.585537388
571.875 0.088878781669 -127.103929428
572.5 0.11585802407 -160.068786978
573.125 0.138049315085 -173.016476443
573.75 0.10119986424 163.983524775
574.375 0.0842136108731 147.618291434
575.0 0.102189728183 154.07413791
575.625 0.108328551388 156.380998931
576.25 0.0839298506721 148.124315704
576.875 0.0863535942725 124.416835711
577.5 0.0722572228581 143.803757447
578.125 0.0564609791384 163.904465974
578.75 0.0506430238742 158.04049032
579.375 0.0573343690481 158.619598221
580.0 0.0711857915043 174.910634554
580.625 0.0765772883002 -148.482077546
581.25 0.0910764871212 -165.392227168
581.875 0.116572144235 -177.216285627
582.5 0.121593560632 179.808067454
583.125 0.0850422379693 -158.953923256
583.75 0.0812824390672 -160.170846002
584.375 0.099668727094 -155.492718496
585.0 0.0989554485572 -149.204491089
585.625 0.067304304167 -138.918267938
586.25 0.0711593173139 -134.460451653
586.875 0.0828574577708 -135.682566098
587.5 0.0762150994759 -149.829652283
588.125 0.0566701658853 -160.414528411
588.75 0.0677669367614 -153.430706084
589.375 0.0833523706858 -150.073561536
590.0 0.0903669744268 -174.440315491
590.625 0.107628442742 174.491689147
591.25 0.121161316579 160.273900156
591.875 0.0925048992375 158.517036538
592.5 0.0666707135785 139.219334093
593.125 0.061029172894 170.565821581
593.75 0.0720184949151 -174.903552851
594.375 0.0567031040007 -142.831391834
595.0 0.0405887720261 -132.90614659
595.625 0.0696570269876 -84.7791269629
596.25 0.0767439359604 -79.4092651119
596.875 0.0655032429515 -72.8733928246
597.5 0.0554649973431 -70.1651725329
598.125 0.0779842237967 -45.4474190378
598.75 0.0788872711439 -65.4509983581
599.375 0.0902115034576 -65.03375979
600.0 0.0962962722295 -73.065379804
600.625 0.101761408626 -60.9871904631
601.25 0.0844455275482 -66.4890263842
601.875 0.067442074252 -82.932905374
602.5 0.0612938699715 -100.282108867
603.125 0.049152631678 -28.0615453766
603.75 0.0316621426712 -31.8568238354
604.375 0.0384960372387 -29.2919774264
605.0 0.0622818769308 -18.7297717271
605.625 0.0464636018658 -25.1233233397
606.25 0.0310596520676 22.123953097
606.875 0.0411451625678 49.0299299612
607.5 0.068426496985 44.4699875757
608.125 0.0578906012404 20.5314809773
608.75 0.0685500942756 24.3832231268
609.375 0.0581756628543 25.0935274804
610.0 0.0715958050503 40.3871017486
610.625 0.0565782087195 26.0558016499
611.25 0.0533743888776 40.3356947128
611.875 0.0399052152157 52.2377200756
612.5 0.0262865627581 95.6753176866
613.125 0.00907896694301 145.110683414
613.75 0.0740275184385 128.150394611
614.375 0.0558144458071 124.762972599
615.0 0.0346915852178 127.66886848
615.625 0.016912145136 148.501894149
616.25 0.045726299069 137.42004445
616.875 0.0497564154889 131.482647087
617.5 0.0449221040397 130.579302355
618.125 0.00588840422078 134.049637064
618.75 0.0442198917199 150.486446292
619.375 0.0300143988016 148.916821748
620.0 0.0147625378068 157.606652024
620.625 0.0361087630421 -67.3530530655
621.25 0.0507423220497 -137.739697905
621.875 0.063642633761 -118.853388109
622.5 0.0815124650064 -172.002065809
623.125 0.0672933659163 177.552489144
623.75 0.0720949683383 165.058118806
624.375 0.0515165176823 179.786997386
625.0 0.0317629874182 -138.702117189
625.625 0.0363582276456 -155.441405786
626.25 0.00545759358842 147.524000476
626.875 0.00250728252753 149.463700904
627.5 0.020295260171 -23.4442214281
628.125 0.0356928721926 -31.8512465797
628.75 0.0497723771696 0.366422148523
629.375 0.0380832029169 -29.8048019611
630.0 0.0593681970265 -16.1540180647
630.625 0.069323632468 8.33931415647
631.25 0.0691766839849 4.72399811521
631.875 0.0662854626474 -9.66185719672
632.5 0.0568339167494 -9.76343204203
633.125 0.0466802554882 -1.60533690653
633.75 0.0493957967236 26.6946092953
634.375 0.0524754448698 -23.5117013923
635.0 0.0319842564475 9.88868960593
635.625 0.0433220607513 49.7069472021
636.25 0.0538402741978 42.876303264
636.875 0.0748185126719 50.2350317375
637.5 0.0385574977676 7.12720861626
638.125 0.0270674277011 57.2597752648
638.75 0.0730444583341 77.2001330882
639.375 0.10878484225 98.8740879446
640.0 0.0658626658325 82.6545430561
640.625 0.049159535619 89.8352819457
641.25 0.0632478158335 113.869162761
641.875 0.0812047660593 158.169271426
642.5 0.0527931045978 157.36513439
643.125 0.0556729075111 162.438340693
643.75 0.0648980493244 174.590694293
644.375 0.0903497891434 -168.961241521
645.0 0.0676654719765 174.922924369
645.625 0.0773766847865 162.298980634
646.25 0.0836176522258 157.375468664
646.875 0.0836314451586 -177.077092127
647.5 0.0490706739155 169.276316777
648.125 0.0770983824715 -177.741597121
648.75 0.0797862020473 -161.45529509
649.375 0.053924531298 -144.925153797
650.0 0.0395943847827 -123.614805161
650.625 0.0657147789554 -88.9136604187
651.25 0.0751803546604 -62.7612720757
651.875 0.0669490333552 -40.4113403201
652.5 0.103163170276 -24.3885325868
653.125 0.114487987387 -2.85112456649
653.75 0.114945381745 6.34107589539
654.375 0.121468438949 7.71385854013
655.0 0.0924402487915 2.19672654075
655.625 0.0848661196482 23.7122938499
656.25 0.0667619009551 23.831948752
656.875 0.0723964701702 10.3858259275
657.5 0.0939592755022 25.5736675791
658.125 0.046340666122 44.6344515471
658.75 0.0490739576745 68.3628750788
659.375 0.0819152525797 42.1653918274
660.0 0.131948049162 24.2729369087
660.625 0.089216784221 17.7069933245
661.25 0.0968696442917 6.6520397624
661.875 0.116267986067 -14.8466460803
662.5 0.138757086298 -20.1213427932
663.125 0.101561579332 -15.2227357948
663.75 0.0879864218836 5.06926237557
664.375 0.0971722279647 55.7657834372
665.0 0.0787069663686 91.3463968399
665.625 0.0589970322449 112.753853025
666.25 0.0719803219854 132.895398193
666.875 0.130454659978 167.59538564
667.5 0.0904345830743 -170.407814595
668.125 0.100611330132 -176.785048105
668.75 0.121041216408 165.78980925
669.375 0.130494025141 178.983272217
670.0 0.0887711594129 -169.634432427
670.625 0.0875310405178 -171.328984242
671.25 0.114049875704 176.290206149
671.875 0.102931052075 169.330614261
672.5 0.0889439606082 153.696539378
673.125 0.0832606890435 156.961951358
673.75 0.103759705355 160.61867822
674.375 0.12320414334 166.377308826
675.0 0.0971481582162 -170.130723232
675.625 0.129230321501 -149.473117308
676.25 0.112156356508 -124.315972897
676.875 0.120845458091 -121.934639121
677.5 0.113410998025 -128.931563713
678.125 0.124105756627 -115.046728414
678.75 0.0666168431599 -90.6428011526
679.375 0.0534005589308 -74.2672750709
680.0 0.0867836988436 -84.1610017335
680.625 0.101749274986 -68.2495608111
681.25 0.0983384925678 -69.783224925
681.875 0.0950490516436 -88.5295685052
682.5 0.143775209414 -122.419373124
683.125 0.171606745601 -122.623683487
683.75 0.137912553275 -105.786655953
684.375 0.114873341451 -78.2886510248
685.0 0.126558590047 -40.243135784
685.625 0.139558600528 -4.0670211304
686.25 0.0942293311265 25.8140940989
686.875 0.0812561222884 49.6650629835
687.5 0.0798340055642 83.523844482
688.125 0.0870440319439 103.893243161
688.75 0.0951988294526 123.972912498
689.375 0.13514445999 126.045347632
690.0 0.122997986891 136.777238943
690.625 0.126723559822 122.077351387
691.25 0.127951385323 106.730823566
691.875 0.182557080358 71.6416869652
692.5 0.134621604461 41.2921850434
693.125 0.0922988916598 -16.0552336323
693.75 0.103505431708 -44.2972333842
694.375 0.134375871889 -26.2835133449
695.0 0.122232335468 18.1394795455
695.625 0.0952321316667 59.6819539559
696.25 0.122035293025 104.900953119
696.875 0.133300801979 177.853049071
697.5 0.142879360172 -144.997575209
698.125 0.143450706552 -135.456496073
698.75 0.140895125212 -136.842068963
699.375 0.0981192850471 -117.554986549
700.0 0.0895771962475 -109.09238079
700.625 0.113268146363 -89.6700829742
701.25 0.110032588312 -71.9734831514
701.875 0.0764365141957 -44.5181071244
702.5 0.101706395573 -77.3903269498
703.125 0.162134706912 -117.38652678
703.75 0.189358083379 -156.020897024
704.375 0.126508349209 172.407132942
705.0 0.108883913927 161.463179906
705.625 0.139325759352 -163.386959337
706.25 0.144408114583 -111.390173554
706.875 0.0991006336649 -69.5577676924
707.5 0.0684304483034 -16.8104599099
708.125 0.0921304113949 28.5980859679
708.75 0.10927954663 69.5062631232
709.375 0.106929121813 96.0724940258
710.0 0.102878921201 143.880213749
710.625 0.109632730487 154.8446837
711.25 0.119369818889 178.966238784
711.875 0.143844091186 160.260161477
712.5 0.146247120339 153.730921479
713.125 0.122215623202 106.906866821
713.75 0.0903273905479 53.5961309379
714.375 0.113131841691 13.734960642
715.0 0.107590401219 39.9227768482
715.625 0.0845680141833 51.4413752776
716.25 0.0846746979096 79.0878742422
716.875 0.11934156663 102.98288559
717.5 0.139798075646 135.153500396
718.125 0.120409717237 -178.318960166
718.75 0.106134660051 177.145235279
719.375 0.110386995056 -171.681016795
720.0 0.130975976031 -128.604131217
720.625 0.112576968038 -77.7106684619
721.25 0.100928440014 -17.8325814062
721.875 0.0867597032997 34.7172796928
722.5 0.067883054373 52.4908486954
723.125 0.0956868878351 82.9171202872
723.75 0.122401586893 51.3845321447
724.375 0.115099458864 3.0030892297
725.0 0.0827553420888 -51.4685826241
725.625 0.102840398841 -65.8150168108
726.25 0.115539642493 -62.5783841767
726.875 0.104699220777 -49.195229337
727.5 0.081346112163 -34.1689821399
728.125 0.0677158793902 -22.2208982848
728.75 0.124390935667 43.890777853
729.375 0.0987429916019 29.4915913727
730.0 0.0691880245133 9.14722513908
730.625 0.0608427087029 16.5132154797
731.25 0.0724384160997 63.1989623154
731.875 0.0681010552347 114.343147709
732.5 0.0769321789301 150.44377443
733.125 0.0905809267354 173.159694239
733.75 0.0655675614436 165.706853208
734.375 0.0728611898632 179.016184135
735.0 0.067432188286 169.229193436
735.625 0.0201867844017 112.90105204
736.25 0.0544904309844 155.786094508
736.875 0.0607464469856 166.025543124
737.5 0.0810250797377 -178.886698372
738.125 0.0891465950915 -176.337245099
738.75 0.0676136613894 -175.238780066
739.375 0.0465256454156 -164.540094298
740.0 0.0451911335667 -149.034436301
740.625 0.0599805857807 -146.709649122
741.25 0.0198378001205 -145.433847255
741.875 0.083902613569 -105.947667697
742.5 0.0460313592197 -24.5725218972
743.125 0.0488003803467 59.4565410214
743.75 0.027887188679 153.740404876
744.375 0.0629627161757 93.1135257581
745.0 0.0597440506046 106.008596024
745.625 0.0610814567895 115.54418252
746.25 0.0703679602094 108.776955591
746.875 0.0929108923115 35.2341389771
747.5 0.0474101500129 3.68579553756
748.125 0.0140556926152 22.8092971676
748.75 0.020271415934 -3.56357114777
749.375 0.0353831625622 10.9690717934
750.0 0.0453776935976 -118.510476336
