!Created with skrf (http://scikit-rf.org).
# GHz S RI R (50+0j) 
!freq	ReS11	ImS11	
500.0	-0.4053137229	-0.7350304152	
500.625	0.9157118908	-0.7973634285	
501.25	-0.8051064493	-0.8133588937	
501.875	-0.1172311176	-0.2663463062	
502.5	-0.01615414768	-0.2107289905	
503.125	-0.0485931873	0.06030987853	
503.75	-0.03711742553	0.04676912874	
504.375	0.05536372693	-0.02446280683	
505.0	-0.007077481883	-0.0005069178118	
505.625	0.02000524802	-0.1125543551	
506.25	-0.1317274245	0.01447383813	
506.875	-0.1015922523	-0.2243348739	
507.5	-0.4614786022	-0.2322895234	
508.125	0.3256831884	-0.2876538481	
508.75	0.8942474664	-1.24486549	
509.375	-0.4578302899	-1.208164949	
510.0	-0.1330644976	-0.3864685315	
510.625	-0.1424817381	-0.3098055647	
511.25	-0.09025233441	0.005005001117	
511.875	-0.04421930898	-0.152229436	
512.5	-0.01823185326	0.0645512339	
513.125	-0.02221983261	-0.02786914266	
513.75	-0.01216881335	-0.1114148085	
514.375	-0.1314786478	0.05086230188	
515.0	0.379774892	-0.2791264498	
515.625	-0.3738897172	-0.292737344	
516.25	0.1684469417	-0.3189502239	
516.875	-0.2518934469	-0.7507643841	
517.5	-0.1486970456	-0.07691624606	
518.125	0.05274399947	-0.05420738128	
518.75	-0.1726663658	-0.1575363176	
519.375	-0.02259704356	0.01616380851	
520.0	0.1274714156	0.05312331552	
520.625	0.1943701416	-0.1112861204	
521.25	-0.07466523506	-0.1458133538	
521.875	-0.1042542696	-0.1148937034	
522.5	-0.09652453515	0.06896063199	
523.125	0.005467919249	-0.1039177269	
523.75	-0.245302493	-0.000951801209	
524.375	-0.0189300564	0.127298462	
525.0	-0.1933213504	0.05361582616	
525.625	0.1076542426	0.1403032624	
526.25	-0.1018997505	-0.04065647112	
526.875	-0.0001701259768	0.1121818611	
527.5	-0.1397322932	0.149392586	
528.125	-0.03478543754	0.3710434413	
528.75	0.1840047336	0.2808945426	
529.375	-0.05030015907	0.002357291412	
530.0	0.03033775149	0.208698272	
530.625	0.07900799463	0.1180125912	
531.25	0.2657126209	0.1601203476	
531.875	0.2603642131	-0.3522722716	
532.5	-0.1532681799	0.04729657337	
533.125	0.08329010052	-0.2093357151	
533.75	0.03162179776	-0.04774378724	
534.375	0.008653207524	-0.4123116711	
535.0	-0.3384332364	-0.06460642658	
535.625	-0.1223283627	0.04872735639	
536.25	-0.03390366094	0.1211290027	
536.875	0.1073932441	-0.02599396784	
537.5	0.06402166293	0.003642275883	
538.125	0.1669545529	-0.1148138308	
538.75	0.08605518145	-0.1065011009	
539.375	-0.01320288936	-0.2006681044	
540.0	-0.1466638934	-0.1970837209	
540.625	-0.1084209056	0.02026225382	
541.25	-0.04109472028	-0.02525223933	
541.875	-0.1107961705	-0.003631360551	
542.5	0.03025286574	-0.07115621314	
543.125	-0.1443879248	-0.06895544305	
543.75	-0.03352530365	0.08526220835	
544.375	-0.1123599945	0.0224535285	
545.0	0.06957027779	0.0976481511	
545.625	-0.01298438009	0.06032393648	
546.25	0.1681361817	0.05253783854	
546.875	0.06771893456	-0.05988547596	
547.5	0.1252886615	-0.06575024019	
548.125	-0.08577053594	-0.2162054333	
548.75	-0.102482435	-0.04850884333	
549.375	-0.09350394121	-0.1282521801	
550.0	-0.1119835569	0.04246592844	
550.625	-0.02630972729	-0.0312368352	
551.25	-0.1149225097	0.05831963941	
551.875	-0.03750065987	0.05437989791	
552.5	-0.07173648482	0.04246765459	
553.125	0.0002558183989	0.07511145321	
553.75	0.03243186041	0.04658241672	
554.375	0.1108547045	-0.0007915063591	
555.0	0.09178621132	-0.08016969777	
555.625	0.09740878931	-0.1060691671	
556.25	0.07622157534	-0.1522811163	
556.875	-0.03891887599	-0.1692987581	
557.5	-0.1015826414	-0.1111222535	
558.125	-0.1222033612	-0.04930302328	
558.75	-0.1200227768	-0.0008657915262	
559.375	-0.1096046407	0.01785371437	
560.0	-0.1208031694	0.06770254544	
560.625	-0.04670321891	0.129857661	
561.25	-0.0006385494451	0.0799080158	
561.875	0.03306005613	0.0810543764	
562.5	0.01382393024	0.01774850033	
563.125	0.06626158629	0.1191024274	
563.75	0.1627321933	-0.03384602681	
564.375	0.1117404996	-0.05419773777	
565.0	0.1635572604	-0.1604580389	
565.625	-0.0804916646	-0.1587855054	
566.25	-0.0617887467	-0.1257413599	
566.875	-0.2004786148	-0.1320741738	
567.5	-0.1294800716	-0.01771120328	
568.125	-0.09844565759	-0.2370838518	
568.75	-0.3097963948	-0.0562296887	
569.375	-0.1422046252	0.06367947376	
570.0	-0.2226386898	0.1879460316	
570.625	-0.004282030458	0.2455492291	
571.25	-0.02301122946	0.04248827079	
571.875	0.1101218289	0.1763576781	
572.5	0.05682465299	-0.07474542189	
573.125	0.1740543743	-0.03980442839	
573.75	0.04212255139	-0.2214895654	
574.375	-0.04560814131	0.01851343379	
575.0	0.1217298436	-0.09063661931	
575.625	-0.05074863501	-0.06071268449	
576.25	0.1317402381	-0.0618901743	
576.875	-0.0309781307	-0.2321973616	
577.5	-0.1011282201	-0.09388734094	
578.125	0.05582996878	-0.1459775743	
578.75	-0.1580228265	-0.2098619202	
579.375	-0.08882674308	0.07013189631	
580.0	0.014158495	-0.1505656924	
580.625	-0.1256963632	0.08602311471	
581.25	-0.05731526375	-0.03435579757	
581.875	-0.05195053382	0.3065115996	
582.5	0.1666232066	0.1207958645	
583.125	-0.06269001864	0.04799865116	
583.75	0.1147952313	0.1150378745	
584.375	-0.03407662699	-0.04071177114	
585.0	0.1403062319	0.1701066623	
585.625	0.1551512646	-0.1256428247	
586.25	0.07796590428	0.0009357771193	
586.875	0.166074956	-0.182500076	
587.5	-0.1085349806	-0.1385591237	
588.125	0.058008649	-0.08020037608	
588.75	0.06942947396	-0.2420884981	
589.375	-0.04763393568	-0.1357380466	
590.0	0.05337064356	-0.1919794187	
590.625	-0.3626820405	0.003346668316	
591.25	-0.02990600125	0.09944873432	
591.875	-0.1285044894	0.08887511833	
592.5	0.1051890359	0.1185078339	
593.125	-0.2059481435	0.02702533802	
593.75	0.1712500197	0.1704688347	
594.375	0.08716940208	0.03092891964	
595.0	0.1262292213	0.1870308817	
595.625	0.2676712619	0.02127159226	
596.25	0.06502749499	-0.003851602252	
596.875	0.2087199116	0.1305516254	
597.5	0.194692179	0.005584559567	
598.125	0.108115629	0.1608087842	
598.75	0.2459958646	0.1601118161	
599.375	0.1854031765	-0.09506506799	
600.0	0.1658412741	-0.06304276016	
600.625	0.2211056938	-0.2084644803	
601.25	-0.0233923588	-0.235327141	
601.875	0.02168941435	-0.09254621367	
602.5	-0.232333358	-0.05328589942	
603.125	0.01445918034	0.07365823118	
603.75	-0.1559994864	-0.02596755827	
604.375	-0.1478174381	0.1854870025	
605.0	-0.04899303246	-0.06327832603	
605.625	-0.1885296472	0.06887319592	
606.25	-0.01956574086	0.02432998125	
606.875	-0.1681640416	-0.01688691369	
607.5	-0.2457813132	0.2576396447	
608.125	0.04658526778	0.2330576986	
608.75	0.07973893811	0.2112974984	
609.375	0.3541468718	-0.03098213446	
610.0	0.1398931832	-0.1635705895	
610.625	0.1641084113	-0.07052173748	
611.25	0.0316373823	-0.2817936021	
611.875	-0.05815112424	-0.02472004092	
612.5	-0.1552534363	-0.1902541577	
613.125	-0.2646183499	0.1508699571	
613.75	-0.02915256988	0.0002374951738	
614.375	-0.04494193275	0.2086519051	
615.0	0.1495011753	-0.01858891121	
615.625	-0.1303536159	0.09607993955	
616.25	0.04047419775	0.2240872232	
616.875	-0.005167212631	0.09701430901	
617.5	-0.1939461147	0.196954468	
618.125	0.02796890324	0.3472270237	
618.75	0.04696301407	0.2183025801	
619.375	0.01741113772	0.2582470787	
620.0	0.2660064578	-0.007303473643	
620.625	0.07717843168	-0.07575948927	
621.25	0.08932847356	-0.1922812026	
621.875	-0.287273376	-0.03371139186	
622.5	-0.1288592923	-0.005789947061	
623.125	-0.1446711929	0.2247770207	
623.75	0.2273639973	0.004644091653	
624.375	-0.01392005336	0.02259244184	
625.0	0.09690724315	-0.1171769733	
625.625	0.001234723969	-0.02557858761	
626.25	0.02109181421	-0.2032840378	
626.875	-0.2055230131	-0.07511415685	
627.5	-0.06384263075	-0.005242713997	
628.125	-0.142735461	-0.1483597621	
628.75	-0.1491377556	-0.07262007401	
629.375	-0.1175491913	-0.09133236538	
630.0	-0.2410943912	-0.1573756263	
630.625	-0.2696850518	0.1346106895	
631.25	-0.1132999075	0.133772967	
631.875	-0.1569511435	0.3255354224	
632.5	0.2067515083	0.1765453394	
633.125	0.1153202352	0.07090846401	
633.75	0.2842381415	-0.06678473661	
634.375	-0.07944883243	-0.1670582748	
635.0	0.08971102264	-0.1487015183	
635.625	-0.2405151838	-0.1102632852	
636.25	-0.08360284505	0.09804781439	
636.875	-0.1694764844	0.06965231678	
637.5	-0.01476876051	0.2350620755	
638.125	-0.06119951292	-0.01740604653	
638.75	-0.1545149476	0.2460292172	
639.375	0.1084339597	0.2479123196	
640.0	0.07202647801	0.1799620964	
640.625	0.3035121759	0.2562157531	
641.25	0.2756183724	-0.1137918616	
641.875	0.1724761771	-0.0518303087	
642.5	0.1556942808	-0.3842464629	
643.125	-0.1911593139	-0.0250851166	
643.75	0.02236452517	-0.1560965575	
644.375	-0.3096475536	0.05019462218	
645.0	0.1105429387	0.132570739	
645.625	-0.1372005882	0.2440437193	
646.25	0.3352668686	0.06121350051	
646.875	-0.06172367428	-0.04266182331	
647.5	0.2205365131	0.1324837488	
648.125	0.09017993345	-0.08715442334	
648.75	0.2991479737	0.1251932953	
649.375	0.3400064239	-0.423744746	
650.0	-0.02324191605	-0.2662065941	
650.625	0.2890916117	-0.1602128951	
651.25	0.3008700088	-0.4057448969	
651.875	0.06565344437	-0.1885519004	
652.5	0.3738489435	0.06985300407	
653.125	0.4048517214	-0.2400574863	
653.75	0.08440039974	-0.1260806147	
654.375	0.1213435793	-0.4158981995	
655.0	-0.5424745872	-0.08287187097	
655.625	-0.04762327376	0.1382922879	
656.25	-0.146899746	0.1929117539	
656.875	0.3157578527	0.1220188967	
657.5	-0.1620662067	0.08766350642	
658.125	0.4021584	0.261999235	
658.75	0.243212235	-0.05050192995	
659.375	0.3450077581	0.04972862826	
660.0	0.3564951971	-0.4370082071	
660.625	-0.04927301767	-0.2455205661	
661.25	0.290618662	-0.192457947	
661.875	0.2954694434	-0.3648912025	
662.5	0.150330502	-0.2310149636	
663.125	0.3740860634	-0.04206427787	
663.75	0.2008026514	-0.4285236031	
664.375	-0.05717569303	-0.2225987383	
665.0	-0.1923709274	-0.3338194353	
665.625	-0.425338422	0.1540942886	
666.25	-0.05654367287	0.1783743864	
666.875	0.01698440138	0.3050937587	
667.5	0.3414703579	0.05696364368	
668.125	0.1002371835	0.00715205557	
668.75	0.3424339211	-0.1116372154	
669.375	-0.08160641647	-0.3043540668	
670.0	0.1036655956	-0.101036515	
670.625	0.07281184833	-0.3036904969	
671.25	-0.08824871541	-0.1773276046	
671.875	0.3030404686	-0.05820857323	
672.5	0.2785713548	-0.2570069796	
673.125	0.1233027004	-0.15747427	
673.75	0.2324648213	-0.1195558506	
674.375	0.1018478243	-0.4196787216	
675.0	-0.1093710682	-0.09937059244	
675.625	-0.08670581745	-0.2476542278	
676.25	-0.3086473857	-0.02542501308	
676.875	-0.04328854747	0.05967005323	
677.5	-0.2482882025	-0.1376454231	
678.125	-0.104283134	0.275939312	
678.75	-0.01233528471	0.08158089506	
679.375	0.2201894843	0.3289567028	
680.0	0.2022172181	-0.2760036032	
680.625	-0.0180894864	0.2728170617	
681.25	0.3014244695	-0.05048698485	
681.875	0.08135790861	-0.08708739532	
682.5	0.104011376	0.3167639279	
683.125	0.5113526543	0.01878507795	
683.75	0.06660340811	-0.01195186327	
684.375	0.3081573583	0.2359176818	
685.0	0.4523816373	0.0108747852	
685.625	0.1094156936	-0.0936115021	
686.25	0.5134425627	0.04435517869	
686.875	0.3314450061	-0.3588712272	
687.5	0.2381567657	-0.1450419365	
688.125	0.1947431459	-0.5397857542	
688.75	-0.5526219553	-0.2055917613	
689.375	-0.1877769084	0.113438452	
690.0	-0.0364049752	0.5617270847	
690.625	0.368990803	0.1625183479	
691.25	-0.024997313	0.3708730452	
691.875	0.6637939691	0.5250931725	
692.5	0.5825852967	0.01997370094	
693.125	0.6896452618	0.2880345448	
693.75	0.8379830335	-0.2365728341	
694.375	0.2545833296	-0.259661092	
695.0	0.5249776743	0.001498437005	
695.625	0.7502199031	-0.1456818753	
696.25	0.4303436247	0.04104445096	
696.875	0.3544426017	0.4618056806	
697.5	0.4912798774	0.6301134183	
698.125	0.416813272	0.09668478842	
698.75	0.6156403935	-0.2086780968	
699.375	-0.2836467368	-0.6783216694	
700.0	-0.164443024	0.3839324208	
700.625	-0.1133192533	0.2935615021	
701.25	0.445213847	0.1993969545	
701.875	0.09291404362	0.1245214613	
702.5	0.3141795848	0.4345139338	
703.125	0.5811650952	0.05179529728	
703.75	0.2459223683	0.02385735938	
704.375	0.4557214275	-0.1670706887	
705.0	0.1888460488	-0.1847736923	
705.625	0.1145801336	0.08259977523	
706.25	0.3354341157	0.2442190346	
706.875	0.3530861447	0.1575597482	
707.5	0.379743504	0.3260894556	
708.125	0.5281394596	0.2692788165	
708.75	0.2586983748	-0.4533898546	
709.375	-0.02035125125	-0.2612264536	
710.0	-0.4073916519	0.02591213098	
710.625	0.1524753383	0.09030464754	
711.25	-0.04624971403	0.202303817	
711.875	0.3745999462	0.1346985668	
712.5	0.1305898197	-0.05746227701	
713.125	0.3841645214	-0.05351725495	
713.75	0.1459276735	-0.3620944899	
714.375	-0.03443313253	-0.1412731223	
715.0	0.0780635455	-0.2542329775	
715.625	-0.08775487196	-0.2866313386	
716.25	0.1460365434	-0.08812665888	
716.875	0.4723621032	-0.138776636	
717.5	0.5210885817	-0.2768665675	
718.125	0.5426531939	-0.003747855792	
718.75	1.04918044	0.04005330834	
719.375	0.6339037411	-0.6726647293	
720.0	0.1313105518	-0.3902546391	
720.625	0.8445460062	-1.233208884	
721.25	-0.2913587663	-0.7794138676	
721.875	0.3204993275	-0.9475114671	
722.5	-0.7402027135	-1.08981992	
723.125	-0.7292820047	0.276032171	
723.75	-0.5259716118	0.09014348745	
724.375	0.08342961067	0.6839445709	
725.0	0.157196104	0.1723655212	
725.625	-0.03594431797	0.559467975	
726.25	0.1497306131	0.9070338444	
726.875	0.0292766496	0.6140743633	
727.5	-0.7218957754	1.327547786	
728.125	0.2392159091	2.434797703	
728.75	0.5192406495	2.119656319	
729.375	-2.588019094	3.087963501	
730.0	1.384556637	5.340123714	
730.625	1.41216484	2.638390996	
731.25	-3.051062276	3.069948278	
731.875	-2.796873836	4.483575382	
732.5	-1.7583085	0.2724033004	
733.125	-3.278233891	-0.7111316436	
733.75	-0.812884716	1.938549809	
734.375	0.4300600704	0.2690005305	
735.0	0.4240828546	-0.842674701	
735.625	-0.4474103592	0.4296059142	
736.25	-0.4140502314	0.147848997	
736.875	0.4605650357	0.927550495	
737.5	1.155383701	-0.1877605259	
738.125	0.5731425157	0.1848029087	
738.75	3.245362952	-1.082872109	
739.375	1.370035788	-2.749276741	
740.0	0.9112633625	0.6589784995	
740.625	6.486372847	1.48218224	
741.25	3.191577472	-1.688463659	
741.875	-2.769295259	-5.068974581	
742.5	-2.813411557	-3.527333972	
743.125	-0.1337779451	-0.8369284843	
743.75	0.6991241863	-1.040169699	
744.375	-1.137538024	-0.06252750979	
745.0	0.07961366406	-0.03672796145	
745.625	0.1849494338	0.03339058689	
746.25	-0.04542889434	-0.05984606475	
746.875	-0.2309591175	-0.180687871	
747.5	-0.1407904686	0.4378604758	
748.125	0.1345656256	0.4397149656	
748.75	0.06804049021	0.5284215578	
749.375	0.13129048	0.6229429136	
750.0	-0.3232666265	0.1841980889	
