!Created with skrf (http://scikit-rf.org).
# GHz S RI R (50+0j) 
!freq	ReS11	ImS11	
500.0	-0.09639614487	-5.451888667	
500.625	0.06236665478	-1.621494919	
501.25	-0.7201804212	-2.419671587	
501.875	-1.375822122	-1.930487845	
502.5	-0.4345368761	-0.02159727398	
503.125	-0.1849092665	-0.1310346926	
503.75	0.2789145435	0.4153190465	
504.375	-0.03159862954	0.06811235797	
505.0	0.111503768	-0.2298504278	
505.625	0.06141070601	0.1255510563	
506.25	-0.4430983093	-0.6820008203	
506.875	0.717002219	0.4298769363	
507.5	0.7410161279	-1.714555093	
508.125	-0.4916622002	-3.111648826	
508.75	-0.2313481249	-1.641991493	
509.375	0.4928572834	-5.918927312	
510.0	-2.249597639	-0.3169875366	
510.625	0.007258015952	-0.6069951084	
511.25	-0.6784372003	0.0423879783	
511.875	-0.2450968536	-0.1766172757	
512.5	-0.1125276513	0.1696818291	
513.125	-0.02527470577	-0.4328038307	
513.75	-0.4254131686	0.03938341147	
514.375	0.05180695616	-0.3630438582	
515.0	-1.412765474	0.3311569368	
515.625	2.316315538	-1.985775535	
516.25	-3.966910388	-1.855449635	
516.875	0.6839947457	-0.1058246066	
517.5	-0.150572939	-1.380838507	
518.125	0.114717802	0.3801181092	
518.75	-0.4281522565	-1.135406832	
519.375	-0.07355129563	0.2276681663	
520.0	0.1704041919	0.182636992	
520.625	0.7058365025	-0.2006381453	
521.25	-0.3280192429	-0.5857995447	
521.875	-0.1833639371	-0.2830832616	
522.5	-0.1847071191	0.2576305889	
523.125	-0.1952939422	-0.1887818304	
523.75	-0.2706969255	0.2214668229	
524.375	-0.4064658864	-0.2587426001	
525.0	0.2179230857	0.6744259966	
525.625	-0.1095274963	-0.06732965093	
526.25	0.1675966466	0.0789919709	
526.875	-0.332548412	-0.01014857585	
527.5	0.1438357693	0.8430486245	
528.125	0.06230852879	0.2888776722	
528.75	-0.2436207577	1.086091764	
529.375	0.2715866567	-0.0645740622	
530.0	0.1400650609	0.9777313679	
530.625	0.141460699	0.3030887432	
531.25	1.64018988	1.018322332	
531.875	0.02830307836	-0.8929539591	
532.5	0.4016094987	-0.3421201024	
533.125	-0.5773374533	-0.1116011398	
533.75	0.8482577331	-0.6759165874	
534.375	-0.7769135787	-0.5457765512	
535.0	-0.2599038549	-0.4963129296	
535.625	-0.7409224715	0.5758499434	
536.25	0.09886317843	0.1262461311	
536.875	0.2046836328	0.185195464	
537.5	0.2185981061	-0.2098322076	
538.125	0.1220516353	-0.02400599702	
538.75	0.5329568938	-0.4078571501	
539.375	-0.2477388431	-0.2073551473	
540.0	-0.216970048	-0.5095119091	
540.625	-0.6184394966	0.03166249412	
541.25	-0.04249682857	0.04780562118	
541.875	-0.08625088725	-0.1158743737	
542.5	-0.2342146884	-0.1878647729	
543.125	-0.06286585833	0.1201591863	
543.75	-0.2681872412	-0.2790572606	
544.375	0.03955474003	0.3415764649	
545.0	-0.2530071126	0.04018904768	
545.625	0.3912665264	0.1463681796	
546.25	-0.07034717349	0.08932425589	
546.875	0.6324627828	-0.08781408839	
547.5	-0.1087182388	-0.1780362108	
548.125	0.1573146306	-0.3998847367	
548.75	-0.4327658713	-0.4329586258	
549.375	-0.2792421507	0.03015572	
550.0	-0.1530367657	-0.1805205302	
550.625	-0.1384116447	0.1749486867	
551.25	-0.1799008818	-0.08474297061	
551.875	-0.2255476323	0.3087078064	
552.5	-0.04741782624	0.08272934268	
553.125	-0.09119916483	0.2059866896	
553.75	0.1370198007	0.09976465412	
554.375	0.2101059454	0.02444544776	
555.0	0.2787828308	-0.165652228	
555.625	0.2038740222	-0.269280431	
556.25	0.1717254359	-0.3328715426	
556.875	-0.06714973978	-0.416837497	
557.5	-0.2432498592	-0.2639104125	
558.125	-0.2649463273	-0.1018753315	
558.75	-0.2704828869	-0.03853917045	
559.375	-0.2884857698	0.07798027246	
560.0	-0.192269935	0.1492207793	
560.625	-0.1922911257	0.2550061219	
561.25	0.08307285291	0.2932127778	
561.875	-0.01450725807	0.03981136936	
562.5	0.1250554807	0.2002112335	
563.125	0.02399877301	0.1575466316	
563.75	0.4776032521	0.04573439162	
564.375	0.1564913612	-0.30813542	
565.0	0.2802854554	-0.1746552765	
565.625	-0.09063658556	-0.5298547424	
566.25	-0.3412179051	-0.1470058216	
566.875	-0.1586467225	-0.2081773646	
567.5	-0.4554634649	-0.429603546	
568.125	-0.3880639746	-0.1453410733	
568.75	-0.4741583909	-0.4830473866	
569.375	-0.6213070341	0.4417931227	
570.0	-0.244754619	0.2371064407	
570.625	-0.4160642456	0.5973790884	
571.25	0.3506220413	0.2352935844	
571.875	-0.2154207629	0.3316320843	
572.5	0.6341264359	-0.1459211689	
573.125	-0.1004013784	-0.1740591361	
573.75	0.4189253875	-0.07827692466	
574.375	-0.1795107823	-0.4346249434	
575.0	0.2169580823	0.1933623947	
575.625	-0.03566366667	-0.4678745843	
576.25	0.06071529481	0.0945394152	
576.875	0.2012864258	-0.6073940273	
577.5	-0.2715671257	-0.4815086265	
578.125	-0.05040162798	-0.1154213161	
578.75	0.008235600561	-0.4285728102	
579.375	-0.4396597901	-0.3020491835	
580.0	0.04764083204	0.1836228827	
580.625	-0.3388997326	-0.3178689663	
581.25	0.006810646074	0.336737524	
581.875	-0.2850399113	0.1566069256	
582.5	0.2191585714	0.7096957714	
583.125	0.3335084099	-0.202663082	
583.75	-0.228561841	0.375003857	
584.375	0.4792641137	-0.1975179628	
585.0	-0.1504456003	0.3746479308	
585.625	0.7422224301	-0.0508844948	
586.25	0.05746722493	-0.2682759908	
586.875	0.4879180535	-0.1323521029	
587.5	-0.2647727796	-0.5512901995	
588.125	0.03694549833	-0.005628044511	
588.75	0.3631741221	-0.4841409022	
589.375	-0.04368721253	-0.5463812963	
590.0	0.07925834294	-0.2308882864	
590.625	-0.4831058329	-0.3239314687	
591.25	-0.2849742319	0.4123640144	
591.875	-0.05461815674	0.1108065223	
592.5	-0.08029422671	0.2709895783	
593.125	-0.05171894942	-0.08639931246	
593.75	0.1630782585	0.5069900297	
594.375	0.4401301708	0.03705711562	
595.0	0.06348975002	0.2165843435	
595.625	0.5811694378	0.6654140723	
596.25	0.4166217814	-0.3845639635	
596.875	0.09186278144	0.4252951782	
597.5	0.6896417606	0.2320547616	
598.125	0.05220627965	0.08032774954	
598.75	0.6736049824	0.5496818972	
599.375	0.2753900428	-0.294351911	
600.0	0.4883570755	-0.02705735041	
600.625	0.5208872651	-0.6101072911	
601.25	-0.04479847525	-0.4484383821	
601.875	0.01788812475	-0.2941657931	
602.5	-0.345800345	-0.08941735518	
603.125	-0.3970685206	0.0866641558	
603.75	-0.07166789625	0.1794274667	
604.375	-0.3696629926	-0.005448969416	
605.0	-0.1173220658	0.3964742969	
605.625	-0.1760938064	-0.09818293196	
606.25	-0.3820330934	0.3460571822	
606.875	-0.1770155699	0.05586400971	
607.5	-0.8202318072	0.3649353264	
608.125	0.3802376792	0.620331186	
608.75	-0.03880977756	0.4175921299	
609.375	0.9661516561	-0.03403776802	
610.0	0.02233709589	-0.2422533425	
610.625	0.5670409168	-0.3354294058	
611.25	-0.247456765	-0.3854121831	
611.875	0.1449416475	-0.3343248116	
612.5	-0.720401298	-0.05621436879	
613.125	-0.1416694672	-0.1023941238	
613.75	-0.4874600304	0.4697139057	
614.375	0.3091752331	0.05198005751	
615.0	-0.05689909778	0.4332280784	
615.625	0.1964248769	-0.09226574216	
616.25	-0.439637625	0.3710546796	
616.875	0.004683668387	0.7622845737	
617.5	-0.1935141925	0.0929168081	
618.125	-0.2302336792	0.8047466372	
618.75	0.2416659786	0.297254175	
619.375	-0.07662336392	0.4649471781	
620.0	0.6063448075	0.01857089471	
620.625	0.2584089028	-0.1720403115	
621.25	-0.265703042	-0.5364932806	
621.875	-0.3198699322	-0.1692796907	
622.5	-0.6959387639	0.04896736292	
623.125	0.0975112878	0.322710984	
623.75	0.1871832553	0.3500457898	
624.375	0.05099874633	-0.417270007	
625.0	0.2297185454	0.2970410465	
625.625	-0.05957981194	-0.6660500712	
626.25	0.1304800024	0.05237602937	
626.875	-0.4207399546	-0.5471335747	
627.5	-0.4343004023	0.1581693896	
628.125	0.03434851308	-0.2411689384	
628.75	-0.4606011347	-0.4560800342	
629.375	-0.003572228541	-0.1893971959	
630.0	-0.4971328716	-0.4855190688	
630.625	-0.5653786924	0.3353352812	
631.25	-0.1954236083	0.2223428912	
631.875	-0.3025699266	0.6402268743	
632.5	0.3622383255	0.533494365	
633.125	0.55466516	0.0528406307	
633.75	0.2146144338	-0.01608996206	
634.375	0.4042396048	-0.5391473639	
635.0	-0.1221996968	-0.05274577235	
635.625	-0.3089834924	-0.5038490141	
636.25	-0.3496350435	0.3845284852	
636.875	-0.1839354651	-0.08345279648	
637.5	-0.1882612882	0.6232734755	
638.125	0.1318280209	-0.1133387617	
638.75	-0.6937022736	0.3884877583	
639.375	0.2986550818	0.8892256426	
640.0	0.3484486253	0.245811321	
640.625	0.2423568905	0.6668647785	
641.25	0.9793476633	-0.1008041781	
641.875	0.114155199	-0.1885197305	
642.5	0.371055011	-0.8679271037	
643.125	-0.373091256	0.1751138586	
643.75	-0.03346425573	-0.5039372015	
644.375	-0.7796990805	0.1539505829	
645.0	-0.0119332315	0.3390761146	
645.625	-0.2079267834	0.2872814757	
646.25	0.5318893595	0.6344968693	
646.875	0.2308751648	-0.483427798	
647.5	-0.0884495535	0.5432894924	
648.125	0.7120397008	-0.3178039468	
648.75	0.09115187126	0.4342194958	
649.375	1.08590747	-0.9447096915	
650.0	-0.2480856996	-0.7561088214	
650.625	0.6906886901	0.0400582457	
651.25	1.029272477	-1.266050137	
651.875	-0.2531337137	-0.4804757275	
652.5	0.7976058656	0.4448589049	
653.125	1.02284238	-0.6358934866	
653.75	-0.01676199052	-0.3583929718	
654.375	0.5304734154	-0.9363066039	
655.0	-1.045452931	-0.05071006065	
655.625	-0.01799191957	0.2218705099	
656.25	-0.4551523421	0.4985826828	
656.875	0.6025895095	0.214644347	
657.5	-0.4159383348	0.1504544654	
658.125	0.5822625882	0.6205411422	
658.75	0.6625870165	-0.03094123647	
659.375	0.5242700504	0.02405250298	
660.0	1.014616956	-0.9719409324	
660.625	-0.1483986646	-0.6346776282	
661.25	0.7051143612	-0.3460656416	
661.875	0.8157939572	-0.9509349677	
662.5	0.03649359706	-0.701295346	
663.125	0.7790687438	0.2556950459	
663.75	0.511219425	-1.208183693	
664.375	-0.2473081832	-0.3252865117	
665.0	-0.3992584739	-0.9474113022	
665.625	-0.7720491008	0.6491045621	
666.25	-0.4247084744	0.1620176095	
666.875	0.3296621416	0.8715470992	
667.5	0.4930669371	-0.07212864952	
668.125	0.1931038307	0.2643776189	
668.75	0.8665699634	-0.3511959934	
669.375	0.009823752273	-0.6330283839	
670.0	0.01081151852	-0.3102511092	
670.625	0.2638329034	-0.5225806288	
671.25	-0.170805556	-0.5645020966	
671.875	0.557262018	-0.1727072646	
672.5	0.4910446864	-0.5525742414	
673.125	0.2846841632	-0.2873080844	
673.75	0.7422913582	-0.2792686542	
674.375	-0.04292179352	-1.146301581	
675.0	-0.3225039972	0.09043465473	
675.625	-0.08468363073	-0.8518793806	
676.25	-0.8804993128	0.05948766284	
676.875	0.1316443087	0.05652789555	
677.5	-0.9191219459	-0.1081728144	
678.125	0.1463200609	0.2963549661	
678.75	-0.4252917972	0.5220055092	
679.375	1.060359555	0.1274461083	
680.0	-0.1992903562	-0.0820908404	
680.625	0.5231568225	-0.01763980658	
681.25	0.3113042478	-0.34720542	
681.875	0.02406061116	-0.001771371282	
682.5	0.3846670966	0.52357169	
683.125	0.9366837558	0.2108730568	
683.75	0.4323610706	-0.1415649768	
684.375	0.404206972	0.5589086498	
685.0	1.299540262	-0.09192486719	
685.625	-0.07371717208	0.1237694147	
686.25	1.448587019	0.1781316884	
686.875	0.2262297188	-0.8758482669	
687.5	0.8392866233	0.2462371769	
688.125	0.1085428261	-2.091083084	
688.75	-0.5919266621	0.4668104758	
689.375	-1.399728144	0.02047035229	
690.0	0.7348886506	1.162594142	
690.625	0.01077759332	0.2426512008	
691.25	1.174106157	1.113076743	
691.875	0.8686787692	0.3050108815	
692.5	1.275660694	0.8532684909	
693.125	1.76779971	-0.05945004376	
693.75	1.210119234	-0.5751564677	
694.375	1.148149171	-0.9535150362	
695.0	0.8627140622	-0.5577529868	
695.625	1.613147025	-0.02268352873	
696.25	1.081901366	-0.1039903443	
696.875	0.376530438	1.46249022	
697.5	1.681040566	1.118256584	
698.125	0.5327148542	0.5415252224	
698.75	2.037270166	-1.014930439	
699.375	-1.432674305	-0.4107726579	
700.0	-0.9870206614	-0.2222420609	
700.625	0.7935409468	1.21482036	
701.25	0.0431202766	0.0950517112	
701.875	0.9481972103	1.190133847	
702.5	0.6106700086	-0.01640022222	
703.125	0.9126035442	0.8341932459	
703.75	1.106062057	-0.6426663461	
704.375	0.3291159615	0.05935712513	
705.0	1.101618805	-0.6702832562	
705.625	0.09847495323	-0.1726468128	
706.25	0.6226984049	1.163319922	
706.875	1.168893817	0.2622848641	
707.5	0.006108556232	0.9405280338	
708.125	1.533110087	0.6239285966	
708.75	0.3264637297	-0.9393428305	
709.375	-0.1536688818	-1.007058637	
710.0	-0.6183303007	0.8930776364	
710.625	-0.03536485183	0.01781404671	
711.25	0.4580384401	0.5353987691	
711.875	0.4006427352	0.1763934373	
712.5	0.7476477473	0.03328204482	
713.125	0.5107295804	-0.3039793879	
713.75	0.6907566662	-0.6372432654	
714.375	-0.4133650033	-0.6723651536	
715.0	0.5083731944	-0.1001889081	
715.625	-0.3597987847	-1.173589336	
716.25	0.09044177794	0.1393924229	
716.875	1.800677083	-0.3444908512	
717.5	0.7817456779	-1.512120693	
718.125	1.115814208	2.10846497	
718.75	3.489510698	-1.251224953	
719.375	0.06034977279	-1.276189226	
720.0	3.80390296	-0.8892052589	
720.625	0.005671672183	-4.133757628	
721.25	0.01099280569	-1.139749006	
721.875	0.1416052208	-3.217184058	
722.5	-2.30653643	-2.086621591	
723.125	-1.034687494	-0.272338608	
723.75	-1.775551972	1.09105925	
724.375	0.4622412714	1.072923818	
725.0	0.2115614322	0.73180564	
725.625	0.07545351943	1.357497099	
726.25	0.8379377846	2.246752837	
726.875	0.04179422384	0.8504805807	
727.5	-2.134444051	4.254843852	
728.125	2.614985189	6.743487831	
728.75	-0.5965128674	1.114859215	
729.375	-6.554194339	18.12040118	
730.0	9.954708985	9.450699745	
730.625	-10.18694507	4.475438369	
731.25	-2.409012896	20.81586152	
731.875	3.587275623	6.033566036	
732.5	-10.38371669	-4.750803246	
733.125	-8.517549694	2.230077582	
733.75	-1.103752249	3.677104822	
734.375	0.4988004827	2.655128406	
735.0	-0.9226701609	-2.258948646	
735.625	-0.5025320301	-0.2992167375	
736.25	-0.9836527955	1.586635097	
736.875	2.055698795	1.453981586	
737.5	1.257818042	-0.5914484958	
738.125	4.218759742	2.01450177	
738.75	8.75298851	-5.758797872	
739.375	-0.002609612622	-7.848036189	
740.0	6.203249751	9.599599495	
740.625	27.53737913	-12.34098738	
741.25	-17.04768335	-2.985989909	
741.875	-23.01531029	-5.922905437	
742.5	1.718253033	7.451324689	
743.125	11.92455534	-7.501916296	
743.75	-0.7316449727	-5.68617008	
744.375	-0.5674843044	0.6441930785	
745.0	-0.3190115736	0.0933394967	
745.625	0.3559991995	-0.245837842	
746.25	0.2028217341	-0.1223447565	
746.875	-1.202866937	-1.098613841	
747.5	-0.1208574601	0.8582994334	
748.125	-0.07689879182	0.982033152	
748.75	0.7952605026	1.77876203	
749.375	0.8608711223	1.338830553	
750.0	-0.0181115679	4.543618792	
