!Created with skrf (http://scikit-rf.org).
# GHz S RI R (50+0j) 
!freq	ReS11	ImS11	
500.0	1.571872451	-2.313393415	
500.625	-0.03383235047	-5.635713453	
501.25	-0.3372216511	-1.523936289	
501.875	-1.453663883	-0.7136012831	
502.5	-0.06010410607	-0.3097425712	
503.125	-0.2481546144	-0.008645612039	
503.75	0.2828448068	0.3385936809	
504.375	-0.0537711703	0.01635778487	
505.0	0.1720560553	-0.1248566363	
505.625	-0.1825049307	-0.06104359634	
506.25	0.1270477665	-0.3727539328	
506.875	0.09827989249	0.8010737946	
507.5	0.1883379725	-2.100599978	
508.125	-1.477441985	-1.863924563	
508.75	1.738271573	-0.6368136203	
509.375	0.7878419418	-5.416920231	
510.0	-1.752996613	0.6460488978	
510.625	-0.2783311755	-0.3130151319	
511.25	-0.5056612325	-0.1830287812	
511.875	-0.461887341	0.003453142687	
512.5	-0.03407479773	0.1825736588	
513.125	-0.06664697742	-0.2676509375	
513.75	-0.1939133076	-0.03582135168	
514.375	-0.1164235308	-0.2060562946	
515.0	-0.8427839232	0.009172217041	
515.625	2.136688387	-2.149953805	
516.25	-3.873978153	-1.993496683	
516.875	0.3746916849	0.2588310906	
517.5	0.03670843694	-1.154308357	
518.125	-0.06541372502	0.3686235458	
518.75	-0.1154816007	-1.11433168	
519.375	-0.0379229504	0.2281374343	
520.0	0.1099440411	0.1688809815	
520.625	0.672752869	-0.2242161822	
521.25	-0.3774615004	-0.512724643	
521.875	-0.2074432815	-0.2162307496	
522.5	-0.1177226273	0.2294885594	
523.125	-0.25851736	-0.1408609537	
523.75	-0.2167945729	0.2592894297	
524.375	-0.2572356447	-0.1728792818	
525.0	-0.006808521274	0.6794106138	
525.625	-0.03062510705	-0.1221573456	
526.25	0.1412718027	0.1038791819	
526.875	-0.3201595005	-0.002987209226	
527.5	0.1332287587	0.7590744967	
528.125	0.02604086876	0.3077834158	
528.75	-0.04386372712	0.9504903222	
529.375	0.2441518104	-0.08447808427	
530.0	-0.07172853888	0.86334968	
530.625	0.5652299811	0.433023473	
531.25	1.013646682	0.555407648	
531.875	0.1805343695	-0.9123307051	
532.5	0.3501532107	-0.2814592909	
533.125	-0.7391140806	-0.1648297497	
533.75	0.9572017133	-0.629283952	
534.375	-0.9556195079	-0.4767185832	
535.0	-0.2175845697	-0.28080505	
535.625	-0.6967585844	0.5190704167	
536.25	0.1080507169	0.05544221894	
536.875	0.2941536209	0.209146436	
537.5	0.1323802239	-0.2431596487	
538.125	0.1145463644	-0.005480242555	
538.75	0.5066353348	-0.3444260774	
539.375	-0.2683864422	-0.2933810627	
540.0	-0.3335156664	-0.3061014233	
540.625	-0.403088147	-0.08916580516	
541.25	-0.1630586813	0.07813941336	
541.875	-0.1141694158	-0.1142147174	
542.5	-0.1482282722	-0.03464056286	
543.125	-0.112335805	-0.1020476863	
543.75	-0.2877493601	-0.07210603057	
544.375	0.02978253935	0.2326328281	
545.0	-0.2147235196	0.02333904711	
545.625	0.4042650735	0.1968294501	
546.25	-0.03736851662	-0.0404422255	
546.875	0.5387120062	0.05184063462	
547.5	-0.1226642269	-0.2797847111	
548.125	0.1474840101	-0.3792488395	
548.75	-0.5051533767	-0.3378669072	
549.375	-0.1742283223	0.0464113767	
550.0	-0.1943695457	-0.149484277	
550.625	-0.1463725483	0.1699546285	
551.25	-0.1161896574	-0.04698739529	
551.875	-0.234345803	0.2350522643	
552.5	-0.009319477066	0.1593917177	
553.125	-0.07764308164	0.1753966123	
553.75	0.1287929298	0.07262797261	
554.375	0.2111947525	0.01340351418	
555.0	0.2297903917	-0.1861776918	
555.625	0.1677603537	-0.2643666303	
556.25	0.1451248175	-0.3284399191	
556.875	-0.09004614914	-0.3796317701	
557.5	-0.2417607016	-0.2355036607	
558.125	-0.2625842617	-0.06506477575	
558.75	-0.2423799705	-0.02471361393	
559.375	-0.2699889201	0.0859050692	
560.0	-0.1703202386	0.1380430391	
560.625	-0.1772516245	0.2823904576	
561.25	0.125294686	0.2197094914	
561.875	-0.03252599996	0.07096760098	
562.5	0.120512739	0.1893596258	
563.125	0.08190027373	0.04380493216	
563.75	0.358699991	0.1144925513	
564.375	0.2526504161	-0.3579049007	
565.0	0.1337757174	-0.1859506238	
565.625	-0.08361710032	-0.4904865363	
566.25	-0.2453390074	-0.08437989042	
566.875	-0.2609955652	-0.2974916963	
567.5	-0.4639338246	-0.2151862556	
568.125	-0.2477735129	-0.1787736195	
568.75	-0.4931945171	-0.3964060298	
569.375	-0.6725053733	0.4463896323	
570.0	0.01981903166	0.3285154857	
570.625	-0.4949524139	0.3085524035	
571.25	0.3684940617	0.4147817817	
571.875	-0.2147539415	0.230494553	
572.5	0.5985728695	-0.2064965591	
573.125	-0.1295508612	0.01806087048	
573.75	0.4918982093	-0.3055943256	
574.375	-0.2469033393	-0.3448431382	
575.0	0.127233562	0.1981843413	
575.625	0.1459594858	-0.4569801258	
576.25	-0.166041431	-0.04337217919	
576.875	0.2956013903	-0.4249450594	
577.5	-0.2176996699	-0.5114002454	
578.125	-0.0680097641	-0.08087003257	
578.75	-0.04300901008	-0.4680273731	
579.375	-0.4382334283	-0.1553820834	
580.0	0.06819070616	0.0939901107	
580.625	-0.2877458006	-0.2870572697	
581.25	-0.05147712257	0.4302656415	
581.875	-0.1353264117	0.02020943419	
582.5	0.02655765763	0.7197500501	
583.125	0.4285851004	-0.1837287021	
583.75	-0.2239861665	0.3306826548	
584.375	0.4471226436	-0.1988082572	
585.0	-0.1562630794	0.4036567208	
585.625	0.7373209527	-0.04840266385	
586.25	0.1099754637	-0.3575181817	
586.875	0.2404126702	-0.02845678351	
587.5	-0.03210948826	-0.595454018	
588.125	-0.2063526646	-0.02772913182	
588.75	0.3577724065	-0.3948585395	
589.375	-0.08585796336	-0.4938965055	
590.0	0.1596560972	-0.2271410221	
590.625	-0.706847241	-0.1686700719	
591.25	-0.05659911083	0.3078350432	
591.875	-0.111672879	0.1317429733	
592.5	-0.1621708593	0.1911986973	
593.125	0.2216315976	0.03283913099	
593.75	-0.2367035555	0.425542577	
594.375	0.7415917551	0.1040167517	
595.0	0.04680322621	0.09256177246	
595.625	0.5476755637	0.5689561408	
596.25	0.2761020698	-0.3318888893	
596.875	0.2639219273	0.5172706247	
597.5	0.7114478967	0.07201269643	
598.125	0.05471750317	-0.01223451873	
598.75	0.3811295587	0.4413979632	
599.375	0.5979174538	-0.2392757573	
600.0	0.1952248832	-0.2200106862	
600.625	0.5048394298	-0.3566895568	
601.25	-0.01935886019	-0.5252311625	
601.875	0.04529849822	-0.2789807387	
602.5	-0.4518888639	-0.003549660205	
603.125	-0.07081920835	0.06960964084	
603.75	-0.3467645691	0.1594502237	
604.375	-0.1980508274	0.150912055	
605.0	-0.1647208167	0.3392691072	
605.625	-0.03692650897	-0.1845101421	
606.25	-0.5486802928	0.4535679471	
606.875	0.03979594421	0.151055391	
607.5	-0.8890282351	0.2231777311	
608.125	0.4428172963	0.6587677031	
608.75	-0.01302733003	0.3676703307	
609.375	0.9414471083	-0.1035630878	
610.0	-0.1058557506	-0.3048694727	
610.625	0.5944746545	-0.2940930984	
611.25	-0.2798408174	-0.3975941588	
611.875	0.0813520729	-0.246378927	
612.5	-0.6756224379	-0.08065360746	
613.125	-0.1248015164	-0.06043913499	
613.75	-0.4425920091	0.4548356725	
614.375	0.3496975632	0.04679020265	
615.0	-0.1281928236	0.4516787201	
615.625	0.2806355945	-0.06785209173	
616.25	-0.4443708103	0.2630988323	
616.875	-0.02343040118	0.7653754506	
617.5	-0.08603580927	0.08866343824	
618.125	-0.1715428867	0.7510272781	
618.75	0.2718818402	0.2770804203	
619.375	0.01085866522	0.4276265214	
620.0	0.5575195503	-0.03318901172	
620.625	0.1937564972	-0.2084832586	
621.25	-0.2693126479	-0.4973309547	
621.875	-0.3318757966	-0.08584521687	
622.5	-0.6902784054	0.03996645858	
623.125	0.2452329725	0.3986538768	
623.75	0.03081725122	0.3469315168	
624.375	0.0820625861	-0.469984947	
625.0	0.1774484328	0.2824901533	
625.625	-0.06015052804	-0.6150678935	
626.25	0.1796106052	0.03430188	
626.875	-0.4871538542	-0.5308872077	
627.5	-0.3722913349	0.254069353	
628.125	0.07507335555	-0.2543412038	
628.75	-0.3035948504	-0.5011273303	
629.375	-0.2713763338	-0.1164946517	
630.0	-0.2952934914	-0.3073927699	
630.625	-0.6236941158	0.2272949672	
631.25	-0.1041754055	0.3390913817	
631.875	-0.2228462641	0.6563255828	
632.5	0.4972932793	0.3118137896	
633.125	0.3137026435	0.1190812384	
633.75	0.4752274768	-0.1194303562	
634.375	0.1034762984	-0.4474583306	
635.0	-0.1534413358	-0.08318425462	
635.625	-0.1839829788	-0.4700344256	
636.25	-0.5368200941	0.4731495371	
636.875	0.2387396542	0.04876287384	
637.5	-0.5653884965	0.3623623752	
638.125	0.3286041925	0.07061999074	
638.75	-0.6115080035	0.3734543118	
639.375	0.4822342107	0.7676245361	
640.0	-0.1230057026	0.1015630356	
640.625	0.7528340195	0.7244244929	
641.25	0.7006394376	-0.4811870792	
641.875	0.04138195921	-0.2519623924	
642.5	0.3451787151	-0.414954998	
643.125	-0.6875243996	-0.3253559012	
643.75	0.07378107005	-0.0626281777	
644.375	-0.6774239599	-0.03655832936	
645.0	0.002899917396	0.3880661065	
645.625	-0.2596325227	0.463350706	
646.25	0.7317497722	0.09719975859	
646.875	-0.03333902591	-0.1526336426	
647.5	0.1244569212	0.3604136633	
648.125	0.6672616731	-0.2732732745	
648.75	-0.1184812616	0.06055203569	
649.375	1.270552009	-0.4876219567	
650.0	-0.2220125344	-1.18638228	
650.625	0.2692361021	0.1049915067	
651.25	1.026976682	-1.007647836	
651.875	-0.3061351459	-0.535148387	
652.5	0.8558207318	0.3529719722	
653.125	0.7771359617	-0.9189297388	
653.75	-0.07375208717	-0.2692535848	
654.375	0.357212893	-0.7084271523	
655.0	-1.142630461	-0.04199971932	
655.625	0.07489735952	0.4219621706	
656.25	-0.3344161796	0.3467187319	
656.875	0.5687829873	0.2267532703	
657.5	-0.3736560873	0.1736279005	
658.125	0.6556230652	0.4616029712	
658.75	0.5721478276	-0.1045928446	
659.375	0.4336801346	-0.1308817942	
660.0	0.9849083162	-0.7340174602	
660.625	-0.2944591967	-0.999525702	
661.25	0.3921137512	-0.141181208	
661.875	0.8306469664	-0.8546310964	
662.5	0.01254626651	-0.7666543741	
663.125	0.8552828672	0.091920449	
663.75	0.1086157849	-1.200816122	
664.375	-0.1778180231	-0.2087049402	
665.0	-0.4408723111	-0.8127166179	
665.625	-0.9319284297	0.5027738846	
666.25	0.117007199	0.3711971362	
666.875	0.0481596014	0.6170663716	
667.5	0.6839903079	0.04018624307	
668.125	0.1342417564	0.09717963701	
668.75	0.7278221824	-0.5914525086	
669.375	-0.09689008419	-0.3881534622	
670.0	0.2117070662	-0.3534559325	
670.625	0.02214596328	-0.6662482151	
671.25	-0.1788139705	-0.4267519846	
671.875	0.2497953174	-0.009324327234	
672.5	0.7876696606	-0.5191256458	
673.125	0.08347186154	-0.6361070046	
673.75	0.4054541146	-0.1016045562	
674.375	-0.02935437978	-1.137434083	
675.0	-0.1524778438	0.01704503144	
675.625	-0.4061211667	-0.7325427895	
676.25	-0.7624905322	0.3596299439	
676.875	0.317824282	-0.1223883583	
677.5	-0.8774784603	-0.02889330164	
678.125	0.1058280492	0.5386237976	
678.75	-0.02824378895	0.2074773229	
679.375	0.5900346431	0.4733504239	
680.0	0.1237038909	-0.6584066744	
680.625	0.3196735532	0.1912742701	
681.25	0.3157293123	-0.3356545986	
681.875	-0.09516346889	0.1285287929	
682.5	0.8614884641	0.496597006	
683.125	0.4970664868	-0.2684891199	
683.75	0.4261894697	0.1600721691	
684.375	0.4081346952	0.3141455903	
685.0	1.283532336	0.08646290694	
685.625	-0.1244241887	-0.6299636452	
686.25	1.277775567	0.6910438114	
686.875	0.1734545447	-1.278253473	
687.5	0.6329816931	0.1036941662	
688.125	-0.3652645882	-1.952117851	
688.75	-0.3415034927	0.6330916592	
689.375	-1.395813146	0.3425968288	
690.0	1.030316256	0.9573851902	
690.625	0.138895548	0.1416766147	
691.25	0.8214075093	0.9853823207	
691.875	1.181622406	0.3255401714	
692.5	1.151025971	0.5244768596	
693.125	1.586797698	-0.1299552959	
693.75	1.070413141	-0.6960962576	
694.375	1.087227364	-0.9011829223	
695.0	0.7605494243	-0.7583839451	
695.625	1.334610923	-0.09374987536	
696.25	1.108810088	-0.1971272333	
696.875	0.4549620729	1.085339353	
697.5	2.007038323	0.8952143854	
698.125	0.4393653587	0.02429103121	
698.75	1.628342459	-1.247460169	
699.375	-1.580720904	-0.09046987475	
700.0	-0.7868733352	-0.01596453266	
700.625	1.034306434	1.034873319	
701.25	0.05335792655	0.0214087721	
701.875	0.8580888929	1.111844493	
702.5	0.7148579878	-0.1360525061	
703.125	0.821055597	0.691818656	
703.75	1.093699275	-0.6675225305	
704.375	0.08955402141	-0.08114098029	
705.0	1.177282515	-0.5066037963	
705.625	0.1342766638	-0.3540456953	
706.25	0.4576476403	1.02413714	
706.875	1.270702823	0.0678609438	
707.5	0.01670682522	0.8398762058	
708.125	1.69771618	0.1281586915	
708.75	-0.1287142433	-0.8729742339	
709.375	-0.4736843871	-0.7572426115	
710.0	-0.4371655769	0.8689655757	
710.625	0.1490100685	0.1388902394	
711.25	0.3468358388	0.3253487959	
711.875	0.4389038301	0.2024979269	
712.5	0.6882563212	-0.1257669564	
713.125	0.5669752	-0.4664979537	
713.75	0.3808472218	-0.5715196577	
714.375	-0.2603775214	-0.5771870067	
715.0	0.3197480935	-0.1815404105	
715.625	-0.2428047291	-1.120143119	
716.25	-0.168265751	0.03179217029	
716.875	1.507358501	-0.02165592828	
717.5	1.541715009	-1.586564179	
718.125	0.174976757	1.184456141	
718.75	3.318107201	-1.334019739	
719.375	-0.08324273484	-1.57190796	
720.0	3.199685614	-1.430481701	
720.625	-2.029672819	-3.532758261	
721.25	0.3462758151	-1.094352603	
721.875	-0.5040656148	-2.930358558	
722.5	-2.438301435	-1.951654134	
723.125	-1.36473597	0.4492814286	
723.75	-1.157795544	0.7511332119	
724.375	0.5761656601	1.271640872	
725.0	0.285361412	0.5760264537	
725.625	0.185638472	1.222046087	
726.25	0.8178998319	1.7688239	
726.875	-0.08312444778	1.104877316	
727.5	-1.50352796	4.018504588	
728.125	3.040451179	6.491901469	
728.75	1.956921118	0.7633339976	
729.375	-8.939740595	12.02927819	
730.0	12.53930813	9.134736437	
730.625	-2.603747121	2.94601958	
731.25	-3.51031634	19.14798281	
731.875	5.396724291	4.019061922	
732.5	-12.86863153	-1.230550788	
733.125	-6.274949501	5.669145933	
733.75	0.1856217767	2.994684154	
734.375	0.6839889708	1.193065756	
735.0	-0.4015487754	-2.784943275	
735.625	-0.1777695267	0.8327835058	
736.25	-0.6955606373	1.195889347	
736.875	1.696594574	1.619970603	
737.5	1.197945926	-0.8266843157	
738.125	5.382342969	0.1776996233	
738.75	3.740892624	-5.834777129	
739.375	0.2069069759	-4.348966155	
740.0	10.41902294	8.534817082	
740.625	20.77037164	-11.16979209	
741.25	6.434343297	-16.67799192	
741.875	-22.77019324	8.064504687	
742.5	-12.16726223	4.791432355	
743.125	5.903640189	-0.8198345839	
743.75	-2.024036961	-5.333380017	
744.375	-0.08936719193	0.7268067526	
745.0	-0.373211162	0.5461681895	
745.625	-0.02087870996	-0.4026681935	
746.25	0.2103020468	-0.3012103052	
746.875	-0.6559489404	0.1488217217	
747.5	0.004595477246	0.8499688362	
748.125	0.1873431018	0.8465813599	
748.75	0.6210036787	1.258835787	
749.375	0.653958345	1.33356034	
750.0	-0.3710636051	-0.04851160995	
