!Created with skrf (http://scikit-rf.org).
# GHz S RI R (50+0j) 
!freq	ReS11	ImS11	
500.0	-0.007566994143	-0.3474689176	
500.625	0.4230180919	-1.017128437	
501.25	-0.5146798803	-0.1872461655	
501.875	-0.02834798771	-0.400469711	
502.5	-0.0842621052	-0.1400806235	
503.125	-0.02798908717	0.01823522915	
503.75	-0.04656371803	0.1105576533	
504.375	0.02788128042	-0.03638720705	
505.0	0.0147418497	0.01037354872	
505.625	-0.02645973892	-0.08057191401	
506.25	0.014902647	0.03481886186	
506.875	-0.3193057797	-0.04849082718	
507.5	-0.04207824427	0.05732786361	
508.125	0.4470227534	-0.484672985	
508.75	0.08050069206	-1.134255379	
509.375	-0.3300217565	-0.5154469079	
510.0	-0.2698864043	-0.4269722405	
510.625	-0.2544411873	-0.1480446212	
511.25	-0.0379109521	-0.03641548935	
511.875	-0.1388320044	-0.04691461731	
512.5	-0.01203734181	0.02472202733	
513.125	0.01379038805	-0.03050052369	
513.75	-0.07879600392	-0.08424385984	
514.375	-0.01734348339	0.07134271697	
515.0	0.01686558747	-0.3438043257	
515.625	-0.1167561558	0.1858137999	
516.25	0.1575152462	-0.9103122826	
516.875	-0.529060529	-0.3727457315	
517.5	0.03745350421	0.01029083022	
518.125	-0.07493791243	-0.0702106874	
518.75	-0.02141182248	0.004713898751	
519.375	-0.05674872886	0.004941499633	
520.0	0.118415785	0.04979433857	
520.625	0.1014666101	-0.06426417812	
521.25	-0.004510857729	-0.1177254752	
521.875	-0.1576672729	-0.07369392077	
522.5	-0.05517857464	0.0491979878	
523.125	-0.07871137626	-0.04002590562	
523.75	-0.1733761228	0.04691827725	
524.375	-0.06329728866	-0.04409965535	
525.0	-0.1158305369	0.1782432373	
525.625	0.1264573167	-0.009444296747	
526.25	-0.0822889454	0.03008352659	
526.875	0.02600399015	0.05040771102	
527.5	-0.1077686462	0.110229777	
528.125	0.1447719148	0.2342363461	
528.75	0.09361312011	0.08314112881	
529.375	-0.005765279203	0.1234856547	
530.0	0.1026551875	0.00337290068	
530.625	0.2727522602	0.2039676947	
531.25	0.4037178311	0.007913354368	
531.875	0.02920235054	-0.1955858199	
532.5	0.05208587841	-0.07278250555	
533.125	0.06105418549	-0.2050205015	
533.75	0.08142848397	-0.05722595668	
534.375	-0.1564353734	-0.3142149998	
535.0	-0.2056578332	0.03215102585	
535.625	-0.1386466322	0.04573705429	
536.25	0.01729061319	0.1080418358	
536.875	0.04263928833	-0.005468269484	
537.5	0.09023743099	-0.02828368724	
538.125	0.08266537317	-0.1023958018	
538.75	0.086282646	-0.05113875843	
539.375	-0.05720007218	-0.1938823321	
540.0	-0.1824384855	-0.08503935073	
540.625	-0.1301371159	0.02251097469	
541.25	-0.1047154634	0.01043024315	
541.875	-0.02806268739	0.02192876095	
542.5	-0.06713015013	-0.0897109627	
543.125	-0.1643256155	-0.02621993264	
543.75	-0.02591090864	-0.0009844988691	
544.375	-0.06735096388	0.07865902574	
545.0	0.06917789606	0.01484664158	
545.625	-0.008706458452	0.1037986157	
546.25	0.1383833948	-0.02392640783	
546.875	0.04951941394	-0.005229039573	
547.5	0.09755807293	-0.1468607629	
548.125	-0.1138143498	-0.09560458234	
548.75	-0.05423897483	-0.09675384499	
549.375	-0.1408063539	-0.07788628555	
550.0	-0.04109935007	0.05590264027	
550.625	-0.06021971469	-0.02906911919	
551.25	-0.05555631031	0.06676150065	
551.875	-0.05528936893	0.033985211	
552.5	-0.04000564797	0.09146366448	
553.125	0.008391423774	0.04704508011	
553.75	0.04342502452	0.0441491945	
554.375	0.0795474818	-0.01869646326	
555.0	0.07490242152	-0.06469766936	
555.625	0.07217587505	-0.1037129795	
556.25	0.04253514173	-0.1344997845	
556.875	-0.04519348531	-0.1332041373	
557.5	-0.09506055005	-0.08420927065	
558.125	-0.1126232143	-0.02683866661	
558.75	-0.0949653704	0.01236401483	
559.375	-0.09711537652	0.02121326431	
560.0	-0.08735628734	0.08586433901	
560.625	-0.02313438276	0.09213125959	
561.25	-0.0117062978	0.09031402762	
561.875	0.05740378585	0.04657399832	
562.5	-0.0167642434	0.02332603467	
563.125	0.09403107628	0.08723074691	
563.75	0.1009435302	-0.03911266615	
564.375	0.1315181095	-0.0644878622	
565.0	0.0400372821	-0.1770507844	
565.625	-0.03623040979	-0.08915815128	
566.25	-0.1144457261	-0.1342446606	
566.875	-0.1617633878	-0.01373232262	
567.5	-0.05848404667	-0.08352109124	
568.125	-0.1590448793	-0.1846335618	
568.75	-0.212238096	0.06727183601	
569.375	-0.1469594744	0.01906562958	
570.0	-0.1425205274	0.2458365006	
570.625	0.04651629348	0.1335286418	
571.25	-0.08881108281	0.116947009	
571.875	0.1403618045	0.01197155734	
572.5	0.04807573728	0.07092655396	
573.125	0.1293428559	-0.1642799499	
573.75	-0.0907810913	-0.100105695	
574.375	0.06499312172	0.02620717992	
575.0	0.006729332915	-0.1367818949	
575.625	0.00255526732	0.01257404198	
576.25	0.1008478743	-0.132808601	
576.875	-0.08901781556	-0.1193419017	
577.5	0.03341245075	-0.06608754334	
578.125	-0.03414868113	-0.2312290505	
578.75	-0.1642068833	-0.03456322713	
579.375	0.02271369953	-0.02072194754	
580.0	-0.12502341	-0.1110966474	
580.625	-0.01071136543	0.07143042693	
581.25	-0.2346714564	-0.0500364959	
581.875	0.1117569227	0.2426036799	
582.5	0.08124060222	0.01439737283	
583.125	-0.003431499722	0.1582724165	
583.75	0.1222582192	-0.09837623222	
584.375	-0.05147332675	0.1290775803	
585.0	0.1944033703	0.01172386403	
585.625	0.04805878039	-0.05248514786	
586.25	0.2004634847	0.01939144408	
586.875	0.03683063259	-0.2235020631	
587.5	-0.04223102261	-0.04039531768	
588.125	0.04063509398	-0.1613650794	
588.75	-0.04624731183	-0.1594791127	
589.375	0.05615348747	-0.04801605884	
590.0	-0.08330037156	-0.2346898234	
590.625	-0.1425039197	0.0723900017	
591.25	-0.1056801401	0.002823693226	
591.875	-0.07737760505	0.1935279253	
592.5	0.1144894466	-0.0183214621	
593.125	-0.1258635242	0.15862578	
593.75	0.1227232253	-0.02117891356	
594.375	0.03311165719	0.118002836	
595.0	0.223323223	0.1443246651	
595.625	0.06915341907	-0.04233385926	
596.25	0.1647394727	0.1311105284	
596.875	0.1784426843	-0.04571066134	
597.5	0.06855833415	0.02190007803	
598.125	0.1306015988	0.1657576269	
598.75	0.17003161	-0.01327926984	
599.375	0.1135449103	-0.03713924506	
600.0	0.1919530287	-0.1115822319	
600.625	0.08675199533	-0.2349969966	
601.25	0.01119052625	-0.126445283	
601.875	-0.04934831572	-0.1880524207	
602.5	-0.1346319516	0.07999273839	
603.125	-0.03811342963	-0.02713721977	
603.75	-0.1944274299	0.1124560697	
604.375	0.1011749991	0.07818145311	
605.0	-0.1205927633	-0.0292847976	
605.625	-0.09695284721	0.1565867867	
606.25	0.003824396944	0.02064164948	
606.875	-0.2205070155	0.2091491115	
607.5	-0.02936586795	0.2219054733	
608.125	-0.04630599254	0.1844949808	
608.75	0.2287477674	0.1384250533	
609.375	0.1664701354	0.0008126179627	
610.0	0.1222097464	-0.06580018664	
610.625	0.1211198006	-0.2016255171	
611.25	-0.1064491304	-0.1240156779	
611.875	-0.05825451515	-0.01265353718	
612.5	-0.2224923957	-0.07862356423	
613.125	-0.07941286023	0.1198849264	
613.75	-0.127032567	0.04452197735	
614.375	0.1184792478	0.1803371816	
615.0	-0.02233891254	-0.06605148043	
615.625	-0.01321724246	0.207984994	
616.25	0.04365877747	0.04306236842	
616.875	-0.1339380282	0.1025747291	
617.5	-0.08213963717	0.2973510864	
618.125	0.1081413559	0.1577504826	
618.75	0.08806436597	0.2108607014	
619.375	0.1319920503	0.1174565444	
620.0	0.1256954391	-0.0008595093668	
620.625	0.1470759007	-0.1276625481	
621.25	-0.1268257455	-0.1934519944	
621.875	-0.2143015761	0.04028894252	
622.5	-0.2016791397	0.007399685079	
623.125	-0.02192687487	0.2340456661	
623.75	0.1302924461	-0.09711111626	
624.375	0.07765130903	0.02934356674	
625.0	-0.04190918139	-0.1010195554	
625.625	0.08007271426	-0.02863443203	
626.25	-0.1011274185	-0.172537838	
626.875	-0.1099726404	0.01355991474	
627.5	-0.08940801872	-0.09561644951	
628.125	-0.17576954	-0.03522048645	
628.75	-0.0414983296	-0.03489553336	
629.375	-0.06461485083	-0.1758247872	
630.0	-0.2052109578	-0.09065178657	
630.625	-0.161036256	0.09280173854	
631.25	-0.1243633416	0.1312875389	
631.875	0.06018952803	0.2374273655	
632.5	0.189556587	0.03400241371	
633.125	0.1816504209	0.07943553351	
633.75	0.127047388	-0.1528221249	
634.375	0.001650970552	-0.02276014117	
635.0	0.002879428391	-0.2209151079	
635.625	-0.1792203458	0.07715596944	
636.25	-0.06446228629	0.004951097699	
636.875	-0.1055919295	0.1870055179	
637.5	0.07637166183	0.07323782849	
638.125	-0.1370438282	0.0448957612	
638.75	0.01883886535	0.2384308377	
639.375	0.003209880449	0.1152485119	
640.0	0.1248650887	0.2991331209	
640.625	0.3209848558	0.02667161923	
641.25	0.1406285827	-0.03292833248	
641.875	0.2311887508	-0.1811045287	
642.5	-0.1309534048	-0.2236542582	
643.125	-0.0832660001	0.08280293338	
643.75	-0.1177400224	-0.167570526	
644.375	-0.126168483	0.1299435841	
645.0	-0.1260986518	0.03096243235	
645.625	0.09696062576	0.4125355337	
646.25	0.1651099158	-0.110105537	
646.875	0.01923580389	0.1168175218	
647.5	0.211175986	-0.1678197067	
648.125	-0.04487818174	0.1418143327	
648.75	0.4200944776	-0.1153838053	
649.375	0.02766665083	-0.3424371206	
650.0	0.1122957307	-0.1169761015	
650.625	0.24302042	-0.3450541159	
651.25	-0.07633044322	-0.327347567	
651.875	0.1960469766	0.005779583249	
652.5	0.3540826133	-0.2057748718	
653.125	0.08090674837	-0.1941432507	
653.75	0.2143315892	-0.09891216477	
654.375	-0.1826912192	-0.3612389775	
655.0	-0.2386607319	0.1251710064	
655.625	-0.1481639872	0.0328491398	
656.25	0.06087322987	0.3980290749	
656.875	0.07226802683	-0.1498697418	
657.5	0.03759381748	0.2255359696	
658.125	0.252163621	-0.007578253976	
658.75	0.0376638432	0.1134754775	
659.375	0.4845303729	-0.1402266127	
660.0	0.01608459992	-0.3900131079	
660.625	0.131515256	-0.1277721613	
661.25	0.1985428005	-0.3794361933	
661.875	0.03905329561	-0.3241335602	
662.5	0.1870508772	-0.07006679275	
663.125	0.2891662357	-0.3049645591	
663.75	-0.03918896765	-0.2218709319	
664.375	0.03340357266	-0.2601230459	
665.0	-0.371316933	-0.1934592675	
665.625	-0.1735502977	0.2007843244	
666.25	-0.1095952977	0.1718483638	
666.875	0.1857314138	0.2492161255	
667.5	0.1467657742	-0.0812441272	
668.125	0.2141788727	0.0922781688	
668.75	0.1273082878	-0.2788455078	
669.375	-0.01084097761	-0.09123154692	
670.0	0.1173754023	-0.2695628816	
670.625	-0.1426996817	-0.2431934605	
671.25	0.1466710439	0.05686740921	
671.875	0.2113320355	-0.2801718688	
672.5	0.079705245	-0.2228229536	
673.125	0.1194651919	-0.08174944258	
673.75	0.2013796364	-0.3018938318	
674.375	-0.1367140913	-0.1789515459	
675.0	-0.005318066425	-0.2315366848	
675.625	-0.2765586576	-0.129676959	
676.25	-0.1145291623	0.1197765465	
676.875	-0.1234753198	-0.1086082626	
677.5	-0.1591174475	0.162530069	
678.125	0.01386805831	0.09135006203	
678.75	-0.05368613172	0.2041472277	
679.375	0.3626556302	0.02850666497	
680.0	-0.05176779857	-0.1195409125	
680.625	0.2025678296	0.03530641277	
681.25	0.04744618412	-0.2405577606	
681.875	-0.03586370159	0.1383414963	
682.5	0.4569384864	0.1306011123	
683.125	0.05626056093	-0.1595154544	
683.75	0.1377482117	0.1888332116	
684.375	0.4529805004	-0.133304264	
685.0	0.1185373145	-0.1961249689	
685.625	0.2362918096	0.1966098831	
686.25	0.3498667857	-0.2287642835	
686.875	0.1625990728	-0.1246602623	
687.5	0.283325516	-0.245424765	
688.125	-0.2700376106	-0.4966546125	
688.75	-0.2490251648	-0.006569242084	
689.375	-0.2470331263	0.3346329781	
690.0	0.2908837925	0.3430484356	
690.625	0.1205963862	0.04707552861	
691.25	0.3306763408	0.4162743685	
691.875	0.559675323	0.01646741803	
692.5	0.3241932228	0.1773674394	
693.125	0.7792795534	0.0292927613	
693.75	0.4339631719	-0.5143838999	
694.375	0.251407261	-0.1357607274	
695.0	0.4863527325	-0.5459046789	
695.625	0.3210489081	-0.2805137833	
696.25	0.2905032696	0.171961469	
696.875	0.5381320377	0.07400492907	
697.5	0.3940810761	0.04854717412	
698.125	0.6851324191	-0.1026165767	
698.75	0.2802656373	-0.5338887574	
699.375	-0.4840972003	-0.108480787	
700.0	-0.06275263557	0.3234655534	
700.625	0.2261942494	0.3223063219	
701.25	0.1867379831	-0.01328078625	
701.875	0.125232049	0.239521965	
702.5	0.4848663239	0.2460674765	
703.125	0.2493379902	-0.09155941325	
703.75	0.3591648203	0.024032394	
704.375	0.2443770259	-0.3309649226	
705.0	0.036715195	-0.1332993011	
705.625	0.361304063	0.01616902743	
706.25	0.2865138539	-0.0376470872	
706.875	0.1010176147	0.1690719751	
707.5	0.372273193	0.2502813666	
708.125	0.3606376048	0.04801389013	
708.75	0.1412521365	-0.2645569716	
709.375	-0.3426572168	-0.2637327609	
710.0	-0.2846771555	0.3188919354	
710.625	0.05991064906	0.02705386017	
711.25	0.1612219506	0.1775153113	
711.875	0.1289607776	-0.04880194897	
712.5	0.2433184614	0.07814724651	
713.125	0.3350896566	-0.2888509038	
713.75	-0.02494475736	-0.2151583267	
714.375	0.08808760502	-0.1505111432	
715.0	-0.09623085579	-0.262594869	
715.625	-0.05051397675	-0.08662997791	
716.25	0.2014441642	-0.1597535779	
716.875	0.2610546399	-0.3459491723	
717.5	0.2062580419	-0.03205965429	
718.125	0.5834664948	0.02629967842	
718.75	0.6226530439	-0.4086291065	
719.375	0.2484758756	-0.4444784912	
720.0	0.332350028	-0.7970297622	
720.625	-0.3393322297	-1.034274478	
721.25	-0.1708101092	-0.3817331989	
721.875	-0.2345085542	-0.9795727038	
722.5	-0.8037172016	-0.2434192374	
723.125	-0.4160876288	-0.03322138356	
723.75	-0.5810937269	0.6352998443	
724.375	0.3134881121	0.2741479201	
725.0	-0.008071761312	0.2279300941	
725.625	0.3265430105	0.6160949009	
726.25	0.2400955423	0.350305215	
726.875	-0.2922830853	0.7243170787	
727.5	0.1354052223	1.521669908	
728.125	0.7447836475	1.14761941	
728.75	-0.4751327765	1.629883628	
729.375	0.1874834876	4.040954983	
730.0	1.633738919	2.02954764	
730.625	-0.5598705467	2.679553119	
731.25	0.5904136885	4.781546087	
731.875	-0.5376014212	1.729578607	
732.5	-2.796155847	-0.06248603903	
733.125	-2.321343794	1.567195647	
733.75	0.4264337827	0.978966501	
734.375	0.4629546359	0.643531894	
735.0	-0.5379730034	-0.6776434908	
735.625	-0.07485314463	0.08236378568	
736.25	-0.3001895025	0.7131161838	
736.875	0.8318292519	0.257014557	
737.5	0.1824760664	0.1795392739	
738.125	2.009496589	-0.239700395	
738.75	0.78007679	-2.101257899	
739.375	0.4098978762	-0.6433323138	
740.0	4.051608317	0.6821662266	
740.625	3.283403155	-3.496964951	
741.25	-1.894948732	0.07303762007	
741.875	-3.986673413	1.711561141	
742.5	-1.142739988	0.2954234931	
743.125	0.9362197678	-1.517588887	
743.75	-0.6207179625	-1.040890589	
744.375	-0.1876802231	0.2833194352	
745.0	-0.1244664638	0.06882282943	
745.625	0.04614563586	-0.1499730339	
746.25	0.04879030487	-0.05873339632	
746.875	-0.3029060243	0.08287913878	
747.5	0.0932898894	0.2944168651	
748.125	-0.02858388038	0.2870007733	
748.75	0.3428389418	0.515968557	
749.375	0.2292845949	0.3265885505	
750.0	-0.3410327078	0.1658131188	
