!Created with skrf (http://scikit-rf.org).
# GHz S RI R (50+0j) 
!freq	ReS11	ImS11	
500.0	0.03830753728	-1.299608054	
500.625	0.241687755	-1.327478005	
501.25	-0.5969468342	-0.8905566502	
501.875	-0.3927439576	-0.6062777296	
502.5	-0.07206266295	-0.1753715283	
503.125	-0.09695798978	0.007752175629	
503.75	0.01619100513	0.1050630545	
504.375	0.03660011194	-0.008172186647	
505.0	0.02450533779	-0.02942185622	
505.625	-0.002498607782	-0.06424307375	
506.25	-0.077097291	-0.06780623088	
506.875	-0.141958196	0.008309030628	
507.5	-0.06682044248	-0.4287579877	
508.125	0.2145932302	-0.823237559	
508.75	0.747989884	-1.237093837	
509.375	-0.006742828178	-1.404773291	
510.0	-0.5492990578	-0.3763441749	
510.625	-0.1507777675	-0.198018197	
511.25	-0.1498753613	-0.09988976294	
511.875	-0.1273928886	-0.1131568252	
512.5	-0.03796750004	0.05506358936	
513.125	-0.01890116462	-0.07962527024	
513.75	-0.07145331339	-0.07017810671	
514.375	-0.08898702659	-0.02176501561	
515.0	-0.01290357966	-0.07405719568	
515.625	0.05137192675	-0.5742216312	
516.25	-0.2040571493	-0.9208173614	
516.875	-0.2954191555	-0.5417489394	
517.5	-0.06719365016	-0.2087791627	
518.125	-0.04046358709	-0.0440417605	
518.75	-0.06585668763	-0.1781176845	
519.375	-0.07523318364	0.04359698723	
520.0	0.1475111974	0.0745541953	
520.625	0.1986609617	-0.083379851	
521.25	-0.04867625164	-0.3245764528	
521.875	-0.1812470541	-0.02145740192	
522.5	-0.05290675515	0.03624522206	
523.125	-0.06628566272	0.03532046998	
523.75	-0.1302663469	-0.007111743169	
524.375	-0.1859164592	0.0444482038	
525.0	-0.04243484035	0.1619584543	
525.625	0.04715151229	0.05067094169	
526.25	-0.01906051828	-0.01809340123	
526.875	-0.06726136238	0.06565262102	
527.5	-0.06708964853	0.2346180581	
528.125	0.06521131614	0.3352007642	
528.75	0.03058949166	0.2954848381	
529.375	0.05140001729	0.07955019055	
530.0	0.04671024384	0.2053004502	
530.625	0.1642649866	0.3784978385	
531.25	0.5425249969	0.09374850641	
531.875	0.2649355924	-0.2762270508	
532.5	-0.08306335386	-0.1348860218	
533.125	0.06585158375	-0.07648670737	
533.75	0.1070497424	-0.2428320488	
534.375	-0.1388434826	-0.3411539287	
535.0	-0.3160397774	-0.1032621804	
535.625	-0.2001341856	0.1502217733	
536.25	-0.0004760541547	0.1236184657	
536.875	0.1214082479	0.02268757361	
537.5	0.08680258181	-0.04978046666	
538.125	0.1455798387	-0.07101835264	
538.75	0.1676023632	-0.1476320444	
539.375	-0.08797225576	-0.211128272	
540.0	-0.2044494511	-0.1838201861	
540.625	-0.2055174737	-0.03190077153	
541.25	-0.1090940871	0.007707365283	
541.875	-0.0571744725	-0.02260631223	
542.5	-0.05747373364	-0.06218811459	
543.125	-0.1013954151	-0.04776425744	
543.75	-0.1031808471	0.00186399677	
544.375	-0.05479632209	0.05253969378	
545.0	-0.005652036466	0.07151457267	
545.625	0.06493665672	0.07637792228	
546.25	0.1220980301	0.04429993403	
546.875	0.1489446252	-0.03425120477	
547.5	0.08417467903	-0.1569575734	
548.125	-0.05341502564	-0.204832743	
548.75	-0.155593872	-0.148610384	
549.375	-0.145905766	-0.08435516009	
550.0	-0.09737825501	0.01233832109	
550.625	-0.06490847598	0.01316393188	
551.25	-0.09266324669	0.03543089871	
551.875	-0.08575626985	0.08891070688	
552.5	-0.05202700093	0.09647426311	
553.125	-0.01478530598	0.08325424092	
553.75	0.06294069671	0.05725312919	
554.375	0.1225060344	-0.004655558272	
555.0	0.1229654736	-0.09398307488	
555.625	0.1061368478	-0.1408994992	
556.25	0.08119194587	-0.1825480063	
556.875	-0.05072310317	-0.2044122647	
557.5	-0.1324316698	-0.1321226623	
558.125	-0.1497212686	-0.04753773781	
558.75	-0.1435149567	-0.001845199122	
559.375	-0.1429439699	0.03031116103	
560.0	-0.124358853	0.09820233396	
560.625	-0.06522738787	0.1462184865	
561.25	0.008680482728	0.1271480813	
561.875	0.04080867406	0.05758727025	
562.5	0.01416496779	0.06589392888	
563.125	0.09063133358	0.08862331714	
563.75	0.1759878399	-0.00172921218	
564.375	0.1581715201	-0.1254381541	
565.0	0.08843468996	-0.1881626477	
565.625	-0.04168515774	-0.1964692724	
566.25	-0.1447950519	-0.1357845757	
566.875	-0.1757471765	-0.0985336704	
567.5	-0.1785800545	-0.1414017963	
568.125	-0.1852535166	-0.206105148	
568.75	-0.2940025877	-0.09611103421	
569.375	-0.2955023677	0.1352560839	
570.0	-0.1453636208	0.2602372899	
570.625	-0.06756856597	0.2225784228	
571.25	-5.454122375e-05	0.1497626292	
571.875	0.07575960574	0.097306114	
572.5	0.161360175	-0.008073296085	
573.125	0.1072195987	-0.1430452827	
573.75	0.05122189459	-0.142349759	
574.375	0.01540769803	-0.08728748304	
575.0	0.03754402083	-0.05157635372	
575.625	0.04920284866	-0.09655390865	
576.25	0.0581534346	-0.1383845693	
576.875	-0.003785510175	-0.1793659516	
577.5	0.0009336479443	-0.2036493818	
578.125	-0.05731834431	-0.2039330582	
578.75	-0.1118597059	-0.1544961391	
579.375	-0.1095463469	-0.08079154823	
580.0	-0.06498454449	-0.03955528385	
580.625	-0.09067413864	-0.03640246321	
581.25	-0.1266264232	0.09897725728	
581.875	0.01212084887	0.1945002283	
582.5	0.06992126913	0.1746667526	
583.125	0.09293719545	0.09818595313	
583.75	0.05069838827	0.0266867356	
584.375	0.04277027208	0.07135101282	
585.0	0.141207389	0.07108497725	
585.625	0.1948259391	-0.008708474868	
586.25	0.1868557851	-0.08637256693	
586.875	0.08503610377	-0.1721480408	
587.5	-0.02163431616	-0.1762630835	
588.125	-0.02330417224	-0.17471818	
588.75	0.04182249584	-0.1834624217	
589.375	0.08507787995	-0.1941119587	
590.0	-0.07434695624	-0.2188774014	
590.625	-0.2319931221	-0.04426517633	
591.25	-0.1575479962	0.1450449196	
591.875	-0.04555393053	0.1500931106	
592.5	0.007342687422	0.06478112176	
593.125	-0.0368165752	0.06286196587	
593.75	0.0683446941	0.1502915369	
594.375	0.1897601929	0.1285610388	
595.0	0.2129147314	0.1339144893	
595.625	0.2160735308	0.1062083101	
596.25	0.2037299116	0.05669143695	
596.875	0.2013827378	0.04491263548	
597.5	0.1881920036	0.09882634684	
598.125	0.1935196128	0.1388577192	
598.75	0.2306902505	0.09834845809	
599.375	0.2655508417	-0.05690277808	
600.0	0.2030250683	-0.1908883321	
600.625	0.1698883682	-0.2259670211	
601.25	0.08492091793	-0.2374838265	
601.875	-0.09769086628	-0.1779135489	
602.5	-0.1612655811	-0.01910998622	
603.125	-0.1385182334	0.06250480586	
603.75	-0.1341864232	0.09471879325	
604.375	-0.1227476462	0.09654020117	
605.0	-0.08641614642	0.09540875806	
605.625	-0.09349687929	0.07514357307	
606.25	-0.1447342318	0.08527678471	
606.875	-0.2084143201	0.114384491	
607.5	-0.2000401481	0.2277340191	
608.125	-0.02413927939	0.3165584159	
608.75	0.2412441084	0.1964891361	
609.375	0.2922518309	-0.0563978534	
610.0	0.2042900319	-0.1637976998	
610.625	0.1014080233	-0.2039390728	
611.25	0.001627769557	-0.202224712	
611.875	-0.1148798306	-0.1533674758	
612.5	-0.2054835875	-0.07600997707	
613.125	-0.2424269683	0.0485297377	
613.75	-0.1129987549	0.1853209858	
614.375	0.0589607783	0.135408087	
615.0	0.05162114692	0.05658999564	
615.625	-0.001126420441	0.1064532277	
616.25	-0.0595051276	0.1804766941	
616.875	-0.09973410119	0.2414265415	
617.5	-0.07263748845	0.2782029351	
618.125	-0.009675605283	0.2721965627	
618.75	0.04828003759	0.2409229645	
619.375	0.134931753	0.1951429971	
620.0	0.2404861831	0.04092265746	
620.625	0.1289006924	-0.2082282512	
621.25	-0.132761611	-0.2268896365	
621.875	-0.2632690374	-0.08893833351	
622.5	-0.265401456	0.08382659171	
623.125	-0.04165614876	0.2356451392	
623.75	0.1716611492	0.04698255188	
624.375	0.04547296844	-0.07419398779	
625.0	0.04839374781	-0.03316053965	
625.625	0.06220717501	-0.1170084442	
626.25	-0.06762745535	-0.1742586071	
626.875	-0.1772792473	-0.1019979513	
627.5	-0.1811889921	-0.05347823873	
628.125	-0.1398766852	-0.09048303768	
628.75	-0.09664698185	-0.1566002507	
629.375	-0.1233451624	-0.186301936	
630.0	-0.2405070676	-0.1092988152	
630.625	-0.2733564316	0.1024257171	
631.25	-0.1609603438	0.2597921807	
631.875	-0.004185270897	0.3171862044	
632.5	0.2099830451	0.2324603342	
633.125	0.2737538352	0.03677818865	
633.75	0.2002955882	-0.1093449936	
634.375	0.06125166531	-0.1779986422	
635.0	-0.03701452916	-0.1865588371	
635.625	-0.1951373946	-0.09723463249	
636.25	-0.1921872053	0.1102771149	
636.875	-0.06689343867	0.169133747	
637.5	-0.0322365022	0.1149859825	
638.125	-0.07295228985	0.1138968516	
638.75	-0.07535260862	0.2132806777	
639.375	0.02274886636	0.3142698719	
640.0	0.2035697568	0.2972399151	
640.625	0.3213330073	0.1583443625	
641.25	0.3495279111	-0.04371532674	
641.875	0.1875695655	-0.2575390669	
642.5	-0.0407740252	-0.2625998368	
643.125	-0.1610876795	-0.1392655716	
643.75	-0.1795549019	-0.08204696515	
644.375	-0.2250457868	0.02295614893	
645.0	-0.1665967041	0.2036645925	
645.625	0.07911546179	0.2658747682	
646.25	0.2189937932	0.08887737916	
646.875	0.1256331711	-0.03534168223	
647.5	0.06818122038	0.04171779693	
648.125	0.2086627784	0.05605387354	
648.75	0.3198026502	-0.1026835013	
649.375	0.2709141129	-0.3090747715	
650.0	0.1946867552	-0.39303275	
650.625	0.1695817463	-0.3698869789	
651.25	0.2269802056	-0.3042214659	
651.875	0.3046125875	-0.2359973197	
652.5	0.3342098113	-0.1694675066	
653.125	0.3073555075	-0.1861751112	
653.75	0.1979063393	-0.3252663964	
654.375	-0.1428278109	-0.3706805977	
655.0	-0.3751454047	-0.04809365431	
655.625	-0.1879684945	0.2554662398	
656.25	0.06102619712	0.2138904219	
656.875	0.07776797704	0.08332696434	
657.5	0.05791701414	0.1212737024	
658.125	0.1945160473	0.1844787376	
658.75	0.3802620756	0.07232989483	
659.375	0.3959971364	-0.2148857935	
660.0	0.2507444444	-0.3952228349	
660.625	0.1413625654	-0.4232610412	
661.25	0.1774329817	-0.3812477748	
661.875	0.2500095477	-0.3378739334	
662.5	0.3037349972	-0.2885411488	
663.125	0.293916499	-0.283531132	
663.75	0.1530560619	-0.3725756685	
664.375	-0.09265323535	-0.4025208424	
665.0	-0.3584285997	-0.2288558264	
665.625	-0.3861642019	0.1499039163	
666.25	-0.09310571874	0.3530536705	
666.875	0.1693730952	0.2444181143	
667.5	0.2383223936	0.09930299516	
668.125	0.2769902322	-0.03642560674	
668.75	0.2304003691	-0.2008926532	
669.375	0.0996783909	-0.2869859581	
670.0	-0.006562286492	-0.2755221932	
670.625	5.705557914e-05	-0.2392266058	
671.25	0.06423719823	-0.2292816882	
671.875	0.1548864504	-0.2255015354	
672.5	0.2321437028	-0.2083537483	
673.125	0.234308205	-0.2399159206	
673.75	0.1673905183	-0.2960874168	
674.375	0.02297413195	-0.3372106986	
675.0	-0.1506268329	-0.2864644413	
675.625	-0.2559912598	-0.1299810238	
676.25	-0.2306694756	-0.003278149576	
676.875	-0.1855655385	0.03288955602	
677.5	-0.1882239447	0.06785915427	
678.125	-0.1413309685	0.2044821613	
678.75	0.08455089756	0.2697739312	
679.375	0.2708283964	0.06579203139	
680.0	0.1844652553	-0.1326719122	
680.625	0.07961063717	-0.1147834692	
681.25	0.1078663184	-0.02071445069	
681.875	0.1935487237	0.05557958099	
682.5	0.2620464006	0.09538184393	
683.125	0.3067654378	0.07779551496	
683.75	0.3337195937	0.07093037901	
684.375	0.3544893975	0.02753164866	
685.0	0.3561929649	0.01573212838	
685.625	0.3624847498	-0.030250514	
686.25	0.3702119839	-0.1033445479	
686.875	0.3473674765	-0.237463409	
687.5	0.2600328118	-0.4259674414	
688.125	-0.1374609607	-0.5418029454	
688.75	-0.5583881572	-0.1423031575	
689.375	-0.2988076046	0.459742189	
690.0	0.1854283561	0.4241551387	
690.625	0.323462408	0.294309836	
691.25	0.4217561993	0.3153452332	
691.875	0.5818041969	0.3679922373	
692.5	0.7724745412	0.2373367132	
693.125	0.8268901903	-0.06589405889	
693.75	0.7216774985	-0.3294444818	
694.375	0.5258806924	-0.5156928281	
695.0	0.5416866621	-0.3878044834	
695.625	0.6250161365	-0.148561816	
696.25	0.6513620125	0.1343921065	
696.875	0.5769380239	0.3970240085	
697.5	0.5895952367	0.4538276144	
698.125	0.7728855835	0.09667373251	
698.75	0.3901810161	-0.6528494875	
699.375	-0.5974554358	-0.3543024123	
700.0	-0.2626543197	0.492792579	
700.625	0.2237826463	0.3619402948	
701.25	0.3030415523	0.2066966625	
701.875	0.3402684468	0.2794876548	
702.5	0.4391233781	0.2880230208	
703.125	0.5297838101	0.1309652018	
703.75	0.4849956178	-0.143339954	
704.375	0.3438313942	-0.254700323	
705.0	0.2984576319	-0.1818982394	
705.625	0.3324942758	-0.01439112343	
706.25	0.3335178472	0.2013454722	
706.875	0.3359264221	0.3392986114	
707.5	0.4216265767	0.3745092186	
708.125	0.5952084444	0.02190651061	
708.75	0.2438802116	-0.5304102726	
709.375	-0.4365401418	-0.2581704348	
710.0	-0.1673874227	0.3267727921	
710.625	0.1276248126	0.1758690384	
711.25	0.1440010132	0.1296265534	
711.875	0.2879016003	0.1156793587	
712.5	0.3941131716	-0.06634144863	
713.125	0.3198543229	-0.2442489245	
713.75	0.1530392225	-0.3259031794	
714.375	0.002858359883	-0.3040552175	
715.0	-0.03595971644	-0.2567897927	
715.625	0.02207008957	-0.276204791	
716.25	0.193635214	-0.3053631695	
716.875	0.4168404963	-0.2461918935	
717.5	0.6472265049	-0.101802316	
718.125	0.8542600234	-0.05750616159	
718.75	0.9492572411	-0.3047001665	
719.375	0.8615159635	-0.7229201151	
720.0	0.4285581832	-1.153100851	
720.625	0.034512228	-1.238064133	
721.25	-0.2972212453	-1.208765141	
721.875	-0.5196670031	-1.260967113	
722.5	-0.9525426153	-0.8255778213	
723.125	-1.031794853	-0.00244587043	
723.75	-0.4195349592	0.6381316553	
724.375	0.09742945678	0.5777296035	
725.0	0.2368690802	0.4558825082	
725.625	0.2093349922	0.5706071069	
726.25	0.06960030742	0.8594777325	
726.875	-0.03922829388	1.193128709	
727.5	-0.001696278138	1.803568183	
728.125	0.2687525295	2.532194915	
728.75	0.4032995859	3.60749293	
729.375	-0.08596303176	4.489536033	
730.0	0.7485936106	4.597362337	
730.625	1.448596153	5.178429334	
731.25	-0.190485509	4.75385536	
731.875	-2.295781293	3.769511364	
732.5	-3.837520878	2.181865502	
733.125	-2.837279968	1.519983202	
733.75	-0.5292281735	1.925582742	
734.375	1.21810868	0.1650284591	
735.0	-0.2227464805	-0.7306253506	
735.625	-0.5738924028	0.2273418613	
736.25	-0.003186415941	0.6847599181	
736.875	0.5883365465	0.6541875752	
737.5	1.375544292	0.1349917813	
738.125	1.841806567	-0.6651120508	
738.75	2.176843441	-1.534472927	
739.375	2.740752531	-2.319903353	
740.0	4.022761487	-2.08227083	
740.625	3.29597601	0.3211074669	
741.25	1.206498758	2.026259422	
741.875	-2.376023881	1.358484773	
742.5	-2.196009515	-2.336023713	
743.125	-0.07896588523	-2.574475246	
743.75	-0.3907422547	-1.125021122	
744.375	-0.5641740153	0.1066273605	
745.0	0.09304008058	0.08292719743	
745.625	0.07660516442	-0.01424761364	
746.25	-0.04663487259	-0.172079213	
746.875	-0.2613182221	0.0678486775	
747.5	-0.08736800727	0.463476584	
748.125	0.1716129405	0.6743495567	
748.75	0.404626626	0.551332689	
749.375	0.1040734766	0.5882168888	
750.0	-0.48613237	0.3974830335	
