!Created with skrf (http://scikit-rf.org).
# GHz S RI R (50+0j) 
!freq	ReS11	ImS11	
500.0	1.568286079	-2.464380257	
500.625	1.495978953	-3.206795624	
501.25	-2.541124268	-2.722555886	
501.875	-0.7117419352	-0.1174555497	
502.5	-0.01821778119	-0.5809469055	
503.125	-0.181463295	0.2502830429	
503.75	-0.1512962321	0.1481291046	
504.375	0.1296355082	-0.1111481319	
505.0	0.05151587878	0.1012205479	
505.625	-0.1043055461	-0.3640558695	
506.25	0.08407931344	0.2354594183	
506.875	-1.192199026	-0.5332349898	
507.5	-1.405122565	0.06027121747	
508.125	1.351547319	-0.7475226694	
508.75	1.912082033	-4.619539147	
509.375	-2.16451265	-2.05289376	
510.0	-0.9448897732	-2.597141224	
510.625	-0.9075733798	-0.4296491238	
511.25	-0.2518130397	-0.4056252919	
511.875	-0.6713294595	-0.03413254398	
512.5	0.009165806275	0.228546997	
513.125	0.06535961839	-0.163373823	
513.75	-0.1425460264	-0.4195322445	
514.375	-0.4653495871	0.4087805729	
515.0	0.8821012593	-1.094180437	
515.625	-1.764405739	0.1333135473	
516.25	1.430840872	-2.454699139	
516.875	-2.272797982	-1.714354386	
517.5	0.09645117467	0.4305075493	
518.125	-0.3228646562	-0.4238745395	
518.75	0.005272394163	0.1859480305	
519.375	-0.2875062333	0.0591970372	
520.0	0.4456958551	0.09963289118	
520.625	0.2458857826	-0.1728105575	
521.25	0.2191737378	-0.9879326076	
521.875	-0.4614472305	0.1207760974	
522.5	-0.1151052137	-0.1076826366	
523.125	-0.04523762841	0.2282916851	
523.75	-0.326455456	-0.1537469089	
524.375	-0.1790431218	0.3030394084	
525.0	-0.3302153737	0.1666373915	
525.625	0.2810224598	0.2489882213	
526.25	-0.2674591412	-0.04965927239	
526.875	0.07408346808	0.1608128887	
527.5	-0.3475793502	0.2894494845	
528.125	0.3661909509	1.157677399	
528.75	0.2092917339	0.1620580477	
529.375	0.1713841646	0.431181753	
530.0	-0.04659573925	0.07100149488	
530.625	0.5248610356	1.261318751	
531.25	0.7148722083	-0.09317426605	
531.875	1.055299708	-0.3074109191	
532.5	-0.5144833443	-0.1146237633	
533.125	0.5094433378	-0.3216070422	
533.75	-0.2218505238	-0.2684608124	
534.375	0.1514080931	-1.194728784	
535.0	-0.8660268108	0.1846827197	
535.625	-0.3004240215	0.05590632954	
536.25	-0.06983157339	0.3315190887	
536.875	0.2606147137	-0.1004748176	
537.5	0.1868794209	0.03542170554	
538.125	0.3071774607	-0.3190887424	
538.75	0.1935481956	-0.1122571716	
539.375	-0.1494428701	-0.5940828931	
540.0	-0.5041346401	-0.09604038795	
540.625	-0.2448034604	-0.1980611051	
541.25	-0.3039208941	0.00884475224	
541.875	-0.1493701582	0.02190253293	
542.5	0.01233764514	-0.09418309908	
543.125	-0.3297036754	-0.1796326514	
543.75	-0.03812568557	0.1627918216	
544.375	-0.3001908592	0.03343719496	
545.0	0.1741175162	0.1101791955	
545.625	-0.08017191786	0.2668039776	
546.25	0.4512957827	-0.07880029077	
546.875	0.04317038286	0.06869245289	
547.5	0.3935645035	-0.3870996645	
548.125	-0.3211268478	-0.3344581869	
548.75	-0.08895771466	-0.2133723523	
549.375	-0.3382003197	-0.3075606239	
550.0	-0.1211553325	0.16465836	
550.625	-0.204845248	-0.1262932984	
551.25	-0.08919925545	0.1927406285	
551.875	-0.2214002552	0.04600214557	
552.5	-0.1106702372	0.2926472493	
553.125	-0.01122143566	0.103788833	
553.75	0.1036662441	0.1444332494	
554.375	0.2416710187	-0.02509969153	
555.0	0.2122816059	-0.1557120692	
555.625	0.2102141845	-0.2532257065	
556.25	0.1429768103	-0.3521804491	
556.875	-0.08491088574	-0.3755690572	
557.5	-0.220963647	-0.2511049848	
558.125	-0.2829567722	-0.0920593728	
558.75	-0.2384427822	0.008982067579	
559.375	-0.2531515745	0.01108689973	
560.0	-0.2485878829	0.2074614903	
560.625	-0.06120756313	0.2354893336	
561.25	-0.06260242137	0.2204545937	
561.875	0.164952582	0.1042638204	
562.5	-0.09227434568	0.1152484418	
563.125	0.2865023691	0.1311411331	
563.75	0.1677097509	0.05400146676	
564.375	0.4445138866	-0.2288760272	
565.0	0.02675688386	-0.4229741518	
565.625	0.01257177909	-0.236680624	
566.25	-0.2473444269	-0.3817371463	
566.875	-0.4214758844	-0.04770925173	
567.5	-0.1374585854	-0.2481255643	
568.125	-0.4519469392	-0.5462345703	
568.75	-0.4517483538	0.003810977784	
569.375	-0.6443856484	-0.01755636959	
570.0	-0.2242485247	0.7074622141	
570.625	0.01205575694	0.1653209761	
571.25	-0.352877392	0.4090216728	
571.875	0.3882352487	-0.104068054	
572.5	0.1746516874	0.3574245553	
573.125	0.3338261593	-0.5406381895	
573.75	-0.1956014678	-0.1365727672	
574.375	0.3670617235	-0.1333500178	
575.0	-0.2654394148	-0.1842269575	
575.625	0.3491472064	-0.03452826936	
576.25	0.05801434864	-0.5397545756	
576.875	-0.1620782202	-0.04946321956	
577.5	0.3081347507	-0.3740514444	
578.125	-0.2754713873	-0.5557883712	
578.75	-0.2390080695	-0.07826406672	
579.375	0.0205149627	-0.2595123993	
580.0	-0.3707279634	-0.08915830184	
580.625	0.1276173483	-0.1128054403	
581.25	-0.4794384232	0.2627749752	
581.875	0.2963478279	0.3215777808	
582.5	-0.1296942416	0.04765074416	
583.125	0.1453972106	0.6226734542	
583.75	0.1790696021	-0.4380785062	
584.375	-0.01553010599	0.5523480543	
585.0	0.4349666326	-0.2288976679	
585.625	0.08648249465	0.290949623	
586.25	0.6714432076	-0.3213002064	
586.875	-0.1153620062	-0.1578780673	
587.5	0.2806823855	-0.3728718243	
588.125	-0.2449432473	-0.5164776001	
588.75	-0.08281001735	-0.04677468618	
589.375	0.5047743402	-0.334261955	
590.0	-0.2869372206	-0.4655007013	
590.625	-0.2683438882	-0.02292222609	
591.25	-0.4110019055	0.1138649509	
591.875	-0.01244793807	0.4453915688	
592.5	-0.088986457	-0.02889876657	
593.125	0.03984948859	0.1960914568	
593.75	-0.02516935275	0.1566276096	
594.375	0.3854201775	0.5281879085	
595.0	0.7054111341	0.0346990839	
595.625	-0.03202088257	0.1049437098	
596.25	0.5876797196	0.4883152911	
596.875	0.3368413555	-0.3135196307	
597.5	0.09045214257	0.4319533208	
598.125	0.657089404	0.2301205803	
598.75	0.07966601726	0.1394549141	
599.375	0.8315428716	0.04850586022	
600.0	0.1141313134	-0.436690907	
600.625	0.3330118686	-0.1639051352	
601.25	0.3511065979	-0.4908445452	
601.875	-0.312218839	-0.2948322806	
602.5	-0.2265681289	-0.06543938699	
603.125	-0.2407284123	0.03650583291	
603.75	-0.3571060956	0.2285374608	
604.375	-0.05372089445	0.1303023283	
605.0	-0.3234647345	0.1302512615	
605.625	-0.02326503807	0.2815552883	
606.25	-0.3459562622	-0.08086651392	
606.875	-0.4593007437	0.4721783592	
607.5	-0.1512512523	0.09828204483	
608.125	-0.5099965734	0.8299511392	
608.75	0.6930418532	0.02639538916	
609.375	0.3235374752	0.2668861815	
610.0	0.6115629173	-0.4438430952	
610.625	-0.08343191338	-0.1161383367	
611.25	0.2831747695	-0.5843766403	
611.875	-0.3077563537	-0.08385705702	
612.5	-0.2485698304	-0.3684871792	
613.125	-0.580046177	0.3015378473	
613.75	-0.1916112032	0.09529527494	
614.375	0.1634314915	0.4873506651	
615.0	-0.03507004102	-0.1825329103	
615.625	0.05161680931	0.5016694734	
616.25	0.05532327467	-0.03390159063	
616.875	-0.499238443	0.4760586474	
617.5	0.1354601943	0.7073338347	
618.125	-0.1523629956	0.1482865661	
618.75	0.07814619596	0.7113988728	
619.375	0.2713602903	0.1516905621	
620.0	0.4223461147	0.2967092271	
620.625	0.1350349916	-0.4182575316	
621.25	-0.07508037069	-0.3792148697	
621.875	-0.551244827	-0.1394889173	
622.5	-0.3699784074	0.04312381039	
623.125	-0.1791908888	0.5238824444	
623.75	0.1690381624	-0.1393806396	
624.375	0.3749283009	0.02064417456	
625.0	-0.2311352975	-0.0716258543	
625.625	0.4121627479	-0.115478555	
626.25	-0.4777968043	-0.4142961704	
626.875	0.03231348189	-0.03299630224	
627.5	-0.5196193237	-0.3458375427	
628.125	-0.2740490202	0.08840707232	
628.75	0.08439234691	-0.4242371062	
629.375	-0.5079022475	-0.3395083677	
630.0	-0.1382932664	-0.2141142915	
630.625	-0.6670111517	0.04817754185	
631.25	-0.2966440663	0.6113382792	
631.875	0.01336058722	0.4230373312	
632.5	0.2158178443	0.4450295498	
633.125	0.5668856884	0.2346799752	
633.75	0.2954514239	-0.3120064464	
634.375	0.2117934878	-0.1505876985	
635.0	-0.1621593758	-0.5422326549	
635.625	-0.07518688072	-0.1104246007	
636.25	-0.5540666515	0.1518745682	
636.875	0.08984621934	0.383039573	
637.5	-0.1957792628	-0.113750106	
638.125	-0.1633250237	0.7158623178	
638.75	0.08856419655	-0.07284602001	
639.375	-0.3962250959	0.6888699472	
640.0	0.6330514188	0.6859415932	
640.625	0.4207770272	0.03490809071	
641.25	0.6857541893	0.4220846803	
641.875	0.212947277	-0.7256421964	
642.5	0.2082779781	-0.175396884	
643.125	-0.46757444	-0.6373353233	
643.75	-0.1861318518	0.3604861546	
644.375	-0.4015045289	-0.4565944978	
645.0	-0.4483273877	0.6046937126	
645.625	0.346549395	0.3826721367	
646.25	0.008256000851	0.02077211092	
646.875	0.6693967922	0.2212697272	
647.5	-0.3221195166	-0.1606757718	
648.125	0.6785480499	0.4045284812	
648.75	0.3881644219	-0.6373570529	
649.375	0.5341094925	0.1491275633	
650.0	0.7081983244	-1.357353887	
650.625	-0.3835703089	-0.5850370503	
651.25	0.7422322554	0.1187995539	
651.875	1.041587481	-0.9466629363	
652.5	-0.035789418	-0.4023306358	
653.125	0.8607206906	0.1851577837	
653.75	0.3559535334	-1.026187949	
654.375	-0.1247971478	-0.1757932437	
655.0	-0.6594692142	-0.756129823	
655.625	-0.2524892303	0.9297298108	
656.25	0.0854632146	-0.02410841144	
656.875	-0.0460524287	0.5072775775	
657.5	0.3353477317	-0.05395248994	
658.125	-0.08472719536	0.4815398499	
658.75	1.046443874	0.1763801843	
659.375	0.4711117341	-0.4648026465	
660.0	0.5050699659	-0.3135694882	
660.625	0.5539634715	-1.211682806	
661.25	-0.2433402733	-0.5028958974	
661.875	0.8437139769	-0.1970833955	
662.5	0.8085491924	-0.9274423532	
663.125	0.03627636686	-0.5402525583	
663.75	0.8111821267	-0.3373936248	
664.375	-0.5834566419	-0.9982099164	
665.0	-0.1613485287	-0.2571706886	
665.625	-1.125618741	0.07535648366	
666.25	0.2375404202	0.708421927	
666.875	-0.1312191902	0.3911294998	
667.5	0.6507822673	0.3677980752	
668.125	0.4350273104	-0.3461932836	
668.75	0.2817150294	-0.04852731095	
669.375	0.4721121904	-0.6510819474	
670.0	-0.2807990312	-0.4692096266	
670.625	0.1630971559	-0.3139567328	
671.25	0.1444653171	-0.6091229072	
671.875	0.03401146801	-0.2207403266	
672.5	0.717210117	-0.331854755	
673.125	0.3311997181	-0.6316483674	
673.75	0.0709305447	-0.305336281	
674.375	0.5113059079	-0.4725475439	
675.0	-0.6003934845	-0.982304588	
675.625	-0.08613019855	0.2978078261	
676.25	-0.6909001018	-0.5712741046	
676.875	-0.3224454638	0.5169150146	
677.5	-0.2518449991	-0.5173420907	
678.125	-0.3267800499	0.9623244439	
678.75	0.0328664562	-0.01955367989	
679.375	0.4474718588	0.5560980404	
680.0	0.586054158	-0.5818417618	
680.625	-0.3423557388	-0.09091846605	
681.25	0.5791539007	0.2249529144	
681.875	0.4028262233	-0.1479062223	
682.5	0.3029502611	0.05380564037	
683.125	0.418809825	0.4364830555	
683.75	0.922421892	-0.1069854048	
684.375	0.2806619264	0.08565282952	
685.0	0.7971502031	0.4230746889	
685.625	0.802913673	-0.6056890089	
686.25	0.2021732287	0.5231545738	
686.875	1.426155497	-0.914139282	
687.5	-0.3927407739	-0.5076603098	
688.125	0.7321513053	-1.045929349	
688.75	-1.735923147	-0.4432939558	
689.375	0.09025268368	0.3664918486	
690.0	-0.09468462512	1.526449867	
690.625	0.7846985946	0.02660068224	
691.25	0.2608591826	0.8558346235	
691.875	1.607749103	0.6516653823	
692.5	1.01721644	0.2587471524	
693.125	1.498893099	0.08695847092	
693.75	1.330160815	-0.6961993913	
694.375	0.9802571774	-0.8965204941	
695.0	0.8604252776	-0.7737076999	
695.625	0.9135322978	0.09955496539	
696.25	1.688071752	0.213149858	
696.875	0.5751776822	0.3301976219	
697.5	1.000464771	1.693626746	
698.125	1.530460806	-0.3342807594	
698.75	1.074830645	-0.2885142675	
699.375	-1.516146877	-1.300209615	
700.0	0.1147102663	0.8908634308	
700.625	-0.2586025698	1.188225309	
701.25	0.8394249611	-0.04408189408	
701.875	0.1508729336	0.6328972116	
702.5	1.336460541	0.6140885112	
703.125	0.4139731677	0.1686102273	
703.75	1.189077306	-0.06753957789	
704.375	0.2386014284	-0.7663003742	
705.0	0.7051764424	0.1979735818	
705.625	0.8266131057	-0.5106135449	
706.25	0.09354053421	0.3972795369	
706.875	0.9586874803	1.221815044	
707.5	0.8247284661	0.1474292642	
708.125	0.980708313	0.7297270403	
708.75	0.5697184137	-1.392814629	
709.375	-0.3798243834	-0.2563757567	
710.0	-0.8251138492	0.5318352482	
710.625	0.5357675789	0.141893867	
711.25	0.05949356157	0.4504278547	
711.875	0.6120394813	0.1515583628	
712.5	0.723968584	0.03337623799	
713.125	0.4943752774	-0.5825174139	
713.75	0.3766758886	-0.214666977	
714.375	0.03130340992	-0.8752369078	
715.0	-0.2965540381	-0.02932274444	
715.625	0.58051909	-0.7886017115	
716.25	-0.2718827565	-0.8173693814	
716.875	0.8519268125	0.3207882649	
717.5	2.378811272	-0.6087748507	
718.125	0.04522804713	-1.076475558	
718.75	3.083755365	1.496100924	
719.375	1.560081743	-3.212546582	
720.0	0.4806398025	-0.9699836187	
720.625	1.689623213	-2.891857078	
721.25	-1.901677431	-2.416690979	
721.875	0.4714814417	-2.175940807	
722.5	-2.055915735	-2.160117615	
723.125	-1.846352093	0.4599373855	
723.75	-0.8653849978	0.4524330179	
724.375	0.1002829399	1.628749176	
725.0	0.6965584859	0.5536572782	
725.625	0.1656044631	0.7188898553	
726.25	-0.3283949916	2.022137233	
726.875	1.13008671	2.712340022	
727.5	-1.133705269	1.461664598	
728.125	-0.7294806264	8.245979609	
728.75	4.512089318	4.865803032	
729.375	-8.456399941	2.178427978	
730.0	9.595154403	23.2331721	
730.625	2.779835298	0.6125273031	
731.25	-6.942410284	9.859226534	
731.875	-4.375275606	17.14216537	
732.5	-1.122901076	2.513078317	
733.125	-8.690014819	-1.234099969	
733.75	-0.8439200847	4.407057779	
734.375	1.24581327	0.1514708796	
735.0	0.7182422609	-2.461052987	
735.625	-0.3845492134	1.247015258	
736.25	-0.9005032615	0.8842201375	
736.875	1.385751081	1.961770481	
737.5	3.463626471	-0.4591274407	
738.125	0.922990108	-1.742228123	
738.75	8.415979374	0.551074231	
739.375	5.847470133	-10.51741953	
740.0	-3.21425512	-0.4017150402	
740.625	16.92034196	11.37232333	
741.25	12.82429665	-22.75424365	
741.875	-19.46085243	-3.560726349	
742.5	-14.6435606	-2.448924298	
743.125	1.821816624	2.162705484	
743.75	2.621614157	-4.42675751	
744.375	-2.232677271	0.7800707083	
745.0	0.1320615823	-0.1135803307	
745.625	0.3446386191	0.07375806889	
746.25	-0.2194224627	-0.213151424	
746.875	-0.670680388	-0.08766999073	
747.5	0.09171938902	1.124956155	
748.125	0.3648905153	0.949311711	
748.75	0.3503581204	1.728343028	
749.375	1.353088397	0.9378595224	
750.0	-1.308152877	1.033654926	
