!Created with skrf (http://scikit-rf.org).
# GHz S RI R (50+0j) 
!freq	ReS11	ImS11	
500.0	1.271953054	-1.653933328	
500.625	-0.04441275564	-3.493127573	
501.25	-0.353852513	-1.903798403	
501.875	-1.891241196	-0.7396081068	
502.5	-0.07999968371	-0.284218558	
503.125	-0.2466669259	0.009009743274	
503.75	0.2820310123	0.3371020965	
504.375	-0.04637265258	0.01814342596	
505.0	0.1677534654	-0.1118792075	
505.625	-0.1826206851	-0.06938576174	
506.25	0.1263631062	-0.3530336587	
506.875	0.1167925758	0.7447046417	
507.5	0.06799456382	-2.140335087	
508.125	-1.459066067	-1.716160643	
508.75	1.986802508	-0.6714673144	
509.375	0.2887804137	-6.222938801	
510.0	-1.82700424	0.6330732445	
510.625	-0.3391669454	-0.3120439092	
511.25	-0.3587307343	-0.09056291359	
511.875	-0.4223628249	0.09223110497	
512.5	-0.07361804011	0.1569172984	
513.125	-0.04591552232	-0.3272349576	
513.75	-0.2321596257	-0.04785671994	
514.375	-0.1848610587	-0.186768742	
515.0	-0.7363730031	0.1958216959	
515.625	2.059709405	-2.015194451	
516.25	-4.262076458	-1.509160858	
516.875	0.28786536	0.2503247294	
517.5	0.08518501016	-1.128565835	
518.125	-0.06648989302	0.3357034182	
518.75	-0.1550293503	-0.9529933378	
519.375	-0.05390533491	0.2555062616	
520.0	0.1257767733	0.2110902274	
520.625	0.6459448093	-0.2358524239	
521.25	-0.3718882668	-0.5352393204	
521.875	-0.2106009491	-0.1675595469	
522.5	-0.1072435343	0.2257184272	
523.125	-0.2658614758	-0.09309550305	
523.75	-0.2092650423	0.2270002726	
524.375	-0.2896403249	-0.1442805597	
525.0	0.01360572418	0.6869650383	
525.625	-0.02565963802	-0.1022758514	
526.25	0.1412607244	0.09002096827	
526.875	-0.3132892576	0.01934254819	
527.5	0.1701995787	0.7405183278	
528.125	0.04900937245	0.3158745666	
528.75	-0.05387107215	0.9206635984	
529.375	0.22931864	-0.07890910803	
530.0	-0.07818453366	0.7336133061	
530.625	0.5554306562	0.4277127017	
531.25	0.9914261061	0.4808545266	
531.875	0.1977532694	-0.9035250499	
532.5	0.2679532048	-0.2489638785	
533.125	-0.6893617629	-0.1658662116	
533.75	0.9099825808	-0.6451013609	
534.375	-0.9028743651	-0.4905897968	
535.0	-0.2302304024	-0.2597304925	
535.625	-0.6683208234	0.511797569	
536.25	0.1018857852	0.04819971175	
536.875	0.3004383364	0.193280846	
537.5	0.1222909437	-0.2398960523	
538.125	0.1178760698	-0.01230150345	
538.75	0.4966009986	-0.3645042182	
539.375	-0.2831114013	-0.281188678	
540.0	-0.3432634226	-0.294895493	
540.625	-0.3955713696	-0.07721593223	
541.25	-0.16921954	0.07957278386	
541.875	-0.1108602923	-0.110326613	
542.5	-0.1437224736	-0.03112372269	
543.125	-0.1214088053	-0.1122486958	
543.75	-0.2881959161	-0.05647761146	
544.375	0.02119324135	0.2080538843	
545.0	-0.212920987	0.03274966083	
545.625	0.4011248965	0.1878474955	
546.25	-0.03053323466	-0.04063955411	
546.875	0.5198484934	0.04527206761	
547.5	-0.1254822725	-0.2887029612	
548.125	0.1236920262	-0.3696378806	
548.75	-0.5150134959	-0.3251955253	
549.375	-0.1691200075	0.05113670604	
550.0	-0.2073080093	-0.1390005871	
550.625	-0.1293383447	0.1802539379	
551.25	-0.1212625086	-0.04315538982	
551.875	-0.2274914521	0.2443406436	
552.5	-0.004789204957	0.161441591	
553.125	-0.06917195503	0.1732942912	
553.75	0.1322566267	0.07094157096	
554.375	0.2115462091	0.007185211576	
555.0	0.2231362048	-0.191511791	
555.625	0.1637108808	-0.2566340841	
556.25	0.13186011	-0.3260936837	
556.875	-0.09679638048	-0.3707970497	
557.5	-0.2502741529	-0.2172996882	
558.125	-0.2618995649	-0.05498966391	
558.75	-0.2386547893	-0.01206524816	
559.375	-0.2642546904	0.09281954658	
560.0	-0.1650344359	0.1426576626	
560.625	-0.1651151936	0.2887578138	
561.25	0.1311958506	0.2154889642	
561.875	-0.02811242439	0.07095668709	
562.5	0.1277602052	0.1846267958	
563.125	0.08423782314	0.03994331074	
563.75	0.3574038386	0.1023096113	
564.375	0.2421500847	-0.3654435276	
565.0	0.1264973137	-0.1887911301	
565.625	-0.104441449	-0.4895254359	
566.25	-0.2384207977	-0.07478446404	
566.875	-0.2778422971	-0.2913849678	
567.5	-0.472651845	-0.1818572572	
568.125	-0.2461738333	-0.1659059908	
568.75	-0.5183577327	-0.3565183168	
569.375	-0.6458584528	0.4823911708	
570.0	0.04317949731	0.3309394988	
570.625	-0.4619990836	0.330879103	
571.25	0.3942218136	0.394204974	
571.875	-0.1994510819	0.2368953477	
572.5	0.5818871988	-0.2398764809	
573.125	-0.1204558181	0.03698153482	
573.75	0.4765436071	-0.3549393133	
574.375	-0.2773923053	-0.3075533424	
575.0	0.1472299563	0.1900738671	
575.625	0.1308002872	-0.4592106991	
576.25	-0.1714353909	-0.0528210487	
576.875	0.2704487953	-0.4153281092	
577.5	-0.2395250841	-0.4991850913	
578.125	-0.07791612909	-0.07642838688	
578.75	-0.07264024268	-0.4634824264	
579.375	-0.4478789907	-0.1051220448	
580.0	0.08406696346	0.06691502608	
580.625	-0.3203868037	-0.2443398774	
581.25	-0.01976030481	0.4140714944	
581.875	-0.1402576398	0.03513615103	
582.5	0.06462992505	0.7142125009	
583.125	0.425951297	-0.2116745305	
583.75	-0.2171473228	0.3308622139	
584.375	0.4483243658	-0.2104501928	
585.0	-0.1423174185	0.3898921245	
585.625	0.7270454415	-0.08189747109	
586.25	0.0836387275	-0.3533322989	
586.875	0.2507496834	-0.04125426787	
587.5	-0.06745241996	-0.5898333923	
588.125	-0.2046638284	-0.01433317588	
588.75	0.324883707	-0.411525941	
589.375	-0.130670259	-0.4797927589	
590.0	0.1360568336	-0.2318425684	
590.625	-0.7117132722	-0.1295900682	
591.25	-0.04169896985	0.3162601787	
591.875	-0.09291160651	0.1269528922	
592.5	-0.1449815615	0.2078176429	
593.125	0.2234653068	0.01505081927	
593.75	-0.2016749636	0.4402380566	
594.375	0.7351428471	0.06199373575	
595.0	0.05595223474	0.0939784721	
595.625	0.5903425592	0.5198075096	
596.25	0.2337830488	-0.337914627	
596.875	0.3051357972	0.4783790503	
597.5	0.6964378005	0.02518926771	
598.125	0.05628211425	-0.02074791452	
598.75	0.3855259455	0.4023287647	
599.375	0.5868217146	-0.2674955282	
600.0	0.1722319532	-0.2449861347	
600.625	0.4675953842	-0.3760079084	
601.25	-0.06392250916	-0.5214248332	
601.875	0.02333987277	-0.2848521397	
602.5	-0.4544383577	0.01601968538	
603.125	-0.05505413892	0.06165858848	
603.75	-0.3425466386	0.1682852189	
604.375	-0.1912599727	0.1842696215	
605.0	-0.1328932911	0.3437302472	
605.625	-0.05238052315	-0.1866731214	
606.25	-0.5191488175	0.4708150432	
606.875	0.04983548839	0.1618380634	
607.5	-0.8586940911	0.2589286951	
608.125	0.472498818	0.6223130073	
608.75	0.01380491154	0.3740921486	
609.375	0.9155890768	-0.1458219835	
610.0	-0.1195951333	-0.2931827286	
610.625	0.5805996275	-0.3289455195	
611.25	-0.2844919506	-0.4044344351	
611.875	0.04408302074	-0.2297837279	
612.5	-0.6742997421	-0.04436596811	
613.125	-0.1570957515	-0.008614701271	
613.75	-0.4152721174	0.4844679178	
614.375	0.3331699577	0.0420715246	
615.0	-0.1011296098	0.3828725116	
615.625	0.250447453	-0.03564926721	
616.25	-0.417726197	0.2853164521	
616.875	-0.009958500957	0.7408817516	
617.5	-0.06752617483	0.1069839818	
618.125	-0.1469546911	0.7368814274	
618.75	0.2790813574	0.2795268484	
619.375	0.03682275399	0.4100185634	
620.0	0.55185421	-0.06712405517	
620.625	0.171940802	-0.2226445753	
621.25	-0.292664626	-0.4810973205	
621.875	-0.3446203901	-0.06379959185	
622.5	-0.6497047868	0.07507090245	
623.125	0.230682908	0.3917959357	
623.75	0.06191356688	0.3414345107	
624.375	0.07008080942	-0.4596698319	
625.0	0.169596525	0.2587424331	
625.625	-0.06999835189	-0.6002602093	
626.25	0.1679271484	0.02929644635	
626.875	-0.4751985957	-0.5045142252	
627.5	-0.3716303499	0.2554977681	
628.125	0.05801071798	-0.2479802922	
628.75	-0.3129667951	-0.4865334348	
629.375	-0.2825947478	-0.1048501378	
630.0	-0.3061628167	-0.2971115588	
630.625	-0.6205807461	0.2637540945	
631.25	-0.08512754291	0.3354198913	
631.875	-0.18731102	0.6669777548	
632.5	0.5161640662	0.2854345031	
633.125	0.3168563961	0.1075712751	
633.75	0.4798783053	-0.1478963774	
634.375	0.07476586765	-0.4608277263	
635.0	-0.1442818261	-0.0828013554	
635.625	-0.199313566	-0.4488210358	
636.25	-0.5248001149	0.4829132462	
636.875	0.2429167541	0.04921732974	
637.5	-0.5524632959	0.3673027692	
638.125	0.3305789454	0.06836220855	
638.75	-0.6002494156	0.3950155205	
639.375	0.4989706749	0.7501003647	
640.0	-0.1330573418	0.1139542987	
640.625	0.7856090755	0.6893003761	
641.25	0.6819412432	-0.5041637224	
641.875	0.03289956264	-0.2493259718	
642.5	0.3278873374	-0.4169179614	
643.125	-0.6915665711	-0.316069904	
643.75	0.0635621896	-0.05383051361	
644.375	-0.6711123104	-0.02077586168	
645.0	0.01658692506	0.3894256054	
645.625	-0.2540263557	0.4858051596	
646.25	0.7296005922	0.04497836641	
646.875	-0.05163529638	-0.1238997679	
647.5	0.1526126879	0.3420710616	
648.125	0.6433824948	-0.2866739873	
648.75	-0.102127914	0.05306389639	
649.375	1.258166675	-0.4830262702	
650.0	-0.2342732993	-1.196185164	
650.625	0.2402451318	0.08932763091	
651.25	0.9963200418	-1.00759966	
651.875	-0.31321884	-0.5320857091	
652.5	0.8765982081	0.3230636234	
653.125	0.7509169762	-0.9405113565	
653.75	-0.08043866582	-0.2395546614	
654.375	0.331688786	-0.7220561858	
655.0	-1.134906747	-0.006317963247	
655.625	0.09269312572	0.426336253	
656.25	-0.3231402211	0.3431449927	
656.875	0.5569507228	0.2288054517	
657.5	-0.3669699727	0.1741386309	
658.125	0.6704394327	0.4391568538	
658.75	0.5576661298	-0.1205576258	
659.375	0.4532232493	-0.1262602828	
660.0	0.9480305663	-0.7727383838	
660.625	-0.317397071	-0.9813601711	
661.25	0.3752565609	-0.1423269938	
661.875	0.8160029254	-0.8574921446	
662.5	0.01478815611	-0.7808350882	
663.125	0.8469124938	0.07800505438	
663.75	0.07407182877	-1.201485843	
664.375	-0.1685694677	-0.203654615	
665.0	-0.4817412546	-0.8188965667	
665.625	-0.9041598194	0.5466899244	
666.25	0.123092863	0.3642692071	
666.875	0.05413379177	0.6082099559	
667.5	0.6924763317	0.0289032081	
668.125	0.1297083468	0.07478144024	
668.75	0.7291626407	-0.576229703	
669.375	-0.1081825135	-0.390366454	
670.0	0.2115258418	-0.3615498365	
670.625	-0.01132797359	-0.6799003345	
671.25	-0.1892592856	-0.3855701448	
671.875	0.2912335128	-0.0281214211	
672.5	0.7625404088	-0.5408744788	
673.125	0.07529326708	-0.6402393258	
673.75	0.3822951086	-0.1124254561	
674.375	-0.02267179504	-1.145295468	
675.0	-0.1705414166	0.0353303221	
675.625	-0.4147760145	-0.7186661135	
676.25	-0.7402437312	0.3826890349	
676.875	0.3134598066	-0.1475944094	
677.5	-0.912737163	0.03559458251	
678.125	0.1555677819	0.5240391714	
678.75	-0.04213133122	0.223565615	
679.375	0.616903667	0.4606158891	
680.0	0.1258521445	-0.6719796329	
680.625	0.2918376497	0.2084154585	
681.25	0.3254409391	-0.3425335576	
681.875	-0.08655529431	0.09108820029	
682.5	0.8405863124	0.5095128894	
683.125	0.4965696287	-0.2817254171	
683.75	0.4020828819	0.1599956575	
684.375	0.456688205	0.2887500459	
685.0	1.257519356	-0.001704581703	
685.625	-0.1469046212	-0.5884837337	
686.25	1.294594974	0.6379729593	
686.875	0.1527000181	-1.276601867	
687.5	0.6424070423	0.102640441	
688.125	-0.4234863351	-1.93606498	
688.75	-0.3500708551	0.6500581181	
689.375	-1.36137911	0.3692114053	
690.0	1.014858674	0.9657308607	
690.625	0.181037661	0.1232527821	
691.25	0.8493900081	0.9813574159	
691.875	1.206672671	0.2967250021	
692.5	1.131184226	0.4630229963	
693.125	1.592577908	-0.1367975409	
693.75	1.057435863	-0.7348003732	
694.375	1.042180581	-0.8616015178	
695.0	0.7702154852	-0.7862238939	
695.625	1.285303589	-0.1431904329	
696.25	1.080248829	-0.1484755779	
696.875	0.5026959281	1.08694818	
697.5	1.932955861	0.8407735535	
698.125	0.4841786529	-0.006566247052	
698.75	1.558498551	-1.252440028	
699.375	-1.589138834	-0.04370760152	
700.0	-0.7587668306	0.01495670983	
700.625	1.056242199	0.9846156501	
701.25	0.1100316626	0.006192194472	
701.875	0.9013815276	1.094150972	
702.5	0.735392228	-0.1345021283	
703.125	0.7995016859	0.6213131884	
703.75	1.068635774	-0.6441668036	
704.375	0.07724382403	-0.06728826481	
705.0	1.11602957	-0.4769972776	
705.625	0.1609203022	-0.3760721862	
706.25	0.4538746156	1.010690638	
706.875	1.262029056	0.1071900446	
707.5	-0.0008854246387	0.8355197745	
708.125	1.722297707	0.1007718032	
708.75	-0.169849352	-0.8708533541	
709.375	-0.4509773654	-0.7688146381	
710.0	-0.4318844637	0.8894951771	
710.625	0.1741547464	0.1126542294	
711.25	0.3473694762	0.3355831028	
711.875	0.4176996549	0.2034796915	
712.5	0.7039541018	-0.1620308266	
713.125	0.5507193131	-0.4728953254	
713.75	0.3513917438	-0.5632426531	
714.375	-0.2347702725	-0.570260834	
715.0	0.3030034095	-0.2162730886	
715.625	-0.2209758972	-1.043251356	
716.25	-0.1458852288	0.008371878908	
716.875	1.518640556	-0.05929696556	
717.5	1.543319956	-1.542871358	
718.125	0.1971922128	1.178693897	
718.75	3.322121741	-1.234799436	
719.375	0.06035945289	-1.642013002	
720.0	3.140940958	-1.149543671	
720.625	-2.02167862	-3.389800725	
721.25	0.3402756131	-1.071402858	
721.875	-0.4765942553	-2.859795034	
722.5	-2.522543868	-1.79516401	
723.125	-1.339494044	0.4647831564	
723.75	-1.187542207	0.7944640416	
724.375	0.5826215674	1.228030853	
725.0	0.2773307066	0.6106493384	
725.625	0.2296264409	1.224796969	
726.25	0.8068430531	1.827742186	
726.875	-0.0381020384	1.114771022	
727.5	-1.43468706	4.216347778	
728.125	2.522085873	6.06581313	
728.75	2.240076083	0.8202825004	
729.375	-10.23576208	14.09413972	
730.0	9.774909167	10.56643783	
730.625	-2.342944971	2.779372631	
731.25	-6.069162732	19.0246446	
731.875	5.131817082	4.781155314	
732.5	-13.55272722	-0.7678918012	
733.125	-5.943744333	5.031170031	
733.75	0.3204746917	3.040920267	
734.375	0.7655564898	1.205566581	
735.0	-0.4379089878	-2.700012201	
735.625	-0.1794838665	0.9091774269	
736.25	-0.661396795	1.17562103	
736.875	1.704195284	1.653025476	
737.5	1.148309932	-0.7915670168	
738.125	5.262537813	-0.1116446326	
738.75	3.563955053	-5.589478655	
739.375	0.7876617843	-3.956441481	
740.0	10.80093604	8.383313927	
740.625	19.97895208	-17.75776877	
741.25	11.15572794	-22.72232223	
741.875	-15.79675699	-7.00501387	
742.5	-10.61903812	1.612129705	
743.125	4.649071922	-1.717799674	
743.75	-1.90639827	-6.717843056	
744.375	-0.05552561188	0.8746897244	
745.0	-0.336320181	0.5005424631	
745.625	-0.1847312454	-0.4507292259	
746.25	0.190734592	-0.3549771496	
746.875	-0.8055896367	0.3245517666	
747.5	0.1730422601	0.8429303382	
748.125	0.2992521209	1.04024026	
748.75	0.7758044769	1.223029433	
749.375	0.5106568126	1.319254178	
750.0	-0.2700884593	-0.3507929977	
