!Created with skrf (http://scikit-rf.org).
# GHz S RI R (50+0j) 
!freq	ReS11	ImS11	
500.0	0.08022602888	-0.3566356511	
500.625	0.6593226987	-0.9499423607	
501.25	-0.5809168868	-0.314548569	
501.875	0.03017004657	-0.3652449345	
502.5	-0.06914016614	-0.1691995698	
503.125	-0.03415777521	0.02211272523	
503.75	-0.03395905701	0.07229787845	
504.375	0.03395848013	-0.02650696737	
505.0	0.02728219196	0.01782698472	
505.625	-0.007408726537	-0.08739527362	
506.25	-0.03478036561	0.03854959982	
506.875	-0.2635064747	-0.1238698385	
507.5	-0.05475976661	0.1316385041	
508.125	0.4410814572	-0.4276660431	
508.75	0.4250608533	-1.132102682	
509.375	-0.3370058989	-0.7203891195	
510.0	-0.503286796	-0.4445160918	
510.625	-0.2584126046	-0.1397823108	
511.25	-0.01413204859	-0.002755052429	
511.875	-0.07737878877	-0.1046822159	
512.5	0.006854795886	0.05401818084	
513.125	0.00126860531	-0.02548922683	
513.75	-0.07940960497	-0.09472592881	
514.375	-0.02553737336	0.08673481095	
515.0	0.0758564495	-0.2512317108	
515.625	-0.2066098641	0.03450704475	
516.25	0.1512104514	-0.8511438465	
516.875	-0.3451349113	-0.6191666901	
517.5	0.07068695538	-0.009424722079	
518.125	-0.01273643906	-0.09468897072	
518.75	-0.06373823021	-0.01718710944	
519.375	-0.05543823076	0.009674426338	
520.0	0.1165148702	0.07115949533	
520.625	0.10856486	-0.09832195641	
521.25	-0.00378455083	-0.198900459	
521.875	-0.1832082016	-0.1038554177	
522.5	-0.05080730043	0.06041171193	
523.125	-0.1019180612	-0.05696630299	
523.75	-0.1507947624	0.07784972694	
524.375	-0.002310960028	-0.01916467467	
525.0	-0.1742501848	0.1689470461	
525.625	0.1225455777	0.03122132335	
526.25	-0.08162119646	0.01816352323	
526.875	0.01079768871	0.01325951848	
527.5	-0.113760929	0.08291486353	
528.125	0.07317749946	0.3434806716	
528.75	-0.005740047806	0.09933091323	
529.375	0.03632877386	0.09472177631	
530.0	0.1162931711	0.07044168227	
530.625	-0.04416904043	0.1791584247	
531.25	0.5011772959	0.1916366966	
531.875	0.2479510689	-0.2704364013	
532.5	0.04740361412	-0.0543370166	
533.125	-0.05835109138	-0.13730191	
533.75	0.09852558435	-0.04174266635	
534.375	-0.05360641962	-0.3563609272	
535.0	-0.1816110693	-0.001070764006	
535.625	-0.1532589857	0.03670915953	
536.25	0.003338325095	0.1131040389	
536.875	0.05416317297	-0.02383091068	
537.5	0.0857431847	-0.01128987795	
538.125	0.08516131544	-0.1088370722	
538.75	0.08637087872	-0.05048746391	
539.375	-0.06052773071	-0.1714280536	
540.0	-0.1940785161	-0.07221973021	
540.625	-0.07311228819	-0.04652670773	
541.25	-0.13128176	-0.01699938756	
541.875	-0.1088289133	0.03342165684	
542.5	-0.02429717603	-0.08222014917	
543.125	-0.1048347958	0.01533432577	
543.75	-0.02066196655	-0.0343996833	
544.375	-0.1167193589	0.04114246166	
545.0	0.04184931906	0.006686685486	
545.625	0.01288093834	0.09825973717	
546.25	0.1422291111	-0.007257798658	
546.875	0.05801325911	0.004170653321	
547.5	0.104975432	-0.1319074098	
548.125	-0.08899823318	-0.1222242795	
548.75	-0.05765688895	-0.09232097725	
549.375	-0.1214018516	-0.1083070378	
550.0	-0.05169708791	0.04623362867	
550.625	-0.0608906071	-0.03241378915	
551.25	-0.06580875142	0.05896986159	
551.875	-0.05236474103	0.03532668074	
552.5	-0.05158216626	0.08652177897	
553.125	0.0006139187687	0.04320291174	
553.75	0.03367443896	0.05175798298	
554.375	0.09214607203	-0.01032898337	
555.0	0.08402468599	-0.0588789031	
555.625	0.08292116867	-0.0960554167	
556.25	0.05560061993	-0.1304287678	
556.875	-0.03313781261	-0.1397660439	
557.5	-0.08658479639	-0.09677043445	
558.125	-0.1090425997	-0.03858315056	
558.75	-0.09817726256	0.00431391514	
559.375	-0.09666177028	0.01315528257	
560.0	-0.09588386774	0.07528591947	
560.625	-0.02835126454	0.1027402357	
561.25	-0.01863830046	0.08028106887	
561.875	0.05257936936	0.0567957353	
562.5	-0.01826136402	0.02450913463	
563.125	0.09025975937	0.08924656802	
563.75	0.1037332504	-0.02949598762	
564.375	0.1258717605	-0.0421722376	
565.0	0.06743345034	-0.1760745852	
565.625	-0.04491334459	-0.1022512509	
566.25	-0.0520340645	-0.1412330644	
566.875	-0.1694742005	-0.04232762192	
567.5	-0.02760394712	-0.050443677	
568.125	-0.1371871914	-0.2061346586	
568.75	-0.2038957711	-0.007931517878	
569.375	-0.1757538153	0.02211802829	
570.0	-0.1646742048	0.2707814241	
570.625	0.04072488922	0.1456479805	
571.25	-0.08295545401	0.08112504392	
571.875	0.1252323219	0.07029767919	
572.5	-0.0001124447843	0.03592490045	
573.125	0.1680229986	-0.1202105644	
573.75	-0.03427051513	-0.1380774683	
574.375	0.04520052141	0.01641199363	
575.0	0.006330293444	-0.1311915946	
575.625	0.01072007562	0.01665705897	
576.25	0.1214469645	-0.1238262637	
576.875	-0.08628070096	-0.1622514038	
577.5	0.006689402275	-0.0510586202	
578.125	0.02505919198	-0.2018234694	
578.75	-0.1965861377	-0.1015882819	
579.375	-0.009330690232	-0.007062298548	
580.0	-0.1278654458	-0.1622360439	
580.625	-0.01296885812	0.08326293696	
581.25	-0.1664452897	-0.01944799308	
581.875	0.07390307468	0.2233953047	
582.5	0.04928421495	-0.01065409046	
583.125	-0.01875733985	0.1211874781	
583.75	0.1380751699	0.002085690618	
584.375	-0.08409758232	0.06342376154	
585.0	0.1994885853	0.07243075732	
585.625	0.07571166615	-0.07115077021	
586.25	0.140794263	0.02958380906	
586.875	0.07192081634	-0.2113256918	
587.5	-0.01176986117	-0.04504723566	
588.125	0.05499370805	-0.1630845675	
588.75	-0.0383882397	-0.1818052653	
589.375	0.02644520086	-0.04342298909	
590.0	-0.005048233757	-0.2645446721	
590.625	-0.1904850664	0.05009199236	
591.25	-0.06936284062	0.02274992652	
591.875	-0.1330666773	0.1926807012	
592.5	0.1148473487	0.0008564789547	
593.125	-0.1267153278	0.1162385498	
593.75	0.1135458895	0.04741033808	
594.375	0.03353022127	0.1368876637	
595.0	0.2460452008	0.1231567956	
595.625	0.145524624	-0.03209613883	
596.25	0.07749665253	0.1016388551	
596.875	0.2179273972	-0.00241660086	
597.5	0.1004347224	0.0006226307282	
598.125	0.08511277395	0.1619858397	
598.75	0.236423739	0.04200656673	
599.375	0.1157154783	-0.02897545167	
600.0	0.1848783402	-0.1152883273	
600.625	0.1107338758	-0.2297334517	
601.25	-0.003159236883	-0.1088422349	
601.875	0.002198983675	-0.1845229508	
602.5	-0.1775647771	0.05916113926	
603.125	-0.01990263951	-0.01580537962	
603.75	-0.2039878545	0.05664728522	
604.375	-0.009684296292	0.1472350002	
605.0	-0.07241823243	-0.02885378339	
605.625	-0.03443569735	0.1768895562	
606.25	-0.00520858478	0.002072618857	
606.875	-0.2350577663	0.003594575649	
607.5	-0.08004462651	0.2226576189	
608.125	-0.08490682655	0.235372881	
608.75	0.1630398918	0.2265683676	
609.375	0.2345948981	-0.1011008581	
610.0	0.07065352448	-0.04326167778	
610.625	0.1028698692	-0.131563699	
611.25	-0.08271222567	-0.1387975233	
611.875	0.02153511635	-0.09914343567	
612.5	-0.2262762836	-0.1087049581	
613.125	-0.1091021942	0.1342711999	
613.75	-0.1304827325	0.03095112401	
614.375	0.0691528371	0.204070012	
615.0	-0.0003595361714	-0.07740398737	
615.625	-0.06142143241	0.1911157065	
616.25	-0.006078324557	0.022482429	
616.875	-0.1334785282	0.07811453375	
617.5	-0.011396861	0.2511281339	
618.125	0.04326716156	0.148324235	
618.75	0.07710805501	0.180457941	
619.375	0.1420429739	0.1908299746	
620.0	0.2097559234	0.01261075078	
620.625	0.05327508123	-0.09344715077	
621.25	-0.1141301331	-0.2351560246	
621.875	-0.1672533551	-0.001265111971	
622.5	-0.1178166273	-0.03285810424	
623.125	-0.02965310644	0.2419454863	
623.75	0.1150208408	-0.08192691217	
624.375	0.07517075222	0.02385630453	
625.0	-0.0288507759	-0.08577126758	
625.625	0.08712693225	-0.02028248146	
626.25	-0.05478645648	-0.1906027128	
626.875	-0.1468620922	0.004719803973	
627.5	-0.05787822948	-0.08883654299	
628.125	-0.1614285668	-0.0727045895	
628.75	-0.07416132464	-0.08515479024	
629.375	-0.04640132285	-0.1885850554	
630.0	-0.2335172174	-0.05456277304	
630.625	-0.1467042211	0.05380357918	
631.25	-0.1462152184	0.05601826383	
631.875	-0.004570472462	0.2580248623	
632.5	0.1087985403	0.1129432192	
633.125	0.1394218406	0.126910983	
633.75	0.2229368988	-0.1491672252	
634.375	0.0229924004	-0.03662680834	
635.0	0.05239207035	-0.1866262862	
635.625	-0.1855386813	-0.01556935987	
636.25	-0.09153252696	-0.01116487357	
636.875	-0.1559420381	0.1748172233	
637.5	0.05588840215	0.06958304119	
638.125	-0.1353177384	0.04309465787	
638.75	-0.03164938363	0.2416647521	
639.375	0.03206433087	0.1230442447	
640.0	0.05345181084	0.2916495639	
640.625	0.3129724453	0.1164100839	
641.25	0.1995135514	-0.0720099069	
641.875	0.200161749	-0.06030265269	
642.5	-0.0618760123	-0.26875722	
643.125	-0.02878763105	-0.04368417715	
643.75	-0.1159767511	-0.2033815918	
644.375	-0.2382271676	0.189412138	
645.0	-0.08226362119	0.003470136009	
645.625	0.02807436877	0.3288963249	
646.25	0.2393709723	-0.1072504462	
646.875	-0.02101508581	0.08646413715	
647.5	0.1918331833	-0.05555324589	
648.125	-0.03105931567	0.06989696318	
648.75	0.4126114356	-0.02548614811	
649.375	0.1008710097	-0.3249250953	
650.0	0.1039111202	-0.1073554844	
650.625	0.2955415943	-0.2918608939	
651.25	0.04540994436	-0.3327333752	
651.875	0.1654994583	-0.006171743341	
652.5	0.4055224415	-0.08392927718	
653.125	0.1683096658	-0.2062092326	
653.75	0.1886384868	-0.04512993243	
654.375	-0.04655971807	-0.4280487949	
655.0	-0.2471632476	0.04818707444	
655.625	-0.1225873859	0.01884195469	
656.25	-0.01351263276	0.3195690231	
656.875	0.09976086324	-0.06459642194	
657.5	-0.06795255961	0.3037027128	
658.125	0.2522378027	0.08313327281	
658.75	0.1321478373	0.04069869075	
659.375	0.459965714	-0.03033218371	
660.0	0.07439699952	-0.4132084469	
660.625	0.126604366	-0.1545520318	
661.25	0.2540162807	-0.3160033981	
661.875	0.09394063425	-0.340011624	
662.5	0.1610653645	-0.0136459067	
663.125	0.3740706132	-0.2055667563	
663.75	0.04306676578	-0.2936782831	
664.375	0.04723893123	-0.2222306891	
665.0	-0.2849011911	-0.2978608909	
665.625	-0.2326433186	0.1753324831	
666.25	-0.1414259794	0.1227931244	
666.875	0.1365253351	0.2932420774	
667.5	0.1614435929	-0.07039956882	
668.125	0.1634779314	0.1283245486	
668.75	0.2293804458	-0.2826275442	
669.375	0.003138401733	-0.1508669099	
670.0	0.1820903817	-0.2167704431	
670.625	-0.08075748202	-0.3014780755	
671.25	0.006260185067	-0.03893440255	
671.875	0.2402780526	-0.1831657889	
672.5	0.081929552	-0.1901704941	
673.125	0.147078056	-0.0522637019	
673.75	0.2697066155	-0.2583613211	
674.375	-0.08827621125	-0.2560610433	
675.0	0.04171401037	-0.165798382	
675.625	-0.2113338767	-0.2168629388	
676.25	-0.168886775	0.08583621258	
676.875	-0.0355668251	-0.08333819881	
677.5	-0.2368880081	0.07403464176	
678.125	-0.005002719947	0.1120917493	
678.75	-0.0932083202	0.1914528572	
679.375	0.3334656879	0.1082441589	
680.0	-0.09926447799	-0.1383875904	
680.625	0.1670322008	0.04803946363	
681.25	0.1366111251	-0.1859323238	
681.875	-0.1098132643	0.176233787	
682.5	0.3042662417	0.2634631382	
683.125	0.04605513584	-0.2110498973	
683.75	0.08255114693	0.1976413172	
684.375	0.3793838379	0.1397500173	
685.0	0.1530366402	-0.1432201195	
685.625	0.3028669116	0.215810423	
686.25	0.441585065	-0.1328252178	
686.875	0.1126840247	-0.1617544231	
687.5	0.3075447361	-0.1385698951	
688.125	-0.07404986148	-0.513220305	
688.75	-0.2980772207	0.006983569453	
689.375	-0.3776847074	0.1325435929	
690.0	0.1529063795	0.4567412425	
690.625	0.1629966391	0.03942692271	
691.25	0.2586750406	0.4743239343	
691.875	0.5847854799	0.1088647016	
692.5	0.281185813	0.2253401918	
693.125	0.6817943747	0.1375384935	
693.75	0.370277409	-0.4945709924	
694.375	0.2410590864	-0.1128332129	
695.0	0.6119518406	-0.2180973077	
695.625	0.2697501453	-0.1212047735	
696.25	0.3366698591	0.184836502	
696.875	0.4042925715	0.2240140534	
697.5	0.3909119747	0.2071488595	
698.125	0.3744754292	0.3097554608	
698.75	0.5112433246	-0.3627950213	
699.375	-0.4585017973	-0.2874429055	
700.0	-0.1803309199	0.10376881	
700.625	0.08146828396	0.4220740635	
701.25	0.2579827979	0.01738146679	
701.875	0.09966894105	0.2505724081	
702.5	0.4332715532	0.2973608212	
703.125	0.2784042344	-0.06477736442	
703.75	0.3245147671	0.05755933344	
704.375	0.2282177292	-0.2998062963	
705.0	0.04964082175	-0.1449701076	
705.625	0.2507955214	0.1695126279	
706.25	0.3009502209	0.07810261464	
706.875	0.1634968193	0.3011976943	
707.5	0.2064113812	0.3733108766	
708.125	0.4846449705	0.04792592865	
708.75	0.242452254	-0.3698027378	
709.375	-0.1314952614	-0.2235088539	
710.0	-0.3208591249	0.2967959147	
710.625	0.07459819731	0.06159730376	
711.25	-0.01013953313	0.2824683713	
711.875	0.2778345145	-0.09640017391	
712.5	0.2358726593	0.09192255987	
713.125	0.3130808068	-0.2047807463	
713.75	0.005097459557	-0.2620922304	
714.375	0.08533180935	-0.1224908887	
715.0	-0.02028730541	-0.2547780428	
715.625	-0.0652713334	-0.09971637497	
716.25	0.2467444649	-0.1437639484	
716.875	0.3405271322	-0.315368719	
717.5	0.3144039069	-0.05260739619	
718.125	0.5576665391	0.2093251446	
718.75	0.7219558197	-0.2695254214	
719.375	0.4149415397	-0.4593196718	
720.0	0.8594080836	-0.7385088603	
720.625	0.1233195622	-1.679087109	
721.25	-0.02052781107	-0.6137135708	
721.875	0.06649232636	-1.052216466	
722.5	-0.9760802946	-0.6342038963	
723.125	-0.398425283	-0.1323859327	
723.75	-0.5640924229	0.4118639319	
724.375	0.2792761404	0.370791144	
725.0	0.01002359615	0.2240811995	
725.625	0.203130205	0.5905049529	
726.25	0.2912651081	0.4417908713	
726.875	-0.2886566699	0.6404549443	
727.5	-0.1468846425	1.491989285	
728.125	0.5903495701	1.538593717	
728.75	-0.6713849625	1.511097485	
729.375	-0.6406255197	4.059443318	
730.0	1.060428023	2.715312228	
730.625	-1.633713078	2.577042222	
731.25	-2.180108451	4.732005263	
731.875	-0.750396331	2.370962233	
732.5	-3.301752503	-0.1070307771	
733.125	-2.885541641	0.5368914712	
733.75	0.223742588	1.251498625	
734.375	0.206110517	0.6513736134	
735.0	-0.2422946544	-1.095743741	
735.625	-0.07295355262	0.1068212762	
736.25	-0.4105423437	0.6453658764	
736.875	0.756197762	0.4789098923	
737.5	0.2470344302	-0.006339702579	
738.125	1.657973831	0.1594652352	
738.75	1.367076908	-2.034524616	
739.375	0.4608212813	-0.9957802993	
740.0	3.607995818	0.6696393094	
740.625	4.825649663	-2.637695128	
741.25	-1.597840445	-0.9965508734	
741.875	-4.623858318	0.7588211501	
742.5	-1.720890746	-0.4414120688	
743.125	1.154201461	-0.8409684856	
743.75	0.008075462652	-1.438014913	
744.375	-0.3149677627	0.1702757627	
745.0	-0.05342684981	0.03734854187	
745.625	0.1163539507	-0.1191048861	
746.25	0.089104222	-0.01671719699	
746.875	-0.3050893693	-0.01498009873	
747.5	0.01346596281	0.3195304039	
748.125	0.05030053151	0.2874882126	
748.75	0.2186275434	0.4957764516	
749.375	0.2376421683	0.3321298563	
750.0	-0.3497459093	0.1553410564	
