!Created with skrf (http://scikit-rf.org).
# GHz S RI R (50+0j) 
!freq	ReS11	ImS11	
500.0	-2.176046415	-3.124699008	
500.625	1.195136793	-1.746787147	
501.25	-0.7795292782	-3.523651682	
501.875	-2.106164425	-1.754332657	
502.5	-0.2354174755	-0.05525672104	
503.125	-0.3134057805	-0.08308330864	
503.75	0.3762450685	0.1713696341	
504.375	0.07898736014	0.1137941532	
505.0	-0.0315130391	-0.2134265056	
505.625	0.2345322928	-0.01460307668	
506.25	-0.7503172718	-0.2762919851	
506.875	0.6457369254	-0.4046581349	
507.5	-0.1644257362	-2.281458192	
508.125	-1.209860534	-2.365659307	
508.75	1.478653778	-0.9194914641	
509.375	-1.226027165	-6.400340122	
510.0	-1.261051084	0.0976618009	
510.625	-0.0246860081	-0.8126566315	
511.25	-0.4014693158	0.2708319256	
511.875	-0.3750941351	-0.2898712363	
512.5	-0.1072318755	0.1844430806	
513.125	-0.1660291281	-0.3727644695	
513.75	-0.09434432979	0.02748443011	
514.375	-0.2870773132	-0.4756300976	
515.0	-0.9904930165	1.426644991	
515.625	0.7602309599	-4.158962521	
516.25	-2.479696142	-0.06738698966	
516.875	0.8648143462	-1.548519267	
517.5	-0.918844042	-1.057155629	
518.125	0.3322433659	0.03943156088	
518.75	-0.5907570607	-0.8157953785	
519.375	-0.0573017333	0.09799490429	
520.0	0.2483209683	0.2937812532	
520.625	0.5967379638	-0.3581479795	
521.25	-0.1830452157	-0.5388518487	
521.875	-0.3837987094	-0.3044979042	
522.5	-0.004355387794	0.2105903449	
523.125	-0.3517216497	0.002488941845	
523.75	-0.1002595253	0.07570700062	
524.375	-0.6594752339	-0.06786337301	
525.0	0.3160493733	0.2855041746	
525.625	-0.1670803374	0.147103113	
526.25	0.2037704243	-0.1170508169	
526.875	-0.3586968389	0.2418666087	
527.5	0.2431093665	0.5379234372	
528.125	-0.2773203253	0.5776513394	
528.75	0.1594130585	1.186290124	
529.375	0.01247886922	-0.07013380985	
530.0	0.3184325298	0.6772702738	
530.625	-0.2042859642	0.619726225	
531.25	1.846864858	0.3506923388	
531.875	0.1362417199	-0.3469493541	
532.5	0.05459481877	-0.60354297	
533.125	-0.2466153738	0.497385886	
533.75	0.4529859166	-0.9817423868	
534.375	-0.3871601401	-0.3793595775	
535.0	-0.5603518891	-0.7362871159	
535.625	-0.3414947187	0.7052283488	
536.25	-0.04060837213	0.109454977	
536.875	0.3142871821	0.1519355366	
537.5	0.1205981043	-0.2137600825	
538.125	0.3076019853	0.07219898947	
538.75	0.3462004233	-0.5338042312	
539.375	-0.09255679718	-0.2433460788	
540.0	-0.4052516595	-0.6084822323	
540.625	-0.4785008928	0.1760661553	
541.25	-0.09460030145	-0.07547549364	
541.875	-0.1442273124	-0.1135956998	
542.5	-0.2117444287	-0.07689030291	
543.125	0.04301841874	-0.09561909338	
543.75	-0.437749848	-0.1081082053	
544.375	0.1223375434	0.1004921929	
545.0	-0.2041390277	0.2694685659	
545.625	0.2893988939	-0.06375562379	
546.25	0.05103348093	0.3243991706	
546.875	0.4539997919	-0.3305604085	
547.5	0.07874052693	-0.05482038557	
548.125	0.08152502786	-0.5663975167	
548.75	-0.5058685227	-0.2626951447	
549.375	-0.1078646952	-0.0508683164	
550.0	-0.3270300937	-0.1117903727	
550.625	-0.006392900211	0.1085769553	
551.25	-0.3079398846	-0.03688677798	
551.875	-0.09324670982	0.2836765751	
552.5	-0.1593278836	0.08186783443	
553.125	-0.0483250894	0.2235875688	
553.75	0.1098248571	0.09480146008	
554.375	0.2338935087	0.03987267593	
555.0	0.2717510098	-0.1838312833	
555.625	0.2019397241	-0.2561920966	
556.25	0.1886157651	-0.3422997291	
556.875	-0.08599860009	-0.4127459955	
557.5	-0.2431123043	-0.256845447	
558.125	-0.2718579221	-0.1125177154	
558.75	-0.2907051964	-0.02504758064	
559.375	-0.2541384694	0.07560862593	
560.0	-0.2303617808	0.127567771	
560.625	-0.1723404459	0.3077184752	
561.25	0.09840701393	0.226939532	
561.875	-0.03429794411	0.1302007338	
562.5	0.1409932524	0.09001140885	
563.125	0.05299027102	0.2635196143	
563.75	0.4561937347	-0.07262222318	
564.375	0.1463288256	-0.1546333912	
565.0	0.3746622208	-0.3388402079	
565.625	-0.2018267222	-0.4379221202	
566.25	-0.2066440624	-0.1394662562	
566.875	-0.2587355133	-0.3407404764	
567.5	-0.54064694	-0.2533176843	
568.125	-0.1445470667	-0.2324216419	
568.75	-0.7119456128	-0.4273391534	
569.375	-0.4350868759	0.401691521	
570.0	-0.451796882	0.2270178395	
570.625	-0.1843262564	0.7569998819	
571.25	0.1493616797	-0.01218482277	
571.875	0.003857905697	0.5472752809	
572.5	0.321963245	-0.372843246	
573.125	0.1552355116	0.07619564044	
573.75	0.402722456	-0.4896025121	
574.375	-0.2787372105	-0.1224431915	
575.0	0.4107237403	-0.04037837545	
575.625	-0.2256353532	-0.2712086647	
576.25	0.3461915235	0.01252221264	
576.875	-0.01952711901	-0.6392317752	
577.5	-0.2630191046	-0.2580376725	
578.125	0.1350130943	-0.2583355996	
578.75	-0.1776367893	-0.5579360962	
579.375	-0.4149814149	0.01017707622	
580.0	0.1515488094	-0.1140915088	
580.625	-0.4556939066	-0.02691982877	
581.25	0.02776727081	0.01732426194	
581.875	-0.3450716324	0.502788052	
582.5	0.4695853132	0.4698091867	
583.125	-0.005932294242	-0.1854948868	
583.75	0.1253057056	0.5688699531	
584.375	0.02809789251	-0.3662020394	
585.0	0.2018643612	0.5864142689	
585.625	0.536141565	-0.2878287073	
586.25	0.05465229649	0.08429297822	
586.875	0.5031884569	-0.4843048479	
587.5	-0.3181728424	-0.2058359409	
588.125	0.2465039803	-0.231802759	
588.75	0.1404173583	-0.6499767908	
589.375	-0.1125520563	-0.2718706238	
590.0	0.1604869038	-0.402173589	
590.625	-0.6189504689	-0.2161185406	
591.25	-0.1926835218	0.3144339738	
591.875	-0.2105290626	0.1048362249	
592.5	0.08482699784	0.3127450787	
593.125	-0.2713053733	-0.01663316119	
593.75	0.2857294246	0.3540234774	
594.375	0.2432140076	0.04996254774	
595.0	0.1650091103	0.5196144864	
595.625	0.9243226175	0.2716035569	
596.25	-0.03875402245	-0.1396170627	
596.875	0.4938148621	0.495561829	
597.5	0.5490034209	-0.03869158454	
598.125	0.01155239827	0.4030134872	
598.75	0.7673580768	0.1720738378	
599.375	0.2153667393	-0.03367583621	
600.0	0.6793271891	-0.1853419633	
600.625	0.3101734171	-0.6429846097	
601.25	0.05258936906	-0.2423810685	
601.875	-0.01579238139	-0.4349265809	
602.5	-0.3671327859	-0.07138828327	
603.125	-0.2860883619	0.1983503252	
603.75	-0.1707368716	0.01808773123	
604.375	-0.4576158146	0.1768278287	
605.0	0.05304467626	0.2019883329	
605.625	-0.4096299582	0.03816848553	
606.25	-0.1148062608	0.3138917393	
606.875	-0.3705269357	-0.1508000149	
607.5	-0.6551450031	0.7818959638	
608.125	0.1278387624	0.2116184035	
608.75	0.1217552786	0.778109763	
609.375	0.7442502471	-0.4097645609	
610.0	0.2464915849	0.06235444196	
610.625	0.4025472883	-0.5717667049	
611.25	-0.1279589965	-0.2230593177	
611.875	-0.04223818186	-0.6657503301	
612.5	-0.3997656015	0.1234235042	
613.125	-0.4249960212	-0.1396835392	
613.75	-0.2571096858	0.5352553999	
614.375	-0.02549374684	-0.02140083333	
615.0	0.2616395658	0.2712763636	
615.625	-0.1381609244	-0.06192503378	
616.25	-0.2752069233	0.6539737434	
616.875	0.1577125202	0.3342454521	
617.5	-0.5213391321	0.3974772046	
618.125	0.08444050496	0.768265081	
618.75	0.01989772716	0.1817023904	
619.375	0.1506205942	0.6712834209	
620.0	0.4232290331	-0.03966292669	
620.625	0.4022813483	-0.2151958399	
621.25	-0.2799484122	-0.4466516781	
621.875	-0.3289753805	-0.3615946556	
622.5	-0.6034063166	0.2109752364	
623.125	-0.1220280961	0.2518784714	
623.75	0.4316694371	0.3412565407	
624.375	-0.1580671438	-0.2341311796	
625.0	0.5158261504	0.01500318344	
625.625	-0.3206214698	-0.18144301	
626.25	0.2701330208	-0.3359168795	
626.875	-0.5914339639	-0.3163991469	
627.5	-0.1395264196	0.1216859722	
628.125	-0.1781163872	-0.4853587502	
628.75	-0.3807607313	-0.1322337153	
629.375	0.05341020229	-0.3793379471	
630.0	-0.6219771027	-0.3721603074	
630.625	-0.3231244586	0.2758776193	
631.25	-0.5011341613	0.2027598351	
631.875	-0.1195477133	0.7591359463	
632.5	0.3499636318	0.4890872256	
633.125	0.4286637229	0.06090915407	
633.75	0.4374459607	0.09829846374	
634.375	0.02773750652	-0.5560167083	
635.0	0.1768307646	-0.1603672843	
635.625	-0.5158905448	-0.4038835937	
636.25	-0.1078986983	0.2700793847	
636.875	-0.5263661381	0.1441955886	
637.5	0.1505218911	0.4523289676	
638.125	-0.2243299409	-0.2422438055	
638.75	-0.4696496492	0.7853422996	
639.375	0.4113107824	0.4885145788	
640.0	-0.0854166112	0.3976959926	
640.625	0.6684930433	0.7165280979	
641.25	0.6583025252	-0.3095316927	
641.875	0.4639983689	0.01164500124	
642.5	-0.2353134881	-0.9452143815	
643.125	-0.02795559127	0.01074167099	
643.75	-0.3617895776	-0.6187230002	
644.375	-0.5218017609	0.3651719996	
645.0	-0.1106057748	0.0289880334	
645.625	-0.2734892548	0.680002398	
646.25	0.752074291	0.2299700722	
646.875	-0.08819954602	-0.2582283436	
647.5	0.4262663743	0.5257869118	
648.125	-0.03419087077	-0.3868719532	
648.75	0.9755620913	0.4197464437	
649.375	0.4682196968	-1.113405162	
650.0	-0.01586350616	-0.1694920428	
650.625	1.21819067	-0.5699662542	
651.25	0.04259897025	-1.363790241	
651.875	0.1253922565	0.198979167	
652.5	1.261830547	0.07437805204	
653.125	0.563990923	-0.7387692844	
653.75	0.3480828366	0.08314132282	
654.375	-0.06087134189	-1.258021169	
655.0	-0.6733433015	0.1543680196	
655.625	-0.418932636	-0.1524819814	
656.25	-0.09260026082	0.9641983589	
656.875	0.2939076735	-0.3387889732	
657.5	-0.1444536205	0.5996211167	
658.125	0.5868972817	0.3506934693	
658.75	0.4620458403	-0.01482177761	
659.375	0.9805377509	0.2119272395	
660.0	0.4859886008	-1.198365984	
660.625	0.1971919334	-0.3383660571	
661.25	0.8565294737	-0.6563282245	
661.875	0.3202024755	-1.14194304	
662.5	0.2013881014	0.09628156005	
663.125	1.307206359	-0.4045177995	
663.75	-0.04657364026	-0.9037808429	
664.375	0.2890568876	-0.4061974157	
665.0	-0.8833841747	-0.9124109054	
665.625	-0.3383025729	0.3684968862	
666.25	-0.6751887574	0.4492120956	
666.875	0.5147712226	0.7047433216	
667.5	0.1985547068	-0.05922614907	
668.125	0.6430146449	0.440904692	
668.75	0.5373721181	-0.6304699099	
669.375	0.08307753483	-0.3792710739	
670.0	0.2505090606	-0.410651533	
670.625	-0.008389800238	-0.7449985845	
671.25	0.01897730879	-0.1010710153	
671.875	0.5425498037	-0.5032639842	
672.5	0.3493028055	-0.5216572011	
673.125	0.4072554084	-0.04173259406	
673.75	0.8503968154	-0.7385827402	
674.375	-0.3810529547	-0.6701032488	
675.0	0.3460917401	-0.2038364404	
675.625	-0.6330056107	-0.8104682326	
676.25	-0.5170558769	0.4274250632	
676.875	-0.1244256915	-0.5450241562	
677.5	-0.5773066477	0.5833706392	
678.125	-0.1623839912	-0.1130196366	
678.75	-0.2560358766	1.045679552	
679.375	0.6398190042	-0.3309810523	
680.0	0.179795252	0.1906968799	
680.625	0.5201846625	-0.204174093	
681.25	0.04847277394	-0.3723754799	
681.875	0.01751552302	0.3497435149	
682.5	0.7488806893	0.4545042066	
683.125	0.6343022761	-0.07821049929	
683.75	0.2757527975	0.1758367299	
684.375	1.004706802	0.5589816842	
685.0	0.4922909895	-0.5382603448	
685.625	0.6575755963	0.6846164625	
686.25	1.155054099	-0.475867316	
686.875	-0.1066791869	-0.1635065716	
687.5	1.671009655	-0.2776849788	
688.125	-0.9028620325	-1.565543838	
688.75	-0.03011350151	-0.4278561908	
689.375	-1.516375975	0.9265670486	
690.0	0.6267973843	0.6827002611	
690.625	-0.07619558706	0.9491823445	
691.25	1.21542563	0.4006267219	
691.875	0.6232240929	0.7467888432	
692.5	1.508930197	0.8222123619	
693.125	1.646187486	-0.2550874107	
693.75	1.280303339	-0.4206261344	
694.375	1.023187817	-0.8603258951	
695.0	1.13458721	-0.3275012956	
695.625	1.437922882	-0.5792643449	
696.25	0.6537947894	0.3994298112	
696.875	1.308526742	1.860581371	
697.5	1.091667079	0.4649120413	
698.125	0.9202562323	1.492862199	
698.75	1.554611998	-1.58521655	
699.375	-0.4950515501	-0.2790351443	
700.0	-1.733083544	0.6629485392	
700.625	0.8185746572	0.583164294	
701.25	-0.05273447079	0.6564030735	
701.875	1.157885146	0.4569302804	
702.5	0.270007517	0.5889828807	
703.125	1.246770671	0.5373604433	
703.75	0.5803667348	-0.5344421531	
704.375	1.089442948	0.002640570396	
705.0	0.4878519093	-0.6970931999	
705.625	0.1732252858	0.4469088586	
706.25	1.294560355	0.6701792582	
706.875	0.3230137813	0.2173782255	
707.5	0.3894136111	1.401510745	
708.125	1.519694045	0.08650677301	
708.75	0.6156573984	-0.3479039951	
709.375	-0.6203776907	-1.356540838	
710.0	-0.2358496801	0.6603930427	
710.625	-0.2354503834	0.4166780952	
711.25	0.4733625124	0.2723077307	
711.875	0.3213021122	0.3520682928	
712.5	0.8369047531	0.0293431986	
713.125	0.6748013859	-0.1231369788	
713.75	0.4593743775	-0.8502824765	
714.375	-0.2098233036	-0.1682672648	
715.0	0.40209685	-0.9980677547	
715.625	-0.4566192563	-0.3760312838	
716.25	0.9332298321	-0.0113804582	
716.875	1.296572779	-1.348245249	
717.5	0.007982328708	0.07286882939	
718.125	2.914177495	1.209374053	
718.75	2.309291097	-1.878903965	
719.375	0.6559923433	0.8018701928	
720.0	3.557794426	-3.170086079	
720.625	-0.7909352125	-2.238868408	
721.25	1.043600425	-2.337116273	
721.875	-0.4205530676	-3.638275786	
722.5	-1.612441267	-1.019035364	
723.125	-1.864214636	-1.416768314	
723.75	-1.120597877	1.509078739	
724.375	0.1522550593	0.7641115527	
725.0	0.0773050707	0.8756968641	
725.625	0.5938319682	1.759318408	
726.25	0.9629618927	1.119183645	
726.875	-1.402774146	1.7534877	
727.5	-0.5048266521	5.624229137	
728.125	2.958088581	3.519572152	
728.75	-9.98055893	7.81840109	
729.375	5.187549473	17.62816843	
730.0	1.085881092	1.803320844	
730.625	-9.210518409	15.81119787	
731.25	10.22917258	15.61548373	
731.875	-7.621137567	-3.059358693	
732.5	-13.00042671	1.721515778	
733.125	-7.370670464	2.939333876	
733.75	-0.9509729566	1.118924564	
734.375	2.960089507	3.194420894	
735.0	-0.5307997065	-0.9485577136	
735.625	-0.9093574256	-0.4784465865	
736.25	-0.3188233234	2.482040655	
736.875	1.207680917	0.04816722475	
737.5	1.66982989	2.120150658	
738.125	6.047353088	-0.7981719055	
738.75	4.222227957	-6.866826871	
739.375	-1.486319034	0.4451128698	
740.0	27.2264176	-4.31854631	
740.625	-2.967726329	-18.3277935	
741.25	-12.75755757	11.56153012	
741.875	-3.78831386	36.41676805	
742.5	20.95447277	2.922799938	
743.125	2.705272234	-13.89250028	
743.75	-3.003172567	-2.707849658	
744.375	-0.0130373886	-0.2773269867	
745.0	-0.4872968983	0.7735748227	
745.625	-0.1246332142	-0.296386036	
746.25	0.1554222782	-0.5685540314	
746.875	-0.3562438107	-0.08895004792	
747.5	-0.01626965885	0.4872965074	
748.125	-0.06541192413	1.629310973	
748.75	0.9487744123	0.860019845	
749.375	0.06624146921	1.229043248	
750.0	-1.887038149	2.317004606	
