!Created with skrf (http://scikit-rf.org).
# GHz S MA R 50.0 
!freq magS11 angS11
500.0 0.0126681466758 110.2787238
500.625 0.00752666062877 104.724296649
501.25 0.0137394135355 -165.908882402
501.875 0.0315059853913 -164.67929783
502.5 0.0057209840486 135.860275128
503.125 0.0148116457739 105.497017566
503.75 0.00808892900597 33.6567816919
504.375 0.00417801367816 -45.2486513275
505.0 0.0250626072252 -67.7055790271
505.625 0.0181673625131 -69.59792881
506.25 0.025563975726 -122.139168162
506.875 0.0587608336275 -101.463554174
507.5 0.0478295507742 -122.630119504
508.125 0.0500758944288 -90.3253446783
508.75 0.0675753301471 -124.276240043
509.375 0.0573201092004 -131.883709051
510.0 0.0285801791361 -139.91424044
510.625 0.0366763350332 -158.365064497
511.25 0.0654282020645 -169.002795219
511.875 0.0530200123322 145.940131578
512.5 0.0453810189613 110.889735163
513.125 0.0529625922313 40.5898035909
513.75 0.0586524707465 37.887217673
514.375 0.0593358844782 29.8079769179
515.0 0.0326637820299 -25.6584728189
515.625 0.0624025727318 42.9935791139
516.25 0.0839747054414 23.4302163234
516.875 0.127855058817 70.1808867107
517.5 0.11819400902 19.8082060196
518.125 0.183059887136 65.9203028753
518.75 0.082689838359 11.4660140973
519.375 0.0812444133042 24.125058177
520.0 0.0872159500609 -5.35437773586
520.625 0.090352354572 -10.5598871221
521.25 0.0811750161691 -25.9866181319
521.875 0.077992153782 1.47271795357
522.5 0.0797494108101 -42.488217118
523.125 0.17139996166 -39.1908492437
523.75 0.21745173118 -59.4322584228
524.375 0.221485207437 -49.4562726543
525.0 0.0679586915368 -65.2641203921
525.625 0.0369121725493 -30.6066879489
526.25 0.0445269381823 -10.7538603364
526.875 0.0651392650421 -17.6345810538
527.5 0.0395445926909 -38.027786555
528.125 0.0343023429516 -59.146545381
528.75 0.0535780817792 -77.7399560418
529.375 0.104330735642 -107.752865777
530.0 0.0482522178666 -133.346887579
530.625 0.0443457139605 -148.820839395
531.25 0.128197466189 -139.591256775
531.875 0.19560127442 -148.542059956
532.5 0.138206301714 -171.855571662
533.125 0.0929227873691 174.337252887
533.75 0.116127605957 167.679339571
534.375 0.12659965598 179.628262357
535.0 0.0718526818211 155.113847945
535.625 0.0545435320528 173.100111396
536.25 0.0606353158962 162.864458868
536.875 0.0803198116501 -163.09961007
537.5 0.0971078925722 -145.536349527
538.125 0.108544429944 -175.835718555
538.75 0.103672315298 179.257428117
539.375 0.0899306986139 -165.278326547
540.0 0.0808764162842 -154.281320273
540.625 0.13929472883 -159.964298754
541.25 0.135272115972 -143.271072371
541.875 0.0954048584403 -144.269959794
542.5 0.108140508605 -143.289732784
543.125 0.142685280087 -168.36294433
543.75 0.130563829574 158.661402652
544.375 0.103902245647 134.936095853
545.0 0.0704661466565 87.3454391879
545.625 0.086492265473 82.1239722046
546.25 0.0860536685415 64.1426601289
546.875 0.0995257678988 51.4688599916
547.5 0.0985181405416 56.4321960841
548.125 0.123649216548 77.5613646568
548.75 0.0922077404856 90.3984311229
549.375 0.108501153583 85.0575324311
550.0 0.0687047581325 120.647424853
550.625 0.0392063303522 157.606566756
551.25 0.0333646358747 -137.14078515
551.875 0.0704006080736 -168.889443007
552.5 0.106765070038 -163.196150873
553.125 0.0927722590597 -168.175506491
553.75 0.0909979042691 -169.06796137
554.375 0.115508747454 162.936868673
555.0 0.11381180791 165.79650027
555.625 0.0923366051784 159.764614649
556.25 0.0960282111389 160.960910749
556.875 0.127049493717 161.900987866
557.5 0.118257752199 164.60033149
558.125 0.0981311501441 163.798125508
558.75 0.0770198726845 175.27327521
559.375 0.0745486930569 -176.101825924
560.0 0.0385649146029 -145.71577333
560.625 0.0531967802342 -133.00717961
561.25 0.0812402216002 -148.317113458
561.875 0.110200739069 -167.61035619
562.5 0.0848820657731 177.119144747
563.125 0.0999040854194 148.049253544
563.75 0.130953079934 129.954896951
564.375 0.112340405227 118.293642939
565.0 0.0824488568869 119.73414288
565.625 0.0735227618884 120.877754864
566.25 0.0881075024931 151.719235989
566.875 0.0812643910214 173.918959522
567.5 0.0710761081499 -178.027687189
568.125 0.0791226420279 -172.109857029
568.75 0.0733111522928 -151.280597451
569.375 0.0501910398012 -113.14883914
570.0 0.0621781699346 -114.745145247
570.625 0.0897365599706 -115.5633161
571.25 0.0836737777532 -120.040192059
571.875 0.0898064557091 -131.086422283
572.5 0.110512428402 -156.640265975
573.125 0.139877467025 -174.754900911
573.75 0.108049606662 160.351355264
574.375 0.0874773671614 142.441626234
575.0 0.0949336374355 162.219924551
575.625 0.105520879996 155.97969194
576.25 0.0831504019458 144.510450686
576.875 0.0851924180123 124.419043674
577.5 0.0700591038783 144.694725427
578.125 0.0548050431283 165.326898585
578.75 0.0438627873841 163.588398762
579.375 0.0581665180045 150.457070959
580.0 0.0657883865911 -178.298832334
580.625 0.077730285301 -152.344648048
581.25 0.087849097777 -166.608342767
581.875 0.115808151415 -178.587282174
582.5 0.12077412406 179.720982316
583.125 0.0901361735134 -167.2637073
583.75 0.0822502259571 -165.603519766
584.375 0.103387553893 -159.32556298
585.0 0.100050343677 -150.630582825
585.625 0.0701314719756 -147.38466003
586.25 0.0713039745061 -145.338757033
586.875 0.0823797527669 -138.040964024
587.5 0.0741290436638 -147.801574415
588.125 0.0579637542618 -173.2858737
588.75 0.0688275584385 -165.261776168
589.375 0.0830078677563 -154.939479855
590.0 0.0910360664322 -175.327973483
590.625 0.104913029935 169.73775671
591.25 0.120252769071 157.702752143
591.875 0.0895861347971 160.427505224
592.5 0.0688610153874 135.084982227
593.125 0.0593919376753 162.916439332
593.75 0.0773450689621 175.547629267
594.375 0.0583002477709 -154.526306497
595.0 0.0412429479112 -132.272891561
595.625 0.0672990827617 -88.7855777703
596.25 0.079813971721 -78.6097359258
596.875 0.0664623681823 -67.0198385235
597.5 0.0536628023874 -76.9443611621
598.125 0.0668992703332 -56.1970207158
598.75 0.0734422384658 -65.8163738112
599.375 0.088507230948 -66.6459752015
600.0 0.096996097759 -73.6489100275
600.625 0.101018486975 -66.7131974537
601.25 0.0866909803488 -73.1081271175
601.875 0.0700138537833 -89.0856571956
602.5 0.0612775101095 -102.451881381
603.125 0.0488282718078 -34.4927703276
603.75 0.0327126324506 -29.2062240701
604.375 0.0347174738358 -25.942236434
605.0 0.0540703065046 -31.9800733159
605.625 0.0477880948827 -24.0974979506
606.25 0.0235832538637 12.2433769182
606.875 0.0242091117643 43.5498545446
607.5 0.0609212407942 41.2287679056
608.125 0.0725773846251 25.7061721045
608.75 0.0705144435146 26.4653052249
609.375 0.0620805330812 29.3512588625
610.0 0.0585570874775 31.0099881763
610.625 0.0588008408177 30.2738102243
611.25 0.0501795167034 33.7808774032
611.875 0.0322536059832 25.4941600434
612.5 0.0229984963826 84.3212410921
613.125 0.0111009975601 137.293949976
613.75 0.0632026681426 125.599508166
614.375 0.0608233191708 124.913073579
615.0 0.0446607460821 125.181864221
615.625 0.011274339574 159.451697424
616.25 0.0675074343809 134.506072329
616.875 0.0577546538829 126.873448503
617.5 0.0412008648195 120.876647652
618.125 0.0087316502624 122.613890005
618.75 0.0613832541008 147.253892243
619.375 0.0348210254467 151.78828116
620.0 0.00589235723666 99.8426329505
620.625 0.0297019810949 -68.0777816922
621.25 0.0438753413876 -109.465391118
621.875 0.0669047633393 -126.302807147
622.5 0.0744286102347 -171.750351252
623.125 0.0642355573635 -171.856841648
623.75 0.0895080912942 159.217535245
624.375 0.0572227119734 178.788952633
625.0 0.0431301772064 -146.104265568
625.625 0.0225760146737 -134.487422195
626.25 0.014245141022 173.912072991
626.875 0.00343148545033 -24.847561958
627.5 0.0412979793932 -10.9975836077
628.125 0.0367553143383 -22.1008393572
628.75 0.0460475727486 -2.97347434653
629.375 0.0441382091566 -14.4512623506
630.0 0.0570810786701 -16.5748182705
630.625 0.0724812702661 8.20347110104
631.25 0.0698471525138 -11.4526027459
631.875 0.0662341269183 -4.27817094011
632.5 0.0656414939681 7.3448252851
633.125 0.0454169672212 4.41593998766
633.75 0.0477668701812 23.9545895201
634.375 0.043930712641 -16.7155824596
635.0 0.0343650379455 -0.579810748271
635.625 0.0435787826167 28.2605871233
636.25 0.0678230824636 46.4951851458
636.875 0.0685749287477 42.3196186131
637.5 0.0413743943077 35.3731312129
638.125 0.0383285671002 70.3966468468
638.75 0.0745628789751 76.9043610044
639.375 0.105528738819 96.9632559575
640.0 0.0664408011665 91.9891890714
640.625 0.04898843312 94.8989481185
641.25 0.0550144669474 108.336502421
641.875 0.0777563333357 156.016591908
642.5 0.0572529373113 156.074600664
643.125 0.0662213886184 160.295848711
643.75 0.0679670475006 172.036155265
644.375 0.0889362578118 -170.957086859
645.0 0.0761795520573 175.994475255
645.625 0.0811554639125 163.3478529
646.25 0.0920009954411 163.746364633
646.875 0.0866880204365 -178.9785918
647.5 0.0488648659444 166.084504585
648.125 0.0683684107881 177.543943568
648.75 0.0738970544219 -171.664144363
649.375 0.0619868823751 -146.504003771
650.0 0.0267926515362 -141.462195528
650.625 0.063888063958 -91.7313119997
651.25 0.0691500243364 -70.0244163495
651.875 0.0746969827457 -45.3268124236
652.5 0.0963234617736 -25.9113485015
653.125 0.120005787201 -4.65429671987
653.75 0.105896421175 2.29651363055
654.375 0.120166798639 6.86388929275
655.0 0.102250756223 5.71011033091
655.625 0.0851398666095 20.0241095888
656.25 0.0627470982719 13.8816722056
656.875 0.0822557502582 6.13011575033
657.5 0.0845148567213 20.3282052669
658.125 0.0654734883405 47.7925890345
658.75 0.0601651587187 61.3218302363
659.375 0.0828905531895 38.2167951322
660.0 0.129482323173 22.5006879939
660.625 0.100210393252 15.2177839611
661.25 0.099658119253 3.86697410176
661.875 0.109576294712 -16.5181364576
662.5 0.137482753943 -21.5565638721
663.125 0.107791315898 -16.8348215008
663.75 0.105010234576 3.63128101645
664.375 0.100235270109 52.7816356895
665.0 0.0671449221344 80.1063274833
665.625 0.0539875073455 111.797289113
666.25 0.078022199726 133.678570917
666.875 0.129281242606 165.688559871
667.5 0.080435542053 -167.490189942
668.125 0.0950003901405 -178.4939174
668.75 0.115233844373 166.495585061
669.375 0.142353644609 174.186357893
670.0 0.0752337982721 -174.519770937
670.625 0.0861809551517 -172.366516834
671.25 0.121560562609 171.605528883
671.875 0.110887237682 166.396916965
672.5 0.0888600325528 151.302528477
673.125 0.0802242331886 153.41460974
673.75 0.0953315795248 156.696442512
674.375 0.124700167387 164.290013461
675.0 0.0958548321464 -171.289411741
675.625 0.124607866075 -149.978944215
676.25 0.121126208398 -125.657628889
676.875 0.125432501424 -124.227987983
677.5 0.10321567773 -127.468192046
678.125 0.122404266991 -117.409250077
678.75 0.0781410535157 -96.5261486883
679.375 0.0554482923957 -78.2044649147
680.0 0.0777083394924 -84.1108736906
680.625 0.115320245484 -78.2148630614
681.25 0.0989519752123 -70.6816943909
681.875 0.0988342385516 -93.0165885989
682.5 0.144069322993 -126.343795146
683.125 0.156054173471 -121.977703195
683.75 0.135372104493 -105.644090157
684.375 0.12476052669 -82.3502260219
685.0 0.135371547829 -41.0860308447
685.625 0.129589930804 -3.60808623861
686.25 0.107550793548 19.7782852425
686.875 0.0943245233778 43.3142976252
687.5 0.0810523526951 81.3508660996
688.125 0.0824465216467 104.953372808
688.75 0.100679379285 113.022584513
689.375 0.144673080859 117.339199781
690.0 0.133449342556 133.66843535
690.625 0.125981006791 120.718708082
691.25 0.133536397117 101.587599864
691.875 0.176248184152 69.0900338288
692.5 0.129927609917 39.1627772943
693.125 0.0994131553555 -21.3484632034
693.75 0.0961141729238 -44.018148935
694.375 0.135800915391 -32.4554932905
695.0 0.134130104379 9.35277801737
695.625 0.0993475431535 54.5466561241
696.25 0.120251353945 104.516050651
696.875 0.126725947863 -179.385833047
697.5 0.141809554061 -145.499239102
698.125 0.134460627467 -132.897466903
698.75 0.142120836942 -138.873839483
699.375 0.109373809275 -125.291877168
700.0 0.0991393927861 -116.994893188
700.625 0.116096565849 -92.805898808
701.25 0.109572981534 -72.9544921245
701.875 0.0769969774455 -55.8365303324
702.5 0.0993730625261 -82.1969027762
703.125 0.15954420871 -119.715989774
703.75 0.198094763938 -162.470933138
704.375 0.118829345246 176.738103685
705.0 0.109758271911 156.701897124
705.625 0.147967525662 -175.182270855
706.25 0.145761938594 -115.20035299
706.875 0.10003673667 -70.6314384083
707.5 0.072280522906 -30.9165436589
708.125 0.091679159438 20.0013269025
708.75 0.111788279704 61.3414861424
709.375 0.107324379037 96.0627508398
710.0 0.101783601265 140.492835234
710.625 0.106526819881 155.965112439
711.25 0.120608157578 170.312514419
711.875 0.140069903903 163.873910095
712.5 0.153206981559 144.703960974
713.125 0.128589810994 98.3785999136
713.75 0.10248490923 46.8305418595
714.375 0.115069100928 5.25430162783
715.0 0.109575188648 46.8131375645
715.625 0.0837838267563 52.1548203858
716.25 0.0769395773438 66.612699638
716.875 0.115085096118 96.8359773445
717.5 0.140951168717 134.825735201
718.125 0.122650576706 176.910978965
718.75 0.106171622099 176.571313311
719.375 0.116827741498 -166.197258332
720.0 0.124909199458 -137.589790869
720.625 0.111020790219 -67.2100899193
721.25 0.099591371673 -14.6268696138
721.875 0.084607563869 28.1338567276
722.5 0.0701209839388 50.6092708825
723.125 0.086215904506 71.1824255546
723.75 0.119075917483 46.0148814427
724.375 0.114085245136 6.04087742828
725.0 0.0802762734605 -55.8113600215
725.625 0.116601042202 -55.7566216191
726.25 0.109478901559 -70.227345488
726.875 0.100172576361 -61.3593376587
727.5 0.0779850369454 -44.9223316206
728.125 0.069039968142 -22.2290172027
728.75 0.113579933967 32.0444318294
729.375 0.0980899006243 23.8067028036
730.0 0.0802933858044 11.1235088244
730.625 0.0440463814908 -0.901514082459
731.25 0.09590430763 75.3007548769
731.875 0.0776125340151 113.995507917
732.5 0.0602844202334 143.905434186
733.125 0.0854218322669 170.963455116
733.75 0.0915978543434 -177.634209392
734.375 0.086036511023 179.240289748
735.0 0.0637026418419 154.300983337
735.625 0.0247514567804 112.861884849
736.25 0.0786224111707 152.389010867
736.875 0.0662612205685 165.529961638
737.5 0.0967047991445 177.933856657
738.125 0.0658036240576 -178.973265468
738.75 0.0982954906324 -167.668719794
739.375 0.0570600728037 -167.333600951
740.0 0.02224891814 -139.905992428
740.625 0.0507454739241 -152.675025044
741.25 0.0236711702926 -150.65553399
741.875 0.0643507402232 -108.949255214
742.5 0.0521410714538 -22.1297144983
743.125 0.0285071492801 52.9536045192
743.75 0.0218297842524 137.869500395
744.375 0.0385167666353 108.496250059
745.0 0.0449140026374 136.64985152
745.625 0.0614124057475 118.903115218
746.25 0.0667947754742 100.896718379
746.875 0.10236746087 28.4429572488
747.5 0.0606231191632 2.21088834391
748.125 0.0297881245154 0.27447697228
748.75 0.0195392932102 23.3580277126
749.375 0.0326266823065 1.29743713808
750.0 0.0318578040866 -99.0948290625
