!Created with skrf (http://scikit-rf.org).
# GHz S MA R 50.0 
!freq magS11 angS11
500.0 0.0203483337407 162.202844677
500.625 0.0143288294881 38.6224685968
501.25 0.0220315730757 -169.896610471
501.875 0.0430324945334 -175.186496767
502.5 0.0228299838568 157.632454372
503.125 0.0255662276331 135.885947434
503.75 0.00718789081852 71.6271820707
504.375 0.00401959975898 -148.31217767
505.0 0.0222533411695 -62.5503647493
505.625 0.024532843661 -76.885089275
506.25 0.0389686575188 -106.375515001
506.875 0.0640813963237 -105.396609211
507.5 0.0630569633673 -105.885568995
508.125 0.0404160982212 -126.119702507
508.75 0.0525862604936 -145.926794171
509.375 0.0464752814257 -147.001157401
510.0 0.0547451924591 -106.348195412
510.625 0.0199999215537 173.899622567
511.25 0.0498079208014 -177.797885396
511.875 0.0531441015083 143.171536585
512.5 0.0487289248172 110.422252264
513.125 0.0453453069497 28.806933236
513.75 0.0476239840635 19.9540649993
514.375 0.0421058887331 23.9426617177
515.0 0.0660869492809 10.1475895836
515.625 0.0836920929941 51.8055764175
516.25 0.0824758020933 30.2674502112
516.875 0.112820753305 70.8789180349
517.5 0.144205400603 23.3020111573
518.125 0.198919096761 68.9801375634
518.75 0.0893844872609 12.4292835809
519.375 0.078350650902 23.5108947223
520.0 0.0854652996458 -6.21359121548
520.625 0.103580773219 -3.0989125081
521.25 0.0892931740395 -20.0404030288
521.875 0.0673716772381 2.39902235343
522.5 0.10811142472 -30.0442267007
523.125 0.178754606686 -36.2123385454
523.75 0.199060698665 -62.6618691197
524.375 0.203368613934 -53.1141185172
525.0 0.074816027212 -38.2421343646
525.625 0.0349704544321 -35.850960046
526.25 0.0428656404464 -19.2155771405
526.875 0.0693555103778 -16.3090605398
527.5 0.0464765735175 -29.6476526286
528.125 0.0421802929475 -57.5930323611
528.75 0.0696482300748 -70.0017248736
529.375 0.100563954693 -108.41274765
530.0 0.0314399493204 -150.91028899
530.625 0.02880806728 -127.491537757
531.25 0.110755923511 -134.216851091
531.875 0.203717106352 -148.441389743
532.5 0.114605995996 -173.946895302
533.125 0.101075390383 176.032786325
533.75 0.121158281886 165.04641144
534.375 0.123534779706 -179.467489333
535.0 0.0925609078205 164.356891041
535.625 0.0649077319002 176.794394953
536.25 0.054563411051 160.469229994
536.875 0.0951982949217 -163.530126075
537.5 0.0786888198708 -141.759386131
538.125 0.0921977063885 -171.737626459
538.75 0.0970623352767 176.878271421
539.375 0.0928546397302 -164.465988096
540.0 0.086752862165 -154.348430762
540.625 0.117681655367 -152.878360047
541.25 0.118655741431 -142.307994905
541.875 0.108596315701 -146.66379446
542.5 0.0962245842497 -138.892863516
543.125 0.133338680038 -166.425149587
543.75 0.122484027916 156.501742557
544.375 0.101618703945 135.689610659
545.0 0.0947309089927 90.2985554675
545.625 0.0994993657551 83.2021550823
546.25 0.0885285232809 69.3025070135
546.875 0.0895831820887 55.5587245637
547.5 0.10825836035 58.3998849796
548.125 0.106072518795 77.5810763724
548.75 0.0806941530057 88.8668840259
549.375 0.108916840242 86.6022993521
550.0 0.0916756645181 124.613309537
550.625 0.0492177638317 156.054480823
551.25 0.0416473395911 -138.755934115
551.875 0.0697087349233 -165.223820829
552.5 0.0974864112859 -160.430132565
553.125 0.091672621578 -166.539314015
553.75 0.0858955330426 -167.784553428
554.375 0.113586670189 166.404094671
555.0 0.125947464672 164.441572759
555.625 0.0954141321243 158.883696606
556.25 0.0944889099184 166.031238564
556.875 0.120352145615 166.137779072
557.5 0.126014832729 164.505217683
558.125 0.0815770362047 165.882998795
558.75 0.0822801653117 178.52031585
559.375 0.0708679525154 -172.564539767
560.0 0.0417093237043 -143.65503961
560.625 0.056708181796 -137.844755922
561.25 0.0911540748073 -151.325333215
561.875 0.103812295169 -161.738449786
562.5 0.0983525692854 170.56788749
563.125 0.106483423404 145.522203729
563.75 0.131517184939 129.411886286
564.375 0.109371360358 119.597847541
565.0 0.0795993660251 122.166192875
565.625 0.0815214530644 118.800743939
566.25 0.0993446975395 151.886470831
566.875 0.0752951842434 -179.569531879
567.5 0.0797966534851 177.266840848
568.125 0.0694791200846 -164.148654483
568.75 0.0668044030454 -143.279358296
569.375 0.0456601134499 -106.477208611
570.0 0.0628160617741 -118.800998768
570.625 0.0902318057996 -112.488817125
571.25 0.0903059418158 -117.412455415
571.875 0.0866654948913 -125.257099374
572.5 0.116212056622 -161.534487438
573.125 0.129090407502 -168.476084717
573.75 0.100725810178 163.367244675
574.375 0.0845345982879 149.01848093
575.0 0.111996114735 148.574049369
575.625 0.105357850694 156.511574504
576.25 0.0898551935763 144.683994503
576.875 0.085632354138 127.430811219
577.5 0.0906309075856 131.803543396
578.125 0.0590332040447 161.015666574
578.75 0.0480683955462 167.988251842
579.375 0.0558328057958 161.507250361
580.0 0.0717241160995 171.530773827
580.625 0.0780970368297 -139.961768284
581.25 0.0920561088006 -159.150978837
581.875 0.110124302728 -174.320045444
582.5 0.123230716837 178.002247246
583.125 0.089642959201 -165.317366535
583.75 0.0824967529343 -165.334221649
584.375 0.0966914802837 -157.944715484
585.0 0.0953335603843 -143.57335112
585.625 0.0673025165759 -134.92671698
586.25 0.0699998959978 -132.96370126
586.875 0.0788111763657 -130.553879308
587.5 0.0771520253459 -152.293932605
588.125 0.0565546875564 -165.181865609
588.75 0.0683015101616 -160.664453956
589.375 0.0820481749391 -150.579355934
590.0 0.0929141001156 -169.981239011
590.625 0.10626510624 164.88938856
591.25 0.122231304527 152.930241293
591.875 0.0974386718558 156.910197207
592.5 0.0634980645189 147.011895688
593.125 0.0636939276 149.268490903
593.75 0.0712951329521 174.276207787
594.375 0.0538957088057 -152.867004459
595.0 0.0413052309672 -130.136677551
595.625 0.0559178835214 -105.337394798
596.25 0.0725550651061 -85.650770024
596.875 0.0702328166731 -70.2614109342
597.5 0.059444993756 -61.6697519911
598.125 0.074470676572 -53.6051329528
598.75 0.0883892969968 -55.9583701314
599.375 0.0901663268402 -60.8068111615
600.0 0.0927956465167 -76.4829669304
600.625 0.103806046539 -53.1402290009
601.25 0.0844214130753 -73.4511265923
601.875 0.0652443242095 -86.9256752169
602.5 0.062290664225 -84.5004685045
603.125 0.0427693210634 -64.5387619705
603.75 0.0300196453216 -32.2497278655
604.375 0.0501279448139 -15.8030977089
605.0 0.0616214347322 -16.1552241535
605.625 0.0431469529698 -34.39751326
606.25 0.0408064882569 37.0723013953
606.875 0.0446155140781 50.5274579839
607.5 0.0610366993532 48.9764224378
608.125 0.0511779539013 16.8637722583
608.75 0.0640912460834 21.4686613964
609.375 0.0762185893963 34.2850213101
610.0 0.0716576251978 42.5207714365
610.625 0.0499300365999 19.0604080304
611.25 0.0684133889913 54.3898956591
611.875 0.0472929453773 65.8506750485
612.5 0.0227934770334 112.276087492
613.125 0.0215967071473 126.142055283
613.75 0.043642527731 130.202237441
614.375 0.0490864032296 123.612262473
615.0 0.0305332063958 113.5131688
615.625 0.0326724863077 130.5033514
616.25 0.0276630860984 143.746830316
616.875 0.0549008091716 133.519182154
617.5 0.0270298685184 110.65251364
618.125 0.0211769245112 127.767530335
618.75 0.0112689402882 149.423662256
619.375 0.0243387660614 148.843893706
620.0 0.00677835717413 -96.0302298948
620.625 0.0293149572445 -69.6619386781
621.25 0.0443997356013 -121.876123074
621.875 0.0629218344249 -109.603668854
622.5 0.0667365829753 -158.872059627
623.125 0.0726012036589 169.139441072
623.75 0.0457894824949 177.357918295
624.375 0.0463517658589 -177.073668345
625.0 0.055235515779 -158.12763462
625.625 0.0375982770359 -156.474295394
626.25 0.00332521231408 -42.7846088319
626.875 0.0244642187069 -174.556940424
627.5 0.018745503121 -67.3660126044
628.125 0.043068069069 -34.5578472793
628.75 0.0522143950062 -0.500137303322
629.375 0.037417251442 -42.3089341674
630.0 0.0693553040944 0.274170428783
630.625 0.0741022071255 1.14570401333
631.25 0.0732322028388 14.0427566461
631.875 0.0742897409556 -27.5160841301
632.5 0.0656085516241 -19.4592708367
633.125 0.0531046440908 0.872415044339
633.75 0.0392697659006 15.7031906016
634.375 0.0448700568414 14.3821788969
635.0 0.0343297214626 17.8073373185
635.625 0.0250189504049 22.5214730757
636.25 0.0526343639752 42.246071854
636.875 0.0831935414887 50.564372667
637.5 0.0373275318701 24.2196995508
638.125 0.0364942049227 67.8021007711
638.75 0.0699821838868 71.5488518413
639.375 0.0988713000399 96.7634478466
640.0 0.0709572906277 99.4493152205
640.625 0.0546225504249 102.533506145
641.25 0.0709833900948 129.178627656
641.875 0.0757089762825 156.502644192
642.5 0.0434970501349 137.5767426
643.125 0.0454771977463 150.078839425
643.75 0.0642870551876 165.286016268
644.375 0.0945245830949 -169.146785865
645.0 0.059492270174 167.836848576
645.625 0.0900521988162 168.029703173
646.25 0.0972989368281 164.521182056
646.875 0.0684204869805 179.519046552
647.5 0.073616025951 -174.335832834
648.125 0.084976897019 -175.924035363
648.75 0.0714954749291 -164.016881286
649.375 0.048050715762 -147.626990412
650.0 0.0600805427187 -117.394905562
650.625 0.0478151311768 -91.14885375
651.25 0.0586913021487 -64.067627515
651.875 0.066007042767 -40.8722027205
652.5 0.108073470208 -26.4891668246
653.125 0.0928253051369 -6.16433539178
653.75 0.106286912228 7.86838558025
654.375 0.114385676895 7.86573614801
655.0 0.11535965495 10.2953481076
655.625 0.0914718616175 25.976686018
656.25 0.0526845649815 19.1025849111
656.875 0.070135014274 8.9034785818
657.5 0.10044352077 24.1932110238
658.125 0.0508125097058 45.8815502615
658.75 0.0571082952875 65.9261814984
659.375 0.0760180902913 39.3489116476
660.0 0.124593592519 25.9690084858
660.625 0.110277000281 16.6474540884
661.25 0.108338067204 4.06143163572
661.875 0.128483425176 -11.7864907413
662.5 0.136383534608 -20.1056701068
663.125 0.0845574606302 -19.2115972127
663.75 0.0972258466968 4.51142431846
664.375 0.0935487364679 49.0428715691
665.0 0.0855641346386 91.0320359698
665.625 0.0644398642642 113.298329252
666.25 0.0923243869212 130.354809261
666.875 0.121781722542 170.847129171
667.5 0.107678079876 -171.191055339
668.125 0.10053087579 -177.358919395
668.75 0.130771540534 168.186702763
669.375 0.128961915655 177.773265999
670.0 0.0965613061479 -170.710823691
670.625 0.0807311426769 -170.270544528
671.25 0.100363442031 176.193116571
671.875 0.0937093640369 169.463337915
672.5 0.0899430672648 152.718580976
673.125 0.0694443381461 160.396085324
673.75 0.115515616876 158.535163833
674.375 0.115770660015 169.620279972
675.0 0.121011287017 -175.956129313
675.625 0.121846040076 -148.852129029
676.25 0.131805587098 -126.262688569
676.875 0.115438459069 -120.254786029
677.5 0.134919855612 -129.994496475
678.125 0.106988778203 -113.743705704
678.75 0.0625216056666 -91.3971854712
679.375 0.046651484968 -70.3388887446
680.0 0.0885050668039 -86.748444776
680.625 0.105222998715 -70.081247773
681.25 0.107900073563 -72.9051260604
681.875 0.104984437928 -95.4583940822
682.5 0.138563117458 -119.917132554
683.125 0.178802027216 -125.025329135
683.75 0.125417634661 -102.547074639
684.375 0.110591050366 -75.8818656956
685.0 0.128172419236 -41.2260764862
685.625 0.142896057201 -4.97043484153
686.25 0.0897690431406 26.894687722
686.875 0.086424563088 48.4667716673
687.5 0.068282340911 87.3623287168
688.125 0.088529513493 101.291132839
688.75 0.0928270468954 120.535337382
689.375 0.141536891439 121.535588658
690.0 0.139551674062 131.452038213
690.625 0.124492667146 124.741925623
691.25 0.138417515998 98.7912527402
691.875 0.187396802409 69.9197403456
692.5 0.147445056701 39.4528554637
693.125 0.0908853877669 -15.4142692209
693.75 0.105166324299 -47.3755461849
694.375 0.117425122321 -16.6877423034
695.0 0.12972851374 14.2707766659
695.625 0.105306482172 51.8636793357
696.25 0.120132591327 109.645205393
696.875 0.144801257376 167.596090381
697.5 0.137734971473 -138.880958597
698.125 0.133856463119 -128.464903507
698.75 0.132024074083 -131.907480063
699.375 0.0966837720802 -116.355698177
700.0 0.0947688648113 -111.120454604
700.625 0.103752728406 -87.4064208577
701.25 0.10650883873 -68.3179446318
701.875 0.0819565779834 -55.7944636102
702.5 0.100518511323 -83.7172528586
703.125 0.172266348238 -124.964850037
703.75 0.186979276407 -154.820739368
704.375 0.134925049575 167.24218667
705.0 0.103888438858 170.008834713
705.625 0.144008689274 -168.857228138
706.25 0.134744059033 -109.175903984
706.875 0.100838902366 -71.3095123306
707.5 0.0726903751341 -30.5779298103
708.125 0.0918833257692 17.7185021831
708.75 0.108495261337 64.0168148036
709.375 0.107495658087 98.1200731263
710.0 0.102857014684 128.345703215
710.625 0.105575973278 157.159832219
711.25 0.11601742655 170.695244623
711.875 0.142365652217 158.011352999
712.5 0.143329117983 152.846680691
713.125 0.124468476525 102.111597453
713.75 0.10603035862 40.5057190832
714.375 0.112800962997 21.5394104161
715.0 0.11928287994 17.2557219221
715.625 0.0865071806263 61.5727069184
716.25 0.0854471770956 83.7217654683
716.875 0.121214252947 111.691108122
717.5 0.140508067928 135.286020431
718.125 0.114077207473 165.111315499
718.75 0.100809350399 170.715689652
719.375 0.119126127897 -172.08866841
720.0 0.136585738279 -127.306795039
720.625 0.114972960111 -84.2347331239
721.25 0.0957416833592 -23.5272557446
721.875 0.0723410563473 38.8110616019
722.5 0.068293115164 46.8438002741
723.125 0.107998795646 91.3910622243
723.75 0.105817030701 41.2038521067
724.375 0.108794676034 -6.18117644503
725.0 0.092379327941 -41.0232019711
725.625 0.0900441425826 -75.5698321735
726.25 0.132010569104 -49.9296795309
726.875 0.109693460211 -38.9229679465
727.5 0.0817267628435 -29.8275759256
728.125 0.0628080253474 -27.5068726104
728.75 0.0932901251773 20.3689232018
729.375 0.081195772716 18.8294475482
730.0 0.0658390688044 -3.60219510152
730.625 0.0644955403979 18.6306665642
731.25 0.0535902763998 51.3466001836
731.875 0.0768951208271 120.451339639
732.5 0.0931889513939 157.877564094
733.125 0.0850937669332 -177.317852024
733.75 0.0572502049645 152.451165486
734.375 0.057066585295 170.201641929
735.0 0.0379463821049 127.537351113
735.625 0.0426324344092 132.656411648
736.25 0.0165716536132 138.256197047
736.875 0.0557514591708 172.306203699
737.5 0.0745192321583 176.322080008
738.125 0.0928132464186 -176.606870519
738.75 0.052349687316 173.092964222
739.375 0.0648454904638 -158.983618177
740.0 0.0742896598955 -142.08065634
740.625 0.0581981940158 -137.736514496
741.25 0.0178321225272 -130.121066048
741.875 0.0393276987604 -100.814965348
742.5 0.0385084269199 -12.9341971818
743.125 0.0315498947255 70.2156800863
743.75 0.023930547712 157.023468323
744.375 0.0692403494068 91.8474185875
745.0 0.0513437260095 123.830364124
745.625 0.0742479918794 115.15318432
746.25 0.0687884818195 97.7080072509
746.875 0.0521727758538 58.1164274681
747.5 0.0409061917461 13.6118722639
748.125 0.0306751293552 -15.4214460076
748.75 0.0314775134843 -9.4524705134
749.375 0.0374642932777 12.3510169156
750.0 0.0499883130236 -125.39220184
