!Created with skrf (http://scikit-rf.org).
# GHz S RI R (50+0j) 
!freq	ReS11	ImS11	
500.0	0.4189989026	-0.9674003662	
500.625	-0.1516010007	-0.9424863343	
501.25	-0.03615139789	-0.3677252	
501.875	-0.3280730286	-0.5637772184	
502.5	-0.06569042884	-0.0322337591	
503.125	-0.0563922355	-0.03004873307	
503.75	0.04830459274	0.09814301232	
504.375	-0.001571580742	6.074769718e-05	
505.0	0.03500521346	-0.05441057161	
505.625	-0.0352304148	0.001233495658	
506.25	0.003855945211	-0.1120173354	
506.875	-0.09915747738	0.2129213024	
507.5	0.2507873113	-0.41856431	
508.125	0.04268246153	-0.8243918475	
508.75	0.06792342584	-0.4479219463	
509.375	0.3110962761	-0.9293855091	
510.0	-0.5999888568	-0.2374195383	
510.625	-0.02063269497	-0.07842245845	
511.25	-0.08510153845	-0.0983393595	
511.875	-0.1082880278	0.03435648031	
512.5	-0.005933685199	0.009962153615	
513.125	-0.01298125561	-0.0823823739	
513.75	-0.06540188772	0.02004961484	
514.375	0.01801938194	-0.07695589739	
515.0	-0.2165697065	-0.02535023439	
515.625	0.4552478617	-0.2166731668	
516.25	-0.7821711539	-0.6322368375	
516.875	-0.1122014489	0.003696107744	
517.5	0.03464308792	-0.2926354981	
518.125	-0.08941656834	0.01567374138	
518.75	0.05304082532	-0.116405453	
519.375	-0.0416688209	0.05498994977	
520.0	0.08823095723	0.005122669582	
520.625	0.08421699718	-0.01205941204	
521.25	-0.0152041908	-0.2548049504	
521.875	-0.142459582	0.02335010637	
522.5	-0.008463957218	-0.006680535504	
523.125	-0.1071779277	0.09572656492	
523.75	-0.004638743024	0.05462740152	
524.375	-0.2256748019	-0.05437354365	
525.0	0.0793883902	0.1945940902	
525.625	-0.01805761078	-0.03441473164	
526.25	0.03321923381	0.04846050755	
526.875	-0.1053164847	0.008162822645	
527.5	-0.05086978805	0.2599464277	
528.125	0.1610563987	0.1177283846	
528.75	-0.02231739013	0.2021116206	
529.375	0.05317606567	0.009209131582	
530.0	-0.04416524991	0.08877877924	
530.625	0.1033755094	0.2193344143	
531.25	0.3199393177	-0.1120054722	
531.875	-0.02133818725	-0.2716445666	
532.5	-0.04680021678	-0.1441106707	
533.125	0.01166349569	0.0878209713	
533.75	0.1543895949	-0.2539693752	
534.375	-0.2398966549	-0.1775802523	
535.0	-0.1363318622	-0.09631170095	
535.625	-0.1736879149	0.1476813338	
536.25	0.0339485593	0.06280630745	
536.875	0.05771000101	0.04384438881	
537.5	0.07131402511	-0.0703832254	
538.125	0.04142675102	-0.03663146327	
538.75	0.1735375562	-0.1041497371	
539.375	-0.0934745947	-0.1281941213	
540.0	-0.09059439641	-0.1042897725	
540.625	-0.1584893972	-0.0513972484	
541.25	-0.07451866866	0.06338555762	
541.875	0.00973898956	0.02766108895	
542.5	-0.07141337339	-0.05699817531	
543.125	-0.03314817723	-0.0001694200562	
543.75	-0.1112294981	-0.03554500842	
544.375	-0.01046879274	0.13619397	
545.0	-0.04082524457	0.02688929492	
545.625	0.1007504015	0.0647262661	
546.25	0.02818907494	-0.03741517306	
546.875	0.1417677809	0.02283970299	
547.5	0.01285527235	-0.156798656	
548.125	-0.01940095103	-0.08611610774	
548.75	-0.1132717049	-0.1425247403	
549.375	-0.1526125471	-0.01581449153	
550.0	-0.02726737191	-0.01464238429	
550.625	-0.07951565066	0.03804402992	
551.25	-0.03107784237	0.02215604807	
551.875	-0.08319915019	0.05837830224	
552.5	-0.01135495088	0.08342194511	
553.125	-0.01989639758	0.04713180919	
553.75	0.05489432377	0.03473843669	
554.375	0.07191279284	-0.0175439622	
555.0	0.0849310053	-0.06647075548	
555.625	0.06413457946	-0.1068994235	
556.25	0.04072612473	-0.1247865568	
556.875	-0.03944434649	-0.13770069	
557.5	-0.1022788417	-0.09070288881	
558.125	-0.1095353259	-0.02079610793	
558.75	-0.09115503771	0.003793873666	
559.375	-0.1067945761	0.02401417236	
560.0	-0.07330702264	0.0837206724	
560.625	-0.04367788602	0.08662223185	
561.25	0.00699452502	0.1151863224	
561.875	0.04247147787	0.006864247056	
562.5	-0.004030167341	0.07869675707	
563.125	0.08687929985	0.02742326871	
563.75	0.09998356732	0.02202360614	
564.375	0.1467217722	-0.1129407774	
565.0	0.01095503507	-0.1417291514	
565.625	0.001564740703	-0.1271652337	
566.25	-0.1601330656	-0.1226235397	
566.875	-0.09669996988	-0.003308408555	
567.5	-0.09254485146	-0.1688158052	
568.125	-0.2156524034	-0.1113838116	
568.75	-0.1264428293	-0.0419074157	
569.375	-0.2668386157	0.08854094214	
570.0	0.02423230624	0.2359863744	
570.625	-0.05212796331	0.06428407812	
571.25	0.003823304495	0.2044391833	
571.875	0.05429715475	-0.02333606074	
572.5	0.160372764	0.08177604833	
573.125	0.04035856309	-0.1974473596	
573.75	-0.01060458525	-0.01852274426	
574.375	0.09042085646	-0.1134671865	
575.0	-0.07657282768	-0.01392357564	
575.625	0.1108168451	-0.05133211618	
576.25	-0.006678247033	-0.1752676635	
576.875	-0.03513675281	-0.04657353973	
577.5	0.0696320185	-0.1570814046	
578.125	-0.1215623332	-0.1867193535	
578.75	-0.08001285579	0.02271072857	
579.375	-0.008812648776	-0.1351512223	
580.0	-0.1981043386	0.03773928712	
580.625	0.06407176951	-0.08284035306	
581.25	-0.174742005	0.1933922512	
581.875	0.1086028083	0.08210337045	
582.5	-0.1135376271	0.1325177997	
583.125	0.1494904857	0.1656533042	
583.75	0.008722528957	-0.08852303932	
584.375	0.0514821052	0.1485720788	
585.0	0.1062587912	-0.06931972421	
585.625	0.06286933395	0.05715379673	
586.25	0.2224473234	-0.08327622503	
586.875	-0.03744003264	-0.1334000223	
587.5	0.06511739432	-0.126849485	
588.125	-0.06588511504	-0.1924121807	
588.75	-0.04206455354	-0.06655261761	
589.375	0.1370814005	-0.1259526822	
590.0	-0.1577800867	-0.1762739798	
590.625	-0.07779148366	0.01433511792	
591.25	-0.1749220945	0.06552841182	
591.875	0.07171866535	0.2337294197	
592.5	-0.0492884455	-0.08541060934	
593.125	0.03056564737	0.134888259	
593.75	0.01841583539	0.01544779111	
594.375	0.1529964749	0.1804044667	
595.0	0.2125457041	-0.05067672051	
595.625	0.05123541758	0.05077429185	
596.25	0.1986797818	0.09145569036	
596.875	0.09582806828	-0.04397033145	
597.5	0.06744414251	0.1013174485	
598.125	0.2159335953	0.1219318014	
598.75	0.1207393981	0.0004174014108	
599.375	0.1658395468	0.0184605673	
600.0	0.1258581621	-0.1614522084	
600.625	0.03755421039	-0.1734170874	
601.25	0.09510197652	-0.1096749049	
601.875	-0.1226666756	-0.1859958743	
602.5	-0.06586088607	0.07420773007	
603.125	-0.1267259804	-0.03337144614	
603.75	-0.09595681169	0.1922791577	
604.375	0.002591906241	-0.03330440777	
605.0	-0.1564410265	0.06798192876	
605.625	0.1183200448	0.04656954325	
606.25	-0.1477591972	-0.04435356383	
606.875	-0.184769695	0.1862925668	
607.5	-0.03690139394	0.1207077179	
608.125	0.02500186107	0.3261258672	
608.75	0.2501966038	0.1295610115	
609.375	0.1913420782	-0.0386290213	
610.0	0.1827976127	-0.0613450073	
610.625	0.09967446437	-0.09628470366	
611.25	-0.02944851033	-0.07695325114	
611.875	-0.03770445483	-0.1618004978	
612.5	-0.216978414	0.03920581894	
613.125	-0.04626930552	0.04191501914	
613.75	-0.1681017867	0.1480838561	
614.375	0.1579918356	0.09480118024	
615.0	-0.1024947218	0.04213191183	
615.625	0.1179552656	0.1215076547	
616.25	-0.06634916276	0.0410798675	
616.875	-0.1613993618	0.1976828733	
617.5	0.03924755618	0.2203862959	
618.125	-0.0517487338	0.1923709673	
618.75	0.0270829313	0.2047132681	
619.375	0.1480355616	0.09339577874	
620.0	0.1467298821	0.002883598385	
620.625	0.0724321012	-0.061065626	
621.25	-0.1484704375	-0.1527479478	
621.875	-0.117929077	-0.05465902764	
622.5	-0.2356971543	-0.009805244028	
623.125	0.04321651976	0.232124852	
623.75	0.01757381316	-0.01271448993	
624.375	0.1129610043	-0.07393364583	
625.0	-0.0561733646	0.002937293035	
625.625	0.10389671	-0.09749411501	
626.25	-0.1249607552	-0.1374951209	
626.875	-0.0542526965	-0.01955306555	
627.5	-0.1666516706	-0.1017647829	
628.125	-0.1464750783	0.003570608859	
628.75	-0.04852391993	-0.08029236044	
629.375	-0.1242769878	-0.1628005285	
630.0	-0.164012038	0.01359757914	
630.625	-0.1874543005	0.02820794358	
631.25	-0.1682015751	0.1752843968	
631.875	0.05485915972	0.2375679177	
632.5	0.08500652737	0.1077519669	
633.125	0.2583910686	0.04578598347	
633.75	0.07761775273	-0.2092909911	
634.375	0.08055118516	-0.06799367106	
635.0	-0.06748603153	-0.2123835289	
635.625	-0.08147108214	0.04872395469	
636.25	-0.1780353943	0.008799567984	
636.875	-0.01654184439	0.2396072116	
637.5	0.02485112224	-0.0002389308386	
638.125	-0.1178894811	0.1355313833	
638.75	0.06395118394	0.1507861426	
639.375	-0.0592658214	0.1388717694	
640.0	0.2007158252	0.2843670064	
640.625	0.2423877374	-0.003949379061	
641.25	0.1580662814	-0.009220510617	
641.875	0.2332747409	-0.2064538731	
642.5	-0.1307533045	-0.182150494	
643.125	-0.009422212649	-0.0734090631	
643.75	-0.2246326372	-0.07583989404	
644.375	-0.007187953452	0.2195306903	
645.0	-0.2237677188	0.01636536897	
645.625	0.1751016065	0.2483020618	
646.25	0.06842756999	-0.1031713511	
646.875	0.1423965657	0.1771136774	
647.5	0.05206894562	-0.1548603609	
648.125	0.104548216	0.1917502065	
648.75	0.353926335	-0.2571790016	
649.375	0.01595991478	-0.2030541549	
650.0	0.2166924708	-0.1584353876	
650.625	0.1613499665	-0.4514306767	
651.25	-0.04680468461	-0.1672813106	
651.875	0.2997167655	-0.05760908842	
652.5	0.2855241164	-0.2867613327	
653.125	0.06812323595	-0.1245152659	
653.75	0.2731907187	-0.1894746066	
654.375	-0.2550034174	-0.3287662742	
655.0	-0.1517143472	0.04858399502	
655.625	-0.2347233867	0.09494744128	
656.25	0.227712683	0.3081430687	
656.875	-0.03791802147	-0.07030494028	
657.5	0.1602868266	0.2915471682	
658.125	0.1816950509	-0.06551188589	
658.75	0.1713087115	0.1437468465	
659.375	0.4190545165	-0.2717807298	
660.0	-0.06106307264	-0.2211962095	
660.625	0.1924482655	-0.2184360306	
661.25	0.1473168714	-0.3923626419	
661.875	-0.02808165791	-0.2204982191	
662.5	0.3271829706	-0.08505705882	
663.125	0.2191791392	-0.3480937842	
663.75	0.007192489751	-0.204706501	
664.375	0.01447224884	-0.3085659986	
665.0	-0.3948972243	-0.1130137093	
665.625	-0.1524166826	0.1300781888	
666.25	-0.1518271614	0.2324749845	
666.875	0.23936593	0.2017314905	
667.5	0.06843494182	-0.0164188342	
668.125	0.285214496	0.04805922968	
668.75	0.0643537421	-0.2916327963	
669.375	0.03994600099	-0.09651764765	
670.0	0.09452992612	-0.344211506	
670.625	-0.2034998693	-0.1581857183	
671.25	0.149871659	-0.05085406839	
671.875	0.1415061064	-0.2770326313	
672.5	0.0344697865	-0.1266901644	
673.125	0.2142451956	-0.06712220639	
673.75	0.08183028933	-0.377963132	
674.375	-0.06363215754	-0.1143618621	
675.0	-0.02571800647	-0.2308438362	
675.625	-0.2882755084	-0.09528217586	
676.25	-0.05099258172	0.09153076768	
676.875	-0.1842295692	-0.0868569647	
677.5	-0.1250672993	0.1696826427	
678.125	-0.02758032443	0.05018853315	
678.75	-0.01387735405	0.2720723428	
679.375	0.3147900224	-0.06958603406	
680.0	-0.08158415064	-0.004178061384	
680.625	0.2335447997	-0.06498364272	
681.25	-0.001057858073	-0.1861412478	
681.875	0.01390664274	0.2880777112	
682.5	0.4605040362	-0.01410117673	
683.125	-0.1113059318	-0.0543256657	
683.75	0.2409696851	0.2271738035	
684.375	0.4148194974	-0.04311561434	
685.0	0.01689190345	-0.08424830727	
685.625	0.5149270012	-0.001585564029	
686.25	0.2273962682	-0.2531713426	
686.875	0.1011537212	-0.1166947937	
687.5	0.3196465944	-0.2759514435	
688.125	-0.2309290323	-0.2874348675	
688.75	-0.2246617064	-0.06107759038	
689.375	-0.3375367463	0.3419042951	
690.0	0.2810515217	0.3176050047	
690.625	0.1101602523	0.07147864815	
691.25	0.4250333713	0.3748396459	
691.875	0.4754685491	-0.00480689841	
692.5	0.3268243298	0.3066198298	
693.125	0.7836585604	-0.0322634878	
693.75	0.1064212647	-0.3998274764	
694.375	0.4448396774	-0.124569908	
695.0	0.5177094826	-0.4143771471	
695.625	0.2140720406	-0.1159227873	
696.25	0.5517584142	0.2230327147	
696.875	0.526214478	0.1864944407	
697.5	0.29938416	0.1853135603	
698.125	0.5682914892	-0.02130563959	
698.75	0.2574945887	-0.4367000677	
699.375	-0.4457549011	-0.06628413353	
700.0	-0.2597365912	0.1838532267	
700.625	0.3025401153	0.3129004601	
701.25	0.2510329892	-0.03006007051	
701.875	0.1752727575	0.2838045378	
702.5	0.4943234367	0.1446621814	
703.125	0.1885923642	-0.03948954515	
703.75	0.4005806847	0.000502522126	
704.375	0.1945015447	-0.3221433991	
705.0	0.04676542197	-0.07031288711	
705.625	0.3435088414	0.1131515286	
706.25	0.2886853493	-0.02722886812	
706.875	0.2589405121	0.3016694917	
707.5	0.36893434	0.305202014	
708.125	0.3893844773	-0.1767640846	
708.75	0.1109534007	-0.3384725087	
709.375	-0.1310547361	-0.1216906263	
710.0	-0.0485611365	0.3043574965	
710.625	0.08440024749	0.01920690439	
711.25	0.1519917833	0.2232897809	
711.875	0.1889951223	-0.2709292778	
712.5	0.2476754962	0.04668599429	
713.125	0.2402571466	-0.2826379028	
713.75	-0.04883381691	-0.2027510434	
714.375	0.1044806611	-0.1904794034	
715.0	-0.1169639725	-0.2496192051	
715.625	-0.03291428631	-0.08209602499	
716.25	0.2464407019	-0.2140594751	
716.875	0.2236095773	-0.3597917897	
717.5	0.2983401185	-0.09329813061	
718.125	0.7149997561	0.01323885883	
718.75	0.5571339076	-0.4834428891	
719.375	0.2311653797	-0.5848968449	
720.0	0.3705629654	-1.048107122	
720.625	-0.5630079556	-1.305249345	
721.25	-0.08561604565	-0.6143256024	
721.875	-0.3808559831	-1.024674085	
722.5	-1.162330922	-0.1942723761	
723.125	-0.3236269961	-0.02782522909	
723.75	-0.371262072	0.6038415357	
724.375	0.3735269141	0.2325058245	
725.0	-0.05075238099	0.2647620242	
725.625	0.3388337135	0.5938147187	
726.25	0.2661845593	0.3207127936	
726.875	-0.2378655256	0.7516865837	
727.5	0.1914426812	1.476232927	
728.125	0.8165662191	1.171372035	
728.75	-0.3604334323	1.973575496	
729.375	0.5380335915	3.932630859	
730.0	1.747860642	1.928362895	
730.625	-0.5463013144	3.041407485	
731.25	0.1441738245	4.745703053	
731.875	-0.07266256326	2.067391739	
732.5	-2.8935175	0.6998549131	
733.125	-2.113955331	1.5792214	
733.75	0.7372063477	0.8079924263	
734.375	0.7065462913	0.5601283856	
735.0	-0.7294273946	-0.7872532714	
735.625	0.01631222171	0.02256774909	
736.25	-0.2217318682	0.6913509165	
736.875	0.8305140919	0.2589026072	
737.5	0.09703419896	0.1606526332	
738.125	1.789072868	-0.2597663434	
738.75	0.6679219625	-2.120828744	
739.375	0.4421838792	-0.6034974518	
740.0	3.859464629	-0.01918015822	
740.625	2.46191352	-4.053007979	
741.25	-3.066111552	0.1360946728	
741.875	-4.079935704	2.567990037	
742.5	-1.372633438	0.2279590032	
743.125	0.9380826252	-1.401807351	
743.75	-0.5253158445	-1.250979586	
744.375	-0.2465203741	0.2885899361	
745.0	-0.01734647262	0.09578158471	
745.625	0.04832172991	-0.1183946924	
746.25	0.08391809756	-0.04257662752	
746.875	-0.264873063	0.07485180807	
747.5	0.07997478103	0.3013019596	
748.125	0.005972819574	0.2966290333	
748.75	0.286747947	0.4742510523	
749.375	0.2711505517	0.2189892889	
750.0	-0.3001134766	0.08045944079	
