!Created with skrf (http://scikit-rf.org).
# GHz S RI R (50+0j) 
!freq	ReS11	ImS11	
500.0	-0.549746913	-1.490586665	
500.625	0.8666491739	-4.041097333	
501.25	-2.276777497	-1.004222713	
501.875	-0.8602090676	-1.291984159	
502.5	-0.361681351	-0.5506027955	
503.125	-0.114487214	0.2059110556	
503.75	-0.1686310491	0.1261227375	
504.375	0.1791295866	-0.08677584087	
505.0	-0.04603869415	0.08189147568	
505.625	0.03263167605	-0.3808058962	
506.25	-0.08910649807	0.2472876079	
506.875	-1.409324798	-0.4418898528	
507.5	-0.01158590389	0.6673351304	
508.125	1.465179654	-2.111369787	
508.75	0.800216231	-4.731082491	
509.375	-1.820031065	-1.884351952	
510.0	-1.271191081	-1.481601499	
510.625	-0.8697398153	-0.5724169463	
511.25	-0.07020526941	-0.2012233189	
511.875	-0.5949183029	-0.2222913772	
512.5	-0.02379481828	0.1368802072	
513.125	0.05288446851	-0.2269423402	
513.75	-0.3000788277	-0.3172064794	
514.375	-0.3545775869	0.340985694	
515.0	0.99046786	-1.242787821	
515.625	-1.65171201	0.4748732263	
516.25	1.617591658	-2.63254769	
516.875	-2.255056572	-1.963262833	
517.5	0.0497085011	0.4353060355	
518.125	-0.3610892542	-0.4785862687	
518.75	0.06063429048	0.2678416535	
519.375	-0.3195261764	0.07124199853	
520.0	0.502507211	0.1281044499	
520.625	0.2709511998	-0.1557083706	
521.25	0.1994219461	-0.9538132007	
521.875	-0.4543324918	0.05085732748	
522.5	-0.1655017268	-0.1011903306	
523.125	-0.06235292945	0.2109958616	
523.75	-0.2787272294	-0.1096915557	
524.375	-0.251260092	0.2447149554	
525.0	-0.3293586464	0.1469875796	
525.625	0.3282958954	0.2341763756	
526.25	-0.3040258034	-0.0093213502	
526.875	0.07937665881	0.1360979982	
527.5	-0.4390000415	0.3562622926	
528.125	0.4287772417	1.118326871	
528.75	0.1861606284	0.1524959252	
529.375	0.1037022628	0.4550977063	
530.0	0.1471117009	0.05468741224	
530.625	0.1965253743	1.241784554	
531.25	0.8392200694	-0.04355092623	
531.875	1.141889443	-0.3112175647	
532.5	-0.4836202299	-0.02054576044	
533.125	0.6678692495	-0.4875369502	
533.75	-0.3697615355	-0.1268047048	
534.375	0.1823362203	-1.290396633	
535.0	-0.8796879048	0.2305334438	
535.625	-0.3625154514	0.002851164555	
536.25	-0.02857399911	0.412041928	
536.875	0.1426298318	-0.1176597212	
537.5	0.2386923574	0.01967430936	
538.125	0.3340979078	-0.3082279571	
538.75	0.1883984234	-0.1679639604	
539.375	-0.120133985	-0.5436227658	
540.0	-0.5193879187	-0.2270902987	
540.625	-0.2770962383	-0.1554478892	
541.25	-0.3304711013	0.03015680325	
541.875	-0.006604938408	0.009931781843	
542.5	-0.1033209824	-0.1854047002	
543.125	-0.2877853312	-0.06670742974	
543.75	-0.03636920083	0.1078944497	
544.375	-0.3143871669	0.02727252157	
545.0	0.2466961471	0.1318301529	
545.625	-0.1566939288	0.2694797527	
546.25	0.4938374264	-0.03591402533	
546.875	0.04192975297	0.05959786594	
547.5	0.4176968059	-0.4383675563	
548.125	-0.3141816917	-0.2190798929	
548.75	-0.07237428789	-0.3341843086	
549.375	-0.3848781232	-0.2955420459	
550.0	-0.1255609101	0.1663935819	
550.625	-0.1716439713	-0.1506089405	
551.25	-0.1451246198	0.2101225884	
551.875	-0.1924007888	0.0428113431	
552.5	-0.1242567316	0.2970789655	
553.125	-0.03333663128	0.0864147691	
553.75	0.1318583629	0.1573179591	
554.375	0.2247074834	-0.01748259888	
555.0	0.2347759825	-0.1493160311	
555.625	0.225732392	-0.2624580454	
556.25	0.1645202094	-0.3554579142	
556.875	-0.08465246862	-0.38047229	
557.5	-0.2242290197	-0.2633107839	
558.125	-0.292190958	-0.1031568733	
558.75	-0.2448783126	0.003108933597	
559.375	-0.2709519488	0.006033003591	
560.0	-0.2387651982	0.2262310364	
560.625	-0.08053779309	0.1994581476	
561.25	-0.06021505351	0.2793324915	
561.875	0.1653118305	0.09116466614	
562.5	-0.09962365942	0.1077588156	
563.125	0.2973720314	0.1977104601	
563.75	0.1620821512	0.004515363817	
564.375	0.4603281251	-0.2005905396	
565.0	0.02659955835	-0.4244949425	
565.625	0.07252287587	-0.264631817	
566.25	-0.3588839947	-0.3808177597	
566.875	-0.3188002119	-0.03263513551	
567.5	-0.1755735839	-0.3373250445	
568.125	-0.4803130585	-0.5353247768	
568.75	-0.4678611441	0.01591437434	
569.375	-0.6168904844	-0.09624258539	
570.0	-0.295351891	0.7847282741	
570.625	0.02496346449	0.1549511245	
571.25	-0.3270263106	0.4651845308	
571.875	0.3368202163	-0.1650001385	
572.5	0.2867783035	0.4184344774	
573.125	0.2872584484	-0.5951614656	
573.75	-0.1807952011	-0.08657485558	
574.375	0.3599241911	-0.09169873272	
575.0	-0.2486818413	-0.2563787843	
575.625	0.3528043524	0.003184458373	
576.25	0.03479058875	-0.5436670361	
576.875	-0.09518677033	-0.01253069127	
577.5	0.3343509297	-0.5182917418	
578.125	-0.3552452395	-0.5014082531	
578.75	-0.1931090627	-0.07064161749	
579.375	0.03619016955	-0.2498464863	
580.0	-0.3876496028	-0.1630417401	
580.625	0.1497655486	0.00616436145	
581.25	-0.5663818694	0.1917436647	
581.875	0.3242212649	0.3442043427	
582.5	-0.1903354392	0.1272914599	
583.125	0.3286114402	0.5715427371	
583.75	-0.03865428292	-0.3941752728	
584.375	0.1182655549	0.5802336015	
585.0	0.3767697373	-0.2834212046	
585.625	0.07219330959	0.2220648037	
586.25	0.6669363088	-0.09554738678	
586.875	-0.09793600041	-0.3646545928	
587.5	0.2579986734	-0.23893929	
588.125	-0.2040882014	-0.5550204466	
588.75	0.04203302541	0.007593079011	
589.375	0.427515813	-0.5555956917	
590.0	-0.3459928941	-0.3095078764	
590.625	-0.1797616719	-0.2536161316	
591.25	-0.4855171958	0.1988193528	
591.875	-0.02853477196	0.4768663582	
592.5	0.06153932393	-0.1613299937	
593.125	-0.1211060343	0.3805054983	
593.75	0.05009478697	-0.02102618091	
594.375	0.3407722119	0.6155834317	
595.0	0.5959180787	-0.03103158361	
595.625	0.04083923022	0.2837609299	
596.25	0.7086922276	0.3221714941	
596.875	0.1401675927	-0.3280798097	
597.5	0.1610785164	0.6060533238	
598.125	0.6531460846	0.2771922233	
598.75	0.2382081843	0.06057663854	
599.375	0.6339232877	0.151144605	
600.0	0.3224963232	-0.5121431961	
600.625	0.2730025282	-0.2049392116	
601.25	0.3548026004	-0.5410154314	
601.875	-0.3122784404	-0.1899502933	
602.5	-0.1735202379	-0.1985870865	
603.125	-0.3059662036	0.1918766147	
603.75	-0.2543394701	0.1566210194	
604.375	-0.1043129573	0.1027652748	
605.0	-0.393622571	0.1195317683	
605.625	0.04135583787	0.3570550483	
606.25	-0.3912644883	-0.2263468383	
606.875	-0.4987111406	0.5933431421	
607.5	-0.1448568166	0.05078506717	
608.125	-0.5178246023	0.8674855555	
608.75	0.6593037531	0.005665410075	
609.375	0.3652402429	0.3148295951	
610.0	0.6318853242	-0.4790208919	
610.625	-0.07028195948	-0.07925252935	
611.25	0.2564284368	-0.5494724769	
611.875	-0.2722911267	-0.1335858996	
612.5	-0.2926033667	-0.4162084028	
613.125	-0.5406549537	0.2487693623	
613.75	-0.2715193485	0.03858049953	
614.375	0.1850516094	0.4819688272	
615.0	-0.03575277648	-0.1215394785	
615.625	0.058509049	0.4784196287	
616.25	0.05748290923	-0.01449184038	
616.875	-0.5110133067	0.5139695505	
617.5	0.1181523658	0.7009361805	
618.125	-0.2184684337	0.1970601895	
618.75	0.1239134085	0.7329767982	
619.375	0.2106577368	0.1501696038	
620.0	0.4330917647	0.3425114815	
620.625	0.1741944732	-0.4421611987	
621.25	-0.06941348335	-0.436521315	
621.875	-0.5676597581	-0.1062638145	
622.5	-0.3593865425	-0.042534917	
623.125	-0.2122151011	0.6027139727	
623.75	0.1583282054	-0.2085510968	
624.375	0.385896581	0.002959647179	
625.0	-0.1528170802	-0.03043982807	
625.625	0.3905888066	-0.2019628775	
626.25	-0.5324221764	-0.2921060999	
626.875	0.1009038225	-0.1877817271	
627.5	-0.599224778	-0.3025696263	
628.125	-0.277620747	0.06791980496	
628.75	0.04251906982	-0.2796579195	
629.375	-0.3280841066	-0.5552954456	
630.0	-0.2675184584	-0.05930358019	
630.625	-0.6355418105	-0.01535869708	
631.25	-0.2671365242	0.6082672705	
631.875	-0.1139505178	0.3150484721	
632.5	0.3141131145	0.7280327411	
633.125	0.5063375243	-0.009348720916	
633.75	0.3157378119	-0.1136661111	
634.375	0.2484143816	-0.1621867678	
635.0	-0.08049696662	-0.6281325911	
635.625	-0.1298152988	0.112949154	
636.25	-0.6599425031	-0.1211900956	
636.875	0.07100934563	0.5826655808	
637.5	-0.1285351462	-0.2174297322	
638.125	-0.1096055017	0.7442984753	
638.75	-0.14489963	-0.132919016	
639.375	-0.3436218667	0.9520373392	
640.0	0.7516213032	0.4267714434	
640.625	0.1452250007	0.1779817168	
641.25	0.8472022923	0.4236334865	
641.875	0.3887527523	-0.770561972	
642.5	-0.07279069562	-0.1072087725	
643.125	-0.2065585068	-0.7072436376	
643.75	-0.420219173	0.3145357374	
644.375	-0.4307072062	-0.4750443444	
645.0	-0.3615911074	0.695174494	
645.625	0.1770208337	0.1929623178	
646.25	0.09980017005	0.4182670592	
646.875	0.6290433193	-0.1362810383	
647.5	-0.332639005	-0.03641149442	
648.125	0.6789016086	0.4942157638	
648.75	0.5146250059	-0.6988470807	
649.375	0.3120500743	0.1849678564	
650.0	0.9564528169	-1.348888304	
650.625	-0.3887894858	-0.6347957195	
651.25	0.8548030746	0.1098127844	
651.875	0.9951536331	-1.091824348	
652.5	-0.1298013466	-0.1587216657	
653.125	1.029635296	0.1880808531	
653.75	0.3954103337	-1.006497345	
654.375	-0.1458677267	-0.2000040757	
655.0	-0.5948656435	-0.8543023814	
655.625	-0.3178028525	0.9098400821	
656.25	0.05009398275	-0.02769834786	
656.875	-0.01713303828	0.5735660337	
657.5	0.2779339397	-0.1189044448	
658.125	-0.08067203066	0.6035523647	
658.75	1.060210058	0.2298824626	
659.375	0.5258330363	-0.5120708636	
660.0	0.4775303003	-0.2736649745	
660.625	0.7527249987	-1.186225704	
661.25	-0.2412077223	-0.5259481047	
661.875	0.9210965765	-0.2461963122	
662.5	0.7287354542	-0.914251592	
663.125	0.05537470711	-0.3493823866	
663.75	1.030861159	-0.4978749969	
664.375	-0.5837762053	-0.966756756	
665.0	-0.2377949812	-0.2229715742	
665.625	-0.9646034232	-0.0993705764	
666.25	-0.01393346113	0.8886349967	
666.875	-0.09698765831	0.3118434641	
667.5	0.6660587729	0.3842800251	
668.125	0.3195863609	-0.2675144617	
668.75	0.5503778258	0.06793290203	
669.375	0.2762163964	-0.9200846939	
670.0	-0.1635094596	-0.2641405198	
670.625	0.191034174	-0.3376736317	
671.25	0.2675612305	-0.6021907309	
671.875	-0.03602319201	-0.5192049323	
672.5	0.6114288768	0.1092460062	
673.125	0.5359266788	-0.7739966539	
673.75	0.1282478743	-0.2735345134	
674.375	0.5796856307	-0.6516069993	
675.0	-0.8087765535	-0.6676015899	
675.625	0.1923437718	-0.04282197026	
676.25	-0.8315115055	-0.5380277793	
676.875	-0.3402886434	0.4967900778	
677.5	-0.1211495392	-0.3781409606	
678.125	-0.6597596205	0.663237036	
678.75	0.2932596672	0.2358023377	
679.375	0.2570867349	0.4616450346	
680.0	0.6558607755	-0.5324709308	
680.625	-0.2989111325	0.07882451412	
681.25	0.6394629205	-0.02202443712	
681.875	0.2628133681	-0.2055331975	
682.5	0.1284332425	0.2799248005	
683.125	0.725549319	0.4443634855	
683.75	0.9330236155	-0.0929810477	
684.375	0.1471068877	-0.052549952	
685.0	0.7748012674	0.6861636946	
685.625	1.047346628	-0.6754590515	
686.25	0.002670318057	0.579907147	
686.875	1.515025488	-0.933813723	
687.5	-0.2148301489	-0.3325703712	
688.125	0.8592368811	-1.188188401	
688.75	-1.856787933	-0.3204181293	
689.375	-0.0005757250484	0.1073758421	
690.0	-0.2071755248	1.556743922	
690.625	0.8099580319	0.2582582384	
691.25	0.3270944678	0.7695427796	
691.875	1.394804855	0.9015189724	
692.5	1.169901462	0.259469232	
693.125	1.520865833	0.1464071521	
693.75	1.41021884	-0.7050595907	
694.375	0.8800854881	-0.9024939534	
695.0	1.044376499	-0.7139963862	
695.625	1.045039939	0.04255318133	
696.25	1.664657695	0.2429649228	
696.875	0.4948256254	0.3719863152	
697.5	0.8685912411	1.971005405	
698.125	1.618564133	-0.2621628812	
698.75	1.213974647	-0.1011597746	
699.375	-1.440764899	-1.458589056	
700.0	0.04078559715	0.7121218206	
700.625	-0.2324679209	1.428508561	
701.25	0.8253676491	0.00163910391	
701.875	0.1539789175	0.7863363717	
702.5	1.337160426	0.589647079	
703.125	0.5027482505	0.2239043301	
703.75	1.214806433	-0.09341023356	
704.375	0.2450332327	-0.7621258313	
705.0	0.721980916	0.1103660658	
705.625	0.7920863742	-0.5389687064	
706.25	0.02143695274	0.4931788761	
706.875	1.054830968	1.246991747	
707.5	0.5896273186	0.05955549672	
708.125	1.080505828	0.9454763139	
708.75	0.7360415594	-1.349952186	
709.375	-0.4359144531	-0.4020532635	
710.0	-0.7525907838	0.4195317292	
710.625	0.4335514242	0.3200959533	
711.25	0.04439947399	0.4317145588	
711.875	0.6205598263	0.1944061117	
712.5	0.6829198966	-0.01007610542	
713.125	0.6194098063	-0.402838156	
713.75	0.3792995959	-0.4246312257	
714.375	0.04003020078	-0.8052893215	
715.0	-0.275670319	-0.009909595375	
715.625	0.6332628142	-0.7855894155	
716.25	-0.3108670789	-0.9485597776	
716.875	0.8255959114	0.4627602349	
717.5	2.472070814	-0.3579644849	
718.125	-0.1160030346	-0.9964235119	
718.75	3.478121214	1.496968174	
719.375	1.565779601	-2.828055702	
720.0	0.8441112521	-0.3435748752	
720.625	2.336698874	-3.762154467	
721.25	-1.596666511	-2.499981347	
721.875	0.397243738	-1.848978893	
722.5	-1.761741191	-2.566445439	
723.125	-2.077850024	0.252351103	
723.75	-0.9677467255	0.3940108662	
724.375	0.130384758	1.664955117	
725.0	0.4593115244	0.4578110658	
725.625	0.1505661716	1.095498752	
726.25	-0.002872287187	2.059730943	
726.875	1.226478277	2.515931771	
727.5	-1.480228914	1.150691244	
728.125	-1.289735794	9.280381456	
728.75	3.273318891	7.930384493	
729.375	-7.414584277	1.411317538	
730.0	1.851505733	26.80335333	
730.625	2.779887859	0.7344497444	
731.25	-10.58349146	11.9752922	
731.875	-1.624561117	16.18999814	
732.5	-2.484223846	-3.463827049	
733.125	-10.98058825	0.7927375873	
733.75	-1.577940886	4.260429275	
734.375	1.612485948	0.1767728038	
735.0	1.405589249	-1.568718887	
735.625	-1.149281816	1.394937707	
736.25	-0.9095525264	0.6094373282	
736.875	1.419403227	2.072318153	
737.5	2.728241771	-0.9019708396	
738.125	2.31563749	1.05785066	
738.75	8.021324958	-4.084682453	
739.375	3.341214593	-11.23750592	
740.0	-3.649193614	0.8300686218	
740.625	12.39619294	15.55449797	
741.25	26.99992181	-0.372569465	
741.875	-12.87421449	-24.46420095	
742.5	-10.19774801	-6.685004118	
743.125	1.017642978	2.554255436	
743.75	2.71320438	-7.919803058	
744.375	-1.936720019	0.7307420618	
745.0	-0.2319105758	-0.05396926213	
745.625	0.4946582877	-0.04660609604	
746.25	-0.01151923244	0.02943112266	
746.875	-0.5223589588	-0.2390466009	
747.5	-0.35419735	1.249254714	
748.125	0.3947304182	0.9567944495	
748.75	0.6861184539	1.236229277	
749.375	-0.08864588	1.730074717	
750.0	0.06578362905	1.758394658	
