!Created with skrf (http://scikit-rf.org).
# GHz S RI R (50+0j) 
!freq	ReS11	ImS11	
500.0	0.7403527465	-1.292824979	
500.625	-0.3681368557	-0.9605429395	
501.25	-0.0322697739	-0.6742747653	
501.875	-0.3967768534	-0.5839138262	
502.5	-0.06327706792	-0.06740944324	
503.125	-0.08578673513	-0.02604746271	
503.75	0.06325772377	0.0994502759	
504.375	0.003635921539	0.02016063602	
505.0	0.03758737275	-0.05838154922	
505.625	-0.01383390164	0.009650410732	
506.25	-0.03225461825	-0.1639568402	
506.875	0.04617985241	0.2124760064	
507.5	0.2230135323	-0.5633147388	
508.125	0.01437826301	-0.9940588941	
508.75	0.01868895097	-0.6974265736	
509.375	0.3853887752	-1.184824008	
510.0	-0.6516925096	-0.216032615	
510.625	0.02243234149	-0.03910857652	
511.25	-0.1185523722	-0.1128529852	
511.875	-0.1080291353	0.01612738261	
512.5	-0.0281649458	0.03727194138	
513.125	-0.0145511836	-0.1144001428	
513.75	-0.0650026561	0.0002769677875	
514.375	-0.007258848866	-0.08756176706	
515.0	-0.3561281084	0.1969064581	
515.625	0.6345413307	-0.5255967073	
516.25	-0.74815228	-1.117294486	
516.875	-0.1924682104	-0.08403305192	
517.5	0.005932249522	-0.3149790147	
518.125	-0.09759277344	0.03426095054	
518.75	-0.002953470737	-0.2393500595	
519.375	-0.06594466212	0.06548537091	
520.0	0.09419190431	0.01603440083	
520.625	0.1344603124	0.006288344614	
521.25	-0.01874744459	-0.3111444147	
521.875	-0.149307475	0.09528018117	
522.5	-0.006318434904	0.04715101873	
523.125	-0.09178018372	0.1475352773	
523.75	0.0424599023	-0.05296375403	
524.375	-0.3303997038	-0.01334543841	
525.0	0.121661987	0.214551474	
525.625	-0.04316899376	-0.01090970263	
526.25	0.06566502014	0.02540404391	
526.875	-0.1195096042	0.001953381136	
527.5	0.01703779581	0.2819926137	
528.125	0.1240838515	0.1117755005	
528.75	-0.06633920384	0.2522223713	
529.375	0.09962969025	0.04588739787	
530.0	-0.1035077712	0.06370843921	
530.625	0.1953541645	0.4960589589	
531.25	0.3588085244	-0.07099431961	
531.875	0.160329541	-0.1303630478	
532.5	-0.1180900509	-0.2378401042	
533.125	0.06837664588	0.105974088	
533.75	0.2444478773	-0.2700120776	
534.375	-0.1805334519	-0.1752450414	
535.0	-0.1359618926	-0.1616229567	
535.625	-0.2072577851	0.1724285316	
536.25	0.02889801001	0.06537326645	
536.875	0.08438369203	0.06116767031	
537.5	0.07013806215	-0.0863186663	
538.125	0.06507283799	-0.008787984404	
538.75	0.1999249846	-0.1485328282	
539.375	-0.1187559665	-0.1267181439	
540.0	-0.1064293555	-0.1406227295	
540.625	-0.2390351175	-0.06353025751	
541.25	-0.07387722091	0.06477795471	
541.875	0.005625564535	-0.02556110242	
542.5	-0.1017411892	-0.02424378729	
543.125	-0.004906515699	-0.0497984561	
543.75	-0.1343077793	-0.05699660814	
544.375	0.00726237401	0.09710020722	
545.0	-0.09559097008	0.01542243341	
545.625	0.116114759	0.06384730724	
546.25	0.02804297292	0.02601558776	
546.875	0.187225044	-0.01519525831	
547.5	0.0009905564875	-0.1517781816	
548.125	0.01140884456	-0.1366434145	
548.75	-0.1496492514	-0.1751906665	
549.375	-0.1480659062	-0.00901035866	
550.0	-0.03958770155	-0.04582211071	
550.625	-0.08296642139	0.04769726392	
551.25	-0.04659781953	-7.900293809e-05	
551.875	-0.1094794677	0.08261415226	
552.5	-0.01067713309	0.08420897967	
553.125	-0.03320937847	0.0608778166	
553.75	0.0625545918	0.04940106198	
554.375	0.08798064458	0.0002041687308	
555.0	0.1115964214	-0.07226460437	
555.625	0.0841878554	-0.1214625096	
556.25	0.06587051227	-0.1453683024	
556.875	-0.03607409154	-0.1659557281	
557.5	-0.1076466982	-0.1090415661	
558.125	-0.1241794966	-0.03444025426	
558.75	-0.1117735122	-0.007000800658	
559.375	-0.1261046198	0.02355267495	
560.0	-0.08481529463	0.08526150828	
560.625	-0.0681693816	0.1021666911	
561.25	0.01261374402	0.1328465371	
561.875	0.02860678977	0.01645020139	
562.5	0.005756202822	0.107953889	
563.125	0.08036396255	0.03133095876	
563.75	0.1312545667	0.04931718721	
564.375	0.1610351782	-0.1422952107	
565.0	0.02614046783	-0.1321976969	
565.625	0.01889634688	-0.1691878432	
566.25	-0.1912392361	-0.1253969275	
566.875	-0.09040931218	-0.05883893813	
567.5	-0.143078653	-0.2020735968	
568.125	-0.2087102219	-0.1123466334	
568.75	-0.1649689482	-0.1152067198	
569.375	-0.3417282591	0.1224028516	
570.0	-0.002659993391	0.2270342146	
570.625	-0.1069749031	0.09510667737	
571.25	0.01844751897	0.2106661421	
571.875	0.0133830686	-0.007576708637	
572.5	0.2124844457	0.07869050078	
573.125	0.03249852734	-0.1999914325	
573.75	0.03425678106	-0.01721567953	
574.375	0.07635563438	-0.1539252677	
575.0	-0.0671731227	0.04676564434	
575.625	0.1362905694	-0.09547402282	
576.25	-0.0366979544	-0.1675299969	
576.875	0.01373321898	-0.05674762959	
577.5	0.08999631125	-0.2292417288	
578.125	-0.1480036582	-0.182950099	
578.75	-0.03543962742	-0.04342184449	
579.375	-0.07236152757	-0.1640210439	
580.0	-0.1782884277	0.07769453204	
580.625	0.01109890584	-0.131111619	
581.25	-0.1440819281	0.174808602	
581.875	0.08586406298	0.03222029836	
582.5	-0.09893690023	0.1911065883	
583.125	0.2143672528	0.1195559927	
583.75	-0.04700926463	-0.06832771745	
584.375	0.1313020824	0.1576564525	
585.0	0.1036336492	-0.04669518447	
585.625	0.1104502101	0.09014951632	
586.25	0.2450025882	-0.1219513643	
586.875	-0.02521695805	-0.1008796256	
587.5	0.0826354621	-0.1672762237	
588.125	-0.09711058726	-0.1996575062	
588.75	-0.002861010993	-0.04625269201	
589.375	0.1582353704	-0.1957883727	
590.0	-0.1604983468	-0.1678602519	
590.625	-0.07562711853	-0.04421842225	
591.25	-0.2401888654	0.0961982748	
591.875	0.08805741723	0.1904600926	
592.5	-0.06427353032	-0.02745991086	
593.125	0.1047697474	0.1366180673	
593.75	-0.03177258788	0.05381296709	
594.375	0.2804663569	0.2144872913	
595.0	0.2080472163	-0.04362395428	
595.625	0.09046028766	0.1830145586	
596.25	0.2604545679	0.07478672387	
596.875	0.1323905591	-0.0557684486	
597.5	0.07599446406	0.1388042952	
598.125	0.2592089806	0.1060429312	
598.75	0.1349440638	0.005748674695	
599.375	0.2489337268	0.01755684225	
600.0	0.1670610268	-0.2140303672	
600.625	0.04416796489	-0.1512740252	
601.25	0.1414089513	-0.1702057433	
601.875	-0.1542557818	-0.1920536059	
602.5	-0.05138594051	0.03390756529	
603.125	-0.2224646429	-0.04936659978	
603.75	-0.06864260921	0.1954398925	
604.375	-0.0441098743	-0.00415231312	
605.0	-0.1723447553	0.1207517549	
605.625	0.09012603503	0.04913583374	
606.25	-0.1793810076	-0.03845968674	
606.875	-0.2143478509	0.2165622212	
607.5	-0.1685616151	0.07960782212	
608.125	-0.03410620698	0.3319097003	
608.75	0.2922076934	0.1562207901	
609.375	0.1145795655	-0.05798960334	
610.0	0.2648043421	-0.07311734297	
610.625	0.0787252632	-0.1969535539	
611.25	0.01291998774	-0.0521787343	
611.875	-0.09293806614	-0.2497384702	
612.5	-0.2389422264	0.008243694997	
613.125	-0.1182201266	-0.05102873713	
613.75	-0.2121404309	0.2116754147	
614.375	0.1607616687	0.06090513828	
615.0	-0.09685983928	0.08827469343	
615.625	0.1283682151	0.123364996	
616.25	-0.1088145607	0.06343439246	
616.875	-0.1884472901	0.2583277336	
617.5	0.05600947049	0.2118669115	
618.125	-0.05396641074	0.09072250443	
618.75	0.1026744784	0.1366609156	
619.375	0.166397616	0.102549315	
620.0	0.2114502318	0.0009107494559	
620.625	0.1600333281	-0.1803692226	
621.25	-0.1778466624	-0.1667170205	
621.875	-0.1498513882	-0.116662809	
622.5	-0.308680068	0.01123578613	
623.125	0.06163227943	0.1851188332	
623.75	-0.04459566414	0.01288102428	
624.375	0.1086459816	-0.1227563974	
625.0	-0.01197101554	0.05046998462	
625.625	0.1203031338	-0.1456571966	
626.25	-0.1471961337	-0.1294768346	
626.875	-0.04651131775	-0.07780290149	
627.5	-0.2252987038	-0.09994651225	
628.125	-0.1362577826	-0.005734809737	
628.75	-0.00524604225	-0.1318696632	
629.375	-0.1775730354	-0.2110305301	
630.0	-0.1462005673	-0.03281114954	
630.625	-0.216496949	0.03612205188	
631.25	-0.2067833179	0.2188481901	
631.875	0.04378723813	0.2119118634	
632.5	0.0652128002	0.2424479954	
633.125	0.332847255	0.1482343632	
633.75	0.09423560014	-0.09941124539	
634.375	0.1680026698	-0.04386925794	
635.0	-0.07797610435	-0.2262174769	
635.625	-0.05485557747	-0.04142092187	
636.25	-0.2547501646	0.03637122876	
636.875	0.01392025644	0.2353426872	
637.5	-0.04929863721	-0.007544558873	
638.125	-0.1193046908	0.1853630708	
638.75	0.06192208982	0.1275972174	
639.375	-0.1108397379	0.2423198004	
640.0	0.2388450364	0.3450901178	
640.625	0.2439850585	0.03166818006	
641.25	0.2242371917	0.091309443	
641.875	0.264663887	-0.2946714217	
642.5	-0.09660028737	-0.1378428619	
643.125	-0.02971190109	-0.2158832982	
643.75	-0.3215479713	-0.1240787136	
644.375	-0.005248661868	0.05343146529	
645.0	-0.291905441	0.1822554762	
645.625	0.2040190901	0.2590086086	
646.25	-0.02059701233	-0.07093116814	
646.875	0.2144811887	0.0932653872	
647.5	-0.07621063529	-0.2541437932	
648.125	0.1752745279	0.2429466147	
648.75	0.3284824292	-0.2304067703	
649.375	0.09189513481	-0.1729613081	
650.0	0.3640815776	-0.1979130908	
650.625	0.09574868794	-0.4906502741	
651.25	0.08303871413	-0.1111821755	
651.875	0.429663823	-0.1200788465	
652.5	0.2856166612	-0.3100604959	
653.125	0.1394120767	-0.004711349443	
653.75	0.3545042929	-0.2901699285	
654.375	-0.2231464151	-0.3178998163	
655.0	-0.1253619473	-0.01740221822	
655.625	-0.343283922	0.1296297986	
656.25	0.1999412231	0.1995837603	
656.875	-0.07697329397	0.01605126262	
657.5	0.1851178244	0.2766481938	
658.125	0.08179094566	-0.0186941138	
658.75	0.2718247747	0.270870206	
659.375	0.4331096746	-0.424561415	
660.0	0.08906370572	-0.2170515763	
660.625	0.3210570102	-0.324045866	
661.25	0.1545378076	-0.4740690486	
661.875	0.05674005659	-0.1665498707	
662.5	0.4191722758	-0.12698992	
663.125	0.2625061927	-0.3440542267	
663.75	0.08746063973	-0.1933336043	
664.375	0.07544021064	-0.4394914182	
665.0	-0.4066181756	-0.1204930711	
665.625	-0.2098886369	0.03594567072	
666.25	-0.2177589156	0.3229842112	
666.875	0.234326402	0.1956181116	
667.5	0.02501604864	0.05578216699	
668.125	0.3543566176	0.03424532831	
668.75	0.1034887327	-0.229360633	
669.375	0.1310734937	-0.1143661688	
670.0	0.07750067302	-0.4443647525	
670.625	-0.1598329638	-0.1212227594	
671.25	0.1792264899	-0.1356931933	
671.875	0.1134679373	-0.3178381593	
672.5	0.06851580441	-0.09521241508	
673.125	0.331606252	-0.08039111788	
673.75	0.1043428926	-0.3708541765	
674.375	0.001326714324	-0.1487829223	
675.0	-0.02057503483	-0.3422290652	
675.625	-0.3265293823	-0.1398472508	
676.25	-0.03517749172	0.02732977669	
676.875	-0.2371376482	-0.1203520003	
677.5	-0.1072867801	0.1354033375	
678.125	-0.1116380716	0.009119905039	
678.75	-0.02687397509	0.3774984905	
679.375	0.2922229005	-0.08192141942	
680.0	0.03070498202	0.06355720585	
680.625	0.2484530303	-0.1532833803	
681.25	-0.08620251722	-0.145373267	
681.875	0.1729016952	0.3768600787	
682.5	0.4145646524	-0.002368110292	
683.125	-0.05660838909	0.07200136553	
683.75	0.270698639	0.2696021351	
684.375	0.4836395148	-0.05457994976	
685.0	-0.03439385799	0.1692308718	
685.625	0.5484608078	0.03999044114	
686.25	0.2823656644	-0.195745594	
686.875	0.1868180197	-0.0332267638	
687.5	0.4222174664	-0.3883258632	
688.125	-0.1880970214	-0.3622278784	
688.75	-0.2787110978	-0.2562418241	
689.375	-0.4692960279	0.3745254734	
690.0	0.2534431622	0.3478430915	
690.625	0.00792234801	0.2371263597	
691.25	0.5256045335	0.4633194114	
691.875	0.4259401719	0.09000400067	
692.5	0.468940623	0.3916196587	
693.125	0.9178081386	-0.03797789817	
693.75	0.2539719607	-0.3032608662	
694.375	0.5887028143	-0.1911315209	
695.0	0.5653019518	-0.4699892083	
695.625	0.3270136846	-0.01091915599	
696.25	0.4148216227	0.4334072357	
696.875	0.29890165	0.1096094705	
697.5	0.2346179867	0.313461749	
698.125	0.5706249734	0.4086171722	
698.75	0.5359821334	-0.6007949809	
699.375	-0.464832075	-0.2173112927	
700.0	-0.4630201921	0.201982075	
700.625	0.1772043573	0.4414571458	
701.25	0.110003939	0.07491326518	
701.875	0.1753444008	0.4197897721	
702.5	0.5022218128	0.1113742178	
703.125	0.2341829937	0.1259485759	
703.75	0.5289349225	-0.01427619616	
704.375	0.2194486222	-0.3445716129	
705.0	0.1086543653	-0.01535298501	
705.625	0.4547999482	0.07961130133	
706.25	0.1916095374	0.08062844561	
706.875	0.1486411971	0.3526699073	
707.5	0.3004223726	0.306818051	
708.125	0.406481397	-0.03902022671	
708.75	0.2537372964	-0.3811485328	
709.375	-0.310852195	-0.3641272631	
710.0	-0.3561085617	0.448438241	
710.625	-0.04259630918	0.1135343193	
711.25	0.1865478099	0.2852967465	
711.875	0.1270604253	-0.07467157246	
712.5	0.3987680813	0.1455868314	
713.125	0.3047091143	-0.2881196577	
713.75	0.0002678192768	-0.1715455301	
714.375	0.1584887455	-0.2812207358	
715.0	-0.1247333269	-0.2598425154	
715.625	0.04496759173	-0.09051780208	
716.25	0.3052109049	-0.3191253199	
716.875	0.2251896511	-0.3248990983	
717.5	0.3941594326	0.1339908404	
718.125	0.8045306688	0.1951829844	
718.75	0.6275878634	-0.397645553	
719.375	0.7108370802	0.04101403604	
720.0	0.7396183359	-1.194190471	
720.625	-0.2025393883	-1.256003258	
721.25	0.2067827467	-0.9009062903	
721.875	-0.0397290311	-1.578035962	
722.5	-0.8470377448	-0.3688237531	
723.125	-0.6871742038	-0.5062588193	
723.75	-0.5309772797	0.6269077275	
724.375	0.1579095317	0.3010770333	
725.0	-0.02876291137	0.4699791711	
725.625	0.501057346	0.6359305455	
726.25	0.01507181914	0.3681994915	
726.875	-0.3703377536	1.060919858	
727.5	0.1461155073	1.756060408	
728.125	0.3286541055	1.276440123	
728.75	-1.305570891	2.775467705	
729.375	0.2254834876	4.569508717	
730.0	0.4225534402	2.172368861	
730.625	-2.324852588	4.771626015	
731.25	0.2731081037	5.32336573	
731.875	-1.831875047	1.278133434	
732.5	-4.348996538	1.001726668	
733.125	-3.148294343	1.620518637	
733.75	0.03454510364	0.5882446549	
734.375	0.8801955096	0.9611078767	
735.0	-0.5228810178	-0.7452599794	
735.625	-0.2879855538	-0.06594694457	
736.25	-0.4039088469	0.9686842741	
736.875	0.8127417994	0.2906921518	
737.5	0.477276903	0.6346452829	
738.125	2.321082082	-0.3920241339	
738.75	0.7616763634	-1.997275394	
739.375	1.228487652	0.1023386656	
740.0	5.929517406	-0.8095054553	
740.625	0.8658657923	-4.729004228	
741.25	-3.390342282	2.09045461	
741.875	-4.691296197	3.278156779	
742.5	-0.2265406491	0.3452082472	
743.125	1.958084698	-2.635902076	
743.75	-0.4677875086	-1.4887531	
744.375	-0.2428321048	0.09109726978	
745.0	-0.1651951797	0.1794759585	
745.625	-0.01291537741	-0.1919658276	
746.25	0.09349575608	-0.1401455059	
746.875	-0.3424481175	0.07947486598	
747.5	-0.005733568619	0.2907931885	
748.125	-0.02722823407	0.4941205286	
748.75	0.3848473554	0.6272970922	
749.375	0.1978682214	0.330552058	
750.0	-0.4586908243	0.2053081865	
