!Created with skrf (http://scikit-rf.org).
# GHz S RI R (50+0j) 
!freq	ReS11	ImS11	
500.0	-0.2714816387	-1.514618718	
500.625	0.2703952857	-0.4507386651	
501.25	-0.5064708264	-0.916840889	
501.875	-0.4038622017	-0.2582660552	
502.5	0.04613101592	-0.1270015629	
503.125	-0.1084952607	0.01653462799	
503.75	0.02609087709	0.001998783332	
504.375	0.05548270931	0.0197730699	
505.0	-0.02426215931	-0.03315169245	
505.625	0.05568686791	-0.0294981521	
506.25	-0.1698846333	-0.08517400603	
506.875	0.09090473198	-0.06613097739	
507.5	-0.165471953	-0.7056842008	
508.125	-0.2409807968	-0.5019745627	
508.75	0.8958395873	-0.5725105124	
509.375	-0.226878149	-1.498280055	
510.0	-0.4181064014	-0.03443774694	
510.625	0.001198589402	-0.2354501178	
511.25	-0.2214464135	-0.03726915153	
511.875	-0.06052354952	-0.03197729479	
512.5	-0.04549513323	0.05668704366	
513.125	-0.06861766007	-0.08277995314	
513.75	0.01253694109	-0.03391769491	
514.375	-0.1935593074	-0.08714661369	
515.0	0.1064246814	0.2908798002	
515.625	-0.2335409613	-0.8732768048	
516.25	-0.4244684159	-0.1948636077	
516.875	0.0507777578	-0.8923969453	
517.5	-0.1389483034	-0.3044009485	
518.125	0.02187442238	0.03862512719	
518.75	-0.06951701085	-0.2402801802	
519.375	-0.03154134275	0.03474727801	
520.0	0.05962403354	0.06397740703	
520.625	0.2063985458	-0.0520006069	
521.25	-0.1496361692	-0.2803101635	
521.875	-0.161550593	-0.004752564329	
522.5	-0.1284728477	0.009311669968	
523.125	0.08903818866	0.05802511036	
523.75	-0.1538946429	-0.1375355684	
524.375	-0.2406399878	0.1677640574	
525.0	0.006325029024	-0.001646658363	
525.625	-0.02919283214	0.1284387502	
526.25	0.02772155283	-0.1043579281	
526.875	-0.09369077757	0.1224991798	
527.5	0.07096121517	0.1462270619	
528.125	-0.06498039405	0.2704576636	
528.75	0.01584373338	0.3869611775	
529.375	0.01036571471	0.02998651407	
530.0	-0.06464620651	0.3196733951	
530.625	0.2012794076	0.2534871524	
531.25	0.403330496	0.0229055399	
531.875	0.3725016334	-0.1653880272	
532.5	-0.1834811712	-0.02780205307	
533.125	0.1905107464	0.04738137949	
533.75	-0.03086631083	-0.2123021767	
534.375	0.04277449295	-0.1702484844	
535.0	-0.3224082925	-0.1538445024	
535.625	-0.09672194755	0.1531988989	
536.25	-0.03638005625	0.07566096903	
536.875	0.1380644414	0.01595675292	
537.5	0.02201953897	-0.04060868146	
538.125	0.1736447251	-0.01110355749	
538.75	0.09653154593	-0.1802455565	
539.375	-0.03244422882	-0.1210657546	
540.0	-0.1653807015	-0.2294671881	
540.625	-0.1902425299	0.01893434493	
541.25	-0.05396852024	0.01520849704	
541.875	-0.1127986162	-0.03888761007	
542.5	0.005703446517	0.003740146021	
543.125	-0.03182185856	-0.1033018122	
543.75	-0.1606596076	0.04442612337	
544.375	0.007756299733	-0.03429964899	
545.0	-0.008108030316	0.1131661257	
545.625	0.05591774665	-0.01141978168	
546.25	0.1006604664	0.1077141928	
546.875	0.1560558552	-0.1116688782	
547.5	0.05311547282	-0.06894808099	
548.125	-0.0006213420594	-0.2224845658	
548.75	-0.1927047934	-0.08967206687	
549.375	-0.04552634901	-0.05646378579	
550.0	-0.1275828039	-0.01366681055	
550.625	-0.0136406202	0.03082025573	
551.25	-0.1137871184	0.001060179686	
551.875	-0.06788906673	0.1046034851	
552.5	-0.04654901758	0.0467013328	
553.125	-0.02674064161	0.0809124549	
553.75	0.04567428046	0.03599845388	
554.375	0.09636545901	0.0134467764	
555.0	0.1033760564	-0.08247294577	
555.625	0.08619006682	-0.1088206275	
556.25	0.07239463006	-0.1457055575	
556.875	-0.03609795186	-0.1742078686	
557.5	-0.1023817962	-0.1048172903	
558.125	-0.1182491991	-0.04201594636	
558.75	-0.1206742267	-0.006597617945	
559.375	-0.1147810108	0.03339613334	
560.0	-0.1006163983	0.06675986733	
560.625	-0.07079913181	0.1291185112	
561.25	0.02834161646	0.09470644917	
561.875	-0.01478210674	0.05687765025	
562.5	0.0502787349	0.05406186205	
563.125	0.02763722689	0.08076438309	
563.75	0.1901040171	0.00888627578	
564.375	0.09276058839	-0.1257010656	
565.0	0.1060162463	-0.110852761	
565.625	-0.04980412007	-0.2195506758	
566.25	-0.1024731515	-0.06210749157	
566.875	-0.08977885612	-0.1534503515	
567.5	-0.2077490793	-0.09720792056	
568.125	-0.08134560893	-0.1280513529	
568.75	-0.2931550897	-0.1866391371	
569.375	-0.2063228381	0.196415975	
570.0	-0.1296097197	0.1199506411	
570.625	-0.1159494947	0.2435925366	
571.25	0.07708503462	0.0825346232	
571.875	-0.02179680673	0.153637259	
572.5	0.1865953275	-0.07350393092	
573.125	0.03173611338	-0.04328927348	
573.75	0.1798934784	-0.1400259389	
574.375	-0.1011123496	-0.118515922	
575.0	0.08680307429	0.04677793892	
575.625	0.0127852605	-0.1633401719	
576.25	0.004091881643	-0.02668751163	
576.875	0.08535267137	-0.2012753372	
577.5	-0.07872516831	-0.2189819676	
578.125	-0.04113489583	-0.06233122073	
578.75	-0.02151484554	-0.1996185937	
579.375	-0.2518388221	-0.08808519277	
580.0	0.05401710753	0.02084953706	
580.625	-0.1680311644	-0.07194272283	
581.25	0.02283040422	0.1137577069	
581.875	-0.1286977596	0.1033957337	
582.5	0.1073972022	0.262664056	
583.125	0.1132039788	-0.04857611186	
583.75	-0.01195941326	0.1587774507	
584.375	0.113127366	-0.02640062158	
585.0	-0.001510860827	0.1539943663	
585.625	0.2705938999	0.006873337927	
586.25	0.05914250868	-0.1286778688	
586.875	0.131568397	-0.05196131783	
587.5	-0.02692134455	-0.241243778	
588.125	-0.07829742062	-0.05600854965	
588.75	0.1266113787	-0.1427063822	
589.375	0.01719476875	-0.2500417378	
590.0	-0.04360311295	-0.06535921363	
590.625	-0.2161927946	-0.1571138158	
591.25	-0.08931171573	0.250833949	
591.875	-0.01846234694	0.02476052441	
592.5	-0.05632579885	0.21825072	
593.125	0.03132679881	-0.04990123755	
593.75	0.02561705705	0.2928985435	
594.375	0.2486781107	0.01123803421	
595.0	0.06135848645	0.1209873798	
595.625	0.2214286681	0.1763330536	
596.25	0.1741520538	-0.0554606372	
596.875	0.06699431446	0.08326120623	
597.5	0.2489349338	0.05458871564	
598.125	0.1425856345	0.0208941486	
598.75	0.1473502757	0.1476314626	
599.375	0.2688548854	-0.09466187093	
600.0	0.08302553961	-0.1499489909	
600.625	0.1901014897	-0.1176918074	
601.25	0.0721563898	-0.2702817019	
601.875	-0.125677866	-0.06039389774	
602.5	-0.0727052075	-0.1609551872	
603.125	-0.151635912	0.156298468	
603.75	-0.02229874388	0.02548037754	
604.375	-0.2163362539	0.05501916555	
605.0	0.07795616071	0.1653662179	
605.625	-0.1012307135	-0.05495652703	
606.25	-0.1797793852	0.1680068474	
606.875	-0.08535218511	0.01831171741	
607.5	-0.2513700471	0.1384874172	
608.125	0.02497409512	0.3627591776	
608.75	0.1546496922	0.06262787119	
609.375	0.2568425394	0.04346065146	
610.0	0.1733976318	-0.1337288342	
610.625	0.001787608669	-0.09258393209	
611.25	0.1206980055	-0.2150057562	
611.875	-0.1777487043	-0.1109679628	
612.5	-0.06657853837	-0.06433877091	
613.125	-0.2902716204	-0.06089961456	
613.75	0.004622245122	0.2275970823	
614.375	-0.05536332969	0.02961509236	
615.0	0.1215363344	0.1416308874	
615.625	-0.07372227682	-0.01969161999	
616.25	-0.1606360961	0.1943218315	
616.875	0.01084615295	0.3081154806	
617.5	-0.03802199229	0.08299237905	
618.125	0.07200413796	0.2357975222	
618.75	0.1306025596	0.1972563613	
619.375	0.01045999185	0.09947172641	
620.0	0.2808023801	0.1111855178	
620.625	0.1403115713	-0.2409149258	
621.25	-0.02893214642	-0.1628042572	
621.875	-0.2392875663	-0.150305382	
622.5	-0.1799737483	0.1644381484	
623.125	0.01606922849	0.04098124765	
623.75	0.1970096872	0.109797619	
624.375	-0.044866431	-0.09667928198	
625.0	0.1258157339	0.01643951436	
625.625	-0.01802686421	-0.1662670384	
626.25	0.02100302011	-0.07817209972	
626.875	-0.1843267957	-0.1655903215	
627.5	-0.1835177607	0.03372548481	
628.125	-0.03145707158	-0.0731299293	
628.75	-0.1163781838	-0.1920910444	
629.375	-0.1106419555	-0.07246355183	
630.0	-0.161432141	-0.1164424447	
630.625	-0.2855279093	0.05882730595	
631.25	-0.07385525573	0.208618759	
631.875	-0.1029775553	0.2281152779	
632.5	0.1781157743	0.2973085701	
633.125	0.2025925755	-0.03370380414	
633.75	0.08813074768	0.08011175763	
634.375	0.08507708189	-0.236183412	
635.0	-0.01946652838	-0.04830131076	
635.625	-0.1418273675	-0.2057881725	
636.25	-0.185645849	0.208515464	
636.875	-0.0160819868	0.05204900294	
637.5	-0.1439779218	0.1235214449	
638.125	0.06217165959	0.1347275659	
638.75	-0.1607285077	0.09467944833	
639.375	0.01619428959	0.3924081596	
640.0	0.2056082078	0.1473069378	
640.625	0.1371465022	0.1999214686	
641.25	0.4157929154	-0.02920246109	
641.875	0.07512600083	-0.2613906686	
642.5	0.1096755218	-0.1776675059	
643.125	-0.2286711707	-0.242587858	
643.75	-0.0704466739	0.0757555569	
644.375	-0.25495578	-0.1523287463	
645.0	-0.1211042304	0.2939191465	
645.625	0.0809210111	-0.005383873644	
646.25	0.1668201473	0.2467092059	
646.875	0.1905428346	-0.3329398311	
647.5	-0.05775635823	0.1691980299	
648.125	0.3089342138	-0.05551812833	
648.75	0.1065946862	-0.07686394065	
649.375	0.4306619014	-0.1026163229	
650.0	0.1239315765	-0.5137850696	
650.625	0.04013747437	-0.1647856797	
651.25	0.3706536153	-0.1746805779	
651.875	0.2818436199	-0.3948010344	
652.5	0.1151451624	-0.02218490163	
653.125	0.4322077738	-0.05233370897	
653.75	0.1019657536	-0.3698535374	
654.375	-0.05353806312	-0.1163352724	
655.0	-0.3479490689	-0.2685259064	
655.625	-0.1078912067	0.3335929101	
656.25	0.01123352077	0.02591481409	
656.875	-0.01609303589	0.3085712643	
657.5	0.07956730205	-0.05905973682	
658.125	0.005410554436	0.3186897441	
658.75	0.5335394765	-0.06132334886	
659.375	0.1599159383	-0.1494129414	
660.0	0.4312700784	-0.1823410419	
660.625	0.1431906423	-0.5390059417	
661.25	0.009878319453	-0.154379705	
661.875	0.3551704677	-0.2050782992	
662.5	0.2558145135	-0.3508343642	
663.125	0.1500948145	-0.1544454429	
663.75	0.3483191495	-0.2871976019	
664.375	-0.1866686637	-0.3880287179	
665.0	-0.167105431	-0.1483107302	
665.625	-0.4200283126	0.01732680623	
666.25	-0.02666755674	0.3688794691	
666.875	0.04275182784	0.07737119897	
667.5	0.2395673651	0.2136199502	
668.125	0.2071905018	-0.1193906442	
668.75	0.1678738346	-0.03419481404	
669.375	0.2505813345	-0.3944828014	
670.0	-0.1416983677	-0.1740900014	
670.625	0.1060977684	-0.1487103659	
671.25	0.04183105093	-0.3423120104	
671.875	-0.01741826336	-0.08352489318	
672.5	0.3664494709	-0.07333758354	
673.125	0.2187140197	-0.3155289457	
673.75	0.07636476428	-0.1549761509	
674.375	0.1605040889	-0.2933088952	
675.0	-0.2054688484	-0.3409342623	
675.625	-0.1082498519	-0.01057567413	
676.25	-0.222597801	-0.1665224005	
676.875	-0.168845657	0.1359786027	
677.5	-0.03694642098	-0.04581282479	
678.125	-0.2951126918	0.1908788774	
678.75	0.1933260201	0.2148177011	
679.375	0.04338818311	0.0851602951	
680.0	0.3166778606	-0.05333954365	
680.625	-0.07590103623	-0.2376868114	
681.25	0.1135593831	0.2472718458	
681.875	0.3154806446	-0.05301551204	
682.5	-0.06960002954	0.01895383467	
683.125	0.2230113185	0.2935433684	
683.75	0.4870143072	-0.02247634118	
684.375	-0.02826135044	0.1803298035	
685.0	0.4191513706	0.2129111304	
685.625	0.3673651748	-0.1548858556	
686.25	0.1104503379	0.002240188224	
686.875	0.5268823043	-0.204309892	
687.5	0.05145142037	-0.3558537147	
688.125	0.1062464088	-0.3214337129	
688.75	-0.5130874519	-0.3513252392	
689.375	-0.201835067	0.440989753	
690.0	-0.07945498592	0.2080291302	
690.625	0.3084407218	0.4582396204	
691.25	0.3207561741	0.07568452412	
691.875	0.2934187692	0.4523460336	
692.5	0.8677534464	0.248347721	
693.125	0.3535118683	-0.1486787953	
693.75	0.6567833173	-0.04308775743	
694.375	0.5862746282	-0.5522880121	
695.0	0.21460791	-0.1496327378	
695.625	0.5286470014	0.2009630483	
696.25	0.3088955984	-0.08850293869	
696.875	0.2673112237	0.2878947073	
697.5	0.2731334506	0.606631363	
698.125	0.7426642114	0.2081276725	
698.75	0.5315776413	-0.5160313816	
699.375	-0.3083379991	-0.5629078513	
700.0	-0.3878102791	0.402456268	
700.625	0.1895582465	0.158017412	
701.25	0.02903099697	0.3027495977	
701.875	0.4323042544	0.121235195	
702.5	0.1690448641	0.1783834017	
703.125	0.5098990869	0.2587418651	
703.75	0.3997504512	-0.28859829	
704.375	0.1503794531	-0.05572944198	
705.0	0.4264494277	-0.1292676977	
705.625	0.1664487563	-0.08016051412	
706.25	0.153473633	0.2664262876	
706.875	0.3053440592	0.3502599623	
707.5	0.2872129636	0.1726040484	
708.125	0.4449031837	0.0973053422	
708.75	0.3953619316	-0.4599526347	
709.375	-0.4640805051	-0.3844415156	
710.0	-0.1965150229	0.07540769847	
710.625	0.1871875364	0.3144293635	
711.25	-0.001417876227	0.01064021755	
711.875	0.2223229185	0.2574886891	
712.5	0.4014898816	-0.1317936737	
713.125	0.08729292117	-0.1293631751	
713.75	0.2830278041	-0.2602495836	
714.375	-0.07706132013	-0.3280441074	
715.0	-0.005712963498	-0.08564990589	
715.625	0.1199300806	-0.3361083695	
716.25	0.04542335312	-0.3050547398	
716.875	0.293020363	-0.03317784959	
717.5	0.6875277293	0.05854244991	
718.125	0.5742520069	-0.2372092431	
718.75	0.6045956447	0.1427295377	
719.375	1.092142645	-0.6972210087	
720.0	0.2970917843	-1.133435438	
720.625	0.543104783	-0.7173192601	
721.25	-0.1216299996	-1.469500845	
721.875	-0.4704107333	-0.5758188357	
722.5	-0.1642498245	-1.060134843	
723.125	-1.018632451	-0.1066513525	
723.75	-0.1211933709	0.4885147629	
724.375	-0.2248670673	0.4660835656	
725.0	0.5342305434	0.5554811869	
725.625	0.08601695442	0.2348304478	
726.25	-0.1591963581	0.8162322792	
726.875	0.1451047151	1.1633756	
727.5	0.1006170044	0.9010210685	
728.125	-0.7352589272	2.153873192	
728.75	0.4439453828	3.104986564	
729.375	0.1163081015	1.955993523	
730.0	-1.595629828	4.784443932	
730.625	1.975986316	4.729650039	
731.25	-1.029367109	1.920824737	
731.875	-3.814317983	2.933514151	
732.5	-3.842366989	2.831421395	
733.125	-1.211844698	0.008856394287	
733.75	-1.456898123	1.567745739	
734.375	1.14714676	0.1645788429	
735.0	0.08350332142	-0.3482453319	
735.625	-1.098830061	-0.1814481283	
736.25	0.394871043	0.4659355834	
736.875	0.04071765866	0.6929996403	
737.5	1.498275649	0.3204167387	
738.125	0.9700739915	-1.018819009	
738.75	1.251525691	0.06391673944	
739.375	4.199840475	-1.887596121	
740.0	0.761802897	-4.117017367	
740.625	0.4439949406	2.501213805	
741.25	2.888012635	5.726533827	
741.875	1.82711517	0.2241101764	
742.5	-0.6429501367	-5.283322055	
743.125	-0.7891007766	-2.564303129	
743.75	-0.2862734693	-0.1444739126	
744.375	-0.4507542736	-0.4982649311	
745.0	0.3099751649	0.2262811726	
745.625	0.02551858474	0.120176574	
746.25	-0.0856897463	-0.3025486361	
746.875	-0.1462634195	0.08222059554	
747.5	-0.2258016433	0.2864641697	
748.125	0.1876912227	0.6591276806	
748.75	0.2522485386	0.302079923	
749.375	-0.06502352523	0.5142267035	
750.0	-0.417191415	0.4346078705	
