!Created with skrf (http://scikit-rf.org).
# GHz S RI R (50+0j) 
!freq	ReS11	ImS11	
500.0	-0.02137262179	-0.9495053331	
500.625	2.358356948	-3.05979297	
501.25	-3.070808256	-1.524821496	
501.875	-1.226587239	-0.1755487097	
502.5	0.1489017298	-0.4490191757	
503.125	-0.3624172494	0.2083609653	
503.75	-0.02450249478	-0.02646765417	
504.375	0.195332628	-0.02827523676	
505.0	-0.07219038227	0.04075539559	
505.625	0.1057616988	-0.4005331531	
506.25	-0.2252434299	0.3489069787	
506.875	-0.6428613051	-0.9440274258	
507.5	-1.811819182	-1.098584772	
508.125	0.2205878576	-0.206577179	
508.75	2.720803475	-3.437785858	
509.375	-2.577847515	-3.062744142	
510.0	-0.5330406135	-0.9115653082	
510.625	-0.7576564512	0.02812429437	
511.25	-0.1203249897	-0.121698288	
511.875	-0.618691438	-0.06924827683	
512.5	-0.07255672006	0.2387815492	
513.125	-0.003351292908	-0.1542882778	
513.75	-0.04495430618	-0.3274714977	
514.375	-0.7110556193	-0.007086492724	
515.0	1.786058163	0.1579908259	
515.625	-2.56336117	-1.450461975	
516.25	1.16942776	-0.4991707966	
516.875	-1.234643627	-2.703252993	
517.5	-0.6873119129	0.3945555471	
518.125	-0.04014523824	-0.488896781	
518.75	-0.553687982	0.1577017709	
519.375	-0.224398264	-0.00625163357	
520.0	0.4481087363	0.2477613784	
520.625	0.3387639157	-0.2882262854	
521.25	0.3243053429	-0.6240009255	
521.875	-0.5809076291	-0.02369179041	
522.5	0.008040580751	-0.09066788378	
523.125	-0.201232471	0.2511042345	
523.75	-0.2245004507	-0.1384947119	
524.375	-0.3815504446	0.4042021169	
525.0	-0.1842544939	-0.016912305	
525.625	0.1482071242	0.3541070535	
526.25	-0.2035459158	-0.2526991184	
526.875	0.00518316398	0.3165004344	
527.5	-0.187546702	0.1894463923	
528.125	0.006805430124	1.205572062	
528.75	0.532827083	0.4274852064	
529.375	-0.06061284564	0.3849947989	
530.0	0.2347997631	0.1483511548	
530.625	0.1128902985	1.208009902	
531.25	1.005184292	-0.2586599339	
531.875	0.7902027906	0.06519315249	
532.5	-0.5155039661	-0.4107293275	
533.125	0.6324166331	0.01002695896	
533.75	-0.2720050708	-0.6821208934	
534.375	0.2943079652	-0.6622322614	
535.0	-1.165516626	-0.1331945367	
535.625	-0.1293688681	0.1236929328	
536.25	-0.1143605931	0.2785997983	
536.875	0.3520077526	-0.01873510699	
537.5	0.06850894358	-0.01328329821	
538.125	0.4523143298	-0.2064493008	
538.75	0.1247725562	-0.2691576445	
539.375	0.001282968871	-0.5003377952	
540.0	-0.6271074544	-0.3237084455	
540.625	-0.1570396709	-0.04206374269	
541.25	-0.2937800753	-0.06385189805	
541.875	-0.1636492959	-0.004998981624	
542.5	-0.03416678415	-0.02266798329	
543.125	-0.2178370295	-0.2705086092	
543.75	-0.2423550041	0.2520133297	
544.375	-0.1747887213	-0.1321661262	
545.0	0.1363051093	0.2901626904	
545.625	-0.1231284781	0.03928425477	
546.25	0.4975645378	0.1832896618	
546.875	0.02204305659	-0.1297951453	
547.5	0.4115786985	-0.1995409824	
548.125	-0.2738395838	-0.5276776046	
548.75	-0.1945421725	-0.09480033426	
549.375	-0.1850525981	-0.3349990352	
550.0	-0.2701639475	0.1418916457	
550.625	-0.0483938191	-0.1278816598	
551.25	-0.2572926352	0.2038789071	
551.875	-0.1023090814	0.04357047255	
552.5	-0.1958853249	0.2500735714	
553.125	0.01929405323	0.133532819	
553.75	0.08161207647	0.1355362099	
554.375	0.2563703864	0.003204218936	
555.0	0.2187557375	-0.1722198661	
555.625	0.2174321969	-0.2378829283	
556.25	0.1694675702	-0.3532868575	
556.875	-0.08451502617	-0.3782972842	
557.5	-0.2184609241	-0.2488066562	
558.125	-0.284402168	-0.1100524135	
558.75	-0.2579232158	0.007682173742	
559.375	-0.2313076429	0.01670750851	
560.0	-0.2767172952	0.1758620866	
560.625	-0.07287987173	0.2887727084	
561.25	-0.03006099804	0.1608098292	
561.875	0.1238133873	0.1846971712	
562.5	-0.04671686616	0.0285703389	
563.125	0.2567116966	0.2567936239	
563.75	0.1934548447	-0.07979727165	
564.375	0.4145205109	-0.09336628587	
565.0	0.1397857146	-0.4994611391	
565.625	-0.09242153304	-0.2130868592	
566.25	-0.1507628992	-0.3347920616	
566.875	-0.4819300714	-0.2080786732	
567.5	-0.2096016593	-0.08745975405	
568.125	-0.2605478961	-0.594967627	
568.75	-0.6527967776	-0.02688529251	
569.375	-0.4176475291	-0.007361345071	
570.0	-0.4761596149	0.6863056704	
570.625	0.1191549746	0.3475520168	
571.25	-0.3242470866	0.1461321174	
571.875	0.517323297	0.2258741523	
572.5	-0.06453521272	0.1222293769	
573.125	0.5416833341	-0.3234846688	
573.75	-0.1355598149	-0.4304405049	
574.375	0.1809138996	0.1229950068	
575.0	-0.0230067804	-0.4251591716	
575.625	0.1746270464	0.1447042057	
576.25	0.2881196952	-0.4981758652	
576.875	-0.2920446656	-0.2635674311	
577.5	0.2276827151	-0.1374121585	
578.125	-0.02884715341	-0.6366450558	
578.75	-0.3964312535	-0.1997813633	
579.375	-0.001570984671	-0.01975991992	
580.0	-0.2291530123	-0.3284975104	
580.625	0.005823742105	0.1583217425	
581.25	-0.4960573276	-0.031757232	
581.875	0.2015385802	0.5597586986	
582.5	0.1453903656	-0.03416598455	
583.125	-0.1676410529	0.4493456224	
583.75	0.5458761529	-0.1802126214	
584.375	-0.348115903	0.3674610455	
585.0	0.6232937601	0.07111743102	
585.625	-0.007758670108	-0.06532423881	
586.25	0.6516383503	0.06762281593	
586.875	-0.1026501624	-0.4713629176	
587.5	0.1984499267	-0.1230866596	
588.125	0.007285736503	-0.604806718	
588.75	-0.2143082674	-0.2906213712	
589.375	0.4143519586	-0.05811706388	
590.0	-0.18677449	-0.6310406096	
590.625	-0.3878172114	0.01985540545	
591.25	-0.2745799267	0.07393007175	
591.875	-0.2429543969	0.4089364693	
592.5	0.1371610302	-0.05972786061	
593.125	-0.1132776639	0.2648364168	
593.75	0.1297306325	0.1166804897	
594.375	0.1354181611	0.4377040012	
595.0	0.7575857048	0.3946966045	
595.625	0.1865913095	-0.2385499871	
596.25	0.2623448251	0.5533290103	
596.875	0.6868539805	-0.1243015876	
597.5	0.01337799889	0.1588150578	
598.125	0.5376848724	0.5390297723	
598.75	0.2671930633	-0.03069039722	
599.375	0.5885601521	0.2871009083	
600.0	0.3571716386	-0.6207757132	
600.625	0.1632837353	-0.2501614825	
601.25	0.3709625588	-0.3501869576	
601.875	-0.2715397254	-0.4515920571	
602.5	-0.2444854163	-0.01615012311	
603.125	-0.187131981	0.07295140003	
603.75	-0.3939364788	0.07896777078	
604.375	-0.08721725424	0.3194666963	
605.0	-0.2601798454	-0.0405728889	
605.625	-0.2048958198	0.3486331502	
606.25	-0.1447885176	-0.08827870803	
606.875	-0.7155920652	0.2998200886	
607.5	0.01093501879	0.3850471407	
608.125	-0.520146811	0.3867088479	
608.75	0.8656807447	0.4968244962	
609.375	0.1724658499	-0.0249729889	
610.0	0.6703474508	-0.2035418224	
610.625	-0.07354636763	-0.4545559703	
611.25	0.3335216503	-0.2497011939	
611.875	-0.4156456339	-0.2815886886	
612.5	-0.115901756	-0.2569726373	
613.125	-0.6493816879	0.0513578321	
613.75	0.04904517034	0.2248994947	
614.375	-0.06809779775	0.4887530008	
615.0	0.203980119	-0.1412182787	
615.625	-0.2092882852	0.4055205966	
616.25	0.2964186093	0.2856497469	
616.875	-0.4754297628	0.2127973102	
617.5	-0.1399027004	0.8335482425	
618.125	0.1192011959	0.2480765558	
618.75	-0.2128206317	0.6243335994	
619.375	0.4009945254	0.2958899105	
620.0	0.2721735298	0.2354378763	
620.625	0.3055563859	-0.4765777666	
621.25	-0.1132394924	-0.3410436379	
621.875	-0.5905808036	-0.2596713757	
622.5	-0.3539543387	0.1208852256	
623.125	-0.2493438242	0.4141554123	
623.75	0.4363000207	-0.114569113	
624.375	0.1182905079	0.2108352802	
625.0	-0.08198879451	-0.3345715812	
625.625	0.2734243129	0.06832178735	
626.25	-0.2322534245	-0.6584238837	
626.875	-0.2826761468	0.1297866329	
627.5	-0.1994617276	-0.4121103103	
628.125	-0.4646680645	-0.04359909479	
628.75	0.06620755973	-0.1783374411	
629.375	-0.2749619903	-0.5833024076	
630.0	-0.3387025266	0.0250291886	
630.625	-0.5591750183	-0.09452050275	
631.25	-0.4614095578	0.5647774191	
631.875	0.06752244168	0.5246815755	
632.5	0.2410603574	0.3873430222	
633.125	0.3952807539	0.2950843311	
633.75	0.5131252812	-0.3120203189	
634.375	0.07013992339	-0.1177784011	
635.0	0.115587816	-0.5352308791	
635.625	-0.3474597609	0.06328133874	
636.25	-0.4818823224	-0.104691127	
636.875	-0.08965252507	0.5523918468	
637.5	0.04087864889	-0.05839135125	
638.125	-0.5932485675	0.3884334208	
638.75	0.3748890424	0.3529244943	
639.375	-0.3964451319	0.2975146055	
640.0	0.319015217	0.9199672747	
640.625	0.7025998376	0.1087850326	
641.25	0.2616041064	0.1643247962	
641.875	0.6692178181	-0.7483618253	
642.5	-0.171394303	-0.152725918	
643.125	-0.07896495114	-0.6197309815	
643.75	-0.6978861243	0.115521061	
644.375	0.08315825183	-0.2635512099	
645.0	-0.7055122401	0.4096507349	
645.625	0.3231775844	0.5984339826	
646.25	0.3064643476	-0.13648169	
646.875	0.1316637739	0.4475008746	
647.5	0.2272602943	-0.534568953	
648.125	0.2863784225	0.6428668291	
648.75	0.864307998	-0.5523878727	
649.375	0.005971383479	-0.2277033399	
650.0	1.215036872	-0.6446528852	
650.625	-0.1357809491	-1.237260784	
651.25	0.08621473786	0.1151278772	
651.875	1.309182895	-0.2375030631	
652.5	0.4860946571	-0.8209768567	
653.125	0.2298662115	0.1803869338	
653.75	0.8624284715	-0.7567184629	
654.375	-0.5253050956	-0.469235403	
655.0	-0.1795743381	-0.5037817974	
655.625	-0.9019667753	0.7554802274	
656.25	0.4312073492	0.09921708312	
656.875	-0.2674100757	0.2536847156	
657.5	0.4141874344	0.2912536673	
658.125	0.09358316869	0.08257263757	
658.75	0.7044356193	0.6681267736	
659.375	0.7928797552	-0.6953280886	
660.0	0.2776567878	-0.4318645672	
660.625	0.7792288407	-0.6509081834	
661.25	0.01402853538	-1.204048048	
661.875	0.3272487026	0.0329515334	
662.5	1.173904118	-0.5376976215	
663.125	0.3394272348	-0.8672060307	
663.75	0.3306504552	-0.09331753035	
664.375	0.02599530122	-1.281177701	
665.0	-0.5977488089	-0.0023564789	
665.625	-0.7888482607	-0.2555213365	
666.25	-0.1865650007	0.9996007862	
666.875	0.1793346364	0.06892232135	
667.5	0.4348385989	0.5820167148	
668.125	0.6801990219	-0.2460022215	
668.75	0.160550537	-0.2618821138	
669.375	0.4753803407	-0.3490503329	
670.0	-0.06220495115	-0.7874813747	
670.625	-0.04512804172	-0.1702925742	
671.25	0.3253595299	-0.4686183088	
671.875	0.1312895582	-0.5665422698	
672.5	0.4151803043	-0.01288310307	
673.125	0.6782019198	-0.6373106765	
673.75	0.02439946637	-0.5616582939	
674.375	0.3172686039	-0.2088768459	
675.0	-0.05073438109	-1.059417235	
675.625	-0.8243896253	0.2039399421	
676.25	0.04328975967	-0.5101959147	
676.875	-0.7934429537	0.2769504373	
677.5	0.1471942478	-0.06345107186	
678.125	-0.9026732829	0.4560394193	
678.75	0.5694837758	0.2611015272	
679.375	0.1406253042	0.4321978408	
680.0	0.7341782381	-0.1738713026	
680.625	-0.08905247237	-0.5701533592	
681.25	0.07066021328	0.486205617	
681.875	0.6895007172	0.0179146464	
682.5	0.4421067275	-0.0004859335091	
683.125	0.2903361791	0.125122448	
683.75	0.8840016759	0.528260984	
684.375	0.4959009489	-0.4093374523	
685.0	0.4342177396	0.4905908751	
685.625	1.157626797	-0.09668371383	
686.25	-0.05217216477	-0.2803412987	
686.875	1.562189514	0.2176797786	
687.5	-0.04587747043	-1.54392382	
688.125	0.5021086513	-0.1834470715	
688.75	-1.330618199	-1.09631992	
689.375	-0.1644511007	1.144596389	
690.0	-0.5430259138	0.6296585236	
690.625	1.121437128	0.589649861	
691.25	0.297636622	0.4429015934	
691.875	1.203307495	1.146229564	
692.5	1.463544662	0.1038882093	
693.125	1.334277135	0.08426598929	
693.75	1.446168652	-0.6173003014	
694.375	1.029439253	-0.8640436072	
695.0	1.092971574	-0.9192337495	
695.625	0.7755272414	-0.2225918476	
696.25	1.550150175	0.8355610472	
696.875	1.257780814	0.1808827144	
697.5	0.2570755903	1.398152339	
698.125	2.130038646	0.3536188563	
698.75	0.3956121468	-0.4935562299	
699.375	-0.7790887873	-1.762104241	
700.0	-0.3755706688	1.3292492	
700.625	-0.4066523406	0.3489660094	
701.25	1.10874839	0.5826204335	
701.875	0.2124106857	0.3239766908	
702.5	0.9359515228	1.008592619	
703.125	0.8702031677	-0.2169111529	
703.75	0.9052913505	0.1551819963	
704.375	0.6932295714	-0.8961570105	
705.0	0.234474936	-0.03105183676	
705.625	1.238107782	-0.02330037261	
706.25	0.228718347	-0.09458008414	
706.875	0.2790938907	1.193990688	
707.5	1.280253801	0.6840500311	
708.125	0.5367119364	0.3936213843	
708.75	1.148999387	-1.122533773	
709.375	-0.8800841005	-0.367421016	
710.0	-0.6382420961	0.2015537883	
710.625	0.4016425948	0.6132579446	
711.25	-0.04536640144	0.1669870091	
711.875	0.620110174	0.4041469976	
712.5	0.6373896244	-0.03533323883	
713.125	0.7716405265	-0.5752133078	
713.75	-0.004256092926	-0.3745533872	
714.375	0.4057620752	-0.7043788664	
715.0	-0.5462529567	-0.4330247509	
715.625	0.4868064128	-0.1356565669	
716.25	0.3918682189	-1.314722683	
716.875	0.04900289966	0.05961954445	
717.5	2.135413598	0.4996880937	
718.125	2.043788113	-1.620630175	
718.75	0.3186854762	1.49781214	
719.375	3.918750411	-2.121345849	
720.0	-0.2970125848	-1.671489973	
720.625	1.172528459	-1.57680347	
721.25	-0.002609453548	-3.914204141	
721.875	-1.07868802	-1.239544566	
722.5	-1.131144982	-2.915252703	
723.125	-2.3895316	-0.076886353	
723.75	-0.3838402823	0.821368935	
724.375	-0.4184176447	1.173465284	
725.0	0.874695681	0.9949581921	
725.625	0.4701912632	0.6113095915	
726.25	-0.4508607245	1.51376174	
726.875	-0.270225333	3.350848999	
727.5	1.85844737	1.973313433	
728.125	-4.21458283	6.253622248	
728.75	3.502694291	10.52852208	
729.375	0.3587270882	1.504806364	
730.0	-10.46410399	16.31402079	
730.625	16.29306332	12.58193732	
731.25	-8.64465643	3.515112223	
731.875	-11.18564976	10.13735975	
732.5	-6.316387505	8.158443512	
733.125	-3.191401289	-2.257887284	
733.75	-3.51787678	5.353441272	
734.375	2.016149567	0.3739908444	
735.0	0.735743802	-0.7155197396	
735.625	-2.221489712	0.8735928323	
736.25	0.05029585144	0.03190252138	
736.875	0.6799859017	2.308658244	
737.5	3.566861765	0.2678930726	
738.125	3.100894891	-3.340725209	
738.75	1.33372343	1.496392045	
739.375	16.5525745	-2.8673866	
740.0	0.2803174916	-12.57007413	
740.625	1.025873392	17.36659449	
741.25	34.9199749	1.172320122	
741.875	29.02211437	-19.84695362	
742.5	-9.329692815	-9.804132983	
743.125	-5.517351081	-2.167432771	
743.75	2.510204986	0.2787427391	
744.375	-2.350029566	-0.777837476	
745.0	0.6309425516	0.02887406767	
745.625	0.2015137854	0.3014907991	
746.25	-0.3703909646	-0.3906431173	
746.875	-0.2319143991	-0.1192457078	
747.5	-0.3805299321	1.07629771	
748.125	0.5696670825	1.01448449	
748.75	0.4760942702	0.9639149579	
749.375	0.5761003897	1.078340873	
750.0	-0.3232138657	0.2464594348	
