!Created with skrf (http://scikit-rf.org).
# GHz S RI R (50+0j) 
!freq	ReS11	ImS11	
500.0	-1.538152914	-3.721911519	
500.625	-0.1473766596	-1.781738228	
501.25	-0.2038136813	-1.783052163	
501.875	-1.823411753	-1.702487713	
502.5	-0.2454743909	-0.0008487839171	
503.125	-0.3364014082	-0.06095356649	
503.75	0.2856827125	0.1128565231	
504.375	0.09955488532	0.07865854636	
505.0	-0.05146725153	-0.1671426682	
505.625	0.2499034409	-0.006402804875	
506.25	-0.6837293705	-0.3527284167	
506.875	0.5632019349	0.0981494796	
507.5	0.3008765383	-2.106056748	
508.125	-1.091754537	-2.498319159	
508.75	1.689836398	-0.8400517243	
509.375	-2.712492112	-4.981491255	
510.0	-0.935291219	0.3306162294	
510.625	-0.5386093126	-0.9006408102	
511.25	-0.3201675389	0.2500258586	
511.875	-0.4286835388	-0.2789284021	
512.5	-0.1060196541	0.1575758334	
513.125	-0.09395625408	-0.3081236168	
513.75	-0.1512268559	0.01229215072	
514.375	-0.1944334709	-0.4478257006	
515.0	-0.5919290228	1.013918063	
515.625	0.6606900269	-3.667562231	
516.25	-2.657492084	-0.06137201463	
516.875	0.9897078754	-1.506558102	
517.5	-0.8684916544	-1.079583126	
518.125	0.3186965504	0.0828563914	
518.75	-0.6532320423	-0.8270733247	
519.375	0.01561155998	0.1269092671	
520.0	0.2572147248	0.3769643997	
520.625	0.5544617335	-0.4156347038	
521.25	-0.1763396075	-0.3857973239	
521.875	-0.4057631459	-0.3573700793	
522.5	-0.01442868593	0.2075360532	
523.125	-0.3573047544	0.01524886772	
523.75	-0.06076277807	0.09207442097	
524.375	-0.7063811142	-0.09080821987	
525.0	0.3168232112	0.3453297824	
525.625	-0.1395175082	0.105002095	
526.25	0.195151714	-0.08092675162	
526.875	-0.3753658714	0.1927527169	
527.5	0.2452219102	0.5422379506	
528.125	-0.2667037349	0.551224994	
528.75	0.193624003	1.132179795	
529.375	-0.0525068247	-0.02024101356	
530.0	0.5155710744	0.6884594585	
530.625	-0.1372358612	0.529013364	
531.25	1.744770717	0.4024831696	
531.875	0.05353247739	-0.4646740551	
532.5	0.09647950883	-0.5534327857	
533.125	-0.1978344619	0.3077937545	
533.75	0.4625569238	-1.018677092	
534.375	-0.5017110946	-0.150792128	
535.0	-0.4648583017	-0.7348923979	
535.625	-0.44234319	0.6624175297	
536.25	0.0006651709909	0.1058229848	
536.875	0.3116108375	0.1617544367	
537.5	0.09154401014	-0.2169370179	
538.125	0.3655059911	0.09411829584	
538.75	0.250898743	-0.5320808568	
539.375	-0.0441967551	-0.2386269602	
540.0	-0.3978634561	-0.5960110707	
540.625	-0.483040483	0.1282705236	
541.25	-0.1410152255	0.01825363843	
541.875	-0.04721719066	-0.1270631876	
542.5	-0.2724658078	-0.1056421827	
543.125	0.02748068742	-0.07228907888	
543.75	-0.4049114495	-0.06202431689	
544.375	0.1057998981	0.07035589799	
545.0	-0.1490588852	0.2653009148	
545.625	0.236785218	-0.04770834903	
546.25	0.04593217661	0.3398847053	
546.875	0.4500493041	-0.3487792068	
547.5	0.03988064857	-0.06799206522	
548.125	0.1000628754	-0.503109357	
548.75	-0.4967997125	-0.2775199093	
549.375	-0.09630289911	-0.04044202446	
550.0	-0.3286878153	-0.09668908899	
550.625	0.002935867572	0.09179586791	
551.25	-0.3107506075	-0.02633160613	
551.875	-0.07725628692	0.2814487221	
552.5	-0.1457466062	0.0805894425	
553.125	-0.04526038833	0.2146024603	
553.75	0.1170457939	0.08710103416	
554.375	0.2228931608	0.03376127546	
555.0	0.2551184754	-0.1866736057	
555.625	0.1986605612	-0.25190745	
556.25	0.1761487684	-0.3411916851	
556.875	-0.08893016735	-0.3931617591	
557.5	-0.2338682597	-0.2433593386	
558.125	-0.2605511763	-0.1071811227	
558.75	-0.2834431061	-0.02433031228	
559.375	-0.249672511	0.07988163457	
560.0	-0.2215590826	0.1252230539	
560.625	-0.1676156903	0.3079052868	
561.25	0.0971832442	0.1968659675	
561.875	-0.02195450948	0.1573998889	
562.5	0.1223964064	0.05514648622	
563.125	0.05786354912	0.2568666764	
563.75	0.4537686157	-0.06434894568	
564.375	0.1197725136	-0.1897459481	
565.0	0.3376494057	-0.2885490581	
565.625	-0.1764464508	-0.447208246	
566.25	-0.2095521719	-0.1300724741	
566.875	-0.2742981052	-0.3293012794	
567.5	-0.5021089301	-0.1939015006	
568.125	-0.1196566483	-0.3163649669	
568.75	-0.709782336	-0.3289276474	
569.375	-0.4040594427	0.3654228726	
570.0	-0.4109059626	0.2102708799	
570.625	-0.282086474	0.7450078419	
571.25	0.2276739428	0.005150259448	
571.875	-0.04662622287	0.5060192163	
572.5	0.3387035519	-0.3649890512	
573.125	0.1971008485	0.1069059171	
573.75	0.31338928	-0.5619711644	
574.375	-0.250762768	-0.0269285562	
575.0	0.4090880447	-0.1046654657	
575.625	-0.2192388611	-0.2640486141	
576.25	0.2788602396	0.06790722789	
576.875	0.03365892355	-0.6242503803	
577.5	-0.2585270508	-0.3099595832	
578.125	0.1087792031	-0.2294295054	
578.75	-0.2016147448	-0.5355785637	
579.375	-0.3246720478	0.05189097703	
580.0	0.09578265915	-0.1797289108	
580.625	-0.3860161661	0.03896261022	
581.25	-0.001121524648	0.004183623222	
581.875	-0.3327976271	0.4661931253	
582.5	0.4570931581	0.5354703175	
583.125	0.0539201439	-0.237740744	
583.75	0.0588269626	0.5602849483	
584.375	0.04862820259	-0.3598846822	
585.0	0.2316928749	0.5899892111	
585.625	0.4727185476	-0.3574761415	
586.25	0.06097323134	0.1565206223	
586.875	0.4768612048	-0.5499505327	
587.5	-0.3320886983	-0.1940961877	
588.125	0.2293839846	-0.1838824729	
588.75	0.2041665747	-0.6051690353	
589.375	-0.09933705436	-0.318596038	
590.0	0.1163982828	-0.3749737964	
590.625	-0.6068277939	-0.1724585413	
591.25	-0.1723034252	0.239277074	
591.875	-0.243904875	0.1973731354	
592.5	0.13704863	0.2109610921	
593.125	-0.2658857546	0.05530992756	
593.75	0.2714028324	0.3581747489	
594.375	0.2833853233	0.0002284540005	
595.0	0.06146769148	0.4647852304	
595.625	0.9107896807	0.3698549787	
596.25	0.008828692651	-0.1745693528	
596.875	0.4955620756	0.5074871255	
597.5	0.5041454911	-0.1236679331	
598.125	-0.04979602028	0.5104452011	
598.75	0.8018314545	0.1261225181	
599.375	0.1829790347	-0.02695102781	
600.0	0.646648674	-0.15610706	
600.625	0.3528125135	-0.6299998383	
601.25	0.02010248428	-0.284482503	
601.875	-0.03108545884	-0.4044028656	
602.5	-0.3095177895	-0.0377053251	
603.125	-0.2781831901	0.1475907476	
603.75	-0.207938997	0.08354383748	
604.375	-0.3520169685	0.1512660364	
605.0	-0.03466009775	0.2181094783	
605.625	-0.3122873546	0.02790772746	
606.25	-0.1674627674	0.3315450703	
606.875	-0.3172176533	-0.1487802949	
607.5	-0.7031534285	0.7910523364	
608.125	0.1803816949	0.2295406577	
608.75	0.1014711348	0.7367379426	
609.375	0.7540580043	-0.4485788774	
610.0	0.2254648239	0.1086860086	
610.625	0.4443352183	-0.6212879245	
611.25	-0.2023245984	-0.1398743289	
611.875	0.008699911915	-0.6399257683	
612.5	-0.4126719771	0.1782665664	
613.125	-0.4084010756	-0.2482126196	
613.75	-0.2680716498	0.594838218	
614.375	-0.01397646488	-0.05313497202	
615.0	0.291471744	0.3625200474	
615.625	-0.1704898807	-0.1309211324	
616.25	-0.299595354	0.6120049814	
616.875	0.2079471583	0.3839790171	
617.5	-0.5114606699	0.3268003089	
618.125	0.1127791881	0.7553435925	
618.75	0.06822133878	0.1646342075	
619.375	0.1352860529	0.6537816854	
620.0	0.400822543	-0.05694001092	
620.625	0.4006837781	-0.2338669222	
621.25	-0.3152757594	-0.4211592565	
621.875	-0.3230829776	-0.2727591058	
622.5	-0.6129484764	0.2012535088	
623.125	-0.09564340895	0.2434152496	
623.75	0.3981034109	0.332101132	
624.375	-0.1731192792	-0.2806183153	
625.0	0.5218284387	0.09555795452	
625.625	-0.3542379803	-0.2408143075	
626.25	0.2800198419	-0.2840387031	
626.875	-0.618705432	-0.3049586094	
627.5	-0.07689530905	0.1452928062	
628.125	-0.2770252901	-0.560321314	
628.75	-0.3405910885	-0.01911144605	
629.375	0.0898545436	-0.4329657655	
630.0	-0.6345526667	-0.3232240686	
630.625	-0.3628068674	0.3304281878	
631.25	-0.3721443115	0.2128295819	
631.875	-0.1406173163	0.6775913178	
632.5	0.3638748455	0.5059063226	
633.125	0.4258123308	0.02815857017	
633.75	0.4526095193	0.08060351699	
634.375	-0.01333149955	-0.4182501828	
635.0	0.1278724782	-0.2826698155	
635.625	-0.475849954	-0.2985383411	
636.25	-0.1032824959	0.2190340255	
636.875	-0.5042680166	0.1327961543	
637.5	0.1518957848	0.5285688456	
638.125	-0.1128404344	-0.2687760679	
638.75	-0.482712313	0.7102524998	
639.375	0.3637838571	0.5399919971	
640.0	-0.04194673196	0.3497868571	
640.625	0.7447751356	0.6345992512	
641.25	0.4845200647	-0.3218110194	
641.875	0.6054704984	-0.025156471	
642.5	-0.3879200865	-0.8369378772	
643.125	-0.02695434482	0.01459389027	
643.75	-0.3064289769	-0.5879928489	
644.375	-0.5537675676	0.3167022289	
645.0	-0.045712038	0.1817288193	
645.625	-0.2943766515	0.5515895362	
646.25	0.7527878637	0.2058233726	
646.875	-0.1035493244	-0.2263618497	
647.5	0.4548293078	0.4317423649	
648.125	-0.099640502	-0.2621601994	
648.75	0.9817586577	0.3024958321	
649.375	0.4372334636	-1.092635796	
650.0	-0.07363536272	-0.215727881	
650.625	1.172067935	-0.474207028	
651.25	0.1210412248	-1.380157704	
651.875	0.09187705276	0.1607475935	
652.5	1.245949749	0.0003421788384	
653.125	0.4194263419	-0.7520458063	
653.75	0.4226984711	0.08846346692	
654.375	-0.1870977065	-1.22471576	
655.0	-0.6704833678	0.2038157575	
655.625	-0.3377391669	-0.1003073251	
656.25	-0.1102635989	0.9054057306	
656.875	0.3265223439	-0.3301539632	
657.5	-0.106268275	0.5983625364	
658.125	0.5762786799	0.2684034584	
658.75	0.4005847508	0.04922826926	
659.375	1.048384733	0.07405112644	
660.0	0.3513738761	-1.121182602	
660.625	0.1669778349	-0.3457389749	
661.25	0.8022232965	-0.6124370307	
661.875	0.4116057021	-1.172224072	
662.5	0.0392860759	-0.02227241383	
663.125	1.270551916	-0.4077854679	
663.75	-0.1130621906	-0.8632627689	
664.375	0.3342529486	-0.4223090757	
665.0	-1.086908529	-0.7798943973	
665.625	-0.2423118838	0.3130296109	
666.25	-0.6424118908	0.4648961892	
666.875	0.471783042	0.7110954647	
667.5	0.3401577133	-0.1216683498	
668.125	0.4471758204	0.3894180286	
668.75	0.5699634274	-0.629287052	
669.375	0.05184093331	-0.3805586871	
670.0	0.2562375025	-0.4702066841	
670.625	-0.2113624361	-0.6254194092	
671.25	0.2644621083	-0.1296421493	
671.875	0.390007267	-0.5712633535	
672.5	0.304166891	-0.4574579864	
673.125	0.3138590905	-0.09449870744	
673.75	0.9114369454	-0.5529098091	
674.375	-0.4473377472	-0.8660704463	
675.0	0.2661269506	-0.1136363307	
675.625	-0.6352096166	-0.7591036127	
676.25	-0.3901414474	0.5350243122	
676.875	-0.3509390542	-0.6864054338	
677.5	-0.3859566934	0.6827263544	
678.125	-0.2088876067	-0.2099179834	
678.75	-0.1490821419	1.099883792	
679.375	0.6777085669	-0.3398346954	
680.0	0.04864368088	0.1119027387	
680.625	0.5106357446	-0.143630802	
681.25	0.147920057	-0.3382010968	
681.875	0.03902439201	0.2809079649	
682.5	0.7407848332	0.3665804449	
683.125	0.4877104548	-0.04908893325	
683.75	0.419364429	0.2117813319	
684.375	0.9450448234	0.2903471269	
685.0	0.408622964	-0.3123345357	
685.625	0.636832754	0.5577694499	
686.25	1.202406398	-0.4921738397	
686.875	-0.1528924687	-0.2710638982	
687.5	1.516008378	-0.2597600685	
688.125	-1.002568396	-1.570074816	
688.75	0.0313263449	-0.4378489667	
689.375	-1.435360565	1.068584509	
690.0	0.7743715516	0.4376852306	
690.625	-0.05194803775	1.200867449	
691.25	1.274092927	0.2080999569	
691.875	0.5754618006	0.6892769919	
692.5	1.549490141	0.7659769441	
693.125	1.602223346	-0.3072410521	
693.75	1.265879081	-0.4165918033	
694.375	0.9550292087	-1.006247779	
695.0	1.032625805	-0.3864844551	
695.625	1.437376389	-0.5455504414	
696.25	0.6635165612	0.2388976794	
696.875	1.223420668	1.58031799	
697.5	1.201060089	0.3692206381	
698.125	0.9369178567	1.218725173	
698.75	1.355099272	-1.801395556	
699.375	-0.5067050485	-0.07046009149	
700.0	-1.582118802	0.7648385471	
700.625	0.8969693604	0.5001369315	
701.25	-0.1096027561	0.7783140874	
701.875	1.29783516	0.3860599127	
702.5	0.2551818719	0.5002317068	
703.125	1.346443265	0.5657093988	
703.75	0.5192830189	-0.6036045247	
704.375	1.008018949	0.02909503783	
705.0	0.4718955024	-0.8659044458	
705.625	0.1029618922	0.3535174876	
706.25	1.320316383	0.7147429023	
706.875	0.3052629656	0.0169871066	
707.5	0.4383856914	1.349122183	
708.125	1.533678803	-0.1843039793	
708.75	0.5409921702	-0.2458724069	
709.375	-0.8870700532	-1.248816015	
710.0	-0.08932211918	0.697155436	
710.625	-0.2574431253	0.4265517853	
711.25	0.4337537865	0.2209079952	
711.875	0.4182135927	0.3460730402	
712.5	0.7338956336	-0.1033435679	
713.125	0.6267676922	-0.1644354121	
713.75	0.4100684396	-0.8729184914	
714.375	-0.1781671229	-0.1560011357	
715.0	0.2316089114	-0.8873232069	
715.625	-0.4128135333	-0.3286092609	
716.25	0.8621715093	-0.07819394279	
716.875	1.277912132	-1.373506472	
717.5	-0.2903730438	-0.03660837266	
718.125	2.872584965	1.227155319	
718.75	2.308833899	-1.774482959	
719.375	0.4317049108	0.2625460921	
720.0	3.008893052	-3.479231006	
720.625	-1.149329535	-1.772720971	
721.25	0.8891495651	-2.73224435	
721.875	-1.101761894	-3.346302199	
722.5	-1.386863383	-0.7521081794	
723.125	-1.843374119	-1.282935178	
723.75	-1.081648417	1.621701051	
724.375	0.2731672155	0.8170447011	
725.0	0.1478724358	0.6916341699	
725.625	0.352619488	1.684299923	
726.25	1.094209743	1.157161699	
726.875	-1.218990944	1.774382838	
727.5	-0.2627414872	5.035320773	
728.125	2.317981408	2.759605048	
728.75	-8.08979896	9.17971299	
729.375	5.055139945	15.10546088	
730.0	2.280384875	1.254305799	
730.625	-10.0400047	13.27627523	
731.25	7.866658774	14.68386228	
731.875	-4.171671489	-1.388782277	
732.5	-14.31218092	2.195846181	
733.125	-6.96613707	4.021795357	
733.75	-1.431345637	0.876133645	
734.375	3.583220325	2.207731866	
735.0	-0.513890554	-0.7377631354	
735.625	-0.8763059936	-0.3787064285	
736.25	-0.3234931023	2.278147565	
736.875	1.660198091	0.2141254716	
737.5	1.195092733	1.509767885	
738.125	5.838852933	-0.8252809736	
738.75	3.365294977	-6.087010949	
739.375	-0.5923779306	1.131406718	
740.0	24.38171257	-2.041775298	
740.625	1.076010968	-13.89631051	
741.25	-5.931889053	21.31570617	
741.875	-4.598177678	16.28653281	
742.5	12.7786143	-0.2244574803	
743.125	3.600268595	-10.87678049	
743.75	-3.253307877	-1.835755459	
744.375	0.02773252188	-0.1464858586	
745.0	-0.2621358845	0.803001241	
745.625	-0.3085158981	-0.09232290279	
746.25	0.1438505649	-0.4114624185	
746.875	-0.7746363505	0.09360678688	
747.5	-0.06021358438	0.5480673217	
748.125	0.5210075267	2.076549099	
748.75	1.018732035	1.385796537	
749.375	-0.232270955	0.5862369353	
750.0	0.4839168582	0.4094356195	
