!Created with skrf (http://scikit-rf.org).
# GHz S RI R (50+0j) 
!freq	ReS11	ImS11	
500.0	0.5672080791	-3.88175471	
500.625	-1.051087154	-3.063211826	
501.25	-0.3872650895	-0.6735993852	
501.875	-0.7345344378	-2.250277413	
502.5	-0.4959449201	-0.01218444719	
503.125	-0.2219918723	-0.09179648116	
503.75	0.2783499936	0.2903922444	
504.375	0.0161661624	0.05718903349	
505.0	0.07694317057	-0.2174017822	
505.625	0.02128003527	0.1220148916	
506.25	-0.2650726971	-0.6412342553	
506.875	0.06544498262	0.7998579665	
507.5	0.8820597445	-1.173834282	
508.125	-0.2671236201	-3.060982237	
508.75	-0.315211705	-1.32245456	
509.375	1.124868661	-5.429237215	
510.0	-1.934307917	0.9802356447	
510.625	-0.07911982061	-0.6327912954	
511.25	-0.5365964997	0.01769617451	
511.875	-0.2171651338	0.06587260936	
512.5	-0.1094153267	0.1611386258	
513.125	-0.08342514441	-0.3765961316	
513.75	-0.3138166968	0.05143643072	
514.375	0.03277381913	-0.2885955781	
515.0	-0.8384258841	0.1621117105	
515.625	2.002244979	-2.214597107	
516.25	-4.002537884	-1.964430689	
516.875	0.4881164052	0.02327993693	
517.5	-0.1009843197	-1.271905407	
518.125	-0.01451217974	0.3104953463	
518.75	-0.106609028	-0.9008382093	
519.375	-0.07109506339	0.2291684428	
520.0	0.1332317857	0.1663729577	
520.625	0.6961035562	-0.2241325864	
521.25	-0.3680086174	-0.5642414028	
521.875	-0.1740721873	-0.2036877976	
522.5	-0.1931953401	0.1430984253	
523.125	-0.2048866714	-0.0595314304	
523.75	-0.1514683383	0.2264509405	
524.375	-0.436946308	-0.1684588307	
525.0	0.1290444825	0.5857218032	
525.625	-0.03349004945	-0.05537877005	
526.25	0.1023264673	0.05979567364	
526.875	-0.3067390159	-0.01101131312	
527.5	0.0861727547	0.8103992079	
528.125	0.13717452	0.2839776577	
528.75	-0.1324793273	0.9727444033	
529.375	0.1696360424	-0.09782610715	
530.0	0.1478965527	0.8997226723	
530.625	0.2846561076	0.336326936	
531.25	1.144704841	0.5936090228	
531.875	0.1501918614	-0.8983844608	
532.5	0.1235694848	-0.2184573513	
533.125	-0.1818028691	-0.2264651532	
533.75	0.6089525029	-0.5583844169	
534.375	-0.905728671	-0.446925486	
535.0	-0.3227556955	-0.3237950895	
535.625	-0.6535779839	0.4170195839	
536.25	0.1241815446	0.1861544507	
536.875	0.2018075954	0.161290638	
537.5	0.1921479777	-0.2194302956	
538.125	0.13475387	0.02069508799	
538.75	0.4874931315	-0.4699063818	
539.375	-0.2291472777	-0.1828508201	
540.0	-0.2208105052	-0.4674340082	
540.625	-0.5580647765	-0.0224975039	
541.25	-0.1478682848	0.08397955871	
541.875	-0.002716374457	-0.03360470674	
542.5	-0.2180958626	-0.2101776195	
543.125	-0.1118067418	0.07022314501	
543.75	-0.2646599558	-0.1431904933	
544.375	0.03145887592	0.2354020128	
545.0	-0.1568889094	0.09068624696	
545.625	0.3216020873	0.1205056006	
546.25	-0.07118140921	0.07288890553	
546.875	0.5944842249	-0.03536527501	
547.5	-0.09838935985	-0.2932338467	
548.125	0.09327918902	-0.3128414054	
548.75	-0.4208769364	-0.4025009344	
549.375	-0.2567408231	0.04472068456	
550.0	-0.1921457269	-0.1518954017	
550.625	-0.0938395415	0.1653838224	
551.25	-0.184245697	-0.07334782947	
551.875	-0.2080849077	0.3062463804	
552.5	-0.01779190759	0.1203949297	
553.125	-0.07764047467	0.1700234777	
553.75	0.1442288893	0.09715983992	
554.375	0.1947073436	0.00168004767	
555.0	0.2485846742	-0.1713392249	
555.625	0.1764891886	-0.2673914467	
556.25	0.1465158252	-0.3348506135	
556.875	-0.09467752421	-0.3873149618	
557.5	-0.2482464932	-0.2331920193	
558.125	-0.2638505875	-0.07801398548	
558.75	-0.2568821945	-0.02608501669	
559.375	-0.277477013	0.08004293	
560.0	-0.1718909277	0.1656496567	
560.625	-0.1701069855	0.2475916663	
561.25	0.1009472858	0.2651227131	
561.875	-0.0252910325	0.06254734934	
562.5	0.144506893	0.1558182065	
563.125	0.03234368486	0.144611891	
563.75	0.4406737556	0.0542160348	
564.375	0.1723162348	-0.3544347707	
565.0	0.1687943933	-0.1848471607	
565.625	-0.03358661396	-0.4761480337	
566.25	-0.3595177447	-0.1364345968	
566.875	-0.1738714264	-0.2032773636	
567.5	-0.4683408636	-0.3356698004	
568.125	-0.2903251259	-0.1595032781	
568.75	-0.5597742859	-0.3839869265	
569.375	-0.5413031938	0.4413712531	
570.0	-0.1547619395	0.2556223789	
570.625	-0.4586783919	0.4590435529	
571.25	0.399295795	0.3590875442	
571.875	-0.2022172369	0.2183306773	
572.5	0.6034431428	-0.1360122144	
573.125	-0.1043898247	-0.1058426433	
573.75	0.4431186552	-0.2113032577	
574.375	-0.2668457027	-0.306593858	
575.0	0.2496316155	0.1563099057	
575.625	-0.008710134245	-0.4584918763	
576.25	-0.1086540253	0.02555928927	
576.875	0.2813869574	-0.4669704403	
577.5	-0.2024578165	-0.5335315487	
578.125	-0.1397373245	-0.1249648206	
578.75	-0.0129349897	-0.4022351764	
579.375	-0.4488501574	-0.1777260295	
580.0	0.1013862512	0.04283377931	
580.625	-0.3663793526	-0.188250417	
581.25	0.01555798478	0.2909566402	
581.875	-0.2201435161	0.1315528109	
582.5	0.09507572075	0.7225072039	
583.125	0.4655263924	-0.1755676699	
583.75	-0.278157109	0.2626230493	
584.375	0.4792253182	-0.1196286293	
585.0	-0.1378283176	0.3488790898	
585.625	0.7268409145	-0.1451036987	
586.25	-0.01197250142	-0.2261525166	
586.875	0.4814424998	-0.1487317293	
587.5	-0.2710256664	-0.5275025035	
588.125	-0.07531174588	0.003111550801	
588.75	0.3547609035	-0.3718506032	
589.375	0.03412727011	-0.5692256562	
590.0	-0.03019001652	-0.220977261	
590.625	-0.4576091188	-0.2800271331	
591.25	-0.1758644381	0.4013496853	
591.875	-0.1290733901	0.1360126411	
592.5	0.03943749077	0.2583092918	
593.125	-0.09316018628	-0.0693681672	
593.75	0.1166142917	0.5066421018	
594.375	0.5480840359	0.01208172636	
595.0	0.04073174575	0.06988151895	
595.625	0.4619339011	0.6194534789	
596.25	0.463405544	-0.3413990267	
596.875	0.1178050159	0.4125214523	
597.5	0.7045838421	0.119012169	
598.125	0.007920024318	0.05972866077	
598.75	0.7005091272	0.507195486	
599.375	0.3030822097	-0.3624595683	
600.0	0.3781350912	-0.0893158355	
600.625	0.5014014086	-0.4625109	
601.25	0.007549367945	-0.5515253878	
601.875	-0.09243277678	-0.2400692956	
602.5	-0.3143435725	-0.05340406442	
603.125	-0.2865676602	0.1515013441	
603.75	-0.1494900283	0.1522325729	
604.375	-0.2737919433	0.1099877545	
605.0	-0.1102008738	0.2547610353	
605.625	-0.1189334485	-0.03277526713	
606.25	-0.3633569988	0.3471283612	
606.875	-0.09707249743	0.09022578726	
607.5	-0.7887332455	0.3152258293	
608.125	0.4478887192	0.6219976706	
608.75	0.01806014806	0.3461604269	
609.375	0.9152030494	-0.09486310797	
610.0	-0.01283864607	-0.3335522996	
610.625	0.5765034785	-0.3570213517	
611.25	-0.2743859081	-0.412730794	
611.875	0.07928140719	-0.2442664059	
612.5	-0.629879516	-0.153756005	
613.125	-0.1305231484	-0.04817705745	
613.75	-0.3650785053	0.4104317889	
614.375	0.2654508051	0.07953672222	
615.0	-0.05475289849	0.4509726929	
615.625	0.1889252573	-0.07954897265	
616.25	-0.3845267489	0.341873946	
616.875	0.007890500805	0.7138755637	
617.5	-0.1322632585	0.1200508241	
618.125	-0.170587022	0.773680281	
618.75	0.2988206666	0.3377426884	
619.375	-0.01645127153	0.4048204854	
620.0	0.5789108942	-0.01303661794	
620.625	0.2320255681	-0.2124633092	
621.25	-0.2499432491	-0.5242509485	
621.875	-0.4000258356	-0.08265276325	
622.5	-0.5905103228	0.077242876	
623.125	0.08654552456	0.3757336236	
623.75	0.1896535258	0.2356972953	
624.375	0.07863206932	-0.4102158715	
625.0	0.1701273268	0.2862433351	
625.625	0.04090951814	-0.5890134456	
626.25	0.08211536471	0.08237855183	
626.875	-0.3986289773	-0.508263177	
627.5	-0.4072365187	0.2003677402	
628.125	0.04965480656	-0.2728669262	
628.75	-0.5434323963	-0.3324481935	
629.375	-0.009044160272	-0.143267337	
630.0	-0.4723435066	-0.4375507756	
630.625	-0.5983506566	0.3263889035	
631.25	-0.1229400688	0.363234962	
631.875	-0.1695864707	0.5267103586	
632.5	0.3756796682	0.4951290326	
633.125	0.5042104613	0.01750485179	
633.75	0.265587597	-0.04826981711	
634.375	0.1547347713	-0.475303506	
635.0	-0.009256117705	-0.1660287395	
635.625	-0.3772258526	-0.3505361932	
636.25	-0.3178601188	0.3540979006	
636.875	-0.0523084929	-0.07182357448	
637.5	-0.3700470459	0.5758186225	
638.125	0.2761689259	0.04654479742	
638.75	-0.5656224573	0.2356464651	
639.375	0.2519445768	0.8564998548	
640.0	0.3522045609	0.1790019324	
640.625	0.429774376	0.6882511168	
641.25	0.8112536937	-0.3368424399	
641.875	0.2281532634	-0.0932508915	
642.5	0.2278121698	-0.8496261555	
643.125	-0.5446439128	0.1590847049	
643.75	0.03861237431	-0.3348004666	
644.375	-0.7441536844	0.0182683989	
645.0	-0.1102609738	0.5035936958	
645.625	-0.02466905552	0.1710535355	
646.25	0.535340765	0.5569293311	
646.875	0.1287402209	-0.4051354792	
647.5	0.08004709481	0.4181578557	
648.125	0.5257862792	-0.3308419097	
648.75	0.2345051316	0.3933136489	
649.375	0.985691545	-0.9017090597	
650.0	-0.266201575	-0.8875454387	
650.625	0.4451071696	0.06949777025	
651.25	1.042284022	-1.041939054	
651.875	-0.1757247851	-0.6937800227	
652.5	0.6998626914	0.3498425027	
653.125	0.9018390253	-0.7412205766	
653.75	-0.03922514045	-0.2645220778	
654.375	0.3506099843	-0.9733531753	
655.0	-1.03014762	0.0693380975	
655.625	0.03350425201	0.3121542751	
656.25	-0.3913672321	0.4093791623	
656.875	0.5625477874	0.2655978972	
657.5	-0.3599773204	0.1009830943	
658.125	0.6136826043	0.5544513963	
658.75	0.5947143613	-0.09406472763	
659.375	0.5393211929	-0.04173346511	
660.0	0.8859112312	-0.9901771472	
660.625	-0.2201368198	-0.6989950826	
661.25	0.5522730571	-0.2776637606	
661.875	0.818236891	-0.8989618716	
662.5	0.06296642561	-0.8279667475	
663.125	0.6529524013	0.1785726811	
663.75	0.3440230641	-1.218020874	
664.375	-0.2138446058	-0.2541244012	
665.0	-0.5475181589	-0.94863247	
665.625	-0.6679182403	0.7345045527	
666.25	-0.2539645436	0.1776721391	
666.875	0.1975945643	0.7542887289	
667.5	0.6627269572	0.0102907571	
668.125	0.1373891913	-0.006569821576	
668.75	0.7805281912	-0.2708939791	
669.375	-0.0550286234	-0.6355624313	
670.0	0.09423896008	-0.3162723753	
670.625	0.06693615501	-0.6611399361	
671.25	-0.1619393089	-0.2375800519	
671.875	0.566194733	-0.3681231576	
672.5	0.4066569023	-0.5446512818	
673.125	0.1770277468	-0.4175461477	
673.75	0.4837087229	-0.1057534696	
674.375	0.2297929425	-1.174857693	
675.0	-0.5459561447	0.03751521088	
675.625	-0.1253108901	-0.7638586499	
676.25	-0.8193045575	0.256880544	
676.875	0.2875403461	-0.1610166169	
677.5	-0.9753275137	0.2543662109	
678.125	0.2496311562	0.1660530144	
678.75	-0.3490660556	0.5239542457	
679.375	0.9483601713	0.2761510189	
680.0	-0.04223554325	-0.5331661247	
680.625	0.2661352325	0.2293218459	
681.25	0.4155327085	-0.2533591877	
681.875	0.1386860723	-0.08019519041	
682.5	0.3740886752	0.4755937423	
683.125	0.7927701362	-0.04671358471	
683.75	0.4132001145	0.1290831502	
684.375	0.6104316967	0.3115331613	
685.0	0.9950560775	-0.2338320883	
685.625	-0.0231751178	0.01118774222	
686.25	1.382549263	0.2114859395	
686.875	0.2065912054	-1.090843845	
687.5	0.5952607833	0.08015437636	
688.125	-0.031722233	-1.970445822	
688.75	-0.7646060585	0.5685139856	
689.375	-1.225805391	0.1655098218	
690.0	0.9236958873	1.009675811	
690.625	-0.0818266678	0.2339540536	
691.25	1.178091069	1.131143948	
691.875	0.9295801915	0.1837061671	
692.5	1.215607791	0.6587384234	
693.125	1.617395207	-0.0479251391	
693.75	1.137267555	-0.6416364894	
694.375	0.9524865509	-0.9654746241	
695.0	0.905685129	-0.5945753686	
695.625	1.489613258	-0.130549715	
696.25	1.056560376	-0.1615727885	
696.875	0.6490278255	1.161943999	
697.5	1.701051452	0.8580201326	
698.125	0.6002887629	0.3028196776	
698.75	1.702592843	-1.225656637	
699.375	-1.607831621	-0.2918712185	
700.0	-0.5751820805	0.02214994186	
700.625	0.7412154856	1.209026197	
701.25	0.08115970407	0.04819339826	
701.875	0.7531884113	1.102853352	
702.5	0.8113616935	-0.01616726399	
703.125	0.8750981673	0.7022276756	
703.75	1.050903524	-0.5699250841	
704.375	0.2653454086	-0.07361979464	
705.0	1.045540497	-0.5485386845	
705.625	0.225893281	-0.2498700387	
706.25	0.5242554648	0.8742375918	
706.875	1.236130904	0.2264357493	
707.5	0.1815818567	0.6943837495	
708.125	1.579983294	0.3482895223	
708.75	0.03940284222	-0.9329419533	
709.375	-0.3687575171	-1.038779396	
710.0	-0.4597063811	1.015063317	
710.625	0.03284292319	0.03866926416	
711.25	0.3725786074	0.4492586675	
711.875	0.4198289381	0.2595890633	
712.5	0.7991970773	-0.1598280158	
713.125	0.45875481	-0.3897561065	
713.75	0.5501092181	-0.6175110527	
714.375	-0.3261682461	-0.6201779159	
715.0	0.2790937232	-0.2699661123	
715.625	-0.2963617833	-0.9171113698	
716.25	0.1072779682	-0.06606027514	
716.875	1.542062801	-0.3023116568	
717.5	0.9772744774	-1.619873979	
718.125	0.5127609583	1.357997266	
718.75	3.610906946	-0.9992797794	
719.375	0.4050601172	-1.612424116	
720.0	2.323956534	-0.6059402389	
720.625	-0.4345727553	-3.886942431	
721.25	0.3014331107	-1.064569045	
721.875	-0.7319781287	-3.194573996	
722.5	-2.574042145	-1.531411657	
723.125	-1.068478361	-0.07078177088	
723.75	-1.487727506	1.078136334	
724.375	0.5683579086	1.205047375	
725.0	0.3966717724	0.5829823995	
725.625	-0.0129405453	1.125307318	
726.25	0.6144809556	2.360789576	
726.875	0.2548317882	1.032819921	
727.5	-1.4720716	4.266317945	
728.125	2.641053002	6.056374558	
728.75	-0.8676440844	1.509222541	
729.375	-8.18279475	15.31407908	
730.0	10.95731118	4.584707784	
730.625	-4.990557248	3.617031696	
731.25	-6.140145128	18.90795605	
731.875	2.754195549	9.911399668	
732.5	-9.209885051	-2.722987717	
733.125	-8.029561731	3.945283536	
733.75	-0.07083163276	3.274230229	
734.375	1.429024187	2.378933975	
735.0	-1.35317845	-2.070991539	
735.625	-0.3215006207	-0.02949764668	
736.25	-0.7629841119	1.461731129	
736.875	1.829432547	1.624067861	
737.5	1.963313755	-1.351004267	
738.125	2.88777531	1.632560215	
738.75	7.208685553	-5.67358145	
739.375	-0.1340940823	-6.949774699	
740.0	8.768283556	7.137408976	
740.625	24.41445466	-15.31802023	
741.25	-11.73126874	-3.869871159	
741.875	-19.74700658	0.04713104604	
742.5	-3.985139154	9.034704751	
743.125	7.401481388	-2.1988575	
743.75	-1.513811854	-5.102289567	
744.375	-0.8126618786	0.8459565612	
745.0	-0.2481774558	0.1106620445	
745.625	0.1415049928	-0.3465373017	
746.25	0.2845745966	-0.2435293095	
746.875	-0.621708274	0.1422745081	
747.5	-0.2857718726	0.8390747047	
748.125	-0.361252379	1.200924166	
748.75	0.9197352456	1.351161263	
749.375	1.282974889	1.21032227	
750.0	-0.8329175117	-0.6090898408	
