!Created with skrf (http://scikit-rf.org).
# GHz S RI R (50+0j) 
!freq	ReS11	ImS11	
500.0	-0.042431743	-1.35247294	
500.625	-0.008495944934	-0.3362908731	
501.25	-0.2895174232	-0.9008836598	
501.875	-0.4811566347	-0.1782876377	
502.5	0.007541461193	-0.08249432343	
503.125	-0.094188197	0.00559158031	
503.75	0.04803380348	0.003151431399	
504.375	0.03915493268	0.0210055461	
505.0	-0.007501582827	-0.03975690998	
505.625	0.05333766749	-0.02709977561	
506.25	-0.1460842479	-0.05934244077	
506.875	0.09804225213	-0.01964863091	
507.5	-0.05585675563	-0.5815505806	
508.125	-0.2480029846	-0.5285158007	
508.75	0.8496008305	-0.568874192	
509.375	0.1355116204	-1.196395353	
510.0	-0.4322374765	-0.05708373787	
510.625	0.01239578802	-0.1491895724	
511.25	-0.09568494707	-0.02189751334	
511.875	-0.02606878579	0.002854831629	
512.5	-0.03506809501	0.05286885592	
513.125	-0.05070991675	-0.05708899862	
513.75	0.01935193241	-0.01101917489	
514.375	-0.119391608	-0.07287552954	
515.0	0.1634614451	0.3336761216	
515.625	-0.2268325146	-0.8128645433	
516.25	-0.1668346934	0.1163623552	
516.875	0.1204498362	-0.4538826953	
517.5	-0.1414945771	-0.2146652058	
518.125	0.02760035387	0.01708044108	
518.75	-0.06612588491	-0.1914728683	
519.375	-0.03299227585	0.05821975693	
520.0	0.06847834499	0.03986895765	
520.625	0.1410387271	-0.05960716193	
521.25	-0.0885098704	-0.2393828471	
521.875	-0.0724949732	0.00290004537	
522.5	-0.03955259921	0.0007621597643	
523.125	0.02724614792	0.05633649977	
523.75	-0.01539829948	-0.07421895293	
524.375	-0.1811113809	0.1282037545	
525.0	0.04335250171	0.003573740602	
525.625	-0.03652693454	0.0968786491	
526.25	0.04505006774	-0.06611700776	
526.875	-0.1009388718	0.07676189093	
527.5	0.04398161	0.1102587123	
528.125	-0.04096394752	0.2078149023	
528.75	0.06061846153	0.2141658962	
529.375	0.0447727649	-0.0114737171	
530.0	-0.02287287839	0.2168207987	
530.625	-0.01985847744	0.2933939595	
531.25	0.3068839468	0.01311883321	
531.875	0.2772506527	-0.1630549401	
532.5	-0.1530683718	-0.09488515855	
533.125	0.1085931756	0.09721693105	
533.75	-0.01673589945	-0.218797278	
534.375	-0.02542642732	-0.158611148	
535.0	-0.231448724	-0.1842114881	
535.625	-0.08685593017	0.1734149758	
536.25	-0.01407250125	0.05384456313	
536.875	0.1126275568	0.01998113878	
537.5	0.02361317791	-0.05382420586	
538.125	0.120112728	-0.01211711654	
538.75	0.09107487753	-0.1642274902	
539.375	-0.04614409974	-0.08847178488	
540.0	-0.1319597662	-0.1511780194	
540.625	-0.168816656	-0.02059811941	
541.25	-0.04978438482	0.02066017848	
541.875	-0.05681722485	-0.05292043233	
542.5	-0.04180330987	0.00559719804	
543.125	0.01904417195	-0.05439847897	
543.75	-0.1416257854	0.01124712699	
544.375	-0.001200796639	0.003319658998	
545.0	-0.05331563364	0.1176607441	
545.625	0.07922669423	-0.0203339191	
546.25	0.04208333201	0.1080371625	
546.875	0.1457903472	-0.08598374584	
547.5	0.005646770592	-0.06417627359	
548.125	0.01491212005	-0.1608168369	
548.75	-0.1738261949	-0.09751277959	
549.375	-0.06534692493	-0.01625367544	
550.0	-0.09577284726	-0.02677391618	
550.625	-0.02124228788	0.04278990899	
551.25	-0.07617694896	0.0008163637135	
551.875	-0.04890993772	0.09688346716	
552.5	-0.0205629901	0.04848366087	
553.125	-0.01859583312	0.06939716791	
553.75	0.0476526951	0.02399058489	
554.375	0.07917549186	-0.001637164601	
555.0	0.08883172038	-0.07942070008	
555.625	0.05897040274	-0.1026595098	
556.25	0.04957759034	-0.124420068	
556.875	-0.04516348475	-0.1418396312	
557.5	-0.0988794553	-0.07993379405	
558.125	-0.105758837	-0.0240880532	
558.75	-0.1045846116	0.002093196603	
559.375	-0.09725528912	0.03757539772	
560.0	-0.07446795398	0.0617467879	
560.625	-0.05633083621	0.1082587246	
561.25	0.03794685279	0.09295085825	
561.875	-6.199993057e-05	0.02852247998	
562.5	0.04982164754	0.06064546531	
563.125	0.03297640168	0.04401453386	
563.75	0.1586512838	0.009480192591	
564.375	0.07730992546	-0.1267582093	
565.0	0.06116315655	-0.08909206767	
565.625	-0.0387249321	-0.1930564345	
566.25	-0.1191629167	-0.03262637787	
566.875	-0.07663469799	-0.09916412035	
567.5	-0.1968503993	-0.1009453051	
568.125	-0.1065208565	-0.05501976095	
568.75	-0.2255189989	-0.1620668197	
569.375	-0.1981191604	0.2018083067	
570.0	-0.05121270049	0.1179587153	
570.625	-0.1188298948	0.1897459399	
571.25	0.1176401957	0.07819825334	
571.875	-0.0279388548	0.0999648767	
572.5	0.1796930148	-0.06821756512	
573.125	-0.01462099622	-0.05835757542	
573.75	0.1492267775	-0.09461312151	
574.375	-0.07578079164	-0.1305323467	
575.0	0.06103690329	0.05505554597	
575.625	0.02985725916	-0.1544861869	
576.25	-0.03363998535	-0.04886486874	
576.875	0.07936101196	-0.1262395168	
577.5	-0.0504939278	-0.2329967598	
578.125	-0.09769901935	-0.04310925211	
578.75	0.03721248712	-0.1373604939	
579.375	-0.1982378322	-0.1144244857	
580.0	0.0366501547	0.07446094903	
580.625	-0.1509758927	-0.09225969248	
581.25	0.07938323758	0.1424434097	
581.875	-0.09142266315	0.04919775184	
582.5	0.05570939091	0.2401180836	
583.125	0.1293386506	-0.06252156045	
583.75	-0.0512261417	0.1061158855	
584.375	0.1356968197	0.003037024874	
585.0	-0.009108520299	0.04302230684	
585.625	0.2379770287	0.032780964	
586.25	0.05194243976	-0.1458760554	
586.875	0.08088811772	-0.03619911436	
587.5	-0.01759441123	-0.2088707003	
588.125	-0.08150760969	-0.05171586724	
588.75	0.09545875795	-0.108865689	
589.375	0.02884745959	-0.2298416341	
590.0	-0.07750896492	-0.05151067652	
590.625	-0.1419625633	-0.1374681609	
591.25	-0.1294248835	0.253042273	
591.875	0.04243643857	-0.009171705203	
592.5	-0.08068883255	0.1205350129	
593.125	0.06716586215	-0.08118034543	
593.75	-7.775286233e-05	0.2408467587	
594.375	0.236342505	0.00366729446	
595.0	0.06093072983	0.03560230294	
595.625	0.2379387361	0.1383723534	
596.25	0.156454574	-0.06201893456	
596.875	0.0655087598	0.07317441467	
597.5	0.2030131218	0.1049341673	
598.125	0.1361205199	0.007390542714	
598.75	0.1626014995	0.1151300587	
599.375	0.2386873489	-0.08120359085	
600.0	0.05399778422	-0.1639196433	
600.625	0.1308872083	-0.09892029965	
601.25	0.07248727834	-0.2208304787	
601.875	-0.1334840026	-0.0563796514	
602.5	-0.05356169464	-0.08230135113	
603.125	-0.1566840981	0.1811144419	
603.75	0.01139163661	0.04123021096	
604.375	-0.2288234267	0.0447188103	
605.0	0.008488849965	0.1787072697	
605.625	-0.0273190509	-0.05410766269	
606.25	-0.1545902896	0.1431475737	
606.875	-0.05236236744	0.009705997199	
607.5	-0.1939587027	0.1233622341	
608.125	0.03005726762	0.2920273067	
608.75	0.1619729978	0.05920597563	
609.375	0.2372912022	-0.1166896955	
610.0	0.1488818127	-0.1637076572	
610.625	-0.02072602553	-0.1102759229	
611.25	0.0736379283	-0.1489999768	
611.875	-0.1155924356	-0.1680533747	
612.5	-0.07400706256	-0.01311086515	
613.125	-0.2306511943	-0.01711287389	
613.75	-0.02796966301	0.2445547031	
614.375	-0.004066668981	-0.01142885212	
615.0	0.1154707785	0.1318816909	
615.625	0.02152764546	-0.03069039939	
616.25	-0.1094087359	0.1651571627	
616.875	0.002091694402	0.2649644644	
617.5	-0.0317307242	0.1189873796	
618.125	-0.04277838909	0.2372749453	
618.75	0.01787289803	0.1186912965	
619.375	0.07807391074	0.1085410632	
620.0	0.1957777342	0.05968503577	
620.625	0.03624001569	-0.2018637816	
621.25	-0.1197823678	-0.07553719911	
621.875	-0.1455920889	-0.1212459346	
622.5	-0.218318872	0.1633228262	
623.125	0.02938878652	0.09933781043	
623.75	0.1343231998	0.134641987	
624.375	-0.01702601884	-0.113972698	
625.0	0.09233295398	0.0481539663	
625.625	0.01115884116	-0.1600715669	
626.25	-0.02995565719	-0.04261476222	
626.875	-0.1247851951	-0.1371375082	
627.5	-0.1729424832	0.004581461782	
628.125	-0.04874254935	-0.03038538739	
628.75	-0.08290370305	-0.1718199395	
629.375	-0.1227926709	-0.09690052642	
630.0	-0.1464232698	-0.05645400439	
630.625	-0.2154684745	0.07414244762	
631.25	-0.06674795826	0.2450525687	
631.875	-0.00723111735	0.1663527499	
632.5	0.1060017033	0.2845587748	
633.125	0.2199958788	-0.06234292563	
633.75	0.08217576111	-0.02977598587	
634.375	0.1355135716	-0.2318043877	
635.0	-0.1098176118	-0.05400007386	
635.625	-0.07103441543	-0.1895572637	
636.25	-0.1872879461	0.1707803544	
636.875	0.02258430381	0.07612188411	
637.5	-0.1152676949	0.06347442292	
638.125	0.0498049552	0.164957961	
638.75	-0.08329688089	0.06011050393	
639.375	0.01253445175	0.3110858814	
640.0	0.2369771501	0.1390622809	
640.625	0.136287103	0.08699225428	
641.25	0.3274140187	0.005928433162	
641.875	0.04209206762	-0.2444559014	
642.5	0.01891304935	-0.1128517549	
643.125	-0.1354122125	-0.2651726099	
643.75	-0.1381368754	0.1089659279	
644.375	-0.1568777105	-0.1003289065	
645.0	-0.1557350898	0.3116773021	
645.625	0.1685980957	0.0002084120689	
646.25	0.05402155291	0.18016522	
646.875	0.2533140234	-0.1799295163	
647.5	-0.1353580797	0.162818316	
648.125	0.3260554805	-0.02549300364	
648.75	0.06534209121	-0.1221388398	
649.375	0.27585031	-0.06125063539	
650.0	0.1552534822	-0.4989356511	
650.625	-0.05816050272	-0.206440451	
651.25	0.2915907811	-0.08880541915	
651.875	0.2816568515	-0.3214265907	
652.5	0.06536315658	-0.1463507531	
653.125	0.303662596	-0.02623765787	
653.75	0.09809036483	-0.4024535135	
654.375	-0.1121473179	-0.1011779135	
655.0	-0.2321836054	-0.2276329525	
655.625	-0.1161503563	0.3743446589	
656.25	0.1086451438	-0.06724627863	
656.875	-0.05212801356	0.209166617	
657.5	0.1627719823	-0.02779296306	
658.125	-0.07834814778	0.2153121803	
658.75	0.5290438269	-0.02032604791	
659.375	0.09800436161	-0.2296622762	
660.0	0.2274317976	-0.1508513921	
660.625	0.1155022037	-0.4931657338	
661.25	-0.08226849047	-0.1972591876	
661.875	0.2960285105	-0.1561630913	
662.5	0.2315175052	-0.3347012706	
663.125	0.07894967572	-0.2049324835	
663.75	0.2258887757	-0.212231333	
664.375	-0.1949481106	-0.3686430371	
665.0	-0.1914848182	-0.04348489181	
665.625	-0.3151023678	0.03351732684	
666.25	-0.008781580314	0.3528868023	
666.875	0.1011232354	0.03636359351	
667.5	0.1818982361	0.1927488335	
668.125	0.2149084037	-0.1649450642	
668.75	0.05586169173	-0.01977416593	
669.375	0.2172334741	-0.2748328768	
670.0	-0.2072822396	-0.2051152782	
670.625	0.08217163094	-0.06823462095	
671.25	0.02824961069	-0.3179677319	
671.875	-0.04890936723	-0.1384034696	
672.5	0.2195124553	-0.02104672037	
673.125	0.1896767429	-0.3254287958	
673.75	0.01827171003	-0.1295856047	
674.375	0.09501400479	-0.219127171	
675.0	-0.2103519553	-0.283129622	
675.625	-0.1496907698	0.06171336107	
676.25	-0.1652118795	-0.1181778306	
676.875	-0.1778152685	0.1407298019	
677.5	-0.03417132132	0.004412245909	
678.125	-0.2286247216	0.1600295784	
678.75	0.2174210831	0.1941850616	
679.375	0.03414260079	0.0002631879636	
680.0	0.2507081219	-0.02538879471	
680.625	-0.04991320807	-0.2866775335	
681.25	-0.02221514904	0.2394949021	
681.875	0.3814824763	-0.04067020614	
682.5	0.009770125746	-0.086984726	
683.125	0.168810505	0.2256990025	
683.75	0.4619749271	-0.02677870336	
684.375	-0.07079963627	0.06360651615	
685.0	0.364592233	0.1649020887	
685.625	0.3144230708	-0.1800569375	
686.25	0.1105176439	-0.03531226904	
686.875	0.410420958	-0.1857933755	
687.5	-0.01386004102	-0.4267844574	
688.125	-0.04093039896	-0.2071746467	
688.75	-0.4308734392	-0.1533853544	
689.375	-0.1401980301	0.4463271952	
690.0	0.08685443843	0.1182698824	
690.625	0.334583707	0.3547198624	
691.25	0.3792024359	-0.005711409412	
691.875	0.2430943268	0.3034173426	
692.5	0.8623377845	0.1792726588	
693.125	0.3792173027	-0.3035644451	
693.75	0.4750160328	-0.07023360677	
694.375	0.4657858444	-0.5198417151	
695.0	0.1005799841	-0.2103054838	
695.625	0.4770708454	0.06207241581	
696.25	0.6074034109	-0.07405778713	
696.875	0.2639954041	0.3261881337	
697.5	0.3586084953	0.3758646356	
698.125	0.3735059718	0.0617157311	
698.75	0.1545974643	-0.4187350754	
699.375	-0.378355657	-0.213837727	
700.0	-0.2726401364	0.3438886382	
700.625	0.2366349296	0.1180962279	
701.25	0.1237649675	0.2249592185	
701.875	0.4566083036	0.2064471102	
702.5	0.1880823152	0.05036525282	
703.125	0.4320861328	0.2050820265	
703.75	0.3749901019	-0.2612682293	
704.375	0.1084046654	-0.08807689666	
705.0	0.3423428013	-0.1036689762	
705.625	0.1471084296	-0.08935239048	
706.25	0.1410360627	0.1646221214	
706.875	0.3084753771	0.3204617545	
707.5	0.2320583536	0.2792192429	
708.125	0.4067702354	-0.04611904622	
708.75	0.1790926572	-0.4006465728	
709.375	-0.3507102239	-0.107396721	
710.0	0.1270450815	0.2292308638	
710.625	0.1057834021	0.2094020891	
711.25	0.1220598835	-0.05201235313	
711.875	0.1816902824	0.1548027377	
712.5	0.3901104282	-0.1365641875	
713.125	0.02651001313	-0.2075042614	
713.75	0.1899818231	-0.1845220824	
714.375	-0.05639177696	-0.3113168047	
715.0	-0.07439087842	-0.08000997131	
715.625	0.095382458	-0.2325049714	
716.25	0.05544511023	-0.2963283574	
716.875	0.1888712234	-0.09078116114	
717.5	0.5502871258	-0.04242880063	
718.125	0.608655215	-0.1744762236	
718.75	0.449538509	-0.23350706	
719.375	0.6330937942	-0.1918058075	
720.0	0.09337179062	-0.9754029543	
720.625	-0.005445783086	-0.4525998072	
721.25	-0.05174525243	-1.130753461	
721.875	-0.7481031634	-0.5560097564	
722.5	-0.3938218078	-0.5505648027	
723.125	-0.9899355221	0.05779348128	
723.75	0.004402243091	0.5431841439	
724.375	-0.1665553981	0.2330782213	
725.0	0.3143295394	0.5497191038	
725.625	0.2183121628	0.1285436143	
726.25	-0.125110262	0.5766407877	
726.875	0.1462091228	1.037360491	
727.5	0.3962097907	0.8259306071	
728.125	-0.2846339821	1.534264297	
728.75	0.8013338663	3.011319189	
729.375	1.044818628	1.901452318	
730.0	-0.9054238717	2.952425769	
730.625	2.16838415	4.139945391	
731.25	0.7767275871	1.619780997	
731.875	-2.304313934	1.816696874	
732.5	-3.538266231	2.720137285	
733.125	-0.5694442156	1.127275375	
733.75	-1.046076261	1.238639346	
734.375	1.184647581	-0.3076837349	
735.0	-0.1008726099	-0.1416780575	
735.625	-0.6450262142	-0.07624390165	
736.25	0.5705534309	0.5242697782	
736.875	-0.02045961365	0.2621788076	
737.5	1.474546874	0.1715739049	
738.125	0.944417173	-1.220046065	
738.75	0.483445442	-0.5721243034	
739.375	3.341714738	-0.7401147511	
740.0	1.074148013	-4.626273227	
740.625	-0.2974155727	0.9186941004	
741.25	1.398677911	4.63584217	
741.875	2.08016988	1.672748179	
742.5	0.3821627128	-2.719575885	
743.125	-0.8756183956	-1.987895009	
743.75	-0.5610321107	-0.243913657	
744.375	-0.1776567634	-0.3120228256	
745.0	0.2947835009	0.1955861275	
745.625	-0.01344533789	0.08209319989	
746.25	-0.06107706977	-0.2052855523	
746.875	-0.105262067	0.1461429718	
747.5	-0.1208194987	0.2051574465	
748.125	0.2854043311	0.5645399115	
748.75	0.3370136292	0.190626809	
749.375	0.03516229767	0.3571500737	
750.0	-0.3176635509	0.2758339653	
