!Created with skrf (http://scikit-rf.org).
# GHz S RI R (50+0j) 
!freq	ReS11	ImS11	
500.0	-0.2133990271	-0.429193391	
500.625	0.5022185385	-0.8261568915	
501.25	-0.6427062552	-0.4409313328	
501.875	-0.07429927689	-0.190744656	
502.5	-0.02038471186	-0.1534161475	
503.125	-0.04925510681	0.04912757802	
503.75	-0.03318544331	0.03477808913	
504.375	0.04981267245	-0.03028261757	
505.0	-0.004704783502	0.006812013892	
505.625	-0.01199734194	-0.1017222462	
506.25	-0.05128793097	0.05516970958	
506.875	-0.2362762535	-0.1806773949	
507.5	-0.3952178432	-0.02834943663	
508.125	0.2424234304	-0.1894445426	
508.75	0.699042901	-0.9817572987	
509.375	-0.5373106313	-0.9449650849	
510.0	-0.3064424902	-0.2639647126	
510.625	-0.1947371944	-0.2205767727	
511.25	-0.04420096519	-0.0002988464121	
511.875	-0.1270007685	-0.05848298832	
512.5	-0.009598324788	0.02077195474	
513.125	-0.008572364113	-0.01312084204	
513.75	-0.02279710079	-0.08567616828	
514.375	-0.09445335253	0.05494954333	
515.0	0.2540253325	-0.2510733289	
515.625	-0.4382890735	-0.1730146188	
516.25	0.1930549596	-0.2631423557	
516.875	-0.324895853	-0.6330554266	
517.5	-0.07067192697	0.04725340143	
518.125	-0.001729045419	-0.0897296974	
518.75	-0.088894414	-0.01945570739	
519.375	-0.0269220562	0.01185108058	
520.0	0.1066815695	0.04189481187	
520.625	0.128191043	-0.09324792029	
521.25	-0.05905277394	-0.146081986	
521.875	-0.1053098176	-0.08195860168	
522.5	-0.06183297798	0.0312348141	
523.125	-0.04784229384	-0.03960488371	
523.75	-0.168032805	0.06175724355	
524.375	-0.01783650246	0.07304506767	
525.0	-0.1455042375	0.05060951023	
525.625	0.09364431958	0.1055506243	
526.25	-0.0919058954	-0.02288234615	
526.875	0.008357357062	0.07978777758	
527.5	-0.1164876491	0.1036565519	
528.125	0.0424827937	0.3087092849	
528.75	0.1503467465	0.1439517553	
529.375	-0.02449417544	0.06419170752	
530.0	0.1374914141	0.1344281541	
530.625	0.05291862358	0.1477374551	
531.25	0.2524193444	0.05259614406	
531.875	0.2513531952	-0.232668296	
532.5	-0.101506505	0.02810433201	
533.125	0.09026635615	-0.1241526983	
533.75	-0.05811361365	-0.08185405536	
534.375	-0.06521473938	-0.3000060282	
535.0	-0.3053571831	0.04148049784	
535.625	-0.09093670195	0.06465911473	
536.25	-0.02028472567	0.1057784232	
536.875	0.09356311819	-0.03244626487	
537.5	0.04775843859	-0.001112675989	
538.125	0.1350852201	-0.08968903707	
538.75	0.07097311959	-0.1003998972	
539.375	-0.0331851761	-0.1517040716	
540.0	-0.1581803662	-0.1315954238	
540.625	-0.09314957326	0.001746867356	
541.25	-0.06487392735	-0.01754685007	
541.875	-0.08480918934	-0.006641728522	
542.5	-0.0004208016571	-0.05439717141	
543.125	-0.1133314653	-0.06115214277	
543.75	-0.03938667266	0.1200541077	
544.375	-0.07762544458	0.00905893668	
545.0	0.07776803476	0.09658852779	
545.625	-0.01286713992	0.02989806014	
546.25	0.1412131443	0.02972238668	
546.875	0.04263846364	-0.04554841112	
547.5	0.1165337438	-0.08116515131	
548.125	-0.09592573351	-0.1701124844	
548.75	-0.08803735559	-0.01982556621	
549.375	-0.07990321621	-0.09485451523	
550.0	-0.09584639392	0.0489122427	
550.625	-0.01578053205	-0.01465390856	
551.25	-0.09159748182	0.05390067085	
551.875	-0.0268666703	0.04963134378	
552.5	-0.05440570896	0.06862649279	
553.125	0.01033479817	0.06005156295	
553.75	0.03231307823	0.03390021377	
554.375	0.08949833178	-0.01307840794	
555.0	0.06754220317	-0.07706995702	
555.625	0.06817061044	-0.09637056276	
556.25	0.04863778244	-0.1321768616	
556.875	-0.04929301888	-0.1365086374	
557.5	-0.09380534325	-0.08396334552	
558.125	-0.1088153131	-0.03087629133	
558.75	-0.1002993431	0.01158149472	
559.375	-0.0907780056	0.02537185824	
560.0	-0.0960187019	0.07357230023	
560.625	-0.02567776042	0.1167281585	
561.25	0.007902144874	0.06572984525	
561.875	0.02866716105	0.06738033672	
562.5	0.02027200641	0.01070916469	
563.125	0.06038689349	0.09525818455	
563.75	0.1323392208	-0.0499112073	
564.375	0.09105911342	-0.05353579412	
565.0	0.08787021017	-0.1742366537	
565.625	-0.08345243634	-0.1092392346	
566.25	-0.05900334177	-0.09916974902	
566.875	-0.1822224674	-0.08638874479	
567.5	-0.121580948	0.01210903645	
568.125	-0.07624587486	-0.1812144242	
568.75	-0.2824836227	-0.01748599292	
569.375	-0.07974904811	0.07349540226	
570.0	-0.1891898831	0.1822187204	
570.625	0.05150457134	0.2088159934	
571.25	-0.03337013598	0.0341437705	
571.875	0.143888904	0.1116506953	
572.5	0.009259291634	-0.05232056536	
573.125	0.1516139638	-0.04741954015	
573.75	0.005969640927	-0.2005312352	
574.375	-0.04944871363	0.02285116286	
575.0	0.09966366247	-0.1026137742	
575.625	-0.05967563898	-0.03308720624	
576.25	0.114673629	-0.06904458243	
576.875	-0.06270951174	-0.189908314	
577.5	-0.06142779035	-0.05667857296	
578.125	0.04970553789	-0.1383816429	
578.75	-0.1581362535	-0.1722078349	
579.375	-0.07650014905	0.07352728586	
580.0	0.02147608166	-0.1470018428	
580.625	-0.1175908624	0.0816639447	
581.25	-0.04360815325	-0.03871946264	
581.875	0.005085645877	0.3159028015	
582.5	0.1635319925	0.02815009408	
583.125	-0.08656675278	0.09323404302	
583.75	0.1649173742	0.04965019083	
584.375	-0.08347118739	-0.009973028076	
585.0	0.1593725983	0.1312486302	
585.625	0.1355297411	-0.122430053	
586.25	0.05514514861	-0.001172943059	
586.875	0.1169221989	-0.1974544255	
587.5	-0.09921823654	-0.06910628932	
588.125	0.04899941296	-0.1166924084	
588.75	-0.003431745128	-0.2107935134	
589.375	-0.02005745355	-0.08268336474	
590.0	0.02444345842	-0.1982618786	
590.625	-0.272703101	0.05310772623	
591.25	0.006194769042	0.07241727427	
591.875	-0.1134375816	0.07630974171	
592.5	0.09033942213	0.1138128479	
593.125	-0.2087464556	0.01117551236	
593.75	0.1933398046	0.09221518485	
594.375	0.005412942374	0.04101141674	
595.0	0.1621982917	0.1847377683	
595.625	0.1730263661	-0.07208621434	
596.25	0.04260111246	0.06905342181	
596.875	0.2068448766	0.07787505328	
597.5	0.1612930089	-0.01797415729	
598.125	0.08183233052	0.1328820919	
598.75	0.221823706	0.0992109429	
599.375	0.1346073061	-0.07220156543	
600.0	0.1542871461	-0.09036834847	
600.625	0.1364319441	-0.2070598164	
601.25	-0.02299434877	-0.158622872	
601.875	0.001412388725	-0.1012577558	
602.5	-0.203019082	0.01529077788	
603.125	0.03069770573	0.059816841	
603.75	-0.159049285	-0.0109065163	
604.375	-0.1081710165	0.1811644958	
605.0	-0.01047950687	-0.05792429175	
605.625	-0.1479313966	0.1291485425	
606.25	0.003758336819	0.07160861581	
606.875	-0.2010448608	-0.002302760444	
607.5	-0.04572037143	0.2523256535	
608.125	-0.02460050904	0.1508809695	
608.75	0.1655179169	0.179337908	
609.375	0.2691845741	-0.0994050509	
610.0	0.1029921629	-0.132025871	
610.625	0.08149786078	-0.122355267	
611.25	-0.03028456916	-0.2110605418	
611.875	-0.05760398124	-0.03293556883	
612.5	-0.1169328032	-0.1207947983	
613.125	-0.1832865743	0.1466941734	
613.75	0.021334106	0.006778894987	
614.375	0.009294868594	0.1829497483	
615.0	0.106860532	-0.04900051855	
615.625	-0.111913637	0.0962050126	
616.25	0.07919433701	0.1613059202	
616.875	-0.04354400143	0.07419632662	
617.5	-0.1151429373	0.227013894	
618.125	0.08100175834	0.2453688589	
618.75	0.01881452757	0.2232620794	
619.375	0.12019912	0.1531564217	
620.0	0.2014198269	0.04231322138	
620.625	0.0647775678	-0.105420983	
621.25	0.03169497896	-0.1416352942	
621.875	-0.2543464777	-0.03793947053	
622.5	-0.1021495964	0.05948457485	
623.125	-0.08882181748	0.2021175929	
623.75	0.2169370196	-0.03425439795	
624.375	-0.02188511713	0.007398486257	
625.0	0.0475377078	-0.1095802516	
625.625	0.003749665991	-0.008423607893	
626.25	-0.01566871182	-0.1766524294	
626.875	-0.1909218361	-0.02928428796	
627.5	-0.0629455078	-0.007668979879	
628.125	-0.1166257158	-0.1003004233	
628.75	-0.1134224526	-0.0679578669	
629.375	-0.08240596806	-0.09485711394	
630.0	-0.1882439875	-0.09106846491	
630.625	-0.2247816854	0.1387270832	
631.25	-0.05009162584	0.1366440043	
631.875	-0.01272896669	0.2709612606	
632.5	0.2011281832	0.1167020865	
633.125	0.0695134848	0.00430347673	
633.75	0.2159635096	-0.09090156111	
634.375	-0.1473639312	-0.1345437627	
635.0	0.06516832482	-0.1043817727	
635.625	-0.2171875108	-0.06288355081	
636.25	-0.03857436377	0.102297379	
636.875	-0.1332851749	0.06333429275	
637.5	0.04723299762	0.187365831	
638.125	-0.06110056854	-0.0228569336	
638.75	-0.08539198845	0.2553365571	
639.375	0.1266417234	0.1710485725	
640.0	0.03910101132	0.1747612902	
640.625	0.2896442917	0.1636257298	
641.25	0.2199275804	-0.140299808	
641.875	0.09808745647	-0.09861933932	
642.5	0.009522314515	-0.3007465302	
643.125	-0.1803542575	0.0246995531	
643.75	0.02075062584	-0.1280080397	
644.375	-0.2824100025	0.08384586713	
645.0	0.07749608987	0.08743853129	
645.625	-0.1357879768	0.2492825515	
646.25	0.3662701473	-0.01692771702	
646.875	-0.05966497437	-0.04829742786	
647.5	0.2701498742	0.08937762765	
648.125	0.04540054741	-0.133877268	
648.75	0.2484892897	0.08770443119	
649.375	0.2211090981	-0.4172995833	
650.0	-0.0552602649	-0.1745902815	
650.625	0.2398807929	-0.1833892812	
651.25	0.1643562256	-0.4082198383	
651.875	0.01161402426	-0.1040008238	
652.5	0.3428262385	-0.004291410499	
653.125	0.2352448112	-0.2909322218	
653.75	0.01453323072	-0.1366952869	
654.375	0.007638066455	-0.3545268343	
655.0	-0.4363352065	0.08807165042	
655.625	0.02757375862	0.1111941188	
656.25	-0.080040686	0.2129177261	
656.875	0.2797105627	0.002109641726	
657.5	-0.1789245048	0.1406791717	
658.125	0.3841269579	0.1396071206	
658.75	0.1472019693	-0.1182075949	
659.375	0.3155501546	0.0412827542	
660.0	0.2522713453	-0.4549839199	
660.625	-0.09616858435	-0.1513212186	
661.25	0.2601157244	-0.2117796991	
661.875	0.1764702598	-0.3703556576	
662.5	0.05159476853	-0.1843536348	
663.125	0.3236847772	-0.1307132143	
663.75	0.01042389836	-0.3961094894	
664.375	-0.05828320186	-0.1455615276	
665.0	-0.2488533483	-0.2419801219	
665.625	-0.3215835722	0.2344445258	
666.25	0.01391204195	0.1469846785	
666.875	0.07614347735	0.2565820766	
667.5	0.2725315515	-0.03586510312	
668.125	0.05763770761	0.01964180316	
668.75	0.2768439426	-0.1917221097	
669.375	-0.1116109755	-0.2211502632	
670.0	0.1063147461	-0.09158560216	
670.625	0.03049071348	-0.3010737734	
671.25	-0.1286714389	-0.1084846678	
671.875	0.2959200896	-0.08102142563	
672.5	0.1696840026	-0.2982342288	
673.125	0.06166082889	-0.1406812714	
673.75	0.1918419958	-0.1512374049	
674.375	-0.07403152263	-0.3627171992	
675.0	-0.04195765502	-0.05185402814	
675.625	-0.1725271452	-0.1996177221	
676.25	-0.2520658845	0.08635371313	
676.875	-0.004935806428	0.03971640406	
677.5	-0.2409414186	0.01161072673	
678.125	0.01847462648	0.2384513708	
678.75	-0.005220241704	0.07439836003	
679.375	0.266558293	0.1837606462	
680.0	0.05766189416	-0.307489966	
680.625	0.02906945184	0.1726731083	
681.25	0.2514989443	-0.1541477221	
681.875	-0.02837193958	-0.08516579409	
682.5	0.1499793125	0.3042494192	
683.125	0.4503184431	-0.1905873808	
683.75	-0.0002202638718	-0.03519312514	
684.375	0.3691874487	0.1437575146	
685.0	0.3031713284	-0.1493241296	
685.625	0.06286438434	0.06302056291	
686.25	0.4526095235	-0.1341155564	
686.875	0.07738846053	-0.268151828	
687.5	0.2084924064	-0.2298865172	
688.125	-0.1042837496	-0.4885298277	
688.75	-0.3872168959	0.02484689908	
689.375	-0.1691600952	0.1701952613	
690.0	0.1378772486	0.4535583719	
690.625	0.328280362	0.02171968625	
691.25	0.04843935783	0.2380337419	
691.875	0.6816213058	0.2830896674	
692.5	0.4172039254	-0.06730672501	
693.125	0.6023879287	0.1431433059	
693.75	0.6355597048	-0.4826364509	
694.375	0.08185504242	-0.3170062908	
695.0	0.5940255808	-0.1619170857	
695.625	0.4819200935	-0.3142228631	
696.25	0.3112905566	-0.01228119203	
696.875	0.5389009173	0.2648220629	
697.5	0.5934263156	0.2404065827	
698.125	0.3616660056	-0.01533666121	
698.75	0.3567200557	-0.4546470177	
699.375	-0.3956363405	-0.3186332015	
700.0	-0.04779285381	0.3323342985	
700.625	0.06369650681	0.1849078362	
701.25	0.3575727807	0.04439620076	
701.875	0.1093318977	0.00616885195	
702.5	0.3278244236	0.2953418576	
703.125	0.4751280174	-0.07415981085	
703.75	0.1866270014	-0.04124476055	
704.375	0.364522806	-0.2363481567	
705.0	0.1286612279	-0.2425380012	
705.625	0.1643819376	0.09983090181	
706.25	0.3179610685	0.05092956514	
706.875	0.2141630813	0.1154479433	
707.5	0.4444969895	0.2120297338	
708.125	0.3975823829	-0.04509167622	
708.75	0.1319536512	-0.4530658981	
709.375	-0.2105330649	-0.167699316	
710.0	-0.3077840617	0.04007892821	
710.625	0.1794637744	0.07275366143	
711.25	-0.01030501976	0.1484491071	
711.875	0.361819631	0.06043593965	
712.5	0.001280276396	-0.10099965	
713.125	0.290239043	-0.1005206191	
713.75	0.04327286035	-0.3283248485	
714.375	-0.05018742247	-0.1070855002	
715.0	0.03060595371	-0.2465558849	
715.625	-0.1197119971	-0.2119135881	
716.25	0.114706071	-0.1020016537	
716.875	0.3800156721	-0.171490088	
717.5	0.3284507118	-0.270767232	
718.125	0.4230040571	-0.06677718461	
718.75	0.7060749357	-0.2601386294	
719.375	0.2837567529	-0.6073504905	
720.0	0.01449139292	-0.3832187252	
720.625	0.4267204829	-1.125720817	
721.25	-0.7041750537	-0.6073664646	
721.875	0.1453330374	-0.6617573274	
722.5	-0.8866290499	-0.6123410628	
723.125	-0.4660129548	0.4647967305	
723.75	-0.3907528867	0.1328880896	
724.375	0.2339039677	0.5366837946	
725.0	0.1671191689	0.1022254557	
725.625	-0.005616807698	0.5326860174	
726.25	0.2910195569	0.6877560232	
726.875	0.1527890691	0.4622009255	
727.5	-0.3807984752	1.225269451	
728.125	0.7061440844	1.862533559	
728.75	0.8707693271	1.014899339	
729.375	-1.110251171	3.106357666	
730.0	2.146188848	3.293230518	
730.625	0.8186488318	1.483372812	
731.25	-1.359128263	3.091134466	
731.875	-0.5676167099	3.895093644	
732.5	-0.8946593529	0.688615917	
733.125	-2.830955119	0.4243033419	
733.75	0.3273605161	1.819755153	
734.375	0.2738325433	-0.1354514566	
735.0	0.0573821023	-0.8059970808	
735.625	-0.1878233623	0.5304255038	
736.25	-0.4146570529	0.2438597588	
736.875	0.6948055778	0.7000230284	
737.5	0.7922499665	-0.4832757371	
738.125	0.753972808	0.3811214298	
738.75	2.384039403	-1.86864464	
739.375	0.3095395421	-2.601466413	
740.0	0.9998352531	0.6917220246	
740.625	6.174808364	0.6359281929	
741.25	2.290308661	-1.809258055	
741.875	-4.606029562	-3.78469058	
742.5	-3.205965015	-1.447824575	
743.125	-0.1922953487	-0.3262854411	
743.75	0.1271036803	-1.112594931	
744.375	-0.5646772874	0.3300100884	
745.0	0.02948564252	-0.08924651031	
745.625	0.1906577374	-0.03121197763	
746.25	-0.0656586489	-0.003320091148	
746.875	-0.2447256845	-0.06835577031	
747.5	0.05158562822	0.4121595092	
748.125	0.2340188559	0.2651980476	
748.75	0.1053811363	0.4189629457	
749.375	0.2051491309	0.4456987931	
750.0	-0.2150118597	0.1792911872	
