!Created with skrf (http://scikit-rf.org).
# GHz S RI R (50+0j) 
!freq	ReS11	ImS11	
500.0	0.9570592484	-1.112346157	
500.625	-0.08594534291	-1.300293428	
501.25	0.05651563712	-0.5586745776	
501.875	-0.435646925	-0.8776675896	
502.5	-0.07673996655	-0.05191311643	
503.125	-0.07521321241	-0.04276582524	
503.75	0.07446954389	0.1282961028	
504.375	-0.00410833227	0.01351928431	
505.0	0.04653697066	-0.06092092991	
505.625	-0.03732575212	-0.008745230849	
506.25	0.01848668569	-0.1524243844	
506.875	-0.1600342258	0.2446051775	
507.5	0.3061935	-0.3480497327	
508.125	0.1985437958	-1.069789899	
508.75	0.1124762188	-0.711315124	
509.375	0.7066772026	-1.603710885	
510.0	-0.6882531069	-0.2998011655	
510.625	-0.09432151344	-0.05529599561	
511.25	-0.1589614989	-0.1668240444	
511.875	-0.1982715196	0.0253681738	
512.5	-0.003989467918	0.02915884839	
513.125	0.003595715407	-0.1359418922	
513.75	-0.07982863394	0.006892572521	
514.375	0.01553028978	-0.1296630783	
515.0	-0.3390107926	-0.06671913857	
515.625	0.6006822233	-0.2580803019	
516.25	-0.6888111392	-0.9664155715	
516.875	-0.002127381183	-0.09307674959	
517.5	0.1494053072	-0.1779347498	
518.125	-0.1228185528	0.0009371159526	
518.75	0.1028098803	-0.1261965018	
519.375	-0.06264017851	0.05981680586	
520.0	0.1204825653	0.02179298001	
520.625	0.1212095134	0.004813091734	
521.25	0.09735234886	-0.3903187988	
521.875	-0.184926369	-0.02191957256	
522.5	-0.01048587126	-0.03871585319	
523.125	-0.1526721161	0.1290669755	
523.75	0.02386637007	0.01990728022	
524.375	-0.2764522732	-0.1143931087	
525.0	0.07713420593	0.2365866368	
525.625	-0.04026017773	-0.02489855341	
526.25	0.04983221834	0.05152748103	
526.875	-0.1104055414	-0.002422380771	
527.5	-0.07935473123	0.3389679073	
528.125	0.09225501827	0.1730607376	
528.75	-0.1346804686	0.1595616439	
529.375	0.04095223592	0.02229137242	
530.0	-0.08796918881	0.01537718691	
530.625	0.07375723244	0.3804015886	
531.25	0.4813425825	0.1112872994	
531.875	0.1251996918	-0.0941919326	
532.5	-0.063956014	-0.2539361296	
533.125	-0.08115082353	0.05077605634	
533.75	0.2151129196	-0.3055043815	
534.375	-0.2206583378	-0.2306197993	
535.0	-0.1511372168	-0.1696040854	
535.625	-0.2577453399	0.1328034595	
536.25	0.03004817853	0.07601794873	
536.875	0.08307447271	0.06708809917	
537.5	0.0866308639	-0.08262589164	
538.125	0.06330183238	-0.02713484012	
538.75	0.2164063483	-0.1202781955	
539.375	-0.1263613838	-0.1643733662	
540.0	-0.09082973165	-0.1454237922	
540.625	-0.1716921193	-0.06516579965	
541.25	-0.1175640783	0.02684143558	
541.875	0.007492944244	-0.07273488838	
542.5	-0.1189321596	-0.04609599469	
543.125	-0.06019020416	0.04827248726	
543.75	-0.1171038698	-0.09844942508	
544.375	-0.0009996035331	0.1487620522	
545.0	-0.0537117792	0.02979842075	
545.625	0.1142961103	0.09184701706	
546.25	0.04100493176	0.007480441342	
546.875	0.1776354897	0.05486113082	
547.5	0.03958719655	-0.17864602	
548.125	-0.006962163585	-0.1008609996	
548.75	-0.1141346528	-0.1983671429	
549.375	-0.167665582	-0.0348320552	
550.0	-0.0337212335	-0.0299901905	
550.625	-0.1002833351	0.02991752747	
551.25	-0.04410027382	0.004745188749	
551.875	-0.1123071552	0.04771503705	
552.5	-0.02701040872	0.09245700122	
553.125	-0.0280996343	0.04350374715	
553.75	0.05800640008	0.05842158087	
554.375	0.08723812111	-0.006457496002	
555.0	0.1174144112	-0.0647722312	
555.625	0.09705200207	-0.1171388585	
556.25	0.07473979104	-0.1457616746	
556.875	-0.02309367129	-0.1733328628	
557.5	-0.1024338418	-0.1226861598	
558.125	-0.126486195	-0.04472766722	
558.75	-0.1135014156	-0.01321131477	
559.375	-0.1341880182	0.01268292092	
560.0	-0.09888557007	0.08790298721	
560.625	-0.06945444898	0.09792813806	
561.25	-0.001861952412	0.1324112093	
561.875	0.04193052787	0.009457239214	
562.5	-0.01365170487	0.09299789397	
563.125	0.09470305754	0.04571602601	
563.75	0.1218411122	0.04914959011	
564.375	0.1968439155	-0.1121124056	
565.0	0.03940789439	-0.1585299904	
565.625	0.03092363335	-0.1573988851	
566.25	-0.1737462087	-0.1392373473	
566.875	-0.09567570629	-0.01308498868	
567.5	-0.1306184571	-0.1880369501	
568.125	-0.2099037697	-0.1445376804	
568.75	-0.09857167682	-0.09232460638	
569.375	-0.3701875095	0.06619352139	
570.0	-0.06211093972	0.2544066289	
570.625	-0.08361711028	0.1011833054	
571.25	-0.02854245119	0.2166718529	
571.875	0.04783656342	-0.03042088401	
572.5	0.1712898295	0.0982216076	
573.125	0.07769665467	-0.2068213147	
573.75	0.003629056124	0.009871287975	
574.375	0.1234250749	-0.1450197883	
575.0	-0.07799722409	-0.02961657105	
575.625	0.1351685316	-0.05616932016	
576.25	0.0136193878	-0.2001351851	
576.875	-0.03475376298	-0.05079339916	
577.5	0.1080559711	-0.1868275271	
578.125	-0.1297347787	-0.2236379205	
578.75	-0.0652665965	-0.0214654116	
579.375	-0.001199103902	-0.2032781836	
580.0	-0.161012627	0.01184409302	
580.625	0.0388618829	-0.09394358713	
581.25	-0.2215506695	0.1846917777	
581.875	0.1078110047	0.0841704681	
582.5	-0.06569275974	0.1397326327	
583.125	0.1603760717	0.2034624932	
583.75	-0.02872210488	-0.1021501871	
584.375	0.04354983511	0.1817187343	
585.0	0.1154051099	-0.06716170813	
585.625	0.07835857235	0.08367707605	
586.25	0.2840955191	-0.1052114374	
586.875	-0.01861551226	-0.1440842816	
587.5	0.08174180222	-0.1129950246	
588.125	-0.04418964643	-0.2413195596	
588.75	-0.04329030206	-0.08270498646	
589.375	0.1911608919	-0.1422022091	
590.0	-0.1795990666	-0.2437709414	
590.625	-0.08770150208	-0.01267263156	
591.25	-0.255029049	0.04151973146	
591.875	0.01812471733	0.2267110788	
592.5	-0.1184255189	-0.1030091769	
593.125	0.02389940217	0.1652449053	
593.75	-0.05286339152	0.003799012484	
594.375	0.1448401233	0.227490623	
595.0	0.237809542	-0.02538751694	
595.625	0.05453154463	0.07891712482	
596.25	0.2369467749	0.1225032276	
596.875	0.179156552	-0.05012194525	
597.5	0.09260262428	0.1629516139	
598.125	0.243759143	0.1841595611	
598.75	0.1480448381	0.02768146468	
599.375	0.2188114285	0.05398700403	
600.0	0.2330856882	-0.1894108692	
600.625	0.05813627958	-0.1980678255	
601.25	0.1348997247	-0.1187822608	
601.875	-0.1244502262	-0.2398782419	
602.5	-0.05909630431	0.08355887665	
603.125	-0.1612424555	-0.07223323106	
603.75	-0.1439286497	0.1858262852	
604.375	-0.02689306726	-0.02892731585	
605.0	-0.202999231	0.1316962411	
605.625	0.04470791895	0.09955370326	
606.25	-0.149674368	-0.06649051424	
606.875	-0.1461751811	0.1939112615	
607.5	-0.06251841916	0.1575354912	
608.125	-0.150020285	0.2274212208	
608.75	0.2819385443	0.2548047354	
609.375	0.1805887718	-0.05451213147	
610.0	0.2026569738	-0.07809696454	
610.625	0.116199159	-0.2505510453	
611.25	-0.01973490413	-0.0640096629	
611.875	-0.01712394654	-0.193211738	
612.5	-0.2512980726	0.02101505877	
613.125	-0.04276476557	-0.02110254155	
613.75	-0.2260528962	0.1682566083	
614.375	0.1733185717	0.1137393274	
615.0	-0.1017242862	0.02120296556	
615.625	0.1391906221	0.1012899371	
616.25	-0.0249646874	0.03026145015	
616.875	-0.2235478544	0.1908317596	
617.5	-0.003210491449	0.3612884263	
618.125	-0.07995487959	0.3238651233	
618.75	-0.03837190728	0.287237576	
619.375	0.1992555527	0.1596277942	
620.0	0.09409271662	0.06757665022	
620.625	0.1712897604	-0.01931058385	
621.25	-0.1517078033	-0.1886139399	
621.875	-0.1227668103	-0.1160572394	
622.5	-0.3247864756	0.02643142754	
623.125	0.01397347785	0.2934779503	
623.75	0.0457693373	0.02969469407	
624.375	0.1501472356	-0.08872366844	
625.0	-0.04626630719	0.002141009026	
625.625	0.148686711	-0.09080183718	
626.25	-0.1325750342	-0.1661636951	
626.875	-0.05133890068	-0.04918359907	
627.5	-0.1918910403	-0.1136776929	
628.125	-0.164761359	-0.00836049195	
628.75	-0.0372135079	-0.1017904007	
629.375	-0.1301411516	-0.2359888469	
630.0	-0.2077584972	-0.05400951788	
630.625	-0.2064056455	-0.0005659729253	
631.25	-0.2170195664	0.2362531121	
631.875	0.0166911637	0.2576444204	
632.5	0.062004112	0.1081437888	
633.125	0.3027251254	0.121526949	
633.75	0.1042801016	-0.2318701656	
634.375	0.1193950761	-0.06084279081	
635.0	-0.04039676319	-0.2384656489	
635.625	-0.1075242112	0.000594517145	
636.25	-0.2299421801	-0.06321691372	
636.875	-0.05438845144	0.2346989375	
637.5	0.005482090858	0.0002754272619	
638.125	-0.1851681316	0.1285166371	
638.75	0.03408019187	0.1825988176	
639.375	-0.1109206802	0.1650363199	
640.0	0.1652498184	0.380665729	
640.625	0.2917444819	0.08500319921	
641.25	0.1971092851	0.1116713689	
641.875	0.3759436721	-0.1550838642	
642.5	-0.1014042537	-0.1996521054	
643.125	0.04190981919	-0.07016198318	
643.75	-0.2528361006	-0.159639423	
644.375	-0.01064220591	0.1418871535	
645.0	-0.2967860512	0.02954258982	
645.625	0.1941909866	0.3643596316	
646.25	0.09154516832	-0.01914843681	
646.875	0.1733291115	0.240092926	
647.5	0.09092649878	-0.1769306253	
648.125	0.1164700107	0.245847366	
648.75	0.412704468	-0.1821786358	
649.375	0.07477846247	-0.2134942554	
650.0	0.312943632	-0.1617120288	
650.625	0.2202002113	-0.4916834228	
651.25	0.01429262155	-0.177959742	
651.875	0.4099042783	0.008357091353	
652.5	0.396603517	-0.2262749026	
653.125	0.1250040194	-0.08095605372	
653.75	0.3994555228	-0.136843199	
654.375	-0.1562589964	-0.5185844336	
655.0	-0.1836562172	-0.01368490313	
655.625	-0.3428862111	0.07093283511	
656.25	0.1432738654	0.3805147148	
656.875	-0.09453167473	-0.1392566411	
657.5	0.09117360477	0.2791346955	
658.125	0.190269746	-0.008231678486	
658.75	0.1416802706	0.3351602101	
659.375	0.5452275473	-0.2261185974	
660.0	0.02050542955	-0.200388943	
660.625	0.3023730891	-0.2249642022	
661.25	0.2548610215	-0.4481225737	
661.875	0.07798317392	-0.2604365366	
662.5	0.4323527635	-0.02483101104	
663.125	0.3588433049	-0.3160708769	
663.75	0.08249768698	-0.2052358911	
664.375	0.1263660336	-0.367961066	
665.0	-0.3989351275	-0.2687692804	
665.625	-0.2239084694	0.06821050774	
666.25	-0.2539381722	0.249760791	
666.875	0.2296309127	0.3267538724	
667.5	0.08184455913	0.02065678368	
668.125	0.3252257089	0.1000765041	
668.75	0.1742491907	-0.2438718436	
669.375	0.1061030668	-0.05243881927	
670.0	0.1456531914	-0.3302278781	
670.625	-0.131308489	-0.2177812133	
671.25	0.2767171312	-0.07087479994	
671.875	0.168658108	-0.3159520252	
672.5	0.09849081822	-0.1335442768	
673.125	0.2679654887	-0.02496666849	
673.75	0.2656711516	-0.3562523603	
674.375	0.007919497358	-0.1364632801	
675.0	0.06384613379	-0.2921893116	
675.625	-0.2944143389	-0.2266836717	
676.25	-0.1281328272	0.07796705281	
676.875	-0.1878174552	-0.1701022047	
677.5	-0.2331921542	0.1372431466	
678.125	-0.07138755321	0.02926345783	
678.75	-0.181945376	0.3263984561	
679.375	0.3998732299	0.006282096353	
680.0	-0.02026657484	0.01377804116	
680.625	0.2930276677	-0.0515800403	
681.25	0.0005236863356	-0.1912792143	
681.875	0.01153243971	0.2470716495	
682.5	0.5545950939	-0.045443923	
683.125	0.09962752611	-0.06265972112	
683.75	0.187198299	0.2587428027	
684.375	0.4753278894	-0.06751725671	
685.0	0.1146454772	-0.1423098108	
685.625	0.3760230215	0.2795383163	
686.25	0.3876188007	-0.1921813784	
686.875	0.2189452595	-0.05942747609	
687.5	0.5254453554	-0.1901014794	
688.125	-0.1425635241	-0.5511617839	
688.75	-0.1963201322	-0.2030049371	
689.375	-0.506321859	0.2234108442	
690.0	0.2268966276	0.4568222072	
690.625	0.002140710685	0.09276759212	
691.25	0.4440330618	0.5634634317	
691.875	0.5166654151	0.1388198241	
692.5	0.4207384666	0.3530174519	
693.125	1.016838753	0.01545420616	
693.75	0.4264294634	-0.3880865619	
694.375	0.5325449216	-0.09029659205	
695.0	0.5566069138	-0.4859752492	
695.625	0.4457916922	-0.2346923153	
696.25	0.7419455335	0.3269053004	
696.875	0.6337568071	0.5437055741	
697.5	0.3153613839	0.2682881607	
698.125	0.5532460026	0.4243848891	
698.75	0.6346845068	-0.2691159658	
699.375	-0.4292020057	-0.3282362507	
700.0	-0.3281744839	0.1531585029	
700.625	0.2014120549	0.5005400831	
701.25	0.2394506128	-0.01619856542	
701.875	0.1458435455	0.4042064539	
702.5	0.566411353	0.2690214192	
703.125	0.2592479993	0.04931472249	
703.75	0.5339802937	0.05084247871	
704.375	0.3499647687	-0.3486322317	
705.0	0.08223638806	-0.06856123519	
705.625	0.4193166409	0.02584853278	
706.25	0.3210616907	0.05745389481	
706.875	0.2132222455	0.3749088669	
707.5	0.2911435177	0.5192000674	
708.125	0.5094275459	0.1603145181	
708.75	0.322532508	-0.09504459023	
709.375	0.09145887376	-0.2957127458	
710.0	-0.2434321013	0.2561925724	
710.625	-0.0592590651	0.04768203545	
711.25	0.2071548784	0.2645734135	
711.875	0.08631987594	-0.04639982559	
712.5	0.320112033	0.1559772825	
713.125	0.4035908938	-0.2560923642	
713.75	0.04633135269	-0.2217958426	
714.375	0.159072079	-0.2193983395	
715.0	-0.09762748911	-0.3235693798	
715.625	-0.002220532024	-0.08922721625	
716.25	0.3028359135	-0.2231395887	
716.875	0.3340073675	-0.3357907404	
717.5	0.4261916855	-0.04965660011	
718.125	0.8686983046	0.2773898795	
718.75	0.8597872394	-0.317567053	
719.375	0.5259080683	-0.07316730206	
720.0	1.074431605	-0.5335586726	
720.625	-0.001520959187	-0.957280091	
721.25	0.4586793716	-0.8041129826	
721.875	0.0009373921069	-1.443494126	
722.5	-1.109093285	-0.6315561036	
723.125	-0.4203556228	-0.3645386402	
723.75	-0.7508064849	0.5382746696	
724.375	0.1479781359	0.4154847801	
725.0	-0.1228623737	0.3681984122	
725.625	0.3035384428	0.7064274512	
726.25	0.1696481332	0.4227062386	
726.875	-0.5092743235	0.8729496465	
727.5	-0.1848961685	1.860176306	
728.125	0.4354975108	1.649920349	
728.75	-1.545059332	2.284546241	
729.375	-1.041814043	5.274739978	
730.0	0.4873595605	2.846947777	
730.625	-2.52419611	2.767025898	
731.25	-0.7151474052	5.402114497	
731.875	-1.454397568	1.348450791	
732.5	-3.653860012	-2.062406322	
733.125	-3.287125279	0.5249907925	
733.75	-0.4828898858	0.9389761976	
734.375	0.4789625075	1.08459264	
735.0	-0.09928302944	-0.8832103423	
735.625	0.02360748735	-0.1362567797	
736.25	-0.489819147	0.6590365435	
736.875	0.7512589616	0.5640430564	
737.5	0.3550997677	0.3101867212	
738.125	2.40788564	0.3202246379	
738.75	1.723964414	-2.171756882	
739.375	0.7571482389	-0.5528630127	
740.0	5.595549741	1.591059383	
740.625	4.083095596	-3.581873707	
741.25	-4.015798076	-0.6307315228	
741.875	-5.40056047	-0.07134160288	
742.5	-1.089898594	-0.3498469452	
743.125	1.837932458	-1.516804343	
743.75	0.02571491339	-2.427791754	
744.375	-0.4955606351	0.1607685814	
745.0	-0.2510835362	0.02765108896	
745.625	0.09031006286	-0.1184889363	
746.25	0.198125453	-0.0328577931	
746.875	-0.3538911485	-0.0283622166	
747.5	-0.06818136411	0.3667392159	
748.125	-0.05832297075	0.401110925	
748.75	0.2657249032	0.7037365676	
749.375	0.2195849709	0.3645984786	
750.0	-0.4637368305	0.1359627922	
