!Created with skrf (http://scikit-rf.org).
# GHz S RI R (50+0j) 
!freq	ReS11	ImS11	
500.0	-0.2118438061	-1.373272273	
500.625	0.7153530032	-0.4925163988	
501.25	-0.6170906818	-1.094538082	
501.875	-0.3166341392	-0.2538087835	
502.5	0.01035309045	-0.1575275482	
503.125	-0.1082736414	0.03021077934	
503.75	-0.03807915068	0.009195183429	
504.375	0.0615529118	0.007198637021	
505.0	-0.01607952709	-0.0222796898	
505.625	0.06162897789	-0.06017363723	
506.25	-0.1586806641	0.0002794049027	
506.875	0.05032268404	-0.1878254898	
507.5	-0.4945689514	-0.5650442379	
508.125	0.0258556098	-0.268741078	
508.75	1.170141147	-0.9290744764	
509.375	-0.4505737642	-1.679945217	
510.0	-0.4210642214	-0.2031292106	
510.625	-0.04535131522	-0.2879785109	
511.25	-0.1240186348	0.006446320335	
511.875	-0.06150102601	-0.1304929301	
512.5	-0.0509985033	0.0499575326	
513.125	-0.03780693555	-0.03873825595	
513.75	0.01902408265	-0.07780627384	
514.375	-0.1632651184	-0.02503555074	
515.0	0.269317851	0.1539854112	
515.625	-0.6365026989	-0.4840809942	
516.25	-0.1269363981	-0.1398431647	
516.875	0.09494603013	-0.674392781	
517.5	-0.200031467	-0.0853852719	
518.125	0.03915300299	-0.06267588248	
518.75	-0.1390327913	-0.2154100473	
519.375	-0.02833698859	0.03815156774	
520.0	0.0628219169	0.1012428083	
520.625	0.1899366299	-0.07016183001	
521.25	-0.1152729358	-0.232043416	
521.875	-0.04299642291	-0.0810482178	
522.5	-0.1220123082	0.04115497098	
523.125	0.05163582791	0.01857988351	
523.75	-0.2243403645	-0.1086198492	
524.375	-0.1135242599	0.1753282598	
525.0	-0.08602006909	-0.01885707139	
525.625	0.07323728168	0.1777674417	
526.25	-0.02903869636	-0.1218489716	
526.875	-0.03631987046	0.1262635217	
527.5	0.03714940504	0.1019873806	
528.125	0.03874097338	0.3788512106	
528.75	0.121615521	0.356613322	
529.375	0.009003746549	-0.01900879566	
530.0	0.002560370988	0.2724296788	
530.625	0.1880014871	0.3147157642	
531.25	0.2985620954	0.2794237711	
531.875	0.376976045	-0.1493827483	
532.5	-0.1044741839	0.02208908016	
533.125	0.2831294308	-0.002711480854	
533.75	0.003317377005	-0.1365030333	
534.375	0.08127469057	-0.3081191482	
535.0	-0.3459370038	-0.1242801246	
535.625	-0.09335578578	0.1126048245	
536.25	-0.04579178489	0.1001257872	
536.875	0.1419603044	0.005005263908	
537.5	0.03022031782	-0.01537927605	
538.125	0.1881154898	-0.06438809344	
538.75	0.06854801558	-0.1525040952	
539.375	-0.02950453711	-0.1657261051	
540.0	-0.2197917704	-0.233605873	
540.625	-0.1962028335	0.000557907593	
541.25	-0.06013213449	-0.05144437442	
541.875	-0.08084304708	-0.08507524272	
542.5	-0.01241241822	0.0001375074435	
543.125	-0.04589460598	-0.1708993799	
543.75	-0.09621891085	0.05702888908	
544.375	-0.07207423622	-0.02611906772	
545.0	0.02504378813	0.1097005051	
545.625	0.005179862653	-0.01674113871	
546.25	0.1385570732	0.1027672489	
546.875	0.09598332943	-0.07677072966	
547.5	0.1015702671	-0.06967574232	
548.125	-0.02714899894	-0.2542366157	
548.75	-0.1598529586	-0.06977539551	
549.375	-0.05260325792	-0.09586382759	
550.0	-0.1337619548	0.009348606158	
550.625	-0.01381001483	0.01222874873	
551.25	-0.1256629487	0.01882738633	
551.875	-0.0454905811	0.08561932906	
552.5	-0.07571532061	0.05325027544	
553.125	-0.02559709754	0.09615910924	
553.75	0.03714204792	0.04594822982	
554.375	0.1117468057	0.01048569709	
555.0	0.1055248247	-0.07704173544	
555.625	0.0933236879	-0.1033495816	
556.25	0.08374840418	-0.1501015213	
556.875	-0.03339694427	-0.1774038057	
557.5	-0.1023980806	-0.1138236794	
558.125	-0.1223511197	-0.05152228774	
558.75	-0.1251567861	-0.009152000784	
559.375	-0.1151979522	0.02229903533	
560.0	-0.1139817618	0.06699188535	
560.625	-0.06674380576	0.1405382129	
561.25	0.0218647502	0.08589991693	
561.875	0.00671948483	0.07348621895	
562.5	0.04082450223	0.03477504539	
563.125	0.0333570202	0.1071503686	
563.75	0.1908765778	-0.00585343298	
564.375	0.09436782273	-0.08660237616	
565.0	0.1412234182	-0.1421456467	
565.625	-0.07777974445	-0.218921374	
566.25	-0.08018457301	-0.07487363425	
566.875	-0.1585147564	-0.1480109539	
567.5	-0.2302431577	-0.04506761763	
568.125	-0.03775365976	-0.1672941581	
568.75	-0.358033188	-0.1355024098	
569.375	-0.1809814754	0.1538518234	
570.0	-0.2163838474	0.1136835221	
570.625	-0.07072442485	0.2996180572	
571.25	0.04004208705	0.04409208942	
571.875	0.0291927739	0.1773385988	
572.5	0.1336055478	-0.1164154062	
573.125	0.09013313382	0.003636173505	
573.75	0.1341135848	-0.2260244868	
574.375	-0.08458138454	-0.0637778787	
575.0	0.1392440941	-0.007773382163	
575.625	-0.03706198596	-0.1325155491	
576.25	0.06427427488	-0.01531453609	
576.875	0.03969512323	-0.2372681981	
577.5	-0.1005070532	-0.171275266	
578.125	0.02839731226	-0.06121624129	
578.75	-0.06349326523	-0.2385296397	
579.375	-0.1877670309	-0.003550942792	
580.0	0.1214381059	-0.07289373007	
580.625	-0.2136623725	-0.00999350629	
581.25	0.009591672125	0.01373612287	
581.875	-0.1497328647	0.1937188531	
582.5	0.2042937291	0.1980082506	
583.125	0.04487562187	-0.03079043607	
583.75	0.08733505483	0.1619447835	
584.375	0.05947640201	-0.06081751027	
585.0	0.0467937381	0.1642785885	
585.625	0.2630306632	-0.03650921683	
586.25	0.0442896275	-0.04681673936	
586.875	0.1791775027	-0.09011044736	
587.5	-0.08164919703	-0.2089226984	
588.125	0.0004827507774	-0.04506662901	
588.75	0.1271252671	-0.2030392624	
589.375	-0.02335707456	-0.214612614	
590.0	0.026500641	-0.1209556085	
590.625	-0.276371004	-0.1371845679	
591.25	-0.0009628243302	0.202945391	
591.875	-0.08078052353	0.01387086426	
592.5	0.0006998808148	0.1562414963	
593.125	-0.03389780433	-0.06623565457	
593.75	0.2041190724	0.2687200803	
594.375	0.154110783	-0.01792602523	
595.0	0.08079137958	0.1595851793	
595.625	0.2708833863	0.1351962062	
596.25	0.0980047511	-0.03084195347	
596.875	0.1259494487	0.1508641591	
597.5	0.2527986341	0.08472612134	
598.125	0.09853855867	0.05103485487	
598.75	0.1897883549	0.1696297576	
599.375	0.2652463765	-0.1103033709	
600.0	0.1306241093	-0.09581398911	
600.625	0.2396783619	-0.1641669632	
601.25	0.04909287774	-0.2900875315	
601.875	-0.06091723358	-0.04727369566	
602.5	-0.1722659484	-0.1303652902	
603.125	-0.09823934449	0.1502399272	
603.75	-0.090184851	-0.06344516361	
604.375	-0.2245791037	0.1484681591	
605.0	0.05386895713	0.1138619857	
605.625	-0.2010226466	0.03869575243	
606.25	-0.1160662201	0.1855078062	
606.875	-0.2345301245	-0.006990801659	
607.5	-0.2940014576	0.2082648472	
608.125	0.002860333116	0.2345222649	
608.75	0.1350355885	0.1895786028	
609.375	0.3026950257	0.03793151281	
610.0	0.1640229128	-0.2155725527	
610.625	0.05458581132	-0.1085316688	
611.25	0.07969152901	-0.2734949281	
611.875	-0.1918429696	-0.0826539568	
612.5	-0.09153689366	-0.1532387735	
613.125	-0.3283873055	0.07145890569	
613.75	0.03279187692	0.1428828818	
614.375	-0.1019116122	0.1471144429	
615.0	0.1696456374	0.074690616	
615.625	-0.07586644208	-0.02299111592	
616.25	-0.02337588471	0.2683862685	
616.875	0.004043340845	0.1520932259	
617.5	-0.1664333545	0.1458247607	
618.125	-0.0839482482	0.3422879985	
618.75	0.05176110495	0.17921345	
619.375	0.09704256346	0.1545449778	
620.0	0.2755046405	0.05819818597	
620.625	0.05551210911	-0.1334126571	
621.25	0.006588969238	-0.2323677222	
621.875	-0.2864889388	-0.2039620146	
622.5	-0.1622838545	0.1111707203	
623.125	-0.1463414649	0.1505537581	
623.75	0.227382483	0.09242677108	
624.375	-0.05478500968	-0.06766388617	
625.0	0.143547754	-0.04022567494	
625.625	-0.03823655485	-0.08967196297	
626.25	0.04179556748	-0.136834222	
626.875	-0.2221653066	-0.1424867342	
627.5	-0.1408760713	0.01375147816	
628.125	-0.05775671739	-0.1479998163	
628.75	-0.1460217896	-0.1501557205	
629.375	-0.05243409544	-0.09428566172	
630.0	-0.1380405826	-0.1317473067	
630.625	-0.2719403552	0.09578781439	
631.25	-0.0765677942	0.2433863095	
631.875	-0.1219949259	0.2832496611	
632.5	0.2468383917	0.3020200033	
633.125	0.1785967953	0.01402483293	
633.75	0.2407184427	0.01528389352	
634.375	0.02415728461	-0.2224881658	
635.0	0.0474163548	-0.02664286896	
635.625	-0.2054739601	-0.2041705302	
636.25	-0.1405915573	0.1462512491	
636.875	-0.06740422108	0.02374312557	
637.5	-0.09676432251	0.2002799764	
638.125	0.05417603906	0.03287910515	
638.75	-0.1990457196	0.1711178541	
639.375	0.0649572147	0.3423301817	
640.0	0.1034625216	0.147160549	
640.625	0.1600535969	0.2484142737	
641.25	0.387305646	-0.03595643752	
641.875	0.09298794058	-0.1346591794	
642.5	0.1372233675	-0.2392562394	
643.125	-0.3189069136	-0.1940958514	
643.75	-0.01435516341	-0.02898309941	
644.375	-0.3184563867	-0.1257702752	
645.0	-0.06653181521	0.2342115173	
645.625	-0.1301911116	0.009577756987	
646.25	0.2692101498	0.2862243522	
646.875	0.04967777407	-0.1517557732	
647.5	0.05650671804	0.2183228328	
648.125	0.2303889248	-0.09268558438	
648.75	0.1272232514	0.04361211426	
649.375	0.4481312674	-0.2711573661	
650.0	0.01715109455	-0.4402587011	
650.625	0.1672938625	-0.1012117615	
651.25	0.4108788435	-0.2903511266	
651.875	0.1694937878	-0.3184681845	
652.5	0.1954099811	0.08361339094	
653.125	0.4633418849	-0.108256728	
653.75	0.09486849788	-0.2890119321	
654.375	0.1298441912	-0.2417063532	
655.0	-0.4297317978	-0.2324560543	
655.625	-0.04796158707	0.3295356577	
656.25	-0.1073258768	0.0518982783	
656.875	0.1266193871	0.2443156311	
657.5	-0.101151624	-0.1412540308	
658.125	0.1499284322	0.3611509298	
658.75	0.3562139873	-0.140935642	
659.375	0.2014055321	-0.02993579627	
660.0	0.4272918646	-0.2586207943	
660.625	0.05585506815	-0.4883041366	
661.25	0.1752469029	-0.09174643026	
661.875	0.3965904369	-0.2886818587	
662.5	0.2338940283	-0.312536157	
663.125	0.2180747601	-0.05262256808	
663.75	0.3376249983	-0.4146320289	
664.375	-0.1419343022	-0.3114810902	
665.0	-0.1314398083	-0.2726660927	
665.625	-0.4720099814	0.02407892625	
666.25	-0.01563447563	0.3254500517	
666.875	-0.01781920795	0.2099628647	
667.5	0.3197366606	0.2061778249	
668.125	0.1265111798	-0.1237306313	
668.75	0.2660159696	0.01179834584	
669.375	0.129223673	-0.3996575553	
670.0	-0.0210426004	-0.02665246776	
670.625	0.1673959889	-0.2558419654	
671.25	-0.06830279444	-0.2894481469	
671.875	0.08103763844	-0.007888071326	
672.5	0.3832071652	-0.1663567923	
673.125	0.1412875729	-0.2501283711	
673.75	0.1670127789	-0.1082254539	
674.375	0.2017098194	-0.326683186	
675.0	-0.2322841156	-0.2487645852	
675.625	-0.02374015409	-0.1598163904	
676.25	-0.2959449147	-0.1403238924	
676.875	-0.1435207348	0.1159703584	
677.5	-0.09801056827	-0.1301133719	
678.125	-0.2854196901	0.2609029904	
678.75	0.150905105	0.1074885074	
679.375	0.06071025198	0.2242524492	
680.0	0.3978279869	-0.1884661302	
680.625	-0.1295123097	-0.0947879824	
681.25	0.3874130548	0.1461075496	
681.875	0.2064591427	-0.1586840149	
682.5	0.01103328385	0.09151813463	
683.125	0.5250025309	0.2512438465	
683.75	0.2827387272	-0.1965243117	
684.375	0.2901285282	0.3496057455	
685.0	0.4676476618	0.1095980639	
685.625	0.2485388292	-0.1104630709	
686.25	0.1675547028	0.2003575555	
686.875	0.3599708864	-0.2979205335	
687.5	0.1235253642	-0.218378911	
688.125	0.1758065914	-0.4279476485	
688.75	-0.5685267203	-0.3812137854	
689.375	-0.2066330573	0.3561542757	
690.0	-0.1919700679	0.3788529446	
690.625	0.4232312947	0.3526923461	
691.25	0.1936945066	0.1378305147	
691.875	0.446201303	0.7130207752	
692.5	0.8416783553	0.07075075904	
693.125	0.4512255464	0.07192905389	
693.75	0.9070577257	-0.1571793316	
694.375	0.4856455451	-0.6334586326	
695.0	0.6679072091	0.05697403447	
695.625	0.8239682181	0.02946351321	
696.25	0.6008736886	0.01081532708	
696.875	0.2920399953	0.4819798403	
697.5	0.3126517552	0.6706649044	
698.125	0.6873204066	0.258295852	
698.75	0.4513018818	-0.09021757394	
699.375	-0.3383801454	-0.6875597825	
700.0	-0.4592020855	0.4856516232	
700.625	0.004044332021	0.1674878541	
701.25	0.337861122	0.4299307392	
701.875	0.2788062479	0.06199036298	
702.5	0.1825466848	0.3862683933	
703.125	0.590533345	0.228840388	
703.75	0.3084530343	-0.2436631376	
704.375	0.4095828463	-0.04064418327	
705.0	0.3826767942	-0.2418354107	
705.625	0.2263565024	0.1354505865	
706.25	0.2305311604	0.3763942449	
706.875	0.3438471959	0.33152538	
707.5	0.1352639334	0.2383796226	
708.125	0.3447162275	0.1294292692	
708.75	0.403361197	-0.3771313242	
709.375	-0.2151166479	-0.1776014152	
710.0	-0.2980479257	0.0282577113	
710.625	0.1240361532	0.3111934807	
711.25	-0.01056345342	0.06230994487	
711.875	0.2639069443	0.3337732783	
712.5	0.2936745577	-0.1423530526	
713.125	0.2353319301	0.01899543877	
713.75	0.2717972346	-0.3230837192	
714.375	-0.08508034519	-0.2455254747	
715.0	0.09243875063	-0.1389389602	
715.625	0.01853331366	-0.3611858157	
716.25	0.07825278912	-0.2494222556	
716.875	0.4525203936	-0.02294322384	
717.5	0.7433241002	-0.126728923	
718.125	0.4744464047	-0.03513186942	
718.75	0.6498248336	0.1554869998	
719.375	0.9517380354	-0.6256524013	
720.0	0.3856930601	-0.635847105	
720.625	0.8611670448	-0.3222941604	
721.25	-0.2033178605	-1.818671608	
721.875	-0.05079560839	-0.6680737413	
722.5	-0.3768163655	-1.257098267	
723.125	-0.9385944098	-0.1153908297	
723.75	-0.150891373	0.1774650641	
724.375	-0.2456070619	0.6486889854	
725.0	0.3418389306	0.2936818192	
725.625	-0.0865258442	0.3810021856	
726.25	-0.0568734806	0.9426502803	
726.875	0.2075102355	1.059400331	
727.5	-0.5067352738	0.9416609986	
728.125	-0.5655846679	2.601853458	
728.75	0.5721404673	2.701027867	
729.375	-1.290553364	1.916851262	
730.0	-1.239900556	5.423703008	
730.625	1.085704727	3.676065402	
731.25	-1.341992539	1.200302216	
731.875	-5.28148138	2.873069804	
732.5	-2.589320534	3.153405099	
733.125	-1.871535316	-1.075666108	
733.75	-1.917826276	2.090818059	
734.375	0.8829380177	0.05804022446	
735.0	0.410200596	-0.2987293671	
735.625	-0.8309145081	0.1842965204	
736.25	0.09756879867	0.0118527284	
736.875	0.1031473327	1.073867976	
737.5	1.505321792	0.1555014253	
738.125	0.7929625535	-0.6116854845	
738.75	2.34694211	0.707743971	
739.375	3.881750475	-3.328960709	
740.0	-0.3464457195	-1.846653685	
740.625	2.672648391	3.472615418	
741.25	5.75203608	4.134187582	
741.875	-0.2829960237	-3.030935321	
742.5	-1.985027118	-5.320826073	
743.125	-1.147118782	-2.084416599	
743.75	0.4405520568	-0.4993914367	
744.375	-0.7209544111	-0.4512537793	
745.0	0.3188714992	0.02415191476	
745.625	0.06406808669	0.1480280905	
746.25	-0.06864115559	-0.1823145618	
746.875	-0.09746207762	-0.06718327131	
747.5	-0.3039146611	0.4245015053	
748.125	0.2311214229	0.5402258611	
748.75	0.1226414549	0.3834050881	
749.375	-0.01681086233	0.6079971433	
750.0	-0.283897482	0.3649511835	
