!Created with skrf (http://scikit-rf.org).
# GHz S RI R (50+0j) 
!freq	ReS11	ImS11	
500.0	0.08888658534	-1.650066564	
500.625	-0.1719701761	-0.5955944211	
501.25	-0.2325983261	-0.9870960313	
501.875	-0.5603029779	-0.314615803	
502.5	0.002084897201	-0.08699140422	
503.125	-0.1260155965	-0.01327291734	
503.75	0.07447965576	0.04298245214	
504.375	0.02550285605	0.02644686048	
505.0	0.007211564087	-0.06018871484	
505.625	0.05354352672	-0.001143379388	
506.25	-0.1046324692	-0.1541708885	
506.875	0.133495539	0.05540816852	
507.5	0.05975328954	-0.6556458525	
508.125	-0.2758243012	-0.6881012475	
508.75	0.8048994243	-0.4538184484	
509.375	0.3023028333	-1.552341099	
510.0	-0.5950840976	-0.08558790397	
510.625	-0.005338649249	-0.1930503765	
511.25	-0.1214682858	-0.08928422337	
511.875	-0.05855495165	-0.01670408299	
512.5	-0.0376975401	0.04323285009	
513.125	-0.03489631663	-0.09348654714	
513.75	-0.01247740202	-0.003895643362	
514.375	-0.07723072196	-0.1064067296	
515.0	-0.06108090443	0.2721800994	
515.625	0.203754196	-0.9513278602	
516.25	-0.8004089296	0.0009223379329	
516.875	0.175906487	-0.2471660998	
517.5	-0.006558722526	-0.3216308387	
518.125	-0.03067637045	0.0562488481	
518.75	-0.07633384187	-0.2181854169	
519.375	-0.04338883169	0.06490753491	
520.0	0.08255828053	0.07441873115	
520.625	0.1983275165	0.0003633678486	
521.25	-0.01753179156	-0.2009002512	
521.875	-0.08140042768	0.02120395342	
522.5	-0.09238969029	-0.0408459562	
523.125	0.01333458377	0.1456675505	
523.75	-0.02334366918	-0.080387385	
524.375	-0.3022927642	0.09676438004	
525.0	0.09838129936	0.07080140576	
525.625	-0.06456096476	0.06338278196	
526.25	0.07451116298	-0.05311247286	
526.875	-0.1395304851	0.06963272093	
527.5	0.07365522441	0.1891519665	
528.125	-0.01521182716	0.1279341046	
528.75	0.1203062894	0.315624178	
529.375	0.1017873689	0.002058004395	
530.0	-0.03189798736	0.192989014	
530.625	0.09396438409	0.306373859	
531.25	0.2674480031	0.03532978974	
531.875	0.3208279565	-0.08769861291	
532.5	-0.04736832596	-0.2446031567	
533.125	0.1668504148	0.05363632868	
533.75	0.09244905811	-0.3721308526	
534.375	-0.04374106969	-0.1584936275	
535.0	-0.239072685	-0.2153160132	
535.625	-0.1379836766	0.182392605	
536.25	-0.01411572422	0.05371086384	
536.875	0.1258718157	0.04906331446	
537.5	0.04126313571	-0.07898578584	
538.125	0.1151855069	0.01320757924	
538.75	0.1526334068	-0.1973019873	
539.375	-0.06783986317	-0.09911099448	
540.0	-0.1346214572	-0.1861080223	
540.625	-0.2055136948	-0.01288114346	
541.25	-0.03277696408	0.02333480631	
541.875	-0.08219788551	-0.08200394419	
542.5	-0.07691589663	-0.01989546742	
543.125	-0.02016978776	-0.06009666109	
543.75	-0.1541638469	0.01189336188	
544.375	0.01556453257	0.03178675987	
545.0	-0.05955678579	0.09451476015	
545.625	0.09160279607	0.01319944113	
546.25	0.004161304433	0.07726511308	
546.875	0.1896915426	-0.05522724673	
547.5	0.001407073344	-0.09434465641	
548.125	0.02512248533	-0.1722170886	
548.75	-0.1865427214	-0.1332747533	
549.375	-0.08607703129	-0.01184541084	
550.0	-0.09679942238	-0.0506773814	
550.625	-0.03738251329	0.05339650635	
551.25	-0.07525804073	-0.0136453655	
551.875	-0.08704816984	0.1042973626	
552.5	-0.01718456466	0.06762062957	
553.125	-0.03342958793	0.07308574383	
553.75	0.05620432137	0.03692031592	
554.375	0.09245844743	0.006953580237	
555.0	0.1110758128	-0.07971746085	
555.625	0.08388841921	-0.1124608765	
556.25	0.06891633936	-0.1408753483	
556.875	-0.0343698928	-0.1716423591	
557.5	-0.1084655127	-0.1049267976	
558.125	-0.1170591811	-0.03889340351	
558.75	-0.1173661631	-0.01150570688	
559.375	-0.1220800905	0.0308411336	
560.0	-0.08660394208	0.06971025687	
560.625	-0.07256291725	0.1154700553	
561.25	0.03874844085	0.1211239785	
561.875	0.0001747780187	0.02540004998	
562.5	0.04142508806	0.07974683908	
563.125	0.03975860574	0.04939770862	
563.75	0.1746605103	0.04252815798	
564.375	0.1223901522	-0.1463931417	
565.0	0.05027247653	-0.1046433943	
565.625	-0.009808440057	-0.2111983147	
566.25	-0.1824569275	-0.05954824024	
566.875	-0.07898415709	-0.09478563807	
567.5	-0.1981671968	-0.1432087333	
568.125	-0.1498915447	-0.06357289648	
568.75	-0.2007239311	-0.1883049479	
569.375	-0.2787336652	0.1800399346	
570.0	-0.0570435487	0.14303133	
570.625	-0.1571213814	0.1749346613	
571.25	0.11538236	0.1645517391	
571.875	-0.03676635225	0.06559646933	
572.5	0.2218160331	-0.008027284753	
573.125	-0.0185174338	-0.1144012727	
573.75	0.1400651905	-0.03742548007	
574.375	-0.02689819052	-0.1828374552	
575.0	0.02137957221	0.05623734604	
575.625	0.08041371032	-0.1611565668	
576.25	-0.04414877893	-0.07299985975	
576.875	0.08212696241	-0.1075002809	
577.5	-0.009144744609	-0.2576045598	
578.125	-0.1183696593	-0.09939708002	
578.75	0.04209454511	-0.1040573542	
579.375	-0.158612245	-0.1719867946	
580.0	-0.02909621423	0.09000744051	
580.625	-0.127410588	-0.1729613393	
581.25	-0.0188366217	0.2221943807	
581.875	-0.04632823698	0.03677570008	
582.5	-0.004425844546	0.2681320111	
583.125	0.2094504035	-0.03228960941	
583.75	-0.08145363843	0.04759049857	
584.375	0.1639304275	0.04064263274	
585.0	0.008143323979	0.009246272397	
585.625	0.2579607172	0.09574340046	
586.25	0.1339205068	-0.1835096779	
586.875	0.04774771738	-0.04441099297	
587.5	0.03959475303	-0.2249981728	
588.125	-0.1044359426	-0.1012590246	
588.75	0.09849959156	-0.07393399086	
589.375	0.09673206279	-0.2494069293	
590.0	-0.1214755779	-0.09868930699	
590.625	-0.1124000656	-0.1390136742	
591.25	-0.2184090659	0.1966227502	
591.875	0.1074276182	0.03239693692	
592.5	-0.1204366185	0.06701491499	
593.125	0.09210087773	0.002981957248	
593.75	-0.06993392225	0.1571567823	
594.375	0.3163792689	0.04425392834	
595.0	0.08549010629	0.005132519682	
595.625	0.1615933498	0.1948195799	
596.25	0.2498978795	-0.002085279126	
596.875	0.06118954004	0.05007736787	
597.5	0.1837612586	0.1765069518	
598.125	0.1810804858	0.03247573643	
598.75	0.1136994151	0.1208275108	
599.375	0.2854431153	-0.02121001509	
600.0	0.1145250559	-0.2131556598	
600.625	0.1290042579	-0.1287793331	
601.25	0.1336246118	-0.2447518114	
601.875	-0.1612848217	-0.1299189843	
602.5	-0.02886015516	-0.04993884893	
603.125	-0.2366727785	0.08925688061	
603.75	-0.0007176108376	0.1036388746	
604.375	-0.1834863888	-0.0278664493	
605.0	-0.09557857189	0.201591054	
605.625	0.02278699862	-0.03679621174	
606.25	-0.2084547158	0.1845364803	
606.875	-0.05626545607	0.1180209661	
607.5	-0.2682244742	0.1327571701	
608.125	-0.0722382941	0.3510486551	
608.75	0.2488265543	0.07520392995	
609.375	0.2532544702	0.001920233195	
610.0	0.2435837619	-0.1634874928	
610.625	-0.007447511414	-0.1751479399	
611.25	0.03020451268	-0.1152694201	
611.875	-0.132124782	-0.1919903218	
612.5	-0.1299330336	0.04604413478	
613.125	-0.217929761	-0.07249902014	
613.75	-0.114394402	0.2713901231	
614.375	0.06818539639	-0.02262061472	
615.0	0.04779000148	0.2113439996	
615.625	0.09670327861	-0.01047267583	
616.25	-0.1529124795	0.0881623545	
616.875	-0.08400415079	0.3398697176	
617.5	-0.1268720477	0.1266839168	
618.125	-0.1178905051	0.2461331379	
618.75	0.09656202648	0.2806186239	
619.375	0.08971175368	0.06506450989	
620.0	0.1254376428	-0.001184457217	
620.625	0.1138986125	-0.2136219182	
621.25	-0.1692244698	-0.1491630723	
621.875	-0.2085009049	-0.167999532	
622.5	-0.3949885205	0.07011571695	
623.125	0.03170933585	0.1323864251	
623.75	0.1246156716	0.1469920255	
624.375	0.01757437643	-0.1483614896	
625.0	0.04398501853	0.07718286997	
625.625	0.06133815297	-0.1818382239	
626.25	-0.07364421834	-0.0439790661	
626.875	-0.09445412261	-0.1615211004	
627.5	-0.2287256036	-0.01935841911	
628.125	-0.07144791527	-0.01114804054	
628.75	-0.04706696328	-0.2108645114	
629.375	-0.1310371678	-0.1446329828	
630.0	-0.1184860116	-0.112889912	
630.625	-0.2710712846	0.03438501114	
631.25	-0.09642711117	0.2570460429	
631.875	0.0486638834	0.1992729728	
632.5	0.06548495914	0.2654491672	
633.125	0.3127186031	-0.01904065235	
633.75	0.09261525952	-0.04581661263	
634.375	0.1830427557	-0.1676543705	
635.0	-0.1098758132	-0.1147236052	
635.625	-0.0009029785396	-0.1545521943	
636.25	-0.2625375748	0.1285154814	
636.875	0.03373383333	0.1149404615	
637.5	-0.1178917576	0.0251647673	
638.125	-0.02058148261	0.2017117667	
638.75	-0.0633020741	0.03888126977	
639.375	-0.08144598266	0.3441616627	
640.0	0.2648852323	0.2329440521	
640.625	0.1313772973	0.109290065	
641.25	0.3438478486	0.1090381945	
641.875	0.1306314303	-0.2809041159	
642.5	-0.01936485214	-0.09821593888	
643.125	-0.06978376028	-0.2614652712	
643.75	-0.2393888721	0.08339822054	
644.375	-0.08228913765	-0.1260086038	
645.0	-0.3510762755	0.2835792809	
645.625	0.1757958501	0.1274102566	
646.25	-0.08725887935	0.1759410076	
646.875	0.3336502287	-0.03307062487	
647.5	-0.1484228286	0.03470566606	
648.125	0.3278857109	0.1125171018	
648.75	0.112268274	-0.2151620081	
649.375	0.2358077205	-0.05735345681	
650.0	0.288359172	-0.4641888223	
650.625	-0.05357376137	-0.3253681701	
651.25	0.2540781505	-0.0273717955	
651.875	0.4164717522	-0.2765500042	
652.5	0.1340537571	-0.2090899543	
653.125	0.2897926247	0.07458762848	
653.75	0.283091005	-0.3924871547	
654.375	-0.1453383071	-0.1955807396	
655.0	-0.1638317625	-0.2333290421	
655.625	-0.2688866116	0.3330113848	
656.25	0.1795246453	0.03113990472	
656.875	-0.1013873024	0.148877401	
657.5	0.2082356282	0.06472631603	
658.125	-0.1452904161	0.1075440786	
658.75	0.4993544601	0.2189954129	
659.375	0.2021778312	-0.3159132812	
660.0	0.2220542376	-0.1167922981	
660.625	0.2788518655	-0.4609110307	
661.25	2.043777705e-06	-0.3789794496	
661.875	0.3045967018	-0.04826025698	
662.5	0.3798618523	-0.3151409963	
663.125	0.1388943249	-0.2470144426	
663.75	0.2477517259	-0.1631505748	
664.375	-0.1014760949	-0.4866094451	
665.0	-0.2589615063	-0.09028101308	
665.625	-0.3171494263	-0.03368805683	
666.25	-0.1517248577	0.3927525953	
666.875	0.1855910177	0.1071991179	
667.5	0.1245061035	0.2054637477	
668.125	0.3178404864	-0.08935908107	
668.75	0.03308297077	-0.09377920474	
669.375	0.2565721486	-0.1969228056	
670.0	-0.1154296079	-0.3197698943	
670.625	0.06055718438	-0.02515853403	
671.25	0.1601608435	-0.3151967002	
671.875	0.03058251827	-0.2422998149	
672.5	0.1768224315	0.01173671836	
673.125	0.3529025058	-0.2873152975	
673.75	0.007606906417	-0.1916801004	
674.375	0.1363517838	-0.1881255603	
675.0	-0.08059064721	-0.3662475496	
675.625	-0.2490679564	0.01035329498	
676.25	-0.1468765642	-0.2084870997	
676.875	-0.2794366204	0.07208292377	
677.5	-0.03430708631	0.05774932708	
678.125	-0.2661732213	0.06425923841	
678.75	0.1393514397	0.3480626628	
679.375	0.1184879636	-0.04842744229	
680.0	0.2060070173	0.08358438288	
680.625	0.1380460195	-0.3341703631	
681.25	-0.1201140015	0.07510131389	
681.875	0.5535560849	0.1314615379	
682.5	0.1574825692	-0.1614378821	
683.125	0.09309141912	0.1823305888	
683.75	0.53914562	0.1384248349	
684.375	0.03162812869	-0.1943601583	
685.0	0.4455879785	0.335155816	
685.625	0.4425474603	-0.09331877008	
686.25	0.1819119546	-0.02829594795	
686.875	0.3885908194	0.04193312387	
687.5	0.2903817026	-0.473381935	
688.125	-0.07380483957	-0.2456052889	
688.75	-0.3963526489	-0.3241219085	
689.375	-0.3753475683	0.470299561	
690.0	0.134020377	0.2641935522	
690.625	0.1618836417	0.4780826251	
691.25	0.4917519475	0.1589849048	
691.875	0.2514261684	0.269912312	
692.5	0.8249054474	0.4990157795	
693.125	0.7027942578	-0.3054575895	
693.75	0.4405373312	-0.02655257371	
694.375	0.6765837267	-0.5621888267	
695.0	0.353742033	-0.4705186743	
695.625	0.6686762707	0.2649896721	
696.25	0.7684426563	0.2439711095	
696.875	0.4688394893	0.1589034702	
697.5	0.3411082234	0.5229364824	
698.125	0.5884881467	0.2182028163	
698.75	0.3209428261	-0.502157017	
699.375	-0.3879351055	-0.3736557967	
700.0	-0.4287070654	0.4009679568	
700.625	0.2971511905	0.3199161256	
701.25	0.05564464971	0.2305333944	
701.875	0.4027061449	0.3834189695	
702.5	0.2945015646	0.05095033808	
703.125	0.3326121817	0.315347733	
703.75	0.551196321	-0.1575113664	
704.375	0.109730559	-0.2537938394	
705.0	0.3932149788	-0.0119384206	
705.625	0.3424806726	-0.141247808	
706.25	0.1351885051	0.1612235624	
706.875	0.2458250241	0.4632777981	
707.5	0.3183325891	0.2946834073	
708.125	0.2820882166	0.1706099348	
708.75	0.1663626432	-0.2971771982	
709.375	-0.3138057861	-0.3040309585	
710.0	-0.07709280004	0.1828440604	
710.625	-0.06032295738	0.2430542746	
711.25	0.4569201305	0.1217869844	
711.875	0.07899462925	0.2021816097	
712.5	0.5012919504	0.05723448224	
713.125	0.164992944	-0.2637826697	
713.75	0.2248251396	-0.0497971703	
714.375	0.02755390473	-0.3788877305	
715.0	-0.1003282008	-0.1062402959	
715.625	0.1696654213	-0.2003312974	
716.25	0.1311052442	-0.3875276172	
716.875	0.1652599206	-0.1130825573	
717.5	0.5996999219	0.1428058095	
718.125	0.8623015517	-0.1248825152	
718.75	0.3902936149	-0.08025811022	
719.375	0.7125476489	-0.1504520487	
720.0	0.3180409469	-1.056422265	
720.625	0.2654319482	-0.5701527318	
721.25	0.1996697793	-1.320011379	
721.875	-0.7954510254	-1.31348833	
722.5	-0.2915106174	-0.5562502585	
723.125	-1.062813641	-0.6032207162	
723.75	-0.2959754747	0.5812641643	
724.375	-0.06002696622	0.07585821138	
725.0	0.1178562477	0.6729333658	
725.625	0.3271924405	0.2539621714	
726.25	-0.2584829563	0.5531783497	
726.875	-0.1671317499	1.270236612	
727.5	0.2809577069	1.22641616	
728.125	-0.670549446	1.415744343	
728.75	-0.092319821	3.645979251	
729.375	0.6050308689	2.867118695	
730.0	-1.893766167	2.520052563	
730.625	1.172283893	5.830830105	
731.25	0.1787759212	2.216474921	
731.875	-3.267218586	1.538704198	
732.5	-4.736895991	1.117228681	
733.125	-1.423770856	1.710992961	
733.75	-1.383287313	0.740577927	
734.375	1.302159313	0.5496727275	
735.0	-0.3714033174	-0.1561413337	
735.625	-0.4760874749	-0.297471406	
736.25	0.1442704956	0.8339404684	
736.875	0.08352185366	0.1799985172	
737.5	1.503513912	0.9739944122	
738.125	1.667023474	-1.072232645	
738.75	0.7394047541	-0.7519882304	
739.375	3.69201513	0.194383943	
740.0	4.225486754	-4.930888762	
740.625	-1.268749881	-0.4330647146	
741.25	-1.125645687	5.484982857	
741.875	-0.1594669237	4.499982534	
742.5	1.147337135	-2.329993542	
743.125	-0.2004803967	-3.8749216	
743.75	-0.6463903337	-0.7421070893	
744.375	0.02302724531	-0.1976975323	
745.0	0.07969761029	0.3323506307	
745.625	-0.08796502206	0.05970349479	
746.25	0.03373790139	-0.2295985298	
746.875	-0.2213321543	0.08185496024	
747.5	-0.1162822291	0.2195441284	
748.125	-0.02150994316	0.7250243891	
748.75	0.4216225829	0.4308501991	
749.375	0.02513889543	0.3493638849	
750.0	-0.595206724	0.4004582646	
