!Created with skrf (http://scikit-rf.org).
# GHz S RI R 50.0 
!freq ReS11 ImS11
500.0 -0.007452728933 0.02122852241
500.625 0.02134525372 0.01406836243
501.25 0.02709442184 -0.00361405646
501.875 0.01813133081 -0.008052152557
502.5 0.01329187883 0.01638878382
503.125 0.02470052089 0.00981146354
503.75 0.02869378588 -0.01001616034
504.375 0.02831525341 -0.02536015048
505.0 0.01988089951 -0.03387827194
505.625 0.01594377023 -0.05604941363
506.25 -0.0008802209334 -0.06674486068
506.875 0.02376216748 -0.08968696839
507.5 -0.002866491925 -0.07188233632
508.125 0.02366488382 -0.07904690867
508.75 -0.02584821285 -0.09031759839
509.375 -0.0348798557 -0.06820944471
510.0 -0.009895885893 -0.06338507991
510.625 -0.05630635119 -0.02705230987
511.25 -0.07633139289 -0.01751116951
511.875 -0.06052098161 0.02811638033
512.5 -0.01979806987 0.04801320475
513.125 0.04321275403 0.05603943054
513.75 0.05351953637 0.05346564417
514.375 0.05705841382 0.02878425433
515.0 0.07481127349 0.004923232085
515.625 0.07562330517 0.07868646832
516.25 0.1024878586 0.04659782675
516.875 0.05680706157 0.1161859245
517.5 0.1396524696 0.04006689579
518.125 0.09221092473 0.2112337724
518.75 0.104273702 0.01404638471
519.375 0.08100610778 0.01899525996
520.0 0.1082372773 -0.02581518871
520.625 0.119502686 -0.02696897712
521.25 0.08766611098 -0.05254263931
521.875 0.07317314658 -0.01641172598
522.5 0.07419044942 -0.08344274481
523.125 0.159324984 -0.1525008668
523.75 0.1034162735 -0.2327689516
524.375 0.1150760159 -0.2381586893
525.0 0.0531954059 -0.09584793744
525.625 0.04094989255 -0.0554960189
526.25 0.05126836639 -0.03928528157
526.875 0.04125446726 -0.0586574758
527.5 0.0307431501 -0.0684092823
528.125 -0.003827062936 -0.0571992294
528.75 -0.02185554788 -0.07165912806
529.375 -0.09938638934 -0.06115815225
530.0 -0.08782405052 -0.000780797507
530.625 -0.0376465341 0.02519251524
531.25 -0.08065735637 0.01040420966
531.875 -0.161580506 0.03383962693
532.5 -0.144702959 0.07634784848
533.125 -0.08745880123 0.07050556052
533.75 -0.05616083238 0.09266186066
534.375 -0.08493079862 0.102775112
535.0 -0.06321150642 0.1004883989
535.625 -0.05472478094 0.06221285646
536.25 -0.005952188331 0.07690779165
536.875 -0.0519887091 0.07214136961
537.5 -0.08881059416 0.02655900508
538.125 -0.07227764237 0.05852698357
538.75 -0.06881423278 0.1132996931
539.375 -0.08244910437 0.08162769306
540.0 -0.07100731673 0.06322192075
540.625 -0.07519028866 0.06492586357
541.25 -0.1043927801 0.07580862307
541.875 -0.09542786041 0.03818829604
542.5 -0.0773172876 0.014380733
543.125 -0.08346134509 0.06571190245
543.75 -0.03825001178 0.1438747159
544.375 -0.001924503908 0.1383931552
545.0 0.08181748817 0.06274885399
545.625 0.1174593246 0.01284035164
546.25 0.1275278774 -0.009772958361
546.875 0.1130866689 -0.01809807301
547.5 0.1242242266 -0.01597000355
548.125 0.1573169854 0.0003698452151
548.75 0.1382610384 0.06028519438
549.375 0.1268110416 0.05679060099
550.0 0.1140110948 0.09636564237
550.625 0.08934601291 0.106638598
551.25 0.01788853087 0.08669499593
551.875 0.0224615013 0.04980189632
552.5 0.03279216984 0.06155562788
553.125 0.02198926676 0.0846704914
553.75 -0.008337640789 0.05997443039
554.375 0.00523704924 0.05842518046
555.0 0.031357732 0.08201878533
555.625 0.04220164448 0.09719207362
556.25 0.00702542716 0.08558210004
556.875 0.01202320825 0.08415760186
557.5 0.01426174922 0.1139529375
558.125 0.001353684314 0.1273866433
558.75 -0.02947239105 0.1095107067
559.375 0.00807159495 0.109364792
560.0 0.006653208531 0.1096820558
560.625 0.01593606352 0.06926120474
561.25 0.01743900114 0.05081441821
561.875 0.01972804455 0.0659703377
562.5 0.03276164118 0.07675743387
563.125 0.03875537316 0.06318040534
563.75 0.06603034572 0.04796774036
564.375 0.1146998638 0.04498711118
565.0 0.1103426433 0.07472452982
565.625 0.09960063729 0.04296725072
566.25 0.08972667883 0.04356519095
566.875 0.08600189269 0.07383375523
567.5 0.03240607151 0.102498744
568.125 0.02034977638 0.09534692313
568.75 0.02193262723 0.1131825761
569.375 0.01281692971 0.1071532611
570.0 0.005350792548 0.08288858377
570.625 0.01278608274 0.06031964279
571.25 0.02290989243 0.07662481628
571.875 0.009941515135 0.06117519909
572.5 0.01156275211 0.0432435012
573.125 0.02235427238 0.06241088306
573.75 0.07796871613 0.0756441953
574.375 0.08797467277 0.0576254277
575.0 0.06950603943 0.02494912181
575.625 0.07358399508 0.01516681336
576.25 0.0946929358 0.04429336752
576.875 0.09011108331 0.04412096564
577.5 0.08727494765 0.02454569525
578.125 0.1028008442 0.01136165165
578.75 0.1152509742 0.03244810237
579.375 0.09244727941 0.02563381528
580.0 0.08989677115 0.005840169736
580.625 0.09435563742 -0.008394500598
581.25 0.07177514971 -0.0005296644471
581.875 0.03734383633 0.0198528367
582.5 0.04485975804 0.03155590437
583.125 0.07183620349 0.05644239272
583.75 0.062009336 0.05794481128
584.375 0.04516132398 0.05205519838
585.0 0.03599993997 0.06278987152
585.625 0.04506446331 0.08760816506
586.25 0.03613811052 0.07300513069
586.875 0.04021601434 0.05217176587
587.5 0.05575909156 0.06112964193
588.125 0.082745507 0.05098894209
588.75 0.08122734812 0.03461438685
589.375 0.07767563124 -0.01673485111
590.0 0.06953626024 -0.03749485637
590.625 0.04801301538 -0.009648407129
591.25 0.03892106679 0.0157997957
591.875 0.05660037517 0.01447950743
592.5 0.08908705962 -0.002728541303
593.125 0.09289582614 0.003794113691
593.75 0.07605610939 0.01254022246
594.375 0.07973505345 0.02635921617
595.0 0.07879029395 0.0558591381
595.625 0.05309714044 0.06589757466
596.25 0.02758805725 0.05806603079
596.875 0.01951694098 0.06436161913
597.5 0.007163750228 0.07569235501
598.125 0.01737050808 0.06915742357
598.75 0.03542335587 0.05261109265
599.375 0.03830940525 0.03793312072
600.0 0.01942478799 0.02560161869
600.625 0.0007978024762 0.01288274927
601.25 -0.0173354548 0.02025349542
601.875 -0.02555546638 0.03606491872
602.5 -0.02991877656 0.04030950801
603.125 -0.03094533858 0.04198990923
603.75 -0.0269017988 0.05313995809
604.375 -0.02519525597 0.05262808077
605.0 -0.0230911972 0.03225641408
605.625 -0.03153650925 0.01678461908
606.25 -0.04963245249 0.01833359151
606.875 -0.05958660289 0.02704584097
607.5 -0.0347407405 0.04003514343
608.125 -0.01078115545 0.03641244412
608.75 -0.01005488381 0.02878468893
609.375 -0.01076649038 0.0227521108
610.0 -0.002446458055 0.01599000912
610.625 0.004101709127 0.003354209803
611.25 0.004542051519 -0.009975568662
611.875 0.001978579799 -0.02402731315
612.5 -0.001194214774 -0.02676972145
613.125 -0.01325712596 -0.02359935292
613.75 -0.01442292988 -0.009731658313
614.375 -0.003720405806 -0.004146409838
615.0 0.006396304585 -0.006367141403
615.625 0.002998822709 -0.01100954111
616.25 -0.003490525591 -0.002350072769
616.875 0.00540142278 0.00909268652
617.5 0.02167347648 0.01173173255
618.125 0.02539738916 0.007332960493
618.75 0.02455359376 0.00855554718
619.375 0.03297216561 0.01423547913
620.0 0.05038128384 0.01630438385
620.625 0.05231956106 -0.01047801663
621.25 0.0430984427 -0.02079665539
621.875 0.02755036014 -0.02982899949
622.5 -0.007124256992 -0.01485291492
623.125 -0.005489002928 0.01265083572
623.75 0.008724830055 0.02802780367
624.375 0.01305341223 0.03684948491
625.0 -0.0006573649719 0.04410101206
625.625 -5.008342313e-05 0.05478818061
626.25 0.02070422588 0.07181852472
626.875 0.03523350518 0.08290007838
627.5 0.02681146976 0.07266958107
628.125 0.0188599388 0.06709979086
628.75 0.01475308794 0.07585160138
629.375 0.002894969231 0.08210725929
630.0 0.003143237357 0.06319449349
630.625 -0.002335846234 0.0514410378
631.25 -0.01360200662 0.04264043546
631.875 -0.03300312277 0.02784213307
632.5 -0.03677762981 0.01526728094
633.125 -0.04762208361 0.016726108
633.75 -0.06103258159 0.02841744276
634.375 -0.06751488546 0.02197845669
635.0 -0.0666874556 0.0301040147
635.625 -0.0670426638 0.05704484989
636.25 -0.07155696559 0.06718242863
636.875 -0.06097463942 0.03872946525
637.5 -0.06405656014 0.03089373334
638.125 -0.08985663367 0.04850628948
638.75 -0.09879971395 0.04711534696
639.375 -0.07313882895 0.01819120684
640.0 -0.05560092859 -0.00529049561
640.625 -0.06136886928 -0.04028267683
641.25 -0.04765752017 -0.06954330011
641.875 -0.03691798377 -0.06011237669
642.5 -0.03857139045 -0.06060468555
643.125 -0.02898343765 -0.08811725534
643.75 0.001676575787 -0.1029977901
644.375 -0.0151321749 -0.08626096511
645.0 -0.04984872819 -0.08478607888
645.625 -0.04324652473 -0.09057568107
646.25 -0.02066441064 -0.07951789402
646.875 -0.002533731187 -0.07184731935
647.5 -0.02351975431 -0.08846789876
648.125 -0.01150244148 -0.09103975555
648.75 0.0147619076 -0.06455268831
649.375 0.03959153475 -0.05263698008
650.0 0.07261377777 -0.05856759387
650.625 0.09639315106 -0.03972853422
651.25 0.09196927074 -0.01437929732
651.875 0.1036658189 0.01252264409
652.5 0.116383288 0.06999811684
653.125 0.0891807396 0.08689682761
653.75 0.0777597536 0.07627216361
654.375 0.07153267978 0.08563386544
655.0 0.02243387423 0.0993414075
655.625 -0.00849508551 0.06304778611
656.25 0.00396491798 0.06017373736
656.875 0.02859772957 0.08589482525
657.5 -0.007302295047 0.09931970382
658.125 -0.03632165607 0.07950469307
658.75 -0.01979258365 0.08897044485
659.375 0.03142534505 0.1320850013
660.0 0.05863820941 0.1295219491
660.625 0.07377600542 0.09883668893
661.25 0.09802079228 0.07016687392
661.875 0.1271739127 0.05182956981
662.5 0.113017157 0.03410195142
663.125 0.09355668309 0.0296134693
663.75 0.07587924315 0.06877046143
664.375 -0.01094491185 0.09687929682
665.0 -0.05375695752 0.05948798992
665.625 -0.0638147233 0.0387289853
666.25 -0.1098928051 0.02585500053
666.875 -0.1233564284 -0.05153376618
667.5 -0.09868645696 -0.05869054155
668.125 -0.1113615877 -0.0375182465
668.75 -0.1460991054 -0.02472896921
669.375 -0.1163963375 -0.05071044053
670.0 -0.07351447981 -0.04603679443
670.625 -0.08842542441 -0.04333150678
671.25 -0.1189128135 -0.03286490105
671.875 -0.1048474743 -0.0211940681
672.5 -0.08455005313 0.004563853499
673.125 -0.09473678553 0.02162938793
673.75 -0.1272580576 0.01965210044
674.375 -0.125844037 0.002356220914
675.0 -0.1210891227 -0.02866689809
675.625 -0.1082980785 -0.08343046397
676.25 -0.06445753095 -0.1159404577
676.875 -0.0522757061 -0.1088401082
677.5 -0.07560360005 -0.1081529902
678.125 -0.04662089444 -0.1245239034
678.75 0.0003189856876 -0.07525076057
679.375 0.01760055459 -0.05692026846
680.0 0.01087477096 -0.08555071033
680.625 0.02820291778 -0.1296733329
681.25 0.02558810716 -0.1074399886
681.875 -0.01127958027 -0.1022761676
682.5 -0.08645814541 -0.1116158886
683.125 -0.1134882275 -0.1363536265
683.75 -0.05983593473 -0.1359682502
684.375 0.0009276070312 -0.120853092
685.0 0.08521912954 -0.1165297957
685.625 0.140250617 -0.03665324104
686.25 0.1221699309 0.01758683363
686.875 0.09106097832 0.04220169166
687.5 0.05047124942 0.07392437079
688.125 0.007576217163 0.0833966473
688.75 -0.005374693623 0.09425264542
689.375 -0.01433785825 0.131030963
690.0 -0.05317449221 0.1306821403
690.625 -0.03954536251 0.1180705546
691.25 0.02294278536 0.1325561636
691.875 0.1387304731 0.130343393
692.5 0.1764613229 0.0478790026
693.125 0.08714454924 -0.07250422157
693.75 0.02343669144 -0.09748425433
694.375 0.03861905374 -0.1312093675
695.0 0.1264176703 -0.07504273577
695.625 0.0993256604 0.03109914961
696.25 0.03490581331 0.09384295843
696.875 -0.08045887141 0.09636151097
697.5 -0.1397357772 0.008870771387
698.125 -0.1336397664 -0.0306758929
698.75 -0.140178855 -0.02075068265
699.375 -0.1261565219 -0.0282192103
700.0 -0.09873847634 -0.04059679799
700.625 -0.09139285795 -0.06469290051
701.25 -0.07850704584 -0.1001718849
701.875 -0.04771071661 -0.07364056197
702.5 -0.05023484734 -0.05451068538
703.125 -0.1105423821 -0.01825612487
703.75 -0.1625249373 0.09521377304
704.375 -0.1001636862 0.1212913329
705.0 -0.04819026058 0.106249783
705.625 -0.07895570322 0.0974130647
706.25 -0.1692533677 0.01189017196
706.875 -0.0757532823 -0.1204882192
707.5 -0.02155540215 -0.09546764548
708.125 0.02309435022 -0.08553484716
708.75 0.08510542688 -0.04179980311
709.375 0.08337207645 0.04796565017
710.0 0.039863736 0.07389026937
710.625 0.0173364123 0.08327218465
711.25 -0.01921617447 0.08543238516
711.875 -0.02956081595 0.1002438405
712.5 0.01613648748 0.1357892157
713.125 0.119746614 0.1031047983
713.75 0.1341210641 -0.03608746326
714.375 0.06381313329 -0.1064103812
715.0 0.02257954507 -0.1350479429
715.625 0.06509308113 -0.1082968232
716.25 0.06800301223 -0.0351432268
716.875 0.0619922178 0.001688762322
717.5 0.06898568867 0.05773607517
718.125 0.03742674469 0.1065415001
718.75 -0.002210179563 0.08796554503
719.375 -0.01480155109 0.06924575347
720.0 -0.06171108436 0.05781369728
720.625 -0.1053111685 -0.03318081803
721.25 -0.01911992372 -0.112202813
721.875 0.04646621084 -0.09823351656
722.5 0.06432121369 -0.0866031478
723.125 0.02553562352 -0.08429750736
723.75 -0.003392083207 -0.06508598524
724.375 -0.03549342947 -0.05116688337
725.0 -0.05126914953 -0.02246381465
725.625 -0.04652630003 -0.00840806552
726.25 -0.05416067017 -0.01378313794
726.875 -0.06885422955 -0.04674754046
727.5 -0.06056468496 -0.06437012686
728.125 -0.0388720909 -0.06559757743
728.75 -0.03508737558 -0.05186006971
729.375 -0.03141508232 -0.05066602844
730.0 -0.02942757199 -0.04536110461
730.625 -0.02108997928 -0.03669263727
731.25 -0.002746607342 -0.03195166159
731.875 0.01936076331 -0.01814664814
732.5 0.0182652186 0.01204417832
733.125 0.003786855567 0.02649182412
733.75 0.01467653597 0.03810322521
734.375 0.031154416 0.03603070543
735.0 0.03472357901 0.005839237585
735.625 0.02907616754 -0.005840317935
736.25 0.01999240178 -0.01936135374
736.875 0.0002810647968 -0.02275841921
737.5 -0.02623158792 -0.01062171492
738.125 -0.04237736901 0.007402465542
738.75 -0.0387100702 0.0254949939
739.375 -0.01904672858 0.02931842513
740.0 -0.006484930584 0.01454943555
740.625 -0.0240586027 0.00486314547
741.25 -0.02850523238 0.01203115839
741.875 -0.02882449711 -0.005487083611
742.5 -0.005351435849 -0.02563827161
743.125 0.02949858365 -0.007490307845
743.75 0.02731308056 0.009767367031
744.375 0.02592829825 0.01171024425
745.0 0.02207959753 0.01271847846
745.625 0.02497264274 0.0329452553
746.25 0.0483749461 0.0337427636
746.875 0.06974504075 -0.01254006525
747.5 0.04509024029 -0.04972504405
748.125 0.01638759397 -0.05569027344
748.75 -0.01038881364 -0.05052043928
749.375 -0.04663356382 -0.03555168293
750.0 -0.06597667298 0.02883802791
