!Created with skrf (http://scikit-rf.org).
# GHz S RI R 50.0 
!freq ReS11 ImS11
500.0 -0.003159518056 0.01288409665
500.625 0.01914587324 0.01091140935
501.25 0.02447959624 -0.01113077124
501.875 0.0151647928 -0.01677673448
502.5 0.007084876667 0.008941525911
503.125 0.01868198032 0.005467284645
503.75 0.02291505082 -0.01362357614
504.375 0.01927200477 -0.02580375161
505.0 0.01416943145 -0.0292803757
505.625 0.009687795725 -0.05107643794
506.25 -0.0136369009 -0.06548696308
506.875 0.008827540375 -0.08808715519
507.5 -0.01519959857 -0.06712965039
508.125 0.008786469607 -0.07946684745
508.75 -0.04396740422 -0.08451081243
509.375 -0.0471121283 -0.05924010244
510.0 -0.02210149357 -0.05542011916
510.625 -0.05549825995 -0.01324655599
511.25 -0.07746835064 -0.006482926823
511.875 -0.05848918462 0.03570312878
512.5 -0.009093400239 0.04934807818
513.125 0.05172005806 0.04813975825
513.75 0.06832376563 0.04482108667
514.375 0.05945330516 0.01622289975
515.0 0.07060999543 -0.01093893993
515.625 0.08941144768 0.0551027636
516.25 0.1062984437 0.02740817669
516.875 0.06439193937 0.1024018496
517.5 0.133526977 0.01932781026
518.125 0.1243995546 0.1950944783
518.75 0.1102700509 -0.003718405789
519.375 0.08077158403 0.00705345681
520.0 0.09596450286 -0.04456103985
520.625 0.1168701183 -0.04874461172
521.25 0.08013658137 -0.06835911729
521.875 0.06715573053 -0.025510728
522.5 0.05785125002 -0.09113685332
523.125 0.1446144278 -0.1814472061
523.75 0.08790385689 -0.2545481881
524.375 0.08666619772 -0.2552862103
525.0 0.04100765148 -0.1120016462
525.625 0.03628769422 -0.07260758147
526.25 0.04581762257 -0.05184886239
526.875 0.02818346623 -0.06625880265
527.5 0.01499002385 -0.08106235826
528.125 -0.01724280588 -0.06041748475
528.75 -0.03580531909 -0.06653956762
529.375 -0.1104889871 -0.03991812099
530.0 -0.0974562323 0.02168855207
530.625 -0.03340862496 0.04228757391
531.25 -0.06251204931 0.03118582669
531.875 -0.1340447669 0.06705622566
532.5 -0.1277418724 0.1052758129
533.125 -0.07647062128 0.08770266942
533.75 -0.03580661371 0.09652610497
534.375 -0.05595120403 0.1154157125
535.0 -0.04809562496 0.1153865383
535.625 -0.04696834331 0.07387170085
536.25 0.01219699347 0.07933863949
536.875 -0.02729155367 0.08470951986
537.5 -0.08084377684 0.0454473942
538.125 -0.06013335546 0.06692841209
538.75 -0.0440445691 0.1232252265
539.375 -0.06853186988 0.1010066902
540.0 -0.05781668537 0.08139422881
540.625 -0.05620731559 0.07736633417
541.25 -0.07874049357 0.09627270688
541.875 -0.08553990746 0.06045640844
542.5 -0.06924536696 0.025603047
543.125 -0.06530837113 0.0705968341
543.75 -0.01317561367 0.14321079
544.375 0.01761392656 0.1398122643
545.0 0.09095340842 0.05377278225
545.625 0.116148903 -0.01004286551
546.25 0.1275816121 -0.03740262306
546.875 0.1103653885 -0.03623103634
547.5 0.1207114532 -0.03589613676
548.125 0.1541037148 -0.0298009044
548.75 0.1557386608 0.03548409101
549.375 0.1365270784 0.041523886
550.0 0.1300755013 0.07906929634
550.625 0.1203163886 0.09975637076
551.25 0.03957922116 0.09719531836
551.875 0.03676122966 0.04955017335
552.5 0.05125609864 0.05091442744
553.125 0.05509886354 0.07637209651
553.75 0.0110229931 0.06125083961
554.375 0.01702714803 0.05073268069
555.0 0.04630069402 0.06667120304
555.625 0.06589108283 0.08281615623
556.25 0.02590810765 0.08343797361
556.875 0.0242053431 0.07446127023
557.5 0.03409361161 0.1028207561
558.125 0.02300531308 0.1258554068
558.75 -0.01346496203 0.1150582474
559.375 0.02205463244 0.1074596038
560.0 0.031333115 0.1144586576
560.625 0.03296011569 0.07467258553
561.25 0.03318822762 0.04743666905
561.875 0.03875699954 0.05558176023
562.5 0.05325564263 0.06216148024
563.125 0.05199403157 0.05227417904
563.75 0.06802455835 0.03246529379
564.375 0.1126830409 0.01861999769
565.0 0.1253168977 0.05507552037
565.625 0.1084917915 0.02758407619
566.25 0.09554794628 0.02732486577
566.875 0.09924334911 0.05194676443
567.5 0.05784798485 0.09781248295
568.125 0.03481732531 0.09167405154
568.75 0.04380157239 0.1084750171
569.375 0.03647946943 0.1101638848
570.0 0.02633524536 0.08906716288
570.625 0.02851288638 0.06206848047
571.25 0.04756184965 0.06897143765
571.875 0.03300163136 0.06208560382
572.5 0.02571019036 0.03621134174
573.125 0.03357915778 0.04789049346
573.75 0.08709030261 0.05076624699
574.375 0.1031863328 0.03488201117
575.0 0.0748972991 0.00813047739
575.625 0.06900559769 -0.006195006788
576.25 0.1000837102 0.0154243904
576.875 0.09661271519 0.02683007005
577.5 0.08923496306 0.01200244307
578.125 0.09995551482 -0.008129645757
578.75 0.1242849454 0.002637620892
579.375 0.1020254578 0.01061289085
580.0 0.09320489026 -0.008551479222
580.625 0.09702016456 -0.03050464306
581.25 0.08125915307 -0.02658343584
581.875 0.04794041971 0.004465952791
582.5 0.04746481286 0.01552604287
583.125 0.08239093114 0.02880428499
583.75 0.0794360534 0.03837491324
584.375 0.05801806881 0.03923259559
585.0 0.04676548847 0.04986752046
585.625 0.06405547238 0.07022695758
586.25 0.05310364533 0.06682566662
586.875 0.0501434289 0.04270299794
587.5 0.06718230404 0.04261021408
588.125 0.09328709377 0.02863724781
588.75 0.09281393081 0.01890853924
589.375 0.0768431854 -0.03127746466
590.0 0.06154337737 -0.05956823349
590.625 0.04696354388 -0.03567328499
591.25 0.03758158342 -0.001529172136
591.875 0.05032039817 0.002199504106
592.5 0.07992688993 -0.01970720874
593.125 0.09147807325 -0.0191641803
593.75 0.07702248264 -0.003553223769
594.375 0.07918490134 0.01093431418
595.0 0.08776639855 0.04012258946
595.625 0.06982466347 0.05660108959
596.25 0.04270420061 0.05421171191
596.875 0.03343199991 0.05871247226
597.5 0.0226941962 0.0757488528
598.125 0.03308779175 0.06890727774
598.75 0.05012227792 0.04858347091
599.375 0.05180777765 0.03407169527
600.0 0.03193376506 0.02636462332
600.625 0.01328039407 0.01336323337
601.25 -0.000950344043 0.01712643222
601.875 -0.009707969654 0.03521259953
602.5 -0.01944943505 0.04306780902
603.125 -0.02049755795 0.04290468582
603.75 -0.01399238456 0.05242700874
604.375 -0.01172058735 0.05680578406
605.0 -0.01765506292 0.03833306627
605.625 -0.02825379902 0.02157840963
606.25 -0.04262027723 0.02425367084
606.875 -0.05248472447 0.03721444657
607.5 -0.03204358459 0.04697260524
608.125 -0.007917089576 0.04141215316
608.75 -0.00218555108 0.03409376114
609.375 -0.006203925015 0.02945774679
610.0 -0.003220870131 0.02084027061
610.625 0.002270178832 0.007796840947
611.25 0.005028635782 -0.005043034914
611.875 0.001272339013 -0.01846005925
612.5 -0.004015680448 -0.02517212364
613.125 -0.01776918609 -0.02515306493
613.75 -0.01630401606 -0.00828843124
614.375 -0.005102510266 -0.001307590023
615.0 0.004330529376 -0.006830283306
615.625 -0.000786715307 -0.01558489169
616.25 -0.005641356315 -0.004717281519
616.875 0.005107072635 0.008565510143
617.5 0.02050869367 0.00759990474
618.125 0.02341278967 -0.0004220512315
618.75 0.02480339487 0.004479134322
619.375 0.03472780658 0.0118362179
620.0 0.05238587647 0.00905500305
620.625 0.05208925294 -0.02045319953
621.25 0.04621898408 -0.02659000911
621.875 0.03200943165 -0.03428651472
622.5 -0.007292260087 -0.02510347479
623.125 -0.008432527901 0.001804038283
623.75 0.009121747952 0.01857185922
624.375 0.01894837947 0.02979534222
625.0 0.008235193473 0.03963243501
625.625 0.00752872513 0.04665331956
626.25 0.0270329669 0.05958591147
626.875 0.0482096527 0.07501108295
627.5 0.0388872318 0.07179530455
628.125 0.03048751459 0.06402670572
628.75 0.03014900317 0.06832295503
629.375 0.02301990708 0.08609126014
630.0 0.01382445146 0.0724106557
630.625 0.009184999044 0.05750843306
631.25 0.0006494629607 0.05098212882
631.875 -0.02135766894 0.04326931372
632.5 -0.03000208867 0.02894255799
633.125 -0.03687942275 0.02734961576
633.75 -0.04402918383 0.04090320652
634.375 -0.05755133965 0.03886251874
635.0 -0.05685567484 0.04371651138
635.625 -0.05193430962 0.06774903246
636.25 -0.0523939179 0.08262084685
636.875 -0.05058023013 0.05452104121
637.5 -0.05254408347 0.04364560345
638.125 -0.07440381012 0.06702819714
638.75 -0.09093446618 0.07032558583
639.375 -0.0750003712 0.03522851631
640.0 -0.05880669819 0.01024362591
640.625 -0.072426811 -0.01648200715
641.25 -0.06955614016 -0.05471569124
641.875 -0.0498976773 -0.05095979942
642.5 -0.05064476986 -0.0487018822
643.125 -0.05346997169 -0.0743359411
643.75 -0.02740875504 -0.1022769466
644.375 -0.03038623817 -0.0836152194
645.0 -0.06671690997 -0.0720194941
645.625 -0.07322195296 -0.08110312282
646.25 -0.04948601404 -0.075149878
646.875 -0.02326026038 -0.06869694777
647.5 -0.04567548567 -0.07545511921
648.125 -0.04251125987 -0.08978794111
648.75 -0.007190201724 -0.07062144037
649.375 0.01909132943 -0.05737268385
650.0 0.04939694069 -0.07098587782
650.625 0.08222045725 -0.06233616985
651.25 0.08706846142 -0.03198468878
651.875 0.09804379064 -0.007985813917
652.5 0.1276397314 0.03944960021
653.125 0.1098295853 0.07308771362
653.75 0.09405152988 0.06605565604
654.375 0.09194818809 0.06883113453
655.0 0.06334037305 0.09754795456
655.625 0.01558708073 0.07522299672
656.25 0.02307330942 0.05649804532
656.875 0.05387718857 0.06737192094
657.5 0.02922104123 0.09427443782
658.125 -0.00956482633 0.08622088459
658.75 -0.001092093163 0.08315949664
659.375 0.05784980193 0.1100183434
660.0 0.08775523394 0.1121475126
660.625 0.09593985548 0.08423628757
661.25 0.111033042 0.04818195642
661.875 0.1384644885 0.01902363146
662.5 0.1288799762 0.00777880119
663.125 0.1057342039 0.008603960384
663.75 0.09773543545 0.04591979699
664.375 0.02192571615 0.1037721631
665.0 -0.03405108531 0.07778601661
665.625 -0.04734095677 0.0547913635
666.25 -0.08553926645 0.05736581724
666.875 -0.1332372453 -0.01027334622
667.5 -0.1086707838 -0.03632730734
668.125 -0.1120104178 -0.01464962437
668.75 -0.144826846 0.01436935272
669.375 -0.1388612166 -0.01832289411
670.0 -0.08868585762 -0.03064989025
670.625 -0.09428691635 -0.02048998221
671.25 -0.126834962 0.003069268515
671.875 -0.1164280584 0.01295732176
672.5 -0.08119251898 0.03081311523
673.125 -0.07919315781 0.04563412872
673.75 -0.1127427393 0.05395237126
674.375 -0.1214813505 0.03118773488
675.0 -0.121964337 0.0004358890421
675.625 -0.1287262978 -0.05123099192
676.25 -0.09362462827 -0.1002527578
676.875 -0.07390464094 -0.1006423236
677.5 -0.09908881177 -0.08873196346
678.125 -0.09630100687 -0.1134841665
678.75 -0.02842352175 -0.08576304845
679.375 -0.00293757335 -0.06102173098
680.0 -0.01599553533 -0.07565079755
680.625 -0.02259305757 -0.1255796971
681.25 -0.006894699813 -0.1159194515
681.875 -0.02851892305 -0.093030444
682.5 -0.09783402879 -0.08379195071
683.125 -0.1417055889 -0.1003450437
683.75 -0.09738629547 -0.1274185859
684.375 -0.02363480435 -0.1230851583
685.0 0.0535560918 -0.1340393648
685.625 0.133250884 -0.07452712772
686.25 0.1349942564 -0.01583474469
686.875 0.112125346 0.01349775743
687.5 0.07962083045 0.05456196555
688.125 0.03583173765 0.07592029444
688.75 0.01869699363 0.08490122364
689.375 0.02363970051 0.1187723531
690.0 -0.01570142808 0.1435750964
690.625 -0.01492047036 0.1240847992
691.25 0.04436844742 0.1205351208
691.875 0.1598465372 0.08556427795
692.5 0.2049031278 -0.006421433527
693.125 0.07987418138 -0.1004241342
693.75 -0.003499211545 -0.1034326954
694.375 -0.009597504147 -0.1348230938
695.0 0.09309588454 -0.1277529766
695.625 0.1115744954 0.002461555499
696.25 0.05496679989 0.07700639046
696.875 -0.04705197114 0.109736602
697.5 -0.128415598 0.04498151267
698.125 -0.137725982 -0.0002348894501
698.75 -0.1418430687 0.009946657481
699.375 -0.135884671 0.00437903611
700.0 -0.1114670669 -0.01615764332
700.625 -0.1060522644 -0.03968431154
701.25 -0.1127159881 -0.07290333631
701.875 -0.0785001082 -0.06054702495
702.5 -0.06488578874 -0.03382727566
703.125 -0.09680828166 0.008820890765
703.75 -0.1194827525 0.1285633296
704.375 -0.0760500454 0.1536022237
705.0 -0.02744374759 0.1188004983
705.625 -0.05016669148 0.1089839975
706.25 -0.1549329801 0.0611009917
706.875 -0.1171981713 -0.1085583543
707.5 -0.04443433752 -0.0984741624
708.125 -0.005236894633 -0.09526398301
708.75 0.06578472747 -0.07189845798
709.375 0.09680953366 0.01989192697
710.0 0.059464949 0.06104117803
710.625 0.04283644398 0.07170444177
711.25 0.007956022989 0.08337639272
711.875 -0.004137618852 0.09671315185
712.5 0.04438782104 0.1199727991
713.125 0.1445264015 0.07020059745
713.75 0.1318434021 -0.06706136043
714.375 0.04456159248 -0.1205094036
715.0 -0.0151551706 -0.1382384945
715.625 0.02830451625 -0.1399827615
716.25 0.0631860862 -0.06532071871
716.875 0.06213950686 -0.01810312986
717.5 0.07902738356 0.03226284237
718.125 0.07249367422 0.085866917
718.75 0.02645292028 0.08813633967
719.375 0.003274681761 0.06851090369
720.0 -0.04111719718 0.06658281556
720.625 -0.1061137905 -0.004436748266
721.25 -0.04671760928 -0.106156307
721.875 0.02897375865 -0.1075282009
722.5 0.05014800814 -0.1033319447
723.125 0.002680043869 -0.0999900109
723.75 -0.03372116004 -0.06597087025
724.375 -0.05378835531 -0.03608532969
725.0 -0.05861119713 -0.005835031698
725.625 -0.04549579252 0.008547123855
726.25 -0.04885754312 0.002729987426
726.875 -0.07100219597 -0.02421672821
727.5 -0.07360292836 -0.05209123064
728.125 -0.05171599223 -0.06335489145
728.75 -0.04863945803 -0.0433967327
729.375 -0.04722241658 -0.03358763702
730.0 -0.04232387381 -0.0372087371
730.625 -0.03002338978 -0.0360602274
731.25 -0.01218132964 -0.03315135188
731.875 0.009367535955 -0.02644459433
732.5 0.01894544684 -0.000455031196
733.125 0.009409366501 0.02151229395
733.75 0.02061613215 0.0331471204
734.375 0.03423276132 0.0248101389
735.0 0.03707472455 0.0003568979597
735.625 0.0351974184 -0.009661711554
736.25 0.02001799541 -0.02364107949
736.875 -0.002455826884 -0.02657621691
737.5 -0.02403471353 -0.01229626282
738.125 -0.0368553852 0.009472384929
738.75 -0.03509937704 0.02883468751
739.375 -0.01828206102 0.03096204412
740.0 -0.006016808308 0.01638981304
740.625 -0.01982341841 0.01183947664
741.25 -0.02197838108 0.02098682756
741.875 -0.03188798901 0.0004764046222
742.5 -0.0114317383 -0.02806066523
743.125 0.02675953422 -0.01856314552
743.75 0.02957782179 -0.003410303112
744.375 0.03143636774 0.002258378306
745.0 0.02974049586 0.003320364101
745.625 0.02849029958 0.01540185608
746.25 0.04343124327 0.01874127345
746.875 0.06214556114 -0.02229488024
747.5 0.03713397148 -0.05805003729
748.125 0.005391738599 -0.06157878532
748.75 -0.02400086206 -0.04917650776
749.375 -0.0546110477 -0.01994578608
750.0 -0.06135358951 0.048172019
