!Created with skrf (http://scikit-rf.org).
# GHz S RI R 50.0 
!freq ReS11 ImS11
500.0 -0.01074787327 0.01728546176
500.625 0.02043259946 0.01339152094
501.25 0.02739801653 -0.005680604195
501.875 0.01737583433 -0.007712294674
502.5 0.01416351813 0.01244458379
503.125 0.02192679774 0.01068293709
503.75 0.02772891627 -0.01084816958
504.375 0.02742429291 -0.02543322853
505.0 0.0192349805 -0.03414775965
505.625 0.01552106185 -0.05549534095
506.25 0.0006236306964 -0.07123529116
506.875 0.02201207392 -0.08958862358
507.5 -0.005284677633 -0.07301557452
508.125 0.02285764669 -0.08158057408
508.75 -0.02787939124 -0.08896506032
509.375 -0.03671631247 -0.06778835065
510.0 -0.01124465762 -0.06389115865
510.625 -0.05667389826 -0.02517216152
511.25 -0.07641223068 -0.01804618851
511.875 -0.06019579168 0.02917361175
512.5 -0.01625425802 0.04777629196
513.125 0.0414409882 0.0593471921
513.75 0.05189604142 0.05425383045
514.375 0.05866578656 0.02959631358
515.0 0.07388109585 0.003227603884
515.625 0.07942059248 0.07542526691
516.25 0.1024775422 0.04425435871
516.875 0.05977871794 0.1150463062
517.5 0.1384328022 0.03619432958
518.125 0.0947337104 0.2115609403
518.75 0.1048311318 0.0120590355
519.375 0.08083350934 0.01666161263
520.0 0.1065398307 -0.03000868169
520.625 0.1202227299 -0.03031720393
521.25 0.08635380234 -0.05473900706
521.875 0.07276955069 -0.01782561235
522.5 0.07207967406 -0.08405188696
523.125 0.1569897198 -0.157764854
523.75 0.1013232208 -0.2371248556
524.375 0.114687525 -0.2391531633
525.0 0.05106005283 -0.0968980884
525.625 0.04069355458 -0.05687398505
526.25 0.05045936035 -0.04035884119
526.875 0.0403097445 -0.05982612144
527.5 0.02965619486 -0.06942625066
528.125 -0.004844825294 -0.05785567827
528.75 -0.02271518125 -0.07071530969
529.375 -0.1009513775 -0.05970798791
530.0 -0.08911699406 0.0008032046282
530.625 -0.03680365701 0.02668640856
531.25 -0.07928625949 0.01334101029
531.875 -0.1601700788 0.03818512438
532.5 -0.1434494703 0.07902232634
533.125 -0.08693648151 0.07224194119
533.75 -0.05433202044 0.09308191546
534.375 -0.08330846326 0.1044515322
535.0 -0.06271378105 0.101132236
535.625 -0.05485218003 0.06314808605
536.25 -0.005048912972 0.07706270945
536.875 -0.04994225588 0.07427198518
537.5 -0.0886914397 0.02806349061
538.125 -0.07147224017 0.05860391625
538.75 -0.06742281526 0.1139065312
539.375 -0.08206752298 0.08344061718
540.0 -0.07025877922 0.06438146516
540.625 -0.0740928513 0.06538014346
541.25 -0.1032392476 0.07766970817
541.875 -0.09553641618 0.03966129799
542.5 -0.07715776079 0.01462994005
543.125 -0.08289818845 0.06523794551
543.75 -0.03802094105 0.1438880736
544.375 -0.002097567854 0.138784682
545.0 0.08185951089 0.06283872437
545.625 0.118162256 0.0117804394
546.25 0.1273277535 -0.01025216277
546.875 0.1135600194 -0.01880155562
547.5 0.1240286531 -0.01689898634
548.125 0.1574242296 -0.002499792368
548.75 0.1403975899 0.05856051008
549.375 0.1278407731 0.05550023684
550.0 0.115424402 0.09492868657
550.625 0.09264269098 0.1068129904
551.25 0.01926817069 0.08729020906
551.875 0.02342115318 0.04988948713
552.5 0.03405955495 0.06101053618
553.125 0.02420412462 0.08512052459
553.75 -0.006762508085 0.06048605033
554.375 0.006447458015 0.05822168818
555.0 0.03253174475 0.08137717318
555.625 0.04493048007 0.09732988813
556.25 0.007801753636 0.08574687151
556.875 0.01341024582 0.08386756106
557.5 0.01664204032 0.113823599
558.125 0.003200123989 0.128078697
558.75 -0.02872267274 0.1098568268
559.375 0.009377752734 0.1096194703
560.0 0.009078899726 0.1106215616
560.625 0.01763437762 0.07052757578
561.25 0.01868716737 0.05037219202
561.875 0.02213194309 0.06552450437
562.5 0.03513816443 0.07589753234
563.125 0.04024647708 0.06260360883
563.75 0.06618125604 0.046868268
564.375 0.1151506954 0.04280301892
565.0 0.111554324 0.07379665573
565.625 0.1008781137 0.04185493719
566.25 0.08992536476 0.04252079205
566.875 0.08761930469 0.07255578269
567.5 0.03394050859 0.1031175918
568.125 0.02148103867 0.09522617504
568.75 0.0238692643 0.1128876567
569.375 0.01472736573 0.1078370677
570.0 0.007010970325 0.08377501889
570.625 0.01424541544 0.06080074533
571.25 0.02427930165 0.07597114542
571.875 0.01197260009 0.06178426023
572.5 0.01309669085 0.04278757266
573.125 0.02383303648 0.06110551401
573.75 0.07908130516 0.07365848412
574.375 0.0898071023 0.0562557585
575.0 0.06990388702 0.0238749146
575.625 0.0738606172 0.01302116776
576.25 0.09486115615 0.04293873297
576.875 0.09106849558 0.04286207177
577.5 0.08737461159 0.02375038968
578.125 0.1029557364 0.008923332166
578.75 0.1157710962 0.03081288882
579.375 0.09363154362 0.02445775725
580.0 0.09045607706 0.004390323999
580.625 0.09515409728 -0.01041170896
581.25 0.07255647494 -0.001957906036
581.875 0.03819813936 0.01889048273
582.5 0.04522349616 0.03013186775
583.125 0.07279108264 0.05476874722
583.75 0.06375334237 0.05684761889
584.375 0.04601441248 0.05129454573
585.0 0.0374481004 0.06166799789
585.625 0.04692957883 0.0865165275
586.25 0.03755289814 0.0727492533
586.875 0.04131310235 0.05138231602
587.5 0.05764505336 0.05923551988
588.125 0.08373649585 0.04969345393
588.75 0.08224776005 0.03355972066
589.375 0.07784268575 -0.01775376585
590.0 0.0692170852 -0.03964466535
590.625 0.04827997597 -0.01115161031
591.25 0.03908299911 0.01425776655
591.875 0.05655651514 0.01431735662
592.5 0.08849470985 -0.004884451824
593.125 0.09311824865 0.002474105333
593.75 0.07624479248 0.01103141412
594.375 0.07993046224 0.02540098891
595.0 0.07999144848 0.05447544236
595.625 0.05401832908 0.06564320723
596.25 0.02940171649 0.05771660731
596.875 0.01954063641 0.06464630217
597.5 0.008969675265 0.07590770109
598.125 0.01807921843 0.06937996995
598.75 0.03574247062 0.05266266835
599.375 0.0392172609 0.03794613457
600.0 0.02083959899 0.02572642837
600.625 0.001648674183 0.01309575349
601.25 -0.01581996861 0.02011215424
601.875 -0.02512009494 0.0364163701
602.5 -0.02876512983 0.04058862819
603.125 -0.03056512147 0.04222272504
603.75 -0.0243193095 0.0527753678
604.375 -0.02523914149 0.05336769054
605.0 -0.02210260863 0.03307423834
605.625 -0.03072656128 0.01744300386
606.25 -0.04901159744 0.01905859513
606.875 -0.05968641044 0.0277660563
607.5 -0.03515613028 0.04031088099
608.125 -0.009949655087 0.0369280793
608.75 -0.007735419552 0.02953191417
609.375 -0.01172773619 0.02265482643
610.0 -0.001934910418 0.01672754408
610.625 0.004529057493 0.003913291626
611.25 0.004591922855 -0.009620037945
611.875 0.001321602895 -0.02424675107
612.5 -0.002058899971 -0.02710194274
613.125 -0.01337724258 -0.0231820655
613.75 -0.01475717519 -0.01014540706
614.375 -0.003468648355 -0.001938947734
615.0 0.005273052044 -0.008046704778
615.625 0.003090927916 -0.01052321622
616.25 -0.003429557219 -0.002091453813
616.875 0.0062487201 0.01077631464
617.5 0.02088395438 0.0099570337
618.125 0.02556623247 0.007348755831
618.75 0.0245566282 0.008032218949
619.375 0.03362965341 0.01596838427
620.0 0.05029156981 0.0148165602
620.625 0.05254594162 -0.01083833895
621.25 0.04322215564 -0.02155347352
621.875 0.02823200607 -0.02881880484
622.5 -0.008177362418 -0.01656568645
623.125 -0.004942576595 0.01249744322
623.75 0.008786634056 0.02721450423
624.375 0.01449912711 0.03825779993
625.0 0.00017059671 0.04268319003
625.625 0.0007524920548 0.05493421799
626.25 0.02158352043 0.07160993501
626.875 0.03638952899 0.08261834766
627.5 0.02802035242 0.07212180037
628.125 0.01994601609 0.06650534064
628.75 0.01590712158 0.07591749244
629.375 0.004443668447 0.08245970208
630.0 0.003269676922 0.06422095766
630.625 -0.001301071169 0.05188450408
631.25 -0.01297418491 0.04369815637
631.875 -0.03241030475 0.0292154627
632.5 -0.03575727273 0.01638536716
633.125 -0.04643077534 0.0177928569
633.75 -0.06023599739 0.03041962914
634.375 -0.06660547479 0.02341244127
635.0 -0.06733676385 0.03192585083
635.625 -0.06522335832 0.05740671922
636.25 -0.07086185966 0.06921440899
636.875 -0.06091802272 0.04030299878
637.5 -0.06308399236 0.03194348438
638.125 -0.08894470539 0.05025989535
638.75 -0.09820904306 0.04900752003
639.375 -0.07365786575 0.01948519213
640.0 -0.05581311516 -0.00383294149
640.625 -0.0630832562 -0.03845886261
641.25 -0.04926926284 -0.06758684426
641.875 -0.03825293899 -0.05963906871
642.5 -0.03991047685 -0.05977838021
643.125 -0.03104820647 -0.08681533915
643.75 -0.000680424397 -0.1033154644
644.375 -0.01641127866 -0.08639541797
645.0 -0.05135652843 -0.08383184528
645.625 -0.04573052451 -0.09077499535
646.25 -0.02243131483 -0.0791509007
646.875 -0.004047154113 -0.07213404075
647.5 -0.02521400394 -0.08743927082
648.125 -0.0140812881 -0.09230897925
648.75 0.01304558318 -0.06453439996
649.375 0.03791617423 -0.05368068132
650.0 0.07080296988 -0.06007987839
650.625 0.09603907754 -0.04238882925
651.25 0.09135730863 -0.01580711889
651.875 0.1037750635 0.0103984275
652.5 0.1183896225 0.06771729472
653.125 0.09109647516 0.08601306177
653.75 0.07874964145 0.07496356576
654.375 0.07378122884 0.08449091146
655.0 0.02613337205 0.09952538875
655.625 -0.006695087944 0.06501504826
656.25 0.005403740728 0.05952148958
656.875 0.03151233818 0.08504463592
657.5 -0.004502013866 0.10009029
658.125 -0.0348584503 0.08017341657
658.75 -0.01832113187 0.08881993954
659.375 0.03363882215 0.1306522723
660.0 0.06168392417 0.1290701696
660.625 0.07569980213 0.09770613938
661.25 0.09984985938 0.06813668655
661.875 0.1278866648 0.0486209734
662.5 0.1149545912 0.03203130831
663.125 0.09481756534 0.02797558681
663.75 0.07773183857 0.06721595857
664.375 -0.009103781737 0.09757664652
665.0 -0.0532004239 0.06082125841
665.625 -0.06325294895 0.04034239801
666.25 -0.1085176927 0.02763734716
666.875 -0.1251752207 -0.04903660276
667.5 -0.09959773077 -0.05718306708
668.125 -0.1122404088 -0.03524213584
668.75 -0.145832165 -0.02171852985
669.375 -0.1191400616 -0.0487341173
670.0 -0.07487005379 -0.04487958167
670.625 -0.0896677734 -0.04127067799
671.25 -0.1197695429 -0.03022944577
671.875 -0.106440751 -0.01900826241
672.5 -0.08460902721 0.006639012439
673.125 -0.09390350657 0.02408740584
673.75 -0.1262079883 0.02217461033
674.375 -0.1263826005 0.004956499996
675.0 -0.1212206199 -0.02665122694
675.625 -0.1108926088 -0.08161742578
676.25 -0.06596283614 -0.115319261
676.875 -0.05370725451 -0.1086024691
677.5 -0.0772488244 -0.1071155497
678.125 -0.05055391891 -0.1250655617
678.75 -0.001342468014 -0.07624892124
679.375 0.01612938796 -0.05729255199
680.0 0.00823040038 -0.08527123264
680.625 0.02374499474 -0.1301954259
681.25 0.02290954444 -0.1091445764
681.875 -0.01247836794 -0.101576827
682.5 -0.08813844679 -0.1093879144
683.125 -0.1168314824 -0.1343104467
683.75 -0.06267122171 -0.1363595649
684.375 -0.0005390348402 -0.1210284747
685.0 0.08354152886 -0.1176309728
685.625 0.1404315892 -0.03970474748
686.25 0.1232946703 0.01537337816
686.875 0.09275839621 0.04041279726
687.5 0.05265989427 0.07299685994
688.125 0.009816718329 0.08352069173
688.75 -0.003969688554 0.09390188354
689.375 -0.0116568668 0.1310482633
690.0 -0.05176746275 0.1317174862
690.625 -0.03804856753 0.1191180097
691.25 0.02441356324 0.1319836604
691.875 0.1422972212 0.1268504098
692.5 0.178093456 0.04490774703
693.125 0.08695017099 -0.07507452487
693.75 0.02088811128 -0.09838071773
694.375 0.03490521661 -0.1323306887
695.0 0.1251842357 -0.0796172591
695.625 0.09990495227 0.02991120681
696.25 0.03649610287 0.09291747833
696.875 -0.07872186317 0.09753009779
697.5 -0.1399818645 0.01199548653
698.125 -0.133741903 -0.02922766753
698.75 -0.1409594056 -0.01845092182
699.375 -0.1271237755 -0.02625678394
700.0 -0.09976082546 -0.03912936122
700.625 -0.09248816169 -0.0632330608
701.25 -0.08111581255 -0.09893922835
701.875 -0.0492534576 -0.07350925095
702.5 -0.05130622515 -0.05370097376
703.125 -0.1102796326 -0.01780971059
703.75 -0.1610215778 0.09828378531
704.375 -0.09924613747 0.1235724223
705.0 -0.04682604473 0.107579612
705.625 -0.07689208495 0.09880102952
706.25 -0.1691113877 0.01581196743
706.875 -0.07972079597 -0.1204363869
707.5 -0.02331428143 -0.09567745218
708.125 0.02080163318 -0.08698394916
708.75 0.08434533456 -0.04361477952
709.375 0.08491355279 0.0462470872
710.0 0.04078246879 0.07341427941
710.625 0.02001865118 0.08278471447
711.25 -0.01830370171 0.08579347827
711.875 -0.02741813368 0.1006508614
712.5 0.0180315917 0.1353398484
713.125 0.122075686 0.1010105177
713.75 0.1343477036 -0.03749129038
714.375 0.06201367285 -0.1077515038
715.0 0.02081627673 -0.1353806496
715.625 0.06234818229 -0.1120225718
716.25 0.06815773583 -0.03645880712
716.875 0.06216067437 0.0003030635274
717.5 0.07014908684 0.05576215625
718.125 0.03988918271 0.1060749804
718.75 0.001163613049 0.08824639891
719.375 -0.01438437631 0.06946709497
720.0 -0.0595564575 0.05930900452
720.625 -0.1058984664 -0.03075064934
721.25 -0.02209202394 -0.1116014533
721.875 0.0460521954 -0.09874339129
722.5 0.06315846298 -0.08776507572
723.125 0.02470268953 -0.0853700145
723.75 -0.005953305327 -0.06549361841
724.375 -0.03506942071 -0.0521250235
725.0 -0.05213713668 -0.02055929447
725.625 -0.04664421064 -0.006956840682
726.25 -0.05390645883 -0.01213364046
726.875 -0.06969433407 -0.04625907883
727.5 -0.06211242405 -0.06305131814
728.125 -0.04033986952 -0.06504785673
728.75 -0.03577343746 -0.05199210784
729.375 -0.03334188587 -0.04859275269
730.0 -0.02923782749 -0.04739553868
730.625 -0.02238352522 -0.03603422856
731.25 -0.003698932888 -0.0318850297
731.875 0.01631722498 -0.01923948766
732.5 0.01923179294 0.01199996108
733.125 0.004481074896 0.02672821398
733.75 0.01507928325 0.03701703439
734.375 0.03078418266 0.03313409544
735.0 0.03627154726 0.0073156425
735.625 0.02859162346 -0.006377766906
736.25 0.02027084623 -0.01947739409
736.875 -0.002589862666 -0.0236649081
737.5 -0.0238397562 -0.00952026154
738.125 -0.04274233711 0.006988567135
738.75 -0.03876486526 0.02527022365
739.375 -0.01961163968 0.02726021231
740.0 -0.005884102229 0.01552414304
740.625 -0.02311945233 0.005818654371
741.25 -0.02869167281 0.01217340579
741.875 -0.02890657708 -0.004453288044
742.5 -0.003771681708 -0.02718369524
743.125 0.0284288722 -0.008865314056
743.75 0.02768908091 0.009401323627
744.375 0.02651702734 0.01080454066
745.0 0.02267895874 0.01214109344
745.625 0.02529322986 0.03130148889
746.25 0.04878067244 0.03298670848
746.875 0.06887096715 -0.0134365646
747.5 0.04687741192 -0.05077981124
748.125 0.01453333722 -0.05547380887
748.75 -0.01092861784 -0.05076080671
749.375 -0.04734615681 -0.03529757674
750.0 -0.065753882 0.02984815351
