!Created with skrf (http://scikit-rf.org).
# GHz S RI R 50.0 
!freq ReS11 ImS11
500.0 -0.005683371027 0.01877106507
500.625 0.01612114575 0.009851711027
501.25 -0.00217112901 -0.03390212517
501.875 -0.01310147024 -0.03498091387
502.5 -5.576948848e-05 0.008827533127
503.125 -0.0009273602104 -0.0009572631841
503.75 0.03264834649 -0.007593926353
504.375 0.02719909665 -0.01730654425
505.0 0.01191072078 -0.02131765533
505.625 0.008541545257 -0.03484603738
506.25 -0.01477540241 -0.04655716449
506.875 0.012512811 -0.072684727
507.5 -0.0004252108741 -0.06142921769
508.125 -0.02431802484 -0.05765675549
508.75 -0.04528323282 -0.06075529829
509.375 -0.02172734103 -0.06730663198
510.0 -0.003201741655 -0.04798103774
510.625 -0.03445451987 -0.004236506974
511.25 -0.0627531753 -0.02059239872
511.875 -0.05133624873 0.02282155147
512.5 -0.01494407804 0.03586496412
513.125 0.04029911577 0.03094435533
513.75 0.0516044174 0.02740709582
514.375 0.04509135836 0.02757063995
515.0 0.0465802654 0.008341408348
515.625 0.05235299842 0.05357764187
516.25 0.07017232535 0.01927940251
516.875 0.04138229862 0.124232213
517.5 0.1217297436 0.04970784072
518.125 0.1030718538 0.1494308587
518.75 0.08068626909 0.01360120026
519.375 0.06020640424 0.01947897667
520.0 0.08073047326 -0.01229989009
520.625 0.09647764854 -0.02267489403
521.25 0.06632430635 -0.03940691647
521.875 0.07343753603 -0.005357496971
522.5 0.0684031969 -0.06136976893
523.125 0.109909602 -0.1376112951
523.75 0.06565422069 -0.2143323183
524.375 0.1331353 -0.2011147401
525.0 0.03398296093 -0.07068145739
525.625 0.0412523795 -0.03718700435
526.25 0.04439942951 -0.02281975513
526.875 0.04183669228 -0.03902690193
527.5 0.0245016882 -0.04073818875
528.125 0.008093982886 -0.04731729041
528.75 -0.009612638267 -0.04720721868
529.375 -0.06767916023 -0.05404267089
530.0 -0.05016215195 0.01921529807
530.625 -0.01912083993 0.01374486208
531.25 -0.09015631533 -0.02192253359
531.875 -0.1476260064 -0.01819901813
532.5 -0.1030151606 0.04342188766
533.125 -0.09254189438 0.04717565179
533.75 -0.07108166642 0.0652981646
534.375 -0.08455859933 0.0592796787
535.0 -0.0588935503 0.06763665874
535.625 -0.04780314604 0.04629564453
536.25 -0.02234374196 0.06033035102
536.875 -0.06514988492 0.04085028941
537.5 -0.05341203568 0.005352341793
538.125 -0.06740951435 0.03929232837
538.75 -0.08800460861 0.08242339215
539.375 -0.07968093035 0.04798856568
540.0 -0.06224860304 0.02863875389
540.625 -0.08151604293 0.03540724482
541.25 -0.1219286393 0.03769758026
541.875 -0.08923565157 0.007593519034
542.5 -0.05489404757 -0.008321844577
543.125 -0.09935979824 0.04965980818
543.75 -0.06711249655 0.1289789713
544.375 -0.01976649099 0.1122111039
545.0 0.05909412718 0.06338038471
545.625 0.09166277151 0.03129199849
546.25 0.08490287878 0.008351092416
546.875 0.1063477841 0.004716557601
547.5 0.1055366668 0.01116928303
548.125 0.1369365517 0.0302290768
548.75 0.108671693 0.07674853407
549.375 0.09823317884 0.06762185587
550.0 0.07369985613 0.09485405001
550.625 0.05630156966 0.0892959876
551.25 0.01071123976 0.04525081107
551.875 0.003268064269 0.03242804853
552.5 -0.000556281312 0.04474973939
553.125 -0.01493906828 0.07770744358
553.75 -0.02915462301 0.04693726942
554.375 -0.01876785785 0.05466618922
555.0 -0.003934517944 0.08241076569
555.625 0.0007581749905 0.07821522557
556.25 -0.01697442872 0.063111061
556.875 -0.007948116518 0.09130971165
557.5 -0.01560325638 0.1135508251
558.125 -0.02352128559 0.0931838141
558.75 -0.03856039018 0.07909705935
559.375 -0.01488052374 0.09365863164
560.0 -0.01478300906 0.07724322469
560.625 0.0004333175285 0.04354484278
561.25 -0.008418199573 0.03378842561
561.875 -0.009789987756 0.06088794027
562.5 -0.003189003936 0.07390284514
563.125 0.01828672998 0.06734589845
563.75 0.04983852433 0.06892485424
564.375 0.08183571717 0.07769090509
565.0 0.06968298711 0.08379330566
565.625 0.0739219443 0.0526850435
566.25 0.06065907271 0.06016160012
566.875 0.05599116696 0.09063404775
567.5 0.001280145587 0.08975249724
568.125 -0.009873967858 0.07019084852
568.75 -0.003945169157 0.1053423784
569.375 -0.01127110003 0.09188415209
570.0 -0.01488747052 0.06194929696
570.625 -0.009998992341 0.03057714863
571.25 -0.01708573191 0.04399967218
571.875 -0.01204551783 0.05028973369
572.5 -0.01310171258 0.04295049951
573.125 -0.02565286836 0.0619791824
573.75 0.04938197961 0.1002521528
574.375 0.06599543107 0.07084971262
575.0 0.05019800187 0.04330941299
575.625 0.0419654328 0.0526113164
576.25 0.05509781974 0.07395132602
576.875 0.06274836089 0.0644826428
577.5 0.07236624042 0.04583938941
578.125 0.08217086504 0.04474636353
578.75 0.05886507142 0.05653886219
579.375 0.07707203823 0.03802762083
580.0 0.07542572793 0.02318719057
580.625 0.04781837627 0.02185069854
581.25 0.02870188652 0.02126126222
581.875 0.01924577502 0.03304677835
582.5 0.0293314218 0.05320803344
583.125 0.02529962526 0.08124844749
583.75 0.03943526245 0.06942566537
584.375 0.01795233317 0.06241540908
585.0 0.003971341615 0.07294718629
585.625 -0.01699832114 0.08401841838
586.25 0.01144959746 0.07249370583
586.875 0.0215184906 0.0607242689
587.5 0.02729283935 0.07606332961
588.125 0.03602567807 0.07356310283
588.75 0.06670069983 0.04484969175
589.375 0.07000145554 0.007437028947
590.0 0.05540166973 0.01173871989
590.625 0.02813386211 0.0309558862
591.25 0.03273973141 0.03980040326
591.875 0.05532003577 0.05793130539
592.5 0.08930763813 0.03605290449
593.125 0.07364594039 0.04531746813
593.75 0.07128642283 0.03148234141
594.375 0.06762083896 0.05960968491
595.0 0.04066872173 0.08074516773
595.625 0.007070441849 0.06906102452
596.25 -0.002677003139 0.05745518564
596.875 -0.0361743114 0.05412655839
597.5 -0.02223674225 0.06367439536
598.125 -0.02715947268 0.05471898434
598.75 -0.006460685595 0.04136692949
599.375 0.01239380533 0.03722655173
600.0 -0.009089354847 0.01645909924
600.625 -0.04285747813 -0.006328501946
601.25 -0.03803565649 0.01542169657
601.875 -0.06129776847 0.02407649697
602.5 -0.05664144955 0.02888745854
603.125 -0.0657705288 0.0325642291
603.75 -0.08232304756 0.02879895066
604.375 -0.05409069907 0.01276171979
605.0 -0.03043861943 0.0199026613
605.625 -0.04721015087 0.001111448724
606.25 -0.07762090442 -0.03288209802
606.875 -0.05902704228 -0.001485364296
607.5 -0.04475583058 0.01451292677
608.125 -0.02461102902 0.0208718886
608.75 -0.03687486108 -0.01326104972
609.375 -0.02457590248 -0.02199480296
610.0 -0.002015959857 0.005471189792
610.625 0.001080099631 -0.01349110496
611.25 0.007047573879 -0.06514617226
611.875 0.01145782288 -0.04729174169
612.5 0.003853693426 -0.04808403699
613.125 -0.0007740585186 -0.05335553586
613.75 -0.0004220865208 -0.0412908059
614.375 0.02026249375 -0.03539907747
615.0 0.02176647945 -0.04855802114
615.625 0.01159264292 -0.02728889943
616.25 0.007708249343 -0.02337783938
616.875 0.02618903806 -0.03277957155
617.5 0.02754975623 -0.02448838703
618.125 0.03895509096 -0.01637418951
618.75 0.03684400819 -0.01603155204
619.375 0.05330549852 -0.01771675702
620.0 0.05423540631 -0.007335721289
620.625 0.06038925627 -0.03601876839
621.25 0.0599863659 -0.04799261178
621.875 0.03867954989 -0.04761368483
622.5 -0.01246833316 -0.04606728819
623.125 -0.005130359717 0.01164400454
623.75 0.003340664243 0.004658055853
624.375 0.03132365859 0.006408559396
625.0 0.02768971656 0.02942816292
625.625 -0.007930891394 0.0564534876
626.25 0.01286511325 0.06747242149
626.875 0.0687677876 0.05386948872
627.5 0.03720669934 0.07045814451
628.125 0.01953951296 0.05542068603
628.75 0.01702165521 0.06201345722
629.375 0.04134990318 0.07203769925
630.0 0.005032872342 0.05539342744
630.625 -0.003485920043 0.04057073422
631.25 -0.002568073141 0.03396354435
631.875 -0.001841739509 0.04293794331
632.5 -0.02486233351 0.01424030544
633.125 -0.03880683201 0.003151322049
633.75 -0.04591530581 0.01833177945
634.375 -0.04485599743 0.01266568275
635.0 -0.0412371785 0.03302854297
635.625 -0.04361574648 0.05584773073
636.25 -0.07925578736 0.04342332775
636.875 -0.0573710787 0.02189076743
637.5 -0.04309591415 0.0250998117
638.125 -0.09726841419 0.02592648229
638.75 -0.08488783798 0.02749815618
639.375 -0.05410009485 0.02087005426
640.0 -0.03711764777 -0.002198438589
640.625 -0.0399727988 -0.05388912115
641.25 -0.03128639017 -0.04198318337
641.875 -0.02460332774 -0.04710305228
642.5 -0.03696003813 -0.03600557971
643.125 -0.01590188698 -0.07250584767
643.75 0.02350163977 -0.07998057865
644.375 -0.002961338633 -0.07541558419
645.0 -0.04216456749 -0.05949477139
645.625 -0.01099714228 -0.08161896711
646.25 0.0006331489329 -0.05607071172
646.875 0.01045639645 -0.05972155791
647.5 -0.0008838989606 -0.06814268458
648.125 -0.0008122057652 -0.06764375636
648.75 0.005761973667 -0.03617522468
649.375 0.05422122279 -0.03712880981
650.0 0.07178084228 -0.02750072749
650.625 0.06272172343 -0.02848910933
651.25 0.07077377474 -0.004938715255
651.875 0.09955680682 0.03891276354
652.5 0.08426277438 0.08796581157
653.125 0.07032464635 0.06052860278
653.75 0.05959398169 0.05248882254
654.375 0.03982112539 0.07468903252
655.0 -0.002594111752 0.06042736237
655.625 -0.006071489753 0.03346165034
656.25 -0.00449533563 0.03617868621
656.875 -0.008217513346 0.09274610003
657.5 -0.0442424514 0.07967399427
658.125 -0.04213496409 0.04498677834
658.75 -0.04314228718 0.09115437037
659.375 -0.01154923365 0.1314543735
660.0 0.02321297338 0.1131640724
660.625 0.04087328048 0.09008836371
661.25 0.07293552046 0.08614267638
661.875 0.07970237325 0.05769202364
662.5 0.07833880062 0.04128066372
663.125 0.05667519563 0.01608445887
663.75 0.0421473155 0.08528259082
664.375 -0.03936934054 0.07095263458
665.0 -0.0548617781 0.03094145256
665.625 -0.06115522553 0.01150801068
666.25 -0.0956449586 -0.02858255988
666.875 -0.0819984054 -0.07159017543
667.5 -0.07041045818 -0.07155458461
668.125 -0.07814763363 -0.05188276092
668.75 -0.09678697656 -0.05123573728
669.375 -0.08095097046 -0.06982500425
670.0 -0.04677397619 -0.05160293237
670.625 -0.04720239535 -0.04301434924
671.25 -0.08748391143 -0.04846849984
671.875 -0.07830404383 -0.04845000905
672.5 -0.06809241753 -0.02478458332
673.125 -0.06522996588 -0.01604083225
673.75 -0.1012169855 -0.02282413198
674.375 -0.1114075826 -0.02944397834
675.0 -0.09122031141 -0.0588874962
675.625 -0.0516963771 -0.07312203564
676.25 -0.02082944874 -0.1046702838
676.875 -0.02471617962 -0.1052939534
677.5 -0.02433696553 -0.1029422302
678.125 -0.00735122137 -0.05877498236
678.75 0.02113840229 -0.04936816709
679.375 0.0396021442 -0.0451843905
680.0 0.05112800956 -0.07872450557
680.625 0.07191903418 -0.07035030681
681.25 0.04987598998 -0.08213725558
681.875 0.02078774124 -0.1000048343
682.5 -0.05059643708 -0.1386366988
683.125 -0.05079441457 -0.1485676973
683.75 -0.01316823548 -0.09181479508
684.375 0.02918081097 -0.1046771108
685.0 0.1068518869 -0.06941533317
685.625 0.1207030576 0.007242475268
686.25 0.06684269651 0.03592774944
686.875 0.05654884549 0.06232113459
687.5 0.005478390742 0.08071115126
688.125 -0.02752816551 0.07761645743
688.75 -0.05182065196 0.07446628237
689.375 -0.06515617185 0.1243960875
690.0 -0.08718059598 0.08411203635
690.625 -0.06762737562 0.0902412681
691.25 -0.02214273815 0.1293135133
691.875 0.04865998182 0.1472749235
692.5 0.09278308035 0.06769405043
693.125 0.08615097278 -0.04204547491
693.75 0.05543027717 -0.07465985019
694.375 0.08509487286 -0.04338382002
695.0 0.127378074 -0.01339092364
695.625 0.06306466223 0.06288303919
696.25 -0.0162362972 0.09618167352
696.875 -0.1159918452 0.03937441335
697.5 -0.09180315048 -0.0587868549
698.125 -0.08554272369 -0.06937086935
698.75 -0.1097828613 -0.06121148377
699.375 -0.07023789441 -0.06038620571
700.0 -0.0767479283 -0.06351788835
700.625 -0.05280658048 -0.08865859159
701.25 -0.003626110501 -0.09322513503
701.875 0.006281555682 -0.06572486095
702.5 -0.02725410516 -0.07373336785
703.125 -0.09534447731 -0.08946016274
703.75 -0.1868136695 0.02636080338
704.375 -0.1097063297 0.06836794209
705.0 -0.07202398351 0.05057265682
705.625 -0.1085551845 0.06983877638
706.25 -0.1407665076 -0.06177841158
706.875 -0.02200856994 -0.1025042305
707.5 0.019084027 -0.07015776819
708.125 0.05284950695 -0.05756424929
708.75 0.08324129836 0.02387147946
709.375 0.03408053418 0.08079518743
710.0 -0.01071233409 0.08120292243
710.625 -0.05371979192 0.06198580318
711.25 -0.06972405048 0.06464657516
711.875 -0.06972624204 0.08971861827
712.5 -0.06092471515 0.1209735156
713.125 0.08222298328 0.1223803992
713.75 0.1142279888 0.01703325399
714.375 0.08698036218 -0.06742971001
715.0 0.09634722645 -0.06889521786
715.625 0.07098473334 0.01135527745
716.25 0.05365757153 0.008771158937
716.875 0.05283977457 0.03226913169
717.5 0.009824849344 0.1027716874
718.125 -0.05256727758 0.0969690467
718.75 -0.0450661101 0.07236846282
719.375 -0.074120552 0.04800844807
720.0 -0.08598261152 0.03162324319
720.625 -0.07233763802 -0.08834999952
721.25 0.03327873272 -0.09707249675
721.875 0.07701583641 -0.06682923924
722.5 0.08214739341 -0.03074874067
723.125 0.06946493666 0.005115003903
723.75 0.03927548002 -0.04566773833
724.375 0.049049929 -0.07275107816
725.0 -0.02088211239 -0.05615367448
725.625 -0.03810627373 -0.0532477462
726.25 -0.03820904766 -0.1028170963
726.875 -0.02900596449 -0.1008079392
727.5 -0.0324066363 -0.07655543795
728.125 0.001853523606 -0.07580200727
728.75 0.03232264698 -0.07571627145
729.375 0.01258243203 -0.059112031
730.0 0.04123738029 -0.06481815148
730.625 -0.003580195524 -0.03571322669
731.25 0.04038229022 -0.01933457063
731.875 0.05202173257 0.06593487905
732.5 -0.003818358603 0.0531631849
733.125 -0.01383958825 0.05041991658
733.75 -0.01345229553 0.07171725968
734.375 0.004442772658 0.08331556862
735.0 0.03399118157 0.06691761915
735.625 0.03780005428 0.04416439806
736.25 0.04775753555 0.02501061939
736.875 0.02151289773 0.036276443
737.5 -0.01091292845 0.04684689124
738.125 -0.04733444318 0.01158074978
738.75 -0.05228091298 0.05464278471
739.375 -0.06825859817 0.08454796935
740.0 -0.02808100966 0.04404739259
740.625 -0.02086548409 0.02448283073
741.25 -0.02862197397 0.03353651796
741.875 -0.05203048421 0.01975334229
742.5 -0.05205093978 -0.0511896982
743.125 0.02401280346 -0.03814792359
743.75 0.03816939452 -0.01049328772
744.375 0.05578548606 -0.02085870412
745.0 0.02031656294 0.02425046061
745.625 0.01690984094 0.02865015967
746.25 0.04312582055 0.007524440087
746.875 0.05022539069 -0.02744596241
747.5 0.02692319381 -0.06766818045
748.125 -0.01278872289 -0.07285391458
748.75 -0.001274626276 -0.04498160426
749.375 -0.04087859246 -0.02306149135
750.0 -0.05191598358 0.06173535733
