!Created with skrf (http://scikit-rf.org).
# GHz S RI R 50.0 
!freq ReS11 ImS11
500.0 -0.007918670904 0.01539970603
500.625 0.01591770437 0.007867616993
501.25 0.01607725862 -0.01389430087
501.875 0.005407536923 -0.02103856501
502.5 0.001677134025 0.0001208063581
503.125 0.01168904522 0.003882075727
503.75 0.013386186 -0.01330122933
504.375 0.008191678295 -0.02102237272
505.0 0.006985776572 -0.02761994157
505.625 0.003110001309 -0.04231824359
506.25 -0.02154716333 -0.0550686799
506.875 -0.009934201897 -0.08249479749
507.5 -0.02833332837 -0.06399799651
508.125 -0.00882796236 -0.07149675749
508.75 -0.06283554858 -0.06888710077
509.375 -0.0606102272 -0.04455634043
510.0 -0.03790344139 -0.04498051538
510.625 -0.04843974967 0.001457453378
511.25 -0.0706969402 0.0111432274
511.875 -0.04772343275 0.04464152139
512.5 -0.004844019706 0.04951667717
513.125 0.06112898394 0.03414677648
513.75 0.08199523113 0.02502598101
514.375 0.06461023534 -0.0009978623878
515.0 0.05844875992 -0.02880686832
515.625 0.09374366727 0.02187945607
516.25 0.1016373297 -0.0002539702715
516.875 0.07689896123 0.08398053633
517.5 0.1251749989 -0.005106591832
518.125 0.1614450224 0.1676519266
518.75 0.110338598 -0.02670260616
519.375 0.08053387441 -0.01103001692
520.0 0.07562125303 -0.05764415417
520.625 0.1024609489 -0.07498162221
521.25 0.06564082608 -0.08148509128
521.875 0.05908599709 -0.03598210374
522.5 0.03734850109 -0.09299616245
523.125 0.1087131857 -0.2117879581
523.75 0.05294723201 -0.2767890559
524.375 0.04908655219 -0.2701420796
525.0 0.0184958425 -0.1300397712
525.625 0.02125004678 -0.09284706773
526.25 0.0347228305 -0.0661857029
526.875 0.01108077073 -0.07509879571
527.5 -0.01125774511 -0.0894261431
528.125 -0.03634757982 -0.05952406835
528.75 -0.05176759909 -0.05583501492
529.375 -0.1226891822 -0.008716744694
530.0 -0.09932142927 0.05591310431
530.625 -0.02297312216 0.06686594782
531.25 -0.03675749615 0.05017887163
531.875 -0.08980417712 0.1019934808
532.5 -0.09498487084 0.1362983665
533.125 -0.0561024448 0.1061575337
533.75 -0.01189474304 0.0956610831
534.375 -0.01605415783 0.1228230897
535.0 -0.02016361997 0.1310589363
535.625 -0.0329679165 0.08684711204
536.25 0.03511609269 0.07481575098
536.875 0.008628703891 0.09239004094
537.5 -0.06159772315 0.06977302922
538.125 -0.04197336826 0.07530493852
538.75 -0.0105255048 0.1243347484
539.375 -0.04464951479 0.1278094916
540.0 -0.03383188486 0.1024270806
540.625 -0.02950471663 0.08797077139
541.25 -0.03976166441 0.1106588241
541.875 -0.06165871487 0.09230068222
542.5 -0.05532907521 0.03961709283
543.125 -0.04148278209 0.07097442879
543.75 0.01822405244 0.1308483437
544.375 0.04898219342 0.1370532601
545.0 0.1019898724 0.03830656329
545.625 0.1063468522 -0.03493522738
546.25 0.1138116856 -0.07284110658
546.875 0.1030383073 -0.06230892006
547.5 0.1090377576 -0.06097091916
548.125 0.1406104178 -0.06319621846
548.75 0.1658173883 -0.006169182339
549.375 0.1510169042 0.01700097192
550.0 0.1433307506 0.05339227869
550.625 0.1559015879 0.07501736612
551.25 0.07290978711 0.1012841583
551.875 0.05780538627 0.04848128704
552.5 0.06899161216 0.03318263565
553.125 0.08921507274 0.0488591728
553.75 0.03740434231 0.05628071507
554.375 0.03305213854 0.0386542363
555.0 0.05902325172 0.04284971691
555.625 0.08844223292 0.05283657774
556.25 0.05328253058 0.07253450622
556.875 0.03796692828 0.06033387491
557.5 0.05693475169 0.0813180853
558.125 0.05117725307 0.1147758486
558.75 0.01000118349 0.116930836
559.375 0.04210415631 0.1034490438
560.0 0.06306837017 0.1083526912
560.625 0.05840054878 0.07572630758
561.25 0.05189324403 0.0388157553
561.875 0.06039360579 0.03543306335
562.5 0.07160527206 0.03595620779
563.125 0.06611259707 0.03316670964
563.75 0.06648345167 0.01404519295
564.375 0.1016165114 -0.01362292911
565.0 0.1382420949 0.02311067199
565.625 0.114913069 0.005655343914
566.25 0.09799138359 0.00732011056
566.875 0.1079863921 0.02099808151
567.5 0.09134377678 0.07787994015
568.125 0.05215926086 0.08502054126
568.75 0.06585819222 0.09578724578
569.375 0.06398858881 0.1042716043
570.0 0.05550757402 0.09069077805
570.625 0.04756881539 0.06076524092
571.25 0.06945785007 0.05249131258
571.875 0.06027244871 0.05370796162
572.5 0.04397451326 0.02408733457
573.125 0.04300061868 0.02669070315
573.75 0.08967569029 0.02005575105
574.375 0.1112472455 0.005349928944
575.0 0.07813450298 -0.009370460303
575.625 0.05957752916 -0.02420833406
576.25 0.09238133005 -0.01860342611
576.875 0.09874091992 -0.003132917162
577.5 0.08913389348 -0.00558080219
578.125 0.09109259918 -0.0275979216
578.75 0.1199078098 -0.03286448608
579.375 0.1108528547 -0.01104731206
580.0 0.09453238253 -0.02657390391
580.625 0.09275644791 -0.05349299159
581.25 0.08140012531 -0.05726118211
581.875 0.05541495505 -0.01557876905
582.5 0.04819324796 -0.002455519066
583.125 0.08300466135 0.00294028519
583.75 0.09023258574 0.01523830482
584.375 0.06842984369 0.02262757158
585.0 0.05757547489 0.02999334861
585.625 0.07689823744 0.0438435379
586.25 0.073747935 0.05147838432
586.875 0.05951734026 0.02967289717
587.5 0.07357315269 0.01719125391
588.125 0.09678659929 0.003906417237
588.75 0.1006137264 -0.001733784278
589.375 0.0740397801 -0.04472950424
590.0 0.04461683792 -0.08187548049
590.625 0.03601400222 -0.06240650591
591.25 0.03188966358 -0.01973727035
591.875 0.04143706028 -0.009691804957
592.5 0.06151244225 -0.03783823133
593.125 0.08131676125 -0.04368300501
593.75 0.07492937242 -0.02033039688
594.375 0.07618393996 -0.002398289785
595.0 0.09222464424 0.01501496119
595.625 0.08499496381 0.04075040055
596.25 0.0582061725 0.04612894465
596.875 0.04669063989 0.04914184863
597.5 0.04462061202 0.0668927217
598.125 0.04994719921 0.06435755802
598.75 0.0648921893 0.04026534229
599.375 0.06493807284 0.02722450516
600.0 0.05243381732 0.01836367572
600.625 0.02626965822 0.01146962991
601.25 0.01158817526 0.01170140928
601.875 0.002378479957 0.032528757
602.5 -0.003645341274 0.04041422613
603.125 -0.01050886353 0.04204076034
603.75 -0.00327708477 0.04980675945
604.375 0.004198256311 0.05626160515
605.0 -0.007287977409 0.0450364909
605.625 -0.01612955052 0.02633188613
606.25 -0.03418212798 0.02919163349
606.875 -0.04266320547 0.04524643238
607.5 -0.02964495321 0.05411096933
608.125 0.001370374282 0.04576344564
608.75 0.003993610462 0.03795337686
609.375 -0.0002806204416 0.0349607676
610.0 -0.001721250621 0.02744079215
610.625 0.008617782127 0.0141933792
611.25 0.005192941909 -9.145421998e-05
611.875 0.001326580285 -0.01294596912
612.5 -0.008992375031 -0.02398916036
613.125 -0.01758427486 -0.0189085537
613.75 -0.01905532627 -0.007275269104
614.375 -0.00809110797 -0.001092353019
615.0 0.0003135369389 -0.007770873209
615.625 -0.001874698821 -0.0138901119
616.25 -0.006242052709 -0.004743875317
616.875 0.001888144994 0.005655903688
617.5 0.01522288727 0.001982768732
618.125 0.02402672942 -0.001400298778
618.75 0.02425935063 -0.000208957203
619.375 0.0332759987 0.005130276088
620.0 0.04934227265 -0.002157694324
620.625 0.05486667854 -0.02434850979
621.25 0.04667899054 -0.03480506726
621.875 0.03328929163 -0.04299641904
622.5 -0.01381673228 -0.03620447792
623.125 -0.01096511486 -0.007405525575
623.75 0.007088851559 0.007756558792
624.375 0.0202603984 0.01575453003
625.0 0.01775511246 0.02916029661
625.625 0.01451638503 0.03558799563
626.25 0.0350048182 0.0492890156
626.875 0.0584145977 0.05884829531
627.5 0.05294368221 0.06497306909
628.125 0.04224978633 0.05540545955
628.75 0.04497652482 0.06349468927
629.375 0.04543621945 0.07959353621
630.0 0.03127219344 0.07681262336
630.625 0.0246535217 0.05958885254
631.25 0.01932129524 0.05767948478
631.875 0.00168528695 0.05515605005
632.5 -0.01442674047 0.04358361651
633.125 -0.02041968705 0.03542694356
633.75 -0.02435722421 0.05360157419
634.375 -0.03780904282 0.05445732007
635.0 -0.0388185361 0.05506146001
635.625 -0.03057259493 0.07449723312
636.25 -0.02501255081 0.09228382704
636.875 -0.03528915847 0.0749053938
637.5 -0.03554411939 0.05399666567
638.125 -0.05002556229 0.0786277283
638.75 -0.07146381495 0.09196723442
639.375 -0.07683501423 0.05830651994
640.0 -0.05815829512 0.0280893253
640.625 -0.07182237816 0.01335764031
641.25 -0.08722076535 -0.02429488707
641.875 -0.06750307547 -0.03843648147
642.5 -0.06068730438 -0.03220716132
643.125 -0.07424440417 -0.04691288743
643.75 -0.06324970544 -0.08238197458
644.375 -0.05512205144 -0.07891830119
645.0 -0.08091234585 -0.05181272772
645.625 -0.1002364732 -0.05512096956
646.25 -0.07967795502 -0.05662948601
646.875 -0.04869986113 -0.061963306
647.5 -0.06343532728 -0.05703942681
648.125 -0.07409394559 -0.07337441204
648.75 -0.03595150605 -0.07013930969
649.375 -0.006157808034 -0.05839868705
650.0 0.01698756733 -0.07632735507
650.625 0.05359796434 -0.0813732113
651.25 0.07432347185 -0.05446308633
651.875 0.08480520539 -0.03104871722
652.5 0.1289597735 -0.004548822357
653.125 0.1307533061 0.04649023691
653.75 0.1111672013 0.04936809967
654.375 0.1110172049 0.04628840955
655.0 0.1049394879 0.07501933563
655.625 0.05447463167 0.07886922968
656.25 0.04463025912 0.04819937427
656.875 0.07478190622 0.03857529
657.5 0.07170074245 0.07297170613
658.125 0.02812542121 0.08295465385
658.75 0.01900050102 0.0732677579
659.375 0.07530573875 0.07738252262
660.0 0.117272568 0.07929277102
660.625 0.1175025557 0.0581076772
661.25 0.1187449269 0.02042192949
661.875 0.1380065768 -0.02116042911
662.5 0.1393610266 -0.03778222967
663.125 0.1137852324 -0.0233206982
663.75 0.113061977 0.009873713183
664.375 0.06791435293 0.09486379135
665.0 -0.0007546819081 0.09338485615
665.625 -0.02602118188 0.06812865071
666.25 -0.05111174892 0.07747310353
666.875 -0.1256697432 0.04560817506
667.5 -0.1151981778 -0.005913991579
668.125 -0.1069418321 0.01078672444
668.75 -0.1259679632 0.05528325231
669.375 -0.1473349611 0.03874339882
670.0 -0.107559949 -0.001431979651
670.625 -0.09422866128 0.00672792919
671.25 -0.1192625261 0.04758017252
671.875 -0.1124098482 0.06088086358
672.5 -0.07058061889 0.06577623357
673.125 -0.05496795918 0.06738581332
673.75 -0.08114402559 0.08468567129
674.375 -0.1056407922 0.06770262834
675.0 -0.1138092846 0.03455921325
675.625 -0.1354700232 -0.00369832101
676.25 -0.1207219786 -0.06819931676
676.875 -0.1030001144 -0.08376368374
677.5 -0.1186227693 -0.06078417729
678.125 -0.142219698 -0.07405986708
678.75 -0.07291297109 -0.08852103601
679.375 -0.03009832492 -0.0610915759
680.0 -0.04326665985 -0.05796638686
680.625 -0.07350757228 -0.09401005232
681.25 -0.05913962361 -0.1078470275
681.875 -0.04958059758 -0.07774700999
682.5 -0.103186968 -0.04661036013
683.125 -0.1571147985 -0.04355361284
683.75 -0.1423488384 -0.09295857044
684.375 -0.05687168432 -0.119435212
685.0 0.0138967307 -0.1397574156
685.625 0.110223071 -0.1162703938
686.25 0.1366082535 -0.0586011857
686.875 0.12464048 -0.0271786727
687.5 0.1079098217 0.01945940287
688.125 0.0748297139 0.05188534216
688.75 0.04693883264 0.06574661832
689.375 0.06076411778 0.0868046213
690.0 0.04429988372 0.1360556606
690.625 0.02596780028 0.1232146153
691.25 0.0674056342 0.1017806805
691.875 0.1622051637 0.033990181
692.5 0.2007733055 -0.08311812541
693.125 0.06310572128 -0.1368386879
693.75 -0.03578349004 -0.1059789887
694.375 -0.05960775789 -0.1202900303
695.0 0.02585754909 -0.1630996783
695.625 0.1176016904 -0.04449067887
696.25 0.07787649974 0.05003209627
696.875 0.001206121884 0.1120850136
697.5 -0.09622868136 0.08475941548
698.125 -0.1294611381 0.04462303753
698.75 -0.1312763822 0.0533343148
699.375 -0.1327682326 0.04833757973
700.0 -0.1183958263 0.01933682589
700.625 -0.1142514158 -0.006037967859
701.25 -0.1413379954 -0.01803375286
701.875 -0.1147700584 -0.02800420324
702.5 -0.07726194633 -0.0008123683154
703.125 -0.07383562845 0.03416416219
703.75 -0.053397252 0.1439986291
704.375 -0.01951084807 0.1841615265
705.0 0.002048199775 0.1289359688
705.625 -0.01830060774 0.1128550575
706.25 -0.1195552684 0.1029121942
706.875 -0.1676103478 -0.06101909372
707.5 -0.0755206678 -0.09788671469
708.125 -0.03953209209 -0.0954143854
708.75 0.02938805125 -0.09819092332
709.375 0.09939363853 -0.03498543016
710.0 0.0836153539 0.03467757866
710.625 0.06825521572 0.04718077171
711.25 0.04012688888 0.0697019586
711.875 0.02977410787 0.08106269598
712.5 0.06949390961 0.09227499456
713.125 0.1555183037 0.02265848503
713.75 0.1164920659 -0.1024151142
714.375 0.0131273071 -0.1346350401
715.0 -0.05741841028 -0.1264444928
715.625 -0.03125605562 -0.1545600627
716.25 0.04268116593 -0.1048775775
716.875 0.05763458263 -0.04413444566
717.5 0.07952599558 -0.01033334647
718.125 0.1014747503 0.04203142761
718.75 0.06391790263 0.07563068976
719.375 0.0260111443 0.06351661329
720.0 -0.01223597791 0.06957581178
720.625 -0.08950936619 0.0333326403
721.25 -0.07745676844 -0.08637024964
721.875 0.005840502379 -0.1140203919
722.5 0.01488275016 -0.1190627646
723.125 -0.03143565341 -0.1091525538
723.75 -0.06812518277 -0.05584477201
724.375 -0.0708639542 -0.01169824503
725.0 -0.05670922972 0.02683660965
725.625 -0.03442940425 0.03177836928
726.25 -0.03809766524 0.02014053643
726.875 -0.06438143475 0.002151791806
727.5 -0.08569961236 -0.02994602782
728.125 -0.07205852107 -0.0430810042
728.75 -0.06290462498 -0.02921690119
729.375 -0.05827654003 -0.01244213936
730.0 -0.05573984223 -0.0223040702
730.625 -0.04370621902 -0.02815103269
731.25 -0.02607859555 -0.02860798799
731.875 -0.001730109059 -0.03335938955
732.5 0.01536203893 -0.01445234029
733.125 0.01719514929 0.01564980983
733.75 0.02240945441 0.02086297467
734.375 0.03782816816 0.01490610347
735.0 0.04181511022 -0.008095896016
735.625 0.02779497591 -0.01820089443
736.25 0.01734595633 -0.0284959207
736.875 -0.001683674899 -0.03169826133
737.5 -0.01959918724 -0.01603427716
738.125 -0.03087957817 0.007760631925
738.75 -0.03357322312 0.02905694901
739.375 -0.01306755685 0.03617973015
740.0 -0.002123869484 0.02076867183
740.625 -0.006613089355 0.01807779902
741.25 -0.02194282289 0.02509036372
741.875 -0.03198441305 0.01123696846
742.5 -0.02313356623 -0.02310445961
743.125 0.01294686492 -0.0310219045
743.75 0.03476036173 -0.01225647805
744.375 0.03235826647 -0.01331807996
745.0 0.03036088619 -0.01547098769
745.625 0.01961045943 -0.008637536528
746.25 0.0414716863 0.003412098732
746.875 0.04849070777 -0.03152189713
747.5 0.02009341672 -0.06105879374
748.125 -0.01235019746 -0.06227464574
748.75 -0.04007333872 -0.03986344384
749.375 -0.06446058148 -0.003635192324
750.0 -0.04382902765 0.06881064438
