!Created with skrf (http://scikit-rf.org).
# GHz S RI R 50.0 
!freq ReS11 ImS11
500.0 -0.006253237896 -0.007268772952
500.625 0.01953957687 0.01173058957
501.25 0.01218896329 -0.01251560163
501.875 -0.04427695004 -0.04433178694
502.5 -0.02396352708 -0.0105494209
503.125 0.001846317208 0.01004892431
503.75 -0.005190236197 -0.002920270487
504.375 0.02195885873 -0.02182237686
505.0 0.008370000519 -0.01360690811
505.625 0.00646143199 -0.03008061034
506.25 -0.01551814142 -0.03632138657
506.875 0.005943396357 -0.0769500165
507.5 -0.008809941061 -0.06428688946
508.125 0.01038406094 -0.06622251171
508.75 -0.07315608265 -0.02065905212
509.375 -0.05745109077 -0.02948484738
510.0 -0.01390876295 -0.05682850757
510.625 -0.04127936691 -0.01313011889
511.25 -0.04679970323 0.01602557809
511.875 -0.05406396314 0.03089677706
512.5 -0.007877026037 0.04121536443
513.125 0.04175074254 0.02909124882
513.75 0.06739001539 -0.008389381199
514.375 0.03698866863 -0.01069214861
515.0 0.05958407508 -0.00412321439
515.625 0.05533952075 0.03380152638
516.25 0.06250727585 -0.01068495497
516.875 0.05320278693 0.06483417122
517.5 0.1317931833 0.0279217895
518.125 0.09963345209 0.1609888364
518.75 0.09133817909 -0.0003913956066
519.375 0.06338884875 0.007668065093
520.0 0.07678122165 -0.02823482395
520.625 0.08922233916 -0.03735422737
521.25 0.05646963929 -0.0563286583
521.875 0.04578210509 -0.02381411077
522.5 0.06812209608 -0.08392743046
523.125 0.1212149047 -0.1510377108
523.75 0.02018853408 -0.2280931528
524.375 0.05327037344 -0.2250032042
525.0 0.03599108659 -0.09762610017
525.625 0.01152928454 -0.05889390169
526.25 0.04523525786 -0.04168924983
526.875 0.02951350956 -0.05362907112
527.5 0.01058393869 -0.06001342703
528.125 -0.01218115219 -0.04315365048
528.75 -0.02950887223 -0.04069395987
529.375 -0.08741466996 -0.03781294203
530.0 -0.0821277473 0.007929058412
530.625 0.002428014646 0.03352465659
531.25 -0.04822999448 0.008983672741
531.875 -0.1341492129 0.03160123058
532.5 -0.1211961279 0.07399393718
533.125 -0.0678826046 0.06242542831
533.75 -0.04626637851 0.08278214103
534.375 -0.06708558874 0.08531695613
535.0 -0.05012952963 0.09635130419
535.625 -0.04082811804 0.05533041981
536.25 -0.0003192854914 0.07410516029
536.875 -0.0433791407 0.07165695133
537.5 -0.08170250223 0.02753676111
538.125 -0.04327532483 0.04353617418
538.75 -0.0599701009 0.1120558318
539.375 -0.07194931487 0.08012649804
540.0 -0.05192025588 0.05415434789
540.625 -0.04271890909 0.04174584514
541.25 -0.07630403727 0.06574472031
541.875 -0.09040045522 0.04258587321
542.5 -0.06966378428 0.01249084933
543.125 -0.06732375896 0.04255159847
543.75 -0.03111174749 0.1385870732
544.375 0.0006988829511 0.1245773901
545.0 0.0794709317 0.05499544465
545.625 0.09762909001 0.01113306773
546.25 0.0812024222 -0.01996172275
546.875 0.08121421094 -0.01994498836
547.5 0.1085600057 -0.01506337579
548.125 0.1176175927 -0.009510850639
548.75 0.1314637887 0.04973242815
549.375 0.1175096977 0.05104512543
550.0 0.1099569723 0.08382840199
550.625 0.08643640485 0.08429580339
551.25 0.03444767533 0.05309314759
551.875 0.02199074433 0.03753398859
552.5 0.02514727394 0.04625312157
553.125 0.01451595076 0.05899490881
553.75 -0.005327962152 0.05670162357
554.375 -0.003202168961 0.04748414911
555.0 0.02365826729 0.07079139631
555.625 0.03416795871 0.0833068783
556.25 0.000177941629 0.05538009266
556.875 0.0002742569777 0.06594842324
557.5 0.01707729428 0.1086154446
558.125 0.003874468132 0.121836238
558.75 -0.02238157746 0.08304683728
559.375 0.004910302861 0.09895596532
560.0 0.009965444427 0.09581294971
560.625 0.01601501432 0.05765510283
561.25 0.01232351152 0.03182360062
561.875 0.0082288919 0.0485666143
562.5 0.03764863046 0.07170650739
563.125 0.02928233617 0.05821762151
563.75 0.05914046694 0.04660751159
564.375 0.101103036 0.04693430016
565.0 0.0957217602 0.06923599876
565.625 0.08876395142 0.04229165203
566.25 0.07314228129 0.03983857408
566.875 0.05567546547 0.06097158516
567.5 0.03649220959 0.09953522079
568.125 0.01967410316 0.08951206581
568.75 0.01192601557 0.09158651276
569.375 0.01683720881 0.103651333
570.0 0.009116369256 0.08016699668
570.625 0.01171181386 0.05302186985
571.25 0.004633226514 0.04513883841
571.875 0.009609859597 0.04807597039
572.5 0.01332719002 0.04047717978
573.125 0.0167674833 0.05950612051
573.75 0.04907562319 0.0781935511
574.375 0.06344342777 0.05714227427
575.0 0.06930322824 0.02128083474
575.625 0.06533732622 0.02143481462
576.25 0.06817615308 0.0469938451
576.875 0.07982994526 0.04921570555
577.5 0.08244478438 0.02431567806
578.125 0.09339844515 0.02122906938
578.75 0.07579049028 0.04130010066
579.375 0.07010050214 0.02953328545
580.0 0.08907048027 0.002924159406
580.625 0.08955708923 -0.009655462664
581.25 0.03794224623 0.01053218789
581.875 0.03689924378 0.01690856824
582.5 0.041730746 0.03264232475
583.125 0.0559227205 0.06195192675
583.75 0.04685818245 0.06049231198
584.375 0.04193789006 0.05099646259
585.0 0.01654008707 0.06721525846
585.625 0.03212167031 0.08715988358
586.25 0.01362775654 0.06842140933
586.875 0.03838601578 0.05223091617
587.5 0.053118773 0.05987761442
588.125 0.0657722808 0.05938297575
588.75 0.06710949299 0.04354365027
589.375 0.07554195363 -0.01638298899
590.0 0.0646197488 -0.01256259746
590.625 0.04135438209 0.003904946957
591.25 0.03698796451 0.03011364896
591.875 0.05727612227 0.04189361524
592.5 0.09008636013 0.03185595162
593.125 0.0909545384 0.01615388284
593.75 0.07329918096 0.02585785054
594.375 0.07855321215 0.03223516145
595.0 0.0664605096 0.06876793873
595.625 0.04240461316 0.06768791246
596.25 0.01098250653 0.06029770522
596.875 -0.02289280797 0.06568662881
597.5 -0.02842110629 0.06666784406
598.125 -0.004109243694 0.06797200535
598.75 -0.002699591413 0.0526118456
599.375 0.03628651849 0.03748227658
600.0 0.01207080824 0.02634065884
600.625 -0.01110989067 0.01288016259
601.25 -0.04183970727 0.02303359079
601.875 -0.03616738083 0.03580147848
602.5 -0.06003333282 0.0385796964
603.125 -0.04237518889 0.04174856476
603.75 -0.04812042079 0.0560258537
604.375 -0.07224561399 0.02745746781
605.0 -0.04366756767 0.01739091556
605.625 -0.03894449858 0.01390178992
606.25 -0.0647401415 0.009569498461
606.875 -0.08388644014 -0.01053561996
607.5 -0.04293219551 0.03271878876
608.125 -0.01423164907 0.03441647584
608.75 -0.0352494478 0.01770139531
609.375 -0.04423024123 -0.01740059627
610.0 -0.01761791634 -0.01842712215
610.625 -0.001205986696 -0.002858241873
611.25 -0.003192983029 -0.02318411747
611.875 -0.001892842288 -0.06657407064
612.5 -0.004090682537 -0.03636174485
613.125 -0.01775163777 -0.06571171433
613.75 -0.00972141252 -0.03704684038
614.375 -0.002275478291 -0.03194257571
615.0 0.01081990587 -0.05536678661
615.625 0.008816226798 -0.06612532981
616.25 -0.002795518519 -0.006662712049
616.875 0.004886884964 -0.01477397204
617.5 0.01596722583 -0.02767541634
618.125 0.02742473331 -0.03963795999
618.75 0.0281190911 0.002280421386
619.375 0.0390613228 -0.01608847543
620.0 0.04875181751 -0.006820118105
620.625 0.04871677101 -0.0434876042
621.25 0.04854068521 -0.05434760541
621.875 0.03401056771 -0.06418031548
622.5 -0.01681595376 -0.05721424687
623.125 -0.01716382687 -0.04121365854
623.75 0.00797687261 0.02053178204
624.375 0.01736442427 0.001956836683
625.0 0.04563538017 0.0002184232795
625.625 0.02849374941 0.02323806002
626.25 0.0232375226 0.05971938052
626.875 0.04435625415 0.06193328146
627.5 0.07156270787 0.04573045695
628.125 0.0266538524 0.05951664978
628.75 0.03238276479 0.05647517023
629.375 0.03135954455 0.06448679423
630.0 0.03612833148 0.05881967669
630.625 0.005046945497 0.05155779187
631.25 -0.007003940768 0.04492086647
631.875 -0.01355539841 0.03254997901
632.5 0.006451857971 0.03641344858
633.125 -0.03744655939 0.017646726
633.75 -0.01931855893 0.03072086469
634.375 -0.04190797089 0.03133317046
635.0 -0.03956951832 0.03158751032
635.625 -0.01141628858 0.06332552632
636.25 -0.02225846674 0.07641525663
636.875 -0.05230784566 0.04166697969
637.5 -0.03668364488 0.03380133647
638.125 -0.04981699497 0.05047979554
638.75 -0.09115082936 0.05305727686
639.375 -0.0545913775 0.03595288025
640.0 -0.04458322202 0.01274298278
640.625 -0.0471904887 -0.01109699828
641.25 -0.05419452985 -0.02225171995
641.875 -0.0384253702 -0.04154230519
642.5 -0.03740237222 -0.05202572335
643.125 -0.04529195073 -0.03573800128
643.75 -0.005364514726 -0.09699305066
644.375 -0.01889675075 -0.0748230486
645.0 -0.04896536821 -0.06685135474
645.625 -0.05068695923 -0.05977247572
646.25 -0.02734614298 -0.06366755528
646.875 -0.01679798639 -0.04331990865
647.5 -0.02843088408 -0.07311739075
648.125 -0.02246761763 -0.06528551238
648.75 -0.02250051833 -0.03838887553
649.375 0.009250824184 -0.03178207153
650.0 0.06506167509 -0.06092624409
650.625 0.0817070889 -0.0419116616
651.25 0.0560563391 -0.02917623122
651.875 0.07825286434 -0.00454716817
652.5 0.1136036407 0.0603130366
653.125 0.08748877311 0.07438369519
653.75 0.08106594924 0.03747126243
654.375 0.06747317578 0.06082714042
655.0 0.03625971377 0.07751032101
655.625 0.004993323491 0.04851032234
656.25 0.02019558641 0.02633996237
656.875 0.02940619157 0.04629515925
657.5 0.0003456658674 0.09465771682
658.125 -0.02678369197 0.06222383768
658.75 -0.01705976415 0.06713221713
659.375 0.03460435303 0.1238033443
660.0 0.0517049715 0.1064078912
660.625 0.06990299235 0.0823365959
661.25 0.08519574125 0.05683119527
661.875 0.098961411 0.01999104352
662.5 0.1030302701 0.02292152147
663.125 0.0914118885 0.0251654415
663.75 0.05992504845 0.03962707139
664.375 -0.00381548393 0.09471714656
665.0 -0.0494828411 0.0617414657
665.625 -0.05098671969 0.03009031767
666.25 -0.08487446011 0.01785609882
666.875 -0.09907066828 -0.0421377651
667.5 -0.09893174619 -0.05335788415
668.125 -0.0980549706 -0.03254602624
668.75 -0.1031830407 -0.009966246531
669.375 -0.09581278365 -0.0205238067
670.0 -0.07559559097 -0.04154772134
670.625 -0.07891716923 -0.03646482247
671.25 -0.082556952 -0.01544894177
671.875 -0.09268666115 -0.008089389482
672.5 -0.07457273496 0.006411625708
673.125 -0.08397362601 0.02163688919
673.75 -0.09251246947 0.01207356524
674.375 -0.1015243864 0.0008646750161
675.0 -0.1111402625 -0.02424811998
675.625 -0.09800226627 -0.07447189687
676.25 -0.05798225113 -0.09812909727
676.875 -0.04104223775 -0.08486469618
677.5 -0.07837469476 -0.09955648185
678.125 -0.05164614377 -0.1087504378
678.75 -0.004763757528 -0.04664987715
679.375 0.01637580264 -0.04928350038
680.0 0.007313572522 -0.08104258655
680.625 0.03229090707 -0.1068858917
681.25 0.0264551551 -0.09203342586
681.875 -0.005645713865 -0.08969989233
682.5 -0.0571625001 -0.09656038141
683.125 -0.1182733864 -0.1283807113
683.75 -0.05836981044 -0.1247201178
684.375 0.003986597134 -0.09475303326
685.0 0.07875117863 -0.1126525681
685.625 0.1373163116 -0.04153277043
686.25 0.1089737722 0.01533867945
686.875 0.0649165938 0.03135300729
687.5 0.05357571623 0.06669965989
688.125 0.01058398785 0.07951584438
688.75 -0.01655627167 0.08446591306
689.375 -0.02753586816 0.1068002203
690.0 -0.05294439774 0.1094149832
690.625 -0.04510309454 0.1030641259
691.25 0.01447744651 0.1220526332
691.875 0.1157926245 0.1252471375
692.5 0.1286715293 0.04247966917
693.125 0.06506408259 -0.05581458798
693.75 0.01901240678 -0.09539831698
694.375 0.03572926207 -0.1242972276
695.0 0.107073351 -0.04589434628
695.625 0.07972628226 0.03268553861
696.25 0.01691004381 0.08858518229
696.875 -0.07410467761 0.09136191837
697.5 -0.130877936 0.002369148229
698.125 -0.09540191067 -0.04718096286
698.75 -0.1172508745 -0.03463079946
699.375 -0.1136192909 -0.03261435794
700.0 -0.07630562342 -0.04634557468
700.625 -0.08958720432 -0.06171583114
701.25 -0.05290088059 -0.09300922273
701.875 -0.03242162506 -0.06673678898
702.5 -0.03702518878 -0.05785925653
703.125 -0.09388245502 -0.04613396915
703.75 -0.1561306303 0.03588343271
704.375 -0.0953269328 0.1243354675
705.0 -0.046216551 0.102423346
705.625 -0.09237701903 0.06811220064
706.25 -0.1646717738 0.01412857443
706.875 -0.06757796956 -0.1152767672
707.5 -0.01123259505 -0.08482529043
708.125 0.03456111828 -0.0701689581
708.75 0.08166974801 -0.03282850873
709.375 0.06838602425 0.05803052101
710.0 0.03147534498 0.07463320844
710.625 0.001516691078 0.07966967909
711.25 -0.03122493076 0.07843241176
711.875 -0.03058502683 0.09888825416
712.5 -0.007213056077 0.1392100896
713.125 0.08709571708 0.1150417336
713.75 0.1267460347 -0.01495971187
714.375 0.08478676409 -0.07002520587
715.0 0.02813876125 -0.1255226173
715.625 0.07027472807 -0.08873093321
716.25 0.06015756362 0.00418908053
716.875 0.05581842613 0.01259325612
717.5 0.05349075734 0.07900010725
718.125 0.0144248424 0.1055019347
718.75 -0.02931748995 0.08458776793
719.375 -0.05547777838 0.06075788315
720.0 -0.08882983112 0.02988031373
720.625 -0.1024660986 -0.03221881276
721.25 0.01151092534 -0.1147250739
721.875 0.05095832326 -0.0954490828
722.5 0.0774698459 -0.07009775483
723.125 0.04547928895 -0.065861009
723.75 0.03564545049 -0.06299253564
724.375 0.01902654369 -0.08004340191
725.0 -0.03109721012 -0.06999288907
725.625 -0.04478510941 -0.009489105367
726.25 -0.05686698065 -0.02549919451
726.875 -0.04759162767 -0.1165418915
727.5 -0.03259718117 -0.09259826064
728.125 -0.02362612911 -0.07778128691
728.75 -0.007216328388 -0.07661197866
729.375 0.004980358896 -0.08779830945
730.0 0.0240937808 -0.08154488513
730.625 0.02006123079 -0.06320369367
731.25 -2.905545138e-05 -0.03104510328
731.875 0.04450930115 -0.0001249511282
732.5 0.01464636749 0.07593398273
733.125 0.002403444294 0.04158494193
733.75 0.01235950408 0.04239893785
734.375 0.03221230257 0.08883206929
735.0 0.05964241524 0.06104745362
735.625 0.07211210844 0.03513959614
736.25 0.02469376384 -0.01062753036
736.875 0.0341685523 0.0005257665388
737.5 0.01256394904 0.04623018122
738.125 -0.02807330525 0.06890758946
738.75 -0.04011849331 0.03174333686
739.375 -0.02177691166 0.0625481211
740.0 -0.006518814263 0.08812140074
740.625 -0.01784217232 0.02075483907
741.25 -0.0153916977 0.03849646261
741.875 -0.04608552764 0.02619128686
742.5 -0.04911414036 -0.02201903135
743.125 0.01503274493 -0.03751450391
743.75 0.03557697004 -0.02850543842
744.375 0.03470740361 -0.0253168353
745.0 0.03450858548 -0.05052173913
745.625 0.02391097037 0.01985203388
746.25 0.02659999085 -0.006521093917
746.875 0.05748695904 -0.02547262232
747.5 0.008675464414 -0.05577222942
748.125 -0.04160542026 -0.06962228732
748.75 -0.03127492927 -0.04468821886
749.375 -0.05171965651 -0.007135797413
750.0 -0.03830640805 0.0505289693
