!Created with skrf (http://scikit-rf.org).
# GHz S RI R 50.0 
!freq ReS11 ImS11
500.0 -0.004088166622 0.007313698584
500.625 -0.006125720742 0.004336351863
501.25 0.007801173442 -0.01415671454
501.875 -0.02345128622 -0.01486931874
502.5 -0.01591016597 -0.003984096873
503.125 0.004421797997 0.00369505287
503.75 -0.009222135168 0.01398968405
504.375 -0.003791105655 0.00671924352
505.0 -0.003132184713 -0.0001165779958
505.625 0.0003028515746 -0.03269619774
506.25 -0.02318175241 -0.04501296709
506.875 -0.04499175001 -0.02596607804
507.5 -0.03599786119 -0.01444641874
508.125 -0.01888339407 -0.06140287554
508.75 -0.05295444914 -0.02380313452
509.375 -0.06399984547 -0.02597651863
510.0 -0.03441080541 -0.004736672166
510.625 -0.03758771554 0.007680790093
511.25 -0.03438148386 0.01637393642
511.875 -0.01283031893 0.04323066015
512.5 0.01566170273 0.03070261275
513.125 0.06192602277 0.0189493798
513.75 0.06509209699 -0.006783048053
514.375 0.06114810569 -0.01548499952
515.0 0.044523971 -0.03400509807
515.625 0.08336217129 0.0006018068373
516.25 0.06940036562 -0.01741960619
516.875 0.07734162102 0.07005792608
517.5 0.08575241149 -0.006592857275
518.125 0.1769857173 0.137871718
518.75 0.06246040774 -0.05746589143
519.375 0.05243349006 -0.02619856716
520.0 0.06091559514 -0.06096042826
520.625 0.08195576051 -0.08679665478
521.25 0.0189665439 -0.07530141709
521.875 0.05178789679 -0.0403682682
522.5 0.02613160129 -0.08189308569
523.125 0.07941302712 -0.2211107772
523.75 0.02436505443 -0.2584044273
524.375 0.02003286606 -0.2702124041
525.0 0.0001733966261 -0.131724317
525.625 -0.01107959239 -0.08375087719
526.25 0.008248646639 -0.06142257163
526.875 -0.01261382613 -0.0530410269
527.5 -0.0290018745 -0.08623205877
528.125 -0.04577835359 -0.04308437556
528.75 -0.05297183151 -0.02537943265
529.375 -0.09167022068 0.01516906555
530.0 -0.09203364534 0.07600051545
530.625 3.28770088e-05 0.06701161167
531.25 -0.01528051325 0.04899734029
531.875 -0.03215309016 0.05618937946
532.5 -0.0648266252 0.1483198782
533.125 -0.03048094908 0.09966196072
533.75 0.004158860027 0.06416950955
534.375 0.003987805557 0.0855374282
535.0 0.001545706325 0.13154032
535.625 -0.02163972798 0.08938001574
536.25 0.04036964798 0.0536572493
536.875 0.02267090321 0.06122469543
537.5 -0.04264072166 0.08097861972
538.125 -0.02996778192 0.06687881766
538.75 0.003176342734 0.101855834
539.375 -0.008720939411 0.1012167989
540.0 -0.01397895037 0.1103078849
540.625 -0.01245055178 0.07119976299
541.25 -0.01590722252 0.1001818398
541.875 -0.03393928676 0.07772697114
542.5 -0.04432018272 0.04643041471
543.125 -0.03634943916 0.05234757534
543.75 0.02399403622 0.1093694679
544.375 0.05515361566 0.1068832509
545.0 0.1055339242 0.02594301878
545.625 0.0943268281 -0.04557899133
546.25 0.08505753165 -0.07692352721
546.875 0.09279080964 -0.07753203106
547.5 0.09807748059 -0.07274392047
548.125 0.1171205873 -0.06114159457
548.75 0.1519346651 -0.02571760093
549.375 0.1297904105 -0.001105543848
550.0 0.1458567512 0.03717542426
550.625 0.1610530539 0.05111369194
551.25 0.08727386411 0.07642636427
551.875 0.06133825427 0.03244319398
552.5 0.07601384453 0.02029782159
553.125 0.08011760759 0.02617335212
553.75 0.03941265323 0.03859113442
554.375 0.03093632832 0.02563118202
555.0 0.0611598738 0.02802432745
555.625 0.09495383715 0.03053142234
556.25 0.06126468721 0.05825459078
556.875 0.0430076188 0.0501301338
557.5 0.04230156612 0.06487967731
558.125 0.06682802486 0.1009474652
558.75 0.01935036395 0.1028735497
559.375 0.04452057836 0.08880515849
560.0 0.07865672209 0.09755548906
560.625 0.07550276194 0.07085956596
561.25 0.04671968565 0.02231007747
561.875 0.06300372307 0.01969500258
562.5 0.06853816152 0.02300391194
563.125 0.06511537356 0.02011108222
563.75 0.05058999267 0.01336634776
564.375 0.08262343308 -0.009858057562
565.0 0.1385709332 -0.001965210659
565.625 0.1127999717 -0.008803531922
566.25 0.07971308927 0.005390235165
566.875 0.1068417523 0.002673966017
567.5 0.08385330424 0.06235333198
568.125 0.06306056852 0.07781411485
568.75 0.06041135931 0.08514842574
569.375 0.07090188261 0.09074755907
570.0 0.05250628342 0.07475046869
570.625 0.06129284155 0.05613481169
571.25 0.06664617328 0.03861159015
571.875 0.06888123069 0.04170447481
572.5 0.03930485077 0.01629291785
573.125 0.04509312192 0.01308198884
573.75 0.07798111566 0.02087361414
574.375 0.1079511662 -0.01582669346
575.0 0.07477611914 -0.01759485868
575.625 0.05086930256 -0.03425937612
576.25 0.07539824562 -0.005695076356
576.875 0.08105336869 -0.00403588371
577.5 0.08605171691 -0.01502543133
578.125 0.08239201306 -0.03650539384
578.75 0.1051449831 -0.03738881361
579.375 0.1120755036 -0.02898576671
580.0 0.08981891509 -0.02433682283
580.625 0.08568157885 -0.0664949147
581.25 0.07386402468 -0.06358077082
581.875 0.05045775093 -0.01788403676
582.5 0.04081388885 0.005357697681
583.125 0.07747473838 -0.01322231394
583.75 0.08393455719 0.01224689304
584.375 0.05907259069 0.02472695485
585.0 0.05564238401 0.02316449872
585.625 0.07821777387 0.02804472316
586.25 0.06695673554 0.05257537641
586.875 0.05780337909 0.0281386994
587.5 0.06581960578 0.02994561966
588.125 0.0938572585 -0.01178519414
588.75 0.09608554036 0.002947762819
589.375 0.07266281238 -0.03854737335
590.0 0.03973252719 -0.07590857536
590.625 0.02340399619 -0.07472848777
591.25 0.03150482561 -0.02134228652
591.875 0.04565710135 -0.001116098187
592.5 0.05019000706 -0.04256791681
593.125 0.07086625395 -0.05343911074
593.75 0.0723697087 -0.01477232435
594.375 0.08077123341 0.01160461924
595.0 0.08738242153 0.0338987902
595.625 0.09023224623 0.03086242856
596.25 0.06042858242 0.0417274899
596.875 0.03961658885 0.05403610365
597.5 0.05350419331 0.05903473481
598.125 0.0579762693 0.05924626588
598.75 0.06390346298 0.04689161126
599.375 0.06345309613 0.0380408223
600.0 0.0314007192 0.03773594275
600.625 0.03292501027 0.008529745685
601.25 0.002504412723 0.01885346826
601.875 -0.01779685334 0.05475654685
602.5 -0.004649019552 0.04343003172
603.125 -0.006656918942 0.04234384458
603.75 0.001923889554 0.0468047938
604.375 -0.005023725137 0.06867441081
605.0 -0.005008117019 0.0493251413
605.625 -0.04342914281 0.03167435297
606.25 -0.03063212221 0.03093143725
606.875 -0.0704598902 0.04851437055
607.5 -0.06219820912 0.04965818275
608.125 -0.02404376332 0.05237060142
608.75 0.007668946549 0.03892938449
609.375 -0.01525556051 0.04462015295
610.0 -0.003486301273 0.03085331569
610.625 -0.02993090915 0.01051150967
611.25 0.003655332069 0.001927177968
611.875 -0.0236401539 -0.02574928805
612.5 -0.03520910282 -0.04518854404
613.125 -0.03718241157 -0.03353834331
613.75 -0.0244229954 -0.009504189051
614.375 -0.009948839019 -0.001687280159
615.0 -0.02096867261 -0.03441484342
615.625 -0.008399065036 -0.01789569053
616.25 -0.02738359476 -0.02346674942
616.875 -0.001200334546 0.002949502707
617.5 -0.01564696462 -0.03722405347
618.125 0.009682453946 -0.02757745219
618.75 0.01258171668 -0.01503428653
619.375 0.03131277861 2.613902859e-05
620.0 0.02292291974 -0.0469294285
620.625 0.02538382902 -0.06415098127
621.25 0.04341491096 -0.04295683257
621.875 0.02720788435 -0.05689830645
622.5 -0.06051808963 -0.0708310987
623.125 -0.01794822435 -0.01331310227
623.75 -0.01090105094 -0.004457284893
624.375 0.01826264624 0.006131585557
625.0 0.01117945756 0.002263526326
625.625 0.01530377052 0.02354695781
626.25 0.01624254656 0.002271757723
626.875 0.06001510486 0.04405958648
627.5 0.0556127139 0.02400560634
628.125 0.05862343241 0.01603638656
628.75 0.05920845305 0.01467159645
629.375 0.05765746084 0.06725529233
630.0 0.05587558184 0.05759228941
630.625 0.04970353234 0.04566768858
631.25 0.04194499623 0.03858402613
631.875 0.01881839403 0.05546881206
632.5 0.02318361007 0.03365432667
633.125 0.018712015 0.02386464941
633.75 0.01017552961 0.04982465758
634.375 -0.01986603172 0.05702033546
635.0 -0.02450354398 0.05890270302
635.625 -0.01301035247 0.05981354648
636.25 -0.006292759066 0.0888332853
636.875 0.01583185675 0.05665195965
637.5 -0.02248180044 0.05676247248
638.125 -0.01791228318 0.05802572347
638.75 -0.0286255837 0.08109012563
639.375 -0.04609952146 0.08050187764
640.0 -0.05416540864 0.03878041269
640.625 -0.04562116543 0.02889907851
641.25 -0.058846399 0.0283888363
641.875 -0.05816376932 -0.0008456258097
642.5 -0.06400238631 -0.02096683736
643.125 -0.06237664717 -0.01924253419
643.75 -0.05850860953 -0.0375705605
644.375 -0.05854750732 -0.03274424689
645.0 -0.0849626001 -0.03852172675
645.625 -0.09436718406 -0.0212511761
646.25 -0.07385823442 -0.001825410124
646.875 -0.06284142151 -0.04404022793
647.5 -0.06873516032 -0.04247456899
648.125 -0.08524932292 -0.05061392884
648.75 -0.05392043983 -0.0449131886
649.375 -0.02082152591 -0.05355383187
650.0 0.001167801375 -0.06291959926
650.625 0.0338489179 -0.08543242704
651.25 0.05695515977 -0.05826861875
651.875 0.07360712646 -0.03985883844
652.5 0.08594536927 -0.01622896602
653.125 0.1377659483 0.02430417559
653.75 0.1117512684 0.02472418159
654.375 0.1027432003 0.02417563237
655.0 0.1202540886 0.05233184705
655.625 0.08036803263 0.07071641676
656.25 0.05103340847 0.03370981748
656.875 0.07937730507 0.01989343532
657.5 0.06301866938 0.03246662231
658.125 0.05019859135 0.07136852646
658.75 0.01844930654 0.05418839523
659.375 0.05824051779 0.05353710901
660.0 0.1037491708 0.04745823635
660.625 0.1242361218 0.0363957809
661.25 0.1080202741 0.004962530904
661.875 0.09938181642 -0.04190493795
662.5 0.1026118995 -0.05028987056
663.125 0.1134126667 -0.04327179019
663.75 0.09421711464 -0.008755919704
664.375 0.07480359676 0.06366475984
665.0 0.01467011826 0.07912767891
665.625 -0.008984334514 0.07172003203
666.25 -0.01827174238 0.05247758741
666.875 -0.08517995647 0.06770337704
667.5 -0.109630139 0.01266031815
668.125 -0.1009907633 0.0252525214
668.75 -0.08904987614 0.05836386719
669.375 -0.1346598291 0.06840767974
670.0 -0.09974511154 0.01475714626
670.625 -0.09071456595 0.02210325077
671.25 -0.09655186046 0.0557103349
671.875 -0.09378378633 0.08294076514
672.5 -0.03849227653 0.06074751532
673.125 -0.03581791253 0.07680316081
673.75 -0.05117656334 0.0662680752
674.375 -0.08790811307 0.08073786321
675.0 -0.1027065595 0.05086055186
675.625 -0.1285575343 0.02319806307
676.25 -0.09563104936 -0.03848457205
676.875 -0.1177966489 -0.06698332806
677.5 -0.1220178528 -0.04402537097
678.125 -0.1566121308 -0.04117729447
678.75 -0.08495239787 -0.06542713576
679.375 -0.04119084099 -0.05088623526
680.0 -0.0375951 -0.04153357557
680.625 -0.09204958686 -0.06484366194
681.25 -0.07980923515 -0.08382976592
681.875 -0.03756097101 -0.05574533017
682.5 -0.09965238622 -0.02675190297
683.125 -0.1410788261 -0.02501074687
683.75 -0.1589700466 -0.06087663616
684.375 -0.0618661388 -0.105929722
685.0 0.006598517872 -0.1175392989
685.625 0.08955362703 -0.1115970041
686.25 0.1281702135 -0.08497319839
686.875 0.1087432461 -0.03642012135
687.5 0.1074979134 0.001230339799
688.125 0.06522827381 0.03312840937
688.75 0.06015744556 0.05087891549
689.375 0.05503056552 0.07056408129
690.0 0.0317519524 0.09797458786
690.625 0.03554153634 0.1081947824
691.25 0.07886692524 0.0876932382
691.875 0.1534906372 0.005847870774
692.5 0.1534469704 -0.08455557016
693.125 0.04197521406 -0.1584827746
693.75 -0.0373906677 -0.09324010717
694.375 -0.08368140743 -0.1024390963
695.0 0.007289558001 -0.1444572576
695.625 0.08710712951 -0.03530081539
696.25 0.07183277828 0.034765942
696.875 0.02076155308 0.1031198651
697.5 -0.07037378795 0.09955993696
698.125 -0.1162575752 0.05592258332
698.75 -0.1153032333 0.06777427734
699.375 -0.1207626542 0.07255389008
700.0 -0.1076932557 0.02228422487
700.625 -0.106744168 -0.0005276185668
701.25 -0.1199245661 -0.003633717943
701.875 -0.1284373063 0.0006192242709
702.5 -0.07148353465 0.007695478685
703.125 -0.06493091747 0.02055356427
703.75 -0.01782967739 0.1367985156
704.375 0.00517223014 0.179858389
705.0 0.02339999693 0.1305981884
705.625 -0.01956109275 0.1049682998
706.25 -0.1092688062 0.0958806685
706.875 -0.1429359212 -0.06427313109
707.5 -0.09585040282 -0.09186673075
708.125 -0.04331021481 -0.08953037825
708.75 0.03070217275 -0.08084990801
709.375 0.08870777043 -0.02466798636
710.0 0.09116220057 0.01531995361
710.625 0.07741683379 0.02856354543
711.25 0.02083815979 0.06810018036
711.875 0.02042213215 0.08374371702
712.5 0.07782645748 0.07228131253
713.125 0.149298217 0.0338980811
713.75 0.1221270387 -0.07460620808
714.375 -0.006574082473 -0.1369032806
715.0 -0.06952971445 -0.1180128048
715.625 -0.06460513777 -0.1469410809
716.25 0.04930314451 -0.09760454228
716.875 0.05916663374 -0.04686052207
717.5 0.08310248295 0.01208140726
718.125 0.1055125445 0.0171494686
718.75 0.07195508026 0.07026041084
719.375 0.01652420469 0.06925228537
720.0 0.0005288843312 0.067900976
720.625 -0.09756557676 0.0336521927
721.25 -0.08658104442 -0.07719468153
721.875 0.02264701238 -0.1204879034
722.5 0.05490488941 -0.1193473584
723.125 -0.04868614685 -0.1076420141
723.75 -0.06147726664 -0.0636347434
724.375 -0.0598100183 -0.04642447036
725.0 -0.05695566046 0.03449808475
725.625 -0.0449397663 0.03029218895
726.25 -0.03039357038 0.02695083654
726.875 -0.08392688382 -0.005579998745
727.5 -0.09283062432 -0.03665936164
728.125 -0.06154544816 -0.09303613121
728.75 -0.06820169376 -0.02392239439
729.375 -0.07092029504 -0.03364804424
730.0 -0.05893171683 -0.07970998722
730.625 -0.04985364499 -0.02447344233
731.25 -0.02451842357 -0.04749809369
731.875 -0.007753522667 -0.03488558592
732.5 0.04525296848 -0.004300724658
733.125 0.04121132075 0.04812508118
733.75 0.05294655935 0.04298541344
734.375 0.04925447818 0.02194638953
735.0 0.1147751559 0.0224292191
735.625 0.05987504581 -0.02202903496
736.25 0.0315948095 -0.04219992301
736.875 -0.0007197771964 -0.03395717506
737.5 0.02782976011 -0.01229931841
738.125 -0.01776042012 0.006216425123
738.75 0.008243676053 0.05116058771
739.375 -0.008292612163 0.04078428801
740.0 0.04507853222 0.04171662345
740.625 0.0536572333 0.02820363319
741.25 0.05467954266 0.06418682204
741.875 -0.02671178449 0.02147342865
742.5 -0.02990368074 -0.01807923192
743.125 -0.05634019399 -0.05717071495
743.75 0.003111457724 -0.08277079816
744.375 0.02792051593 -0.02563379631
745.0 -0.01589752159 -0.0668741204
745.625 -0.03429078145 -0.03702775434
746.25 -0.01385841172 -0.02839875093
746.875 0.03213857427 -0.02888610392
747.5 0.008743708801 -0.05867686041
748.125 -0.03552671904 -0.04307265655
748.75 -0.04828142391 -0.01182926582
749.375 -0.03569001701 0.0529542958
750.0 -0.0257136163 0.07615790689
