!Created with skrf (http://scikit-rf.org).
# GHz S RI R 50.0 
!freq ReS11 ImS11
500.0 -0.009665345545 0.02630836518
500.625 0.02020405088 0.02984699251
501.25 0.03283892288 0.00976164911
501.875 0.01849601112 0.02175086879
502.5 0.01371230042 0.03070325391
503.125 0.02906770223 0.03105677358
503.75 0.04544907048 0.02107173855
504.375 0.04035278396 -0.01295172197
505.0 0.03358781232 -0.03310911343
505.625 0.04531169402 -0.04974642441
506.25 0.0468751159 -0.04987208564
506.875 0.04317115154 -0.07296940668
507.5 0.03379714931 -0.04887125773
508.125 0.06666374596 -0.03278753121
508.75 0.04422084831 -0.05563187633
509.375 0.01935930286 -0.04849821417
510.0 0.05968896568 -0.03964296998
510.625 -0.01146808917 -0.06576600098
511.25 -0.03421389958 -0.05541729212
511.875 -0.05241322665 0.005745311612
512.5 -0.03125355786 0.02248296607
513.125 -0.01645632307 0.03675717497
513.75 -0.02110810351 0.04187093954
514.375 0.003470053931 0.04979239027
515.0 0.02710397417 0.07190010965
515.625 -0.04972871254 0.09951729599
516.25 0.04040640446 0.09352836205
516.875 -0.03253067549 0.1211713438
517.5 0.05414706523 0.0955909859
518.125 -0.05439768179 0.1293710464
518.75 0.05141302985 0.03391804464
519.375 0.03038676772 0.05593352552
520.0 0.05986494227 0.05632595602
520.625 0.066696589 0.05278610242
521.25 0.06600610497 -0.002594549945
521.875 0.04427732453 0.04035791617
522.5 0.07177012828 0.001931387207
523.125 0.1250921998 -0.02260270932
523.75 0.113058602 -0.06913699247
524.375 0.07969407173 -0.03724516797
525.0 0.01219988271 -0.009388173725
525.625 0.01158234905 0.02445772672
526.25 0.018394142 0.02085628884
526.875 0.02160362495 0.01835226452
527.5 0.02345727617 0.01158037626
528.125 0.05137952696 -0.0002216074564
528.75 0.03976242076 -0.02506933481
529.375 0.01502419882 -0.03817770911
530.0 0.01803234534 -0.02574045388
530.625 -0.0008683721829 -0.0770282337
531.25 0.0004602016324 -0.1443630493
531.875 -0.0615794764 -0.1193238583
532.5 -0.09439072911 -0.07181044932
533.125 -0.09483318261 -0.05365724921
533.75 -0.07253121971 -0.023182713
534.375 -0.06506828761 -0.02133286223
535.0 -0.06653511956 -0.0005324321043
535.625 -0.04494285112 -0.03600002576
536.25 -0.03089829643 -0.01908702652
536.875 -0.04082345426 -0.05222810434
537.5 -0.05266437561 -0.07708680683
538.125 -0.08046222496 -0.0547314512
538.75 -0.05969068939 -0.01577744403
539.375 -0.03568075664 -0.03143976345
540.0 -0.05010289287 -0.06375997134
540.625 -0.07613820551 -0.1019588052
541.25 -0.04875686533 -0.07688606907
541.875 -0.05068059515 -0.07319057108
542.5 -0.05840407026 -0.08535508591
543.125 -0.1087311573 -0.05913540556
543.75 -0.09324971128 0.03164456431
544.375 -0.04887247777 0.04757524838
545.0 -0.01431102045 0.06064158988
545.625 -0.007430545959 0.07284579782
546.25 0.02538596735 0.06440132306
546.875 0.02946862044 0.06308714384
547.5 0.03180168592 0.07202390328
548.125 0.01376072964 0.08185372898
548.75 0.004147073977 0.07146852334
549.375 0.0005883097812 0.060898692
550.0 -0.02283344958 0.0415022348
550.625 -0.02527833022 0.01446185601
551.25 -0.01141154316 -0.01942834832
551.875 -0.03530204202 -0.03473357049
552.5 -0.07009159894 -0.03344090061
553.125 -0.07657668354 -0.01102278
553.75 -0.06516313986 -0.01881741111
554.375 -0.0833031272 0.009767098651
555.0 -0.08152287641 0.032223366
555.625 -0.07443735596 0.042083715
556.25 -0.07835594808 0.02958131326
556.875 -0.08954669607 0.02826629559
557.5 -0.08019270856 0.0368601892
558.125 -0.07770921696 0.03755719318
558.75 -0.06271562853 0.01695842719
559.375 -0.03683872295 0.01245102851
560.0 -0.02143557942 0.002654266976
560.625 -0.04191744015 -0.01760694395
561.25 -0.04496019016 -0.02917851629
561.875 -0.07095590174 -0.0139395668
562.5 -0.06966431101 0.02872325409
563.125 -0.05897634282 0.07269605098
563.75 -0.04082225696 0.07315072253
564.375 -0.01622051318 0.07856558617
565.0 -0.007478197474 0.07884098783
565.625 -0.001012320133 0.0777649893
566.25 -0.02662806263 0.03806835391
566.875 -0.04867390552 0.03290513878
567.5 -0.05674727155 0.02684878468
568.125 -0.06007375956 0.02114278147
568.75 -0.0539187737 0.01592713693
569.375 -0.02776907893 -0.005125831748
570.0 -0.02160611497 -0.02521824375
570.625 -0.04623898997 -0.03518081365
571.25 -0.03982792696 -0.02814547895
571.875 -0.05192647397 -0.02463564859
572.5 -0.08342283583 -0.005242895469
573.125 -0.104030406 0.03277935538
573.75 -0.05645655772 0.07469746461
574.375 -0.02369185505 0.06808218587
575.0 -0.0299060857 0.07174648363
575.625 -0.04319655997 0.07691202113
576.25 -0.03089309208 0.06250230645
576.875 -0.008228347559 0.06841800786
577.5 0.007801090871 0.06846132115
578.125 -0.005492178438 0.06818766771
578.75 -0.004431691638 0.04234194076
579.375 -0.004677584182 0.04272709559
580.0 -0.01143616373 0.03672876309
580.625 -0.02475444562 0.01622921801
581.25 -0.04607203936 0.01641207959
581.875 -0.06633196245 0.02915033059
582.5 -0.07108298178 0.04323759998
583.125 -0.05597809716 0.05136164565
583.75 -0.04965394101 0.05343129799
584.375 -0.06421949388 0.01604768769
585.0 -0.07150523417 0.01240318654
585.625 -0.05918467636 0.03277939902
586.25 -0.05392385587 0.03341067201
586.875 -0.054954594 0.01298317419
587.5 -0.05604693829 0.02017498982
588.125 -0.02400056402 0.04847494013
588.75 -0.005322160561 0.05383515385
589.375 -0.03155114387 0.02005529925
590.0 -0.04239566567 0.02037866371
590.625 -0.04211870606 0.05012112973
591.25 -0.01343540719 0.08022147993
591.875 -0.02869291034 0.08924848768
592.5 -0.001672132488 0.07545221357
593.125 0.003590542858 0.06247902919
593.75 0.01387402499 0.06608037799
594.375 -0.0341498466 0.04261206125
595.0 -0.03612328356 0.02259357317
595.625 -0.02871501046 0.007536269008
596.25 -0.03693660438 0.009344709869
596.875 -0.03317708749 -0.01813421706
597.5 -0.03606954273 -0.01896185666
598.125 -0.02561253519 -0.01330838248
598.75 -0.02135956338 -0.01380224533
599.375 -0.01362120837 -0.03879199383
600.0 -0.02526905694 -0.05797016308
600.625 -0.03413850997 -0.06291682378
601.25 -0.05299429043 -0.04624325827
601.875 -0.05344997629 -0.05482686562
602.5 -0.05915172749 -0.03519546669
603.125 -0.04924355366 -0.03580836788
603.75 -0.04274715836 -0.02029385734
604.375 -0.02618535382 -0.01682411482
605.0 -0.01314764926 -0.03545709533
605.625 -0.00612748774 -0.05628088934
606.25 -0.01737813834 -0.04070647876
606.875 -0.02080018597 -0.01734847622
607.5 0.0176030593 -0.01837534866
608.125 0.01753819312 -0.01917221741
608.75 0.01297548053 -0.01469668809
609.375 0.02442893841 -0.0173187497
610.0 0.04135275787 -0.01495201988
610.625 0.05370974289 -0.02592910984
611.25 0.04716282583 -0.02899984985
611.875 0.03969103984 -0.02693202591
612.5 0.05531546617 -0.008785675347
613.125 0.03032670801 -0.006319739307
613.75 0.02449193712 0.005355805015
614.375 0.01677453163 0.01388048484
615.0 0.04540296492 0.02348207038
615.625 0.03020966004 0.01001194149
616.25 0.007842263301 0.01091421508
616.875 0.01841189853 0.02891487227
617.5 0.05278422285 0.04773638714
618.125 0.03814273115 0.03451064115
618.75 0.02333529681 0.03088767382
619.375 0.01844413145 0.03275826129
620.0 0.05523665266 0.05163800218
620.625 0.05982429295 0.01559429928
621.25 0.02903189403 -0.005348981847
621.875 -0.01142917337 -0.02380179815
622.5 -0.002446273117 0.01239916609
623.125 -0.01640899463 0.04069200348
623.75 -0.01508018542 0.05541692011
624.375 -0.02946348602 0.04455808107
625.0 -0.03855883346 0.03696309875
625.625 -0.04094876312 0.05236424492
626.25 -0.02243516865 0.07426238598
626.875 -0.01204162358 0.06435820067
627.5 -0.01531681613 0.04185090665
628.125 -0.01746760331 0.05547732106
628.75 -0.02929410942 0.044704372
629.375 -0.02011070188 0.02111621708
630.0 -0.01453964264 -0.005924944493
630.625 -0.01111197429 0.001030105938
631.25 -0.0005015332021 -0.03473499676
631.875 -0.009465363487 -0.04030281574
632.5 -0.0161721991 -0.05282714239
633.125 -0.04147892109 -0.04435959035
633.75 -0.040281552 -0.04192129841
634.375 -0.04361543771 -0.04655322118
635.0 -0.04825928154 -0.05572199178
635.625 -0.05553577014 -0.03474125872
636.25 -0.04269451046 -0.02062550988
636.875 -0.02790829031 -0.02920317128
637.5 -0.03704824868 -0.05023796569
638.125 -0.04119971357 -0.05364147798
638.75 -0.04467715847 -0.008625565254
639.375 -0.01541883645 -0.01567608378
640.0 0.02755818255 -0.02929973918
640.625 0.06106845334 -0.02902080887
641.25 0.02428208817 -0.04479281622
641.875 0.02725422026 -0.03825104668
642.5 0.05341498862 -0.0181521702
643.125 0.06088199725 0.001816488752
643.75 0.05145221346 -0.02100252814
644.375 0.04479149438 -0.03009023569
645.0 0.04644944986 -0.01065545105
645.625 0.0534157404 0.007063945185
646.25 0.03833349779 -0.006608334981
646.875 0.06491050944 0.005917062172
647.5 0.06075294838 -0.003967892022
648.125 0.06195398757 0.01180011809
648.75 0.05011322221 0.03183235802
649.375 0.05769011058 0.05912866058
650.0 0.05600319125 0.0616484691
650.625 0.04654847007 0.05613900149
651.25 0.02574905562 0.07282675019
651.875 -0.008751862092 0.07206796665
652.5 -0.01245824583 0.05578769877
653.125 -0.01822931933 0.04746571626
653.75 -0.02304285928 0.02668613034
654.375 -0.01872235783 -0.01012365649
655.0 -0.02654285646 -0.0290935877
655.625 -0.05597745797 -0.04797735365
656.25 -0.07648163932 -0.04082816353
656.875 -0.07751493329 -0.02445998984
657.5 -0.07501342981 -0.03210929403
658.125 -0.09249087368 -0.03330616266
658.75 -0.1242170037 -0.01998672008
659.375 -0.07384947698 0.03525132036
660.0 -0.0483493308 0.05051437696
660.625 -0.04456535119 0.05017135694
661.25 -0.0639711734 0.04259710509
661.875 -0.01439889542 0.03611266782
662.5 -0.01796631532 0.02960172479
663.125 -0.05157355955 0.02989775747
663.75 -0.07530385433 -0.01148190487
664.375 -0.04751518384 -0.03864976134
665.0 -0.03814242404 -0.08171265305
665.625 -0.01235427696 -0.1147505898
666.25 0.006654900427 -0.07722467671
666.875 0.02210513505 -0.08273136648
667.5 0.03096696494 -0.09583735278
668.125 0.04777945948 -0.07844205719
668.75 0.01388441082 -0.04787193404
669.375 0.03641468933 -0.0360383995
670.0 0.05903841644 -0.04493009286
670.625 0.0680434257 -0.03586548521
671.25 0.04960674103 -0.04814165507
671.875 0.04876041117 -0.04845039367
672.5 0.03267419834 -0.07770326339
673.125 0.01103095287 -0.09925463946
673.75 -0.0120677349 -0.0816106019
674.375 0.007306884772 -0.08290563319
675.0 0.03512661871 -0.06551451828
675.625 0.05394895899 -0.04645848543
676.25 0.04380122403 -0.02565686627
676.875 0.06191122516 -0.004823051331
677.5 0.04190493488 0.02458748448
678.125 0.03480816124 0.03618125747
678.75 0.06011274039 0.05698522469
679.375 0.06911005887 0.07999126791
680.0 0.06318686476 0.07861578789
680.625 0.08142724433 0.04486901651
681.25 0.1127923256 0.01090842061
681.875 0.09713031723 -0.01135598626
682.5 0.08356087127 -0.04467631994
683.125 0.06625980122 -0.05012741224
683.75 0.06640718065 -0.0206494993
684.375 0.07609545133 0.03477548896
685.0 0.01796441479 0.04252125525
685.625 -0.02260898788 0.05042779856
686.25 -0.05559482634 0.02222510862
686.875 -0.0847562166 -0.004160592869
687.5 -0.08689729017 -0.03396689745
688.125 -0.1123487657 -0.04071376476
688.75 -0.1130408282 -0.05300823677
689.375 -0.1011125179 -0.04543654679
690.0 -0.07087941888 -0.03303562949
690.625 -0.09047619527 -0.03312756552
691.25 -0.09244718255 -0.01475360986
691.875 -0.05916362401 0.03266853069
692.5 -0.02100326162 0.02446047264
693.125 -0.01491312411 0.06749319585
693.75 0.008966756397 0.1110666052
694.375 0.02839428545 0.09382526756
695.0 0.0121567856 0.1037379697
695.625 -0.07445990696 0.05760115528
696.25 -0.09974744555 -0.03198177901
696.875 -0.05108646039 -0.0963883573
697.5 0.01802047127 -0.103557689
698.125 0.03631625145 -0.08136436638
698.75 0.03130936857 -0.0486837078
699.375 0.04451116919 -0.04563386128
700.0 0.07139693471 -0.04193349949
700.625 0.06137854023 0.01926357023
701.25 0.05487741155 0.02628735128
701.875 0.08489204737 0.01390278495
702.5 0.1185602644 -0.07041858946
703.125 0.07602208227 -0.07986425977
703.75 -0.0356227618 -0.08905612619
704.375 -0.068300619 -0.04834441011
705.0 -0.05328676119 -0.07270569677
705.625 -0.00803704558 -0.09622286145
706.25 0.03869265926 -0.04030004852
706.875 0.0482890681 0.01306656366
707.5 0.03061160434 0.0599227969
708.125 0.0008337554158 0.08925085991
708.75 -0.06746125162 0.06632252974
709.375 -0.08670369846 0.02873181479
710.0 -0.08125888158 -0.01187902358
710.625 -0.08100167853 -0.0307945238
711.25 -0.06116760653 -0.07812096918
711.875 -0.09082915574 -0.06257768048
712.5 -0.08300409707 -0.004429022819
713.125 -0.03365979164 0.06239734763
713.75 -0.03530798493 0.03670490837
714.375 -0.02754566342 0.06536201788
715.0 -0.01281186547 0.05415904171
715.625 -0.01624661711 0.06236418133
716.25 -0.03674733148 0.07699266192
716.875 -0.1091353848 0.04539198609
717.5 -0.09390729474 -0.02924901048
718.125 -0.07717001931 -0.03061435587
718.75 -0.07885540488 -0.01753424993
719.375 -0.04097361546 -0.07783699005
720.0 -0.01041177735 -0.0857506205
720.625 0.03799701446 -0.06385115494
721.25 0.05747616839 -0.01310144976
721.875 -0.009946268378 0.03769135613
722.5 -0.04761309429 0.03688014028
723.125 -0.03798144523 0.06391503868
723.75 0.03341686296 0.06833334626
724.375 0.07252606891 0.05848637584
725.0 0.08150897448 -0.01500455011
725.625 0.05330381206 -0.05309665456
726.25 0.05779861937 -0.04815365276
726.875 0.04334844575 -0.04034972776
727.5 0.04808286447 -0.00423475872
728.125 0.0410764535 0.05630294993
728.75 0.01914504826 0.06437198537
729.375 0.03477891009 0.01192033879
730.0 0.04213855169 0.04720229927
730.625 0.0230196771 0.0407635981
731.25 0.001317392064 0.04083107417
731.875 -0.03166706881 0.03769476265
732.5 -0.05038122312 0.01388865727
733.125 -0.06739010292 -0.03054730039
733.75 -0.04436239581 0.001505486791
734.375 -0.0119896721 0.01128121399
735.0 -0.07224771358 -0.0240628812
735.625 -0.05053045696 -0.007765001726
736.25 -0.02920714428 -0.005001646234
736.875 -0.03810777797 -0.01667407329
737.5 -0.09068821831 -0.0299844102
738.125 -0.07337172265 -0.02102324148
738.75 -0.05324564026 -0.003346253534
739.375 -0.02786546527 -0.01141566499
740.0 -0.004208213594 -0.02127472344
740.625 -0.05041173284 -0.04253143093
741.25 -0.05208857026 -0.03061685112
741.875 -0.007651665443 -0.04061837264
742.5 0.01865491297 0.006928498889
743.125 0.03563832719 0.04688114665
743.75 0.007430948965 0.05002928564
744.375 -0.02112877548 0.03103724304
745.0 -0.04541535376 0.01868858298
745.625 -0.01731826942 0.07480331016
746.25 0.03024675649 0.08232933563
746.875 0.05538310454 0.05208614486
747.5 0.03209419468 0.01061206813
748.125 0.02933278226 -0.007605202462
748.75 0.027630328 -0.007811498597
749.375 0.01729265287 -0.03763904055
750.0 -0.01274662779 -0.0239633424
