!Created with skrf (http://scikit-rf.org).
# GHz S RI R 50.0 
!freq ReS11 ImS11
500.0 -0.005999253716 0.02274850236
500.625 0.02300836466 0.02277514553
501.25 0.03373455246 -7.285691282e-05
501.875 0.01957740681 0.005703774429
502.5 0.01282006121 0.0249822478
503.125 0.02682553778 0.03214643007
503.75 0.03852908158 -0.0001861538052
504.375 0.0352923624 -0.01016349952
505.0 0.03462681957 -0.02858009817
505.625 0.05455236957 -0.04884977275
506.25 0.005248183197 -0.07085887878
506.875 0.03445187961 -0.06583654539
507.5 0.03015133531 -0.0529510841
508.125 0.06110671859 -0.04765260753
508.75 0.02290421152 -0.06921732821
509.375 0.01487502392 -0.05811299751
510.0 0.04648904269 -0.05120761194
510.625 -0.0200960206 -0.06273654501
511.25 -0.04995437951 -0.04465334994
511.875 -0.04953826328 0.007581492734
512.5 -0.03408320347 0.0187862408
513.125 -0.01631650393 0.0408126471
513.75 0.002199910626 0.04691130604
514.375 0.01642483218 0.04413626992
515.0 0.03629105012 0.08871685212
515.625 0.0205268824 0.08567660212
516.25 0.05265309351 0.07955423483
516.875 -0.001933620415 0.1243770558
517.5 0.07127473165 0.09899478325
518.125 0.01947182259 0.1571985545
518.75 0.05284071983 0.03097149033
519.375 0.03401901462 0.06444265772
520.0 0.07258633697 0.06094580414
520.625 0.08115088387 0.006640714928
521.25 0.06741021065 -0.009290294995
521.875 0.05828614146 0.02605120082
522.5 0.08595724192 -0.0004035029652
523.125 0.1208708824 -0.08129000354
523.75 0.1177317828 -0.1122491392
524.375 0.1093339053 -0.06316595376
525.0 0.03100108511 -6.165739005e-05
525.625 0.01488596289 0.001988489292
526.25 0.02485781643 0.01847518228
526.875 0.03579195506 0.01631954114
527.5 0.03955994988 0.009811042612
528.125 0.02360662142 -0.01411603102
528.75 0.03260366896 -0.03622213447
529.375 0.0172743934 -0.05947372816
530.0 -0.0002051056659 -0.03093424437
530.625 -0.0130274697 -0.05075354005
531.25 -0.0373519778 -0.1449437135
531.875 -0.09044362949 -0.1193951099
532.5 -0.1185846419 -0.05814724079
533.125 -0.08011866078 -0.008364865172
533.75 -0.08784701704 -0.0126819197
534.375 -0.08496563139 -0.01796398143
535.0 -0.08927146132 0.00756742737
535.625 -0.03951321355 0.005488951393
536.25 -0.04271963338 -0.008558516399
536.875 -0.05383947901 -0.03775231982
537.5 -0.06729976591 -0.0604239943
538.125 -0.08794881037 -0.02585348175
538.75 -0.07805533127 -0.009120825942
539.375 -0.05455533622 -0.02262225187
540.0 -0.08009702978 -0.05144537268
540.625 -0.09013944251 -0.06430148273
541.25 -0.07740958948 -0.07402388917
541.875 -0.06798584378 -0.05909338266
542.5 -0.07164378008 -0.06337460707
543.125 -0.1116013954 -0.03277980066
543.75 -0.1036492918 0.04843163985
544.375 -0.05944944587 0.06574886607
545.0 0.0006261470027 0.08794796629
545.625 0.02283045637 0.05443629443
546.25 0.04239623135 0.06065537005
546.875 0.05304138 0.05203116668
547.5 0.06649469329 0.08310153438
548.125 0.03949557843 0.08252753087
548.75 0.02493652156 0.08427557648
549.375 0.02168979485 0.08734166611
550.0 -0.02774646646 0.08382182706
550.625 0.003999857238 0.02434635867
551.25 -0.0138018662 -0.002161176468
551.875 -0.04254694815 -0.007965257766
552.5 -0.08349559653 -0.0004199219799
553.125 -0.06324088449 0.002190654336
553.75 -0.06885354764 -0.0004471332281
554.375 -0.07584956123 0.03382331986
555.0 -0.08392575402 0.06502758876
555.625 -0.0496767213 0.04445616053
556.25 -0.06529950218 0.04351081535
556.875 -0.07980938545 0.05369625098
557.5 -0.07679620315 0.05839852203
558.125 -0.07733687654 0.06081300945
558.75 -0.06442213606 0.03516029329
559.375 -0.05339465085 0.03282000391
560.0 -0.03594897134 0.02156719854
560.625 -0.01824735513 -0.005615946583
561.25 -0.04771613134 -0.009045727139
561.875 -0.06777913963 0.01018938242
562.5 -0.06022823324 0.04796930786
563.125 -0.04147571788 0.05830368479
563.75 -0.0229728732 0.09211763243
564.375 0.003220314507 0.1013284673
565.0 0.010203355 0.09612267436
565.625 0.0125576468 0.05900055612
566.25 -0.013719083 0.0596371038
566.875 -0.03738374667 0.0518500486
567.5 -0.04922263716 0.0480858724
568.125 -0.05537831651 0.04322741325
568.75 -0.05191621631 0.03421862546
569.375 -0.03981106136 0.01714029371
570.0 -0.02919883961 -0.005888820087
570.625 -0.03661346425 -0.01544203519
571.25 -0.04872228217 -0.0152867809
571.875 -0.05218396313 -0.0004266620409
572.5 -0.07263531156 0.01694715831
573.125 -0.08431756373 0.05592607159
573.75 -0.0444851848 0.08464982891
574.375 -0.003575421336 0.07319905946
575.0 0.001737391007 0.0781577313
575.625 -0.02908096169 0.07058880705
576.25 -0.01780345042 0.0774356578
576.875 0.01439283483 0.0808715135
577.5 0.03784658596 0.07925740357
578.125 0.003237881634 0.05681272456
578.75 0.0055980272 0.05110213412
579.375 0.01223524751 0.04686687366
580.0 0.012953062 0.04710706013
580.625 -0.006809043929 0.02870410372
581.25 -0.03111055611 0.0238343467
581.875 -0.04547631294 0.04307157036
582.5 -0.05173880628 0.0672882352
583.125 -0.03629625937 0.07386908204
583.75 -0.041737028 0.05125773303
584.375 -0.05286752983 0.0421684998
585.0 -0.0690486993 0.04008329811
585.625 -0.05270388719 0.05228140491
586.25 -0.04506684537 0.04155164449
586.875 -0.04934486878 0.03890929962
587.5 -0.05312849155 0.04412676043
588.125 -0.008444237655 0.06459012341
588.75 0.0008543014566 0.0528492287
589.375 -0.004739033492 0.04535353532
590.0 -0.02159511821 0.03608095534
590.625 -0.01067274594 0.05189735012
591.25 -0.0220493871 0.08046377112
591.875 -0.00141318262 0.09881222463
592.5 0.01603159067 0.07987356835
593.125 0.03710325791 0.06147932089
593.75 0.008900722465 0.07191777892
594.375 -0.01715477957 0.06864846553
595.0 -0.01894562762 0.05404142415
595.625 -0.01862327151 0.04020682252
596.25 -0.04395826491 -0.004236543849
596.875 -0.04556205491 -0.004620585928
597.5 -0.04207123365 -0.0030888959
598.125 -0.03374522722 0.01392180343
598.75 -0.02473551778 -0.002109055919
599.375 -0.02388065635 -0.01919559296
600.0 -0.03030418728 -0.0346902698
600.625 -0.04542722439 -0.0425394895
601.25 -0.0603791084 -0.06005635947
601.875 -0.06755377806 -0.03853252304
602.5 -0.06855488381 -0.01784188175
603.125 -0.06222667257 0.00142395579
603.75 -0.04509089378 -0.03786431785
604.375 -0.03429930053 -0.01540734689
605.0 -0.02636356789 -0.02373263609
605.625 -0.02795189293 -0.04746066318
606.25 -0.03433512953 -0.0409389982
606.875 -0.02469395443 -0.0255276185
607.5 -0.008650368762 -0.02127163528
608.125 -0.0007176522217 -0.01573235712
608.75 0.0148785175 -0.04228747546
609.375 0.0164145554 -0.02776120409
610.0 0.02747855702 -0.02033136316
610.625 0.04095519041 -0.03334067728
611.25 0.03691202015 -0.03598570257
611.875 0.04317153886 -0.03876511828
612.5 0.04971976858 -0.03464470163
613.125 0.0241985335 -0.02078661206
613.75 0.002083981315 -0.004819844323
614.375 0.05372045277 0.006608751495
615.0 0.05277918534 0.005094874768
615.625 0.03512191166 0.0008704085839
616.25 0.007620848319 0.007410284531
616.875 0.04868332821 0.01837953105
617.5 0.06036588914 0.02397755362
618.125 0.03726008004 0.01921706612
618.75 0.01420370263 0.02231300443
619.375 0.06406855206 0.04134801585
620.0 0.06458581582 0.0329820047
620.625 0.04806231734 0.001107500489
621.25 0.02684555903 -0.008569263066
621.875 0.03817381411 0.0004061756442
622.5 0.00248617952 -0.003224777627
623.125 -0.004142124695 0.03069097261
623.75 -0.02228355055 0.05588004351
624.375 0.01303363572 0.06254281576
625.0 -0.02341123424 0.04668935293
625.625 -0.03086033688 0.05563286886
626.25 -0.01038231816 0.07571843484
626.875 -0.005246565784 0.0710656677
627.5 -0.001793818525 0.0586391291
628.125 -0.002822798809 0.05412785859
628.75 -0.02406763899 0.04327312983
629.375 -0.01981608334 0.02487399825
630.0 -0.01035153886 0.04251955674
630.625 -0.01146167871 0.008610815366
631.25 -0.01400029444 -0.02423626925
631.875 -0.01651049216 -0.03123560799
632.5 -0.02889271458 -0.032020343
633.125 -0.03771025084 -0.03108529452
633.75 -0.04737083803 -0.03789278927
634.375 -0.04870195265 -0.05577058412
635.0 -0.07016615267 -0.006306599381
635.625 -0.07243845076 -0.01188268923
636.25 -0.0591168438 -0.01167986161
636.875 -0.04001663042 -0.01991432757
637.5 -0.05200057073 -0.05127722906
638.125 -0.06732993786 -0.0264626306
638.75 -0.04923322132 -0.006415546433
639.375 -0.02240388551 -0.01718230294
640.0 0.02632563182 -0.04600549474
640.625 0.01891288073 -0.04709116294
641.25 0.01433832557 -0.04740437234
641.875 0.02957967644 -0.04608261675
642.5 0.04523702817 -0.04092094822
643.125 0.05611323873 -0.02552436542
643.75 0.04989423661 -0.02672030385
644.375 0.04518169357 -0.04435714451
645.0 0.05045546732 -0.03494835254
645.625 0.02461483932 -0.02510702655
646.25 0.03586276936 -0.01299383823
646.875 0.05722025029 -0.02039405033
647.5 0.08181122662 -0.01839085661
648.125 0.03223303874 -0.02494495835
648.75 0.04937830349 0.01279849375
649.375 0.06865086972 0.03239082449
650.0 0.07625021671 0.06018998487
650.625 0.0632102537 0.04126213573
651.25 0.0489157703 0.05884175683
651.875 0.02071440598 0.08619809249
652.5 -0.0004894706015 0.07201091495
653.125 -0.005729842023 0.06602913361
653.75 -0.008905611095 0.04768463513
654.375 -0.03395874738 0.01198302327
655.0 -0.04482543347 -0.01779863691
655.625 -0.03331989952 -0.008731272419
656.25 -0.07085762133 -0.006114991231
656.875 -0.08502587387 0.005496323317
657.5 -0.07944980477 -0.007007836478
658.125 -0.1010308325 -0.006826253365
658.75 -0.1100178939 0.02498312715
659.375 -0.08386525117 0.05353260495
660.0 -0.04828283016 0.07421928763
660.625 -0.04416617824 0.07892096336
661.25 -0.01811781853 0.06597808122
661.875 -0.004757048336 0.05124798607
662.5 -0.007352135917 0.05563937282
663.125 -0.02324887152 0.05125161319
663.75 -0.05879434617 0.01804841174
664.375 -0.0599249707 -0.02349190908
665.0 -0.06127273866 -0.05719061475
665.625 -0.03626961171 -0.06239382921
666.25 -0.01140144703 -0.08670782948
666.875 0.002773567516 -0.09551624155
667.5 0.004815210572 -0.1130695765
668.125 -0.004533735123 -0.07943289128
668.75 0.00233161574 -0.06253790876
669.375 0.01557777029 -0.0542179607
670.0 0.03232861252 -0.06466284254
670.625 0.03567717769 -0.06064787081
671.25 0.02615018808 -0.05889646706
671.875 0.02723777319 -0.07138077673
672.5 -0.0004356201901 -0.08787191633
673.125 -0.02787136532 -0.09713434762
673.75 -0.03688636072 -0.08418894396
674.375 -0.03289281753 -0.08555493627
675.0 0.01462276379 -0.1046187224
675.625 0.0322464774 -0.05874827799
676.25 0.04399841752 -0.05009463506
676.875 0.05296681754 -0.04522556575
677.5 0.07555367116 -0.01506009952
678.125 0.03595872693 0.01220184522
678.75 0.05637158105 0.02738239246
679.375 0.08674782587 0.04556985519
680.0 0.09813809202 0.05675582118
680.625 0.09760300536 0.02323403547
681.25 0.08567855583 -0.006647293034
681.875 0.1025063965 -0.04569761192
682.5 0.08263637094 -0.08465975499
683.125 0.05604035671 -0.08093950956
683.75 0.05071167118 -0.04936621579
684.375 0.08441734626 -0.003230948731
685.0 0.05083036611 0.04580332102
685.625 0.01415271488 0.06693950234
686.25 -0.03088988042 0.05455223809
686.875 -0.06480862737 0.02084684574
687.5 -0.08764215711 0.0002438613719
688.125 -0.109742728 0.0005834217974
688.75 -0.1376037887 -0.005603755453
689.375 -0.1091830482 -0.02237166639
690.0 -0.08973193455 -0.01313743678
690.625 -0.1101049377 0.004258831125
691.25 -0.1328499966 0.05064396905
691.875 -0.04354261978 0.04586956703
692.5 -0.00207161885 0.04727108657
693.125 0.02438866285 0.05257604344
693.75 0.06390399299 0.08653706316
694.375 0.06196829246 0.08388128185
695.0 0.03148729227 0.08700909314
695.625 -0.04425641651 0.08566623889
696.25 -0.120060143 0.01500432636
696.875 -0.09926544906 -0.08229677708
697.5 -0.01531008876 -0.1041096947
698.125 0.008135831476 -0.0985109321
698.75 0.00958819037 -0.07321679572
699.375 0.01372152196 -0.07325207679
700.0 0.04724719405 -0.05548133393
700.625 0.07519240491 -0.02365344544
701.25 0.06571891718 -0.003979875023
701.875 0.07441127949 -0.02929051195
702.5 0.09392788622 -0.0693767494
703.125 0.05932269444 -0.1287246119
703.75 -0.06294476332 -0.08839169224
704.375 -0.09688167878 -0.01936631067
705.0 -0.08345449 -0.0350335648
705.625 -0.0450404967 -0.09034886095
706.25 0.02012534623 -0.07124111957
706.875 0.05113474743 -0.02554800542
707.5 0.06208424404 0.008966772736
708.125 0.007904755741 0.07896920716
708.75 -0.03117072345 0.08899087665
709.375 -0.06242196121 0.0699815169
710.0 -0.08251529949 0.04266542871
710.625 -0.07907022656 -0.02522339398
711.25 -0.09495817077 -0.04738099485
711.875 -0.1204460204 -0.02759224213
712.5 -0.1066076798 0.03589950286
713.125 -0.03053832123 0.07278265613
713.75 0.006558113727 0.06432634736
714.375 0.02345864905 0.063319291
715.0 0.04883467441 0.05348001624
715.625 0.002350076004 0.05788145974
716.25 -0.01618577141 0.07270387905
716.875 -0.06570472057 0.08951159029
717.5 -0.1034606211 0.02647365269
718.125 -0.08455115941 0.02032538508
718.75 -0.08343912215 -0.03198476693
719.375 -0.07710085816 -0.05508795018
720.0 -0.04521959343 -0.07927942243
720.625 0.0175990321 -0.08317027084
721.25 0.06476569207 0.006980800301
721.875 0.03198737182 0.03980929774
722.5 0.0006937972233 0.04220952919
723.125 0.005177094623 0.05574226905
723.75 0.0393192546 0.09878079789
724.375 0.08953486544 0.03193694351
725.0 0.06862313739 -0.03895416352
725.625 0.02579288578 -0.0704608351
726.25 0.04060860358 -0.0757424688
726.875 0.04638121478 -0.05573060476
727.5 0.03720469278 -0.03934120704
728.125 0.05837336247 0.0008852621804
728.75 0.03954878298 0.003393125311
729.375 0.06038669864 0.03978176929
730.0 0.06176773868 0.01479156255
730.625 0.03698104696 0.02507476347
731.25 0.01847047458 0.02970683735
731.875 -0.0398901614 0.05679847357
732.5 -0.05380558958 0.03127004315
733.125 -0.07672453972 0.007856338424
733.75 -0.04430536012 0.01708867234
734.375 -0.0765881727 -0.006499489506
735.0 -0.06697161367 0.02732074995
735.625 -0.02773220154 0.02601477425
736.25 -0.004455986318 -0.00719449542
736.875 -0.07142156284 0.02351500779
737.5 -0.0845759689 0.007774836167
738.125 -0.07682596684 -0.01085223998
738.75 -0.05427390793 0.007072029909
739.375 -0.06703355478 -0.01153367632
740.0 -0.03494532924 -0.02270259237
740.625 -0.0553142771 -0.01187123963
741.25 -0.04390627871 -0.009795436711
741.875 0.003366061064 -0.01986213801
742.5 0.04979161941 -0.05177633476
743.125 0.04625025814 0.02087693254
743.75 0.005883139911 0.02805347794
744.375 -0.01550024814 0.02604166775
745.0 -0.01433558348 0.0442481904
745.625 -0.003954395444 0.05347812677
746.25 0.0278192857 0.06763980458
746.875 0.04742321406 0.049019677
747.5 0.07238347813 -0.02431425704
748.125 0.03232363885 -0.02781272596
748.75 0.020200326 -0.01554838805
749.375 0.009871029685 -0.0342899437
750.0 -0.01806824962 -0.02513329223
