!Created with skrf (http://scikit-rf.org).
# GHz S RI R 50.0 
!freq ReS11 ImS11
500.0 -0.00825582638 -0.006935140989
500.625 0.015836253 0.0118245463
501.25 0.003247935983 -0.009563833
501.875 0.006493431846 -0.0192895385
502.5 -0.0436458149 -0.01548007075
503.125 -0.0166788301 0.0118394228
503.75 0.01462750547 -0.01166681013
504.375 -0.0003919843545 -0.003025113281
505.0 0.003736528307 -0.003183701257
505.625 -0.0006761751428 -0.009427251629
506.25 -0.01626071153 -0.05450662473
506.875 -0.02847937277 -0.04475194902
507.5 -0.02380890545 -0.05631029531
508.125 -0.01057041007 -0.04722710412
508.75 -0.05671900226 -0.07078088239
509.375 -0.05771290294 -0.0223373804
510.0 -0.03087442855 -0.04404337472
510.625 -0.02168584573 -0.0001939291751
511.25 -0.07247379515 0.007096799959
511.875 -0.02765321286 0.03773916108
512.5 0.003301565456 0.0395104193
513.125 0.04587575354 0.003906194751
513.75 0.07413397091 0.02881138711
514.375 0.03136617632 -0.03203438126
515.0 0.0388787027 -0.02607664141
515.625 0.08806881075 0.03169374156
516.25 0.1018341465 0.00949208201
516.875 0.05877227648 0.05433205146
517.5 0.1222737769 0.005586634475
518.125 0.1434195351 0.1704146853
518.75 0.08204402121 -0.02761876499
519.375 0.05871097661 -0.008339973123
520.0 0.04795211011 -0.03869891445
520.625 0.1047968324 -0.0647614282
521.25 0.05730505784 -0.06952115659
521.875 0.04245968027 -0.031685553
522.5 0.04188293615 -0.08690289333
523.125 0.1168982009 -0.1951694561
523.75 0.06455355279 -0.2650411263
524.375 0.03635643501 -0.2462356061
525.0 0.005789089762 -0.1117703473
525.625 0.02493362355 -0.08399194784
526.25 0.02310855583 -0.05239652085
526.875 0.01225337783 -0.06094544026
527.5 -0.01856904201 -0.06004966017
528.125 -0.02898466692 -0.05798271105
528.75 -0.04267947418 -0.05119527181
529.375 -0.09599381324 -0.009759752824
530.0 -0.07724195261 0.04132619819
530.625 -0.0253786391 0.05591521069
531.25 -0.0340937609 0.03298592151
531.875 -0.09368836965 0.06734004177
532.5 -0.08106890457 0.09213765832
533.125 -0.06244237185 0.09770635624
533.75 -0.0185424697 0.07377926265
534.375 -0.03002602202 0.09541080837
535.0 -0.01711465669 0.1049520994
535.625 -0.03731624114 0.08061072854
536.25 0.0217243867 0.06267097453
536.875 -0.006381519359 0.08406037471
537.5 -0.05886325003 0.04546301313
538.125 -0.04767797446 0.07150482484
538.75 -0.02364211672 0.105403112
539.375 -0.04947754778 0.107527239
540.0 -0.02245782543 0.06656058847
540.625 -0.03848550861 0.08260290565
541.25 -0.05124259444 0.09285655324
541.875 -0.06996122056 0.07659472849
542.5 -0.05607033048 0.02677994188
543.125 -0.04995251435 0.06999459304
543.75 -0.001526155819 0.1245489537
544.375 0.02944767027 0.1229760134
545.0 0.08654417022 0.03712027068
545.625 0.1084951717 -0.02590561518
546.25 0.1191331487 -0.06079621122
546.875 0.08189015801 -0.04423097221
547.5 0.0945012325 -0.03654458614
548.125 0.1445588779 -0.05018845711
548.75 0.1501785982 0.01336373122
549.375 0.1324196538 0.0257724515
550.0 0.1201097861 0.05570620125
550.625 0.1419043244 0.08341037485
551.25 0.0601673008 0.09701034341
551.875 0.04221293861 0.03576805506
552.5 0.0433058502 0.02845130479
553.125 0.07593266153 0.05888541514
553.75 0.0167357503 0.04686023101
554.375 0.0115282616 0.03523449573
555.0 0.03574896307 0.04700630162
555.625 0.07857836844 0.06468119668
556.25 0.0422360954 0.07650577274
556.875 0.02252145374 0.05765326148
557.5 0.04304255522 0.08777537834
558.125 0.02861625223 0.1119420353
558.75 0.0003764884879 0.115556081
559.375 0.02430520045 0.09546014438
560.0 0.03558708628 0.09050695924
560.625 0.04758739384 0.07423449305
561.25 0.04037816268 0.03783838626
561.875 0.02770462198 0.03432600711
562.5 0.06423333243 0.04546258854
563.125 0.05968024258 0.04023577452
563.75 0.05831302307 0.02861962677
564.375 0.09866039178 0.01274060801
565.0 0.1062569344 0.04534216054
565.625 0.1111378449 0.01427053524
566.25 0.08936897034 0.01887739027
566.875 0.08034966177 0.03647574705
567.5 0.074849607 0.08711120886
568.125 0.03777562956 0.08512409381
568.75 0.05657845747 0.1004060518
569.375 0.04393196773 0.1008264321
570.0 0.03954288387 0.08717577676
570.625 0.03763597868 0.05982533451
571.25 0.06185792535 0.05823367437
571.875 0.04125444919 0.0538789165
572.5 0.03453920923 0.02905718049
573.125 0.03198434039 0.03934885557
573.75 0.08792138892 0.03241338326
574.375 0.08938716838 0.03126141162
575.0 0.07464909369 0.0003120924517
575.625 0.0628951801 -0.01492157879
576.25 0.09422496442 0.007642938484
576.875 0.09108792022 0.02730161002
577.5 0.08248556852 0.008278517109
578.125 0.09422153783 -0.01923433174
578.75 0.1222812417 -0.01870175189
579.375 0.08798521309 0.009197792113
580.0 0.09294208818 -0.0176433725
580.625 0.09148390531 -0.03373290129
581.25 0.08105606129 -0.04410929499
581.875 0.04491119522 0.003166129934
582.5 0.04506582104 0.01165375728
583.125 0.06475680841 0.04144024502
583.75 0.08441224034 0.0263190851
584.375 0.04964142129 0.04083536445
585.0 0.03265280255 0.05184672365
585.625 0.05023772215 0.07173996209
586.25 0.0641648401 0.05822510304
586.875 0.04937275048 0.03983017227
587.5 0.06724020564 0.0356550055
588.125 0.08074327729 0.04349118794
588.75 0.09621895879 0.008057376701
589.375 0.07523169309 -0.0238454339
590.0 0.06265368084 -0.04144975117
590.625 0.0456569288 -0.01732705472
591.25 0.03435489039 -0.009995098742
591.875 0.04794849436 -0.000387753709
592.5 0.08826847841 0.005493614828
593.125 0.0967334052 -0.002437349831
593.75 0.0754627298 -0.01137193492
594.375 0.08234922662 0.02556443022
595.0 0.08563468971 0.04729254392
595.625 0.05592687447 0.06079364004
596.25 0.05000245897 0.05005569201
596.875 0.03933954531 0.05291205807
597.5 -0.005257548792 0.0793395018
598.125 0.008641520405 0.07451346336
598.75 0.05733962515 0.04399969167
599.375 0.04460635295 0.04521851511
600.0 0.03400485024 0.0281811015
600.625 -0.001848883283 0.02152426194
601.25 0.003879580168 0.01516919243
601.875 -0.03431025024 0.04990271344
602.5 -0.04715624129 0.05081643855
603.125 -0.03713785545 0.04980631959
603.75 -0.01213510573 0.05416978084
604.375 -0.004494620384 0.05701599011
605.0 -0.03256205132 0.03902040862
605.625 -0.03075043777 0.02433893401
606.25 -0.0683541049 0.02593792542
606.875 -0.04960052944 0.0408689187
607.5 -0.05954283945 0.03851459353
608.125 -0.008926080409 0.04319011605
608.75 -0.003902825558 0.0366874889
609.375 -0.004445959134 0.03161405677
610.0 -0.02338358914 0.006968246844
610.625 -0.003691569234 0.007979554762
611.25 -0.02068886457 -0.01849215736
611.875 -0.0004652728254 -0.01781047378
612.5 -0.02360314297 -0.05089478522
613.125 -0.03832835829 -0.06432137403
613.75 -0.0261689932 -0.04910389618
614.375 -0.009112184656 -0.006680565076
615.0 -0.001766881857 -0.01886096778
615.625 -0.01836018449 -0.07244533701
616.25 -0.00733032384 -0.007773013221
616.875 -0.00173824471 0.0007614266888
617.5 0.008583032027 -0.01854671252
618.125 0.007582479957 -0.05029411236
618.75 0.02370469071 -0.01347645017
619.375 0.03105623803 0.002351544455
620.0 0.03746931623 -0.03772402165
620.625 0.03634157782 -0.05324984419
621.25 0.03992762574 -0.0773069651
621.875 0.03123886408 -0.0433630921
622.5 -0.02682110397 -0.05295362174
623.125 -0.0313521071 -0.04220904681
623.75 -0.001695703463 0.003786108513
624.375 0.01662829921 0.0159359645
625.0 0.01496233402 0.03155824082
625.625 0.02402877985 0.01707484539
626.25 0.02699727467 0.04391762923
626.875 0.0478434496 0.0304816475
627.5 0.04866301756 0.06506515948
628.125 0.04947739909 0.03166394362
628.75 0.04391353541 0.0400450441
629.375 0.06077297143 0.03782005027
630.0 0.02664929924 0.07279181753
630.625 0.03665198941 0.04759513383
631.25 0.01417223315 0.0536664372
631.875 0.02066255097 0.03510136019
632.5 -0.0182981449 0.03746415072
633.125 -6.198358706e-05 0.02285819124
633.75 0.007110966111 0.03470397898
634.375 -0.007678188176 0.04420673087
635.0 -0.04247095998 0.04836149793
635.625 -0.03715276131 0.07161090418
636.25 -0.009933571269 0.07686512052
636.875 -0.03498965276 0.06055065615
637.5 -0.00949544737 0.03870077636
638.125 -0.05787704279 0.07290521653
638.75 -0.05347704341 0.07566274655
639.375 -0.04448444638 0.06078740281
640.0 -0.03502543709 0.03967045374
640.625 -0.07032444945 0.003200509912
641.25 -0.07208253712 -0.02440006529
641.875 -0.05166410295 -0.0254183341
642.5 -0.0449155674 -0.0285587279
643.125 -0.0666650744 -0.05609869893
643.75 -0.04108799901 -0.06438463236
644.375 -0.04097989287 -0.06698559549
645.0 -0.06204288734 -0.03859860937
645.625 -0.08968638559 -0.06356195056
646.25 -0.05684476727 -0.03462734784
646.875 -0.03957920485 -0.02593464551
647.5 -0.05154178733 -0.04396243814
648.125 -0.06132091492 -0.07851081931
648.75 -0.02442056988 -0.07070722954
649.375 -0.008736690089 -0.03439319061
650.0 0.02517495346 -0.06858368256
650.625 0.05780997165 -0.0637607939
651.25 0.0790197638 -0.04552728657
651.875 0.07482031092 -0.02160528913
652.5 0.1227879473 0.01310738844
653.125 0.1064883178 0.0463598956
653.75 0.1048790068 0.05510266181
654.375 0.08809428006 0.03627334389
655.0 0.07490816665 0.05074725358
655.625 0.03712780558 0.07543307852
656.25 0.03599619843 0.05067700657
656.875 0.05697271234 0.03253034948
657.5 0.05120335697 0.07973778371
658.125 0.005977350422 0.05372930941
658.75 0.0105450098 0.07589774056
659.375 0.05185682839 0.08158131751
660.0 0.08138263277 0.07364184331
660.625 0.08654084519 0.05344437368
661.25 0.1145074598 0.03069292208
661.875 0.1288443399 -0.005360176469
662.5 0.1186249716 -0.01612081134
663.125 0.09949197415 -0.009056189776
663.75 0.1066920598 0.0229596505
664.375 0.04109566796 0.0834228362
665.0 -0.01454158153 0.08632241853
665.625 -0.03411418707 0.06150820046
666.25 -0.0560353058 0.05683904122
666.875 -0.09613969832 0.009025612564
667.5 -0.1057629635 -0.01832548627
668.125 -0.1078713257 -5.666007791e-05
668.75 -0.1291490321 0.03573124669
669.375 -0.1230827371 0.01535220947
670.0 -0.09841694089 -0.01372837392
670.625 -0.09086159323 -0.005572183387
671.25 -0.1224995324 0.03097036756
671.875 -0.1068158977 0.03584079465
672.5 -0.06847617401 0.04349392042
673.125 -0.06261416123 0.05153529909
673.75 -0.09349416768 0.06443778458
674.375 -0.08717288775 0.03210273563
675.0 -0.1043657028 0.01078163545
675.625 -0.1299371754 -0.02521256487
676.25 -0.09552245638 -0.07344600969
676.875 -0.07478990038 -0.06928730904
677.5 -0.1040165307 -0.0682022164
678.125 -0.1156363197 -0.08901633547
678.75 -0.05360163973 -0.08700021617
679.375 -0.01583996411 -0.05504908322
680.0 -0.02871932543 -0.06333336654
680.625 -0.02291909583 -0.08942140226
681.25 -0.03568692469 -0.1121121221
681.875 -0.03052022633 -0.08090320689
682.5 -0.07329418506 -0.06397901524
683.125 -0.152180994 -0.06634532366
683.75 -0.1165081994 -0.1089301553
684.375 -0.04325159242 -0.1198963692
685.0 0.03876491372 -0.1196725473
685.625 0.1193329412 -0.09632820467
686.25 0.1151848054 -0.02440587606
686.875 0.1186519493 -0.01050225938
687.5 0.0840041083 0.03783174538
688.125 0.05601001864 0.06122704957
688.75 0.01369310889 0.06804239511
689.375 0.04689355735 0.09905640656
690.0 0.006475559651 0.1265882223
690.625 -0.01035925229 0.1080152668
691.25 0.03831953753 0.1059851398
691.875 0.1608614042 0.05470724997
692.5 0.1953481813 -0.04235880709
693.125 0.06066018834 -0.1000696487
693.75 -0.02042170537 -0.1026543743
694.375 -0.02032277154 -0.1199069483
695.0 0.05607137954 -0.1494871288
695.625 0.1036629291 -0.009152742985
696.25 0.04524205082 0.0657060092
696.875 -0.02818191222 0.1064908759
697.5 -0.1125324659 0.05945176309
698.125 -0.132877267 0.02710691935
698.75 -0.1214303686 0.004826022103
699.375 -0.1191278952 0.007399797463
700.0 -0.1153250246 0.004926393077
700.625 -0.1018090521 -0.0301854178
701.25 -0.09974874247 -0.05982964953
701.875 -0.06408360245 -0.05133757203
702.5 -0.07117379909 -0.01553355935
703.125 -0.08447516747 0.01413874818
703.75 -0.106584787 0.1029054045
704.375 -0.04587316195 0.1710168996
705.0 -0.02140549146 0.116760616
705.625 -0.03115128292 0.1107727521
706.25 -0.1416569957 0.06227687746
706.875 -0.1294106049 -0.09275454457
707.5 -0.03470825908 -0.08798497989
708.125 -0.02517408456 -0.09494922965
708.75 0.06215285379 -0.06134573321
709.375 0.09343942238 0.01203573606
710.0 0.05464618817 0.05851182602
710.625 0.05557220857 0.05875477533
711.25 0.003665533293 0.07840918376
711.875 0.009876952953 0.09100397598
712.5 0.02572044701 0.1263299922
713.125 0.1508679874 0.04411725519
713.75 0.1274803222 -0.06246891558
714.375 0.05788031825 -0.1026261925
715.0 -0.01826439421 -0.1300653197
715.625 0.01363599439 -0.1450903349
716.25 0.05258498373 -0.08569467489
716.875 0.06308799757 -0.02256481944
717.5 0.08172642372 0.03628582864
718.125 0.04883018123 0.095121279
718.75 0.04536979886 0.08212056739
719.375 0.01162926358 0.06633680349
720.0 -0.04849329463 0.06364284656
720.625 -0.09777443619 0.01671172893
721.25 -0.06178284708 -0.09734179208
721.875 0.04401590225 -0.1111767804
722.5 0.05814269571 -0.1064919681
723.125 0.03665031116 -0.1000122946
723.75 -0.05000745651 -0.06189574494
724.375 -0.05652748332 -0.03966987291
725.0 -0.06365099861 -0.04964128162
725.625 -0.04033714786 0.02005279143
726.25 -0.06404305168 -0.006165358555
726.875 -0.06855416327 -0.01140081567
727.5 -0.07736302814 -0.06326716364
728.125 -0.04970645259 -0.07662478292
728.75 -0.03283649896 -0.08838694571
729.375 -0.05334873238 -0.02630274575
730.0 -0.04311880392 -0.0518622235
730.625 -0.01003286296 -0.05658391178
731.25 -0.01852521818 -0.03225492923
731.875 0.01437747795 -0.0329940731
732.5 0.01903502264 -0.005785909649
733.125 0.02295995369 0.05365334044
733.75 0.0243856193 0.03133998183
734.375 0.03959489246 0.02484268987
735.0 0.0692493533 0.02509062936
735.625 0.09326331568 0.005807683578
736.25 0.04034722619 -0.02089331385
736.875 0.005691001124 -0.02937108964
737.5 -0.008506803906 -0.008694099375
738.125 -0.009747229423 0.0399819628
738.75 -0.03072250918 0.03375280145
739.375 -0.00701981569 0.05078326951
740.0 -0.001577604408 0.0231132348
740.625 0.0355558628 0.0451471921
741.25 0.004298731485 0.04344975608
741.875 -0.03244763882 0.06051080656
742.5 -0.02471246994 -0.02105571348
743.125 -0.02564468369 -0.05669535578
743.75 0.01018068213 -0.05417278754
744.375 0.02261236405 -0.06519323042
745.0 0.0286565176 -0.01319653229
745.625 -0.01276286309 -0.03332647197
746.25 0.001020722098 -0.01924767461
746.875 0.02751220301 -0.03436786082
747.5 0.02294236984 -0.05853182916
748.125 -0.006892834574 -0.06315811973
748.75 -0.03680729467 -0.03003253368
749.375 -0.05019988956 0.01839878117
750.0 0.007240823986 0.07190390092
