!Created with skrf (http://scikit-rf.org).
# GHz S RI R 50.0 
!freq ReS11 ImS11
500.0 -0.009407396236 0.01114629242
500.625 -0.006371228269 0.0006014633844
501.25 -0.01661585888 -0.007492681842
501.875 -0.05841880317 -0.01428321646
502.5 -0.001762902085 0.0007985192021
503.125 -0.02331921537 0.007861332527
503.75 0.0007762478894 -0.003203230888
504.375 0.00539127176 -0.01862056503
505.0 0.005142830255 -0.02427068198
505.625 8.663991525e-05 -0.01469105988
506.25 -0.01745206317 -0.04141900176
506.875 -0.01698532225 -0.0717356465
507.5 -0.03218485569 -0.02666534888
508.125 -0.02515471439 -0.02550401721
508.75 -0.0563793616 -0.0005033940397
509.375 -0.06314420762 -0.03981497072
510.0 -0.02899960972 -0.0007182583394
510.625 -0.006470621918 0.01415422224
511.25 -0.04177705623 0.01868588474
511.875 -0.04336834701 0.0436860059
512.5 -0.0001721422072 0.04795040953
513.125 0.04948317107 -0.001253300428
513.75 0.05762567622 -0.02501037906
514.375 0.06297593689 -0.006163634808
515.0 0.04110797648 -0.02556189304
515.625 0.07845255949 0.01377349549
516.25 0.04668678901 -0.01565046604
516.875 0.07472975805 0.07839178085
517.5 0.09185523133 -0.003089059694
518.125 0.1586074238 0.1342021028
518.75 0.1006944623 -0.03444596917
519.375 0.07850413539 -0.01476128585
520.0 0.04433181389 -0.04959627809
520.625 0.09177423369 -0.07411427926
521.25 0.04916230087 -0.07444189358
521.875 0.05612436948 -0.03756856531
522.5 0.02995877391 -0.07494440949
523.125 0.08964560465 -0.1965461464
523.75 0.001580013736 -0.232152123
524.375 0.03986819072 -0.2703213658
525.0 0.008298628663 -0.1202682432
525.625 0.008903453538 -0.09096743028
526.25 0.03040232828 -0.06821130558
526.875 0.003242280831 -0.07008840977
527.5 -0.02820373217 -0.07103691279
528.125 -0.03982330895 -0.05664807119
528.75 -0.04390321837 -0.04167829636
529.375 -0.1208587437 -0.002368797049
530.0 -0.05895593415 0.06580799788
530.625 0.006888454233 0.05512309372
531.25 -0.03035865528 0.05216965612
531.875 -0.07268812669 0.08901726731
532.5 -0.03740828282 0.09563124602
533.125 -0.04951478942 0.1076155896
533.75 -0.007208561814 0.09073835637
534.375 -0.008642695385 0.1195709239
535.0 -0.01140561401 0.1191803092
535.625 -0.02852074259 0.08591259178
536.25 0.03868532007 0.07201241609
536.875 0.01594571266 0.07126426658
537.5 -0.03683267399 0.04715524473
538.125 -0.02994981098 0.05642644062
538.75 -0.00294814356 0.1217708967
539.375 -0.03118417515 0.1222254032
540.0 -0.01129758231 0.08399355061
540.625 -0.01788881856 0.06640339779
541.25 -0.03144240059 0.1108555483
541.875 -0.04612375736 0.07227772466
542.5 -0.04564727723 0.0273749118
543.125 -0.03804930885 0.05765471605
543.75 0.02377182136 0.1261890527
544.375 0.05453401428 0.1331764448
545.0 0.09742601807 0.03446378786
545.625 0.1009613214 -0.03671170093
546.25 0.0873082947 -0.05753315787
546.875 0.09923654233 -0.06701539296
547.5 0.09168795327 -0.05428152916
548.125 0.118126085 -0.05633554236
548.75 0.164387058 -0.01450201476
549.375 0.1511109977 0.01089411159
550.0 0.1350409809 0.04542490519
550.625 0.1579244901 0.06636972394
551.25 0.06847732791 0.08070639634
551.875 0.06184749277 0.04585010283
552.5 0.05358381814 0.01689078424
553.125 0.08586817245 0.03930282952
553.75 0.04110881917 0.05325530883
554.375 0.03435683228 0.03540598599
555.0 0.04714535791 0.03695785717
555.625 0.08143066951 0.04709308792
556.25 0.03509117285 0.05642920837
556.875 0.0397920681 0.0566443075
557.5 0.04758199972 0.07531244575
558.125 0.03461717092 0.09662628847
558.75 0.005267654789 0.1042910106
559.375 0.04549972368 0.1009772196
560.0 0.05489232139 0.09216225259
560.625 0.05893164544 0.07153096344
561.25 0.04557977887 0.03331498699
561.875 0.06180533467 0.03044023228
562.5 0.05755748211 0.03508531969
563.125 0.06651898035 0.02848875756
563.75 0.06404686815 0.01216316804
564.375 0.0973253193 -0.01781966828
565.0 0.1109619914 0.02741086618
565.625 0.1126848871 0.003208629778
566.25 0.09140827426 0.009095012905
566.875 0.1073634597 0.01580916616
567.5 0.07446322945 0.07452555285
568.125 0.042012774 0.08029631648
568.75 0.05661553873 0.08856461928
569.375 0.0692790047 0.1009703026
570.0 0.05224283617 0.08352471519
570.625 0.04240535898 0.05608909777
571.25 0.05058347728 0.04917202937
571.875 0.06513967982 0.0497550424
572.5 0.03252393297 0.02308719867
573.125 0.03179192073 0.0331976543
573.75 0.07861218578 0.02646703278
574.375 0.1100935296 -0.0008587806305
575.0 0.07043754617 -0.003287911807
575.625 0.05845008862 -0.0187352767
576.25 0.0844837513 -0.007916078822
576.875 0.09641543837 -0.007232913902
577.5 0.08683937907 -0.002681883145
578.125 0.08903623192 -0.02787543728
578.75 0.108484023 -0.00851511558
579.375 0.1105271 -0.01571573747
580.0 0.08791245013 -0.01854515588
580.625 0.08627667682 -0.03571778579
581.25 0.0691735433 -0.03348040856
581.875 0.05487160743 -0.02012346504
582.5 0.04549120708 0.001758200264
583.125 0.06766619139 0.01988915925
583.75 0.08964569186 0.01085784044
584.375 0.06827679953 0.01982805617
585.0 0.05730886825 0.02665232969
585.625 0.05156200402 0.0660299026
586.25 0.06160070527 0.05571165818
586.875 0.06015836658 0.0268370571
587.5 0.06715174796 0.0267539431
588.125 0.08508764617 0.02856526384
588.75 0.09653298776 -0.001240703841
589.375 0.0721389068 -0.04648182975
590.0 0.04093174106 -0.08281272682
590.625 0.03840991229 -0.04410972794
591.25 0.03044278811 -0.02002218361
591.875 0.04824276776 0.001813786615
592.5 0.05835786271 -0.03845577211
593.125 0.08856961211 -0.02760467404
593.75 0.07362385175 -0.02220691706
594.375 0.07567943405 -0.002288604602
595.0 0.0910220531 0.01210008846
595.625 0.07782702098 0.05027977056
596.25 0.05738629371 0.046535804
596.875 0.03067510909 0.06584438679
597.5 0.04574179135 0.06498305044
598.125 0.02328645359 0.0743894315
598.75 0.0405557386 0.05839898546
599.375 0.06582738931 0.02535346474
600.0 0.04152240194 0.0243208996
600.625 -0.005493647727 0.02270767996
601.25 0.01165395117 0.01158465423
601.875 0.001736335164 0.0351887233
602.5 -0.003609190176 0.0397405556
603.125 -0.02299190666 0.04872862984
603.75 -0.0111048585 0.0585542933
604.375 -0.03836340684 0.07138781504
605.0 -0.00575826684 0.04441871397
605.625 -0.02749300913 0.02651154001
606.25 -0.07680814085 0.02838380109
606.875 -0.07197481817 0.03506033225
607.5 -0.03307125788 0.05419851864
608.125 -0.02292413449 0.05008201772
608.75 -0.00684479211 0.04187203977
609.375 -0.04511346731 0.02788114413
610.0 -0.001657830251 0.02697560914
610.625 -0.0126721765 0.007565503554
611.25 -0.03575264757 -0.02222682897
611.875 -0.02226858784 -0.03976424042
612.5 -0.01116309691 -0.02621073837
613.125 -0.01942249389 -0.02095690561
613.75 -0.03297017745 -0.0329505607
614.375 -0.01659288723 -0.01104436513
615.0 -0.02080080085 -0.03032731094
615.625 -0.003671010561 -0.01659534727
616.25 -0.03117665515 -0.03864831308
616.875 -0.0146933357 -0.01375863302
617.5 -0.003323684647 -0.01193058271
618.125 0.02206048455 -0.005223677458
618.75 0.008624592704 -0.02538994511
619.375 0.02418682107 -0.006551969987
620.0 0.04385476456 -0.01006601627
620.625 0.05324333645 -0.02874772635
621.25 0.04332794132 -0.07625195312
621.875 0.02781355685 -0.05105438016
622.5 -0.03489362263 -0.05002802186
623.125 -0.01354416569 -0.01033343859
623.75 -0.01767408694 -0.008126678604
624.375 0.008970752396 0.003417202565
625.0 0.01748904516 -0.02677681387
625.625 0.01608411372 0.03222046328
626.25 0.02785462956 0.0243099037
626.875 0.05108168172 0.003319865131
627.5 0.06989473818 0.02396972319
628.125 0.04488479359 0.05058009112
628.75 0.04713749787 0.05164066785
629.375 0.07370337018 0.02704704402
630.0 0.03674111401 0.07355143112
630.625 0.02821540843 0.05906658608
631.25 0.04610706869 0.03230424129
631.875 0.05228129671 0.03258610728
632.5 0.02246353442 0.03300509313
633.125 -0.01500482363 0.03498247011
633.75 -0.0180817011 0.05281212705
634.375 -0.008658782802 0.0483067024
635.0 -0.02848581915 0.04797782699
635.625 0.003203138857 0.0453293957
636.25 -0.01840384 0.09238798526
636.875 -0.01154580664 0.06509120476
637.5 -0.001126418907 0.04290434735
638.125 -0.03980015181 0.07206789761
638.75 -0.06489666639 0.09466504936
639.375 -0.07346536199 0.06322367786
640.0 -0.04122085853 0.04333033104
640.625 -0.06798764835 0.01850047819
641.25 -0.06526188957 -0.004871053744
641.875 -0.06927795412 -0.03342483809
642.5 -0.04427223571 -0.006111362155
643.125 -0.05960735433 -0.01238137597
643.75 -0.06676567488 -0.07613321131
644.375 -0.0568012999 -0.06710205329
645.0 -0.06916986206 -0.01719226824
645.625 -0.1015612301 -0.04808950757
646.25 -0.0800568274 -0.04753075081
646.875 -0.05247766372 -0.0575252822
647.5 -0.05699651449 -0.04648127064
648.125 -0.07528209318 -0.06380314974
648.75 -0.03888348654 -0.03822912109
649.375 -0.01053621281 -0.05648100521
650.0 0.01292741738 -0.05619781576
650.625 0.0387603853 -0.06073449719
651.25 0.04527891568 -0.04327402808
651.875 0.08162821706 -0.03408826498
652.5 0.1085219291 -0.009628470637
653.125 0.1035693254 0.01568678798
653.75 0.0956321539 0.02878257345
654.375 0.1120801068 0.04077127107
655.0 0.1003012331 0.0447394335
655.625 0.05764985937 0.06990794645
656.25 0.03992767441 0.02445098892
656.875 0.07603589302 0.03328487479
657.5 0.0621711141 0.05258528466
658.125 0.02655377964 0.04526110093
658.75 0.01831477295 0.06626772789
659.375 0.07555575287 0.07102713885
660.0 0.1192069743 0.07162672962
660.625 0.1007186816 0.04199454394
661.25 0.1175101965 0.0150914659
661.875 0.1185038593 -0.02271912893
662.5 0.1372031337 -0.04575923304
663.125 0.08667158344 -0.02789179593
663.75 0.1034086319 0.00162097435
664.375 0.07412676629 0.09008485706
665.0 0.00077664901 0.07032152603
665.625 -0.02213065682 0.06723687914
666.25 -0.04430972432 0.06894392426
666.875 -0.1199060399 0.05256701732
667.5 -0.1036494615 -0.00759499661
668.125 -0.09996092608 0.0114094647
668.75 -0.1097540135 0.04388256736
669.375 -0.1449696705 0.04690722463
670.0 -0.08835348296 0.001669437733
670.625 -0.08567207706 0.004726714458
671.25 -0.09484965823 0.03862971987
671.875 -0.1086066193 0.06926208325
672.5 -0.06475463599 0.06670648356
673.125 -0.04771501441 0.05085950512
673.75 -0.07315653687 0.07029274946
674.375 -0.1009532994 0.07196454204
675.0 -0.1065561668 0.03155696288
675.625 -0.1236442544 -0.005004936138
676.25 -0.1144419886 -0.06435017013
676.875 -0.1060232472 -0.07954289837
677.5 -0.1117351965 -0.05871358428
678.125 -0.1199778162 -0.06595067584
678.75 -0.07198669555 -0.06566181103
679.375 -0.03487013976 -0.05956885249
680.0 -0.03573967353 -0.05146534367
680.625 -0.04375812017 -0.0710491147
681.25 -0.06481780597 -0.1016567337
681.875 -0.04713261767 -0.07295193145
682.5 -0.1018928336 -0.04139890792
683.125 -0.1358003985 -0.05103279096
683.75 -0.1220405923 -0.08663665541
684.375 -0.04672260927 -0.1053748269
685.0 0.008994194483 -0.1371978735
685.625 0.1019571694 -0.1028982153
686.25 0.1081008965 -0.04490313982
686.875 0.1133237033 -0.02768715668
687.5 0.1103988802 0.01243054506
688.125 0.06442852686 0.04869060643
688.75 0.02720554816 0.05323103555
689.375 0.05659093597 0.08092438487
690.0 0.03858834108 0.128495963
690.625 0.03116310442 0.1202914043
691.25 0.05555668894 0.09431923139
691.875 0.1565682519 0.03192210697
692.5 0.1839909239 -0.06760087208
693.125 0.05701959681 -0.1423442586
693.75 -0.03115924134 -0.097773868
694.375 -0.0310257216 -0.1047593867
695.0 0.02061597544 -0.1535289685
695.625 0.1104116674 -0.04076279313
696.25 0.07906205234 0.04543624076
696.875 -0.00655278251 0.1037735082
697.5 -0.0970559192 0.06906353321
698.125 -0.1178910223 0.01923998006
698.75 -0.126558461 0.05829813981
699.375 -0.1101214064 0.02414061278
700.0 -0.1115366651 0.01863232141
700.625 -0.1132994286 -0.001118578897
701.25 -0.1401981713 -0.009993199908
701.875 -0.09116524534 -0.03423563702
702.5 -0.07646802036 0.00347670855
703.125 -0.07486186958 0.02326146452
703.75 -0.04470618363 0.1418149091
704.375 -0.03646896097 0.1653896671
705.0 -0.01518053197 0.1126459324
705.625 -0.0226303449 0.10704201
706.25 -0.111509408 0.1061779765
706.875 -0.1553713209 -0.06142009112
707.5 -0.05787076895 -0.08719678302
708.125 -0.04353237999 -0.09324313171
708.75 0.02586412037 -0.09767050435
709.375 0.09605203624 -0.04044150258
710.0 0.07452418395 0.03948546301
710.625 0.05779753777 0.05268207878
711.25 0.03642303272 0.06911635437
711.875 0.0146863774 0.08458603301
712.5 0.03593186395 0.1109028449
713.125 0.1484551305 0.02896838703
713.75 0.1193540906 -0.09614926048
714.375 0.009109476556 -0.1339878614
715.0 -0.0430665981 -0.1333359479
715.625 0.01119848011 -0.1489456725
716.25 0.05234327469 -0.07603086047
716.875 0.05515996372 -0.04743327655
717.5 0.07601095909 -0.01090459328
718.125 0.08660666034 0.06615923031
718.75 0.06475085894 0.0729484537
719.375 0.006490053638 0.07153806938
720.0 -0.007790213053 0.06773133216
720.625 -0.1131669445 0.002723437282
721.25 -0.07528400189 -0.08974831268
721.875 0.004185105292 -0.1131453031
722.5 0.02288550482 -0.112152337
723.125 0.03553478297 -0.1031277233
723.75 -0.06801246249 -0.05501066999
724.375 -0.06630737768 -0.04465109826
725.0 -0.05502254624 0.02786692137
725.625 -0.06249340594 0.009927719955
726.25 -0.07622292205 -0.004794870576
726.875 -0.09522082506 -0.03959644672
727.5 -0.08436430329 -0.02675890163
728.125 -0.06845698261 -0.05729628069
728.75 -0.04734409166 -0.06754337999
729.375 -0.05835424271 -0.01401557583
730.0 -0.05657313788 -0.06514623339
730.625 -0.04350500126 -0.02707373884
731.25 -0.004810894741 -0.05993166163
731.875 0.03055825898 -0.04418394537
732.5 0.05649588731 0.02332630646
733.125 0.01838699306 0.01716608036
733.75 0.05441260521 0.06385746515
734.375 0.04476989422 0.01907282041
735.0 0.07260392766 -0.0009003114941
735.625 0.03137940088 -0.01752306755
736.25 0.05502723586 -0.04306359631
736.875 0.02245717352 -0.03810780058
737.5 0.0259623633 -0.01179280956
738.125 -0.02961953581 0.009878022309
738.75 0.01134327189 0.0714386349
739.375 0.01295912036 0.06597185662
740.0 0.04026236119 0.05927300647
740.625 -0.001190656959 0.0201216952
741.25 -0.005848395865 0.03184171063
741.875 -0.02969655186 0.04381963945
742.5 -0.03775667984 -0.004615386588
743.125 -0.003372492913 -0.03642057176
743.75 0.03346113853 -0.01824686796
744.375 0.02109035921 -0.08015030651
745.0 0.01543138489 -0.04140733107
745.625 0.01651103265 -0.01463527712
746.25 0.03675040929 -0.0005667574736
746.875 0.02437531259 -0.0273270186
747.5 0.008125066347 -0.0518114293
748.125 -0.04725480068 -0.03147995601
748.75 -0.04338787422 -0.03773317779
749.375 -0.05921132596 0.008127868976
750.0 0.02351446629 0.0836412651
