!Created with skrf (http://scikit-rf.org).
# GHz S RI R 50.0 
!freq ReS11 ImS11
500.0 -0.00564996695 0.01165982702
500.625 0.01498928032 0.004249912674
501.25 0.01270879133 -0.02407579263
501.875 0.001153669585 -0.02634546296
502.5 0.00324006491 0.01372649221
503.125 0.005691523953 -0.006836960406
503.75 0.01812869326 -0.01085541755
504.375 0.041007664 -0.01519684212
505.0 0.0269562194 -0.02764772369
505.625 0.002121790055 -0.04144906606
506.25 0.01890077003 -0.06695189481
506.875 0.04694644248 -0.07229329219
507.5 0.0006545717298 -0.05418317615
508.125 -0.001507997412 -0.0664978791
508.75 -0.03262285032 -0.06654269699
509.375 -0.0103601289 -0.06043686725
510.0 0.0009270568393 -0.04167033594
510.625 -0.04336409548 -0.008612647198
511.25 -0.05985079499 -0.01117082764
511.875 -0.06246485652 0.007967865312
512.5 -0.02935520648 0.03446352705
513.125 0.04193320186 0.03518513897
513.75 0.03972962967 0.03171042014
514.375 0.03330413676 0.02853230529
515.0 0.05013069546 0.01849463134
515.625 0.02794304107 0.1094469713
516.25 0.06725277759 0.05700566967
516.875 0.02562704144 0.1156358803
517.5 0.1066458561 0.05995727857
518.125 0.03335614417 0.1893672932
518.75 0.07729126075 0.04042886226
519.375 0.06290684024 0.04637549462
520.0 0.08300075233 -0.0094001319
520.625 0.1060770375 0.01379321203
521.25 0.0829828098 -0.01895411856
521.875 0.06450734024 0.00499801868
522.5 0.07650649464 -0.04431061905
523.125 0.1478348372 -0.09403803969
523.75 0.08410974632 -0.1813174656
524.375 0.134815382 -0.1535652066
525.0 0.03370696612 -0.05688010213
525.625 0.02604140088 -0.03107331096
526.25 0.05256966324 -0.005241989194
526.875 0.05054128435 -0.02073656494
527.5 0.02032295386 -0.03341591848
528.125 0.02024418718 -0.03902474728
528.75 0.013949124 -0.05703385735
529.375 -0.04009204541 -0.08432276023
530.0 -0.03948258974 0.002721203963
530.625 -0.009155553147 -0.004257680161
531.25 -0.09140483814 -0.06109720541
531.875 -0.1457608014 -0.06456930526
532.5 -0.1000159529 0.0253872197
533.125 -0.09650234598 0.02966371614
533.75 -0.104973146 0.05332147962
534.375 -0.1107466321 0.03074339129
535.0 -0.06017866682 0.05136392137
535.625 -0.06695647629 0.0275146469
536.25 -0.04608745308 0.04870293025
536.875 -0.0642928768 0.007604172731
537.5 -0.05973188321 -0.01275507869
538.125 -0.07163075736 0.01926908723
538.75 -0.1074253463 0.05238509607
539.375 -0.07855005706 0.02051760086
540.0 -0.05315484865 0.008582296483
540.625 -0.07295992215 0.005495243977
541.25 -0.1237802171 -0.006038627985
541.875 -0.08034132252 -0.01882458478
542.5 -0.06605679468 -0.02364804326
543.125 -0.09838057418 0.0191958908
543.75 -0.09282224637 0.1110509375
544.375 -0.04358949525 0.1079440474
545.0 0.04503449849 0.06677764649
545.625 0.08722296221 0.07133685557
546.25 0.08401186163 0.03903108746
546.875 0.08695100467 0.02695382368
547.5 0.08650231822 0.02563407153
548.125 0.09606552112 0.04939936648
548.75 0.08112490831 0.08781289734
549.375 0.08248076131 0.08485978847
550.0 0.046925412 0.090554832
550.625 0.020888176 0.09258405737
551.25 -0.009945649451 0.0371356922
551.875 -0.01308227702 0.03241654724
552.5 -0.02019275085 0.02885224904
553.125 -0.04021434664 0.04440447131
553.75 -0.04687131518 0.04114653226
554.375 -0.0370548491 0.05897248282
555.0 -0.03153402246 0.0709363949
555.625 -0.02328728129 0.09575051922
556.25 -0.03506150529 0.06208971474
556.875 -0.03768339204 0.0874663763
557.5 -0.04762485406 0.09795650561
558.125 -0.04042028058 0.08162066512
558.75 -0.05705323116 0.07179831598
559.375 -0.03888924352 0.08761964738
560.0 -0.02007244429 0.05035500278
560.625 -0.01787127994 0.0452850606
561.25 -0.02721871952 0.03563300115
561.875 -0.03869019938 0.05303306734
562.5 -0.03059632614 0.06474008843
563.125 0.004544087377 0.07914133493
563.75 0.04356781626 0.08689961408
564.375 0.06882547369 0.1024594845
565.0 0.04355043436 0.08274546106
565.625 0.06903625135 0.07107756816
566.25 0.04987197817 0.07690127019
566.875 0.009239187716 0.09043047567
567.5 -0.02229378302 0.07412446417
568.125 -0.02650229167 0.07003036623
568.75 -0.02974181463 0.07485741024
569.375 -0.03022516983 0.07413589159
570.0 -0.02745633554 0.03609100142
570.625 -0.02508276603 0.03430731469
571.25 -0.04111447437 0.03917291548
571.875 -0.02925647134 0.03408451374
572.5 -0.03810477829 0.03678326763
573.125 -0.04240991661 0.06940672805
573.75 3.374811384e-05 0.100385608
574.375 0.03722205168 0.07833532732
575.0 0.0341945671 0.05922077145
575.625 0.04493457922 0.0725307514
576.25 0.04163453083 0.08769589497
576.875 0.05432924134 0.07557446492
577.5 0.05787410518 0.05884660154
578.125 0.0816297026 0.06188092198
578.75 0.04355967685 0.06487517777
579.375 0.05054075867 0.04815245122
580.0 0.05480917849 0.03944349493
580.625 0.03185620231 0.03283658242
581.25 0.00218497332 0.03021032349
581.875 0.005374917457 0.04178129863
582.5 0.007427832809 0.06918268971
583.125 -0.01011542555 0.078929795
583.75 0.008192251183 0.07035962744
584.375 0.00343339352 0.06779207846
585.0 -0.02149640672 0.07889660384
585.625 -0.04026423674 0.06479105569
586.25 -0.01896188605 0.05959375278
586.875 0.00408460635 0.06578169239
587.5 -0.008022254315 0.07765238538
588.125 0.006387701842 0.06996441545
588.75 0.03838492761 0.05473090488
589.375 0.06358161106 0.02131473481
590.0 0.03806880476 0.03010063757
590.625 0.001988705158 0.04747102513
591.25 0.02569536257 0.05064243372
591.875 0.05134582591 0.06811238272
592.5 0.06787256254 0.07099175308
593.125 0.05007323358 0.06213996202
593.75 0.0547784138 0.04495318677
594.375 0.0567367918 0.06631107501
595.0 0.02749841354 0.07976539865
595.625 -0.01442592998 0.05302868185
596.25 -0.004444569678 0.05257584698
596.875 -0.04298004007 0.04642960713
597.5 -0.04237765517 0.03796787213
598.125 -0.03915796751 0.02749944124
598.75 -0.02573750759 0.02924893191
599.375 0.0002330301204 0.0282747979
600.0 -0.01988801257 -0.0005063986143
600.625 -0.05568653612 -0.02824177045
601.25 -0.05714461234 -0.007941334409
601.875 -0.05898649778 0.01531291701
602.5 -0.0654759657 0.01677289957
603.125 -0.07941882626 0.01128141935
603.75 -0.06630651073 0.02245021968
604.375 -0.05804788214 -0.005457668635
605.0 -0.03672983952 0.00233192257
605.625 -0.0491763068 -0.01670482912
606.25 -0.06019973037 -0.05802623986
606.875 -0.05112022136 -0.03753803238
607.5 -0.03509492374 0.0171217135
608.125 -0.02829609489 -0.001515674537
608.75 -0.01861329782 -0.001662354477
609.375 -0.01526620029 -0.03014595333
610.0 0.0006083965837 -0.01195249052
610.625 0.01128382986 -0.0341695898
611.25 0.02851848702 -0.06600009191
611.875 0.03228002382 -0.06532239089
612.5 0.009066645367 -0.03436745489
613.125 0.007078220167 -0.04163350216
613.75 0.02524908677 -0.03621582248
614.375 0.01179921664 -0.01146321822
615.0 0.02689308208 -0.02843755041
615.625 0.03023747773 -0.03042335495
616.25 0.01673520552 -0.02125128005
616.875 0.02258457404 -0.002163282026
617.5 0.02761883883 0.004377501702
618.125 0.03494325584 -0.0004454015579
618.75 0.04000871292 -0.0056427276
619.375 0.03682435055 0.01426281883
620.0 0.04525095599 0.01955954271
620.625 0.04950041041 -0.0084306966
621.25 0.07321591573 -0.03272356927
621.875 0.01632195531 -0.0197805343
622.5 -0.01393369221 -0.0129927539
623.125 -0.006952332468 0.004532803091
623.75 0.007412389566 0.01622746514
624.375 0.002262834417 0.03947116218
625.0 0.01348037608 0.03701312295
625.625 -0.01162205426 0.05416018459
626.25 0.01360743386 0.06911477061
626.875 0.06217467469 0.07511998709
627.5 0.04291277698 0.06918272846
628.125 -0.005094645683 0.05998723695
628.75 -0.006358640892 0.06656758309
629.375 0.02611655897 0.08555803931
630.0 -0.01076250099 0.04502269117
630.625 -0.01820690795 0.02673077581
631.25 -0.004457570164 0.02109922069
631.875 -0.01561124848 0.03376558723
632.5 -0.02396784959 0.01678952469
633.125 -0.05668566709 -0.01923807742
633.75 -0.05829039554 -0.00648211024
634.375 -0.04858256312 0.0144722814
635.0 -0.06828621298 -0.003046892645
635.625 -0.05863397728 0.03651542824
636.25 -0.07094117372 0.02257544082
636.875 -0.05208995399 0.01116535993
637.5 -0.05011377603 0.02240017369
638.125 -0.0840662424 0.01559835282
638.75 -0.08282659736 -0.0009800581372
639.375 -0.04821570981 -0.002170912709
640.0 -0.03523211723 -0.005916118863
640.625 -0.01409152676 -0.06559488559
641.25 -0.003926499823 -0.05901239195
641.875 -0.002542082814 -0.06169771447
642.5 -0.02020849289 -0.04636967427
643.125 0.002774719388 -0.05834679048
643.75 0.05075667477 -0.06860943516
644.375 0.01565111276 -0.07276048409
645.0 -0.02977977545 -0.06420242654
645.625 0.01559975619 -0.06669558897
646.25 0.0331447511 -0.05325163266
646.875 0.0303446756 -0.04692342099
647.5 0.01890191761 -0.06286941495
648.125 0.04229101844 -0.05928258707
648.75 0.03878129291 -0.02312993654
649.375 0.06176577919 -0.01116448807
650.0 0.08301141234 -0.001613581613
650.625 0.07469296228 -8.76859888e-05
651.25 0.07041660996 0.01669720116
651.875 0.07977479573 0.06315902726
652.5 0.04543456164 0.08917926004
653.125 0.05311439446 0.06272039642
653.75 0.03135106449 0.06855158659
654.375 -0.0002577888585 0.07515399798
655.0 -0.008643684201 0.03510809318
655.625 -0.04039191128 0.02536832681
656.25 -0.03343367839 0.03178378745
656.875 -0.04910585454 0.0731017177
657.5 -0.06459791355 0.04413303643
658.125 -0.04880830138 0.03122816767
658.75 -0.0638215243 0.07038277298
659.375 -0.05764442843 0.1303331319
660.0 -0.01242633793 0.114545324
660.625 0.02285681078 0.07886601229
661.25 0.03859675342 0.1000107942
661.875 0.04594540357 0.08547243917
662.5 0.05465508758 0.06263716151
663.125 0.0355351431 0.03295913981
663.75 0.003226486935 0.06286192761
664.375 -0.06798574189 0.04493833997
665.0 -0.06313812173 -0.001916615205
665.625 -0.08576143474 -0.01857339632
666.25 -0.09308234427 -0.07293306806
666.875 -0.05500145656 -0.09503698996
667.5 -0.04832090599 -0.08871344018
668.125 -0.07575849679 -0.09395521896
668.75 -0.06646291886 -0.09228638978
669.375 -0.0427101831 -0.07101916539
670.0 -0.02167973794 -0.0601791541
670.625 -0.02851495284 -0.07620370612
671.25 -0.03387192032 -0.06081630464
671.875 -0.0475317667 -0.06937533094
672.5 -0.0563316 -0.05200234059
673.125 -0.07384127544 -0.04647654632
673.75 -0.09940093478 -0.06105978384
674.375 -0.08868489352 -0.05929651304
675.0 -0.05671652053 -0.08135185074
675.625 -0.02641454243 -0.100308532
676.25 0.009340364134 -0.1028998019
676.875 0.01144593822 -0.09257008714
677.5 0.01952471677 -0.09272938377
678.125 0.0296432564 -0.04633777606
678.75 0.0324618072 -0.01219294626
679.375 0.06477703821 -0.02928867175
680.0 0.09366435222 -0.04520132118
680.625 0.08052079667 -0.02582761179
681.25 0.07652116192 -0.0723843176
681.875 0.04828942714 -0.1071537344
682.5 0.006677445928 -0.1484695687
683.125 0.007652076242 -0.1325781644
683.75 0.01419538215 -0.09415119214
684.375 0.05155037323 -0.06884837238
685.0 0.1240377817 -0.02835482197
685.625 0.08664042652 0.04149210567
686.25 0.02980413139 0.03915868734
686.875 0.005256938337 0.05085132017
687.5 -0.03963441199 0.07200232118
688.125 -0.06559502782 0.05794589117
688.75 -0.08263730982 0.04641920916
689.375 -0.108692964 0.06642010231
690.0 -0.1063870685 0.05983760992
690.625 -0.09045999638 0.07349684676
691.25 -0.06260821111 0.1053805213
691.875 8.497813676e-05 0.1728263672
692.5 0.06226058561 0.07811556268
693.125 0.074943563 -0.003566889495
693.75 0.08112190673 -0.02682190906
694.375 0.09537070996 0.009546942386
695.0 0.0830541606 0.04114542766
695.625 0.04723121739 0.0833970228
696.25 -0.05610520235 0.09775514628
696.875 -0.1259470362 -0.008442176156
697.5 -0.08263427066 -0.0851608193
698.125 -0.06488800717 -0.09424232356
698.75 -0.07274264362 -0.09051336783
699.375 -0.02864117781 -0.06388828817
700.0 -0.02019545145 -0.07203852695
700.625 -0.01293318356 -0.1041322885
701.25 0.03442066785 -0.07761335895
701.875 0.04238766413 -0.04461239847
702.5 0.005846234398 -0.08920843876
703.125 -0.0823226195 -0.1279603954
703.75 -0.1515463472 -0.05929453119
704.375 -0.1101918146 0.03002957586
705.0 -0.08308017487 0.0274538668
705.625 -0.1120053181 -0.01043592675
706.25 -0.09380471783 -0.1027359969
706.875 0.01354133486 -0.08689787071
707.5 0.04153409405 -0.0333889938
708.125 0.07144764452 -0.007576030296
708.75 0.06911524012 0.05835087429
709.375 0.0109681299 0.08952172054
710.0 -0.04631808283 0.06709324183
710.625 -0.06409558728 0.05727288408
711.25 -0.08372564335 0.05009753534
711.875 -0.1059750439 0.0551728121
712.5 -0.09896254071 0.07915451506
713.125 0.01498127054 0.1112756266
713.75 0.1016444143 0.03298092192
714.375 0.09601028546 -0.01026097241
715.0 0.09823785985 -0.005642066968
715.625 0.05986268965 0.0268781142
716.25 0.02614437299 0.0546734242
716.875 0.03702498523 0.05893847231
717.5 -0.02984089138 0.1021609646
718.125 -0.08636327123 0.0517549604
718.75 -0.05357225798 0.06070144178
719.375 -0.08512357633 0.03214652052
720.0 -0.09975694052 -0.01970379136
720.625 -0.02896652332 -0.1067808984
721.25 0.03646051198 -0.09077965287
721.875 0.07884031653 -0.04540238827
722.5 0.06411440467 0.002159135255
723.125 0.04498898207 0.0572355634
723.75 0.05511804966 -0.01063297848
724.375 0.06040498786 -0.05080261314
725.0 0.01709024921 -0.07129700988
725.625 -0.01462335128 -0.07969284469
726.25 0.001709215594 -0.1140240265
726.875 0.03035575873 -0.1070618757
727.5 -0.002652122325 -0.07481452362
728.125 0.02358145661 -0.06046477319
728.75 0.08854744175 -0.02933229145
729.375 0.03811770359 -0.03993936611
730.0 0.03880023041 -0.04533637727
730.625 0.02677042861 -0.03128499724
731.25 0.05778792611 0.005165012249
731.875 0.02285179961 0.04641759018
732.5 -0.03586786417 0.0678951459
733.125 -0.02112357263 0.03529324396
733.75 -0.04600823756 0.07350217001
734.375 0.003196502834 0.04262460769
735.0 0.01529780709 0.04394861886
735.625 0.02360413064 0.03858514255
736.25 0.02284606269 0.03517027494
736.875 -0.003936102468 0.002050627309
737.5 -0.03373917173 0.02569598969
738.125 -0.06441496824 0.0211530529
738.75 -0.07418481622 0.05006546447
739.375 -0.05854838928 0.0433222967
740.0 -0.06489329345 0.05329714725
740.625 -0.02613218545 -0.004542132134
741.25 -0.03876858416 0.01441674446
741.875 -0.07178087766 -0.001635624841
742.5 0.002149122982 -0.02804311279
743.125 0.02317221972 0.007144238415
743.75 0.01951366694 0.01466982646
744.375 0.06921229356 0.00564461467
745.0 0.04810875559 0.02698039032
745.625 -6.295167961e-05 0.05457597471
746.25 0.04389204402 0.04214923915
746.875 0.06866239331 -0.01796689703
747.5 0.05578815701 -0.02448731007
748.125 0.009649464332 -0.05458366519
748.75 0.01678291419 -0.03645025423
749.375 -0.02215051018 -0.03975721655
750.0 -0.07309874182 0.04644112943
