!Created with skrf (http://scikit-rf.org).
# GHz S RI R 50.0 
!freq ReS11 ImS11
500.0 -0.01300394657 0.02229109381
500.625 0.02566892457 0.0273975436
501.25 0.03477960934 0.0166403019
501.875 0.02827922906 0.02036959731
502.5 0.01474209391 0.03953128425
503.125 0.03430971807 0.02779810165
503.75 0.04909150282 0.005419307662
504.375 0.0458095737 -0.01002872719
505.0 0.04225196322 -0.03449855928
505.625 0.04820298907 -0.0605558235
506.25 0.03216780161 -0.06925916715
506.875 0.05844413571 -0.06520504002
507.5 0.03677517014 -0.06868493224
508.125 0.07428753436 -0.0591168686
508.75 0.03103234805 -0.08683844789
509.375 0.008765831421 -0.06964329449
510.0 0.04107758916 -0.07018036998
510.625 -0.04000714134 -0.06663818365
511.25 -0.05992653861 -0.05333502187
511.875 -0.06507845411 0.00311809731
512.5 -0.04170418687 0.03039085971
513.125 -0.006579875353 0.06054641103
513.75 0.003640860394 0.06698140771
514.375 0.02823569199 0.06242873308
515.0 0.06693055245 0.06479513842
515.625 0.008127600389 0.1248738543
516.25 0.07367139836 0.09375313393
516.875 0.006401824609 0.1430177731
517.5 0.1093949201 0.1060139809
518.125 -0.01502575099 0.1993660303
518.75 0.06716966659 0.05074589916
519.375 0.06276873923 0.06570875293
520.0 0.1066329267 0.04553913637
520.625 0.1031377898 0.0278709042
521.25 0.09222955173 -0.004324353683
521.875 0.07461704398 0.02269021514
522.5 0.1033998973 -0.02776725838
523.125 0.1660363087 -0.07056874363
523.75 0.1503848748 -0.152498094
524.375 0.1559732358 -0.114290826
525.0 0.05641484507 -0.02539438611
525.625 0.0385972558 -0.006777612377
526.25 0.0517899339 0.007501069407
526.875 0.06356279775 -0.004258907808
527.5 0.05014421886 -0.0147887941
528.125 0.03367176272 -0.03750091971
528.75 0.03210172795 -0.06628224662
529.375 -0.01830736583 -0.09556712686
530.0 -0.03159487828 -0.04310744348
530.625 -0.0396385495 -0.02996432577
531.25 -0.09580170392 -0.09721030613
531.875 -0.1536758286 -0.1006917761
532.5 -0.153128233 -0.0175798773
533.125 -0.1101398546 0.01171394074
533.75 -0.1217676965 0.0334620362
534.375 -0.1156126465 0.01193174554
535.0 -0.0910085327 0.04400985707
535.625 -0.07068669632 0.01432581564
536.25 -0.05730860946 0.03392152918
536.875 -0.08110321881 -0.007173441328
537.5 -0.09405440681 -0.03477530793
538.125 -0.1060766001 0.01109215079
538.75 -0.1101836355 0.02950797213
539.375 -0.08777775589 0.005200641314
540.0 -0.09298386681 -0.006087035578
540.625 -0.1229538824 -0.008851385344
541.25 -0.1234179097 -0.03551600129
541.875 -0.09378268743 -0.02992376935
542.5 -0.09405385167 -0.03401504157
543.125 -0.1331565765 0.01342627658
543.75 -0.1044348766 0.09534982947
544.375 -0.05466144577 0.1020494531
545.0 0.03988867795 0.08774081677
545.625 0.06964918071 0.0866150315
546.25 0.08827447024 0.05566136494
546.875 0.09126490009 0.0449457372
547.5 0.1062957756 0.05409538205
548.125 0.1043176166 0.09506578946
548.75 0.06570180026 0.09127064362
549.375 0.07053515639 0.09815505393
550.0 0.02573690263 0.122052809
550.625 0.002304503272 0.08280702467
551.25 -0.02175788876 0.03563140156
551.875 -0.02807827175 0.03057342986
552.5 -0.05211000828 0.05603042303
553.125 -0.06033149233 0.0469025861
553.75 -0.05746672619 0.03432972195
554.375 -0.04946203307 0.06469613141
555.0 -0.04522170186 0.09762263615
555.625 -0.03786333168 0.09490066898
556.25 -0.04426031836 0.07437030197
556.875 -0.05360376085 0.09163213071
557.5 -0.06140911801 0.1018505133
558.125 -0.06089671543 0.1030453857
558.75 -0.06745247499 0.07214229327
559.375 -0.05203808089 0.08429777817
560.0 -0.03970862728 0.05467425751
560.625 -0.02663055626 0.03939895961
561.25 -0.03839219989 0.03618587297
561.875 -0.05129856592 0.05837107858
562.5 -0.03776891922 0.07184608046
563.125 -0.005870873629 0.08348769714
563.75 0.03376200968 0.09855680589
564.375 0.05429990888 0.1143932929
565.0 0.04733316875 0.1038350027
565.625 0.05905013774 0.07864943129
566.25 0.0406106741 0.0864069929
566.875 -0.002832113753 0.09965036741
567.5 -0.02871587956 0.07970078899
568.125 -0.03484540538 0.08644738481
568.75 -0.04561511487 0.08795163099
569.375 -0.03879234339 0.06126569772
570.0 -0.0348920537 0.03437613061
570.625 -0.03721870803 0.0386244158
571.25 -0.05222097877 0.04135952696
571.875 -0.03717482416 0.02903391242
572.5 -0.04212617819 0.04481695782
573.125 -0.03875273465 0.08943634513
573.75 0.001995677218 0.1215336764
574.375 0.03222319552 0.0818554626
575.0 0.03948946299 0.06577807866
575.625 0.04478429293 0.08505566082
576.25 0.03338327973 0.09741729574
576.875 0.05005003141 0.07852594399
577.5 0.06632800874 0.06324724852
578.125 0.07211809061 0.07384192286
578.75 0.0467696427 0.07146864374
579.375 0.05039860048 0.05359001163
580.0 0.05873406207 0.04568308484
580.625 0.04690830194 0.04275620001
581.25 0.01392643217 0.03845409459
581.875 -0.004932878862 0.04674257424
582.5 0.007435486561 0.07758785313
583.125 0.003467259874 0.0916791001
583.75 0.006364709474 0.07880069593
584.375 -0.008730338218 0.06971714946
585.0 -0.02450792348 0.08422535651
585.625 -0.02971000462 0.08495240241
586.25 -0.01020296991 0.07274483816
586.875 -0.009210486373 0.06729476376
587.5 -0.009079642434 0.0828948505
588.125 0.0237286247 0.07729350595
588.75 0.04532890265 0.05741732562
589.375 0.05627426622 0.03223028501
590.0 0.03853116715 0.03426981267
590.625 0.01745742771 0.03983755955
591.25 0.02602250208 0.05473959549
591.875 0.0547416906 0.06553709362
592.5 0.07544013403 0.06474525118
593.125 0.0639329381 0.05037348235
593.75 0.05962101627 0.04795808134
594.375 0.04814298564 0.07351415851
595.0 0.02400039021 0.07885224131
595.625 0.002130966833 0.06224014495
596.25 -0.01069217076 0.0502227415
596.875 -0.03135455271 0.05055085057
597.5 -0.03508278136 0.04632489614
598.125 -0.02096310799 0.04811579564
598.75 -0.003389195108 0.04027359462
599.375 -0.008138785001 0.02251322105
600.0 -0.01334270565 0.00433730972
600.625 -0.0302280994 -0.004984366762
601.25 -0.05203171103 0.0008200842478
601.875 -0.06247790265 0.009473116648
602.5 -0.05513506937 0.01998163847
603.125 -0.05520933212 0.02544617004
603.75 -0.05442184681 0.03099450624
604.375 -0.04152455068 0.02226766207
605.0 -0.03345589662 0.004689725702
605.625 -0.03972821803 -0.005491122735
606.25 -0.05485554247 -0.01037666278
606.875 -0.052893161 0.001701775092
607.5 -0.03320999113 0.01498414806
608.125 -0.01354201801 0.01749782017
608.75 -0.01113445214 0.007940655636
609.375 -0.006173775883 0.004578892929
610.0 0.003515179702 -0.002009457299
610.625 0.01149297926 -0.008752937822
611.25 0.0135424803 -0.02065096836
611.875 0.01356521312 -0.02642866521
612.5 0.009616464125 -0.03265977613
613.125 -0.00458221199 -0.02310484568
613.75 -0.007438794556 -0.007223569168
614.375 0.002264527873 0.002316663784
615.0 0.01139775258 -0.002133122883
615.625 0.005271536403 -0.004911142512
616.25 -0.003012876915 0.007148552028
616.875 0.005891513591 0.02017265166
617.5 0.01919591204 0.02008326482
618.125 0.01843317747 0.01822427624
618.75 0.0167208604 0.02113003738
619.375 0.02229135287 0.02956146472
620.0 0.03585978373 0.02510782087
620.625 0.03712803618 0.003563799433
621.25 0.0262008915 -0.007978996065
621.875 0.005251599276 -0.01457434963
622.5 -0.02220250105 0.00453986913
623.125 -0.01881900263 0.03514009648
623.75 -0.008337307159 0.05469471548
624.375 -0.01626669061 0.05558937931
625.0 -0.03291033028 0.04703817398
625.625 -0.0318326363 0.05861395599
626.25 -0.02222270614 0.08449645048
626.875 -0.009388089778 0.08054468749
627.5 -0.009422980357 0.06476079631
628.125 -0.01545432054 0.05489514671
628.75 -0.03555296382 0.05446660091
629.375 -0.03160819113 0.04173880519
630.0 -0.02091993285 0.03123039444
630.625 -0.02146648433 0.01471374754
631.25 -0.03342203993 -0.01029281219
631.875 -0.03602318147 -0.02762371852
632.5 -0.04382218774 -0.02942713267
633.125 -0.05595635684 -0.03516007729
633.75 -0.06743253306 -0.03505294752
634.375 -0.0688190297 -0.03397758535
635.0 -0.08012342399 -0.02219845401
635.625 -0.09469846369 -0.001210818334
636.25 -0.0754653428 -0.002008041304
636.875 -0.06302702643 -0.01545415241
637.5 -0.07834763085 -0.02635390601
638.125 -0.09789898689 -0.02544190641
638.75 -0.07359898136 -0.01163987589
639.375 -0.04518342125 -0.02188892402
640.0 -0.01648895275 -0.05024577141
640.625 0.01530223908 -0.07818132235
641.25 0.01528955868 -0.06814984146
641.875 0.01122438534 -0.06759150009
642.5 0.02632945856 -0.07461163941
643.125 0.06190887328 -0.06769842945
643.75 0.05969347834 -0.05653395771
644.375 0.03701198271 -0.07565629882
645.0 0.03038230812 -0.08445167611
645.625 0.04034844707 -0.05909664704
646.25 0.04721236066 -0.04385277752
646.875 0.05535257545 -0.05280987064
647.5 0.0635208393 -0.07146952872
648.125 0.05289678024 -0.04773617733
648.75 0.06472750371 -0.01995138059
649.375 0.08639138593 -0.0005591873173
650.0 0.1070720263 0.01949355548
650.625 0.09209736865 0.02990704167
651.25 0.08577093414 0.0463587804
651.875 0.06867350405 0.08773629469
652.5 0.02740588606 0.1064710339
653.125 0.02138400378 0.09201317677
653.75 0.01259465074 0.08469750256
654.375 -0.02757122216 0.07460071232
655.0 -0.05061488446 0.02593146387
655.625 -0.05241714301 0.01814407289
656.25 -0.06387331118 0.04224775829
656.875 -0.08016114699 0.06732833099
657.5 -0.08594072976 0.04057253753
658.125 -0.09085591513 0.03538760966
658.75 -0.09592580183 0.08003099454
659.375 -0.08034293438 0.1141086842
660.0 -0.02965165944 0.1153748973
660.625 -0.001041064746 0.1070221497
661.25 0.01697463144 0.1123210709
661.875 0.02493859409 0.09797429154
662.5 0.0409030066 0.07340874201
663.125 0.02638850704 0.07278275604
663.75 -0.03450834169 0.0827038066
664.375 -0.07587033408 0.02473001356
665.0 -0.0806075308 -0.008400989802
665.625 -0.08998876375 -0.03880418117
666.25 -0.08166632434 -0.09936551247
666.875 -0.04363827394 -0.1086595758
667.5 -0.04558529176 -0.1069654098
668.125 -0.06413228483 -0.1141229215
668.75 -0.04704154911 -0.1097951841
669.375 -0.02512077876 -0.08036209028
670.0 -0.01480617922 -0.07524340528
670.625 -0.01635804097 -0.1036030833
671.25 -0.02157940022 -0.09683492957
671.875 -0.02988444618 -0.07849782876
672.5 -0.05286374472 -0.07118920331
673.125 -0.09128164656 -0.08131452784
673.75 -0.09568038812 -0.07813816888
674.375 -0.09077231873 -0.07960516403
675.0 -0.05601085595 -0.110072995
675.625 -0.004047824248 -0.1177627794
676.25 0.02331182229 -0.09952029024
676.875 0.02865219925 -0.09978450576
677.5 0.04685376411 -0.1002880624
678.125 0.05441188926 -0.04346847799
678.75 0.05454097422 -0.02078601846
679.375 0.07792142329 -0.01582593008
680.0 0.120278116 -0.03756227153
680.625 0.1149936557 -0.02527849268
681.25 0.08770084161 -0.06258447349
681.875 0.06536476799 -0.1092979971
682.5 0.02841339843 -0.1634110539
683.125 0.02389412818 -0.1392043107
683.75 0.03325169261 -0.1063768083
684.375 0.07914000617 -0.08225844708
685.0 0.1209907192 0.001256834713
685.625 0.08495769193 0.05777323477
686.25 0.0334495273 0.07561301873
686.875 -0.009984726744 0.07595251791
687.5 -0.06026902597 0.05928179603
688.125 -0.07750239877 0.06173650666
688.75 -0.107496802 0.07454794765
689.375 -0.1359486978 0.06277203501
690.0 -0.1128635895 0.04554682405
690.625 -0.1027413218 0.06907289007
691.25 -0.08076717975 0.130992767
691.875 -0.03473321388 0.1617913572
692.5 0.05423814054 0.08269194351
693.125 0.07751348522 0.0122880897
693.75 0.1003886412 -0.01935625886
694.375 0.1390410404 0.006521853215
695.0 0.09527526115 0.05585572031
695.625 0.03673951892 0.09543217262
696.25 -0.07505543726 0.09963070739
696.875 -0.1399239236 -0.0159752092
697.5 -0.09543536045 -0.0984647388
698.125 -0.07365022013 -0.1089608631
698.75 -0.0653528541 -0.1031292789
699.375 -0.04407350282 -0.08374680742
700.0 -0.02455697159 -0.09130193898
700.625 0.01675580425 -0.1037268917
701.25 0.04804885065 -0.07351347512
701.875 0.03858530992 -0.06083393849
702.5 0.01348000557 -0.101398507
703.125 -0.07861418683 -0.1471599783
703.75 -0.1449906513 -0.0767209306
704.375 -0.116670839 0.03230621019
705.0 -0.0966308694 0.04605052435
705.625 -0.1385534293 -0.00854289953
706.25 -0.05946347735 -0.1110456707
706.875 0.01839915233 -0.08757242345
707.5 0.045374693 -0.05431417527
708.125 0.08023589678 0.002878486809
708.75 0.05470003538 0.07505794938
709.375 0.001267306906 0.09386294511
710.0 -0.03961900956 0.08099510181
710.625 -0.0705366329 0.05985935128
711.25 -0.09359875141 0.03860169727
711.875 -0.1099458708 0.06341736448
712.5 -0.08773979273 0.1135583413
713.125 0.01998092289 0.1232499837
713.75 0.09557705032 0.03901435549
714.375 0.1023005143 -0.01876660595
715.0 0.1039427791 -0.02327656265
715.625 0.06863237643 0.01234593698
716.25 0.04404787569 0.03449278054
716.875 0.02465430016 0.074615361
717.5 -0.03858855292 0.1060330462
718.125 -0.06784065016 0.07252807897
718.75 -0.06125406315 0.05394854486
719.375 -0.07579652719 0.03783356996
720.0 -0.1000562741 -0.025598142
720.625 -0.04461584304 -0.09460506371
721.25 0.04357884228 -0.08485606192
721.875 0.0811960924 -0.02963966773
722.5 0.06728489071 -0.00446483074
723.125 0.04938229034 -0.004400022027
723.75 0.05413300123 -0.01286504177
724.375 0.04497227562 -0.05046540935
725.0 0.002792785624 -0.05693820964
725.625 -0.02215448367 -0.05341363825
726.25 -0.03271223752 -0.06748256675
726.875 -0.01796218204 -0.0835004647
727.5 -0.0002467492298 -0.07323662231
728.125 0.008531375377 -0.05723371018
728.75 0.02012088469 -0.04417047469
729.375 0.02445859267 -0.04043828674
730.0 0.01720705263 -0.03956203122
730.625 0.01426238239 -0.02741303135
731.25 0.02022607603 -0.009268878513
731.875 0.01627721323 0.01545185497
732.5 -0.005563527076 0.02618672205
733.125 -0.02402687454 0.03486514156
733.75 -0.009066426713 0.03952828805
734.375 0.006172558028 0.03500223587
735.0 0.01620714528 0.02064622471
735.625 0.01656292295 0.004690411411
736.25 0.009217496059 -0.01135592959
736.875 -0.01287074798 -0.01845405096
737.5 -0.03590632707 -0.01010060017
738.125 -0.04897507373 0.002699394446
738.75 -0.03881451701 0.01064730786
739.375 -0.01557085423 0.01245336974
740.0 -0.00297663949 -0.01005449512
740.625 -0.01999445001 -0.01138860315
741.25 -0.0223796742 -0.01155304959
741.875 -0.006221477259 -0.01932070587
742.5 0.02014337374 -0.006018799625
743.125 0.01402008095 0.01734032202
743.75 -0.002323522262 0.02740511121
744.375 -0.01015031036 0.03173764696
745.0 -0.0223191461 0.04046915808
745.625 -0.01358452292 0.05758639239
746.25 0.02689589289 0.07183258666
746.875 0.07060660356 0.03369963561
747.5 0.05816538798 -0.007745462028
748.125 0.03597276956 -0.02061327614
748.75 0.02293328154 -0.02630819031
749.375 0.007469777641 -0.04693115585
750.0 -0.04154005122 -0.0276701128
