!Created with skrf (http://scikit-rf.org).
# GHz S RI R 50.0 
!freq ReS11 ImS11
500.0 -0.009158998808 0.01950812045
500.625 0.02460212 0.01943520517
501.25 0.03072913282 -0.00180984528
501.875 0.0193529768 0.008521496844
502.5 0.01342634448 0.02130550092
503.125 0.02660412041 0.01078727858
503.75 0.04032962989 0.0004551165715
504.375 0.05148265713 -0.001048644202
505.0 0.02184512135 -0.03642506618
505.625 0.03441249508 -0.05376403367
506.25 0.03232197382 -0.05910589738
506.875 0.0693998524 -0.0458332957
507.5 0.0212467821 -0.0646467792
508.125 0.04820636151 -0.05401007157
508.75 0.02683956011 -0.06573178517
509.375 0.02281038877 -0.05335404743
510.0 0.03942233394 -0.05495052916
510.625 -0.03400829959 -0.04702008866
511.25 -0.04637584048 -0.04546811619
511.875 -0.05671206533 -0.01454626357
512.5 -0.02648636722 0.03440827892
513.125 0.002657135213 0.04317817559
513.75 -0.005396254516 0.04751499647
514.375 0.01374978861 0.05206375141
515.0 0.03824318539 0.06516023023
515.625 -0.01958260395 0.1009915142
516.25 0.04790509958 0.08601733968
516.875 -0.02152181161 0.1277327315
517.5 0.07890987616 0.08858345758
518.125 -0.03459842291 0.147386453
518.75 0.03918148276 0.05922573967
519.375 0.0481917485 0.04382710529
520.0 0.07132457638 0.04168007145
520.625 0.08064364073 0.03419800381
521.25 0.07247781915 0.01559244263
521.875 0.05365113318 0.03669134172
522.5 0.07703342111 -0.00826673143
523.125 0.131857006 -0.04086246227
523.75 0.1201622865 -0.1026111301
524.375 0.1095955537 -0.04309272238
525.0 0.02233005031 -0.01471904918
525.625 0.01482034266 -0.001084574593
526.25 0.03501858722 0.03898042519
526.875 0.03094748883 -0.0006744826441
527.5 0.02707243604 0.004134090634
528.125 0.03101192474 -0.01407585355
528.75 0.0516013014 -0.03293484041
529.375 -0.007457843067 -0.04804403174
530.0 -0.0006244261096 -0.02136782773
530.625 -0.01198058734 -0.05724605065
531.25 -0.03514658143 -0.1551711099
531.875 -0.08364820871 -0.09165186115
532.5 -0.09789194702 -0.03543578889
533.125 -0.08558711433 -0.01593040545
533.75 -0.1144463493 -0.03861980358
534.375 -0.0702826537 -0.002458687037
535.0 -0.06970935562 0.009820898966
535.625 -0.05111191518 -0.01187380973
536.25 -0.05937173848 -0.01553865435
536.875 -0.04477430937 -0.03231194229
537.5 -0.05602402856 -0.0587896865
538.125 -0.08957876185 -0.03205421436
538.75 -0.08924328297 -0.01890970915
539.375 -0.04234213113 -0.009537867078
540.0 -0.05933917698 -0.04694606694
540.625 -0.08966079135 -0.0703844788
541.25 -0.07567745126 -0.07950684488
541.875 -0.06129575831 -0.05356453331
542.5 -0.06509768182 -0.06867228398
543.125 -0.1129241923 -0.03551793247
543.75 -0.1123736035 0.04736568551
544.375 -0.04129598567 0.06237428449
545.0 -6.030194634e-05 0.07145263691
545.625 0.01358102991 0.07270310959
546.25 0.04043517505 0.0640365319
546.875 0.0490562855 0.061648221
547.5 0.05066581129 0.07011163197
548.125 0.0342335404 0.08161416387
548.75 0.02348862925 0.08950815252
549.375 0.02604607492 0.06061960152
550.0 -0.01589192423 0.06184906691
550.625 -0.01015697359 0.02913069895
551.25 -0.01983732598 -0.005882180291
551.875 -0.02490411386 -0.01757848349
552.5 -0.0633344487 -0.01343708123
553.125 -0.06106955525 -0.001319890711
553.75 -0.077818362 0.007511211927
554.375 -0.07180794291 0.0216447021
555.0 -0.07769753802 0.04722016361
555.625 -0.0670559574 0.05756990358
556.25 -0.06795027551 0.04358205672
556.875 -0.0883102452 0.05231375104
557.5 -0.07018097773 0.04969200225
558.125 -0.06809397722 0.05092626785
558.75 -0.06790912028 0.0326971016
559.375 -0.03785777025 0.02816099531
560.0 -0.0262159964 0.0141255957
560.625 -0.03587256378 0.001101991892
561.25 -0.05920136843 -0.005568577252
561.875 -0.06899662235 0.004733008997
562.5 -0.05997088056 0.03798915042
563.125 -0.04302385226 0.06617124879
563.75 -0.01717498414 0.1114619613
564.375 -0.002016761958 0.08200240658
565.0 0.002478074092 0.08206529215
565.625 0.01489345864 0.07452270609
566.25 -0.015458031 0.07644630912
566.875 -0.04339288871 0.05422645634
567.5 -0.04716801777 0.03919986682
568.125 -0.05720627095 0.03662553065
568.75 -0.051714579 0.03180929757
569.375 -0.0450943964 0.01911922396
570.0 -0.02007506643 -0.01214531359
570.625 -0.05127064424 -0.01413246369
571.25 -0.04884739098 -0.0162112181
571.875 -0.05355537337 -0.001341929013
572.5 -0.07276319601 0.007088424639
573.125 -0.09284975036 0.04936620969
573.75 -0.04752489678 0.08306907358
574.375 -0.004298704109 0.07875847503
575.0 -0.01019860158 0.07132523559
575.625 -0.02195996426 0.08854220134
576.25 -0.01298661733 0.08476337055
576.875 0.001200615145 0.06977698742
577.5 0.02347541029 0.07455177909
578.125 0.0095843829 0.07209026747
578.75 0.003659022847 0.05190752833
579.375 0.0121526666 0.05207639556
580.0 0.004865422368 0.03950706771
580.625 -0.01405028627 0.02498335592
581.25 -0.03393124943 0.02416564942
581.875 -0.03815278137 0.04828039926
582.5 -0.06174689739 0.05167286885
583.125 -0.04661255125 0.05966854066
583.75 -0.04291356574 0.0498294239
584.375 -0.04460581606 0.05629045873
585.0 -0.07056990713 0.02961624876
585.625 -0.05764500898 0.03470707402
586.25 -0.04570893503 0.04052075264
586.875 -0.04606543892 0.04575480751
587.5 -0.05380608862 0.03019294007
588.125 -0.02072745648 0.05358937651
588.75 -0.003622301895 0.04952265063
589.375 0.015374424 0.04819517361
590.0 -0.03420363767 0.02871238429
590.625 -0.02887955771 0.05378127386
591.25 -0.01523457104 0.07896885959
591.875 0.008414185714 0.09813377121
592.5 0.01573476439 0.07916555755
593.125 0.01851827175 0.06294920372
593.75 0.007776773929 0.06419228407
594.375 0.006200246366 0.07464580213
595.0 -0.03465069361 0.03328144733
595.625 -0.02994530053 0.02105683464
596.25 -0.03384886416 0.01055797783
596.875 -0.04569213495 -0.00299880125
597.5 -0.04310086926 -0.003201743633
598.125 -0.03515562287 -0.01006938676
598.75 -0.02358755376 -0.002534885499
599.375 -0.01645082477 -0.007946780001
600.0 -0.03019658137 -0.0522323119
600.625 -0.04471857926 -0.06791492537
601.25 -0.05611474594 -0.05841248464
601.875 -0.06214974392 -0.01671034771
602.5 -0.06601448301 -0.0260678148
603.125 -0.06594810547 -0.02694769211
603.75 -0.05453076928 -0.01655285656
604.375 -0.03089907666 -0.01431095697
605.0 -0.02571104045 -0.02108184979
605.625 -0.01656097651 -0.06333705744
606.25 -0.01686752178 -0.05637601318
606.875 -0.02430571486 -0.02542926555
607.5 -0.01932876469 0.00543995434
608.125 0.009403747827 -0.02352456139
608.75 0.004683181649 -0.01861924703
609.375 0.01847179374 -0.02356112184
610.0 0.02414059775 -0.01661817712
610.625 0.05513965324 -0.03648303125
611.25 0.05153624835 -0.04364070483
611.875 0.04151250357 -0.03514640999
612.5 0.01681360989 -0.02455018014
613.125 0.03761406902 -0.01308068244
613.75 0.02582169078 -0.00561681811
614.375 0.02239215329 0.00656948455
615.0 0.03312710029 0.0008257821001
615.625 0.02954949218 0.003738370928
616.25 0.02129975268 0.006664745659
616.875 0.02461139488 0.01875194475
617.5 0.02473521414 0.02201105205
618.125 0.04917997708 0.03134734646
618.75 0.03361660835 0.02285119062
619.375 0.03100626829 0.03183022326
620.0 0.02596215453 0.02712153325
620.625 0.07388262998 0.01249517016
621.25 0.04831829063 -0.003001475898
621.875 0.01115437573 -0.0118357376
622.5 -0.02669555075 0.004719492365
623.125 -0.01599444562 0.03219698384
623.75 -0.004079852799 0.04791150116
624.375 -0.01781894897 0.04790180873
625.0 -0.02649210561 0.04374736645
625.625 -0.03840329557 0.05018456765
626.25 -0.0008561668045 0.08757907799
626.875 0.007143487693 0.08233556152
627.5 -0.004936433415 0.05669267541
628.125 -0.03280315534 0.03435459777
628.75 -0.01820356273 0.07078208615
629.375 -0.01719274804 0.05108943341
630.0 -0.01360440553 0.02895840563
630.625 -0.01477271418 -0.01372927136
631.25 -0.01593197791 -0.0153393013
631.875 -0.02182291956 -0.01548499322
632.5 -0.02647407395 -0.03608312354
633.125 -0.03398689055 -0.06736811345
633.75 -0.05207954339 -0.0273262177
634.375 -0.04835045456 -0.03477520465
635.0 -0.05947446523 -0.03972919346
635.625 -0.06909731727 -0.01830302862
636.25 -0.04915298151 -0.01931478113
636.875 -0.04541451075 -0.01017347536
637.5 -0.05491561268 -0.02845937515
638.125 -0.06981241076 -0.02818982422
638.75 -0.04787046808 -0.02648157634
639.375 -0.03576688924 -0.008510803902
640.0 0.008915501812 -0.03321596248
640.625 0.02912880232 -0.04593571229
641.25 0.03257002169 -0.04590346186
641.875 0.007896453006 -0.04900384633
642.5 0.03175476212 -0.03573520088
643.125 0.05955775823 -0.02012580003
643.75 0.07061369975 -0.02205780137
644.375 0.02865214662 -0.05302714277
645.0 0.02524555434 -0.04273603372
645.625 0.03226443497 -0.020985277
646.25 0.06237978816 -0.0048210134
646.875 0.06155558504 -0.01980827487
647.5 0.06079307394 -0.02007675329
648.125 0.05370138268 -0.01624962922
648.75 0.05203950936 0.01841027208
649.375 0.07139367022 0.04356718674
650.0 0.06740513506 0.05027646867
650.625 0.05774566712 0.04347163837
651.25 0.04592653986 0.06316799199
651.875 0.007499798289 0.08947050302
652.5 0.008075324463 0.06792838808
653.125 0.005094379214 0.05772826226
653.75 -0.01445959585 0.04576907429
654.375 -0.01810024042 0.01579996053
655.0 -0.0288362416 -0.01661579939
655.625 -0.05492396257 -0.02451012861
656.25 -0.07522797223 -0.01190783885
656.875 -0.09272538313 -0.005323327914
657.5 -0.06895489377 -0.004247898368
658.125 -0.08316164755 -0.006741265428
658.75 -0.1070187847 0.02445814639
659.375 -0.1009714949 0.05319492745
660.0 -0.03621648265 0.06937164635
660.625 -0.03216800367 0.0644739793
661.25 -0.02834766988 0.06666850407
661.875 -0.01758642128 0.05852859214
662.5 0.006180887917 0.03603786718
663.125 -0.02770237699 0.03820336491
663.75 -0.05749917693 0.01641341362
664.375 -0.07239383267 -0.02445600507
665.0 -0.04946733254 -0.05520499461
665.625 -0.04509104387 -0.08943990997
666.25 -0.00444957726 -0.1088031526
666.875 -0.002798196833 -0.08585059561
667.5 0.008843496609 -0.09939718638
668.125 0.02078054364 -0.1070362498
668.75 0.01353024267 -0.06935321503
669.375 0.02258168192 -0.05764055682
670.0 0.030921218 -0.05643469049
670.625 0.05111097406 -0.06339634712
671.25 0.02898999133 -0.05914522297
671.875 0.02970295556 -0.07290803168
672.5 0.005865226001 -0.06760488871
673.125 -0.01593082363 -0.1017378566
673.75 -0.0398868808 -0.09743811205
674.375 -0.02308325314 -0.08743184194
675.0 0.01606232519 -0.08472864828
675.625 0.04426006516 -0.06579783365
676.25 0.05884597025 -0.0614662674
676.875 0.0620626773 -0.03902317521
677.5 0.05923244959 -0.003921463619
678.125 0.04131491196 0.0167448906
678.75 0.05647932089 0.03015961948
679.375 0.09434128912 0.04561039518
680.0 0.08242593756 0.0553937508
680.625 0.0825691847 0.02859827849
681.25 0.09677262812 -0.01137898411
681.875 0.1201923954 -0.06194625349
682.5 0.0896457972 -0.08010364578
683.125 0.05566047203 -0.07077428896
683.75 0.0595385025 -0.04906471426
684.375 0.0831909149 -0.0009442059785
685.0 0.06551367657 0.05585916033
685.625 0.004651017684 0.05397220379
686.25 -0.03185612635 0.03030645738
686.875 -0.06642811855 0.0174908278
687.5 -0.08909513298 0.00533983982
688.125 -0.1008346546 -0.01108901778
688.75 -0.1160624487 -0.02211552821
689.375 -0.1037251981 -0.02354444844
690.0 -0.106442208 -0.009025536763
690.625 -0.0943090821 -0.003632552274
691.25 -0.1139156907 0.02491331741
691.875 -0.06358029286 0.05704145303
692.5 -0.002732844256 0.0590537487
693.125 0.02630505522 0.06246657038
693.75 0.04144067836 0.08669098701
694.375 0.04594788143 0.08405388836
695.0 0.024855475 0.08538830853
695.625 -0.03322991965 0.1059218577
696.25 -0.1058551147 -0.003223415919
696.875 -0.07949598525 -0.08758533745
697.5 -0.01092939054 -0.1112187932
698.125 0.01033427496 -0.1012879531
698.75 0.01291099718 -0.0672124844
699.375 0.02665821168 -0.05223259839
700.0 0.0466562562 -0.0511005231
700.625 0.08125126276 -0.03987325357
701.25 0.0560446009 0.01213880191
701.875 0.07936141764 -0.008641252721
702.5 0.09461003677 -0.0718148098
703.125 0.05108084817 -0.148296824
703.75 -0.06662663804 -0.09368181314
704.375 -0.08420270892 -0.02928045184
705.0 -0.0751167849 -0.04743750948
705.625 -0.03399128078 -0.09091060074
706.25 0.00968279139 -0.08203403889
706.875 0.04582573238 -0.004298981649
707.5 0.04991382162 0.03446152583
708.125 0.010191245 0.08011803525
708.75 -0.007664868187 0.09488681019
709.375 -0.07549208062 0.04486317905
710.0 -0.08611521867 0.01520018019
710.625 -0.0880685364 -0.008882813895
711.25 -0.105224027 -0.02014424225
711.875 -0.1064819214 -0.04205025453
712.5 -0.09370710564 0.009516047427
713.125 -0.03104547418 0.0647562828
713.75 0.03800584171 0.06508486451
714.375 0.02804937855 0.06213299675
715.0 0.01940023405 0.06213176236
715.625 0.006471150453 0.05964791194
716.25 -0.01813105782 0.07482663925
716.875 -0.05289003986 0.08911958532
717.5 -0.1038938101 -0.01287832454
718.125 -0.08753763008 -0.009575903435
718.75 -0.07925051516 -0.01493930705
719.375 -0.08371802068 -0.0468712462
720.0 -0.04812714737 -0.08009829241
720.625 0.03278816852 -0.07213572748
721.25 0.06312337054 -0.01771745064
721.875 0.05136125631 0.01496725348
722.5 -0.03390803546 0.04902646301
723.125 -0.03379106919 0.08008904401
723.75 0.03407490344 0.08359980458
724.375 0.08195385236 0.01317378122
725.0 0.06806549109 -0.03664323058
725.625 0.05199095632 -0.06722301042
726.25 0.06400980032 -0.0701953658
726.875 0.0448213959 -0.05538610029
727.5 0.03497996033 -0.04297040066
728.125 0.06711158072 0.04473618022
728.75 0.04988634124 0.05146160691
729.375 0.05428127693 0.02949016157
730.0 0.04653387197 -0.0007675368229
730.625 0.0334827722 0.01249677301
731.25 0.01293727029 0.05221631255
731.875 -0.02157664357 0.04568170408
732.5 -0.05067398735 0.02786281211
733.125 -0.0362922223 0.01629240302
733.75 -0.05927792921 0.006873933225
734.375 -0.03424122696 0.001386612176
735.0 -0.01471257968 0.02059324456
735.625 -0.05819836401 0.01579989346
736.25 -0.02487443675 0.01249564635
736.875 -0.03346787609 -0.005183765934
737.5 -0.06492738175 -0.0002599789937
738.125 -0.06830013326 -0.004839406674
738.75 -0.07357573611 -0.0001929064817
739.375 -0.04885980974 -0.0007292143677
740.0 -0.0295790044 -0.02011970926
740.625 -0.01000874073 -0.02551168425
741.25 -0.07251429513 -0.01814530156
741.875 -0.03085719494 -0.03694265664
742.5 0.01980428432 -0.006143927354
743.125 -0.0002888505151 0.02563386211
743.75 0.02934827979 0.05372367809
744.375 0.01784373297 0.05111269938
745.0 -0.0103576059 0.04814762137
745.625 -0.04200368217 0.05663762166
746.25 0.05818985025 0.07394430005
746.875 0.06396446723 0.0316660016
747.5 0.04910959974 -0.002021995727
748.125 0.02958536273 -0.02080342646
748.75 0.02299155724 -0.004434038799
749.375 -0.005196425476 -0.0581611339
750.0 -0.0457212203 -0.01707970311
