!Created with skrf (http://scikit-rf.org).
# GHz S RI R 50.0 
!freq ReS11 ImS11
500.0 -0.009879152953 0.007123948913
500.625 -0.006856798121 -0.0007999350912
501.25 0.01606974165 -0.01264802248
501.875 -0.03810180652 -0.01546569997
502.5 -0.0004978727452 0.00245563164
503.125 0.01014410314 0.006151774307
503.75 0.005493927115 -0.002332266296
504.375 -0.01830738981 0.006718709263
505.0 0.007541596187 -0.02591480358
505.625 0.005419720836 -0.03784610798
506.25 -0.02135451267 -0.05528001694
506.875 -0.04046013991 -0.03869831723
507.5 -0.04083541629 -0.01553406341
508.125 -0.006275304129 -0.06990608899
508.75 -0.04991148414 -0.01843557073
509.375 -0.05295561843 -0.01369310164
510.0 -0.03343274527 0.002449289995
510.625 -0.04610549198 -0.003471115716
511.25 -0.04689921033 0.01242620378
511.875 -0.01830840147 0.04603846709
512.5 0.00203662892 0.0433980335
513.125 0.05643810217 0.03431315621
513.75 0.05439411721 -0.004675639545
514.375 0.0584207539 0.001040758021
515.0 0.04007923774 -0.02000591744
515.625 0.09090030808 0.02835509013
516.25 0.07342247312 0.001350922961
516.875 0.06391587271 0.08147586825
517.5 0.08295382794 -0.005308267104
518.125 0.1540977498 0.1708893222
518.75 0.07953782993 -0.04286687195
519.375 0.07459550963 -0.007932178249
520.0 0.07656832893 -0.05098794551
520.625 0.10462749 -0.06840915985
521.25 0.05100232081 -0.07117678293
521.875 0.05681228031 -0.03090802411
522.5 0.03377636141 -0.07386535707
523.125 0.1141773473 -0.2040817983
523.75 0.0328080297 -0.237654185
524.375 0.03629908784 -0.2379578942
525.0 0.01344462583 -0.1114251194
525.625 0.01351821095 -0.08476726942
526.25 0.004843408069 -0.05600952836
526.875 0.001902742631 -0.06255430645
527.5 -0.00566123002 -0.08200495808
528.125 -0.03166186584 -0.058603112
528.75 -0.04381248563 -0.05029257468
529.375 -0.1121491927 -0.01295183178
530.0 -0.09647188322 0.04732300062
530.625 -0.003568145559 0.04650143531
531.25 -0.02697075832 0.02646291687
531.875 -0.07494510084 0.06485373083
532.5 -0.1007833568 0.1260272999
533.125 -0.05994031274 0.1009093373
533.75 -0.005831105454 0.06995607701
534.375 -0.02544662003 0.1112484184
535.0 -0.02341327452 0.1123043873
535.625 -0.03529749537 0.08308870256
536.25 0.03188719188 0.04802004806
536.875 0.006139022457 0.05523779667
537.5 -0.0650723423 0.06214186442
538.125 -0.04153022548 0.05580150883
538.75 -0.00999107123 0.08761852376
539.375 -0.03205568692 0.1027576166
540.0 -0.03844376617 0.09185978609
540.625 -0.03461885742 0.06465337515
541.25 -0.04388906518 0.08389745823
541.875 -0.04561038315 0.05462689107
542.5 -0.05788897014 0.03478785407
543.125 -0.04823233721 0.05954786706
543.75 -0.002573752429 0.1050225426
544.375 0.03892840474 0.1320604045
545.0 0.09090871139 0.04060841149
545.625 0.1073621831 -0.02964568094
546.25 0.1068222361 -0.05168095798
546.875 0.101311295 -0.05250320852
547.5 0.1094346021 -0.05175526124
548.125 0.1292525687 -0.04287090785
548.75 0.1301432558 0.006490140732
549.375 0.1376072529 0.02178971948
550.0 0.1323054441 0.05915929342
550.625 0.1470542989 0.08007947622
551.25 0.05908576637 0.08975306444
551.875 0.05101097838 0.04573751102
552.5 0.06308233545 0.03670385257
553.125 0.07329630827 0.05241207374
553.75 0.01589978984 0.03215064464
554.375 0.02803946819 0.04102621962
555.0 0.05155199561 0.0497235719
555.625 0.08217808895 0.06041049629
556.25 0.0313629627 0.06822998595
556.875 0.02809237322 0.0620538732
557.5 0.03143288745 0.0779560042
558.125 0.04357403387 0.1167488778
558.75 -0.0002441262762 0.1102753282
559.375 0.03705664224 0.1034384085
560.0 0.05247260349 0.1079975401
560.625 0.05135401019 0.0745144998
561.25 0.03957126662 0.0362731562
561.875 0.05385244375 0.04008970691
562.5 0.04922516197 0.04470738047
563.125 0.0617231762 0.03765054518
563.75 0.05165384671 0.02556193226
564.375 0.1019047931 -0.001485286148
565.0 0.1315942046 0.03325958691
565.625 0.1121809302 0.01134736622
566.25 0.08739855174 0.01645649619
566.875 0.1017178491 0.03155083636
567.5 0.0528933453 0.07694877935
568.125 0.04671350173 0.08553735459
568.75 0.04984863667 0.09768319794
569.375 0.03711463997 0.09138589036
570.0 0.03372186816 0.07509627254
570.625 0.04207673246 0.05983939717
571.25 0.05177307175 0.05697588005
571.875 0.03784849747 0.05107608809
572.5 0.01913062138 0.02608802056
573.125 0.03940528688 0.03242659894
573.75 0.07939939466 0.03795033095
574.375 0.09766873819 0.02109921413
575.0 0.06744184532 0.006997888173
575.625 0.0616095106 -0.01875355369
576.25 0.09291842575 0.00836438065
576.875 0.09486578398 0.005456353274
577.5 0.08629383622 0.006019992995
578.125 0.09286318958 -0.02237259189
578.75 0.1148092432 -0.007321747473
579.375 0.1026074686 0.001216990811
580.0 0.08308512493 -0.004917500027
580.625 0.09302585313 -0.04648943745
581.25 0.07115800254 -0.02724541732
581.875 0.03438711126 0.006940214228
582.5 0.03902652147 0.01529079806
583.125 0.0810692464 0.01357567269
583.75 0.08397468713 0.0253980498
584.375 0.0428714457 0.0411894336
585.0 0.0532244509 0.03660636966
585.625 0.07158470707 0.05281542105
586.25 0.05338313019 0.06118708785
586.875 0.0411147177 0.04470071743
587.5 0.05635999439 0.04649942758
588.125 0.09421647431 0.01393178078
588.75 0.09428828213 0.01014901441
589.375 0.07153929646 -0.01558121013
590.0 0.04995187604 -0.07421220489
590.625 0.04122755478 -0.04433157723
591.25 0.03293053642 -0.01341930038
591.875 0.04908205609 0.002002690755
592.5 0.06863656347 -0.03040090139
593.125 0.084203214 -0.02538965288
593.75 0.0743730721 -0.01316872902
594.375 0.07696421889 0.02901817199
595.0 0.08598417487 0.03211423991
595.625 0.0714248649 0.05696660314
596.25 0.05247309801 0.04817915002
596.875 0.03231121737 0.06217058411
597.5 0.03389457485 0.07130544737
598.125 0.04021399818 0.06694788551
598.75 0.03921665032 0.06099594145
599.375 0.02942637744 0.04940712809
600.0 0.02023882842 0.02908278466
600.625 0.0195228355 0.01257931846
601.25 0.001978304308 0.01480458752
601.875 -0.04472018122 0.04539905931
602.5 -0.0111466697 0.04182682665
603.125 -0.0229821732 0.04790035109
603.75 -0.008258836538 0.05114317121
604.375 -0.03743656039 0.06793053445
605.0 -0.03489455661 0.04171010378
605.625 -0.04392587955 0.02427890272
606.25 -0.04008355298 0.02752321947
606.875 -0.07653104301 0.03119153605
607.5 -0.0632665787 0.02971350908
608.125 -0.03718127815 0.03998961604
608.75 -0.0002973419754 0.0364392828
609.375 -0.03530855876 0.02750703201
610.0 -0.02525041909 0.01679907556
610.625 -0.02348801372 -0.007471505854
611.25 0.001575881012 -0.003948286294
611.875 -0.02148663717 -0.03929233373
612.5 -0.02682158781 -0.06773813272
613.125 -0.01877229398 -0.02303466991
613.75 -0.02562785773 -0.01732967399
614.375 -0.007686881365 -0.003964143158
615.0 -0.009323429987 -0.02030769343
615.625 -0.006232807095 -0.02078474949
616.25 -0.02513092304 -0.04821161144
616.875 0.00157695116 0.003565248362
617.5 0.008848146005 -0.02337617409
618.125 0.02313429492 -0.00396694668
618.75 0.01203411259 -0.02831121346
619.375 0.0331807296 0.003970211671
620.0 0.04689686379 -0.04478536739
620.625 0.05174889059 -0.03658926581
621.25 0.04312783928 -0.03803514411
621.875 0.03258602659 -0.04296726734
622.5 -0.02905445576 -0.05842556822
623.125 -0.01999046714 -0.009573946338
623.75 -0.01621509388 -0.00849590677
624.375 0.0192714147 0.01663018224
625.0 0.01387055396 -0.00636607443
625.625 0.01167934657 0.01367801977
626.25 0.02911916443 0.01582017198
626.875 0.05528752867 0.05839044139
627.5 0.05845319014 0.03142119233
628.125 0.06851943926 0.02222900595
628.75 0.0528629881 0.04447828327
629.375 0.04107674362 0.07656298148
630.0 0.02762613409 0.07489092842
630.625 0.05515642592 0.04944903074
631.25 0.04793730811 0.03613991789
631.875 -0.001356878856 0.05045739215
632.5 0.01368243305 0.0292209065
633.125 0.0186860489 0.03110521466
633.75 -0.02745761269 0.04967650606
634.375 -0.03451013386 0.04469648972
635.0 -0.04174020454 0.05129038203
635.625 -0.01638101272 0.05094050286
636.25 -0.01350172579 0.07206423755
636.875 -0.003392938937 0.06084298294
637.5 -0.03746901232 0.04864819783
638.125 -0.04806235051 0.06736459105
638.75 -0.02481734412 0.08225512928
639.375 -0.07528446303 0.05229782496
640.0 -0.05397384433 0.02390480697
640.625 -0.07152890793 0.006557115131
641.25 -0.06998943206 -0.02108308432
641.875 -0.06030071988 -0.03363600137
642.5 -0.05697602032 -0.03533300602
643.125 -0.05124960701 -0.02837724036
643.75 -0.05187137511 -0.03562071678
644.375 -0.04820900587 -0.05766522659
645.0 -0.07609064444 -0.05519900092
645.625 -0.09394762975 -0.06114498767
646.25 -0.07339050799 -0.0231394227
646.875 -0.04031428401 -0.06070769252
647.5 -0.05039616973 -0.05115112771
648.125 -0.06587558739 -0.07704334323
648.75 -0.02654102003 -0.05541822973
649.375 0.002239917035 -0.05298873159
650.0 0.02390447343 -0.05357947774
650.625 0.06060217052 -0.07572928355
651.25 0.06223629658 -0.03801095612
651.875 0.07680129218 -0.01839014254
652.5 0.09846671071 -0.0002699680768
653.125 0.123576052 0.0524668968
653.75 0.09588522925 0.04706249711
654.375 0.1057609407 0.05134326633
655.0 0.08986128663 0.07704284539
655.625 0.0429175245 0.0767886934
656.25 0.03090981048 0.03725844769
656.875 0.05725322436 0.03914101735
657.5 0.04371259948 0.05044290525
658.125 0.01584451162 0.08166167261
658.75 0.008421917311 0.06994619995
659.375 0.04600652791 0.0606586234
660.0 0.1094041772 0.08863449074
660.625 0.1073834017 0.06445950984
661.25 0.1159307558 0.02715168725
661.875 0.1280332303 -0.01052398553
662.5 0.1276203883 -0.02461247883
663.125 0.1102927904 -0.01450863845
663.75 0.09941070003 0.01568155967
664.375 0.04575471714 0.05821039188
665.0 -0.008736197553 0.06125538806
665.625 -0.03149606132 0.06353148629
666.25 -0.05315690864 0.05515225666
666.875 -0.1284631169 0.02794729631
667.5 -0.09809866871 -0.01831059219
668.125 -0.1076469708 0.003573304758
668.75 -0.1241585101 0.03743721644
669.375 -0.1322823887 0.01804285144
670.0 -0.0794563413 -0.008627462015
670.625 -0.09342169351 -4.208179222e-05
671.25 -0.1037635279 0.02645328087
671.875 -0.09255505391 0.03351342617
672.5 -0.06314833809 0.04364544321
673.125 -0.06104001855 0.06069260685
673.75 -0.08671031734 0.06299267868
674.375 -0.110130956 0.05619292974
675.0 -0.1101879682 0.01886535877
675.625 -0.1335383697 -0.01709756179
676.25 -0.09591218482 -0.06511301163
676.875 -0.08991075053 -0.08754425448
677.5 -0.1003326238 -0.0697577915
678.125 -0.1292937496 -0.08546608406
678.75 -0.05150669606 -0.07125583236
679.375 -0.01182081912 -0.04479796238
680.0 -0.01830066722 -0.05135413324
680.625 -0.05820888285 -0.1030568259
681.25 -0.04302008276 -0.1107395484
681.875 -0.03106767336 -0.07372071512
682.5 -0.09865122549 -0.0596389832
683.125 -0.1226659338 -0.06995423615
683.75 -0.1285551707 -0.1036536658
684.375 -0.03670327992 -0.1106253759
685.0 0.03242423252 -0.1083736227
685.625 0.1029908647 -0.07556994241
686.25 0.135100958 -0.04435585344
686.875 0.1095200343 -0.01249026617
687.5 0.06622282761 0.03243747996
688.125 0.03785073622 0.05469430791
688.75 0.03713222492 0.07111639343
689.375 0.04141727527 0.09499199929
690.0 0.009187858618 0.116350529
690.625 0.01437199777 0.1232795607
691.25 0.0579955555 0.1066664088
691.875 0.1615561185 0.04748606418
692.5 0.1937052354 -0.04641638971
693.125 0.06682834877 -0.1123398007
693.75 -0.01172941205 -0.08876875748
694.375 -0.04453285083 -0.1241344028
695.0 0.05460549582 -0.1412177439
695.625 0.09682842442 -0.009915339527
696.25 0.07087279803 0.05709808831
696.875 -0.02770392641 0.1011634136
697.5 -0.1063276351 0.07299466133
698.125 -0.1284869052 0.01174969204
698.75 -0.133533746 0.03959723366
699.375 -0.1329966714 0.03391971867
700.0 -0.1095805078 0.002279785588
700.625 -0.08694910662 -0.03325360246
701.25 -0.1327948984 -0.03403482658
701.875 -0.0992170989 -0.03951648968
702.5 -0.07283050372 -0.01130503526
703.125 -0.08104871928 0.01532391449
703.75 -0.08642367143 0.1275260877
704.375 -0.06243852468 0.1489387225
705.0 -0.007230490756 0.1242166279
705.625 -0.0366959377 0.1072547875
706.25 -0.1384356389 0.03764469299
706.875 -0.1177945031 -0.08885848426
707.5 -0.06208473464 -0.09577075202
708.125 -0.02886737241 -0.09375427991
708.75 0.05681644069 -0.05346076085
709.375 0.09539665015 -0.005877507812
710.0 0.06589351773 0.05029776537
710.625 0.05994790655 0.05456002091
711.25 -0.002316252395 0.07349094226
711.875 -0.01426900396 0.09207332858
712.5 0.05948221697 0.1027232818
713.125 0.1430553759 0.05201012921
713.75 0.1179027883 -0.0595745684
714.375 0.02954553495 -0.1280124906
715.0 -0.01525469208 -0.1392364144
715.625 -0.01001747158 -0.1497781898
716.25 0.06553476799 -0.06539062446
716.875 0.06201628158 -0.007083507414
717.5 0.07836580171 0.02234588323
718.125 0.08350916731 0.07308848583
718.75 0.05068286348 0.07951301671
719.375 0.008157243267 0.06878216142
720.0 -0.04751815726 0.06941624652
720.625 -0.1173908978 -0.02487987601
721.25 -0.06603036021 -0.09341844582
721.875 0.06207351951 -0.1024852008
722.5 0.05879454099 -0.1036238346
723.125 -0.01558573532 -0.1058202512
723.75 -0.05540485557 -0.05883052037
724.375 -0.05554861721 -0.04265613216
725.0 -0.05905889767 0.01049251905
725.625 -0.06516544608 -0.00841765507
726.25 -0.04390669488 0.01204496112
726.875 -0.09075615093 -0.05032281209
727.5 -0.07678515589 -0.08019770775
728.125 -0.04837154024 -0.08003118187
728.75 -0.05745094593 -0.04397083113
729.375 -0.05335059283 -0.02055041056
730.0 -0.04499519239 -0.05652113434
730.625 -0.02888896905 -0.05372300312
731.25 0.006914161837 -0.06388513912
731.875 0.00545348447 -0.03077260846
732.5 0.05324254284 0.02947286204
733.125 0.01881341826 0.07759427422
733.75 0.04576171523 0.08068653708
734.375 0.03740687502 0.02161105404
735.0 0.07556253625 0.02725825124
735.625 0.03457008148 -0.014814687
736.25 0.06676019535 -0.03275432747
736.875 0.001802479549 -0.02879817943
737.5 0.004297642379 -0.01046983104
738.125 -0.005637761098 0.02446929587
738.75 0.002924503012 0.08441410224
739.375 -0.01361332156 0.03921387692
740.0 0.0275555353 0.05879793284
740.625 0.05151339123 0.07307319489
741.25 -0.006354004213 0.06014598902
741.875 -0.02583700041 0.02479650242
742.5 -0.02316699865 -0.02352497412
743.125 -0.031797671 -0.06981497908
743.75 0.0430050492 -0.03630337715
744.375 0.02952961412 -0.01428309234
745.0 0.01800695485 -0.0337639589
745.625 -0.01938598419 -0.07090198317
746.25 0.03830010879 0.005800536071
746.875 0.02420747447 -0.02904253805
747.5 0.02263851565 -0.06032424636
748.125 -0.0295617267 -0.04377875384
748.75 -0.0520377852 -0.01147622661
749.375 -0.05053110559 0.01684374825
750.0 -0.04345643636 0.06374172479
