!Created with skrf (http://scikit-rf.org).
# GHz S RI R 50.0 
!freq ReS11 ImS11
500.0 -0.01715453998 0.0239565246
500.625 0.02738612365 0.001775507473
501.25 0.02979284084 -0.01498943062
501.875 0.02186752117 -0.007627036662
502.5 0.008427558461 0.03079556542
503.125 0.02263128729 0.01724145519
503.75 0.03680887632 -0.0002940887432
504.375 0.03754590631 -0.008896998236
505.0 0.03625791139 -0.02775209438
505.625 0.03321413124 -0.05138939745
506.25 0.008627079445 -0.06026441017
506.875 0.03803685084 -0.06475580958
507.5 -0.007586238927 -0.0660834331
508.125 0.03742738765 -0.05966312152
508.75 0.00416802141 -0.07587490041
509.375 0.01953283646 -0.06609487848
510.0 -0.007133671143 -0.0558128555
510.625 -0.03525974578 -0.04389679995
511.25 -0.05717399888 -0.03774870451
511.875 -0.05452805861 0.004653349931
512.5 -0.02931167979 0.02742011587
513.125 -0.001939913685 0.04587089637
513.75 0.01636897809 0.04862797704
514.375 0.0149972027 0.05462093959
515.0 0.05048287709 0.04241775445
515.625 0.01101857373 0.08546053371
516.25 0.06192257979 0.07801280019
516.875 -0.01106142139 0.1398900338
517.5 0.1060332128 0.0583735248
518.125 0.02039475649 0.1629188905
518.75 0.05623230948 0.03618692597
519.375 0.04585016629 0.06066571213
520.0 0.082876734 0.0379135288
520.625 0.08139018061 0.01549235622
521.25 0.07602465738 -0.003523373079
521.875 0.06706312426 0.03298166533
522.5 0.07386821866 -0.03610955775
523.125 0.1226305105 -0.08092654675
523.75 0.1122102104 -0.1451742419
524.375 0.1481568439 -0.07163242505
525.0 0.03163358327 -0.02971822671
525.625 0.02436742995 0.001051545938
526.25 0.03736999036 0.01585903574
526.875 0.04102185114 -0.0001880222849
527.5 0.03295968146 -0.007267561574
528.125 0.03076024227 -0.01945201406
528.75 0.03815343112 -0.04535629617
529.375 0.003390546034 -0.06889230376
530.0 -0.01231584755 -0.02223826274
530.625 -0.01712722435 -0.03191407211
531.25 -0.07366369197 -0.1336756899
531.875 -0.1027159719 -0.09682967079
532.5 -0.1165798514 -0.02954268772
533.125 -0.09155091467 -0.008094318017
533.75 -0.1001432267 0.0006571608119
534.375 -0.09214114137 -0.004362892228
535.0 -0.07184066432 0.02687378395
535.625 -0.04924517764 0.0003393045677
536.25 -0.05340105064 0.007802739639
536.875 -0.04481812514 -0.01297653874
537.5 -0.06892703987 -0.04408152952
538.125 -0.08703906222 -0.004652685789
538.75 -0.09295359597 0.004027860689
539.375 -0.05937510776 -0.003534430114
540.0 -0.0707670722 -0.02904678956
540.625 -0.09368284143 -0.03763404084
541.25 -0.1022550711 -0.06433350486
541.875 -0.05646152784 -0.03250932952
542.5 -0.07147053606 -0.04919956806
543.125 -0.1205131854 -0.01283620425
543.75 -0.1058335452 0.06772307496
544.375 -0.05653599492 0.07866633001
545.0 0.02040071815 0.07385269273
545.625 0.03128381764 0.07162460613
546.25 0.05973727094 0.05749410312
546.875 0.07330908624 0.05854152673
547.5 0.07470099377 0.06032166591
548.125 0.06296036873 0.08153884836
548.75 0.04347036091 0.09003894263
549.375 0.04177354985 0.08568842452
550.0 0.002121717204 0.08649439577
550.625 -0.007504441568 0.04442053763
551.25 -0.01707088331 0.01070546347
551.875 -0.03875279468 0.006802852918
552.5 -0.063853501 0.0183181643
553.125 -0.06634310798 0.01905882662
553.75 -0.06624114168 0.01517178576
554.375 -0.06872525657 0.04995765547
555.0 -0.06614915837 0.06720566773
555.625 -0.04977734273 0.05916491999
556.25 -0.05227828583 0.05199436347
556.875 -0.07484074588 0.07817342279
557.5 -0.06275064719 0.06410717103
558.125 -0.06630027515 0.06962490233
558.75 -0.06593283823 0.04988984175
559.375 -0.05981238165 0.05290522826
560.0 -0.03121271464 0.02925650382
560.625 -0.02641043147 0.008192448662
561.25 -0.05026601199 0.01173061477
561.875 -0.06995190632 0.03377890664
562.5 -0.04828896846 0.03737169464
563.125 -0.03123552291 0.073572128
563.75 -0.0003273663415 0.09983935244
564.375 0.01932701129 0.1069490975
565.0 0.02135315966 0.09238500551
565.625 0.02710195537 0.07348920078
566.25 0.005149799771 0.07882460509
566.875 -0.02968919948 0.08117604616
567.5 -0.03590596217 0.04174859308
568.125 -0.04766998047 0.05217791889
568.75 -0.05063559942 0.0527364102
569.375 -0.04126182826 0.03638938494
570.0 -0.02361537194 0.001268759026
570.625 -0.0391269069 -0.002812805459
571.25 -0.05175174934 0.003322640485
571.875 -0.04608060131 0.01601269305
572.5 -0.06065391239 0.007962310487
573.125 -0.07434153957 0.06309264131
573.75 -0.03091948452 0.09838701477
574.375 0.0160094912 0.08220433206
575.0 -0.003185984741 0.06183961989
575.625 -0.01083946986 0.08194710331
576.25 0.0008283064291 0.09130254919
576.875 0.02752559858 0.08095990527
577.5 0.03315368536 0.07197613686
578.125 0.02268122761 0.07339819297
578.75 0.01776134794 0.05772844224
579.375 0.03299841377 0.05504912041
580.0 0.01258625681 0.03739518943
580.625 0.00192019807 0.03371355075
581.25 -0.0212325113 0.02473112063
581.875 -0.02746665289 0.04660425036
582.5 -0.04052118477 0.06822333444
583.125 -0.03045364618 0.07497805979
583.75 -0.02488312148 0.06853358399
584.375 -0.03782308309 0.05783522331
585.0 -0.05673026003 0.06645530593
585.625 -0.04928418843 0.05617281929
586.25 -0.03332262191 0.05161401816
586.875 -0.03334065593 0.05648569086
587.5 -0.04701842682 0.04676734278
588.125 -0.004863354857 0.06542211195
588.75 0.0193459677 0.05930175143
589.375 0.02334623095 0.04525104462
590.0 0.001064065293 0.0422434265
590.625 -0.01277702192 0.05164282191
591.25 0.003524558124 0.07594832581
591.875 0.02683636596 0.09280667602
592.5 0.04647078803 0.08025393359
593.125 0.03292880936 0.06038804548
593.75 0.03576348904 0.0695544942
594.375 0.005967366317 0.07866057459
595.0 -0.01213780114 0.06354314026
595.625 -0.02487049015 0.03732214087
596.25 -0.03955844816 0.02468654936
596.875 -0.04890562655 0.01377732157
597.5 -0.04256769633 0.02434564767
598.125 -0.03689169868 0.01376014287
598.75 -0.02654788839 0.004370755116
599.375 -0.02239775609 -0.001906295207
600.0 -0.0315897714 -0.03140731222
600.625 -0.04803913208 -0.04446148823
601.25 -0.0677891228 -0.03147952145
601.875 -0.07187124471 -0.02072099281
602.5 -0.06573568539 0.000924896531
603.125 -0.07367508213 -0.009825178576
603.75 -0.06355294914 -0.02612082911
604.375 -0.03841868909 -0.01586052595
605.0 -0.02951481617 -0.005495687195
605.625 -0.03440426729 -0.05011656192
606.25 -0.03724567252 -0.05181528424
606.875 -0.03071672973 -0.02377474481
607.5 -0.02300929478 -0.01003778219
608.125 -0.001045602034 -0.0381540444
608.75 -0.001541958793 -0.03622870131
609.375 0.007639543371 -0.03067462264
610.0 0.01161192093 -0.004510363498
610.625 0.04597168779 -0.04525384372
611.25 0.03917499556 -0.04606857843
611.875 0.04057496131 -0.04420385903
612.5 0.03216232224 -0.03799279411
613.125 0.01379795187 -0.02972840063
613.75 0.02072747174 -0.01613220035
614.375 0.04198920358 -0.007719467098
615.0 0.03596291554 -0.008186557943
615.625 0.01687151495 -0.006715577803
616.25 0.04165941068 -0.003392286396
616.875 0.04641768535 0.004048320799
617.5 0.04384873896 0.01607683421
618.125 0.0310114495 0.01327727872
618.75 0.05315433681 0.0151941905
619.375 0.06055334533 0.02438290993
620.0 0.06071694619 0.02292806869
620.625 0.0525197036 -0.002685311703
621.25 0.04399129402 -0.01200267459
621.875 0.03162663693 -0.01963918944
622.5 -0.009239629923 -0.004509106516
623.125 -0.02177103979 0.03644029931
623.75 0.02267822776 0.03473548389
624.375 0.01656796943 0.04838278686
625.0 -0.01156145807 0.04776865454
625.625 -0.04250992734 0.05660957456
626.25 0.0136672175 0.08289309579
626.875 0.01358024947 0.08078243067
627.5 0.00488717617 0.06887968184
628.125 -0.00730992448 0.05066191448
628.75 -0.01483452444 0.05769811925
629.375 -0.01467431111 0.04450193164
630.0 -0.005215668079 0.03416624533
630.625 -0.01571895124 0.01241352799
631.25 -0.02246338581 0.02330665547
631.875 -0.02256498506 -0.01088728237
632.5 -0.03611898676 -0.01941842121
633.125 -0.04192614175 -0.03517582189
633.75 -0.04975819345 -0.03798515721
634.375 -0.05537528488 -0.02680567127
635.0 -0.06263753085 -0.002819376697
635.625 -0.07541948786 0.006171463047
636.25 -0.06480766485 -0.01693154138
636.875 -0.047466848 0.003448503937
637.5 -0.06120295471 -0.02627153883
638.125 -0.07619448934 -0.0323768179
638.75 -0.05766955439 -0.01033247399
639.375 -0.02748828697 -0.01899517667
640.0 -0.00314408235 -0.03440779305
640.625 0.02443259692 -0.04857184177
641.25 0.01954166769 -0.05347369591
641.875 0.01699473333 -0.0525022624
642.5 0.02400167104 -0.0514787594
643.125 0.04753910232 -0.04787381561
643.75 0.05604689628 -0.03618895094
644.375 0.03137382062 -0.05882738667
645.0 0.02829573819 -0.05460965661
645.625 0.03353364116 -0.02987199087
646.25 0.03931460532 -0.02013923166
646.875 0.06592991158 -0.03106505524
647.5 0.05505295631 -0.04129611118
648.125 0.04073371643 -0.02437452701
648.75 0.05364020917 -1.289558303e-05
649.375 0.08582426995 0.02746347261
650.0 0.07411900986 0.0199863915
650.625 0.06704173931 0.02873776102
651.25 0.06508036951 0.04535577047
651.875 0.03660850109 0.09984825524
652.5 0.02239104441 0.07323481766
653.125 0.01330236464 0.06755600554
653.75 -0.002019085756 0.0580937481
654.375 -0.03912895787 0.03344511496
655.0 -0.03167913498 -0.0003181424931
655.625 -0.03771030468 -0.005716657823
656.25 -0.06055340774 0.01167097364
656.875 -0.09994286875 0.02893339724
657.5 -0.06186840234 0.01191806612
658.125 -0.08952460179 0.009341641683
658.75 -0.1122137413 0.04724515847
659.375 -0.08896950078 0.07446868239
660.0 -0.0457664438 0.08924042017
660.625 -0.01656323639 0.08001103869
661.25 -0.01536231613 0.08483229365
661.875 -0.0009727765986 0.06940259744
662.5 0.01174144843 0.05894374638
663.125 0.0004131389792 0.05342797213
663.75 -0.05719529925 0.04367385599
664.375 -0.06882269701 -0.006403015029
665.0 -0.04585208181 -0.02441747723
665.625 -0.05455081724 -0.06466277929
666.25 -0.03021647363 -0.09969249129
666.875 -0.0138794243 -0.1048580548
667.5 -0.0148433972 -0.08681055211
668.125 -0.01678143756 -0.09292340358
668.75 -0.009333024855 -0.0838826639
669.375 0.002174854633 -0.07369841659
670.0 0.006545083412 -0.04576427051
670.625 0.0193620379 -0.06749989412
671.25 0.003446616202 -0.06789888259
671.875 0.002961472241 -0.0808381303
672.5 -0.01802054743 -0.07583259617
673.125 -0.04037784016 -0.08878180928
673.75 -0.06015726914 -0.08969628779
674.375 -0.05526251447 -0.09648935819
675.0 -0.009411948029 -0.09166524337
675.625 0.0227396538 -0.07245375802
676.25 0.03997242521 -0.07203905164
676.875 0.05489214114 -0.07473095676
677.5 0.04781588365 -0.0336301879
678.125 0.03491931324 -0.002293517917
678.75 0.05023069051 0.009025806202
679.375 0.09022617535 0.01635964531
680.0 0.09183287209 0.02863252384
680.625 0.09521838792 0.008837321868
681.25 0.09457555213 -0.02750846707
681.875 0.0951040571 -0.07699554996
682.5 0.07878183595 -0.1287384205
683.125 0.03254537396 -0.07803808821
683.75 0.04183516143 -0.06241218067
684.375 0.08140951824 -0.03424485475
685.0 0.07997491947 0.03959161333
685.625 0.02573039167 0.04391361339
686.25 -0.008032067376 0.05693183986
686.875 -0.04857417073 0.04614846636
687.5 -0.08312209835 0.02345827112
688.125 -0.093496902 0.006525580849
688.75 -0.1252780217 0.01841463686
689.375 -0.1306361613 0.003425865311
690.0 -0.1030568704 0.007625813175
690.625 -0.1136056385 0.03180527634
691.25 -0.1102651397 0.06903756936
691.875 -0.05526706445 0.07398906723
692.5 0.01873562442 0.06687092038
693.125 0.05814761335 0.04137379817
693.75 0.05959177924 0.05367527746
694.375 0.07850154264 0.0690834603
695.0 0.05986056455 0.08006242568
695.625 -0.01187505755 0.09800924187
696.25 -0.1134587218 0.05390593272
696.875 -0.08753196927 -0.07011338925
697.5 -0.03061731239 -0.1066048327
698.125 -0.01706527913 -0.1011243228
698.75 -0.0154214288 -0.09744292753
699.375 -0.001192604364 -0.07258491657
700.0 0.02226647377 -0.07671037412
700.625 0.06342032408 -0.06203843572
701.25 0.0653259258 -0.02929790315
701.875 0.06583465437 -0.03001496028
702.5 0.06663169122 -0.09541643183
703.125 0.006562233956 -0.1634285006
703.75 -0.09986719339 -0.091960411
704.375 -0.08011102637 -0.02053130377
705.0 -0.08924570974 -0.01619003475
705.625 -0.09260938746 -0.07479150954
706.25 -0.004208409909 -0.09042089502
706.875 0.0447986623 -0.03716533641
707.5 0.0581964605 6.45815525e-05
708.125 0.04892343897 0.0646272801
708.75 -0.00128380094 0.09255691041
709.375 -0.04700561391 0.07884627208
710.0 -0.0764113209 0.0413525763
710.625 -0.08777238972 -0.004019278839
711.25 -0.1040313668 -0.01333475873
711.875 -0.1127162352 -0.02087127479
712.5 -0.1055937325 0.05032289525
713.125 -0.01667145516 0.09140288746
713.75 0.04526531249 0.06071030538
714.375 0.07985039285 0.03404823729
715.0 0.03528920415 0.06003729212
715.625 0.01472003016 0.0562201182
716.25 0.000747532338 0.06470795956
716.875 -0.0192666786 0.08986043353
717.5 -0.1010302803 0.04541574181
718.125 -0.08728571018 0.01499179809
718.75 -0.08736466274 0.005912271391
719.375 -0.09123975113 -0.02071235857
720.0 -0.07888043128 -0.05695253127
720.625 0.03894100153 -0.07992571293
721.25 0.0713352486 -0.03122833034
721.875 0.06074240624 0.01789149728
722.5 0.0110748398 0.04294589063
723.125 0.01238958211 0.06035751736
723.75 0.06239052035 0.05756952615
724.375 0.0838770766 -0.008043652166
725.0 0.03597768815 -0.05395276537
725.625 0.05892247836 -0.08319859232
726.25 0.03695743789 -0.09028178038
726.875 0.04463343838 -0.06928341874
727.5 0.01765995158 -0.05771524712
728.125 0.05763803959 -0.01081357737
728.75 0.06391848622 0.0191454264
729.375 0.06316102413 0.00571617404
730.0 0.04938683381 -0.01446847533
730.625 0.02146196555 -0.01090343474
731.25 0.03069204629 0.07572700089
731.875 -0.0223809676 0.07090683916
732.5 -0.05126289451 0.03884247814
733.125 -0.05711924986 0.02415015909
733.75 -0.09011605184 0.01204179697
734.375 -0.05828546868 0.03685984136
735.0 -0.03126510563 0.03644389091
735.625 -0.009032441045 0.02439265058
736.25 -0.02867713178 0.03761537323
736.875 -0.04398307495 0.03155749362
737.5 -0.05970430262 0.01127511651
738.125 -0.05312130525 -0.006366460948
738.75 -0.1040906987 0.007363248098
739.375 -0.07949239709 0.01022540599
740.0 -0.05041403889 -0.007637062174
740.625 -0.04038376398 -0.004650907555
741.25 -0.05248724354 -0.002304853042
741.875 -0.03596111732 -0.02748903866
742.5 0.01699382855 -0.06111591915
743.125 0.0380480034 0.01100205034
743.75 0.01805162455 0.02861728363
744.375 0.0113823716 0.03229338775
745.0 -0.007473359825 0.04140769775
745.625 -0.008411357437 0.05195967131
746.25 0.02796255361 0.06218002122
746.875 0.08257788727 0.00999529357
747.5 0.0583484638 -0.03142319991
748.125 0.02959204747 -0.03238625561
748.75 0.0247139054 -0.01283867955
749.375 -0.009833390008 -0.03914381121
750.0 -0.04063303697 -0.01598720765
