!Created with skrf (http://scikit-rf.org).
# GHz S RI R 50.0 
!freq ReS11 ImS11
500.0 -0.01362277507 0.006715018708
500.625 0.001712242875 -0.0001902546219
501.25 0.005249040977 -0.01241095589
501.875 -0.02115542805 -0.01848996093
502.5 -0.002687587334 0.00479450345
503.125 -0.02084700864 0.0009976618904
503.75 -0.01303625254 0.0007577795164
504.375 0.01075409578 -0.01891040904
505.0 0.007114673792 -0.01900788775
505.625 -0.009953105625 -0.009686386918
506.25 -0.01722999697 -0.04896965577
506.875 0.004423794747 -0.0851009261
507.5 -0.02896196549 -0.03243578134
508.125 -0.01140942349 -0.05279544235
508.75 -0.04755950657 -0.03591427508
509.375 -0.05141997625 -0.02460069758
510.0 -0.02507067322 -0.02023392025
510.625 -0.02535018034 0.008200902722
511.25 -0.04271715476 0.01346820868
511.875 -0.05479559621 0.03598595429
512.5 -0.003498690942 0.04039565963
513.125 0.0548720695 0.0003914673864
513.75 0.05734793639 0.01024709758
514.375 0.04868225863 0.006732712313
515.0 0.02786356843 -0.03120033201
515.625 0.07363086825 0.03232968023
516.25 0.08355857343 0.02026442075
516.875 0.05256668442 0.08269659796
517.5 0.09949971453 0.009760400691
518.125 0.1239520496 0.1887560192
518.75 0.1066416458 -0.004612749371
519.375 0.06650092487 0.0003852968918
520.0 0.04350974864 -0.04303013463
520.625 0.09650404807 -0.05236779748
521.25 0.07694653539 -0.06474692887
521.875 0.05645314441 -0.02211276975
522.5 0.03432388939 -0.06943462193
523.125 0.1383126299 -0.1790893327
523.75 0.05583657537 -0.2297688768
524.375 0.05043275453 -0.2326319728
525.0 -0.003226822402 -0.1010357238
525.625 -0.003827765307 -0.06727035514
526.25 0.04123804438 -0.05156291596
526.875 0.01441749886 -0.05527932358
527.5 -0.02423481105 -0.05372311017
528.125 -0.02936628998 -0.03662664714
528.75 -0.03359723167 -0.06166995771
529.375 -0.09492667757 -0.0286444188
530.0 -0.0739346284 0.03702142439
530.625 -0.01100698047 0.03333156955
531.25 -0.0396304247 0.01790030994
531.875 -0.101063103 0.04403281905
532.5 -0.07215439513 0.08141830716
533.125 -0.04478795455 0.0707518439
533.75 -0.03502550349 0.09360480463
534.375 -0.04669747391 0.09751514402
535.0 -0.01516681919 0.08720391872
535.625 -0.03282351119 0.06752891275
536.25 0.01543099489 0.07372108444
536.875 -0.01734606792 0.06043370962
537.5 -0.05935847103 0.03505889939
538.125 -0.05216953227 0.05143747688
538.75 -0.03778987509 0.1162152296
539.375 -0.05211775864 0.0847578245
540.0 -0.01430452561 0.05302725175
540.625 -0.04185099661 0.05152148701
541.25 -0.06661401124 0.07510900553
541.875 -0.06698278799 0.04363701008
542.5 -0.06079672408 0.01896743931
543.125 -0.05823284881 0.04559566769
543.75 -0.01446089238 0.1326939477
544.375 0.01619185391 0.1265943083
545.0 0.07241151473 0.03607186606
545.625 0.09951033413 -0.008882324759
546.25 0.1155471831 -0.03275651141
546.875 0.1002698626 -0.03201697926
547.5 0.08162349156 -0.0276729054
548.125 0.1231260727 -0.01710256055
548.75 0.1414662364 0.03277114143
549.375 0.1225954513 0.03816869773
550.0 0.1005336965 0.053547268
550.625 0.1081680577 0.07410320123
551.25 0.03760038838 0.0892769507
551.875 0.03187740282 0.04241077784
552.5 0.03081832741 0.02100888953
553.125 0.0307977683 0.04165267333
553.75 0.009269581236 0.05921378586
554.375 0.01176594238 0.04658881435
555.0 0.01700805416 0.04647904873
555.625 0.06074698558 0.07956280935
556.25 0.01725384878 0.07473136947
556.875 0.01255981744 0.06829964991
557.5 0.01968950437 0.09379510702
558.125 0.01243528015 0.1071641909
558.75 -0.01579594301 0.1084344875
559.375 0.0191887511 0.1012534242
560.0 0.02344374226 0.07647289434
560.625 0.03031085473 0.06694657727
561.25 0.03107912589 0.0454448077
561.875 0.03467359423 0.05368282509
562.5 0.02969595584 0.05373962516
563.125 0.03482375995 0.05024572965
563.75 0.0663614499 0.03308235987
564.375 0.1026508595 0.02785546663
565.0 0.08408782216 0.05323630248
565.625 0.0959962412 0.02931800405
566.25 0.09314657015 0.02804656511
566.875 0.08596267511 0.05496399718
567.5 0.03909599386 0.08848825531
568.125 0.02655715679 0.08574521854
568.75 0.02443239147 0.09273485166
569.375 0.03089432991 0.1024509662
570.0 0.01693684448 0.07479088412
570.625 0.02583008955 0.05951174837
571.25 0.03610806079 0.06646148014
571.875 0.02100444384 0.05215718626
572.5 0.0111627138 0.03351104277
573.125 0.02177481473 0.0506191401
573.75 0.05960744381 0.066469845
574.375 0.08346991977 0.04430607763
575.0 0.05774636232 0.02084792663
575.625 0.06833312369 -0.001593088567
576.25 0.09622939315 0.02026092955
576.875 0.085513019 0.03087156542
577.5 0.07338522441 0.02582067897
578.125 0.09245825195 -0.0002075517623
578.75 0.1130855663 0.01779268964
579.375 0.09143611962 0.01948097366
580.0 0.08337338983 0.00327349587
580.625 0.08825734818 -0.0167183801
581.25 0.0672504452 -0.008470328006
581.875 0.03923287343 0.009590924805
582.5 0.03806309453 0.03112685151
583.125 0.04281342154 0.05849887647
583.75 0.04666133856 0.05398565762
584.375 0.05375275297 0.04093350033
585.0 0.04043804318 0.05341021463
585.625 0.02137721043 0.08084631888
586.25 0.02662832639 0.06808961384
586.875 0.04152740909 0.04668961027
587.5 0.04859991091 0.05989508865
588.125 0.05713871296 0.06097367547
588.75 0.06700836599 0.03997369704
589.375 0.07555524368 -0.028177723
590.0 0.06386132234 -0.0449778358
590.625 0.03462677322 0.01508712559
591.25 0.03305992123 0.02366306624
591.875 0.05176428355 0.008390408922
592.5 0.08530377646 -0.006736536517
593.125 0.08353091187 0.03260410047
593.75 0.06579985408 0.0270786103
594.375 0.07826234429 0.01550392768
595.0 0.07392703915 0.05827751716
595.625 0.02461465908 0.07174818701
596.25 0.02335962901 0.06109431305
596.875 0.02194433181 0.06410572936
597.5 0.005612619517 0.07646665542
598.125 -0.01451200891 0.0658636441
598.75 0.02642718152 0.05941627466
599.375 0.03882396247 0.03417650726
600.0 0.003042715831 0.03143360793
600.625 -0.02049952221 0.01397628059
601.25 -0.04317019328 0.02412758885
601.875 -0.01727237881 0.03532177032
602.5 -0.02934063274 0.04241201379
603.125 -0.06088575114 0.04425282068
603.75 -0.02042412213 0.05381093033
604.375 -0.04711267998 0.05688615551
605.0 -0.04021227215 0.02914039443
605.625 -0.05159442497 0.01387164063
606.25 -0.07904786681 0.001807859164
606.875 -0.08728178551 0.008336128942
607.5 -0.03469012725 0.04254176709
608.125 -0.03523821527 0.03297038568
608.75 -0.01114787855 0.02893244818
609.375 -0.03452179546 0.01685841664
610.0 -0.02469995509 -0.0001177012552
610.625 -0.0220780355 -0.0118126226
611.25 -0.01550490795 -0.03632576926
611.875 -0.01301076148 -0.05209384219
612.5 -0.003546606289 -0.03014329319
613.125 -0.01804400475 -0.04028372386
613.75 -0.00959038707 -0.06866852306
614.375 -0.005823825393 -0.01109660407
615.0 0.0002717347651 -0.01855614183
615.625 -0.005643353919 -0.03258146159
616.25 -0.008460595693 -0.04399069813
616.875 0.003285198865 0.00106087266
617.5 0.01877423742 0.001955882304
618.125 0.02884472901 -0.01470198092
618.75 0.03163801062 -0.04517209229
619.375 0.03485795414 0.0035174133
620.0 0.05257927313 0.004037562963
620.625 0.05281587266 -0.04458075059
621.25 0.06172848331 -0.08053396618
621.875 0.03862668593 -0.05722323334
622.5 -0.01064709956 -0.02884049989
623.125 -0.02258074303 -0.01392981836
623.75 -0.007186435365 -0.0245301924
624.375 0.01669033826 0.02194454505
625.0 0.01565392641 0.008968600928
625.625 0.0160245187 0.01893595985
626.25 0.02567815206 0.02893221302
626.875 0.05512349405 0.03071507028
627.5 0.06035303849 0.0385311942
628.125 0.0313626199 0.06186704329
628.75 0.04281816704 0.04728082064
629.375 0.07436611856 0.04848947896
630.0 0.05214044459 0.06884252191
630.625 0.01864857041 0.05497907908
631.25 0.03304437171 0.04173111511
631.875 0.01950977882 0.04209862245
632.5 0.006986606265 0.02827662702
633.125 -0.03475953435 0.02629446355
633.75 -0.03283588448 0.03822949696
634.375 -0.0005365923007 0.05256573397
635.0 -0.05174583792 0.0408602492
635.625 -0.03106203708 0.05411605359
636.25 -0.02368385274 0.06926546179
636.875 -0.02439428725 0.05079647595
637.5 -0.008398246924 0.04720328774
638.125 -0.02903837133 0.05859980932
638.75 -0.08218186293 0.07118280209
639.375 -0.06636318552 0.04375146209
640.0 -0.03958755776 0.04302212481
640.625 -0.0490411812 0.01604893907
641.25 -0.06291242207 -0.05074006273
641.875 -0.04499267121 -0.0378780835
642.5 -0.04446922128 -0.03092754944
643.125 -0.04065856968 -0.0450378682
643.75 -0.02857853649 -0.09461173041
644.375 -0.03213209947 -0.06476555764
645.0 -0.06334411402 -0.03634895151
645.625 -0.07976002683 -0.03977984237
646.25 -0.04557024645 -0.07282228726
646.875 -0.01913594051 -0.06186587654
647.5 -0.04464719437 -0.03819836135
648.125 -0.04584518421 -0.06769734426
648.75 -0.005969092817 -0.05922508344
649.375 0.0166406004 -0.045644496
650.0 0.02576567524 -0.04486334531
650.625 0.07034247651 -0.05263597055
651.25 0.0721923632 -0.02610231265
651.875 0.08081482736 -0.00561743035
652.5 0.1017942295 0.03331574393
653.125 0.09309410032 0.04985167893
653.75 0.08644485014 0.06053614465
654.375 0.08589606398 0.06174269464
655.0 0.06934542776 0.04019243218
655.625 0.01563731093 0.06692045974
656.25 0.01697155648 0.04362528563
656.875 0.03917188081 0.05007114822
657.5 0.01905927425 0.07160427884
658.125 0.00101357344 0.04149187993
658.75 -0.00532519513 0.05606052101
659.375 0.05305147621 0.1089625243
660.0 0.07738935632 0.1063242394
660.625 0.07379359693 0.04807681134
661.25 0.08728192202 0.03393633553
661.875 0.1321152911 0.02076017855
662.5 0.1109764119 0.006282970247
663.125 0.08824172973 0.003605396363
663.75 0.06668942037 0.02355026599
664.375 0.02138170805 0.09461391165
665.0 -0.02785785522 0.05983806673
665.625 -0.04450731689 0.04190536733
666.25 -0.08834953745 0.05010153892
666.875 -0.12075276 -0.0175454707
667.5 -0.08077126631 -0.03240740212
668.125 -0.1085497172 -0.01686172292
668.75 -0.1392107138 0.008208691105
669.375 -0.1138415347 -0.01599242428
670.0 -0.07043684563 -0.02406509334
670.625 -0.08993811947 -0.02314885596
671.25 -0.0986468248 -0.005526020509
671.875 -0.1003327035 0.006733499259
672.5 -0.06874037281 0.01976184572
673.125 -0.07519778045 0.035465144
673.75 -0.1127167992 0.04604445747
674.375 -0.1179888427 0.02382936078
675.0 -0.08826088135 -0.008130537045
675.625 -0.1221475869 -0.05469068268
676.25 -0.0884404612 -0.1006465736
676.875 -0.06427600936 -0.09612878278
677.5 -0.07239188899 -0.07083633669
678.125 -0.08330584301 -0.1072779438
678.75 -0.01910348571 -0.06027204496
679.375 0.001578919933 -0.05273128675
680.0 -0.0006207882215 -0.06647023795
680.625 0.008709210072 -0.07463583854
681.25 0.004722268864 -0.09208515777
681.875 -0.02559196023 -0.0926408319
682.5 -0.08698227927 -0.08659928828
683.125 -0.1150911503 -0.1038449254
683.75 -0.08427943364 -0.1247932753
684.375 -0.00917996195 -0.1036711974
685.0 0.05756230878 -0.1301457295
685.625 0.1195687558 -0.05118583168
686.25 0.09193380546 -0.001942103537
686.875 0.07532152791 0.01668914447
687.5 0.06853703415 0.0485642402
688.125 0.01724500572 0.06842401576
688.75 -0.01149060569 0.06201183856
689.375 -0.0123745851 0.09491266232
690.0 -0.01948503723 0.1394466258
690.625 -0.02083042167 0.1157990739
691.25 0.01233106389 0.1030422629
691.875 0.1488292988 0.09159044978
692.5 0.1936461428 0.006058759005
693.125 0.07275023925 -0.07833252109
693.75 0.00949811889 -0.08899618148
694.375 0.01285117635 -0.1070373211
695.0 0.08937153356 -0.06233164576
695.625 0.1068716996 0.007409884887
696.25 0.04361458678 0.07916181581
696.875 -0.06583255576 0.07075779932
697.5 -0.1278427473 0.03109554132
698.125 -0.1277410663 -0.0180985402
698.75 -0.1362486657 0.002930842707
699.375 -0.09729695318 -0.02279242585
700.0 -0.08194473337 -0.03200318232
700.625 -0.09846127004 -0.04557023918
701.25 -0.09252942499 -0.07805320507
701.875 -0.02602367901 -0.05262999489
702.5 -0.03552029081 -0.0465127843
703.125 -0.09756654754 0.001162727531
703.75 -0.1388804592 0.09444610077
704.375 -0.08792598298 0.1121765382
705.0 -0.04004848051 0.1016685473
705.625 -0.07476501812 0.07770850667
706.25 -0.1547813439 0.04122295641
706.875 -0.07817414114 -0.1128273117
707.5 -0.008233671187 -0.07320346655
708.125 0.02126269159 -0.06592082188
708.75 0.06732233869 -0.06542755727
709.375 0.08163020105 0.0388619409
710.0 0.0172198997 0.07012033699
710.625 0.03623713579 0.07267972178
711.25 0.002423679024 0.08204635523
711.875 -0.03301170007 0.09658402554
712.5 -0.01771664639 0.1303860672
713.125 0.09576732696 0.1106582956
713.75 0.1306555435 -0.05842117242
714.375 0.05740263522 -0.1076125129
715.0 0.05091781997 -0.1110467999
715.625 0.04585085553 -0.1214935293
716.25 0.06886693542 -0.0199261843
716.875 0.05935917322 -0.001678686377
717.5 0.06388379821 0.06045511278
718.125 -0.01736274174 0.1148017258
718.75 -0.01237806791 0.08521912239
719.375 -0.009707694654 0.07037885394
720.0 -0.07182430598 0.05011548518
720.625 -0.1069789158 -0.05724431966
721.25 -0.0122151999 -0.1149982622
721.875 0.03494544992 -0.1005799994
722.5 0.08062915748 -0.07735929368
723.125 0.06647746303 -0.05731701787
723.75 0.02988466364 -0.06178092643
724.375 -0.04253147303 -0.04807682574
725.0 -0.0571344816 -0.0222077245
725.625 -0.05917699577 -0.03393171321
726.25 -0.06968133922 -0.03184054873
726.875 -0.08080012073 -0.0751365847
727.5 -0.05457913622 -0.08538680047
728.125 -0.02472950496 -0.09039854389
728.75 0.01300603448 -0.106091462
729.375 0.002995378514 -0.09438551082
730.0 -0.0336092171 -0.05149291138
730.625 -0.008448882051 -0.06247011733
731.25 0.03075456703 -0.05281802866
731.875 0.02175129584 -0.02113188726
732.5 0.03678191329 0.04647382541
733.125 0.005064562737 0.03257507008
733.75 0.02368028123 0.08559550737
734.375 0.02807498755 0.07358068248
735.0 0.04216772901 0.00935117122
735.625 0.04658927133 0.008755189685
736.25 0.08400155294 0.01077447167
736.875 0.008899643255 -0.01762869031
737.5 -0.01149154924 -0.004776281691
738.125 -0.01523503569 0.049696035
738.75 -0.02565456485 0.08736242821
739.375 -0.01356442128 0.0467640861
740.0 0.0152301755 0.07164168687
740.625 -0.0181160221 0.01803647855
741.25 -0.005139636488 0.06179290027
741.875 -0.06394931944 0.06717963735
742.5 -0.02410020814 -0.02806883718
743.125 0.02491859488 -0.023965244
743.75 0.04696162977 -0.03502370906
744.375 0.0522460268 -0.06612708394
745.0 0.03158971474 -0.06793797219
745.625 0.02423558242 -0.005929202451
746.25 0.03137453474 0.00124615568
746.875 0.01569886251 -0.0499838044
747.5 0.02037148923 -0.05848644316
748.125 -0.01568738605 -0.05291151399
748.75 -0.03818229428 -0.03535412364
749.375 -0.05241239376 0.007621038887
750.0 -0.007535195059 0.09654354571
