!Created with skrf (http://scikit-rf.org).
# GHz S RI R 50.0 
!freq ReS11 ImS11
500.0 -0.003194971103 0.01615314075
500.625 0.01735072925 0.01054498403
501.25 0.02076510709 -0.01133279832
501.875 0.01146235578 -0.01947879325
502.5 0.001688258931 0.004698934829
503.125 0.01380089432 0.004218508974
503.75 0.01754880817 -0.01339351385
504.375 0.01370890511 -0.02336177022
505.0 0.01051507739 -0.02774645318
505.625 0.006351999794 -0.04624137709
506.25 -0.01866913385 -0.05793401161
506.875 0.0001319175455 -0.08537910959
507.5 -0.02140041956 -0.06690090018
508.125 -0.00187367658 -0.07542974366
508.75 -0.05454032006 -0.07765494767
509.375 -0.05443765025 -0.05021890422
510.0 -0.03119411211 -0.05192917347
510.625 -0.05112278482 -0.006723145079
511.25 -0.07559215784 0.003558613761
511.875 -0.0542035258 0.03920455392
512.5 -0.007058729849 0.05127509648
513.125 0.05964219809 0.04056654167
513.75 0.07540053356 0.03753088799
514.375 0.06149524848 0.008015671645
515.0 0.06622290792 -0.02091733428
515.625 0.09284451513 0.03722027646
516.25 0.1075482774 0.0146429136
516.875 0.06865888807 0.09192215625
517.5 0.130754466 0.00748356251
518.125 0.1447401222 0.1823025948
518.75 0.1107964853 -0.01484308103
519.375 0.07985932961 -0.002451994244
520.0 0.08574578577 -0.05212442212
520.625 0.1109681397 -0.06270069738
521.25 0.07392478172 -0.07510531915
521.875 0.06315992565 -0.03021798489
522.5 0.04780976872 -0.09289754317
523.125 0.1287908365 -0.1986031755
523.75 0.07545046889 -0.2663471122
524.375 0.06628829355 -0.2635975968
525.0 0.03019688019 -0.122793766
525.625 0.02900899491 -0.08313543874
526.25 0.04013046426 -0.05932390493
526.875 0.01944804533 -0.07147220214
527.5 0.002025514631 -0.08668024926
528.125 -0.0266274467 -0.06008125204
528.75 -0.04461767392 -0.06195553348
529.375 -0.1173315381 -0.02470209351
530.0 -0.09936405001 0.03840169223
530.625 -0.0291103682 0.05392606703
531.25 -0.04932867042 0.04086779638
531.875 -0.1136224151 0.0867166244
532.5 -0.1120905767 0.1216617336
533.125 -0.06689363744 0.09685679299
533.75 -0.02366549799 0.09682007835
534.375 -0.03683335802 0.1208239751
535.0 -0.03547513215 0.1238582651
535.625 -0.04033071319 0.08036600483
536.25 0.02399352368 0.07766378952
536.875 -0.008813131675 0.0909237275
537.5 -0.07196093697 0.05810114464
538.125 -0.05079891244 0.0717167635
538.75 -0.02635160141 0.1248063028
539.375 -0.05763432734 0.1151657627
540.0 -0.0463699092 0.0925343804
540.625 -0.04298494596 0.08316542529
541.25 -0.06002456614 0.1040304408
541.875 -0.07573645687 0.07713065184
542.5 -0.06263534678 0.03271975389
543.125 -0.05321222909 0.07139272102
543.75 0.003260426964 0.137861538
544.375 0.03334534636 0.1393107137
545.0 0.09714407059 0.04610488718
545.625 0.1116215368 -0.02365672951
546.25 0.1225142224 -0.05639562415
546.875 0.1070493807 -0.04889653793
547.5 0.1157319643 -0.04882164992
548.125 0.1482923291 -0.04708758967
548.75 0.1619189558 0.01543556757
549.375 0.1440088552 0.02962580001
550.0 0.1381504703 0.06573400768
550.625 0.1395173996 0.08839611104
551.25 0.05693081837 0.1009586228
551.875 0.04726645567 0.04905371653
552.5 0.0610000044 0.04216229274
553.125 0.07321088618 0.06407121002
553.75 0.02387863936 0.05950089473
554.375 0.02485010367 0.04502666296
555.0 0.05372353106 0.05497958967
555.625 0.07849512607 0.06879266435
556.25 0.0397183173 0.07917676631
556.875 0.0310464288 0.06742343119
557.5 0.04682959525 0.0928839062
558.125 0.03725463663 0.121379639
558.75 -0.001773791572 0.1169477134
559.375 0.03172448809 0.1057507066
560.0 0.04734123969 0.1130271158
560.625 0.04489946516 0.07588424843
561.25 0.04291600708 0.04383578011
561.875 0.04983820136 0.04633905205
562.5 0.06433844675 0.04918943389
563.125 0.05934502904 0.0432381967
563.75 0.06779288941 0.02277033206
564.375 0.1083816273 0.001885621977
565.0 0.1324886918 0.04042329115
565.625 0.1119577554 0.01760553585
566.25 0.09751079154 0.01760351038
566.875 0.1041482225 0.03813714813
567.5 0.07466414509 0.09075588418
568.125 0.04280099373 0.08881492514
568.75 0.05452831377 0.1032811023
569.375 0.04954954791 0.1082701657
570.0 0.04072793576 0.0911441599
570.625 0.03773347232 0.06182422306
571.25 0.05976617545 0.06162872568
571.875 0.04572039155 0.0590009913
572.5 0.03500471072 0.03079462634
573.125 0.0387531798 0.03766883561
573.75 0.08914473466 0.03617649404
574.375 0.1072494696 0.02377668361
575.0 0.07674602195 0.0008545568104
575.625 0.06511639294 -0.01485237594
576.25 0.09839755167 -0.002268122393
576.875 0.09919675998 0.01261603482
577.5 0.08973795018 0.002988845374
578.125 0.09613297929 -0.01799916882
578.75 0.1241874405 -0.01465086019
579.375 0.1059405355 0.002084998207
580.0 0.09435425874 -0.01702006214
580.625 0.09571539959 -0.04134392366
581.25 0.08275748407 -0.04100694728
581.875 0.05161818315 -0.003871013467
582.5 0.04835892138 0.007135307011
583.125 0.08362520967 0.01732870096
583.75 0.08464498827 0.02920827045
584.375 0.06320325589 0.03200192943
585.0 0.05208291086 0.0412853284
585.625 0.07135830534 0.05812743312
586.25 0.06319962815 0.0605821054
586.875 0.05444851741 0.03704298268
587.5 0.07152044427 0.03065318621
588.125 0.09560197975 0.01759437832
588.75 0.09686879275 0.01050807935
589.375 0.07570239369 -0.03730383186
590.0 0.05511065402 -0.06972162122
590.625 0.04328244648 -0.0479098331
591.25 0.03571813576 -0.009335208886
591.875 0.04603173211 -0.004019002792
592.5 0.07269378479 -0.02820965396
593.125 0.08800201297 -0.03101468781
593.75 0.07656878856 -0.01023365449
594.375 0.07788005087 0.00459067779
595.0 0.09114798143 0.02895060326
595.625 0.07779065138 0.04938620646
596.25 0.05010410923 0.05087519416
596.875 0.04095214009 0.05379638524
597.5 0.03252974025 0.07308655987
598.125 0.0407085328 0.06739923201
598.75 0.05743041656 0.04506183206
599.375 0.05769692972 0.03152987035
600.0 0.04265483077 0.02319555186
600.625 0.01899189928 0.01288518908
601.25 0.004336216406 0.01547916095
601.875 -0.004820856193 0.03421389046
602.5 -0.0139184579 0.04306095201
603.125 -0.01598646262 0.0426069969
603.75 -0.008995008195 0.05150129393
604.375 -0.003695440663 0.057141804
605.0 -0.01443356425 0.04183376888
605.625 -0.02196043557 0.02441245093
606.25 -0.0388295017 0.02696577806
606.875 -0.04818394896 0.04153865763
607.5 -0.03077229835 0.05020093476
608.125 -0.00264262014 0.04373256625
608.75 0.0006819168358 0.03606975101
609.375 -0.00298293862 0.03217206105
610.0 -0.004417099031 0.02331739854
610.625 0.005909497817 0.01119598395
611.25 0.004636211547 -0.003089565204
611.875 0.001111518408 -0.01582093735
612.5 -0.006523588951 -0.02508066355
613.125 -0.01887455084 -0.02299002314
613.75 -0.01722752581 -0.00762936771
614.375 -0.006409732977 -0.001338788021
615.0 0.003641681462 -0.006453182024
615.625 -0.002527523518 -0.01608985559
616.25 -0.00494613458 -0.003778035083
616.875 0.003899427495 0.007117041577
617.5 0.01958564158 0.005572801071
618.125 0.02272476432 -0.001782159988
618.75 0.02543790426 0.003094668687
619.375 0.03440004603 0.008444220173
620.0 0.05215419803 0.003895157425
620.625 0.05305208485 -0.02242418513
621.25 0.04673115852 -0.03041327478
621.875 0.0327175696 -0.03840135498
622.5 -0.008219291957 -0.0298564108
623.125 -0.01070992932 -0.002850881316
623.75 0.009550532974 0.01392527537
624.375 0.02033146222 0.02302435438
625.0 0.01343421863 0.03562589019
625.625 0.01086577679 0.04009150585
626.25 0.03183930603 0.0554134967
626.875 0.05410787529 0.06694512996
627.5 0.04613811069 0.06895506172
628.125 0.0366715872 0.06004110461
628.75 0.03723515315 0.06661553424
629.375 0.03385242578 0.08386095364
630.0 0.02173415378 0.07448842124
630.625 0.01650380903 0.05838604551
631.25 0.008847657186 0.05585113168
631.875 -0.01052819236 0.05001430339
632.5 -0.02310573571 0.03655671472
633.125 -0.02880776734 0.031959249
633.75 -0.03418100754 0.04703994031
634.375 -0.04879730059 0.04766373792
635.0 -0.0484030671 0.04984046187
635.625 -0.04187067509 0.07213953034
636.25 -0.03840744761 0.08756838354
636.875 -0.04472190069 0.06521210873
637.5 -0.04456700499 0.04910806463
638.125 -0.06290347056 0.07306988506
638.75 -0.08236655449 0.08122550038
639.375 -0.07617736893 0.04565176862
640.0 -0.05898757586 0.01925758323
640.625 -0.07293120835 -0.001457883004
641.25 -0.08076971972 -0.04184729393
641.875 -0.0582912799 -0.04547518022
642.5 -0.05588572351 -0.04085340645
643.125 -0.06528076193 -0.06182568656
643.75 -0.04605268937 -0.09436445768
644.375 -0.04213172183 -0.08231684856
645.0 -0.07457671962 -0.06207458507
645.625 -0.08736693199 -0.06930565196
646.25 -0.06489207984 -0.06823430157
646.875 -0.03474011032 -0.06577766883
647.5 -0.0551907421 -0.06718172662
648.125 -0.05805066549 -0.0834490227
648.75 -0.02047421826 -0.07202574257
649.375 0.007402263221 -0.0580434481
650.0 0.03408498367 -0.07565973038
650.625 0.0694603293 -0.07287147669
651.25 0.08204834382 -0.04305781462
651.875 0.09161477744 -0.01963713468
652.5 0.1313192363 0.01720295363
653.125 0.1209076793 0.06070759602
653.75 0.1031506958 0.0585546015
654.375 0.1019186327 0.0579443895
655.0 0.08519579485 0.08891031187
655.625 0.03303822766 0.07873607612
656.25 0.03356451464 0.05315581593
656.875 0.06454115417 0.05404463452
657.5 0.05069106334 0.08696344631
658.125 0.007425151247 0.0862739608
658.75 0.008233506282 0.07858594757
659.375 0.06759554567 0.09488836033
660.0 0.1028522152 0.09815965312
660.625 0.1071457518 0.07285838919
661.25 0.1152804472 0.03477667372
661.875 0.1404581918 -0.001427343132
662.5 0.1363466331 -0.01377332089
663.125 0.1107776656 -0.006995938681
663.75 0.1066655363 0.02804450421
664.375 0.04478122886 0.1015833109
665.0 -0.01897164334 0.0872566059
665.625 -0.03752583202 0.06130843248
666.25 -0.06987953003 0.06916184883
666.875 -0.1327954388 0.01498763948
667.5 -0.1128358096 -0.02253395636
668.125 -0.1101816224 -0.002488370895
668.75 -0.137951527 0.03563041911
669.375 -0.1458171426 0.00725077747
670.0 -0.09877596089 -0.01782308732
670.625 -0.09498682817 -0.006675551917
671.25 -0.125140594 0.02609226746
671.875 -0.1164795531 0.03650224179
672.5 -0.07719038564 0.04814528875
673.125 -0.06787816042 0.05709603964
673.75 -0.09900085169 0.07107869752
674.375 -0.1153563361 0.04845708131
675.0 -0.1193035349 0.017211313
675.625 -0.1346054389 -0.02842828918
676.25 -0.1086341642 -0.08590561454
676.875 -0.08739956012 -0.09377417563
677.5 -0.1099338409 -0.07557839172
678.125 -0.1210841598 -0.09728455209
678.75 -0.04831862648 -0.08883710488
679.375 -0.01546663812 -0.06144453869
680.0 -0.03057314311 -0.06763927514
680.625 -0.04990428568 -0.1127876753
681.25 -0.03132138565 -0.1150941373
681.875 -0.03933888695 -0.08598663321
682.5 -0.1015365844 -0.06549226774
683.125 -0.1533044189 -0.07194655797
683.75 -0.1211643617 -0.1132582103
684.375 -0.03973068482 -0.1220968981
685.0 0.03372088122 -0.1385621555
685.625 0.1243021762 -0.09608142143
686.25 0.1373234519 -0.03566920588
686.875 0.1194476694 -0.005203244479
687.5 0.09396596979 0.03912777686
688.125 0.05605630031 0.06636745296
688.75 0.03321899673 0.07606080935
689.375 0.04403833937 0.1040252331
690.0 0.0151547562 0.1439723808
690.625 0.004892841948 0.1250681315
691.25 0.05646143504 0.1113469045
691.875 0.1632731151 0.05904878121
692.5 0.2087613261 -0.04482212342
693.125 0.07333586857 -0.1165865845
693.75 -0.01926740119 -0.1054516593
694.375 -0.034345343 -0.1298704449
695.0 0.06343640716 -0.1485887046
695.625 0.1165842614 -0.01914316672
696.25 0.06675311938 0.06419897791
696.875 -0.02251286101 0.113256565
697.5 -0.1142775192 0.0668545242
698.125 -0.1357505273 0.02274049154
698.75 -0.138088038 0.03169064112
699.375 -0.1364253598 0.02652515291
700.0 -0.1160802772 0.0007124280138
700.625 -0.1111093873 -0.02328736016
701.25 -0.1299238118 -0.04814672555
701.875 -0.09693992655 -0.04688602004
702.5 -0.07162251187 -0.01887037768
703.125 -0.08546473004 0.02321534304
703.75 -0.0884357608 0.1394579235
704.375 -0.05060893071 0.1721856948
705.0 -0.0133581844 0.1241478318
705.625 -0.03444592539 0.111698057
706.25 -0.1394597263 0.08347693662
706.875 -0.1446713336 -0.08937203216
707.5 -0.0590946372 -0.09865863144
708.125 -0.0221666474 -0.0965277616
708.75 0.04810673462 -0.08746179684
709.375 0.1013942408 -0.006949560654
710.0 0.07267559278 0.04843077725
710.625 0.05716592764 0.05990464598
711.25 0.02561868311 0.07743188966
711.875 0.01404156633 0.09022475335
712.5 0.05759745963 0.1073747328
713.125 0.1520108231 0.04913241772
713.75 0.1257648342 -0.08496775457
714.375 0.0313533447 -0.1275563864
715.0 -0.03732032559 -0.1341630725
715.625 0.0006793858288 -0.1507256255
716.25 0.05557527147 -0.08458016165
716.875 0.06054743646 -0.03019000876
717.5 0.08124480367 0.01029843701
718.125 0.09021505733 0.06427748295
718.75 0.04471986253 0.08385706106
719.375 0.01572782073 0.06613499706
720.0 -0.02767941044 0.06937780467
720.625 -0.09887125158 0.01669469757
721.25 -0.0621954736 -0.09839344496
721.875 0.01812117755 -0.1108678244
722.5 0.03295513988 -0.113171505
723.125 -0.01339696223 -0.1061470471
723.75 -0.05038681392 -0.06301780847
724.375 -0.06342869264 -0.0225396781
725.0 -0.0599861347 0.008763915825
725.625 -0.0401247994 0.02117985816
726.25 -0.04439971444 0.01140550177
726.875 -0.06892241882 -0.01074991798
727.5 -0.08034469547 -0.04411648999
728.125 -0.06292031174 -0.05435040629
728.75 -0.05627470263 -0.03636019391
729.375 -0.05393012416 -0.02445837861
730.0 -0.0495325742 -0.02787895267
730.625 -0.03671159555 -0.03440829285
731.25 -0.02034425314 -0.03024328331
731.875 0.003726287628 -0.03025294701
732.5 0.01760398706 -0.007852835838
733.125 0.013143218 0.01963651958
733.75 0.02114947051 0.02576420037
734.375 0.03669254935 0.02084528132
735.0 0.03737450374 -0.003880346072
735.625 0.03402552116 -0.01435885101
736.25 0.01734680405 -0.02560489096
736.875 -0.001880593005 -0.028775619
737.5 -0.02360703616 -0.01368785909
738.125 -0.03173796648 0.009922578247
738.75 -0.03589228984 0.02777087602
739.375 -0.01641106807 0.03373068391
740.0 -0.004405866184 0.0186381472
740.625 -0.01393384956 0.0162668723
741.25 -0.02211401667 0.02264887096
741.875 -0.03292119795 0.005303324538
742.5 -0.01749903404 -0.02639159472
743.125 0.02185339199 -0.02553070674
743.75 0.03166402779 -0.007638800526
744.375 0.03235812942 -0.006155966682
745.0 0.0303247073 -0.006954866756
745.625 0.02459809601 0.002443136535
746.25 0.04196478634 0.01134134278
746.875 0.05657013602 -0.02783193644
747.5 0.02882125651 -0.06027617606
748.125 -0.00284931129 -0.06362529157
748.75 -0.03240552831 -0.0442127146
749.375 -0.05991156736 -0.01276701749
750.0 -0.05345581384 0.05917381501
