!Created with skrf (http://scikit-rf.org).
# GHz S RI R 50.0 
!freq ReS11 ImS11
500.0 -0.01839768325 0.0292841118
500.625 0.02263087346 0.03362623672
501.25 0.02934340056 0.02639798673
501.875 0.02351989776 0.03605858767
502.5 0.01110417168 0.04831695521
503.125 0.0351240808 0.03887977988
503.75 0.04959181752 0.01904307615
504.375 0.05132911396 -0.0009045111051
505.0 0.05067952532 -0.02931930534
505.625 0.06380156712 -0.05318244644
506.25 0.0463724159 -0.06105763275
506.875 0.07115041492 -0.04906717828
507.5 0.05278753064 -0.05794706216
508.125 0.08880087158 -0.03179273012
508.75 0.04660875759 -0.07023575071
509.375 0.02966330927 -0.06382884541
510.0 0.06650943126 -0.05952919257
510.625 -0.01984450661 -0.07804123057
511.25 -0.04459614577 -0.0602120915
511.875 -0.05998699108 -0.009749319837
512.5 -0.04459190702 0.01602201411
513.125 -0.02263480741 0.04778612344
513.75 -0.0169669662 0.05901429603
514.375 0.005186113385 0.06731984491
515.0 0.04586526199 0.08954914736
515.625 -0.02922069441 0.1164873061
516.25 0.05317997951 0.1085453256
516.875 -0.02387010514 0.1413977145
517.5 0.07440204505 0.1213235266
518.125 -0.05515748548 0.1680107737
518.75 0.04582660631 0.0621935504
519.375 0.03902733775 0.08287263124
520.0 0.08018580833 0.07095122166
520.625 0.08681314364 0.04447650915
521.25 0.08472443291 0.01730376676
521.875 0.06282075091 0.04219359134
522.5 0.09241701704 -0.0003326997324
523.125 0.1545882036 -0.04028412541
523.75 0.1496235448 -0.09991307678
524.375 0.135136146 -0.04709592499
525.0 0.03701981246 -0.0009478950729
525.625 0.02757532644 0.01164932163
526.25 0.04144038368 0.03225221345
526.875 0.0499982961 0.02560222251
527.5 0.04479331773 0.007550689045
528.125 0.04508464605 -0.02024170728
528.75 0.05715083189 -0.04788782129
529.375 0.02214310718 -0.07803278871
530.0 -0.002690706118 -0.04543908783
530.625 -0.02852588316 -0.05800774145
531.25 -0.05954262141 -0.1525754151
531.875 -0.1104838084 -0.1377770389
532.5 -0.1343755317 -0.05651183997
533.125 -0.1075674541 -0.02129678206
533.75 -0.125344728 -0.02243412107
534.375 -0.09881494585 -0.01918869298
535.0 -0.09158763846 0.01315924302
535.625 -0.06337478232 -0.01312885916
536.25 -0.06332976262 -0.003996492542
536.875 -0.06901864156 -0.03694017073
537.5 -0.08371929348 -0.06352755315
538.125 -0.1054006655 -0.02449196595
538.75 -0.0971762825 -0.00909382947
539.375 -0.07208821144 -0.02335032505
540.0 -0.08802393723 -0.0438949313
540.625 -0.1170858961 -0.06126603222
541.25 -0.09242117393 -0.07443500256
541.875 -0.08089105954 -0.05628104704
542.5 -0.08967042595 -0.06440785941
543.125 -0.131679211 -0.02705018781
543.75 -0.1133333592 0.0601157425
544.375 -0.06534295669 0.07567852191
545.0 0.008371126457 0.08982755082
545.625 0.024283483 0.08919752294
546.25 0.06080942801 0.07295380626
546.875 0.06529443296 0.06459393124
547.5 0.07687905242 0.08107156703
548.125 0.05028163283 0.1006452653
548.75 0.03459964882 0.09256740097
549.375 0.03092462073 0.09983837176
550.0 -0.02160369998 0.09356229655
550.625 -0.01949114008 0.04684636463
551.25 -0.02836095711 0.008827616675
551.875 -0.04716975241 0.00491072295
552.5 -0.08408695511 0.01467164271
553.125 -0.07247044151 0.01575919949
553.75 -0.07372569865 0.0136818157
554.375 -0.07771961865 0.04774113786
555.0 -0.08006843932 0.07332599919
555.625 -0.06293590652 0.07095330402
556.25 -0.06615979838 0.05980308677
556.875 -0.08406815775 0.06775080851
557.5 -0.08112934176 0.07333161024
558.125 -0.07963758149 0.07567611891
558.75 -0.07540116046 0.0485717627
559.375 -0.0640056068 0.0452682493
560.0 -0.03879189685 0.02726597798
560.625 -0.03939412739 0.01457674066
561.25 -0.05909450195 0.01139270815
561.875 -0.07778926799 0.02761016689
562.5 -0.05731405759 0.0539100564
563.125 -0.03209011346 0.08210286166
563.75 -0.001446196459 0.112567773
564.375 0.01324275151 0.1120999189
565.0 0.0185099825 0.1004203175
565.625 0.02976536225 0.0840778871
566.25 0.001056903179 0.08851129942
566.875 -0.03850434986 0.07314042575
567.5 -0.04750207766 0.06001637875
568.125 -0.05803745244 0.06318803079
568.75 -0.06074379293 0.05150002964
569.375 -0.04580217977 0.03064285853
570.0 -0.03758428764 0.007151849046
570.625 -0.05470602769 0.008448740097
571.25 -0.05987362316 0.002892423367
571.875 -0.0505060785 0.0100738302
572.5 -0.06673722732 0.02977418408
573.125 -0.07730826395 0.07891329435
573.75 -0.03795109795 0.1030108558
574.375 0.007709761895 0.08245190541
575.0 0.01127081593 0.07852818208
575.625 0.0006096734277 0.09931310291
576.25 0.0002042556348 0.09416729652
576.875 0.02660643801 0.08413629323
577.5 0.04414961091 0.07777495895
578.125 0.03158843 0.08468741648
578.75 0.01846956304 0.0642956507
579.375 0.02568524835 0.05610621965
580.0 0.02859720136 0.0540521163
580.625 0.01050086669 0.04320301357
581.25 -0.01703142543 0.03540473671
581.875 -0.02873019234 0.04964558583
582.5 -0.03105788638 0.08197289171
583.125 -0.02731836096 0.0809664838
583.75 -0.02368661863 0.07241095914
584.375 -0.03572192142 0.06226132928
585.0 -0.0619429254 0.06504612597
585.625 -0.04789975706 0.06233486465
586.25 -0.0337015022 0.06033806914
586.875 -0.03777182087 0.05597207422
587.5 -0.04095446213 0.0648026102
588.125 0.0003289282426 0.06898293733
588.75 0.02175360668 0.06064875413
589.375 0.02792006449 0.0473484682
590.0 -0.0005473493107 0.04213058255
590.625 -0.003316317669 0.04924328972
591.25 0.009425164994 0.07114786764
591.875 0.03412494804 0.088069113
592.5 0.04367709327 0.08127441975
593.125 0.0436541702 0.05928457731
593.75 0.0399649891 0.06228493084
594.375 0.01851407505 0.0779775217
595.0 -0.003819750098 0.06777242835
595.625 -0.0148593511 0.04660280097
596.25 -0.02739955971 0.03505606679
596.875 -0.04290505066 0.02577945347
597.5 -0.04167165482 0.02372584139
598.125 -0.03010488611 0.02764021499
598.75 -0.01663402287 0.02131909642
599.375 -0.01626040387 0.001418500198
600.0 -0.02112559412 -0.01310159683
600.625 -0.03812028228 -0.02313977439
601.25 -0.05953612216 -0.02210037983
601.875 -0.06348837632 -0.008281761755
602.5 -0.06060388816 0.004098825189
603.125 -0.06032415094 0.01006045193
603.75 -0.05583703291 0.01138190915
604.375 -0.03743452579 0.006550205343
605.0 -0.02922717344 -0.008068169287
605.625 -0.03600265112 -0.02035580011
606.25 -0.04555089128 -0.02231676703
606.875 -0.0424904234 -0.006986044522
607.5 -0.02496037204 0.009352744009
608.125 -0.008523971421 0.007245886684
608.75 -0.004460837651 -0.0001263746849
609.375 0.0009693733352 -0.001179643566
610.0 0.01257874886 -0.005882555917
610.625 0.01908714359 -0.01283002943
611.25 0.02032262758 -0.02072594702
611.875 0.01946129525 -0.02539681786
612.5 0.01332956582 -0.02704389809
613.125 0.0007170984744 -0.02109779821
613.75 -0.00652396165 -0.003078582675
614.375 0.002332418109 0.006674796835
615.0 0.009416216128 0.003472588633
615.625 0.005455163636 -0.002177519605
616.25 -0.005956299428 0.0106744647
616.875 0.001451266075 0.0251293174
617.5 0.01175982858 0.02621892125
618.125 0.01433616318 0.01919289006
618.75 0.008473204449 0.0239411343
619.375 0.01205332562 0.03118625006
620.0 0.02328559245 0.02718300831
620.625 0.02838132056 0.002820918512
621.25 0.01349006847 -0.008021425701
621.875 -0.007858427195 -0.01811495899
622.5 -0.03566412486 0.01154998368
623.125 -0.03118971225 0.04037408147
623.75 -0.02650056784 0.05920902026
624.375 -0.03341782383 0.05108699185
625.0 -0.04690482975 0.03824376789
625.625 -0.04859996653 0.05028830678
626.25 -0.04173903456 0.06988656874
626.875 -0.02361234119 0.0655182399
627.5 -0.02100030377 0.05060491794
628.125 -0.03121784828 0.03756254227
628.75 -0.04105203131 0.02555330821
629.375 -0.03073162857 0.01871676653
630.0 -0.02105981708 0.01038415057
630.625 -0.01887236137 -0.01152576466
631.25 -0.01810528326 -0.03713774861
631.875 -0.01987361561 -0.04904450623
632.5 -0.03304395869 -0.0510063858
633.125 -0.03962635494 -0.06391692214
633.75 -0.04604027959 -0.05599174016
634.375 -0.05266507746 -0.05924641661
635.0 -0.06775968622 -0.04964310415
635.625 -0.07832006823 -0.0370878962
636.25 -0.05674330078 -0.02367000251
636.875 -0.04696750918 -0.04049582743
637.5 -0.06059247811 -0.05952330673
638.125 -0.06887895564 -0.05211083888
638.75 -0.05247733348 -0.02557441001
639.375 -0.01930761383 -0.03210037243
640.0 0.02376340838 -0.05421514953
640.625 0.04964181876 -0.05458161046
641.25 0.03705690441 -0.05632109341
641.875 0.03765412381 -0.05555982916
642.5 0.0625542019 -0.04864340209
643.125 0.07511734566 -0.02468981121
643.75 0.07020262189 -0.02850464923
644.375 0.06204655046 -0.04954476571
645.0 0.06084889399 -0.04464582798
645.625 0.05353714677 -0.02193165771
646.25 0.063081567 -0.01288604334
646.875 0.07996088811 -0.02218920453
647.5 0.08374367079 -0.02529441942
648.125 0.06323516032 -0.01743084267
648.75 0.0711660711 0.01645276793
649.375 0.08616947774 0.04234730585
650.0 0.08343163604 0.05909027966
650.625 0.07413404193 0.05482898958
651.25 0.05891769703 0.07418096281
651.875 0.01894739877 0.09997624397
652.5 -0.008681669875 0.08655729239
653.125 -0.009134166431 0.07755025841
653.75 -0.02455052327 0.06371982617
654.375 -0.05116575645 0.01945084194
655.0 -0.04940644437 -0.01306861988
655.625 -0.0638674142 -0.0145458273
656.25 -0.0912464524 0.002336082164
656.875 -0.1021123072 0.008653065405
657.5 -0.09577974246 0.0009617001857
658.125 -0.1069005295 0.0005924159777
658.75 -0.1296839439 0.03549596841
659.375 -0.1015436442 0.06445571364
660.0 -0.05766456064 0.08572911024
660.625 -0.03993791585 0.08809844323
661.25 -0.0377309215 0.09095031793
661.875 -0.01519948233 0.07306497781
662.5 -0.003453521129 0.06852401129
663.125 -0.02359771255 0.07060546383
663.75 -0.0741165654 0.03575652306
664.375 -0.07493934859 -0.01600531736
665.0 -0.07440962469 -0.051351567
665.625 -0.06624273257 -0.09065751312
666.25 -0.0213291631 -0.1171270025
666.875 -0.003977263596 -0.1090297994
667.5 -0.003267229554 -0.1156739649
668.125 0.002205615293 -0.1239652665
668.75 0.00690742861 -0.0872977149
669.375 0.01477166099 -0.06815831608
670.0 0.02544020887 -0.07420528702
670.625 0.04523917259 -0.09063336173
671.25 0.02428123426 -0.07603541789
671.875 0.01724900602 -0.080814234
672.5 -0.0154695879 -0.09595773274
673.125 -0.04040929153 -0.1160338275
673.75 -0.05718629515 -0.1007874871
674.375 -0.04482419347 -0.1051532591
675.0 0.005545426178 -0.1095161902
675.625 0.04273494145 -0.0868542669
676.25 0.05434413714 -0.07471830854
676.875 0.06620564234 -0.06416334704
677.5 0.07904292982 -0.02854825916
678.125 0.0545283664 0.002193632183
678.75 0.06665622448 0.01522955653
679.375 0.09618759883 0.02973896482
680.0 0.1243160004 0.04425229927
680.625 0.1036313892 0.01581212134
681.25 0.1067183953 -0.02842574112
681.875 0.1122614812 -0.08045075427
682.5 0.09458492628 -0.1125076296
683.125 0.05727171669 -0.09738224778
683.75 0.06101046675 -0.07151609605
684.375 0.1010944412 -0.02468640269
685.0 0.07978702526 0.05120459007
685.625 0.03355212747 0.07644250798
686.25 -0.01994189378 0.06527902438
686.875 -0.06442992286 0.04753736172
687.5 -0.0884908136 0.0172564196
688.125 -0.1136112153 0.02517097435
688.75 -0.1425137581 0.01352713237
689.375 -0.1316458138 -0.007727386875
690.0 -0.1121155292 0.004083099615
690.625 -0.119686102 0.02365427963
691.25 -0.1325854512 0.07047430552
691.875 -0.07255480946 0.08187633976
692.5 0.01266480272 0.07315951514
693.125 0.04580520678 0.05390751098
693.75 0.09675938146 0.06208237307
694.375 0.08973012337 0.08022733873
695.0 0.05651699607 0.088124247
695.625 -0.01373272201 0.110425304
696.25 -0.1237526986 0.04527987818
696.875 -0.109155739 -0.07577422266
697.5 -0.04360388574 -0.1204886179
698.125 -0.01644437293 -0.1186637943
698.75 -0.003822658922 -0.09607325608
699.375 8.698947323e-05 -0.08047452617
700.0 0.03046529847 -0.08104698148
700.625 0.07500417003 -0.05867474216
701.25 0.06925587545 -0.02319224565
701.875 0.06845727092 -0.03780649175
702.5 0.06842328442 -0.1009399443
703.125 0.01404443756 -0.1732174203
703.75 -0.0850369977 -0.09491579672
704.375 -0.1045638437 -0.009474772333
705.0 -0.1034138814 -0.006797502837
705.625 -0.09231237736 -0.08862249211
706.25 -0.0004746974475 -0.09043783229
706.875 0.04770455664 -0.0508361616
707.5 0.06370850623 -0.007281412257
708.125 0.05359868813 0.06701361634
708.75 0.007314115426 0.0948229729
709.375 -0.04578024983 0.08440725967
710.0 -0.07723668444 0.05259258754
710.625 -0.08922891122 0.01632644336
711.25 -0.1066945174 -0.002676414158
711.875 -0.1295233372 0.009748121224
712.5 -0.1104575145 0.05854966441
713.125 -0.01535270493 0.0937135189
713.75 0.05881292081 0.06072161948
714.375 0.07456014576 0.04475125687
715.0 0.06399743543 0.04566394896
715.625 0.03361082435 0.04255830724
716.25 0.01424940818 0.06175572923
716.875 -0.02764550967 0.09308831205
717.5 -0.09418908775 0.05983661042
718.125 -0.08345584474 0.03225019326
718.75 -0.0782002516 0.02121668475
719.375 -0.08985533273 -0.004293422062
720.0 -0.07054756724 -0.06752514457
720.625 -0.0034406142 -0.09184363012
721.25 0.06060651061 -0.05189388117
721.875 0.06261081053 0.008106706036
722.5 0.03375368474 0.02484287394
723.125 0.0273543759 0.03449887863
723.75 0.05714665103 0.03241313971
724.375 0.06790346129 -0.01862088259
725.0 0.03312812217 -0.05005676954
725.625 0.00565125043 -0.06440811432
726.25 0.0001331219301 -0.07731846292
726.875 0.01497039773 -0.07322331267
727.5 0.01992519511 -0.05535915794
728.125 0.02968219516 -0.0344958145
728.75 0.03581520577 -0.01561465302
729.375 0.03887604297 -0.01391930543
730.0 0.02661332398 -0.02245598383
730.625 0.02370449155 -0.009067922132
731.25 0.01893751559 0.009298423594
731.875 0.002446681997 0.02397818482
732.5 -0.01957311494 0.02425017642
733.125 -0.03284441235 0.0237663127
733.75 -0.01850662146 0.03071434773
734.375 -0.002862957932 0.02566211611
735.0 0.007731800335 0.01178851865
735.625 0.00581965774 0.00608503521
736.25 0.002908539335 -0.01407099058
736.875 -0.01849361382 -0.02255973937
737.5 -0.03852269054 -0.01815388844
738.125 -0.0493973908 -0.004557600112
738.75 -0.03266717613 0.005825583911
739.375 -0.005307915284 0.007330754077
740.0 0.008229406733 -0.01416887067
740.625 -0.009300626932 -0.02212433267
741.25 -0.01188038733 -0.01598220605
741.875 0.01067961892 -0.01442613862
742.5 0.01891519642 0.01190631057
743.125 -0.002962746776 0.02608295756
743.75 -0.01916849967 0.02158045022
744.375 -0.0349540889 0.02276619801
745.0 -0.046200333 0.02820985045
745.625 -0.04013816065 0.05753935947
746.25 0.003752673452 0.07658801956
746.875 0.04764360056 0.0514318978
747.5 0.04408393206 0.009891577548
748.125 0.02932908828 0.0012503158
748.75 0.02875352158 -0.001982892637
749.375 0.02856707782 -0.02606122974
750.0 -0.01317594632 -0.03812621603
