!Created with skrf (http://scikit-rf.org).
# GHz S RI R 50.0 
!freq ReS11 ImS11
500.0 -0.008733535599 0.02326526256
500.625 0.02279583487 0.02010851161
501.25 0.03167261198 0.003452773061
501.875 0.03051352259 0.006576677908
502.5 0.01627064443 0.02289812413
503.125 0.02570252204 0.01530950829
503.75 0.04002211784 -0.008362107338
504.375 0.03664429574 -0.02034887354
505.0 0.02830771831 -0.03615732114
505.625 0.02694429175 -0.0578946723
506.25 0.01264631169 -0.07486475657
506.875 0.04031153015 -0.08227069018
507.5 0.01200631709 -0.07303594944
508.125 0.04424096199 -0.07557317596
508.75 -0.003015659802 -0.09700439558
509.375 -0.01798617769 -0.07170698848
510.0 0.007645003564 -0.06928998817
510.625 -0.0518395591 -0.0419752961
511.25 -0.07281879723 -0.03535793958
511.875 -0.06450620579 0.01813296477
512.5 -0.02731556573 0.04317149211
513.125 0.02462736509 0.06156795173
513.75 0.03425679498 0.06289671532
514.375 0.04830581082 0.04399473089
515.0 0.07478000015 0.02628222958
515.625 0.05751867303 0.1067233147
516.25 0.09458638107 0.06744170121
516.875 0.04123822853 0.129681221
517.5 0.1352277677 0.06536999982
518.125 0.04689040149 0.2168411027
518.75 0.09414412505 0.03279262139
519.375 0.07800278198 0.03690055928
520.0 0.1127756982 0.0002041239578
520.625 0.1201365512 -0.001994794049
521.25 0.09338258049 -0.03458343998
521.875 0.07655129391 -0.002775519682
522.5 0.09156978568 -0.06603656923
523.125 0.1684888262 -0.1189372493
523.75 0.1304487163 -0.2080279922
524.375 0.1422445736 -0.1978855791
525.0 0.06106787924 -0.06930135142
525.625 0.04574581648 -0.03613879396
526.25 0.05445914308 -0.02241772989
526.875 0.05507958284 -0.04222786917
527.5 0.04311578885 -0.04741043633
528.125 0.01229203524 -0.05370137645
528.75 -0.002346779405 -0.0745280892
529.375 -0.07377079238 -0.08346280585
530.0 -0.06781878985 -0.02330977803
530.625 -0.04230421949 0.005366406779
531.25 -0.09630147872 -0.02388996697
531.875 -0.176542138 -0.01899580367
532.5 -0.1529592338 0.03833525217
533.125 -0.1009479753 0.05136623267
533.75 -0.08306711604 0.08094484609
534.375 -0.1107517213 0.07064105797
535.0 -0.07676734101 0.07905387588
535.625 -0.06447061472 0.04725607481
536.25 -0.02812288331 0.06672831176
536.875 -0.07449847891 0.04431367614
537.5 -0.09381174148 0.002798284177
538.125 -0.08774122802 0.04597495644
538.75 -0.09580116402 0.08738060192
539.375 -0.09221180916 0.05149604431
540.0 -0.08266491234 0.03676090274
540.625 -0.09933272638 0.04491604027
541.25 -0.126971042 0.03634122503
541.875 -0.09992145714 0.009319435301
542.5 -0.086126379 -0.00228379403
543.125 -0.106672214 0.05455205485
543.75 -0.0696724356 0.132988589
544.375 -0.02590717197 0.1290403158
545.0 0.06782465872 0.07319839732
545.625 0.1123227609 0.04402205946
546.25 0.1178757198 0.02098618225
546.875 0.1108832452 0.006845044935
547.5 0.1223651555 0.01093291714
548.125 0.1533642181 0.03956210246
548.75 0.1095635661 0.08022340549
549.375 0.1101527702 0.0750520224
550.0 0.08555709109 0.1131888674
550.625 0.05455200717 0.1075265108
551.25 -0.002383212654 0.06896346167
551.875 0.003474781744 0.04625056385
552.5 0.002406758583 0.06800656775
553.125 -0.01689703524 0.08203635792
553.75 -0.0293365355 0.0532141471
554.375 -0.01313188252 0.06515000898
555.0 0.005528971407 0.09564081844
555.625 0.01186386509 0.1059696493
556.25 -0.01348382877 0.08444487149
556.875 -0.008846850676 0.09341375444
557.5 -0.01515765156 0.1188018858
558.125 -0.024612074 0.1225371848
558.75 -0.04713430666 0.09858034767
559.375 -0.01394498762 0.107350023
560.0 -0.01952820849 0.0921628129
560.625 -0.002023848028 0.06119189506
561.25 -0.003616837746 0.05070321
561.875 -0.007598101763 0.07015021334
562.5 0.002815160096 0.08373264137
563.125 0.02438782165 0.07359188631
563.75 0.05940433254 0.06733526219
564.375 0.1030800196 0.0792481402
565.0 0.08700023741 0.09225801036
565.625 0.08822536295 0.05859889507
566.25 0.07713753741 0.0627124404
566.875 0.05770484105 0.09560917157
567.5 0.003683106209 0.09817486797
568.125 2.116968748e-05 0.09680627573
568.75 -0.003745202269 0.1130383393
569.375 -0.01198099234 0.09484834135
570.0 -0.01543657037 0.0681064165
570.625 -0.00478616324 0.05682119225
571.25 -0.00775981054 0.07503082789
571.875 -0.01276376326 0.05174292523
572.5 -0.007476173504 0.04828395
573.125 0.00340351834 0.07774867515
573.75 0.0599210714 0.1018864427
574.375 0.06619224256 0.07291327991
575.0 0.06087078498 0.04139587357
575.625 0.07254009326 0.04135210765
576.25 0.07763174008 0.07250158056
576.875 0.07648389788 0.06158176565
577.5 0.08158641221 0.04003772507
578.125 0.1007172472 0.03468026649
578.75 0.09373305523 0.05778488463
579.375 0.07842914427 0.03930787951
580.0 0.08252734151 0.02191581254
580.625 0.08296948587 0.0155751099
581.25 0.05493737642 0.02072834158
581.875 0.02321682286 0.03293151292
582.5 0.037074591 0.04994107561
583.125 0.04883419979 0.07939151409
583.75 0.04425971235 0.07005705798
584.375 0.02752954393 0.06302970152
585.0 0.0177662979 0.07574930901
585.625 0.01279269527 0.09790660636
586.25 0.01944838259 0.07579483651
586.875 0.02455734112 0.06177236899
587.5 0.03475195319 0.07756662514
588.125 0.06113516274 0.07048146783
588.75 0.07019712204 0.044438201
589.375 0.07511390162 0.0006845085611
590.0 0.06887195379 -0.008467505749
590.625 0.03995921899 0.01524481721
591.25 0.03713967027 0.02944805629
591.875 0.06078150923 0.03094464928
592.5 0.09327268842 0.02266093955
593.125 0.08528573137 0.02801001402
593.75 0.07288376442 0.02490602101
594.375 0.07470979259 0.04560260659
595.0 0.0611775168 0.07140679756
595.625 0.03042177887 0.07018036272
596.25 0.01449252858 0.05798147475
596.875 0.001426329689 0.06585381149
597.5 -0.01266999045 0.0695483316
598.125 -0.001291367075 0.06452501767
598.75 0.02180069181 0.05158149116
599.375 0.02011436397 0.03791885677
600.0 0.004283034023 0.02067589766
600.625 -0.01426108341 0.00890788538
601.25 -0.02868207293 0.01711949161
601.875 -0.04231009835 0.03099340915
602.5 -0.04150774921 0.03504915011
603.125 -0.04333791287 0.03812878619
603.75 -0.03797952168 0.04880418408
604.375 -0.03310953477 0.04385495084
605.0 -0.02988897589 0.02255409314
605.625 -0.03651408833 0.009557076399
606.25 -0.05759268278 0.006865833284
606.875 -0.05787123944 0.01892361986
607.5 -0.03662534337 0.03081985327
608.125 -0.01388962645 0.02979966638
608.75 -0.01131076739 0.02207915331
609.375 -0.009413586576 0.01648468344
610.0 -0.002411417172 0.008844701348
610.625 0.005500199984 -0.00200585995
611.25 0.004993958923 -0.01782128289
611.875 0.007015389647 -0.02373763147
612.5 0.001687860369 -0.02976696985
613.125 -0.01007506836 -0.0244442337
613.75 -0.01141898117 -0.01351929059
614.375 -0.0007121374066 -0.0007387642976
615.0 0.008585721476 -0.004592248372
615.625 0.00437052557 -0.009020267205
616.25 -0.00239314359 -0.0005470196382
616.875 0.006962962909 0.01334821948
617.5 0.02155782797 0.01555861361
618.125 0.02390216672 0.01209448413
618.75 0.02322160548 0.01119896953
619.375 0.03093998123 0.02250347128
620.0 0.04554379288 0.02167419696
620.625 0.04810204279 -0.003750402214
621.25 0.0384837208 -0.0183190036
621.875 0.02107308491 -0.01901298912
622.5 -0.01065440327 -0.005335174568
623.125 -0.008398093802 0.02229457639
623.75 0.004573814817 0.03682753179
624.375 0.00488877797 0.04875255099
625.0 -0.01308225372 0.04997197071
625.625 -0.01102412439 0.05874409487
626.25 0.007897958203 0.08123444414
626.875 0.01977617522 0.08433537851
627.5 0.01171473022 0.07503656529
628.125 0.005932771088 0.06604178319
628.75 -0.004753206042 0.0751413878
629.375 -0.01245665051 0.06869776052
630.0 -0.01084636227 0.0539768401
630.625 -0.01282609775 0.04025940521
631.25 -0.02638407136 0.02599486452
631.875 -0.03791752068 0.006413172408
632.5 -0.04525073021 -0.0009641788349
633.125 -0.05613544438 7.512662912e-05
633.75 -0.07172565121 0.006266663296
634.375 -0.07041684722 0.001213899426
635.0 -0.07764944027 0.0134064591
635.625 -0.08350056636 0.04192266327
636.25 -0.08221475111 0.04148810996
636.875 -0.06591980326 0.01903275081
637.5 -0.07190359121 0.0126322644
638.125 -0.1051931185 0.02446056966
638.75 -0.09644713384 0.02039577934
639.375 -0.06546592019 0.001553300659
640.0 -0.04554222068 -0.02277278236
640.625 -0.04255395751 -0.0673169922
641.25 -0.02143602427 -0.07611750535
641.875 -0.02007352928 -0.06595046008
642.5 -0.01836566551 -0.07096900681
643.125 0.006059419285 -0.09728467446
643.75 0.03168945595 -0.09042743742
644.375 0.003455436295 -0.08570021591
645.0 -0.02287688068 -0.09245921356
645.625 -0.007262066361 -0.09326027593
646.25 0.008861052677 -0.07364362998
646.875 0.01880379962 -0.06875902009
647.5 0.007247663125 -0.09270047047
648.125 0.01942344827 -0.08404266464
648.75 0.03603239537 -0.05407193822
649.375 0.06074391429 -0.03938939821
650.0 0.09362607995 -0.03513819354
650.625 0.1021115833 -0.01033440769
651.25 0.09537095899 0.007165450335
651.875 0.1010755743 0.04229486068
652.5 0.0864088038 0.09804119091
653.125 0.06167508083 0.09397914266
653.75 0.05689891894 0.08486737943
654.375 0.03852596584 0.09565822768
655.0 -0.01747550617 0.07965274429
655.625 -0.02828137327 0.04889094813
656.25 -0.01930806969 0.06109073509
656.875 -0.01002642039 0.09512701904
657.5 -0.04732103994 0.08656293887
658.125 -0.06065155192 0.06444246484
658.75 -0.04404132107 0.09466101736
659.375 -0.01034520097 0.1435601138
660.0 0.02189645944 0.1340803291
660.625 0.04588285876 0.106898984
661.25 0.07773884086 0.09383636109
661.875 0.09893115815 0.08462656148
662.5 0.0879066175 0.05444086375
663.125 0.07247187508 0.05063612073
663.75 0.04191956069 0.0902402413
664.375 -0.04388533604 0.07756747576
665.0 -0.06787307304 0.03495041839
665.625 -0.07995351338 0.01663709537
666.25 -0.1210385072 -0.02109513177
666.875 -0.09665123053 -0.08426268556
667.5 -0.08250076258 -0.07941528132
668.125 -0.1053919371 -0.06568652914
668.75 -0.1278508283 -0.07086854345
669.375 -0.08162035549 -0.0721935671
670.0 -0.05378184998 -0.06008369401
670.625 -0.07278812966 -0.0709667479
671.25 -0.09630349461 -0.07096029322
671.875 -0.08048595432 -0.05034844553
672.5 -0.08001191409 -0.02547490589
673.125 -0.1054511699 -0.01157204512
673.75 -0.1283286836 -0.02106765528
674.375 -0.1208713065 -0.03033634781
675.0 -0.1083316414 -0.06374004779
675.625 -0.07386617565 -0.1091274006
676.25 -0.02640097208 -0.1196548058
676.875 -0.02350178599 -0.1128249219
677.5 -0.03519242699 -0.1221875865
678.125 0.009068464297 -0.1084048617
678.75 0.02614857271 -0.05916378005
679.375 0.04036339271 -0.04770548095
680.0 0.05002762983 -0.08629404155
680.625 0.08266949224 -0.1037055679
681.25 0.05250068703 -0.0947652071
681.875 0.01225611915 -0.1103316171
682.5 -0.05822718789 -0.1426599685
683.125 -0.06178815242 -0.1611698977
683.75 -0.02032262109 -0.1329326296
684.375 0.02846414539 -0.1154041443
685.0 0.1138558863 -0.08178344778
685.625 0.1308405816 0.006473959635
686.25 0.0954680681 0.04874895111
686.875 0.06026281668 0.06630162154
687.5 0.007370007154 0.08405703346
688.125 -0.02693375722 0.08251227904
688.75 -0.04154255215 0.0981321669
689.375 -0.06555504901 0.1298460106
690.0 -0.08689445474 0.103309854
690.625 -0.06562672156 0.1046250188
691.25 -0.009764565188 0.1414809898
691.875 0.09234277538 0.172182331
692.5 0.1266472537 0.07988033383
693.125 0.0885192393 -0.0423925406
693.75 0.05504618162 -0.08121002596
694.375 0.09364669263 -0.1024147081
695.0 0.1326581755 -0.0161233373
695.625 0.08040111663 0.05838952087
696.25 -0.0001915899029 0.10861008
696.875 -0.1164394369 0.06426841229
697.5 -0.1368037384 -0.03804130141
698.125 -0.1205501876 -0.06385654096
698.75 -0.1246321636 -0.05891278851
699.375 -0.1002518872 -0.06094720583
700.0 -0.08072753743 -0.06384561774
700.625 -0.0626292464 -0.09053620071
701.25 -0.02500819823 -0.1108023668
701.875 -0.0106866982 -0.07719910081
702.5 -0.03387364009 -0.07331591838
703.125 -0.1176192802 -0.05985665364
703.75 -0.1912869676 0.02838455436
704.375 -0.1121704727 0.08547630353
705.0 -0.0685838113 0.08799533352
705.625 -0.108460893 0.07533962146
706.25 -0.1553991807 -0.05371621988
706.875 -0.03271994092 -0.1148505893
707.5 0.006012900294 -0.0859905925
708.125 0.05154062743 -0.06594726235
708.75 0.09341411176 0.005644362715
709.375 0.05610428072 0.07490748325
710.0 0.01121464999 0.08416980424
710.625 -0.01592156962 0.08688200729
711.25 -0.05135462582 0.07718742182
711.875 -0.06031871163 0.0960762908
712.5 -0.02448435128 0.1419971135
713.125 0.08849404347 0.1228985359
713.75 0.1260489972 -0.004464933248
714.375 0.08440616507 -0.08228438853
715.0 0.06908729287 -0.109660143
715.625 0.08538870647 -0.05930452283
716.25 0.06413606079 -0.008203732687
716.875 0.05660058701 0.02838247278
717.5 0.04209082189 0.08923447959
718.125 -0.01329883193 0.1101302718
718.75 -0.02462942864 0.08056677007
719.375 -0.03637819868 0.06503145948
720.0 -0.08596822345 0.0362802948
720.625 -0.09080857043 -0.06596134661
721.25 0.004575537216 -0.1081777924
721.875 0.06599220995 -0.07984099692
722.5 0.07656860717 -0.05780043536
723.125 0.04722552689 -0.05479823268
723.75 0.01905334025 -0.0535945243
724.375 -0.008433194075 -0.0609269828
725.0 -0.03584296561 -0.04227665124
725.625 -0.04233629656 -0.02853532923
726.25 -0.05455103108 -0.03735011292
726.875 -0.05673334658 -0.06307953139
727.5 -0.03915133918 -0.07597888179
728.125 -0.0211130892 -0.06704164868
728.75 -0.01151998306 -0.05926611246
729.375 -0.01374936646 -0.05122591854
730.0 -0.0120489239 -0.04875421901
730.625 -0.007804078479 -0.03758138124
731.25 0.009668385971 -0.02743175402
731.875 0.0225771521 -0.00580135167
732.5 0.01025222183 0.01698395684
733.125 -0.004481402461 0.03260997428
733.75 0.005765900046 0.04312401825
734.375 0.02193687471 0.03471763968
735.0 0.02982741361 0.01272587407
735.625 0.02597687846 -0.0004001697864
736.25 0.02031885657 -0.01264966623
736.875 -0.005774628412 -0.02052750423
737.5 -0.0302677467 -0.009766489607
738.125 -0.04470534921 0.006945944685
738.75 -0.04086585688 0.02245496561
739.375 -0.01964847169 0.02370740129
740.0 -0.01021630102 0.001630325759
740.625 -0.0242823855 -0.001789770158
741.25 -0.02924672615 0.003360421606
741.875 -0.0239859432 -0.008021574904
742.5 0.008278575157 -0.02315802507
743.125 0.02674269082 0.004339105621
743.75 0.01872823715 0.01912623834
744.375 0.01657401817 0.01754710505
745.0 0.01093987192 0.03382122398
745.625 0.01320950485 0.04693504669
746.25 0.04516255928 0.04938945982
746.875 0.07301124329 0.0013845512
747.5 0.058105673 -0.03700056927
748.125 0.02873456434 -0.04579631691
748.75 0.004062938857 -0.04559903776
749.375 -0.02969472741 -0.04656944608
750.0 -0.06129482548 0.007789376847
