!Created with skrf (http://scikit-rf.org).
# GHz S RI R 50.0 
!freq ReS11 ImS11
500.0 -0.005962434023 0.01364477164
500.625 -0.004420439648 0.003725814896
501.25 -0.006781309858 -0.01238345918
501.875 -0.04845431914 -0.01535606376
502.5 0.002061197441 0.0001529374239
503.125 -0.02336697417 0.009062191429
503.75 -0.005684733784 0.0004812920359
504.375 0.008765105214 -0.02101613364
505.0 0.007001509642 -0.02438793388
505.625 -0.003750314329 -0.009808142128
506.25 -0.01862181197 -0.05125780362
506.875 -0.008751769917 -0.08020851525
507.5 -0.03352290894 -0.02176328241
508.125 -0.01306801173 -0.0412754261
508.75 -0.05470759713 -0.006725102118
509.375 -0.05891624667 -0.04502511253
510.0 -0.02758330391 -0.0115471626
510.625 -0.01458780112 0.006492889203
511.25 -0.03593880145 0.0160026599
511.875 -0.04857678614 0.04387307367
512.5 -0.0009970594102 0.04371942755
513.125 0.04709827466 -0.003056385074
513.75 0.05576599113 -0.01439804984
514.375 0.06301308136 0.0005787033045
515.0 0.0393639189 -0.02585418858
515.625 0.08644193388 0.02486671602
516.25 0.06433370176 -0.0008697419886
516.875 0.07475166895 0.08764779615
517.5 0.09112458516 -0.0009392602625
518.125 0.1527371004 0.1623848723
518.75 0.1062188799 -0.02327348739
519.375 0.07463627777 -0.00939040883
520.0 0.04128675765 -0.04397448675
520.625 0.1011522571 -0.06990161433
521.25 0.05985308714 -0.0756706673
521.875 0.05997707213 -0.03436805096
522.5 0.03685173064 -0.08152183364
523.125 0.1091988819 -0.2000510023
523.75 0.01947227621 -0.2330658771
524.375 0.05162430897 -0.2685696411
525.0 0.005955936503 -0.114586962
525.625 0.002269055213 -0.08356005917
526.25 0.03505346862 -0.06388803475
526.875 0.004818554194 -0.0634471631
527.5 -0.02605104908 -0.0624721245
528.125 -0.03289736466 -0.05402962148
528.75 -0.04305508611 -0.04937789394
529.375 -0.1136836711 -0.01079476768
530.0 -0.07042487827 0.05017971665
530.625 0.006985383441 0.04772119242
531.25 -0.03967553653 0.04705416765
531.875 -0.07998128074 0.07112996927
532.5 -0.06205838825 0.09429508812
533.125 -0.05247965612 0.09778882265
533.75 -0.01491553861 0.09391826382
534.375 -0.02365429842 0.1139826487
535.0 -0.01049781396 0.1118967403
535.625 -0.03410525271 0.08322914735
536.25 0.03186329116 0.07484798816
536.875 0.001940895793 0.06306025567
537.5 -0.05340618023 0.04784344553
538.125 -0.03628572442 0.05174246579
538.75 -0.0143948277 0.1235983299
539.375 -0.03910311461 0.1083121106
540.0 -0.01374877719 0.07101777649
540.625 -0.02421030477 0.05699228565
541.25 -0.04508502508 0.1083384212
541.875 -0.05363940361 0.06243076976
542.5 -0.05358945953 0.02798568174
543.125 -0.04457689098 0.05125710488
543.75 0.01434378524 0.1321923957
544.375 0.04202793345 0.1327188152
545.0 0.08960387344 0.03424426873
545.625 0.1060008567 -0.03119066743
546.25 0.100437191 -0.05222149858
546.875 0.1032363474 -0.05826743822
547.5 0.08733069082 -0.04559231009
548.125 0.1177684308 -0.04000120977
548.75 0.1640214071 0.0005548169288
549.375 0.1398833342 0.01773689836
550.0 0.1243358702 0.04764683923
550.625 0.1492873371 0.07755270956
551.25 0.0599933086 0.08658490446
551.875 0.05279010427 0.04644450356
552.5 0.0446651624 0.01837504411
553.125 0.06668841607 0.04832734082
553.75 0.0323685985 0.05646239828
554.375 0.03007861219 0.04011205212
555.0 0.03564584205 0.03842004809
555.625 0.08137451087 0.05797573033
556.25 0.02982274408 0.06431415682
556.875 0.03589762616 0.06171493243
557.5 0.0366919289 0.0816523375
558.125 0.03214251881 0.1082311713
558.75 -0.0002049041255 0.1078773001
559.375 0.03929994358 0.1031671343
560.0 0.04359042234 0.08743205856
560.625 0.05272747137 0.07428349499
561.25 0.04304959116 0.0386349342
561.875 0.05659446849 0.03838511549
562.5 0.05771155991 0.04270367106
563.125 0.06292208669 0.03606153204
563.75 0.06605134284 0.01712969798
564.375 0.1017241908 -0.005104717545
565.0 0.1033602315 0.03769333313
565.625 0.112550078 0.009589546787
566.25 0.09423328552 0.01312379661
566.875 0.106425553 0.02588856471
567.5 0.06332269388 0.08029024282
568.125 0.04096094771 0.08351760193
568.75 0.04483673807 0.09189495312
569.375 0.05984122473 0.1048052548
570.0 0.03784807324 0.0818526919
570.625 0.03909209869 0.05746445893
571.25 0.04972250936 0.05424207296
571.875 0.05589389364 0.05463024154
572.5 0.02608612088 0.02666222192
573.125 0.03317963686 0.03590570234
573.75 0.07205182919 0.04185749408
574.375 0.1093943029 0.01137950201
575.0 0.07294605595 0.0009309884013
575.625 0.06109494909 -0.01631515368
576.25 0.08965193435 -0.003937952611
576.875 0.09514770341 0.002903617249
577.5 0.08285457054 0.004477286926
578.125 0.09223590816 -0.02379674964
578.75 0.1132015533 -0.00548782695
579.375 0.1084309343 -0.007330031176
580.0 0.08779550711 -0.009709693183
580.625 0.08973016341 -0.03438780665
581.25 0.06833928986 -0.02503152397
581.875 0.05310973244 -0.01162583643
582.5 0.04333590585 0.01241850723
583.125 0.06206869225 0.03531290054
583.75 0.07875539955 0.02662230111
584.375 0.06546487326 0.0260715909
585.0 0.05514363393 0.03335962786
585.625 0.04634626568 0.06793888177
586.25 0.04797648909 0.06260741277
586.875 0.05722188841 0.03178587389
587.5 0.06279376465 0.04069621284
588.125 0.07680131622 0.04313052901
588.75 0.08727847732 0.01462342998
589.375 0.07365746297 -0.04186449707
590.0 0.04735210487 -0.07736658013
590.625 0.04064606107 -0.02293315465
591.25 0.03373284125 -0.0120442171
591.875 0.04919016807 0.001269648393
592.5 0.06493423779 -0.03396037772
593.125 0.09652951428 -0.008078858843
593.75 0.07252360631 -0.007172346586
594.375 0.07684526176 0.00125577006
595.0 0.08756119653 0.02910363366
595.625 0.06083223743 0.0572772524
596.25 0.05341601223 0.04846450576
596.875 0.02974005499 0.06489813418
597.5 0.03972267773 0.06856169456
598.125 0.00880692303 0.07659283138
598.75 0.03546592618 0.06061735528
599.375 0.06146173163 0.02837803682
600.0 0.02747849782 0.03120937847
600.625 -0.005893370504 0.02242473446
601.25 -0.002875795586 0.01727792145
601.875 -0.00243495529 0.0343743974
602.5 -0.008244382889 0.04073952982
603.125 -0.03496238829 0.04769012745
603.75 -0.009866025713 0.05513544613
604.375 -0.04274878478 0.06828737065
605.0 -0.009961254007 0.04273703199
605.625 -0.03942357223 0.02497115286
606.25 -0.07477863904 0.02524241369
606.875 -0.08697051012 0.02617801132
607.5 -0.03223097986 0.0515786919
608.125 -0.03140727179 0.04518987266
608.75 -0.003029064102 0.0384941601
609.375 -0.04231913306 0.02627883553
610.0 -0.002649053383 0.02470654327
610.625 -0.02161778699 0.0009173677313
611.25 -0.03155458479 -0.02005076745
611.875 -0.0268451396 -0.05014696128
612.5 -0.00867566149 -0.02644793994
613.125 -0.01782152091 -0.02166268575
613.75 -0.03131823322 -0.04780813005
614.375 -0.01075571833 -0.006552451587
615.0 -0.0113401496 -0.02440806635
615.625 -0.001968610199 -0.0162186872
616.25 -0.02173896583 -0.03029784611
616.875 -0.006663374568 -0.007238650676
617.5 0.00819607291 -0.005423615531
618.125 0.02388012011 -0.002939181222
618.75 0.0142870809 -0.01946600775
619.375 0.03036114039 0.000715886667
620.0 0.04842776143 -0.003704476019
620.625 0.0498890132 -0.03488712525
621.25 0.04181282567 -0.08459010277
621.875 0.03078075853 -0.04501600876
622.5 -0.02509599451 -0.0386633753
623.125 -0.01120715621 -0.007160097859
623.75 -0.009300775607 -0.001674770333
624.375 0.01550761499 0.01323974133
625.0 0.01671454645 -0.0161105577
625.625 0.01416983955 0.036493561
626.25 0.02663378177 0.01920378962
626.875 0.04624499641 0.01534928366
627.5 0.06884191522 0.01753873199
628.125 0.04116234686 0.05528606489
628.75 0.0458288418 0.04454690472
629.375 0.07027856418 0.02842180605
630.0 0.03434337448 0.07211459031
630.625 0.02295595396 0.05902382113
631.25 0.03480251086 0.03942429371
631.875 0.03570527557 0.03216688127
632.5 0.02834148945 0.03202227665
633.125 -0.02173380049 0.0335889483
633.75 -0.02633364146 0.05154998398
634.375 -0.000904474601 0.04722055607
635.0 -0.03860874501 0.05001749165
635.625 -0.007699249467 0.04794065506
636.25 -0.02790320071 0.09111090362
636.875 -0.009851249302 0.05950177769
637.5 -2.797767884e-07 0.04342955158
638.125 -0.03776378197 0.06275102485
638.75 -0.07406944725 0.08815600957
639.375 -0.07567710238 0.05428991451
640.0 -0.04045504591 0.04686610229
640.625 -0.06249866682 0.01377376804
641.25 -0.0710762799 -0.02214477831
641.875 -0.06060021775 -0.03390126873
642.5 -0.04467281682 -0.01961876823
643.125 -0.04831479611 -0.01710676254
643.75 -0.05753823622 -0.08528411056
644.375 -0.04768129465 -0.06258925895
645.0 -0.06428484872 -0.02929912575
645.625 -0.09020764416 -0.05127248349
646.25 -0.07329058815 -0.05869478023
646.875 -0.04363848917 -0.06243376141
647.5 -0.05501695298 -0.04233811173
648.125 -0.06749139369 -0.07452384315
648.75 -0.02972340138 -0.04894544342
649.375 -0.001845059351 -0.0576833469
650.0 0.02416607466 -0.06349138206
650.625 0.05151623209 -0.06446179554
651.25 0.05472957747 -0.03953508004
651.875 0.0869278207 -0.02718533348
652.5 0.1042092763 0.007399287776
653.125 0.1017131578 0.03499975318
653.75 0.09267575695 0.04167202285
654.375 0.1080203167 0.04938307688
655.0 0.08671799217 0.04119839889
655.625 0.0461924464 0.07562125969
656.25 0.03157588133 0.03234025039
656.875 0.07134468405 0.04335455026
657.5 0.04731022347 0.05559888384
658.125 0.01908102565 0.04413193113
658.75 0.009917240325 0.05997079282
659.375 0.07225661205 0.08291625328
660.0 0.1123755581 0.08576849254
660.625 0.09248222712 0.0424500943
661.25 0.1115358904 0.0250028281
661.875 0.1264228166 -0.01212132354
662.5 0.1292784012 -0.03019713734
663.125 0.09477920049 -0.01508585923
663.75 0.08968290502 0.009759196116
664.375 0.05894851366 0.0968490158
665.0 -0.009504638589 0.073378085
665.625 -0.02993842823 0.06416511358
666.25 -0.05852165266 0.06915633844
666.875 -0.1277221449 0.03504607531
667.5 -0.10657623 -0.01409959753
668.125 -0.1058324886 0.004518011983
668.75 -0.1208888175 0.03713848259
669.375 -0.1470176354 0.02774946281
670.0 -0.08916475247 -0.01044855489
670.625 -0.08947391037 -0.0001117383321
671.25 -0.09192920338 0.02594830439
671.875 -0.1138073957 0.05213491966
672.5 -0.06427806683 0.05113999939
673.125 -0.05561222928 0.05055419129
673.75 -0.08293627227 0.06885155923
674.375 -0.1089495337 0.06101217225
675.0 -0.1017428984 0.02018022352
675.625 -0.1290012098 -0.01538407559
676.25 -0.1127378617 -0.07429405635
676.875 -0.09696486532 -0.08708918828
677.5 -0.1080267567 -0.06364147546
678.125 -0.1171668666 -0.08140885661
678.75 -0.04961003576 -0.06449847375
679.375 -0.02512201459 -0.06062794628
680.0 -0.02396867461 -0.0557417642
680.625 -0.02655026535 -0.07659884302
681.25 -0.0486786574 -0.10961357
681.875 -0.04363752626 -0.08022250117
682.5 -0.1024302875 -0.0528908884
683.125 -0.1374035146 -0.06649910263
683.75 -0.1181504539 -0.1005749135
684.375 -0.03327762684 -0.1043741224
685.0 0.02175111765 -0.1383042135
685.625 0.1090767271 -0.0847082424
686.25 0.1091185534 -0.03200857289
686.875 0.1033620787 -0.01090450566
687.5 0.1028850455 0.02578818718
688.125 0.04722688222 0.05547617388
688.75 0.01397740012 0.0586560049
689.375 0.0355191205 0.08799117302
690.0 0.02825029102 0.1370353057
690.625 0.01858053232 0.1234121354
691.25 0.04096001515 0.09744893652
691.875 0.1607248934 0.04487185544
692.5 0.1949704679 -0.05209553192
693.125 0.06587859781 -0.1289453033
693.75 -0.01645302638 -0.09388111555
694.375 -0.02452672654 -0.1144490404
695.0 0.04690472909 -0.1281123649
695.625 0.1139888704 -0.02996286934
696.25 0.07337867229 0.054444498
696.875 -0.0180452924 0.1036849782
697.5 -0.1059367901 0.06597582286
698.125 -0.1248746083 0.0111815101
698.75 -0.1329761125 0.04569217708
699.375 -0.113960805 0.00682832242
700.0 -0.1046233453 0.0007890815946
700.625 -0.112194449 -0.01187404102
701.25 -0.1358419693 -0.02921810896
701.875 -0.06955836211 -0.04105357004
702.5 -0.06856136295 -0.01292178256
703.125 -0.07993890234 0.02170687925
703.75 -0.06601109802 0.1420271706
704.375 -0.04757442298 0.1647758752
705.0 -0.02088608956 0.1147694535
705.625 -0.04172648142 0.1011383239
706.25 -0.126172798 0.09513692898
706.875 -0.1333370922 -0.08818362109
707.5 -0.03896021208 -0.08880433203
708.125 -0.02630139421 -0.09158590182
708.75 0.03663261715 -0.09226709173
709.375 0.09646928103 -0.0128944073
710.0 0.05839552577 0.05316526409
710.625 0.05517085639 0.05731553416
711.25 0.03114692591 0.07334368082
711.875 -0.003642309768 0.09186563089
712.5 0.02351423586 0.1246093812
713.125 0.1384393881 0.0613143599
713.75 0.121456747 -0.09125579598
714.375 0.01954004958 -0.1309098634
715.0 -0.028684816 -0.1312141975
715.625 0.0145651844 -0.1474899868
716.25 0.06506394051 -0.0521460568
716.875 0.05766723822 -0.0383806349
717.5 0.07843365623 0.01507456229
718.125 0.05719708904 0.08833959123
718.75 0.05464643202 0.07911277843
719.375 0.004887569382 0.06989878307
720.0 -0.01760641316 0.06847161561
720.625 -0.1130429666 0.0006938769859
721.25 -0.06768883672 -0.09344294495
721.875 0.01203994011 -0.1114373555
722.5 0.05050312531 -0.1100932128
723.125 0.04200721596 -0.0978775378
723.75 -0.04735694795 -0.06421584423
724.375 -0.06272512261 -0.0421612094
725.0 -0.05688661192 0.01887961651
725.625 -0.05667142392 0.008543481984
726.25 -0.07216210042 -0.005246907728
726.875 -0.09942749625 -0.05969993502
727.5 -0.08188257239 -0.03519516013
728.125 -0.05168063907 -0.07334769217
728.75 -0.04518931263 -0.09152569247
729.375 -0.05391194427 -0.0349175062
730.0 -0.05014367994 -0.05666652713
730.625 -0.03924308215 -0.0302732989
731.25 -0.008649955283 -0.05267163151
731.875 0.02366360269 -0.03786442288
732.5 0.0600973034 0.03986394889
733.125 0.01505517027 0.01970108459
733.75 0.0470467666 0.06022927182
734.375 0.04025550741 0.0209515865
735.0 0.0553656358 -0.002186180495
735.625 0.03081297206 -0.01475087114
736.25 0.0427545159 -0.03475269784
736.875 0.01008902706 -0.03391723218
737.5 0.01170371708 -0.01386156136
738.125 -0.03161879689 0.01086594409
738.75 -0.0006512849592 0.06353178155
739.375 0.001336517907 0.05349746541
740.0 0.04214282228 0.07613940197
740.625 -0.007370392006 0.02026646128
741.25 0.005253091333 0.04395951174
741.875 -0.03778758733 0.06097778315
742.5 -0.02865235588 -0.01451422785
743.125 0.01089316842 -0.03230504046
743.75 0.03227715598 -0.03626430766
744.375 0.02900465987 -0.07456961511
745.0 0.008475810935 -0.05544752079
745.625 0.02151667938 -0.00719252222
746.25 0.03827443576 0.003420248245
746.875 0.02855825468 -0.03203053495
747.5 0.01878867649 -0.05792589722
748.125 -0.03577719796 -0.0368780833
748.75 -0.03863010538 -0.04155918908
749.375 -0.05469035284 0.01392569157
750.0 0.01959003632 0.08106712518
