!Created with skrf (http://scikit-rf.org).
# GHz S RI R 50.0 
!freq ReS11 ImS11
500.0 -0.006845063474 0.01348137765
500.625 0.02070310837 0.009909632457
501.25 0.01886067305 -0.01035808282
501.875 0.01277990548 -0.01678283129
502.5 0.006515194137 0.00562731267
503.125 0.01430289648 0.007253451863
503.75 0.02102407499 -0.01420815399
504.375 0.01722699815 -0.0254877999
505.0 0.01251437094 -0.03116602314
505.625 0.01013099913 -0.04556430722
506.25 -0.01290281006 -0.0618352667
506.875 0.0061445899 -0.09025724694
507.5 -0.01839085762 -0.06777208272
508.125 0.003360864533 -0.07238559821
508.75 -0.04944735011 -0.08383971111
509.375 -0.05093795441 -0.05757056769
510.0 -0.02611653884 -0.05455366087
510.625 -0.04840587879 -0.009733532414
511.25 -0.07838516497 0.0001898294244
511.875 -0.05812857145 0.03861935127
512.5 -0.01120659402 0.05174524431
513.125 0.0534408381 0.04565448706
513.75 0.07189593942 0.04044539619
514.375 0.06285903821 0.01338780576
515.0 0.06597623218 -0.01402540508
515.625 0.09108289509 0.04725644252
516.25 0.1076470175 0.02071835895
516.875 0.06822241851 0.09955484304
517.5 0.1332700912 0.01463823432
518.125 0.1317152689 0.1884073898
518.75 0.1113852421 -0.008127435827
519.375 0.08196829497 0.00222023189
520.0 0.08922390794 -0.04574299082
520.625 0.1143609298 -0.0549619211
521.25 0.07825125592 -0.07043202678
521.875 0.0658161017 -0.02855877851
522.5 0.05343457329 -0.09168427585
523.125 0.1363381647 -0.1885629736
523.75 0.0829753492 -0.2626376693
524.375 0.07709670004 -0.2597955047
525.0 0.03497342321 -0.1161876282
525.625 0.03326267218 -0.07838557618
526.25 0.04354252305 -0.05560680141
526.875 0.02441966816 -0.06998545066
527.5 0.008633079442 -0.08181243887
528.125 -0.02157707413 -0.06062952063
528.75 -0.04011590703 -0.06473993177
529.375 -0.1160608185 -0.03286063199
530.0 -0.09625542468 0.02934348946
530.625 -0.03209116285 0.04845673242
531.25 -0.05701180558 0.03673475669
531.875 -0.1255909317 0.07923682994
532.5 -0.1197457709 0.1104552028
533.125 -0.07227112032 0.09218399596
533.75 -0.02983763258 0.09709850206
534.375 -0.04653933104 0.1205764015
535.0 -0.04206505059 0.1181988767
535.625 -0.04392464659 0.07692655203
536.25 0.01825728318 0.07906090789
536.875 -0.01821027954 0.08933378754
537.5 -0.07604631208 0.04974708378
538.125 -0.05579598921 0.0698549311
538.75 -0.03558570512 0.1249178969
539.375 -0.06421866677 0.1088203307
540.0 -0.05237935498 0.08459909279
540.625 -0.04997077135 0.0810395402
541.25 -0.06982300246 0.1014673914
541.875 -0.08170389374 0.06919852257
542.5 -0.06585635494 0.02800855657
543.125 -0.059115088 0.07171321121
543.75 -0.004839949295 0.1414554579
544.375 0.02563399802 0.1409700482
545.0 0.09322360013 0.05016043505
545.625 0.1140792536 -0.01656762348
546.25 0.1259672287 -0.04690581536
546.875 0.1094802761 -0.04289544843
547.5 0.1174505833 -0.04135951173
548.125 0.1517656417 -0.03883357897
548.75 0.1599669669 0.02613062742
549.375 0.1415230122 0.03605590646
550.0 0.1329569524 0.07277827242
550.625 0.1293013483 0.0951458924
551.25 0.0475265305 0.09963862244
551.875 0.04211522079 0.05005793956
552.5 0.05465410878 0.04655981837
553.125 0.06471268619 0.07117637802
553.75 0.01754692172 0.06073887051
554.375 0.02179538458 0.04811266772
555.0 0.04901564482 0.06106262969
555.625 0.07176546211 0.07603546007
556.25 0.03328111054 0.08183310739
556.875 0.02826792078 0.07110256496
557.5 0.04121167263 0.09854797806
558.125 0.02820851692 0.1233516509
558.75 -0.00781155233 0.1163928973
559.375 0.02741443101 0.1071791632
560.0 0.03774890581 0.1130975375
560.625 0.03831136225 0.07521554712
561.25 0.03793443527 0.04581809686
561.875 0.04509799679 0.05177048565
562.5 0.05847420491 0.05648827035
563.125 0.0554052388 0.04855521091
563.75 0.06807941454 0.02823764054
564.375 0.1118564691 0.009725516427
565.0 0.1269778682 0.04968564712
565.625 0.1101022405 0.0233501016
566.25 0.09657696644 0.02292670797
566.875 0.1026458476 0.04516195724
567.5 0.06644813099 0.09517408278
568.125 0.03744521189 0.09013994724
568.75 0.04926871194 0.1064697465
569.375 0.04255065266 0.1098543251
570.0 0.03297019161 0.0907940774
570.625 0.03125167305 0.06181198676
571.25 0.05307948633 0.06642119381
571.875 0.03860347825 0.06152672816
572.5 0.0301475095 0.03406085796
573.125 0.03517917932 0.04383627883
573.75 0.08873570071 0.04354533488
574.375 0.1054038466 0.03132207742
575.0 0.0754489304 0.006779511446
575.625 0.06770280436 -0.008472572243
576.25 0.09999016879 0.008220171594
576.875 0.09883938989 0.01955560644
577.5 0.08918612298 0.008687892027
578.125 0.09850141284 -0.01239028945
578.75 0.1249178532 -0.0051940017
579.375 0.1042856774 0.006917570217
580.0 0.09400456625 -0.01238445363
580.625 0.09637931171 -0.03336748703
581.25 0.08258089913 -0.03299002136
581.875 0.04964255137 0.001401136235
582.5 0.04828541037 0.01204333002
583.125 0.08181308871 0.0283315504
583.75 0.08138790371 0.03609799424
584.375 0.05985174891 0.0369328454
585.0 0.05005767666 0.04579754788
585.625 0.06542049085 0.06713347276
586.25 0.05859576201 0.06395179471
586.875 0.05247420111 0.03999807267
587.5 0.06975676393 0.03691812653
588.125 0.0932604378 0.0273065113
588.75 0.09482738554 0.01549512844
589.375 0.07647356898 -0.03356307518
590.0 0.05876472743 -0.0651881533
590.625 0.04659461798 -0.03678103741
591.25 0.03716804463 -0.004637341065
591.875 0.0484557313 -0.0006334161169
592.5 0.07601233157 -0.02508335004
593.125 0.09144050034 -0.02114109518
593.75 0.07712511428 -0.006451231684
594.375 0.07882611252 0.008568893552
595.0 0.08978293286 0.03394510479
595.625 0.07092307089 0.05598100577
596.25 0.04569677068 0.05325854032
596.875 0.03703820704 0.05648442804
597.5 0.02866532205 0.07404053692
598.125 0.03294263411 0.06973357954
598.75 0.05417763253 0.04657409172
599.375 0.0550662802 0.03261689951
600.0 0.03867155539 0.02428806891
600.625 0.01274203911 0.01446909941
601.25 0.001463106161 0.01647760736
601.875 -0.008292442947 0.03512824456
602.5 -0.01592752557 0.04229889724
603.125 -0.02140207208 0.04379665373
603.75 -0.01362812472 0.05345994201
604.375 -0.006893821998 0.05658376139
605.0 -0.01452216577 0.04008875125
605.625 -0.02363465177 0.02306579785
606.25 -0.04476368701 0.02564620265
606.875 -0.04902540862 0.03951758471
607.5 -0.03128836902 0.04836650783
608.125 -0.004593270499 0.04245098348
608.75 -0.003018606507 0.0352753211
609.375 -0.003686634663 0.03058794157
610.0 -0.002116090517 0.0223249809
610.625 0.00570484734 0.009757879667
611.25 0.0007591459414 -0.005946200701
611.875 0.002440328655 -0.01618001727
612.5 -0.004636660481 -0.024704232
613.125 -0.01635754859 -0.02172916471
613.75 -0.0191371049 -0.01142901518
614.375 -0.006671133726 -0.002952663362
615.0 0.004402171645 -0.00637669306
615.625 0.0003156404916 -0.0133858457
616.25 -0.005097569166 -0.004062315784
616.875 0.00261722967 0.006048623072
617.5 0.02030174481 0.006808157094
618.125 0.02486591486 0.001848316898
618.75 0.02450599385 0.002548520352
619.375 0.03336826631 0.008727391169
620.0 0.05261603783 0.006980917021
620.625 0.05448777707 -0.01847337593
621.25 0.04436771952 -0.03151392989
621.875 0.03182120618 -0.03604036919
622.5 -0.007385694546 -0.02693046518
623.125 -0.007157295828 0.000887151053
623.75 0.008127186159 0.0159482513
624.375 0.01826540721 0.02492900366
625.0 0.01138539353 0.03895231222
625.625 0.009953063274 0.04513737621
626.25 0.03053988102 0.05924122079
626.875 0.04931317459 0.06703414767
627.5 0.0421377893 0.07225449669
628.125 0.03314309034 0.06292666427
628.75 0.0332107036 0.07044155203
629.375 0.02842714871 0.08049532136
630.0 0.01675575827 0.07344609424
630.625 0.01209928563 0.05857167861
631.25 0.004596731912 0.05381869272
631.875 -0.01295282817 0.0443172767
632.5 -0.02790513245 0.03347805305
633.125 -0.03325546934 0.02997340104
633.75 -0.04117684212 0.04611208996
634.375 -0.05125967865 0.04123022456
635.0 -0.05221472681 0.04568947277
635.625 -0.04778632455 0.07088620186
636.25 -0.04663244423 0.08695715159
636.875 -0.04926414083 0.06053729565
637.5 -0.04731784482 0.04445459167
638.125 -0.06974418511 0.07085153517
638.75 -0.0877420249 0.07584189659
639.375 -0.0775157819 0.03999736028
640.0 -0.05716274753 0.01453243895
640.625 -0.07343515994 -0.009791458717
641.25 -0.07482714424 -0.0497466256
641.875 -0.05435387751 -0.05002772455
642.5 -0.0516044997 -0.04427598847
643.125 -0.06061760584 -0.06894270155
643.75 -0.03773080525 -0.09934163517
644.375 -0.0369790363 -0.08412944574
645.0 -0.06923731331 -0.06571019803
645.625 -0.08082973499 -0.07588554919
646.25 -0.05666179688 -0.07264118448
646.875 -0.02860871954 -0.06903363182
647.5 -0.04877964103 -0.07119947919
648.125 -0.04896151192 -0.08731857508
648.75 -0.01283984325 -0.07198516993
649.375 0.01377926335 -0.05890909407
650.0 0.04220335294 -0.07297295615
650.625 0.07545729798 -0.06607653163
651.25 0.08520918287 -0.03778192707
651.875 0.09557441012 -0.01469970592
652.5 0.1313634421 0.02815910533
653.125 0.1133247444 0.06685126469
653.75 0.09832674836 0.06315876772
654.375 0.09769741712 0.06486682572
655.0 0.07148652299 0.09261159312
655.625 0.02302605889 0.07655264658
656.25 0.02844166744 0.0552513376
656.875 0.06060179492 0.06110496242
657.5 0.04110764317 0.09186094452
658.125 -0.002222687441 0.08483776778
658.75 0.003710609061 0.08118464505
659.375 0.0632000042 0.1032148498
660.0 0.09638120398 0.1070712717
660.625 0.09930815338 0.07932887216
661.25 0.1132560729 0.04244689848
661.875 0.1400230768 0.01001861133
662.5 0.1343594932 -0.002246217128
663.125 0.107055531 0.001267342738
663.75 0.1032898333 0.03698123012
664.375 0.03326008431 0.1036766132
665.0 -0.02714479157 0.08280224328
665.625 -0.04309737831 0.05735633364
666.25 -0.07931336971 0.06284502928
666.875 -0.1354247503 0.001510107019
667.5 -0.1103253742 -0.03043254624
668.125 -0.1108788246 -0.009269230214
668.75 -0.1419208243 0.0252881545
669.375 -0.1442793639 -0.004971622093
670.0 -0.09406112898 -0.0242705149
670.625 -0.09416412711 -0.01387581399
671.25 -0.1271052315 0.01513544417
671.875 -0.1177716303 0.02442482459
672.5 -0.08042193637 0.03933034504
673.125 -0.07453741202 0.04938831414
673.75 -0.1072389936 0.06195143245
674.375 -0.1195418056 0.04006355815
675.0 -0.120407636 0.007926086265
675.625 -0.1309682981 -0.04051366997
676.25 -0.1018148994 -0.09311487889
676.875 -0.08131400034 -0.09777219106
677.5 -0.104117921 -0.08243655189
678.125 -0.1067060312 -0.1059892684
678.75 -0.03774295379 -0.0881971118
679.375 -0.008804394839 -0.06168331582
680.0 -0.02374429964 -0.07223987455
680.625 -0.03422653567 -0.1192058685
681.25 -0.01886822465 -0.1164825436
681.875 -0.03414768753 -0.08946553973
682.5 -0.1009890237 -0.07352398649
683.125 -0.1492434023 -0.08525413722
683.75 -0.1082127455 -0.1207847756
684.375 -0.03199970511 -0.1231417053
685.0 0.04417883425 -0.1368067043
685.625 0.1301601677 -0.08501468175
686.25 0.1351195592 -0.02291056685
686.875 0.1163399516 0.00514935954
687.5 0.08739592577 0.04753853113
688.125 0.04720607685 0.07170740071
688.75 0.02519229639 0.0801827922
689.375 0.03610443014 0.1109218866
690.0 0.001405784663 0.1447750248
690.625 -0.003240562405 0.1256546414
691.25 0.04953608034 0.115877353
691.875 0.1617019497 0.07278872385
692.5 0.2084069577 -0.02514132578
693.125 0.07748542213 -0.1086309579
693.75 -0.01138789136 -0.1050081253
694.375 -0.01938933246 -0.1322226878
695.0 0.07849843151 -0.140139596
695.625 0.1147107881 -0.008280156919
696.25 0.06257067944 0.0699514649
696.875 -0.03452640276 0.1116409417
697.5 -0.1217210775 0.05549569626
698.125 -0.1375567751 0.01220727798
698.75 -0.1410237735 0.022150438
699.375 -0.1354611207 0.01312653475
700.0 -0.1144767333 -0.007608985333
700.625 -0.1091906391 -0.03099651023
701.25 -0.1244732471 -0.05893794771
701.875 -0.08635559501 -0.05438409671
702.5 -0.06895685902 -0.02580114256
703.125 -0.09081469218 0.01698184342
703.75 -0.1012335889 0.1368159657
704.375 -0.06408363202 0.1633862873
705.0 -0.02219168622 0.1204460128
705.625 -0.04191985709 0.1109001918
706.25 -0.1476293913 0.0731743148
706.875 -0.1331911978 -0.09965149038
707.5 -0.04958189768 -0.09816501461
708.125 -0.01458494759 -0.09637862881
708.75 0.0561853219 -0.0811684397
709.375 0.1008473781 0.002993887513
710.0 0.06534978888 0.05546820799
710.625 0.0496947056 0.06631303802
711.25 0.01747674658 0.08078483656
711.875 0.005971480035 0.09370471161
712.5 0.04836017708 0.1161650047
713.125 0.1494003522 0.05880812871
713.75 0.1291496079 -0.07652461427
714.375 0.0360363063 -0.1253773587
715.0 -0.02574001789 -0.1364646452
715.625 0.01742248748 -0.1452054946
716.25 0.05881794334 -0.07743251334
716.875 0.06121534683 -0.02586866089
717.5 0.08098329181 0.0175825185
718.125 0.07976223482 0.07878813336
718.75 0.03592105189 0.08667458775
719.375 0.01017461514 0.06731152332
720.0 -0.03217447492 0.06842442072
720.625 -0.1027261921 0.007161478235
721.25 -0.05461457444 -0.1031115338
721.875 0.02248656877 -0.1096045448
722.5 0.03837967834 -0.1098762326
723.125 -0.0001903219286 -0.1033752762
723.75 -0.04326478046 -0.06446712292
724.375 -0.05934624118 -0.02868868508
725.0 -0.05870034737 0.00494674268
725.625 -0.04309907517 0.01511644858
726.25 -0.0500706526 0.005064133009
726.875 -0.06914786217 -0.01501567096
727.5 -0.07753878434 -0.04501265901
728.125 -0.05934554945 -0.05580166483
728.75 -0.05183747862 -0.0443256843
729.375 -0.05126225535 -0.02759208113
730.0 -0.04664937463 -0.03174177143
730.625 -0.03450675576 -0.03288618078
731.25 -0.01642254515 -0.03216003906
731.875 0.01025639042 -0.02944472419
732.5 0.01675141027 -0.005492311048
733.125 0.01096907391 0.01961924586
733.75 0.02076711152 0.02875449725
734.375 0.03674337984 0.022700231
735.0 0.03711486278 -0.002038833674
735.625 0.03016723799 -0.01303198048
736.25 0.02086636195 -0.02518034838
736.875 0.0004897562062 -0.02824637026
737.5 -0.02425836709 -0.01300224275
738.125 -0.03685475703 0.008724559008
738.75 -0.03562197427 0.02821495325
739.375 -0.0142444471 0.0360428426
740.0 -0.007190061641 0.01637334336
740.625 -0.01782000788 0.01394985775
741.25 -0.02525562795 0.02049674822
741.875 -0.03015503481 0.007546607206
742.5 -0.01637983633 -0.02547016147
743.125 0.02481792832 -0.02253502205
743.75 0.03278276223 -0.002769379712
744.375 0.02887226945 -0.00645328232
745.0 0.03160090171 -0.0006616379424
745.625 0.02833251187 0.009519242998
746.25 0.04638974467 0.01586741345
746.875 0.05684159887 -0.02504451674
747.5 0.03143307692 -0.05874343418
748.125 0.001047912118 -0.06372628969
748.75 -0.02868133858 -0.04810424884
749.375 -0.05951389497 -0.01767188772
750.0 -0.05195975217 0.05361954948
