!Created with skrf (http://scikit-rf.org).
# GHz S RI R 50.0 
!freq ReS11 ImS11
500.0 -0.01794672757 0.02614425715
500.625 0.02301032919 0.02624635722
501.25 0.03578108219 0.01401356048
501.875 0.02797417009 0.01894403231
502.5 0.01609412449 0.0354284934
503.125 0.03415563314 0.02392512186
503.75 0.04905810991 0.003686352966
504.375 0.04734487793 -0.01259099012
505.0 0.03971050263 -0.03426735946
505.625 0.04533960859 -0.06110414236
506.25 0.03169988284 -0.07255617408
506.875 0.05904163332 -0.06864577388
507.5 0.03126755854 -0.0656997418
508.125 0.07605707031 -0.06252789043
508.75 0.02757398821 -0.08856187283
509.375 0.007416251517 -0.07302284885
510.0 0.03576466719 -0.06793679376
510.625 -0.04323524936 -0.06520180295
511.25 -0.06180918516 -0.05118221342
511.875 -0.06424870092 0.001637794982
512.5 -0.0376563002 0.03101163576
513.125 -0.005116980461 0.06236624514
513.75 0.00725839418 0.06718179492
514.375 0.03037697938 0.05921025875
515.0 0.06685029883 0.05997286401
515.625 0.01306911425 0.1234936048
516.25 0.07670169987 0.09151197857
516.875 0.01142437635 0.1441267002
517.5 0.1108432935 0.09959895583
518.125 -0.01188380411 0.2038654963
518.75 0.07236527329 0.05052945099
519.375 0.06444550028 0.06225876603
520.0 0.1092368165 0.04248206952
520.625 0.1059501483 0.02552453939
521.25 0.09394011788 -0.007707246225
521.875 0.07638583411 0.02024248065
522.5 0.1017347384 -0.03146395685
523.125 0.1679820135 -0.07542311466
523.75 0.150127604 -0.1603535367
524.375 0.1632124434 -0.1251620822
525.0 0.05806197189 -0.0300922504
525.625 0.03922309047 -0.009333497616
526.25 0.05401786692 0.004421514263
526.875 0.06182232707 -0.008247836349
527.5 0.05002067128 -0.01810144126
528.125 0.03171112238 -0.03971209745
528.75 0.02856366507 -0.06855850419
529.375 -0.02324591596 -0.09441934786
530.0 -0.03564719626 -0.04280241745
530.625 -0.04034535891 -0.02641722007
531.25 -0.1008258514 -0.08885190597
531.875 -0.1544071715 -0.09359387306
532.5 -0.1539706582 -0.01165945875
533.125 -0.1100425456 0.01623482319
533.75 -0.120137789 0.04193831801
534.375 -0.1152642069 0.01677989917
535.0 -0.08955485671 0.04744455279
535.625 -0.07117200957 0.01803008618
536.25 -0.05587871567 0.03953721863
536.875 -0.08009228643 -0.003340494068
537.5 -0.09538195707 -0.03058703968
538.125 -0.1046471233 0.01570488632
538.75 -0.1119503486 0.03685529729
539.375 -0.08750337083 0.009351541271
540.0 -0.0925447724 -0.001026425273
540.625 -0.1215588764 -0.002070661666
541.25 -0.1280969917 -0.02818307869
541.875 -0.09343179443 -0.0269730789
542.5 -0.09425762743 -0.03016071425
543.125 -0.1316156942 0.01836009655
543.75 -0.1027245811 0.1010809467
544.375 -0.05196916605 0.1043194384
545.0 0.04303921591 0.08616274945
545.625 0.07631431414 0.08380161405
546.25 0.09201243951 0.05257435004
546.875 0.09503274307 0.04119187148
547.5 0.1089999901 0.04966514024
548.125 0.1113846418 0.09118628554
548.75 0.07104731712 0.09153751941
549.375 0.07438728795 0.09553842934
550.0 0.03271429558 0.1225307137
550.625 0.007189135704 0.08708274708
551.25 -0.02032294817 0.03961220643
551.875 -0.02468548765 0.03226489261
552.5 -0.04614076761 0.05951159542
553.125 -0.05731140211 0.05123327845
553.75 -0.05491106661 0.03744040498
554.375 -0.04596586226 0.06513124861
555.0 -0.04019617588 0.09873392293
555.625 -0.03342048591 0.09781962231
556.25 -0.04123662749 0.07576966889
556.875 -0.04828539126 0.09411879244
557.5 -0.05741958046 0.1034021573
558.125 -0.05695814139 0.1068402598
558.75 -0.0658377115 0.07563121512
559.375 -0.04824091769 0.08751140301
560.0 -0.03880689951 0.05882633868
560.625 -0.0242320517 0.04273324562
561.25 -0.03491760487 0.03907286527
561.875 -0.04684851072 0.06057257122
562.5 -0.03495228731 0.07299329716
563.125 -0.002291093389 0.08307125587
563.75 0.03864685413 0.09552327567
564.375 0.0591791044 0.1122244275
565.0 0.05159416038 0.1035994108
565.625 0.06293833788 0.0771044717
566.25 0.04594461304 0.08496540068
566.875 0.004026378173 0.1022265904
567.5 -0.02656254004 0.08063671651
568.125 -0.03103127476 0.0890389514
568.75 -0.04214703168 0.09203185523
569.375 -0.03682067693 0.06647897287
570.0 -0.03341806047 0.03680212872
570.625 -0.03362995827 0.04239096843
571.25 -0.04882113126 0.04687748234
571.875 -0.03468140993 0.03245125082
572.5 -0.03939102898 0.0450142277
573.125 -0.03291171193 0.089694981
573.75 0.008534514563 0.1216221343
574.375 0.0364755817 0.08158754576
575.0 0.04136396919 0.06363700147
575.625 0.05041126449 0.08072655095
576.25 0.03948388303 0.09614196633
576.875 0.05212385057 0.0770641488
577.5 0.06800358964 0.06120016494
578.125 0.07710697788 0.0703262229
578.75 0.05123374451 0.07156682768
579.375 0.05422188801 0.05254683151
580.0 0.06025021606 0.04404179322
580.625 0.05225250433 0.04107644115
581.25 0.01817044673 0.03774402657
581.875 -0.0005778384756 0.04577603877
582.5 0.009661817896 0.07572090823
583.125 0.008525022356 0.09205904093
583.75 0.01069228884 0.07867161476
584.375 -0.003221099991 0.07030632076
585.0 -0.0199102871 0.08446683121
585.625 -0.02585306501 0.08766681142
586.25 -0.007136029898 0.07343624831
586.875 -0.003868315069 0.06789088501
587.5 -0.006914089037 0.08294772124
588.125 0.02770187513 0.07780489104
588.75 0.04794576791 0.05650011701
589.375 0.06067531203 0.02813799268
590.0 0.04179735516 0.03186255143
590.625 0.01969824418 0.03832407218
591.25 0.02762675822 0.05227018598
591.875 0.05662236801 0.06146301293
592.5 0.07880296095 0.06101259395
593.125 0.06596312821 0.04901816932
593.75 0.06146563542 0.04557516383
594.375 0.05390386829 0.07003275379
595.0 0.02552890989 0.07938671887
595.625 0.004036111248 0.06371368575
596.25 -0.007715205103 0.05158471138
596.875 -0.0281999526 0.05359612142
597.5 -0.03335359913 0.04942604593
598.125 -0.01914578373 0.05030560838
598.75 -0.001378722542 0.0419827853
599.375 -0.00351770643 0.02620478101
600.0 -0.01458074301 0.004760980668
600.625 -0.02812023459 -0.002622485842
601.25 -0.05006868452 0.003292887299
601.875 -0.05936896993 0.01372014588
602.5 -0.05464677372 0.0214303362
603.125 -0.05504641446 0.02663498194
603.75 -0.05198539425 0.03429080984
604.375 -0.04157396878 0.02443800032
605.0 -0.03217273395 0.008658246002
605.625 -0.04190240071 -0.006647151645
606.25 -0.05516258675 -0.007412153761
606.875 -0.05401639625 0.003006311429
607.5 -0.03351408591 0.01894721324
608.125 -0.0162010955 0.01563756712
608.75 -0.01083382423 0.01051439533
609.375 -0.006835512983 0.00548550887
610.0 0.003091071562 0.001655045202
610.625 0.009839762301 -0.01267708132
611.25 0.01263595906 -0.01920545263
611.875 0.01295527525 -0.02672442623
612.5 0.007491407602 -0.02974619187
613.125 -0.004307518906 -0.02519506182
613.75 -0.007323969238 -0.008546728555
614.375 0.00145195409 0.003165372093
615.0 0.01064878814 -0.001854875993
615.625 0.005249210295 -0.00515974829
616.25 -0.001326138511 0.002655173513
616.875 0.005631157784 0.02118603645
617.5 0.01853153001 0.02136615536
618.125 0.02018218809 0.01615007592
618.75 0.01885193321 0.01766345796
619.375 0.02280457061 0.03034330308
620.0 0.0351780992 0.02719257333
620.625 0.04003818943 9.924865108e-05
621.25 0.02754326064 -0.00856870277
621.875 0.006621543401 -0.01393027626
622.5 -0.02112801993 0.005644391178
623.125 -0.01726850163 0.03565935206
623.75 -0.006473726175 0.05034319042
624.375 -0.01462556933 0.05676333863
625.0 -0.03074529907 0.04766422402
625.625 -0.03107002362 0.06123915048
626.25 -0.01562819515 0.08128735256
626.875 -0.007149689519 0.08299671573
627.5 -0.006837752112 0.06623291708
628.125 -0.01535365535 0.05814270804
628.75 -0.02886244803 0.05643602276
629.375 -0.03131142074 0.04494115847
630.0 -0.02055997525 0.03378944479
630.625 -0.02374778942 0.01749735697
631.25 -0.03057045197 -0.005171830922
631.875 -0.0380785201 -0.02480471117
632.5 -0.04436911029 -0.02621615923
633.125 -0.05945597675 -0.03211008991
633.75 -0.06805186122 -0.03045514013
634.375 -0.06921632786 -0.03034837842
635.0 -0.08175178175 -0.01864785038
635.625 -0.09479919764 0.003760503324
636.25 -0.07917408983 0.0008728394278
636.875 -0.0611579269 -0.01119482807
637.5 -0.07908832366 -0.02199294973
638.125 -0.100317466 -0.02047475835
638.75 -0.0781446734 -0.01025638548
639.375 -0.04741232774 -0.01834285723
640.0 -0.02103815807 -0.0474916253
640.625 0.008329458609 -0.07951263512
641.25 0.01171541286 -0.07021540502
641.875 0.007398681402 -0.06649894718
642.5 0.02122229542 -0.07654592801
643.125 0.05780724731 -0.07244670398
643.75 0.0592617059 -0.06130837057
644.375 0.03275804503 -0.07559718105
645.0 0.0249825545 -0.08790382588
645.625 0.03703554715 -0.06400976608
646.25 0.04496148456 -0.04918242556
646.875 0.05098875746 -0.05550358237
647.5 0.05771921213 -0.07520546443
648.125 0.05090636175 -0.05223415837
648.75 0.0626270714 -0.02459793273
649.375 0.08523017072 -0.006313923941
650.0 0.1063066416 0.01331588971
650.625 0.09461883786 0.02612859011
651.25 0.08789084207 0.04187153246
651.875 0.07570710683 0.08428530012
652.5 0.0329814096 0.1055146934
653.125 0.02584004277 0.0934110584
653.75 0.01788727136 0.08595022434
654.375 -0.02092770249 0.07859776105
655.0 -0.04930146054 0.03143876017
655.625 -0.05061294214 0.02203596136
656.25 -0.05951585784 0.04557459595
656.875 -0.07425452962 0.07476066794
657.5 -0.08260983996 0.04415476608
658.125 -0.08804737445 0.03932962273
658.75 -0.08992674446 0.08349163315
659.375 -0.07448102461 0.1217946905
660.0 -0.02488449055 0.1176815896
660.625 0.004219462493 0.1078271953
661.25 0.02463347954 0.1124284987
661.875 0.03306779156 0.1003630757
662.5 0.04572918392 0.07130393707
663.125 0.03266635024 0.07171293877
663.75 -0.02639531798 0.08663498542
664.375 -0.07501509925 0.03243837618
665.0 -0.07892288554 -0.003860254183
665.625 -0.0908962273 -0.03159142026
666.25 -0.09026779357 -0.09339246728
666.875 -0.0486957833 -0.1070780208
667.5 -0.04941733909 -0.1042798871
668.125 -0.07134727809 -0.1100006857
668.75 -0.0569117313 -0.1102668651
669.375 -0.03180613624 -0.08154294476
670.0 -0.01889487513 -0.07349836303
670.625 -0.0252624855 -0.1022269686
671.25 -0.03041469305 -0.09747173095
671.875 -0.03752180058 -0.07684844251
672.5 -0.05582729756 -0.06652708653
673.125 -0.09655929483 -0.07369082433
673.75 -0.1010826937 -0.07334371841
674.375 -0.09541879633 -0.07466188852
675.0 -0.06337789446 -0.1064409862
675.625 -0.0127920266 -0.1196916345
676.25 0.01822980763 -0.1030697084
676.875 0.02253847904 -0.1030257486
677.5 0.03829704229 -0.1053509833
678.125 0.05291712009 -0.05122742815
678.75 0.05233311376 -0.02496604316
679.375 0.07452652443 -0.02136678365
680.0 0.1144098078 -0.04419378058
680.625 0.1157170491 -0.03299988013
681.25 0.08428708238 -0.06668821808
681.875 0.05828690223 -0.1116107274
682.5 0.01627652088 -0.1653752812
683.125 0.01727234971 -0.1429761653
683.75 0.02756992304 -0.1114904488
684.375 0.07331635884 -0.08839082122
685.0 0.1247825092 -0.0096725394
685.625 0.08933682181 0.05370971945
686.25 0.04137161658 0.07482983347
686.875 -0.002040754721 0.07694364237
687.5 -0.05399817914 0.06526662617
688.125 -0.07317096911 0.06344024736
688.75 -0.100513523 0.08019891728
689.375 -0.1316435523 0.07331977921
690.0 -0.1119460875 0.05287352445
690.625 -0.0989252444 0.07342145852
691.25 -0.07191949021 0.1349369002
691.875 -0.02132923953 0.1713104403
692.5 0.06085095702 0.08380869648
693.125 0.08077193809 0.005443543212
693.75 0.0964646784 -0.02597680926
694.375 0.1404103543 -0.00874941539
695.0 0.1002293399 0.05001450624
695.625 0.04380547974 0.09163573894
696.25 -0.0664553538 0.1028841687
696.875 -0.1398802034 -0.006505053101
697.5 -0.1030303124 -0.09246616638
698.125 -0.08081238403 -0.1048189039
698.75 -0.073516135 -0.1004533774
699.375 -0.05051232074 -0.08313778257
700.0 -0.03176200258 -0.09010686022
700.625 0.005277110248 -0.1066840015
701.25 0.0432175727 -0.078419904
701.875 0.03414889937 -0.06352220432
702.5 0.006472941792 -0.09919696592
703.125 -0.08906557589 -0.1368102867
703.75 -0.1566403969 -0.06800718043
704.375 -0.1166563047 0.03721854913
705.0 -0.09391096011 0.05295735801
705.625 -0.1385900257 0.003632379808
706.25 -0.07403955724 -0.1106821997
706.875 0.01506844392 -0.08950045371
707.5 0.04168494692 -0.05893605203
708.125 0.07974030982 -0.006581119292
708.75 0.06297793093 0.06836069277
709.375 0.005839740303 0.09304613728
710.0 -0.03411537538 0.08270341583
710.625 -0.06437069226 0.06590234784
711.25 -0.08915014549 0.0457208688
711.875 -0.1068850046 0.06657721924
712.5 -0.08129614162 0.1197921718
713.125 0.02669884928 0.1257900199
713.75 0.1008507399 0.03387914139
714.375 0.1019209693 -0.0282216746
715.0 0.104382253 -0.03138907838
715.625 0.07331635749 0.004585392043
716.25 0.04695359669 0.03031261572
716.875 0.03237468417 0.06746840068
717.5 -0.0327833492 0.1078794213
718.125 -0.06449086136 0.07775131325
718.75 -0.05732302169 0.05813668043
719.375 -0.07109258949 0.04295882583
720.0 -0.1005743182 -0.01411839535
720.625 -0.04720056415 -0.09521995469
721.25 0.0391514862 -0.08892412252
721.875 0.08037157061 -0.03952093501
722.5 0.06988853555 -0.005661763671
723.125 0.05047957937 -0.0118002606
723.75 0.05112487135 -0.01900614725
724.375 0.03779683374 -0.05430595339
725.0 -0.001778131989 -0.05670597538
725.625 -0.02386705357 -0.05471589444
726.25 -0.0368609903 -0.06319216505
726.875 -0.02259848582 -0.08338707785
727.5 -0.00771450933 -0.0737851026
728.125 0.0104891791 -0.05960559273
728.75 0.01784986949 -0.04697691525
729.375 0.02031567869 -0.04323145812
730.0 0.0131023619 -0.04147278458
730.625 0.008955307257 -0.029068918
731.25 0.02385828972 -0.01021972216
731.875 0.01704248257 0.01107895924
732.5 -0.003538330594 0.02608205218
733.125 -0.0186262549 0.0326799846
733.75 -0.01139589841 0.044671199
734.375 0.008352883036 0.03444621213
735.0 0.01893185286 0.01749807817
735.625 0.01835979719 0.007207835675
736.25 0.01244420966 -0.007471764427
736.875 -0.01287177388 -0.02006471589
737.5 -0.0353577709 -0.0108639924
738.125 -0.04807884321 -0.0004559179489
738.75 -0.04200789106 0.01676356364
739.375 -0.01506713082 0.01125061091
740.0 -0.004477034654 -0.00840207564
740.625 -0.02008270169 -0.01466563889
741.25 -0.02437046909 -0.004727357297
741.875 -0.009508640573 -0.01782389938
742.5 0.02074695611 -0.007738712902
743.125 0.01554623151 0.01935225909
743.75 0.003353971319 0.02364008729
744.375 -0.00671975721 0.03185088579
745.0 -0.01806217353 0.04073497964
745.625 -0.01188229889 0.06119595979
746.25 0.02990866254 0.06680693522
746.875 0.07096119438 0.02796147535
747.5 0.06013555833 -0.01037166124
748.125 0.03603388285 -0.02389233337
748.75 0.02416076449 -0.02967560908
749.375 0.0007006126383 -0.04536017689
750.0 -0.04559249289 -0.02501415092
