!Created with skrf (http://scikit-rf.org).
# GHz S RI R 50.0 
!freq ReS11 ImS11
500.0 -0.01392490881 0.0008530527675
500.625 -0.008475608234 0.003662463594
501.25 -0.02328283261 -0.0128385281
501.875 -0.002056901352 -0.02186057884
502.5 -0.02256661403 -0.0005790668891
503.125 -0.005546781247 0.003013263074
503.75 0.009628850067 -0.00909510198
504.375 -0.0001883061186 -0.008800637765
505.0 -0.007294605225 -0.002283076673
505.625 0.002843127231 -0.03855983278
506.25 -0.01505595556 -0.02851437794
506.875 -0.01729000471 -0.07854839426
507.5 -0.03632707883 -0.02167828181
508.125 -0.03292145777 -0.02127951375
508.75 -0.0640010622 -0.05949824115
509.375 -0.05324570317 0.003949324828
510.0 -0.02894962181 -0.00610283413
510.625 -0.02082838382 0.008954863628
511.25 -0.06728026469 0.01437656301
511.875 -0.04491676164 0.04670890944
512.5 0.01628100009 0.03436582739
513.125 0.05777704318 0.01736137436
513.75 0.07986739779 0.01582159193
514.375 0.05049990252 -0.008791886805
515.0 0.04992597469 -0.02709486793
515.625 0.06196970511 0.005919980095
516.25 0.09676022168 -0.008832469566
516.875 0.05686256659 0.06494829031
517.5 0.08876505087 -0.001292169647
518.125 0.138926118 0.1079942887
518.75 0.109580445 -0.03119126317
519.375 0.0529943406 -0.02430525695
520.0 0.06641219748 -0.05570016859
520.625 0.07943218831 -0.0685736457
521.25 0.06304999457 -0.08431026672
521.875 0.04778640989 -0.0303845108
522.5 0.03392251218 -0.08440791072
523.125 0.07127960515 -0.1798586965
523.75 0.04649446896 -0.2759224136
524.375 0.01849323979 -0.2315887464
525.0 0.01210277777 -0.1262358278
525.625 0.01490698272 -0.09230862766
526.25 0.02475034753 -0.06589540094
526.875 -0.01189044757 -0.0511853892
527.5 -0.01659202893 -0.08760409889
528.125 -0.03775251335 -0.05420695289
528.75 -0.05380834519 -0.05285021566
529.375 -0.09025103265 0.01298868096
530.0 -0.06260164224 0.06478243769
530.625 -0.01819956751 0.06797770078
531.25 -0.01324914587 0.02933994698
531.875 -0.03734748707 0.05007337807
532.5 -0.06399717444 0.1122717895
533.125 -0.04937804342 0.103609262
533.75 -0.006611685086 0.09514736667
534.375 -0.002154340285 0.08487925022
535.0 -0.01419864125 0.1278752537
535.625 -0.02579124158 0.08011820548
536.25 0.03800163119 0.06515794359
536.875 0.01094275733 0.06089977972
537.5 -0.03553165742 0.04636911834
538.125 -0.03810183202 0.07464309051
538.75 -0.003881328328 0.1131121047
539.375 -0.01211630975 0.09248943164
540.0 -0.02776884946 0.1030650264
540.625 -0.0241860237 0.08633054442
541.25 -0.03160146918 0.08378047089
541.875 -0.04661462514 0.07171712149
542.5 -0.04148745449 0.0225352316
543.125 -0.03842916518 0.0685969237
543.75 0.01396390619 0.1171984917
544.375 0.04420489098 0.1083685936
545.0 0.1009099692 0.03471373329
545.625 0.09637392738 -0.03099838743
546.25 0.1081526453 -0.07783329127
546.875 0.09154774335 -0.0582015264
547.5 0.1054092969 -0.06348259914
548.125 0.1360195958 -0.06596021251
548.75 0.1457885909 -0.007289879447
549.375 0.1211146481 0.006878684647
550.0 0.1424985527 0.04881874022
550.625 0.1486270378 0.06584851525
551.25 0.07889994344 0.09894763842
551.875 0.05026793459 0.03023802216
552.5 0.06541821042 0.02762680594
553.125 0.08958088766 0.04220547523
553.75 0.03806119298 0.05205064193
554.375 0.02300826029 0.03167149066
555.0 0.05857959773 0.03901013257
555.625 0.0719416789 0.04951188204
556.25 0.0556561938 0.06869224846
556.875 0.0275857098 0.05693963357
557.5 0.03559975274 0.07183702632
558.125 0.03774817875 0.09863200044
558.75 0.01413339424 0.1154155297
559.375 0.03712131778 0.08890737819
560.0 0.06676783804 0.1049263463
560.625 0.05411338398 0.06627607396
561.25 0.05431954594 0.03644532754
561.875 0.05168202954 0.03120398363
562.5 0.06494998183 0.03352277481
563.125 0.06207487606 0.02991647719
563.75 0.06569892821 0.01008956434
564.375 0.08153786916 0.001378670308
565.0 0.133962623 0.01961039068
565.625 0.1081120668 0.007931712153
566.25 0.09750397682 0.003582473461
566.875 0.09899768746 0.02474496465
567.5 0.07372461305 0.07458755858
568.125 0.03661799692 0.07738709163
568.75 0.06704195343 0.09253337316
569.375 0.05794476218 0.09704794042
570.0 0.04008292369 0.07310166025
570.625 0.03659699339 0.05312011137
571.25 0.07130086347 0.04831838707
571.875 0.04631993023 0.04658920495
572.5 0.03279262624 0.02347904869
573.125 0.02552777195 0.03459005201
573.75 0.08762995872 0.01766218561
574.375 0.09801881142 0.01467290148
575.0 0.07393613335 -0.00606590238
575.625 0.05672162004 -0.01184841409
576.25 0.08844608619 -0.02387423915
576.875 0.07883582364 0.009803244236
577.5 0.08753505811 -0.006719914189
578.125 0.09001515004 -0.02130470517
578.75 0.1169560495 -0.03657242765
579.375 0.1033079089 -0.00465045615
580.0 0.08706380376 -0.01446730294
580.625 0.08421682037 -0.03196420064
581.25 0.07899116671 -0.05970485379
581.875 0.05054653865 -0.01096597401
582.5 0.03797317663 0.01570707966
583.125 0.07971005938 0.002611521514
583.75 0.08847750742 0.0140496005
584.375 0.06720509242 0.01973005331
585.0 0.04867582505 0.03675495596
585.625 0.06620154152 0.05461038768
586.25 0.07325550894 0.04956972654
586.875 0.0536624529 0.03492669741
587.5 0.05973879188 0.0409424345
588.125 0.09393802901 0.008653989086
588.75 0.09916087198 -0.002760761691
589.375 0.07317627697 -0.04353491964
590.0 0.05005343925 -0.06253746683
590.625 0.03349549262 -0.06238520665
591.25 0.03239615789 -0.01464844118
591.875 0.03954022894 -0.01048016499
592.5 0.0699971446 -0.02933278841
593.125 0.07940304577 -0.042873014
593.75 0.07577598084 -0.01908826221
594.375 0.07380865143 -0.004646404963
595.0 0.08064701508 0.0478547941
595.625 0.08405942366 0.04126056632
596.25 0.05137226866 0.05256928102
596.875 0.04729093837 0.04750517985
597.5 0.03373121751 0.07291474807
598.125 0.04595563672 0.06751799363
598.75 0.06406547107 0.0398869062
599.375 0.05705059645 0.03361744761
600.0 0.01588972445 0.03800418465
600.625 0.006200895532 0.01702047487
601.25 0.008928631904 0.01482740226
601.875 0.001556975045 0.03194241483
602.5 -0.02115103398 0.04905436715
603.125 -0.01179616007 0.04287401705
603.75 -0.02189317781 0.0672344481
604.375 0.002530617624 0.05701200293
605.0 -0.03765234454 0.04601279461
605.625 -0.05090274013 0.02549446576
606.25 -0.06264201878 0.03089013616
606.875 -0.04588577269 0.04504903894
607.5 -0.03049500153 0.05229074146
608.125 -0.02679008328 0.04851761138
608.75 -0.02212235696 0.04450362215
609.375 -0.002665784063 0.035027866
610.0 -0.03021897764 0.01765971572
610.625 -0.03102773335 -0.0004747152211
611.25 -0.02763014489 -0.01925419072
611.875 -0.002076897287 -0.01539475734
612.5 -0.01363741139 -0.03115394664
613.125 -0.03802532581 -0.04429901795
613.75 -0.02123482879 -0.01005059551
614.375 -0.02341662552 -0.02625018024
615.0 0.0001051883199 -0.00933421816
615.625 -0.01664883235 -0.02770470069
616.25 -0.0278725308 -0.02965490556
616.875 -0.02145524485 -0.02525254667
617.5 0.0161847881 0.001111188017
618.125 0.01003317192 -0.03516699965
618.75 0.0161347777 -0.01144101141
619.375 0.01652055956 -0.02127362033
620.0 0.05160683065 -0.002391319193
620.625 0.04119031522 -0.07244608829
621.25 0.04419573973 -0.04769593477
621.875 0.02211693366 -0.0630490025
622.5 -0.01380087028 -0.03828420732
623.125 -0.03550520915 -0.01798899498
623.75 -0.00510144176 0.0007323414404
624.375 -0.001117188095 -0.01149052556
625.0 0.01799696517 0.02398367882
625.625 0.01046952563 0.000862775026
626.25 0.02437676637 0.005712379214
626.875 0.05052267724 0.01309129862
627.5 0.05488717008 0.05880838285
628.125 0.04850815462 0.04664148265
628.75 0.06457241365 0.01840694561
629.375 0.06085401996 0.05294922959
630.0 0.03933912871 0.0656792103
630.625 0.03734504608 0.05187671104
631.25 0.03962571725 0.03793004146
631.875 0.04112730939 0.03929487317
632.5 -0.008627990161 0.04265500834
633.125 -0.01100675773 0.03480107481
633.75 0.002238779761 0.0375060144
634.375 -0.03200434093 0.0542649596
635.0 -0.01520662182 0.04029473361
635.625 -0.02601402975 0.07251727056
636.25 -0.0003747986965 0.06674304658
636.875 0.01011785016 0.05933957152
637.5 -0.0257657169 0.05169098364
638.125 -0.04496045911 0.07452005126
638.75 -0.05404071967 0.09112711558
639.375 -0.04918341044 0.07688945793
640.0 -0.05631135899 0.03062753261
640.625 -0.06435087797 0.01638901991
641.25 -0.0883732667 -0.01891068869
641.875 -0.05685121046 -0.004239732591
642.5 -0.05061029546 -0.00675405311
643.125 -0.07332343996 -0.04173994
643.75 -0.06509290135 -0.06518918592
644.375 -0.05495767489 -0.03277066298
645.0 -0.07288211588 -0.03263860503
645.625 -0.09651567912 -0.04775768739
646.25 -0.0847504355 -0.05350262034
646.875 -0.04715155295 -0.04642048582
647.5 -0.06195818034 -0.05200546096
648.125 -0.06740743019 -0.05597942223
648.75 -0.03945029235 -0.06791977814
649.375 -0.00782244918 -0.04420869244
650.0 0.01470569643 -0.06787940241
650.625 0.02976505057 -0.0542748021
651.25 0.07111514072 -0.055668894
651.875 0.06824906613 -0.02238204462
652.5 0.08906479879 -0.007993473774
653.125 0.1104754397 0.02203743795
653.75 0.112472765 0.04542685172
654.375 0.09873151147 0.02937930514
655.0 0.1071963697 0.06931038524
655.625 0.0522050488 0.05664553643
656.25 0.04599936528 0.04570433676
656.875 0.0586958485 0.0268382987
657.5 0.05299281332 0.04041393831
658.125 0.02766406195 0.07024634427
658.75 0.01978666061 0.07017547697
659.375 0.06940166664 0.07007905438
660.0 0.0971290309 0.05576265187
660.625 0.1178374626 0.05338948865
661.25 0.1148038885 0.01783575906
661.875 0.136066658 -0.02636732596
662.5 0.1002162289 -0.04376205471
663.125 0.08590001099 -0.02803456962
663.75 0.1108924214 0.006333134803
664.375 0.06779234005 0.08152500027
665.0 -0.0008061383078 0.07910637073
665.625 -0.02140647169 0.06057244708
666.25 -0.04568471805 0.07898334724
666.875 -0.09891428826 0.04384146774
667.5 -0.1075890357 -0.00576918386
668.125 -0.09564692075 0.004936752874
668.75 -0.1227827454 0.05821299023
669.375 -0.1234369767 0.03019924223
670.0 -0.09585215918 0.0005552382
670.625 -0.07653860534 0.001531463502
671.25 -0.1150249023 0.05153608988
671.875 -0.09433703893 0.05382540749
672.5 -0.04145321031 0.04491971918
673.125 -0.04379453612 0.0462041908
673.75 -0.07613887439 0.08677231139
674.375 -0.09727283322 0.06005100648
675.0 -0.110912188 0.03536691048
675.625 -0.1142427492 -0.01283367027
676.25 -0.1230669237 -0.06374755359
676.875 -0.09683057334 -0.07965720592
677.5 -0.1139130934 -0.05797149913
678.125 -0.1077736781 -0.05899666166
678.75 -0.07759180314 -0.08483840157
679.375 -0.02704403778 -0.05008446113
680.0 -0.02876551212 -0.04710856487
680.625 -0.06463114466 -0.08556037617
681.25 -0.05445832544 -0.1001829127
681.875 -0.05170533079 -0.07536806462
682.5 -0.09678776076 -0.04990920409
683.125 -0.138641695 -0.05045081901
683.75 -0.1099102214 -0.08454874798
684.375 -0.05934409279 -0.1164808226
685.0 0.01008508835 -0.1365573952
685.625 0.1020640047 -0.09608657303
686.25 0.1209311474 -0.0559549443
686.875 0.1221441733 -0.03055105473
687.5 0.09441310774 0.01012827543
688.125 0.04847382807 0.04332500036
688.75 0.04192232683 0.06274381378
689.375 0.06023635201 0.08339277561
690.0 0.05123736706 0.1320651284
690.625 0.01331351623 0.1078381496
691.25 0.06890253615 0.09865833453
691.875 0.1502889204 0.0434228061
692.5 0.1952939252 -0.09202979607
693.125 0.05943328981 -0.1203179141
693.75 -0.02099703496 -0.08906226061
694.375 -0.03338290189 -0.1050837746
695.0 0.02237290322 -0.159758039
695.625 0.1159676751 -0.04965023755
696.25 0.05955270354 0.05071577236
696.875 0.0005644391612 0.1081747201
697.5 -0.09814570484 0.05385993646
698.125 -0.1260411773 0.04744219146
698.75 -0.1242614268 0.04347267519
699.375 -0.1247097863 0.04081776867
700.0 -0.1165113156 0.02163516407
700.625 -0.1089268035 -0.008268304195
701.25 -0.1096648637 -0.03607217356
701.875 -0.1149974104 -0.0236958453
702.5 -0.07491700929 -0.000759988134
703.125 -0.07076961651 0.03556209128
703.75 -0.07277814071 0.1297264069
704.375 -0.03159375535 0.1708423096
705.0 -0.01839155818 0.1099433884
705.625 -0.01682638177 0.1111470103
706.25 -0.1217669286 0.09278520152
706.875 -0.1140605847 -0.08579033927
707.5 -0.07711070259 -0.09535304296
708.125 -0.03838962587 -0.09330863584
708.75 0.02413312851 -0.09891917978
709.375 0.08462273867 0.007120275349
710.0 0.08156201898 0.03387057828
710.625 0.04846411272 0.05968943679
711.25 0.04426766042 0.06562130502
711.875 0.003342838628 0.09387420998
712.5 0.05615836979 0.09548637456
713.125 0.153334471 0.02233924416
713.75 0.1118055721 -0.1062173615
714.375 0.02314694795 -0.130860574
715.0 -0.04912827053 -0.1292427392
715.625 0.02704899803 -0.1335791925
716.25 0.04134025448 -0.1033051253
716.875 0.0610549109 -0.02674574316
717.5 0.07413031329 0.03953086834
718.125 0.1002368144 0.04109599897
718.75 0.05449260859 0.08419672519
719.375 0.02722785426 0.06170153258
720.0 -0.04208555375 0.07307869349
720.625 -0.1071847979 0.008326586833
721.25 -0.05990784318 -0.1024349093
721.875 0.01423592211 -0.1090984569
722.5 0.07804326878 -0.09726193649
723.125 0.006314672978 -0.1052279738
723.75 -0.0594298179 -0.06117781781
724.375 -0.06958396203 -0.008516675908
725.0 -0.06556775605 0.005057864575
725.625 -0.05353266475 0.01606383434
726.25 -0.0713586299 -0.005173274349
726.875 -0.06590930832 -0.0001077652521
727.5 -0.0853327657 -0.07817062684
728.125 -0.04020938217 -0.1024087887
728.75 -0.06216485065 -0.03067556467
729.375 -0.06035421658 -0.02571886602
730.0 -0.05425739051 -0.02105807086
730.625 -0.03131661038 -0.06063199088
731.25 -0.0131237326 -0.05179133153
731.875 0.0508314414 -0.04673208203
732.5 0.01915712504 -0.01189091
733.125 0.02405684026 0.02840077137
733.75 0.04702915653 0.04791418939
734.375 0.0676972741 0.02746831777
735.0 0.03945747861 -0.006764550635
735.625 0.06709377875 -0.004693966575
736.25 0.04093480353 -0.03275353854
736.875 0.04475668574 -0.03980589559
737.5 -0.01829469098 -0.01471944452
738.125 0.0155550002 0.0268200339
738.75 -0.003059279166 0.05439529387
739.375 0.01958337866 0.09049412579
740.0 0.003386833534 0.02535932277
740.625 0.005223031645 0.0267620669
741.25 0.04266753787 0.08562527813
741.875 -0.02933759901 0.01700950783
742.5 -0.04862187907 0.01208891053
743.125 0.01565600896 -0.03421412809
743.75 0.02003937198 -0.09649670248
744.375 0.0334738467 -0.04335364504
745.0 0.02473728176 -0.02308586216
745.625 -0.001530148717 -0.02221144261
746.25 -0.001091837841 -0.04269859001
746.875 0.03697555994 -0.02726022365
747.5 -0.003578509736 -0.04629920998
748.125 -0.01577930855 -0.0602462371
748.75 -0.05214498806 -0.009907230862
749.375 -0.0460601035 0.05318583485
750.0 -0.009812779268 0.0709002479
