!Created with skrf (http://scikit-rf.org).
# GHz S RI R 50.0 
!freq ReS11 ImS11
500.0 -0.003729431022 0.01142416233
500.625 0.01627033756 0.008741902353
501.25 0.01431977969 -0.01259069635
501.875 0.0007182855504 -0.02243286675
502.5 0.001323637701 -0.00221931055
503.125 0.008662355504 0.002055459931
503.75 0.01023625529 -0.01036892122
504.375 0.006784079114 -0.02458804749
505.0 0.004636766783 -0.02593359586
505.625 0.002151594493 -0.03891465075
506.25 -0.01994258469 -0.05052411675
506.875 -0.01320737862 -0.08696284029
507.5 -0.03188725967 -0.05976044894
508.125 -0.01315384229 -0.06880259727
508.75 -0.06402496426 -0.06085473337
509.375 -0.06557284434 -0.04344658066
510.0 -0.03922986313 -0.04057102184
510.625 -0.04513615399 0.004266731167
511.25 -0.066316179 0.01379992978
511.875 -0.04861559541 0.04813080016
512.5 -0.001543607972 0.04997179332
513.125 0.06296987025 0.02967973827
513.75 0.08141737345 0.01933899884
514.375 0.06627823057 -0.004660676397
515.0 0.05633818318 -0.03098028086
515.625 0.08836475317 0.01526916281
516.25 0.1038137776 -0.006814346428
516.875 0.07916446583 0.08252451937
517.5 0.1209932822 -0.008258965576
518.125 0.166845597 0.1556773873
518.75 0.1136195937 -0.03354211056
519.375 0.07965725609 -0.01435959612
520.0 0.07130727509 -0.06021719602
520.625 0.09675612121 -0.07811553244
521.25 0.06422940396 -0.08804414458
521.875 0.05774606182 -0.03857849997
522.5 0.03330581793 -0.09333020599
523.125 0.1025223756 -0.216363021
523.75 0.0505429491 -0.2815711482
524.375 0.04133652948 -0.2759149717
525.0 0.01346942386 -0.1319617623
525.625 0.01585206905 -0.09454551581
526.25 0.03313571329 -0.0713303497
526.875 0.007027276066 -0.07549270773
527.5 -0.0173939786 -0.09006203129
528.125 -0.03989100186 -0.05724816761
528.75 -0.05547419561 -0.05396835586
529.375 -0.1225979185 -0.00269080068
530.0 -0.09864685153 0.06231666341
530.625 -0.01883384134 0.06999762098
531.25 -0.03224522726 0.05572733712
531.875 -0.07938982762 0.1041843634
532.5 -0.08583490325 0.1423301866
533.125 -0.05020745832 0.1079372881
533.75 -0.006146649973 0.09672508145
534.375 -0.008664834112 0.1211563186
535.0 -0.01345355454 0.1331344212
535.625 -0.02941296273 0.08809992103
536.25 0.04070617187 0.0747236196
536.875 0.01531251773 0.09096111026
537.5 -0.05610856188 0.07463106758
538.125 -0.0378429764 0.07573108676
538.75 -0.001868737379 0.1255837949
539.375 -0.03765422694 0.1318314804
540.0 -0.02751369287 0.1065465505
540.625 -0.02402484497 0.08779234589
541.25 -0.03067530558 0.114523204
541.875 -0.05468639117 0.0963161611
542.5 -0.0522287752 0.04223905067
543.125 -0.03778292971 0.06931082466
543.75 0.02653250791 0.1281943118
544.375 0.05551552669 0.1342771061
545.0 0.1040365046 0.03439233083
545.625 0.1028672812 -0.03889933266
546.25 0.1088428929 -0.07999139076
546.875 0.1007405647 -0.06846989711
547.5 0.1062813794 -0.06537336844
548.125 0.1368037163 -0.06727670861
548.75 0.1679695343 -0.01611301513
549.375 0.152686368 0.01144128028
550.0 0.1451734951 0.04791013579
550.625 0.160347586 0.06732193264
551.25 0.0809254418 0.1009118798
551.875 0.06236547741 0.04721889849
552.5 0.07217587163 0.02905602594
553.125 0.09226814857 0.04171036099
553.75 0.04433041123 0.05538271507
554.375 0.03559292225 0.03590703923
555.0 0.06057257495 0.03810744601
555.625 0.09030171459 0.04647700551
556.25 0.05770173659 0.06886761079
556.875 0.04123904082 0.05704945748
557.5 0.05967008379 0.07590107383
558.125 0.05712754739 0.1109837011
558.75 0.01522916335 0.1164620953
559.375 0.04580032452 0.1019593149
560.0 0.06881216791 0.1057426728
560.625 0.06302762052 0.07423055376
561.25 0.05610213627 0.03685398014
561.875 0.06357709044 0.03048221921
562.5 0.07357089538 0.03030271483
563.125 0.06753520306 0.02850140569
563.75 0.0664477185 0.009046558988
564.375 0.09798257673 -0.01875782052
565.0 0.1399125616 0.01502791145
565.625 0.1148021355 0.001529845085
566.25 0.09875638659 0.00276031769
566.875 0.1089255524 0.014795004
567.5 0.09547626551 0.07250690586
568.125 0.05580040865 0.08323910877
568.75 0.06837283397 0.09261422185
569.375 0.07157322784 0.1022873814
570.0 0.06130506318 0.08917518083
570.625 0.05188193252 0.0596708521
571.25 0.07305016628 0.0484142889
571.875 0.06769963964 0.05054993154
572.5 0.04673631779 0.02120766494
573.125 0.04422923992 0.02262437669
573.75 0.08853514771 0.01602397617
574.375 0.1121788545 -0.003051588334
575.0 0.07811182435 -0.01348126994
575.625 0.05724016311 -0.02737334679
576.25 0.08855766256 -0.02731231717
576.875 0.09731959692 -0.008547166407
577.5 0.08858578332 -0.009150823562
578.125 0.08893493068 -0.0298765286
578.75 0.1176283698 -0.03886515783
579.375 0.1124966889 -0.0172645352
580.0 0.0940371047 -0.02975986058
580.625 0.09095590227 -0.05799887842
581.25 0.07948685112 -0.06237134252
581.875 0.05741576199 -0.02325057229
582.5 0.04768070267 -0.005762878949
583.125 0.08195186942 -0.00329782471
583.75 0.09062036541 0.01109962279
584.375 0.07186199641 0.01648269292
585.0 0.05886065506 0.02580553718
585.625 0.07832540468 0.03844740034
586.25 0.07523629114 0.04897456498
586.875 0.06236264563 0.0253756678
587.5 0.07334937951 0.01335483153
588.125 0.09653493033 -0.001766068589
588.75 0.1006403161 -0.004358177479
589.375 0.07278524571 -0.04962154629
590.0 0.04070666661 -0.08496777666
590.625 0.03212391485 -0.06761391011
591.25 0.0309056697 -0.02126863507
591.875 0.0390019891 -0.01243397848
592.5 0.0569469272 -0.04043271572
593.125 0.07794065473 -0.04820608459
593.75 0.07454802782 -0.0218315867
594.375 0.07403147724 -0.007635403434
595.0 0.09195845016 0.01106986859
595.625 0.08755165322 0.03668092279
596.25 0.05959024394 0.04527908371
596.875 0.04939052703 0.0467661506
597.5 0.04874287987 0.06391554588
598.125 0.05339926585 0.06260975231
598.75 0.06631924099 0.03962049346
599.375 0.06975162277 0.02167920717
600.0 0.05447219327 0.01731436531
600.625 0.02932130396 0.01031050952
601.25 0.0121837564 0.01233650676
601.875 0.00835397127 0.02726863716
602.5 -0.0009089520519 0.03914087514
603.125 -0.008293983771 0.04162675973
603.75 -0.001966573387 0.04976360832
604.375 0.005096801406 0.0572339267
605.0 -0.001144672095 0.04455316974
605.625 -0.01542745895 0.02706635552
606.25 -0.03180660137 0.02974597837
606.875 -0.04449458492 0.04682109526
607.5 -0.02315874202 0.05568305806
608.125 0.001384842583 0.04687360791
608.75 0.003941825615 0.03932690424
609.375 -0.0007078766751 0.03643498921
610.0 0.002325744912 0.02887224922
610.625 0.007616159299 0.01505688949
611.25 0.006030893134 0.0008882162674
611.875 -0.00187997701 -0.01326961556
612.5 -0.005256529618 -0.02033637295
613.125 -0.01802007798 -0.01845651024
613.75 -0.01941351883 -0.006647044544
614.375 -0.01020146868 -0.00229619806
615.0 0.001554740879 -0.006377494429
615.625 -0.001584724134 -0.01338002982
616.25 -0.008059559859 -0.005891369598
616.875 0.0001038792123 0.004879330669
617.5 0.01794040049 0.003939343783
618.125 0.02340123139 -0.002557730811
618.75 0.02318217341 -0.001612837552
619.375 0.03130019818 0.002549684312
620.0 0.0527954487 3.689865945e-05
620.625 0.05387714548 -0.0266076927
621.25 0.04675187565 -0.03623839529
621.875 0.03099601786 -0.04701245527
622.5 -0.01104118592 -0.03697905663
623.125 -0.01011614032 -0.008972225879
623.75 0.005404822228 0.005710315686
624.375 0.01837271031 0.0121536034
625.0 0.01777542801 0.02520543404
625.625 0.01736747791 0.03574947453
626.25 0.03444425497 0.04544346047
626.875 0.06023673188 0.05554987747
627.5 0.05463273238 0.05949876436
628.125 0.04527268357 0.05742384052
628.75 0.04704783398 0.06022562354
629.375 0.04960123718 0.07790123922
630.0 0.0361695051 0.07382839909
630.625 0.02581850255 0.06292796396
631.25 0.02310422546 0.05675966176
631.875 0.005964038568 0.05683786318
632.5 -0.008824234841 0.04344770816
633.125 -0.01936692147 0.03933141869
633.75 -0.01974160558 0.05446733737
634.375 -0.03334939827 0.05678741738
635.0 -0.03406138074 0.0553840916
635.625 -0.02613467582 0.07371652426
636.25 -0.02002754701 0.0957540371
636.875 -0.03006249467 0.07673886096
637.5 -0.03217083646 0.05592355169
638.125 -0.04478080493 0.0767390416
638.75 -0.06997012309 0.09877055976
639.375 -0.07543677269 0.06316068343
640.0 -0.05777670374 0.03148910645
640.625 -0.06801776129 0.0179915645
641.25 -0.09159914773 -0.01814200877
641.875 -0.07011316539 -0.03435001654
642.5 -0.06228003407 -0.02910423105
643.125 -0.07445738472 -0.04103490604
643.75 -0.07199398515 -0.07992807241
644.375 -0.05925557753 -0.076195553
645.0 -0.0829759446 -0.04815769301
645.625 -0.1015408928 -0.04828639784
646.25 -0.0878277213 -0.05344409968
646.875 -0.05406550035 -0.05931009015
647.5 -0.06617763897 -0.05300640037
648.125 -0.07787568306 -0.06750784642
648.75 -0.04186187628 -0.06894783018
649.375 -0.01126509342 -0.05843201631
650.0 0.01149849107 -0.07540487876
650.625 0.04794085595 -0.08341261155
651.25 0.07081608103 -0.05742798632
651.875 0.0826756012 -0.03564251308
652.5 0.1259081743 -0.01157863904
653.125 0.1343046869 0.03990289222
653.75 0.1143154993 0.04545958688
654.375 0.1133300397 0.0411050122
655.0 0.1113454504 0.06892916033
655.625 0.06155426868 0.0765257472
656.25 0.04778275373 0.04613616806
656.875 0.07835545343 0.03339642113
657.5 0.07668002633 0.06707930123
658.125 0.03511249991 0.08104889935
658.75 0.02159163989 0.07057446656
659.375 0.07941003056 0.0706164854
660.0 0.1206353301 0.07168586759
660.625 0.1207973306 0.05210088116
661.25 0.1182434001 0.01543666954
661.875 0.1373933007 -0.0291707681
662.5 0.1382510852 -0.04665215172
663.125 0.1144607256 -0.02968112034
663.75 0.1127503617 0.003632603561
664.375 0.07884325217 0.09243403518
665.0 0.005779472998 0.09404640586
665.625 -0.02165459349 0.06954935179
666.25 -0.04359127859 0.08139221413
666.875 -0.1209043601 0.05510912859
667.5 -0.115381811 -0.0002352438721
668.125 -0.1054685609 0.01440812993
668.75 -0.1223007649 0.06123206465
669.375 -0.1471383931 0.04961405038
670.0 -0.1092473389 0.004548843941
670.625 -0.09340281475 0.01140127727
671.25 -0.1151046722 0.05427156769
671.875 -0.1100164976 0.07242294973
672.5 -0.0663891023 0.07233908278
673.125 -0.04936366656 0.07097967986
673.75 -0.0735257211 0.09005496639
674.375 -0.1012536453 0.07401212375
675.0 -0.1112132328 0.04030772671
675.625 -0.1343463324 0.004150750358
676.25 -0.1260344093 -0.06158298955
676.875 -0.1083193938 -0.07950910031
677.5 -0.1208756043 -0.05597466865
678.125 -0.1478358922 -0.06500015659
678.75 -0.08076929666 -0.08588850016
679.375 -0.03684313189 -0.06124020132
680.0 -0.04669687459 -0.05419248329
680.625 -0.08076546581 -0.0860030816
681.25 -0.06703908688 -0.1025664046
681.875 -0.05450901486 -0.07458938765
682.5 -0.1030891012 -0.04024513769
683.125 -0.1564233836 -0.03452758295
683.75 -0.1488093093 -0.08375055321
684.375 -0.06243566596 -0.1170414477
685.0 0.00477413882 -0.1402609047
685.625 0.1036718326 -0.1221736606
686.25 0.1351502264 -0.06737298964
686.875 0.1241904223 -0.03363940126
687.5 0.1140049007 0.01108727214
688.125 0.079544504 0.04607386458
688.75 0.05150877586 0.06175503054
689.375 0.06377196911 0.08092035147
690.0 0.05719654672 0.1316346853
690.625 0.03338777658 0.1209776268
691.25 0.07143447007 0.09777634048
691.875 0.1600028297 0.02599700298
692.5 0.1956888588 -0.09889919193
693.125 0.05778240987 -0.1458318722
693.75 -0.04113824203 -0.1054083881
694.375 -0.06779821483 -0.1158192102
695.0 0.0152798995 -0.1631526657
695.625 0.117801373 -0.05655741697
696.25 0.08083014443 0.0451860631
696.875 0.009044072835 0.1102895156
697.5 -0.08864891476 0.09017793507
698.125 -0.1256672285 0.05203259206
698.75 -0.127273345 0.06111235295
699.375 -0.1300176945 0.05712045222
700.0 -0.1175943337 0.02515948872
700.625 -0.1153239269 0.002371727024
701.25 -0.1425670076 -0.008012096302
701.875 -0.1203819927 -0.0200905058
702.5 -0.07748057286 0.004093653141
703.125 -0.0690181274 0.03871461215
703.75 -0.03998433703 0.1436871935
704.375 -0.007695235167 0.1857559873
705.0 0.00823007196 0.1302476238
705.625 -0.01449916374 0.1121157466
706.25 -0.1082996703 0.1117806211
706.875 -0.1723363992 -0.0503415915
707.5 -0.08231888964 -0.0970369964
708.125 -0.0433143768 -0.0943343733
708.75 0.0187121417 -0.1031250256
709.375 0.09662129617 -0.04351026716
710.0 0.08720084218 0.02857548405
710.625 0.07125427584 0.0424042732
711.25 0.04872185188 0.06400969042
711.875 0.03428963859 0.07709999835
712.5 0.07337569228 0.08574458321
713.125 0.1550238666 0.01740159325
713.75 0.1101872088 -0.1116490864
714.375 0.006788589977 -0.1360438982
715.0 -0.06252958015 -0.1239223253
715.625 -0.04054857616 -0.1537643414
716.25 0.04038023059 -0.1081021204
716.875 0.05485459845 -0.05204991564
717.5 0.07829561755 -0.01574793393
718.125 0.1044083302 0.03255303001
718.75 0.0681701179 0.07329221652
719.375 0.0312540599 0.06146848573
720.0 -0.003610121517 0.06780304617
720.625 -0.08607389955 0.03796646406
721.25 -0.08046093259 -0.08430917024
721.875 -0.003352512132 -0.1135270564
722.5 0.01094269027 -0.120304854
723.125 -0.03828590389 -0.1091730023
723.75 -0.07045263123 -0.05648227116
724.375 -0.07289673225 -0.003168926642
725.0 -0.05430853377 0.03280876696
725.625 -0.03301490753 0.03455079965
726.25 -0.03517478529 0.02298542904
726.875 -0.0657062119 0.003741185274
727.5 -0.08407091066 -0.01931141777
728.125 -0.07425847522 -0.04151246777
728.75 -0.06471989124 -0.02597113264
729.375 -0.06127168868 -0.01337181563
730.0 -0.05626283762 -0.01477832519
730.625 -0.04607479828 -0.02232378382
731.25 -0.0278654558 -0.02890175342
731.875 -0.003195774873 -0.03467519302
732.5 0.0185404141 -0.01575409019
733.125 0.01348407006 0.008345375411
733.75 0.02452983116 0.02036202853
734.375 0.0420482031 0.01579880639
735.0 0.03544925509 -0.01071729034
735.625 0.02750766891 -0.01915852349
736.25 0.01777855063 -0.03011665118
736.875 0.0006885247098 -0.0339082538
737.5 -0.0218841508 -0.01659769793
738.125 -0.034895622 0.00701640337
738.75 -0.03052273707 0.0300091191
739.375 -0.01126923482 0.03716386156
740.0 0.004013332828 0.02286207967
740.625 -0.012997511 0.01823345002
741.25 -0.01880658802 0.0264835521
741.875 -0.03163962825 0.01260242429
742.5 -0.02561405266 -0.01919916306
743.125 0.01783023217 -0.03268287952
743.75 0.03373044178 -0.01602986629
744.375 0.0324134236 -0.01581799251
745.0 0.02462773723 -0.02153391029
745.625 0.02525420774 -0.01047144006
746.25 0.03891716176 0.0005624626516
746.875 0.04539356949 -0.03212248464
747.5 0.01613921044 -0.05875868234
748.125 -0.01523016483 -0.06072150788
748.75 -0.04316014362 -0.04209245991
749.375 -0.06391972319 0.0006652992097
750.0 -0.04038046798 0.07213649511
