!Created with skrf (http://scikit-rf.org).
# GHz S RI R 50.0 
!freq ReS11 ImS11
500.0 -0.01279901247 0.02126447903
500.625 0.02204984434 0.03167106784
501.25 0.03381772426 0.02424529189
501.875 0.02332863124 0.029959962
502.5 0.01004877803 0.04385784741
503.125 0.03690823108 0.03632881857
503.75 0.05177482815 0.01306374208
504.375 0.05315270916 -0.004241918347
505.0 0.04690521925 -0.02996856918
505.625 0.0593598186 -0.05647987327
506.25 0.04095213935 -0.06356313831
506.875 0.06871907397 -0.05540654107
507.5 0.04492139593 -0.0607800489
508.125 0.08639046629 -0.04222733366
508.75 0.04165325105 -0.07771417116
509.375 0.02349635627 -0.0666395104
510.0 0.05558167474 -0.06303763669
510.625 -0.02797143277 -0.07629301437
511.25 -0.04929031638 -0.05619027114
511.875 -0.06201082409 -0.01067365762
512.5 -0.04159308748 0.01997328032
513.125 -0.01887214111 0.05396583739
513.75 -0.007016504946 0.06009888555
514.375 0.01265615457 0.06561084379
515.0 0.05302336722 0.0812550178
515.625 -0.01685481558 0.1222854683
516.25 0.0608531735 0.1043856677
516.875 -0.01244178581 0.1440864971
517.5 0.08665767962 0.1157928164
518.125 -0.04151716387 0.1800296407
518.75 0.0553590502 0.0603289452
519.375 0.04788870143 0.0764098115
520.0 0.09019352828 0.06465958054
520.625 0.09406427738 0.03901526876
521.25 0.08817598472 0.01086185065
521.875 0.06818704699 0.03553849057
522.5 0.09768366518 -0.008915193992
523.125 0.1591892731 -0.04996783688
523.75 0.1524361993 -0.1204698286
524.375 0.1506351261 -0.06932226307
525.0 0.04538738611 -0.009151045122
525.625 0.03226210942 0.005404854532
526.25 0.04782050031 0.0241796664
526.875 0.05571913454 0.01582147615
527.5 0.04797953473 0.00010597028
528.125 0.04182195611 -0.02698544472
528.75 0.04897137986 -0.05650472699
529.375 0.00926120462 -0.08594116167
530.0 -0.01322950488 -0.04619811568
530.625 -0.03373435244 -0.0480843045
531.25 -0.07947693503 -0.1359436773
531.875 -0.1256734867 -0.1266370669
532.5 -0.1433734876 -0.04345269206
533.125 -0.1095843649 -0.008670235606
533.75 -0.1303668548 -0.00105558724
534.375 -0.1049519681 -0.00966802805
535.0 -0.09311778399 0.02465142786
535.625 -0.06782741076 -0.003112733163
536.25 -0.0655194991 0.01176177632
536.875 -0.07376733674 -0.02737718907
537.5 -0.08975656634 -0.05292230794
538.125 -0.1081873714 -0.01095403959
538.75 -0.1060620573 0.003772812884
539.375 -0.0781600981 -0.01424755506
540.0 -0.09262187503 -0.03022257955
540.625 -0.1234714436 -0.04198931231
541.25 -0.1077987393 -0.06364476758
541.875 -0.08604015401 -0.04740965847
542.5 -0.09381756564 -0.0526327161
543.125 -0.135666046 -0.0121288321
543.75 -0.1134911425 0.07465781508
544.375 -0.06261409123 0.08557237714
545.0 0.02097882707 0.09135156827
545.625 0.04073692835 0.09285608418
546.25 0.07229602784 0.06806812327
546.875 0.0765534139 0.05897870075
547.5 0.09042797026 0.07263012973
548.125 0.06996076047 0.1035848585
548.75 0.04786617208 0.0944937631
549.375 0.0458007402 0.1011550577
550.0 -0.006728208376 0.1095712208
550.625 -0.01469962987 0.06193551092
551.25 -0.02740898277 0.0195908122
551.875 -0.04151499557 0.01583451951
552.5 -0.07635869013 0.0347512696
553.125 -0.07007333468 0.02781077762
553.75 -0.06862739393 0.02368588673
554.375 -0.0677641912 0.05623907961
555.0 -0.06861445598 0.08579286037
555.625 -0.05508656858 0.08164959236
556.25 -0.05801140451 0.06656252557
556.875 -0.07413440672 0.07993404074
557.5 -0.07556487071 0.0838536835
558.125 -0.07443163345 0.08777549975
558.75 -0.07353259067 0.0577592759
559.375 -0.06319322762 0.06032814943
560.0 -0.04089258756 0.03693273465
560.625 -0.03613674088 0.02516750397
561.25 -0.05314988012 0.02259673848
561.875 -0.07073181747 0.04148046964
562.5 -0.05134306634 0.06098537622
563.125 -0.02220002965 0.08417610522
563.75 0.01441710693 0.1103960185
564.375 0.02700847761 0.1155775706
565.0 0.02927326339 0.1033579881
565.625 0.04166339557 0.08392439995
566.25 0.01743346109 0.09142510215
566.875 -0.02785905755 0.08623249835
567.5 -0.04142614722 0.06794440299
568.125 -0.05068142411 0.07452197124
568.75 -0.05825682848 0.06655565145
569.375 -0.04556010742 0.04392616354
570.0 -0.03772309745 0.01668177277
570.625 -0.05029458433 0.02213828012
571.25 -0.06068201601 0.01729533651
571.875 -0.04578758485 0.01904367559
572.5 -0.05855857022 0.03631883827
573.125 -0.06249994237 0.08646094648
573.75 -0.02524674524 0.1135520148
574.375 0.01784256278 0.08333896951
575.0 0.02290093075 0.07538339204
575.625 0.01949452135 0.09820436935
576.25 0.01223421304 0.09799382707
576.875 0.03528990996 0.08310278556
577.5 0.05408570209 0.07344909218
578.125 0.04900822199 0.08431284843
578.75 0.02833855286 0.06868634097
579.375 0.03601504705 0.05653134833
580.0 0.04034485901 0.05299724143
580.625 0.02495836951 0.04614377398
581.25 -0.005770213888 0.03845455109
581.875 -0.01810579812 0.04998244561
582.5 -0.01710512542 0.08354453984
583.125 -0.01676313585 0.0872227348
583.75 -0.01224532911 0.07704958574
584.375 -0.02479213583 0.06752710793
585.0 -0.04937030554 0.07610147242
585.625 -0.04246429166 0.07201326541
586.25 -0.02463950648 0.06710860996
586.875 -0.02567795444 0.06384776372
587.5 -0.0314371575 0.07383847608
588.125 0.008851845769 0.0734961635
588.75 0.03174650872 0.06068524897
589.375 0.04243548906 0.04291849851
590.0 0.01363859221 0.04296972106
590.625 0.005333441201 0.04674936135
591.25 0.01757129796 0.06523346212
591.875 0.0450351536 0.0800866111
592.5 0.05746682232 0.07777197856
593.125 0.05235912715 0.05671354946
593.75 0.04952824794 0.05742023067
594.375 0.03262905449 0.0784258651
595.0 0.004669904524 0.07383045567
595.625 -0.009248088424 0.05405456265
596.25 -0.02133619918 0.04276461403
596.875 -0.04068501923 0.03667221664
597.5 -0.04067996176 0.03298157498
598.125 -0.02758832298 0.03715259992
598.75 -0.01306051753 0.02981545995
599.375 -0.013534288 0.01213330501
600.0 -0.02060420205 -0.006939225109
600.625 -0.03587944032 -0.01457492815
601.25 -0.05854141472 -0.01204640325
601.875 -0.06364291729 -7.857225e-05
602.5 -0.06009998745 0.01011177899
603.125 -0.05967609699 0.01683519043
603.75 -0.05692221644 0.01980341098
604.375 -0.04056856819 0.01175616073
605.0 -0.0313312933 -0.001591326527
605.625 -0.03983468242 -0.01691970961
606.25 -0.05051261788 -0.01730273785
606.875 -0.04737885567 -0.00467495577
607.5 -0.02878964725 0.01288982632
608.125 -0.01225417005 0.00832343165
608.75 -0.007700862694 0.002796410764
609.375 -0.002471198258 -0.000138414418
610.0 0.008409073392 -0.003612069689
610.625 0.0159012822 -0.01507560752
611.25 0.01734176264 -0.02052329185
611.875 0.01738637187 -0.02697082826
612.5 0.01072212293 -0.02792076476
613.125 -4.903481994e-05 -0.02385540259
613.75 -0.006618441071 -0.004833468667
614.375 0.002533617991 0.005120465523
615.0 0.01053543945 0.001561144019
615.625 0.006197241863 -0.003946150791
616.25 -0.003039170941 0.007658865454
616.875 0.00354675728 0.0238736678
617.5 0.01457961827 0.02506763705
618.125 0.01750895609 0.01785786086
618.75 0.01299696049 0.0224113434
619.375 0.01636677871 0.03167437551
620.0 0.02710381086 0.0284365649
620.625 0.03384618277 0.001990636356
621.25 0.0185250281 -0.006544719438
621.875 -0.002826902392 -0.01533672081
622.5 -0.02976420169 0.01051759995
623.125 -0.02532638168 0.0392551228
623.75 -0.01778386891 0.05767080889
624.375 -0.0266502934 0.05469489432
625.0 -0.04076858907 0.04281385386
625.625 -0.04312525015 0.05617519521
626.25 -0.03164560946 0.07627836974
626.875 -0.01937786491 0.07321050176
627.5 -0.01636828137 0.05736061775
628.125 -0.02782364048 0.04713055747
628.75 -0.03836618312 0.03844094599
629.375 -0.03328989715 0.02795628079
630.0 -0.02260951504 0.01944597685
630.625 -0.02429953222 -0.001045472424
631.25 -0.02548905307 -0.025781907
631.875 -0.0287492423 -0.04143139232
632.5 -0.0388190961 -0.04175796621
633.125 -0.05093594617 -0.05412428771
633.75 -0.05534801753 -0.0480974478
634.375 -0.06159511001 -0.04946406644
635.0 -0.07527223427 -0.03889079804
635.625 -0.08839043829 -0.02323697824
636.25 -0.06641078765 -0.01674137965
636.875 -0.05383425075 -0.02953721924
637.5 -0.07177042688 -0.0467904473
638.125 -0.08360551702 -0.04358122587
638.75 -0.06287020036 -0.02191290394
639.375 -0.03105967358 -0.02833046985
640.0 0.005042240117 -0.05662547309
640.625 0.03806957718 -0.0675350778
641.25 0.02826704821 -0.06266115762
641.875 0.0263031502 -0.06177767651
642.5 0.0490412744 -0.06437742199
643.125 0.0733690046 -0.0428327811
643.75 0.06831236319 -0.04174378346
644.375 0.05174286455 -0.06223099469
645.0 0.05218847546 -0.06541847055
645.625 0.05056435151 -0.0382331618
646.25 0.05912098293 -0.02755935189
646.875 0.07060053682 -0.03792205238
647.5 0.07984894182 -0.04684101225
648.125 0.05982359189 -0.03129269391
648.75 0.07076815729 0.0001078412803
649.375 0.08942149867 0.02324764061
650.0 0.09677025697 0.04464453325
650.625 0.08326860855 0.0445496076
651.25 0.07271395533 0.06362642206
651.875 0.04195935621 0.1003019536
652.5 0.004314466499 0.09604228182
653.125 0.003335069986 0.08615174289
653.75 -0.009480374832 0.07577159341
654.375 -0.04687040193 0.044232354
655.0 -0.05217508317 0.002799950396
655.625 -0.0608043911 0.0007996284079
656.25 -0.08200460946 0.02257032719
656.875 -0.1001809094 0.03607864184
657.5 -0.09266895185 0.01764613011
658.125 -0.1019289412 0.01771121367
658.75 -0.1186370951 0.0591302434
659.375 -0.09839310777 0.08755036897
660.0 -0.0472658925 0.09941856435
660.625 -0.02365782634 0.09982902386
661.25 -0.01476164972 0.1061185534
661.875 -0.001058872307 0.08620041238
662.5 0.01572658045 0.07336807021
663.125 -6.346219896e-05 0.07595025247
663.75 -0.06174028227 0.05925986028
664.375 -0.07839133087 0.0009709339118
665.0 -0.07957766823 -0.03277160403
665.625 -0.08205453306 -0.06922215404
666.25 -0.04805195942 -0.1164542918
666.875 -0.02073926681 -0.110379992
667.5 -0.02316256975 -0.1142113397
668.125 -0.03046845967 -0.126654319
668.75 -0.01310017943 -0.1013472154
669.375 -0.002774028586 -0.07667636773
670.0 0.006837064684 -0.07686292266
670.625 0.01833601461 -0.1032403072
671.25 0.007769080858 -0.08721115457
671.875 -0.004498396705 -0.08426987753
672.5 -0.03268127003 -0.08677675938
673.125 -0.0659032645 -0.1063570762
673.75 -0.07516041516 -0.09321964187
674.375 -0.06764742493 -0.09677736656
675.0 -0.02139146867 -0.1155775362
675.625 0.02567233282 -0.1048558766
676.25 0.04110726226 -0.08834164977
676.875 0.05127918925 -0.08378344855
677.5 0.07376391184 -0.06340323109
678.125 0.05728894387 -0.0165786326
678.75 0.06275790418 -0.001807842942
679.375 0.09147083955 0.005917822219
680.0 0.1322671981 0.008430511373
680.625 0.1095393305 2.283109731e-05
681.25 0.09966669828 -0.04539654978
681.875 0.09204273054 -0.09881623338
682.5 0.07148512749 -0.1436434181
683.125 0.04560388676 -0.1157479465
683.75 0.05060144082 -0.08890445636
684.375 0.09648553562 -0.05332189002
685.0 0.1034308271 0.03407794055
685.625 0.05720486506 0.07113109291
686.25 0.002994756892 0.07383774477
686.875 -0.04182977897 0.06548727164
687.5 -0.07902873596 0.03882666859
688.125 -0.09841982758 0.04438405718
688.75 -0.131755784 0.04647201565
689.375 -0.1402016636 0.02201396817
690.0 -0.114520703 0.02303118957
690.625 -0.1146452921 0.04521581832
691.25 -0.1150097936 0.1046456596
691.875 -0.06812566302 0.1174545092
692.5 0.03085014266 0.07911584017
693.125 0.06384808857 0.03697000234
693.75 0.1057644019 0.02532781499
694.375 0.1192454814 0.05558291094
695.0 0.07572539459 0.07490112732
695.625 0.01259014254 0.1069946255
696.25 -0.1064028265 0.07509045278
696.875 -0.1280532099 -0.05237101929
697.5 -0.06939179743 -0.1140567367
698.125 -0.04351564565 -0.1191624346
698.75 -0.02965398538 -0.1053984755
699.375 -0.0203369506 -0.08424443139
700.0 0.006099068695 -0.09038237142
700.625 0.0525718515 -0.08810489874
701.25 0.06435738278 -0.04577348166
701.875 0.05503263366 -0.04974883857
702.5 0.04199153511 -0.1054933263
703.125 -0.0339147933 -0.1728733866
703.75 -0.1103243348 -0.09187439308
704.375 -0.112062043 0.008307851047
705.0 -0.1041560594 0.01976051109
705.625 -0.1244231059 -0.05674370775
706.25 -0.02440986266 -0.1036914561
706.875 0.03734499315 -0.06848814597
707.5 0.05843037473 -0.03191253182
708.125 0.07346265461 0.03923413705
708.75 0.03118708671 0.08819924276
709.375 -0.02612123633 0.09172750431
710.0 -0.0618345626 0.06913115783
710.625 -0.0846776623 0.0374370854
711.25 -0.1030479836 0.01808409782
711.875 -0.1262962336 0.03373945447
712.5 -0.1059224757 0.08547877095
713.125 -0.003338855581 0.1086276522
713.75 0.0786224819 0.05239049625
714.375 0.09437529549 0.01678811332
715.0 0.08974317135 0.02033479494
715.625 0.05101625341 0.03122498555
716.25 0.03008963441 0.05061008718
716.875 0.00269693607 0.08757128189
717.5 -0.07767538689 0.08538698614
718.125 -0.07914513976 0.05084436363
718.75 -0.07223503391 0.03780613871
719.375 -0.0867625056 0.01721402853
720.0 -0.08861417905 -0.0495749666
720.625 -0.01987008137 -0.09693839022
721.25 0.05484249023 -0.06870533594
721.875 0.07499558879 -0.01054831004
722.5 0.04967145776 0.0175242378
723.125 0.04094067126 0.01711984972
723.75 0.05925733116 0.01084805642
724.375 0.05964771972 -0.03535185432
725.0 0.02074310138 -0.0554840281
725.625 -0.007060159917 -0.06307719141
726.25 -0.01699384398 -0.07490265225
726.875 0.001825974264 -0.0811867352
727.5 0.009024036065 -0.0648597551
728.125 0.02530002275 -0.04610978423
728.75 0.03079570273 -0.03067474042
729.375 0.03453395612 -0.02725503425
730.0 0.02291928061 -0.03068161675
730.625 0.01962140432 -0.01874444078
731.25 0.02302295875 0.002631677172
731.875 0.009216006718 0.02077964957
732.5 -0.01403114835 0.02701157416
733.125 -0.02682671421 0.02816779133
733.75 -0.01825964539 0.03707497043
734.375 0.0006766157534 0.03039995276
735.0 0.01169109163 0.01499488289
735.625 0.01047515185 0.009374677531
736.25 0.005786501422 -0.01059081161
736.875 -0.01652332383 -0.02059281004
737.5 -0.0381877274 -0.01456973119
738.125 -0.0491706293 -0.002888157126
738.75 -0.03855444207 0.009545331069
739.375 -0.01005361519 0.008149466198
740.0 0.001492527873 -0.01268557471
740.625 -0.01387031488 -0.02115228333
741.25 -0.01919123044 -0.01100865477
741.875 0.003004062312 -0.01843981271
742.5 0.02139624811 0.003844241379
743.125 0.004708216775 0.02541114283
743.75 -0.008582029226 0.0237750627
744.375 -0.02488754536 0.02991856602
745.0 -0.03622218439 0.03577511878
745.625 -0.0297240823 0.06244369766
746.25 0.01631013194 0.07347497481
746.875 0.0605886492 0.04436227976
747.5 0.05217685449 0.003013280706
748.125 0.03414119107 -0.009289821495
748.75 0.0303262294 -0.01383884139
749.375 0.0180501378 -0.03639958716
750.0 -0.02710311673 -0.03574907607
