!Created with skrf (http://scikit-rf.org).
# GHz S RI R 50.0 
!freq ReS11 ImS11
500.0 -0.007058501579 0.01807389544
500.625 0.01724310942 0.01097689837
501.25 0.02282557486 -0.009139429931
501.875 0.01301766262 -0.01367854489
502.5 0.008428191752 0.006313852868
503.125 0.01822743718 0.005806097617
503.75 0.02194761547 -0.01365459522
504.375 0.01904413179 -0.02578778866
505.0 0.01387043137 -0.03012278757
505.625 0.009842375455 -0.05074087673
506.25 -0.01233602265 -0.06561984763
506.875 0.009019052636 -0.08812684318
507.5 -0.0146092074 -0.06503383006
508.125 0.007232663409 -0.07928707556
508.75 -0.04583588967 -0.0840845625
509.375 -0.04958364943 -0.05928394935
510.0 -0.02277721688 -0.05327886216
510.625 -0.05455552855 -0.01088789958
511.25 -0.07701997172 -0.006101171838
511.875 -0.05768803755 0.0356299263
512.5 -0.01151859053 0.04726507513
513.125 0.05013762415 0.05253914506
513.75 0.06982729729 0.04391825657
514.375 0.06202168977 0.01485743447
515.0 0.06800554448 -0.01155914472
515.625 0.09155334438 0.05288063332
516.25 0.1064144913 0.02568254334
516.875 0.06703220592 0.1024529211
517.5 0.1329248618 0.01765005822
518.125 0.1269898412 0.1973895428
518.75 0.1101304953 -0.003811969311
519.375 0.08014489238 0.006224285076
520.0 0.09370477539 -0.04480496454
520.625 0.1169974756 -0.05201563985
521.25 0.08001487686 -0.06836490381
521.875 0.06799899788 -0.02665649427
522.5 0.05642279588 -0.08952458398
523.125 0.1448912249 -0.1868523509
523.75 0.0874880904 -0.253518642
524.375 0.08625526449 -0.2563976334
525.0 0.0386874569 -0.1132509425
525.625 0.0352754378 -0.07463040087
526.25 0.04507062945 -0.05283622218
526.875 0.02682767161 -0.06710171587
527.5 0.01302125722 -0.08130668958
528.125 -0.01850771379 -0.06055286266
528.75 -0.03667150096 -0.06581178099
529.375 -0.1119119157 -0.03839280775
530.0 -0.0979596327 0.02295515184
530.625 -0.03312735969 0.04346380151
531.25 -0.06190640751 0.03238428496
531.875 -0.1318801674 0.0683081276
532.5 -0.1256803939 0.1074229808
533.125 -0.07547140813 0.08871015054
533.75 -0.03409563495 0.09651033818
534.375 -0.05364195219 0.1166728721
535.0 -0.04635542448 0.1153159314
535.625 -0.04636580878 0.07486901164
536.25 0.01355876347 0.07934680516
536.875 -0.02509373779 0.08497494054
537.5 -0.08009924667 0.04714735334
538.125 -0.05901796738 0.0677582504
538.75 -0.04193441902 0.123599245
539.375 -0.06734561985 0.1025941753
540.0 -0.05663707847 0.08211681525
540.625 -0.05502233914 0.07818955914
541.25 -0.0774371161 0.09766701341
541.875 -0.08451750664 0.06112240297
542.5 -0.0689049255 0.02631157011
543.125 -0.06418265826 0.07078671139
543.75 -0.01127595016 0.1429221138
544.375 0.01956937206 0.1400323231
545.0 0.09114298074 0.05287574684
545.625 0.1158613867 -0.01195394756
546.25 0.1270694174 -0.03953265519
546.875 0.1107364745 -0.038400362
547.5 0.1198022853 -0.03700130654
548.125 0.1537793403 -0.03151143633
548.75 0.1568555299 0.03416110494
549.375 0.1372885908 0.04058983787
550.0 0.1300435771 0.07801033425
550.625 0.1225036248 0.0988398335
551.25 0.04136508209 0.09768132014
551.875 0.0381517122 0.04968680941
552.5 0.05231078336 0.04977681255
553.125 0.05778862182 0.07500779476
553.75 0.01266517886 0.06113323958
554.375 0.01842314658 0.05017793531
555.0 0.04682536323 0.06532523673
555.625 0.06787202747 0.08133856823
556.25 0.02767795788 0.08311935749
556.875 0.02562356299 0.07381204816
557.5 0.035145214 0.1017436739
558.125 0.02466609827 0.1256001497
558.75 -0.01219003349 0.1152191712
559.375 0.02355768087 0.1074148399
560.0 0.03283353631 0.1141067485
560.625 0.03421722419 0.07506110454
561.25 0.03400501248 0.04699419725
561.875 0.0406087449 0.05493155063
562.5 0.05336794255 0.06108873185
563.125 0.05273819452 0.05158194951
563.75 0.0679575127 0.03174429888
564.375 0.1126639342 0.01709098039
565.0 0.1255551484 0.05444341279
565.625 0.1089178536 0.02695844019
566.25 0.09560329067 0.02692218395
566.875 0.1006468809 0.05069462989
567.5 0.05796386682 0.09749683274
568.125 0.03535162791 0.09165586865
568.75 0.0443945335 0.1083724249
569.375 0.03698289152 0.1101269532
570.0 0.02669969021 0.08911722043
570.625 0.02896980864 0.0622979706
571.25 0.0479972346 0.06882218725
571.875 0.0336575969 0.06233085925
572.5 0.02585531992 0.03588623121
573.125 0.03447095516 0.0466459245
573.75 0.08750062344 0.04963792363
574.375 0.1030885463 0.03689284999
575.0 0.07390970112 0.01091840647
575.625 0.06940645039 -0.005354893137
576.25 0.09996579021 0.01567255225
576.875 0.09706499094 0.02517243245
577.5 0.08912411456 0.01158975265
578.125 0.09962700561 -0.009226434184
578.75 0.1243058634 0.002051895754
579.375 0.1026701805 0.01033134141
580.0 0.09311837023 -0.008244943555
580.625 0.09720375192 -0.03086310397
581.25 0.08152879117 -0.02664768087
581.875 0.04773946332 0.005112276842
582.5 0.04738448079 0.01678808485
583.125 0.08167271822 0.03247556868
583.75 0.07841825958 0.04058023002
584.375 0.05727322566 0.04016882963
585.0 0.0472614808 0.04956090829
585.625 0.06413288876 0.07011010686
586.25 0.05422995373 0.06636659602
586.875 0.05036835341 0.0425834236
587.5 0.06662156606 0.04380773134
588.125 0.0928191428 0.03033015451
588.75 0.09261390547 0.01946264941
589.375 0.07703969797 -0.03046927756
590.0 0.06181963569 -0.05951601488
590.625 0.04761576582 -0.03301102404
591.25 0.03776009424 -0.001092735071
591.875 0.05049481721 0.002534528306
592.5 0.07944846454 -0.02086413698
593.125 0.0921269711 -0.01701753136
593.75 0.0771319655 -0.002820162842
594.375 0.07955681736 0.01210610895
595.0 0.08755415442 0.04085844783
595.625 0.06833731302 0.0582724196
596.25 0.04287087299 0.05415616672
596.875 0.03337685116 0.05878719089
597.5 0.02451591582 0.07515975799
598.125 0.03195560005 0.06917904778
598.75 0.05035243224 0.04842993316
599.375 0.05191769696 0.03418421496
600.0 0.0319958376 0.02642131491
600.625 0.01286639816 0.01357329761
601.25 -0.001773160362 0.01742689004
601.875 -0.01196722137 0.03610763762
602.5 -0.01970909599 0.04248016339
603.125 -0.02266216841 0.04358559939
603.75 -0.01392539967 0.05225368596
604.375 -0.01109797179 0.05668898068
605.0 -0.01596616129 0.03884374791
605.625 -0.02814350813 0.02178621876
606.25 -0.04251557995 0.02444473885
606.875 -0.05184017602 0.03751739462
607.5 -0.03259567424 0.04676640949
608.125 -0.009047443164 0.04135519141
608.75 -0.001815218061 0.03400580372
609.375 -0.006027642481 0.02918700899
610.0 -0.001764628255 0.02144118335
610.625 0.001698516242 0.007178450102
611.25 0.00505731267 -0.005069349176
611.875 0.00175174793 -0.01798445691
612.5 -0.004271042598 -0.0254629378
613.125 -0.01701111841 -0.02383150363
613.75 -0.01735034564 -0.009744394881
614.375 -0.004841543426 -0.0007476492315
615.0 0.004022306719 -0.007326957466
615.625 0.0007254251333 -0.0134623234
616.25 -0.006756396546 -0.00653105901
616.875 0.005586991642 0.009162884266
617.5 0.01991461595 0.006970733282
618.125 0.02435565368 0.0009073817068
618.75 0.02354219673 0.002354191007
619.375 0.03505482277 0.01229593427
620.0 0.05211133824 0.008525501277
620.625 0.05252751875 -0.01965706627
621.25 0.04554205561 -0.02693776242
621.875 0.03212979993 -0.03340074459
622.5 -0.007854058817 -0.02521102195
623.125 -0.006313383092 0.003231005049
623.75 0.006893022391 0.01723176532
624.375 0.01955514041 0.02962241891
625.0 0.00886097056 0.03963468542
625.625 0.008350811213 0.04775536024
626.25 0.02700110151 0.05871280802
626.875 0.04858748936 0.07478953247
627.5 0.03917859921 0.07234040591
628.125 0.03066902859 0.06370674596
628.75 0.0300595675 0.06854448617
629.375 0.02249259781 0.0855348412
630.0 0.01331853264 0.07252464563
630.625 0.009201946649 0.05748417203
631.25 0.002453357624 0.05008314274
631.875 -0.02051616127 0.04405002044
632.5 -0.02980668409 0.02992413415
633.125 -0.03610644735 0.02769663456
633.75 -0.04424557503 0.04239056742
634.375 -0.05575164704 0.03877724161
635.0 -0.05658481595 0.04455470431
635.625 -0.05107502738 0.0684587816
636.25 -0.05190322651 0.08480529197
636.875 -0.04943420429 0.05539297432
637.5 -0.05149338194 0.04366118637
638.125 -0.07405435533 0.06761701604
638.75 -0.09068463676 0.07071903463
639.375 -0.07580754443 0.03554934862
640.0 -0.05818477048 0.01082973513
640.625 -0.07270294491 -0.01555826755
641.25 -0.0697939772 -0.05377147096
641.875 -0.05053566985 -0.05093607306
642.5 -0.05129012336 -0.04809805072
643.125 -0.05571415425 -0.07282917911
643.75 -0.03085987463 -0.1012381436
644.375 -0.03241226761 -0.08322370121
645.0 -0.06789297991 -0.07044660351
645.625 -0.07498829295 -0.08007497275
646.25 -0.05009410834 -0.07466632235
646.875 -0.02379567775 -0.06976100515
647.5 -0.04492450274 -0.07484282012
648.125 -0.0433953785 -0.08988450879
648.75 -0.007943741197 -0.07078300683
649.375 0.01800483243 -0.05859562508
650.0 0.04770377669 -0.07034789103
650.625 0.08079250958 -0.06408544556
651.25 0.08650173265 -0.03361832666
651.875 0.09780907794 -0.01036887336
652.5 0.1278490598 0.03644463082
653.125 0.1112856041 0.07175148523
653.75 0.09479767944 0.06543548334
654.375 0.09342783319 0.06819757761
655.0 0.06506691097 0.09617190811
655.625 0.0174820503 0.07609126329
656.25 0.02437595454 0.05626322315
656.875 0.05621978544 0.0663329293
657.5 0.031109366 0.09332116765
658.125 -0.008353491394 0.08613984205
658.75 -0.0003750032412 0.08290713462
659.375 0.05856521985 0.1090675037
660.0 0.08940918356 0.1116363866
660.625 0.09633874525 0.08335562315
661.25 0.1116394911 0.04686969336
661.875 0.1385669141 0.01677999532
662.5 0.1303680939 0.004708078171
663.125 0.1069211261 0.006098732165
663.75 0.09944173959 0.04316776064
664.375 0.02476462426 0.1038535447
665.0 -0.032965663 0.0777575314
665.625 -0.04723430699 0.05501750097
666.25 -0.08566296794 0.05696700157
666.875 -0.1341183719 -0.009272300627
667.5 -0.1081457769 -0.03610999802
668.125 -0.1120716708 -0.01354178562
668.75 -0.1439210927 0.01660714621
669.375 -0.1411926787 -0.0149476344
670.0 -0.08925260675 -0.02909574126
670.625 -0.0946414981 -0.01869316964
671.25 -0.127054259 0.005869649453
671.875 -0.117076726 0.0153087479
672.5 -0.08102778639 0.03207101534
673.125 -0.07857505883 0.04654999426
673.75 -0.1120669438 0.05473221367
674.375 -0.1216060996 0.03291562473
675.0 -0.1213622773 0.001010527708
675.625 -0.1297969678 -0.04946583679
676.25 -0.09467416795 -0.09927124869
676.875 -0.07544132627 -0.1007863027
677.5 -0.09900829748 -0.08805129794
678.125 -0.09839724493 -0.112935907
678.75 -0.02976994049 -0.08635968551
679.375 -0.003908883243 -0.06120199484
680.0 -0.01707112794 -0.07482787269
680.625 -0.02538290797 -0.1244388833
681.25 -0.009936393749 -0.1162922251
681.875 -0.02974744065 -0.09214889723
682.5 -0.09934510465 -0.08083203881
683.125 -0.1426070002 -0.09727808097
683.75 -0.1003425454 -0.1263968309
684.375 -0.02507443228 -0.1231924354
685.0 0.0528124974 -0.1343351887
685.625 0.1330140992 -0.07461510313
686.25 0.1350061536 -0.01606035246
686.875 0.1126622265 0.0125108349
687.5 0.08121094471 0.05336805363
688.125 0.03806898961 0.07490554574
688.75 0.02060348842 0.08372421744
689.375 0.02695264088 0.1168238543
690.0 -0.01193345792 0.1438080821
690.625 -0.01210479189 0.1246809239
691.25 0.04522151609 0.1196250958
691.875 0.1606789729 0.08297883557
692.5 0.2053293894 -0.008749695948
693.125 0.08013455 -0.1022167187
693.75 -0.004026071359 -0.1033833278
694.375 -0.01094586837 -0.1349141988
695.0 0.09124429098 -0.1297998899
695.625 0.1121068942 0.0009895916077
696.25 0.05681530548 0.07546375619
696.875 -0.04525697619 0.1095743024
697.5 -0.1270277028 0.04869950586
698.125 -0.1377858912 0.002838597057
698.75 -0.1419380277 0.01330790271
699.375 -0.1361853513 0.006623903319
700.0 -0.1123271879 -0.01420565965
700.625 -0.1067236082 -0.03778675376
701.25 -0.115685729 -0.06982980466
701.875 -0.07982325009 -0.05939152478
702.5 -0.06570191527 -0.03228340907
703.125 -0.09568683036 0.01017962904
703.75 -0.1147140263 0.1317549569
704.375 -0.07481832794 0.1538954731
705.0 -0.02611820745 0.1194993124
705.625 -0.04840977358 0.1095941631
706.25 -0.1537103214 0.06362076009
706.875 -0.1199039211 -0.1070543111
707.5 -0.04555884835 -0.09833454371
708.125 -0.007689189179 -0.09555257761
708.75 0.06339083337 -0.07419553386
709.375 0.09790347045 0.01585599218
710.0 0.06032602518 0.06008258745
710.625 0.04523397228 0.0701862383
711.25 0.009575893551 0.0829711358
711.875 -0.003342573402 0.09638159634
712.5 0.04502648075 0.1194416499
713.125 0.1453372641 0.06857978453
713.75 0.131761832 -0.06796106182
714.375 0.04206225264 -0.1219848622
715.0 -0.01472171243 -0.138473337
715.625 0.02490215382 -0.1418115431
716.25 0.06234574095 -0.06790902348
716.875 0.06202588222 -0.01995726443
717.5 0.07938784597 0.02961811705
718.125 0.07320863002 0.08568369285
718.75 0.02892180323 0.0877749228
719.375 0.004497282082 0.06833799869
720.0 -0.03789034544 0.06734500303
720.625 -0.1063528442 -0.004235392342
721.25 -0.04880370072 -0.1051961953
721.875 0.02828368256 -0.1078373038
722.5 0.04889388264 -0.1041773226
723.125 0.001988075731 -0.1006418439
723.75 -0.03545759678 -0.0656779927
724.375 -0.0544413686 -0.03573103245
725.0 -0.05822852682 -0.001916217803
725.625 -0.04652402281 0.007914455123
726.25 -0.04826332283 0.003994833971
726.875 -0.070661326 -0.02182926832
727.5 -0.07464809491 -0.04929945797
728.125 -0.05301504023 -0.06262542998
728.75 -0.04895232834 -0.04443244023
729.375 -0.04822432701 -0.03203810596
730.0 -0.04316836662 -0.03720429079
730.625 -0.03199587976 -0.03354592474
731.25 -0.01133240463 -0.03503443655
731.875 0.007890870563 -0.02675667756
732.5 0.01830687727 -0.001671258611
733.125 0.009834460421 0.02150332012
733.75 0.02197209254 0.03505665417
734.375 0.03415009236 0.0238736105
735.0 0.03818488005 0.0004429187685
735.625 0.03279739008 -0.01046275234
736.25 0.02345752385 -0.02437637544
736.875 -0.003260718289 -0.02662160514
737.5 -0.02307327358 -0.01239690008
738.125 -0.03874441531 0.008275975182
738.75 -0.03298199403 0.0312472647
739.375 -0.01883952112 0.03056128413
740.0 -0.006574547595 0.01613023463
740.625 -0.01907678672 0.01257168012
741.25 -0.0218803656 0.02135220299
741.875 -0.03122888724 0.003466649044
742.5 -0.01152789317 -0.02873879808
743.125 0.02574329158 -0.01981863946
743.75 0.03026753827 -0.003966374504
744.375 0.03118932868 0.0005787924675
745.0 0.02995065382 0.002471685248
745.625 0.02835957348 0.01390811172
746.25 0.0442792285 0.01823763564
746.875 0.05885610254 -0.02248153877
747.5 0.03626563085 -0.05886355929
748.125 0.004379168948 -0.06186655048
748.75 -0.02478009854 -0.04937113132
749.375 -0.05537392308 -0.01914314067
750.0 -0.05996787982 0.04913107133
