!Created with skrf (http://scikit-rf.org).
# GHz S RI R 50.0 
!freq ReS11 ImS11
500.0 -0.01509039663 0.02126048669
500.625 0.02658345147 0.02264457613
501.25 0.03379595549 0.006891284893
501.875 0.02857809771 0.009518780319
502.5 0.01640748792 0.02820955366
503.125 0.03161960767 0.01766609506
503.75 0.04377690009 -0.002832789998
504.375 0.03893018551 -0.01644293851
505.0 0.03281956226 -0.0361852692
505.625 0.03455840609 -0.06119587139
506.25 0.01908758859 -0.07437475818
506.875 0.04611952193 -0.07597747721
507.5 0.02036908474 -0.07363665358
508.125 0.05553267227 -0.07358121934
508.75 0.009242526877 -0.09432884457
509.375 -0.008936146623 -0.07062939038
510.0 0.01888889604 -0.0731595748
510.625 -0.05189682221 -0.05113528868
511.25 -0.07086283947 -0.04236008889
511.875 -0.06227999032 0.0125110662
512.5 -0.03375704646 0.04038971965
513.125 0.0144712989 0.06368924604
513.75 0.02379485893 0.06979283835
514.375 0.04146236118 0.05057153914
515.0 0.07707143392 0.03988490244
515.625 0.0422842676 0.1156486482
516.25 0.08838321577 0.0773076117
516.875 0.02951094499 0.1349012862
517.5 0.1320615112 0.08049940465
518.125 0.01922658763 0.2156861938
518.75 0.08308655677 0.03965868994
519.375 0.07533193718 0.04701103726
520.0 0.117372957 0.01581991756
520.625 0.1140805456 0.00903078701
521.25 0.09385182516 -0.02446692594
521.875 0.07682173222 0.005482721016
522.5 0.09939379262 -0.05532959238
523.125 0.1713603929 -0.1008348591
523.75 0.1388836808 -0.1910316953
524.375 0.1550353385 -0.1709021003
525.0 0.06458481432 -0.0545748001
525.625 0.04442812759 -0.02483769187
526.25 0.05357720761 -0.01211860441
526.875 0.0608147701 -0.03050674519
527.5 0.04852946148 -0.0367796625
528.125 0.02019608815 -0.04894708807
528.75 0.009404256836 -0.07304963248
529.375 -0.0561546714 -0.09205833226
530.0 -0.05638367823 -0.0334335496
530.625 -0.04276654057 -0.007158980622
531.25 -0.09981912013 -0.04888385841
531.875 -0.1748692885 -0.05063482025
532.5 -0.1573666128 0.01921820531
533.125 -0.1055227888 0.03874482908
533.75 -0.09788076557 0.06807460921
534.375 -0.1177200625 0.04948430381
535.0 -0.08400329485 0.06846763863
535.625 -0.06810057842 0.03657529309
536.25 -0.03958119231 0.05687923689
536.875 -0.08175280908 0.02570975883
537.5 -0.09603011137 -0.01009140767
538.125 -0.09556603573 0.03552756786
538.75 -0.1049247957 0.06727369651
539.375 -0.09341472974 0.03468202989
540.0 -0.08855430089 0.02356580415
540.625 -0.109940949 0.02870448734
541.25 -0.1308771116 0.01031148989
541.875 -0.09977117027 -0.005474228812
542.5 -0.09033455717 -0.01223272492
543.125 -0.1186574176 0.04247198914
543.75 -0.08475869469 0.1210505366
544.375 -0.03777406888 0.1210588622
545.0 0.06000673053 0.07921648803
545.625 0.1019149145 0.06163986123
546.25 0.1085800435 0.03515846966
546.875 0.1059954973 0.02122334897
547.5 0.1202398283 0.02588591257
548.125 0.1415660039 0.06298621354
548.75 0.09230883828 0.08625134512
549.375 0.0981376911 0.08508688251
550.0 0.0676670952 0.1210317223
550.625 0.03449479986 0.1023375203
551.25 -0.01090269256 0.05751743895
551.875 -0.007267953313 0.0426608992
552.5 -0.01460589082 0.06894936482
553.125 -0.03574955149 0.07220196502
553.75 -0.04016237354 0.04696580551
554.375 -0.02525809791 0.06699204031
555.0 -0.01093655659 0.1007532048
555.625 -0.007616613412 0.1055506271
556.25 -0.0252493182 0.08169773213
556.875 -0.02412980752 0.09559672021
557.5 -0.032732924 0.1166592752
558.125 -0.03802067342 0.1182430623
558.75 -0.05550482039 0.0899631859
559.375 -0.0273860606 0.102874151
560.0 -0.02997751101 0.08072826676
560.625 -0.01151284351 0.05451312076
561.25 -0.01644659701 0.04747554435
561.875 -0.02346790866 0.06845574526
562.5 -0.01314162968 0.08291214233
563.125 0.01428231181 0.07831734097
563.75 0.0523379889 0.07882370665
564.375 0.0893813333 0.09622829246
565.0 0.07420233885 0.09909075438
565.625 0.07914794117 0.06682243213
566.25 0.06612129891 0.07281262146
566.875 0.03687741495 0.1022264066
567.5 -0.009353131399 0.09296973835
568.125 -0.01204258812 0.09579815174
568.75 -0.02020551203 0.1076000337
569.375 -0.0240311724 0.083505975
570.0 -0.02464563549 0.05714986976
570.625 -0.01595082123 0.05298241263
571.25 -0.02616392328 0.06744511464
571.875 -0.02345579535 0.04370442875
572.5 -0.01934565882 0.04934000126
573.125 -0.009551557957 0.08458507285
573.75 0.04139133059 0.1144422625
574.375 0.0529124651 0.07794918756
575.0 0.05536941818 0.05024168616
575.625 0.06709493741 0.0574736331
576.25 0.06370900276 0.08481297418
576.875 0.06785990947 0.06877751786
577.5 0.07815018676 0.04776823928
578.125 0.09445803393 0.04959702914
578.75 0.0770454235 0.06696275225
579.375 0.06869150745 0.04573252232
580.0 0.0762934629 0.0309199319
580.625 0.07343827552 0.02737078852
581.25 0.04107027353 0.03038815087
581.875 0.01309804487 0.0393302208
582.5 0.02964912194 0.06070859504
583.125 0.03520120091 0.08729281979
583.75 0.03098302612 0.07527176594
584.375 0.01460620081 0.06747902326
585.0 0.004599212909 0.08138617853
585.625 -0.002474459664 0.09731962967
586.25 0.008931366822 0.07581479465
586.875 0.01305698228 0.0655440298
587.5 0.02068454863 0.08278297353
588.125 0.04939099422 0.07571508378
588.75 0.06175135603 0.0500000201
589.375 0.07043506189 0.01281417673
590.0 0.06248592423 0.009304008771
590.625 0.0338887595 0.02478861928
591.25 0.03426505105 0.03925950566
591.875 0.0611562478 0.0433970321
592.5 0.0904278388 0.03972661684
593.125 0.0793365998 0.03664887953
593.75 0.0693326741 0.03367850492
594.375 0.06738966562 0.05798244342
595.0 0.04879248264 0.07689874707
595.625 0.02176232465 0.06912821464
596.25 0.005225924532 0.05651047694
596.875 -0.0113103867 0.06347760029
597.5 -0.02338004077 0.06241233229
598.125 -0.007560908635 0.06050312502
598.75 0.01214992365 0.04939685187
599.375 0.007464157598 0.03476787988
600.0 -0.002830835771 0.01607007655
600.625 -0.01886943212 0.005440228372
601.25 -0.03820021388 0.01333796109
601.875 -0.05306044026 0.02433751323
602.5 -0.0476878647 0.03031059842
603.125 -0.04648589374 0.03478374483
603.75 -0.04511719298 0.04406842952
604.375 -0.03828202894 0.03653894568
605.0 -0.03324901701 0.01549973032
605.625 -0.03826115714 0.004845972014
606.25 -0.05647377586 0.002178920277
606.875 -0.05778533147 0.01213524404
607.5 -0.03745941161 0.02343559572
608.125 -0.01378935745 0.02609415573
608.75 -0.0126435056 0.01696443432
609.375 -0.009278360338 0.01188523222
610.0 -0.001878859062 0.003287115693
610.625 0.007417353568 -0.004290858113
611.25 0.008554770198 -0.01769949522
611.875 0.008981199638 -0.02559682254
612.5 0.004226033142 -0.03370590518
613.125 -0.008182013669 -0.02482517409
613.75 -0.009937454478 -0.00919866662
614.375 0.0005558354083 -0.0003302940467
615.0 0.009789805103 -0.005199448679
615.625 0.004823873864 -0.008772819752
616.25 -0.002058565929 0.003726335688
616.875 0.007033196912 0.01583734921
617.5 0.02124672003 0.01526742922
618.125 0.02240730786 0.01415277545
618.75 0.02134500751 0.0170210863
619.375 0.02867778808 0.02515610704
620.0 0.04306822421 0.02097268131
620.625 0.0447205374 -0.000641689104
621.25 0.03487669475 -0.01192086898
621.875 0.01627658752 -0.01714312701
622.5 -0.014551702 -0.002892986003
623.125 -0.01177224068 0.02622634882
623.75 0.00209458088 0.0457695616
624.375 -0.001877304857 0.05244371582
625.0 -0.02016077296 0.04985186101
625.625 -0.01757129018 0.05847847982
626.25 -0.001968877215 0.08534494251
626.875 0.008457645872 0.08707795721
627.5 0.004064105299 0.07223072196
628.125 -0.0006011419455 0.06209706089
628.75 -0.01697580222 0.07093722773
629.375 -0.02371195713 0.06135526523
630.0 -0.01514802888 0.0463172025
630.625 -0.01563570358 0.03187517599
631.25 -0.03299767088 0.01468455981
631.875 -0.04125165 -0.005791451324
632.5 -0.04586589531 -0.01067477173
633.125 -0.05663387928 -0.01117777775
633.75 -0.07330251466 -0.007916280041
634.375 -0.07358414437 -0.01104082642
635.0 -0.08046974141 0.001553429089
635.625 -0.09023661496 0.02849100619
636.25 -0.08215314822 0.02477177222
636.875 -0.06701596042 0.00663921458
637.5 -0.07820729321 0.0003882458953
638.125 -0.1063752122 0.006235165261
638.75 -0.08891893937 0.00719180663
639.375 -0.05949164615 -0.007277154351
640.0 -0.03924833653 -0.03415135939
640.625 -0.02403246147 -0.07627596758
641.25 -0.007386866801 -0.07468720721
641.875 -0.00991537306 -0.06788350085
642.5 -0.004940286172 -0.07637394033
643.125 0.02825526609 -0.09263656382
643.75 0.04377363896 -0.07829180255
644.375 0.01484616292 -0.08408778003
645.0 -0.005326309132 -0.0955933522
645.625 0.01295019342 -0.08486435224
646.25 0.02435708146 -0.06441228853
646.875 0.03147584736 -0.06472494284
647.5 0.02765565563 -0.09234124828
648.125 0.03493087549 -0.07277283456
648.75 0.04782211531 -0.04422144471
649.375 0.07147441408 -0.02761664377
650.0 0.1037631754 -0.01899114273
650.625 0.1014789515 0.005119947042
651.25 0.09433848091 0.02043582892
651.875 0.09357664986 0.05909595484
652.5 0.06632653701 0.1061773251
653.125 0.04778635726 0.0957920851
653.75 0.04272689053 0.08703821919
654.375 0.01533961587 0.09486112999
655.0 -0.03575722123 0.06367550108
655.625 -0.03794286422 0.03856200405
656.25 -0.03504382722 0.05764213669
656.875 -0.03601154268 0.09176156487
657.5 -0.06569871503 0.07240381817
658.125 -0.0725429311 0.05625976069
658.75 -0.0609248119 0.09327936076
659.375 -0.03674558436 0.139575886
660.0 0.002182219565 0.1306032774
660.625 0.03043420367 0.1098912719
661.25 0.05930328464 0.1043031778
661.875 0.0741273773 0.0968881721
662.5 0.07238680291 0.06314064623
663.125 0.058642535 0.06075708062
663.75 0.01563083125 0.0947504742
664.375 -0.05917972223 0.06090985911
665.0 -0.07400838624 0.02130931505
665.625 -0.08655967082 -0.0002270769105
666.25 -0.1152237868 -0.05201962055
666.875 -0.07792147931 -0.09672609792
667.5 -0.07187676647 -0.09055521784
668.125 -0.09586009902 -0.08379910786
668.75 -0.1038938975 -0.0938930965
669.375 -0.06049206908 -0.07815104644
670.0 -0.04150330004 -0.06700198229
670.625 -0.05783622155 -0.08595234512
671.25 -0.07312299954 -0.0879852739
671.875 -0.06311637957 -0.06271956165
672.5 -0.07330447684 -0.0429641649
673.125 -0.1074583881 -0.03513514049
673.75 -0.1205994998 -0.04493497959
674.375 -0.1129035119 -0.04954029748
675.0 -0.09582730769 -0.08368690912
675.625 -0.05049067864 -0.1173476842
676.25 -0.005937056058 -0.1143671683
676.875 -0.005417994881 -0.1110250772
677.5 -0.008158519797 -0.1238989467
678.125 0.03288534808 -0.08858875165
678.75 0.03818584166 -0.046362027
679.375 0.05431080945 -0.03867167502
680.0 0.07687486476 -0.07815242084
680.625 0.1052666995 -0.07801548583
681.25 0.06691017717 -0.08407587298
681.875 0.03002414656 -0.1126518651
682.5 -0.03166747898 -0.1574580829
683.125 -0.02736336467 -0.1631628521
683.75 0.0005398500965 -0.1268758208
684.375 0.04656326803 -0.107780387
685.0 0.1233264089 -0.05374797992
685.625 0.118057414 0.02843719909
686.25 0.07692921353 0.06289888148
686.875 0.03623944729 0.07478815243
687.5 -0.0200725399 0.08046589972
688.125 -0.04585037921 0.07773051733
688.75 -0.06378164808 0.09640716913
689.375 -0.09708122097 0.1145475531
690.0 -0.100578031 0.08318991001
690.625 -0.07994967597 0.09419525025
691.25 -0.03165154828 0.1436714025
691.875 0.04825210483 0.185322848
692.5 0.09608399066 0.08598437291
693.125 0.08667686254 -0.02277782802
693.75 0.07411690281 -0.06452478186
694.375 0.1214292742 -0.0728514995
695.0 0.1227090175 0.01627721562
695.625 0.0660852986 0.07313354177
696.25 -0.0254896581 0.1114341006
696.875 -0.131388125 0.04089393367
697.5 -0.1270324869 -0.06230833731
698.125 -0.1076252976 -0.08200755163
698.75 -0.1081021829 -0.07874764459
699.375 -0.08229470005 -0.07380253683
700.0 -0.06352928956 -0.07740864032
700.625 -0.03627905286 -0.1020548612
701.25 0.00691274561 -0.1037708616
701.875 0.008401090822 -0.07477432414
702.5 -0.01970504628 -0.08516404049
703.125 -0.1130494853 -0.09093668247
703.75 -0.1876342265 -0.01743403081
704.375 -0.1159945016 0.06781197535
705.0 -0.07926223743 0.0762994428
705.625 -0.1251910891 0.05182954939
706.25 -0.1262332003 -0.0885670605
706.875 -0.01230071672 -0.1065543939
707.5 0.02043207827 -0.07816394475
708.125 0.06718401407 -0.04529956361
708.75 0.08596992104 0.0364331709
709.375 0.03741142513 0.0852382098
710.0 -0.004996630225 0.08671998531
710.625 -0.03700606271 0.08234964923
711.25 -0.07020513452 0.06589424548
711.875 -0.07882793138 0.08894615213
712.5 -0.04688728998 0.1387097164
713.125 0.06298612342 0.1295924402
713.75 0.1165791377 0.01419693745
714.375 0.09511008662 -0.06181076434
715.0 0.08850610325 -0.08697186706
715.625 0.08546795602 -0.03142844285
716.25 0.05872722638 0.008496808992
716.875 0.04872419543 0.04674280824
717.5 0.01758118594 0.103037169
718.125 -0.03501128334 0.1016741039
718.75 -0.03996679238 0.07273512953
719.375 -0.05190617957 0.05888483399
720.0 -0.09810636637 0.01530181961
720.625 -0.07714870066 -0.07937700763
721.25 0.02091868396 -0.1022794717
721.875 0.07685940545 -0.06247719941
722.5 0.07813019805 -0.03864756623
723.125 0.0500619113 -0.03946777109
723.75 0.03521226932 -0.04179912936
724.375 0.01199926007 -0.06290245557
725.0 -0.02276911885 -0.05164055315
725.625 -0.03688874046 -0.03675511342
726.25 -0.04952846888 -0.04729564123
726.875 -0.04525157083 -0.07434297805
727.5 -0.02290211401 -0.07970629921
728.125 -0.01032155483 -0.06538317454
728.75 -0.002468885923 -0.05525175699
729.375 0.001672444062 -0.05191980425
730.0 0.0005106733977 -0.0489383284
730.625 0.002217231297 -0.03639285278
731.25 0.01286640542 -0.02189282897
731.875 0.02219337874 0.001909528614
732.5 0.005457226313 0.02213620004
733.125 -0.01216466815 0.03764870627
733.75 0.001144694307 0.04148605048
734.375 0.01621078513 0.03723942481
735.0 0.02650192955 0.01937055507
735.625 0.02382849978 0.002540013912
736.25 0.01432213609 -0.01316981224
736.875 -0.007675342911 -0.01875100632
737.5 -0.03134451356 -0.008190637365
738.125 -0.04590542306 0.008267308671
738.75 -0.04099587302 0.01613469334
739.375 -0.01942837185 0.01887380042
740.0 -0.008602331004 -0.002266733606
740.625 -0.02243564452 -0.002113151346
741.25 -0.02800099948 -0.002561883018
741.875 -0.01783467332 -0.01629329366
742.5 0.01325608261 -0.01829542073
743.125 0.02233173281 0.006977914199
743.75 0.01205082654 0.02339164411
744.375 0.008551035563 0.02745486348
745.0 0.0001768761603 0.03808000616
745.625 0.004209536217 0.0495127103
746.25 0.04033495096 0.05802438687
746.875 0.07696857264 0.01344900494
747.5 0.06050314049 -0.026881236
748.125 0.03276867167 -0.03747257686
748.75 0.01042765363 -0.03936171676
749.375 -0.01705737316 -0.05005108884
750.0 -0.05917442185 -0.007969243302
