!Created with skrf (http://scikit-rf.org).
# GHz S RI R 50.0 
!freq ReS11 ImS11
500.0 -0.004495420932 0.01263161791
500.625 0.01783906057 0.008520386301
501.25 0.02141328205 -0.01209156542
501.875 0.01285165924 -0.01764048661
502.5 0.004596098375 0.005847730371
503.125 0.01513180878 0.00453172255
503.75 0.01935816016 -0.01362573954
504.375 0.01570242689 -0.02539203653
505.0 0.01180281082 -0.02827646436
505.625 0.005913301629 -0.04775201508
506.25 -0.01188494602 -0.06278166729
506.875 0.003596140919 -0.09092446176
507.5 -0.01999942995 -0.06486123224
508.125 0.001377673529 -0.07683166671
508.75 -0.05164642829 -0.07928776415
509.375 -0.05246801744 -0.05388020526
510.0 -0.02725104352 -0.05189201566
510.625 -0.05210748806 -0.006414729787
511.25 -0.07531336033 0.002020253885
511.875 -0.05592975298 0.03855085858
512.5 -0.008876959942 0.04889324979
513.125 0.05638577811 0.04218653504
513.75 0.07364921028 0.03744049018
514.375 0.06196047726 0.00892308751
515.0 0.06632207089 -0.01773263152
515.625 0.09274484818 0.04266475142
516.25 0.1086145344 0.01376990249
516.875 0.06932069083 0.0959033964
517.5 0.1307678501 0.01171437451
518.125 0.1389903908 0.1908867081
518.75 0.1119024097 -0.01158021426
519.375 0.0796104322 0.0002630212539
520.0 0.08902150562 -0.0506006647
520.625 0.1132824299 -0.05916843839
521.25 0.07606391347 -0.07393072316
521.875 0.0644913158 -0.02949205905
522.5 0.05037004531 -0.09293461959
523.125 0.1322181408 -0.1946520892
523.75 0.08160674962 -0.2617989676
524.375 0.07014244964 -0.2584455689
525.0 0.03282087084 -0.1209427036
525.625 0.03090425763 -0.0806921881
526.25 0.04196583933 -0.05811854939
526.875 0.0214551112 -0.06969481019
527.5 0.00543297892 -0.08560604563
528.125 -0.02415315226 -0.06047294001
528.75 -0.04200566985 -0.06329483396
529.375 -0.1151587282 -0.02918233426
530.0 -0.0995174407 0.03338262278
530.625 -0.03046337328 0.05031405063
531.25 -0.05323845349 0.03873265617
531.875 -0.119113571 0.08117957187
532.5 -0.1166219364 0.1181427493
533.125 -0.06896991572 0.09493975205
533.75 -0.02623635079 0.0973384322
534.375 -0.04185405743 0.1192539509
535.0 -0.0390709378 0.1219927665
535.625 -0.04231209565 0.07874291355
536.25 0.02106462524 0.07891662999
536.875 -0.01377289251 0.08908157275
537.5 -0.07465182986 0.05495033225
538.125 -0.05316084627 0.07055739865
538.75 -0.03047396787 0.1254545584
539.375 -0.06010503991 0.1111253768
540.0 -0.04941211541 0.08999263728
540.625 -0.04656635867 0.0815682838
541.25 -0.06541363451 0.1029793656
541.875 -0.07888335935 0.07178556575
542.5 -0.06478314826 0.03071755799
543.125 -0.05663175109 0.07146862346
543.75 -0.0004937541503 0.1403974994
544.375 0.02891371746 0.1394398141
545.0 0.09573495676 0.04797471132
545.625 0.113032801 -0.02058340202
546.25 0.1240955996 -0.05175171585
546.875 0.1079473507 -0.04576181144
547.5 0.1172769532 -0.04569899294
548.125 0.1499448574 -0.04243136736
548.75 0.1617384476 0.02113407888
549.375 0.1416887299 0.03285697315
550.0 0.1362168344 0.06955412857
550.625 0.1346162298 0.09206802703
551.25 0.05198335246 0.100309874
551.875 0.04412961754 0.04910713637
552.5 0.05859940759 0.04478969279
553.125 0.06841432252 0.06844616783
553.75 0.02021539015 0.06088419259
554.375 0.02249779216 0.047002289
555.0 0.05211416797 0.05866498963
555.625 0.07576617255 0.07331727195
556.25 0.0361971302 0.08090246082
556.875 0.03002026346 0.06938629201
557.5 0.04414092677 0.09566848565
558.125 0.03494085296 0.1228731769
558.75 -0.004298160788 0.1169488524
559.375 0.02972668522 0.106233745
560.0 0.04386120903 0.114021462
560.625 0.04194809292 0.07592692936
561.25 0.04057729182 0.04489211624
561.875 0.04712637853 0.04905098944
562.5 0.06168129776 0.05289432437
563.125 0.05776392389 0.0457549397
563.75 0.0681951237 0.02509168224
564.375 0.1097690018 0.006373039215
565.0 0.131067108 0.04436816234
565.625 0.1113755004 0.02022296009
566.25 0.09710906893 0.020131628
566.875 0.1032397688 0.04165223519
567.5 0.07007595833 0.0928024468
568.125 0.04108648788 0.08949485605
568.75 0.05221660895 0.1044353938
569.375 0.04721375625 0.109115379
570.0 0.03683020475 0.09037829928
570.625 0.03524648768 0.06195490025
571.25 0.05654046419 0.06376494435
571.875 0.04247079636 0.06029899851
572.5 0.03207639428 0.03249997058
573.125 0.03756845028 0.04040669426
573.75 0.08874720292 0.04012335189
574.375 0.1062295092 0.02764499026
575.0 0.07627809564 0.00358924575
575.625 0.06632141998 -0.01240777099
576.25 0.09920361055 0.0022777237
576.875 0.09855915438 0.01662880211
577.5 0.08968936254 0.005429916759
578.125 0.09729996804 -0.01560226169
578.75 0.1246481931 -0.009519979145
579.375 0.1048094903 0.00484622485
580.0 0.09399508904 -0.01433278237
580.625 0.09624671221 -0.03851151944
581.25 0.08246859392 -0.03670119439
581.875 0.05099877129 -0.001843830264
582.5 0.04794933622 0.01013429039
583.125 0.08348913241 0.02116966423
583.75 0.0831150869 0.03260475702
584.375 0.06193558946 0.0341508424
585.0 0.05049847683 0.04422673213
585.625 0.06984367424 0.06150565414
586.25 0.06036869968 0.06256296212
586.875 0.05376251323 0.03826889908
587.5 0.07009523047 0.03478686462
588.125 0.09518083067 0.02085374463
588.75 0.09577948842 0.01302717381
589.375 0.07615187659 -0.03601025449
590.0 0.05752738977 -0.06641456768
590.625 0.04475397137 -0.04427893944
591.25 0.03636017798 -0.007077861535
591.875 0.04737664329 -0.00218528994
592.5 0.07506891602 -0.02587108244
593.125 0.08930301355 -0.02758985463
593.75 0.07677238794 -0.008480438825
594.375 0.07828141227 0.005944428
595.0 0.09005041662 0.03323737457
595.625 0.07551934933 0.05180447153
596.25 0.04808500313 0.05192307393
596.875 0.03864471473 0.05554392115
597.5 0.02932337916 0.07430069136
598.125 0.03838933716 0.06795801925
598.75 0.05492131409 0.04642659815
599.375 0.05675516281 0.03154385653
600.0 0.03873199764 0.02496892512
600.625 0.01746940035 0.01299895609
601.25 0.002713442153 0.0159559707
601.875 -0.005746201249 0.03429689961
602.5 -0.01620332677 0.04326352104
603.125 -0.01741235777 0.04276424471
603.75 -0.01039618884 0.0518580414
604.375 -0.006333116678 0.05738061805
605.0 -0.01445615797 0.04098951412
605.625 -0.02456426194 0.02378777408
606.25 -0.03951233431 0.02630568948
606.875 -0.04998243023 0.0401875658
607.5 -0.03021469137 0.04959682926
608.125 -0.005213480145 0.04302571054
608.75 -0.0002884070296 0.03537419072
609.375 -0.004578190746 0.03125818855
610.0 -0.003620081056 0.02250574431
610.625 0.003647708368 0.009738940738
611.25 0.005059300149 -0.003591634583
611.875 0.0008369136132 -0.016845633
612.5 -0.004783982844 -0.02407963676
613.125 -0.01896188386 -0.02388848702
613.75 -0.01683291045 -0.007475532746
614.375 -0.00594138934 -0.001161867809
615.0 0.003826341942 -0.00653982366
615.625 -0.002015933359 -0.0158946528
616.25 -0.00549133114 -0.004331172067
616.875 0.004421164656 0.00773281131
617.5 0.02010547844 0.006595411453
618.125 0.02273742408 -0.001756659623
618.75 0.02511894207 0.003399480501
619.375 0.03464254925 0.009591610877
620.0 0.0528895291 0.006417411316
620.625 0.05221517616 -0.02235812762
621.25 0.04667850822 -0.02868705817
621.875 0.03262980879 -0.03648503677
622.5 -0.007558544156 -0.02782666212
623.125 -0.009711821164 -0.001133612352
623.75 0.009262476063 0.01533249683
624.375 0.02012831186 0.02503325732
625.0 0.01197042771 0.03651038331
625.625 0.01038624002 0.04248168122
626.25 0.02980286666 0.05577037824
626.875 0.05273182023 0.06986222069
627.5 0.04382989497 0.06970863109
628.125 0.03467646808 0.06245860993
628.75 0.03468336068 0.0664398194
629.375 0.02987480581 0.08539914525
630.0 0.01854559326 0.07408419648
630.625 0.01357692377 0.05891869035
631.25 0.006557288058 0.05407302313
631.875 -0.0139259259 0.04861098652
632.5 -0.02491648031 0.03430936413
633.125 -0.03167477156 0.03134950772
633.75 -0.03680143652 0.04530435897
634.375 -0.05185367245 0.04542856312
635.0 -0.05119514716 0.04825812778
635.625 -0.04489580672 0.0708349421
636.25 -0.04307728015 0.08684642819
636.875 -0.04628905387 0.06144275193
637.5 -0.04718798476 0.0477476743
638.125 -0.06652481049 0.07174844997
638.75 -0.08594529658 0.07892128737
639.375 -0.07550562027 0.0427020238
640.0 -0.05917261143 0.01667997188
640.625 -0.07333525596 -0.005854861845
641.25 -0.0775297538 -0.04625852295
641.875 -0.0552708076 -0.04717812433
642.5 -0.05452172923 -0.04334053659
643.125 -0.06195395457 -0.06551582332
643.75 -0.04175365963 -0.09803292964
644.375 -0.03888168604 -0.08212141558
645.0 -0.07299420145 -0.06463345741
645.625 -0.08420281041 -0.07272411459
646.25 -0.06095477128 -0.07099956618
646.875 -0.03118057273 -0.06678298448
647.5 -0.05236274454 -0.06990443868
648.125 -0.05345560874 -0.08599694772
648.75 -0.01609071061 -0.07177119529
649.375 0.01103911019 -0.05810603745
650.0 0.03856051405 -0.07457515029
650.625 0.07299733998 -0.07058956727
651.25 0.0832675908 -0.04042472477
651.875 0.09347894587 -0.01743316082
652.5 0.1301583668 0.02276126127
653.125 0.1183234999 0.06409221208
653.75 0.100443773 0.06073492234
654.375 0.09871506735 0.06153520766
655.0 0.07837103152 0.09240576966
655.625 0.02715523813 0.07796892354
656.25 0.03030673663 0.05408934859
656.875 0.06204133956 0.05802065616
657.5 0.04460784657 0.08895031881
658.125 0.002930103864 0.08679549169
658.75 0.005962434195 0.07982261438
659.375 0.06627714035 0.09899380734
660.0 0.09890264524 0.1022367871
660.625 0.1043414632 0.07632951544
661.25 0.1144176126 0.03860564795
661.875 0.1404161753 0.004363433211
662.5 0.1341473012 -0.00720535345
663.125 0.1095513535 -0.002818606958
663.75 0.1046219186 0.03286067046
664.375 0.03886490069 0.103308706
665.0 -0.02404543025 0.0843491879
665.625 -0.04081400201 0.0593735065
666.25 -0.07583436831 0.06549507608
666.875 -0.1335496346 0.005861228591
667.5 -0.1116291279 -0.02737456133
668.125 -0.1109760768 -0.006060063045
668.75 -0.1402330538 0.03003024064
669.375 -0.1449529855 0.0007674673513
670.0 -0.09610616896 -0.02097719735
670.625 -0.09497803151 -0.009802923026
671.25 -0.1258038061 0.02035342308
671.875 -0.1174549506 0.03026857646
672.5 -0.07854186134 0.0424489557
673.125 -0.07192182119 0.0535358787
673.75 -0.1042547626 0.06543384366
674.375 -0.1178319182 0.04280938108
675.0 -0.1204933092 0.01197189384
675.625 -0.1333901398 -0.03549405353
676.25 -0.105108134 -0.09006262479
676.875 -0.08369821777 -0.0957078109
677.5 -0.1070588464 -0.07931098048
678.125 -0.114514077 -0.1024303852
678.75 -0.0420107916 -0.08798699097
679.375 -0.01169090896 -0.06162947389
680.0 -0.02591084357 -0.07038525954
680.625 -0.04221867766 -0.1176235084
681.25 -0.02421910929 -0.1161618741
681.875 -0.03660924847 -0.08808403785
682.5 -0.1010871997 -0.0703054362
683.125 -0.1506559662 -0.07986712311
683.75 -0.1151067158 -0.1175935948
684.375 -0.03511396587 -0.1223106833
685.0 0.03943485281 -0.1381979661
685.625 0.1275244107 -0.08860845827
686.25 0.1371694389 -0.02893596303
686.875 0.1170862701 0.001420378471
687.5 0.09013970947 0.04422962816
688.125 0.04966620514 0.06974009355
688.75 0.02944988539 0.07875053365
689.375 0.03924661661 0.1082171076
690.0 0.007274631808 0.1448231864
690.625 -0.0003095348793 0.1251035777
691.25 0.0535970918 0.113888005
691.875 0.1631470246 0.0661084452
692.5 0.2085689673 -0.03311625414
693.125 0.07539845053 -0.1115580761
693.75 -0.01392039161 -0.1045695147
694.375 -0.02651346173 -0.132112882
695.0 0.07348108272 -0.1428228358
695.625 0.1155698561 -0.01258260986
696.25 0.0634812315 0.06791344099
696.875 -0.02919791665 0.1127325415
697.5 -0.1183929731 0.06173867438
698.125 -0.1366711874 0.0164273247
698.75 -0.1397356766 0.02553990633
699.375 -0.1368810132 0.01984861125
700.0 -0.1148700344 -0.004774921381
700.625 -0.11020691 -0.02803949714
701.25 -0.1247078349 -0.05665232044
701.875 -0.09156482178 -0.0515178563
702.5 -0.07000153498 -0.02343176153
703.125 -0.08903280296 0.01934738233
703.75 -0.09698030517 0.1376139102
704.375 -0.05885219148 0.1671991945
705.0 -0.01768349664 0.1226921169
705.625 -0.03936838124 0.1112138909
706.25 -0.144692623 0.07793328015
706.875 -0.1352639913 -0.09705812537
707.5 -0.05448671937 -0.09866541913
708.125 -0.017284437 -0.0964211085
708.75 0.05307632463 -0.08383004506
709.375 0.100650712 0.001806741349
710.0 0.06900665521 0.05234010488
710.625 0.05331907461 0.06362597909
711.25 0.02082322797 0.07972202998
711.875 0.007599636332 0.0933053798
712.5 0.05398577935 0.1117622528
713.125 0.150167434 0.05601759391
713.75 0.1280402453 -0.07975904773
714.375 0.03553838989 -0.1255451939
715.0 -0.03080366189 -0.1358712112
715.625 0.008863949762 -0.1483108249
716.25 0.05821728199 -0.07866025734
716.875 0.06081893551 -0.02760252647
717.5 0.08114762174 0.01755956456
718.125 0.08603538306 0.07090100963
718.75 0.03972349301 0.08552398102
719.375 0.01196753923 0.06707852851
720.0 -0.03110481855 0.06915821308
720.625 -0.1021058829 0.0100720481
721.25 -0.05782358115 -0.1009718243
721.875 0.0203966129 -0.1101324763
722.5 0.03980043758 -0.1103893998
723.125 -0.009060014506 -0.1045148113
723.75 -0.0455648578 -0.06384969938
724.375 -0.06067571587 -0.02713697224
725.0 -0.06001827935 0.003799613774
725.625 -0.0426369429 0.01686029691
726.25 -0.04582177844 0.008911907463
726.875 -0.07034452288 -0.01512431275
727.5 -0.07833743903 -0.04478467941
728.125 -0.05914291911 -0.05839721404
728.75 -0.05454094514 -0.03794644003
729.375 -0.05232035244 -0.02632069833
730.0 -0.04779440949 -0.03055825822
730.625 -0.03521144859 -0.03438000645
731.25 -0.01781628625 -0.03170350226
731.875 0.005460224102 -0.02916647453
732.5 0.01876437373 -0.00521526203
733.125 0.01133485049 0.01863771043
733.75 0.02171184609 0.028749266
734.375 0.03580480777 0.02143857213
735.0 0.03696702879 -0.003102703043
735.625 0.03495361357 -0.01320087354
736.25 0.01831380528 -0.02532707598
736.875 -0.002357577144 -0.028135068
737.5 -0.02372594678 -0.01332421666
738.125 -0.03403358705 0.00973367539
738.75 -0.03483450757 0.02851549425
739.375 -0.01705340795 0.03292301184
740.0 -0.004360500805 0.01835920377
740.625 -0.0176669367 0.01413687236
741.25 -0.02051941058 0.02284682898
741.875 -0.03282358188 0.003768999191
742.5 -0.01573518967 -0.02707073512
743.125 0.02469823516 -0.02333285809
743.75 0.03055898752 -0.00742294092
744.375 0.0325771815 -0.002831311755
745.0 0.03004135221 -0.00342479528
745.625 0.02843023261 0.00776905853
746.25 0.04206927385 0.01356099131
746.875 0.05839207026 -0.02624813625
747.5 0.03140117087 -0.06020508503
748.125 -0.0004128055431 -0.06311248073
748.75 -0.02965107397 -0.04695541521
749.375 -0.05776880189 -0.01404520464
750.0 -0.05649285551 0.05640348705
