!Created with skrf (http://scikit-rf.org).
# GHz S RI R 50.0 
!freq ReS11 ImS11
500.0 -0.0108937144 0.01622423018
500.625 0.01936505942 0.01650872726
501.25 0.02657582759 -0.02987251701
501.875 0.01568321519 -0.02383554129
502.5 0.0100701939 0.01749013775
503.125 0.01764640703 0.0005751162729
503.75 0.04369885947 0.002289681914
504.375 0.04244358025 -0.009165800698
505.0 0.02353357539 -0.02661452349
505.625 0.01905340974 -0.045635668
506.25 0.005451671576 -0.06236125705
506.875 0.04013834448 -0.06505249495
507.5 0.02126821319 -0.06052128158
508.125 0.01068034655 -0.07566553256
508.75 -0.01425733286 -0.07955378927
509.375 0.01110927353 -0.0678125755
510.0 0.02465117374 -0.05301519937
510.625 -0.04345468127 -0.02785918966
511.25 -0.05778928537 -0.03754735003
511.875 -0.05354052609 0.004763912163
512.5 -0.02871285483 0.02799318083
513.125 0.02076213459 0.04219851449
513.75 0.03022956542 0.04326849036
514.375 0.02538215863 0.04985974051
515.0 0.04778700344 0.03629341471
515.625 0.02092536253 0.09020371624
516.25 0.06773126358 0.05113042672
516.875 0.006604286214 0.1387664663
517.5 0.1012006045 0.08760178033
518.125 0.03914030451 0.1685693487
518.75 0.06109012566 0.03629150736
519.375 0.05255666999 0.04617247478
520.0 0.08440476098 0.01799046876
520.625 0.09298180879 0.01059383171
521.25 0.07138664462 -0.01288019913
521.875 0.07077974238 0.0210826914
522.5 0.08096742995 -0.03085678582
523.125 0.1277434142 -0.09450769109
523.75 0.0974664325 -0.1656809551
524.375 0.1540796632 -0.1023653896
525.0 0.03375013724 -0.03583321997
525.625 0.03458161155 -0.003887809663
526.25 0.04382069217 0.009305096504
526.875 0.05023847798 -0.002079041667
527.5 0.03241899156 -0.01366823594
528.125 0.03304673695 -0.03071077846
528.75 0.01969679195 -0.04669203524
529.375 -0.01802537495 -0.07121112008
530.0 -0.02976609398 -0.003774542432
530.625 -0.01989087207 -0.01890881008
531.25 -0.09090672015 -0.1065734539
531.875 -0.1298597047 -0.09723599044
532.5 -0.1087582744 -0.001608146859
533.125 -0.1037783388 0.005559859377
533.75 -0.108376969 0.01876213556
534.375 -0.09541215074 0.009075254752
535.0 -0.07146218224 0.03361122753
535.625 -0.05663276604 0.01239898559
536.25 -0.05480328004 0.02567784036
536.875 -0.06990588251 -0.01193735866
537.5 -0.05811049311 -0.02338692326
538.125 -0.08327569879 0.007292159606
538.75 -0.1047895748 0.02050942995
539.375 -0.07502631128 -0.000128635022
540.0 -0.06788192725 -0.0145312004
540.625 -0.1015056309 -0.01724741516
541.25 -0.1175988813 -0.04476252028
541.875 -0.08115083122 -0.0358567797
542.5 -0.06183693406 -0.03370123768
543.125 -0.1254924084 0.003163595472
543.75 -0.1069882999 0.08580290874
544.375 -0.04924223073 0.08670925307
545.0 0.02669653617 0.07456237612
545.625 0.04980574467 0.07249120532
546.25 0.06518004689 0.04074264976
546.875 0.0827268653 0.04591670262
547.5 0.08376796526 0.05127833119
548.125 0.08724299587 0.0811528482
548.75 0.05957436185 0.09107956564
549.375 0.05560408479 0.08889444274
550.0 0.01507633453 0.09471905697
550.625 0.00118348068 0.06402380207
551.25 -0.006571130656 0.0182031039
551.875 -0.02490536523 0.01422727291
552.5 -0.0473318455 0.02271712054
553.125 -0.06264414425 0.03868742628
553.75 -0.05959459384 0.02757604839
554.375 -0.05457153918 0.05013488534
555.0 -0.05559055178 0.07739930118
555.625 -0.03721941879 0.06847036733
556.25 -0.04441622176 0.05162969088
556.875 -0.05978662622 0.08772405197
557.5 -0.06537499402 0.09105357644
558.125 -0.05112933498 0.07114251068
558.75 -0.05732428209 0.05455776001
559.375 -0.04874544001 0.06394163021
560.0 -0.03014465209 0.03860734063
560.625 -0.02121362254 0.02120839771
561.25 -0.04013822909 0.01536117897
561.875 -0.0563065523 0.04273475324
562.5 -0.04463445174 0.0576085817
563.125 -0.01496705023 0.07862852914
563.75 0.01882964526 0.09911482857
564.375 0.03394461852 0.1060308421
565.0 0.03003828764 0.08937364566
565.625 0.04417529016 0.07131541441
566.25 0.02021601269 0.07842901648
566.875 -0.01339402012 0.09030893178
567.5 -0.034819349 0.0683014001
568.125 -0.03612069085 0.05353110415
568.75 -0.04568093736 0.07316752653
569.375 -0.04037850027 0.0536366569
570.0 -0.03390076186 0.02482036873
570.625 -0.03269746986 0.006673856874
571.25 -0.04511722255 0.00932069305
571.875 -0.03949781715 0.02519355654
572.5 -0.05027976752 0.03441010228
573.125 -0.06311502643 0.0588178325
573.75 -0.01105532747 0.110299846
574.375 0.02720932498 0.08177976511
575.0 0.02029849752 0.06755953165
575.625 0.00470556967 0.07944741382
576.25 0.01052727725 0.0906339967
576.875 0.03256076957 0.07976965419
577.5 0.04907872139 0.06812033208
578.125 0.0453732082 0.07426901348
578.75 0.02131751214 0.05637488098
579.375 0.04371494154 0.0538488007
580.0 0.04435829994 0.04691665208
580.625 0.008090172339 0.02868878818
581.25 -0.01285142857 0.02613874423
581.875 -0.01181005621 0.04716067481
582.5 -0.008075457448 0.07937270219
583.125 -0.0243117001 0.07980612844
583.75 -0.003086643119 0.07639206716
584.375 -0.0210122895 0.06552787706
585.0 -0.04572955113 0.07096372383
585.625 -0.04844103885 0.05794869774
586.25 -0.02173944254 0.06252557084
586.875 -0.01686649142 0.06489010063
587.5 -0.02247487403 0.07523157615
588.125 -0.002287518067 0.06692191689
588.75 0.03776708441 0.05828296789
589.375 0.04424923042 0.03902047472
590.0 0.008876972705 0.04119559085
590.625 -0.002085326803 0.0505658033
591.25 0.01792342218 0.06346944328
591.875 0.03026489084 0.09010864392
592.5 0.05951318477 0.07582530388
593.125 0.0443517573 0.06275010027
593.75 0.05395985737 0.05498770272
594.375 0.02914668841 0.08042328321
595.0 -0.000898943006 0.07452239984
595.625 -0.02150566742 0.04672191132
596.25 -0.02824200177 0.03911555144
596.875 -0.05497056868 0.01596050359
597.5 -0.04335192589 0.03370833478
598.125 -0.04110237047 0.01837670756
598.75 -0.02367084137 0.01208252564
599.375 -0.01384720237 0.01487687646
600.0 -0.02310073804 -0.006459392065
600.625 -0.05333686183 -0.04143732184
601.25 -0.06035373908 -0.00903385462
601.875 -0.07234269461 -0.005775169486
602.5 -0.0677637124 0.003669848258
603.125 -0.07583050506 0.0029662326
603.75 -0.07355489151 -0.01519555416
604.375 -0.04365701531 -0.01240124015
605.0 -0.03214046564 0.0009064794821
605.625 -0.04429887183 -0.02026715809
606.25 -0.04435464416 -0.05868921758
606.875 -0.04201880858 -0.01773236455
607.5 -0.03272928771 -0.000760647463
608.125 -0.01601366998 -0.003022804925
608.75 -0.01002602858 -0.0311925764
609.375 0.003226663961 -0.03792472939
610.0 0.007020498578 -0.004123300114
610.625 0.0157437521 -0.02265039052
611.25 0.04068392313 -0.05946503807
611.875 0.03282321194 -0.04704853255
612.5 0.02093215321 -0.04137540476
613.125 0.02205797268 -0.03784491375
613.75 0.01739048739 -0.0241621736
614.375 0.0357943316 -0.01538112617
615.0 0.04724360531 -0.0269447948
615.625 0.02036495558 -0.01383015897
616.25 0.01543789035 -0.007146623123
616.875 0.04531076499 -0.006907558518
617.5 0.04524226225 9.990193074e-05
618.125 0.04416474962 0.005710026919
618.75 0.04381309196 0.003436637298
619.375 0.06066753989 0.01501284549
620.0 0.05348272977 0.01783315948
620.625 0.05801077163 -0.01064519063
621.25 0.06075577724 -0.02211127484
621.875 0.02896940786 -0.02566262605
622.5 -0.006736792043 -0.01967335525
623.125 -0.0127088204 0.02850363471
623.75 0.008446120626 0.02372469856
624.375 0.02105976454 0.04189609998
625.0 0.005091338711 0.04997673423
625.625 -0.03310901128 0.0583567991
626.25 -0.01371803066 0.0769309498
626.875 0.04175594115 0.08700393479
627.5 0.01155193608 0.07037845254
628.125 -0.005223879149 0.05330102875
628.75 -0.01423975798 0.05378956987
629.375 0.001983965608 0.07134267827
630.0 -0.01048333113 0.03237037796
630.625 -0.0180410025 0.01391097571
631.25 -0.01752628882 0.00223075975
631.875 -0.02694092647 0.0150556844
632.5 -0.03565322416 -0.01005192081
633.125 -0.04719363124 -0.02889374145
633.75 -0.05391063606 -0.0154854267
634.375 -0.0517048414 -0.01629151033
635.0 -0.0659508649 0.005165646298
635.625 -0.0711707187 0.0317601216
636.25 -0.07249241987 -0.005557488761
636.875 -0.05396096994 -0.01447563031
637.5 -0.05553471296 -0.001236912654
638.125 -0.09062396915 -0.02775311591
638.75 -0.06713763642 -0.009005787928
639.375 -0.03978185232 -0.004339370731
640.0 -0.01502973747 -0.02343855855
640.625 0.01963056099 -0.06763390027
641.25 0.002897962913 -0.04876938474
641.875 0.006795340004 -0.05231226974
642.5 -0.00786040332 -0.05237742945
643.125 0.03416577348 -0.06139045333
643.75 0.05632366101 -0.04820124286
644.375 0.03235698357 -0.06470651471
645.0 -0.0008398979431 -0.0642425499
645.625 0.03952812073 -0.04710929619
646.25 0.04036764956 -0.03173957088
646.875 0.04886548011 -0.04407428152
647.5 0.04501594156 -0.0513099874
648.125 0.03872556948 -0.03774399491
648.75 0.03534225723 -0.01523318843
649.375 0.08080226113 0.005128608709
650.0 0.0830618171 0.01982076152
650.625 0.07000573852 0.006971466803
651.25 0.06770402893 0.02802237084
651.875 0.06031513466 0.09176798045
652.5 0.01902787092 0.09741033467
653.125 0.03605518828 0.06676453423
653.75 0.02566226617 0.05667289694
654.375 -0.01721363809 0.05144393171
655.0 -0.0317619021 0.01325433325
655.625 -0.03349410273 0.007017448257
656.25 -0.04102948583 0.02262579596
656.875 -0.08736439065 0.05754542016
657.5 -0.08341427108 0.02905560017
658.125 -0.07079012367 0.02034675725
658.75 -0.102320314 0.06994834735
659.375 -0.08259566058 0.099663954
660.0 -0.02830189806 0.09567806409
660.625 -0.004551816638 0.08622887058
661.25 0.005888433355 0.1034700278
661.875 0.01926794374 0.06872896017
662.5 0.02785613177 0.06215606237
663.125 0.02214322376 0.0357216096
663.75 -0.04040030331 0.07133484767
664.375 -0.07385537381 0.01340608701
665.0 -0.06817204428 -0.01852242572
665.625 -0.06850253896 -0.04516398041
666.25 -0.05304794451 -0.09366567104
666.875 -0.02996994043 -0.09630848518
667.5 -0.02838551018 -0.09559865712
668.125 -0.03524420241 -0.09042080127
668.75 -0.02731927713 -0.07811902332
669.375 -0.01645125118 -0.07830324793
670.0 -0.001935270891 -0.06649916734
670.625 -0.003786989199 -0.06464291315
671.25 -0.01487213892 -0.07389059633
671.875 -0.02077124004 -0.07953145877
672.5 -0.03806792704 -0.0728015569
673.125 -0.05031667025 -0.06499852119
673.75 -0.07014052061 -0.07532688256
674.375 -0.07325770471 -0.08166283315
675.0 -0.02914407729 -0.09639979333
675.625 0.003625502377 -0.07875985507
676.25 0.03113587199 -0.08329642431
676.875 0.03683594517 -0.08698370969
677.5 0.04714086142 -0.06510183786
678.125 0.02569187961 -0.01520617508
678.75 0.04866946473 -0.007295887035
679.375 0.08225101384 -0.006963519192
680.0 0.1221696849 -0.01281987825
680.625 0.09156520869 -0.0060580498
681.25 0.08820854966 -0.04830310698
681.875 0.07794594715 -0.0928412111
682.5 0.04297304664 -0.1479372128
683.125 0.03246678273 -0.1157810059
683.75 0.02636520683 -0.06781863556
684.375 0.07416624732 -0.06156893935
685.0 0.104132069 0.01531977962
685.625 0.06570901945 0.05849497667
686.25 0.00778926366 0.04715632955
686.875 -0.02459825494 0.06642282065
687.5 -0.06896431484 0.0493079388
688.125 -0.08721050729 0.04916838341
688.75 -0.1077773431 0.03323885749
689.375 -0.1379288438 0.04358368052
690.0 -0.1061545358 0.02513153725
690.625 -0.1010578887 0.04656560511
691.25 -0.09582856154 0.09772461962
691.875 -0.04649598123 0.1074467741
692.5 0.0300575779 0.06561493063
693.125 0.07206958 0.02099318359
693.75 0.09858437233 0.004617157789
694.375 0.07933543774 0.04848812469
695.0 0.08469892998 0.06408884754
695.625 0.01123308106 0.0975205563
696.25 -0.09443147112 0.06938092527
696.875 -0.1190370289 -0.04935406496
697.5 -0.042536414 -0.09371242305
698.125 -0.03262598696 -0.09699645519
698.75 -0.03871726695 -0.09762150384
699.375 -0.01084002643 -0.06869686144
700.0 -0.00768256285 -0.08895425138
700.625 0.03670968625 -0.09344805172
701.25 0.05846655525 -0.04298488203
701.875 0.05608572173 -0.03985760531
702.5 0.02988688379 -0.1017850897
703.125 -0.02095414369 -0.1583409467
703.75 -0.1290190778 -0.08354606684
704.375 -0.1054513062 0.007980070416
705.0 -0.08208840738 -0.00425324882
705.625 -0.1266353091 -0.03233431967
706.25 -0.0374181719 -0.105870506
706.875 0.03173076961 -0.07146367292
707.5 0.05533308249 -0.01855573996
708.125 0.0741121346 0.02371192793
708.75 0.03094789195 0.08462928727
709.375 -0.02649952834 0.08889593836
710.0 -0.06774532669 0.06005128726
710.625 -0.08439687666 0.01358878467
711.25 -0.1033462795 0.01272690098
711.875 -0.119219763 0.03893511682
712.5 -0.1052618059 0.0600100165
713.125 0.005839312792 0.1143193773
713.75 0.07161691483 0.05840703103
714.375 0.09169767907 0.01135231339
715.0 0.07873557425 0.03831751333
715.625 0.02244759206 0.05448852458
716.25 0.02054818616 0.05239083676
716.875 0.01176704803 0.0815388421
717.5 -0.08157100946 0.08431689832
718.125 -0.08887258427 0.03802373472
718.75 -0.07743759054 0.03583789485
719.375 -0.1011605113 -0.01271866021
720.0 -0.09389070911 -0.03702793625
720.625 -0.008744882243 -0.1015719745
721.25 0.06457714004 -0.05793079465
721.875 0.08038128228 -0.006417663936
722.5 0.05098051633 0.02384271022
723.125 0.02181101623 0.06801232804
723.75 0.06246862391 0.01146582352
724.375 0.09358500271 -0.0167415776
725.0 0.02639033609 -0.05707101178
725.625 0.004882391907 -0.08014338232
726.25 0.03958208063 -0.1069687756
726.875 0.03403735552 -0.07626651621
727.5 0.007084475444 -0.06794174108
728.125 0.03828274129 -0.04302757303
728.75 0.07821418726 -0.01302979661
729.375 0.04612213694 -0.02786206467
730.0 0.06158772523 -0.02290781858
730.625 0.01787381969 -0.02138454868
731.25 0.04422660626 0.02537945627
731.875 -0.01095259386 0.07705656699
732.5 -0.04058215789 0.04771802183
733.125 -0.04143781161 0.03655744634
733.75 -0.04743849177 0.04731104868
734.375 -0.03300845774 0.05223272209
735.0 -0.01453001199 0.05480181849
735.625 -0.006257439396 0.04945072071
736.25 0.003092880234 0.00585187688
736.875 -0.0262756581 0.03710706677
737.5 -0.06110701874 0.04086875421
738.125 -0.08669407092 0.02606318937
738.75 -0.04558609193 0.01220060341
739.375 -0.08980920298 0.02889134982
740.0 -0.05536049432 0.02063461412
740.625 -0.04136498826 0.000816292515
741.25 -0.03812635707 0.009920352175
741.875 -0.02877576644 -0.012404918
742.5 0.009108206338 -0.06047461457
743.125 0.03162286604 -0.0007372283953
743.75 0.02331516628 0.01343452992
744.375 0.03543107779 0.02728289324
745.0 0.0198604017 0.0344159725
745.625 0.009273130921 0.05012037839
746.25 0.04661998331 0.04423229589
746.875 0.06830601104 0.01873261909
747.5 0.05460339039 -0.03764315069
748.125 0.02021237632 -0.0573504634
748.75 0.005275116396 -0.04594319855
749.375 -0.008743922309 -0.03997791644
750.0 -0.05435452033 0.005067379322
