!Created with skrf (http://scikit-rf.org).
# GHz S RI R 50.0 
!freq ReS11 ImS11
500.0 -0.0104817725 0.02237630553
500.625 0.02402459183 0.02871770553
501.25 0.0299248833 0.0132498355
501.875 0.02134079667 0.0188259098
502.5 0.02178489607 0.02958275564
503.125 0.033329461 0.01827693316
503.75 0.04272967101 0.01049228598
504.375 0.04992382659 0.006329302217
505.0 0.03150274166 -0.03845080638
505.625 0.0437913111 -0.05285603309
506.25 0.03984007563 -0.056033857
506.875 0.075180078 -0.03040382701
507.5 0.04021440565 -0.05375462656
508.125 0.06197204144 -0.03334307608
508.75 0.03754564093 -0.05709637348
509.375 0.03451288801 -0.04542091675
510.0 0.05176985995 -0.04264706769
510.625 -0.02225442848 -0.05831899946
511.25 -0.03482291018 -0.05212021858
511.875 -0.04918398814 -0.02211803843
512.5 -0.03252876326 0.02603362715
513.125 -0.005671724512 0.03906238553
513.75 -0.0144742986 0.04024932039
514.375 0.004418032449 0.05342617874
515.0 0.02386849181 0.06800573153
515.625 -0.03237998873 0.09499746158
516.25 0.03118639754 0.09490975239
516.875 -0.03667076896 0.1184475688
517.5 0.05476890868 0.09793693849
518.125 -0.0549874467 0.1197105904
518.75 0.02003066317 0.06214143196
519.375 0.03538046515 0.0555421877
520.0 0.0583782978 0.0500126881
520.625 0.06735499741 0.04085551522
521.25 0.06133574061 0.03377780437
521.875 0.04200824026 0.04251377391
522.5 0.06764639404 0.002821722589
523.125 0.1219833943 -0.0210054548
523.75 0.1044082533 -0.07107650628
524.375 0.06792462574 -0.01371650123
525.0 0.008644867519 -0.009188079408
525.625 0.005017985037 0.01442680119
526.25 0.01515995578 0.05162452259
526.875 0.02350907021 0.01502030855
527.5 0.02223899857 0.01413879691
528.125 0.03562170112 -0.001537100979
528.75 0.06081356237 -0.01153549694
529.375 0.00990671676 -0.03918093432
530.0 0.01815073166 -0.02110491988
530.625 0.004044504632 -0.07232944868
531.25 0.01128484268 -0.1677255493
531.875 -0.06375807968 -0.1132088897
532.5 -0.0845432622 -0.05495596188
533.125 -0.07889853645 -0.03780886821
533.75 -0.08847483297 -0.06912141339
534.375 -0.06303767801 -0.01689884488
535.0 -0.06087036796 -0.008740347317
535.625 -0.03740681418 -0.02468725257
536.25 -0.04340347491 -0.03802011417
536.875 -0.03830605095 -0.05096484449
537.5 -0.04559625566 -0.0759318894
538.125 -0.07417261838 -0.05036886676
538.75 -0.06870241074 -0.03473229945
539.375 -0.03365924731 -0.02698062762
540.0 -0.04423086215 -0.06543650271
540.625 -0.06597396712 -0.1003555685
541.25 -0.04941375681 -0.09008912626
541.875 -0.04934001796 -0.07057467588
542.5 -0.05429104957 -0.08768741952
543.125 -0.09890471705 -0.05619561647
543.75 -0.1062257845 0.02428922571
544.375 -0.04364868369 0.04935984534
545.0 -0.01712895666 0.05618514432
545.625 -0.003811581468 0.05962588026
546.25 0.01798060542 0.06996475447
546.875 0.02667721527 0.0636527807
547.5 0.02486030495 0.07218900433
548.125 0.01082227408 0.07446224422
548.75 -0.004340580451 0.08079930129
549.375 0.005710298718 0.05314723112
550.0 -0.02688140156 0.03315046873
550.625 -0.01134687688 0.006968574319
551.25 -0.02012734789 -0.02591329039
551.875 -0.027404272 -0.03510089886
552.5 -0.05766615204 -0.03863465903
553.125 -0.0669406242 -0.01742999597
553.75 -0.08419433733 -0.01619085104
554.375 -0.07536346394 0.003812748585
555.0 -0.08438168193 0.02503327374
555.625 -0.07230855969 0.0383687311
556.25 -0.07898923948 0.02392039236
556.875 -0.09446273425 0.02551242588
557.5 -0.07675451349 0.03572186541
558.125 -0.07053397005 0.03229360433
558.75 -0.06864872184 0.01369248389
559.375 -0.02929527399 0.01222676726
560.0 -0.01925492842 -0.0003058543658
560.625 -0.03272124742 -0.02211542194
561.25 -0.06323856778 -0.02914329553
561.875 -0.06484802356 -0.0167897575
562.5 -0.06894706775 0.02431366143
563.125 -0.06023568419 0.05571020357
563.75 -0.04841693786 0.1019934556
564.375 -0.01565325456 0.0723121012
565.0 -0.01264966722 0.07030612402
565.625 -0.004440527201 0.06429647859
566.25 -0.0388541259 0.06073823888
566.875 -0.05070201738 0.02842534279
567.5 -0.05330926981 0.02283549767
568.125 -0.060370133 0.0156570023
568.75 -0.04687141424 0.008993217407
569.375 -0.03820440338 -0.005215995108
570.0 -0.01716005924 -0.0257215757
570.625 -0.04624958906 -0.03889208183
571.25 -0.0422177889 -0.0317475698
571.875 -0.05886402881 -0.02336733569
572.5 -0.0816582639 -0.01089866357
573.125 -0.1063089465 0.02603533129
573.75 -0.05738454909 0.0664508747
574.375 -0.02626026787 0.07053709658
575.0 -0.03660005674 0.06532718885
575.625 -0.04602593353 0.07543163045
576.25 -0.02631147861 0.07691813145
576.875 -0.01247585658 0.06332586463
577.5 -0.001758821601 0.06940128444
578.125 -0.009695911128 0.05424876743
578.75 -0.009373122019 0.04188663784
579.375 -0.006945836913 0.04126044428
580.0 -0.01283522669 0.03071789781
580.625 -0.02874404519 0.01331257531
581.25 -0.05013359092 0.01015247672
581.875 -0.06032543767 0.04134228267
582.5 -0.07192944267 0.0367511624
583.125 -0.05996811537 0.04257362631
583.75 -0.05461336084 0.03203487105
584.375 -0.06207193654 0.040378624
585.0 -0.0684343941 0.003682835487
585.625 -0.05990029269 0.01881474297
586.25 -0.05447349171 0.02180832885
586.875 -0.05840000911 0.02083884847
587.5 -0.05382043536 0.01469558889
588.125 -0.03161866897 0.03985796661
588.75 -0.01842592255 0.040987387
589.375 -0.01483879631 0.04131815421
590.0 -0.04931474393 0.01345850427
590.625 -0.04552742863 0.05004642551
591.25 -0.03589630581 0.07816271242
591.875 -0.01559604917 0.0942775091
592.5 -0.00463807849 0.07118025265
593.125 0.0007263568573 0.06139538606
593.75 -0.01258004763 0.05864563746
594.375 -0.01250873337 0.06403586144
595.0 -0.0346281695 0.01283527343
595.625 -0.03008351631 0.003019888183
596.25 -0.03490342577 -0.01290108143
596.875 -0.03810714861 -0.01471913908
597.5 -0.03281619876 -0.02270506741
598.125 -0.02036235754 -0.02775114181
598.75 -0.01639508847 -0.02474356667
599.375 -0.01367546304 -0.02381430221
600.0 -0.02012372998 -0.06348120849
600.625 -0.02735125011 -0.08165976894
601.25 -0.04295013286 -0.0707833224
601.875 -0.05771079922 -0.02680153327
602.5 -0.05512479567 -0.04335553237
603.125 -0.05210679217 -0.04082695087
603.75 -0.03864293055 -0.02165900439
604.375 -0.02072274924 -0.022989154
605.0 -0.01574542533 -0.02966225904
605.625 0.0008067286678 -0.05653857415
606.25 -0.001795161878 -0.04675174623
606.875 -0.01344299607 -0.01901163246
607.5 -0.01160615783 0.004260579263
608.125 0.02150705836 -0.01647896535
608.75 0.01612387848 -0.02182249985
609.375 0.02986115248 -0.02088285342
610.0 0.03545088974 -0.01211377104
610.625 0.05751746616 -0.01991396749
611.25 0.05797959952 -0.030820705
611.875 0.04596893039 -0.02385279428
612.5 0.019721781 -0.02035758256
613.125 0.03609071947 0.002191593653
613.75 0.02495490643 0.007923516093
614.375 0.02309706604 0.01781163919
615.0 0.02623771669 0.01207240286
615.625 0.02751007587 0.01359869133
616.25 0.0169146827 0.01567891114
616.875 0.01439316434 0.029526723
617.5 0.01363480152 0.02842194199
618.125 0.04322220918 0.04291568948
618.75 0.02406702398 0.03145331915
619.375 0.0232139637 0.0393580283
620.0 0.01638001845 0.02392537753
620.625 0.05797045504 0.02501848558
621.25 0.03711968077 0.007022903469
621.875 -0.0008435578897 -0.007723691106
622.5 -0.0409839321 0.008451787595
623.125 -0.0202370812 0.04204742107
623.75 -0.01788578045 0.05766021407
624.375 -0.02794429807 0.04734591556
625.0 -0.03617359249 0.03949935204
625.625 -0.04769970585 0.04167445489
626.25 -0.02543430109 0.078418989
626.875 -0.007774443351 0.07132891919
627.5 -0.01358998811 0.04467775369
628.125 -0.03325085429 0.0152218762
628.75 -0.03463923181 0.04934840225
629.375 -0.02272708155 0.03462436935
630.0 -0.01397552431 0.01616089041
630.625 -0.000891690563 -0.02641710889
631.25 -0.003536631047 -0.02858331558
631.875 -0.01247671776 -0.03163285554
632.5 -0.01584509973 -0.05100880042
633.125 -0.01072752219 -0.07333947101
633.75 -0.04623234426 -0.03825206987
634.375 -0.03901518164 -0.04619746137
635.0 -0.04607492777 -0.05132203136
635.625 -0.05323068299 -0.03113266859
636.25 -0.03587429804 -0.02741870074
636.875 -0.03277378276 -0.03079554632
637.5 -0.04536328091 -0.04214103118
638.125 -0.04844061636 -0.03989748448
638.75 -0.03014776216 -0.03000920164
639.375 -0.02223753263 -0.01511048607
640.0 0.02848435664 -0.02698132418
640.625 0.04328776254 -0.03149030541
641.25 0.04692481029 -0.03387835575
641.875 0.02501021897 -0.04233483496
642.5 0.04474061324 -0.01222051941
643.125 0.05665085708 0.0002955391325
643.75 0.06947080239 8.285407724e-05
644.375 0.0444369858 -0.03365720315
645.0 0.0343442345 -0.01995481928
645.625 0.03542132828 -0.0008555416611
646.25 0.06498647309 0.02038597723
646.875 0.06340446612 0.001967037216
647.5 0.05669269064 0.0007121095584
648.125 0.05083976901 0.004012869489
648.75 0.04949844719 0.04328331131
649.375 0.05605104955 0.06208410045
650.0 0.05053832239 0.0609184735
650.625 0.04192056875 0.05718295735
651.25 0.02178228447 0.06772104173
651.875 -0.01986908179 0.07271055888
652.5 -0.00992011891 0.05547924017
653.125 -0.01174183449 0.04259838057
653.75 -0.02948053636 0.01505436991
654.375 -0.01435623154 -0.002866208007
655.0 -0.02160364966 -0.03372228215
655.625 -0.04884522002 -0.04734955257
656.25 -0.07038343501 -0.04614169325
656.875 -0.07810997706 -0.03198018575
657.5 -0.07444551741 -0.02906212186
658.125 -0.07975380035 -0.0303380648
658.75 -0.1095986423 -0.0150482399
659.375 -0.0931187766 0.02493537348
660.0 -0.04062731561 0.05087311824
660.625 -0.04443452189 0.04250788904
661.25 -0.04322802185 0.03534661082
661.875 -0.03271783013 0.03933835347
662.5 -0.01322469576 0.02653998958
663.125 -0.05490705368 0.01763428902
663.75 -0.06376862771 -0.01627284213
664.375 -0.06253712365 -0.05170145059
665.0 -0.03187252938 -0.0786011893
665.625 -0.003254496319 -0.09793901975
666.25 0.0234036122 -0.0987651516
666.875 0.01931607581 -0.0746803319
667.5 0.04006726429 -0.0868238408
668.125 0.04789373386 -0.07190981634
668.75 0.0312671593 -0.04947245511
669.375 0.04358956045 -0.03753419892
670.0 0.05972089393 -0.0358708732
670.625 0.06911502451 -0.02944630405
671.25 0.05028663314 -0.04102658145
671.875 0.05966098549 -0.05351945036
672.5 0.03477509644 -0.06936721193
673.125 0.01819930945 -0.0990768968
673.75 -0.009529190174 -0.1012815047
674.375 0.008054165824 -0.07514467913
675.0 0.0428312076 -0.05796176396
675.625 0.05575950234 -0.04139777154
676.25 0.07399861319 -0.02926027246
676.875 0.05936166726 9.703748084e-05
677.5 0.03839985186 0.02852016237
678.125 0.03537086518 0.03943500968
678.75 0.0531282757 0.06130620978
679.375 0.07632128076 0.09112058668
680.0 0.05791935998 0.07713359414
680.625 0.06795704922 0.04779628421
681.25 0.09497358554 0.01762434995
681.875 0.1341757417 -0.01200504328
682.5 0.08464722938 -0.03854710039
683.125 0.05827792892 -0.04192825052
683.75 0.06849797617 -0.01675664765
684.375 0.06484724155 0.03943156382
685.0 0.03062543593 0.06483190083
685.625 -0.02600943701 0.04584803839
686.25 -0.05310172425 0.005024030662
686.875 -0.07909512974 -0.01847063275
687.5 -0.09336081912 -0.02580064674
688.125 -0.1044918135 -0.0458802864
688.75 -0.0924059963 -0.06123246849
689.375 -0.08579606884 -0.04768222075
690.0 -0.0963074193 -0.03744893948
690.625 -0.07469348918 -0.03644866283
691.25 -0.08657695055 -0.02356324732
691.875 -0.05197581496 0.02610577286
692.5 -0.030335022 0.03907974125
693.125 -0.01771115189 0.07291313336
693.75 -0.003982865146 0.1061976516
694.375 0.01763799674 0.09361447812
695.0 -0.004109025509 0.09548297973
695.625 -0.07719097203 0.091126862
696.25 -0.08740204201 -0.04421462621
696.875 -0.04164846735 -0.1020827072
697.5 0.02502092653 -0.1015515083
698.125 0.04203186595 -0.0734743615
698.75 0.03309185723 -0.03873294946
699.375 0.05032755706 -0.02621854472
700.0 0.07358332815 -0.02010766448
700.625 0.07962760182 0.01065588884
701.25 0.04828031265 0.03426443474
701.875 0.08676152801 0.02501442075
702.5 0.1236831487 -0.03429552197
703.125 0.0861563178 -0.1026429207
703.75 -0.03297788195 -0.08988407787
704.375 -0.05642040299 -0.05089648955
705.0 -0.04039903083 -0.07960382179
705.625 0.01339894955 -0.08054899318
706.25 0.03654392006 -0.05810251933
706.875 0.04166322139 0.02203871827
707.5 0.01978853058 0.07193963573
708.125 -0.02870620294 0.08401607688
708.75 -0.04453678283 0.09120089389
709.375 -0.08578860842 0.01614944501
710.0 -0.08184996143 -0.01962673452
710.625 -0.07930935896 -0.03325233027
711.25 -0.09544099046 -0.05640588508
711.875 -0.08061375301 -0.06740849785
712.5 -0.06741344106 -0.01516592354
713.125 -0.04201732643 0.04554428068
713.75 0.001290635872 0.06272476054
714.375 -0.02983324797 0.05539137562
715.0 -0.02162837183 0.05782088084
715.625 -0.01873460646 0.0638079254
716.25 -0.05239655403 0.0754996857
716.875 -0.09788798719 0.05653975196
717.5 -0.08556210691 -0.03961214415
718.125 -0.07649236063 -0.03594871238
718.75 -0.06794136534 -0.04980833008
719.375 -0.05518798606 -0.07044102206
720.0 -0.01452578676 -0.08298756227
720.625 0.04755897622 -0.05173178038
721.25 0.04064431311 0.01104711653
721.875 0.02091038732 0.02759096156
722.5 -0.06271215829 0.02756149749
723.125 -0.07042380646 0.06320924251
723.75 -0.0003680231976 0.09640195894
724.375 0.07113870363 0.03814961568
725.0 0.08522528075 -0.002803252383
725.625 0.0704388598 -0.04274868413
726.25 0.06805055675 -0.03981725235
726.875 0.04733874585 -0.03356111638
727.5 0.04046660584 -0.01741211265
728.125 0.02713397903 0.07088503958
728.75 0.01298033879 0.06679419382
729.375 0.03511776179 0.04669160286
730.0 0.03667553817 0.01879438434
730.625 0.01966112691 0.03652632382
731.25 -0.006942436921 0.05248328064
731.875 -0.03301720218 0.03323713398
732.5 -0.05806893446 0.00693236781
733.125 -0.04047053837 0.004207171026
733.75 -0.04645701793 -0.01215126344
734.375 -0.02562399019 -0.02726826317
735.0 -0.01099869211 0.001335143837
735.625 -0.06417619376 -0.01507337828
736.25 -0.0334971432 -0.006839593609
736.875 -0.04563791356 -0.02192633505
737.5 -0.06208371947 -0.0182741911
738.125 -0.06457573344 -0.01660976116
738.75 -0.05785167466 -0.01505392428
739.375 -0.028380437 -0.01048260774
740.0 -0.00846155909 -0.03125106893
740.625 -0.003431058465 -0.02528384529
741.25 -0.05323065413 -0.04101821875
741.875 0.001413447103 -0.04584801101
742.5 0.02639175081 0.00574876737
743.125 -0.0161469956 0.02436853759
743.75 -0.0008935419245 0.0607932836
744.375 -0.01532578611 0.05457911229
745.0 -0.03660853089 0.03399684667
745.625 -0.05236100231 0.04855742586
746.25 0.03334632002 0.09439615116
746.875 0.05483365436 0.04576329454
747.5 0.04054258122 0.009576157018
748.125 0.02445413471 -0.009227121646
748.75 0.0183884672 0.008667279873
749.375 0.02058483012 -0.04350577246
750.0 -0.02760231279 -0.02859847566
