!Created with skrf (http://scikit-rf.org).
# GHz S RI R 50.0 
!freq ReS11 ImS11
500.0 -0.0123343554 0.02217096407
500.625 0.0191659932 0.0142720954
501.25 0.01361317613 -0.02812326057
501.875 0.01976798954 0.001823311153
502.5 0.01565685714 0.0300930549
503.125 0.01120131481 0.008909928047
503.75 0.02806856789 -0.003704866816
504.375 0.02047597382 -0.01407957364
505.0 0.02822489816 -0.03047000809
505.625 0.01678706086 -0.04153395139
506.25 -0.02171269936 -0.05768695689
506.875 0.009692582971 -0.06943117469
507.5 0.007005378089 -0.05640129184
508.125 0.006190573598 -0.06524506341
508.75 0.01348135102 -0.08743693696
509.375 -0.007388104421 -0.06208290248
510.0 0.01123895087 -0.05616529051
510.625 -0.03822022279 -0.02937793241
511.25 -0.06061999152 -0.04223812066
511.875 -0.04611015496 0.02030030132
512.5 -0.02463959397 0.03246669387
513.125 0.02179204996 0.0394215121
513.75 0.01759062189 0.06072055419
514.375 0.03465064776 0.05351103139
515.0 0.05789011902 0.03089559554
515.625 0.05587748348 0.05108199148
516.25 0.07688368836 0.06088534231
516.875 0.021267006 0.1357516715
517.5 0.1065567386 0.07269765064
518.125 0.08171071554 0.1591776448
518.75 0.07107020822 0.01215237072
519.375 0.06679080998 0.04375075475
520.0 0.08663673053 0.01293624232
520.625 0.0865745034 -0.0231967624
521.25 0.06505939421 -0.03740028661
521.875 0.07521707333 0.01188101473
522.5 0.09022500902 -0.04434348249
523.125 0.1152408413 -0.1240757699
523.75 0.1320406212 -0.1756715884
524.375 0.1434240979 -0.1436664306
525.0 0.04417744975 -0.04860187344
525.625 0.02747141823 -0.02345293865
526.25 0.03525114425 -0.00732313417
526.875 0.04454279347 -0.01987043688
527.5 0.03161565805 -0.02445311131
528.125 0.006946718519 -0.03000895009
528.75 0.0001232444509 -0.04926281083
529.375 -0.03821737142 -0.07982015646
530.0 -0.0370627514 -0.0109420865
530.625 -0.03805768733 -0.01750393176
531.25 -0.08658505666 -0.06966870341
531.875 -0.1358318031 -0.0611180861
532.5 -0.1264484477 0.001962957126
533.125 -0.0759853938 0.02825213785
533.75 -0.07793554868 0.03968854528
534.375 -0.1045166735 0.02911511784
535.0 -0.07416915449 0.05014519923
535.625 -0.03910883939 0.03327568341
536.25 -0.03676442598 0.03568113631
536.875 -0.06614989891 0.003574600198
537.5 -0.06831049535 -0.01953317531
538.125 -0.09890382885 0.02223655556
538.75 -0.08952337057 0.04152486728
539.375 -0.07305776554 0.01819107454
540.0 -0.0688114844 0.001326810609
540.625 -0.1118633349 0.007376793009
541.25 -0.1188459225 -0.01404274427
541.875 -0.08518140233 -0.02094352205
542.5 -0.06779796086 -0.02642614347
543.125 -0.1193621775 0.02061384355
543.75 -0.08800266416 0.09564663769
544.375 -0.04351818973 0.103259291
545.0 0.04344137381 0.07505517732
545.625 0.06198602688 0.04137826119
546.25 0.08486485324 0.03639713118
546.875 0.09769461429 0.03307560199
547.5 0.09556629981 0.03740426992
548.125 0.117556054 0.0774233582
548.75 0.07151717493 0.08137421176
549.375 0.07816000825 0.08210849147
550.0 0.0428808165 0.1050332952
550.625 0.03056849873 0.05840096499
551.25 -0.003163050055 0.0323019372
551.875 -0.01568817988 0.03118613191
552.5 -0.03541668208 0.04276397687
553.125 -0.04240101321 0.04302609795
553.75 -0.04713201445 0.02817318195
554.375 -0.03679386245 0.0630144992
555.0 -0.03409712069 0.08496678452
555.625 -0.02192614987 0.06556255382
556.25 -0.03379199534 0.07176113865
556.875 -0.03863714206 0.09255003975
557.5 -0.04892842831 0.09525729785
558.125 -0.04731855222 0.09127976867
558.75 -0.05368948562 0.07027971328
559.375 -0.03705279463 0.08874899593
560.0 -0.02895280165 0.05439357269
560.625 -0.007355849371 0.02256301958
561.25 -0.02371401967 0.0201407505
561.875 -0.0369472883 0.06308192921
562.5 -0.02831062753 0.07316715766
563.125 -0.009762669539 0.06338914381
563.75 0.02423978958 0.08281047195
564.375 0.06276605164 0.1035187846
565.0 0.04794206049 0.09474337071
565.625 0.04617849424 0.0576190355
566.25 0.03241394453 0.06470593579
566.875 0.01570551216 0.1013697891
567.5 -0.02183637355 0.07708610595
568.125 -0.02849495904 0.06840352186
568.75 -0.03468914267 0.09022251087
569.375 -0.03078799809 0.06113345887
570.0 -0.02613063297 0.03203236195
570.625 -0.0236770161 0.02003645675
571.25 -0.03556758606 0.03896588228
571.875 -0.03153567381 0.03211426786
572.5 -0.03605666909 0.0401903973
573.125 -0.04396124501 0.06958042973
573.75 0.013132863 0.1159502244
574.375 0.04036813645 0.07906872127
575.0 0.04066854988 0.0575296124
575.625 0.01784868323 0.07017062922
576.25 0.02008091939 0.08254802526
576.875 0.05197670159 0.07014013279
577.5 0.06291646017 0.05676140255
578.125 0.04751240338 0.06177451742
578.75 0.04823033567 0.06443810318
579.375 0.05839512746 0.04901141802
580.0 0.05751695038 0.04070345083
580.625 0.03243619258 0.03412332533
581.25 0.02298734671 0.0342505426
581.875 -0.006498177362 0.04316295827
582.5 0.0006496478539 0.07200938845
583.125 -0.001532946109 0.08623613127
583.75 -0.003398076079 0.07020281055
584.375 -0.01585346712 0.06307983408
585.0 -0.01057071042 0.08238618488
585.625 -0.03174510884 0.0785416827
586.25 -0.006785274099 0.07212740758
586.875 -0.008978764072 0.06316982564
587.5 -0.01516670842 0.07753237936
588.125 0.01598251607 0.07532844225
588.75 0.03626450324 0.05447555859
589.375 0.04692078178 0.03542749342
590.0 0.04348303598 0.02494459333
590.625 0.01084835949 0.04409820412
591.25 0.0127404457 0.06656025502
591.875 0.04029028656 0.07882423999
592.5 0.08160227273 0.05391825657
593.125 0.05834345188 0.05611755427
593.75 0.04884858665 0.06086805305
594.375 0.03106704474 0.08239119421
595.0 0.02041900596 0.07809393513
595.625 -0.006775000058 0.05830641982
596.25 -0.03341573437 0.03689495768
596.875 -0.04004784447 0.03634953386
597.5 -0.0304226609 0.05190330736
598.125 -0.03438189508 0.03857625887
598.75 -0.0001807447321 0.04236573371
599.375 -0.01999864729 0.01829241597
600.0 -0.02629098209 -0.003931494748
600.625 -0.04634923071 -0.01524410548
601.25 -0.07301066376 -0.01571748806
601.875 -0.07898149906 -0.004681101644
602.5 -0.05274292236 0.0227823651
603.125 -0.07027158588 0.01765632879
603.75 -0.08362862661 -0.006379211872
604.375 -0.04341775603 0.02230560356
605.0 -0.03642537519 0.002805458316
605.625 -0.05094940839 -0.02387951961
606.25 -0.06421402282 -0.03888728797
606.875 -0.05639620265 -0.004384545432
607.5 -0.03901416109 -0.008960399882
608.125 -0.02409361669 0.002504000065
608.75 -0.02309052195 -0.0377518069
609.375 -0.008039230667 -0.005053135773
610.0 0.0009173491243 -0.006404221464
610.625 0.009037599377 -0.03950096165
611.25 0.01986095553 -0.05520037759
611.875 0.01434851789 -0.03403268764
612.5 0.02175703246 -0.06145261792
613.125 0.001221169177 -0.03023076076
613.75 0.01273356131 -0.02920633986
614.375 0.04081303132 -0.03023957723
615.0 0.0437618873 -0.03428867202
615.625 0.008682509014 -0.008574040552
616.25 0.005520533222 -0.006536815718
616.875 0.04091791476 -0.01983932166
617.5 0.05582044961 -0.02121069446
618.125 0.02950243589 0.01314748292
618.75 0.03226293321 0.00579955894
619.375 0.07262072377 -0.001805236372
620.0 0.07759025263 -0.001025904185
620.625 0.05640276412 -0.01009923938
621.25 0.05388035144 -0.03267995544
621.875 0.06147593445 -0.03816427652
622.5 0.009465739534 -0.03999296225
623.125 -0.01317387751 0.02795014014
623.75 0.005390683695 0.03334129482
624.375 0.04208211516 0.02502320071
625.0 -0.01525451425 0.04461479276
625.625 -0.0189662476 0.05470475296
626.25 0.01765096438 0.06342321417
626.875 0.03949769588 0.07420798362
627.5 0.003788509805 0.06667972981
628.125 0.02104007136 0.0549122248
628.75 0.00348957463 0.06439310907
629.375 0.006925011618 0.0614847712
630.0 0.01320717201 0.06370340672
630.625 0.002104090252 0.03476493807
631.25 -0.02108611932 0.01002987847
631.875 -0.01779251137 0.01232013012
632.5 -0.04009132252 -0.01707502229
633.125 -0.03535824051 -0.002174282924
633.75 -0.06740316888 -0.01491797076
634.375 -0.05337838132 -0.004809430551
635.0 -0.05276177074 0.03092661917
635.625 -0.08373638621 0.02122061637
636.25 -0.07537759327 0.01462289792
636.875 -0.04610787008 0.01226381769
637.5 -0.0550078153 0.002154989448
638.125 -0.08546639224 0.01322096871
638.75 -0.0670004777 0.014392942
639.375 -0.05276414105 -0.005272911993
640.0 -0.02376407557 -0.01541285806
640.625 -0.02423789701 -0.04047309524
641.25 -0.02074770115 -0.04922821516
641.875 -0.003918887273 -0.05859950298
642.5 -0.009837007691 -0.05475575644
643.125 0.04346205412 -0.0781158953
643.75 0.03416792515 -0.05662037387
644.375 0.01268768603 -0.0675726494
645.0 -0.002359799972 -0.06967711331
645.625 -0.006072109445 -0.05826524246
646.25 0.01003247127 -0.0374645448
646.875 0.04188272964 -0.05857487635
647.5 0.031402387 -0.06809214765
648.125 0.004954718259 -0.05200498239
648.75 0.03640080454 -0.03226475215
649.375 0.07798863496 -0.0147844707
650.0 0.0946290218 -0.00194651408
650.625 0.07305343943 0.0007319344857
651.25 0.08577876637 0.02928439084
651.875 0.07920960101 0.07118756261
652.5 0.04603942386 0.08465493168
653.125 0.03941933509 0.07230353639
653.75 0.04094739783 0.07352286291
654.375 -0.00183169013 0.07942566719
655.0 -0.02659330419 0.03456864855
655.625 -0.0116853873 0.01984512734
656.25 -0.04185675981 0.0454865743
656.875 -0.05729800903 0.07906594984
657.5 -0.06473492176 0.04287439889
658.125 -0.06982799313 0.03292435643
658.75 -0.07086751453 0.07311565151
659.375 -0.05361221295 0.1097238175
660.0 -0.01090651144 0.1167850917
660.625 0.01383651833 0.09117318347
661.25 0.03967461829 0.07723626088
661.875 0.04975594167 0.06554295192
662.5 0.05225396679 0.05931229759
663.125 0.03822597382 0.04255256149
663.75 -0.01098822208 0.07398778743
664.375 -0.05952298244 0.03114164373
665.0 -0.0704079502 0.0007277380902
665.625 -0.05193302319 -0.01448887796
666.25 -0.06840793045 -0.05426241807
666.875 -0.05704295933 -0.1002542293
667.5 -0.05424417705 -0.09199847447
668.125 -0.0593574979 -0.06596012233
668.75 -0.06239640533 -0.0734021418
669.375 -0.04082850788 -0.07745679835
670.0 -0.02519233469 -0.06713887587
670.625 -0.02445497256 -0.06477284891
671.25 -0.04383209224 -0.09283670176
671.875 -0.03977622881 -0.06465312356
672.5 -0.05037741526 -0.0538272256
673.125 -0.06925484938 -0.05094477853
673.75 -0.08266029812 -0.05239422934
674.375 -0.1012652524 -0.06459299023
675.0 -0.06452465289 -0.08916192323
675.625 -0.0193516887 -0.08332834872
676.25 0.008212585505 -0.08146021419
676.875 0.01210137347 -0.1051040493
677.5 0.01939578433 -0.1009462645
678.125 0.02566429825 -0.03914686851
678.75 0.04632700474 -0.0291383131
679.375 0.06432232969 -0.02027719604
680.0 0.09583786089 -0.04197100324
680.625 0.1014454545 -0.03177288996
681.25 0.06593551912 -0.04678876614
681.875 0.04909459837 -0.0872551982
682.5 -0.00249263588 -0.1623409348
683.125 0.005794121766 -0.1405782102
683.75 0.01715125202 -0.08583779205
684.375 0.06278689038 -0.09168688625
685.0 0.1034880689 -0.0130670226
685.625 0.08785050113 0.04370166142
686.25 0.03761587445 0.06003566118
686.875 0.002793310177 0.06644991093
687.5 -0.04948344589 0.0585127297
688.125 -0.06584749415 0.05515441201
688.75 -0.09160372484 0.06635945676
689.375 -0.1168993048 0.06602540966
690.0 -0.09373393354 0.03987261767
690.625 -0.08969319211 0.07685893175
691.25 -0.06598201373 0.1206269628
691.875 -0.01312490217 0.116231697
692.5 0.0517457817 0.06370592036
693.125 0.08047007402 -0.004233780779
693.75 0.08273975166 -0.02325491023
694.375 0.1111407126 0.0008172567642
695.0 0.09011479076 0.04543444383
695.625 0.02296009461 0.07829374529
696.25 -0.05257801187 0.09957761076
696.875 -0.1312012801 -0.000885258049
697.5 -0.0744563149 -0.08461609445
698.125 -0.07981300932 -0.09552911841
698.75 -0.0857274647 -0.09237301164
699.375 -0.04237545508 -0.07556454242
700.0 -0.02929449702 -0.07885662492
700.625 0.007423812022 -0.09376004321
701.25 0.03229843615 -0.07840257166
701.875 0.03749658057 -0.05386756167
702.5 0.02477461722 -0.08719082079
703.125 -0.04864274705 -0.1342060863
703.75 -0.1638801193 -0.0541205177
704.375 -0.1141955634 0.04096784163
705.0 -0.08594656233 0.03212937272
705.625 -0.1292988117 0.000990445001
706.25 -0.06330141811 -0.1033698968
706.875 0.01573769379 -0.07956044902
707.5 0.04331867789 -0.04456866022
708.125 0.05981057678 0.01528164278
708.75 0.04047428575 0.07561570764
709.375 0.004187167184 0.08944699187
710.0 -0.03997856284 0.07643365785
710.625 -0.07841521655 0.0324431244
711.25 -0.09816392312 0.02257418544
711.875 -0.1122911365 0.05807347037
712.5 -0.09060282206 0.1013938168
713.125 0.01587881743 0.1215804743
713.75 0.07608084683 0.05156163234
714.375 0.09819028065 -0.03768063197
715.0 0.09770529569 -0.02366453136
715.625 0.04926090539 0.03375633855
716.25 0.04753288043 0.02899394191
716.875 0.02624709045 0.07542250219
717.5 -0.04224439891 0.09937541662
718.125 -0.07609741479 0.06425477778
718.75 -0.08185624616 0.02907834373
719.375 -0.08585526241 0.02110106814
720.0 -0.1004054674 -0.01814509713
720.625 -0.04762523768 -0.09806029257
721.25 0.07175763384 -0.05722152833
721.875 0.09234894193 -0.0129333037
722.5 0.06376213245 0.01428176071
723.125 0.05509654727 0.02599955753
723.75 0.07833731938 0.02611001835
724.375 0.08313911137 -0.03713930431
725.0 -0.005461819184 -0.05482265872
725.625 -0.0226352592 -0.05731234068
726.25 -0.01082501938 -0.1016948688
726.875 -0.02210029388 -0.08415452377
727.5 0.00523274581 -0.07778504336
728.125 0.03897452019 -0.06519285744
728.75 0.06356872479 -0.04961745997
729.375 0.07993334239 -0.02448697339
730.0 0.05822060418 -0.03450851149
730.625 0.01501448407 -0.02981342056
731.25 0.03154209469 -0.006919349201
731.875 0.01668327034 0.07766840173
732.5 -0.006160083744 0.031411531
733.125 -0.04940448895 0.0577593403
733.75 -0.02493059829 0.06044435157
734.375 -0.06933444099 0.07619314366
735.0 -0.01942498401 0.08357238479
735.625 0.01255923945 0.01701896914
736.25 0.01504108999 0.01617950801
736.875 -0.01296194489 0.05484380668
737.5 -0.04698337188 0.04494748063
738.125 -0.05295409227 0.0127223929
738.75 -0.05228640224 0.03047608739
739.375 -0.07767998506 0.05340324973
740.0 -0.01582025534 0.003968904947
740.625 -0.04861380916 0.04035245844
741.25 -0.04656369564 0.02147465215
741.875 -0.05172786718 -0.0003534133667
742.5 -0.02662550968 -0.08287733249
743.125 0.05123896469 -0.03376691305
743.75 0.02836752602 0.01322217006
744.375 0.03929301457 0.001855028212
745.0 0.01939798818 0.01725039193
745.625 0.0232638631 0.02075513773
746.25 0.04448341623 0.04718250939
746.875 0.07013349331 -0.003145467027
747.5 0.04711963028 -0.07466159848
748.125 0.02622667209 -0.04889647828
748.75 0.001359985367 -0.03845125765
749.375 -0.02993611561 -0.035354863
750.0 -0.05039409026 0.02138065349
