!Created with skrf (http://scikit-rf.org).
# GHz S RI R 50.0 
!freq ReS11 ImS11
500.0 -0.009793598286 0.01585913414
500.625 0.02215466205 0.01585688369
501.25 0.02846128544 -0.009284327379
501.875 0.01742930003 -0.01215553305
502.5 0.008419948416 0.01223097501
503.125 0.02203576282 0.00782529891
503.75 0.02622628458 -0.01380039652
504.375 0.02212577575 -0.02303111932
505.0 0.01701440661 -0.03232363179
505.625 0.01273445121 -0.05441340717
506.25 -0.00855038065 -0.06575952936
506.875 0.014248777 -0.08660816381
507.5 -0.009929011967 -0.07119532556
508.125 0.01499752324 -0.08047744296
508.75 -0.03646347128 -0.09020186173
509.375 -0.04089258744 -0.05999410705
510.0 -0.0173042487 -0.06117427024
510.625 -0.05677552564 -0.01737199673
511.25 -0.07881021996 -0.009978158223
511.875 -0.05703437875 0.03230253611
512.5 -0.01596587891 0.04994606901
513.125 0.04643671387 0.05274483663
513.75 0.0592541951 0.05067858558
514.375 0.05781000867 0.02246178212
515.0 0.07293116792 -0.004342356169
515.625 0.08532307088 0.06620350804
516.25 0.1073236881 0.03594242428
516.875 0.05911972405 0.1076224001
517.5 0.137098908 0.02808047758
518.125 0.1086774912 0.2096776805
518.75 0.1066407117 0.003828400588
519.375 0.08156372012 0.01142786136
520.0 0.1011613423 -0.03656008861
520.625 0.1191195817 -0.03963984042
521.25 0.08354738185 -0.06063855703
521.875 0.06966145246 -0.02126262742
522.5 0.06541256018 -0.08869229251
523.125 0.1529617576 -0.1693228328
523.75 0.09804651271 -0.2461277707
524.375 0.09732402845 -0.2439919271
525.0 0.04676578404 -0.1062463063
525.625 0.03958418859 -0.0657862083
526.25 0.04678678757 -0.04556170552
526.875 0.0343611144 -0.06428476492
527.5 0.02258152387 -0.07584588225
528.125 -0.01082905643 -0.05966495447
528.75 -0.02920895223 -0.06908912212
529.375 -0.1069360416 -0.05062797484
530.0 -0.09346323462 0.01043638307
530.625 -0.03630703777 0.03476642902
531.25 -0.06968543396 0.02039314885
531.875 -0.1483085934 0.05569144346
532.5 -0.136627526 0.09347023642
533.125 -0.08237868843 0.08066080317
533.75 -0.04489174898 0.09415359531
534.375 -0.06999921454 0.1119441015
535.0 -0.05594434164 0.1087647498
535.625 -0.05115114143 0.06857141736
536.25 0.003255264487 0.07725733884
536.875 -0.03880865538 0.08184641916
537.5 -0.08504058727 0.03663237739
538.125 -0.06594405121 0.06383799108
538.75 -0.05570447261 0.1173474754
539.375 -0.07637551262 0.09349055859
540.0 -0.06453549034 0.07296548061
540.625 -0.06558993229 0.07279468676
541.25 -0.09134758167 0.08498764729
541.875 -0.09211649315 0.05071549325
542.5 -0.07344575155 0.02013931973
543.125 -0.0737806819 0.06936145349
543.75 -0.02613344536 0.1428939697
544.375 0.008129575941 0.1402976067
545.0 0.08703321466 0.05811180447
545.625 0.1178217708 4.890505131e-05
546.25 0.129172708 -0.02440511563
546.875 0.111480518 -0.02699667457
547.5 0.1228349937 -0.02670067126
548.125 0.157400959 -0.01697498622
548.75 0.1466351908 0.04828069995
549.375 0.1329434059 0.04862733028
550.0 0.1236941303 0.08688269359
550.625 0.1069917519 0.103941339
551.25 0.02948091351 0.09356017773
551.875 0.03031597233 0.05009477099
552.5 0.04297991791 0.05628929222
553.125 0.04054395309 0.08268170102
553.75 0.001175723406 0.06050108702
554.375 0.01182755491 0.05472113254
555.0 0.0401281028 0.07443209617
555.625 0.05607176758 0.09088298371
556.25 0.01764408622 0.08568154712
556.875 0.01850737179 0.07907493237
557.5 0.02714317259 0.1091612194
558.125 0.01349696595 0.1275162975
558.75 -0.02060193856 0.1134891114
559.375 0.01608876881 0.1089081344
560.0 0.02017909924 0.1134022039
560.625 0.02498086324 0.07284417562
561.25 0.02607836763 0.04927509368
561.875 0.03040907651 0.06110887373
562.5 0.04565785733 0.0696555187
563.125 0.04645850598 0.05767901764
563.75 0.06702975767 0.03983861022
564.375 0.1150645858 0.02989378915
565.0 0.1186028355 0.06508144201
565.625 0.1049311369 0.03510205628
566.25 0.09297626589 0.03525008101
566.875 0.09295053676 0.06324493928
567.5 0.0462832223 0.1020240732
568.125 0.02788118918 0.09362685247
568.75 0.03446810568 0.1116893294
569.375 0.02402635476 0.108590063
570.0 0.01681209675 0.08771266485
570.625 0.02101754457 0.06152093105
571.25 0.03702418216 0.07376072378
571.875 0.0205138869 0.06187394123
572.5 0.0200031599 0.03992744116
573.125 0.02898723516 0.05472074644
573.75 0.08459308819 0.06182608321
574.375 0.09495006803 0.04877885001
575.0 0.07278367796 0.01718266404
575.625 0.0721518266 0.00408561649
576.25 0.09880472162 0.0303190224
576.875 0.09502519811 0.03502773261
577.5 0.0887219111 0.01745805347
578.125 0.1019244517 0.0002520288279
578.75 0.1218658662 0.01699748539
579.375 0.09687927179 0.01926406909
580.0 0.09242518267 -0.00226360486
580.625 0.0966058972 -0.01997951232
581.25 0.07845063659 -0.01426327332
581.875 0.04162736033 0.01364744469
582.5 0.04701046065 0.02286481125
583.125 0.07808291031 0.04396234952
583.75 0.07171095597 0.04932271233
584.375 0.05048222049 0.04686783514
585.0 0.04183935958 0.05658366835
585.625 0.05554771009 0.07961909695
586.25 0.04612230303 0.07020305275
586.875 0.04432259614 0.04814367819
587.5 0.06353086231 0.0510731756
588.125 0.08878937713 0.04078028061
588.75 0.08800577948 0.02671371274
589.375 0.07728408433 -0.02281504725
590.0 0.06643452126 -0.04895916591
590.625 0.04862725731 -0.02204467632
591.25 0.03886093962 0.006728435315
591.875 0.0535732432 0.00800303543
592.5 0.08554563675 -0.01087473437
593.125 0.09350099045 -0.007771264248
593.75 0.0771306457 0.004038926741
594.375 0.07996733378 0.02049458416
595.0 0.08446968948 0.04769968314
595.625 0.06183703434 0.06188227014
596.25 0.03584298994 0.05644692209
596.875 0.02744090985 0.06163499406
597.5 0.01378621288 0.07647046973
598.125 0.02455496057 0.06968903784
598.75 0.04410796255 0.05046850833
599.375 0.04266422092 0.03777667994
600.0 0.02795459179 0.02594426791
600.625 0.006643787813 0.01359992269
601.25 -0.007995068387 0.01890225111
601.875 -0.02110876522 0.03755967836
602.5 -0.02567974533 0.04229965275
603.125 -0.025802919 0.04272817464
603.75 -0.01980381934 0.05309044798
604.375 -0.01632212229 0.05524709741
605.0 -0.02315612564 0.03515114029
605.625 -0.02800639908 0.01980098508
606.25 -0.04650317044 0.02172617879
606.875 -0.05437098531 0.03365973041
607.5 -0.03628560169 0.04208380698
608.125 -0.007304422067 0.03931227287
608.75 -0.005509032952 0.03175349477
609.375 -0.007050626224 0.02666998249
610.0 -0.005653682547 0.01676857463
610.625 0.005271349866 0.006415848025
611.25 0.004213328514 -0.007843902944
611.875 0.002568873979 -0.01951822751
612.5 -0.004670467744 -0.02923497891
613.125 -0.01549918217 -0.02431371183
613.75 -0.01543418928 -0.009033415264
614.375 -0.004417648302 -0.001879200451
615.0 0.005534660931 -0.00650348576
615.625 0.0008111522692 -0.01457688797
616.25 -0.003248019347 -0.001511278218
616.875 0.00555382626 0.009456293886
617.5 0.02070867297 0.008181843601
618.125 0.02466180482 0.003629513102
618.75 0.02549527347 0.007773533009
619.375 0.03419846149 0.01377937376
620.0 0.05082277181 0.009352311858
620.625 0.0529562673 -0.01418253725
621.25 0.0445830327 -0.02391910917
621.875 0.02990525617 -0.03069045512
622.5 -0.007818250091 -0.02058020657
623.125 -0.008261135772 0.006325403413
623.75 0.01043722681 0.02414606027
624.375 0.01676160889 0.03412349346
625.0 0.004267855657 0.0438967118
625.625 0.003872924874 0.04808309002
626.25 0.02566370293 0.06785499103
626.875 0.04250943106 0.07871274633
627.5 0.03290776185 0.07444079242
628.125 0.02569769556 0.06311565046
628.75 0.02278995704 0.07441900004
629.375 0.01283506682 0.08445111388
630.0 0.006983456818 0.06846400112
630.625 0.00527939256 0.05290987469
631.25 -0.007768996095 0.04899222064
631.875 -0.02705808559 0.0363600563
632.5 -0.03505974362 0.02324113246
633.125 -0.03995791734 0.02171068896
633.75 -0.05246977255 0.03628087862
634.375 -0.06303197015 0.0313723552
635.0 -0.06241652107 0.03788771533
635.625 -0.06003863389 0.06429568939
636.25 -0.05991802057 0.07456531099
636.875 -0.05772782647 0.04818706197
637.5 -0.05810905537 0.03763923909
638.125 -0.08350747735 0.05973996327
638.75 -0.0928901262 0.0588948027
639.375 -0.07486193991 0.02682212689
640.0 -0.0576833163 0.003260985176
640.625 -0.06930351614 -0.02805438254
641.25 -0.05964133929 -0.06267048403
641.875 -0.04417243626 -0.05629031856
642.5 -0.04528766985 -0.05451255894
643.125 -0.04381101866 -0.08293194253
643.75 -0.0133405748 -0.1011574358
644.375 -0.02366723993 -0.08610504677
645.0 -0.05954505785 -0.07788629762
645.625 -0.06024465373 -0.08752737543
646.25 -0.03489844609 -0.0768439888
646.875 -0.01301375417 -0.07049313079
647.5 -0.03617119994 -0.08256594349
648.125 -0.02784457868 -0.09241863823
648.75 0.003771205045 -0.06891296532
649.375 0.02893572951 -0.05495775754
650.0 0.06079191433 -0.06714844245
650.625 0.08977765996 -0.05260226367
651.25 0.090391267 -0.02460024646
651.875 0.1001053202 0.001172967118
652.5 0.1258710137 0.05330960575
653.125 0.1007175963 0.07988949143
653.75 0.08704279758 0.07122824749
654.375 0.08345246752 0.07734517945
655.0 0.04419899077 0.1004324879
655.625 0.003276035487 0.07028684196
656.25 0.01456351765 0.05901130404
656.875 0.04204126056 0.07607211997
657.5 0.01321296623 0.09983455059
658.125 -0.02274637818 0.08385873504
658.75 -0.009056563784 0.08660358907
659.375 0.04533947567 0.120303324
660.0 0.07557782232 0.1218804194
660.625 0.08620306065 0.09161320718
661.25 0.1063958785 0.05822224379
661.875 0.1346465545 0.03405399659
662.5 0.1234840974 0.02055850114
663.125 0.1006972869 0.01827708312
663.75 0.08965675511 0.0568568194
664.375 0.005670500382 0.09995247076
665.0 -0.04449625861 0.07075310702
665.625 -0.05569206759 0.04781571884
666.25 -0.09861132255 0.04298383566
666.875 -0.1309646025 -0.03152492963
667.5 -0.1050861824 -0.04744494484
668.125 -0.1126197717 -0.02503319975
668.75 -0.1472123506 -0.002854162747
669.375 -0.128618467 -0.03473143773
670.0 -0.08270494038 -0.03797943591
670.625 -0.09258527401 -0.03032163793
671.25 -0.1257909808 -0.01246681575
671.875 -0.1111348969 -0.003833605909
672.5 -0.08407548772 0.01925044442
673.125 -0.08710567891 0.0351385468
673.75 -0.1211005012 0.03867458922
674.375 -0.124494782 0.01761238428
675.0 -0.122701626 -0.01294571111
675.625 -0.1212086931 -0.06701831728
676.25 -0.08043760088 -0.108509123
676.875 -0.06356696622 -0.104683035
677.5 -0.08993892486 -0.09817666959
678.125 -0.07433492755 -0.1213648577
678.75 -0.01475403865 -0.08232735025
679.375 0.007396741384 -0.05849416009
680.0 -0.005325484846 -0.08136745767
680.625 7.101408336e-05 -0.1299475782
681.25 0.008508431236 -0.1135988786
681.875 -0.02086443682 -0.09719728821
682.5 -0.09364908062 -0.0961074675
683.125 -0.1331217168 -0.1166466164
683.75 -0.08077742346 -0.1329461426
684.375 -0.01308924493 -0.1229131671
685.0 0.06893361856 -0.1264746974
685.625 0.1387584518 -0.05831606213
686.25 0.1298772668 0.0005579718274
686.875 0.1040581886 0.02747089769
687.5 0.06509844045 0.06435567994
688.125 0.02397368528 0.08094464495
688.75 0.007969870398 0.08972344404
689.375 0.008689799504 0.1260713188
690.0 -0.03348086778 0.138927261
690.625 -0.0259617055 0.1225656829
691.25 0.03573154057 0.1262556269
691.875 0.1537423147 0.104937969
692.5 0.1952846843 0.01964525
693.125 0.08362890832 -0.08648258084
693.75 0.007829253117 -0.1021216073
694.375 0.01243780096 -0.1351336867
695.0 0.1118211202 -0.1066972076
695.625 0.1059521747 0.01700935452
696.25 0.04680556548 0.08493650763
696.875 -0.06172525572 0.1057077889
697.5 -0.1349038697 0.03016834473
698.125 -0.1373496495 -0.0128363796
698.75 -0.141991301 -0.003483004843
699.375 -0.1326477036 -0.01058450669
700.0 -0.1069081372 -0.02708323425
700.625 -0.0988135078 -0.05241355564
701.25 -0.09893662486 -0.08688055739
701.875 -0.06437049351 -0.06801616119
702.5 -0.05889451997 -0.04367192083
703.125 -0.1038504127 -0.002692017738
703.75 -0.1415340886 0.1144332214
704.375 -0.08789471303 0.1411146349
705.0 -0.03694524289 0.1137557105
705.625 -0.06207240204 0.1059037686
706.25 -0.1638441608 0.0370412782
706.875 -0.1009473111 -0.1159148495
707.5 -0.03421268189 -0.09735337188
708.125 0.006697791512 -0.09234300375
708.75 0.07626776391 -0.05762486451
709.375 0.0926384331 0.03187069738
710.0 0.051317343 0.06704444347
710.625 0.03268971837 0.07754032736
711.25 -0.005447375914 0.08540911873
711.875 -0.01346217822 0.09932061308
712.5 0.0322191671 0.1282920987
713.125 0.1360433351 0.08517774363
713.75 0.1341877412 -0.05161076976
714.375 0.05456117806 -0.1140790729
715.0 0.0002546451304 -0.1385126746
715.625 0.04646458454 -0.1277712647
716.25 0.06618984683 -0.05347725632
716.875 0.06255284991 -0.007029173959
717.5 0.07613555062 0.04107391913
718.125 0.05920160467 0.0960229232
718.75 0.0149546334 0.0890477316
719.375 -0.003713012372 0.0691542664
720.0 -0.05279683434 0.06328164548
720.625 -0.1063365363 -0.01408554692
721.25 -0.03519578243 -0.1098473555
721.875 0.03990460488 -0.1027907193
722.5 0.05447963876 -0.09793051272
723.125 0.01423268634 -0.09365914907
723.75 -0.02167114378 -0.06646776172
724.375 -0.04625539439 -0.04331629538
725.0 -0.05598818472 -0.01427804156
725.625 -0.04538816252 0.00301331446
726.25 -0.05213113293 -0.004439968862
726.875 -0.07037881711 -0.03136048933
727.5 -0.06736550052 -0.06279714396
728.125 -0.04801725351 -0.06221703663
728.75 -0.04332484606 -0.04734201294
729.375 -0.04211182035 -0.03953661803
730.0 -0.03718671819 -0.04131034946
730.625 -0.02493446579 -0.0389372206
731.25 -0.01019321908 -0.03132968749
731.875 0.01329490721 -0.02344965763
732.5 0.01761259811 0.002838747021
733.125 0.008000363864 0.02862031445
733.75 0.01714250632 0.0322616671
734.375 0.03305961978 0.0284539989
735.0 0.03763058721 0.004423373355
735.625 0.03211967907 -0.008501746668
736.25 0.01791075544 -0.0216025558
736.875 -0.002061873867 -0.02530433942
737.5 -0.02538207987 -0.01121126975
738.125 -0.03590126826 0.01148439552
738.75 -0.03889575435 0.02493150956
739.375 -0.01877989027 0.02990458226
740.0 -0.00815076585 0.01319239598
740.625 -0.0174230475 0.0123244809
741.25 -0.02763338795 0.01558166464
741.875 -0.030923291 -0.00206238542
742.5 -0.007844613738 -0.02756986373
743.125 0.02509238446 -0.01621388868
743.75 0.02958567828 0.004595908118
744.375 0.02902850482 0.005756326985
745.0 0.02795454054 0.01005603153
745.625 0.02379011143 0.01887554428
746.25 0.04731485036 0.02595121772
746.875 0.06675312032 -0.01868632359
747.5 0.04192643961 -0.055122732
748.125 0.01153009268 -0.06015455983
748.75 -0.01913054755 -0.04707601652
749.375 -0.05275612366 -0.02901032705
750.0 -0.06351550074 0.03971373113
