!Created with skrf (http://scikit-rf.org).
# GHz S RI R 50.0 
!freq ReS11 ImS11
500.0 -0.01550636921 0.02148713289
500.625 0.02218714179 0.02262229017
501.25 0.03301714759 0.00765942458
501.875 0.02913970938 0.01096233824
502.5 0.01308246452 0.02888770691
503.125 0.03141303547 0.02051207725
503.75 0.04380682368 -0.002874507464
504.375 0.04148056744 -0.01720612976
505.0 0.03241484917 -0.03388913524
505.625 0.03657484033 -0.06291048763
506.25 0.02143318257 -0.07409667089
506.875 0.0499598685 -0.07806044811
507.5 0.02045938443 -0.07063046384
508.125 0.05870701063 -0.07177489151
508.75 0.01136195109 -0.09314197193
509.375 -0.007748760965 -0.07129836355
510.0 0.02092294557 -0.071137763
510.625 -0.05082235068 -0.05339278965
511.25 -0.06836385033 -0.04199331187
511.875 -0.06367197618 0.01123374898
512.5 -0.03351961114 0.03777910136
513.125 0.009808054443 0.06232476767
513.75 0.02507646315 0.065835732
514.375 0.03949547796 0.04963007351
515.0 0.07633755011 0.04209036949
515.625 0.0387084547 0.1161643164
516.25 0.08804164619 0.0786970061
516.875 0.02754494089 0.1346859751
517.5 0.1282620552 0.08277166246
518.125 0.01872131165 0.2144729369
518.75 0.08542168943 0.04188148043
519.375 0.07155008814 0.04777768175
520.0 0.117589978 0.01901631373
520.625 0.112965356 0.01150809322
521.25 0.09525684332 -0.02251767893
521.875 0.07648406809 0.007230555686
522.5 0.1004710222 -0.05215490825
523.125 0.1698978838 -0.09814436323
523.75 0.138244647 -0.1874269564
524.375 0.1522056649 -0.1668768272
525.0 0.06390377885 -0.0523168176
525.625 0.0432018702 -0.02315777818
526.25 0.05528636522 -0.0109088401
526.875 0.0596705251 -0.02740615063
527.5 0.04918515519 -0.03488174883
528.125 0.02141649867 -0.04787931012
528.75 0.01139257834 -0.07369361184
529.375 -0.05084820541 -0.09064892614
530.0 -0.05413255343 -0.0347549555
530.625 -0.0419829524 -0.009323218669
531.25 -0.1012568184 -0.05293095128
531.875 -0.1699420391 -0.05646128342
532.5 -0.1568974223 0.01643094562
533.125 -0.1057982688 0.03585286799
533.75 -0.1015151022 0.06718919923
534.375 -0.1158993933 0.0443284087
535.0 -0.08508385463 0.0664320903
535.625 -0.06872286733 0.03486151515
536.25 -0.04199568422 0.05642555425
536.875 -0.08101048272 0.02114768004
537.5 -0.09615268995 -0.01230062455
538.125 -0.09670380353 0.03291571415
538.75 -0.1072507764 0.06467464972
539.375 -0.09152761081 0.03076212579
540.0 -0.08950582021 0.02110862794
540.625 -0.1111937661 0.02499712262
541.25 -0.1315587454 0.006178313517
541.875 -0.09852490065 -0.008517940394
542.5 -0.09096915562 -0.0140806617
543.125 -0.1203461409 0.03932303745
543.75 -0.08723119113 0.119829471
544.375 -0.03960731803 0.1177132752
545.0 0.0580545642 0.08038871091
545.625 0.09915213608 0.06505804159
546.25 0.1065851452 0.03745872551
546.875 0.1043163851 0.02378105414
547.5 0.1195164645 0.02870296724
548.125 0.1381234272 0.06646192235
548.75 0.09055519146 0.08683674519
549.375 0.0945902923 0.08594975549
550.0 0.06424675505 0.1220927655
550.625 0.03115253791 0.1008646513
551.25 -0.01208665965 0.05556366363
551.875 -0.00968068549 0.04062250738
552.5 -0.01832971701 0.06862561318
553.125 -0.03903058474 0.06921396406
553.75 -0.04173461619 0.04679849705
554.375 -0.0283810288 0.06626281192
555.0 -0.01418620646 0.1012172852
555.625 -0.01071040335 0.1048373617
556.25 -0.0273786909 0.08084842572
556.875 -0.02712200643 0.09562320623
557.5 -0.03682827828 0.1144677491
558.125 -0.04035911281 0.116865647
558.75 -0.05703536953 0.08843959873
559.375 -0.03034731209 0.1004724537
560.0 -0.03135354449 0.07852762637
560.625 -0.01286240047 0.05340622934
561.25 -0.01830147793 0.04729264498
561.875 -0.02677126132 0.06685512724
562.5 -0.01624372537 0.08164751994
563.125 0.01228102262 0.07882784209
563.75 0.05170144725 0.08083530718
564.375 0.08362857337 0.09920407787
565.0 0.07133936187 0.09995479779
565.625 0.0773207055 0.06819393741
566.25 0.06456146411 0.07449607682
566.875 0.0320124981 0.102508927
567.5 -0.01190732795 0.09095322928
568.125 -0.01412327229 0.095222971
568.75 -0.02305076498 0.1058940839
569.375 -0.02548144544 0.08226358449
570.0 -0.02592616343 0.05375326353
570.625 -0.01807583717 0.05209267376
571.25 -0.02945958355 0.06538859858
571.875 -0.02471905597 0.04231713533
572.5 -0.02222040264 0.04880795977
573.125 -0.01214236656 0.08540249461
573.75 0.03682575003 0.1157450879
574.375 0.05054088679 0.07832024825
575.0 0.05388041601 0.05199728362
575.625 0.06544854443 0.06057380437
576.25 0.06113878776 0.08656561341
576.875 0.06433525477 0.07048081193
577.5 0.07704483016 0.04970028699
578.125 0.09247128817 0.05267921583
578.75 0.07338824887 0.06803616522
579.375 0.06647668815 0.04668761664
580.0 0.07390967957 0.03317565581
580.625 0.07116915552 0.02932574167
581.25 0.03789453021 0.03154086321
581.875 0.01241464567 0.03994814221
582.5 0.02623645067 0.06336091957
583.125 0.03221970617 0.08819494944
583.75 0.02823159838 0.07573155554
584.375 0.01373258528 0.06799832877
585.0 2.381754145e-05 0.08197876322
585.625 -0.005626845459 0.09639218709
586.25 0.006404521734 0.07537757064
586.875 0.0118699425 0.0660791666
587.5 0.01527533755 0.08321875769
588.125 0.04679033648 0.07620094454
588.75 0.05969681209 0.05099705598
589.375 0.07023579669 0.01363130112
590.0 0.05847395889 0.01467662744
590.625 0.03229025593 0.02634801835
591.25 0.03340432498 0.04085462501
591.875 0.06082031773 0.04467057982
592.5 0.08867207378 0.04417942563
593.125 0.0780393991 0.03763750829
593.75 0.0681176019 0.03525721316
594.375 0.06709233302 0.05786431739
595.0 0.04337808843 0.07850169842
595.625 0.02004152577 0.06868305391
596.25 0.003446629402 0.05591972634
596.875 -0.01309814782 0.06264377463
597.5 -0.02626245425 0.05972011527
598.125 -0.008560871317 0.059481457
598.75 0.009577295615 0.04836488815
599.375 0.007888559435 0.03383938567
600.0 -0.006512204065 0.01379826592
600.625 -0.01976325635 0.004509176346
601.25 -0.04033156229 0.01191088301
601.875 -0.05146592494 0.02392392597
602.5 -0.05065541559 0.02833418241
603.125 -0.04686975832 0.03400527302
603.75 -0.04561760572 0.04282681002
604.375 -0.03940052461 0.03460497226
605.0 -0.03279459262 0.01466023682
605.625 -0.04053653179 0.002075350063
606.25 -0.05600990151 0.001255526113
606.875 -0.05763585995 0.009811782831
607.5 -0.03552374664 0.02517613589
608.125 -0.01530638601 0.02365290346
608.75 -0.01196682165 0.01620923509
609.375 -0.009296570414 0.01055319115
610.0 -0.00102717555 0.002701889406
610.625 0.006475092742 -0.007526854586
611.25 0.009385868388 -0.01749587671
611.875 0.009594796065 -0.02673287366
612.5 0.004387789143 -0.03011514522
613.125 -0.006865749543 -0.02814722158
613.75 -0.00979612192 -0.007989413872
614.375 0.0006876398189 0.0006884995856
615.0 0.009605076827 -0.003055237895
615.625 0.005753127258 -0.01062068395
616.25 -0.002192567669 0.003126044839
616.875 0.007090299898 0.01720602645
617.5 0.0204466832 0.01912420182
618.125 0.02303664534 0.0113635279
618.75 0.02089810663 0.01755798032
619.375 0.02796098591 0.02654291239
620.0 0.04082832672 0.02550353121
620.625 0.04476676751 -0.00368120609
621.25 0.03367020837 -0.01027521259
621.875 0.01491440591 -0.01603631179
622.5 -0.01486643394 0.00108921845
623.125 -0.01267251811 0.02614569146
623.75 0.001068307297 0.0469009345
624.375 -0.003547967981 0.05383474698
625.0 -0.0213972049 0.04929635784
625.625 -0.01900105113 0.0590239181
626.25 -0.003030486294 0.08247378266
626.875 0.005876426978 0.08720801923
627.5 0.003010720337 0.07097973705
628.125 -0.004290085186 0.06372564367
628.75 -0.01616649075 0.06711332364
629.375 -0.02568480186 0.05939559171
630.0 -0.01585491003 0.0448111387
630.625 -0.01882697947 0.03057429644
631.25 -0.03258389572 0.01169377089
631.875 -0.04145221213 -0.008708672056
632.5 -0.04519590583 -0.013001786
633.125 -0.05991667359 -0.01452044669
633.75 -0.07038763443 -0.01139184055
634.375 -0.07398403699 -0.01416741815
635.0 -0.08132810365 -0.001284326063
635.625 -0.091015914 0.02504368453
636.25 -0.08194611238 0.02127474656
636.875 -0.06481618335 0.004472655674
637.5 -0.07930739292 -0.002037704737
638.125 -0.1054722022 0.002780397626
638.75 -0.08927485908 0.003983124215
639.375 -0.05675338214 -0.007573661088
640.0 -0.03749100496 -0.0366826262
640.625 -0.01914709111 -0.07751085731
641.25 -0.004292963321 -0.07525281351
641.875 -0.007016552799 -0.06639527936
642.5 -0.001186734007 -0.0771288838
643.125 0.03323101331 -0.08964042251
643.75 0.04741332502 -0.07707251306
644.375 0.01730518138 -0.08176064393
645.0 -0.0006283713737 -0.09560330643
645.625 0.01715456413 -0.08180084607
646.25 0.02812254342 -0.06418421331
646.875 0.03413163993 -0.06244265751
647.5 0.03261631486 -0.091093537
648.125 0.03786138399 -0.0697707384
648.75 0.05044576595 -0.04183916087
649.375 0.0733230725 -0.02434818605
650.0 0.1049533592 -0.01441926447
650.625 0.1007604682 0.008290793017
651.25 0.09350750947 0.02350795984
651.875 0.09147359493 0.06301220913
652.5 0.06015438451 0.1056907034
653.125 0.04446524396 0.09577915826
653.75 0.0387536582 0.08754880684
654.375 0.00887888458 0.09168232423
655.0 -0.03915889968 0.05877639675
655.625 -0.0400567779 0.03618895648
656.25 -0.03901704967 0.05614198368
656.875 -0.04217358461 0.08999019066
657.5 -0.06859030217 0.06694530665
658.125 -0.07488287461 0.0541876684
658.75 -0.06556484574 0.09222117001
659.375 -0.04291835024 0.1393275914
660.0 -0.002882585046 0.127483403
660.625 0.02653574716 0.1102649069
661.25 0.05393844218 0.1064240584
661.875 0.06793983397 0.09932668273
662.5 0.06729284723 0.06392128771
663.125 0.0549728634 0.06284665404
663.75 0.008905628516 0.09424888416
664.375 -0.0625306407 0.05774863806
665.0 -0.07466973649 0.01721145133
665.625 -0.08796341751 -0.004754320863
666.25 -0.1137746809 -0.05933994578
666.875 -0.07177215608 -0.09834756778
667.5 -0.06855764883 -0.09322445507
668.125 -0.0929283643 -0.08827007915
668.75 -0.09739508893 -0.09848873036
669.375 -0.05589940365 -0.07863012991
670.0 -0.03809856432 -0.06820633098
670.625 -0.0536321877 -0.08903761072
671.25 -0.06617688006 -0.09043549655
671.875 -0.05978972796 -0.0649065648
672.5 -0.06993396315 -0.04690489128
673.125 -0.1068500697 -0.04093924267
673.75 -0.1184728128 -0.04975340399
674.375 -0.1096369779 -0.05375537748
675.0 -0.09191095258 -0.08789441541
675.625 -0.04472267721 -0.1185976076
676.25 -0.002290137506 -0.1133778131
676.875 -0.0007170049893 -0.1098930123
677.5 -0.0006594268463 -0.1227998637
678.125 0.03744057928 -0.08265230054
678.75 0.04062133979 -0.0425341814
679.375 0.05766630454 -0.03696680286
680.0 0.0839044748 -0.07305809405
680.625 0.1086390528 -0.07050679204
681.25 0.0695536542 -0.08136485428
681.875 0.03358377964 -0.1133413112
682.5 -0.02433040172 -0.1592349009
683.125 -0.01924308154 -0.1605795626
683.75 0.004567456189 -0.1249911883
684.375 0.05071047308 -0.105331888
685.0 0.1250968303 -0.04861905507
685.625 0.1130924899 0.03314062565
686.25 0.07202683566 0.06537083683
686.875 0.02978579588 0.0756385655
687.5 -0.02522294126 0.07929158077
688.125 -0.05091642297 0.07512106813
688.75 -0.06954527563 0.0949382703
689.375 -0.1043053011 0.1084803484
690.0 -0.1030326462 0.07913215754
690.625 -0.08348244221 0.09007581347
691.25 -0.0374674039 0.1436888949
691.875 0.03715633783 0.1859262821
692.5 0.09065656676 0.08582811692
693.125 0.08602249209 -0.01865592888
693.75 0.0782716282 -0.05837397147
694.375 0.1262515901 -0.06449965924
695.0 0.1187496124 0.02224297299
695.625 0.06413631688 0.07566126671
696.25 -0.03322017624 0.1100759503
696.875 -0.1338863046 0.03397567215
697.5 -0.1237316596 -0.06756405088
698.125 -0.1036881736 -0.08617285082
698.75 -0.1016158796 -0.08352896249
699.375 -0.07740423684 -0.07581664728
700.0 -0.05849607378 -0.08003272032
700.625 -0.03177035603 -0.1039154669
701.25 0.01534661964 -0.09873616413
701.875 0.01250493676 -0.07335471897
702.5 -0.01582829202 -0.08782359717
703.125 -0.1114297295 -0.09756784722
703.75 -0.1833254181 -0.02841505402
704.375 -0.1162291392 0.06233972756
705.0 -0.08155869442 0.07295049582
705.625 -0.1286831103 0.04397950215
706.25 -0.1205040625 -0.0929010108
706.875 -0.006679190518 -0.1029721001
707.5 0.02351457008 -0.07592242804
708.125 0.06997760639 -0.03940082109
708.75 0.08394891056 0.04028261403
709.375 0.03019055168 0.08743523764
710.0 -0.009398933842 0.08670558022
710.625 -0.04188863276 0.08035034142
711.25 -0.0724511805 0.06380964274
711.875 -0.08544435698 0.08508765452
712.5 -0.05263168401 0.1367060526
713.125 0.05612952603 0.1297577299
713.75 0.1151182042 0.01574064536
714.375 0.09699372004 -0.05511262815
715.0 0.09244871231 -0.07957362668
715.625 0.08422454698 -0.02534435465
716.25 0.05666269854 0.01287151809
716.875 0.04657211536 0.04909946086
717.5 0.005402975555 0.1070016703
718.125 -0.03985718408 0.09848472896
718.75 -0.04274507191 0.07050382251
719.375 -0.05444033928 0.05672631695
720.0 -0.09863357784 0.01065026477
720.625 -0.07243209089 -0.08282497129
721.25 0.02359158716 -0.1004789938
721.875 0.07598983541 -0.06108371857
722.5 0.07852069759 -0.02954695779
723.125 0.04986285175 -0.03529663536
723.75 0.03860807647 -0.03792538872
724.375 0.0147914576 -0.06116899543
725.0 -0.01726920562 -0.05484702996
725.625 -0.03513567231 -0.04018744914
726.25 -0.0475467849 -0.04970214608
726.875 -0.04095371764 -0.07741633728
727.5 -0.02115478778 -0.07797141025
728.125 -0.003699744341 -0.06591468448
728.75 -0.0005203400674 -0.05348002909
729.375 0.005434352322 -0.05102886335
730.0 0.001091762001 -0.0466778661
730.625 0.004130961477 -0.03522580761
731.25 0.0151413776 -0.02037698096
731.875 0.02087025711 0.003243059888
732.5 0.003750857722 0.02399612347
733.125 -0.01175682301 0.03373529544
733.75 -0.001141182236 0.04306941383
734.375 0.01459053023 0.03645248498
735.0 0.02455788464 0.0150856733
735.625 0.02481092857 0.007751494958
736.25 0.0137169425 -0.01290940748
736.875 -0.009278687526 -0.01922119525
737.5 -0.03308867125 -0.01027203663
738.125 -0.04674124526 0.00718949699
738.75 -0.04128261568 0.01678603843
739.375 -0.01877667529 0.01677846979
740.0 -0.008315525069 -0.001834605477
740.625 -0.02342240603 -0.008531122679
741.25 -0.02684656175 0.0009779205778
741.875 -0.01597956419 -0.01817279402
742.5 0.01547692005 -0.01684091875
743.125 0.02223073283 0.01321694662
743.75 0.01177382471 0.01996605749
744.375 0.005817902145 0.02966047369
745.0 -0.002575633438 0.03788413536
745.625 0.001338066377 0.05555421642
746.25 0.03764591735 0.05643047488
746.875 0.07712113725 0.01666330439
747.5 0.06136761263 -0.02397887883
748.125 0.03354639321 -0.03536211569
748.75 0.01388690567 -0.03870202634
749.375 -0.01478834839 -0.04680448405
750.0 -0.05768031813 -0.01214526087
