!Created with skrf (http://scikit-rf.org).
# GHz S RI R 50.0 
!freq ReS11 ImS11
500.0 -0.008075906403 0.01256084695
500.625 0.01544853248 0.009035401909
501.25 -0.01292591875 -0.01973824232
501.875 -0.0004513435558 -0.02229670954
502.5 0.001363122876 0.003023464854
503.125 -0.001119703614 0.01250059221
503.75 0.008735635806 -0.002991364854
504.375 -0.0006310549292 -0.001131123901
505.0 0.009562604821 -0.02634625667
505.625 0.007198482569 -0.01708309898
506.25 -0.01787196993 -0.01897068322
506.875 -0.03223688807 -0.04487485099
507.5 -0.02270135727 -0.06284098889
508.125 -0.01855261204 -0.04604546554
508.75 -0.05477357429 -0.06996479692
509.375 -0.05299936588 -0.04027233452
510.0 -0.03215535242 -0.04751749165
510.625 -0.03316016319 -0.00318971331
511.25 -0.06893274087 0.006661295434
511.875 -0.02603517466 0.04016129559
512.5 -0.004119666188 0.04815401521
513.125 0.05050016471 0.01974336206
513.75 0.07514498902 0.03096893671
514.375 0.05970244421 0.004404448273
515.0 0.03545982001 -0.02149365154
515.625 0.04950172337 0.001659569013
516.25 0.0855933617 0.0002949983873
516.875 0.0679055611 0.08861328661
517.5 0.1258440223 0.004886039036
518.125 0.1422251085 0.08997025435
518.75 0.07747682398 -0.036679624
519.375 0.07786210179 -0.003505976883
520.0 0.0621796977 -0.03645962986
520.625 0.07129599151 -0.05581697525
521.25 0.04093689561 -0.06643516172
521.875 0.06109786525 -0.03107654479
522.5 0.04033147562 -0.08339695588
523.125 0.05850770135 -0.1655301853
523.75 0.06733317862 -0.2648768652
524.375 0.05791027713 -0.2607754708
525.0 0.007852058264 -0.1078095544
525.625 0.02042905664 -0.07937629053
526.25 0.02257518687 -0.0527821505
526.875 0.01623062662 -0.07110424717
527.5 -0.01108869983 -0.06297656351
528.125 -0.02766074134 -0.04417292921
528.75 -0.03987132903 -0.04003225858
529.375 -0.116775837 -0.01973840798
530.0 -0.07485619628 0.04813057598
530.625 -0.0257148774 0.05554681216
531.25 -0.04093479182 0.03543686622
531.875 -0.1053930381 0.0874234605
532.5 -0.09929413005 0.1101516018
533.125 -0.05372002425 0.08217141392
533.75 -0.01606592674 0.06925323389
534.375 -0.03083033972 0.1191506247
535.0 -0.02428636003 0.1020620407
535.625 -0.02716420368 0.06822000994
536.25 0.02428534389 0.06217691751
536.875 -0.003829185935 0.08928701145
537.5 -0.05223551463 0.04830268633
538.125 -0.04767845918 0.07105866048
538.75 -0.02273114058 0.1036806984
539.375 -0.05206982071 0.1168041888
540.0 -0.03238295615 0.07170898808
540.625 -0.03825156895 0.0817454629
541.25 -0.05311725672 0.09739446098
541.875 -0.07028313578 0.07971749933
542.5 -0.04697090249 0.02299579276
543.125 -0.05129147003 0.06754402185
543.75 -0.000935506307 0.1228068195
544.375 0.03830046573 0.1367550835
545.0 0.08645851887 0.0387709196
545.625 0.09147629131 -0.0157627579
546.25 0.1038371876 -0.0541317174
546.875 0.1042538238 -0.0524694204
547.5 0.1004683904 -0.03890929045
548.125 0.1433162502 -0.04806374714
548.75 0.1486102628 0.01371979201
549.375 0.1440610236 0.02591964979
550.0 0.1197273914 0.06063688964
550.625 0.1226118252 0.07313002085
551.25 0.05803054834 0.08204290216
551.875 0.04949386671 0.04764900803
552.5 0.05137756759 0.03496146372
553.125 0.06470485737 0.05577040555
553.75 0.01455626229 0.04704942751
554.375 0.02596540741 0.04285813048
555.0 0.03668782651 0.05179778942
555.625 0.05167121097 0.05416130343
556.25 0.04009240487 0.07595040197
556.875 0.0318028333 0.06486436941
557.5 0.0490323429 0.08894046059
558.125 0.03204666801 0.1113398025
558.75 -0.003282628467 0.1067820553
559.375 0.03496504423 0.1040301443
560.0 0.03740770479 0.09880297418
560.625 0.03801636869 0.05785107326
561.25 0.03290426848 0.03213615075
561.875 0.05135001387 0.04318095518
562.5 0.05941438693 0.04597584154
563.125 0.04664207748 0.04266317454
563.75 0.05395769831 0.03054818471
564.375 0.1058648194 -0.001038087157
565.0 0.117740548 0.04360690338
565.625 0.09691278669 0.02170959016
566.25 0.08004328287 0.02253977093
566.875 0.1041023576 0.03318880966
567.5 0.0780164714 0.08607891774
568.125 0.03216652747 0.07847418965
568.75 0.05370192458 0.1005374979
569.375 0.0431889702 0.100893747
570.0 0.04337848804 0.08942173487
570.625 0.02497543372 0.04529837574
571.25 0.04994109115 0.0563830902
571.875 0.04390162314 0.05622089651
572.5 0.03575219263 0.02880848353
573.125 0.02157551535 0.03793442387
573.75 0.08527141032 0.03597467814
574.375 0.1061207637 0.02091938102
575.0 0.07233798792 0.003375215383
575.625 0.05392712355 0.007342723884
576.25 0.0839331929 0.02220051682
576.875 0.09769522244 0.009773178932
577.5 0.08341369313 0.009676077343
578.125 0.09050777449 0.0001984572132
578.75 0.1160202056 -0.009867119815
579.375 0.1056237253 -0.0004968053913
580.0 0.09328259675 -0.01912620056
580.625 0.08596671211 -0.02714038702
581.25 0.08099758715 -0.04308129923
581.875 0.04359046142 0.003564759051
582.5 0.04719370128 0.005786875358
583.125 0.07332400575 0.03338651616
583.75 0.07569056316 0.03711016681
584.375 0.04837016261 0.04240127463
585.0 0.05203853865 0.03909530746
585.625 0.06051783785 0.06489716643
586.25 0.06198488437 0.05975766155
586.875 0.04876519082 0.04090854943
587.5 0.07026872567 0.02924467802
588.125 0.08829644373 0.03297849951
588.75 0.09128040075 0.01756963102
589.375 0.07524191939 -0.02270131145
590.0 0.05273317046 -0.07074685455
590.625 0.04698485698 -0.01855230936
591.25 0.0369474818 0.003844624583
591.875 0.05240331831 0.01089896435
592.5 0.07024151578 -0.02895889013
593.125 0.09673014706 -0.00171059168
593.75 0.08138563844 0.0008116307213
594.375 0.08175345111 0.02833695942
595.0 0.09012072538 0.02756029299
595.625 0.05725103155 0.06600603512
596.25 0.03274060701 0.06162688134
596.875 0.02413617934 0.06072171476
597.5 0.03309502878 0.07183168984
598.125 0.02154443 0.07228470717
598.75 0.05642857651 0.04490399307
599.375 0.04221885855 0.04538466435
600.0 0.04208087354 0.02247837686
600.625 0.005696479784 0.0188637221
601.25 -0.005890896979 0.02411155632
601.875 -0.03509750158 0.05101115768
602.5 -0.01341118195 0.04216239921
603.125 -0.03782095028 0.05150550955
603.75 -0.04755919187 0.06837732184
604.375 -0.005619510132 0.05775608576
605.0 -0.01935231608 0.04139640567
605.625 -0.02279100969 0.02397267829
606.25 -0.05860189529 0.02586233376
606.875 -0.05260144813 0.04041410575
607.5 -0.05946344186 0.03634483706
608.125 -0.004081547687 0.04296671366
608.75 -0.04592586599 0.03326258211
609.375 -0.008965837745 0.03072395615
610.0 -0.008297216674 0.02181157585
610.625 0.004034014964 0.009878700322
611.25 -0.01523573551 -0.01907949707
611.875 -0.001584598854 -0.01901100712
612.5 -0.02193636873 -0.05240383268
613.125 -0.01906430469 -0.02430525051
613.75 -0.03441237094 -0.04671427402
614.375 -0.0133462663 -0.04544131981
615.0 -0.01023533241 -0.03609617125
615.625 -0.002927082201 -0.01822410885
616.25 -0.007498093283 -0.01294524083
616.875 -0.01013544635 -0.03946575172
617.5 -0.002915365258 -0.03839081306
618.125 0.02285025544 -0.004053597577
618.75 0.02118259593 -0.01991119008
619.375 0.02806953622 -0.03803954118
620.0 0.03872417225 -0.0435890126
620.625 0.05268540028 -0.02550261155
621.25 0.03559838321 -0.06010237562
621.875 0.02330908062 -0.07585480323
622.5 -0.04413124479 -0.07046537128
623.125 -0.01248938035 -0.005302248841
623.75 -0.005039845202 -0.002479971142
624.375 0.005207846063 -0.02947521777
625.0 0.01489623674 0.02831919904
625.625 0.01076235282 0.03431815058
626.25 0.03164116126 0.05127714579
626.875 0.04979266628 0.03506422225
627.5 0.04799437516 0.0636974453
628.125 0.04958893697 0.03160551636
628.75 0.0395738087 0.06352338492
629.375 0.0432051152 0.05720718064
630.0 0.04798666135 0.05177544005
630.625 0.03812553319 0.04780878886
631.25 0.01594558309 0.05270238856
631.875 0.0150344341 0.04022639282
632.5 -0.01832470214 0.03591204995
633.125 -0.001201068798 0.02391478993
633.75 -0.02181108712 0.04716119533
634.375 -0.01266744367 0.03742484604
635.0 0.00761202649 0.04741697359
635.625 -0.02701035014 0.06368049346
636.25 -0.03300083289 0.08448703557
636.875 -0.01850649697 0.05834113495
637.5 -0.01845017777 0.03806589584
638.125 -0.04094568989 0.05900816062
638.75 -0.05387598923 0.07556311625
639.375 -0.06603258211 0.05707212657
640.0 -0.03933223144 0.03033937488
640.625 -0.04736691228 0.02321870567
641.25 -0.05793227772 0.01245834776
641.875 -0.05585521993 -0.03072320637
642.5 -0.04972924484 -0.01226398258
643.125 -0.06399265701 -0.05578692671
643.75 -0.04164791326 -0.06424484213
644.375 -0.0451765167 -0.05986328655
645.0 -0.06296702253 -0.03991103719
645.625 -0.08198269779 -0.02927356389
646.25 -0.05754913247 -0.02778015141
646.875 -0.03681998266 -0.0635873101
647.5 -0.04694474717 -0.04741190274
648.125 -0.06315255479 -0.03012419261
648.75 -0.03902760948 -0.04691243838
649.375 0.004381822659 -0.05666569691
650.0 0.02449994372 -0.06263669633
650.625 0.03228574196 -0.0519693147
651.25 0.0708771844 -0.04016124606
651.875 0.08822428316 -0.02011383452
652.5 0.106596673 0.01129951605
653.125 0.1012523059 0.0334530511
653.75 0.1007045714 0.03362184256
654.375 0.09950568767 0.04838608218
655.0 0.07241321832 0.05793071306
655.625 0.05338769003 0.02764484312
656.25 0.03226276352 0.03998418819
656.875 0.0640157737 0.05032710539
657.5 0.04430261342 0.06717774919
658.125 0.006135824638 0.06246618984
658.75 0.005909485765 0.06693350728
659.375 0.05107743208 0.083487916
660.0 0.09867007327 0.08755085263
660.625 0.08885852123 0.05946233338
661.25 0.0917699565 0.02105206114
661.875 0.1011076463 -0.01273634795
662.5 0.1180629995 -0.02159951788
663.125 0.08351850176 -0.02045635343
663.75 0.09760300977 0.02152520333
664.375 0.03911894967 0.08295029483
665.0 -0.01876259546 0.08120703695
665.625 -0.01315550261 0.03801629361
666.25 -0.04729957138 0.04113575428
666.875 -0.1211771024 0.02298243303
667.5 -0.1015713011 -0.01971626342
668.125 -0.07648190039 -0.0006413335785
668.75 -0.1020143832 0.02552265248
669.375 -0.1434899816 0.01262009524
670.0 -0.09497634696 -0.01481363894
670.625 -0.06493759762 -0.002367929878
671.25 -0.1213405134 0.02818300481
671.875 -0.1076236019 0.03598591045
672.5 -0.06286648497 0.03953630061
673.125 -0.04764196396 0.03158235567
673.75 -0.07234742169 0.04133853183
674.375 -0.1132000267 0.05083717175
675.0 -0.1066939025 0.00966783372
675.625 -0.0862030375 -0.02168981074
676.25 -0.07922930619 -0.071579757
676.875 -0.08907669288 -0.0913251816
677.5 -0.09952972432 -0.07069359329
678.125 -0.08747812972 -0.05988787924
678.75 -0.0492860404 -0.0845049134
679.375 -0.01303161102 -0.05606884617
680.0 -0.02358332913 -0.06012439876
680.625 -0.02738682288 -0.09634633661
681.25 -0.01314895062 -0.07776443657
681.875 -0.02160743884 -0.07334263889
682.5 -0.1009820809 -0.06198083918
683.125 -0.1448683108 -0.07450500258
683.75 -0.08383800421 -0.08825699974
684.375 -0.03974502717 -0.1185846469
685.0 0.04107760143 -0.1185228784
685.625 0.1179112316 -0.08599273661
686.25 0.1198866562 -0.0257463432
686.875 0.1100778484 -0.004211274554
687.5 0.08077242401 0.04022978851
688.125 0.04478146521 0.05984061563
688.75 0.01828094784 0.07005966143
689.375 0.03031571929 0.09915522984
690.0 -0.01126412374 0.1118771489
690.625 0.003806231719 0.1179009022
691.25 0.0411898958 0.108797459
691.875 0.1118615742 0.0758213623
692.5 0.1575911003 -0.01355167344
693.125 0.07021058866 -0.1175462583
693.75 -0.01376171193 -0.09615709755
694.375 -0.007697263397 -0.103567319
695.0 0.06238901651 -0.126031482
695.625 0.08724979372 0.003298437726
696.25 0.06041407188 0.06152904809
696.875 -0.02998995895 0.1014942657
697.5 -0.104153689 0.02589862782
698.125 -0.122932376 0.01073471591
698.75 -0.135553613 0.03446689381
699.375 -0.1246711328 0.009796227243
700.0 -0.1068069057 -0.002958181261
700.625 -0.1006051455 -0.0309399366
701.25 -0.1179621424 -0.04962951113
701.875 -0.0729936467 -0.05026954189
702.5 -0.05167582047 -0.03067524783
703.125 -0.08489845178 -0.01353259795
703.75 -0.08453097659 0.1377389679
704.375 -0.05658382202 0.1596376137
705.0 -0.0320921148 0.09928211029
705.625 -0.04019776316 0.1041997912
706.25 -0.142153223 0.0590163238
706.875 -0.1131898597 -0.09833549278
707.5 -0.04012168562 -0.09180794229
708.125 0.001681139119 -0.08312743504
708.75 0.06362510972 -0.05672676729
709.375 0.09112112118 0.009263380814
710.0 0.05409470484 0.05908236488
710.625 0.01010514971 0.06978341741
711.25 -0.007389318823 0.08035256842
711.875 -0.001910964743 0.09431375329
712.5 0.03254145024 0.1211853778
713.125 0.14193379 0.06888973013
713.75 0.1320833064 -0.0410014235
714.375 0.02897859287 -0.1274537671
715.0 -0.01340477167 -0.132926092
715.625 0.05839434794 -0.09742851578
716.25 0.05747259515 -0.07806125275
716.875 0.06185064579 -0.02019253876
717.5 0.07550621952 0.03508393592
718.125 0.05898563875 0.09791749052
718.75 -0.008799553124 0.09025323673
719.375 -0.01763603429 0.07147993299
720.0 -0.03090118361 0.070239738
720.625 -0.1039406317 0.004875821066
721.25 -0.0024347299 -0.1211905643
721.875 0.04594844139 -0.1099702872
722.5 0.06643032784 -0.1006617695
723.125 0.03211316697 -0.09768440607
723.75 0.009732916545 -0.07465766056
724.375 -0.02571099714 -0.07874522109
725.0 -0.0588583756 0.009239259399
725.625 -0.04749589273 0.008773962413
726.25 -0.07714751858 -0.02404367748
726.875 -0.07138742065 -0.01472407432
727.5 -0.07999908231 -0.05807918096
728.125 -0.04188030559 -0.0822338546
728.75 -0.03655409449 -0.08400451423
729.375 -0.03297582074 -0.09650181674
730.0 -0.01537799623 -0.1009460737
730.625 -0.03483661509 -0.03729253724
731.25 -0.006070783009 -0.04420479176
731.875 0.08719670913 -0.01313451125
732.5 0.02252873967 -0.002747732436
733.125 0.02282743841 0.05535657355
733.75 0.02759663555 0.04279018221
734.375 0.06396180257 0.1098586511
735.0 0.09668123637 0.05544473976
735.625 0.0488871971 -0.005665105446
736.25 0.05067438707 -0.02172133369
736.875 0.07885647055 0.002074698839
737.5 0.03371590797 0.01658927308
738.125 -0.02739802588 0.0128470186
738.75 -0.02391006842 0.0425641631
739.375 -0.006415747566 0.1137266315
740.0 0.003365517042 0.02561357465
740.625 0.03734350319 0.04464784025
741.25 0.004263801845 0.06055414145
741.875 -0.02642455696 0.05725007964
742.5 -0.08885916518 0.001379732701
743.125 -0.03102352627 -0.06379418232
743.75 0.03449384575 -0.04884175682
744.375 0.02187297483 -0.05492698795
745.0 0.01815114721 -0.0365613109
745.625 -0.008756598362 -0.03205078973
746.25 0.02498309677 -0.00570555474
746.875 0.02660632254 -0.03007236854
747.5 -0.03028632287 -0.05652906441
748.125 -0.03392629224 -0.05410674481
748.75 -0.03844025582 -0.03114826218
749.375 -0.05141425686 0.01929405665
750.0 -0.003546344621 0.0655198988
