!Created with skrf (http://scikit-rf.org).
# GHz S MA R 50.0 
!freq magS11 angS11
500.0 0.0155693984178 137.671922053
500.625 0.0123219162276 170.653649695
501.25 0.017770731148 -173.35291918
501.875 0.0305342523329 -173.670431726
502.5 0.0118440081985 145.53114238
503.125 0.0155607803547 107.06651871
503.75 0.00391050680914 111.738181313
504.375 0.024047210012 -61.4492818814
505.0 0.0125942525968 -59.1075905541
505.625 0.0284534030902 -73.809347194
506.25 0.0462524273884 -102.945001546
506.875 0.072176693476 -93.7374280523
507.5 0.0423034520818 -157.424372097
508.125 0.0383460302427 -112.025116029
508.75 0.062886960653 -136.419450842
509.375 0.0648507000942 -123.901272084
510.0 0.0278871653706 -157.248043965
510.625 0.0307828981998 -163.999102735
511.25 0.0502847911178 178.890872554
511.875 0.0603540057665 151.987196755
512.5 0.0376332064677 92.9993414978
513.125 0.049474759059 42.7558041659
513.75 0.0534491586603 32.8188938786
514.375 0.0538465296853 31.8923672417
515.0 0.0527056837674 7.5157828162
515.625 0.0951647568436 54.4897088172
516.25 0.0910543457856 32.8726434453
516.875 0.124256592841 70.0429943593
517.5 0.0973000336767 13.4964743615
518.125 0.185793828126 71.327475999
518.75 0.0898283234137 15.8778593427
519.375 0.0653520215139 17.8751349602
520.0 0.0900743959712 -2.26895524893
520.625 0.108505536019 -1.70709442916
521.25 0.0841121660535 -23.0876496775
521.875 0.0752258889156 4.06037428043
522.5 0.0939776175899 -32.0403378543
523.125 0.173514272368 -34.1027610267
523.75 0.202530194358 -59.0229140113
524.375 0.225079846407 -44.3720122275
525.0 0.0676956845406 -42.4545517529
525.625 0.0374358400401 -40.1467528015
526.25 0.056230127028 -2.4165042582
526.875 0.0407335842895 -33.0575339256
527.5 0.0480637665677 -25.9084661508
528.125 0.0441793881403 -53.5341556503
528.75 0.0634477866828 -68.5797806879
529.375 0.0787096950476 -110.993567753
530.0 0.0355853450544 -134.073386891
530.625 0.0318322159865 -137.302650373
531.25 0.145219734918 -139.624371672
531.875 0.138514136437 -146.73089296
532.5 0.131790530941 -168.130833856
533.125 0.103915498967 176.592533366
533.75 0.125849148327 169.285203387
534.375 0.103192037351 178.874977281
535.0 0.0869166114709 163.23688745
535.625 0.0705866807274 -178.555932453
536.25 0.0732341199172 165.634217456
536.875 0.0592572397786 -156.100133353
537.5 0.0867945818758 -139.775751169
538.125 0.0978437506149 -171.345040164
538.75 0.115442482526 -177.161415189
539.375 0.0576439019624 -163.017829215
540.0 0.0931426096364 -153.581577604
540.625 0.115370754013 -152.183637446
541.25 0.142960327109 -140.369211178
541.875 0.0829764143366 -138.372839955
542.5 0.102288679923 -136.758883666
543.125 0.130689395772 -165.425601865
543.75 0.140525665544 161.906116024
544.375 0.0898701420981 137.060499504
545.0 0.0881927428812 93.196627989
545.625 0.106649740333 86.633640151
546.25 0.0917145219026 71.7545399331
546.875 0.0962444067694 56.6282358471
547.5 0.113081390526 60.7566910592
548.125 0.101712346145 78.5499523575
548.75 0.0997622042122 92.0054445138
549.375 0.0826938207039 87.8074925695
550.0 0.0861981774626 127.646014023
550.625 0.0559633093267 158.31323469
551.25 0.0419503340284 -135.40524026
551.875 0.0641145602802 -156.302144662
552.5 0.106861234243 -158.186414771
553.125 0.0889933777888 -166.348982547
553.75 0.0964216448209 -171.891781194
554.375 0.109872794229 167.95099937
555.0 0.1268641615 166.154882566
555.625 0.0983566811452 160.180363206
556.25 0.0991947138457 165.775712365
556.875 0.128124357174 165.260719956
557.5 0.0976332561775 170.265323213
558.125 0.0881867914214 167.729232728
558.75 0.0817450288726 -178.885080208
559.375 0.0615609077784 -170.200175621
560.0 0.0443986017573 -143.246916625
560.625 0.0611793414379 -138.263226606
561.25 0.0901805392649 -147.875515494
561.875 0.107602455528 -162.31324789
562.5 0.0899627686358 176.325825716
563.125 0.109270276275 145.210165496
563.75 0.134166881212 131.64615804
564.375 0.0993604835929 124.297674633
565.0 0.0825021286305 123.835568326
565.625 0.0861700400957 118.722121037
566.25 0.0936876887346 157.216285372
566.875 0.0792959863271 179.182139713
567.5 0.0638788767299 -168.260261928
568.125 0.0723110386526 -162.716561758
568.75 0.0614109463845 -142.073803299
569.375 0.0537939177418 -115.979893174
570.0 0.0603288141755 -94.0537206339
570.625 0.0903697839468 -110.497157941
571.25 0.0919429381828 -117.642211484
571.875 0.0914177158232 -130.816247817
572.5 0.107936856066 -147.890363734
573.125 0.132973395709 -167.832232976
573.75 0.0968383185604 164.138507767
574.375 0.0877630149571 146.822354523
575.0 0.103811788706 158.13876663
575.625 0.108408788999 158.941753362
576.25 0.08662194242 148.369417139
576.875 0.0720320155796 129.193716727
577.5 0.0815210002467 139.471193191
578.125 0.0606772473768 162.403931293
578.75 0.0486486813393 166.345404372
579.375 0.0578640439422 157.819472009
580.0 0.0656533862322 -158.997129977
580.625 0.0786263070725 -141.228294442
581.25 0.0916362331247 -160.381701264
581.875 0.117317680521 177.943645727
582.5 0.107645810595 -164.887126765
583.125 0.0920853121289 -165.136394552
583.75 0.0812207842353 -164.909035736
584.375 0.105777485548 -161.488429116
585.0 0.0942502381663 -142.840516261
585.625 0.0712767252325 -140.59548101
586.25 0.0660017790142 -131.076194258
586.875 0.0848498228751 -143.392553699
587.5 0.0675307357442 -129.378786618
588.125 0.0574549930684 -167.859172381
588.75 0.065925806046 -157.580157559
589.375 0.0827572041892 -159.046861577
590.0 0.0947288106625 -165.26471461
590.625 0.105613955657 166.485727886
591.25 0.123140558024 152.115338547
591.875 0.0930649171875 160.561801758
592.5 0.0657085199127 143.363887141
593.125 0.062381660059 154.287567424
593.75 0.0638365421475 168.950662533
594.375 0.0590787137858 -155.472219169
595.0 0.0442696757951 -103.268425275
595.625 0.0593101536653 -98.1586315253
596.25 0.072751229191 -90.3120693086
596.875 0.0683823209199 -68.06313827
597.5 0.0566251123853 -66.7402951257
598.125 0.0706072579859 -53.1645966963
598.75 0.0833528940406 -56.8154355767
599.375 0.0812653358061 -71.783261969
600.0 0.111290682211 -53.4307508229
600.625 0.100624776179 -58.1411623819
601.25 0.0838183310663 -74.8141493783
601.875 0.0687949507624 -94.1171075709
602.5 0.0595365933837 -86.384013275
603.125 0.0444076789328 -54.8012483204
603.75 0.0332676414456 -26.6187685558
604.375 0.0435482096209 -15.9202918274
605.0 0.0485732937697 -32.3530848627
605.625 0.0620295543119 17.0628487858
606.25 0.031921003265 30.3023510145
606.875 0.0461402620279 56.2204238344
607.5 0.0484385317413 41.0335044983
608.125 0.08972144476 40.6439233627
608.75 0.0635971265382 23.4360491487
609.375 0.0688401851235 32.792512396
610.0 0.0577503535164 33.7445099062
610.625 0.0786398952918 54.3212054465
611.25 0.0620686119037 46.1759102424
611.875 0.0411402883213 71.1965491439
612.5 0.00978295648264 32.6322789898
613.125 0.0274916801219 125.990509768
613.75 0.0441385833309 127.794998923
614.375 0.0485314459032 122.483738441
615.0 0.0353219500702 117.614293742
615.625 0.0178858338336 140.846061957
616.25 0.0628780445712 139.435503807
616.875 0.0562636569874 131.393589427
617.5 0.0336368599796 118.826091325
618.125 0.0272784158296 134.268164708
618.75 0.0336128425991 154.062277852
619.375 0.0222830741479 142.752082555
620.0 0.00935097306678 0.509748540932
620.625 0.0230946094817 -130.556524783
621.25 0.0398499213864 -110.748408641
621.875 0.0608797340622 -98.076895791
622.5 0.0688550102213 -163.867572071
623.125 0.0643887048842 -177.166126554
623.75 0.0608471418268 163.366544324
624.375 0.0437794058028 -179.797798687
625.0 0.0444481892413 -150.171252878
625.625 0.0189533243302 -125.138910671
626.25 0.0466015145359 -173.586401482
626.875 0.00975435721246 -175.832174548
627.5 0.0214887474224 -61.6096587112
628.125 0.0534370230012 -1.90987813607
628.75 0.0339470400314 -45.9756418982
629.375 0.0419741556195 -13.0187878739
630.0 0.0742056709802 5.73554443719
630.625 0.0839326829529 22.9188959762
631.25 0.0677133404134 -7.60625974774
631.875 0.0673620991217 -15.5613279197
632.5 0.0614996018751 -21.6858763498
633.125 0.0515577991437 28.8808947606
633.75 0.0422630913115 10.0257580788
634.375 0.0478644861134 18.3734567265
635.0 0.0322915921099 27.4956780141
635.625 0.032770710745 41.4951833564
636.25 0.070831431162 52.5088639024
636.875 0.0575364939664 14.2550654695
637.5 0.0355643872877 39.9301840037
638.125 0.0408568431264 63.5089971776
638.75 0.0995938621783 81.7107885607
639.375 0.0946570269842 91.643530075
640.0 0.0701967180141 105.644531811
640.625 0.0596002392052 106.36840592
641.25 0.062628258888 127.139889618
641.875 0.0588280710171 142.347679132
642.5 0.0449882855981 153.458277618
643.125 0.051829312692 157.097153444
643.75 0.0889554899206 -178.834986841
644.375 0.056295870122 175.493067682
645.0 0.072907104966 179.449916114
645.625 0.0967307001732 170.83157214
646.25 0.0982961457477 172.08458664
646.875 0.0781277134478 -174.122955393
647.5 0.0679137432692 -174.607695834
648.125 0.093955298454 -171.09986047
648.75 0.0751823397992 -158.929478218
649.375 0.056751652149 -139.947270884
650.0 0.0449552180846 -114.307646654
650.625 0.0545260175296 -85.965229518
651.25 0.0664237187514 -61.8221953308
651.875 0.0784325013005 -40.9715751098
652.5 0.0662718237398 -22.1538770316
653.125 0.107192107001 -0.714241489349
653.75 0.112047172366 8.80463613796
654.375 0.107615944158 7.78005718966
655.0 0.116570215782 15.1062470026
655.625 0.0921194782905 31.0367787671
656.25 0.0581948222273 25.3378574731
656.875 0.0808796054633 11.6560574923
657.5 0.0563810735824 15.3664832855
658.125 0.0624926691661 53.451742903
658.75 0.0540712439246 63.8578427423
659.375 0.0973897299196 37.885341272
660.0 0.11577342095 28.6924018897
660.625 0.113300783286 20.1220258674
661.25 0.112235606214 4.92400944762
661.875 0.122576751109 -9.57501072823
662.5 0.111478783309 -19.8590409429
663.125 0.0913378691783 -14.2801245553
663.75 0.0930482696197 5.36436110667
664.375 0.114010300987 58.6337368863
665.0 0.0587253852522 96.8721116174
665.625 0.0676742126356 116.143346453
666.25 0.0881540283747 137.561578967
666.875 0.117425682663 173.868043057
667.5 0.0983295147838 -166.913693087
668.125 0.106191044592 -176.12433885
668.75 0.129205028177 171.288701257
669.375 0.142215968003 179.519874984
670.0 0.0758292784618 -166.342014834
670.625 0.0822302282627 -165.400556085
671.25 0.1007821324 177.064360673
671.875 0.117047301021 170.041874928
672.5 0.0610022729522 160.90328802
673.125 0.0753056166425 162.632990576
673.75 0.111865884892 163.092392524
674.375 0.121733749616 170.514050972
675.0 0.115386891114 -171.846699485
675.625 0.121495817557 -146.066705632
676.25 0.12721680822 -122.561181062
676.875 0.12241194138 -119.579174323
677.5 0.124005012092 -125.740286037
678.125 0.108966337856 -111.38861859
678.75 0.0585754617013 -93.2481911783
679.375 0.0614725190609 -77.6268973248
680.0 0.0643847923867 -63.877019618
680.625 0.117643572568 -70.4303612152
681.25 0.111462250739 -71.846378661
681.875 0.104656626864 -91.3735031823
682.5 0.146296676438 -120.729349634
683.125 0.149287906044 -116.10621515
683.75 0.127601858594 -99.6490414961
684.375 0.10866278689 -74.6400062586
685.0 0.142986648897 -39.6864037122
685.625 0.10768140497 4.15539829822
686.25 0.103600542658 26.2483533631
686.875 0.080433175562 49.9757227615
687.5 0.0890491143911 80.2527078567
688.125 0.0729527234263 124.493570458
688.75 0.103645291057 119.140982208
689.375 0.1371689315 124.033719738
690.0 0.137318957484 135.550087868
690.625 0.119040204265 128.679438172
691.25 0.142305501865 100.359852179
691.875 0.192006879238 72.0604040696
692.5 0.138161979177 43.1097408789
693.125 0.0965350653702 -15.9358548369
693.75 0.0797945271418 -22.9794111451
694.375 0.127796140619 -18.8573080813
695.0 0.121471113574 16.698091
695.625 0.104902691455 56.3889370738
696.25 0.115360599396 116.732178611
696.875 0.138173544299 176.364036828
697.5 0.141296399301 -137.099790476
698.125 0.140064165429 -129.221522007
698.75 0.136039941621 -131.191784634
699.375 0.10367315308 -119.390413617
700.0 0.0886981664675 -108.992202739
700.625 0.121797868526 -95.4683829559
701.25 0.0950618717524 -59.5222586757
701.875 0.0824483634081 -55.616095299
702.5 0.0997291020452 -82.252353893
703.125 0.175752957064 -118.187607225
703.75 0.193620262311 -156.362221851
704.375 0.124343992799 175.241049793
705.0 0.106997012648 167.875597629
705.625 0.132556981119 -164.476818838
706.25 0.154416845646 -117.07275951
706.875 0.0795460990595 -48.054391914
707.5 0.0749704275374 -31.3625611824
708.125 0.0921402059907 19.2530881195
708.75 0.113532764438 62.7060065611
709.375 0.107433950859 113.356807081
710.0 0.103481027803 132.986373068
710.625 0.109071123329 159.082180051
711.25 0.119726903091 171.228170178
711.875 0.144262401209 -179.155909786
712.5 0.149134773738 149.242076363
713.125 0.112430816655 103.460002362
713.75 0.104228356573 46.8501978986
714.375 0.113699305573 15.8225871067
715.0 0.112483394655 34.5567141735
715.625 0.0860003204739 63.9501045782
716.25 0.0858213994667 87.418027966
716.875 0.107422956371 92.8444172726
717.5 0.14794090963 159.313376742
718.125 0.117268579097 169.200458246
718.75 0.0988102823599 168.001910673
719.375 0.118376262456 -166.750019284
720.0 0.126566637128 -137.27136002
720.625 0.112742382705 -65.0667011632
721.25 0.094347340733 -26.776157547
721.875 0.085437016142 17.6993553407
722.5 0.0836199131765 98.2820643006
723.125 0.0899877653323 82.6247779049
723.75 0.105505792344 41.2004518347
724.375 0.113836170431 1.36821024648
725.0 0.0879009118356 -46.4670526427
725.625 0.110644448485 -57.16558187
726.25 0.126945175729 -55.0777516704
726.875 0.10009060044 -39.7238465401
727.5 0.0734932706008 -51.2359323787
728.125 0.104213719348 20.8335011277
728.75 0.0868923476092 25.4263990882
729.375 0.0803621107151 16.3359616461
730.0 0.0694324296232 7.67171827053
730.625 0.04755701729 8.99810285032
731.25 0.0849320452337 73.1357699447
731.875 0.079481729643 120.670314399
732.5 0.0830634086217 159.048250972
733.125 0.0608747858523 161.008940497
733.75 0.0918111476765 -170.75774171
734.375 0.0556145153254 157.402942344
735.0 0.0519570698878 149.186285285
735.625 0.0467202894767 153.133582596
736.25 0.043466060545 151.666930939
736.875 0.0488757010249 167.940148982
737.5 0.0796645828014 -179.552924483
738.125 0.0644409959494 -176.128685405
738.75 0.0956420725467 -167.787235101
739.375 0.0673341793863 -160.894266941
740.0 0.0724660885577 -137.194225721
740.625 0.0254556899048 -119.926840179
741.25 0.0776629310653 -148.007461198
741.875 0.036459708366 -107.355247273
742.5 0.0261086323335 -15.7516366322
743.125 0.0239302338912 86.4923072867
743.75 0.0551790333005 98.0565671817
744.375 0.044533081807 111.892182883
745.0 0.0623720075009 130.718223887
745.625 0.0700352169104 148.658697455
746.25 0.0781045998571 81.4149201906
746.875 0.0692936258939 45.1351575951
747.5 0.0301465345376 15.4156857222
748.125 0.0190469650876 -6.36318271322
748.75 0.0305827181909 63.895250811
749.375 0.048146704023 -53.8159130187
750.0 0.0289165578005 -98.0137415411
