!Created with skrf (http://scikit-rf.org).
# GHz S MA R 50.0 
!freq magS11 angS11
600.0 0.773070027449 103.740691023
600.125 0.60889583539 154.951870651
600.25 0.572578375252 149.423170404
600.375 0.757454181076 102.710552927
600.5 0.545424987521 127.894613171
600.625 0.726537435555 103.978094831
600.75 0.547757931217 148.698058624
600.875 0.537990271833 146.303942407
601.0 0.743058018222 104.15013242
601.125 0.560007172763 118.618682679
601.25 0.683182898614 100.195750411
601.375 0.56393879153 118.535424029
601.5 0.479684037103 161.379731899
601.625 0.78041814367 95.9407479192
601.75 0.657111702093 112.701896987
601.875 0.501784317197 140.121794047
602.0 0.626261028746 102.765929685
602.125 0.434046026252 137.477790287
602.25 0.616548279702 92.4791580678
602.375 0.486821821018 119.774399834
602.5 0.472834995798 126.952964004
602.625 0.553975268692 109.433693726
602.75 0.408536113037 154.912497055
602.875 0.775846722802 76.3766791675
603.0 0.533489507755 88.4636202448
603.125 0.402298923611 -176.083243904
603.25 0.480370333425 107.929641841
603.375 0.701624296691 81.8252163907
603.5 0.696866089046 68.0304082994
603.625 0.606537347253 72.8020867746
603.75 0.341311544248 -173.785393738
603.875 0.571454870189 72.3002463908
604.0 0.464971338008 78.5409711206
604.125 0.828910588841 56.3188694295
604.25 0.602802868187 60.8035306262
604.375 0.225210606771 178.100052366
604.5 0.333106962368 63.4933306895
604.625 0.59671895394 51.1873214853
604.75 0.116572844732 95.9938775201
604.875 0.620945240215 50.5304611791
605.0 0.170339345456 166.344042772
605.125 0.175538444509 66.06214084
605.25 0.624256490335 36.11930342
605.375 0.283908058043 25.957776848
605.5 0.604027745625 36.6288337707
605.625 0.158168694456 -152.071925835
605.75 0.366523610187 19.9664722804
605.875 0.674938932198 21.3437915824
606.0 0.53685164085 8.34649941654
606.125 0.660279809889 18.6847033774
606.25 0.114994306349 21.4039853223
606.375 0.130450385168 -6.36697506151
606.5 0.788959611884 13.9238333668
606.625 0.471385681004 12.2583260942
606.75 0.503463612893 -0.168442232403
606.875 0.530968066847 2.00905238472
607.0 0.180790319777 -9.99898451911
607.125 0.667973923329 10.5785371636
607.25 0.372034044877 3.24074365316
607.375 0.658849274252 0.669502666987
607.5 0.478399867053 -0.207374647874
607.625 0.323452982841 -12.6557819046
607.75 0.777891728089 -6.05620718408
607.875 0.618763536453 2.76247167902
608.0 0.316902732205 -17.0206226939
608.125 0.481206059451 -10.048887974
608.25 0.826234361179 -4.09371365432
608.375 0.882818955323 -8.23826145294
608.5 0.790064186596 -12.8477157314
608.625 0.692078234165 -5.70896402502
608.75 0.58866929781 -9.03029547597
608.875 0.788733976586 -10.7343927974
609.0 0.632968581932 -8.46970845259
609.125 0.580035217611 -11.2034995383
609.25 0.85926516673 -18.452222893
609.375 0.66957012754 -12.6431915898
609.5 0.758047010728 -11.838976734
609.625 0.766079684669 -13.2941444157
609.75 0.814140338601 -10.1528815973
609.875 1.00381956003 -14.0544207464
610.0 0.918979137065 -16.9542178145
610.125 0.687386553648 -10.136105032
610.25 0.904933812086 -13.6019445448
610.375 0.780318641218 -15.6409553413
610.5 0.896434809086 -14.0540885185
610.625 0.931000627897 -12.5340844471
610.75 0.814056475673 -14.9797451631
610.875 0.859621646868 -10.3734735088
611.0 0.788880763414 -10.242377454
611.125 0.93187722742 -14.7819644104
611.25 0.879409424784 -12.2322354306
611.375 0.748308398809 -5.33901753381
611.5 0.883596735381 -11.8476954396
611.625 0.936951731565 -12.3845297915
611.75 0.899168399379 -12.0121126157
611.875 0.930695760891 -13.9710577875
612.0 0.718205861327 -6.41850361129
612.125 0.9080494469 -7.13027828916
612.25 0.962163496812 -10.3229225679
612.375 0.96664044379 -8.91726601833
612.5 0.954026430413 -11.1998445093
612.625 0.754910011277 -2.99579610703
612.75 0.894194802502 -10.0966257774
612.875 0.889869986212 -7.76564149227
613.0 0.991677667553 -13.6530283698
613.125 0.901404036336 -10.7538120253
613.25 0.757528309246 -0.598283687595
613.375 0.855829947731 -10.8552917898
613.5 0.871061667094 -9.61927724948
613.625 0.826873593882 -1.91577891973
613.75 0.932837850992 -11.9301668747
613.875 0.728591884424 1.61741957122
614.0 0.7928214431 -5.97076949928
614.125 0.891812609564 -12.377863951
614.25 0.770502168465 -5.31241342845
614.375 0.901701101862 -8.46241306087
614.5 0.717170011254 6.67205995977
614.625 0.822432045783 -6.90615838805
614.75 0.888148262811 -10.8361539942
614.875 0.832140481983 -10.6085669708
615.0 0.835779088814 -12.7824313212
615.125 0.714541006544 9.33870897881
615.25 0.749788106851 3.79915474547
615.375 0.87127365247 -12.1056803248
615.5 0.755887003616 -3.29162955689
615.625 0.751007742732 -7.74462783272
615.75 0.731455688529 -2.83882723792
615.875 0.651795052391 14.3388723085
616.0 0.864429320503 -11.0505692738
616.125 0.68113121929 0.821032107919
616.25 0.788742463835 -14.2361894058
616.375 0.632145810322 5.96519870512
616.5 0.617011604853 11.1318710328
616.625 0.784701566548 -12.2290698237
616.75 0.738013951055 -5.86692808965
616.875 0.632897309047 -1.00213670074
617.0 0.744801317556 -10.1291888685
617.125 0.763790427999 -16.5095476036
617.25 0.86769343698 -25.7029655025
617.375 0.719611753101 -19.5200072638
617.5 0.577115573875 33.2687284346
617.625 0.607815849154 -6.33043393254
617.75 0.764686213913 -24.2944447783
617.875 0.542595103022 2.26769251294
618.0 0.652616647197 -22.5941857729
618.125 0.50281788135 20.0404019032
618.25 0.537800771387 22.9052227307
618.375 0.719494008262 -24.1044805617
618.5 0.558315801896 -6.34613981015
618.625 0.651811257139 -32.5010980055
618.75 0.474169132688 35.8718429827
618.875 0.364569431702 -7.56506954296
619.0 0.622885869388 -31.1053215812
619.125 0.522316718513 16.8611853633
619.25 0.45519217263 18.9662936834
619.375 0.592087125101 -34.3928551356
619.5 0.596645025345 -42.2150591973
619.625 0.347471915941 -0.659655677967
619.75 0.423572773423 51.6758231352
619.875 0.582898580913 -39.7563813458
620.0 0.595911655113 -34.2147400652
620.125 0.749685975893 -60.8711471486
620.25 0.584571385381 -51.3888153004
620.375 0.347912785402 48.2107357476
620.5 0.544397129024 -56.8193700567
620.625 0.497721606589 -47.4300364504
620.75 0.531373448666 -56.2645506877
620.875 0.281804721533 -52.6258199797
621.0 0.30456045921 40.1928411485
621.125 0.549488873889 -63.9376771756
621.25 0.198839002812 7.69072670637
621.375 0.421159936255 -57.1839860641
621.5 0.217649109892 5.80401670366
621.625 0.179419859071 44.3994514813
621.75 0.543907853388 -71.7467924397
621.875 0.105777007236 -76.4241356036
622.0 0.540164645734 -78.7151110065
622.125 0.195099329715 67.3374867844
622.25 0.130860199308 30.8753859713
622.375 0.562676988873 -84.0038226674
622.5 0.488480118582 -77.3559044616
622.625 0.0972507388104 107.676552281
622.75 0.561271665675 -87.8033960512
622.875 0.22498877397 -80.0486835809
623.0 0.786875601591 -91.8685994715
623.125 0.402280680007 -84.9950230883
623.25 0.114462278595 -89.0032978198
623.375 0.399729078587 -94.1911243425
623.5 0.0995687750734 -99.4962063859
623.625 0.815670150435 -95.6275892309
623.75 0.633451430453 -90.6552947364
623.875 0.172371038973 108.782462796
624.0 0.342523001013 -107.034119474
624.125 0.614840027061 -96.1073504016
624.25 0.610065614379 -102.479508038
624.375 0.659046349951 -94.2270647813
624.5 0.131575267783 127.636288869
624.625 0.548946166054 -105.108029013
624.75 0.592269797678 -98.0584075967
624.875 0.830921590207 -98.0015385648
625.0 0.701728414561 -94.9127067699
625.125 0.115936417349 155.521987625
625.25 0.45417185688 -112.209967134
625.375 0.651758305508 -101.688365299
625.5 0.275293860302 -111.248531463
625.625 0.605116070566 -95.6217844517
625.75 0.231059704273 -114.665321033
625.875 0.270598415722 -126.681516639
626.0 0.752128270471 -101.377779604
626.125 0.370898576091 -112.119821787
626.25 0.7085999911 -97.4507772723
626.375 0.131244199088 -140.190369838
626.5 0.407684914583 -107.861162528
626.625 0.735850723855 -94.9362194275
626.75 0.594381510121 -102.639548064
626.875 0.629924987156 -92.6883245768
627.0 0.360208979562 -101.927188536
627.125 0.406235855963 -100.505084204
627.25 0.772029262279 -94.1040174998
627.375 0.637990057331 -91.225712351
627.5 0.526649502553 -96.8341628196
627.625 0.605883928165 -93.9443726605
627.75 0.339648580219 -102.128094237
627.875 0.736781228036 -98.0564223073
628.0 0.476945058011 -91.1087407873
628.125 0.637379907767 -85.1580814713
628.25 0.567190625463 -92.5662101534
628.375 0.321686462076 -102.278973394
628.5 0.796711998648 -92.4074081798
628.625 0.716060445206 -89.20917533
628.75 0.469563424681 -89.7603509227
628.875 0.738114260653 -84.0723728595
629.0 0.764239393045 -83.6680353007
629.125 0.918265338631 -85.2329897382
629.25 0.858173333259 -82.8861759235
629.375 0.331036168934 -88.7215669036
629.5 0.797918528993 -83.1716193227
629.625 0.653543213556 -76.5864270649
629.75 0.901505752738 -81.6505890349
629.875 0.7705287169 -78.4527302088
630.0 0.51752133383 -86.8033856434
630.125 0.795642997109 -75.5409528976
630.25 0.797899917822 -77.114022333
630.375 0.868882342344 -76.47881616
630.5 0.870985944688 -76.1233277167
630.625 0.851874458933 -74.9045252696
630.75 0.770642284474 -67.8875296198
630.875 0.602414548315 -71.2890071479
631.0 0.399635254367 -77.3936822777
631.125 0.699629906811 -72.238036572
631.25 0.973624126123 -70.9115662943
631.375 0.779516081326 -69.4124534525
631.5 0.573587236717 -64.2431572261
631.625 0.80201095379 -62.9728965991
631.75 0.655241006027 -65.5884202271
631.875 0.835072395313 -63.6246279997
632.0 0.783102540988 -59.1751132266
632.125 0.49851519883 -61.5949393659
632.25 0.81684906773 -60.1383229187
632.375 0.843192816689 -54.3591893469
632.5 0.825154994231 -65.4981278696
632.625 0.867130774774 -58.333447943
632.75 0.525439340336 -53.3108719184
632.875 0.843993348155 -57.3058311737
633.0 0.817734580473 -57.2945572455
633.125 0.870202254644 -49.9859435654
633.25 0.956891343307 -49.4369403077
633.375 0.550271167246 -49.2454215249
633.5 0.890914153673 -46.1635158562
633.625 0.930947807944 -48.0801077613
633.75 0.909606721302 -55.8878271711
633.875 0.841963111983 -45.1209987767
634.0 0.59740793036 -43.8967017344
634.125 0.649404309933 -47.0771377255
634.25 0.860109490181 -45.7443312848
634.375 0.770347902356 -45.9235078648
634.5 0.957298303921 -51.0125102384
634.625 0.626876814759 -39.3211776529
634.75 0.710517377206 -35.3098256051
634.875 0.939631971587 -41.6660265497
635.0 0.792093983243 -41.9468379664
635.125 0.973768932036 -37.6860023208
635.25 0.680861614309 -36.1568511268
635.375 0.750913126924 -39.5301702202
635.5 0.878781505413 -33.6709086882
635.625 0.877254615024 -36.7860013492
635.75 0.928423844904 -35.8782952935
635.875 0.761774444425 -29.7115538827
636.0 0.777752398941 -30.9775224172
636.125 0.894894799761 -36.2265717272
636.25 0.793518974928 -28.4912102238
636.375 0.867601222278 -26.2161384537
636.5 0.853769248254 -29.3009958781
636.625 0.761130679699 -25.1818632154
636.75 0.94726504983 -28.016655612
636.875 0.811933493186 -25.5922659711
637.0 0.874581464638 -27.9763135822
637.125 0.807518079238 -21.8115974878
637.25 0.758855592893 -21.0414069183
637.375 0.966686282748 -24.452691459
637.5 0.844349313743 -22.7137872098
637.625 0.981255619409 -22.3506293467
637.75 0.896421054022 -20.0746544036
637.875 0.802726841693 -17.7922727816
638.0 0.954979119108 -24.4556462026
638.125 0.95755999793 -19.3958938667
638.25 0.797637889488 -14.967611378
638.375 0.888025329826 -16.7840768428
638.5 0.975057001065 -15.3992907826
638.625 0.854870226988 -15.2874252557
638.75 0.909309482872 -22.2876093298
638.875 0.843643850996 -12.8761722189
639.0 0.829042150097 -13.4171094412
639.125 0.939358204076 -15.530551561
639.25 0.845530736287 -9.01884418399
639.375 1.03311118747 -18.3356087376
639.5 0.798073832123 -14.3500085596
639.625 0.849636350808 -14.4268284635
639.75 0.98121774592 -16.8241228586
639.875 0.851232109659 -11.0080181224
640.0 0.87375604116 -12.3143635503
640.125 1.08025558179 -17.3349567804
640.25 0.911145275613 -20.1855507777
640.375 0.987123781019 -24.6550801349
640.5 0.904476851488 -20.9586698358
640.625 0.787371481615 -14.73220231
640.75 0.839508603994 -18.6320661425
640.875 0.835429426093 -9.61129548308
641.0 1.0024467397 -35.3850119194
641.125 0.795538369608 -25.7455333129
641.25 0.768729535898 -25.934329366
641.375 0.71907443308 -27.3671556812
641.5 0.735981263683 -25.9765012015
641.625 0.928385814067 -46.752899974
641.75 0.785461609325 -44.072610814
641.875 0.590628180923 -24.4300163654
642.0 0.56158664663 -21.445340994
642.125 0.687745780376 -70.8964448107
642.25 0.626632993233 -68.6097451045
642.375 0.538164879692 -0.0233412396589
642.5 0.620213694633 -79.3700245127
642.625 0.497778178801 -74.0740533501
642.75 0.347324179716 -77.5438072139
642.875 0.513352486963 -97.7510653329
643.0 0.310179822449 -36.2762969686
643.125 0.320615918544 -12.3733786705
643.25 0.471218286836 -126.92265312
643.375 0.126209324063 -95.0807932598
643.5 0.463180521146 -145.583995769
643.625 0.221638080827 -7.33609720871
643.75 0.00968873042678 -3.91156553311
643.875 0.474665755515 -166.950053607
644.0 0.297270062931 -174.14145866
644.125 0.553917921974 -175.72226973
644.25 0.219605348984 16.573626251
644.375 0.127578833697 26.2819570482
644.5 0.505462657553 165.563595022
644.625 0.194696649655 152.764432421
644.75 0.265749819714 140.530920092
644.875 0.513747453891 164.874604751
645.0 0.25095242426 140.073677559
645.125 0.649958941561 146.59413517
645.25 0.390632577679 155.933412606
645.375 0.47347899245 150.365797932
645.5 0.487334889163 149.513457375
645.625 0.217621873138 132.842842577
645.75 0.761111931197 148.777775371
645.875 0.649981113412 148.929296444
646.0 0.358065434497 134.510566062
646.125 0.691052647006 151.345168148
646.25 0.739500153324 148.553995114
646.375 0.829173184249 149.451429902
646.5 0.838327063373 150.798257874
646.625 0.303636629775 129.274550573
646.75 0.788580898967 148.995130119
646.875 0.726177032624 152.520078695
647.0 0.918201634988 143.707620911
647.125 0.737783466479 150.739221855
647.25 0.460138010647 141.950306842
647.375 0.847493006131 152.014071192
647.5 0.823253638839 151.073000978
647.625 0.852928750798 151.173503412
647.75 0.89722043711 150.009855944
647.875 0.403503143858 149.177047888
648.0 0.570302281006 152.781463708
648.125 0.830983458146 158.007205815
648.25 0.701268508735 149.987212666
648.375 0.898840958442 157.651140854
648.5 0.445291917427 152.967912427
648.625 0.694283156473 151.144684798
648.75 0.794463571797 158.58189633
648.875 0.797309231887 157.637651503
649.0 0.880908837711 160.888829944
649.125 0.485100132076 160.23256403
649.25 0.62342108549 162.975491163
649.375 0.867993899191 159.876642534
649.5 0.632895822075 162.136606805
649.625 0.726168459438 167.327289411
649.75 0.724710563711 166.372434243
649.875 0.573024955969 170.336167727
650.0 0.883541775605 169.415960286
