!Created with skrf (http://scikit-rf.org).
# GHz S MA R 50.0 
!freq magS11 angS11
500.0 0.0188837255635 -177.18634273
500.625 0.00853651734613 77.5868871086
501.25 0.00672693304865 -116.613134752
501.875 0.0412526134879 -170.240303233
502.5 0.0411183621323 173.890362765
503.125 0.0157567401983 100.748272705
503.75 0.0140558984542 -24.2391596915
504.375 0.0051435799999 -75.3727761447
505.0 0.00660443160239 -22.3516834915
505.625 0.0268331143637 -71.2508794678
506.25 0.0587065152812 -101.28784435
506.875 0.0560758289844 -113.071256412
507.5 0.0532016931904 -111.709961619
508.125 0.0580139305552 -85.5267749171
508.75 0.0587140770312 -133.06094508
509.375 0.0509908517101 -143.704566886
510.0 0.0404992693057 -117.294043236
510.625 0.0360475681556 -157.535041348
511.25 0.064169489395 -168.128075702
511.875 0.0480981537607 144.177037397
512.5 0.0360408849337 100.910717829
513.125 0.0501930616443 46.573223821
513.75 0.0540027644665 31.6318998212
514.375 0.0334745491137 9.06332649491
515.0 0.0421429233077 -6.53194185112
515.625 0.111915491002 53.5457771081
516.25 0.0708698885991 23.7515989226
516.875 0.102366168454 70.5871360924
517.5 0.13109377683 23.5202872752
518.125 0.222774845984 75.4322636109
518.75 0.0766990388087 3.52211002581
519.375 0.0611756234178 21.8717217529
520.0 0.0947894813159 0.731775640486
520.625 0.120014016319 0.608059724099
521.25 0.069805500701 -33.2020378661
521.875 0.0643607521765 1.77422800242
522.5 0.0916852183913 -36.5657609281
523.125 0.198218837384 -30.896951802
523.75 0.210062214672 -61.1074422575
524.375 0.198183689303 -53.5387518908
525.0 0.0665439138375 -54.8341526891
525.625 0.043797372416 -23.3817498062
526.25 0.0421061469628 -10.9888103918
526.875 0.05442347194 -16.7233296173
527.5 0.0457164424506 -27.5950934523
528.125 0.0499537778288 -55.0938908626
528.75 0.0443538882298 -82.1765832615
529.375 0.0796969568994 -111.371295365
530.0 0.0497785071601 -127.839279056
530.625 0.0368962648792 -138.578579308
531.25 0.120271602412 -135.196082719
531.875 0.178411853926 -144.801226168
532.5 0.138628338735 -168.743262142
533.125 0.112268075479 176.495352681
533.75 0.102757274971 167.251180874
534.375 0.104872495353 -179.892510243
535.0 0.0825745542334 159.258067175
535.625 0.0758349047739 177.811475149
536.25 0.0568136140641 164.409981068
536.875 0.0893379818566 -159.948771337
537.5 0.101539942505 -143.979609842
538.125 0.101120322551 -175.004718169
538.75 0.100086824776 179.690760405
539.375 0.082646763342 -162.245952886
540.0 0.0933777092964 -154.366304369
540.625 0.134344022447 -156.401714837
541.25 0.127492149969 -141.310655629
541.875 0.102196349829 -144.842554407
542.5 0.114540015999 -144.421438733
543.125 0.149234819798 -168.484133456
543.75 0.128747277371 158.426143564
544.375 0.0917653920185 134.583204771
545.0 0.0796630794408 89.1874118634
545.625 0.11261087464 82.0057883613
546.25 0.0744420555618 66.2299211381
546.875 0.0841883931173 55.1100812518
547.5 0.109938103984 59.5563946209
548.125 0.122158166329 78.8771681844
548.75 0.0888112962585 91.1144636254
549.375 0.0943065116364 90.407293541
550.0 0.0817536838554 125.018436231
550.625 0.0592006163535 154.115218148
551.25 0.0311614694958 -117.105142629
551.875 0.0629919344641 -154.524318365
552.5 0.110525578898 -162.221176075
553.125 0.0982180453459 -170.681374904
553.75 0.0898279638404 -166.507869838
554.375 0.102620135273 172.241523419
555.0 0.123156109517 165.833529538
555.625 0.104116764558 156.180741667
556.25 0.0923233844139 164.992994538
556.875 0.115747186953 167.216073449
557.5 0.120311752067 166.384552067
558.125 0.0978036855812 164.599580957
558.75 0.0662539506505 -179.982900554
559.375 0.0573557963954 -169.906002541
560.0 0.0449526910088 -144.769429658
560.625 0.0619886669514 -145.443866865
561.25 0.0786358267021 -140.075531969
561.875 0.09752017459 -157.42672455
562.5 0.0874574478088 173.983811181
563.125 0.111133754152 142.537961996
563.75 0.120364349906 133.621479522
564.375 0.100043803218 122.616810911
565.0 0.086197619228 121.050117759
565.625 0.0900551024908 114.508641196
566.25 0.0755199588978 162.923609318
566.875 0.0728268012238 -177.648826652
567.5 0.0747672712408 -179.585218897
568.125 0.0845874174867 -171.781520165
568.75 0.0759620512569 -150.744624413
569.375 0.0489896736961 -110.701880432
570.0 0.0631682845642 -113.972922929
570.625 0.095198827042 -121.757092174
571.25 0.0842558483961 -111.742128678
571.875 0.0875351671408 -127.47435512
572.5 0.113909450371 -158.072159997
573.125 0.144439558535 -175.243825316
573.75 0.109853933526 160.069236013
574.375 0.0812626556268 151.079471174
575.0 0.101439039603 156.825129865
575.625 0.114546550026 151.375359531
576.25 0.0778621487421 153.271209845
576.875 0.0793275712177 134.259892584
577.5 0.0750417240035 141.954768348
578.125 0.0646360647774 154.607067103
578.75 0.042971337612 175.311027054
579.375 0.0542077972219 166.680180528
580.0 0.0708203630208 176.724940958
580.625 0.0786174211671 -152.581300013
581.25 0.0921333944763 -161.343825745
581.875 0.115536830868 -175.850506881
582.5 0.120369183397 -176.399457948
583.125 0.09372530256 -168.026675429
583.75 0.0844468750141 -172.251158242
584.375 0.100704985301 -154.719706433
585.0 0.0895811124852 -135.88992154
585.625 0.0719866238709 -144.240182682
586.25 0.0723426277802 -143.994330555
586.875 0.0829621461792 -133.904601576
587.5 0.0757296888147 -145.586857915
588.125 0.0595037896973 -173.162771134
588.75 0.0682612674378 -174.195914001
589.375 0.08092552716 -151.423226941
590.0 0.0957255131933 -161.425540619
590.625 0.104590099632 166.20134795
591.25 0.123651289073 147.101004264
591.875 0.0849375599743 169.850979545
592.5 0.0603796478823 154.408966693
593.125 0.0610426498578 153.622582178
593.75 0.0731048901398 161.393896706
594.375 0.0590466788163 -143.725151093
595.0 0.0468385522825 -114.032287806
595.625 0.0623069848689 -96.2256155999
596.25 0.0696568435829 -97.4038901287
596.875 0.073416026442 -56.2284655889
597.5 0.0650686861528 -54.0249591471
598.125 0.0682793775629 -59.754111902
598.75 0.0814823284746 -59.5053162531
599.375 0.0902931174157 -63.8838056788
600.0 0.0993923782776 -69.4116417539
600.625 0.101429158404 -64.0914823584
601.25 0.0841272959694 -82.865916481
601.875 0.0694666046487 -82.312881205
602.5 0.0661020396063 -67.0992645462
603.125 0.0445236254359 -49.4106205924
603.75 0.0259674579642 -61.2282725736
604.375 0.0435307756096 -18.420314854
605.0 0.0611939624786 -17.1608409977
605.625 0.049149081087 -16.4924360807
606.25 0.0284084568856 16.90404487
606.875 0.0309597370873 45.2207263501
607.5 0.0667686443138 47.1768154444
608.125 0.0619707675808 25.3184892261
608.75 0.047087672833 11.5580169138
609.375 0.0746909244633 34.542734081
610.0 0.0773464682301 44.4205472519
610.625 0.057051500975 29.2185422012
611.25 0.0535907042541 33.7777896454
611.875 0.0381685272956 45.2221382716
612.5 0.0237846391373 95.4389645997
613.125 0.043061355412 127.879754327
613.75 0.0492401695641 124.743379447
614.375 0.0236226804251 117.156994474
615.0 0.059526682448 129.441014555
615.625 0.0467375952926 132.218161965
616.25 0.0510248916017 145.351852893
616.875 0.0273484036591 132.597768539
617.5 0.059366937716 131.466972387
618.125 0.045272041373 134.699508799
618.75 0.0413482776491 150.859161859
619.375 0.00206414775648 -0.789505077894
620.0 0.0148547538093 150.708354239
620.625 0.0131101185763 -131.05144597
621.25 0.0401328617585 -101.842052629
621.875 0.0664086304386 -92.3456106512
622.5 0.0900601199296 179.206349692
623.125 0.0801552738697 166.226562309
623.75 0.0733621488961 167.859913818
624.375 0.0306579555084 -149.18404153
625.0 0.053303920993 -150.61563999
625.625 0.0435219004674 -157.416714655
626.25 0.00983359603745 154.566343772
626.875 0.00661812329826 49.0626373121
627.5 0.0284398838591 -17.5872271206
628.125 0.0372199816119 -28.5374782503
628.75 0.0330890555249 -14.3367804691
629.375 0.0443573696523 -9.99593608971
630.0 0.0808966830474 9.55631450703
630.625 0.0709736922953 6.85439942466
631.25 0.0721758452168 1.24532319384
631.875 0.0653063407648 -3.8005930705
632.5 0.0606376095659 0.623286097138
633.125 0.0500327365362 3.60538198405
633.75 0.0403338260096 -17.4082708314
634.375 0.0390390304119 7.03252598946
635.0 0.0503868420148 42.4560609403
635.625 0.0271055650976 21.7030994411
636.25 0.0473637132862 39.1735491627
636.875 0.0707268066395 48.9305918013
637.5 0.0420992035955 44.6027139666
638.125 0.0527999541913 73.6268734462
638.75 0.073640232501 74.6391108567
639.375 0.0796291360047 85.3951971849
640.0 0.0680544261722 103.300868892
640.625 0.0644666197271 111.925242239
641.25 0.050948108764 93.0228539975
641.875 0.0586308650882 147.435051814
642.5 0.0585593696513 162.950216166
643.125 0.0581914693595 156.303383545
643.75 0.0661471952345 171.384365928
644.375 0.0760528463948 -168.749374908
645.0 0.0762939561922 -179.583291067
645.625 0.104579445105 170.972930026
646.25 0.0829960322635 158.273902384
646.875 0.0568933459332 169.764818802
647.5 0.0603724476615 177.335733613
648.125 0.101011812959 -172.704815531
648.75 0.0619001510588 -179.972968821
649.375 0.0436025191679 -153.583423387
650.0 0.0415875151463 -128.358678666
650.625 0.0740708882764 -87.444023397
651.25 0.0595590137914 -63.8808451731
651.875 0.0631441625549 -40.3402420614
652.5 0.100101268028 -23.3357315221
653.125 0.12002067938 -0.363370915427
653.75 0.0938450413594 1.54851904655
654.375 0.0988034159895 4.01143185969
655.0 0.112254824486 13.423051794
655.625 0.110065899112 31.0438391956
656.25 0.0524974552167 14.2179813032
656.875 0.0626709594875 9.20499811181
657.5 0.0919948379916 25.224145619
658.125 0.0671718432165 50.5770683401
658.75 0.0677786997573 61.2892909247
659.375 0.0798810528102 41.1962277145
660.0 0.102223031095 29.4318406579
660.625 0.111050893226 19.4842726572
661.25 0.119108914024 3.94147415166
661.875 0.0959282130738 -14.5265535453
662.5 0.119685131854 -19.0644473643
663.125 0.109871482804 -14.7923299911
663.75 0.111655954258 5.52044705656
664.375 0.0938742734585 54.1949614838
665.0 0.0745972694543 85.5062857722
665.625 0.075243765305 110.596775324
666.25 0.0602227327525 137.934405188
666.875 0.0987671382581 174.622610595
667.5 0.0901344569447 -171.32905962
668.125 0.11204864898 178.183559058
668.75 0.101379953856 170.004304378
669.375 0.123559456998 178.180366765
670.0 0.0825684966256 -172.658166669
670.625 0.0965291844534 -173.45578468
671.25 0.114384307363 173.859604014
671.875 0.103115027613 168.153795444
672.5 0.0805859028859 157.316314818
673.125 0.0874827200333 151.764645193
673.75 0.0887951551316 165.630678889
674.375 0.105322299558 173.151225026
675.0 0.10596183062 -174.09350484
675.625 0.140225745713 -152.447356086
676.25 0.106690175689 -121.820597926
676.875 0.108850702121 -118.639195404
677.5 0.115070745245 -127.546766068
678.125 0.136693912537 -116.974730811
678.75 0.0736075247967 -93.2662960076
679.375 0.0531509708496 -74.8993534429
680.0 0.0845391163352 -81.825334168
680.625 0.122185455309 -74.0455843041
681.25 0.114024062415 -76.5563025207
681.875 0.0923798103426 -85.9306470321
682.5 0.131483649067 -117.3530086
683.125 0.163917561996 -122.350245512
683.75 0.144555255777 -106.781506355
684.375 0.121463317855 -79.7409350908
685.0 0.12752280924 -39.191646627
685.625 0.137986745696 -2.66542953381
686.25 0.108332844748 22.9658088672
686.875 0.100380201638 43.0583361673
687.5 0.0762012714005 81.9291897413
688.125 0.0855014926339 104.448482363
688.75 0.103534059662 114.557887285
689.375 0.151123248292 115.901905817
690.0 0.120404471064 139.801885101
690.625 0.115839813115 130.818224929
691.25 0.141735996251 99.6093493925
691.875 0.203444644931 64.3606396677
692.5 0.113778302439 44.7402050027
693.125 0.0865971823159 -12.2450271461
693.75 0.103838373722 -43.0210660218
694.375 0.141135668614 -29.842026599
695.0 0.13872361896 8.06841040617
695.625 0.0941347871718 64.9750901149
696.25 0.112786398809 119.14487575
696.875 0.12998876584 176.118146774
697.5 0.147035055819 -147.922123344
698.125 0.129517679614 -127.582242356
698.75 0.123027166833 -125.859649613
699.375 0.107422033346 -123.241510042
700.0 0.101535075996 -117.711149673
700.625 0.109906417261 -87.5770050687
701.25 0.0940887778782 -57.6740499723
701.875 0.0826910946313 -58.2300598
702.5 0.099425567265 -89.7992781432
703.125 0.164062757729 -108.323253098
703.75 0.180568242314 -152.36979882
704.375 0.120572190807 172.775650079
705.0 0.112955629098 156.974881515
705.625 0.150648649874 -176.694168593
706.25 0.140159852566 -110.475878014
706.875 0.0954855340339 -64.1112505934
707.5 0.0768361596305 -34.8055132297
708.125 0.0947320750821 8.02684093741
708.75 0.111503440559 70.2767623612
709.375 0.107213443192 107.337665906
710.0 0.101569696675 134.60509887
710.625 0.107533422373 146.42293917
711.25 0.121321420909 179.929704753
711.875 0.146494018114 162.427874616
712.5 0.151889578432 146.034457156
713.125 0.131977647702 95.0456334978
713.75 0.0962477923065 58.3793145882
714.375 0.107455406231 31.284061238
715.0 0.105147045834 38.8375680325
715.625 0.0827058034887 42.3647418948
716.25 0.0780728787112 73.2466749975
716.875 0.115646937454 103.102568992
717.5 0.147882085857 148.931007055
718.125 0.116601592245 170.628162772
718.75 0.0971341694464 162.430714466
719.375 0.12834754064 -154.150665066
720.0 0.130091192531 -127.200057856
720.625 0.106845644821 -75.4264045726
721.25 0.0979308375914 -34.4958665794
721.875 0.0824480637471 36.0467288621
722.5 0.0741747182214 69.5004454553
723.125 0.0878892902524 74.2155537719
723.75 0.0964321681972 30.8250298975
724.375 0.13083102409 14.4921650833
725.0 0.10374686882 -32.9199770679
725.625 0.0992605721401 -60.8940051867
726.25 0.112408723432 -70.2485719084
726.875 0.100533102637 -49.2371429277
727.5 0.0782422836859 -35.7290969397
728.125 0.0822593240464 -5.67026339714
728.75 0.095376322818 24.8733409347
729.375 0.0728727651979 3.1460371301
730.0 0.0901351169057 22.2668944328
730.625 0.0727166174783 27.13634431
731.25 0.0734851377938 71.5202627081
731.875 0.0494248380435 99.5770812867
732.5 0.0741687203868 152.245463605
733.125 0.0874359943186 177.28338633
733.75 0.0703207517448 176.190828317
734.375 0.0399991245364 139.479698978
735.0 0.0926463210945 168.224485875
735.625 0.0819977179317 150.355044462
736.25 0.053541483938 160.517186623
736.875 0.0264509217049 -160.858191095
737.5 0.11998744977 179.678268948
738.125 0.100945589798 -175.173926709
738.75 0.0730542026301 -166.445816421
739.375 0.024013582121 160.136033527
740.0 0.041653586418 -135.380111907
740.625 0.0566404402414 -148.71511253
741.25 0.0462944290157 -159.540884632
741.875 0.0446448997019 -109.593156327
742.5 0.0181183289817 55.8375978249
743.125 0.0495973009242 54.8259159231
743.75 0.0359357686655 71.5283829054
744.375 0.0331071419155 109.480306666
745.0 0.0480237682577 167.199085215
745.625 0.0670304662353 119.40615585
746.25 0.0824568111154 71.569124138
746.875 0.0841678491831 34.7266400657
747.5 0.0252422404231 45.1222674106
748.125 0.0428327213298 -8.42073329277
748.75 0.0210523921374 9.41002159473
749.375 0.0278542305529 -36.686002134
750.0 0.0259135283335 -93.6800596592
