!Created with skrf (http://scikit-rf.org).
# GHz S MA R 50.0 
!freq magS11 angS11
500.0 0.013025686483 169.651202073
500.625 0.015611152955 34.7063291957
501.25 0.023076381301 178.236733211
501.875 0.0418783335112 179.030941571
502.5 0.0205149475584 158.563467789
503.125 0.0199016054232 126.702555752
503.75 0.00596841737049 35.9636112037
504.375 0.00453119212275 -116.115020084
505.0 0.0218144174976 -65.9885013876
505.625 0.0284954888417 -80.5300975894
506.25 0.0412258098399 -105.566504988
506.875 0.0717124501186 -99.1219179814
507.5 0.0662300907668 -106.300684709
508.125 0.0358974523816 -127.1911434
508.75 0.0537842803298 -144.664572174
509.375 0.0538177339127 -147.879001631
510.0 0.0568435969567 -109.135222855
510.625 0.0195127440875 -179.582520761
511.25 0.0556337810549 -174.745603124
511.875 0.0602957947669 148.358843724
512.5 0.0477376063741 108.686566767
513.125 0.0485878908585 34.966952137
513.75 0.0486633821947 21.1687522521
514.375 0.047540738438 24.911684453
515.0 0.0702521097946 8.1112347005
515.625 0.0883877850449 47.9626305041
516.25 0.0835571167531 29.448268114
516.875 0.118874144088 69.851706059
517.5 0.146962015169 21.2744882302
518.125 0.196770135641 66.0784744275
518.75 0.0941627535244 12.9028376397
519.375 0.0807607356013 21.3763021952
520.0 0.093489012458 -5.1426536648
520.625 0.10710392106 -5.41725592809
521.25 0.0916523676496 -20.8120218727
521.875 0.0707923765518 -0.1740339089
522.5 0.110227246832 -32.5489754056
523.125 0.182414650078 -37.8062384158
523.75 0.204253025603 -61.8554425747
524.375 0.214163056799 -54.1055878402
525.0 0.0836402960797 -38.9351533006
525.625 0.0397488081858 -37.0453018421
526.25 0.0460046382758 -17.1346668982
526.875 0.0710304463128 -20.1677163336
527.5 0.0523005215672 -31.2328358201
528.125 0.0454854768744 -60.0788740362
528.75 0.0684255884541 -72.1470283453
529.375 0.104859628317 -111.163640334
530.0 0.0340950637198 -149.648920107
530.625 0.031722523511 -134.954570804
531.25 0.106663305387 -136.731710887
531.875 0.204913773994 -151.728793011
532.5 0.122025170969 -174.437316362
533.125 0.105820708023 173.426700754
533.75 0.125037678008 163.482349832
534.375 0.126336326212 177.17165662
535.0 0.098757114513 162.092439178
535.625 0.0684311547796 174.289008914
536.25 0.0582723399286 159.094388901
536.875 0.0966987942369 -166.99882773
537.5 0.080978420676 -143.527854915
538.125 0.0966796137711 -174.300731447
538.75 0.102248953432 175.219809357
539.375 0.0947972267129 -167.487746092
540.0 0.0933635972883 -157.462459696
540.625 0.123258200631 -155.76714425
541.25 0.118024231266 -143.840042047
541.875 0.109070990491 -148.94611362
542.5 0.0959336608699 -140.19641021
543.125 0.139673539279 -168.805574957
543.75 0.128577790364 154.969389061
544.375 0.104704283332 133.551728036
545.0 0.0996578748679 87.0050455571
545.625 0.104251748837 79.7315512516
546.25 0.0909269519355 64.9696274575
546.875 0.093667018201 51.3425566666
547.5 0.115048695042 55.6467047886
548.125 0.115114697919 75.0024038264
548.75 0.0857915517801 85.6357107256
549.375 0.109253123314 83.4431671857
550.0 0.0997882907467 121.292273201
550.625 0.0535370619584 150.058427119
551.25 0.0404332682684 -144.783364401
551.875 0.067554217003 -170.56265955
552.5 0.103432217323 -164.442065265
553.125 0.0924224729494 -170.898451241
553.75 0.0868134366642 -170.943249314
554.375 0.111921915191 164.045878589
555.0 0.129679589817 160.719554392
555.625 0.0984925383269 155.995894997
556.25 0.0955148352633 163.109147053
556.875 0.11974144544 163.097717524
557.5 0.127857769866 161.958578597
558.125 0.085932812792 164.53564044
558.75 0.0822290456964 176.157866335
559.375 0.0735933351314 -177.08898332
560.0 0.0445607928436 -152.101627348
560.625 0.0566196015429 -142.092297103
561.25 0.0903637306029 -155.370434061
561.875 0.105551183525 -166.241154529
562.5 0.0986938192478 168.08047213
563.125 0.106432725405 142.381131316
563.75 0.136672370765 126.36162078
564.375 0.112766363233 116.893286775
565.0 0.0851631927012 119.621963698
565.625 0.0847209333382 114.959562127
566.25 0.10196387988 147.255035735
566.875 0.0780454952834 175.516447052
567.5 0.0810076509611 173.584039959
568.125 0.0704553839559 -167.284328428
568.75 0.0711473350045 -151.393272496
569.375 0.0467864539367 -113.757983271
570.0 0.0608971009304 -123.005883965
570.625 0.0869760020232 -116.328772381
571.25 0.089702378602 -121.019998286
571.875 0.08510869225 -127.386418363
572.5 0.114971562064 -164.584694962
573.125 0.130578187688 -170.766583979
573.75 0.105546821573 160.276608054
574.375 0.085014381871 145.407152487
575.0 0.112325924502 144.451840164
575.625 0.105968888022 152.90225771
576.25 0.0924140154354 142.069684577
576.875 0.0865249022807 124.104480216
577.5 0.0924768499322 126.608084265
578.125 0.0613173718901 156.710442965
578.75 0.0481956337089 164.6002313
579.375 0.0553695583467 154.958945811
580.0 0.0714915107153 165.425617217
580.625 0.0779075219676 -143.580868992
581.25 0.0899366324697 -162.361161786
581.875 0.11077798487 -178.626878182
582.5 0.123935846555 174.547514389
583.125 0.0932474811937 -170.908161312
583.75 0.0820685867797 -171.498509657
584.375 0.0996073944519 -164.097656504
585.0 0.0968219857673 -147.251893725
585.625 0.0710518603667 -141.438912492
586.25 0.0717633677029 -141.542117728
586.875 0.0805512740673 -136.353819318
587.5 0.0784337358355 -156.299750871
588.125 0.0588357151139 -173.042791397
588.75 0.0672638873481 -169.690627156
589.375 0.0808997362465 -157.106069077
590.0 0.0917932973552 -172.397422841
590.625 0.103755525211 160.398160076
591.25 0.121139119597 148.261431606
591.875 0.101077705198 152.629221062
592.5 0.0663318056225 142.033290554
593.125 0.0646280463411 140.686970055
593.75 0.0738927032112 162.573396789
594.375 0.0572073737492 -162.649895714
595.0 0.0409660732877 -134.932067903
595.625 0.0528237008645 -115.24305181
596.25 0.0724951616034 -93.1732679749
596.875 0.0686500323162 -74.6265352996
597.5 0.0589483887359 -67.3732909915
598.125 0.0678081172345 -60.8105721273
598.75 0.0852837232446 -60.0004997356
599.375 0.0871295451835 -64.1603717748
600.0 0.0907994350916 -79.5958402303
600.625 0.105416259316 -56.9697373111
601.25 0.0845538553816 -79.9828885058
601.875 0.0648872698243 -96.091351125
602.5 0.0632401795042 -90.5895453082
603.125 0.045572068726 -76.617397587
603.75 0.0292102807006 -34.7730794337
604.375 0.0481547852273 -20.8551991141
605.0 0.0561705907261 -19.9977617895
605.625 0.0429299149899 -41.3917811128
606.25 0.0388593074298 29.7775157912
606.875 0.0375762276029 44.5822243171
607.5 0.0495485580715 39.965871438
608.125 0.0458676879791 12.2948443601
608.75 0.0588458273112 18.4402625585
609.375 0.0733168944656 30.3687538707
610.0 0.069835007528 38.0180435646
610.625 0.0481642523126 14.9106605328
611.25 0.0679689077372 48.8371623919
611.875 0.0407335593756 55.8894544645
612.5 0.0147062989171 96.4392694022
613.125 0.0195208473683 122.42411911
613.75 0.0354329711907 121.144445153
614.375 0.0430504099884 121.367760075
615.0 0.0314792543815 108.865751509
615.625 0.0268402725025 131.845237433
616.25 0.0235694825817 149.913731862
616.875 0.0540968641005 132.065249588
617.5 0.0212526580269 107.921349502
618.125 0.0199775174483 120.03951394
618.75 0.00856841545193 156.217252271
619.375 0.0198071749379 139.961860673
620.0 0.00788559351519 -37.3429499334
620.625 0.0306481770007 -71.5728780437
621.25 0.0437812125026 -112.102283043
621.875 0.0648254589517 -106.452650364
622.5 0.0684265051052 -154.650846368
623.125 0.0668139831602 173.67623728
623.75 0.047238223944 -179.218293881
624.375 0.0431157428479 -175.190273874
625.0 0.0515895145053 -159.952992519
625.625 0.0375385280802 -151.319061484
626.25 0.00531057888461 -60.4790646997
626.875 0.0229989628011 176.086362968
627.5 0.0204248556403 -48.7653745544
628.125 0.0463871392664 -26.5020821259
628.75 0.0529859179885 -2.83751689468
629.375 0.0372616575312 -28.6865270872
630.0 0.074543314346 -1.04321275302
630.625 0.0731889240218 2.63003542728
631.25 0.0768860877027 13.5666570538
631.875 0.0709463193244 -27.2994693498
632.5 0.0639268860012 -15.769651098
633.125 0.054333279276 6.79179930442
633.75 0.0430423444387 11.83860481
634.375 0.0513387655055 19.3307294238
635.0 0.0400253361459 17.9838222568
635.625 0.0279720817501 23.39636223
636.25 0.0544843881303 38.6008382169
636.875 0.0859213962613 47.4402573692
637.5 0.0433262769493 27.1440530652
638.125 0.0394235923036 67.4043566436
638.75 0.0788770409716 65.8844912917
639.375 0.101441969939 95.0384216042
640.0 0.0731360643791 102.420878286
640.625 0.0614949913207 102.216792986
641.25 0.0699798509995 122.893355496
641.875 0.0788941715042 152.553454444
642.5 0.043896190136 139.63777098
643.125 0.0504638866672 151.374000248
643.75 0.0755330006403 160.447761069
644.375 0.0968909521269 -172.999985432
645.0 0.0634247839903 170.69020867
645.625 0.0983675829741 164.431178224
646.25 0.10216921787 163.47503579
646.875 0.0749755828293 176.928373043
647.5 0.0804406347966 -177.079393125
648.125 0.0892656441413 -179.085080534
648.75 0.0743099411103 -166.464666563
649.375 0.054048662551 -149.512196903
650.0 0.0609308669286 -123.058087223
650.625 0.0472482701558 -95.9015931941
651.25 0.0604540735811 -66.9446641425
651.875 0.0662509876148 -46.189534578
652.5 0.106631399105 -30.876707482
653.125 0.0959086713067 -7.35082248305
653.75 0.108850294324 5.54233345195
654.375 0.115953248211 5.00462187054
655.0 0.12144654729 9.4894283938
655.625 0.0993802149746 23.1616566706
656.25 0.0566795107248 17.0345819727
656.875 0.0727200890952 4.86030897655
657.5 0.102688488483 19.1456353261
658.125 0.0594879159039 40.6744580379
658.75 0.0580804675961 60.2819283557
659.375 0.079079381344 35.6589680365
660.0 0.124291056615 20.9774009432
660.625 0.115403377576 13.4002450172
661.25 0.112539457274 0.275393100035
661.875 0.127630093501 -15.8600685476
662.5 0.137121058087 -23.9001668761
663.125 0.0888918673443 -20.9815702824
663.75 0.101692095844 1.65363684372
664.375 0.0965892020131 47.2806476597
665.0 0.088715236834 86.1588969964
665.625 0.067026688108 107.731727194
666.25 0.0885986516481 126.046971434
666.875 0.120624533786 166.789353141
667.5 0.10874331434 -174.616483423
668.125 0.103324175765 178.720942285
668.75 0.132434271097 164.132503795
669.375 0.132085215625 173.20729419
670.0 0.0997784314507 -175.214020752
670.625 0.0802646630496 -173.331609103
671.25 0.107039327281 170.57160586
671.875 0.0987581398737 163.171373608
672.5 0.091881324193 147.492533858
673.125 0.0702497280345 156.175832972
673.75 0.115164893356 153.485788599
674.375 0.118091626011 165.650596392
675.0 0.123706227069 179.274373636
675.625 0.120055684946 -153.000882561
676.25 0.132264266954 -129.310204083
676.875 0.118775509468 -124.356163832
677.5 0.136356772809 -133.962320655
678.125 0.111731858158 -120.376240034
678.75 0.0708063749414 -95.5371937807
679.375 0.048685109827 -79.1108575694
680.0 0.0868756127411 -92.4809588409
680.625 0.106008103479 -80.0573749761
681.25 0.108669355136 -78.8968600502
681.875 0.10351281043 -98.3427798563
682.5 0.138668223143 -124.225641705
683.125 0.179264948087 -129.382906513
683.75 0.128891645492 -105.083821573
684.375 0.115837403049 -80.8055802099
685.0 0.137361173973 -45.6835238755
685.625 0.145743795077 -9.00689571559
686.25 0.10031782323 21.3007414786
686.875 0.0940330859897 41.7446587953
687.5 0.0700266953447 75.8369935287
688.125 0.0881445657733 96.5028544082
688.75 0.0973203402531 114.218099969
689.375 0.14326483681 116.158000634
690.0 0.141718930877 126.512642732
690.625 0.12519924403 120.984511992
691.25 0.140987656666 93.5009835171
691.875 0.189222006876 63.5415947688
692.5 0.152331229073 35.4224483498
693.125 0.0938875040727 -20.0138150006
693.75 0.105648121671 -52.6129431847
694.375 0.120927916146 -22.9601878175
695.0 0.132311828781 8.56696252215
695.625 0.106274889049 47.5014028112
696.25 0.120259196017 106.057674367
696.875 0.143307221472 163.697920428
697.5 0.138253772743 -142.263012704
698.125 0.136963043931 -132.493830521
698.75 0.136850376237 -137.035634042
699.375 0.100153676857 -124.748431254
700.0 0.0974742333456 -117.201069339
700.625 0.10967099613 -92.9661543373
701.25 0.109194182606 -73.9590812502
701.875 0.0838666831408 -63.844687076
702.5 0.0967386901083 -90.4302120532
703.125 0.170052323775 -129.391345619
703.75 0.191868716836 -160.677125554
704.375 0.137950902254 162.863039689
705.0 0.105845312001 164.925166329
705.625 0.146398690006 -175.472651913
706.25 0.140474781581 -116.862879604
706.875 0.103971620669 -75.561120015
707.5 0.0758510797315 -41.359985881
708.125 0.0912967897314 6.85221279609
708.75 0.10821465079 56.1832285862
709.375 0.106293751354 94.4385139673
710.0 0.101354254094 120.616972973
710.625 0.104392649969 153.153173905
711.25 0.116565657936 162.46275059
711.875 0.140981524035 153.524615787
712.5 0.147543331757 145.978457612
713.125 0.130032378482 96.6589508048
713.75 0.108912972588 37.5954360844
714.375 0.113499629821 14.4252445216
715.0 0.121576343097 9.76228522774
715.625 0.0890007369006 56.7231687955
716.25 0.0786794168774 76.3328142817
716.875 0.112454574905 104.522610463
717.5 0.140109558138 130.087789623
718.125 0.116436795517 157.04465808
718.75 0.0999921406249 164.885932163
719.375 0.118204215787 -176.056479468
720.0 0.131104243503 -132.851893405
720.625 0.11646592082 -89.5988299922
721.25 0.0966075658483 -29.223434782
721.875 0.0787069500694 24.8994628752
722.5 0.0683533068379 37.7135932306
723.125 0.0982153665254 79.9112167321
723.75 0.0977905610951 32.0421576445
724.375 0.106730925634 -9.74602172853
725.0 0.0901023126654 -48.4098047193
725.625 0.0858084713109 -81.9597366698
726.25 0.131987677465 -56.562032184
726.875 0.107963093401 -47.055589461
727.5 0.078851887174 -31.8031867246
728.125 0.0616652361164 -35.8400311064
728.75 0.0829424905202 13.1818763499
729.375 0.0781446082045 7.11249140512
730.0 0.0665603797346 -5.85913152265
730.625 0.0610313780032 10.4690300205
731.25 0.0472597685787 42.4771829124
731.875 0.0763983250387 115.190988584
732.5 0.0826378437124 153.304841122
733.125 0.0778452898667 176.321054127
733.75 0.0537020214265 142.790174673
734.375 0.0515219531046 159.032536819
735.0 0.0408896449796 128.80776066
735.625 0.0413860096131 128.346592551
736.25 0.0104255054737 124.40082641
736.875 0.0437177519031 171.068806884
737.5 0.064758127006 172.972230832
738.125 0.0879495457904 -179.57371593
738.75 0.0460446094324 167.86326636
739.375 0.068955266069 -163.778777174
740.0 0.0606764034535 -154.733517377
740.625 0.0493990668049 -145.836921334
741.25 0.0159188144959 -124.488276218
741.875 0.0289004505782 -92.4714447009
742.5 0.0281965809735 -23.2452629387
743.125 0.0208993888412 97.3766225506
743.75 0.0232436062631 149.221737072
744.375 0.0529958701771 92.9586007407
745.0 0.0491654085943 135.329438218
745.625 0.0682577666781 115.136074877
746.25 0.0679576228087 97.3100867742
746.875 0.0532875565099 61.0371284156
747.5 0.0393776632532 14.838592386
748.125 0.0294589337624 -17.573062521
748.75 0.0277229871622 -13.6109785432
749.375 0.0394902124079 5.44829665966
750.0 0.0388169205807 -122.2666098
