!Created with skrf (http://scikit-rf.org).
# GHz S RI R (50+0j) 
!freq	ReS11	ImS11	
500.0	0.3322137483	-1.400646155	
500.625	0.04051101057	-0.3731699695	
501.25	-0.1843708468	-1.169743729	
501.875	-0.4343361666	-0.3293185518	
502.5	0.03672997154	-0.112548336	
503.125	-0.111092712	-0.0002557651278	
503.75	0.0403777608	-0.00391754428	
504.375	0.03517236131	0.02604105417	
505.0	0.009664923719	-0.05134961264	
505.625	0.03486601129	-0.007896441251	
506.25	-0.1603038334	-0.110703364	
506.875	0.1077134491	0.008395491067	
507.5	-0.221977545	-0.7362091039	
508.125	-0.2100916985	-0.5187438391	
508.75	1.010349219	-0.6024038023	
509.375	-0.2104818169	-1.881060616	
510.0	-0.409557606	-0.1475773498	
510.625	0.007921321797	-0.1754180211	
511.25	-0.07813229033	-0.1362032635	
511.875	-0.05951146584	-0.003827927389	
512.5	-0.0676273856	0.02959590367	
513.125	-0.04576333021	-0.09004873865	
513.75	0.01011629897	-0.0242951843	
514.375	-0.1075214237	-0.07439578852	
515.0	0.1174523921	0.3131864343	
515.625	-0.139751951	-0.9044971027	
516.25	-0.4322044196	-0.2398428555	
516.875	0.162343908	-0.3317377123	
517.5	-0.1411405221	-0.2549976151	
518.125	0.02341189239	0.01473275567	
518.75	-0.02437714702	-0.2615805772	
519.375	-0.03878911901	0.07146174469	
520.0	0.04434850078	0.05250593956	
520.625	0.1856449775	-0.04501150405	
521.25	-0.1019753463	-0.3172537015	
521.875	-0.05282324098	0.01150108903	
522.5	-0.08479077905	-0.02783997998	
523.125	0.008504290634	0.1200237351	
523.75	-0.06687751692	-0.1647423575	
524.375	-0.2689064694	0.1535711609	
525.0	0.04015926201	0.01138298126	
525.625	-0.03437033201	0.1414159063	
526.25	0.06273683829	-0.0837350683	
526.875	-0.1151117563	0.1030867443	
527.5	0.07104353597	0.1972065748	
528.125	-0.04326891461	0.2884192999	
528.75	-0.02873831372	0.3560062397	
529.375	0.09945779963	-0.006711714259	
530.0	-0.1115917322	0.2552931213	
530.625	0.04538124642	0.4190314325	
531.25	0.2484398779	0.1079965836	
531.875	0.3533832841	-0.07632623913	
532.5	-0.203745246	-0.08984924433	
533.125	0.1685703732	0.1266392019	
533.75	0.01923299339	-0.2640550326	
534.375	0.02238095068	-0.1752809161	
535.0	-0.2806933573	-0.2214688398	
535.625	-0.1330173828	0.1787646534	
536.25	-0.03379319043	0.06715558001	
536.875	0.1320980675	0.04101931303	
537.5	0.02727737604	-0.05498565034	
538.125	0.152501935	-0.01027138443	
538.75	0.1232434104	-0.1898851196	
539.375	-0.0547045727	-0.1231200273	
540.0	-0.1249149456	-0.2343368457	
540.625	-0.2018785012	-0.06727877628	
541.25	-0.03579564105	0.007445592253	
541.875	-0.02690407163	-0.0892861424	
542.5	-0.04669152131	0.001857767033	
543.125	0.04790969565	-0.09677226022	
543.75	-0.1426284762	0.03347802707	
544.375	-0.01595058036	-0.01695058944	
545.0	-0.03831087576	0.1156619616	
545.625	0.09292127651	-0.00614632687	
546.25	0.05972885816	0.1076613627	
546.875	0.1659207521	-0.07172388208	
547.5	0.03783356547	-0.07418867441	
548.125	0.03881462133	-0.2017989528	
548.75	-0.185094882	-0.1167613556	
549.375	-0.05820819158	-0.0433199747	
550.0	-0.1192371646	-0.03184080571	
550.625	-0.03101674993	0.04000786497	
551.25	-0.1028122034	-0.01336191397	
551.875	-0.07674642594	0.1067522972	
552.5	-0.03841301631	0.04494254222	
553.125	-0.04855929832	0.07210656734	
553.75	0.04835206939	0.0391750504	
554.375	0.0990248219	0.01604545217	
555.0	0.1108112582	-0.0772378746	
555.625	0.08805808588	-0.1068293047	
556.25	0.0796398068	-0.142584013	
556.875	-0.03131966704	-0.1745981984	
557.5	-0.103181811	-0.1094556259	
558.125	-0.1146744995	-0.04827548043	
558.75	-0.1195299327	-0.01488152658	
559.375	-0.1187853079	0.02621328294	
560.0	-0.09923717345	0.06202825569	
560.625	-0.08252939119	0.122868719	
561.25	0.02932284021	0.1070565107	
561.875	-0.003630701961	0.0436644613	
562.5	0.04637451538	0.07178905795	
563.125	0.03214376179	0.06044906183	
563.75	0.1807488315	0.03575998572	
564.375	0.1085979601	-0.1296785621	
565.0	0.09900304469	-0.09892508086	
565.625	-0.008016449527	-0.2377438284	
566.25	-0.1269630166	-0.06176490447	
566.875	-0.09907575321	-0.1345934605	
567.5	-0.239084009	-0.1451156957	
568.125	-0.09247142248	-0.0874054499	
568.75	-0.271238709	-0.2337395975	
569.375	-0.2569158353	0.1765185352	
570.0	-0.1023280991	0.1039878242	
570.625	-0.1655966494	0.2113243004	
571.25	0.09038023531	0.1185259969	
571.875	-0.037347584	0.1102322906	
572.5	0.2268015611	-0.05852039809	
573.125	0.005501104148	-0.05777601609	
573.75	0.1911831578	-0.1060797138	
574.375	-0.05197330015	-0.1492830487	
575.0	0.05434882479	0.06169446994	
575.625	0.05799995281	-0.1698854841	
576.25	-0.02946335831	-0.06629830826	
576.875	0.09848113161	-0.1496053351	
577.5	-0.04521664529	-0.2655993876	
578.125	-0.09813482086	-0.04605100172	
578.75	0.01794150135	-0.1791532956	
579.375	-0.1984649606	-0.1223706266	
580.0	0.07893701154	0.09391077657	
580.625	-0.1640065066	-0.121607853	
581.25	0.02531287818	0.1458525525	
581.875	-0.08660066446	0.06444854334	
582.5	0.05394208436	0.2845730009	
583.125	0.1603584337	-0.004751665748	
583.75	-0.06480802503	0.1145040459	
584.375	0.1428271293	0.02614646323	
585.0	0.004478621485	0.05513221062	
585.625	0.2507981192	0.06488247037	
586.25	0.07535265945	-0.1404666503	
586.875	0.09099048646	-0.0403197915	
587.5	0.006435217353	-0.2311246089	
588.125	-0.09763398603	-0.09128738359	
588.75	0.1317470695	-0.08782509799	
589.375	0.07673576589	-0.2637689447	
590.0	-0.06554020361	-0.0858004289	
590.625	-0.1584444065	-0.1700044745	
591.25	-0.1735288939	0.2816914801	
591.875	0.02735686553	0.02623186274	
592.5	-0.08503575044	0.103066863	
593.125	0.06699818435	-0.02487969678	
593.75	-0.01992269917	0.2852441781	
594.375	0.2660641743	0.04763398792	
595.0	0.0852271424	0.04941274822	
595.625	0.1951905996	0.1779539719	
596.25	0.1912396992	-0.03794088535	
596.875	0.05960469199	0.05317193502	
597.5	0.2053024636	0.1717727987	
598.125	0.188298359	0.04109305283	
598.75	0.1418801026	0.1321663051	
599.375	0.3012599136	-0.01492688473	
600.0	0.1061398672	-0.1843992238	
600.625	0.1675793339	-0.08900513429	
601.25	0.1279347486	-0.2673958713	
601.875	-0.1464399647	-0.08453723784	
602.5	-0.06040510571	-0.1055650528	
603.125	-0.1903098542	0.1436410062	
603.75	0.007087323808	0.01985746747	
604.375	-0.2315212087	0.04299229247	
605.0	-0.04775062567	0.1925284987	
605.625	-0.06853934985	-0.05683134315	
606.25	-0.2263866429	0.1124083387	
606.875	-0.1237783825	-0.02585447925	
607.5	-0.2289598909	0.09823131961	
608.125	-0.01674705131	0.2865958786	
608.75	0.167364974	0.1370313972	
609.375	0.2235794633	0.008321219117	
610.0	0.2452030132	-0.1811140063	
610.625	0.02689166666	-0.1645424402	
611.25	0.1361986469	-0.1399962564	
611.875	-0.1792914665	-0.2314342135	
612.5	-0.06069496191	-0.01835665845	
613.125	-0.279195481	-0.07178711517	
613.75	-0.04630865196	0.2699700357	
614.375	-0.04307762588	-0.01181817338	
615.0	0.08553876998	0.1737210678	
615.625	0.04508778792	-0.02915217835	
616.25	-0.1207424573	0.224771605	
616.875	-0.01016616811	0.269872371	
617.5	-0.02673884195	0.1089120171	
618.125	-0.143742516	0.2392884292	
618.75	0.004994518284	0.2080068183	
619.375	0.1300387909	0.1517059523	
620.0	0.2045772234	0.1427812222	
620.625	0.06353763869	-0.2384621991	
621.25	-0.01699210714	-0.1301651367	
621.875	-0.1657040695	-0.2076781827	
622.5	-0.2453712681	0.1420331003	
623.125	-0.04089513738	0.08639890523	
623.75	0.142043076	0.1628950266	
624.375	-0.000708737602	-0.139979344	
625.0	0.09739692766	0.04775294966	
625.625	0.01946230543	-0.1800942752	
626.25	-0.01770646581	-0.05582070825	
626.875	-0.139547934	-0.1869786317	
627.5	-0.185903216	-0.02577461415	
628.125	-0.0391780648	-0.05062309769	
628.75	-0.07550388901	-0.216621241	
629.375	-0.1425974118	-0.091412268	
630.0	-0.1470449372	-0.0649519393	
630.625	-0.2905919378	0.04283585082	
631.25	-0.1495979781	0.2909298977	
631.875	-0.09438446531	0.1848566384	
632.5	0.09016877847	0.3965745471	
633.125	0.2390050961	-0.009650900243	
633.75	0.1449380127	0.01884891955	
634.375	0.143275032	-0.2225968684	
635.0	-0.1080957898	-0.07729420566	
635.625	-0.06816750327	-0.2033798537	
636.25	-0.229594146	0.1416744232	
636.875	0.01034296586	0.08482636425	
637.5	-0.1534384754	0.08064240248	
638.125	0.02915320532	0.1905788275	
638.75	-0.1378201289	0.06922076101	
639.375	-0.02682259139	0.3698104597	
640.0	0.2175719145	0.1917463507	
640.625	0.1443151029	0.1220105976	
641.25	0.3911094221	0.0721249081	
641.875	0.1013383414	-0.2631258961	
642.5	0.07279709798	-0.1195539098	
643.125	-0.1075717122	-0.3605797555	
643.75	-0.147397987	0.07785129426	
644.375	-0.1775176962	-0.1710227823	
645.0	-0.170384271	0.292541886	
645.625	0.1338157386	-0.002381434381	
646.25	0.0534495198	0.2459889329	
646.875	0.2233764596	-0.1452974853	
647.5	-0.1225824959	0.1298473198	
648.125	0.3554897621	0.04399488069	
648.75	0.1463322245	-0.1486343313	
649.375	0.3071206754	-0.06184913788	
650.0	0.2675341268	-0.5366064575	
650.625	-0.008221213744	-0.2231566317	
651.25	0.3596881654	-0.1037084132	
651.875	0.351797937	-0.3129014287	
652.5	0.1072891718	-0.1063625643	
653.125	0.3852990743	0.03642433655	
653.75	0.2242888613	-0.3997922818	
654.375	-0.05785141457	-0.1649512781	
655.0	-0.2142239719	-0.308025114	
655.625	-0.2949922929	0.4166470697	
656.25	0.09079895418	-0.01999138208	
656.875	-0.05949422204	0.2163369791	
657.5	0.1902140004	-0.06307647821	
658.125	-0.03434489367	0.252125614	
658.75	0.5920868263	0.03133380696	
659.375	0.1879176067	-0.195363746	
660.0	0.300834668	-0.1635219715	
660.625	0.2476452089	-0.4786864088	
661.25	-0.04574609894	-0.2704777971	
661.875	0.3339896313	-0.1208802795	
662.5	0.3444888531	-0.3083802259	
663.125	0.1629598052	-0.1978373484	
663.75	0.3212874465	-0.1929715753	
664.375	-0.1005273261	-0.4626964361	
665.0	-0.2007972396	-0.1136642601	
665.625	-0.3618501047	-0.06155892151	
666.25	-0.1272935582	0.3911015036	
666.875	0.09127797607	0.09749886539	
667.5	0.1661688797	0.296658135	
668.125	0.2911903576	-0.1436095205	
668.75	0.1225324661	-0.04529946077	
669.375	0.2754138402	-0.2745062336	
670.0	-0.2183923414	-0.2108953883	
670.625	0.1327673921	-0.08095345071	
671.25	0.07028260182	-0.337737303	
671.875	0.01854244216	-0.1914589543	
672.5	0.2408985101	0.001786747569	
673.125	0.298897946	-0.2921196099	
673.75	0.06916089398	-0.1811988008	
674.375	0.1662917237	-0.2140784644	
675.0	-0.1308477769	-0.381964932	
675.625	-0.1528676622	0.001320709163	
676.25	-0.1371961009	-0.1828234274	
676.875	-0.2650038583	0.06403408321	
677.5	-0.02891659316	0.03711199093	
678.125	-0.3122818286	0.05395648548	
678.75	0.2219066924	0.363173095	
679.375	0.04404784012	0.009243330992	
680.0	0.3438101664	0.03352054474	
680.625	0.01864543918	-0.2602417892	
681.25	0.03247505212	0.3274654182	
681.875	0.3872729571	-0.007568092726	
682.5	0.09618955391	-0.04053190854	
683.125	0.2175879408	0.3250201646	
683.75	0.4917176066	0.09257391506	
684.375	-0.02749286548	0.1021178731	
685.0	0.3145711512	0.2768711715	
685.625	0.3734917115	-0.06403489025	
686.25	0.1438045421	-0.0970078909	
686.875	0.5265450157	-0.07809192637	
687.5	0.1890968629	-0.4910788376	
688.125	0.06623971023	-0.3019230115	
688.75	-0.4013883049	-0.4256129716	
689.375	-0.3662239972	0.4570289719	
690.0	0.02229795276	0.1346651176	
690.625	0.2365058623	0.5225050929	
691.25	0.4223849979	0.08829221887	
691.875	0.1723902497	0.4342567795	
692.5	0.8172439288	0.4113999246	
693.125	0.5530872118	-0.2374203655	
693.75	0.6655301778	0.03672835087	
694.375	0.6362411227	-0.4634825884	
695.0	0.2768914233	-0.08050683313	
695.625	0.4531172178	0.1821698214	
696.25	0.7667201797	0.2317546206	
696.875	0.3497132181	0.4478173662	
697.5	0.2230697577	0.5139162999	
698.125	0.5975348735	0.4159053923	
698.75	0.2621133098	-0.4522280594	
699.375	-0.1134894482	-0.5391214055	
700.0	-0.5547147671	0.2973588194	
700.625	0.2136331351	0.1817639115	
701.25	0.05223436572	0.3399140621	
701.875	0.4884545023	0.2548372947	
702.5	0.1626380636	0.1377400948	
703.125	0.4250019313	0.3151739001	
703.75	0.506754258	-0.2176992345	
704.375	0.2017608314	-0.03820528892	
705.0	0.4120409637	-0.02720007574	
705.625	0.1683264135	0.02234920604	
706.25	0.1142005875	0.198971007	
706.875	0.2516384888	0.4406372279	
707.5	0.3461678063	0.277232542	
708.125	0.4828314748	0.07105265202	
708.75	0.4488965372	-0.3108240405	
709.375	-0.3855388716	-0.2926942347	
710.0	-0.06212646292	0.1289445681	
710.625	-0.07029886594	0.3258211977	
711.25	0.107601301	-0.02277874579	
711.875	0.09852541726	0.2748473257	
712.5	0.441935796	-0.06941919502	
713.125	0.1184718521	-0.161997238	
713.75	0.2757691339	-0.1666918762	
714.375	-0.02423702569	-0.3586589013	
715.0	-0.05309253344	-0.1073725481	
715.625	0.1605276498	-0.2654151231	
716.25	0.1736622753	-0.3029688068	
716.875	0.2461499668	-0.05058189856	
717.5	0.6926413579	0.1475564998	
718.125	0.772970748	-0.06489444853	
718.75	0.5974755602	-0.1787510964	
719.375	1.184996995	-0.2108775631	
720.0	0.360089997	-1.008953428	
720.625	0.1007028169	-0.3120987443	
721.25	0.5710625316	-1.414158852	
721.875	-0.5584143307	-0.882870398	
722.5	-0.1244140496	-0.8990668507	
723.125	-1.034738397	-0.3001203228	
723.75	-0.2153892931	0.5501126909	
724.375	-0.2015238924	0.3227513657	
725.0	0.3070267673	0.5822950275	
725.625	0.1971212884	0.1873267979	
726.25	-0.2196050386	0.7279857422	
726.875	-0.09055673875	1.251185403	
727.5	0.1338038507	1.065359381	
728.125	-0.8787189092	1.835219853	
728.75	-0.1523086286	3.653462567	
729.375	0.222967517	2.922163603	
730.0	-2.118129237	3.53299881	
730.625	0.3000752108	6.390644356	
731.25	1.253165661	2.711431329	
731.875	-4.178552284	0.8442274089	
732.5	-5.85037404	2.372039916	
733.125	-1.214434351	0.6247078793	
733.75	-2.263714641	0.6451740733	
734.375	1.472410953	0.3677987935	
735.0	-0.004124692636	-0.2936976543	
735.625	-0.6732887607	-0.2096310122	
736.25	0.3813555814	0.7662616351	
736.875	-0.1444087715	0.4056175237	
737.5	1.444262741	0.6098240538	
738.125	1.467056727	-0.9288321378	
738.75	0.6750901966	-0.5786118475	
739.375	4.415124785	-0.265464354	
740.0	2.204403817	-5.147329904	
740.625	-0.7466028724	0.9641345361	
741.25	1.453558972	5.584927954	
741.875	-0.02290727271	2.854355318	
742.5	1.534391343	-2.89686468	
743.125	-0.08111379398	-3.139798999	
743.75	-0.3618169524	-0.5639351651	
744.375	-0.1902705687	-0.4300240168	
745.0	0.2340106515	0.4309320838	
745.625	-0.0546510633	0.08982664457	
746.25	0.006737878998	-0.219649309	
746.875	-0.1833833558	0.1054626562	
747.5	-0.2215178105	0.1882387235	
748.125	0.08426895235	0.6890629295	
748.75	0.3220882995	0.367720495	
749.375	-0.004334433646	0.4123212884	
750.0	-0.4773498901	0.3171951391	
