!Created with skrf (http://scikit-rf.org).
# GHz S RI R (50+0j) 
!freq	ReS11	ImS11	
500.0	0.3002022753	-1.1097086	
500.625	0.2689205154	-0.9923906653	
501.25	-0.2840440891	-0.7439413997	
501.875	-0.2874002425	-0.4802214205	
502.5	-0.03654347466	-0.1332986403	
503.125	-0.07382053541	0.004534336134	
503.75	0.006134259113	0.08187801826	
504.375	0.0274646359	-0.003481131464	
505.0	0.0210759754	-0.0189694884	
505.625	0.00326925228	-0.05112349398	
506.25	-0.05570093591	-0.05804931948	
506.875	-0.1080466349	0.01167286691	
507.5	-0.0689241544	-0.3442984617	
508.125	0.1748126854	-0.685086148	
508.75	0.5251607667	-0.9464429536	
509.375	0.05405514339	-1.411091689	
510.0	-0.4793568163	-0.2701136713	
510.625	-0.05822300602	-0.2120744184	
511.25	-0.1479877252	-0.08157397359	
511.875	-0.1463031947	-0.006752992274	
512.5	-0.04614462483	0.04139433698	
513.125	0.00105327795	-0.05735575499	
513.75	-0.05276164371	-0.05802105244	
514.375	-0.0574456615	-0.01670650655	
515.0	0.01691360012	-0.04593355891	
515.625	0.007924967718	-0.3190054745	
516.25	-0.1991297218	-0.6306065728	
516.875	-0.1142783931	-0.4188701932	
517.5	-0.04471238224	-0.1628509871	
518.125	-0.02583205944	-0.03600531406	
518.75	-0.04046843248	-0.1428420657	
519.375	-0.06277426471	0.03487103216	
520.0	0.1048076787	0.05535685594	
520.625	0.1619049302	-0.0520331623	
521.25	-0.001704709316	-0.2617201157	
521.875	-0.1473894125	-0.03156508767	
522.5	-0.04622046522	0.02730238208	
523.125	-0.05953460771	0.02295559921	
523.75	-0.1097466404	-0.01294815446	
524.375	-0.1543177553	0.02988584821	
525.0	-0.04484965834	0.1277447688	
525.625	0.02948995329	0.04726073055	
526.25	-0.009999123499	-0.01407103053	
526.875	-0.05381075519	0.05041671653	
527.5	-0.04928358202	0.1878849706	
528.125	0.05637153972	0.2587316902	
528.75	0.0229206271	0.2132554327	
529.375	0.04399113237	0.07140700825	
530.0	0.02231043611	0.1576562723	
530.625	0.09591899448	0.3005014035	
531.25	0.406420828	0.1305957757	
531.875	0.232957061	-0.1734752119	
532.5	-0.04786969487	-0.1120993005	
533.125	0.05908791867	-0.0495163766	
533.75	0.1165159216	-0.1704261037	
534.375	-0.06768132004	-0.285695048	
535.0	-0.2368220774	-0.1151640335	
535.625	-0.170401123	0.09773930357	
536.25	-0.004672571691	0.09625838292	
536.875	0.0949668285	0.01830427746	
537.5	0.06994257592	-0.04095951564	
538.125	0.1151767487	-0.06076132695	
538.75	0.1314686175	-0.1200431756	
539.375	-0.07248219029	-0.1707280894	
540.0	-0.160659385	-0.1530031618	
540.625	-0.1658013514	-0.02983461122	
541.25	-0.08743696652	0.002430553353	
541.875	-0.04343267192	-0.02462140656	
542.5	-0.04466468286	-0.05514249637	
543.125	-0.07744883635	-0.04952816887	
543.75	-0.08748237727	-0.007900875861	
544.375	-0.0480715629	0.04028949774	
545.0	-0.006480673696	0.06045891252	
545.625	0.05118874124	0.06560115846	
546.25	0.09737462706	0.04215338081	
546.875	0.1225670887	-0.02347653175	
547.5	0.07368201971	-0.1225523759	
548.125	-0.03765016953	-0.1670290953	
548.75	-0.1255220666	-0.1227526591	
549.375	-0.1132280655	-0.07276521245	
550.0	-0.07764269402	0.004129838582	
550.625	-0.05533615898	0.004813880676	
551.25	-0.07784050095	0.02452549959	
551.875	-0.07769174403	0.0665332114	
552.5	-0.05000676089	0.07794024871	
553.125	-0.01819374315	0.06564845632	
553.75	0.04560590605	0.05085178331	
554.375	0.09799460332	0.003428880189	
555.0	0.1073228474	-0.07155230954	
555.625	0.09394956703	-0.1123794872	
556.25	0.07264754972	-0.1468196746	
556.875	-0.03326483614	-0.1686439235	
557.5	-0.09774423793	-0.1122547098	
558.125	-0.1219101238	-0.04984247625	
558.75	-0.1172070832	-0.006358480766	
559.375	-0.1195961574	0.01810623286	
560.0	-0.1063470928	0.07706753184	
560.625	-0.05719241475	0.1154732252	
561.25	0.005295722713	0.1035882574	
561.875	0.02701423546	0.04843576462	
562.5	0.0090961713	0.0580055717	
563.125	0.07187522967	0.07878557192	
563.75	0.1457907495	0.008850949757	
564.375	0.1383036402	-0.0960163746	
565.0	0.08373632586	-0.1527983967	
565.625	-0.02817367727	-0.1659673398	
566.25	-0.1160277263	-0.1169943333	
566.875	-0.1417978498	-0.08617353687	
567.5	-0.14192343	-0.1177991524	
568.125	-0.1454674941	-0.1645819721	
568.75	-0.230447345	-0.08804697764	
569.375	-0.247083585	0.09066629347	
570.0	-0.1335006058	0.20346122	
570.625	-0.06189873275	0.177877453	
571.25	-0.002339958015	0.1209064406	
571.875	0.05759509831	0.0802285169	
572.5	0.1301743022	0.004478528045	
573.125	0.09637858228	-0.1141357142	
573.75	0.04636365464	-0.1159145478	
574.375	0.01567138286	-0.07121826762	
575.0	0.03118929576	-0.03967891302	
575.625	0.04312844821	-0.07379078435	
576.25	0.05074000583	-0.1136730372	
576.875	-0.00142117367	-0.1491380351	
577.5	-0.0003578851957	-0.164091858	
578.125	-0.04296112445	-0.165685714	
578.75	-0.08636038432	-0.1297527035	
579.375	-0.08906503971	-0.06880259063	
580.0	-0.0520053156	-0.03244005309	
580.625	-0.07276942639	-0.03348869696	
581.25	-0.1097609663	0.07550507463	
581.875	0.003231128483	0.1613176423	
582.5	0.05592790091	0.1434603185	
583.125	0.07673182799	0.07996283935	
583.75	0.04097059317	0.0243429283	
584.375	0.03586790748	0.06044302639	
585.0	0.1115245882	0.06222278011	
585.625	0.1599053428	0.002028858179	
586.25	0.1551554362	-0.06182092725	
586.875	0.08013517701	-0.1358485904	
587.5	-0.007507124112	-0.1452454	
588.125	-0.01512039375	-0.1456382086	
588.75	0.03402728583	-0.1508691083	
589.375	0.06494055493	-0.1599983266	
590.0	-0.0553875618	-0.1808953901	
590.625	-0.1881472984	-0.051359364	
591.25	-0.1372123323	0.1107798305	
591.875	-0.03705713482	0.1205670333	
592.5	0.006532257405	0.05022967342	
593.125	-0.03318157851	0.05287872625	
593.75	0.05375680224	0.125246942	
594.375	0.1551981406	0.1043866697	
595.0	0.1754161085	0.1010637231	
595.625	0.1751289582	0.08025841258	
596.25	0.1646223941	0.04457215971	
596.875	0.1621266432	0.03914806239	
597.5	0.151761962	0.0860723981	
598.125	0.1517723233	0.1187154759	
598.75	0.1814526172	0.09162168153	
599.375	0.2204333716	-0.03097170322	
600.0	0.1733900298	-0.1459040976	
600.625	0.1409868523	-0.1834042145	
601.25	0.06307475533	-0.1971397691	
601.875	-0.07966371544	-0.1482977318	
602.5	-0.1327301681	-0.02021888747	
603.125	-0.1139526104	0.04499047165	
603.75	-0.1127368979	0.07225670133	
604.375	-0.1033246496	0.07742141471	
605.0	-0.07185854768	0.07965685625	
605.625	-0.07386919235	0.06350491089	
606.25	-0.116644539	0.06415772178	
606.875	-0.1761534276	0.08802987414	
607.5	-0.172660928	0.1865783141	
608.125	-0.03678389595	0.2572613218	
608.75	0.1813752186	0.1819961901	
609.375	0.2453535719	-0.02548341407	
610.0	0.1781930305	-0.1205371246	
610.625	0.09232429324	-0.1643997215	
611.25	0.01018352307	-0.1669274483	
611.875	-0.08580571527	-0.1309690968	
612.5	-0.1669916377	-0.07139596951	
613.125	-0.1992836952	0.03391231793	
613.75	-0.09660530113	0.1496954505	
614.375	0.04493074169	0.1143082504	
615.0	0.04002856831	0.04602785654	
615.625	-0.002889780122	0.09000219852	
616.25	-0.04416223061	0.1504921782	
616.875	-0.08130349133	0.1945959175	
617.5	-0.07220028894	0.2272021674	
618.125	-0.02048603021	0.2237448498	
618.75	0.02118024078	0.1997836422	
619.375	0.09571536569	0.171841018	
620.0	0.1968846133	0.05446742684	
620.625	0.1226046708	-0.1579342494	
621.25	-0.08412191848	-0.1957734979	
621.875	-0.2100291416	-0.09685080018	
622.5	-0.2267699713	0.05503246121	
623.125	-0.04686572992	0.1933276791	
623.75	0.135971944	0.04974156787	
624.375	0.04234200458	-0.05309663281	
625.0	0.04414202062	-0.02606528397	
625.625	0.05607151691	-0.09278654191	
626.25	-0.04705458008	-0.1446614606	
626.875	-0.1418339175	-0.09030191518	
627.5	-0.1504280907	-0.04621552074	
628.125	-0.1150062421	-0.07330842567	
628.75	-0.07529105112	-0.1295803278	
629.375	-0.09165280997	-0.1598387079	
630.0	-0.1917151358	-0.1117667891	
630.625	-0.2341682985	0.05771984629	
631.25	-0.1588520743	0.1987676584	
631.875	-0.03627843259	0.2586244716	
632.5	0.1422049737	0.2123222592	
633.125	0.2153925784	0.06699776442	
633.75	0.1811181124	-0.06090200286	
634.375	0.07374640266	-0.1408510511	
635.0	-0.005532301679	-0.1586382662	
635.625	-0.1473242472	-0.1016540552	
636.25	-0.1670183468	0.06556513487	
636.875	-0.07385451701	0.1294700288	
637.5	-0.04224840492	0.09175123974	
638.125	-0.07150245632	0.09166947963	
638.75	-0.0789421766	0.1709254551	
639.375	-0.01111657817	0.2589319522	
640.0	0.1330629109	0.2602952507	
640.625	0.2416990725	0.1681220378	
641.25	0.2908842141	0.01412654775	
641.875	0.193653495	-0.1838843828	
642.5	0.004344192754	-0.2256206801	
643.125	-0.1209821564	-0.1335425362	
643.75	-0.1338812689	-0.08191347002	
644.375	-0.1823359288	-0.01092171136	
645.0	-0.161809592	0.1519707462	
645.625	0.0465982835	0.2284308497	
646.25	0.1713880052	0.08797787176	
646.875	0.1063438421	-0.0150539883	
647.5	0.05569519937	0.03452063261	
648.125	0.1602639657	0.06328716631	
648.75	0.2767667642	-0.05630493225	
649.375	0.2453048071	-0.240977933	
650.0	0.1807484774	-0.3092704508	
650.625	0.1691555109	-0.2935908184	
651.25	0.2111405011	-0.2411084597	
651.875	0.2648617179	-0.1658807055	
652.5	0.289362602	-0.08792152552	
653.125	0.2850160815	-0.09545172511	
653.75	0.2219849294	-0.2200985608	
654.375	-0.02889595954	-0.3252459163	
655.0	-0.2907534867	-0.12420927	
655.625	-0.1984699931	0.1780555969	
656.25	0.02134546493	0.1805763463	
656.875	0.04406205397	0.0752049665	
657.5	0.03259086498	0.1128858451	
658.125	0.1382068375	0.1735424717	
658.75	0.2975667794	0.1030680356	
659.375	0.3510637954	-0.1263129787	
660.0	0.2494333299	-0.2964792906	
660.625	0.1555267815	-0.3341346168	
661.25	0.1819529595	-0.2991050314	
661.875	0.2339218435	-0.254452416	
662.5	0.2782066206	-0.1952461008	
663.125	0.2871304798	-0.1863847011	
663.75	0.1882075469	-0.2853662567	
664.375	-0.01746789886	-0.345306978	
665.0	-0.2636280113	-0.2411443963	
665.625	-0.3364962677	0.06844912541	
666.25	-0.127752846	0.2721769909	
666.875	0.1036476845	0.2288825734	
667.5	0.1868621822	0.1119000662	
668.125	0.228347524	0.003053926789	
668.75	0.2126223798	-0.1344014617	
669.375	0.1136061583	-0.2255743247	
670.0	0.02052285477	-0.2285115823	
670.625	0.01637575016	-0.2000984064	
671.25	0.06635506373	-0.1815931237	
671.875	0.1477931913	-0.1701455303	
672.5	0.2184564654	-0.147003832	
673.125	0.2246250382	-0.1695905961	
673.75	0.1783008584	-0.2149149817	
674.375	0.07814390096	-0.2673316907	
675.0	-0.07260147371	-0.2606278778	
675.625	-0.1869258612	-0.1494216343	
676.25	-0.1845753622	-0.04384423212	
676.875	-0.1583188872	-0.006119794998	
677.5	-0.1645954913	0.01292749697	
678.125	-0.1587070874	0.1295046615	
678.75	0.005917305617	0.2370863725	
679.375	0.2111700486	0.1041906662	
680.0	0.165930034	-0.08302541371	
680.625	0.07374593203	-0.08161829896	
681.25	0.09328271794	-0.009833833233	
681.875	0.1532039206	0.05608301574	
682.5	0.2085815153	0.1038416542	
683.125	0.251135901	0.0938385348	
683.75	0.2710006127	0.08571654731	
684.375	0.284447635	0.05773582064	
685.0	0.2865136153	0.05899083326	
685.625	0.3004739067	0.02424141684	
686.25	0.315417662	-0.01797632419	
686.875	0.3294219136	-0.1250125672	
687.5	0.2986047204	-0.2806082938	
688.125	0.02329541709	-0.4559416447	
688.75	-0.4033424414	-0.2481293024	
689.375	-0.3375141418	0.2862468579	
690.0	0.06327719589	0.3791502804	
690.625	0.2263491112	0.28036566	
691.25	0.3129142367	0.2988740872	
691.875	0.4541622464	0.3419772808	
692.5	0.6126751341	0.2465009788	
693.125	0.6845866453	0.01059940812	
693.75	0.6196837865	-0.221348659	
694.375	0.4714066433	-0.3832067191	
695.0	0.4785321158	-0.2762533801	
695.625	0.5244293795	-0.06306445717	
696.25	0.5025668495	0.2019800604	
696.875	0.3842366704	0.4275670419	
697.5	0.360194443	0.4952912612	
698.125	0.5646304685	0.3020892786	
698.75	0.5115420147	-0.3651640989	
699.375	-0.339045552	-0.4598329587	
700.0	-0.3331130679	0.3173425846	
700.625	0.1103233488	0.3191590018	
701.25	0.2181392586	0.2055699175	
701.875	0.2566518852	0.2535863109	
702.5	0.3487021334	0.2644399123	
703.125	0.4253759161	0.1405229059	
703.75	0.4051211102	-0.08321519355	
704.375	0.2934568916	-0.1858690195	
705.0	0.2523240465	-0.1305831098	
705.625	0.2721739993	0.006558425164	
706.25	0.2535627572	0.1940399687	
706.875	0.2288823375	0.3128869144	
707.5	0.2559066656	0.380474847	
708.125	0.4436855299	0.1802109449	
708.75	0.3508492764	-0.3122833555	
709.375	-0.2326854569	-0.3331502121	
710.0	-0.2272389226	0.1854025826	
710.625	0.04871956159	0.1677621804	
711.25	0.07930434853	0.1342302525	
711.875	0.2028292711	0.1401297146	
712.5	0.3205540512	0.007544989064	
713.125	0.2884464998	-0.1567894614	
713.75	0.1574673651	-0.2449596038	
714.375	0.02927112955	-0.2448023397	
715.0	-0.01688580823	-0.2099807685	
715.625	0.02770461368	-0.2193552181	
716.25	0.1688240891	-0.2366557614	
716.875	0.3484715753	-0.169387625	
717.5	0.5216896379	-0.004443078242	
718.125	0.6729534518	0.09920829074	
718.75	0.8010290041	-0.04164699809	
719.375	0.8001960895	-0.3288463805	
720.0	0.5908195543	-0.7532471885	
720.625	0.3526498832	-0.9160372236	
721.25	0.06895515194	-1.023256269	
721.875	-0.1509447854	-1.047482931	
722.5	-0.5432025097	-0.839702817	
723.125	-0.7764332926	-0.2358034014	
723.75	-0.4658171424	0.3920403068	
724.375	-0.01421899455	0.4675734319	
725.0	0.1525602112	0.3878982949	
725.625	0.1563666156	0.4630285156	
726.25	0.02450402717	0.6793130776	
726.875	-0.122790007	0.9418091762	
727.5	-0.1967185744	1.343841786	
728.125	-0.1821129546	1.907104117	
728.75	-0.4453542462	2.904918288	
729.375	-0.8894076484	3.495204896	
730.0	-0.2221660017	3.900142203	
730.625	-0.09126256444	4.021942769	
731.25	-1.071436799	3.598634773	
731.875	-2.756268555	2.27194793	
732.5	-3.300427578	0.3921242331	
733.125	-2.470321305	0.2606178948	
733.75	-1.031031706	1.208358516	
734.375	0.7772284072	0.5775720856	
735.0	0.08155325047	-0.6169128196	
735.625	-0.4848351484	0.05440860197	
736.25	-0.1201291824	0.5252681934	
736.875	0.3661592278	0.5970671008	
737.5	1.031479184	0.2957784936	
738.125	1.499325073	-0.2869209045	
738.75	1.808307901	-1.012951359	
739.375	2.231286742	-1.42936234	
740.0	3.049008259	-1.09635224	
740.625	2.610637861	0.1901023961	
741.25	0.8004875203	2.120266892	
741.875	-2.469157098	0.1705100768	
742.5	-0.9127335595	-2.577213447	
743.125	0.3141171878	-1.941022593	
743.75	-0.02939426695	-0.9532900842	
744.375	-0.378359959	-0.1441275045	
745.0	0.04047538927	0.1071784357	
745.625	0.05551852088	0.00772903646	
746.25	-0.007194000632	-0.132665527	
746.875	-0.22101329	-0.01444622087	
747.5	-0.1368211329	0.3359474062	
748.125	0.08015625322	0.5354065736	
748.75	0.2245101411	0.4713229172	
749.375	0.09774292487	0.4704710164	
750.0	-0.429561789	0.2431012668	
