!Created with skrf (http://scikit-rf.org).
# GHz S RI R 50.0 
!freq ReS11 ImS11
500.0 -0.03566898906 0.0173190157
500.625 -0.01122474248 0.04282911695
501.25 -0.01014392221 0.04052564058
501.875 -0.02724969062 0.06292363387
502.5 -0.04194003018 0.07301669294
503.125 -0.005197374508 0.06810476256
503.75 0.02337817336 0.05351679652
504.375 0.04064190289 0.04381651885
505.0 0.06558314481 0.02218320772
505.625 0.0706975655 0.01283397715
506.25 0.05621574749 -0.0005765321107
506.875 0.05301507759 0.03612557078
507.5 0.05857176296 0.03604580041
508.125 0.04627739564 0.05801975316
508.75 0.0654789346 0.02564444644
509.375 0.07082314112 0.02808363566
510.0 0.0825017783 0.05621995397
510.625 0.045732919 -0.04965843262
511.25 0.01922930858 -0.05234690713
511.875 0.0005697104743 -0.03967900425
512.5 -0.003363169228 -0.0280340448
513.125 -0.03643065855 -0.02170970363
513.75 -0.06842838423 -0.0144265991
514.375 -0.08801527186 0.01970323995
515.0 -0.07619467491 0.0575922791
515.625 -0.1079266991 0.02612236331
516.25 -0.05853134938 0.09634658413
516.875 -0.1013940666 0.03026044089
517.5 -0.03719091868 0.05721635236
518.125 -0.06333740297 -0.01539389775
518.75 -0.05559701141 0.02505009988
519.375 -0.06866071289 0.02576548414
520.0 -0.02636312665 0.06145518409
520.625 -0.01841244295 0.04671259065
521.25 -0.01636449825 0.05537534616
521.875 -0.02272519334 0.03324912342
522.5 0.01777052449 0.0367349032
523.125 0.009710868534 0.03650862957
523.75 -0.03880141608 0.02748054516
524.375 -0.09412911481 -0.007502601489
525.0 -0.06238507031 0.01405275855
525.625 -0.06603367897 0.04333320452
526.25 -0.07647813718 0.0372315348
526.875 -0.04343949833 0.04037808425
527.5 -0.02278461852 0.06161058362
528.125 0.02440345618 0.07478406794
528.75 0.03224112049 0.07330018713
529.375 0.0563157973 0.05192582039
530.0 0.08961430927 0.01474821127
530.625 0.1240007132 -0.09615189368
531.25 0.1501107769 -0.1231241609
531.875 0.07779788759 -0.1328356203
532.5 0.01577234555 -0.113490015
533.125 0.04228167351 -0.1021872807
533.75 0.01564796015 -0.09059818486
534.375 0.01259011078 -0.07949433079
535.0 0.006027821249 -0.06671732903
535.625 0.05265842865 -0.04613252864
536.25 0.02188343866 -0.06974991494
536.875 0.03275762396 -0.1048861986
537.5 0.04814506267 -0.1083780348
538.125 0.01542218399 -0.07421666676
538.75 0.0115352172 -0.06146351194
539.375 0.05411405744 -0.07790211425
540.0 0.08426806258 -0.1297970745
540.625 0.06606020199 -0.1095747099
541.25 0.0480354758 -0.0921256836
541.875 0.04758829982 -0.1078656576
542.5 0.04517237862 -0.1112132899
543.125 -0.01219359119 -0.09135123248
543.75 -0.04337225891 -0.03533288299
544.375 -0.02958308013 -0.03636303969
545.0 -0.04136578849 -0.03182337349
545.625 -0.06920231692 -0.003070302137
546.25 -0.0669763501 0.02167713804
546.875 -0.06735874139 0.03456688449
547.5 -0.06340602999 0.01785136578
548.125 -0.07038546265 0.01776422875
548.75 -0.07128820415 -0.0144644713
549.375 -0.05931552054 -0.0473703324
550.0 -0.007395547015 -0.06559842327
550.625 -0.000361739702 -0.08386441154
551.25 0.0381632102 -0.1045292676
551.875 0.02207343627 -0.1229766487
552.5 -0.01423804473 -0.1064390918
553.125 -0.04745903512 -0.09547426783
553.75 -0.05083045992 -0.100834905
554.375 -0.068350988 -0.08072208384
555.0 -0.06695770875 -0.05551854168
555.625 -0.07116358803 -0.044419955
556.25 -0.06575449694 -0.06382861266
556.875 -0.06438686703 -0.05311326966
557.5 -0.05379022577 -0.04598647749
558.125 -0.03848054381 -0.04046968429
558.75 0.004290268733 -0.04159867975
559.375 0.01150561019 -0.03340389392
560.0 0.03239227016 -0.05912669068
560.625 0.02641454743 -0.08809148449
561.25 -0.002806522372 -0.1000045452
561.875 -0.04465777496 -0.07546308367
562.5 -0.07783840038 -0.052138567
563.125 -0.09547105152 -0.03413368144
563.75 -0.08119074401 -0.0002275303078
564.375 -0.06037756243 0.0239722187
565.0 -0.05695657742 0.00730252479
565.625 -0.0598818269 -0.01795340269
566.25 -0.04442906279 -0.04469738931
566.875 -0.04339100898 -0.04769518851
567.5 -0.03580991638 -0.05527315023
568.125 -0.01415056902 -0.05134737661
568.75 0.009235078215 -0.0527839766
569.375 0.03269801315 -0.05313402188
570.0 0.04035958345 -0.07861165531
570.625 0.02587486347 -0.07838588115
571.25 -0.001353093605 -0.08935487609
571.875 -0.009526572834 -0.0970676876
572.5 -0.06198388759 -0.09743078588
573.125 -0.07951824148 -0.05105576671
573.75 -0.08185087232 -0.002552680873
574.375 -0.07506472334 -0.01139898708
575.0 -0.08323541847 -0.02699476827
575.625 -0.07362594006 -0.001102191384
576.25 -0.06767476691 0.01931848188
576.875 -0.05959247075 0.02336081885
577.5 -0.04857726148 -0.001383308557
578.125 -0.03414129225 -0.007986371615
578.75 -0.03875412755 -0.01327846045
579.375 -0.04531274452 -0.02217255737
580.0 -0.04241799483 -0.0407028105
580.625 -0.04574171918 -0.0578942077
581.25 -0.07988560107 -0.05032642831
581.875 -0.0944191832 -0.04048873927
582.5 -0.08489727202 -0.02119179751
583.125 -0.07146012373 -0.03068581957
583.75 -0.0615308784 -0.03798081275
584.375 -0.05478039332 -0.05560688476
585.0 -0.0520483104 -0.04136071304
585.625 -0.04499530181 -0.04182257929
586.25 -0.02839091361 -0.05107194231
586.875 -0.02810421127 -0.05132557631
587.5 -0.04260258452 -0.02927764364
588.125 -0.04820565352 -0.01051162383
588.75 -0.04407265089 -0.03152655559
589.375 -0.04556874951 -0.04153195758
590.0 -0.0714386621 -0.02090953014
590.625 -0.09072367654 0.01955285388
591.25 -0.09111138583 0.03825606088
591.875 -0.06172296047 0.0361083267
592.5 -0.03650387058 0.03482354465
593.125 -0.03839938412 0.02496506467
593.75 -0.0440611351 0.01193203769
594.375 -0.035186547 -0.006056041874
595.0 -0.01587704191 -0.02134609406
595.625 -0.006119726816 -0.03815062777
596.25 0.00181709389 -0.04462506664
596.875 0.001577730634 -0.04311406679
597.5 0.01272325441 -0.03707221641
598.125 0.020602226 -0.03631744745
598.75 0.02247780834 -0.04300352311
599.375 0.01792895424 -0.057569262
600.0 0.01799004665 -0.07300521016
600.625 0.01473163037 -0.07585939992
601.25 -0.006605552249 -0.06640272719
601.875 -0.02261946486 -0.05164157993
602.5 -0.02251085359 -0.04168254266
603.125 -0.01315397164 -0.03027085682
603.75 -0.006262992882 -0.01529704967
604.375 0.006186318871 -0.01277276124
605.0 0.01577082921 -0.0212760102
605.625 0.01076624893 -0.02518787737
606.25 -0.002414464835 -0.01513520086
606.875 -0.005546094769 0.004792863885
607.5 0.009917695022 0.01761911283
608.125 0.02458009023 0.009043419929
608.75 0.02485919277 0.002857756762
609.375 0.02585462062 0.007727353415
610.0 0.0306352254 0.01097555194
610.625 0.03309510371 0.00185550466
611.25 0.02887867528 -0.007240897224
611.875 0.02108162528 -0.01213874803
612.5 0.008415933666 -0.01638988645
613.125 -0.007959684088 -0.01286019425
613.75 -0.01402077957 -0.000858733733
614.375 -0.007620940324 0.004654740974
615.0 -0.002363731598 -0.001766313325
615.625 -0.01130776737 -0.009503277696
616.25 -0.02104485251 -0.002040091643
616.875 -0.01528917244 0.008358148687
617.5 -0.005078367547 0.004713684714
618.125 -0.004714708476 -0.005267568417
618.75 -0.007262936018 -0.007307462214
619.375 -0.0001206155678 -0.006286869386
620.0 0.01295243021 -0.01520365935
620.625 0.01021180341 -0.03799677989
621.25 0.003451778423 -0.05540076371
621.875 -0.01263754542 -0.07103186373
622.5 -0.07009773112 -0.03475586077
623.125 -0.07082710785 -0.004978355068
623.75 -0.05667012808 0.002906157292
624.375 -0.0449879041 -0.01450548821
625.0 -0.02915310375 -0.0340847087
625.625 -0.02823716767 -0.02320179937
626.25 -0.02158528187 -0.003789682837
626.875 -0.001531193208 -0.008068625239
627.5 0.02165445166 -0.02463000007
628.125 0.03329178769 -0.02568644835
628.75 0.03173654088 -0.02332756121
629.375 0.04230698618 -0.02226507395
630.0 0.06427956913 -0.02218901834
630.625 0.07796420312 -0.01362123988
631.25 0.07759442301 -0.01863812896
631.875 0.07622978636 -0.02859607803
632.5 0.06718062634 -0.03291970325
633.125 0.0636518053 -0.02882304717
633.75 0.05880955369 -0.02584742721
634.375 0.06009407753 -0.02345748068
635.0 0.04364769654 -0.02313086539
635.625 0.03416796115 -0.02414057489
636.25 0.05614825542 -0.01053954528
636.875 0.07237588155 -0.004082417478
637.5 0.05131862637 -0.0141374807
638.125 0.03511848662 -0.01063348159
638.75 0.05069220333 0.02247698007
639.375 0.05428117874 0.06966459152
640.0 0.03928482951 0.06874387522
640.625 0.04305934861 0.05827338567
641.25 0.03599165002 0.06131396436
641.875 0.006524384206 0.0695611657
642.5 -0.00613764256 0.06450346514
643.125 -0.008381176512 0.0657473102
643.75 -0.0158117154 0.06566919149
644.375 -0.02497250287 0.05414823319
645.0 -0.02805798311 0.06503772134
645.625 -0.03449262273 0.07908569431
646.25 -0.02762636199 0.09555410066
646.875 -0.01880651929 0.075817593
647.5 -0.01445251648 0.07459102728
648.125 -0.03608209742 0.07870158537
648.75 -0.0629293099 0.07661728859
649.375 -0.04523358526 0.06167794378
650.0 -0.0453480009 0.04991686807
650.625 -0.05682986967 0.02087455026
651.25 -0.05459083372 -0.0157012654
651.875 -0.03763342618 -0.02337476099
652.5 -0.02167565844 -0.04164328159
653.125 0.01073239965 -0.06648293797
653.75 0.04519190739 -0.0708766133
654.375 0.0582537594 -0.07605978992
655.0 0.06656956141 -0.09036916622
655.625 0.06750024194 -0.09825685821
656.25 0.03336745885 -0.09034904795
656.875 0.01434862309 -0.0978454197
657.5 0.0258648209 -0.1005229715
658.125 0.03418251531 -0.09074067786
658.75 -0.006020146657 -0.06544992009
659.375 -0.005394173745 -0.05571475937
660.0 0.006561494167 -0.06064936203
660.625 0.02093948961 -0.06650631525
661.25 -0.001063903394 -0.06791967086
661.875 -0.02120634601 -0.08275311352
662.5 -0.03576895065 -0.1033936662
663.125 -0.01908592099 -0.1016438095
663.75 0.002063627958 -0.1068127474
664.375 0.06497722183 -0.09443097813
665.0 0.1072669143 -0.04482931994
665.625 0.0887487541 -0.01558941326
666.25 0.08727963141 -0.002565977561
666.875 0.07944117114 0.03378616076
667.5 0.04194328429 0.05782167064
668.125 0.02618714969 0.05230756755
668.75 0.02931225678 0.06631574675
669.375 0.04341956111 0.09198599052
670.0 0.02776227849 0.08818561822
670.625 0.03034081642 0.07949243258
671.25 0.04003349966 0.08278858335
671.875 0.0767517418 0.08616210588
672.5 0.09687430527 0.03280010487
673.125 0.09856143512 -0.005401554457
673.75 0.07772330567 0.01361260795
674.375 0.05927445492 0.04341368479
675.0 0.03910851388 0.05397770918
675.625 0.02299371064 0.07554381702
676.25 -0.02752847815 0.08813885534
676.875 -0.0583906792 0.06124263445
677.5 -0.0576851984 0.07250096937
678.125 -0.06744032258 0.1017046916
678.75 -0.08771704956 0.1156950094
679.375 -0.06910184717 0.07406288309
680.0 -0.04235360177 0.08257712674
680.625 -0.03514987735 0.09008393274
681.25 -0.02823308679 0.09825788649
681.875 -0.0033267155 0.06147210714
682.5 0.009931444388 0.05293120077
683.125 -0.005892701554 0.07037015452
683.75 -0.04605649343 0.08316902248
684.375 -0.06902533373 0.05001282603
685.0 -0.08926842469 -0.01305841123
685.625 -0.069751808 -0.0809684115
686.25 -0.02642311417 -0.1184613854
686.875 -0.02585958963 -0.1249353118
687.5 0.004561755114 -0.1384190204
688.125 0.02246519046 -0.117004719
688.75 0.02189359901 -0.08186221517
689.375 0.02396448381 -0.07546234476
690.0 0.05207062362 -0.07291898466
690.625 0.06717369517 -0.04520052427
691.25 0.03450158454 -0.04137225248
691.875 0.02461979691 -0.06802217409
692.5 -0.03751665698 -0.1150661241
693.125 -0.1290379126 -0.07622751732
693.75 -0.1194715348 0.03417055923
694.375 -0.1065855906 0.05733773323
695.0 -0.1285351207 0.008017206509
695.625 -0.08293471304 -0.08666253183
696.25 0.01660285799 -0.1043968172
696.875 0.08541872373 -0.0373891632
697.5 0.0710373347 0.03351274342
698.125 0.03844714757 0.04757746571
698.75 0.03820440974 0.07211662418
699.375 0.02883333588 0.1000202169
700.0 0.001199649428 0.09437517255
700.625 -0.008410045218 0.08232296398
701.25 -0.01148496586 0.1098801068
701.875 0.004779573377 0.140830209
702.5 0.04188142717 0.0916425932
703.125 0.06791941794 0.01914055061
703.75 0.06251591931 -0.009686691789
704.375 0.1003849999 -0.01435597704
705.0 0.09901414221 0.005106173296
705.625 0.07925171288 0.01860880099
706.25 0.04494656792 0.06860258666
706.875 -0.04470864578 0.09924340035
707.5 -0.1004008192 0.05846499434
708.125 -0.1182909536 0.01494998888
708.75 -0.101488888 -0.02684705864
709.375 -0.05436816813 -0.06926451632
710.0 -0.01108249738 -0.08042618592
710.625 0.0284897814 -0.08708459186
711.25 0.04533723167 -0.06596079345
711.875 0.02136953334 -0.04183673885
712.5 0.005464245192 -0.03379879477
713.125 0.006448250752 -0.06326489375
713.75 -0.04520522825 -0.09160986409
714.375 -0.07999510779 -0.04739377933
715.0 -0.09210881547 0.006207466663
715.625 -0.1170598858 0.008495488283
716.25 -0.1224989441 -0.05106794206
716.875 -0.06584898269 -0.07058757632
717.5 -0.02415235575 -0.07414078407
718.125 0.003873101283 -0.07556086133
718.75 0.03539902648 -0.06880217135
719.375 0.04486933949 -0.04749569195
720.0 0.04835743905 -0.01518648825
720.625 0.02568825466 0.02632434202
721.25 -0.03066791724 0.02363027678
721.875 -0.05708711643 -0.01945102098
722.5 -0.07069370741 -0.04887137467
723.125 -0.09895389402 -0.01207619151
723.75 -0.06286169581 0.0620160705
724.375 0.00643223989 0.07636376886
725.0 0.04272682037 0.05011675717
725.625 0.0474399697 0.02182846244
726.25 0.03367394929 0.003626808822
726.875 0.01627703274 0.009997465847
727.5 -0.009973782815 0.02605108068
728.125 -0.03517241172 0.02968450107
728.75 -0.03035781024 0.03480706498
729.375 -0.009427607442 0.03691512306
730.0 -0.008098125025 0.02708094202
730.625 -0.02118120622 0.02290816887
731.25 -0.02744116148 0.01498623049
731.875 -0.02991588367 -0.0006500854218
732.5 -0.02437491024 -0.01117322765
733.125 -0.01671805379 -0.004893897984
733.75 -0.003966329189 0.006938446141
734.375 0.01027816159 0.005155771327
735.0 0.01265149308 -0.006159086513
735.625 0.01276976472 -0.01100842308
736.25 0.009273681789 -0.02242208865
736.875 -0.00722228116 -0.02835273791
737.5 -0.02331231728 -0.01536980235
738.125 -0.02983633348 0.007884717893
738.75 -0.02256925719 0.03307095025
739.375 0.0001242397047 0.04208824167
740.0 0.01874222801 0.02645498083
740.625 0.01455661051 0.01886026359
741.25 0.009165544226 0.03034636132
741.875 -0.01174913419 0.03568195934
742.5 -0.03851905477 0.007990923158
743.125 -0.02593409839 -0.0344673626
743.75 -0.0004090181737 -0.04743675682
744.375 -8.872288979e-05 -0.05343799763
745.0 -0.01352891131 -0.05614726841
745.625 -0.03448823235 -0.03513274826
746.25 -0.01995644125 -0.003866794341
746.875 -0.005387701797 -0.01521142791
747.5 -0.01970694539 -0.030890584
748.125 -0.04211100939 -0.02240798387
748.75 -0.04718258152 0.01353473964
749.375 -0.02093629445 0.0537672053
750.0 0.03893651577 0.06254044357
