!Created with skrf (http://scikit-rf.org).
# GHz S RI R 50.0 
!freq ReS11 ImS11
500.0 -0.03497281785 0.02843317628
500.625 0.004989868567 0.05129406225
501.25 0.008808865637 0.0517675055
501.875 -0.005694059616 0.06845597666
502.5 -0.01616617802 0.07884427925
503.125 0.01629496171 0.07124824548
503.75 0.03906028758 0.04967965896
504.375 0.05578163064 0.03137741273
505.0 0.07600887768 -0.0001086839447
505.625 0.08947322197 -0.01202113895
506.25 0.06577138668 -0.02486231499
506.875 0.07876867546 0.009314738832
507.5 0.08674671785 0.0003478051117
508.125 0.08192170665 0.0421097711
508.75 0.08241938242 -0.009609391474
509.375 0.07731373579 -0.01589402484
510.0 0.1128443566 0.01029869499
510.625 0.03481146689 -0.07383847086
511.25 -0.0007774221007 -0.06916030062
511.875 -0.03062492274 -0.04331016832
512.5 -0.03005746367 -0.02806198371
513.125 -0.05020440618 0.003426240871
513.75 -0.06549478516 0.02270388369
514.375 -0.0641717127 0.06521438458
515.0 -0.05194515528 0.1045004533
515.625 -0.1025422271 0.07079572452
516.25 -0.01763785294 0.1288673156
516.875 -0.1097198773 0.09722861928
517.5 -0.02057308465 0.1112043995
518.125 -0.1030011123 0.04473133422
518.75 -0.02141828214 0.06461393514
519.375 -0.05464845708 0.08382826204
520.0 0.004724631246 0.08904803913
520.625 0.01736915002 0.07301110638
521.25 0.03531601899 0.06332006734
521.875 -0.0002066910782 0.0682880948
522.5 0.04963893842 0.0406303723
523.125 0.08170936164 0.04236216967
523.75 0.07607665166 0.03067037174
524.375 -0.01013364889 0.05734141146
525.0 -0.02618144593 0.03136267698
525.625 -0.02135179669 0.05307731261
526.25 -0.027780389 0.07481276144
526.875 -0.01172057766 0.06128819015
527.5 0.01433524692 0.0577302923
528.125 0.0582687754 0.04016553242
528.75 0.08173656964 0.03698890566
529.375 0.08161088607 0.003847264902
530.0 0.06535000396 -0.02740548991
530.625 0.04369420022 -0.1267635528
531.25 0.09497883001 -0.198187718
531.875 0.01386080972 -0.1862198934
532.5 -0.04998880736 -0.1193542778
533.125 -0.05736516287 -0.1167671385
533.75 -0.04032910959 -0.1148384933
534.375 -0.04570934716 -0.08613929779
535.0 -0.04867137492 -0.05762689662
535.625 -0.0107679573 -0.06988733254
536.25 -0.02075878415 -0.07491602419
536.875 -0.02286928057 -0.1037773199
537.5 -0.02135474478 -0.1228786374
538.125 -0.04526622109 -0.09751635981
538.75 -0.03946837458 -0.06931204127
539.375 -0.01007640179 -0.08713523193
540.0 -0.02025091895 -0.1411290567
540.625 -0.01249930163 -0.1607904784
541.25 -0.004931660997 -0.1157263489
541.875 -0.0220639385 -0.1179264275
542.5 -0.03046125615 -0.1357894131
543.125 -0.07529432172 -0.1068428278
543.75 -0.08978873696 -0.02106614522
544.375 -0.07281478979 0.00922317049
545.0 -0.07127144417 0.03239991017
545.625 -0.05731063623 0.05536410906
546.25 -0.0353939751 0.07458103466
546.875 -0.015166825 0.08150968851
547.5 -0.04003671826 0.09755680312
548.125 -0.04149302149 0.07386470237
548.75 -0.05649352493 0.05532503929
549.375 -0.07243244612 0.04936171402
550.0 -0.06563311627 -0.01380989731
550.625 -0.03710887716 -0.03828762304
551.25 -0.01828200362 -0.07249946016
551.875 -0.06218001565 -0.08936788455
552.5 -0.06866852876 -0.09058603008
553.125 -0.08434410609 -0.05659119758
553.75 -0.09072431868 -0.05736853473
554.375 -0.1185003903 -0.02947837411
555.0 -0.1113707843 -0.01684280524
555.625 -0.09199235917 0.00423559641
556.25 -0.1046057441 -0.008209511485
556.875 -0.1094761865 -0.01629308174
557.5 -0.1006610595 -0.006549234396
558.125 -0.0799926165 -0.005029751964
558.75 -0.06654587458 -0.02940247244
559.375 -0.03439813827 -0.03051622042
560.0 -0.0222481344 -0.04105589369
560.625 -0.02969691656 -0.06469221706
561.25 -0.06860588393 -0.07129963487
561.875 -0.08250725793 -0.05143080364
562.5 -0.09522954846 -0.002696392056
563.125 -0.1022009902 0.04164889892
563.75 -0.09626417056 0.06957378238
564.375 -0.05597894185 0.07455279955
565.0 -0.04983443741 0.06478307321
565.625 -0.05074379511 0.05860927861
566.25 -0.08121469119 0.01860512956
566.875 -0.06996744693 -0.003380975968
567.5 -0.07311331827 -0.008675668061
568.125 -0.07142534877 -0.02103588455
568.75 -0.04928549451 -0.03247184958
569.375 -0.01683152795 -0.044855274
570.0 -0.02110505646 -0.0593395528
570.625 -0.03456580964 -0.08038709107
571.25 -0.04439418369 -0.06426802646
571.875 -0.05749968757 -0.06683739769
572.5 -0.1039560161 -0.03809780675
573.125 -0.1316787901 -0.00871930811
573.75 -0.0863459336 0.04680544681
574.375 -0.06494729405 0.05314475706
575.0 -0.0819830617 0.05847586814
575.625 -0.08439601998 0.05476662662
576.25 -0.05941510376 0.06362762141
576.875 -0.03634734316 0.07302352185
577.5 -0.03794037926 0.0733991676
578.125 -0.04229953312 0.03899688992
578.75 -0.03412477808 0.03236597786
579.375 -0.03537304607 0.03443263039
580.0 -0.04724906636 0.02432350695
580.625 -0.05920555347 -0.004960336731
581.25 -0.07401933359 -0.0003140122736
581.875 -0.09562109173 0.02615205332
582.5 -0.1002124302 0.03083283594
583.125 -0.08853292335 0.02928443561
583.75 -0.07553555494 0.01624399223
584.375 -0.09059567763 0.0074114428
585.0 -0.08608794559 -0.01278667292
585.625 -0.0756770327 0.003048217178
586.25 -0.06559601844 -0.003069951587
586.875 -0.07241343703 -0.01027540436
587.5 -0.06837542775 0.0009073301832
588.125 -0.04769668094 0.0362706909
588.75 -0.04093804795 0.03547062264
589.375 -0.05606186217 0.02051966462
590.0 -0.06196349567 0.02021549542
590.625 -0.06102916635 0.05512971465
591.25 -0.05231956127 0.08819484088
591.875 -0.0480783355 0.09416621606
592.5 -0.01970502927 0.07284627985
593.125 -0.01088431145 0.06297612341
593.75 -0.02469647852 0.06479473895
594.375 -0.04460092921 0.04414180629
595.0 -0.03896723249 0.0147897651
595.625 -0.03348201865 -0.002832315889
596.25 -0.04035530775 -0.02309442458
596.875 -0.03533169951 -0.02975625329
597.5 -0.02949007827 -0.02873454321
598.125 -0.02102378452 -0.02420045696
598.75 -0.01667074334 -0.03129192843
599.375 -0.01201851232 -0.04235389631
600.0 -0.01839712354 -0.05756122364
600.625 -0.0275205152 -0.07175584203
601.25 -0.04158603046 -0.06718238329
601.875 -0.05135316597 -0.0444193257
602.5 -0.05371422037 -0.03073281244
603.125 -0.0492174648 -0.03006898279
603.75 -0.03331553913 -0.02162652144
604.375 -0.01731771418 -0.01651304089
605.0 -0.009764694864 -0.02728689025
605.625 -0.0122463719 -0.03868436396
606.25 -0.01786808677 -0.03171730069
606.875 -0.0184662995 -0.01021561976
607.5 -0.004249500395 0.003812731
608.125 0.01025224704 -0.002194021679
608.75 0.01259987507 -0.006868010872
609.375 0.01692281387 -0.002838814056
610.0 0.02550697787 -0.0006217711218
610.625 0.03019948619 -0.008058269424
611.25 0.02806576236 -0.01501603594
611.875 0.02271325642 -0.01800574285
612.5 0.0114080197 -0.01957672401
613.125 -0.005304549462 -0.01386262844
613.75 -0.01175432457 0.0004542612756
614.375 -0.006118885609 0.008294728558
615.0 -0.001078397544 0.003846304383
615.625 -0.01043316285 -0.001295154316
616.25 -0.02094274107 0.008584587475
616.875 -0.01640503042 0.02065701695
617.5 -0.006836874283 0.01870158326
618.125 -0.008274288213 0.01140304495
618.75 -0.0135106497 0.01131524944
619.375 -0.01009476718 0.01246520184
620.0 0.001335242495 0.0050533426
620.625 0.0007643865758 -0.01411085556
621.25 -0.01113961156 -0.03314878172
621.875 -0.03023535614 -0.04780665488
622.5 -0.07254005335 -0.00230871498
623.125 -0.0736397378 0.03074290996
623.75 -0.06569182504 0.03498975931
624.375 -0.06210833609 0.01765188064
625.0 -0.06513378921 -0.007341380803
625.625 -0.07051424293 -0.002701418794
626.25 -0.05500494985 0.01536121587
626.875 -0.03480727984 0.01668594537
627.5 -0.02779853183 -0.004608862862
628.125 -0.02278103434 -0.03068384292
628.75 -0.01118540093 -0.03154301304
629.375 -0.002742959745 -0.0268464339
630.0 0.01036794799 -0.03881415067
630.625 0.03605168137 -0.05522983703
631.25 0.0469366789 -0.06102990562
631.875 0.03839621359 -0.06827415015
632.5 0.02695276557 -0.08324444299
633.125 0.03574882771 -0.08063584186
633.75 0.02341420804 -0.08015766748
634.375 0.02172539567 -0.0782555441
635.0 0.006109737578 -0.08565037442
635.625 -0.003147736142 -0.06412849466
636.25 0.006601055225 -0.05583974924
636.875 0.03021571583 -0.06857309409
637.5 0.02726028362 -0.0812488483
638.125 0.006608837081 -0.05784917998
638.75 0.01576022115 -0.03491432024
639.375 0.06009345434 -0.01806055158
640.0 0.08909704914 0.02085855425
640.625 0.07829275169 0.01331923735
641.25 0.07507907113 0.003255506138
641.875 0.08105772365 0.01711552482
642.5 0.06500710509 0.05553422216
643.125 0.0518776173 0.05447072095
643.75 0.06005118452 0.04682087969
644.375 0.06492584338 0.04571539751
645.0 0.04564526833 0.05329885596
645.625 0.03589102279 0.06697013434
646.25 0.05814575584 0.06813744689
646.875 0.0681048059 0.08137938053
647.5 0.05765306119 0.06027411485
648.125 0.04391743026 0.0715943377
648.75 0.03010022432 0.09745408393
649.375 0.01086920104 0.1127013948
650.0 0.009962311613 0.09102821084
650.625 -0.005509530099 0.08549253356
651.25 -0.04071993823 0.08080527615
651.875 -0.06419729712 0.04079938126
652.5 -0.0543671061 0.02292173799
653.125 -0.05203280613 0.001391934783
653.75 -0.04955501883 -0.04670713629
654.375 -0.01341260679 -0.07814367219
655.0 -0.01236449622 -0.08825679425
655.625 -0.03780498295 -0.1022978577
656.25 -0.05671161411 -0.1148780399
656.875 -0.0708562877 -0.08953425895
657.5 -0.06400027979 -0.09122990793
658.125 -0.08582467242 -0.1013424239
658.75 -0.09157069438 -0.08499275437
659.375 -0.08846962114 -0.02998682042
660.0 -0.07488734365 -0.01206829202
660.625 -0.08042846271 -0.01715233867
661.25 -0.07048525476 -0.02714947211
661.875 -0.0712996372 -0.00746660305
662.5 -0.08163159074 0.0003485278236
663.125 -0.101215351 -0.03145893395
663.75 -0.07191713956 -0.07403241784
664.375 -0.03453658337 -0.1044604459
665.0 0.008705472174 -0.1252013083
665.625 0.07138728986 -0.1151896676
666.25 0.07462291346 -0.08106042362
666.875 0.08323404671 -0.0673139401
667.5 0.1008649305 -0.05627619824
668.125 0.09067158158 -0.0136822169
668.75 0.06973744602 -0.00412398282
669.375 0.07733434767 -0.001010188586
670.0 0.107660242 0.00426189123
670.625 0.09532360712 0.02246266761
671.25 0.09360041289 0.006069561838
671.875 0.1009528731 -0.01828154046
672.5 0.1094769809 -0.07915107172
673.125 0.07514726753 -0.09724103533
673.75 0.05866933407 -0.09543340221
674.375 0.07433252471 -0.06531342121
675.0 0.09276974795 -0.0180664246
675.625 0.08219728719 0.005011690776
676.25 0.07777544968 0.03396851993
676.875 0.05943390712 0.07427126377
677.5 0.01888420136 0.08081537611
678.125 0.0223822946 0.08881170998
678.75 0.03650495385 0.1149218297
679.375 0.0271713243 0.154908315
680.0 0.02322465592 0.116270218
680.625 0.05370984768 0.09628575579
681.25 0.09716901576 0.07818091309
681.875 0.1221065317 0.07125506047
682.5 0.09354334581 0.02126722683
683.125 0.07285365712 0.01525984149
683.75 0.07521132717 0.0437258478
684.375 0.02736726208 0.09480693157
685.0 -0.0363763827 0.07849616139
685.625 -0.08059266729 0.02209351618
686.25 -0.1016841129 -0.02845994469
686.875 -0.09888866955 -0.07210935169
687.5 -0.1012930629 -0.08986044207
688.125 -0.1057807613 -0.1111364775
688.75 -0.07397035608 -0.1214390903
689.375 -0.05845211862 -0.0930613738
690.0 -0.05922190674 -0.08889009348
690.625 -0.07101453708 -0.1033196553
691.25 -0.05274376502 -0.0900337063
691.875 -0.05486676994 -0.03061330308
692.5 -0.07363619448 -0.006116406209
693.125 -0.094923026 0.08530200645
693.75 -0.07730043094 0.1400133193
694.375 -0.03227848752 0.1236008125
695.0 -0.06309728964 0.1091328322
695.625 -0.1405639742 0.04443469836
696.25 -0.09859622605 -0.1079970996
696.875 0.01976187884 -0.1272423586
697.5 0.07775780941 -0.08256133202
698.125 0.08749391334 -0.04138381797
698.75 0.07426472159 -0.0197496242
699.375 0.08931255079 0.00394670358
700.0 0.1008731639 0.03543932592
700.625 0.0672871329 0.06799775561
701.25 0.06489954563 0.06677486088
701.875 0.10673125 0.0669226867
702.5 0.1717754865 0.01907222002
703.125 0.1158924408 -0.047298677
703.75 0.01792911524 -0.09222115559
704.375 -0.01582558831 -0.08648114187
705.0 0.0125383671 -0.1289042805
705.625 0.07204331537 -0.07129851143
706.25 0.07453364266 -0.01358959711
706.875 0.05582482902 0.05238249976
707.5 0.003900143556 0.1134945404
708.125 -0.07290801687 0.1015604006
708.75 -0.1001683723 0.06326808174
709.375 -0.1093677502 0.009097991568
710.0 -0.09048315387 -0.05227344026
710.625 -0.06855262405 -0.08208171341
711.25 -0.05130418552 -0.107573228
711.875 -0.05946063774 -0.09256044834
712.5 -0.06456785148 -0.03890197065
713.125 -0.05866188202 0.01013725304
713.75 -0.06342758959 0.03674355465
714.375 -0.07606056885 0.0610453087
715.0 -0.05247866823 0.06450173653
715.625 -0.05227754044 0.07181002525
716.25 -0.0936224393 0.07530043505
716.875 -0.139284658 0.01041702155
717.5 -0.09306813212 -0.04833267278
718.125 -0.07112459699 -0.0532994721
718.75 -0.06469470797 -0.07003799579
719.375 -0.02936984797 -0.09649172295
720.0 0.02118203273 -0.08138363955
720.625 0.05458711719 -0.03600361981
721.25 0.0427090512 0.02629090591
721.875 -0.01678459029 0.03769516729
722.5 -0.05368156751 0.0260090834
723.125 -0.06240912332 0.05912082779
723.75 -0.0001926601934 0.09944850012
724.375 0.06475593415 0.05496854445
725.0 0.07552277294 -0.005284399865
725.625 0.06684221257 -0.03617151293
726.25 0.05508526761 -0.04037486232
726.875 0.04246994844 -0.02546643099
727.5 0.03410578522 -0.00448340068
728.125 0.02347493432 0.02765108501
728.75 0.01598211705 0.04332036215
729.375 0.02818077108 0.03115574017
730.0 0.02643075916 0.01620463118
730.625 0.01178996116 0.02456584776
731.25 -0.005665727536 0.03107719287
731.875 -0.02419514432 0.02161260297
732.5 -0.03462232227 0.007184338809
733.125 -0.03324056921 0.00300315243
733.75 -0.01822568736 0.01234946597
734.375 -0.001252168865 0.01020576711
735.0 0.005617518643 -0.0002454397773
735.625 0.008088320119 -0.00763567825
736.25 0.004946313493 -0.02210516863
736.875 -0.0119185464 -0.03161427876
737.5 -0.02657706411 -0.02293916105
738.125 -0.02813091172 -0.004411295295
738.75 -0.01315621388 0.01910345349
739.375 0.01511807559 0.02822910267
740.0 0.03302728051 0.006777516424
740.625 0.02420001415 -0.008681134559
741.25 0.02467983052 0.001669730914
741.875 0.01884696918 0.02741507081
742.5 -0.01755401432 0.0333878345
743.125 -0.04285175788 0.002284228085
743.75 -0.04398284014 -0.02921532083
744.375 -0.04770123861 -0.04084353779
745.0 -0.06333902938 -0.03616222584
745.625 -0.08006479738 0.003635652725
746.25 -0.05021256961 0.03923179277
746.875 -0.01096551438 0.03231761808
747.5 -0.01140402324 0.01331300213
748.125 -0.02335960014 0.02004756137
748.75 -0.01248306991 0.04396631849
749.375 0.03142544977 0.03886116003
750.0 0.05931717175 -0.007379373799
