!Created with skrf (http://scikit-rf.org).
# GHz S RI R 50.0 
!freq ReS11 ImS11
500.0 -0.01138518842 0.03033975851
500.625 0.02743477229 0.02754938788
501.25 0.04269144705 0.01146895335
501.875 0.03770832599 0.01898358302
502.5 0.0230456488 0.03537026042
503.125 0.03936832954 0.02377373155
503.75 0.05258312721 -0.002002316041
504.375 0.04837420883 -0.01770001846
505.0 0.03788985011 -0.03972300814
505.625 0.03909600583 -0.0682928607
506.25 0.02559602992 -0.08129864634
506.875 0.06235514989 -0.07889717696
507.5 0.02872181042 -0.07799892137
508.125 0.06875613667 -0.0796933563
508.75 0.02266129745 -0.1023686392
509.375 0.002059802099 -0.08175285446
510.0 0.02792681147 -0.07837282778
510.625 -0.05479253293 -0.06336376818
511.25 -0.07241892721 -0.0504185439
511.875 -0.06955021187 0.006607362584
512.5 -0.03941610265 0.03811710532
513.125 0.008195998203 0.07280044762
513.75 0.01740385807 0.07632597458
514.375 0.0400897479 0.06096373843
515.0 0.08208185879 0.05207077009
515.625 0.03345659092 0.1310396858
516.25 0.09090828757 0.08971991761
516.875 0.02673567611 0.1456818559
517.5 0.1315475351 0.09490707853
518.125 -0.002948958783 0.2269837066
518.75 0.08429319687 0.05147139594
519.375 0.07829394376 0.05508240863
520.0 0.1250909162 0.02557214979
520.625 0.1187396729 0.01913032391
521.25 0.09922147415 -0.01638175948
521.875 0.08132271053 0.009068289415
522.5 0.1101111298 -0.0517214658
523.125 0.1831626804 -0.0870911416
523.75 0.1500030378 -0.1819240832
524.375 0.1742308125 -0.1546179141
525.0 0.07142671386 -0.04671112491
525.625 0.04896466872 -0.01591112975
526.25 0.05895355234 -0.004943332177
526.875 0.06822071016 -0.02475024765
527.5 0.05599106752 -0.03089248557
528.125 0.02809302822 -0.04863216194
528.75 0.0161870892 -0.07795121221
529.375 -0.04714488489 -0.1034472582
530.0 -0.05046813127 -0.04439334406
530.625 -0.04598846274 -0.01509867879
531.25 -0.1126444127 -0.06007085552
531.875 -0.1852491664 -0.06658274026
532.5 -0.1654362748 0.0009665730763
533.125 -0.1099025681 0.03114789308
533.75 -0.112399076 0.06703343851
534.375 -0.1296660594 0.04182711366
535.0 -0.09368947559 0.05742400103
535.625 -0.0716012084 0.03167864102
536.25 -0.04950971651 0.05629035654
536.875 -0.09352616812 0.01723354326
537.5 -0.1011492835 -0.01967414997
538.125 -0.102088408 0.03186938166
538.75 -0.1168060086 0.06042331803
539.375 -0.1006704831 0.02386266961
540.0 -0.09631631299 0.01081456544
540.625 -0.1208736841 0.02072538397
541.25 -0.1424796362 -0.004155301746
541.875 -0.1030112291 -0.01835130594
542.5 -0.09518129829 -0.01899046033
543.125 -0.1293515713 0.03677013608
543.75 -0.09975945052 0.1201201474
544.375 -0.04764100313 0.116767416
545.0 0.05434460992 0.0854760414
545.625 0.09976779036 0.07615045112
546.25 0.1084914959 0.05092714031
546.875 0.1041309224 0.03235677442
547.5 0.1212489894 0.0364002467
548.125 0.1408509522 0.07922042305
548.75 0.08532001947 0.0987591086
549.375 0.08951343538 0.09196636526
550.0 0.05886720733 0.1287688312
550.625 0.02280286859 0.1063319443
551.25 -0.02169742048 0.05263105774
551.875 -0.014766597 0.04086245885
552.5 -0.02613189734 0.07343201496
553.125 -0.04898324672 0.07114661706
553.75 -0.04887353573 0.04752663771
554.375 -0.03212313889 0.06996468187
555.0 -0.01903175958 0.1073213873
555.625 -0.0208291172 0.1095885767
556.25 -0.03323777113 0.08174892689
556.875 -0.03166871557 0.0999194141
557.5 -0.044065653 0.1190046721
558.125 -0.05240831751 0.11597574
558.75 -0.06197030972 0.08570484238
559.375 -0.03800569888 0.1020425825
560.0 -0.04022580114 0.07637032308
560.625 -0.02140058643 0.0501859912
561.25 -0.0239100254 0.04796465302
561.875 -0.03191189057 0.07156295725
562.5 -0.02336800094 0.0872564346
563.125 0.006637274108 0.08359055905
563.75 0.05158991809 0.086495808
564.375 0.08408663902 0.1089004813
565.0 0.06753047213 0.1080449967
565.625 0.07323534449 0.07409827286
566.25 0.06291859916 0.08104336469
566.875 0.02592303686 0.1123655862
567.5 -0.02021891145 0.09219887172
568.125 -0.02030069249 0.09671955634
568.75 -0.02986586887 0.1080414696
569.375 -0.03458245122 0.0822654195
570.0 -0.03206512467 0.05005700048
570.625 -0.02304052278 0.05288253601
571.25 -0.03718553057 0.06715958098
571.875 -0.03313010413 0.04422146636
572.5 -0.02828478671 0.04992778512
573.125 -0.01626784373 0.09075317143
573.75 0.033959011 0.1247576352
574.375 0.04726311975 0.08666986511
575.0 0.05073646106 0.05669758093
575.625 0.06707644882 0.06832844373
576.25 0.06044176038 0.09413806528
576.875 0.0634408568 0.07762739652
577.5 0.07617369164 0.05342197538
578.125 0.09408986055 0.05979368737
578.75 0.06966272133 0.07558547008
579.375 0.06498921662 0.0517628103
580.0 0.07369190233 0.036858784
580.625 0.07097591867 0.03614360497
581.25 0.0346175493 0.0396114254
581.875 0.01057338621 0.04381907251
582.5 0.02766117854 0.06850807697
583.125 0.03021091615 0.09544498221
583.75 0.02279493294 0.082076439
584.375 0.01021351162 0.07059843333
585.0 1.776836305e-05 0.08700053535
585.625 -0.01056448915 0.101702489
586.25 0.0008928907478 0.07817324824
586.875 0.01037411016 0.06832670471
587.5 0.01423493809 0.08799742167
588.125 0.04438324202 0.08279085799
588.75 0.05681022445 0.05531454261
589.375 0.07091517503 0.01727038708
590.0 0.06168492489 0.01909661996
590.625 0.03324464396 0.03254744974
591.25 0.0337519204 0.04547301119
591.875 0.06296653776 0.04791004111
592.5 0.09237959627 0.04697829149
593.125 0.07732187563 0.04370747397
593.75 0.06805032062 0.03894182924
594.375 0.06712344367 0.06226932656
595.0 0.04339045379 0.08257427947
595.625 0.0146387502 0.07021952441
596.25 0.001230271016 0.05693087292
596.875 -0.01583034708 0.06452184568
597.5 -0.02795701905 0.06242554842
598.125 -0.0121851312 0.05893980606
598.75 0.008296610354 0.04935851958
599.375 0.007018100547 0.03538296344
600.0 -0.00690320145 0.01544788275
600.625 -0.02118334972 0.004277868316
601.25 -0.04033095229 0.01268855752
601.875 -0.05201971109 0.02449818521
602.5 -0.04885415748 0.02920515827
603.125 -0.04733066067 0.03361651569
603.75 -0.0445926082 0.04337904482
604.375 -0.038533979 0.03523964639
605.0 -0.03093999341 0.01607611728
605.625 -0.03794735547 0.003670677383
606.25 -0.05502306067 0.002380565073
606.875 -0.0561703744 0.01229996501
607.5 -0.03408163023 0.02662668442
608.125 -0.01244373893 0.02585349992
608.75 -0.009382814879 0.0183032393
609.375 -0.00672818477 0.0136554328
610.0 0.002201871133 0.008620312662
610.625 0.009630728572 -0.001762413507
611.25 0.01078719628 -0.0133027614
611.875 0.009979193627 -0.02098083128
612.5 0.003432021941 -0.0245542022
613.125 -0.008673095841 -0.01823516667
613.75 -0.01085970263 -0.002775891332
614.375 -0.0009556020338 0.006827515226
615.0 0.008065278565 0.003580170265
615.625 0.002831398356 2.505309888e-05
616.25 -0.003231114211 0.01066541048
616.875 0.006147750611 0.0250820306
617.5 0.01829990047 0.02681432918
618.125 0.01888081758 0.02229929683
618.75 0.01845186203 0.02456509365
619.375 0.02431847752 0.0347810948
620.0 0.03576362226 0.03329990084
620.625 0.04018364543 0.006962305292
621.25 0.02980512116 -0.004011945955
621.875 0.008932380282 -0.008417290883
622.5 -0.01613683291 0.01064722927
623.125 -0.01226349563 0.03845638195
623.75 -0.0006097478658 0.05604925223
624.375 -0.009700201587 0.06242483192
625.0 -0.03027131105 0.0545053882
625.625 -0.02785826603 0.06724254183
626.25 -0.01248358681 0.09262030869
626.875 -0.00440000759 0.09194876846
627.5 -0.007431310724 0.07334110605
628.125 -0.01381792334 0.06579811581
628.75 -0.03199221538 0.07046639046
629.375 -0.03672689764 0.054585497
630.0 -0.02427249791 0.03988371799
630.625 -0.02744777725 0.02596667473
631.25 -0.04261381304 0.003676423851
631.875 -0.04777413339 -0.01989912639
632.5 -0.05036253976 -0.02102899854
633.125 -0.06726143261 -0.02252436289
633.75 -0.08121624416 -0.02141941226
634.375 -0.079062311 -0.02591798951
635.0 -0.08718201762 -0.0104595178
635.625 -0.1012139471 0.01679323877
636.25 -0.09131467308 0.009456676799
636.875 -0.07067654483 -0.007579296776
637.5 -0.08539768722 -0.01156799495
638.125 -0.1125118484 -0.01013790742
638.75 -0.09107435904 -0.009389304078
639.375 -0.05442805361 -0.01909318064
640.0 -0.03424051318 -0.04684588472
640.625 -0.008710233917 -0.09010281145
641.25 0.006194206803 -0.08099683095
641.875 0.001516733436 -0.07134911887
642.5 0.008312837396 -0.08393479545
643.125 0.05077882156 -0.09382637613
643.75 0.0621851932 -0.07295690549
644.375 0.02675887974 -0.08353858724
645.0 0.01186940254 -0.09988978816
645.625 0.03366664543 -0.08382771381
646.25 0.04395980487 -0.06098806749
646.875 0.04414512763 -0.06400414876
647.5 0.0467563393 -0.09244207709
648.125 0.05172645804 -0.06823480972
648.75 0.06215186962 -0.03484364423
649.375 0.08470013763 -0.01988294137
650.0 0.1143560865 -0.00421338101
650.625 0.1054347494 0.02038861675
651.25 0.09448156902 0.03406861446
651.875 0.09260400157 0.07724049758
652.5 0.04969354858 0.1165835705
653.125 0.03256794144 0.1010043567
653.75 0.03042353926 0.09063599374
654.375 -0.004865532591 0.09809268437
655.0 -0.05508637207 0.05277380143
655.625 -0.04983582059 0.03101002583
656.25 -0.04784067054 0.05714465522
656.875 -0.05562982523 0.09591596232
657.5 -0.08638116444 0.06569193205
658.125 -0.08547104253 0.04740111005
658.75 -0.0756096727 0.09525063917
659.375 -0.05709727559 0.1430528154
660.0 -0.01767310123 0.1340690454
660.625 0.01454095748 0.1129954204
661.25 0.04472981188 0.1151596676
661.875 0.05726280995 0.1106001282
662.5 0.05836451179 0.07578779417
663.125 0.04810342526 0.07108654144
663.75 -0.006341149452 0.1010759055
664.375 -0.0756798735 0.05386539319
665.0 -0.08198509858 0.007274905993
665.625 -0.09470191359 -0.01185303224
666.25 -0.1170120237 -0.07653105903
666.875 -0.0664191609 -0.1114107994
667.5 -0.0619290568 -0.1011794713
668.125 -0.09176776385 -0.09863803937
668.75 -0.09050705764 -0.1143057806
669.375 -0.04306505201 -0.09035352856
670.0 -0.03056672443 -0.0733969585
670.625 -0.04711842901 -0.09988338736
671.25 -0.05898920591 -0.1041815978
671.875 -0.05069146897 -0.07957847618
672.5 -0.06853195412 -0.05682681852
673.125 -0.1108791296 -0.05426018241
673.75 -0.1214211648 -0.06363984286
674.375 -0.1078612742 -0.06743467775
675.0 -0.08633635847 -0.09957228322
675.625 -0.03412160958 -0.1273726204
676.25 0.01135285055 -0.1172536787
676.875 0.009271456884 -0.1106341447
677.5 0.0150008499 -0.126384996
678.125 0.05323228534 -0.07836966735
678.75 0.05357560658 -0.03709549785
679.375 0.06533239898 -0.03312659303
680.0 0.09884329403 -0.07291184161
680.625 0.124380694 -0.06483471789
681.25 0.08253277189 -0.07665161329
681.875 0.04259477943 -0.1163268001
682.5 -0.01607471264 -0.1709495084
683.125 -0.003676764918 -0.1706163079
683.75 0.0204167183 -0.1229052631
684.375 0.06195842842 -0.1035412855
685.0 0.1335686095 -0.0375696817
685.625 0.1132414835 0.04850939004
686.25 0.06181073794 0.07444565671
686.875 0.01969387878 0.08383563313
687.5 -0.03787437718 0.08356465307
688.125 -0.06338834891 0.07718510389
688.75 -0.08104680419 0.09561285346
689.375 -0.1210823254 0.1062209683
690.0 -0.1162461058 0.07326430127
690.625 -0.09470947215 0.08437469531
691.25 -0.05072418994 0.1463411797
691.875 0.01635068529 0.1969132808
692.5 0.07832595533 0.09931294359
693.125 0.08665520897 -0.005357649046
693.75 0.09052606199 -0.05316380592
694.375 0.1437785867 -0.05295247212
695.0 0.1236192599 0.04225312472
695.625 0.05696103769 0.08559552192
696.25 -0.0435591033 0.1159909029
696.875 -0.1467903867 0.02473654557
697.5 -0.1225633731 -0.08508214717
698.125 -0.09882070404 -0.0972538568
698.75 -0.09900898004 -0.09453346247
699.375 -0.07144842819 -0.08747894123
700.0 -0.04954503158 -0.08913274567
700.625 -0.02155123236 -0.1128952087
701.25 0.02584924154 -0.1022689102
701.875 0.02460462891 -0.0777962172
702.5 -0.008579153467 -0.09529500633
703.125 -0.1145883105 -0.1132560696
703.75 -0.1901563534 -0.04368537133
704.375 -0.1245910766 0.05102268333
705.0 -0.08839831438 0.06643655251
705.625 -0.1406445128 0.03471305638
706.25 -0.1153381444 -0.1109112986
706.875 0.006657989345 -0.1034962388
707.5 0.03091007386 -0.07329654931
708.125 0.0802740998 -0.03329128523
708.75 0.0876630293 0.05469689544
709.375 0.0224789678 0.09529826423
710.0 -0.01662840251 0.08930366617
710.625 -0.05083256701 0.08232488754
711.25 -0.08468931693 0.06293998115
711.875 -0.09576413848 0.08253826048
712.5 -0.06483960511 0.1369514797
713.125 0.04819224486 0.1365366403
713.75 0.114755779 0.02830215147
714.375 0.1031343019 -0.04914471905
715.0 0.1047109748 -0.06965286204
715.625 0.08960579544 -0.01510723194
716.25 0.0577482578 0.02146271246
716.875 0.04693880056 0.05581963179
717.5 0.002302330324 0.113687707
718.125 -0.05100033951 0.09974084982
718.75 -0.0491338162 0.06907327665
719.375 -0.05899074531 0.05746817495
720.0 -0.103756628 0.009107376813
720.625 -0.07031826965 -0.09054064773
721.25 0.0280626699 -0.09953989485
721.875 0.07920303946 -0.0592962609
722.5 0.08045828029 -0.02964257236
723.125 0.05441621225 -0.02975804968
723.75 0.04144659426 -0.03667750002
724.375 0.01651796941 -0.06259693402
725.0 -0.01961771114 -0.05431259336
725.625 -0.03469996942 -0.04259032377
726.25 -0.04711540127 -0.05146690578
726.875 -0.0413916944 -0.0765308014
727.5 -0.02252949491 -0.0771758225
728.125 -0.00584030707 -0.06382758531
728.75 0.0006220923009 -0.05287896329
729.375 0.004206099191 -0.0495467381
730.0 0.0001345342482 -0.0454585207
730.625 -0.0004743595474 -0.03229666992
731.25 0.01208491869 -0.01944601668
731.875 0.01804590783 0.001196288914
732.5 0.003355641472 0.01957086241
733.125 -0.009665483171 0.02961342251
733.75 0.001554066051 0.03706057971
734.375 0.01677867164 0.02962825274
735.0 0.0231225137 0.007904573576
735.625 0.01886112287 -0.004184195143
736.25 0.008887126025 -0.018629699
736.875 -0.01450990127 -0.0259198383
737.5 -0.03677069791 -0.01774759187
738.125 -0.04678367562 -0.005618490453
738.75 -0.0371649912 0.007057152472
739.375 -0.01296782229 0.006094966793
740.0 -0.0042013486 -0.01555132797
740.625 -0.02199362151 -0.02043387349
741.25 -0.02612858455 -0.01396514395
741.875 -0.007568497548 -0.02486752995
742.5 0.02697431562 -0.009316786858
743.125 0.01906660991 0.02495093704
743.75 0.002545798054 0.03258613559
744.375 -0.003257922918 0.03906404858
745.0 -0.01506765834 0.05105911118
745.625 -0.007758991332 0.06940301699
746.25 0.03736010084 0.0717479974
746.875 0.08101504175 0.02780679635
747.5 0.06782367926 -0.01390933434
748.125 0.04194572418 -0.02688874314
748.75 0.02601266564 -0.0361208035
749.375 -0.002113969619 -0.05626464624
750.0 -0.05671810797 -0.02628504997
