!Created with skrf (http://scikit-rf.org).
# GHz S RI R 50.0 
!freq ReS11 ImS11
500.0 -0.005513112572 0.0266132981
500.625 0.02710797947 0.01920053019
501.25 0.03720979689 -0.00430463591
501.875 0.03095780325 0.000585462955
502.5 0.0221437763 0.0209892435
503.125 0.02934781151 0.01146290547
503.75 0.0398810587 -0.01299636425
504.375 0.03649360552 -0.025828555
505.0 0.02554401196 -0.03983178364
505.625 0.02137232126 -0.0645747546
506.25 0.002982258572 -0.07907094177
506.875 0.037473764 -0.09034552921
507.5 0.005528668237 -0.0783248226
508.125 0.03773979231 -0.08809627962
508.75 -0.01136197526 -0.1046023589
509.375 -0.02459270311 -0.07630901224
510.0 0.0004200392642 -0.07341391534
510.625 -0.06115157768 -0.03593938144
511.25 -0.07881757768 -0.03090768119
511.875 -0.06606114849 0.02340033516
512.5 -0.02421123523 0.04751710529
513.125 0.03382787099 0.06639876868
513.75 0.04620826239 0.06847444275
514.375 0.05582859014 0.04166410973
515.0 0.08359798115 0.01811789351
515.625 0.07211845644 0.1022390131
516.25 0.1036044855 0.06151690242
516.875 0.04999083103 0.1273348513
517.5 0.1433984713 0.05777662029
518.125 0.06161324686 0.2270543433
518.75 0.09995972857 0.02961776006
519.375 0.08315536164 0.03182063988
520.0 0.1189364376 -0.01233372593
520.625 0.1261299533 -0.01251819747
521.25 0.09514712263 -0.04192371411
521.875 0.0778010981 -0.009951936761
522.5 0.08937811799 -0.08034733807
523.125 0.1765916423 -0.1337237815
523.75 0.1247182445 -0.2215225991
524.375 0.1397570893 -0.2142055998
525.0 0.06318971903 -0.08137225927
525.625 0.04936398988 -0.04302131262
526.25 0.05632493905 -0.02876292227
526.875 0.05340448355 -0.05138901938
527.5 0.04373987982 -0.0578661461
528.125 0.00744159279 -0.05781789169
528.75 -0.01150502967 -0.07696307194
529.375 -0.08751058693 -0.08062799659
530.0 -0.07905701798 -0.01998633303
530.625 -0.04345244433 0.01210429523
531.25 -0.09673265742 -0.008368068736
531.875 -0.1815742796 0.00447649412
532.5 -0.15879996 0.05195196783
533.125 -0.09792746894 0.0590658379
533.75 -0.07534859537 0.08964993723
534.375 -0.1073213646 0.08779934834
535.0 -0.07793336622 0.08723543531
535.625 -0.06233033194 0.05391611598
536.25 -0.02260956041 0.07338681977
536.875 -0.07324170031 0.05772402941
537.5 -0.09669858835 0.01238434935
538.125 -0.08413855145 0.05287802144
538.75 -0.09177140627 0.1002257273
539.375 -0.09356573925 0.06204510551
540.0 -0.08432960948 0.04543176286
540.625 -0.09445573012 0.05472424104
541.25 -0.12627761 0.05168396799
541.875 -0.1026999109 0.01553919715
542.5 -0.08540587967 0.004033951722
543.125 -0.1018695511 0.06057921687
543.75 -0.06313161441 0.141053274
544.375 -0.02111114426 0.1340482483
545.0 0.07259869456 0.0722877944
545.625 0.1191627803 0.03625064658
546.25 0.1259742451 0.014973454
546.875 0.1136297305 0.001822607242
547.5 0.1271122574 0.002843731327
548.125 0.1612518871 0.02788343583
548.75 0.1207475439 0.07915780278
549.375 0.115260629 0.07210824153
550.0 0.0990359474 0.1113029017
550.625 0.06522826858 0.1118597209
551.25 0.0004777628426 0.07657680655
551.875 0.008457820961 0.04846886242
552.5 0.01414809628 0.07081182618
553.125 -0.006683793343 0.0884646364
553.75 -0.02380797087 0.05755960676
554.375 -0.006804153088 0.06496991446
555.0 0.01674461386 0.09522959975
555.625 0.02015776442 0.1083702714
556.25 -0.008849052581 0.08608811993
556.875 -0.001674959699 0.09289645686
557.5 -0.007060062243 0.1210713375
558.125 -0.02091695307 0.1269202789
558.75 -0.04364603189 0.1021544939
559.375 -0.008450260309 0.1102621933
560.0 -0.0151304604 0.1007930714
560.625 0.0004417234008 0.06469162058
561.25 0.00194086209 0.05246997047
561.875 0.0003321084482 0.07251353918
562.5 0.01176974133 0.08671714241
563.125 0.02831055618 0.07293308599
563.75 0.06335764298 0.06248725292
564.375 0.11099715 0.07246317853
565.0 0.0965055808 0.09049324704
565.625 0.09205587715 0.0561937777
566.25 0.08282207973 0.0588238481
566.875 0.0676949327 0.09451158852
567.5 0.008916163864 0.1025123636
568.125 0.005956166415 0.09887619005
568.75 0.003587532679 0.116352684
569.375 -0.007460934395 0.101191353
570.0 -0.01260115811 0.07273278427
570.625 -3.123091081e-05 0.05966665946
571.25 -0.0003071787729 0.07946573007
571.875 -0.009023890712 0.05729016072
572.5 -0.003293085919 0.04877133482
573.125 0.01079173251 0.07616307756
573.75 0.06803771641 0.09783569164
574.375 0.07293237226 0.07269619525
575.0 0.06366178182 0.03828242137
575.625 0.07657489245 0.03480226644
576.25 0.0846900073 0.06822345373
576.875 0.08171949885 0.05996173455
577.5 0.0844795195 0.03601388212
578.125 0.1047918211 0.02845455692
578.75 0.1020409618 0.05484346858
579.375 0.08322585439 0.03705204059
580.0 0.08613287572 0.01763627114
580.625 0.08968893487 0.009779530689
581.25 0.06129381658 0.01841659819
581.875 0.02738133066 0.0311335214
582.5 0.04170236783 0.04618321578
583.125 0.05927362691 0.07574539913
583.75 0.04968443491 0.06996132419
584.375 0.0321105039 0.06153770412
585.0 0.02483268166 0.07422307086
585.625 0.02482843452 0.09905234873
586.25 0.02400642458 0.07689804171
586.875 0.03018939197 0.0597330021
587.5 0.04288637779 0.07535693177
588.125 0.0702688647 0.0675349675
588.75 0.07330252807 0.04359330383
589.375 0.07699433343 -0.003820149074
590.0 0.07226454289 -0.01480086599
590.625 0.04473471682 0.009026428209
591.25 0.03875001706 0.02686634681
591.875 0.06104289473 0.02593419862
592.5 0.09494289688 0.0153311017
593.125 0.08935017108 0.02166939851
593.75 0.07420825284 0.02186916705
594.375 0.07742576694 0.0408478675
595.0 0.06730014208 0.06905629795
595.625 0.03751924968 0.07031546486
596.25 0.01834669031 0.05839878923
596.875 0.006936022295 0.06686736704
597.5 -0.007448366766 0.07306191175
598.125 0.005557668912 0.06684986224
598.75 0.02652842425 0.05229678857
599.375 0.02655834068 0.03872098397
600.0 0.009295994973 0.02298512321
600.625 -0.007272836912 0.01032990958
601.25 -0.02349396989 0.01805498202
601.875 -0.03618877641 0.0328620332
602.5 -0.0370893112 0.03642448563
603.125 -0.03649441529 0.0389894225
603.75 -0.03120527346 0.04977401737
604.375 -0.0281573627 0.04650329537
605.0 -0.02554694521 0.02612756796
605.625 -0.03276846433 0.01229493871
606.25 -0.05053603424 0.01318670155
606.875 -0.05501285979 0.02373456596
607.5 -0.03319429094 0.03524993209
608.125 -0.009232866901 0.03271452985
608.75 -0.006114215752 0.02515596786
609.375 -0.005685869233 0.02033851533
610.0 0.001577442837 0.0141453433
610.625 0.00899271837 0.002931527141
611.25 0.009500606659 -0.009501036163
611.875 0.008042578064 -0.01864269573
612.5 0.001622557989 -0.02337401478
613.125 -0.00996518734 -0.01780285968
613.75 -0.01143482974 -0.00310026479
614.375 -0.0007964765274 0.005809977249
615.0 0.008869493924 0.001896824976
615.625 0.004389649399 -0.002214957859
616.25 -0.001239228293 0.007759328071
616.875 0.008965509975 0.02112588578
617.5 0.02257968276 0.02245049775
618.125 0.02388715031 0.01843781027
618.75 0.02367627191 0.01998887919
619.375 0.03171895324 0.02961061848
620.0 0.04523094625 0.02894103574
620.625 0.04820947376 0.002044071221
621.25 0.03823597902 -0.008998463325
621.875 0.02027921759 -0.01272232863
622.5 -0.007725462998 0.001330618523
623.125 -0.004856262085 0.02831838168
623.75 0.008702222931 0.04509473581
624.375 0.005295223349 0.05616588015
625.0 -0.01547578864 0.05536920514
625.625 -0.01249717386 0.06534434516
626.25 0.007560612632 0.08842046194
626.875 0.01554752328 0.09424340091
627.5 0.007807988846 0.07902768382
628.125 0.002253399813 0.07031328872
628.75 -0.009561710169 0.08100123475
629.375 -0.02301269349 0.07391652794
630.0 -0.01571059623 0.05484571893
630.625 -0.01763411843 0.04189857415
631.25 -0.03429675658 0.02792051503
631.875 -0.0478750506 0.005517954947
632.5 -0.04936173625 -0.001777768323
633.125 -0.06177850584 0.0006839035202
633.75 -0.07839221622 0.00659345643
634.375 -0.07944571658 -0.0008628060203
635.0 -0.08293985048 0.01234101222
635.625 -0.08945351269 0.0424723728
636.25 -0.08993600799 0.04003030065
636.875 -0.07120874752 0.01590680611
637.5 -0.07906814327 0.01297126788
638.125 -0.1113711043 0.02320533968
638.75 -0.101751515 0.01675797274
639.375 -0.06693981152 -0.002801721747
640.0 -0.05003168814 -0.02700715073
640.625 -0.0443679117 -0.07410388697
641.25 -0.01991487994 -0.08163785449
641.875 -0.01822938526 -0.06919155401
642.5 -0.01894584192 -0.07693983959
643.125 0.009681322715 -0.1038221868
643.75 0.03836273689 -0.09398333479
644.375 0.005864513871 -0.0878875067
645.0 -0.0218924453 -0.09963160229
645.625 -0.002465094739 -0.09859511654
646.25 0.01561087002 -0.07712332799
646.875 0.02205643059 -0.07115911748
647.5 0.01057579017 -0.09971846315
648.125 0.02492398313 -0.08712705942
648.75 0.04217553941 -0.05405016365
649.375 0.06545963236 -0.0405545898
650.0 0.1001522549 -0.03606614619
650.625 0.1079799324 -0.008646956641
651.25 0.09761023673 0.009635262798
651.875 0.1055922513 0.04515637248
652.5 0.08665243306 0.104327932
653.125 0.0602352633 0.09974280793
653.75 0.05497364003 0.08700447879
654.375 0.03557948361 0.1007548412
655.0 -0.02593333491 0.08424628503
655.625 -0.03336897904 0.04875483715
656.25 -0.02174297919 0.06327302062
656.875 -0.01209364463 0.1011829657
657.5 -0.05442499036 0.09045222851
658.125 -0.06664482487 0.06535599843
658.75 -0.04629245591 0.09771756807
659.375 -0.0140536004 0.1491112147
660.0 0.01706283836 0.1398237142
660.625 0.04207766389 0.1113324179
661.25 0.07553535634 0.0994593062
661.875 0.09690624505 0.09239194525
662.5 0.08554510205 0.06143772415
663.125 0.07201141118 0.05514591194
663.75 0.03695857254 0.09664409364
664.375 -0.0502581706 0.07871624557
665.0 -0.0734557214 0.03199037337
665.625 -0.08405529212 0.01509339949
666.25 -0.1275909593 -0.02885602821
666.875 -0.09501423016 -0.0928160097
667.5 -0.08148897596 -0.08495671741
668.125 -0.1074141694 -0.06995729451
668.75 -0.1281581777 -0.08055896228
669.375 -0.07704253842 -0.08097520267
670.0 -0.05058912551 -0.06400499628
670.625 -0.07280142011 -0.07761219674
671.25 -0.09435459269 -0.08005813017
671.875 -0.07742208735 -0.0609612158
672.5 -0.0796554211 -0.03283905658
673.125 -0.1113992803 -0.01848056531
673.75 -0.1322726429 -0.02971929641
674.375 -0.1215805404 -0.03964998897
675.0 -0.1090685977 -0.07112560208
675.625 -0.06897931854 -0.1166712433
676.25 -0.0191837325 -0.1239712082
676.875 -0.01700114726 -0.1142564382
677.5 -0.02827981192 -0.1287938562
678.125 0.02123819948 -0.1091532194
678.75 0.03555543197 -0.05690757957
679.375 0.04666768927 -0.04572210087
680.0 0.06063794435 -0.08906598093
680.625 0.09569421024 -0.1033727384
681.25 0.06241610106 -0.09309212053
681.875 0.0176790832 -0.113624205
682.5 -0.05456949795 -0.1518094282
683.125 -0.05374337561 -0.1703505866
683.75 -0.01013200657 -0.134983084
684.375 0.03524645695 -0.1155840508
685.0 0.12124637 -0.07569328323
685.625 0.1324475123 0.0165983155
686.25 0.09109956006 0.05690435198
686.875 0.05344659191 0.07365301654
687.5 -0.001876367625 0.08902974762
688.125 -0.03532165904 0.08533654986
688.75 -0.04769208464 0.1016456842
689.375 -0.07840479539 0.131390922
690.0 -0.09655315703 0.09994852638
690.625 -0.07541546369 0.1012420848
691.25 -0.01778723964 0.1462460819
691.875 0.07709996394 0.1868504942
692.5 0.1163058386 0.09158155085
693.125 0.09049084473 -0.03083784548
693.75 0.06579053953 -0.07775359463
694.375 0.110209368 -0.09827123206
695.0 0.1380623973 0.0005164270571
695.625 0.07593426205 0.067012557
696.25 -0.008023666116 0.1141579468
696.875 -0.1270506216 0.06100759112
697.5 -0.1395981246 -0.05014732175
698.125 -0.1181860299 -0.07332308304
698.75 -0.1222014891 -0.06904659703
699.375 -0.09751826983 -0.0702539996
700.0 -0.07392016373 -0.07364513995
700.625 -0.05535030063 -0.09970860096
701.25 -0.01173802382 -0.113689037
701.875 -0.002578099655 -0.08185952659
702.5 -0.02816618977 -0.08098681345
703.125 -0.1229502435 -0.07159063553
703.75 -0.1996159327 0.01208375263
704.375 -0.119404962 0.07754360678
705.0 -0.07456380611 0.08362414861
705.625 -0.1204038149 0.06878076937
706.25 -0.15261027 -0.07209096579
706.875 -0.01977517793 -0.1155601007
707.5 0.01135000756 -0.08486051553
708.125 0.06141694921 -0.06100388435
708.75 0.09785571793 0.01748651322
709.375 0.04903070332 0.0837121437
710.0 0.007080030991 0.08700489373
710.625 -0.02343634781 0.08908683184
711.25 -0.06143591271 0.07747078988
711.875 -0.07106850971 0.09530522567
712.5 -0.03316272451 0.1445475669
713.125 0.07898952803 0.1299984656
713.75 0.126404291 0.005537545592
714.375 0.09115764477 -0.07548438694
715.0 0.07924429586 -0.106043417
715.625 0.09000747707 -0.05120920677
716.25 0.06478837041 -8.338521704e-06
716.875 0.05658669137 0.03429974147
717.5 0.03642268334 0.09796494575
718.125 -0.01885431518 0.111827157
718.75 -0.03108492504 0.07898663999
719.375 -0.0404500393 0.06525323915
720.0 -0.09114683741 0.03334769979
720.625 -0.08986983677 -0.07110838679
721.25 0.009110756585 -0.107333717
721.875 0.06819219279 -0.07776547235
722.5 0.0776848287 -0.05447484029
723.125 0.04677371379 -0.05337961824
723.75 0.02349339187 -0.05073529648
724.375 -0.005412748919 -0.06137956497
725.0 -0.03422623013 -0.04353447193
725.625 -0.04098416997 -0.02901315385
726.25 -0.05228571302 -0.03596479016
726.875 -0.05476631537 -0.06400988333
727.5 -0.03835481946 -0.07393300872
728.125 -0.0196341102 -0.06501018201
728.75 -0.0148530794 -0.05345552786
729.375 -0.01196270525 -0.04910478971
730.0 -0.01213226256 -0.04585710585
730.625 -0.009232585244 -0.03385219411
731.25 0.004986808886 -0.02420994218
731.875 0.01674518546 -0.007067146193
732.5 0.007865947803 0.01426294585
733.125 -0.004293316498 0.02748318062
733.75 0.006449527795 0.0350673638
734.375 0.02101320562 0.02762926332
735.0 0.02547193879 0.005371509915
735.625 0.01998739668 -0.006031020097
736.25 0.009550820147 -0.0193548394
736.875 -0.01384117363 -0.0253865856
737.5 -0.03649083583 -0.01597260923
738.125 -0.04784508389 -0.002902430485
738.75 -0.03994441759 0.01003636583
739.375 -0.0174400044 0.009389259547
740.0 -0.009587258655 -0.01075376969
740.625 -0.02656356167 -0.01424083515
741.25 -0.03072211239 -0.007470373347
741.875 -0.01649410638 -0.02263267261
742.5 0.02208152932 -0.0192026805
743.125 0.02674831061 0.01722393553
743.75 0.01273783536 0.02930408352
744.375 0.009841104878 0.03471296242
745.0 0.001729223178 0.04720316698
745.625 0.007059859767 0.06297308073
746.25 0.04589650211 0.06154205656
746.875 0.08350169927 0.01301669679
747.5 0.06707332986 -0.0286400638
748.125 0.03832848745 -0.03929821223
748.75 0.01616742033 -0.04498875673
749.375 -0.01886106582 -0.05572534251
750.0 -0.06661331178 -0.01013392103
