!Created with skrf (http://scikit-rf.org).
# GHz S RI R 50.0 
!freq ReS11 ImS11
500.0 -0.03048866877 0.02581926778
500.625 0.008251305215 0.05167318925
501.25 0.01877049476 0.04836015585
501.875 0.007381087871 0.06275725433
502.5 -0.003228563493 0.07575439748
503.125 0.02772017827 0.06263626482
503.75 0.04885398132 0.04204059018
504.375 0.05777494739 0.01967199266
505.0 0.07133135346 -0.01526708831
505.625 0.08874935031 -0.02807775141
506.25 0.06598807439 -0.03931039804
506.875 0.08429128753 -0.01001685324
507.5 0.08505356766 -0.02498227915
508.125 0.0961404215 0.0207392766
508.75 0.08275758021 -0.03462366839
509.375 0.06950994147 -0.03886173093
510.0 0.106891625 -0.02002264791
510.625 0.01887325073 -0.08357552327
511.25 -0.01685944072 -0.07217310089
511.875 -0.04608674636 -0.03696240592
512.5 -0.04358041534 -0.0145397405
513.125 -0.04846981837 0.02164805622
513.75 -0.05378854963 0.04246753311
514.375 -0.04085920854 0.07711471348
515.0 -0.01764778661 0.1154232482
515.625 -0.08580388175 0.09759342542
516.25 0.006129381443 0.1321971815
516.875 -0.08536420719 0.1272420564
517.5 0.008308238139 0.1297172621
518.125 -0.1056784752 0.09045404934
518.75 0.003083726337 0.07085584383
519.375 -0.02122669542 0.1007429453
520.0 0.030543583 0.09413064141
520.625 0.04548352204 0.07288840792
521.25 0.05671004965 0.05538057236
521.875 0.02791359315 0.07124766991
522.5 0.06913006678 0.03314480507
523.125 0.1181779281 0.02562899636
523.75 0.1208199 -0.006713542511
524.375 0.05719883419 0.04841050337
525.0 -0.00191137882 0.02931296414
525.625 0.0008073175942 0.04538268601
526.25 0.004057149106 0.07011469144
526.875 0.01300289252 0.06023194043
527.5 0.03104699859 0.04448821289
528.125 0.06134569508 0.01689055435
528.75 0.08693379253 0.002266587174
529.375 0.07670152118 -0.03191135587
530.0 0.04467756357 -0.04020976504
530.625 0.00645668979 -0.1110015498
531.25 0.03719917642 -0.2104091182
531.875 -0.03614976782 -0.1886236432
532.5 -0.08257775803 -0.1091997518
533.125 -0.09069255796 -0.08507011839
533.75 -0.08286783971 -0.1023546879
534.375 -0.07495907958 -0.0695841197
535.0 -0.07088374199 -0.03993395731
535.625 -0.03851090904 -0.0550114019
536.25 -0.04622339608 -0.06023258842
536.875 -0.04803602533 -0.08710967667
537.5 -0.0513636981 -0.1090964732
538.125 -0.07912704321 -0.0825208225
538.75 -0.06640976933 -0.05699183564
539.375 -0.04021749509 -0.07311513856
540.0 -0.05711342068 -0.1143482665
540.625 -0.06822841816 -0.1455398398
541.25 -0.03662372722 -0.1140487035
541.875 -0.05057752734 -0.103244863
542.5 -0.0641177037 -0.1177397296
543.125 -0.1083004839 -0.08877613515
543.75 -0.1101112963 0.000549752935
544.375 -0.07645680879 0.03439705558
545.0 -0.052893984 0.06839003458
545.625 -0.03480894611 0.07717849537
546.25 -0.003938234814 0.0903345855
546.875 0.01527607238 0.08585986323
547.5 0.008045458717 0.1139509572
548.125 -0.01509917049 0.09293092832
548.75 -0.03065295424 0.0827134246
549.375 -0.04039446667 0.0851274316
550.0 -0.06539040749 0.03061463971
550.625 -0.04221875903 -0.008110993209
551.25 -0.03257635613 -0.04522224697
551.875 -0.0709642294 -0.0491251195
552.5 -0.09200968126 -0.06192056946
553.125 -0.08941881027 -0.02957939439
553.75 -0.09382689118 -0.02942086667
554.375 -0.1157244163 0.006722996247
555.0 -0.1167014043 0.01976469512
555.625 -0.0898637301 0.0287798827
556.25 -0.09977576514 0.02264847534
556.875 -0.1145047705 0.01704911359
557.5 -0.1055130357 0.02530471424
558.125 -0.09083716138 0.01928096087
558.75 -0.08183157757 0.0006189126916
559.375 -0.05650066947 -0.01113775298
560.0 -0.03749702259 -0.01786518303
560.625 -0.04456823438 -0.03889258098
561.25 -0.07614976131 -0.03873610552
561.875 -0.09384011951 -0.02555792443
562.5 -0.0891230132 0.02235053642
563.125 -0.08112810467 0.06643830278
563.75 -0.07109394261 0.1038106253
564.375 -0.03793873694 0.09699925079
565.0 -0.03003017352 0.08694379626
565.625 -0.02319254429 0.07927496032
566.25 -0.06441033221 0.06121767877
566.875 -0.0708256072 0.02488088113
567.5 -0.07318925134 0.02010894538
568.125 -0.08014853281 0.0125709705
568.75 -0.06575161714 -0.003795245144
569.375 -0.03911872066 -0.02548024825
570.0 -0.03507013012 -0.03569757562
570.625 -0.05882823287 -0.05219596232
571.25 -0.05674710565 -0.04369991719
571.875 -0.06880684847 -0.03825597693
572.5 -0.09890268127 -0.007129930126
573.125 -0.1288674996 0.03519627358
573.75 -0.07710176792 0.07053552002
574.375 -0.04255700102 0.07521061672
575.0 -0.04784245323 0.08156385096
575.625 -0.06383571657 0.08375743683
576.25 -0.04333384555 0.0815358351
576.875 -0.01472660416 0.08516267784
577.5 -0.005333324599 0.08872812844
578.125 -0.02744367743 0.06686254355
578.75 -0.01910887593 0.0502578638
579.375 -0.01507290853 0.05091357662
580.0 -0.02294843783 0.0480588988
580.625 -0.04361179127 0.02419946848
581.25 -0.0591465682 0.01839509501
581.875 -0.07232027125 0.04575588845
582.5 -0.08518211842 0.06077057605
583.125 -0.07368762185 0.05851550012
583.75 -0.06587981543 0.04265701176
584.375 -0.07622578527 0.0371984471
585.0 -0.09250051007 0.01756684419
585.625 -0.07288771391 0.02999591605
586.25 -0.0629018974 0.02479882953
586.875 -0.07061404933 0.02000835763
587.5 -0.07019869937 0.02677997186
588.125 -0.03451309556 0.0544128747
588.75 -0.01992048729 0.05365643591
589.375 -0.03002034902 0.04724586255
590.0 -0.0439254641 0.03605112259
590.625 -0.03937106963 0.06067597878
591.25 -0.02559073262 0.08975651754
591.875 -0.01577380069 0.1078723561
592.5 0.0005232842593 0.08532727842
593.125 0.009446941051 0.06823310327
593.75 0.0006270457661 0.07392416791
594.375 -0.02760522751 0.0672569587
595.0 -0.03537163879 0.03935401391
595.625 -0.03268233704 0.01680390243
596.25 -0.04506990029 0.001825933253
596.875 -0.04638085891 -0.01120904331
597.5 -0.04246986826 -0.01004248576
598.125 -0.0314884997 -0.006461083091
598.75 -0.02493659393 -0.01094355228
599.375 -0.01926449054 -0.02680542704
600.0 -0.02557886192 -0.04068975103
600.625 -0.03900587297 -0.05478126037
601.25 -0.05505484167 -0.05344933788
601.875 -0.06018677514 -0.03276598318
602.5 -0.06053874589 -0.01748363896
603.125 -0.05984228782 -0.01599636821
603.75 -0.0468529797 -0.01310609111
604.375 -0.02752524094 -0.01049878391
605.0 -0.01972466568 -0.02113233121
605.625 -0.02436696405 -0.03428572793
606.25 -0.02966710716 -0.0319730265
606.875 -0.0279511751 -0.01155760643
607.5 -0.01324213423 0.004198983544
608.125 0.001576498472 -0.0003695680431
608.75 0.005005663886 -0.005628448313
609.375 0.0103594704 -0.003184417542
610.0 0.0197792067 -0.002203365392
610.625 0.02559234236 -0.009934615976
611.25 0.02478854802 -0.01705087041
611.875 0.02089074219 -0.02018238215
612.5 0.01078042801 -0.02146819414
613.125 -0.005278848434 -0.01493964725
613.75 -0.01112427938 0.0002625182568
614.375 -0.005113732387 0.00902946264
615.0 0.000548773651 0.00538060724
615.625 -0.008268157642 0.001092433709
616.25 -0.0180220369 0.0119587157
616.875 -0.01326349301 0.0251507326
617.5 -0.003800646772 0.02390135105
618.125 -0.00491197245 0.01754107935
618.75 -0.009896163305 0.01900452433
619.375 -0.007984853271 0.0215967713
620.0 0.002947606902 0.014721948
620.625 0.004802335173 -0.004452821995
621.25 -0.008722829799 -0.02144657381
621.875 -0.02931034445 -0.03549961665
622.5 -0.06434736314 0.0081769033
623.125 -0.06356193256 0.04161760654
623.75 -0.05866203683 0.04892123326
624.375 -0.0591514086 0.03210207361
625.0 -0.0674743342 0.009670118388
625.625 -0.07524150493 0.01727906705
626.25 -0.06118868522 0.0323560763
626.875 -0.03899268176 0.03233785264
627.5 -0.0347210289 0.01342659202
628.125 -0.03943575718 -0.0116584528
628.75 -0.02924875018 -0.0220207041
629.375 -0.01742649705 -0.01761377972
630.0 -0.007248614454 -0.02833864337
630.625 0.01094550709 -0.05244220471
631.25 0.02439569197 -0.06560547505
631.875 0.01948933765 -0.07082862265
632.5 0.002898959772 -0.08271206679
633.125 0.01205618043 -0.08884950744
633.75 -0.001421686002 -0.08481256666
634.375 -0.001397750239 -0.08417285266
635.0 -0.02330535139 -0.08683749099
635.625 -0.02664995086 -0.06867475602
636.25 -0.01720314152 -0.05575894456
636.875 0.00288370559 -0.07262030285
637.5 -0.001758889857 -0.09010599022
638.125 -0.01346585743 -0.06699040732
638.75 -0.005617936963 -0.04184606713
639.375 0.03693491486 -0.03459088439
640.0 0.08627547996 -0.01195494262
640.625 0.07950635621 -0.007341990703
641.25 0.07199432947 -0.01913230124
641.875 0.07820476613 -0.01261615425
642.5 0.08394156441 0.02776319844
643.125 0.06867666608 0.03826456361
643.75 0.07265945477 0.02627094689
644.375 0.07943809057 0.01656263301
645.0 0.06415331331 0.0305635822
645.625 0.05479102849 0.04664238626
646.25 0.06796263786 0.04523363159
646.875 0.08953953027 0.05391349456
647.5 0.07386501753 0.04198878623
648.125 0.06359344805 0.04986292149
648.75 0.05221463472 0.07931069926
649.375 0.04385174181 0.1069820457
650.0 0.03210295968 0.09086948476
650.625 0.02121000213 0.08839821217
651.25 -0.01017718897 0.0942296629
651.875 -0.05376962928 0.06803768601
652.5 -0.04942308225 0.04482093984
653.125 -0.04958404867 0.02733228113
653.75 -0.06086772357 -0.01191574119
654.375 -0.03634996621 -0.06144072972
655.0 -0.03001914882 -0.07274963978
655.625 -0.05570199188 -0.08079737134
656.25 -0.08661678344 -0.08904706621
656.875 -0.09067297543 -0.06827856777
657.5 -0.08315530471 -0.07295930932
658.125 -0.1052581505 -0.07392399523
658.75 -0.1214459035 -0.0620094759
659.375 -0.1025011938 -0.00688213468
660.0 -0.08327952792 0.01462108807
660.625 -0.08364393225 0.01703842554
661.25 -0.08230755681 0.004050715349
661.875 -0.06620435778 0.0218442403
662.5 -0.06837440692 0.02742924094
663.125 -0.09853457554 0.006986047074
663.75 -0.08739989507 -0.049239588
664.375 -0.05716237647 -0.08528670799
665.0 -0.02304220465 -0.114753607
665.625 0.03343931071 -0.1342577569
666.25 0.05667045808 -0.09991962124
666.875 0.06567238043 -0.08872552299
667.5 0.07879764872 -0.08788801426
668.125 0.08996222872 -0.053858887
668.75 0.06541345215 -0.03260758888
669.375 0.06809610966 -0.02447312616
670.0 0.09569490191 -0.03012757526
670.625 0.1013351267 -0.009725637674
671.25 0.08694852292 -0.02529888211
671.875 0.08798670616 -0.0413768967
672.5 0.0785717246 -0.1039857643
673.125 0.05103565098 -0.1157730843
673.75 0.02984365662 -0.1127135133
674.375 0.05179354033 -0.09224280472
675.0 0.08511891944 -0.05354294012
675.625 0.08148884547 -0.02085781755
676.25 0.08561551707 0.004257426074
676.875 0.08492407182 0.03945921533
677.5 0.04365108267 0.06641940298
678.125 0.03872137825 0.0711383146
678.75 0.05532602118 0.09346157915
679.375 0.06875818366 0.1326446507
680.0 0.04965005621 0.1158557091
680.625 0.07494708377 0.08306842995
681.25 0.1121824141 0.05110765818
681.875 0.1466031705 0.0293129345
682.5 0.1113031675 -0.005224715886
683.125 0.0833144074 -0.01123442959
683.75 0.08566205346 0.01116898753
684.375 0.06340208887 0.07815710887
685.0 -0.004289141098 0.08523855772
685.625 -0.06332881087 0.04895344382
686.25 -0.09267172555 0.005615934257
686.875 -0.1070434464 -0.04081063766
687.5 -0.1096946993 -0.06012299454
688.125 -0.1276761566 -0.07886352667
688.75 -0.1110365773 -0.1038375485
689.375 -0.08397463124 -0.08253263978
690.0 -0.08361698712 -0.07219176417
690.625 -0.1030615546 -0.07510309712
691.25 -0.09998176879 -0.07349513442
691.875 -0.06816146482 -0.00743487837
692.5 -0.06187601028 0.02383411419
693.125 -0.0503113212 0.09530705291
693.75 -0.0237752732 0.1571319305
694.375 -0.0006427121358 0.1264997892
695.0 -0.03114481384 0.1170589962
695.625 -0.1160382959 0.07990082702
696.25 -0.1298749097 -0.07559656421
696.875 -0.01733067276 -0.1343963694
697.5 0.05402292159 -0.1073982707
698.125 0.0737860112 -0.07520014389
698.75 0.0640810403 -0.04628855014
699.375 0.08132743648 -0.02997238183
700.0 0.1024954894 -0.005753790392
700.625 0.08572911191 0.04304887305
701.25 0.07420454622 0.04528774829
701.875 0.110999983 0.0347381846
702.5 0.1636554615 -0.03396036673
703.125 0.1176287644 -0.08337521629
703.75 -0.007773987647 -0.1037048565
704.375 -0.04817237128 -0.07670654842
705.0 -0.04393348527 -0.1149165717
705.625 0.04535262347 -0.1020471268
706.25 0.06559647246 -0.04047711101
706.875 0.06448811006 0.02518128865
707.5 0.0396165228 0.09107016814
708.125 -0.03982998701 0.1124402525
708.75 -0.08005462145 0.08492243757
709.375 -0.1018175945 0.03495967948
710.0 -0.1017445627 -0.02538989646
710.625 -0.08655029517 -0.05981784678
711.25 -0.08150034161 -0.09107109209
711.875 -0.09117248881 -0.07980084551
712.5 -0.08738851896 -0.02464297486
713.125 -0.0568098752 0.03836376437
713.75 -0.03390615831 0.06154936205
714.375 -0.03753731383 0.08469317169
715.0 -0.02713084859 0.07489827987
715.625 -0.02657377746 0.07334599269
716.25 -0.06036638075 0.0855647154
716.875 -0.1255616504 0.05298178215
717.5 -0.107206845 -0.025111727
718.125 -0.0837879749 -0.03372885658
718.75 -0.08036208033 -0.04569225762
719.375 -0.06127468138 -0.08302344877
720.0 -0.003326931169 -0.09132008594
720.625 0.04753019477 -0.05675003546
721.25 0.05773056109 0.007638598298
721.875 0.007165537314 0.04115274861
722.5 -0.03039829578 0.03814736832
723.125 -0.03722679896 0.06535071002
723.75 0.0241270096 0.08996772629
724.375 0.07396247657 0.03691776746
725.0 0.06825772745 -0.02390771728
725.625 0.05469060862 -0.05247881327
726.25 0.04687083498 -0.05772515968
726.875 0.04084147226 -0.04043093578
727.5 0.03525015354 -0.0209327706
728.125 0.03338368044 0.01081379116
728.75 0.02928288948 0.03142142136
729.375 0.0357499967 0.02070681228
730.0 0.03066852539 0.005490052927
730.625 0.0184813892 0.01551055353
731.25 0.003638244832 0.02820880066
731.875 -0.0170918357 0.02496344956
732.5 -0.03170728762 0.01340652232
733.125 -0.03412556471 0.009280757434
733.75 -0.01951504004 0.01761462088
734.375 -0.001784865634 0.01457891168
735.0 0.006468446934 0.002823376165
735.625 0.008741075073 -0.006098629168
736.25 0.004782398918 -0.02139711122
736.875 -0.01318727534 -0.03168404795
737.5 -0.02860000287 -0.02414780619
738.125 -0.03023267208 -0.007632444632
738.75 -0.01407492653 0.01358497905
739.375 0.01548836218 0.02118305454
740.0 0.03219794863 -0.001445582942
740.625 0.02003323112 -0.01710781196
741.25 0.02070772693 -0.008630683076
741.875 0.02444297237 0.01755793367
742.5 -0.00688746143 0.03478793105
743.125 -0.03795334207 0.01381368547
743.75 -0.04811078868 -0.01328613009
744.375 -0.05619824476 -0.02500516891
745.0 -0.07065378815 -0.01954669193
745.625 -0.08018989532 0.02273543204
746.25 -0.04467986621 0.0581186288
746.875 -0.0008188493738 0.04566142629
747.5 0.001788133829 0.02214178781
748.125 -0.007985335474 0.0243038251
748.75 0.005613920024 0.04101899481
749.375 0.04076230292 0.02325607457
750.0 0.04581310817 -0.02739902135
