!Created with skrf (http://scikit-rf.org).
# GHz S RI R 50.0 
!freq ReS11 ImS11
500.0 -0.01181484827 0.0317239293
500.625 0.0278561019 0.02448746972
501.25 0.03662147226 0.01143372996
501.875 0.03191958464 0.01531276615
502.5 0.01854635262 0.02774568272
503.125 0.03560886045 0.02076717136
503.75 0.04732041953 -0.002214506777
504.375 0.04352578552 -0.01718610033
505.0 0.03502899769 -0.03857913427
505.625 0.03768339625 -0.06486025893
506.25 0.01785202864 -0.07472995113
506.875 0.0519959359 -0.07711332066
507.5 0.02323688858 -0.07524233573
508.125 0.06191397314 -0.07378959703
508.75 0.01314642255 -0.09091333665
509.375 -0.006530251355 -0.07540388626
510.0 0.02367698304 -0.07364170489
510.625 -0.0506782935 -0.05634228288
511.25 -0.06551743708 -0.04173640755
511.875 -0.06469864069 0.01193781541
512.5 -0.03555362411 0.03970159928
513.125 0.009583581574 0.06241585662
513.75 0.0186068422 0.0631562856
514.375 0.04103089801 0.05111516753
515.0 0.07558408694 0.04620202591
515.625 0.03268197147 0.1135162217
516.25 0.09037702887 0.07521619321
516.875 0.02947193834 0.137409496
517.5 0.1255477707 0.08758790605
518.125 0.01204897536 0.2026297555
518.75 0.08390346568 0.03963798764
519.375 0.07380944032 0.04923652232
520.0 0.1116695054 0.02062284758
520.625 0.1084944256 0.001225404434
521.25 0.09503275831 -0.02623128017
521.875 0.07747503447 0.006168210508
522.5 0.09742719961 -0.04974376294
523.125 0.1583028041 -0.1034507988
523.75 0.1403857329 -0.1938177778
524.375 0.1565321567 -0.1548250861
525.0 0.05698372258 -0.04788687392
525.625 0.03867457649 -0.02536262194
526.25 0.0560609802 -0.01051119037
526.875 0.05987309073 -0.02373790396
527.5 0.04337605645 -0.03054082606
528.125 0.01912420796 -0.04620451058
528.75 0.01161362443 -0.07315505897
529.375 -0.04492468854 -0.08737357565
530.0 -0.05002505372 -0.02748310772
530.625 -0.04082544442 -0.009037655955
531.25 -0.1000732022 -0.05888278066
531.875 -0.1555779367 -0.05694973266
532.5 -0.1473844269 0.02168642107
533.125 -0.1047778238 0.03495550543
533.75 -0.1044734225 0.06077369574
534.375 -0.1037254286 0.03972256428
535.0 -0.07819048647 0.06948552621
535.625 -0.06865758588 0.03281202274
536.25 -0.04417927553 0.04995634441
536.875 -0.07101247314 0.01511470615
537.5 -0.09138081846 -0.00509435835
538.125 -0.09860804893 0.03203101773
538.75 -0.103785257 0.05634571785
539.375 -0.08163379993 0.02970006024
540.0 -0.08571030438 0.0193235557
540.625 -0.1109557757 0.01923407432
541.25 -0.1214956918 -0.001783580861
541.875 -0.09061604843 -0.01157617446
542.5 -0.08953127397 -0.01648063073
543.125 -0.1208514765 0.02873088832
543.75 -0.08407522305 0.1103099346
544.375 -0.03713446528 0.1164150681
545.0 0.05314183898 0.08194998399
545.625 0.08713151763 0.06914066021
546.25 0.09777326902 0.03064384556
546.875 0.1047348336 0.02268680514
547.5 0.1173191815 0.03301295982
548.125 0.1263388619 0.06787585332
548.75 0.0907213102 0.07243527092
549.375 0.09844719641 0.08536217874
550.0 0.06270276806 0.1195447011
550.625 0.03189930223 0.08974416822
551.25 -0.002115336937 0.05356849556
551.875 -0.006761416463 0.04206413271
552.5 -0.01926169746 0.06454501874
553.125 -0.03414476183 0.05924953447
553.75 -0.03307252812 0.04620468451
554.375 -0.0255547714 0.06633517413
555.0 -0.0147448696 0.09513375483
555.625 -0.007630452926 0.09637632196
556.25 -0.02359268367 0.07844245652
556.875 -0.02747195892 0.09428954613
557.5 -0.036123371 0.1060243103
558.125 -0.03487448117 0.1129805598
558.75 -0.0558792391 0.08836729454
559.375 -0.03184170821 0.09815032471
560.0 -0.02407714 0.07095299859
560.625 -0.004276308103 0.0529454079
561.25 -0.01735590429 0.04755361597
561.875 -0.02560929133 0.06426030585
562.5 -0.01407503857 0.07137687248
563.125 0.01591237192 0.07285040796
563.75 0.05244730199 0.07939477166
564.375 0.08017145564 0.09386470805
565.0 0.07091489017 0.08963849369
565.625 0.07861547318 0.06277251205
566.25 0.06342685437 0.07166979102
566.875 0.03148583004 0.09365604217
567.5 -0.005676413792 0.08714299015
568.125 -0.01165260171 0.09392596624
568.75 -0.02063034836 0.1012197781
569.375 -0.01528524868 0.07771735531
570.0 -0.01904748931 0.05653892054
570.625 -0.01658698739 0.05159057166
571.25 -0.02678551415 0.05855795722
571.875 -0.01500913307 0.03653315729
572.5 -0.01646788701 0.04812321758
573.125 -0.01200622066 0.08379250041
573.75 0.03174621087 0.108009969
574.375 0.05204026221 0.06565197249
575.0 0.0567184687 0.04683113476
575.625 0.0634509554 0.05771142353
576.25 0.05593333473 0.07927050116
576.875 0.06562045662 0.05985182062
577.5 0.07858808214 0.04435758255
578.125 0.09039437709 0.04704954757
578.75 0.07308962947 0.05741329927
579.375 0.07044523745 0.03756547432
580.0 0.07564083887 0.02713973044
580.625 0.06824135966 0.02153387774
581.25 0.03969592725 0.01944147373
581.875 0.01627811665 0.03449403287
582.5 0.02804655579 0.05835751442
583.125 0.03136193313 0.07792709391
583.75 0.03620987986 0.06416553392
584.375 0.01916254728 0.06472539329
585.0 0.005458154876 0.07728822229
585.625 -0.0001133244479 0.08594399301
586.25 0.01774030548 0.06868032263
586.875 0.0191606702 0.06314961942
587.5 0.02117639082 0.0775598653
588.125 0.04824186811 0.06473391349
588.75 0.06472723224 0.04086730815
589.375 0.07098381231 0.006919842052
590.0 0.05689983235 0.004279867392
590.625 0.02762872728 0.01712983937
591.25 0.03209017939 0.03195742501
591.875 0.05803854532 0.03850775079
592.5 0.08392535119 0.03258184372
593.125 0.07536635632 0.02747899838
593.75 0.06785462829 0.02719807687
594.375 0.06653114159 0.05049438294
595.0 0.0496006429 0.06616570799
595.625 0.02938412285 0.06301169283
596.25 0.01080386036 0.05388436004
596.875 -0.004995141857 0.05932956614
597.5 -0.01259061514 0.05886431442
598.125 0.002474414614 0.05935105008
598.75 0.01833808689 0.04694411061
599.375 0.01703566595 0.03069286328
600.0 0.005502585074 0.01208479748
600.625 -0.01005861099 0.004362045665
601.25 -0.03003133179 0.01110162158
601.875 -0.04117485937 0.02263278145
602.5 -0.03855184435 0.02820992001
603.125 -0.03869910136 0.03393872641
603.75 -0.03522748962 0.04277239571
604.375 -0.02847137465 0.03716170536
605.0 -0.02330125994 0.0201059353
605.625 -0.03220390571 0.007198609681
606.25 -0.04872979323 0.006675529536
606.875 -0.0504005706 0.01866654128
607.5 -0.02965107346 0.03188900259
608.125 -0.007716280131 0.0286474209
608.75 -0.00429199203 0.02061770332
609.375 -0.002382920021 0.01722459295
610.0 0.004918480299 0.01235071452
610.625 0.01202313437 0.001225096048
611.25 0.01248628734 -0.01078177112
611.875 0.01052061825 -0.01857278273
612.5 0.003089944414 -0.02249044929
613.125 -0.008204002745 -0.01645341975
613.75 -0.009977339616 -0.001495460301
614.375 0.0002336954325 0.007486908335
615.0 0.009440351241 0.00346084713
615.625 0.004249839503 -0.0006690073554
616.25 -0.001327309426 0.009396577478
616.875 0.0086503218 0.02291207743
617.5 0.02134504835 0.02398692044
618.125 0.02230619201 0.01957315919
618.75 0.02190330062 0.02157722428
619.375 0.02885811752 0.03104379952
620.0 0.04199494556 0.02891989984
620.625 0.04587767195 0.002363763025
621.25 0.03533612166 -0.008211964936
621.875 0.01544702484 -0.01331892587
622.5 -0.01197850176 0.001228621394
623.125 -0.007211484263 0.02918482998
623.75 0.004847465964 0.04737906654
624.375 -0.001289395036 0.05478451091
625.0 -0.01795957166 0.05061954237
625.625 -0.01532678841 0.0640285516
626.25 0.0008484633915 0.08698961627
626.875 0.009867575116 0.08769969553
627.5 0.007593848472 0.07332825451
628.125 -0.0005145581177 0.06746903896
628.75 -0.01445280773 0.07343808438
629.375 -0.02067403415 0.06392611242
630.0 -0.01271435753 0.05073654844
630.625 -0.0180019707 0.03654860855
631.25 -0.0309029921 0.01749683519
631.875 -0.03907027634 0.001260970525
632.5 -0.04596785122 -0.004015700701
633.125 -0.06005473431 -0.005604665687
633.75 -0.07042399545 -0.00262489904
634.375 -0.06998389814 -0.002321715717
635.0 -0.08112214054 0.008505303255
635.625 -0.08805557057 0.03326838746
636.25 -0.07844928168 0.02948373602
636.875 -0.06313108046 0.01633223813
637.5 -0.07829352006 0.007829636379
638.125 -0.10429342 0.01250973093
638.75 -0.0869371189 0.01411993159
639.375 -0.06324936334 0.001281029423
640.0 -0.04368612494 -0.02943217932
640.625 -0.02818538685 -0.069926652
641.25 -0.01580966698 -0.06823624788
641.875 -0.01924656148 -0.06530885454
642.5 -0.01057006944 -0.07435513501
643.125 0.01988393384 -0.08676637441
643.75 0.02965991943 -0.08104024662
644.375 0.004590657491 -0.08577449881
645.0 -0.01262048619 -0.09375266326
645.625 0.002458243922 -0.07809469442
646.25 0.007873065595 -0.0661554163
646.875 0.02139346313 -0.06813758397
647.5 0.01834703913 -0.09044540438
648.125 0.02153807364 -0.06838735284
648.75 0.03443602266 -0.05013952694
649.375 0.06342582668 -0.03475476939
650.0 0.09527014916 -0.0253880452
650.625 0.09182023501 -0.006639446789
651.25 0.09341469402 0.007139901155
651.875 0.0958152655 0.04808560762
652.5 0.07394800308 0.09258158833
653.125 0.06113872121 0.08515933972
653.75 0.05495167231 0.08408251608
654.375 0.02796741342 0.09012181759
655.0 -0.01436102937 0.06203436825
655.625 -0.0215615113 0.04603408326
656.25 -0.02201177609 0.060978123
656.875 -0.02020624218 0.08933185814
657.5 -0.04467897653 0.06539277283
658.125 -0.05499278951 0.06363189461
658.75 -0.04924009692 0.094069618
659.375 -0.02321745837 0.1351291356
660.0 0.0193292793 0.1174829253
660.625 0.0479220153 0.1027739526
661.25 0.06978194282 0.09544192082
661.875 0.08128724014 0.08215723505
662.5 0.08275617548 0.04347379653
663.125 0.06976299094 0.04894555522
663.75 0.03024515015 0.08625685089
664.375 -0.04187319694 0.06285613666
665.0 -0.05950756272 0.0350262609
665.625 -0.08057875687 0.0118884924
666.25 -0.1095438387 -0.03357746892
666.875 -0.0826711276 -0.07367352768
667.5 -0.08198825064 -0.07320917582
668.125 -0.1016754291 -0.06910069186
668.75 -0.1063732244 -0.07374647868
669.375 -0.07493201868 -0.05557015952
670.0 -0.05368849681 -0.05728390581
670.625 -0.06664085632 -0.07364926447
671.25 -0.07614878986 -0.06926787434
671.875 -0.07195284102 -0.03844672967
672.5 -0.07636390579 -0.02674463253
673.125 -0.1015146729 -0.01975082051
673.75 -0.1120397788 -0.02594453453
674.375 -0.1132737435 -0.02575973308
675.0 -0.1037145189 -0.06557019989
675.625 -0.06217550776 -0.102503101
676.25 -0.02639210254 -0.1032449325
676.875 -0.02696616426 -0.1104100237
677.5 -0.02773365836 -0.1182920793
678.125 0.01045083202 -0.08552889093
678.75 0.01498069051 -0.04973952278
679.375 0.03818953988 -0.04911109907
680.0 0.05811576673 -0.07922934315
680.625 0.0797311502 -0.07846370519
681.25 0.04021995075 -0.0858006533
681.875 0.01040104532 -0.109865229
682.5 -0.04875308091 -0.1432175632
683.125 -0.04772157925 -0.140206906
683.75 -0.02825833055 -0.1211413185
684.375 0.02646697346 -0.1128792773
685.0 0.1090427723 -0.07285969428
685.625 0.1135399842 0.0003765120904
686.25 0.09339025335 0.04138704363
686.875 0.05412455748 0.05924287196
687.5 0.002493635928 0.07134868405
688.125 -0.01996262244 0.07132261684
688.75 -0.0392449597 0.09697905215
689.375 -0.06921274503 0.1154065034
690.0 -0.07535680888 0.08808698009
690.625 -0.05445307845 0.101698299
691.25 -0.0100361781 0.141176692
691.875 0.07322083079 0.1660289292
692.5 0.1108317919 0.05456498425
693.125 0.08153536757 -0.05150574812
693.75 0.05506150359 -0.07803815106
694.375 0.09278476242 -0.08774192195
695.0 0.1044450433 -0.01696897338
695.625 0.07986146186 0.04749203764
696.25 -0.002048886886 0.1029584131
696.875 -0.1079867167 0.05437641897
697.5 -0.122301297 -0.02853720868
698.125 -0.1173789013 -0.05664562043
698.75 -0.1159097391 -0.05585017156
699.375 -0.09014304293 -0.04955153544
700.0 -0.08046727393 -0.05396830325
700.625 -0.0606577073 -0.08546781153
701.25 -0.02085332157 -0.0964534093
701.875 -0.01451306411 -0.05999464024
702.5 -0.03760875987 -0.06465897317
703.125 -0.112738101 -0.05822374224
703.75 -0.1733875409 0.01926681453
704.375 -0.09192117294 0.08597457874
705.0 -0.0595919858 0.09128415882
705.625 -0.1037195032 0.07090088572
706.25 -0.1354402818 -0.04828438295
706.875 -0.04568912984 -0.09838870836
707.5 -0.002782699659 -0.08522126858
708.125 0.04435980063 -0.06091049571
708.75 0.07602865133 0.003029596722
709.375 0.057243631 0.05817472284
710.0 0.01666075351 0.07865355354
710.625 -0.01370760668 0.07718547617
711.25 -0.0417302406 0.06503443743
711.875 -0.04997281167 0.09107531863
712.5 -0.01972726754 0.1361953947
713.125 0.08160551517 0.111801475
713.75 0.1132340127 -0.01544568437
714.375 0.07460062553 -0.08655797995
715.0 0.05758874326 -0.1076076689
715.625 0.0670180527 -0.05881072844
716.25 0.05170974297 -0.01860652297
716.875 0.05376351307 0.0186095856
717.5 0.04061503691 0.07763458421
718.125 -0.002091073876 0.09245436645
718.75 -0.01307157286 0.07238818575
719.375 -0.02854450332 0.06086023168
720.0 -0.07418496903 0.03416389621
720.625 -0.08299949398 -0.0492914329
721.25 -0.007986221552 -0.1004433996
721.875 0.05496548976 -0.08066947913
722.5 0.06028422684 -0.06175988105
723.125 0.02298669417 -0.06007244764
723.75 0.003207424074 -0.04913148624
724.375 -0.01498144992 -0.04845991185
725.0 -0.03172429337 -0.02847944981
725.625 -0.0335146637 -0.01527562206
726.25 -0.04592920501 -0.02387055961
726.875 -0.05262857046 -0.0500346483
727.5 -0.04213708617 -0.06002286929
728.125 -0.02890649456 -0.05456158188
728.75 -0.02336245532 -0.04344097722
729.375 -0.0182460708 -0.03686744096
730.0 -0.01782385955 -0.03512015141
730.625 -0.01548563132 -0.02699093433
731.25 -0.002247240744 -0.02063949389
731.875 0.008508848861 -0.008994725163
732.5 0.003899725709 0.007444370873
733.125 -0.004449985447 0.02085366299
733.75 0.005652486949 0.02891729049
734.375 0.01897069532 0.02174825165
735.0 0.02134483824 0.001950148525
735.625 0.01595728561 -0.007171032356
736.25 0.006337696215 -0.01879804961
736.875 -0.01643299218 -0.02423474096
737.5 -0.03883337159 -0.01424413586
738.125 -0.05036541515 -0.0008817419816
738.75 -0.04284675595 0.01223988257
739.375 -0.02146311483 0.01179924531
740.0 -0.01401773483 -0.006775612524
740.625 -0.02940828733 -0.008179973956
741.25 -0.0333898686 -0.0008898431208
741.875 -0.02328510142 -0.01923694205
742.5 0.01534657995 -0.02507575289
743.125 0.02996110003 0.007450169157
743.75 0.02117950314 0.02316996853
744.375 0.01829655111 0.02774945861
745.0 0.01102720544 0.03660531009
745.625 0.01583753417 0.049220709
746.25 0.05054351736 0.04931332581
746.875 0.08021591369 0.002046652908
747.5 0.05869150517 -0.03711125901
748.125 0.02655725846 -0.04834317591
748.75 0.003534060621 -0.04979506439
749.375 -0.03192452854 -0.04855701054
750.0 -0.06438969812 0.007341600443
