!Created with skrf (http://scikit-rf.org).
# GHz S RI R 50.0 
!freq ReS11 ImS11
500.0 -0.02664836864 0.03039996514
500.625 0.0164649153 0.04314134602
501.25 0.02658048351 0.03848966337
501.875 0.01803328413 0.05304771664
502.5 0.008192834324 0.06538960064
503.125 0.03453174798 0.05386305314
503.75 0.05247636765 0.03093234229
504.375 0.06010018051 0.01052514459
505.0 0.06472416907 -0.02389365912
505.625 0.07875825999 -0.04308518955
506.25 0.05685902367 -0.05412139276
506.875 0.08297830418 -0.03006580532
507.5 0.07292290747 -0.04622652835
508.125 0.09726794915 -0.006655530401
508.75 0.06736073429 -0.05582937472
509.375 0.05387964599 -0.05678848873
510.0 0.09121524312 -0.04495165174
510.625 -0.0009505081883 -0.08473691347
511.25 -0.03379103352 -0.06774376941
511.875 -0.05673756745 -0.02465922603
512.5 -0.049115613 0.0005364905688
513.125 -0.03710018287 0.0383777889
513.75 -0.0342739863 0.05438951567
514.375 -0.01552032224 0.07712009165
515.0 0.01866276395 0.1087438195
515.625 -0.05231587008 0.1129376196
516.25 0.03669727884 0.1228302158
516.875 -0.05262801838 0.144977781
517.5 0.04636682711 0.1311970252
518.125 -0.08806534373 0.1354548648
518.75 0.02969551574 0.06859152799
519.375 0.01735322966 0.09771075021
520.0 0.06048727007 0.08135873195
520.625 0.07462271753 0.05888059456
521.25 0.07621544571 0.03482261765
521.875 0.05323219342 0.05731833608
522.5 0.08438436621 0.01377181224
523.125 0.1475259877 -0.009430801662
523.75 0.1477397253 -0.05783270525
524.375 0.1097301319 0.005416849566
525.0 0.02162210935 0.01312005379
525.625 0.02002340339 0.02795925514
526.25 0.02937981852 0.05238104835
526.875 0.03657010025 0.04489042363
527.5 0.04097098112 0.0234033672
528.125 0.05524247831 -0.006283822186
528.75 0.07460380054 -0.02926681382
529.375 0.05035370658 -0.06283409337
530.0 0.01821969667 -0.04586465763
530.625 -0.0195668887 -0.08314655423
531.25 -0.02428070192 -0.1875502935
531.875 -0.08671193786 -0.1601565539
532.5 -0.1162018827 -0.08418010763
533.125 -0.1057125475 -0.04664872038
533.75 -0.1146487752 -0.0622967188
534.375 -0.09320205816 -0.03676921847
535.0 -0.08832614106 -0.01182721881
535.625 -0.05627790363 -0.03212091502
536.25 -0.0607394375 -0.02996701162
536.875 -0.06465158139 -0.05620095244
537.5 -0.07732887308 -0.08246096958
538.125 -0.1016436064 -0.04953957378
538.75 -0.08719915501 -0.03002608986
539.375 -0.06426345165 -0.04356512214
540.0 -0.0811123293 -0.07415782862
540.625 -0.1065244468 -0.09867767069
541.25 -0.07211972652 -0.09459087898
541.875 -0.07132783281 -0.07728456794
542.5 -0.08380083398 -0.08720479911
543.125 -0.126766011 -0.0542714312
543.75 -0.1190442838 0.03734392823
544.375 -0.07311462212 0.06139250284
545.0 -0.01745416869 0.08840076467
545.625 0.0005509318374 0.08755479725
546.25 0.04109521484 0.08629326236
546.875 0.04982912659 0.07815542869
547.5 0.05659806282 0.09903428688
548.125 0.0260498156 0.1001758098
548.75 0.01517926915 0.09682603146
549.375 0.007140480657 0.103196083
550.0 -0.04124118394 0.07387676664
550.625 -0.02988755951 0.02984438852
551.25 -0.03438926997 -0.007115764973
551.875 -0.05967188612 -0.00897622946
552.5 -0.09515586915 -0.01230681601
553.125 -0.07998777564 0.002552196434
553.75 -0.08377131695 0.004308457651
554.375 -0.0934426331 0.03890896379
555.0 -0.09564202296 0.0589104304
555.625 -0.07591154451 0.0576315397
556.25 -0.08043449489 0.05001372858
556.875 -0.0992723611 0.05282749824
557.5 -0.09114491378 0.0590697468
558.125 -0.09053395022 0.05554654207
558.75 -0.08136510263 0.03254545604
559.375 -0.06637332292 0.02260495659
560.0 -0.03991521238 0.01295834109
560.625 -0.04705049225 -0.003049942507
561.25 -0.06950485554 -0.005574802684
561.875 -0.08815034713 0.009304109545
562.5 -0.06923736565 0.04519465289
563.125 -0.04971433051 0.08136166508
563.75 -0.02683646932 0.1171254408
564.375 -0.006219855522 0.1095846195
565.0 0.001135809578 0.09923261923
565.625 0.01071348532 0.08668465103
566.25 -0.02477830807 0.08454527958
566.875 -0.0549055792 0.05785932466
567.5 -0.06009374298 0.04788587871
568.125 -0.07093656701 0.04656857789
568.75 -0.06502581141 0.03148652453
569.375 -0.04936687 0.01151016252
570.0 -0.0395796408 -0.008215516793
570.625 -0.06239979315 -0.01341645266
571.25 -0.05906473536 -0.01554546525
571.875 -0.06142488413 -0.00283733896
572.5 -0.08177543315 0.01919844369
573.125 -0.1004270382 0.0672873085
573.75 -0.05430778044 0.09045743327
574.375 -0.008846397965 0.08474200792
575.0 -0.01002934394 0.08446672786
575.625 -0.02751754145 0.09843875675
576.25 -0.016479638 0.09064080434
576.875 0.01287560125 0.08768122976
577.5 0.02736092209 0.08543534207
578.125 0.006648643326 0.08317979049
578.75 0.004535870801 0.06035142487
579.375 0.0117141901 0.05768999574
580.0 0.009118864719 0.05533059492
580.625 -0.01034146215 0.03984389307
581.25 -0.03425711126 0.03203004689
581.875 -0.04380087935 0.05226709069
582.5 -0.0542767062 0.07810808632
583.125 -0.0434579682 0.07490570026
583.75 -0.04231532596 0.0653116054
584.375 -0.05303541716 0.05556356411
585.0 -0.07782730226 0.04898793873
585.625 -0.05642919436 0.05201581431
586.25 -0.04764026369 0.05026906848
586.875 -0.05348057674 0.04613753802
587.5 -0.0548560642 0.05159552925
588.125 -0.01230239478 0.0651690633
588.75 0.005971890305 0.06129679823
589.375 0.00575915857 0.05311176959
590.0 -0.01826063944 0.04138509468
590.625 -0.01643897644 0.05546384958
591.25 -0.00245079179 0.08065191565
591.875 0.01636606243 0.09978859311
592.5 0.02779104628 0.0849423217
593.125 0.03081353706 0.06447353376
593.75 0.02587556521 0.0697175214
594.375 -0.0003266210872 0.07677106415
595.0 -0.01657351873 0.05959220624
595.625 -0.02416183125 0.03547840629
596.25 -0.03674215461 0.0234452465
596.875 -0.04575941276 0.01074571765
597.5 -0.0434098834 0.01299742008
598.125 -0.03298999719 0.01407573048
598.75 -0.02153826885 0.009077413228
599.375 -0.01744593201 -0.008991279095
600.0 -0.02339597084 -0.0223060889
600.625 -0.04014113766 -0.03491161762
601.25 -0.05866306872 -0.0345233569
601.875 -0.06193412884 -0.01766141748
602.5 -0.06013969516 -0.002954306439
603.125 -0.06124299469 0.0001356820891
603.75 -0.05270890135 0.001980913236
604.375 -0.03358614639 0.0002937386878
605.0 -0.02551378248 -0.01115806678
605.625 -0.03182054721 -0.02460357835
606.25 -0.03978934742 -0.02499439873
606.875 -0.03734220081 -0.007210213395
607.5 -0.02073762184 0.00914120538
608.125 -0.004479844293 0.00581994628
608.75 -0.0005705388453 -0.0001374111792
609.375 0.004591085143 0.0003819457854
610.0 0.01438839321 -0.0002619624066
610.625 0.02090212991 -0.008594003586
611.25 0.02065814025 -0.01693739176
611.875 0.01774645394 -0.02080933348
612.5 0.00844471017 -0.02232811215
613.125 -0.006082851242 -0.01525779615
613.75 -0.01102205951 0.0004357662047
614.375 -0.004054873162 0.009823058534
615.0 0.002392366698 0.006554351949
615.625 -0.00550591272 0.00282163154
616.25 -0.01407321258 0.01430314125
616.875 -0.008443032049 0.02835948914
617.5 0.001245164497 0.02774340992
618.125 0.0005737601345 0.02197812906
618.75 -0.003311450776 0.02451180133
619.375 -0.001628257691 0.02947078352
620.0 0.008832710136 0.02373188567
620.625 0.01251865326 0.002955795235
621.25 -0.00125674063 -0.01201316875
621.875 -0.0226421879 -0.02446595465
622.5 -0.05180424901 0.01461257009
623.125 -0.05028081091 0.04734212904
623.75 -0.04578063097 0.05782694105
624.375 -0.0496843137 0.04412105027
625.0 -0.06216800441 0.02644570482
625.625 -0.06996976186 0.0373753297
626.25 -0.05798491869 0.05186528555
626.875 -0.03558833334 0.05017889779
627.5 -0.03354680161 0.03342746787
628.125 -0.04381520506 0.01323948911
628.75 -0.04178473244 -0.002317142638
629.375 -0.02785708546 -0.001647324584
630.0 -0.01894189962 -0.01167768967
630.625 -0.008922082639 -0.03736381369
631.25 0.0004803318454 -0.05670747651
631.875 -0.001764408928 -0.06524723962
632.5 -0.01905084439 -0.07176961498
633.125 -0.01551724076 -0.0835947073
633.75 -0.0288558411 -0.07498638919
634.375 -0.02853404226 -0.07961361659
635.0 -0.04883034297 -0.07440545481
635.625 -0.05230579695 -0.06002541136
636.25 -0.04087893152 -0.04375282462
636.875 -0.02531081457 -0.0642755464
637.5 -0.03250190655 -0.08337956675
638.125 -0.03948099844 -0.06504091694
638.75 -0.03111005909 -0.03871179585
639.375 0.009290352109 -0.04048508063
640.0 0.06320961673 -0.03991997911
640.625 0.06937086207 -0.03118234658
641.25 0.05848534171 -0.04110199739
641.875 0.06376397866 -0.03740687702
642.5 0.08348731399 -0.008692346088
643.125 0.07763095327 0.009234999971
643.75 0.07751529952 -0.0002746012879
644.375 0.07903100495 -0.01618723339
645.0 0.06877942534 -0.002429666873
645.625 0.06181959734 0.01221299488
646.25 0.0710033988 0.01812730988
646.875 0.09500805464 0.0177606788
647.5 0.08096270704 0.01350495388
648.125 0.07068891715 0.01600378388
648.75 0.06692363202 0.05223392737
649.375 0.07092720396 0.08330443811
650.0 0.05594658301 0.0786524315
650.625 0.05060123573 0.07791039814
651.25 0.0240027393 0.09166598579
651.875 -0.02596140787 0.09008279001
652.5 -0.03207912766 0.06667244801
653.125 -0.03592365129 0.05483262946
653.75 -0.05253498575 0.02626589479
654.375 -0.04934420331 -0.02709171023
655.0 -0.04381628243 -0.04621671219
655.625 -0.06674442931 -0.05053293617
656.25 -0.09972494646 -0.0479486876
656.875 -0.09835750188 -0.03245440615
657.5 -0.09751018177 -0.04090862759
658.125 -0.1129571006 -0.03974963235
658.75 -0.1360435706 -0.02154512889
659.375 -0.1038291614 0.02605096514
660.0 -0.08001496643 0.05059346332
660.625 -0.07205433914 0.05227448856
661.25 -0.07358294666 0.04399498575
661.875 -0.04408956405 0.04972685357
662.5 -0.04296330861 0.05181439077
663.125 -0.07389231984 0.04393507663
663.75 -0.08752610563 -0.01283663244
664.375 -0.07153791062 -0.05239237782
665.0 -0.05108014881 -0.09156918465
665.625 -0.01477767489 -0.127522684
666.25 0.02436940039 -0.1103734696
666.875 0.03509778965 -0.1045865996
667.5 0.04543354772 -0.1080873724
668.125 0.0623046369 -0.09071705376
668.75 0.04153866975 -0.0613753438
669.375 0.04840101343 -0.0477620289
670.0 0.06909523192 -0.05672316096
670.625 0.0859058309 -0.0457956545
671.25 0.06018323746 -0.05484316479
671.875 0.06316786122 -0.06421904308
672.5 0.03651432577 -0.1107127151
673.125 0.01434317735 -0.1207362714
673.75 -0.01142113436 -0.1157936956
674.375 0.01395856021 -0.1091318719
675.0 0.05728452002 -0.08293878648
675.625 0.06692265289 -0.05007023184
676.25 0.0809493193 -0.03335247772
676.875 0.08989642132 -0.007399301206
677.5 0.06211908712 0.03492892669
678.125 0.04928124945 0.0407487683
678.75 0.06881804212 0.06099229741
679.375 0.09290358508 0.09095332909
680.0 0.07983160843 0.09616114936
680.625 0.09387228904 0.05435344068
681.25 0.1179807816 0.01587013515
681.875 0.1451482784 -0.02072459722
682.5 0.1115861495 -0.04749331141
683.125 0.08018545406 -0.05152788988
683.75 0.08265730293 -0.02759813534
684.375 0.08949489631 0.04107409737
685.0 0.03384242246 0.07341417104
685.625 -0.02726876234 0.07056462551
686.25 -0.06767038619 0.03614804313
686.875 -0.09733024018 -0.003602061457
687.5 -0.1040638192 -0.02384960879
688.125 -0.1345235647 -0.03462445497
688.75 -0.1366662546 -0.06227540746
689.375 -0.1058807856 -0.05472310543
690.0 -0.1029870882 -0.04064181822
690.625 -0.1212730885 -0.03505697154
691.25 -0.1310983568 -0.02530939897
691.875 -0.06979377442 0.02720977995
692.5 -0.03457610138 0.05191598993
693.125 -0.00641593461 0.08718085711
693.75 0.03282899884 0.136176605
694.375 0.03712209711 0.110316266
695.0 0.006886692016 0.1129090094
695.625 -0.07779434888 0.1017012222
696.25 -0.1378607426 -0.02792780961
696.875 -0.06164796202 -0.1178603787
697.5 0.01698807729 -0.1226343642
698.125 0.04330400351 -0.09978482042
698.75 0.0392338583 -0.06838710365
699.375 0.05330894213 -0.06122008
700.0 0.08231403397 -0.04426517588
700.625 0.09023693032 0.008309311313
701.25 0.07297341895 0.01682312433
701.875 0.1007548628 -0.0005907099375
702.5 0.1312557745 -0.07315055634
703.125 0.09406235032 -0.1224777604
703.75 -0.04181843967 -0.1019101061
704.375 -0.07697130767 -0.05441565925
705.0 -0.08062626066 -0.07659854742
705.625 -0.002876537368 -0.1114830457
706.25 0.04131156903 -0.06498650187
706.875 0.06349517453 -0.005437270721
707.5 0.05810751728 0.05451394792
708.125 -0.001025965717 0.1013143788
708.75 -0.04640055402 0.09761893221
709.375 -0.08424344248 0.05747237846
710.0 -0.09789845338 0.004655618876
710.625 -0.09121179857 -0.02802477301
711.25 -0.1025490906 -0.05919423434
711.875 -0.1139359729 -0.05275379665
712.5 -0.1004127612 0.0008954153765
713.125 -0.04120973615 0.06376858009
713.75 0.002949967626 0.07129566624
714.375 0.008194018569 0.08372001152
715.0 0.00331178519 0.06990665825
715.625 -0.0006338431859 0.06268337734
716.25 -0.02787636654 0.08141245377
716.875 -0.09178841181 0.07872187382
717.5 -0.1066195096 0.005727164051
718.125 -0.08739004795 -0.008566920411
718.75 -0.08365341674 -0.01933190566
719.375 -0.07869158254 -0.05535758307
720.0 -0.03157487219 -0.08569149905
720.625 0.03118652796 -0.0732766437
721.25 0.06216691531 -0.01467025378
721.875 0.0294069183 0.03081097502
722.5 -0.00263516251 0.03581107552
723.125 -0.01082808756 0.0590261831
723.75 0.03974918611 0.07032067551
724.375 0.0723994909 0.01666525551
725.0 0.05314597083 -0.03607318566
725.625 0.03695301986 -0.06028250399
726.25 0.03124057771 -0.06711788877
726.875 0.03114000371 -0.052502891
727.5 0.02845153264 -0.03545278477
728.125 0.03294682219 -0.007588364741
728.75 0.03331670845 0.01423320761
729.375 0.03636325333 0.007154600927
730.0 0.02870016898 -0.005533725274
730.625 0.01864843862 0.00506338409
731.25 0.008973118518 0.02051477866
731.875 -0.009569426623 0.02319748193
732.5 -0.02599805618 0.01645967443
733.125 -0.03095948714 0.01419668562
733.75 -0.01675022834 0.02196614324
734.375 0.00100198954 0.01769197248
735.0 0.009386975085 0.003702153977
735.625 0.01037033783 -0.006521445886
736.25 0.004935878417 -0.0222701226
736.875 -0.01417176809 -0.03259908102
737.5 -0.03041806562 -0.02551293523
738.125 -0.03235704418 -0.01035225073
738.75 -0.01573829674 0.008991902938
739.375 0.01433306646 0.01489618685
740.0 0.02925731627 -0.008076937968
740.625 0.01420099497 -0.02291661832
741.25 0.01453466078 -0.01578566642
741.875 0.0255714394 0.00755232293
742.5 0.002830073309 0.03258216556
743.125 -0.03044947898 0.02180980225
743.75 -0.04599066605 -0.0003145867105
744.375 -0.05623161083 -0.009579050159
745.0 -0.07058028095 -0.00323108337
745.625 -0.07464221012 0.03689470936
746.25 -0.03444320626 0.06914715796
746.875 0.01207681192 0.05119018156
747.5 0.01571908657 0.02404688007
748.125 0.004478711066 0.02294375549
748.75 0.01650499296 0.03286179365
749.375 0.0412362142 0.008714939772
750.0 0.0290603951 -0.0369441214
