!Created with skrf (http://scikit-rf.org).
# GHz S RI R 50.0 
!freq ReS11 ImS11
500.0 -0.03317281721 0.02009435288
500.625 -0.01478421467 0.04384452921
501.25 -0.009127259322 0.04499721098
501.875 -0.02382987142 0.0628415326
502.5 -0.03951567297 0.07468721921
503.125 -0.002482745355 0.06961552797
503.75 0.02513178295 0.05269768856
504.375 0.04368386588 0.04252224198
505.0 0.0679752841 0.02023846625
505.625 0.07277975749 0.008884780638
506.25 0.0571565823 -0.005655348929
506.875 0.0571660508 0.03256357323
507.5 0.06237879533 0.03487015061
508.125 0.05073792362 0.05514828611
508.75 0.06874412669 0.02183961575
509.375 0.07389142793 0.02324646493
510.0 0.08712843432 0.05330470578
510.625 0.04455582601 -0.05257058268
511.25 0.0167639309 -0.05400038877
511.875 -0.00344432571 -0.04144207023
512.5 -0.005930319719 -0.02905510652
513.125 -0.03788515645 -0.01877734405
513.75 -0.06718195833 -0.01029373993
514.375 -0.08758677762 0.02605878922
515.0 -0.07400823439 0.06238841778
515.625 -0.1058220459 0.03111267361
516.25 -0.05580270797 0.102652458
516.875 -0.1042585021 0.03985940323
517.5 -0.03717015598 0.06529198363
518.125 -0.06820506104 -0.00781288681
518.75 -0.05290239893 0.03179319388
519.375 -0.06900828112 0.03277491315
520.0 -0.02244083764 0.06582763562
520.625 -0.01367697683 0.0518258954
521.25 -0.009874623072 0.05947447731
521.875 -0.02164259338 0.0375075283
522.5 0.02180823451 0.03774214611
523.125 0.02010714658 0.03916312957
523.75 -0.02513622582 0.03297707838
524.375 -0.0896816329 0.00229567657
525.0 -0.05798614983 0.01783926396
525.625 -0.06000523162 0.04621791764
526.25 -0.07243645553 0.04408997685
526.875 -0.04005639108 0.04354748779
527.5 -0.01734781529 0.06204189133
528.125 0.03095981208 0.07151434608
528.75 0.03984456479 0.07078806739
529.375 0.06061898059 0.04634351195
530.0 0.08753151667 0.00753409975
530.625 0.1152139632 -0.1048981061
531.25 0.144819156 -0.1332667332
531.875 0.07164679837 -0.1418982767
532.5 0.006871038181 -0.1162899135
533.125 0.03197829401 -0.1109550491
533.75 0.01047712459 -0.09403032998
534.375 0.005257068355 -0.08293338984
535.0 -0.001720349526 -0.06775521952
535.625 0.04713081025 -0.05329744955
536.25 0.01694970713 -0.07143900513
536.875 0.02463027915 -0.1072103671
537.5 0.03910845052 -0.1144336808
538.125 0.009789191697 -0.0798804064
538.75 0.005055197849 -0.06423359314
539.375 0.04539811497 -0.08209707552
540.0 0.07072751199 -0.1384171567
540.625 0.05993037069 -0.118443927
541.25 0.04129073357 -0.09695281714
541.875 0.03839087018 -0.1129426747
542.5 0.03735468522 -0.1186748706
543.125 -0.01887140593 -0.09551400543
543.75 -0.04954487634 -0.03481742597
544.375 -0.03847118734 -0.03266453406
545.0 -0.04711610318 -0.02722093382
545.625 -0.06989246612 0.004732768261
546.25 -0.06483665499 0.02960162199
546.875 -0.06262658236 0.04407577728
547.5 -0.06502145794 0.02558602773
548.125 -0.06840598805 0.02671075725
548.75 -0.07185917504 -0.004359505318
549.375 -0.06608793314 -0.03785516332
550.0 -0.01503574312 -0.06347888062
550.625 -0.007045667214 -0.07956466236
551.25 0.02930344988 -0.1031519795
551.875 0.01157962788 -0.1264023136
552.5 -0.02061329381 -0.1066356409
553.125 -0.05395851361 -0.0926389229
553.75 -0.05831813871 -0.09794329154
554.375 -0.07669739073 -0.07899897774
555.0 -0.07312341096 -0.05361511196
555.625 -0.07656508391 -0.03964849226
556.25 -0.07376991278 -0.06061323849
556.875 -0.07056454702 -0.05155525134
557.5 -0.06139524227 -0.04468845371
558.125 -0.04605820287 -0.03810448731
558.75 -0.003574737615 -0.04589142946
559.375 0.006513244017 -0.03466250756
560.0 0.02398046554 -0.06040842654
560.625 0.01770456807 -0.08847142808
561.25 -0.01155472111 -0.1021120116
561.875 -0.0501327684 -0.07381473888
562.5 -0.08276374988 -0.0458865164
563.125 -0.1019130542 -0.02486883194
563.75 -0.08653571064 0.006232777771
564.375 -0.06180669766 0.03091356884
565.0 -0.05854127677 0.01539009015
565.625 -0.06412213919 -0.007999364785
566.25 -0.05099561234 -0.03999947734
566.875 -0.04881197179 -0.04280026303
567.5 -0.04328339514 -0.05127737431
568.125 -0.0218580558 -0.05149345873
568.75 0.001162223543 -0.05304091718
569.375 0.02584336619 -0.05393935358
570.0 0.0307080927 -0.08039444423
570.625 0.02032196516 -0.08142717828
571.25 -0.008979811179 -0.08746370483
571.875 -0.01776427606 -0.09519681453
572.5 -0.07224455373 -0.09227084568
573.125 -0.08606316504 -0.04939874724
573.75 -0.08428113692 0.005059947896
574.375 -0.07694323944 -0.001433983017
575.0 -0.08916831795 -0.0171354033
575.625 -0.07678496696 0.004333419242
576.25 -0.06800555142 0.02598566625
576.875 -0.0589353793 0.03205702814
577.5 -0.05304337796 0.007793987563
578.125 -0.03637500343 -0.002422440031
578.75 -0.04004150446 -0.006337522806
579.375 -0.04756394419 -0.01344130165
580.0 -0.04677589475 -0.03286453174
580.625 -0.04984943863 -0.05149094839
581.25 -0.081575257 -0.04200774187
581.875 -0.0997629354 -0.03156593165
582.5 -0.08832535726 -0.0147866518
583.125 -0.07732328437 -0.02269814665
583.75 -0.06657087192 -0.02992895694
584.375 -0.06478276158 -0.05047145663
585.0 -0.05712912486 -0.0378295234
585.625 -0.05256404486 -0.03624862451
586.25 -0.03769435222 -0.04630789891
586.875 -0.03700175539 -0.0492853919
587.5 -0.04688066396 -0.0253191957
588.125 -0.05058373076 -0.002486778075
588.75 -0.04926426131 -0.02023394761
589.375 -0.05041914724 -0.03443413585
590.0 -0.07134819761 -0.01380075631
590.625 -0.08730421823 0.02767472212
591.25 -0.08836914585 0.05014973304
591.875 -0.06322357992 0.04479282359
592.5 -0.03487347317 0.04212784546
593.125 -0.0358294141 0.03359608697
593.75 -0.04481333922 0.02163301714
594.375 -0.03914787732 0.001517176665
595.0 -0.0214242631 -0.01652039033
595.625 -0.01371295167 -0.03364074189
596.25 -0.005819458087 -0.04412208827
596.875 -0.005682845513 -0.04233191727
597.5 0.004825765192 -0.03833898044
598.125 0.01216163975 -0.03730757967
598.75 0.01583849026 -0.04366567971
599.375 0.01153430888 -0.05623073043
600.0 0.009883674938 -0.07279481981
600.625 0.007489023386 -0.07840019957
601.25 -0.01205801407 -0.06831976568
601.875 -0.02844395295 -0.05175779876
602.5 -0.0292110885 -0.04180309431
603.125 -0.01911600765 -0.0330138918
603.75 -0.01042059341 -0.01766429191
604.375 0.001933800389 -0.0147828596
605.0 0.01137811049 -0.02426099236
605.625 0.0077341163 -0.02907725
606.25 -0.004233591696 -0.01881325284
606.875 -0.007035779694 0.001316238166
607.5 0.008405836632 0.01413641677
608.125 0.02281557127 0.006207155046
608.75 0.02324095982 0.0003966910223
609.375 0.02488710082 0.00525844681
610.0 0.03049985484 0.008584109769
610.625 0.03306600789 -3.223529073e-05
611.25 0.02912967932 -0.008771107148
611.875 0.02156700803 -0.01310157404
612.5 0.008907567659 -0.0167812245
613.125 -0.007618847298 -0.0128066111
613.75 -0.0138637439 -0.0003940726322
614.375 -0.007755807701 0.005453187094
615.0 -0.002712581507 -0.0006291211274
615.625 -0.01196790923 -0.007813719989
616.25 -0.02197136912 2.648578919e-05
616.875 -0.01646378987 0.01055780985
617.5 -0.006518491272 0.007335464583
618.125 -0.006902001902 -0.002298286552
618.75 -0.009963461017 -0.004324355996
619.375 -0.003417307239 -0.003456419411
620.0 0.009100184777 -0.01217824759
620.625 0.006359426676 -0.03439756221
621.25 -0.0008452023924 -0.05233591396
621.875 -0.01807525447 -0.06773521799
622.5 -0.07332265957 -0.02837740475
623.125 -0.07443090618 0.001449009063
623.75 -0.06016947605 0.008401785388
624.375 -0.05093076276 -0.008887470624
625.0 -0.03894136901 -0.03209614364
625.625 -0.03723411961 -0.02324417883
626.25 -0.02871745346 -0.00192625682
626.875 -0.01014680088 -0.005325196865
627.5 0.009888089551 -0.0255331414
628.125 0.02474381307 -0.03115623528
628.75 0.02413597952 -0.02714116423
629.375 0.03331741275 -0.02662736757
630.0 0.05558011247 -0.03039830776
630.625 0.07390520503 -0.02408325068
631.25 0.07477870424 -0.02852491789
631.875 0.07180490187 -0.03990088279
632.5 0.06525756977 -0.04499990071
633.125 0.06121255354 -0.03983128958
633.75 0.05697985993 -0.03847871099
634.375 0.05741771411 -0.03742801706
635.0 0.04380082043 -0.03530240075
635.625 0.02878305458 -0.03323230266
636.25 0.05053339334 -0.02360888959
636.875 0.07110148404 -0.01934097851
637.5 0.05325026843 -0.02498115832
638.125 0.0321959667 -0.02114505622
638.75 0.0484867155 0.008297893348
639.375 0.06551117823 0.05679836457
640.0 0.04867408701 0.0651073766
640.625 0.05256640436 0.0520354922
641.25 0.04816585502 0.05366593723
641.875 0.02302409517 0.07086544757
642.5 0.004622637398 0.06674196908
643.125 0.003591537151 0.06726740774
643.75 -0.0005499847631 0.06931027605
644.375 -0.01243937844 0.06187893915
645.0 -0.01481926387 0.06716439976
645.625 -0.02119949803 0.08078132054
646.25 -0.009553659659 0.1000341844
646.875 -0.008296746961 0.08245890697
647.5 -0.0002022714882 0.07677631369
648.125 -0.02175521801 0.08281650268
648.75 -0.05002854073 0.09013343413
649.375 -0.04051016936 0.07063853012
650.0 -0.03796322307 0.06146046146
650.625 -0.05289522308 0.03622938221
651.25 -0.06180407559 -0.0008440297202
651.875 -0.04373245985 -0.01477678997
652.5 -0.03181401711 -0.03227049995
653.125 -0.00625949446 -0.06121637257
653.75 0.03174946776 -0.07444013221
654.375 0.04669361037 -0.07925244085
655.0 0.05249104949 -0.09558867127
655.625 0.05072426161 -0.1108687724
656.25 0.02402590231 -0.09649127145
656.875 -0.0006486176825 -0.1019594328
657.5 0.009287619883 -0.105600625
658.125 0.01902824389 -0.1056492446
658.75 -0.01547125806 -0.06992709324
659.375 -0.02126135777 -0.05702646836
660.0 -0.01044493665 -0.05897825155
660.625 0.00410496523 -0.07055996263
661.25 -0.01309547251 -0.06369980293
661.875 -0.0341136963 -0.07323105554
662.5 -0.05355870852 -0.09148207814
663.125 -0.03432612221 -0.09925647739
663.75 -0.01279098182 -0.1036918824
664.375 0.04941925702 -0.1032607114
665.0 0.1020915105 -0.06675918517
665.625 0.09073752768 -0.0276316677
666.25 0.08891317391 -0.01620620106
666.875 0.08825118083 0.01741878262
667.5 0.05955559646 0.05070964596
668.125 0.03698669674 0.0456672598
668.75 0.03914512125 0.05737412883
669.375 0.05782070178 0.07866511806
670.0 0.04380794397 0.08684951635
670.625 0.04355746629 0.07258798383
671.25 0.05218766853 0.07528965148
671.875 0.09099626765 0.07144515118
672.5 0.1061008404 0.02191552238
673.125 0.09978489883 -0.0220603133
673.75 0.08413892771 -0.002933793127
674.375 0.07044844578 0.02947585247
675.0 0.04809317122 0.04705914594
675.625 0.03736048251 0.06842098084
676.25 -0.005658044625 0.0905838788
676.875 -0.04770230518 0.07113261597
677.5 -0.04688220442 0.07572386024
678.125 -0.05168447024 0.1067381873
678.75 -0.06763057667 0.1293304077
679.375 -0.06822804675 0.08696238085
680.0 -0.03314007703 0.0907149714
680.625 -0.02074296816 0.09715526096
681.25 -0.007302851174 0.1090378486
681.875 0.006513048975 0.07077348217
682.5 0.02435062517 0.05218712755
683.125 0.01172693356 0.06604779943
683.75 -0.02424805757 0.09090714839
684.375 -0.058271799 0.06043018668
685.0 -0.08861740685 0.004042662922
685.625 -0.07891696968 -0.06436671886
686.25 -0.04467029109 -0.113310702
686.875 -0.03945517486 -0.1183838424
687.5 -0.01718055764 -0.1409257149
688.125 0.003651135226 -0.1287052942
688.75 0.01180554975 -0.09213747406
689.375 0.00984605735 -0.08282708067
690.0 0.03215037409 -0.08692820178
690.625 0.056400684 -0.07090102539
691.25 0.02448217378 -0.04874631436
691.875 0.006986838988 -0.06576750017
692.5 -0.05380018237 -0.09622441243
693.125 -0.1469163399 -0.04985138299
693.75 -0.1157017236 0.04872628172
694.375 -0.09690917884 0.0746244653
695.0 -0.1252404831 0.033255066
695.625 -0.1062572537 -0.07426764196
696.25 -0.002357725013 -0.1109724885
696.875 0.08040029347 -0.05912739242
697.5 0.0840814067 0.01304508382
698.125 0.0516923476 0.03759170356
698.75 0.05327858765 0.056804422
699.375 0.05028629493 0.08706390994
700.0 0.02133577567 0.09524468885
700.625 0.003372327446 0.08227087468
701.25 0.008803967858 0.106881243
701.875 0.0356689639 0.1367796998
702.5 0.0645128614 0.09756847078
703.125 0.07774385954 0.008130932219
703.75 0.05916635085 -0.03064423218
704.375 0.08387844718 -0.04491697471
705.0 0.1043486185 -0.02018228161
705.625 0.08099024898 0.001219385248
706.25 0.05662765096 0.05378298453
706.875 -0.01812416947 0.1009444022
707.5 -0.09004625892 0.0751928871
708.125 -0.1160008066 0.03524237153
708.75 -0.1083800309 -0.008675012721
709.375 -0.07292054849 -0.06083569241
710.0 -0.02724019152 -0.0797103077
710.625 0.007141502708 -0.09627306169
711.25 0.03185281761 -0.08408243325
711.875 0.01414067515 -0.05776328325
712.5 -0.009144554114 -0.03714416613
713.125 -0.01581122677 -0.05292194711
713.75 -0.06576283231 -0.06986736478
714.375 -0.08858285909 -0.03176943125
715.0 -0.0855694376 0.02001034915
715.625 -0.1072668946 0.02948601378
716.25 -0.135060651 -0.02102323242
716.875 -0.08357947526 -0.06449567046
717.5 -0.04037275942 -0.07256448839
718.125 -0.0158391326 -0.07679717091
718.75 0.01530426349 -0.08193739045
719.375 0.03541944198 -0.06223861577
720.0 0.047770194 -0.03088546631
720.625 0.03779164718 0.0152897234
721.25 -0.01698469011 0.03130438051
721.875 -0.05267696419 -0.004459242178
722.5 -0.07416844382 -0.03200358883
723.125 -0.09875613237 0.005973507562
723.75 -0.05474178203 0.07358631755
724.375 0.02106222346 0.07553958589
725.0 0.0554682147 0.04167813292
725.625 0.05744748804 0.01304124314
726.25 0.04044748983 -0.002357015896
726.875 0.02435759107 0.00420907384
727.5 0.002554742648 0.02414374199
728.125 -0.02400318398 0.03574759472
728.75 -0.02254721226 0.0397711725
729.375 -0.0009340369124 0.03866503185
730.0 0.000244334288 0.0282579385
730.625 -0.0151793741 0.02649579543
731.25 -0.02446664874 0.01990905106
731.875 -0.03067114592 0.004542005541
732.5 -0.02828136892 -0.008329721015
733.125 -0.02054911405 -0.004760484883
733.75 -0.00716465523 0.006916097926
734.375 0.007721420145 0.005214646233
735.0 0.01101679586 -0.005636875125
735.625 0.01180524712 -0.01089846846
736.25 0.008586111124 -0.02303663713
736.875 -0.007652110573 -0.02977986103
737.5 -0.02291524371 -0.01744709605
738.125 -0.02768644145 0.005369391701
738.75 -0.01832242639 0.0311552383
739.375 0.005384008747 0.04061714997
740.0 0.02460199967 0.0230562395
740.625 0.02050089183 0.01308511531
741.25 0.01675524631 0.02540649197
741.875 -0.003208633511 0.03688516662
742.5 -0.03576606517 0.01722305463
743.125 -0.03537130432 -0.02683226153
743.75 -0.01339228919 -0.04799480692
744.375 -0.01395353964 -0.05519050724
745.0 -0.0298261526 -0.05636598532
745.625 -0.05250582938 -0.03091772512
746.25 -0.03194905169 0.003714049815
746.875 -0.01234285229 -0.001531941824
747.5 -0.02263315224 -0.01675893684
748.125 -0.04279671067 -0.007793121498
748.75 -0.04107628986 0.02485691035
749.375 -0.002058729669 0.05448926048
750.0 0.05517250081 0.04356574711
