!Created with skrf (http://scikit-rf.org).
# GHz S RI R 50.0 
!freq ReS11 ImS11
500.0 -0.0009851641457 0.01224608021
500.625 0.01668810165 0.00394526278
501.25 0.01599537162 -0.02026460441
501.875 0.003221604231 -0.02826471587
502.5 0.002184723102 -0.006361718085
503.125 0.01053961992 -0.0005693137772
503.75 0.008611647276 -0.01671881668
504.375 0.003374888838 -0.02613576469
505.0 0.001616678645 -0.02716575339
505.625 -0.003310429619 -0.03975514804
506.25 -0.03153252411 -0.05040506629
506.875 -0.01908642784 -0.08815540052
507.5 -0.03705456861 -0.06102511266
508.125 -0.01950195244 -0.07114389289
508.75 -0.07494608358 -0.06276038006
509.375 -0.07264549405 -0.04223647117
510.0 -0.0468291158 -0.0393565426
510.625 -0.04652361294 0.008564876577
511.25 -0.06940213256 0.01986106095
511.875 -0.04552642317 0.05207126495
512.5 0.002170169024 0.05295260062
513.125 0.06710456829 0.02589588161
513.75 0.08938388832 0.01446302002
514.375 0.06778663387 -0.01186683898
515.0 0.05394090296 -0.03803372542
515.625 0.09296918224 0.004651468314
516.25 0.1019099433 -0.01836805751
516.875 0.08159794569 0.07411866427
517.5 0.1216199889 -0.01863856501
518.125 0.1777875913 0.1509756341
518.75 0.1105763837 -0.04111793018
519.375 0.07916965193 -0.01931412603
520.0 0.06564162966 -0.0655282662
520.625 0.0925667835 -0.08972514073
521.25 0.05845680959 -0.09131361199
521.875 0.05358246727 -0.04248862596
522.5 0.02543650403 -0.09610730172
523.125 0.09060021997 -0.2250676337
523.75 0.0332274283 -0.2909624007
524.375 0.03029118732 -0.2788511661
525.0 0.005479745573 -0.1370645809
525.625 0.01067113505 -0.1011989154
526.25 0.02917880694 -0.07541698085
526.875 0.00168902997 -0.07763870414
527.5 -0.02494047505 -0.09104616469
528.125 -0.04589395247 -0.05651083153
528.75 -0.06094895033 -0.04975821805
529.375 -0.1243478629 0.005845520753
530.0 -0.09593679706 0.071553668
530.625 -0.01459323682 0.07677807052
531.25 -0.02564593319 0.05982616441
531.875 -0.0658318013 0.1109400089
532.5 -0.07438057592 0.1472296442
533.125 -0.04331814065 0.1137925286
533.75 -5.406569051e-06 0.0958813637
534.375 0.002346894873 0.1210847561
535.0 -0.004981836892 0.1334223472
535.625 -0.024376413 0.09273637396
536.25 0.0455342535 0.07248724694
536.875 0.02277513544 0.09118730491
537.5 -0.04722382524 0.07882417237
538.125 -0.03212756293 0.07952369686
538.75 0.005831802771 0.1246714277
539.375 -0.03031143473 0.1355224931
540.0 -0.02047165549 0.108394319
540.625 -0.01707431264 0.09103736606
541.25 -0.02263783586 0.1151663968
541.875 -0.04923562303 0.09936212695
542.5 -0.04794586287 0.04436871561
543.125 -0.03289390602 0.06947018006
543.75 0.03125718504 0.124585448
544.375 0.06186371378 0.1304844461
545.0 0.1049778677 0.03120071088
545.625 0.1002147283 -0.04431208887
546.25 0.1042859196 -0.08598157786
546.875 0.09623643249 -0.07386602039
547.5 0.1033433851 -0.07002118284
548.125 0.1321949529 -0.07550679697
548.75 0.1658551259 -0.02609664285
549.375 0.1539466323 0.003451901405
550.0 0.1479652365 0.04089453571
550.625 0.1676339827 0.05874351991
551.25 0.08902969201 0.09670430492
551.875 0.068162832 0.04403049238
552.5 0.07518593428 0.02485038246
553.125 0.09771843543 0.03381780908
553.75 0.04895034959 0.04997352254
554.375 0.03848530645 0.03135327454
555.0 0.06255904554 0.03273343159
555.625 0.09253123878 0.03953185931
556.25 0.06177746665 0.0633818723
556.875 0.04302631985 0.05254572575
557.5 0.06224607435 0.07096456312
558.125 0.05966475684 0.1068070199
558.75 0.0202541889 0.1150079601
559.375 0.04899641404 0.09934206864
560.0 0.07366412182 0.1027567813
560.625 0.06795493474 0.07144428057
561.25 0.0590437232 0.03432837177
561.875 0.06505549739 0.02563717542
562.5 0.07477927259 0.02497312877
563.125 0.06845921403 0.02313504737
563.75 0.06607851166 0.005445032148
564.375 0.09464938105 -0.02308665378
565.0 0.1385977969 0.007911868225
565.625 0.1140391925 -0.005143435112
566.25 0.09853855961 -0.001530575183
566.875 0.1083247067 0.01007923341
567.5 0.09759574762 0.06750157487
568.125 0.05895052055 0.07989382795
568.75 0.073006372 0.08927817473
569.375 0.07544599868 0.09915246535
570.0 0.0660197977 0.08601204787
570.625 0.05564498749 0.05727982506
571.25 0.07617041005 0.04424241043
571.875 0.0701981033 0.04738093802
572.5 0.04834371706 0.01728454678
573.125 0.04454158885 0.01976167084
573.75 0.08811363191 0.0101933898
574.375 0.1104067643 -0.006228441981
575.0 0.0765843789 -0.01711874056
575.625 0.05522577005 -0.02952423565
576.25 0.08601699033 -0.02993155753
576.875 0.09517370317 -0.01133613469
577.5 0.0871632605 -0.01295110616
578.125 0.08686477795 -0.03384205567
578.75 0.1150400014 -0.04358351926
579.375 0.1102823232 -0.02121599146
580.0 0.09279889888 -0.03372060988
580.625 0.08890335535 -0.06108788047
581.25 0.07711834326 -0.06642346699
581.875 0.05509359112 -0.02535321305
582.5 0.04716790043 -0.007913909273
583.125 0.08098806818 -0.00654509185
583.75 0.09044512522 0.005525547231
584.375 0.07141567376 0.01353329869
585.0 0.05892264101 0.02279886299
585.625 0.0785369825 0.03499012184
586.25 0.07707746575 0.04381104204
586.875 0.0627449154 0.02244471507
587.5 0.07260047705 0.01004067073
588.125 0.09518719942 -0.004936828738
588.75 0.09910898988 -0.009553990796
589.375 0.07088036675 -0.05159083301
590.0 0.037482724 -0.08558249935
590.625 0.02894909663 -0.06840082395
591.25 0.02714103503 -0.02380841463
591.875 0.03675360779 -0.01355493897
592.5 0.05406250036 -0.04086750785
593.125 0.07458462787 -0.04865880227
593.75 0.07085052876 -0.02504662266
594.375 0.07194600833 -0.008611044637
595.0 0.0899212782 0.008044368536
595.625 0.08646612882 0.03264854982
596.25 0.06177016541 0.03987620321
596.875 0.05028355337 0.04273284659
597.5 0.05011929964 0.06009002145
598.125 0.0547816969 0.05876961614
598.75 0.06776708698 0.0345695341
599.375 0.06977311633 0.01808084644
600.0 0.05569634268 0.01282909744
600.625 0.03067417921 0.006676023821
601.25 0.01484098873 0.006622773102
601.875 0.009010108668 0.02307780375
602.5 0.001228000326 0.03472578727
603.125 -0.006108865441 0.0380031963
603.75 0.001131845908 0.04450747069
604.375 0.009939763588 0.05036151945
605.0 0.002843448092 0.04094000511
605.625 -0.01132330849 0.02454155571
606.25 -0.0279322384 0.02726548004
606.875 -0.03509668172 0.04382650548
607.5 -0.01804223453 0.05355108025
608.125 0.00669692849 0.04347291841
608.75 0.01046403784 0.03434296376
609.375 0.00695371551 0.03278747924
610.0 0.008569204614 0.02715607666
610.625 0.01431120094 0.01366423945
611.25 0.01252721469 -5.590093986e-05
611.875 0.007451545532 -0.01103520953
612.5 -0.0006832914655 -0.01825855547
613.125 -0.01199034514 -0.01509173295
613.75 -0.01321195031 -0.002843718287
614.375 -0.001947876757 0.00357471287
615.0 0.007986194175 -0.002907713567
615.625 0.00442116957 -0.009480859115
616.25 -0.001116317553 -0.00136095856
616.875 0.008960359356 0.009016740041
617.5 0.0245232335 0.006956401127
618.125 0.02923093674 0.002373056827
618.75 0.02883754571 0.003259962179
619.375 0.03909254392 0.008954912411
620.0 0.05803368369 0.004819242581
620.625 0.0590338556 -0.02181647104
621.25 0.05031925894 -0.03151528379
621.875 0.03713736044 -0.0391717272
622.5 -0.004129072222 -0.03331684457
623.125 -0.003287311891 -0.00566757312
623.75 0.01261557737 0.009188303697
624.375 0.02603770445 0.01997254451
625.0 0.02013618506 0.03498303104
625.625 0.01824859038 0.04196446353
626.25 0.03867715111 0.05208198406
626.875 0.06242265896 0.06418312826
627.5 0.05378443956 0.06935701273
628.125 0.04325658064 0.06168022008
628.75 0.04627720788 0.06700812457
629.375 0.04481173311 0.08594990732
630.0 0.02875401828 0.08014330151
630.625 0.02139400084 0.06424224581
631.25 0.01645648487 0.06056117892
631.875 -0.003027394161 0.05836764858
632.5 -0.01764766002 0.04531208926
633.125 -0.02457376551 0.03947408593
633.75 -0.02698012229 0.05716544824
634.375 -0.04152310871 0.05598928981
635.0 -0.04134620352 0.05756868028
635.625 -0.03235767609 0.07800651157
636.25 -0.02838353089 0.09800156413
636.875 -0.03798862521 0.07426975373
637.5 -0.03794519108 0.05562680483
638.125 -0.05313282042 0.08128567445
638.75 -0.07775895574 0.09407756038
639.375 -0.07779683347 0.05608995832
640.0 -0.05953876459 0.02764214909
640.625 -0.07506998502 0.01167648547
641.25 -0.09044735709 -0.02915748195
641.875 -0.06694200559 -0.03937429571
642.5 -0.06180970992 -0.03378443769
643.125 -0.07503582515 -0.05104417212
643.75 -0.06265040763 -0.08906104959
644.375 -0.05351537184 -0.07958552579
645.0 -0.08184939941 -0.05396355945
645.625 -0.0997343689 -0.05998288716
646.25 -0.078332232 -0.06121894822
646.875 -0.04756609095 -0.06367888947
647.5 -0.06397390899 -0.05891441301
648.125 -0.07237215174 -0.07731126516
648.75 -0.03286202697 -0.07112161936
649.375 -0.004006746948 -0.06023499085
650.0 0.02006938746 -0.07775040229
650.625 0.05761156803 -0.08160543873
651.25 0.07565456759 -0.05301797006
651.875 0.08758257464 -0.03112504157
652.5 0.1308817277 -0.001419007443
653.125 0.129673489 0.04771067737
653.75 0.1114295609 0.04887826338
654.375 0.1111948971 0.04674788685
655.0 0.101841137 0.07798162403
655.625 0.05031927946 0.07723839205
656.25 0.04399798955 0.04871430792
656.875 0.07590494069 0.04183949195
657.5 0.06625897406 0.07768500839
658.125 0.02268818366 0.08238241408
658.75 0.0185989145 0.07406891261
659.375 0.07761150901 0.08140574651
660.0 0.1151001361 0.08419958496
660.625 0.1145833853 0.05998966888
661.25 0.1185847599 0.0215293456
661.875 0.1402929053 -0.01840598407
662.5 0.1383654708 -0.0318010056
663.125 0.1124886182 -0.02102931533
663.75 0.1116332358 0.01345163587
664.375 0.06371592335 0.09786999288
665.0 -0.005380539718 0.09086754661
665.625 -0.02790961383 0.06702264702
666.25 -0.0564744499 0.07748326831
666.875 -0.1286751663 0.03616508038
667.5 -0.1136955862 -0.009640553917
668.125 -0.1085084059 0.008480231383
668.75 -0.1312099718 0.05068530426
669.375 -0.1477028056 0.02691584679
670.0 -0.1031304275 -0.006308661805
670.625 -0.09530649141 0.002771807237
671.25 -0.1222442732 0.04079000335
671.875 -0.1147772287 0.05199084038
672.5 -0.07150171037 0.0597796979
673.125 -0.05985306671 0.06441128517
673.75 -0.08838218591 0.0816568688
674.375 -0.1090168823 0.06123293451
675.0 -0.1152220963 0.02938084742
675.625 -0.1358619566 -0.01292051752
676.25 -0.1176081273 -0.07435402737
676.875 -0.0982085491 -0.0858939049
677.5 -0.1164667181 -0.06533955493
678.125 -0.134861147 -0.08327223552
678.75 -0.06217851402 -0.08662794982
679.375 -0.02636064572 -0.06114714002
680.0 -0.03954340505 -0.0617822984
680.625 -0.06551386935 -0.1026009236
681.25 -0.04644835406 -0.1091002087
681.875 -0.04754139385 -0.07963291809
682.5 -0.1048694235 -0.05149922695
683.125 -0.1579262587 -0.05355295576
683.75 -0.1330228623 -0.09877735572
684.375 -0.0528287835 -0.1183803511
685.0 0.01730597376 -0.1409839575
685.625 0.1140750248 -0.1106220585
686.25 0.1348059915 -0.05175111233
686.875 0.1214855596 -0.02071019555
687.5 0.1035995721 0.02581114617
688.125 0.06666701436 0.05711779052
688.75 0.04254437936 0.06912423164
689.375 0.0554970349 0.09374835334
690.0 0.03302668845 0.1395489831
690.625 0.01744271178 0.1227550002
691.25 0.06366889319 0.1052492884
691.875 0.1638252639 0.04444282574
692.5 0.204845204 -0.06686384326
693.125 0.06497167846 -0.1277639253
693.75 -0.02987451856 -0.1053658397
694.375 -0.05015928447 -0.1254528944
695.0 0.04357816985 -0.1573603579
695.625 0.1144385917 -0.03536074468
696.25 0.07457691282 0.05430597934
696.875 -0.007538900471 0.1131841475
697.5 -0.1034040902 0.07818304135
698.125 -0.1306929022 0.03665700342
698.75 -0.13365197 0.04707904415
699.375 -0.1332962396 0.04045057991
700.0 -0.1163954918 0.01270910485
700.625 -0.1139266567 -0.01129954417
701.25 -0.1377263602 -0.02916036057
701.875 -0.1046885319 -0.0358360823
702.5 -0.07350870021 -0.007860950006
703.125 -0.07897588329 0.03137942193
703.75 -0.06617761077 0.145078637
704.375 -0.0342771472 0.1767856
705.0 -0.002017290515 0.1252566429
705.625 -0.02339158366 0.1127210309
706.25 -0.1264861477 0.09864730732
706.875 -0.156151977 -0.07277089879
707.5 -0.07049937928 -0.09473999965
708.125 -0.03398973116 -0.09481530625
708.75 0.03510097625 -0.09519666891
709.375 0.0990633195 -0.02319550818
710.0 0.07854252239 0.0380256611
710.625 0.06414184461 0.05095515338
711.25 0.03562309718 0.0715343605
711.875 0.02258690616 0.08405466735
712.5 0.06446437673 0.09777890877
713.125 0.1540262039 0.03263711418
713.75 0.117348259 -0.09635152218
714.375 0.0170834098 -0.1309609113
715.0 -0.04974693971 -0.1287604299
715.625 -0.02031799015 -0.1517286016
716.25 0.04445632959 -0.09521999075
716.875 0.05526816192 -0.04241699009
717.5 0.07918518863 -0.004992252353
718.125 0.09650214097 0.04798314516
718.75 0.0572271952 0.07415545757
719.375 0.02511191475 0.06112159902
720.0 -0.01268867854 0.06754385249
720.625 -0.09083212754 0.02814536382
721.25 -0.07242871375 -0.08595559644
721.875 0.004065396591 -0.1104088152
722.5 0.0165170567 -0.1152698124
723.125 -0.02858741716 -0.1037656893
723.75 -0.06270036855 -0.05194956148
724.375 -0.06583566108 -0.009253980719
725.0 -0.05205851946 0.02428649253
725.625 -0.03252492941 0.02734060849
726.25 -0.0357017659 0.01674086876
726.875 -0.06115899805 -0.0006806990099
727.5 -0.0783552818 -0.02500342065
728.125 -0.06690991039 -0.04057724228
728.75 -0.05822385948 -0.02531827993
729.375 -0.05186378123 -0.0102211602
730.0 -0.0484847869 -0.01536126845
730.625 -0.04029244882 -0.01964923466
731.25 -0.02488339519 -0.02315165868
731.875 -0.005975872966 -0.02664441328
732.5 0.008030800245 -0.01242281142
733.125 0.007403508829 0.008947435591
733.75 0.01636960823 0.01846865344
734.375 0.0283582641 0.01209297737
735.0 0.02630985327 -0.007619032257
735.625 0.01896282423 -0.01384581822
736.25 0.009583534667 -0.02293648399
736.875 -0.01115881867 -0.02568027909
737.5 -0.03219761514 -0.01193847183
738.125 -0.04521476631 0.007205785197
738.75 -0.04182878109 0.02458713547
739.375 -0.02291298192 0.02812311042
740.0 -0.01355092986 0.01458038938
740.625 -0.02546779439 0.01448518475
741.25 -0.0314491645 0.02114826681
741.875 -0.03695812009 0.001886881358
742.5 -0.01481265567 -0.03393364782
743.125 0.0309750678 -0.02550470776
743.75 0.03900902481 -0.001787170373
744.375 0.03766503602 -0.002932221735
745.0 0.03814235107 -0.002744434861
745.625 0.03616546706 0.006777234613
746.25 0.05208772766 0.01067599343
746.875 0.05948387953 -0.03206486141
747.5 0.03046595164 -0.06573705677
748.125 -0.002213468099 -0.06780781631
748.75 -0.03324677666 -0.05140477444
749.375 -0.06604164663 -0.01567836294
750.0 -0.05817349288 0.06262815473
