!Created with skrf (http://scikit-rf.org).
# GHz S RI R 50.0 
!freq ReS11 ImS11
500.0 -0.007337707795 0.02320431726
500.625 0.02796179465 0.02221284731
501.25 0.0365660801 0.002540521173
501.875 0.03054139599 0.007731843451
502.5 0.01967224886 0.02399295438
503.125 0.03198372713 0.01492252312
503.75 0.0426888237 -0.009144473882
504.375 0.0391710563 -0.02223483337
505.0 0.02892230493 -0.03902661333
505.625 0.02875119256 -0.06447654003
506.25 0.009520735023 -0.07818577509
506.875 0.04251821771 -0.08482129309
507.5 0.01270725044 -0.07867409126
508.125 0.0479311297 -0.08346120158
508.75 -0.0006578524753 -0.09789386156
509.375 -0.01831657508 -0.07486218535
510.0 0.008913026232 -0.07376760597
510.625 -0.05834505069 -0.0434132156
511.25 -0.07139640218 -0.03523895059
511.875 -0.06577409535 0.01899485762
512.5 -0.03049055238 0.04587358654
513.125 0.01983631204 0.06466339163
513.75 0.03620223846 0.06226953852
514.375 0.04955254679 0.04434441247
515.0 0.08028051449 0.0289887873
515.625 0.05456434938 0.107108291
516.25 0.09708077512 0.06740139469
516.875 0.04320975179 0.1312707632
517.5 0.1355436488 0.06957517734
518.125 0.04228089683 0.2152542911
518.75 0.09640831884 0.02923447442
519.375 0.07967802276 0.03756936904
520.0 0.1165670915 0.001606733094
520.625 0.1141601283 -0.005720322026
521.25 0.09460618856 -0.03791863488
521.875 0.07740333527 -0.004062089853
522.5 0.09421457048 -0.06704578949
523.125 0.1647319388 -0.1181877901
523.75 0.1359123889 -0.213555623
524.375 0.1497561546 -0.1879896857
525.0 0.06218579861 -0.06637001816
525.625 0.04279806676 -0.0354934544
526.25 0.0562576455 -0.021834984
526.875 0.05686316422 -0.03965666654
527.5 0.04342184985 -0.04432634
528.125 0.011714402 -0.05218560514
528.75 -0.001808738283 -0.07540090747
529.375 -0.06817388436 -0.08496023899
530.0 -0.06437129497 -0.02283683092
530.625 -0.04191505457 0.003602399279
531.25 -0.09904247643 -0.03006477125
531.875 -0.170355487 -0.02835390628
532.5 -0.1512008437 0.03847243034
533.125 -0.1019339778 0.04797893412
533.75 -0.08943756802 0.07795183309
534.375 -0.1080330594 0.06132202608
535.0 -0.0759484 0.0791339637
535.625 -0.06623379536 0.04489552347
536.25 -0.03297222044 0.06316084089
536.875 -0.07328994323 0.0343882321
537.5 -0.09252765978 0.005530613304
538.125 -0.09132351307 0.04436106077
538.75 -0.09942969586 0.07936588832
539.375 -0.08678358793 0.04464472766
540.0 -0.08388089958 0.03413936067
540.625 -0.1031626222 0.03856796408
541.25 -0.126138564 0.0246944514
541.875 -0.0955563919 0.001617850937
542.5 -0.08706575974 -0.004951795609
543.125 -0.1121736504 0.04627801985
543.75 -0.07408249112 0.1249743813
544.375 -0.02843543305 0.1255064791
545.0 0.06387139149 0.07688567017
545.625 0.1056178536 0.05402668203
546.25 0.1090268227 0.02319211684
546.875 0.1106612218 0.01127461095
547.5 0.1231140232 0.01754940075
548.125 0.1460027493 0.04944387304
548.75 0.1029881833 0.07439779533
549.375 0.1096135196 0.07878746371
550.0 0.08190170857 0.1161827967
550.625 0.04690959576 0.101112092
551.25 0.0004358057082 0.06381661198
551.875 0.001735249701 0.04649987917
552.5 -0.002627980001 0.06857316373
553.125 -0.02336220444 0.07307309105
553.75 -0.02742759993 0.05065548949
554.375 -0.0154186051 0.06624441546
555.0 0.0004830429202 0.09641125643
555.625 0.004862084824 0.1019382967
556.25 -0.01596962016 0.08155757655
556.875 -0.01361256306 0.0944641465
557.5 -0.02295703894 0.114325018
558.125 -0.02733356309 0.1190410622
558.75 -0.04979012465 0.09544187756
559.375 -0.01967021786 0.1055115303
560.0 -0.02116967464 0.08471886421
560.625 -0.0007710958086 0.05858187892
561.25 -0.007529517957 0.05068114461
561.875 -0.01281537681 0.06851707974
562.5 -0.003623890149 0.07890478077
563.125 0.02278135026 0.07229750033
563.75 0.0581830475 0.07135188425
564.375 0.09507663652 0.08603691385
565.0 0.08144639073 0.09056053194
565.625 0.08528041492 0.05970832686
566.25 0.07255655029 0.06689872974
566.875 0.04638314371 0.09647356898
567.5 -0.0002159928668 0.09293618621
568.125 -0.004074603091 0.09706210521
568.75 -0.01141885589 0.1092548138
569.375 -0.01394943536 0.08681415741
570.0 -0.01703177049 0.06304878666
570.625 -0.009721106096 0.05583904312
571.25 -0.01773561447 0.06898043493
571.875 -0.01441889555 0.04379209719
572.5 -0.01137046035 0.04905369318
573.125 -0.003007784779 0.08172718865
573.75 0.04597326019 0.1075478351
574.375 0.05817930289 0.06948688112
575.0 0.0595800032 0.04427728881
575.625 0.06921108077 0.05032119753
576.25 0.06634161078 0.07802901513
576.875 0.070454425 0.06097702832
577.5 0.08075415695 0.04240239136
578.125 0.09623898183 0.04246186472
578.75 0.08159587114 0.05958693446
579.375 0.07417869033 0.03828483661
580.0 0.07942514741 0.02506478754
580.625 0.07615311382 0.01983313872
581.25 0.04567431591 0.02142583846
581.875 0.01959039525 0.03413040877
582.5 0.03297489984 0.05537578974
583.125 0.03994364272 0.08020085703
583.75 0.03877623335 0.06759040668
584.375 0.02239897299 0.0647279975
585.0 0.01085948527 0.07771332999
585.625 0.004546387239 0.09254448731
586.25 0.01755002132 0.07190485388
586.875 0.02127542985 0.06319558137
587.5 0.02661979025 0.07883424944
588.125 0.05328603456 0.06877645142
588.75 0.06621711843 0.04346190567
589.375 0.0728985186 0.005614332419
590.0 0.06263454043 0.001693184265
590.625 0.03279253429 0.01788081217
591.25 0.03419484753 0.03255476415
591.875 0.05985156171 0.03702942845
592.5 0.08859469684 0.03134568137
593.125 0.07899704102 0.02950902771
593.75 0.06958175859 0.02822670362
594.375 0.06953433139 0.05075101685
595.0 0.05216623366 0.07053703025
595.625 0.02823456678 0.06638612029
596.25 0.01024394618 0.05571049699
596.875 -0.004977315403 0.06242859067
597.5 -0.01540747937 0.06247537399
598.125 -0.0005651957269 0.06111246589
598.75 0.01727657047 0.04872668474
599.375 0.01630831852 0.03357638836
600.0 0.003020645196 0.01488993205
600.625 -0.0123732968 0.005602462492
601.25 -0.03148675399 0.01264997412
601.875 -0.04314925587 0.02487278165
602.5 -0.04090998391 0.02973091077
603.125 -0.04063796118 0.03473966453
603.75 -0.03712562582 0.04402908242
604.375 -0.0310854247 0.03814624758
605.0 -0.02561412537 0.02008955643
605.625 -0.03375897136 0.007102662344
606.25 -0.05064582235 0.006518129461
606.875 -0.0526584226 0.01770824893
607.5 -0.03147246069 0.0310269567
608.125 -0.009281172742 0.02851697433
608.75 -0.006005274931 0.02061208292
609.375 -0.004069379229 0.01668173965
610.0 0.003650718277 0.01153550939
610.625 0.01099822291 0.0005799010736
611.25 0.01174976756 -0.0113609829
611.875 0.01020508381 -0.01925390296
612.5 0.003277943777 -0.02315950756
613.125 -0.008368325023 -0.0171732863
613.75 -0.01029851959 -0.002079910026
614.375 -0.0002207735471 0.00717083715
615.0 0.009042424571 0.003433813621
615.625 0.003899020633 -0.0005007747468
616.25 -0.001906298774 0.009744704842
616.875 0.007820440709 0.02369515722
617.5 0.02034808988 0.02529798682
618.125 0.02105789734 0.0209229905
618.75 0.02063877781 0.02308643402
619.375 0.02695552315 0.0331428633
620.0 0.03905540645 0.03160293706
620.625 0.04315358634 0.005254737155
621.25 0.03244096491 -0.005561863005
621.875 0.01198749294 -0.01050536616
622.5 -0.01395534451 0.006173690542
623.125 -0.009683967425 0.03434745696
623.75 0.001841565477 0.05208251939
624.375 -0.005722873466 0.05857746422
625.0 -0.02385769664 0.05247624571
625.625 -0.02145030348 0.06580362682
626.25 -0.005541721785 0.08955143765
626.875 0.003358557119 0.08954494801
627.5 0.001090608492 0.07361866614
628.125 -0.006599890642 0.06685645305
628.75 -0.02199696937 0.07210887575
629.375 -0.02765341345 0.06012509736
630.0 -0.01788202872 0.04649936952
630.625 -0.02220364044 0.03192684747
631.25 -0.03577402967 0.01182957888
631.875 -0.04311686427 -0.007368327828
632.5 -0.04833766286 -0.0114093074
633.125 -0.06335289512 -0.01295233853
633.75 -0.07522360019 -0.01063417536
634.375 -0.07464093592 -0.0119332755
635.0 -0.0842342501 -0.0001058796056
635.625 -0.09404106674 0.02603658794
636.25 -0.08435389219 0.0208178961
636.875 -0.0675685146 0.006015363423
637.5 -0.08182103799 -0.00133235448
638.125 -0.1083116043 0.001970507348
638.75 -0.0887033138 0.003605865911
639.375 -0.06016882002 -0.008822663553
640.0 -0.0387635569 -0.03792067974
640.625 -0.01849259414 -0.07944782336
641.25 -0.005346848275 -0.07401751624
641.875 -0.009100346273 -0.06920249853
642.5 -0.0003344752037 -0.07885167884
643.125 0.03555266064 -0.08902166404
643.75 0.04573952174 -0.07742459804
644.375 0.01686045985 -0.08514857835
645.0 0.001349934177 -0.09638040701
645.625 0.01837361122 -0.07914318098
646.25 0.02678649609 -0.06449144902
646.875 0.03464506714 -0.06585900436
647.5 0.03501712824 -0.09055492305
648.125 0.03672897052 -0.06658778686
648.75 0.05022869131 -0.04275435308
649.375 0.07536900097 -0.02592109335
650.0 0.1054427695 -0.01221020965
650.625 0.09822196534 0.007387433646
651.25 0.09476919662 0.02277641574
651.875 0.09273325603 0.0647398963
652.5 0.05930886023 0.10516865
653.125 0.04630163196 0.09348101226
653.75 0.03935084338 0.08856311398
654.375 0.007443184727 0.09287995826
655.0 -0.03564738599 0.05501958324
655.625 -0.03769720144 0.03805648992
656.25 -0.03912756032 0.05805707079
656.875 -0.04324477939 0.09092489356
657.5 -0.06586209693 0.062834787
658.125 -0.07328011091 0.05498818398
658.75 -0.06674326845 0.0936121254
659.375 -0.04603890111 0.1366383131
660.0 -0.0009218455216 0.1244848724
660.625 0.02799538433 0.1093983661
661.25 0.05253358455 0.1071873987
661.875 0.06363530102 0.097243317
662.5 0.06942565052 0.06129570205
663.125 0.05518089135 0.06239145661
663.75 0.005981030139 0.0938164931
664.375 -0.0608278564 0.05427655748
665.0 -0.07300755837 0.01930980191
665.625 -0.08874961533 -0.005843008838
666.25 -0.1098780811 -0.06250323811
666.875 -0.0709323648 -0.09487589082
667.5 -0.06971950377 -0.09150340162
668.125 -0.09237549463 -0.08960192916
668.75 -0.08988407861 -0.09762087685
669.375 -0.05659112907 -0.0747081616
670.0 -0.03827862014 -0.06840688443
670.625 -0.0512345859 -0.09093309467
671.25 -0.05956519034 -0.0888846299
671.875 -0.0593608496 -0.06208922652
672.5 -0.07033220747 -0.04824053779
673.125 -0.1055098625 -0.04516116806
673.75 -0.1131477588 -0.05075288936
674.375 -0.1092626044 -0.05331370922
675.0 -0.08856802463 -0.09039933527
675.625 -0.03936128183 -0.117006246
676.25 -0.002541402032 -0.1087629763
676.875 1.636438254e-05 -0.1110153759
677.5 0.005888943603 -0.120701101
678.125 0.03758679783 -0.07333220644
678.75 0.03817139256 -0.04051732472
679.375 0.05951392356 -0.0374873863
680.0 0.08948374492 -0.0698902746
680.625 0.105415964 -0.05979829141
681.25 0.06721085089 -0.07959465629
681.875 0.03546288833 -0.1147893267
682.5 -0.01874924884 -0.1622061994
683.125 -0.01379457602 -0.1518090358
683.75 0.004827594418 -0.1218202466
684.375 0.05374310302 -0.1042868689
685.0 0.124778345 -0.041412083
685.625 0.1075793095 0.03267687075
686.25 0.06717871587 0.06609564675
686.875 0.0239601923 0.07553019434
687.5 -0.03083183353 0.07453022928
688.125 -0.0514974186 0.07339043518
688.75 -0.07559915974 0.09377899277
689.375 -0.1111431333 0.09914454118
690.0 -0.1014975717 0.07083550262
690.625 -0.084741854 0.08946357388
691.25 -0.04693108126 0.1434216592
691.875 0.01739466816 0.1820339851
692.5 0.08320745862 0.07825933731
693.125 0.0863929663 -0.01616983242
693.75 0.084460196 -0.05251678133
694.375 0.1311765282 -0.04610992757
695.0 0.1092182714 0.0262966354
695.625 0.06077777372 0.07827105
696.25 -0.04030176876 0.1096177613
696.875 -0.1341741652 0.02204474844
697.5 -0.1172797032 -0.07115573419
698.125 -0.09925289196 -0.09028832516
698.75 -0.09463926283 -0.08716914421
699.375 -0.06900224173 -0.0745494739
700.0 -0.05369084479 -0.08206597864
700.625 -0.02292078704 -0.1057550985
701.25 0.02138877112 -0.09158839337
701.875 0.01594221912 -0.06703786227
702.5 -0.01258795831 -0.09105740139
703.125 -0.107694832 -0.1083598053
703.75 -0.1724273171 -0.04031072441
704.375 -0.1119698819 0.05770174765
705.0 -0.08468004503 0.06871817966
705.625 -0.1326500141 0.03277300858
706.25 -0.1030115618 -0.09648170921
706.875 -0.005808698743 -0.09905434757
707.5 0.02739256974 -0.07160017659
708.125 0.07225646659 -0.03035920512
708.75 0.07480973909 0.04635920507
709.375 0.02773065501 0.08613329632
710.0 -0.0155394675 0.08519844666
710.625 -0.04784920895 0.07430381791
711.25 -0.07414016251 0.05712317386
711.875 -0.08895948677 0.081490644
712.5 -0.06289656629 0.1309382026
713.125 0.04563615442 0.1260233993
713.75 0.1096391655 0.0177777139
714.375 0.09796037429 -0.05118307379
715.0 0.09650278479 -0.06482437358
715.625 0.07638477971 -0.01632591605
716.25 0.05249076021 0.01334677359
716.875 0.0441437384 0.05131989491
717.5 0.0002533045263 0.1044013338
718.125 -0.04347395882 0.08894618271
718.75 -0.04272717599 0.06630090379
719.375 -0.05564099269 0.05341365345
720.0 -0.09545245696 0.006231683927
720.625 -0.06651041802 -0.08057784945
721.25 0.02340963275 -0.09639767518
721.875 0.07381767732 -0.05694502567
722.5 0.07038107802 -0.03009774817
723.125 0.04441477847 -0.03178167839
723.75 0.0362302559 -0.03402336548
724.375 0.0165633628 -0.05589892276
725.0 -0.01553177077 -0.04754733665
725.625 -0.03087401383 -0.03786111492
726.25 -0.0431889348 -0.04906891179
726.875 -0.03716979959 -0.07195803502
727.5 -0.02178019372 -0.07021096503
728.125 -0.007984331767 -0.05895038226
728.75 -0.0003285937098 -0.0477495601
729.375 0.003994022484 -0.04305638076
730.0 -0.0009031682177 -0.04009735135
730.625 -0.001854911916 -0.02882566068
731.25 0.009810790588 -0.01639169682
731.875 0.01370908396 0.001677469804
732.5 0.0005745051377 0.01679184973
733.125 -0.01083281519 0.02643395056
733.75 2.670491313e-06 0.03386041604
734.375 0.01490930627 0.0263658852
735.0 0.02044242863 0.005925809803
735.625 0.01620801 -0.005260753039
736.25 0.006485027644 -0.01894244092
736.875 -0.01656979507 -0.02630192805
737.5 -0.03846379183 -0.01832925291
738.125 -0.04779880576 -0.006541035694
738.75 -0.03755332641 0.006159149858
739.375 -0.01318800623 0.004934466224
740.0 -0.004291027551 -0.01649137764
740.625 -0.02202939561 -0.02071582128
741.25 -0.02590769114 -0.01402645725
741.875 -0.006827139407 -0.0247960412
742.5 0.02648286451 -0.008393044824
743.125 0.01817484948 0.02404554042
743.75 0.002150429679 0.03225982533
744.375 -0.005441124002 0.03804361936
745.0 -0.01706940112 0.04779148988
745.625 -0.00858839447 0.06724405329
746.25 0.03590869115 0.07191522847
746.875 0.07842907622 0.03006100079
747.5 0.06375401109 -0.01210634392
748.125 0.03993585713 -0.02657694899
748.75 0.02639020919 -0.03417493285
749.375 0.0007143348538 -0.05350230225
750.0 -0.05125720289 -0.0249909825
