!Created with skrf (http://scikit-rf.org).
# GHz S RI R 50.0 
!freq ReS11 ImS11
500.0 -0.005200404602 0.02477679661
500.625 0.02615407236 0.01430510947
501.25 0.03503169522 -0.006013377769
501.875 0.02789546887 -0.004134687511
502.5 0.02075577216 0.01350198841
503.125 0.02835502054 0.008081814101
503.75 0.03576018059 -0.01590872749
504.375 0.0319906596 -0.02799384254
505.0 0.02195467078 -0.03881967214
505.625 0.01531073693 -0.0619317451
506.25 -0.005739006399 -0.07693886174
506.875 0.03086305977 -0.09394613822
507.5 -0.001435963136 -0.07817821912
508.125 0.02684699999 -0.08963897322
508.75 -0.02421296082 -0.1030630983
509.375 -0.03342317553 -0.07422445003
510.0 -0.008580552333 -0.0701092927
510.625 -0.06220090418 -0.02720416739
511.25 -0.08264800566 -0.02308112926
511.875 -0.06426774253 0.02709931225
512.5 -0.02150508803 0.05254405139
513.125 0.04219210682 0.05935800224
513.75 0.05668446932 0.05978585153
514.375 0.05797417011 0.03291902205
515.0 0.08186960887 0.005822428173
515.625 0.08366216837 0.08683608751
516.25 0.1117175072 0.04946922764
516.875 0.05872596034 0.1199031131
517.5 0.1456849889 0.03992406008
518.125 0.09007939314 0.225206099
518.75 0.106639106 0.01785745583
519.375 0.08389953815 0.02118075947
520.0 0.1130508364 -0.0277862337
520.625 0.1259245067 -0.02727242683
521.25 0.09205386534 -0.05309496172
521.875 0.07453810366 -0.01764594145
522.5 0.07796342863 -0.08903702251
523.125 0.1694693608 -0.1568805406
523.75 0.1123185245 -0.2395834073
524.375 0.1203256037 -0.2353936315
525.0 0.05651080283 -0.09771192326
525.625 0.04699758006 -0.05648496773
526.25 0.05376290068 -0.03903155102
526.875 0.04387856293 -0.06133607776
527.5 0.03401654922 -0.07034627568
528.125 -0.002941973463 -0.06066907842
528.75 -0.02379801426 -0.07398147507
529.375 -0.1033287048 -0.0647956099
530.0 -0.09062999125 -0.003363536288
530.625 -0.04072969897 0.02544030924
531.25 -0.08372633454 0.01307922422
531.875 -0.1675730397 0.04010001102
532.5 -0.1493282071 0.07787963089
533.125 -0.08999106089 0.07270574435
533.75 -0.05633291299 0.09609037299
534.375 -0.08586962266 0.1087108059
535.0 -0.06650138713 0.1018135919
535.625 -0.05543416452 0.06464140429
536.25 -0.006179471625 0.07926899216
536.875 -0.05400629268 0.07682718199
537.5 -0.09114861212 0.03002167241
538.125 -0.07232876572 0.06239760719
538.75 -0.06900745126 0.1175059325
539.375 -0.08393756264 0.08449847335
540.0 -0.07325338893 0.0646047593
540.625 -0.07566585324 0.0696839898
541.25 -0.1058475611 0.07989315966
541.875 -0.09844338732 0.03838399007
542.5 -0.07791944929 0.01609863239
543.125 -0.08325170806 0.06936454333
543.75 -0.03710658966 0.1471831096
544.375 -0.0009971264997 0.1405574698
545.0 0.08273983232 0.06318382108
545.625 0.121912664 0.01017780317
546.25 0.1315770349 -0.01213717717
546.875 0.1146307173 -0.01866748101
547.5 0.1259291914 -0.0189005278
548.125 0.1625156642 -0.005178724009
548.75 0.1426773645 0.05936686307
549.375 0.1286213425 0.05694225798
550.0 0.1195236457 0.09472984838
550.625 0.09484676593 0.1096427432
551.25 0.01973356939 0.09008400638
551.875 0.02408895517 0.05065229655
552.5 0.03688235403 0.06226762706
553.125 0.02771726612 0.0885760267
553.75 -0.005719368215 0.06127877084
554.375 0.007816252471 0.05864412428
555.0 0.03597311623 0.08154568908
555.625 0.04706464959 0.09868416977
556.25 0.009541082282 0.08649622472
556.875 0.01486635252 0.08393051263
557.5 0.01783313929 0.1148013096
558.125 0.002133879292 0.1293752999
558.75 -0.02783954326 0.1109909638
559.375 0.009829953709 0.1106790499
560.0 0.008487349368 0.1122297381
560.625 0.01696448017 0.07150790224
561.25 0.01941360627 0.05133849801
561.875 0.02345748212 0.06698012967
562.5 0.03698499983 0.07738401995
563.125 0.04192468369 0.06308938546
563.75 0.06783328822 0.04566604388
564.375 0.1183027712 0.04109846563
565.0 0.1143547583 0.07263354405
565.625 0.1025083218 0.04110418845
566.25 0.0921054634 0.04145252826
566.875 0.08987622024 0.07326512038
567.5 0.03434263497 0.104653788
568.125 0.02279302924 0.09616324994
568.75 0.02715705927 0.1151109756
569.375 0.01586110658 0.1093958458
570.0 0.007405578416 0.08483909088
570.625 0.01586827139 0.06173655559
571.25 0.02804085843 0.07801826373
571.875 0.01277564179 0.06319074475
572.5 0.01365285774 0.04339151621
573.125 0.02600907402 0.06140482149
573.75 0.08334461645 0.07173524142
574.375 0.09139841343 0.05634483403
575.0 0.07062968915 0.0232134455
575.625 0.07542796242 0.01063339469
576.25 0.09816520688 0.0411179128
576.875 0.09334324285 0.04179304406
577.5 0.08835635795 0.02171348672
578.125 0.1049234682 0.005484247808
578.75 0.1200356381 0.02784414775
579.375 0.09498412234 0.02304819302
580.0 0.09179154489 0.001967302484
580.625 0.0968216525 -0.01333693855
581.25 0.07627829095 -0.005322440501
581.875 0.03955177861 0.01787788964
582.5 0.04749897145 0.02787868751
583.125 0.07669670377 0.05171178851
583.75 0.06852541033 0.05444213835
584.375 0.0480186883 0.04997357904
585.0 0.04071738404 0.06008802831
585.625 0.05130662108 0.08535897179
586.25 0.04217065016 0.0721151073
586.875 0.04333822222 0.04993443526
587.5 0.06111005488 0.05706683005
588.125 0.08682713126 0.04705675263
588.75 0.0856721684 0.03021697343
589.375 0.07781609104 -0.02090653902
590.0 0.06935088071 -0.04385876977
590.625 0.04925033257 -0.0151720038
591.25 0.03948546484 0.01034693877
591.875 0.0555451413 0.01025345206
592.5 0.08794211662 -0.008903079666
593.125 0.09360542771 -0.001417926277
593.75 0.07653176355 0.00705192683
594.375 0.08016899613 0.02251476321
595.0 0.08268221545 0.05102300856
595.625 0.05758336044 0.06387285295
596.25 0.03377005935 0.05635436972
596.875 0.02518537447 0.06256356421
597.5 0.01324225268 0.07604639887
598.125 0.02204766802 0.06920634283
598.75 0.04166585697 0.05046206165
599.375 0.04292197464 0.03647143993
600.0 0.02522751352 0.02502952364
600.625 0.005262830251 0.0124718883
601.25 -0.00896114797 0.01801096144
601.875 -0.0199550076 0.03529684543
602.5 -0.02464832276 0.03995905179
603.125 -0.02625966319 0.04131576521
603.75 -0.01908180711 0.05142719658
604.375 -0.01593839533 0.0527317897
605.0 -0.01846667748 0.03368594506
605.625 -0.0268838107 0.01818278707
606.25 -0.04438403738 0.02049526614
606.875 -0.05092901377 0.03287166736
607.5 -0.03041737707 0.04267354428
608.125 -0.004955580134 0.03773498578
608.75 -0.001460558974 0.03013222799
609.375 -0.002914632358 0.02596320572
610.0 0.002440732877 0.01916069566
610.625 0.009577176595 0.007072384288
611.25 0.009349702718 -0.005986990261
611.875 0.006921788535 -0.01622376729
612.5 0.000286400077 -0.0219399559
613.125 -0.01102014571 -0.01711899045
613.75 -0.01217977482 -0.003217467837
614.375 -0.001031846786 0.004919590021
615.0 0.008990835705 0.0001513464873
615.625 0.005047407275 -0.004680452521
616.25 -0.0003509152605 0.004678141302
616.875 0.01014188252 0.01699340227
617.5 0.02486906433 0.0174736282
618.125 0.02720391605 0.01371191832
618.75 0.02691789727 0.01484812831
619.375 0.03641075943 0.02328401392
620.0 0.05227549386 0.02218763603
620.625 0.05418620554 -0.004750302453
621.25 0.04448494191 -0.01574381704
621.875 0.02914022962 -0.02026180301
622.5 -0.00259533899 -0.01004443608
623.125 -0.0008435997915 0.01688620463
623.75 0.01384591229 0.03275916046
624.375 0.0166884062 0.04576720793
625.0 -0.001411925285 0.05236658645
625.625 0.000392727655 0.05993315933
626.25 0.02324311377 0.07863139673
626.875 0.03539448135 0.08966954632
627.5 0.02441198689 0.0804073303
628.125 0.01810949403 0.07053956028
628.75 0.01391538418 0.08229272397
629.375 -0.001049852666 0.08762825398
630.0 -0.002920907718 0.0676000361
630.625 -0.004712587498 0.0536103388
631.25 -0.01875980067 0.04642766806
631.875 -0.03895220035 0.02985001833
632.5 -0.04342196091 0.01715461279
633.125 -0.05068937665 0.0191957045
633.75 -0.06554149186 0.03198516786
634.375 -0.07209651804 0.02399269149
635.0 -0.07189796827 0.03340820169
635.625 -0.07067541135 0.06250210965
636.25 -0.07505525559 0.07072177593
636.875 -0.06524212486 0.04006878657
637.5 -0.06673589349 0.03339273038
638.125 -0.09657233799 0.05410669949
638.75 -0.102455618 0.0478398512
639.375 -0.07575337496 0.01667436802
640.0 -0.05852493978 -0.005343097343
640.625 -0.06935724432 -0.0437300185
641.25 -0.05049917797 -0.07304081141
641.875 -0.03824166395 -0.06237379673
642.5 -0.04129617597 -0.06238797542
643.125 -0.03306909547 -0.09467960014
643.75 0.002018676958 -0.107397928
644.375 -0.01598584176 -0.08848665835
645.0 -0.05257111104 -0.08717919467
645.625 -0.0458710175 -0.09751723679
646.25 -0.02057978805 -0.08320004783
646.875 -0.003277376619 -0.07432821136
647.5 -0.02642959012 -0.09159569332
648.125 -0.01286845098 -0.09672384497
648.75 0.01547444881 -0.06784600445
649.375 0.03957068831 -0.05546677484
650.0 0.07383500489 -0.06292059881
650.625 0.09902600676 -0.04291197264
651.25 0.09438975198 -0.01627629462
651.875 0.1064342693 0.01033891959
652.5 0.1216474699 0.07072239631
653.125 0.09216847128 0.08810671295
653.75 0.08061762276 0.07625895576
654.375 0.07616087708 0.08627253817
655.0 0.02610302576 0.1035842851
655.625 -0.007383427896 0.06747339634
656.25 0.007599250573 0.06206834799
656.875 0.03465358376 0.08693701599
657.5 -0.003467965586 0.1036356434
658.125 -0.03504646144 0.08235599678
658.75 -0.01501109336 0.0913035576
659.375 0.03733237636 0.1324555567
660.0 0.06499475991 0.1305805223
660.625 0.07783293951 0.09824559017
661.25 0.1044169577 0.06734593536
661.875 0.1329609168 0.04678687138
662.5 0.1191639964 0.02994151808
663.125 0.09810985227 0.02469984145
663.75 0.08555695671 0.06584563104
664.375 -0.003491135663 0.1010683506
665.0 -0.05046223311 0.06612123822
665.625 -0.06029616577 0.0459340223
666.25 -0.1073472606 0.03819751265
666.875 -0.1311761303 -0.04041039112
667.5 -0.1040269625 -0.05162911618
668.125 -0.1146102368 -0.02761213568
668.75 -0.1505172458 -0.01024347743
669.375 -0.1267001905 -0.04228604792
670.0 -0.07946597791 -0.04170480644
670.625 -0.09363404831 -0.03529120065
671.25 -0.1266582817 -0.0206559148
671.875 -0.1114443514 -0.01216294229
672.5 -0.08550065422 0.01337388187
673.125 -0.09194247279 0.0314487459
673.75 -0.1258063405 0.03351305126
674.375 -0.1271008629 0.01362574865
675.0 -0.1239262095 -0.01662378098
675.625 -0.1198688766 -0.07343323186
676.25 -0.07723658995 -0.1124702384
676.875 -0.06191968685 -0.106873189
677.5 -0.08810478756 -0.1020745833
678.125 -0.0668154947 -0.1253884278
678.75 -0.01002523548 -0.08167488667
679.375 0.009794951492 -0.05951563352
680.0 -0.002859523333 -0.08471379624
680.625 0.006126827174 -0.1333622016
681.25 0.01210936576 -0.1137719957
681.875 -0.0205017589 -0.09890284951
682.5 -0.09659782945 -0.0984205396
683.125 -0.1325889444 -0.1210540093
683.75 -0.07812566737 -0.1339246045
684.375 -0.01284615807 -0.123370839
685.0 0.07018700562 -0.1286871518
685.625 0.1398124954 -0.0580694577
686.25 0.1298985278 0.0008832203196
686.875 0.1050780684 0.02725373656
687.5 0.06771331866 0.06532348193
688.125 0.02557814896 0.08128637384
688.75 0.01068021327 0.09008670092
689.375 0.01243347102 0.1268652825
690.0 -0.03110799063 0.1408513025
690.625 -0.02437918267 0.1234728698
691.25 0.03726811829 0.1264310772
691.875 0.1566087452 0.1048837065
692.5 0.1972673149 0.01791199729
693.125 0.0839967544 -0.089173773
693.75 0.005950807798 -0.1036918363
694.375 0.008318546589 -0.1383333037
695.0 0.1100408146 -0.112085176
695.625 0.1079687587 0.01210285386
696.25 0.05225472487 0.08250395152
696.875 -0.05674032105 0.1091624208
697.5 -0.1341781849 0.03675694888
698.125 -0.1380549876 -0.006537121442
698.75 -0.1437588146 0.004511735889
699.375 -0.1349438432 -0.003491565393
700.0 -0.109703546 -0.02127601503
700.625 -0.1043431342 -0.04513960141
701.25 -0.1098333454 -0.0790871779
701.875 -0.07147264081 -0.06387667972
702.5 -0.06258852361 -0.03772350856
703.125 -0.1014803075 0.005823499793
703.75 -0.1294372715 0.1270249819
704.375 -0.08161689328 0.1470617254
705.0 -0.03108235796 0.1161978128
705.625 -0.05468822593 0.1094862593
706.25 -0.1607389266 0.05317505328
706.875 -0.1122427141 -0.1106500453
707.5 -0.0421633105 -0.09694637234
708.125 -0.002917276593 -0.09504964968
708.75 0.06916972215 -0.06952998104
709.375 0.09684091028 0.02021874726
710.0 0.0588073459 0.06113119212
710.625 0.04181760841 0.07243711476
711.25 0.005751159649 0.08408501955
711.875 -0.004778769849 0.09719369336
712.5 0.04146574941 0.1226303192
713.125 0.1431545889 0.07353219949
713.75 0.1314915496 -0.06434451974
714.375 0.04347596606 -0.1206936229
715.0 -0.01388197508 -0.1386652945
715.625 0.02950549404 -0.1383177229
716.25 0.06108584631 -0.06536608296
716.875 0.06111276504 -0.01985681296
717.5 0.08030115463 0.02635501119
718.125 0.07297483188 0.08396419203
718.75 0.02874608905 0.08522080701
719.375 0.007009841529 0.06691528716
720.0 -0.036525555 0.06710888858
720.625 -0.1034936834 0.001232417156
721.25 -0.05079344528 -0.1018793517
721.875 0.02392998098 -0.1072129413
722.5 0.03894473322 -0.1065203893
723.125 -0.003013678563 -0.09885311079
723.75 -0.03967176535 -0.06089068835
724.375 -0.05560187967 -0.02893761186
725.0 -0.05501532041 0.004335884845
725.625 -0.04033596136 0.01313495237
726.25 -0.04476468971 0.005427265059
726.875 -0.06658945022 -0.01654237152
727.5 -0.07345652238 -0.04233056791
728.125 -0.05669511477 -0.05137663417
728.75 -0.05050562732 -0.03599081263
729.375 -0.04692675843 -0.0237243104
730.0 -0.04290956562 -0.027308469
730.625 -0.03363049466 -0.02624768638
731.25 -0.01787804875 -0.0262184093
731.875 0.001502735378 -0.02445098947
732.5 0.01097397211 -0.005847521434
733.125 0.006310113395 0.0147590409
733.75 0.01562540138 0.02344875779
734.375 0.02817577481 0.01656546907
735.0 0.02747752961 -0.004308470144
735.625 0.02006912656 -0.01210864174
736.25 0.009967498317 -0.0221424033
736.875 -0.01172426952 -0.02532194009
737.5 -0.03352716556 -0.01247439818
738.125 -0.04670835491 0.00505883655
738.75 -0.04275310684 0.02102968514
739.375 -0.0233781627 0.02341938227
740.0 -0.01510995462 0.008534683774
740.625 -0.02852385559 0.007835117894
741.25 -0.03381131615 0.01438309371
741.875 -0.03461545708 -0.005359836585
742.5 -0.005153998206 -0.03442395299
743.125 0.03445454983 -0.01535046995
743.75 0.03564652941 0.007442301063
744.375 0.03506724537 0.006868709119
745.0 0.03564681656 0.01097927901
745.625 0.03540635998 0.02203820377
746.25 0.05489444684 0.02265104366
746.875 0.06819225302 -0.02504476708
747.5 0.04109015614 -0.06218997627
748.125 0.009097315204 -0.06581004196
748.75 -0.02227784255 -0.05418968121
749.375 -0.06022616432 -0.02798559977
750.0 -0.06647657195 0.04829235746
