!Created with skrf (http://scikit-rf.org).
# GHz S RI R 50.0 
!freq ReS11 ImS11
500.0 -0.01301118074 0.024669547
500.625 0.02797390757 0.02316928418
501.25 0.04220046373 0.005610042961
501.875 0.03617230083 0.007934824101
502.5 0.02204885057 0.02807341494
503.125 0.03454787926 0.01362088145
503.75 0.04582671879 -0.009167367363
504.375 0.04227336735 -0.02220006976
505.0 0.03084803036 -0.03971744959
505.625 0.03015968527 -0.06707900622
506.25 0.01121048196 -0.08286859523
506.875 0.04972048886 -0.08614653184
507.5 0.01537953837 -0.07833954709
508.125 0.05186156505 -0.0848220626
508.75 0.005033267344 -0.1060331381
509.375 -0.01252533226 -0.07928898858
510.0 0.01254994444 -0.07692194471
510.625 -0.06031858378 -0.04748461168
511.25 -0.07615576503 -0.04115455735
511.875 -0.06664083863 0.01595723175
512.5 -0.02964621734 0.04515115212
513.125 0.02147925793 0.06999661256
513.75 0.03182592357 0.07124691742
514.375 0.04888783982 0.04876870875
515.0 0.08446274001 0.03222540745
515.625 0.05705877617 0.1170961474
516.25 0.1001658838 0.07487964008
516.875 0.04048494143 0.1363303103
517.5 0.1442357908 0.07367161877
518.125 0.03270227961 0.2324005833
518.75 0.09257357975 0.03945873735
519.375 0.08001984255 0.04102959697
520.0 0.1239419654 0.005094624536
520.625 0.1242843965 0.002604086735
521.25 0.09855721076 -0.03083068952
521.875 0.08024097352 -0.001584675352
522.5 0.1005975521 -0.06886059777
523.125 0.1817347491 -0.1098269998
523.75 0.1396489708 -0.2049331109
524.375 0.1569816828 -0.1893297347
525.0 0.07144215207 -0.06621030336
525.625 0.05054476457 -0.03063016897
526.25 0.05866068023 -0.0180058267
526.875 0.06153276204 -0.04060646403
527.5 0.05103918799 -0.04632124043
528.125 0.01704433201 -0.05473958086
528.75 0.000325578291 -0.07874023015
529.375 -0.07171538413 -0.09292227259
530.0 -0.06796280499 -0.03253027884
530.625 -0.04532751155 0.0003008380915
531.25 -0.1057817989 -0.02910141624
531.875 -0.188451434 -0.02617666598
532.5 -0.164075149 0.03012276825
533.125 -0.1041445652 0.04687925212
533.75 -0.09109129264 0.08265957205
534.375 -0.1199051927 0.07019434869
535.0 -0.086295513 0.07526758287
535.625 -0.06680813716 0.04525843394
536.25 -0.03415614076 0.06766937528
536.875 -0.08449234963 0.04224892462
537.5 -0.09991958335 -0.001182489491
538.125 -0.09195063586 0.04521098167
538.75 -0.1046167661 0.08547668423
539.375 -0.09860425098 0.04685090142
540.0 -0.09057322046 0.03185409326
540.625 -0.1059064249 0.04292432505
541.25 -0.136204582 0.03126874448
541.875 -0.1042972107 0.001694349618
542.5 -0.08995929347 -0.00457717238
543.125 -0.1137814715 0.05287960105
543.75 -0.07922685099 0.1348682053
544.375 -0.03304323085 0.128132493
545.0 0.06585582333 0.07786969306
545.625 0.1141741409 0.05284139418
546.25 0.1210250289 0.03036831812
546.875 0.111165073 0.01408752098
547.5 0.1262385612 0.01554746357
548.125 0.1571616672 0.04791118949
548.75 0.1081415885 0.08871663859
549.375 0.1061809991 0.08047203165
550.0 0.08531283889 0.1196940724
550.625 0.04885626156 0.1119906636
551.25 -0.009825820303 0.06817352732
551.875 -0.0006973470306 0.04616409332
552.5 -0.0004020150122 0.07416624783
553.125 -0.02456667347 0.08486391202
553.75 -0.03404653309 0.05494057957
554.375 -0.01584425029 0.06802479571
555.0 0.004621864608 0.1019359818
555.625 0.004814682048 0.111873699
556.25 -0.01838420726 0.0855632673
556.875 -0.0119468702 0.09726717536
557.5 -0.02055249241 0.1228928871
558.125 -0.03299421404 0.1251529754
558.75 -0.05095506427 0.09719645749
559.375 -0.01833270352 0.1093478423
560.0 -0.02531717724 0.09437963014
560.625 -0.00778677788 0.0607753447
561.25 -0.006815995538 0.05213115233
561.875 -0.01091039061 0.07383514852
562.5 -0.0006333482382 0.08919016649
563.125 0.02095385487 0.07756290431
563.75 0.06037714248 0.07083135252
564.375 0.1043609255 0.08672421418
565.0 0.08744889434 0.09810973859
565.625 0.08614320048 0.06300154897
566.25 0.07726997062 0.06677447694
566.875 0.05511274299 0.1028831281
567.5 -0.0021327069 0.1002117962
568.125 -0.00282612182 0.09908806358
568.75 -0.007836505963 0.1153804029
569.375 -0.01768988859 0.09619179667
570.0 -0.02066458359 0.06569580476
570.625 -0.007497924604 0.0581017152
571.25 -0.01279310128 0.07762173428
571.875 -0.01775440485 0.0539280449
572.5 -0.0114032077 0.04991171636
573.125 0.002982227817 0.08180706222
573.75 0.05911409577 0.1081070561
574.375 0.06475414219 0.07862921811
575.0 0.05993862985 0.04440503287
575.625 0.07527659503 0.04533662994
576.25 0.07796965288 0.07760465302
576.875 0.07649915826 0.06664177468
577.5 0.08226393007 0.04159339056
578.125 0.1031425153 0.03825751889
578.75 0.09294163464 0.06353443273
579.375 0.07811642662 0.04235972298
580.0 0.08303511411 0.02374294419
580.625 0.08541131185 0.01844995797
581.25 0.05443354839 0.02624719289
581.875 0.02270415801 0.03540989744
582.5 0.03868310663 0.05272594691
583.125 0.05201038377 0.08264236545
583.75 0.04254443892 0.07455297917
584.375 0.02629740667 0.06476072284
585.0 0.01877349294 0.07844190723
585.625 0.01494263004 0.1017137894
586.25 0.01749944227 0.07820476895
586.875 0.02517767546 0.06261863388
587.5 0.0358059644 0.0801249033
588.125 0.06413567504 0.07299182937
588.75 0.06925256375 0.04727783018
589.375 0.0761988501 0.001524174299
590.0 0.07149410475 -0.006026645126
590.625 0.04293487878 0.01532687543
591.25 0.03810804425 0.03161745889
591.875 0.06217379649 0.03095564372
592.5 0.0958212104 0.02279697136
593.125 0.08758010619 0.02735756599
593.75 0.07333895375 0.02588988378
594.375 0.07602804677 0.04582102614
595.0 0.0628213252 0.07305525227
595.625 0.03260468662 0.07126021877
596.25 0.01471697427 0.05859030815
596.875 0.002342589062 0.0673421974
597.5 -0.01219676027 0.07183578762
598.125 0.001419595765 0.06584955883
598.75 0.02246504066 0.05237192729
599.375 0.022347386 0.03883402043
600.0 0.005547621545 0.02211787699
600.625 -0.0103513797 0.009589117079
601.25 -0.0268073432 0.01765599503
601.875 -0.03938472741 0.03200739947
602.5 -0.03953317775 0.03553113468
603.125 -0.03854575211 0.03842285123
603.75 -0.03366166067 0.04920496476
604.375 -0.03038066303 0.04508349803
605.0 -0.02688748314 0.02459685941
605.625 -0.03394621639 0.01092350174
606.25 -0.05173512532 0.0114690933
606.875 -0.05573588108 0.02170959458
607.5 -0.03380720559 0.03369110732
608.125 -0.01002388001 0.03167771798
608.75 -0.006935647994 0.02424030905
609.375 -0.006117323434 0.01936469334
610.0 0.001425073441 0.01324479706
610.625 0.008902938855 0.00219715707
611.25 0.0095013032 -0.01012496224
611.875 0.008227675477 -0.01913405558
612.5 0.001798607431 -0.02365164506
613.125 -0.009806810961 -0.01795164981
613.75 -0.01142151109 -0.003099710085
614.375 -0.0009110151635 0.005933100136
615.0 0.008734886286 0.002109665021
615.625 0.004146809394 -0.001938662733
616.25 -0.001522330775 0.008140920467
616.875 0.008583088443 0.02169076663
617.5 0.02200330906 0.02314141714
618.125 0.02319689945 0.01906854045
618.75 0.0229624441 0.02073998516
619.375 0.03070766605 0.03050330897
620.0 0.04394528028 0.02975202071
620.625 0.04715063816 0.002903156786
621.25 0.03723992854 -0.008206967338
621.875 0.01898708107 -0.0119854551
622.5 -0.008505798742 0.002611491167
623.125 -0.005581813475 0.02959828945
623.75 0.007859293325 0.04648893031
624.375 0.00368089534 0.05712148923
625.0 -0.01729183458 0.05546318597
625.625 -0.01419739299 0.06577341325
626.25 0.005585985139 0.08923158097
626.875 0.01352525114 0.09437247149
627.5 0.006275241634 0.07869062037
628.125 0.0008239478241 0.07016835757
628.75 -0.01134576745 0.08059738444
629.375 -0.02433753239 0.07269456154
630.0 -0.01661865617 0.05384265809
630.625 -0.01850014483 0.04096753981
631.25 -0.03536504818 0.02632657467
631.875 -0.04843498712 0.003636680503
632.5 -0.0497395965 -0.003256534335
633.125 -0.06242581809 -0.0007151518554
633.75 -0.07896196163 0.004986757512
634.375 -0.07973618684 -0.002198761271
635.0 -0.08325725271 0.011319049
635.625 -0.08996299707 0.04177782803
636.25 -0.09029904271 0.03922695611
636.875 -0.07130740639 0.01524642753
637.5 -0.07950834203 0.0124013184
638.125 -0.1115281906 0.02249839628
638.75 -0.1017720088 0.01603967697
639.375 -0.06664230131 -0.003453364353
640.0 -0.04972599004 -0.02759110713
640.625 -0.0436158712 -0.0748544685
641.25 -0.01932264737 -0.08201778646
641.875 -0.01758147483 -0.06941452372
642.5 -0.01847895175 -0.07732752432
643.125 0.01090672515 -0.1041410989
643.75 0.0396342565 -0.09382713839
644.375 0.006780881375 -0.08785729736
645.0 -0.02081927343 -0.09996272802
645.625 -0.001079307645 -0.09880539053
646.25 0.01697029082 -0.07713061625
646.875 0.02285842357 -0.07121671251
647.5 0.01148148638 -0.1000096909
648.125 0.02571969902 -0.0873051048
648.75 0.04277859577 -0.05390147563
649.375 0.06580822222 -0.04057279674
650.0 0.1005169781 -0.03591234927
650.625 0.1083711634 -0.00835633811
651.25 0.09766408656 0.01012632029
651.875 0.1056439026 0.04559612686
652.5 0.08626090198 0.1049528888
653.125 0.05974110409 0.1001942009
653.75 0.05488741607 0.08707381957
654.375 0.03558300272 0.1009387596
655.0 -0.02568468043 0.08469030424
655.625 -0.0333709355 0.04898388987
656.25 -0.02134155934 0.06328798406
656.875 -0.01148964843 0.1011706185
657.5 -0.05380159775 0.09102570327
658.125 -0.06604807294 0.0657741284
658.75 -0.04518427291 0.09767944252
659.375 -0.01211975123 0.1488424231
660.0 0.01902848911 0.1400377567
660.625 0.04371295947 0.1110143089
661.25 0.07746493482 0.09799027959
661.875 0.09943639277 0.09054896254
662.5 0.08764735831 0.06025267522
663.125 0.07376188274 0.05363198168
663.75 0.04036324773 0.09562300062
664.375 -0.04798615079 0.08055157142
665.0 -0.07274801762 0.03387740929
665.625 -0.08300377252 0.01702430613
666.25 -0.1277921271 -0.02447088454
666.875 -0.09794881344 -0.09059978199
667.5 -0.08312401444 -0.083312091
668.125 -0.1084968699 -0.06709238427
668.75 -0.1314213133 -0.07609374046
669.375 -0.08088052066 -0.07952506676
670.0 -0.05268457986 -0.06262893848
670.625 -0.07525218937 -0.07445601672
671.25 -0.09841539178 -0.07579152133
671.875 -0.08097664203 -0.05759659702
672.5 -0.08066288257 -0.02914246733
673.125 -0.1103926315 -0.01369372488
673.75 -0.1326566935 -0.02496301293
674.375 -0.1223460146 -0.03581690271
675.0 -0.1109056827 -0.06717960881
675.625 -0.07308540617 -0.1144843064
676.25 -0.02273046114 -0.1239228657
676.875 -0.02016336868 -0.1140677498
677.5 -0.03300931725 -0.1278017771
678.125 0.016544083 -0.1115548073
678.75 0.03305828551 -0.05866780577
679.375 0.04428825746 -0.0469407889
680.0 0.05593707001 -0.08989691112
680.625 0.09057309098 -0.1071701417
681.25 0.05943992198 -0.09486700469
681.875 0.01500189777 -0.112864219
682.5 -0.05802384357 -0.148794142
683.125 -0.05944530057 -0.1686867109
683.75 -0.01412312149 -0.1357605665
684.375 0.03210387802 -0.1165569199
685.0 0.1190113802 -0.08031292801
685.625 0.134073268 0.0117123519
686.25 0.09472440661 0.05398317067
686.875 0.05758527807 0.0715670655
687.5 0.003036359653 0.0886686974
688.125 -0.0315690879 0.08578387794
688.75 -0.04363727078 0.1018513299
689.375 -0.07202241724 0.1330481761
690.0 -0.09302661534 0.1035171849
690.625 -0.07205917431 0.1034868813
691.25 -0.01250217517 0.1454487208
691.875 0.08727358949 0.1820821495
692.5 0.1243151562 0.08825975015
693.125 0.0907529668 -0.03612590066
693.75 0.05998795966 -0.08178377292
694.375 0.1009435675 -0.1060001946
695.0 0.1394621036 -0.009727088651
695.625 0.07945351398 0.06247929089
696.25 -0.0008030942262 0.1121561975
696.875 -0.1210058443 0.06770855395
697.5 -0.1417072689 -0.04167298138
698.125 -0.1215789887 -0.06717074476
698.75 -0.1265497789 -0.06211351768
699.375 -0.1036059129 -0.06473704412
700.0 -0.07941504054 -0.06886266095
700.625 -0.0629727986 -0.09502692813
701.25 -0.0231913126 -0.1147968277
701.875 -0.01029175342 -0.08215456491
702.5 -0.03296245459 -0.07677942755
703.125 -0.1229215367 -0.06065778181
703.75 -0.197785108 0.02912058092
704.375 -0.1172155538 0.08534951444
705.0 -0.07021710297 0.08827826697
705.625 -0.1127953293 0.07666810029
706.25 -0.1609418634 -0.05708204433
706.875 -0.02923988524 -0.1188348413
707.5 0.004883013498 -0.08780458852
708.125 0.05422922197 -0.0681410079
708.75 0.09844093065 0.005446269994
709.375 0.05663416238 0.07885802323
710.0 0.01390094567 0.0853850868
710.625 -0.0149170613 0.08964542442
711.25 -0.05380771966 0.08075188279
711.875 -0.0633848254 0.09794438869
712.5 -0.02315042566 0.1451408619
713.125 0.08839835949 0.1264707088
713.75 0.1294565202 -0.002013546192
714.375 0.0864740434 -0.08289877337
715.0 0.06861292935 -0.1153437235
715.625 0.08795058412 -0.06391527634
716.25 0.06653088604 -0.007561618439
716.875 0.0586727265 0.02724415763
717.5 0.04583646565 0.09061105137
718.125 -0.007187028826 0.1135604562
718.75 -0.02479432486 0.08147742808
719.375 -0.03435914997 0.06694090998
720.0 -0.08549057099 0.04011944403
720.625 -0.09506315185 -0.06360659884
721.25 0.002556071969 -0.1089381906
721.875 0.06430459802 -0.08284928079
722.5 0.07593978238 -0.06219401972
723.125 0.04353980478 -0.06054338859
723.75 0.01720542287 -0.05450130255
724.375 -0.01238059804 -0.05997035889
725.0 -0.03834051177 -0.03944872017
725.625 -0.04248457446 -0.02458343514
726.25 -0.05306855467 -0.03105431316
726.875 -0.0582538289 -0.05936991782
727.5 -0.04331940174 -0.07224918714
728.125 -0.02422558296 -0.0650041547
728.75 -0.01984445275 -0.05305358452
729.375 -0.01750807775 -0.04790806092
730.0 -0.01648774097 -0.04528751343
730.625 -0.01230997545 -0.03403661095
731.25 0.00230287097 -0.02549442906
731.875 0.01581556357 -0.009885953213
732.5 0.009196615567 0.01220473124
733.125 -0.002513646308 0.02650846944
733.75 0.008090549257 0.03415373077
734.375 0.02240718218 0.02670177164
735.0 0.02624347944 0.004366839743
735.625 0.02032829531 -0.006724239416
736.25 0.009806418781 -0.01969586601
736.875 -0.01351068163 -0.02532869041
737.5 -0.03617208235 -0.01545990634
738.125 -0.04802855344 -0.002000057022
738.75 -0.04065901003 0.01115783644
739.375 -0.01874557102 0.01080636598
740.0 -0.0110797763 -0.008778333783
740.625 -0.02769716777 -0.01182638079
741.25 -0.03191514446 -0.005221111121
741.875 -0.01947108634 -0.02156474117
742.5 0.01971017959 -0.02243277122
743.125 0.02904499422 0.01395042475
743.75 0.01645584584 0.02745941653
744.375 0.01447078583 0.03231340548
745.0 0.00769704167 0.04462169407
745.625 0.01190809828 0.05983146079
746.25 0.04823423043 0.05731162257
746.875 0.0831839696 0.007620780002
747.5 0.06580133258 -0.03382871673
748.125 0.03627255121 -0.04361316015
748.75 0.01210199034 -0.04750733691
749.375 -0.0252444947 -0.05444175998
750.0 -0.0695146595 -0.003687517054
