!Created with skrf (http://scikit-rf.org).
# GHz S RI R 50.0 
!freq ReS11 ImS11
500.0 -0.007630818883 0.02136490177
500.625 0.02566186027 0.01344612476
501.25 0.03457270786 -0.004805870827
501.875 0.02760716702 -0.005024428986
502.5 0.01640826946 0.01525216385
503.125 0.02536245761 0.009034780822
503.75 0.03405099804 -0.01424363221
504.375 0.02988688622 -0.02582794193
505.0 0.02117524278 -0.03671622216
505.625 0.01701584108 -0.06086807107
506.25 -0.004333270788 -0.07468195445
506.875 0.02564150799 -0.08924307606
507.5 -0.003344036325 -0.07618084132
508.125 0.02552556154 -0.08616603537
508.75 -0.02200929565 -0.09419721596
509.375 -0.03551763401 -0.06779934648
510.0 -0.009349861464 -0.06690685797
510.625 -0.05811606424 -0.02821534604
511.25 -0.07569722053 -0.02122622741
511.875 -0.06117626672 0.02837828655
512.5 -0.01948883934 0.04892025757
513.125 0.04244560985 0.0587277962
513.75 0.05338656022 0.05403970213
514.375 0.05713701923 0.02783244303
515.0 0.07664149188 0.005254309846
515.625 0.07541653522 0.0804557537
516.25 0.1025847762 0.04092466463
516.875 0.05808648578 0.1142931556
517.5 0.1404134417 0.04170478817
518.125 0.08373095539 0.2075858973
518.75 0.1014552453 0.008218622084
519.375 0.08089072357 0.01827550771
520.0 0.1070572771 -0.02557496971
520.625 0.1137843496 -0.02984804689
521.25 0.08600970725 -0.05713229206
521.875 0.07258284668 -0.01769998028
522.5 0.07598478995 -0.08361622147
523.125 0.1510501233 -0.1510599546
523.75 0.1067601841 -0.2416853135
524.375 0.1213444309 -0.2295104281
525.0 0.05142290852 -0.09212593551
525.625 0.03772878006 -0.0559394505
526.25 0.05039568888 -0.04117267432
526.875 0.04222603299 -0.05785828185
527.5 0.02958635103 -0.06387613272
528.125 -0.006057084322 -0.05599886537
528.75 -0.02350324364 -0.07117053567
529.375 -0.09572351321 -0.06193282976
530.0 -0.0816028043 0.002052372648
530.625 -0.03644798484 0.02760359921
531.25 -0.0798512192 0.00866781555
531.875 -0.1564922593 0.02607984268
532.5 -0.1332597677 0.07532496123
533.125 -0.08778174542 0.07316319312
533.75 -0.05760610519 0.09079309865
534.375 -0.0840024956 0.09383562088
535.0 -0.05490271754 0.09811099016
535.625 -0.05548932293 0.06465742873
536.25 -0.00796208122 0.07391949994
536.875 -0.0514457278 0.06315182196
537.5 -0.07981409745 0.03100170515
538.125 -0.07243086981 0.06155475351
538.75 -0.06992249753 0.1082760634
539.375 -0.07603797919 0.07469684575
540.0 -0.06550287404 0.06234357158
540.625 -0.07596076622 0.06485956574
541.25 -0.1020527261 0.06780456994
541.875 -0.08943209787 0.03239069057
542.5 -0.07465447435 0.01451972408
543.125 -0.08539365524 0.06288682134
543.75 -0.04018155067 0.1350968419
544.375 0.001556139137 0.1345478531
545.0 0.07994548628 0.06298210678
545.625 0.1158344225 0.01628239224
546.25 0.1163423032 -0.008261241194
546.875 0.1119624049 -0.02176928781
547.5 0.12361777 -0.01470245773
548.125 0.1542784594 0.001966131839
548.75 0.1276845327 0.05107433015
549.375 0.1313523164 0.05169538434
550.0 0.1141520659 0.09384348912
550.625 0.0867929579 0.1013014554
551.25 0.02595999777 0.07918629117
551.875 0.02730183056 0.04933140603
552.5 0.03145139233 0.05980382468
553.125 0.01967015276 0.07856495794
553.75 -0.002819951148 0.05263489749
554.375 0.007539893464 0.05683526042
555.0 0.02958768609 0.07995521901
555.625 0.03977248033 0.09052210527
556.25 0.009292365071 0.08098294448
556.875 0.0124317895 0.08260014253
557.5 0.01068855739 0.1098225928
558.125 0.002686651511 0.1195725896
558.75 -0.02762159352 0.1089108326
559.375 0.007501177545 0.1077962182
560.0 0.005890377651 0.1025990978
560.625 0.02266206843 0.06483491069
561.25 0.01913238868 0.05079834559
561.875 0.01868256299 0.06299152526
562.5 0.02839208171 0.07133050999
563.125 0.04051538778 0.05600367611
563.75 0.06635571406 0.04684918988
564.375 0.1107946063 0.04668826324
565.0 0.1044405934 0.06955105172
565.625 0.09942777103 0.03772844949
566.25 0.08837241879 0.04377830708
566.875 0.07932330347 0.07303714916
567.5 0.03119257872 0.09529971148
568.125 0.02177507502 0.09454807009
568.75 0.02191782838 0.1117234334
569.375 0.01365194651 0.09909500255
570.0 0.01030441939 0.07977958603
570.625 0.01462310162 0.06003203549
571.25 0.02054037899 0.07285809272
571.875 0.009360085481 0.05124276399
572.5 0.01491547157 0.04026685618
573.125 0.02071577568 0.06239103434
573.75 0.07302683914 0.07634339475
574.375 0.0784694874 0.05135831195
575.0 0.06938757556 0.02047936324
575.625 0.07216560146 0.01653216821
576.25 0.08731221905 0.04686976182
576.875 0.08281745706 0.03976627241
577.5 0.08661648541 0.02157054299
578.125 0.1009990196 0.01144889609
578.75 0.1075616101 0.03133984992
579.375 0.08839990882 0.0200077995
580.0 0.08920305686 0.003240618663
580.625 0.08994659784 -0.008456222899
581.25 0.0648741173 -0.00529024352
581.875 0.03536228005 0.01613089033
582.5 0.04328713277 0.03117862633
583.125 0.06518342577 0.05576899406
583.75 0.0592821088 0.04907100208
584.375 0.04448415866 0.05001242304
585.0 0.03344382861 0.06177549474
585.625 0.03748300345 0.08398298071
586.25 0.03792697077 0.06420068856
586.875 0.04073830818 0.05077024201
587.5 0.0525539168 0.06022202389
588.125 0.07502338109 0.0498279632
588.75 0.07906392285 0.02696660625
589.375 0.07659499611 -0.01682806814
590.0 0.06569868296 -0.03361185808
590.625 0.04004836149 -0.007215917065
591.25 0.03436126052 0.01266785027
591.875 0.05528714911 0.01569675604
592.5 0.08521455038 0.001439970285
593.125 0.08538820996 0.004830385232
593.75 0.07262886416 0.009701097687
594.375 0.07639311551 0.02818902911
595.0 0.07209232725 0.05375352993
595.625 0.0510966664 0.06000987302
596.25 0.02905423535 0.0544400203
596.875 0.01809137565 0.06095112485
597.5 0.005885156001 0.06903006031
598.125 0.01934375398 0.06427798886
598.75 0.03678414273 0.04871365371
599.375 0.03665195399 0.03372065383
600.0 0.02030895717 0.01925955609
600.625 0.003475908167 0.008743663381
601.25 -0.01334885019 0.01508940946
601.875 -0.02514996764 0.03021316854
602.5 -0.02751445654 0.03457470912
603.125 -0.02813971254 0.03817067129
603.75 -0.02271819426 0.047947277
604.375 -0.01850416663 0.04705129519
605.0 -0.01794980866 0.02894319083
605.625 -0.0268118729 0.01492339199
606.25 -0.04430642996 0.01620621151
606.875 -0.04915305445 0.02831954863
607.5 -0.02861872915 0.03963898916
608.125 -0.004638312952 0.03499170449
608.75 -0.001356069686 0.02696381652
609.375 -0.001601355716 0.02302925446
610.0 0.004310954948 0.01727157758
610.625 0.01127283188 0.005374356805
611.25 0.01129372901 -0.007459200258
611.875 0.008945120073 -0.0167137085
612.5 0.001887159001 -0.02186656361
613.125 -0.009346252156 -0.0167854737
613.75 -0.01069358424 -0.002654523883
614.375 0.0001297254159 0.005692002819
615.0 0.009980162478 0.00103448083
615.625 0.005584751552 -0.003653430573
616.25 6.030677741e-05 0.00572627874
616.875 0.01048816843 0.01822788982
617.5 0.02461791241 0.01902702249
618.125 0.02646910767 0.01501642239
618.75 0.02625947394 0.01631277582
619.375 0.03517466136 0.02513246971
620.0 0.05006889271 0.02384438931
620.625 0.0526774921 -0.003441535346
621.25 0.04300517127 -0.01396351498
621.875 0.02612204685 -0.01843886644
622.5 -0.005429619006 -0.007785208119
623.125 -0.002455267042 0.01877934702
623.75 0.01183947571 0.03580635888
624.375 0.01193752904 0.04780992323
625.0 -0.005737450713 0.05017125391
625.625 -0.002373700955 0.05983999952
626.25 0.01822107902 0.08004017744
626.875 0.02873600736 0.08833511492
627.5 0.02108136104 0.07665047458
628.125 0.01477474214 0.06952371399
628.75 0.007372864647 0.07972719745
629.375 -0.005396891676 0.08003099288
630.0 -0.003050769152 0.06303999574
630.625 -0.006811851814 0.05026057923
631.25 -0.02102276832 0.03912836184
631.875 -0.03533618061 0.02226474066
632.5 -0.04150714446 0.01384050255
633.125 -0.05153405566 0.01433144436
633.75 -0.06543854506 0.02286833568
634.375 -0.06675943477 0.01719714762
635.0 -0.07195835842 0.02929354683
635.625 -0.07357890495 0.05513191812
636.25 -0.07450786046 0.05840291584
636.875 -0.05935805594 0.03536376942
637.5 -0.06747333473 0.02918550983
638.125 -0.09664488353 0.04424959858
638.75 -0.09533741334 0.03898576707
639.375 -0.07064331799 0.01833819586
640.0 -0.05546231774 -0.009055738542
640.625 -0.05908657073 -0.04839770841
641.25 -0.04004903437 -0.06701917977
641.875 -0.03648703171 -0.05877817766
642.5 -0.03490162698 -0.06476840574
643.125 -0.01881645947 -0.09142711506
643.75 0.006449166921 -0.09421055753
644.375 -0.01494140057 -0.08607067277
645.0 -0.04398132251 -0.08836116031
645.625 -0.03143787547 -0.0905001587
646.25 -0.01786221336 -0.0725657217
646.875 -0.0005906101556 -0.07155417269
647.5 -0.01647386465 -0.09098249154
648.125 -0.002352184965 -0.08595821025
648.75 0.01417032059 -0.06112317972
649.375 0.04328219081 -0.04993021527
650.0 0.07701171056 -0.05329470651
650.625 0.09279545337 -0.03138899369
651.25 0.09086704604 -0.01471113561
651.875 0.1026507057 0.01809724241
652.5 0.1071585078 0.07343668248
653.125 0.08358095759 0.08115727574
653.75 0.07848002355 0.07602951099
654.375 0.06563446402 0.08583125529
655.0 0.01501224975 0.08710617908
655.625 -0.003059589108 0.05848584236
656.25 0.004312407655 0.06189175167
656.875 0.02270011762 0.08583622544
657.5 -0.01597801834 0.08705478285
658.125 -0.03128668021 0.07367446412
658.75 -0.02018236612 0.09194144397
659.375 0.02289323249 0.1323754323
660.0 0.04967793305 0.1205140709
660.625 0.07313003901 0.09320834503
661.25 0.09773255945 0.07220499774
661.875 0.1192142324 0.05542326845
662.5 0.1036696524 0.02682586598
663.125 0.09212794289 0.02770795638
663.75 0.07297272461 0.0685869579
664.375 -0.01242164368 0.08772326093
665.0 -0.04521986696 0.05561582561
665.625 -0.06430679184 0.03920854217
666.25 -0.1074863234 0.01824904802
666.875 -0.1099738782 -0.04912911132
667.5 -0.09607541758 -0.05225105471
668.125 -0.1116466019 -0.03738325855
668.75 -0.1390169049 -0.02992434151
669.375 -0.1030810755 -0.04054331428
670.0 -0.07484555315 -0.0412420458
670.625 -0.08736949638 -0.04371233289
671.25 -0.1125987323 -0.03492192053
671.875 -0.09207699052 -0.0143896105
672.5 -0.0824600711 0.00768796302
673.125 -0.09247632184 0.01889844975
673.75 -0.1199735887 0.01363215786
674.375 -0.117780626 0.006005954161
675.0 -0.1190698945 -0.02678418322
675.625 -0.1014135917 -0.08098369618
676.25 -0.05918113167 -0.1059845221
676.875 -0.05792846929 -0.1040881296
677.5 -0.07351158372 -0.1067879296
678.125 -0.03991783725 -0.1137174912
678.75 -0.007106852263 -0.06567317819
679.375 0.01129768983 -0.05700206635
680.0 0.01228623582 -0.08429935745
680.625 0.03369599238 -0.1174033448
681.25 0.01510365925 -0.09529143058
681.875 -0.01618002607 -0.09912145502
682.5 -0.08573062762 -0.1093353044
683.125 -0.1039371527 -0.1291680687
683.75 -0.06639492812 -0.1201511821
684.375 -0.006179609905 -0.1196699496
685.0 0.07997660441 -0.1145005782
685.625 0.1293918908 -0.03822376185
686.25 0.1191634769 0.006214082535
686.875 0.09056077238 0.03506757337
687.5 0.04850060716 0.06614215773
688.125 0.01225512604 0.07247359014
688.75 0.0007132453682 0.0906882605
689.375 -0.01160701994 0.1250956816
690.0 -0.0468422104 0.1186455786
690.625 -0.02734209463 0.1111770734
691.25 0.02687319897 0.1307647643
691.875 0.1359720505 0.1254138759
692.5 0.1593662783 0.0351437539
693.125 0.07473261038 -0.08195800029
693.75 0.01875087924 -0.09902046714
694.375 0.03391790183 -0.1263858784
695.0 0.1072553883 -0.07098166476
695.625 0.09547972058 0.01588061896
696.25 0.03798098431 0.08822985681
696.875 -0.07321513466 0.09216372928
697.5 -0.1257442466 0.01409155494
698.125 -0.1294670678 -0.01905424004
698.75 -0.1354552599 -0.01472348925
699.375 -0.1183594509 -0.02066593269
700.0 -0.09811646253 -0.02651695423
700.625 -0.09197274374 -0.05731035553
701.25 -0.08004153857 -0.08946257997
701.875 -0.04802923132 -0.05931381279
702.5 -0.05365461397 -0.03946967017
703.125 -0.1054410657 -0.01254563096
703.75 -0.1503747754 0.09373771603
704.375 -0.08096975517 0.1166744383
705.0 -0.03551135022 0.1081476118
705.625 -0.0696541868 0.09896834772
706.25 -0.1584430163 0.01718756193
706.875 -0.08362219026 -0.1000630268
707.5 -0.03343092837 -0.09365155796
708.125 0.01154696435 -0.0850445801
708.75 0.07266790926 -0.04451043229
709.375 0.07904602267 0.02903575761
710.0 0.04804155582 0.06520165532
710.625 0.02410661569 0.07408153309
711.25 -0.01167689839 0.07485474948
711.875 -0.01643814949 0.09150721954
712.5 0.02448930439 0.1273001849
713.125 0.1221032315 0.08859174671
713.75 0.120924888 -0.04490080522
714.375 0.04896619799 -0.11091627
715.0 0.006951737047 -0.1317312128
715.625 0.04609242704 -0.1109014806
716.25 0.05310716982 -0.04832816711
716.875 0.057254056 -0.01109471653
717.5 0.06920924199 0.04092965174
718.125 0.04604650832 0.08809238748
718.75 0.01544201537 0.07634425705
719.375 -0.002747598781 0.06386141105
720.0 -0.04828570532 0.05651194255
720.625 -0.09488307593 -0.01728052458
721.25 -0.03699311836 -0.09822812731
721.875 0.03308163714 -0.09873230325
722.5 0.04619664126 -0.09130628555
723.125 0.003889698107 -0.08276971579
723.75 -0.02823146801 -0.05475753043
724.375 -0.04267074114 -0.03450472249
725.0 -0.04631476623 -0.007251214331
725.625 -0.0353758582 0.002871198262
726.25 -0.04355165206 -0.003462257549
726.875 -0.06154133101 -0.02765269975
727.5 -0.06120726176 -0.04875266926
728.125 -0.04592001756 -0.05058431135
728.75 -0.04121691894 -0.03707897221
729.375 -0.03653276436 -0.02777070483
730.0 -0.03272895403 -0.02936233102
730.625 -0.02675255043 -0.02507277695
731.25 -0.01256575858 -0.02323175163
731.875 0.003370426426 -0.01809953686
732.5 0.006930765781 -0.0007769930958
733.125 0.001063975489 0.01630291171
733.75 0.0106118019 0.02500421086
734.375 0.02318914469 0.01850304875
735.0 0.02369543355 -0.001182612386
735.625 0.01745994696 -0.008969263596
736.25 0.008157627797 -0.01938090871
736.875 -0.01383596717 -0.02350787754
737.5 -0.03619132338 -0.01181589699
738.125 -0.0495392211 0.003855343908
738.75 -0.04450595677 0.01854269703
739.375 -0.02472611592 0.02013321436
740.0 -0.01688605698 0.004502326733
740.625 -0.03038915816 0.00368286349
741.25 -0.03476496239 0.01048588734
741.875 -0.03297880502 -0.009827865958
742.5 0.001011850967 -0.03375515365
743.125 0.03407709933 -0.008949453961
743.75 0.03255024387 0.01141480888
744.375 0.03188591668 0.01267996862
745.0 0.03013312237 0.01919255411
745.625 0.02947181487 0.02945460728
746.25 0.0539725631 0.02883337439
746.875 0.07213369505 -0.01869060304
747.5 0.04746170272 -0.05548152267
748.125 0.0135391532 -0.05993497648
748.75 -0.01668291863 -0.05356264258
749.375 -0.05396237028 -0.03437164197
750.0 -0.06743605277 0.03648015961
