!Created with skrf (http://scikit-rf.org).
# GHz S RI R 50.0 
!freq ReS11 ImS11
500.0 -0.003830098078 0.01710023392
500.625 0.02272298538 0.008020960793
501.25 0.02274891891 -0.01608353906
501.875 0.01656961376 -0.01954020766
502.5 0.01216127337 0.001716433105
503.125 0.0160957084 0.001863269269
503.75 0.01894848074 -0.01869017463
504.375 0.01491597973 -0.02940233205
505.0 0.008415598959 -0.03292101854
505.625 0.002813932475 -0.05141520195
506.25 -0.02569628706 -0.06415702585
506.875 0.001665447397 -0.09399707463
507.5 -0.02405042316 -0.07033565951
508.125 -0.003059929366 -0.08118066243
508.75 -0.05829305605 -0.08361814133
509.375 -0.05872254429 -0.05747599392
510.0 -0.03273465657 -0.05428645313
510.625 -0.05566723573 -0.004157496801
511.25 -0.07870792589 0.00330997491
511.875 -0.05609940445 0.04369309053
512.5 -0.006820283553 0.05307115864
513.125 0.06363019016 0.03992216074
513.75 0.07643990853 0.03858299773
514.375 0.0672984961 0.008249911702
515.0 0.0671720092 -0.02279859176
515.625 0.09919195961 0.03750225631
516.25 0.1109705394 0.01019129762
516.875 0.07528189578 0.09364084481
517.5 0.133486937 0.004715772412
518.125 0.1499630052 0.1912506807
518.75 0.114170893 -0.01692941256
519.375 0.08247369934 -0.003329012093
520.0 0.08616256858 -0.05560074937
520.625 0.1122369487 -0.06680789454
521.25 0.07462261409 -0.07842127673
521.875 0.06384341097 -0.03372314057
522.5 0.04596007878 -0.09694986542
523.125 0.1311009112 -0.2015844515
523.75 0.068701631 -0.269221731
524.375 0.06809608966 -0.2693683923
525.0 0.0289342938 -0.1250929543
525.625 0.02993405702 -0.0851839669
526.25 0.04172609831 -0.06171101867
526.875 0.01934216646 -0.07426036635
527.5 0.00203496538 -0.08835998207
528.125 -0.02765120849 -0.0609203558
528.75 -0.04737213009 -0.06184729321
529.375 -0.1219788469 -0.02421307198
530.0 -0.1006980129 0.03942825661
530.625 -0.02921027649 0.0549054038
531.25 -0.05082032885 0.04456706837
531.875 -0.1142228148 0.093363167
532.5 -0.1124741245 0.1232610429
533.125 -0.06647456056 0.09849321968
533.75 -0.02216145597 0.09878304135
534.375 -0.0338324022 0.1254630031
535.0 -0.03444321101 0.1241257778
535.625 -0.03937225371 0.08216700425
536.25 0.02517391319 0.07963060712
536.875 -0.008869516579 0.09295357766
537.5 -0.07011914468 0.06050337709
538.125 -0.04994231322 0.07405049892
538.75 -0.02465257398 0.1285863003
539.375 -0.05733978778 0.1162098735
540.0 -0.04634645817 0.09246098156
540.625 -0.04250288559 0.08513286199
541.25 -0.05975756216 0.1081507241
541.875 -0.07736981093 0.07554031647
542.5 -0.06214018615 0.0330341746
543.125 -0.05332956147 0.07242207883
543.75 0.004148878947 0.1400971821
544.375 0.03458510833 0.1402609272
545.0 0.09643723147 0.04667527134
545.625 0.1127225163 -0.02460298408
546.25 0.1231452144 -0.05655677703
546.875 0.1080793292 -0.05075849329
547.5 0.1160126244 -0.0493620186
548.125 0.1488828365 -0.04847269238
548.75 0.1640677203 0.01415869213
549.375 0.1456922706 0.02879766567
550.0 0.1400123091 0.06434697406
550.625 0.1409453216 0.08903251254
551.25 0.0579147317 0.09996279035
551.875 0.04910040903 0.04944314324
552.5 0.06227728603 0.04230448476
553.125 0.07439305722 0.06471970704
553.75 0.02523993623 0.05861039548
554.375 0.026963591 0.04464818163
555.0 0.05526316946 0.05478967916
555.625 0.0788348211 0.06923520699
556.25 0.03965206915 0.07836899607
556.875 0.03326586928 0.06672632017
557.5 0.04782255981 0.09328969449
558.125 0.03646538475 0.1215090036
558.75 -0.00124353696 0.1169808226
559.375 0.03297809216 0.1061266253
560.0 0.04686890058 0.1136726596
560.625 0.04513765112 0.07511122211
561.25 0.04300325418 0.04409281218
561.875 0.05155564243 0.04680203838
562.5 0.06416958782 0.05017177047
563.125 0.05915422153 0.04283401466
563.75 0.06889397898 0.02237207223
564.375 0.1101058556 0.0005136790947
565.0 0.1321479823 0.03981846717
565.625 0.1119236086 0.01605089183
566.25 0.09812419492 0.0169293776
566.875 0.1060021768 0.03734996806
567.5 0.07365600622 0.09092178904
568.125 0.0441401639 0.08816913378
568.75 0.05618898266 0.1032774495
569.375 0.0512162415 0.1085949239
570.0 0.04145044601 0.0905057115
570.625 0.0383946437 0.06116136
571.25 0.06042500439 0.06174787588
571.875 0.04664664023 0.05925602909
572.5 0.03510983727 0.03019362217
573.125 0.03932390555 0.0376810284
573.75 0.09002978329 0.03563177555
574.375 0.1076995328 0.02281479081
575.0 0.07618468072 0.0005414915246
575.625 0.06549677073 -0.01518136731
576.25 0.09864735801 -0.002046487856
576.875 0.09904325312 0.01120342024
577.5 0.08948949477 0.001607269631
578.125 0.09616765413 -0.01997583141
578.75 0.1243990335 -0.01565350348
579.375 0.1060378952 -0.0009187853495
580.0 0.09412699406 -0.01919690331
580.625 0.09542398062 -0.04322567915
581.25 0.08195873617 -0.04204130661
581.875 0.0515276195 -0.005724267463
582.5 0.0487461941 0.005962712989
583.125 0.08420210084 0.01656028219
583.75 0.08479880301 0.02726863035
584.375 0.06369572399 0.03019016348
585.0 0.05397547977 0.03879880476
585.625 0.07247807572 0.0568814751
586.25 0.06410231725 0.058212253
586.875 0.05636176773 0.03436818022
587.5 0.07213939255 0.02850679273
588.125 0.09559367163 0.01595935352
588.75 0.09630470326 0.007862634564
589.375 0.07468198843 -0.03998802943
590.0 0.05287447908 -0.07277342833
590.625 0.04225634315 -0.04794260307
591.25 0.03428283502 -0.01064679202
591.875 0.04508410466 -0.005178801612
592.5 0.0693412921 -0.03147460487
593.125 0.08628113123 -0.03135557455
593.75 0.07481566773 -0.0123373294
594.375 0.07678875059 0.002483621133
595.0 0.09062601344 0.02499277375
595.625 0.07743521646 0.04738535287
596.25 0.05135845884 0.04846300134
596.875 0.04192563633 0.05187479539
597.5 0.03694421999 0.06953430531
598.125 0.04240786012 0.06519471911
598.75 0.05872575483 0.04241340055
599.375 0.06075881787 0.0270272449
600.0 0.04487327735 0.01988850827
600.625 0.02109263754 0.01043857005
601.25 0.006650536751 0.01237196151
601.875 -0.001011036714 0.03004575911
602.5 -0.008636003283 0.03866025472
603.125 -0.01380076157 0.04047665545
603.75 -0.005992429328 0.0483392139
604.375 0.0003421835031 0.05341948901
605.0 -0.006112547697 0.03967267863
605.625 -0.01769295083 0.02301213888
606.25 -0.03442477559 0.0258845248
606.875 -0.04187575607 0.04106110976
607.5 -0.02354413648 0.05029522288
608.125 0.001874513056 0.04199950736
608.75 0.00573353248 0.03357042913
609.375 0.002732234961 0.03092172814
610.0 0.005618928791 0.02450832819
610.625 0.0120473589 0.01146643669
611.25 0.01088588491 -0.00206182205
611.875 0.006803317565 -0.0129270663
612.5 -0.0007275266362 -0.01968529412
613.125 -0.01178503602 -0.01589981163
613.75 -0.01288769118 -0.003026442168
614.375 -0.001579493684 0.003970970714
615.0 0.008561705697 -0.001868527569
615.625 0.004963000415 -0.007751872277
616.25 -0.0004306848142 0.0008200571052
616.875 0.009933857641 0.01181475196
617.5 0.02543709588 0.01079814505
618.125 0.02927944118 0.006670194362
618.75 0.02885958222 0.007571797636
619.375 0.039082098 0.0141498333
620.0 0.05722264206 0.01143925838
620.625 0.05840841751 -0.01522484465
621.25 0.04909505046 -0.0254356136
621.875 0.03552484535 -0.03183867921
622.5 -0.001950698846 -0.02490002571
623.125 -0.0009605105239 0.002451024488
623.75 0.01452572446 0.01752710231
624.375 0.02449439228 0.02970346906
625.0 0.01353974136 0.04265503662
625.625 0.0130313469 0.04925053494
626.25 0.03517418064 0.06201159357
626.875 0.05478257555 0.07528241976
627.5 0.04368885235 0.07529895567
628.125 0.03453792123 0.06615489324
628.75 0.03597353947 0.07448988931
629.375 0.02820281717 0.09055122247
630.0 0.01584181161 0.07724504553
630.625 0.01145302747 0.06165287919
631.25 0.003311218165 0.05806037922
631.875 -0.01783224414 0.05095792357
632.5 -0.02896268503 0.03658228352
633.125 -0.03450883775 0.03372941419
633.75 -0.04219078744 0.05128803493
634.375 -0.05480767737 0.04637373723
635.0 -0.05395417222 0.05052470891
635.625 -0.04708850954 0.07453112826
636.25 -0.04732871354 0.09212804462
636.875 -0.05026702161 0.06299652604
637.5 -0.04921720693 0.04914509084
638.125 -0.06971961875 0.07529510515
638.75 -0.08972952311 0.07891797003
639.375 -0.07928509241 0.041175258
640.0 -0.06055607132 0.01616586312
640.625 -0.07734241741 -0.007931718887
641.25 -0.07861958635 -0.04979767776
641.875 -0.05697124867 -0.04975969015
642.5 -0.05584540951 -0.04482792021
643.125 -0.06377175227 -0.06951315362
643.75 -0.04026104776 -0.1016125439
644.375 -0.03944188601 -0.08472738616
645.0 -0.07400721715 -0.06670672026
645.625 -0.08381559048 -0.07727518574
646.25 -0.05881816321 -0.07335261024
646.875 -0.03131897983 -0.07021059785
647.5 -0.05316742838 -0.07218316672
648.125 -0.05170715827 -0.08922750302
648.75 -0.01421147486 -0.07258818075
649.375 0.01218352741 -0.06086384034
650.0 0.04051927591 -0.07644921725
650.625 0.07565287673 -0.07066875659
651.25 0.08443820321 -0.04030903915
651.875 0.09635472308 -0.01790460401
652.5 0.1341533922 0.02490372893
653.125 0.1177432743 0.06533115169
653.75 0.1008567039 0.06075471095
654.375 0.1013330463 0.06259287506
655.0 0.07612346826 0.09420222282
655.625 0.0260584507 0.0772579423
656.25 0.03108944028 0.05507588121
656.875 0.06461515639 0.0603313782
657.5 0.04261305832 0.09278091574
658.125 0.0003294301467 0.08633484914
658.75 0.006639362182 0.08140376658
659.375 0.06700463009 0.1028722819
660.0 0.09888701605 0.1062194471
660.625 0.1021534786 0.0777907905
661.25 0.1154232983 0.03988292012
661.875 0.1416187491 0.007497894848
662.5 0.1349524837 -0.004171491402
663.125 0.1091186273 -0.001302211958
663.75 0.1048580398 0.03540473774
664.375 0.03497185958 0.104233363
665.0 -0.02609825839 0.08326287865
665.625 -0.04214757102 0.05942422861
666.25 -0.07997279984 0.06514937523
666.875 -0.1361873925 0.00235575544
667.5 -0.111188097 -0.02849182742
668.125 -0.1121481944 -0.006417866481
668.75 -0.1432255165 0.02686130442
669.375 -0.1437990464 -0.00539384536
670.0 -0.093978319 -0.02353177458
670.625 -0.09607456184 -0.01288891741
671.25 -0.1281948387 0.01486098367
671.875 -0.1175904181 0.02309470186
672.5 -0.08029887726 0.03941152374
673.125 -0.0758529367 0.05090376445
673.75 -0.1090769008 0.06185642997
674.375 -0.1201637053 0.03984282303
675.0 -0.1214434253 0.008687266313
675.625 -0.1328903769 -0.04207675123
676.25 -0.1012071587 -0.09464286582
676.875 -0.08154186541 -0.09738109465
677.5 -0.1055275052 -0.08304560918
678.125 -0.106416056 -0.1086141964
678.75 -0.03549441215 -0.08642951553
679.375 -0.008255855141 -0.06179664672
680.0 -0.02350864109 -0.07419715993
680.625 -0.03333405538 -0.1230697606
681.25 -0.01596307018 -0.1151357783
681.875 -0.03454839817 -0.09002051154
682.5 -0.1033462878 -0.07448135697
683.125 -0.1503470946 -0.08823244062
683.75 -0.107094025 -0.12064807
684.375 -0.03225178085 -0.1225026164
685.0 0.04460817443 -0.1381745727
685.625 0.1305389094 -0.08486974551
686.25 0.1350931415 -0.02408361344
686.875 0.1154468651 0.005480913722
687.5 0.08633180874 0.04865724772
688.125 0.04564818074 0.07234338735
688.75 0.02647230447 0.08151086808
689.375 0.03494114895 0.1136454544
690.0 -0.002483661568 0.1446937847
690.625 -0.005380448697 0.1251577834
691.25 0.05010116542 0.1175225659
691.875 0.1635183951 0.07664511859
692.5 0.2070542673 -0.0189149732
693.125 0.0770639568 -0.1062373976
693.75 -0.01014100056 -0.1054242045
694.375 -0.01886648256 -0.135421863
695.0 0.08408017942 -0.1365479649
695.625 0.1126206077 -0.007244623978
696.25 0.0629288894 0.07079909744
696.875 -0.0359444666 0.11323492
697.5 -0.1232590152 0.05573040233
698.125 -0.1369906962 0.01108509068
698.75 -0.1415755142 0.02224740206
699.375 -0.1363112696 0.01427288424
700.0 -0.1134467708 -0.008247624237
700.625 -0.1093777573 -0.03192430328
701.25 -0.1238338288 -0.06111382697
701.875 -0.08474611196 -0.05475987061
702.5 -0.06754350831 -0.02712689133
703.125 -0.09354002175 0.01641301345
703.75 -0.1061719753 0.137715229
704.375 -0.06675339627 0.1595787496
705.0 -0.02090504776 0.1203015525
705.625 -0.04289337549 0.1115670538
706.25 -0.1503192587 0.07206841106
706.875 -0.1297902836 -0.09986266822
707.5 -0.05200305304 -0.09671255363
708.125 -0.01423044503 -0.09582697983
708.75 0.05815020409 -0.08012508594
709.375 0.09962954699 0.005940850159
710.0 0.06576738589 0.0543943351
710.625 0.04984438959 0.06625940328
711.25 0.01574177929 0.08124876929
711.875 0.004209235404 0.09405188278
712.5 0.049828496 0.1155187671
713.125 0.1484444081 0.06086064976
713.75 0.1280993805 -0.07489145333
714.375 0.0353431809 -0.1246974935
715.0 -0.02619794768 -0.1366959151
715.625 0.014476465 -0.1449351497
716.25 0.05713085404 -0.07463841118
716.875 0.05982908194 -0.02653707202
717.5 0.08101735751 0.01708957766
718.125 0.08109192367 0.07494092149
718.75 0.03645284207 0.08335101441
719.375 0.0117848734 0.06576929931
720.0 -0.0300401196 0.06822354861
720.625 -0.101060943 0.008939248374
721.25 -0.05690638445 -0.09847841276
721.875 0.0188524807 -0.1083585715
722.5 0.033727856 -0.1091439917
723.125 -0.008784815189 -0.1005375486
723.75 -0.04495826349 -0.05958364474
724.375 -0.05825052636 -0.02499748108
725.0 -0.05490248998 0.008678911553
725.625 -0.03902393712 0.01625923336
726.25 -0.04307934909 0.008079760674
726.875 -0.06584273843 -0.01281358706
727.5 -0.07511628972 -0.03850475877
728.125 -0.0591803188 -0.04928020709
728.75 -0.05237701601 -0.03382735374
729.375 -0.04841226362 -0.02098109144
730.0 -0.04447126136 -0.0250413432
730.625 -0.03507193223 -0.02522036714
731.25 -0.01911636042 -0.0257927524
731.875 0.0002596757664 -0.02500507173
732.5 0.01063664878 -0.007019272264
733.125 0.006736146312 0.01380054004
733.75 0.01593419165 0.02256408387
734.375 0.02841999448 0.01568540589
735.0 0.02738412555 -0.005023376678
735.625 0.01988282767 -0.01247136878
736.25 0.009906833287 -0.02231316471
736.875 -0.0116144394 -0.02541696089
737.5 -0.03330680234 -0.01234500304
738.125 -0.04650328503 0.00549979205
738.75 -0.04259321657 0.0216550611
739.375 -0.02332154344 0.02420806614
740.0 -0.01494703135 0.009469643739
740.625 -0.02818870083 0.008917461472
741.25 -0.03345223016 0.01549827835
741.875 -0.03494673379 -0.004342549202
742.5 -0.006557531526 -0.03457682078
743.125 0.03410372932 -0.01655431176
743.75 0.03583764232 0.006413304355
744.375 0.03534682933 0.006054731114
745.0 0.03607920907 0.01001442834
745.625 0.03575550656 0.02083031613
746.25 0.05490753476 0.0217761015
746.875 0.06740719383 -0.02562043835
747.5 0.04019149014 -0.06250521105
748.125 0.008271955773 -0.06598034105
748.75 -0.02290969797 -0.05412083801
749.375 -0.06063784433 -0.02743776772
750.0 -0.06650690331 0.04878015406
