!Created with skrf (http://scikit-rf.org).
# GHz S RI R 50.0 
!freq ReS11 ImS11
500.0 -0.012682983 0.0288420066
500.625 0.02857145693 0.03137533249
501.25 0.03988309575 0.01907207881
501.875 0.03430914865 0.02693635369
502.5 0.02283475922 0.03938041143
503.125 0.0406685313 0.02627196202
503.75 0.05484528336 0.00290452941
504.375 0.05236520321 -0.01358292871
505.0 0.04301435552 -0.03948075803
505.625 0.04811901401 -0.06791256707
506.25 0.03192772625 -0.0803076574
506.875 0.06799420611 -0.07128920576
507.5 0.03680747351 -0.0770537751
508.125 0.0813048001 -0.06916973676
508.75 0.03478310777 -0.09816277117
509.375 0.01233221963 -0.07913270509
510.0 0.03929905868 -0.07784137519
510.625 -0.04938749656 -0.0696371259
511.25 -0.0621896449 -0.05396138294
511.875 -0.06662946599 0.00194376839
512.5 -0.04388899263 0.03494948696
513.125 -0.005069653192 0.06972473825
513.75 0.005333209003 0.07325149241
514.375 0.03234015021 0.06602223012
515.0 0.07841085788 0.06495096812
515.625 0.0161516006 0.1389781762
516.25 0.0838370748 0.09808285413
516.875 0.01443356951 0.150320418
517.5 0.1223625327 0.1088856141
518.125 -0.02446140124 0.2138745183
518.75 0.07202500261 0.05441424837
519.375 0.07088619682 0.06610288379
520.0 0.1185941923 0.04291997128
520.625 0.1111308547 0.02845037058
521.25 0.0970960977 -0.006309892457
521.875 0.08079056324 0.01772783932
522.5 0.1129069853 -0.03611979838
523.125 0.1773871974 -0.06895649131
523.75 0.1577414032 -0.1551447451
524.375 0.1755683082 -0.1205050888
525.0 0.0668667851 -0.02754388162
525.625 0.04519632849 -0.004543544766
526.25 0.05762521742 0.007072819914
526.875 0.07031216782 -0.008278410018
527.5 0.0568265928 -0.01726089638
528.125 0.0362921161 -0.04169575473
528.75 0.03033618448 -0.0744389247
529.375 -0.02331872508 -0.1063557804
530.0 -0.03417243025 -0.04987279855
530.625 -0.04501977968 -0.02921760262
531.25 -0.1126419478 -0.09114210972
531.875 -0.1726335048 -0.09868459934
532.5 -0.1595243814 -0.02098773384
533.125 -0.1135437327 0.01648851115
533.75 -0.1289113358 0.04707382018
534.375 -0.1287392827 0.01830906501
535.0 -0.09638656821 0.04237897144
535.625 -0.07371316805 0.01834455858
536.25 -0.06137219048 0.04250944926
536.875 -0.09360772809 -0.00491636788
537.5 -0.09944326254 -0.03449552936
538.125 -0.109395454 0.01697298778
538.75 -0.1200144037 0.03570578954
539.375 -0.09696038932 0.004068178398
540.0 -0.09823677625 -0.008289715729
540.625 -0.1296841511 -0.00319762982
541.25 -0.1372768997 -0.03489784484
541.875 -0.0984561042 -0.0344463197
542.5 -0.09766013878 -0.0331411897
543.125 -0.1394773833 0.01681183546
543.75 -0.1142498318 0.1009827183
544.375 -0.05801943622 0.1040603222
545.0 0.04126924326 0.09158579224
545.625 0.07887856451 0.09342104419
546.25 0.09373981969 0.06479595326
546.875 0.09486707698 0.04703563751
547.5 0.1130270891 0.05396647567
548.125 0.1168726129 0.101353349
548.75 0.06679232846 0.1015717895
549.375 0.07289317075 0.1002628062
550.0 0.03156205768 0.1298834214
550.625 0.0001351992265 0.09429895943
551.25 -0.0286820813 0.03751449731
551.875 -0.02786854406 0.03391929348
552.5 -0.05135087693 0.06582596293
553.125 -0.06481342856 0.05492796894
553.75 -0.05960451346 0.04010904971
554.375 -0.04729924376 0.06975590394
555.0 -0.04199586362 0.1069277993
555.625 -0.0415406373 0.1017614612
556.25 -0.04548614339 0.07735914116
556.875 -0.05143541474 0.09867350918
557.5 -0.06355782301 0.1101616334
558.125 -0.06721432405 0.1048814975
558.75 -0.06954819765 0.07455470657
559.375 -0.05470220301 0.09015257164
560.0 -0.04747254443 0.05872669684
560.625 -0.0309845549 0.03960163224
561.25 -0.03873426483 0.04105606558
561.875 -0.05080976168 0.06597939695
562.5 -0.04090898343 0.07975110733
563.125 -0.006611584095 0.08706825263
563.75 0.04032258805 0.1002012222
564.375 0.06080090507 0.1206248363
565.0 0.04927269379 0.1112166947
565.625 0.06052351612 0.08129105334
566.25 0.04628834718 0.09093746402
566.875 -0.002615845415 0.1107902981
567.5 -0.03286238142 0.0828982086
568.125 -0.03588027367 0.09066717519
568.75 -0.04758997452 0.09526045741
569.375 -0.04562277731 0.06589222138
570.0 -0.03793276542 0.0346745125
570.625 -0.03782954579 0.0441873251
571.25 -0.05522950654 0.05024989567
571.875 -0.04331870918 0.03338217692
572.5 -0.04300603987 0.04685968631
573.125 -0.03573277946 0.09449811442
573.75 0.006434411168 0.1304340545
574.375 0.03162783813 0.08926291048
575.0 0.04016792982 0.06699570676
575.625 0.05139975697 0.0882743208
576.25 0.04005749385 0.1040965331
576.875 0.05124441773 0.08361940899
577.5 0.06905827319 0.06331206942
578.125 0.07938637591 0.07652737208
578.75 0.04941822947 0.07791924727
579.375 0.05268376774 0.05672568274
580.0 0.06230446701 0.04674809671
580.625 0.05255316002 0.04786308492
581.25 0.01450269155 0.04486562193
581.875 -0.001262485486 0.04955365908
582.5 0.01254902405 0.08093007594
583.125 0.008111656683 0.09991103163
583.75 0.005217318638 0.0834561037
584.375 -0.004927125022 0.07276127919
585.0 -0.01958987325 0.09040247462
585.625 -0.03024700164 0.09357919137
586.25 -0.01219772004 0.07507511271
586.875 -0.004268581047 0.07059704255
587.5 -0.005350208399 0.08853597148
588.125 0.02642659696 0.08434609586
588.75 0.04536281861 0.05979129629
589.375 0.06216018727 0.03102762856
590.0 0.0454377437 0.03651665315
590.625 0.02221341197 0.04330741852
591.25 0.02846150721 0.05582219797
591.875 0.05992054324 0.06310252058
592.5 0.08267089421 0.06492004785
593.125 0.06667104628 0.05304745578
593.75 0.06176668358 0.0487464776
594.375 0.05502791733 0.0740603403
595.0 0.02557991287 0.08430836392
595.625 0.001567595209 0.0650868074
596.25 -0.009441517043 0.05319022925
596.875 -0.02980976597 0.05696197962
597.5 -0.03699592449 0.05153643267
598.125 -0.02109610388 0.0505582184
598.75 -0.002219228079 0.04357638705
599.375 -0.004428323502 0.02834927203
600.0 -0.01490703196 0.007357107745
600.625 -0.02929780516 -0.00237293891
601.25 -0.05036811443 0.005152463446
601.875 -0.05969492297 0.01573711074
602.5 -0.05453080439 0.02265184163
603.125 -0.05353607382 0.02818245358
603.75 -0.05171541109 0.03586238126
604.375 -0.04162348407 0.02599853646
605.0 -0.03212309752 0.009071143691
605.625 -0.03971181805 -0.002942194068
606.25 -0.05527202018 -0.005574675579
606.875 -0.05385806393 0.005307821978
607.5 -0.03245323213 0.02108256838
608.125 -0.01289238954 0.02046298702
608.75 -0.009676917228 0.01280302425
609.375 -0.005546660915 0.009023182433
610.0 0.003998807508 0.004986775996
610.625 0.01123131473 -0.004896123172
611.25 0.01243633428 -0.01576084476
611.875 0.0115265149 -0.02228616031
612.5 0.004440718379 -0.02493722245
613.125 -0.00779433487 -0.01802828137
613.75 -0.01048887828 -0.002129179457
614.375 -0.00123154805 0.007680825914
615.0 0.007146254255 0.004696475079
615.625 0.001196663245 0.001362269018
616.25 -0.005220499904 0.0125262483
616.875 0.003472701225 0.02737465854
617.5 0.01455181814 0.02876234315
618.125 0.01468345386 0.02385365007
618.75 0.0136754235 0.02671040688
619.375 0.01774805048 0.03652893604
620.0 0.02814274153 0.03366434073
620.625 0.03318455088 0.008477679675
621.25 0.02192305417 -0.00243356117
621.875 -0.0008437779859 -0.00834689999
622.5 -0.02443584259 0.01549895244
623.125 -0.01974052297 0.04450383993
623.75 -0.009989509013 0.06206456144
624.375 -0.02171831325 0.06311672994
625.0 -0.04030938814 0.05098440605
625.625 -0.03972756838 0.06569071299
626.25 -0.02828124019 0.08993130095
626.875 -0.01733609694 0.08501894232
627.5 -0.01678346903 0.06617545192
628.125 -0.02549554387 0.05855897077
628.75 -0.04521474667 0.05559865691
629.375 -0.04059077128 0.03852865835
630.0 -0.02736604197 0.02765318531
630.625 -0.03129046975 0.01105572192
631.25 -0.04136592186 -0.01662204247
631.875 -0.04133541735 -0.03638826289
632.5 -0.04812201851 -0.03417750096
633.125 -0.06561194119 -0.04117697982
633.75 -0.07575911137 -0.04081679354
634.375 -0.07320808704 -0.04277163773
635.0 -0.08539852823 -0.02727323263
635.625 -0.102809058 -0.005596132056
636.25 -0.08394687735 -0.01030439166
636.875 -0.06568320398 -0.02367612925
637.5 -0.08424011268 -0.03166849742
638.125 -0.1037241599 -0.03292659686
638.75 -0.07708009776 -0.0229080544
639.375 -0.04261898265 -0.02848695613
640.0 -0.01589783186 -0.05856574742
640.625 0.02130327826 -0.08830957706
641.25 0.02278822013 -0.07469827062
641.875 0.01612486737 -0.0697789457
642.5 0.03226443079 -0.08128435846
643.125 0.07549412131 -0.07179039452
643.75 0.07137734276 -0.05463220887
644.375 0.04256624093 -0.07636656523
645.0 0.03828526621 -0.08943441003
645.625 0.05373725326 -0.06211235738
646.25 0.05859158216 -0.04295235179
646.875 0.06105959027 -0.05514775222
647.5 0.07155948363 -0.07511787748
648.125 0.06434955634 -0.04822370314
648.75 0.07237414322 -0.01591315873
649.375 0.09473712427 0.001495642054
650.0 0.1149459436 0.02460428385
650.625 0.09675710958 0.0389901578
651.25 0.08688915474 0.05257438056
651.875 0.07124880372 0.09885467794
652.5 0.02164428779 0.1140679704
653.125 0.01318282672 0.09547337002
653.75 0.008806855027 0.08794997295
654.375 -0.03656124539 0.08021535921
655.0 -0.06355183181 0.02265000431
655.625 -0.05932417928 0.01541602133
656.25 -0.06937189437 0.04556313102
656.875 -0.08887586671 0.07629584374
657.5 -0.1012484099 0.03808161997
658.125 -0.09700677975 0.03156060669
658.75 -0.1025280791 0.08389998178
659.375 -0.08952128294 0.1220451662
660.0 -0.04212093661 0.1194734292
660.625 -0.007946232164 0.1088874418
661.25 0.01259977197 0.1192590411
661.875 0.01940594467 0.1092867072
662.5 0.03271598611 0.08094138961
663.125 0.02193811772 0.07979979807
663.75 -0.04513129132 0.08730607802
664.375 -0.0887244899 0.02361384895
665.0 -0.08486161074 -0.01621899894
665.625 -0.09760631363 -0.04312114395
666.25 -0.08760037066 -0.1125415001
666.875 -0.0394590326 -0.1188070939
667.5 -0.04160539843 -0.1116420302
668.125 -0.06569721307 -0.1221275619
668.75 -0.04376952309 -0.1245583716
669.375 -0.01418592698 -0.08737068427
670.0 -0.01008710978 -0.07897265746
670.625 -0.01305841854 -0.1120249102
671.25 -0.01677197172 -0.109973678
671.875 -0.02163959667 -0.08881251101
672.5 -0.05252228412 -0.07775102977
673.125 -0.09579948359 -0.09031757282
673.75 -0.09981435451 -0.09069132298
674.375 -0.08764459218 -0.08977683348
675.0 -0.05308864797 -0.1188615761
675.625 0.003429592957 -0.1262235837
676.25 0.03552800723 -0.1026882994
676.875 0.0354568177 -0.1004800972
677.5 0.05810686157 -0.1031979023
678.125 0.06767802578 -0.0420347216
678.75 0.06460481039 -0.01502373523
679.375 0.08274657567 -0.01571232806
680.0 0.1312879183 -0.03850332737
680.625 0.1298331405 -0.02215873764
681.25 0.09646665871 -0.05847670928
681.875 0.069879327 -0.1130104787
682.5 0.0330628004 -0.1737600789
683.125 0.03880169432 -0.147458512
683.75 0.04306308875 -0.1041584295
684.375 0.08700086493 -0.08167091183
685.0 0.1300784152 0.005532042349
685.625 0.0831776983 0.07130607632
686.25 0.02772975395 0.08161040152
686.875 -0.0169491612 0.08255535064
687.5 -0.06998292341 0.06541320478
688.125 -0.08853391894 0.06229631806
688.75 -0.1152034648 0.0771745156
689.375 -0.1485009351 0.06203016035
690.0 -0.1250962711 0.04108293474
690.625 -0.1103499282 0.06324669708
691.25 -0.09036965258 0.1341773227
691.875 -0.04899947711 0.1714931417
692.5 0.04355273827 0.09437207209
693.125 0.07710048826 0.02083232392
693.75 0.1101458158 -0.01546297579
694.375 0.1546311122 0.0120787114
695.0 0.09727107802 0.07264951326
695.625 0.03356540269 0.1018281574
696.25 -0.08333956488 0.1046953891
696.875 -0.152670222 -0.02245226247
697.5 -0.09299987091 -0.1116761791
698.125 -0.0703260634 -0.116412822
698.75 -0.0636302193 -0.1120048967
699.375 -0.03926479313 -0.09482243807
700.0 -0.01745784164 -0.09692061451
700.625 0.02295178833 -0.1115389816
701.25 0.05640268157 -0.07758749868
701.875 0.04966878744 -0.06478111059
702.5 0.01824350314 -0.1071014324
703.125 -0.08294400541 -0.1594131138
703.75 -0.1525316632 -0.08909560306
704.375 -0.1225694348 0.0222304965
705.0 -0.1017219362 0.0428432683
705.625 -0.1484537126 -0.0157145791
706.25 -0.05866059045 -0.1271832743
706.875 0.02837171765 -0.08580578153
707.5 0.05062127566 -0.05418742025
708.125 0.08967533891 0.006930517438
708.75 0.06003135488 0.08723398056
709.375 -0.006307586983 0.09833897605
710.0 -0.04383089904 0.08426924048
710.625 -0.07784805522 0.06382600878
711.25 -0.104185468 0.03884999366
711.875 -0.1183522775 0.06026789535
712.5 -0.0954501068 0.1152351739
713.125 0.01462749127 0.1304863832
713.75 0.09619261694 0.04775469668
714.375 0.1074437595 -0.01433991492
715.0 0.1127747205 -0.01777912611
715.625 0.07515941472 0.01881545782
716.25 0.0452225735 0.04162745961
716.875 0.02843534065 0.07846048862
717.5 -0.04221900128 0.1141582266
718.125 -0.07552398168 0.07560156139
718.75 -0.06464794672 0.05454333544
719.375 -0.07801173922 0.04225979832
720.0 -0.1067369739 -0.02266387735
720.625 -0.0437895032 -0.1011640728
721.25 0.04467982662 -0.08600264371
721.875 0.08397352351 -0.03373156668
722.5 0.07176111802 -0.001502217508
723.125 0.05311465784 -0.0007908518158
723.75 0.0564257712 -0.01446265818
724.375 0.0416007086 -0.05511426608
725.0 -0.0001102754204 -0.05992810521
725.625 -0.02330500223 -0.05545666383
726.25 -0.03544521441 -0.0669125968
726.875 -0.02183753128 -0.08411192894
727.5 -0.005513242452 -0.07421723838
728.125 0.008593507636 -0.0578772968
728.75 0.01797051269 -0.04571407236
729.375 0.0216852764 -0.04256506022
730.0 0.0123369853 -0.04028804399
730.625 0.008607427276 -0.02750251165
731.25 0.01822903288 -0.01113918292
731.875 0.01583200248 0.01077935267
732.5 -0.003423817165 0.02352833801
733.125 -0.01620685352 0.02992662743
733.75 -0.004557810316 0.03725557046
734.375 0.01147919136 0.02984735665
735.0 0.01949012033 0.009425928555
735.625 0.01676572194 -0.002965197015
736.25 0.007531023219 -0.01834634858
736.875 -0.01549802817 -0.02675618881
737.5 -0.0367451865 -0.01954025508
738.125 -0.04474518365 -0.007854288153
738.75 -0.03281950332 0.005150722645
739.375 -0.006651550137 0.004055330539
740.0 0.003511889445 -0.01893256437
740.625 -0.01506854905 -0.02547408251
741.25 -0.01875814262 -0.01937525205
741.875 0.003659442035 -0.02362419272
742.5 0.02827983125 0.003343463651
743.125 0.008041745756 0.03052589016
743.75 -0.0105180566 0.03312127823
744.375 -0.02094928391 0.03903815646
745.0 -0.03506036947 0.04828924924
745.625 -0.02515013875 0.071239465
746.25 0.0246248155 0.08061499077
746.875 0.07224273093 0.04377437646
747.5 0.06211768083 0.002294926638
748.125 0.04111901419 -0.0117378891
748.75 0.03433101768 -0.02198746428
749.375 0.01722583041 -0.05004723128
750.0 -0.03926903485 -0.04006400604
