!Created with skrf (http://scikit-rf.org).
# GHz S RI R 50.0 
!freq ReS11 ImS11
500.0 -0.03512125326 0.0224189386
500.625 -0.0003328708964 0.04853466225
501.25 0.002716181776 0.04549499376
501.875 -0.009371325671 0.06565032657
502.5 -0.02078405421 0.07816138516
503.125 0.0129731434 0.06976211745
503.75 0.0376482367 0.04923068552
504.375 0.05329444884 0.032235886
505.0 0.07368462869 0.003540659793
505.625 0.08639341682 -0.0088816069
506.25 0.06365345353 -0.02140883124
506.875 0.07420858038 0.01172962751
507.5 0.07985255272 0.007358138007
508.125 0.07208587108 0.04065269959
508.75 0.07839201197 -0.007684756145
509.375 0.0777824164 -0.008355937976
510.0 0.1051354225 0.02033733725
510.625 0.03341371046 -0.06804506098
511.25 0.0004507709711 -0.06562365091
511.875 -0.02621353272 -0.04399161934
512.5 -0.02382517773 -0.02575279375
513.125 -0.04425400087 -9.144272466e-05
513.75 -0.06415752205 0.01734464091
514.375 -0.06824599715 0.05641830238
515.0 -0.05169816992 0.09047387763
515.625 -0.09953240785 0.06755740019
516.25 -0.02516258323 0.1224450688
516.875 -0.1058431886 0.08208699914
517.5 -0.01853919385 0.09867427054
518.125 -0.09412983724 0.03809177318
518.75 -0.0267655936 0.05653241424
519.375 -0.05506877403 0.06812883341
520.0 0.006181341172 0.08013208401
520.625 0.01558385741 0.06786768741
521.25 0.0245340859 0.06297846178
521.875 -0.004319012119 0.0571505677
522.5 0.04684546631 0.0350330104
523.125 0.07254950583 0.04167762677
523.75 0.04922143634 0.03060267199
524.375 -0.03071734064 0.03311669153
525.0 -0.02967991236 0.02387549726
525.625 -0.02852446969 0.05111028328
526.25 -0.04007016798 0.06576271247
526.875 -0.01774014622 0.05286346781
527.5 0.007748810282 0.05564730933
528.125 0.05157614145 0.04660234329
528.75 0.06789154632 0.04444220537
529.375 0.07212055235 0.01155414888
530.0 0.06822666879 -0.01933751289
530.625 0.06057625602 -0.1223795419
531.25 0.1026553793 -0.1716243004
531.875 0.01993670264 -0.1735017413
532.5 -0.03831404727 -0.1172201941
533.125 -0.03244905292 -0.1166828417
533.75 -0.02639952917 -0.09941896373
534.375 -0.03953011803 -0.08196897464
535.0 -0.03775566327 -0.05990488856
535.625 0.007271371834 -0.06561557399
536.25 -0.008716161348 -0.06754049751
536.875 -0.01575809269 -0.1007917826
537.5 -0.006699870333 -0.1214754709
538.125 -0.02746669005 -0.09113860839
538.75 -0.02871495658 -0.06257173323
539.375 0.001118495803 -0.08304737873
540.0 0.003025635563 -0.1406215838
540.625 0.009522712794 -0.1442215951
541.25 0.00419817525 -0.1075809352
541.875 -0.006474376487 -0.1163756885
542.5 -0.009652807424 -0.1298884891
543.125 -0.05953371706 -0.1001759376
543.75 -0.08055080212 -0.02398466017
544.375 -0.06545079563 -0.002057819266
545.0 -0.06158974634 0.01095525791
545.625 -0.05443811991 0.04290557651
546.25 -0.04110288827 0.06534782923
546.875 -0.02807566022 0.07191201852
547.5 -0.04801161167 0.07008252374
548.125 -0.03966376849 0.06311824063
548.75 -0.05808223877 0.04421117188
549.375 -0.07409193311 0.02317929522
550.0 -0.04588244212 -0.02787945914
550.625 -0.0274842576 -0.04251538431
551.25 -0.007800993402 -0.07805759226
551.875 -0.04306138753 -0.1033421104
552.5 -0.05261821849 -0.09002577748
553.125 -0.07604197829 -0.06238001329
553.75 -0.08405755952 -0.06452296788
554.375 -0.1058295203 -0.0423420507
555.0 -0.09880128619 -0.02313932106
555.625 -0.0877390142 -0.004929572446
556.25 -0.09606322687 -0.02338902013
556.875 -0.09388237949 -0.02472631137
557.5 -0.09118683363 -0.01289448079
558.125 -0.07177096945 -0.01290385837
558.75 -0.04714182527 -0.0365699549
559.375 -0.02018680454 -0.02652353831
560.0 -0.01396029883 -0.04234526887
560.625 -0.01793265134 -0.07171844826
561.25 -0.05110024475 -0.08272264391
561.875 -0.06991053116 -0.05343354095
562.5 -0.0904719075 -0.009965306814
563.125 -0.1045692179 0.02481044678
563.75 -0.09220893118 0.04882676017
564.375 -0.05297142539 0.06333617725
565.0 -0.0499788443 0.05326778474
565.625 -0.05532488535 0.04088925249
566.25 -0.06875794223 0.001420872491
566.875 -0.06274738652 -0.01130155497
567.5 -0.06531459857 -0.01965743846
568.125 -0.05492083181 -0.03079367936
568.75 -0.03543336265 -0.03268066681
569.375 -0.006981048084 -0.04595693261
570.0 -0.007780022781 -0.06566126159
570.625 -0.01323834658 -0.07986480262
571.25 -0.03526431641 -0.06389264633
571.875 -0.04921902261 -0.07329308788
572.5 -0.09657846189 -0.05428642364
573.125 -0.1126526222 -0.02377924383
573.75 -0.08079856292 0.03975163594
574.375 -0.06856457936 0.04158093638
575.0 -0.08836156119 0.03512058306
575.625 -0.07885124266 0.03621396516
576.25 -0.05823245087 0.05461896155
576.875 -0.04219078639 0.06346144318
577.5 -0.04511206451 0.05385648171
578.125 -0.03678507118 0.0259697517
578.75 -0.03389131224 0.02300436623
579.375 -0.0393414797 0.02132846037
580.0 -0.045261783 0.005878737946
580.625 -0.05423499856 -0.01703304787
581.25 -0.07515159656 -0.01093045566
581.875 -0.09869179099 0.008501605485
582.5 -0.09094929733 0.01543497529
583.125 -0.08491553759 0.01808997635
583.75 -0.07369834281 0.003446467739
584.375 -0.08448302792 -0.01291443809
585.0 -0.07144086484 -0.01774528726
585.625 -0.07006668631 -0.004262565025
586.25 -0.05994904975 -0.0163352856
586.875 -0.06087352754 -0.02453309838
587.5 -0.05730800115 -0.004636393877
588.125 -0.04708722096 0.0277906573
588.75 -0.04562200674 0.0203200778
589.375 -0.05403096454 -0.0008473188771
590.0 -0.06112694808 0.008973216359
590.625 -0.06705087074 0.04750074854
591.25 -0.06386129805 0.07732154931
591.875 -0.05266505991 0.0762085741
592.5 -0.02186832419 0.06305171609
593.125 -0.01770879241 0.05481210746
593.75 -0.03160698552 0.05050955238
594.375 -0.03983109841 0.03065187212
595.0 -0.03300917789 0.006310997589
595.625 -0.02785302773 -0.0119327134
596.25 -0.02745202941 -0.03048852821
596.875 -0.02536457353 -0.03048497747
597.5 -0.02012102474 -0.03106168882
598.125 -0.01071139629 -0.02836285036
598.75 -0.004141776841 -0.03520056317
599.375 -0.003910578481 -0.04430754833
600.0 -0.01027960144 -0.06137993029
600.625 -0.01567261906 -0.07458263926
601.25 -0.0305314219 -0.06653451759
601.875 -0.04403295797 -0.04530599308
602.5 -0.0462988865 -0.03390235253
603.125 -0.03888842279 -0.03138061172
603.75 -0.02538271132 -0.01906041562
604.375 -0.01155870918 -0.01514310628
605.0 -0.003010002983 -0.02614383732
605.625 -0.005290531208 -0.03495697432
606.25 -0.01375850286 -0.02661756843
606.875 -0.0151614205 -0.006199047937
607.5 -8.870693908e-05 0.007520621003
608.125 0.01455203325 0.001436471885
608.75 0.01585771639 -0.003663295172
609.375 0.01933163743 0.0003549589246
610.0 0.02700115625 0.003079469941
610.625 0.03081226937 -0.004598073806
611.25 0.0277724688 -0.01288100142
611.875 0.02162402926 -0.01623302122
612.5 0.009603465159 -0.01853055288
613.125 -0.006696471233 -0.01325662658
613.75 -0.01313414218 0.0004127247063
614.375 -0.007406904054 0.007517359529
615.0 -0.002291436069 0.002574973782
615.625 -0.01168125089 -0.003242805362
616.25 -0.0220797685 0.00593610882
616.875 -0.01709196195 0.01732818759
617.5 -0.007409333763 0.01500875927
618.125 -0.008687699976 0.006781095504
618.75 -0.01300911837 0.005770992919
619.375 -0.008491059309 0.006978283602
620.0 0.003063728187 -0.0009930681415
620.625 0.001736170029 -0.02155952586
621.25 -0.007460541594 -0.04039948525
621.875 -0.02655132158 -0.05443601494
622.5 -0.0741919077 -0.01117108404
623.125 -0.07548154255 0.019593001
623.75 -0.06348998066 0.02472139511
624.375 -0.05888867019 0.008966837655
625.0 -0.0578130083 -0.01740726855
625.625 -0.05837512793 -0.01283290011
626.25 -0.04450026403 0.009038841657
626.875 -0.02707774523 0.008939316461
627.5 -0.01581517572 -0.01421345415
628.125 -0.003174263852 -0.03333447223
628.75 0.002159322202 -0.02919913262
629.375 0.009651616713 -0.02779377303
630.0 0.02806290948 -0.03813157863
630.625 0.05235699087 -0.04330125658
631.25 0.05810092547 -0.04922885486
631.875 0.05157326724 -0.06001152942
632.5 0.04518553038 -0.0705163207
633.125 0.04428644113 -0.06381512066
633.75 0.03665674915 -0.0677465533
634.375 0.03752276028 -0.06491917485
635.0 0.02678414212 -0.06601401122
635.625 0.007601671732 -0.05014659305
636.25 0.02288220583 -0.04726820503
636.875 0.05035461323 -0.05211181055
637.5 0.04245680223 -0.05667210181
638.125 0.01422049503 -0.04351242269
638.75 0.02901846105 -0.02130897454
639.375 0.06993655411 0.01163173374
640.0 0.07009538046 0.0423863474
640.625 0.06889362874 0.02660594814
641.25 0.06816340757 0.02365303892
641.875 0.0619908125 0.04606347782
642.5 0.03682216178 0.05900931845
643.125 0.03463854259 0.05956097217
643.75 0.03825276861 0.06051054649
644.375 0.03025412389 0.0598826634
645.0 0.02038793474 0.05586950676
645.625 0.01461552629 0.07371190042
646.25 0.03430933862 0.08736214023
646.875 0.02933100733 0.08644928946
647.5 0.0361265686 0.06476363758
648.125 0.0191010664 0.07902142455
648.75 -0.002983163906 0.1025523509
649.375 -0.01715575368 0.09207119274
650.0 -0.007743517172 0.08129169204
650.625 -0.02847317104 0.06872514192
651.25 -0.05830315534 0.0454088113
651.875 -0.05336807963 0.013608267
652.5 -0.04796591731 0.0009270734611
653.125 -0.03910251051 -0.02889537267
653.75 -0.01009774773 -0.0659224641
654.375 0.01181029357 -0.07749253152
655.0 0.01141497959 -0.09502787009
655.625 -0.00329632535 -0.1157443636
656.25 -0.01172030133 -0.1071324569
656.875 -0.04654757635 -0.09492176157
657.5 -0.03603899071 -0.1022279866
658.125 -0.04016984646 -0.1172455788
658.75 -0.04906873577 -0.0770833678
659.375 -0.06535500825 -0.04173432118
660.0 -0.05299706843 -0.03672797812
660.625 -0.0481254083 -0.05274939997
661.25 -0.04137353 -0.04147086962
661.875 -0.05937707274 -0.03495897511
662.5 -0.080323003 -0.03966406707
663.125 -0.07370187815 -0.07010201626
663.75 -0.04602837647 -0.08314736147
664.375 0.000107930183 -0.1108207865
665.0 0.0559976333 -0.1115179204
665.625 0.08447661622 -0.06868708482
666.25 0.08007442615 -0.05576570307
666.875 0.09244136015 -0.03453691241
667.5 0.09481577335 7.281601763e-05
668.125 0.06106216907 0.01433747872
668.75 0.05827008581 0.02234133923
669.375 0.07583174685 0.0326693682
670.0 0.08497837208 0.05519569313
670.625 0.06821214039 0.04199696754
671.25 0.07929301666 0.04057934023
671.875 0.1048910017 0.0208326832
672.5 0.1162209206 -0.02368424841
673.125 0.08503266038 -0.06468541609
673.75 0.08043588583 -0.05494567674
674.375 0.07939668072 -0.01745565342
675.0 0.06744407605 0.01983619086
675.625 0.0658139811 0.03594419433
676.25 0.04512186242 0.07001618918
676.875 -0.005079482541 0.08308532263
677.5 -0.01568159654 0.07528945017
678.125 -0.00914191971 0.1023636829
678.75 -0.01083932282 0.1336395859
679.375 -0.04270456442 0.1242319345
680.0 -0.0009996766545 0.1014649312
680.625 0.01952896105 0.1019468535
681.25 0.04853732829 0.1074846864
681.875 0.0476870428 0.08316594459
682.5 0.05893104091 0.03631864975
683.125 0.04634158131 0.04388258338
683.75 0.02710848485 0.08198167796
684.375 -0.02663418684 0.07522195342
685.0 -0.07036495337 0.04239202254
685.625 -0.08480558808 -0.02466031691
686.25 -0.07675672818 -0.08411147171
686.875 -0.06326275729 -0.09807220849
687.5 -0.06266001308 -0.1265052416
688.125 -0.0438300509 -0.1333274614
688.75 -0.01819972675 -0.1065075243
689.375 -0.02173135536 -0.08819028606
690.0 -0.01113802971 -0.09656231305
690.625 0.01027306212 -0.1028433287
691.25 0.0003526775284 -0.05941416108
691.875 -0.02366558525 -0.05077287959
692.5 -0.06936777936 -0.0563988775
693.125 -0.1465998205 0.0122819251
693.75 -0.1018493677 0.0757474486
694.375 -0.0695055249 0.100079207
695.0 -0.1046856605 0.07175347772
695.625 -0.1328491532 -0.03256300084
696.25 -0.03928229893 -0.1103331752
696.875 0.05945490926 -0.09202380972
697.5 0.08996323711 -0.02609014388
698.125 0.06776868995 0.01212293821
698.75 0.06630524618 0.02304969311
699.375 0.07401914671 0.05436323151
700.0 0.05523694963 0.08165725652
700.625 0.02470510616 0.07688188582
701.25 0.03821507179 0.09020832411
701.875 0.07455803625 0.1115993355
702.5 0.1104133659 0.08659888714
703.125 0.08910371709 -0.01411704456
703.75 0.04306498526 -0.06104900529
704.375 0.0429799587 -0.07363422823
705.0 0.08803138383 -0.06831719405
705.625 0.07471780886 -0.02719182203
706.25 0.06737900298 0.02554794619
706.875 0.0180406598 0.08575389958
707.5 -0.06028944755 0.09516288746
708.125 -0.0998262034 0.0650531104
708.75 -0.1094541442 0.02125473663
709.375 -0.09315838304 -0.03696117723
710.0 -0.05105045866 -0.07023980787
710.625 -0.02825408112 -0.09541935872
711.25 0.001439873011 -0.1016262716
711.875 -0.008911477569 -0.07631657012
712.5 -0.03132786932 -0.03520158302
713.125 -0.03998740219 -0.02635718777
713.75 -0.0772850014 -0.02568835907
714.375 -0.09074602426 -0.0004614613451
715.0 -0.07003408065 0.0366401498
715.625 -0.08420736318 0.0515228144
716.25 -0.1285740382 0.02444063529
716.875 -0.1065992279 -0.04361365553
717.5 -0.06198438381 -0.06282668381
718.125 -0.04092344697 -0.06918140422
718.75 -0.01830955868 -0.08452040531
719.375 0.01330704813 -0.0774249687
720.0 0.03901661643 -0.05279177146
720.625 0.04780122509 -0.005246521025
721.25 0.00626141615 0.0330974421
721.875 -0.03831845605 0.01326839143
722.5 -0.06893689604 -0.006371523829
723.125 -0.08764402352 0.03006857739
723.75 -0.03612749871 0.085544254
724.375 0.04014716419 0.06664096761
725.0 0.06747567349 0.02221552845
725.625 0.0652338249 -0.006118645408
726.25 0.04719154629 -0.01587322988
726.875 0.03251467749 -0.008528688579
727.5 0.01800109536 0.01339319073
728.125 -0.004473764528 0.03576426869
728.75 -0.008187743806 0.04209680014
729.375 0.01125268908 0.03593991151
730.0 0.01164741027 0.0244114144
730.625 -0.004665576961 0.02685983393
731.25 -0.01756766554 0.02451815095
731.875 -0.02844828334 0.01139780552
732.5 -0.03121341816 -0.0026615341
733.125 -0.02528510229 -0.002275400904
733.75 -0.01118265409 0.008784683136
734.375 0.004638284026 0.006897771377
735.0 0.009417836436 -0.004045587569
735.625 0.01085727759 -0.01030651963
736.25 0.007664310023 -0.0234403124
736.875 -0.008635719287 -0.03137079184
737.5 -0.02349975234 -0.02035608392
738.125 -0.02659169969 0.001190582949
738.75 -0.01488248924 0.02685775148
739.375 0.01036900194 0.03649750235
740.0 0.02933020679 0.0170247281
740.625 0.02393197305 0.00462912874
741.25 0.02175122908 0.01692064978
741.875 0.0057005218 0.03472593342
742.5 -0.02970890522 0.02474295362
743.125 -0.04059827821 -0.01631869046
743.75 -0.02562455195 -0.04321830429
744.375 -0.02746111706 -0.05157089585
745.0 -0.0438652032 -0.05108186623
745.625 -0.06539953262 -0.02059948361
746.25 -0.03967490738 0.01466877022
746.875 -0.0128316703 0.01157849043
747.5 -0.02041910486 -0.005031604563
748.125 -0.03810071578 0.00299858362
748.75 -0.03281087075 0.03164296906
749.375 0.01073663845 0.04949923353
750.0 0.06008211091 0.02564664944
