!Created with skrf (http://scikit-rf.org).
# GHz S RI R 50.0 
!freq ReS11 ImS11
500.0 -0.005635891976 0.01891681076
500.625 0.02303630005 0.01124384508
501.25 0.0284867786 -0.01180904629
501.875 0.02042769851 -0.01769933788
502.5 0.01329446541 0.007008282034
503.125 0.01955464646 0.003329278115
503.75 0.02457444783 -0.01856551951
504.375 0.0205878697 -0.02993866425
505.0 0.01277421439 -0.03547010619
505.625 0.005129711165 -0.05503534306
506.25 -0.01896082829 -0.06940940992
506.875 0.009725257177 -0.09564487774
507.5 -0.01651431997 -0.0733075269
508.125 0.004113852838 -0.08448674578
508.75 -0.04887639839 -0.09135388466
509.375 -0.05111426839 -0.06334237617
510.0 -0.02612825519 -0.06026500309
510.625 -0.05831156457 -0.009717849865
511.25 -0.08142672394 -0.001347112651
511.875 -0.05785876388 0.03709452104
512.5 -0.008494804754 0.05225561436
513.125 0.05342625913 0.05004940147
513.75 0.07286093538 0.04471700799
514.375 0.06618684328 0.01564933088
515.0 0.07241043166 -0.01548048786
515.625 0.09745257058 0.05275290878
516.25 0.1124118147 0.02203538423
516.875 0.07231242727 0.1015399809
517.5 0.1426673291 0.0125749647
518.125 0.1336867871 0.2014229755
518.75 0.1129178787 -0.006292752021
519.375 0.08343093451 0.003738077429
520.0 0.09473887263 -0.05008601368
520.625 0.1176286918 -0.0567571466
521.25 0.07988368964 -0.07129526784
521.875 0.06730756174 -0.02982015859
522.5 0.05472123412 -0.09719628664
523.125 0.142430121 -0.1905903862
523.75 0.08340603096 -0.2661113291
524.375 0.08260116917 -0.2619043033
525.0 0.03868751372 -0.1182083679
525.625 0.03607542901 -0.07765550167
526.25 0.0456433131 -0.05570602672
526.875 0.02612079785 -0.07163810561
527.5 0.01208274136 -0.0850486148
528.125 -0.02036066466 -0.06161318757
528.75 -0.04095267726 -0.06605698075
529.375 -0.1185428548 -0.03615497326
530.0 -0.09998035037 0.02635505758
530.625 -0.03370885956 0.04664710323
531.25 -0.06071018996 0.03737066225
531.875 -0.1321194855 0.08122067102
532.5 -0.1252827333 0.1118297667
533.125 -0.07432132857 0.09153278966
533.75 -0.03153827528 0.0989608724
534.375 -0.04985092548 0.1239256683
535.0 -0.04535383844 0.1191291454
535.625 -0.0448684921 0.07715300518
536.25 0.01617217759 0.0808915406
536.875 -0.02219617397 0.09095125916
537.5 -0.07797905929 0.05212509921
538.125 -0.05665761009 0.07106707585
538.75 -0.03760976905 0.1276703934
539.375 -0.06640774505 0.1078529696
540.0 -0.05511579154 0.08538673848
540.625 -0.05227978721 0.08171289852
541.25 -0.07419260621 0.1023885613
541.875 -0.08571844864 0.06543948556
542.5 -0.06723525676 0.02846408813
543.125 -0.06183037081 0.07261566584
543.75 -0.007484086893 0.144146453
544.375 0.02384764293 0.1421241166
545.0 0.09289527105 0.05185901485
545.625 0.1165983854 -0.01572536282
546.25 0.1279317389 -0.04422530881
546.875 0.1112795997 -0.04190881384
547.5 0.1198624359 -0.04173682514
548.125 0.1538647682 -0.0380302034
548.75 0.1608494508 0.02742666632
549.375 0.1420267347 0.03680602963
550.0 0.1357530891 0.07278140338
550.625 0.1295434755 0.09723859847
551.25 0.04722176725 0.09931510519
551.875 0.04235224362 0.05060404612
552.5 0.05681558458 0.04807686785
553.125 0.06448109401 0.07353968674
553.75 0.01755664517 0.06077391267
554.375 0.02279271593 0.04888310538
555.0 0.05204612808 0.06204671256
555.625 0.07329660181 0.07823981222
556.25 0.03262898724 0.08225294178
556.875 0.02990293741 0.0713886723
557.5 0.04263673225 0.09981597534
558.125 0.02971927383 0.1252141016
558.75 -0.007412763003 0.1169718492
559.375 0.02853470775 0.1078052956
560.0 0.03938105224 0.1153813679
560.625 0.03914990969 0.07554177995
561.25 0.03856072089 0.04617451353
561.875 0.04701213073 0.0518567967
562.5 0.06029027212 0.05662483047
563.125 0.05629871304 0.04772262116
563.75 0.06920659786 0.02690236287
564.375 0.113320081 0.007585737526
565.0 0.1295937034 0.04735880577
565.625 0.1108625979 0.02154220451
566.25 0.0977121061 0.02168867845
566.875 0.1044688184 0.0444678462
567.5 0.06644322511 0.09575818931
568.125 0.03998966205 0.09022408798
568.75 0.05106680864 0.1064694966
569.375 0.0443659529 0.1101197286
570.0 0.03442545087 0.09080208835
570.625 0.03389254856 0.06180914718
571.25 0.05531467613 0.0658138159
571.875 0.04054794587 0.06139601878
572.5 0.03148717828 0.03335600754
573.125 0.03760717582 0.04205495316
573.75 0.0899614886 0.04190873439
574.375 0.1063096212 0.02937326073
575.0 0.07574399819 0.004789166054
575.625 0.06791352616 -0.01120393657
576.25 0.1006961902 0.005714857019
576.875 0.09922857747 0.01688901974
577.5 0.08971863032 0.005383331799
578.125 0.09836006418 -0.01587289231
578.75 0.1255220532 -0.00842891445
579.375 0.1048684918 0.003508032521
580.0 0.09409526269 -0.01566523155
580.625 0.09645779289 -0.03866323602
581.25 0.08237178873 -0.03628229741
581.875 0.05026592163 -0.00142711016
582.5 0.04893888161 0.009295408991
583.125 0.08425631015 0.02212627908
583.75 0.08321560504 0.03219555919
584.375 0.06177655281 0.03378774121
585.0 0.05249856706 0.04241195162
585.625 0.07051518281 0.06179084902
586.25 0.0612839477 0.06110466264
586.875 0.05467325948 0.03702846131
587.5 0.0715400531 0.03281094159
588.125 0.09538230655 0.02051871895
588.75 0.0954409328 0.01163715305
589.375 0.07555216321 -0.03712439449
590.0 0.055684561 -0.06940653943
590.625 0.04426709018 -0.04389680468
591.25 0.03551845696 -0.00798932201
591.875 0.04664980881 -0.003536994948
592.5 0.07214366169 -0.02942617131
593.125 0.08819317366 -0.02814656353
593.75 0.07553180868 -0.009977094027
594.375 0.07762455027 0.004628639657
595.0 0.0904883657 0.02805297757
595.625 0.07561533225 0.04996402966
596.25 0.04949319441 0.04984846125
596.875 0.0403466662 0.05338737533
597.5 0.03459716484 0.07082005414
598.125 0.04033908999 0.06621043168
598.75 0.05719807047 0.04346931072
599.375 0.05923308969 0.02835275563
600.0 0.04310438464 0.02081738197
600.625 0.01966476129 0.01096711757
601.25 0.005464582698 0.01312708271
601.875 -0.00248611432 0.03099573621
602.5 -0.0100149646 0.03920579553
603.125 -0.01482603777 0.04083663707
603.75 -0.006899152931 0.04885728513
604.375 -0.0007930661958 0.05381576975
605.0 -0.00721795619 0.03959130936
605.625 -0.01840519119 0.02288890518
606.25 -0.03515293167 0.02571437712
606.875 -0.04270891119 0.04062618579
607.5 -0.02424517697 0.04988749801
608.125 0.001360932248 0.04190298524
608.75 0.005301750783 0.0334825679
609.375 0.002333915017 0.03074462831
610.0 0.0053661175 0.02432669628
610.625 0.01190898417 0.01127362641
611.25 0.01075039366 -0.00221856681
611.875 0.006725237517 -0.01308667405
612.5 -0.0007390733767 -0.01984318237
613.125 -0.01183054983 -0.01595811309
613.75 -0.01289421681 -0.003056263623
614.375 -0.001582153611 0.004021472749
615.0 0.008539668483 -0.001785495949
615.625 0.004983184901 -0.007666437578
616.25 -0.0004215359218 0.0009190572406
616.875 0.009951983205 0.01192812979
617.5 0.02547334841 0.01088242867
618.125 0.02929571074 0.006787158174
618.75 0.02887871863 0.007651142929
619.375 0.03911306307 0.0142833445
620.0 0.05720616194 0.01160620317
620.625 0.05843553951 -0.01508817896
621.25 0.04898799804 -0.02532105808
621.875 0.03545922459 -0.0317997856
622.5 -0.001902236842 -0.02484473388
623.125 -0.0009174699738 0.002489608542
623.75 0.01455082578 0.01747392978
624.375 0.02459890775 0.02963552757
625.0 0.01376800947 0.04273493566
625.625 0.01322284069 0.04922774853
626.25 0.03543116046 0.06179804201
626.875 0.05526461946 0.07502888505
627.5 0.0442638322 0.07524278461
628.125 0.03509336389 0.06602716535
628.75 0.03675145766 0.07414480821
629.375 0.0293580909 0.09046125514
630.0 0.01655003652 0.07765898114
630.625 0.01215310307 0.0619491699
631.25 0.004313539875 0.05836234167
631.875 -0.01706050517 0.05173858958
632.5 -0.028514436 0.0372293072
633.125 -0.03393218791 0.03421541675
633.75 -0.04130872668 0.05199548596
634.375 -0.054198865 0.04746017738
635.0 -0.05312165158 0.05129469464
635.625 -0.04562260016 0.07520349622
636.25 -0.04528209591 0.09329961994
636.875 -0.04918036213 0.06482905483
637.5 -0.04782711029 0.04997907957
638.125 -0.06763498654 0.07648852523
638.75 -0.08854412448 0.08118201754
639.375 -0.0795638844 0.0430909444
640.0 -0.06053467018 0.01764008451
640.625 -0.07745993692 -0.005332730634
641.25 -0.08061190591 -0.04767899824
641.875 -0.058378082 -0.04887079464
642.5 -0.0567906031 -0.04339046363
643.125 -0.0659287744 -0.06710233104
643.75 -0.04410181862 -0.1005242126
644.375 -0.04165078401 -0.08433320347
645.0 -0.07552711361 -0.06475667913
645.625 -0.08712307484 -0.07473049974
646.25 -0.0624883662 -0.07212312181
646.875 -0.03414426705 -0.06958516886
647.5 -0.05533465951 -0.07001103283
648.125 -0.0561177292 -0.08753986447
648.75 -0.01788916745 -0.07298860888
649.375 0.008761774627 -0.06114114983
650.0 0.03605947304 -0.0774497296
650.625 0.07190035913 -0.07375316762
651.25 0.08300247577 -0.04344511565
651.875 0.09460438726 -0.02141522482
652.5 0.1343937699 0.01846823925
653.125 0.1212279353 0.06172134188
653.75 0.1036838158 0.05831807198
654.375 0.1043060882 0.05872009926
655.0 0.08406114834 0.09073074184
655.625 0.03262584367 0.078391313
656.25 0.0347931008 0.05345462568
656.875 0.06858813317 0.05503121423
657.5 0.05064591418 0.08899676312
658.125 0.007127676525 0.08621761871
658.75 0.01029469624 0.07947113162
659.375 0.07110193059 0.09641602492
660.0 0.1051224685 0.1000728506
660.625 0.1067384179 0.07287171615
661.25 0.1169912159 0.03398973611
661.875 0.1420643071 -0.001338782386
662.5 0.1375398745 -0.01387204136
663.125 0.111053301 -0.008450785113
663.75 0.1083260376 0.02695879805
664.375 0.04646432433 0.103108097
665.0 -0.01835905363 0.08715742999
665.625 -0.0365971459 0.06270839065
666.25 -0.07057916544 0.07128981794
666.875 -0.1349410195 0.01685418246
667.5 -0.1130364351 -0.02082181241
668.125 -0.1108822697 0.0003329833722
668.75 -0.1384620477 0.03873390068
669.375 -0.1475940832 0.009775896972
670.0 -0.09883153055 -0.01585465458
670.625 -0.09590656474 -0.005118017659
671.25 -0.1262474163 0.02779924842
671.875 -0.1177576844 0.0367958086
672.5 -0.07698619351 0.04901959928
673.125 -0.06839549964 0.05789604887
673.75 -0.0995566139 0.0724644945
674.375 -0.1154741154 0.05116539809
675.0 -0.1189383089 0.01954280364
675.625 -0.1357412139 -0.02670700975
676.25 -0.1108051017 -0.08442204964
676.875 -0.09069716473 -0.09197965573
677.5 -0.1119266623 -0.07362375853
678.125 -0.1229868899 -0.09628884646
678.75 -0.04916338094 -0.08774512324
679.375 -0.01757676793 -0.06198484708
680.0 -0.03276320362 -0.06769119572
680.625 -0.05228569342 -0.1131015141
681.25 -0.03314703265 -0.1136471121
681.875 -0.04215105786 -0.08443595129
682.5 -0.1048375957 -0.06065202404
683.125 -0.1564465994 -0.06758047105
683.75 -0.1237683773 -0.1090529955
684.375 -0.04437324728 -0.1207352888
685.0 0.02807358263 -0.1409257183
685.625 0.1219507057 -0.1007607835
686.25 0.1361096986 -0.04008352637
686.875 0.1200136138 -0.01010979263
687.5 0.09769266359 0.03536486152
688.125 0.05940123961 0.06376643083
688.75 0.03692678227 0.07417676764
689.375 0.04909090834 0.1013369031
690.0 0.02070418949 0.1431260708
690.625 0.009636858038 0.1246274355
691.25 0.05934622874 0.1096255186
691.875 0.16480544 0.05456567265
692.5 0.2080184471 -0.05097891448
693.125 0.06991265323 -0.120992927
693.75 -0.02354891048 -0.1056677245
694.375 -0.04097775247 -0.129431598
695.0 0.05669826184 -0.1527994033
695.625 0.1150762872 -0.02634862944
696.25 0.07152119534 0.05931181888
696.875 -0.01566276075 0.1141177031
697.5 -0.1103887201 0.0724820405
698.125 -0.1336183573 0.02926543171
698.75 -0.1366850545 0.04002001126
699.375 -0.1351602602 0.03267518595
700.0 -0.1163369455 0.006297954952
700.625 -0.1129915941 -0.01734409317
701.25 -0.1349922542 -0.03843040617
701.875 -0.1000173882 -0.04164833881
702.5 -0.0725187904 -0.01313622477
703.125 -0.08274880594 0.02802863721
703.75 -0.07595221154 0.1446996613
704.375 -0.04329321109 0.1738949153
705.0 -0.007191938607 0.1243699781
705.625 -0.02804193736 0.1129949194
706.25 -0.1330966862 0.09323415447
706.875 -0.1512490265 -0.08054044619
707.5 -0.06585788693 -0.09575980545
708.125 -0.02983373697 -0.09556243632
708.75 0.04030624717 -0.09279506444
709.375 0.1003797356 -0.01711034282
710.0 0.07632167028 0.04195407972
710.625 0.06175847347 0.05438369591
711.25 0.03194609237 0.07420193297
711.875 0.01926454646 0.08676745897
712.5 0.06213017016 0.1016911908
713.125 0.1538979294 0.03817868524
713.75 0.1200367438 -0.0930093071
714.375 0.02049551784 -0.1303596327
715.0 -0.04626605984 -0.1304926476
715.625 -0.01488455947 -0.1518218499
716.25 0.04714391752 -0.09250834968
716.875 0.05634170125 -0.04004591901
717.5 0.07996297316 -0.001869333466
718.125 0.09526353028 0.05222285738
718.75 0.05453467203 0.07632844824
719.375 0.02331153854 0.06211911338
720.0 -0.01480273907 0.06814722287
720.625 -0.09263869701 0.02615416726
721.25 -0.071249167 -0.08769849215
721.875 0.005262589086 -0.1104527658
722.5 0.0179294227 -0.1152746084
723.125 -0.02722335631 -0.1040511023
723.75 -0.061674866 -0.05292152462
724.375 -0.06571910365 -0.01038086717
725.0 -0.05259397058 0.02360018671
725.625 -0.03317274363 0.02699246487
726.25 -0.03624039334 0.01658416625
726.875 -0.06145202188 -0.0008341371642
727.5 -0.07862441872 -0.02511228659
728.125 -0.06718933229 -0.04063065873
728.75 -0.05850246975 -0.02521022709
729.375 -0.05215677163 -0.009826196899
730.0 -0.04876920517 -0.01503234478
730.625 -0.04063717942 -0.01956141188
731.25 -0.02507350489 -0.02308941444
731.875 -0.006204060022 -0.026781648
732.5 0.008019405308 -0.01271208089
733.125 0.007491101548 0.008748939469
733.75 0.01649587016 0.0182322218
734.375 0.02844763306 0.01182017811
735.0 0.02633243936 -0.007874309717
735.625 0.01883720671 -0.01415139884
736.25 0.00952327811 -0.02311731382
736.875 -0.01108753902 -0.02573022356
737.5 -0.03201222832 -0.01187330247
738.125 -0.04501613873 0.00732682936
738.75 -0.04174491258 0.02489607991
739.375 -0.02280292014 0.02877984511
740.0 -0.01321935004 0.0153479649
740.625 -0.02489861481 0.01513598976
741.25 -0.03099434635 0.02202014634
741.875 -0.03713954306 0.002965698408
742.5 -0.01621967232 -0.03350794997
743.125 0.03001545804 -0.02707175806
743.75 0.0391365655 -0.003492868957
744.375 0.0379061319 -0.004377840164
745.0 0.0383901657 -0.004891339265
745.625 0.03616325814 0.004139649389
746.25 0.05137649498 0.008820443606
746.875 0.05785430622 -0.03313786561
747.5 0.02817724422 -0.06611079711
748.125 -0.004583865965 -0.0680297139
748.75 -0.03545087161 -0.05057423723
749.375 -0.06690321236 -0.01301722809
750.0 -0.0559103019 0.06568590468
