!Created with skrf (http://scikit-rf.org).
# GHz S RI R 50.0 
!freq ReS11 ImS11
500.0 -0.012501327 0.02916438808
500.625 0.02754526208 0.02994029134
501.25 0.04168848422 0.02049975047
501.875 0.03451584742 0.02906287602
502.5 0.02203103993 0.0446825714
503.125 0.04145681707 0.02984652178
503.75 0.05689985748 0.004693886428
504.375 0.05458306359 -0.01260912714
505.0 0.04457811704 -0.03937830839
505.625 0.05058828565 -0.06782728924
506.25 0.03725719654 -0.07871649628
506.875 0.07035030087 -0.06925687128
507.5 0.03971979457 -0.0746942279
508.125 0.08448998779 -0.06772077755
508.75 0.03730556897 -0.09621738418
509.375 0.01616153283 -0.08106153799
510.0 0.04404814089 -0.07759418811
510.625 -0.0478686567 -0.07428298362
511.25 -0.06249161155 -0.05936604959
511.875 -0.06885357457 -0.002929493678
512.5 -0.04392511127 0.03166973393
513.125 -0.006081469161 0.06866194822
513.75 0.002936650208 0.0737513746
514.375 0.0298663233 0.06618093327
515.0 0.07654234176 0.06990610848
515.625 0.01011025027 0.1399890172
516.25 0.08173684594 0.1014552071
516.875 0.0125783463 0.1525272917
517.5 0.1204550423 0.1128667501
518.125 -0.03130202887 0.2150763052
518.75 0.07062842912 0.05776114717
519.375 0.07184402672 0.06927237724
520.0 0.1205558948 0.04749336654
520.625 0.1110361936 0.03251926762
521.25 0.09696299621 -0.003920515734
521.875 0.08149437958 0.02079625157
522.5 0.1143843903 -0.03176663021
523.125 0.1784446615 -0.06208913707
523.75 0.1593614669 -0.1498919022
524.375 0.1804584739 -0.1157723837
525.0 0.0689913236 -0.02115810233
525.625 0.04509488187 0.0008903729416
526.25 0.05704755691 0.01058975023
526.875 0.07181707996 -0.003248201592
527.5 0.05900321728 -0.01328109334
528.125 0.03966331538 -0.03958062737
528.75 0.03534012901 -0.07337870457
529.375 -0.01672604328 -0.1093903876
530.0 -0.02955748256 -0.05378053991
530.625 -0.04524692605 -0.03299452984
531.25 -0.1136697087 -0.09989059782
531.875 -0.173540695 -0.1110200002
532.5 -0.1594916575 -0.03028257356
533.125 -0.1151788135 0.01247660763
533.75 -0.1335577776 0.04184090057
534.375 -0.1328053185 0.01021126671
535.0 -0.09773937415 0.03620751116
535.625 -0.07487707876 0.01349678612
536.25 -0.06554026426 0.03850601244
536.875 -0.09678442665 -0.01118943452
537.5 -0.09816850001 -0.04280701824
538.125 -0.111704481 0.01119889882
538.75 -0.1226521925 0.02767668381
539.375 -0.09869958925 -0.003982228367
540.0 -0.09924777802 -0.01533837373
540.625 -0.1328227586 -0.01058626884
541.25 -0.1381835261 -0.04445527671
541.875 -0.09892581426 -0.04040803989
542.5 -0.09827418181 -0.03895576654
543.125 -0.1432033392 0.01035655268
543.75 -0.1219159568 0.09418960939
544.375 -0.06422190861 0.09919733372
545.0 0.03656355561 0.09412068616
545.625 0.07270125136 0.09996469544
546.25 0.08867166217 0.07337186087
546.875 0.09131592548 0.05236499663
547.5 0.110870579 0.05954346805
548.125 0.1119546536 0.1087594379
548.75 0.05941576507 0.1061945187
549.375 0.06785774946 0.1016108817
550.0 0.02330206683 0.1308666913
550.625 -0.00752740154 0.09342829205
551.25 -0.0333514501 0.03206961998
551.875 -0.03169378266 0.03123090171
552.5 -0.05875176085 0.06408989585
553.125 -0.07083673383 0.05240364123
553.75 -0.06393444207 0.0385799864
554.375 -0.05133652276 0.06969772529
555.0 -0.04903686307 0.1076486103
555.625 -0.04850309265 0.1007143649
556.25 -0.05030366351 0.076115354
556.875 -0.0571402192 0.09817001635
557.5 -0.07013046873 0.1092872925
558.125 -0.07289806069 0.101372053
558.75 -0.07263169143 0.07118294044
559.375 -0.05942490315 0.08731580706
560.0 -0.05178280755 0.05538911959
560.625 -0.0345281899 0.03603652113
561.25 -0.04250601374 0.03949863512
561.875 -0.05613072351 0.06489592831
562.5 -0.04709154329 0.0798820019
563.125 -0.0118419136 0.08802741186
563.75 0.03651693238 0.1043841861
564.375 0.0547618917 0.1249818395
565.0 0.04303800061 0.1146415592
565.625 0.0560567981 0.08395316414
566.25 0.0421472778 0.09434542023
566.875 -0.01022034372 0.11201728
567.5 -0.0382624895 0.08087604575
568.125 -0.04083839142 0.0887959238
568.75 -0.0532231329 0.09269751628
569.375 -0.05103254828 0.06176837319
570.0 -0.04059576314 0.02999026969
570.625 -0.04215022525 0.04143569838
571.25 -0.06055881734 0.04699098864
571.875 -0.04850857368 0.03104368506
572.5 -0.04703104328 0.04563599466
573.125 -0.04070866621 0.09557233966
573.75 0.0008898436167 0.1337094925
574.375 0.02643692784 0.09266311181
575.0 0.03711273979 0.06971651587
575.625 0.04777701158 0.09345637359
576.25 0.03604210907 0.1083100406
576.875 0.04687559416 0.08718188438
577.5 0.0668420048 0.06636917603
578.125 0.07603939293 0.08153905726
578.75 0.04471748242 0.08057161022
579.375 0.04857786128 0.05943569718
580.0 0.05944227271 0.04987398976
580.625 0.048634449 0.05206907462
581.25 0.008988555041 0.04783126208
581.875 -0.004970074505 0.05139906573
582.5 0.00817697944 0.08449421664
583.125 0.002171940048 0.1030541395
583.75 -0.001058003318 0.08484458118
584.375 -0.008673923509 0.07340275294
585.0 -0.02450621769 0.09176957056
585.625 -0.03596300904 0.09407979266
586.25 -0.01742086879 0.07444904009
586.875 -0.008247801739 0.0712158409
587.5 -0.01008643778 0.08964684027
588.125 0.02210950776 0.08684690897
588.75 0.04075506435 0.06224789582
589.375 0.0597491338 0.03554564276
590.0 0.04186873419 0.04188071444
590.625 0.01996521031 0.04792787417
591.25 0.02639332328 0.05965736749
591.875 0.05924632038 0.0679174732
592.5 0.08084531967 0.07086860068
593.125 0.06426653944 0.05714877552
593.75 0.05983797813 0.0523668715
594.375 0.05174650003 0.07807288973
595.0 0.01997775851 0.0865672688
595.625 -0.003060488783 0.06419479315
596.25 -0.01302743072 0.05241927272
596.875 -0.03427941036 0.05524585804
597.5 -0.04116430506 0.04897513588
598.125 -0.02454249859 0.04804310295
598.75 -0.005844191482 0.04229927902
599.375 -0.008400828224 0.0269683541
600.0 -0.01844696306 0.005318809211
600.625 -0.03228876298 -0.004661680478
601.25 -0.05387697338 0.002880526472
601.875 -0.06272537526 0.01336204268
602.5 -0.05707852557 0.02074108389
603.125 -0.05579087462 0.02655414798
603.75 -0.05430562069 0.03405873761
604.375 -0.04332126672 0.02368668401
605.0 -0.03302250555 0.007114667371
605.625 -0.04038257457 -0.004816402249
606.25 -0.05580243436 -0.008092528566
606.875 -0.05385203961 0.002735758573
607.5 -0.03256630921 0.01920796508
608.125 -0.01347125297 0.01888554621
608.75 -0.01024496537 0.01115952909
609.375 -0.005693921923 0.007426401982
610.0 0.004171679014 0.00383040218
610.625 0.01145071431 -0.005871782961
611.25 0.01257417982 -0.0166794147
611.875 0.01186358423 -0.02291830507
612.5 0.004472470949 -0.02540639622
613.125 -0.007527661973 -0.01839325703
613.75 -0.0105344304 -0.00242702089
614.375 -0.001458492538 0.007657219358
615.0 0.006812635452 0.004862317759
615.625 0.0008053087864 0.001528940197
616.25 -0.005903289678 0.01272328474
616.875 0.002375624087 0.02780018969
617.5 0.01331873065 0.02931089561
618.125 0.01344034878 0.02423256598
618.75 0.01223174205 0.02719777092
619.375 0.01562975826 0.0369282952
620.0 0.02565274525 0.03391715911
620.625 0.03106685437 0.009081010061
621.25 0.01971193183 -0.001911342947
621.875 -0.003273125772 -0.008230511157
622.5 -0.0268895508 0.01684647591
623.125 -0.02220813121 0.04593579567
623.75 -0.0128036181 0.06360972124
624.375 -0.02513046801 0.06358241215
625.0 -0.04360319605 0.04997823129
625.625 -0.04343756813 0.06472052714
626.25 -0.03292218727 0.08891742159
626.875 -0.02168508742 0.08363477458
627.5 -0.02023768306 0.06413984163
628.125 -0.02893989539 0.0563136503
628.75 -0.04914818006 0.05143263228
629.375 -0.04250042037 0.03423220969
630.0 -0.0286387036 0.02395439286
630.625 -0.03242282292 0.006943672432
631.25 -0.04151048798 -0.02214355068
631.875 -0.03996339883 -0.04174762344
632.5 -0.04756426356 -0.03822874316
633.125 -0.06519652109 -0.04637862157
633.75 -0.07552395684 -0.04651775451
634.375 -0.07127807711 -0.04905617691
635.0 -0.08460779994 -0.03268045216
635.625 -0.1034236989 -0.01239368511
636.25 -0.08341289174 -0.01668732999
636.875 -0.06402010843 -0.02910384177
637.5 -0.08353526263 -0.03758473157
638.125 -0.1020831704 -0.03944946873
638.75 -0.07446979685 -0.02845328665
639.375 -0.03883469112 -0.03149248524
640.0 -0.01040286918 -0.06184926298
640.625 0.02927149529 -0.08850292524
641.25 0.02910601692 -0.07419964333
641.875 0.02095108316 -0.06896911119
642.5 0.03881076152 -0.08082242
643.125 0.08280769748 -0.06733795473
643.75 0.07567315367 -0.04917600221
644.375 0.04752724068 -0.0737094438
645.0 0.04559309135 -0.08676610945
645.625 0.06101719665 -0.05777100941
646.25 0.06372816288 -0.03694765187
646.875 0.06640274828 -0.05182936177
647.5 0.07865234089 -0.07065527717
648.125 0.07033572452 -0.04376209508
648.75 0.07531852317 -0.009887825337
649.375 0.09744049831 0.007560668569
650.0 0.1157882577 0.03199717384
650.625 0.09541905074 0.04588412565
651.25 0.08427456605 0.05812427581
651.875 0.06526962915 0.1052014734
652.5 0.01355534562 0.115115307
653.125 0.005340301267 0.09448905227
653.75 0.001990001042 0.08726697995
654.375 -0.04541306048 0.07618319448
655.0 -0.06849105576 0.0148329156
655.625 -0.06293900483 0.009510174122
656.25 -0.07532434913 0.04205886046
656.875 -0.09772504718 0.072354726
657.5 -0.1089373855 0.0304727156
658.125 -0.1009450256 0.02537609536
658.75 -0.1105846998 0.07974887384
659.375 -0.09863386758 0.1174338412
660.0 -0.05208338068 0.1160946532
660.625 -0.01556973036 0.1072836529
661.25 0.003395663566 0.1205215296
661.875 0.01002106229 0.1110250327
662.5 0.02380274135 0.08342251233
663.125 0.0140428112 0.08269828919
663.75 -0.05523180603 0.08368867451
664.375 -0.09425090946 0.01566502479
665.0 -0.08543398634 -0.02497168861
665.625 -0.09798619939 -0.0535701317
666.25 -0.07860076379 -0.1238895081
666.875 -0.02961484998 -0.1236337063
667.5 -0.03313732973 -0.1151597414
668.125 -0.05649320477 -0.1295892135
668.75 -0.03135992502 -0.1296106754
669.375 -0.003500928582 -0.08775898499
670.0 -0.00324062804 -0.08039396358
670.625 -0.002729821643 -0.1149465644
671.25 -0.005544229725 -0.1138928815
671.875 -0.01055988461 -0.09246753043
672.5 -0.04721083994 -0.08422279658
673.125 -0.09029161902 -0.1012500776
673.75 -0.0938621777 -0.1012766547
674.375 -0.07964059681 -0.0981250168
675.0 -0.04146082815 -0.1246669844
675.625 0.01574988347 -0.1264721981
676.25 0.04617735998 -0.09858543724
676.875 0.04457615243 -0.09618159278
677.5 0.07133739731 -0.09435591461
678.125 0.07442265086 -0.03199184831
678.75 0.07008340215 -0.005597273179
679.375 0.08841343751 -0.008462152775
680.0 0.1406797139 -0.02573498936
680.625 0.1351606197 -0.009791777995
681.25 0.1030260389 -0.05037512963
681.875 0.08006182691 -0.1102489301
682.5 0.04924745844 -0.1731843399
683.125 0.05415816322 -0.143009868
683.75 0.05232148456 -0.09700658048
684.375 0.09583212539 -0.07192129217
685.0 0.1286549688 0.02036559711
685.625 0.07195177629 0.08206310478
686.25 0.01477481638 0.0840460955
686.875 -0.03065816916 0.08175455733
687.5 -0.08180833296 0.05942216279
688.125 -0.09944679076 0.0551479676
688.75 -0.1272856367 0.06862866482
689.375 -0.1569346525 0.04721215732
690.0 -0.1307947886 0.02964118135
690.625 -0.1158985197 0.05372903276
691.25 -0.1043177107 0.1279174899
691.875 -0.06791183543 0.1626444202
692.5 0.02921133113 0.09670778978
693.125 0.07187660997 0.03098547684
693.75 0.1160666701 -0.0003615959259
694.375 0.1569171776 0.03336767671
695.0 0.0891864913 0.08648516026
695.625 0.0234251592 0.1077548007
696.25 -0.09760536207 0.0990746384
696.875 -0.1548481057 -0.03925524401
697.5 -0.08193351874 -0.1220594585
698.125 -0.05920284107 -0.1228623343
698.75 -0.05089441287 -0.1182220028
699.375 -0.02670150274 -0.09959988381
700.0 -0.004023582796 -0.09871957344
700.625 0.04034118089 -0.1083723282
701.25 0.0680814977 -0.06975582267
701.875 0.06118586829 -0.0603562535
702.5 0.03028914065 -0.1096595864
703.125 -0.0669616844 -0.1748246005
703.75 -0.1420748984 -0.1037743376
704.375 -0.1230349466 0.00900354342
705.0 -0.1063691407 0.03304494571
705.625 -0.1487773862 -0.03500390216
706.25 -0.040589243 -0.1332549413
706.875 0.03839821889 -0.07842432759
707.5 0.05805048314 -0.04646920324
708.125 0.09196412549 0.0220874803
708.75 0.05039976506 0.09976000961
709.375 -0.01841191221 0.09909192449
710.0 -0.05381090507 0.08225551692
710.625 -0.08723992502 0.05774041195
711.25 -0.1125891365 0.02915511792
711.875 -0.1263756928 0.04966468994
712.5 -0.1058160278 0.1065105183
713.125 0.002428358998 0.1296594086
713.75 0.08772703059 0.05744265905
714.375 0.1075512243 0.000933802633
715.0 0.1131074853 0.001218143477
715.625 0.07161263162 0.03135185973
716.25 0.03975504636 0.05091686492
716.875 0.01966304137 0.08713002182
717.5 -0.05898301966 0.1123014957
718.125 -0.08564023528 0.06740723337
718.75 -0.07162413471 0.04825487694
719.375 -0.08611019864 0.03480611951
720.0 -0.1071068443 -0.03589353681
720.625 -0.03201209455 -0.1059356023
721.25 0.05236230922 -0.07973462486
721.875 0.08568721339 -0.02318525684
722.5 0.06910919183 0.01028484725
723.125 0.05226238831 0.01175909559
723.75 0.06170672675 -0.004575681407
724.375 0.05152328986 -0.05163649647
725.0 0.007859574988 -0.0630019256
725.625 -0.01766297545 -0.06129281938
726.25 -0.02952854788 -0.07319539793
726.875 -0.01325649311 -0.08731753825
727.5 0.002061123234 -0.07402679999
728.125 0.01528594963 -0.05568477287
728.75 0.02503351978 -0.0425299193
729.375 0.02840926271 -0.03998345572
730.0 0.01766771545 -0.03878146745
730.625 0.01248895851 -0.02587550894
731.25 0.02083966904 -0.007986539639
731.875 0.01538850144 0.01446300772
732.5 -0.006027230912 0.02528421605
733.125 -0.01913483613 0.03019584107
733.75 -0.007345728901 0.03768990293
734.375 0.009168069803 0.03067600735
735.0 0.01843150126 0.01060503752
735.625 0.01635224438 -0.001970265114
736.25 0.007652822628 -0.01783002514
736.875 -0.0150341645 -0.02685165788
737.5 -0.03607731589 -0.02025460783
738.125 -0.04372567838 -0.008591641982
738.75 -0.0314323379 0.004661321823
739.375 -0.004283230243 0.004245370729
740.0 0.006987977523 -0.01902144078
740.625 -0.01150924988 -0.02706457457
741.25 -0.01533793006 -0.02102877257
741.875 0.007920532209 -0.02239393959
742.5 0.02784723331 0.008145876516
743.125 0.003383846434 0.03215133313
743.75 -0.01549432582 0.03228405695
744.375 -0.02748035769 0.03775410304
745.0 -0.04289256456 0.04597677847
745.625 -0.03313212308 0.07059843353
746.25 0.0180809728 0.08368910394
746.875 0.06757671061 0.05008783769
747.5 0.05957036448 0.008938735088
748.125 0.03996636621 -0.005147643124
748.75 0.03665774948 -0.01596084386
749.375 0.02438212474 -0.04684215731
750.0 -0.03246849163 -0.04545287817
