!Created with skrf (http://scikit-rf.org).
# GHz S RI R 50.0 
!freq ReS11 ImS11
500.0 -0.01678228603 0.02964601571
500.625 0.02696760246 0.03180850528
501.25 0.0393427546 0.02257552855
501.875 0.03588066767 0.03268194008
502.5 0.02071821603 0.04438209196
503.125 0.04101442272 0.02929111063
503.75 0.05797502262 0.006801706689
504.375 0.05474853182 -0.01017667719
505.0 0.0465896931 -0.03880578052
505.625 0.05488032375 -0.0667865756
506.25 0.04093940235 -0.07737711877
506.875 0.07460587269 -0.06452955099
507.5 0.04341359547 -0.07268605762
508.125 0.09180489142 -0.06290030858
508.75 0.04388811995 -0.09448532792
509.375 0.01991428081 -0.07848842157
510.0 0.04894404241 -0.07789390441
510.625 -0.04369698518 -0.07735920207
511.25 -0.05784974324 -0.06397828521
511.875 -0.06687499389 -0.006540263136
512.5 -0.04624188906 0.03013250097
513.125 -0.01356225287 0.06825033501
513.75 -0.003599300801 0.07531084657
514.375 0.02431735618 0.07199538602
515.0 0.07318700871 0.07823790077
515.625 0.002914637369 0.1406667324
516.25 0.07676448117 0.1058638996
516.875 0.005569058325 0.1550524796
517.5 0.1145797363 0.1204317468
518.125 -0.04504211672 0.2081495085
518.75 0.06449260183 0.06106448351
519.375 0.06681272733 0.07530645839
520.0 0.1160789675 0.05501934502
520.625 0.1080130289 0.03744526349
521.25 0.09521460694 0.001606418951
521.875 0.08064569077 0.02579023241
522.5 0.1145649756 -0.02342827896
523.125 0.1757102118 -0.05225137547
523.75 0.1600507723 -0.1394718519
524.375 0.1799344718 -0.09710305749
525.0 0.06595544667 -0.01505125828
525.625 0.04257180003 0.005994345257
526.25 0.0560016147 0.01667589295
526.875 0.07120743451 0.004483514393
527.5 0.05898537608 -0.007295093003
528.125 0.04338754022 -0.03584273544
528.75 0.04218482222 -0.07061107128
529.375 -0.004989738912 -0.1088149375
530.0 -0.0219078309 -0.05527740172
530.625 -0.04420348094 -0.04002804707
531.25 -0.1104768518 -0.1152170482
531.875 -0.1654528249 -0.1249793865
532.5 -0.1566610397 -0.03981830561
533.125 -0.1158532693 0.004913747965
533.75 -0.1401852215 0.02976064336
534.375 -0.1310963668 -0.0009018375669
535.0 -0.09823379117 0.02821292823
535.625 -0.07514422171 0.006609499062
536.25 -0.07053252954 0.03055062546
536.875 -0.0956293948 -0.02122842772
537.5 -0.09605201076 -0.0501598998
538.125 -0.1139264622 0.003440753202
538.75 -0.1219958348 0.01736706702
539.375 -0.09615132053 -0.0129117795
540.0 -0.09891641501 -0.02450604433
540.625 -0.1354718957 -0.02363250368
541.25 -0.1323818557 -0.05878626863
541.875 -0.09632514802 -0.04821856375
542.5 -0.09850681673 -0.04649988597
543.125 -0.146345447 0.000124482493
543.75 -0.1266407334 0.08419086205
544.375 -0.06769630233 0.09297308318
545.0 0.02972542608 0.09629949329
545.625 0.06130083222 0.1054580838
546.25 0.08046998257 0.07922985179
546.875 0.08552585802 0.05858357477
547.5 0.1055171732 0.06801764478
548.125 0.09770396355 0.1171032228
548.75 0.04929144522 0.1069750518
549.375 0.05868984379 0.1047207645
550.0 0.009161090626 0.1283016789
550.625 -0.01753230408 0.0858777658
551.25 -0.03584702451 0.0243356984
551.875 -0.03780057233 0.02676543596
552.5 -0.07101252871 0.05697697691
553.125 -0.07718365326 0.04383118432
553.75 -0.06958534009 0.03329741977
554.375 -0.05960997384 0.06775477156
555.0 -0.06111379298 0.1044188146
555.625 -0.05744048826 0.09480981687
556.25 -0.05628913246 0.07308607609
556.875 -0.06695116488 0.09469009318
557.5 -0.07895155899 0.1024467368
558.125 -0.07924601728 0.09388377835
558.75 -0.07576400745 0.06523079611
559.375 -0.06668762607 0.07842489806
560.0 -0.05410217408 0.04580423907
560.625 -0.0388247803 0.02907290269
561.25 -0.04981445524 0.03428451739
561.875 -0.06582563699 0.05995729188
562.5 -0.05483013581 0.07508476338
563.125 -0.01909643719 0.08856914996
563.75 0.02877014766 0.1106535683
564.375 0.04262061007 0.1276571898
565.0 0.0332213897 0.1151378455
565.625 0.04826507545 0.08689977323
566.25 0.03134795861 0.09837395541
566.875 -0.02486336612 0.1071297964
567.5 -0.04427137836 0.07569494467
568.125 -0.04846197405 0.08389791351
568.75 -0.06096283702 0.08425302638
569.375 -0.05545960433 0.05223793781
570.0 -0.04205830033 0.02246550664
570.625 -0.04924001135 0.0349413129
571.25 -0.06752222803 0.03651179529
571.875 -0.05351851101 0.02485781482
572.5 -0.05432969142 0.04267267405
573.125 -0.05142380003 0.09569370014
573.75 -0.01359966806 0.1330661352
574.375 0.01817910319 0.09328600027
575.0 0.03070300351 0.07439774078
575.625 0.03691488208 0.1013640311
576.25 0.02502655796 0.1113190254
576.875 0.03973560254 0.08973822661
577.5 0.06199718556 0.07157635775
578.125 0.06546470514 0.08886132255
578.75 0.0347033145 0.08027697197
579.375 0.04114090396 0.06136613209
580.0 0.05205753669 0.05456105792
580.625 0.0377331274 0.0562141172
581.25 -0.0009573208202 0.04829974614
581.875 -0.01139593449 0.053528432
582.5 -0.001279521925 0.08905771558
583.125 -0.009041875166 0.1031038055
583.75 -0.01065357899 0.08384925506
584.375 -0.01706868674 0.07325341106
585.0 -0.0366629986 0.0908834691
585.625 -0.04512802518 0.08815631618
586.25 -0.02478885316 0.07152673461
586.875 -0.01673420096 0.07086735087
587.5 -0.02003327962 0.08781486611
588.125 0.01304026907 0.08629378724
588.75 0.03435878624 0.06383706056
589.375 0.05337568653 0.04211990583
590.0 0.03170273989 0.04806046041
590.625 0.013594534 0.05265115652
591.25 0.02254233735 0.06474150612
591.875 0.05562256365 0.07605117582
592.5 0.07346896345 0.07887569664
593.125 0.05841998891 0.06088122518
593.75 0.05571871004 0.05693647099
594.375 0.04430275493 0.08254340828
595.0 0.0109913785 0.08551597341
595.625 -0.009011444634 0.06036344989
596.25 -0.0184096344 0.04950274191
596.875 -0.04055735171 0.04955518558
597.5 -0.04482741107 0.04241245447
598.125 -0.02832215556 0.04274695888
598.75 -0.01064948919 0.03839225609
599.375 -0.0132868763 0.02238684148
600.0 -0.02152641385 0.000909579862
600.625 -0.03555678885 -0.008699786631
601.25 -0.05782879489 -0.002077375592
601.875 -0.06556516039 0.008304476317
602.5 -0.05938375682 0.01699091302
603.125 -0.05849908102 0.02297507435
603.75 -0.05719804407 0.02900982366
604.375 -0.04404098228 0.01856112698
605.0 -0.0330936281 0.003462837683
605.625 -0.04064608366 -0.008499747704
606.25 -0.05503974458 -0.01225408935
606.875 -0.05211017608 -0.0005392902418
607.5 -0.03151577915 0.01669433403
608.125 -0.01324395852 0.01620997158
608.75 -0.009927060288 0.008441331496
609.375 -0.004752323162 0.005237701049
610.0 0.005366783407 0.002224425108
610.625 0.01254326232 -0.007259804689
611.25 0.01364525401 -0.01763122205
611.875 0.01285309056 -0.02329014501
612.5 0.005229253695 -0.02551532549
613.125 -0.007073945666 -0.01832832909
613.75 -0.0103979991 -0.002249441125
614.375 -0.001679337084 0.007875999474
615.0 0.006258875885 0.005201595529
615.625 -7.509174722e-05 0.001920404483
616.25 -0.007139508186 0.0132265806
616.875 0.0006581178798 0.02844222521
617.5 0.01124087327 0.02972868578
618.125 0.01130354907 0.02449831383
618.75 0.00974054136 0.02762371289
619.375 0.01241105707 0.03688788999
620.0 0.02222035233 0.03330645766
620.625 0.02790989744 0.009163014272
621.25 0.01595357461 -0.001963852762
621.875 -0.007667121335 -0.009324939959
622.5 -0.03133721784 0.01811316249
623.125 -0.026580513 0.04785241305
623.75 -0.01807098558 0.06531928829
624.375 -0.03076102828 0.06255058678
625.0 -0.04797349302 0.04727489334
625.625 -0.0488093034 0.06250488174
626.25 -0.03954164729 0.08572405049
626.875 -0.02666269405 0.07949520662
627.5 -0.02395429254 0.06023352216
628.125 -0.03372576348 0.05174518775
628.75 -0.05310790725 0.04290167063
629.375 -0.04268978676 0.02711822786
630.0 -0.02909085379 0.01811969158
630.625 -0.03255861205 -0.0003126688575
631.25 -0.0386819211 -0.03051665473
631.875 -0.03574962639 -0.0478563622
632.5 -0.04558150392 -0.04382674984
633.125 -0.06219791588 -0.05449616864
633.75 -0.07115764616 -0.05441994645
634.375 -0.06701263615 -0.05603116489
635.0 -0.08234933552 -0.03995771761
635.625 -0.1012495069 -0.02280583569
636.25 -0.07883441296 -0.02436421313
636.875 -0.06056092641 -0.03571518411
637.5 -0.08075675582 -0.0464312162
638.125 -0.09654737025 -0.04777963285
638.75 -0.06860873493 -0.03268596224
639.375 -0.03361845449 -0.03452829662
640.0 -0.001465304322 -0.06486785856
640.625 0.04019611914 -0.08434214188
641.25 0.03539872315 -0.07066661491
641.875 0.02744145412 -0.06716411505
642.5 0.04948904586 -0.0767059996
643.125 0.08981274166 -0.05552716933
643.75 0.07827504973 -0.04151392417
644.375 0.05394463317 -0.06915715859
645.0 0.05502342109 -0.07969645388
645.625 0.06669643617 -0.04806720881
646.25 0.0675466949 -0.02900291892
646.875 0.07325666809 -0.04633626614
647.5 0.08654789859 -0.06078752107
648.125 0.07424947723 -0.03486781956
648.75 0.07766090221 -0.000785550375
649.375 0.09937433936 0.01836583756
650.0 0.112559135 0.04392926062
650.625 0.09052346673 0.0530689533
651.25 0.07928595821 0.06550366364
651.875 0.05344051178 0.1115984537
652.5 0.003021316173 0.112189728
653.125 -0.002280267839 0.09098487721
653.75 -0.007557553527 0.08421479112
654.375 -0.05639606442 0.06446851702
655.0 -0.06902158894 0.002939447391
655.625 -0.06593671249 0.002060209478
656.25 -0.08328538101 0.03477895232
656.875 -0.108219165 0.06059228878
657.5 -0.1122123724 0.01899457721
658.125 -0.1045753581 0.01843755011
658.75 -0.1199810072 0.07199659787
659.375 -0.107927334 0.1066724015
660.0 -0.06042157647 0.1084030072
660.625 -0.02487276659 0.1037175674
661.25 -0.01057477673 0.1188405445
661.875 -0.00349054033 0.1065350866
662.5 0.01295316531 0.08319456368
663.125 0.003162304816 0.08397313569
663.75 -0.06587260192 0.07514982
664.375 -0.09601740673 0.004729424615
665.0 -0.08479374557 -0.03332401311
665.625 -0.09575586845 -0.06514492731
666.25 -0.06485417438 -0.1315900988
666.875 -0.0200779854 -0.1246604334
667.5 -0.02514619866 -0.1175389523
668.125 -0.04387499749 -0.1353880749
668.75 -0.01571043179 -0.1277107866
669.375 0.005241885691 -0.08487499609
670.0 0.004054337383 -0.08120470588
670.625 0.009341510186 -0.1154771336
671.25 0.007174281656 -0.1117333892
671.875 -0.0009723256075 -0.09303575922
672.5 -0.04107858962 -0.08991105048
673.125 -0.08171373853 -0.1107393213
673.75 -0.08539385723 -0.1076071464
674.375 -0.07188935779 -0.1035050961
675.0 -0.03013061708 -0.1270088287
675.625 0.02608123424 -0.1230975819
676.25 0.05176004981 -0.09362860014
676.875 0.05135874484 -0.09174936145
677.5 0.08056552579 -0.08351672829
678.125 0.07604719943 -0.0225563585
678.75 0.07184779976 0.001314010464
679.375 0.09285528034 -0.001598854156
680.0 0.1463948921 -0.01120931976
680.625 0.1335297202 0.001357130288
681.25 0.1063039701 -0.04413663671
681.875 0.08851341455 -0.1070694475
682.5 0.06328618714 -0.169127261
683.125 0.06281187455 -0.1346167101
683.75 0.05678701199 -0.09156802897
684.375 0.1008569497 -0.06395638469
685.0 0.1244078768 0.03068975799
685.625 0.06300592833 0.08587649252
686.25 0.005851568956 0.08356365393
686.875 -0.0402346328 0.0789611911
687.5 -0.08840865454 0.05256542389
688.125 -0.1052525607 0.04962782454
688.75 -0.1347575653 0.06065787837
689.375 -0.1589153857 0.03507947722
690.0 -0.1310975293 0.02184672078
690.625 -0.1186313942 0.04769289567
691.25 -0.1142072277 0.1208177428
691.875 -0.07966761247 0.149931871
692.5 0.0209761992 0.09441658956
693.125 0.06777883173 0.03766475673
693.75 0.1181358656 0.01204802863
694.375 0.1525815829 0.04962026003
695.0 0.08222034239 0.09163028104
695.625 0.017065387 0.1105763531
696.25 -0.1057195302 0.09351975467
696.875 -0.1526970002 -0.04996868576
697.5 -0.07415243453 -0.1258874104
698.125 -0.05169948659 -0.1254726273
698.75 -0.04164919983 -0.1195958637
699.375 -0.01920783054 -0.09952328735
700.0 0.003989704637 -0.09832590001
700.625 0.05044447978 -0.1041001172
701.25 0.0728132747 -0.06343766545
701.875 0.06540828128 -0.05678331539
702.5 0.03637068659 -0.1106273254
703.125 -0.05704826321 -0.1809382752
703.75 -0.1337492074 -0.1082307076
704.375 -0.121366355 0.003474970057
705.0 -0.1084623072 0.02695003084
705.625 -0.1462030961 -0.04681836656
706.25 -0.02926646091 -0.1317637119
706.875 0.04229159051 -0.07403707498
707.5 0.06157697989 -0.04130503546
708.125 0.09112629342 0.03069723219
708.75 0.04378870541 0.1037154949
709.375 -0.02326081061 0.09846213815
710.0 -0.05850991124 0.080182163
710.625 -0.09086241911 0.05336267907
711.25 -0.1145910904 0.02407112571
711.875 -0.1292297061 0.04427127736
712.5 -0.1098997671 0.1008758883
713.125 -0.002815851689 0.1271317203
713.75 0.0836746203 0.06026976633
714.375 0.1063350945 0.007530518218
715.0 0.1109878542 0.009461051549
715.625 0.06855381756 0.0353208496
716.25 0.03733401619 0.05361801646
716.875 0.01559591682 0.09001327208
717.5 -0.06559050744 0.1096338983
718.125 -0.08794246563 0.06321359929
718.75 -0.07373917959 0.04543166137
719.375 -0.08858759874 0.0312068117
720.0 -0.1058902669 -0.04105320474
720.625 -0.02778427061 -0.1062585358
721.25 0.05422263932 -0.07752184011
721.875 0.08546703788 -0.02032489342
722.5 0.067269861 0.01300638622
723.125 0.05119101783 0.01473926665
723.75 0.06267878642 -0.001630607006
724.375 0.05420285003 -0.04987322883
725.0 0.0106113207 -0.06309902237
725.625 -0.01538474611 -0.06278225503
726.25 -0.02696478407 -0.07494094805
726.875 -0.01014800295 -0.08741023005
727.5 0.004200087887 -0.07303376357
728.125 0.01721808537 -0.05442370815
728.75 0.02689279187 -0.04107970377
729.375 0.03019169517 -0.0385470489
730.0 0.01900511904 -0.03779724842
730.625 0.01338918118 -0.02517593653
731.25 0.02128355848 -0.00675350803
731.875 0.01481258643 0.01555897903
732.5 -0.006964004094 0.025566074
733.125 -0.01997883819 0.0300148721
733.75 -0.008154710316 0.03758416928
734.375 0.008541738228 0.03062471109
735.0 0.01802290803 0.01078053692
735.625 0.01616740061 -0.001865309278
736.25 0.0075869585 -0.01771490273
736.875 -0.01505953265 -0.02689280814
737.5 -0.03595421493 -0.02044391067
738.125 -0.04340600248 -0.008799287309
738.75 -0.03091097536 0.004675294176
739.375 -0.003646469105 0.004362266456
740.0 0.00780409942 -0.01900974149
740.625 -0.01088544756 -0.0272216976
741.25 -0.01483313203 -0.02128039984
741.875 0.008292208844 -0.02196926273
742.5 0.02747923452 0.008680818621
743.125 0.003025350266 0.03212731868
743.75 -0.01609575734 0.03195940076
744.375 -0.02837171472 0.0372270437
745.0 -0.04378621233 0.04535228386
745.625 -0.03416608895 0.07026722729
746.25 0.01714575758 0.08391233923
746.875 0.06683180379 0.05051881049
747.5 0.05921550729 0.009132686315
748.125 0.03976728386 -0.005008498968
748.75 0.03657275695 -0.0157801694
749.375 0.02446416014 -0.04647805609
750.0 -0.03221606738 -0.04538176474
