!Created with skrf (http://scikit-rf.org).
# GHz S RI R 50.0 
!freq ReS11 ImS11
500.0 -0.01693182415 0.02604089218
500.625 0.02380233755 0.03909894641
501.25 0.03246633624 0.03414052352
501.875 0.02723570044 0.04312755253
502.5 0.01797770628 0.05655655924
503.125 0.0412579399 0.042294873
503.75 0.05707292903 0.01927904479
504.375 0.05752245775 -0.0001279279217
505.0 0.05524571446 -0.03422315708
505.625 0.06730834806 -0.057982252
506.25 0.04811509807 -0.06783012246
506.875 0.07912456051 -0.05021218885
507.5 0.0580246303 -0.06348735173
508.125 0.09922059376 -0.0352447691
508.75 0.05762553124 -0.0773293262
509.375 0.03621042765 -0.0695430985
510.0 0.0707167774 -0.06441771561
510.625 -0.02374027974 -0.08597504145
511.25 -0.04789386887 -0.06658433958
511.875 -0.06315578251 -0.01350600688
512.5 -0.05072260181 0.01734955808
513.125 -0.02692592179 0.05740097494
513.75 -0.01841627604 0.06552935985
514.375 0.006454146288 0.07700168453
515.0 0.05028207083 0.09662636926
515.625 -0.02566869715 0.1290380722
516.25 0.05904382897 0.1168910812
516.875 -0.02360702658 0.1560595483
517.5 0.08194066193 0.133810174
518.125 -0.06559956269 0.1755838997
518.75 0.04851523147 0.06616345813
519.375 0.04566171744 0.0903383367
520.0 0.08986887455 0.07724868266
520.625 0.09136811509 0.05057972409
521.25 0.0889729935 0.01970140622
521.875 0.07096798155 0.04290586753
522.5 0.1034872312 -0.0003999960895
523.125 0.1646777679 -0.0335415252
523.75 0.1636154483 -0.1030839893
524.375 0.1577195575 -0.04383855632
525.0 0.04596553507 0.002950452457
525.625 0.03347917304 0.01579636568
526.25 0.04799108108 0.03327618342
526.875 0.06001142426 0.02613300471
527.5 0.05126492023 0.007253936825
528.125 0.04929828666 -0.02408275974
528.75 0.05858159069 -0.05688168199
529.375 0.02408103318 -0.0924539769
530.0 -0.003770334559 -0.05143725987
530.625 -0.03550541388 -0.05935096159
531.25 -0.07956818413 -0.1568713099
531.875 -0.1276531559 -0.1467987771
532.5 -0.1397133442 -0.06060352605
533.125 -0.1138806882 -0.0175864411
533.75 -0.1416452741 -0.01432511992
534.375 -0.11184837 -0.01990098158
535.0 -0.09572640358 0.01273642523
535.625 -0.06966086395 -0.009580606484
536.25 -0.07371124168 0.004116068411
536.875 -0.08014485781 -0.03982271985
537.5 -0.09023725944 -0.06272138525
538.125 -0.1140191022 -0.0188774728
538.75 -0.1090631014 -0.006310065559
539.375 -0.08156654311 -0.02619504232
540.0 -0.09470025556 -0.04505635038
540.625 -0.1305725286 -0.05709396111
541.25 -0.1054113217 -0.07986571019
541.875 -0.08654511533 -0.05932132416
542.5 -0.09692099967 -0.06186403694
543.125 -0.1427402732 -0.02354648535
543.75 -0.1229676296 0.06450379186
544.375 -0.06802560218 0.08051814392
545.0 0.01144707783 0.09651896563
545.625 0.03029111699 0.1022972835
546.25 0.06479504203 0.08091696558
546.875 0.07121492723 0.06778032663
547.5 0.08728054153 0.08374308645
548.125 0.05856800273 0.115510598
548.75 0.03472141106 0.1009980141
549.375 0.03424490327 0.1073352195
550.0 -0.02120338765 0.107033367
550.625 -0.0285682557 0.05673790521
551.25 -0.03511806609 0.009588416786
551.875 -0.0507731659 0.01193241687
552.5 -0.09120412922 0.02708192708
553.125 -0.07976317721 0.02185995446
553.75 -0.07755097597 0.01800228497
554.375 -0.07843266663 0.0565385078
555.0 -0.08250356425 0.08516543676
555.625 -0.06829692722 0.07613065335
556.25 -0.06745722148 0.06430581638
556.875 -0.08648372722 0.07819234959
557.5 -0.08820385254 0.08068674379
558.125 -0.08586278326 0.07685323554
558.75 -0.07834694624 0.05197280361
559.375 -0.07241849165 0.05224722777
560.0 -0.04741004464 0.02782012029
560.625 -0.04387276515 0.01525814951
561.25 -0.06209978025 0.01730230589
561.875 -0.08269608983 0.03895507744
562.5 -0.06220997881 0.05964007874
563.125 -0.03312713247 0.08674538212
563.75 0.004799986209 0.1191532833
564.375 0.01719223711 0.121857465
565.0 0.01850578726 0.1073942165
565.625 0.03200068609 0.08892007289
566.25 0.005436540337 0.09779571445
566.875 -0.04394347763 0.08407957551
567.5 -0.05049483521 0.06475143557
568.125 -0.0603189667 0.06994324803
568.75 -0.06749321663 0.05970689489
569.375 -0.05408913922 0.03252140968
570.0 -0.04118388645 0.008959537972
570.625 -0.0594747454 0.01569110832
571.25 -0.06871809266 0.009274281655
571.875 -0.05655919825 0.01289698447
572.5 -0.06739942832 0.03399378766
573.125 -0.07469667726 0.08843385813
573.75 -0.03888108051 0.115375669
574.375 0.006971186958 0.08879234324
575.0 0.01429571506 0.08141572833
575.625 0.007143746079 0.1070842523
576.25 0.002129732184 0.1032646226
576.875 0.0286937815 0.08888199251
577.5 0.04906276201 0.07966675415
578.125 0.03855531684 0.0925175199
578.75 0.01951884439 0.07104615681
579.375 0.02937354043 0.06062776781
580.0 0.03451388513 0.05813769195
580.625 0.01403724526 0.05238836297
581.25 -0.01634638064 0.04138531744
581.875 -0.02451179649 0.054442545
582.5 -0.02451023101 0.09002996808
583.125 -0.02696067282 0.0908727762
583.75 -0.0237362535 0.07705508881
584.375 -0.03327765922 0.0678805331
585.0 -0.05901352274 0.07805277448
585.625 -0.0514398376 0.0699525165
586.25 -0.03396088593 0.06432103474
586.875 -0.03398117658 0.0638754822
587.5 -0.03931704286 0.07523053751
588.125 6.152367114e-05 0.07600002752
588.75 0.02433987844 0.06359197563
589.375 0.03596295537 0.05008293023
590.0 0.008380860961 0.04900301539
590.625 0.0007082126141 0.0535491517
591.25 0.01467166982 0.07143108422
591.875 0.0427474301 0.0880655125
592.5 0.05424420364 0.08423793398
593.125 0.04742460051 0.06192727163
593.75 0.0459834682 0.06287183106
594.375 0.02608013216 0.08377218471
595.0 -0.001050761661 0.07528454579
595.625 -0.01529026993 0.05115209855
596.25 -0.02621271877 0.04126066157
596.875 -0.04571835865 0.03416473211
597.5 -0.04407604342 0.03092087373
598.125 -0.03097151665 0.03277073205
598.75 -0.01607685256 0.02809566959
599.375 -0.01687795938 0.009795925447
600.0 -0.02201910581 -0.007948012468
600.625 -0.03832074871 -0.01766687342
601.25 -0.06024458128 -0.01422580038
601.875 -0.06506825976 -0.002220432584
602.5 -0.05968655836 0.009713683316
603.125 -0.06050413718 0.01522808585
603.75 -0.05709722944 0.01870191613
604.375 -0.04017629813 0.01100575785
605.0 -0.03059806204 -0.001807786264
605.625 -0.03840672843 -0.01459482605
606.25 -0.0499539111 -0.01766570843
606.875 -0.04649198142 -0.003197538693
607.5 -0.02771256014 0.01383216924
608.125 -0.01047729194 0.01197904028
608.75 -0.006669834097 0.004768975767
609.375 -0.001284846645 0.003232811105
610.0 0.008642501212 0.001013201421
610.625 0.01560573686 -0.008116481187
611.25 0.0168659722 -0.01718528398
611.875 0.01526121893 -0.02213950946
612.5 0.007437948646 -0.02403208647
613.125 -0.006488109605 -0.0169691892
613.75 -0.01029857087 -0.0009485517303
614.375 -0.002259698029 0.008947862102
615.0 0.005116307391 0.00607060816
615.625 -0.001795904417 0.002658568025
616.25 -0.009183374279 0.01421355188
616.875 -0.002140420213 0.02921178427
617.5 0.007952088982 0.02967640933
618.125 0.007838843309 0.02431223243
618.75 0.00554696268 0.02759309804
619.375 0.007571460159 0.03547066528
620.0 0.01763798198 0.03078394646
620.625 0.02286293004 0.007951819477
621.25 0.009861522056 -0.00402688191
621.875 -0.0135652617 -0.01369358295
622.5 -0.03760324859 0.01780256308
623.125 -0.03332497478 0.04917752472
623.75 -0.0270836962 0.06484694507
624.375 -0.0377026051 0.05680828155
625.0 -0.05246186913 0.04164503267
625.625 -0.05636906348 0.05682109714
626.25 -0.04760988057 0.07623807779
626.875 -0.03009112973 0.06944001484
627.5 -0.02718049815 0.05281094025
628.125 -0.03931806397 0.04111577748
628.75 -0.05245542419 0.02684868738
629.375 -0.03793019258 0.01722669652
630.0 -0.02717281755 0.00924422849
630.625 -0.02807075682 -0.0133017239
631.25 -0.02652912893 -0.04180719063
631.875 -0.02479354292 -0.05423125427
632.5 -0.03837056422 -0.05355908727
633.125 -0.04847567606 -0.06869789649
633.75 -0.05466040767 -0.064141063
634.375 -0.05715011316 -0.0638740131
635.0 -0.07439387135 -0.05170297371
635.625 -0.08844539194 -0.03948865954
636.25 -0.06493836963 -0.03058374864
636.875 -0.05231618988 -0.04472596275
637.5 -0.06957942512 -0.06129434918
638.125 -0.07865168327 -0.0578672277
638.75 -0.05628331736 -0.03275099602
639.375 -0.02254781261 -0.03832370501
640.0 0.01890015234 -0.06390081424
640.625 0.05401217486 -0.06608955557
641.25 0.04051229399 -0.06140844289
641.875 0.03860642381 -0.06187414457
642.5 0.06609624057 -0.059813225
643.125 0.0876394112 -0.03003572413
643.75 0.07662808343 -0.03066913323
644.375 0.06421748999 -0.05739663309
645.0 0.0668771015 -0.05648090389
645.625 0.06445784983 -0.02737398069
646.25 0.06849042924 -0.01639479221
646.875 0.08357210953 -0.03241442725
647.5 0.09120671617 -0.03611521608
648.125 0.0705673973 -0.02123132603
648.75 0.07680083619 0.01316463032
649.375 0.09633753985 0.03636898596
650.0 0.09559186746 0.05945439486
650.625 0.08030465163 0.0573520368
651.25 0.06717039864 0.07511952472
651.875 0.02873546141 0.1116385739
652.5 -0.009371442731 0.09761678958
653.125 -0.009360656885 0.08344733466
653.75 -0.02230365536 0.07342667516
654.375 -0.06293315828 0.03389876325
655.0 -0.05859425594 -0.01159157625
655.625 -0.06792171926 -0.009386408987
656.25 -0.09398149613 0.01473874771
656.875 -0.1142927113 0.02567843163
657.5 -0.1046822715 0.004386210073
658.125 -0.1090375562 0.00756122068
658.75 -0.1322538317 0.0509239937
659.375 -0.1106268066 0.0784758408
660.0 -0.06262017805 0.09399073074
660.625 -0.03725150615 0.0959033232
661.25 -0.03236059872 0.1056869919
661.875 -0.01657148494 0.08583627194
662.5 2.36017896e-05 0.0769689442
663.125 -0.01640355858 0.07984170515
663.75 -0.07747427896 0.05086538671
664.375 -0.0854479775 -0.01190600616
665.0 -0.0807717456 -0.04675058025
665.625 -0.08150271843 -0.08636697154
666.25 -0.03409372203 -0.128799863
666.875 -0.007994625273 -0.1172364356
667.5 -0.01087259287 -0.1190907417
668.125 -0.01337315641 -0.1354341051
668.75 0.006026012515 -0.1037181008
669.375 0.01382300122 -0.07580179156
670.0 0.0193045329 -0.07976809625
670.625 0.03610279444 -0.1051669623
671.25 0.02432907093 -0.09030603048
671.875 0.01323301513 -0.08857289781
672.5 -0.02533667466 -0.09789814022
673.125 -0.05540168261 -0.1208965881
673.75 -0.06549362971 -0.1076117036
674.375 -0.05423048303 -0.1090342074
675.0 -0.00358193964 -0.1206391772
675.625 0.04396278653 -0.101562759
676.25 0.05653402652 -0.08156994296
676.875 0.06533899549 -0.07635194427
677.5 0.08846740575 -0.04613355285
678.125 0.06581592697 -0.002657179866
678.75 0.07071288422 0.01137157977
679.375 0.09988158385 0.01685797705
680.0 0.1416110549 0.02749038001
680.625 0.1153980175 0.01447354759
681.25 0.1086363247 -0.03459710493
681.875 0.1068714593 -0.09443759675
682.5 0.09224370866 -0.1397122542
683.125 0.06302958856 -0.1091733751
683.75 0.06215594858 -0.07907061197
684.375 0.1066184713 -0.03957908638
685.0 0.09952700654 0.05054584513
685.625 0.04272927464 0.08323905953
686.25 -0.01338288839 0.07501556392
686.875 -0.05988050558 0.06274345523
687.5 -0.0935778609 0.03049118515
688.125 -0.1137909341 0.03552998277
688.75 -0.1464739852 0.03236027475
689.375 -0.1465935253 0.003449620917
690.0 -0.1203973679 0.007558135842
690.625 -0.123359838 0.03253320488
691.25 -0.1343525234 0.0911173326
691.875 -0.08617072164 0.1026497305
692.5 0.01356022974 0.08103811849
693.125 0.05706375083 0.0513430068
693.75 0.1130178192 0.04560906408
694.375 0.1162359685 0.08025555278
695.0 0.06495368824 0.09192414395
695.625 -0.002490520213 0.1148002252
696.25 -0.1240006145 0.06736177552
696.875 -0.1284253796 -0.07434646149
697.5 -0.053363204 -0.1262055731
698.125 -0.02810817884 -0.1257797906
698.75 -0.01511616787 -0.1109055978
699.375 -0.004418728766 -0.09022399635
700.0 0.0226598922 -0.09141908356
700.625 0.07197506923 -0.08011235649
701.25 0.07496825784 -0.03961446753
701.875 0.06888307143 -0.04600941416
702.5 0.05664922191 -0.1097804296
703.125 -0.01379288363 -0.1874280463
703.75 -0.1011551833 -0.1038799425
704.375 -0.1122851328 -0.00603356735
705.0 -0.1101419384 0.005992428117
705.625 -0.1210717026 -0.08038018634
706.25 -0.006112727527 -0.1075610016
706.875 0.04741050803 -0.06176245767
707.5 0.06694127094 -0.02210661034
708.125 0.07492987557 0.05681505444
708.75 0.01987103171 0.1013748583
709.375 -0.03642608702 0.09236769909
710.0 -0.07209010546 0.06582710586
710.625 -0.09474613733 0.03066652636
711.25 -0.1128821273 0.006440594154
711.875 -0.1334413843 0.02356778027
712.5 -0.1161610073 0.07433781164
713.125 -0.01523310881 0.1076155559
713.75 0.06870282867 0.06405810582
714.375 0.0939123976 0.0322665635
715.0 0.08613260608 0.03929084935
715.625 0.04699480548 0.04352183776
716.25 0.02490778656 0.06054154851
716.875 -0.007660027643 0.09693634199
717.5 -0.08873067732 0.08384982865
718.125 -0.08761962829 0.04269900897
718.75 -0.07832169494 0.03183834677
719.375 -0.09327576861 0.01134923585
720.0 -0.08843092198 -0.05939435125
720.625 -0.01215448982 -0.09892512001
721.25 0.0589705882 -0.06389072805
721.875 0.07484376321 -0.00243872119
722.5 0.04825194913 0.02162175299
723.125 0.03859200377 0.02775066209
723.75 0.06224152494 0.01654464426
724.375 0.0639880553 -0.03303783477
725.0 0.02221015529 -0.05582214584
725.625 -0.004028685837 -0.06446585029
726.25 -0.01260191297 -0.07763030793
726.875 0.003653883413 -0.08018965069
727.5 0.01083153579 -0.06312605302
728.125 0.02257623062 -0.04452055629
728.75 0.03260665122 -0.0278254054
729.375 0.03441582226 -0.02585042524
730.0 0.02192824682 -0.02946882584
730.625 0.01585663368 -0.0179584284
731.25 0.0196097542 0.001094093976
731.875 0.008163977759 0.01862143565
732.5 -0.01229380122 0.02350334526
733.125 -0.02332886284 0.02629359494
733.75 -0.01112458718 0.03333210395
734.375 0.00592886799 0.02664618071
735.0 0.01488289699 0.008601271429
735.625 0.01366344186 -0.003345671233
736.25 0.005667277269 -0.01922038825
736.875 -0.01632367725 -0.02878565662
737.5 -0.03594015545 -0.02241234509
738.125 -0.0413873829 -0.01064608672
738.75 -0.02721395911 0.003650606054
739.375 0.001318822016 0.004044096693
740.0 0.01314655629 -0.01928444941
740.625 -0.005732784677 -0.02850839645
741.25 -0.008675706266 -0.02268250373
741.875 0.01504521402 -0.01753771323
742.5 0.02373638192 0.01634973324
743.125 -0.004864141602 0.03225915643
743.75 -0.02510898426 0.02832169577
744.375 -0.03973755484 0.02956574529
745.0 -0.05370200862 0.03594014591
745.625 -0.04470404507 0.06613235542
746.25 0.005706842192 0.08570818977
746.875 0.05352217088 0.05662084969
747.5 0.04911430918 0.01507106832
748.125 0.0344332557 0.00338350856
748.75 0.03720073634 -0.003412478667
749.375 0.03386114584 -0.03442684034
750.0 -0.01740882319 -0.04574033887
