!Created with skrf (http://scikit-rf.org).
# GHz S RI R 50.0 
!freq ReS11 ImS11
500.0 -0.01129539788 0.02893257707
500.625 0.02663534044 0.02337627505
501.25 0.03984945015 0.006406238571
501.875 0.03440646566 0.01245542481
502.5 0.02355464121 0.03291672731
503.125 0.03550664142 0.01745309663
503.75 0.04856354145 -0.00745777158
504.375 0.04524061722 -0.02105286635
505.0 0.03321960677 -0.04046600486
505.625 0.03287405638 -0.06829053727
506.25 0.01782845238 -0.08089196884
506.875 0.05396451306 -0.08394173495
507.5 0.01974698682 -0.0778142424
508.125 0.05842058136 -0.08510664783
508.75 0.009100199606 -0.1071014241
509.375 -0.008351115679 -0.08009244449
510.0 0.01690199605 -0.0783718564
510.625 -0.05852351724 -0.05221834028
511.25 -0.07486161871 -0.04348234568
511.875 -0.06901414246 0.01349450076
512.5 -0.0339969667 0.04308176956
513.125 0.01706271177 0.0676804425
513.75 0.02783622921 0.07144743056
514.375 0.04651879688 0.0533865753
515.0 0.08491876505 0.0375281458
515.625 0.05253281547 0.1225449372
516.25 0.09860321407 0.07814276775
516.875 0.0386326185 0.1392485147
517.5 0.1422352517 0.07668589777
518.125 0.02675759617 0.2317353486
518.75 0.09189786334 0.04138140124
519.375 0.08153793321 0.04379429691
520.0 0.1244841002 0.008605448341
520.625 0.1233847617 0.006709300958
521.25 0.09806826767 -0.02829902216
521.875 0.08076607416 0.0001644484611
522.5 0.1027095909 -0.06556177951
523.125 0.183425459 -0.1079526342
523.75 0.1403114856 -0.1957739294
524.375 0.1599292467 -0.1846323718
525.0 0.07049764994 -0.06220925862
525.625 0.05056661173 -0.0266152156
526.25 0.05861222794 -0.01486868859
526.875 0.06349339375 -0.03732563652
527.5 0.05286771127 -0.0428780031
528.125 0.0200278152 -0.05359096231
528.75 0.004413436458 -0.07873437718
529.375 -0.06700755363 -0.09602473894
530.0 -0.06472661831 -0.0364192624
530.625 -0.04569596493 -0.00264443926
531.25 -0.1089597781 -0.03451893836
531.875 -0.190248634 -0.03531113503
532.5 -0.1658639516 0.02376822476
533.125 -0.1057253828 0.04419736734
533.75 -0.09604327725 0.080352437
534.375 -0.1240627282 0.06472942193
535.0 -0.08869549133 0.07121464762
535.625 -0.06854524271 0.04175133674
536.25 -0.03820234928 0.06553618364
536.875 -0.08759645656 0.03811804114
537.5 -0.1010704711 -0.006553517742
538.125 -0.09452224041 0.04188709488
538.75 -0.1087359415 0.08004130359
539.375 -0.10080423 0.04144019996
540.0 -0.09290137178 0.02685579729
540.625 -0.1099430783 0.03841870191
541.25 -0.1395806524 0.02424761161
541.875 -0.1052069759 -0.002855123497
542.5 -0.09146668296 -0.008225251231
543.125 -0.1176222821 0.04941251233
543.75 -0.08537942516 0.1322914824
544.375 -0.03823257422 0.1258132434
545.0 0.0632214237 0.08011142102
545.625 0.1117650237 0.05897284565
546.25 0.1192158556 0.03698090764
546.875 0.1099564881 0.01880926966
547.5 0.125748082 0.02032711044
548.125 0.1553069109 0.05446394034
548.75 0.104033322 0.09243973059
549.375 0.1033111297 0.08218211386
550.0 0.08098291733 0.1220913201
550.625 0.04426100856 0.1119304966
551.25 -0.01325158181 0.06563027681
551.875 -0.003641889603 0.04522123801
552.5 -0.005112706069 0.07482996621
553.125 -0.02995610253 0.08367813161
553.75 -0.03673438964 0.0548572363
554.375 -0.01833863414 0.06885180087
555.0 0.0008138250722 0.1037408928
555.625 0.0004733544254 0.1128793315
556.25 -0.02128876256 0.08549223866
556.875 -0.01492882879 0.09833265326
557.5 -0.02429764706 0.1235992556
558.125 -0.03673474998 0.1243368472
558.75 -0.05368894142 0.09536238904
559.375 -0.02196532965 0.1087485074
560.0 -0.02846228575 0.09234949706
560.625 -0.0104389136 0.05949291728
561.25 -0.009229987816 0.05197503921
561.875 -0.01420850912 0.07416048738
562.5 -0.003947563843 0.09018997004
563.125 0.01872170161 0.07916531155
563.75 0.05948502696 0.07339504765
564.375 0.102258906 0.09089889777
565.0 0.08469297464 0.1008556659
565.625 0.08444682605 0.0652736965
566.25 0.07568629919 0.06914362786
566.875 0.05156953328 0.1055140848
567.5 -0.005513437861 0.09994072119
568.125 -0.005550585905 0.09911613327
568.75 -0.0111569687 0.1150351303
569.375 -0.02071570762 0.09519225027
570.0 -0.02305463584 0.06395149039
570.625 -0.009919303149 0.05766130325
571.25 -0.01652043302 0.07730392468
571.875 -0.02050844536 0.0537355747
572.5 -0.01374427649 0.05050823233
573.125 0.0009555400107 0.08352130657
573.75 0.05726874268 0.1109273997
574.375 0.06340512494 0.08079691328
575.0 0.05921422894 0.04611609177
575.625 0.07530710291 0.04800270144
576.25 0.0771622787 0.07981164264
576.875 0.07567220632 0.06868873162
577.5 0.08182304741 0.04312914023
578.125 0.1029678306 0.04071328181
578.75 0.09131595544 0.06579035704
579.375 0.07688475832 0.04414730548
580.0 0.08241624944 0.02532746221
580.625 0.08480157231 0.02036353032
581.25 0.05330971596 0.02836552709
581.875 0.02160561443 0.03663681415
582.5 0.03793697752 0.05454760324
583.125 0.05044732283 0.0848232931
583.75 0.04077264697 0.07641754226
584.375 0.0251268042 0.06561319768
585.0 0.01752319323 0.07959532929
585.625 0.01343195889 0.1029247188
586.25 0.01593075242 0.07894416453
586.875 0.02441990687 0.06337511886
587.5 0.03509348719 0.08114993665
588.125 0.06381579772 0.07413459131
588.75 0.06817569682 0.04884044014
589.375 0.07606636707 0.003126507433
590.0 0.07153306787 -0.003520132434
590.625 0.0428725048 0.01733772491
591.25 0.03810134017 0.03334673305
591.875 0.06269938817 0.03239276841
592.5 0.09645773408 0.02473127153
593.125 0.08749376969 0.02910358676
593.75 0.07321449568 0.02727193654
594.375 0.07584370305 0.04727374772
595.0 0.06184469833 0.07455814
595.625 0.03111415719 0.07186866059
596.25 0.01351681379 0.05890920753
596.875 0.0008027020297 0.06752326088
597.5 -0.01371413373 0.07173717356
598.125 3.065109916e-05 0.06571460846
598.75 0.02140734439 0.05247522877
599.375 0.0211904757 0.0390159208
600.0 0.004387326849 0.0221243434
600.625 -0.01143337932 0.009446442715
601.25 -0.02809505906 0.01768982956
601.875 -0.04069669033 0.03193336507
602.5 -0.04046939416 0.03554583926
603.125 -0.03929606739 0.03837426699
603.75 -0.03455309238 0.04925446295
604.375 -0.03119278206 0.04490411726
605.0 -0.02739885052 0.02433972158
605.625 -0.03432762966 0.01069326774
606.25 -0.05216267156 0.01119696854
606.875 -0.05613203276 0.0212431451
607.5 -0.03407437065 0.03343223137
608.125 -0.01033295436 0.03147359731
608.75 -0.007293788055 0.02393859857
609.375 -0.00639784831 0.01901373741
610.0 0.001250449191 0.01292740249
610.625 0.008780354258 0.00191917377
611.25 0.009304600695 -0.01044869119
611.875 0.007978824253 -0.01938972175
612.5 0.001494087673 -0.02382098994
613.125 -0.009859589156 -0.01807902784
613.75 -0.01150203156 -0.003191259228
614.375 -0.0009812994088 0.005918585805
615.0 0.008671217798 0.002174580392
615.625 0.004136911786 -0.001864916406
616.25 -0.001578899986 0.00821000547
616.875 0.008476913505 0.02179476982
617.5 0.02194071175 0.02335092647
618.125 0.02316589652 0.01921668176
618.75 0.02288834267 0.0208211935
619.375 0.03056096844 0.03060922195
620.0 0.04380759822 0.02993776954
620.625 0.04701195446 0.003098137972
621.25 0.03710278818 -0.008048722873
621.875 0.0187692316 -0.01174375669
622.5 -0.008553424312 0.0029479887
623.125 -0.005628839698 0.02996551776
623.75 0.007850264305 0.04684163834
624.375 0.003765978064 0.05756623829
625.0 -0.0174230136 0.05594981661
625.625 -0.01451786634 0.0660231511
626.25 0.005140688458 0.08965832545
626.875 0.01323991067 0.09479200707
627.5 0.005861836028 0.07905242845
628.125 0.0004903710822 0.07029838892
628.75 -0.01215234608 0.08066059833
629.375 -0.02512315652 0.07257540889
630.0 -0.01717897628 0.05352939691
630.625 -0.01888373467 0.04068993779
631.25 -0.03573297065 0.02618897132
631.875 -0.04902390478 0.00358029796
632.5 -0.05002749242 -0.00333215491
633.125 -0.06289300182 -0.000762698308
633.75 -0.07959237842 0.005374613215
634.375 -0.08056225372 -0.003044151436
635.0 -0.08378737595 0.01063049102
635.625 -0.0909182341 0.04114136149
636.25 -0.09119135701 0.03852500552
636.875 -0.07207122917 0.01422583649
637.5 -0.07992476849 0.01161242007
638.125 -0.112304989 0.02149014448
638.75 -0.1024498992 0.01515479276
639.375 -0.06660730372 -0.004263238807
640.0 -0.04972934015 -0.02804160106
640.625 -0.04361146702 -0.07540342085
641.25 -0.01901452532 -0.08277231069
641.875 -0.01715083354 -0.06977966302
642.5 -0.01855317948 -0.07746082697
643.125 0.01025947927 -0.10470906
643.75 0.0398158817 -0.09464842221
644.375 0.006903180675 -0.08793549685
645.0 -0.02119088086 -0.1000461396
645.625 -0.00169221908 -0.09961856509
646.25 0.01726538532 -0.07766342577
646.875 0.0230210347 -0.07121636757
647.5 0.01100284367 -0.100176842
648.125 0.02533329056 -0.08828958366
648.75 0.04295373942 -0.05430415441
649.375 0.06548267833 -0.04101925535
650.0 0.1002292679 -0.03697028448
650.625 0.1090961919 -0.009384024171
651.25 0.09786028536 0.009547187605
651.875 0.1062523324 0.04441073341
652.5 0.08821041466 0.1047525259
653.125 0.06074892789 0.1008461468
653.75 0.05538648185 0.08712684303
654.375 0.03759695098 0.1009791634
655.0 -0.02450870971 0.08693913861
655.625 -0.0334766655 0.04972558371
656.25 -0.02054092742 0.06352173835
656.875 -0.009666360612 0.101700017
657.5 -0.05327946293 0.09310108279
658.125 -0.06671708749 0.06642807095
658.75 -0.0447983645 0.09772832663
659.375 -0.0107420043 0.1494691036
660.0 0.0199883504 0.1414346548
660.625 0.04404717727 0.1116630824
661.25 0.0784839103 0.09777031533
661.875 0.1014794892 0.08997439335
662.5 0.08882135352 0.06079336232
663.125 0.07432824101 0.05368347897
663.75 0.04128156676 0.09592681625
664.375 -0.04807922454 0.08145748097
665.0 -0.07361118191 0.0340682142
665.625 -0.08298325036 0.01789072758
666.25 -0.1284696348 -0.02282946677
666.875 -0.09962785767 -0.09107606134
667.5 -0.08378041966 -0.0835431344
668.125 -0.1089813862 -0.0664252979
668.75 -0.1334368058 -0.07507704843
669.375 -0.08242148279 -0.08079737719
670.0 -0.05314794841 -0.06276041735
670.625 -0.07597467533 -0.07405246582
671.25 -0.1002036319 -0.07538588776
671.875 -0.0825403278 -0.05845303189
672.5 -0.08131745317 -0.02852935107
673.125 -0.1107273303 -0.0119113794
673.75 -0.1344855435 -0.0224249423
674.375 -0.1242230572 -0.03456870346
675.0 -0.1124963824 -0.06584900586
675.625 -0.07595012269 -0.1144259943
676.25 -0.0251455669 -0.1257234036
676.875 -0.02152761433 -0.1146220004
677.5 -0.03687523408 -0.127882621
678.125 0.01225183478 -0.1162052003
678.75 0.0317745312 -0.06163053753
679.375 0.04256069551 -0.04809340782
680.0 0.05127544755 -0.09132903835
680.625 0.0860594843 -0.1132878089
681.25 0.05804742212 -0.09749655567
681.875 0.01257334117 -0.1124425767
682.5 -0.06240737153 -0.1460076051
683.125 -0.06659150734 -0.1689060528
683.75 -0.01693050169 -0.1379629266
684.375 0.02934772825 -0.117681992
685.0 0.117183772 -0.08502317558
685.625 0.1375906181 0.007412740708
686.25 0.0986616283 0.0516518681
686.875 0.06282545104 0.06969208792
687.5 0.009204989899 0.08930264175
688.125 -0.02771333203 0.0875000801
688.75 -0.03921877704 0.102058417
689.375 -0.06532815871 0.1360451787
690.0 -0.09071059374 0.1082211212
690.625 -0.07036171658 0.1058562175
691.25 -0.008602771485 0.1450599112
691.875 0.09555196489 0.178871957
692.5 0.1314019102 0.08817942216
693.125 0.09169537345 -0.0389846839
693.75 0.05652633501 -0.08447777202
694.375 0.09537419718 -0.1113598999
695.0 0.1426078826 -0.01684844677
695.625 0.08196918928 0.06089433406
696.25 0.002954937382 0.1117620382
696.875 -0.1185818782 0.07208949753
697.5 -0.1442709755 -0.03717607435
698.125 -0.1239208843 -0.06474560821
698.75 -0.1293603805 -0.05894331443
699.375 -0.1072860643 -0.06224767963
700.0 -0.08181524391 -0.06722987441
700.625 -0.06641434709 -0.09304030666
701.25 -0.02815981624 -0.1159142393
701.875 -0.01327608323 -0.08325859919
702.5 -0.03432509315 -0.07575517211
703.125 -0.1231082769 -0.0572820377
703.75 -0.1979924399 0.03537596212
704.375 -0.1180552707 0.08858998287
705.0 -0.06915561171 0.08990258066
705.625 -0.1104391975 0.0797396478
706.25 -0.1650374527 -0.05073956064
706.875 -0.03289064281 -0.1214879392
707.5 0.002632307967 -0.08891214373
708.125 0.05141854244 -0.07120762783
708.75 0.099237585 0.0001743072738
709.375 0.06008672073 0.07764712374
710.0 0.01649369476 0.08495233658
710.625 -0.01141652785 0.0903319477
711.25 -0.05073863687 0.08272242801
711.875 -0.06014242449 0.09941612882
712.5 -0.01798691718 0.145256305
713.125 0.09393432389 0.1245929524
713.75 0.1315043384 -0.006030399065
714.375 0.08424402053 -0.08626014363
715.0 0.06342061547 -0.1196993994
715.625 0.08733321911 -0.07034119735
716.25 0.06802666309 -0.01053055021
716.875 0.05963281584 0.02446569128
717.5 0.05009986843 0.08734565824
718.125 -0.0009493193006 0.1150943718
718.75 -0.02187404706 0.08348761587
719.375 -0.03146598218 0.06793895728
720.0 -0.08279124168 0.04384571811
720.625 -0.09824868837 -0.05913490408
721.25 -0.0009420332032 -0.1102309938
721.875 0.06167978263 -0.08584230444
722.5 0.07472530232 -0.06665138313
723.125 0.04144105365 -0.06507733549
723.75 0.01344246418 -0.05660058962
724.375 -0.01677140536 -0.05894369486
725.0 -0.04142511313 -0.036538952
725.625 -0.04380625726 -0.02135169153
726.25 -0.05362679372 -0.02738994595
726.875 -0.06080839068 -0.05582501136
727.5 -0.04738522481 -0.07089161221
728.125 -0.02749325369 -0.06500426363
728.75 -0.02336293273 -0.05248115879
729.375 -0.02114475923 -0.04713387352
730.0 -0.0192826576 -0.04500829765
730.625 -0.01429041995 -0.03421354169
731.25 0.0006662012064 -0.02630173269
731.875 0.01532425398 -0.01180161955
732.5 0.01022658944 0.01070081671
733.125 -0.001206428665 0.02580451858
733.75 0.009370810725 0.03351523326
734.375 0.02355764536 0.02605428563
735.0 0.02691391127 0.003552054904
735.625 0.02063364358 -0.00733444139
736.25 0.01002263697 -0.01985107017
736.875 -0.01314630586 -0.02526181431
737.5 -0.03586663317 -0.01514286493
738.125 -0.04803324833 -0.001144623412
738.75 -0.04122795772 0.01225338554
739.375 -0.01970295002 0.01221965331
740.0 -0.01194271574 -0.006912900697
740.625 -0.02830065499 -0.009900035074
741.25 -0.03268388026 -0.003333812245
741.875 -0.02147049301 -0.02017738693
742.5 0.01754804598 -0.02452133914
743.125 0.03066254805 0.01151487536
743.75 0.01875464727 0.02623697141
744.375 0.01735313766 0.03045368882
745.0 0.01200562721 0.0424340492
745.625 0.01591759655 0.05691776482
746.25 0.05004985709 0.05421966039
746.875 0.0827814196 0.003506568597
747.5 0.06460425275 -0.03796947045
748.125 0.03458693041 -0.04699187
748.75 0.008939193623 -0.04939861514
749.375 -0.02975313418 -0.05311252242
750.0 -0.07119861289 0.001627032385
