!Created with skrf (http://scikit-rf.org).
# GHz S RI R 50.0 
!freq ReS11 ImS11
500.0 -0.02888858987 0.0254989273
500.625 0.01212368334 0.04670954122
501.25 0.02002826992 0.04281125193
501.875 0.0139355763 0.05692540798
502.5 0.000785220918 0.0702787381
503.125 0.03080518163 0.05866401578
503.75 0.0504738985 0.03694965078
504.375 0.05821709518 0.01574868347
505.0 0.06771261865 -0.01735317845
505.625 0.08305193869 -0.03535314689
506.25 0.06043283739 -0.04744400276
506.875 0.08246521456 -0.01950412122
507.5 0.07842106586 -0.03370072167
508.125 0.09355757217 0.007409748954
508.75 0.07300118936 -0.04498219173
509.375 0.06220677441 -0.04642446658
510.0 0.100234171 -0.03048657596
510.625 0.009239163194 -0.08164568669
511.25 -0.0242644666 -0.06932431642
511.875 -0.05041834828 -0.03153630308
512.5 -0.04394376072 -0.008744188199
513.125 -0.04123978716 0.02860538918
513.75 -0.04274855979 0.04664214313
514.375 -0.03043630885 0.0773960043
515.0 -0.001248672266 0.1110240129
515.625 -0.0706803124 0.09967597195
516.25 0.02246391789 0.1254725858
516.875 -0.07200892615 0.1314894935
517.5 0.02549917508 0.1266840501
518.125 -0.09627479553 0.1093144884
518.75 0.01388905374 0.06895413719
519.375 -0.00679397775 0.0970928166
520.0 0.0439345596 0.0834251037
520.625 0.05818347954 0.06668085612
521.25 0.06391800086 0.0470370298
521.875 0.03704511464 0.06384317575
522.5 0.07384621559 0.02144848841
523.125 0.1317610427 0.008209264584
523.75 0.1292245386 -0.02511894681
524.375 0.07171061005 0.02677301629
525.0 0.007227475679 0.01919632083
525.625 0.008662318216 0.03765562127
526.25 0.01159157869 0.06276235176
526.875 0.01948052459 0.05210789508
527.5 0.03349853751 0.03487715568
528.125 0.05827270734 0.008358570714
528.75 0.08018043901 -0.007231872341
529.375 0.06304185974 -0.04178879011
530.0 0.03451466326 -0.04118400088
530.625 -0.001148150657 -0.101193462
531.25 0.0206623048 -0.1954424026
531.875 -0.05624657646 -0.1724850435
532.5 -0.09349790112 -0.1009450662
533.125 -0.09322647029 -0.07367344388
533.75 -0.0860658837 -0.08602958409
534.375 -0.08115885635 -0.05297544158
535.0 -0.07647947115 -0.03163044838
535.625 -0.04139003956 -0.04809495362
536.25 -0.04532953528 -0.04896367747
536.875 -0.05258126958 -0.07324255733
537.5 -0.0592565585 -0.101247587
538.125 -0.08271845357 -0.0727663824
538.75 -0.06870927673 -0.04530462128
539.375 -0.04670416547 -0.06137762586
540.0 -0.06188088459 -0.1022134882
540.625 -0.07384433918 -0.1294377203
541.25 -0.04576210925 -0.1041665314
541.875 -0.05513170607 -0.09455180478
542.5 -0.06597614386 -0.1086387433
543.125 -0.1089429403 -0.07621317692
543.75 -0.1114304562 0.01262917661
544.375 -0.07467488162 0.04084783524
545.0 -0.04397295594 0.06899308757
545.625 -0.02124107851 0.07456536933
546.25 0.01075545791 0.08849372382
546.875 0.02286604554 0.08410206218
547.5 0.01756941079 0.1060780816
548.125 0.0009995152296 0.08869235318
548.75 -0.0146953633 0.08776246525
549.375 -0.02788119103 0.09028019456
550.0 -0.05435217981 0.03913115816
550.625 -0.03350436191 0.004207673764
551.25 -0.0329602765 -0.03241241946
551.875 -0.06700436392 -0.03781551704
552.5 -0.08797952539 -0.04804406743
553.125 -0.08411703373 -0.01858472384
553.75 -0.09062886834 -0.01838505656
554.375 -0.1073793071 0.01507320918
555.0 -0.1064145631 0.0318252701
555.625 -0.08442423818 0.03782855064
556.25 -0.09371816714 0.03023790779
556.875 -0.1069808373 0.02616071011
557.5 -0.09752052346 0.03849878074
558.125 -0.09147585835 0.03079084545
558.75 -0.08114938473 0.009942072934
559.375 -0.05550582836 0.0001430406278
560.0 -0.03666718794 -0.00352009869
560.625 -0.04680378638 -0.02650761534
561.25 -0.07290832975 -0.02928451158
561.875 -0.0875074771 -0.01479796983
562.5 -0.07916300813 0.03082746173
563.125 -0.06981559464 0.07245067919
563.75 -0.05643953113 0.1058157205
564.375 -0.02487280197 0.09776147947
565.0 -0.01724740246 0.09026044139
565.625 -0.01116118364 0.08080755833
566.25 -0.04815536636 0.06590163765
566.875 -0.0626061383 0.03658907677
567.5 -0.06748307868 0.02995193401
568.125 -0.07525124353 0.02278062812
568.75 -0.06020757537 0.01019588931
569.375 -0.04309996594 -0.01004648039
570.0 -0.03576745379 -0.0263527297
570.625 -0.05713194876 -0.04033928155
571.25 -0.05237796875 -0.03148906728
571.875 -0.06612790738 -0.02310701915
572.5 -0.09322512637 0.00120351693
573.125 -0.1175220559 0.04226520373
573.75 -0.06379597065 0.07511308384
574.375 -0.02851415735 0.07941038505
575.0 -0.03563995309 0.08192217811
575.625 -0.05132016503 0.08420154168
576.25 -0.0309948146 0.08211226308
576.875 -0.003931636435 0.08587299676
577.5 0.005431538067 0.0859063655
578.125 -0.01455146396 0.06904979005
578.75 -0.008768798688 0.05225806318
579.375 -0.005660131761 0.05241625977
580.0 -0.01196516827 0.04701922539
580.625 -0.02909915603 0.02758422212
581.25 -0.05010840379 0.02216587261
581.875 -0.06308054579 0.04677938334
582.5 -0.07401800177 0.06181738939
583.125 -0.05873610795 0.06379107732
583.75 -0.05796386791 0.05032884028
584.375 -0.06846854081 0.04103382328
585.0 -0.08349870371 0.02503429732
585.625 -0.06365153592 0.03906697622
586.25 -0.05788518622 0.0338241209
586.875 -0.06430020605 0.02658890049
587.5 -0.06122927849 0.03288555171
588.125 -0.02423653331 0.05757215034
588.75 -0.01062468714 0.05592113859
589.375 -0.01868451957 0.04667646678
590.0 -0.03379794254 0.03408912219
590.625 -0.03013838162 0.05704159224
591.25 -0.01773430224 0.08534483511
591.875 -0.005140146737 0.1022154128
592.5 0.01138871625 0.08243264884
593.125 0.01779079784 0.06562052245
593.75 0.009303583951 0.07078888312
594.375 -0.01579542124 0.06771010787
595.0 -0.02625883408 0.04709200761
595.625 -0.02862617714 0.02344312541
596.25 -0.04046004956 0.008596229616
596.875 -0.04288174776 -0.002278728374
597.5 -0.04178661847 0.0003457421489
598.125 -0.03116202257 0.001105003017
598.75 -0.02177744154 -0.004327436491
599.375 -0.01607991376 -0.01971169702
600.0 -0.0235696528 -0.03294544107
600.625 -0.03843024211 -0.04747768077
601.25 -0.05425629332 -0.04634404592
601.875 -0.0591030841 -0.02623717818
602.5 -0.05940246802 -0.01151965771
603.125 -0.05914129871 -0.009710164977
603.75 -0.04744966337 -0.006470325035
604.375 -0.02904087273 -0.005265622727
605.0 -0.02134044515 -0.01654786487
605.625 -0.02636012284 -0.02967187697
606.25 -0.03324941089 -0.02778616778
606.875 -0.03168346531 -0.008693673309
607.5 -0.01585170324 0.007056814104
608.125 -0.0001603071875 0.003086828641
608.75 0.003204144631 -0.002262215838
609.375 0.008144067101 -0.0007926152193
610.0 0.01763772573 -0.0005205532727
610.625 0.02361805719 -0.008399143693
611.25 0.02286173396 -0.01621244067
611.875 0.01915550284 -0.01985621345
612.5 0.009241208038 -0.02133195233
613.125 -0.006151503166 -0.0146118391
613.75 -0.01157591581 0.0007696218593
614.375 -0.005182607106 0.009743007886
615.0 0.0008765672142 0.006128174128
615.625 -0.007506247924 0.002107430135
616.25 -0.01666132771 0.01327243442
616.875 -0.0114491854 0.02676533149
617.5 -0.001782251727 0.02572796258
618.125 -0.002757397817 0.01959313399
618.75 -0.007202146636 0.02137987788
619.375 -0.005180123824 0.02505823691
620.0 0.005380830819 0.01875945059
620.625 0.007948150707 -0.00138439462
621.25 -0.005375120493 -0.01780268063
621.875 -0.02582916929 -0.03056908597
622.5 -0.05860395246 0.01148132288
623.125 -0.05794530883 0.04417282653
623.75 -0.05255942581 0.05208952994
624.375 -0.05379977452 0.03776032315
625.0 -0.06497259332 0.01788532368
625.625 -0.072861536 0.02601794992
626.25 -0.0583924095 0.0408473848
626.875 -0.0363309286 0.04129842749
627.5 -0.03402919574 0.02296436845
628.125 -0.04073036573 -0.0003249828088
628.75 -0.03383905867 -0.01175069405
629.375 -0.02218372135 -0.008961719281
630.0 -0.01246702126 -0.0201747821
630.625 0.002516811923 -0.04402006842
631.25 0.01244426373 -0.05967937862
631.875 0.009216649089 -0.06759358693
632.5 -0.006743910309 -0.07750290505
633.125 -5.65684598e-05 -0.08386665657
633.75 -0.01618688266 -0.07864025832
634.375 -0.0143237486 -0.08210147203
635.0 -0.03439009436 -0.08047969692
635.625 -0.03785658721 -0.0615473868
636.25 -0.03029555817 -0.04829569867
636.875 -0.01084681846 -0.06895265082
637.5 -0.01543326332 -0.08560813921
638.125 -0.02676798074 -0.06286327236
638.75 -0.01949037217 -0.03968793128
639.375 0.02369335168 -0.03725469472
640.0 0.0740014513 -0.02283255335
640.625 0.07180214055 -0.0192367878
641.25 0.06483009989 -0.03064239391
641.875 0.0706758935 -0.02369704237
642.5 0.07980141292 0.0106170494
643.125 0.07244988932 0.02114605744
643.75 0.07532569979 0.01243197507
644.375 0.07784315575 0.001569829651
645.0 0.06189487058 0.01356167143
645.625 0.05809979283 0.02673170391
646.25 0.06968423716 0.03175608507
646.875 0.09019220041 0.03789150338
647.5 0.0734267961 0.02556480266
648.125 0.0669983177 0.0308670311
648.75 0.05945957435 0.06570573199
649.375 0.05470129604 0.09442729779
650.0 0.04473422493 0.0808516928
650.625 0.03727510179 0.08233230912
651.25 0.006990142934 0.09152805408
651.875 -0.03776886436 0.07658580179
652.5 -0.03760598577 0.05665961736
653.125 -0.04232511147 0.04149940381
653.75 -0.05445169899 0.005148315659
654.375 -0.03929236276 -0.04075712189
655.0 -0.03707087155 -0.05718857929
655.625 -0.06103430362 -0.0654293101
656.25 -0.08964479272 -0.06958006463
656.875 -0.09063285295 -0.04455140446
657.5 -0.09121863279 -0.05520978835
658.125 -0.1085306905 -0.05687536987
658.75 -0.1241498374 -0.04229489193
659.375 -0.0993214175 0.01394053405
660.0 -0.08180981963 0.0347301236
660.625 -0.07665745861 0.03372547774
661.25 -0.07323639566 0.02249340241
661.875 -0.05098771611 0.03780488615
662.5 -0.05379758616 0.040939826
663.125 -0.08477889049 0.02440458371
663.75 -0.08276551105 -0.02909481403
664.375 -0.06520127376 -0.06516162524
665.0 -0.03662763575 -0.1019843635
665.625 0.01053293479 -0.1274746387
666.25 0.03640440867 -0.1026225104
666.875 0.047901016 -0.09746882501
667.5 0.06200879229 -0.09715463453
668.125 0.07168898996 -0.06887238096
668.75 0.04914920474 -0.04940474931
669.375 0.05668291303 -0.03735752081
670.0 0.08195440126 -0.04280214735
670.625 0.0879981963 -0.02613850715
671.25 0.07020826842 -0.04318454134
671.875 0.07444739252 -0.05302990344
672.5 0.05782931972 -0.1055652976
673.125 0.02972287168 -0.1137271292
673.75 0.005574093036 -0.1142429029
674.375 0.03265959274 -0.09960095479
675.0 0.06838555165 -0.06613722481
675.625 0.06991588027 -0.03784155525
676.25 0.08271306244 -0.01644223786
676.875 0.08584196207 0.01712714102
677.5 0.04772434719 0.04705279512
678.125 0.04370673627 0.05148083262
678.75 0.06297783815 0.07636453905
679.375 0.07862643957 0.1114535461
680.0 0.06211895928 0.09872383141
680.625 0.08649538001 0.06412180933
681.25 0.1160022467 0.03110791533
681.875 0.1430963708 0.003759180194
682.5 0.1050608777 -0.03117656116
683.125 0.08002257679 -0.03686679502
683.75 0.08383783654 -0.01098029292
684.375 0.07412098719 0.05710405032
685.0 0.01974830472 0.0743950914
685.625 -0.04117643489 0.06016253029
686.25 -0.07702155233 0.02226191278
686.875 -0.09755236123 -0.01984344261
687.5 -0.1044278716 -0.0352648206
688.125 -0.1309997443 -0.05246050822
688.75 -0.1228392438 -0.0777227583
689.375 -0.09583627897 -0.06103949444
690.0 -0.09628450483 -0.05031786043
690.625 -0.1138162603 -0.05121728687
691.25 -0.1121975874 -0.04420354727
691.875 -0.06541159639 0.01841679211
692.5 -0.04381760673 0.04198611009
693.125 -0.024491297 0.08968295947
693.75 0.005328549565 0.1391459544
694.375 0.02570322337 0.1110879621
695.0 -0.006087748173 0.1137161664
695.625 -0.09197213787 0.09134848392
696.25 -0.1290408037 -0.04467180512
696.875 -0.0479125363 -0.1204609974
697.5 0.0302208074 -0.1164438842
698.125 0.05354823907 -0.08774767933
698.75 0.04411198955 -0.05856304792
699.375 0.06156220996 -0.05050382159
700.0 0.08906635121 -0.02957760217
700.625 0.08433516726 0.02097548551
701.25 0.07042149662 0.02338500924
701.875 0.1036055966 0.009948118381
702.5 0.1418358405 -0.05865241779
703.125 0.0975566491 -0.1043567037
703.75 -0.03341389679 -0.09994665463
704.375 -0.06720960487 -0.06113517382
705.0 -0.06543258559 -0.08954417609
705.625 0.01305300984 -0.1015386857
706.25 0.04690495272 -0.05676525789
706.875 0.0630550887 0.004821263637
707.5 0.04922786098 0.0663474833
708.125 -0.01281357392 0.1002478525
708.75 -0.0557549242 0.09322214024
709.375 -0.08924933938 0.04956120404
710.0 -0.09604270231 -0.005843910189
710.625 -0.08779245745 -0.03526123794
711.25 -0.09586101626 -0.06899760566
711.875 -0.1043470553 -0.06148809651
712.5 -0.0922266282 -0.00605945097
713.125 -0.0433221133 0.05706125299
713.75 -0.007646413548 0.06787320763
714.375 -0.007451466424 0.08159750511
715.0 -0.006131617186 0.06698729971
715.625 -0.007095517312 0.06351351681
716.25 -0.03700682522 0.08153262317
716.875 -0.100826946 0.06814539406
717.5 -0.1031646879 -0.002456709714
718.125 -0.0849572619 -0.01480467157
718.75 -0.08128108254 -0.02706175851
719.375 -0.07082068701 -0.06226402421
720.0 -0.02407932115 -0.0846634578
720.625 0.03476897735 -0.06790279375
721.25 0.05927608862 -0.008310195113
721.875 0.02224082894 0.03112009778
722.5 -0.009195818043 0.03477698642
723.125 -0.01840805601 0.05961532424
723.75 0.03362029371 0.07502090262
724.375 0.07020845254 0.02202033087
725.0 0.05586675127 -0.03218585333
725.625 0.04145451495 -0.05705941175
726.25 0.03486418045 -0.06278039323
726.875 0.03202603609 -0.04840565739
727.5 0.02871394215 -0.03158177875
728.125 0.03154376742 -0.002997777977
728.75 0.03055466321 0.01787609554
729.375 0.03467043919 0.009926278516
730.0 0.0280471389 -0.002896590138
730.625 0.01739438515 0.007527381537
731.25 0.006703757558 0.02151622679
731.875 -0.01130467051 0.02259741182
732.5 -0.02677766828 0.01499335778
733.125 -0.03073731423 0.01272169178
733.75 -0.01626575116 0.02082996043
734.375 0.001356577437 0.0167288982
735.0 0.009487389493 0.002878229827
735.625 0.01048537321 -0.007227546488
736.25 0.005106600432 -0.02279699579
736.875 -0.01381409409 -0.03297510124
737.5 -0.02977224355 -0.02558908809
738.125 -0.03148252719 -0.009956603283
738.75 -0.01483864372 0.01007446712
739.375 0.0150787929 0.01631196973
740.0 0.03010231323 -0.006764838852
740.625 0.01564153827 -0.0219469792
741.25 0.01599133195 -0.01429247841
741.875 0.02531083991 0.009836798295
742.5 0.0008130635726 0.0328699135
743.125 -0.03217864389 0.02020726428
743.75 -0.04624144333 -0.003551674845
744.375 -0.05589658205 -0.01344241924
745.0 -0.07070846009 -0.006865823727
745.625 -0.07624418886 0.03336691597
746.25 -0.03686611013 0.06562223255
746.875 0.009479867873 0.04900480802
747.5 0.01255041394 0.02353009161
748.125 0.00114355627 0.02324629651
748.75 0.01284925348 0.03481785569
749.375 0.04011555677 0.01207110191
750.0 0.03292527431 -0.0343037748
