!Created with skrf (http://scikit-rf.org).
# GHz S RI R 50.0 
!freq ReS11 ImS11
500.0 -0.03160825308 0.02695957009
500.625 -0.0002771268344 0.04868482779
501.25 0.006592215994 0.04829493579
501.875 -0.002888416067 0.06603737746
502.5 -0.01576138496 0.07857308882
503.125 0.01725741188 0.06794263502
503.75 0.04045179454 0.04732250921
504.375 0.05552813478 0.0287240502
505.0 0.07341976359 -0.00050714865
505.625 0.08368095376 -0.01438452856
506.25 0.06366929763 -0.0259563236
506.875 0.07689771473 0.006947066058
507.5 0.0828590503 0.0008671469435
508.125 0.07821294155 0.03693801728
508.75 0.07957664105 -0.01341975718
509.375 0.07673285135 -0.01625374272
510.0 0.1064684473 0.01390148739
510.625 0.03055310074 -0.06975004188
511.25 -0.002774199751 -0.06684567365
511.875 -0.02927230943 -0.04415937051
512.5 -0.02764804306 -0.0263138968
513.125 -0.04525350045 0.004154799548
513.75 -0.06277113391 0.02214875751
514.375 -0.06408002636 0.06217422187
515.0 -0.04890210858 0.09843912015
515.625 -0.097628349 0.07369715007
516.25 -0.01566223715 0.1249342211
516.875 -0.1002263175 0.09065301495
517.5 -0.01353919034 0.102503301
518.125 -0.09666937247 0.04600809844
518.75 -0.02123703886 0.06003447153
519.375 -0.05116765073 0.07514953797
520.0 0.01123767546 0.08215854043
520.625 0.020805694 0.06813184373
521.25 0.03108592706 0.06114276536
521.875 3.372241788e-05 0.05910647517
522.5 0.04915409041 0.03381763395
523.125 0.07852708591 0.03979447063
523.75 0.05949259309 0.02831836778
524.375 -0.02318153174 0.03991318686
525.0 -0.02693355412 0.02600255911
525.625 -0.0247179337 0.05133922263
526.25 -0.03497591174 0.06815175938
526.875 -0.01472621917 0.05476654845
527.5 0.01072756439 0.0550287378
528.125 0.05400854356 0.04333574342
528.75 0.07197813776 0.04035609861
529.375 0.07380999561 0.006725262094
530.0 0.06579247623 -0.02277296276
530.625 0.05194734951 -0.1243193039
531.25 0.09559702639 -0.1793387046
531.875 0.01215088777 -0.176896385
532.5 -0.04443942126 -0.1167834113
533.125 -0.04179625424 -0.1156604657
533.75 -0.03219997811 -0.1015713926
534.375 -0.04414665958 -0.08120060802
535.0 -0.04220036627 -0.05844745755
535.625 0.001491747196 -0.06665385852
536.25 -0.01232437845 -0.06820209877
536.875 -0.02024505814 -0.09991855366
537.5 -0.01327725808 -0.1214812229
538.125 -0.03337871891 -0.09249123261
538.75 -0.0324596077 -0.06316273128
539.375 -0.003417365282 -0.08316853352
540.0 -0.004624770166 -0.1397923221
540.625 0.002009993241 -0.1477199188
541.25 1.594929358e-05 -0.1092566345
541.875 -0.01144166653 -0.1163824391
542.5 -0.01591941886 -0.1310377492
543.125 -0.06434114595 -0.1012429256
543.75 -0.08443545919 -0.02267697502
544.375 -0.06825507784 0.002144148615
545.0 -0.06390099258 0.01736955461
545.625 -0.05326868064 0.04698307136
546.25 -0.03775639011 0.06906545382
546.875 -0.0230815708 0.07518067834
547.5 -0.04412028318 0.07845234897
548.125 -0.03637268478 0.06734268169
548.75 -0.05470730497 0.05077838217
549.375 -0.0722146485 0.03498657706
550.0 -0.05134479116 -0.02015855999
550.625 -0.03024758021 -0.03695001311
551.25 -0.01339091865 -0.072883141
551.875 -0.05172703193 -0.09476332795
552.5 -0.05967992575 -0.0859090474
553.125 -0.07939984562 -0.05559435102
553.75 -0.0886588974 -0.05456751463
554.375 -0.1101863614 -0.03085962262
555.0 -0.1029297069 -0.01381475419
555.625 -0.08836631844 0.003178314628
556.25 -0.09829204327 -0.01293368723
556.875 -0.09858338828 -0.01666027998
557.5 -0.09452192214 -0.004034819674
558.125 -0.07601531613 -0.006288560796
558.75 -0.05637427713 -0.03041259337
559.375 -0.02712151568 -0.02416553888
560.0 -0.02030814726 -0.03588643372
560.625 -0.02619760911 -0.06447556399
561.25 -0.0605753486 -0.07261323438
561.875 -0.07544748963 -0.04669212683
562.5 -0.09023246431 -0.0002676680242
563.125 -0.09977390942 0.03894073417
563.75 -0.08939745359 0.06439211092
564.375 -0.04842726876 0.07270194202
565.0 -0.04444585979 0.06409314015
565.625 -0.04720073005 0.05492233166
566.25 -0.07046348761 0.01886711329
566.875 -0.06567122856 7.568369322e-05
567.5 -0.06958980454 -0.007013042454
568.125 -0.06534297678 -0.01869446509
568.75 -0.04545214199 -0.02287997651
569.375 -0.01907494847 -0.03972307465
570.0 -0.01937910195 -0.05616717848
570.625 -0.02953390781 -0.07417694967
571.25 -0.04204368426 -0.05492890498
571.875 -0.0588243142 -0.06034983423
572.5 -0.1006582656 -0.03591471559
573.125 -0.122477021 -0.004906087424
573.75 -0.07708802916 0.05199570746
574.375 -0.05884189332 0.05771443722
575.0 -0.07561317975 0.05831035349
575.625 -0.07523320887 0.05404832619
576.25 -0.05116814044 0.06564985947
576.875 -0.03055104384 0.07452361322
577.5 -0.0306678897 0.07175051393
578.125 -0.03396397683 0.04158393164
578.75 -0.02707858406 0.03552611883
579.375 -0.02955953047 0.03610231138
580.0 -0.0375563233 0.02489084757
580.625 -0.0500547157 0.001716887742
581.25 -0.06821691637 0.003677881478
581.875 -0.08844329445 0.02851048406
582.5 -0.0896768508 0.03370606649
583.125 -0.07921547774 0.03937719648
583.75 -0.07165231504 0.02305241884
584.375 -0.08413849155 0.01231419363
585.0 -0.07981336116 -0.003438993055
585.625 -0.07151945454 0.01516275116
586.25 -0.06406376763 0.005417914843
586.875 -0.06828565936 -0.002847868975
587.5 -0.06237726848 0.01028997885
588.125 -0.03921983629 0.04340742009
588.75 -0.03355012201 0.04009185655
589.375 -0.04640667256 0.02386448633
590.0 -0.05231414244 0.02185649545
590.625 -0.05181653447 0.05541077826
591.25 -0.04355295728 0.08643321386
591.875 -0.03591851369 0.09402356067
592.5 -0.009712303527 0.07434294689
593.125 -0.002610600225 0.06317503006
593.75 -0.01540554467 0.06468521441
594.375 -0.03360849803 0.04949801889
595.0 -0.03472810934 0.0245362737
595.625 -0.03126483537 0.004085344291
596.25 -0.0382146012 -0.01480887464
596.875 -0.03562269207 -0.01967174609
597.5 -0.03348077932 -0.01915981932
598.125 -0.02291527074 -0.01699502515
598.75 -0.01598307216 -0.0232564612
599.375 -0.01161098516 -0.0341060077
600.0 -0.01972466007 -0.04918957785
600.625 -0.0298904486 -0.06437062401
601.25 -0.04380585445 -0.05995402102
601.875 -0.05294036935 -0.03765230813
602.5 -0.05491786044 -0.02439788881
603.125 -0.05137685625 -0.0234039434
603.75 -0.03680497819 -0.01588719301
604.375 -0.02065554504 -0.01223084527
605.0 -0.01291181028 -0.02347282633
605.625 -0.01621293107 -0.03493109656
606.25 -0.02292281806 -0.02932651859
606.875 -0.02281054493 -0.009015663739
607.5 -0.007701789491 0.00556265201
608.125 0.007200597886 0.0003743388787
608.75 0.009555243673 -0.004494433749
609.375 0.01406425964 -0.001509949601
610.0 0.02285418171 7.591718953e-05
610.625 0.02779093404 -0.007378952742
611.25 0.0254515919 -0.01557784141
611.875 0.02060443158 -0.01868381145
612.5 0.009118133159 -0.02033370095
613.125 -0.006367087706 -0.01384907084
613.75 -0.0123918906 0.0007417290617
614.375 -0.006486119879 0.008769815516
615.0 -0.001146017829 0.004567182314
615.625 -0.01029512461 -0.0001986349761
616.25 -0.02035858195 0.01013195118
616.875 -0.01541793644 0.02245387167
617.5 -0.005771118493 0.0206852585
618.125 -0.007197269714 0.01367867002
618.75 -0.01203647376 0.01404249368
619.375 -0.008897744996 0.01607982562
620.0 0.002087920967 0.008798004897
620.625 0.002445086745 -0.01093763958
621.25 -0.009247576249 -0.02923613649
621.875 -0.0289467597 -0.04261665076
622.5 -0.06918268589 0.00183988951
623.125 -0.06974727115 0.03388671202
623.75 -0.06140709832 0.03905681397
624.375 -0.05929683966 0.02388486654
625.0 -0.06565227496 -0.0003072833722
625.625 -0.07082300513 0.004607606157
626.25 -0.05453264509 0.02283176693
626.875 -0.03500409937 0.02438186618
627.5 -0.02965184115 0.002900098076
628.125 -0.02700032258 -0.02234669033
628.75 -0.01698939864 -0.02478681124
629.375 -0.008446975493 -0.02146881225
630.0 0.004805981686 -0.03377584679
630.625 0.02721007103 -0.05059932788
631.25 0.03656384691 -0.06033383207
631.875 0.02961166212 -0.06836040679
632.5 0.01740525531 -0.08149406218
633.125 0.02344592364 -0.07917647997
633.75 0.008495223257 -0.08061406465
634.375 0.01245226088 -0.07943098197
635.0 -0.003734414385 -0.08308195717
635.625 -0.01364129088 -0.06015653853
636.25 -0.005688714256 -0.05394114755
636.875 0.02003708274 -0.06909304433
637.5 0.0164996275 -0.08025675888
638.125 -0.00496593322 -0.05674128018
638.75 0.004892560584 -0.03654182
639.375 0.05076758826 -0.02250321252
640.0 0.08163224143 0.01022972554
640.625 0.0742902582 0.002447643338
641.25 0.07238919381 -0.006502260545
641.875 0.07675330068 0.007442344548
642.5 0.06445820202 0.04050743003
643.125 0.05817895693 0.04334027482
643.75 0.06432642083 0.03783163982
644.375 0.06508923538 0.03451379908
645.0 0.04572680416 0.03786481464
645.625 0.04363674081 0.05385737914
646.25 0.06121885367 0.0584933747
646.875 0.07012851727 0.06929428056
647.5 0.06014748021 0.04561469566
648.125 0.05216419524 0.05826387089
648.75 0.03834551305 0.08856085998
649.375 0.02082754988 0.1042364193
650.0 0.02273054942 0.08539243386
650.625 0.007445889968 0.08473354159
651.25 -0.02706946903 0.08218823428
651.875 -0.0534417591 0.04897027453
652.5 -0.04758736059 0.03463608744
653.125 -0.04923356094 0.01232078771
653.75 -0.04630573011 -0.0325497001
654.375 -0.02098445698 -0.06251471223
655.0 -0.02176467933 -0.07757455145
655.625 -0.04527136832 -0.09145909841
656.25 -0.06157462932 -0.09904611642
656.875 -0.07913800159 -0.06785777246
657.5 -0.07250819227 -0.08098488802
658.125 -0.09051748957 -0.08976062172
658.75 -0.09437802548 -0.06978203506
659.375 -0.09106494354 -0.01120268774
660.0 -0.07808143575 0.001458659206
660.625 -0.0773861269 -0.004490120013
661.25 -0.06486702974 -0.01182034357
661.875 -0.06332115706 0.008695490285
662.5 -0.07365701607 0.01213473525
663.125 -0.09371839856 -0.01861175439
663.75 -0.07070590447 -0.05690521856
664.375 -0.04527184969 -0.09148054028
665.0 -0.002916155245 -0.1173315105
665.625 0.05324771222 -0.1129418735
666.25 0.05875089347 -0.08699164448
666.875 0.07200375469 -0.07758123158
667.5 0.08918287267 -0.06491014542
668.125 0.0771897702 -0.02862477969
668.75 0.06161369724 -0.02057223166
669.375 0.07088733709 -0.01226579463
670.0 0.09905679087 -0.006221179352
670.625 0.08516878802 0.006289398466
671.25 0.0857288892 -0.01159050313
671.875 0.09230554318 -0.02808713346
672.5 0.09357187802 -0.08297982085
673.125 0.05531860293 -0.09902817493
673.75 0.04042442993 -0.1028142386
674.375 0.06093693461 -0.0735254362
675.0 0.08059373997 -0.03072353337
675.625 0.07585429389 -0.01210713578
676.25 0.07946177467 0.01789149613
676.875 0.06293525304 0.05795846932
677.5 0.02454448586 0.0639271691
678.125 0.03080934047 0.07410829581
678.75 0.04440479895 0.1041868093
679.375 0.03788513728 0.1401774355
680.0 0.03673330272 0.1022207441
680.625 0.06665160267 0.08436548596
681.25 0.1035155627 0.06442169366
681.875 0.1231377781 0.05081301968
682.5 0.09288448358 -0.001800920007
683.125 0.07598240378 -0.004020848196
683.75 0.0778834404 0.0269921357
684.375 0.03737077505 0.07922723466
685.0 -0.01392491268 0.07549971573
685.625 -0.06624613093 0.0344243936
686.25 -0.09237046634 -0.01294268882
686.875 -0.09402532265 -0.05378516846
687.5 -0.1036434445 -0.0679451804
688.125 -0.113053412 -0.09208201802
688.75 -0.08691224236 -0.1041566778
689.375 -0.07226730901 -0.07795133036
690.0 -0.07437888135 -0.07514841684
690.625 -0.08441323526 -0.08698217072
691.25 -0.06767812725 -0.07005194354
691.875 -0.05910000877 -0.007810926332
692.5 -0.06383370737 0.01292462175
693.125 -0.07115021159 0.08699094801
693.75 -0.04858133077 0.131791412
694.375 -0.005833226835 0.1179985935
695.0 -0.04215918356 0.1116844474
695.625 -0.1230452264 0.05950738606
696.25 -0.1055334359 -0.08099225271
696.875 -0.008107543965 -0.1257019772
697.5 0.0615980501 -0.09443875903
698.125 0.07371084505 -0.05524505066
698.75 0.05934111273 -0.03510953056
699.375 0.07998476851 -0.01733656649
700.0 0.09731721191 0.01356590674
700.625 0.06942895285 0.0499841073
701.25 0.06685099567 0.0467362488
701.875 0.1073327501 0.04559914315
702.5 0.1618963076 -0.007819335638
703.125 0.1034731643 -0.06598067685
703.75 -0.004597032772 -0.09603176553
704.375 -0.03521568849 -0.07804138807
705.0 -0.01421720283 -0.1145470129
705.625 0.04613613532 -0.07859672018
706.25 0.06340646834 -0.0314993656
706.875 0.05827319723 0.0351495736
707.5 0.01841364042 0.09480614279
708.125 -0.04642071777 0.09882146053
708.75 -0.08333681503 0.07554092006
709.375 -0.1012370018 0.02298457216
710.0 -0.08876213553 -0.03403065418
710.625 -0.0772127642 -0.06046376965
711.25 -0.06932181797 -0.09446444985
711.875 -0.07439693743 -0.08086104264
712.5 -0.07191717929 -0.02298562096
713.125 -0.05228758455 0.03148691744
713.75 -0.04290718538 0.05015814819
714.375 -0.05250278495 0.06627522164
715.0 -0.03337454939 0.06120201043
715.625 -0.03280976598 0.06821122023
716.25 -0.0718709407 0.07795790734
716.875 -0.1236489313 0.02976825158
717.5 -0.0945767104 -0.0286518533
718.125 -0.07651270878 -0.03776766387
718.75 -0.0701867249 -0.0532527802
719.375 -0.04406896559 -0.08097589
720.0 0.00163979366 -0.08213785839
720.625 0.0464216387 -0.04833126525
721.25 0.04746286278 0.01253691394
721.875 -0.001004118685 0.032087627
722.5 -0.03474311133 0.02968498421
723.125 -0.045684394 0.05903920898
723.75 0.01115461349 0.08857290227
724.375 0.06434866867 0.04010064341
725.0 0.06666157654 -0.01668875854
725.625 0.05668060695 -0.04372670794
726.25 0.0460550736 -0.04767449433
726.875 0.03633537854 -0.03458098505
727.5 0.03100447726 -0.01550320311
728.125 0.02543582202 0.0153579435
728.75 0.02000545646 0.03236529328
729.375 0.02953592392 0.02180109305
730.0 0.02601411277 0.008327825748
730.625 0.01276955861 0.01734923566
731.25 -0.001244121738 0.0259327921
731.875 -0.01865864097 0.02105005391
732.5 -0.0306541707 0.009708574575
733.125 -0.03099717846 0.006877493048
733.75 -0.0160953869 0.01597415294
734.375 0.001070537816 0.01293713967
735.0 0.008453733259 0.0006047772093
735.625 0.01017258238 -0.008228950556
736.25 0.005894487616 -0.02333002186
736.875 -0.01180116139 -0.03297288027
737.5 -0.02688514582 -0.02427123268
738.125 -0.02821932818 -0.006269797643
738.75 -0.01240359487 0.01629434908
739.375 0.01627014575 0.02439853529
740.0 0.03273875986 0.001948627577
740.625 0.02197173026 -0.01353175504
741.25 0.02269439169 -0.003987394083
741.875 0.02138725791 0.02178168371
742.5 -0.01120242409 0.033719329
743.125 -0.03994352353 0.00847385358
743.75 -0.04455867598 -0.02094019903
744.375 -0.05042175659 -0.03129774575
745.0 -0.06658498836 -0.02638319746
745.625 -0.07957389775 0.01301418109
746.25 -0.04518130176 0.04694951788
746.875 -0.002560658854 0.03792474142
747.5 -0.003372047134 0.01764506382
748.125 -0.0155276807 0.02149520054
748.75 -0.004599892448 0.04001152936
749.375 0.03367583526 0.02799753925
750.0 0.05002229126 -0.01762766901
