!Created with skrf (http://scikit-rf.org).
# GHz S RI R 50.0 
!freq ReS11 ImS11
500.0 -0.004204605336 0.02384433647
500.625 0.02859207839 0.01729122896
501.25 0.03698014212 -0.003712354092
501.875 0.03111303135 -0.003756055315
502.5 0.0220689307 0.01628093032
503.125 0.02897211795 0.0076456012
503.75 0.03622761735 -0.01590413899
504.375 0.03259275028 -0.02790205021
505.0 0.02191406458 -0.0395327235
505.625 0.01664847713 -0.06288798923
506.25 -0.001573104069 -0.07892132962
506.875 0.03084031945 -0.09442584712
507.5 -0.0002543724421 -0.07714681981
508.125 0.02763562298 -0.08986550796
508.75 -0.02327318517 -0.1030460533
509.375 -0.03239759186 -0.07424299471
510.0 -0.008045922416 -0.07092321174
510.625 -0.06255093235 -0.03042476166
511.25 -0.08378590975 -0.02452227579
511.875 -0.06488437952 0.02631601512
512.5 -0.02114840652 0.04897100856
513.125 0.04173197527 0.0657135977
513.75 0.05244407483 0.06309000728
514.375 0.060115215 0.03386592205
515.0 0.08165824965 0.006472626332
515.625 0.08382605487 0.08779559625
516.25 0.1106937045 0.04945379416
516.875 0.05905821863 0.1205149917
517.5 0.1467289572 0.04043264534
518.125 0.08767222245 0.2258827939
518.75 0.1077192807 0.01675019121
519.375 0.08462868779 0.02148346927
520.0 0.1145954508 -0.02625898318
520.625 0.1257027386 -0.02828169099
521.25 0.09123106786 -0.05310297916
521.875 0.07494163052 -0.01788291718
522.5 0.07829781298 -0.08902089211
523.125 0.1678469064 -0.1543895939
523.75 0.1144133456 -0.2367289896
524.375 0.119653531 -0.2345987812
525.0 0.05833370175 -0.09545096458
525.625 0.0471709495 -0.0547176866
526.25 0.05399247216 -0.03758083704
526.875 0.04517471721 -0.06029264604
527.5 0.0356210466 -0.06890159686
528.125 -0.00117196789 -0.06042886176
528.75 -0.02212071403 -0.07474842443
529.375 -0.1013215171 -0.067522091
530.0 -0.08907276167 -0.006823018875
530.625 -0.04134794658 0.02324043939
531.25 -0.08666825996 0.01043845569
531.875 -0.1718921957 0.03562502718
532.5 -0.1521890727 0.07388101369
533.125 -0.09128502958 0.07071154707
533.75 -0.0592910973 0.09565313649
534.375 -0.09035825058 0.1062309995
535.0 -0.06918446982 0.09922806349
535.625 -0.05712543895 0.06237557192
536.25 -0.009923429465 0.07855456402
536.875 -0.0583810177 0.07418125966
537.5 -0.09314509675 0.0261877619
538.125 -0.07486466085 0.0606332136
538.75 -0.07461789775 0.1146518385
539.375 -0.08696423276 0.08023186467
540.0 -0.0764375287 0.06051855144
540.625 -0.08021632228 0.06696929796
541.25 -0.1115649523 0.07442923943
541.875 -0.1006355094 0.03275318317
542.5 -0.08009947609 0.01304537201
543.125 -0.08820155578 0.06742755167
543.75 -0.04418469223 0.1467521393
544.375 -0.006832999783 0.1397191529
545.0 0.08039942478 0.06583163893
545.625 0.1222266783 0.01662900983
546.25 0.1318549552 -0.005121404538
546.875 0.1149214909 -0.01366693311
547.5 0.1269941922 -0.01418946371
548.125 0.1635817614 0.001516433705
548.75 0.1390884027 0.0645042742
549.375 0.1261035026 0.0598814374
550.0 0.1163413793 0.0981897326
550.625 0.08920117101 0.1108042415
551.25 0.0150978664 0.08795984281
551.875 0.02051922034 0.05026624377
552.5 0.03272686959 0.06469081751
553.125 0.02046944448 0.09035591569
553.75 -0.009099493286 0.06152584031
554.375 0.005214148626 0.0604299035
555.0 0.0327840724 0.08501061908
555.625 0.04209840951 0.1018837064
556.25 0.005634243144 0.08702716047
556.875 0.01216417317 0.08612241996
557.5 0.01383266381 0.1169518751
558.125 -0.002164723642 0.1299147273
558.75 -0.03114263045 0.109758577
559.375 0.006584009106 0.1111384145
560.0 0.003833678083 0.1111509936
560.625 0.01346541398 0.07068293731
561.25 0.01636529745 0.0519304492
561.875 0.01945284002 0.06896629116
562.5 0.0330348483 0.08030344958
563.125 0.03974273734 0.06551487056
563.75 0.06767954725 0.04847335152
564.375 0.1185336443 0.04654792009
565.0 0.1121604952 0.07624816152
565.625 0.1010532661 0.04402982289
566.25 0.09115280784 0.04437832831
566.875 0.08703504488 0.07772041926
567.5 0.02957932179 0.1054846712
568.125 0.02006626493 0.09699219772
568.75 0.02368792232 0.1160046762
569.375 0.01224364821 0.1089236581
570.0 0.003927041168 0.08360359985
570.625 0.01335842128 0.06172520181
571.25 0.02395655888 0.07928320426
571.875 0.009241563169 0.06316326286
572.5 0.0110455385 0.04478459053
573.125 0.02426364668 0.06419671592
573.75 0.08220515813 0.0762344698
574.375 0.08927287906 0.05974542312
575.0 0.06979569375 0.02576372941
575.625 0.07646136469 0.01417557707
576.25 0.09729557907 0.04550035085
576.875 0.09256542426 0.04475173541
577.5 0.08809687181 0.02373772246
578.125 0.1056728489 0.008374286349
578.75 0.1186249671 0.03231847951
579.375 0.093705896 0.02545269431
580.0 0.09124211185 0.004275758082
580.625 0.09657817127 -0.00983909172
581.25 0.0750329218 -0.001405004658
581.875 0.03805261214 0.02024077313
582.5 0.04726590014 0.03060403365
583.125 0.07527041393 0.05577500324
583.75 0.06644352605 0.05742871192
584.375 0.04596465733 0.05208310341
585.0 0.03904779123 0.06274069263
585.625 0.04796926647 0.08870519913
586.25 0.03936585428 0.07367322127
586.875 0.04160927939 0.0517411341
587.5 0.05937715469 0.06044796542
588.125 0.08570845379 0.05014513691
588.75 0.08419999035 0.03274649991
589.375 0.07806285768 -0.01851764009
590.0 0.07080908394 -0.04004779447
590.625 0.04945230122 -0.01132894315
591.25 0.04023113457 0.01309388064
591.875 0.05694414069 0.01223123292
592.5 0.09011066463 -0.005946053478
593.125 0.09392610487 0.002232301514
593.75 0.07660215831 0.00921003312
594.375 0.08053481296 0.02495116235
595.0 0.08150455598 0.05388192418
595.625 0.05507956519 0.06545451718
596.25 0.03172671016 0.05700245289
596.875 0.02299865536 0.06375580195
597.5 0.01036349756 0.07650961014
598.125 0.01960414798 0.06934395918
598.75 0.03965871769 0.05103048671
599.375 0.04065118576 0.03719745115
600.0 0.02280231509 0.02534432588
600.625 0.003381594626 0.01265897348
601.25 -0.01076801297 0.01866187971
601.875 -0.0219037763 0.03589761286
602.5 -0.02613820375 0.04023203628
603.125 -0.02737273975 0.04159222901
603.75 -0.02011815319 0.05181642375
604.375 -0.01723420973 0.05274693328
605.0 -0.01942681413 0.03328038329
605.625 -0.02766676029 0.01791521199
606.25 -0.04528603403 0.02019203073
606.875 -0.05157781528 0.03219153133
607.5 -0.03080947913 0.04210717817
608.125 -0.005466253293 0.03738327313
608.75 -0.001995553692 0.02976811419
609.375 -0.003365451023 0.02544933727
610.0 0.002166685485 0.01860251261
610.625 0.00932684091 0.006569606778
611.25 0.009016258076 -0.006513840553
611.875 0.006572097418 -0.01663204588
612.5 -0.0002188233582 -0.02216109515
613.125 -0.0111843659 -0.01717196161
613.75 -0.01225630437 -0.003176594995
614.375 -0.001114274649 0.004953482775
615.0 0.008888888335 0.0002230584333
615.625 0.004902140711 -0.004483595201
616.25 -0.0004430063066 0.004978284468
616.875 0.01017849212 0.01725068049
617.5 0.02485152628 0.01773744673
618.125 0.02704741278 0.01398758037
618.75 0.02676623726 0.01515741913
619.375 0.03621510586 0.02358274225
620.0 0.0518585227 0.02254016448
620.625 0.05369174839 -0.004452378114
621.25 0.04387666001 -0.01541499927
621.875 0.02832218377 -0.01963600579
622.5 -0.002901844225 -0.008889683663
623.125 -0.0009271567148 0.01802125417
623.75 0.01379929862 0.03377584983
624.375 0.01629073459 0.04668754829
625.0 -0.002169092515 0.05290973487
625.625 -2.959421378e-05 0.06057152131
626.25 0.02281793846 0.07940377902
626.875 0.03464085029 0.09012412578
627.5 0.02362459263 0.08049938467
628.125 0.01723616193 0.07063944903
628.75 0.01242082765 0.08262146661
629.375 -0.003008902282 0.0869778064
630.0 -0.004149737905 0.06662557399
630.625 -0.005822425317 0.0527905533
631.25 -0.02030745964 0.04523120396
631.875 -0.04017251429 0.02841429847
632.5 -0.04422210152 0.0159441327
633.125 -0.05176180648 0.01841596839
633.75 -0.06685548512 0.0311734599
634.375 -0.07343591366 0.0223262981
635.0 -0.0732342511 0.0322279145
635.625 -0.07250276415 0.06145769571
636.25 -0.07703499731 0.06884878589
636.875 -0.06622557191 0.03839676733
637.5 -0.06792132128 0.03245701029
638.125 -0.09817946224 0.05276892148
638.75 -0.1030001545 0.04621211176
639.375 -0.07543864589 0.01529999738
640.0 -0.05826828681 -0.006554672464
640.625 -0.06860453112 -0.04618797025
641.25 -0.04860330351 -0.07442180459
641.875 -0.03685400734 -0.06325613492
642.5 -0.04011988837 -0.06375038038
643.125 -0.03040680886 -0.09647702166
643.75 0.004982529292 -0.107531592
644.375 -0.01449221725 -0.08875216531
645.0 -0.05121097832 -0.08827484241
645.625 -0.04385272701 -0.09838948216
646.25 -0.01867678095 -0.08369859971
646.875 -0.002176175787 -0.07440585748
647.5 -0.02516840057 -0.09253713778
648.125 -0.01117788962 -0.09693228945
648.75 0.01719660143 -0.06765515429
649.375 0.04108138721 -0.05523940137
650.0 0.0756299696 -0.0621889216
650.625 0.1002595828 -0.04178732965
651.25 0.09494742852 -0.01532981535
651.875 0.1070984184 0.01148706639
652.5 0.1209997267 0.07273899827
653.125 0.09105375475 0.08914541739
653.75 0.07939099858 0.07675218613
654.375 0.07480563167 0.08731792436
655.0 0.02295470502 0.1037811433
655.625 -0.009766200259 0.06654827329
656.25 0.005770603409 0.0625225441
656.875 0.03252642559 0.08890173713
657.5 -0.00711731409 0.1045902449
658.125 -0.03825856079 0.08219660741
658.75 -0.01700286833 0.09265520798
659.375 0.03429887557 0.1352826364
660.0 0.06177836485 0.1331501646
660.625 0.07479800412 0.1005266832
661.25 0.1026865867 0.07125487784
661.875 0.1310241739 0.05245556851
662.5 0.1162509059 0.03501946529
663.125 0.09528676818 0.02939254769
663.75 0.08068436713 0.07167915045
664.375 -0.01097181782 0.09950970096
665.0 -0.05568416864 0.06166683256
665.625 -0.06460819796 0.04214448692
666.25 -0.1142087679 0.02932348745
666.875 -0.1280400315 -0.05194323234
667.5 -0.1014854097 -0.05836071079
668.125 -0.1150550022 -0.03401862581
668.75 -0.1509085867 -0.02205997284
669.375 -0.1200581695 -0.05224654025
670.0 -0.0745897446 -0.04661198634
670.625 -0.0921312771 -0.04248454604
671.25 -0.1243473117 -0.03179091112
671.875 -0.1080157948 -0.02297852797
672.5 -0.08613910536 0.00474015886
673.125 -0.09718687674 0.02434798356
673.75 -0.1304317483 0.02296714395
674.375 -0.1288103654 0.003781359876
675.0 -0.1238357605 -0.02663346351
675.625 -0.1128520398 -0.08431882487
676.25 -0.06692173633 -0.1181846541
676.875 -0.05355015563 -0.109616237
677.5 -0.07953657219 -0.1092938165
678.125 -0.04897735233 -0.1283464926
678.75 0.0002615322777 -0.07889005796
679.375 0.01747366699 -0.05783041128
680.0 0.007448619516 -0.08867434372
680.625 0.02429508231 -0.1345746711
681.25 0.02383839011 -0.1124351609
681.875 -0.01407070191 -0.1028244416
682.5 -0.09234454188 -0.1094736236
683.125 -0.1222349738 -0.1348442728
683.75 -0.06457550853 -0.1380572988
684.375 -0.004050310329 -0.1231353457
685.0 0.0821430052 -0.1215284703
685.625 0.1428651665 -0.0435537283
686.25 0.1249812008 0.01436206746
686.875 0.09702573086 0.03954442653
687.5 0.05420603203 0.07456901715
688.125 0.01153391156 0.08601038664
688.75 -0.001355124805 0.09553148883
689.375 -0.006312353324 0.1350487535
690.0 -0.05036071846 0.1352520093
690.625 -0.03839168813 0.121075083
691.25 0.02655832286 0.1330744698
691.875 0.1470293938 0.1278068104
692.5 0.1839804174 0.04412234423
693.125 0.08828833847 -0.0747581681
693.75 0.01973756057 -0.1008475005
694.375 0.03292113698 -0.1370756643
695.0 0.1275041141 -0.08758387799
695.625 0.1024462501 0.02804849489
696.25 0.04107220827 0.0928963435
696.875 -0.0756073243 0.1032086228
697.5 -0.1423956506 0.01699622158
698.125 -0.1374314724 -0.02388133725
698.75 -0.1437015272 -0.01455550648
699.375 -0.1305526046 -0.0230287539
700.0 -0.1039158419 -0.03654199906
700.625 -0.09631544467 -0.06112596181
701.25 -0.0875832532 -0.09815279831
701.875 -0.05404487917 -0.07377671476
702.5 -0.05531891774 -0.05129874103
703.125 -0.1113220748 -0.01012387564
703.75 -0.157840577 0.1072453811
704.375 -0.09691990434 0.1303467659
705.0 -0.04353266874 0.1098033638
705.625 -0.07083254467 0.1053684088
706.25 -0.1712085826 0.02491026987
706.875 -0.08758227088 -0.1206438597
707.5 -0.0283743932 -0.09576029151
708.125 0.01397793758 -0.09158752276
708.75 0.08345011137 -0.05112688963
709.375 0.08979834672 0.04151917292
710.0 0.04666659789 0.0705594402
710.625 0.02713098813 0.08145193816
711.25 -0.01160264807 0.08767585195
711.875 -0.02158826309 0.1017137631
712.5 0.0253766759 0.1337755457
713.125 0.1314124188 0.09335340536
713.75 0.1351249668 -0.04565260163
714.375 0.05759158932 -0.1123138527
715.0 0.009951951245 -0.1391446495
715.625 0.05421954355 -0.1215150925
716.25 0.06655045124 -0.04762912475
716.875 0.06267630187 -0.006275928853
717.5 0.07642879449 0.04633251961
718.125 0.05306751642 0.1005082648
718.75 0.01192708609 0.08804097277
719.375 -0.004518457646 0.06924287955
720.0 -0.05214213904 0.06399109255
720.625 -0.1073341129 -0.01805512149
721.25 -0.03494876471 -0.1082525808
721.875 0.03694557133 -0.1027328695
722.5 0.05331953452 -0.09651053866
723.125 0.0142823804 -0.09099980203
723.75 -0.0212268585 -0.06348048847
724.375 -0.04498392261 -0.04194564787
725.0 -0.05372888728 -0.01070149402
725.625 -0.04417110301 0.001668339705
726.25 -0.05033263655 -0.004661671748
726.875 -0.0683105098 -0.02971177027
727.5 -0.06730371394 -0.05391671011
728.125 -0.04804394866 -0.05776878688
728.75 -0.04311662781 -0.04298626797
729.375 -0.0408584759 -0.03336158661
730.0 -0.03675693463 -0.03514391278
730.625 -0.0277971394 -0.03025318612
731.25 -0.01192160742 -0.02755412497
731.875 0.007085155024 -0.02151050863
732.5 0.01232851357 -0.0001435359482
733.125 0.004938296869 0.01926161504
733.75 0.01464448148 0.02737883091
734.375 0.02776242745 0.02006619288
735.0 0.02812866997 -0.00178484281
735.625 0.02069231068 -0.01075400023
736.25 0.01014514404 -0.02162991916
736.875 -0.01225325335 -0.02529744599
737.5 -0.03445053556 -0.01302834543
738.125 -0.04738733921 0.00339986134
738.75 -0.04248394883 0.01822548871
739.375 -0.02252684352 0.01947588961
740.0 -0.01504307261 0.003154060362
740.625 -0.02959815071 0.001917222796
741.25 -0.03421332527 0.00861195455
741.875 -0.03135293054 -0.0108215988
742.5 0.002994788405 -0.03286266252
743.125 0.0350735453 -0.005671016587
743.75 0.03074666651 0.01495336799
744.375 0.03039384068 0.01602412117
745.0 0.02993891905 0.02405245974
745.625 0.03119339743 0.03641934144
746.25 0.05538890859 0.03430380223
746.875 0.07530804896 -0.01629785816
747.5 0.05148490805 -0.05558831147
748.125 0.01968600627 -0.06099576758
748.75 -0.01076019394 -0.05469528171
749.375 -0.05137250422 -0.03913312226
750.0 -0.07175108947 0.03226515525
