!Created with skrf (http://scikit-rf.org).
# GHz S RI R 50.0 
!freq ReS11 ImS11
500.0 -0.0131644606 0.03040768016
500.625 0.02787799126 0.02844310111
501.25 0.03949213169 0.01842545005
501.875 0.03301275197 0.02682740735
502.5 0.02209108535 0.04271822979
503.125 0.0404177088 0.02971735135
503.75 0.05672219317 0.002326848004
504.375 0.05236073043 -0.01318546402
505.0 0.04342507792 -0.03920373579
505.625 0.04880957101 -0.06755803501
506.25 0.03332613972 -0.07832440064
506.875 0.06885391471 -0.07054249598
507.5 0.0376829293 -0.076484554
508.125 0.08251052874 -0.07114441725
508.75 0.03757674357 -0.09709003495
509.375 0.01360784127 -0.08023278399
510.0 0.04003782566 -0.07699535921
510.625 -0.04876020936 -0.07191168623
511.25 -0.06406284557 -0.05923562566
511.875 -0.06672399049 0.002412213542
512.5 -0.04449978338 0.03498575546
513.125 -0.005114512943 0.07062272692
513.75 0.005289214133 0.07564594008
514.375 0.03345183165 0.06835373464
515.0 0.07788138678 0.06585675013
515.625 0.01423007036 0.1382184018
516.25 0.08262692525 0.1003410925
516.875 0.01241766037 0.1512465559
517.5 0.1229900696 0.1112629565
518.125 -0.02606875362 0.2182684809
518.75 0.07367164076 0.05840108191
519.375 0.07097949606 0.06699073503
520.0 0.1215873819 0.04471654319
520.625 0.1118711857 0.03221234971
521.25 0.09812609281 -0.004535440631
521.875 0.0813973617 0.01918193363
522.5 0.1147188797 -0.03533562313
523.125 0.1798660247 -0.06440938396
523.75 0.1583821843 -0.1548398692
524.375 0.1796784645 -0.1220514992
525.0 0.07031063906 -0.02799690302
525.625 0.04676910571 -0.003297287966
526.25 0.05797582333 0.0070315667
526.875 0.07153294754 -0.008766673971
527.5 0.05853212461 -0.01740028372
528.125 0.03720259236 -0.04192556752
528.75 0.0307000975 -0.07502151557
529.375 -0.02345152624 -0.1086388082
530.0 -0.03397546934 -0.05161814188
530.625 -0.04529027775 -0.0296572171
531.25 -0.1136126648 -0.09129047122
531.875 -0.1759384457 -0.1011399625
532.5 -0.1613309537 -0.02379010552
533.125 -0.114067805 0.01598357871
533.75 -0.1296006819 0.048116686
534.375 -0.1323360531 0.01751240413
535.0 -0.09732552857 0.04099120594
535.625 -0.0742236873 0.01893274212
536.25 -0.06183077207 0.04360324664
536.875 -0.09657798568 -0.005223266601
537.5 -0.09966078891 -0.0363589369
538.125 -0.1098228791 0.01751236778
538.75 -0.1216411674 0.03660112694
539.375 -0.09946052862 0.003373789587
540.0 -0.09895876255 -0.008722685467
540.625 -0.1309456454 -0.002304861652
541.25 -0.1399952602 -0.03496147653
541.875 -0.1002259519 -0.03460942544
542.5 -0.09843968799 -0.03268018606
543.125 -0.1405097303 0.01923192196
543.75 -0.1152260654 0.1031240471
544.375 -0.05857978303 0.1048524579
545.0 0.04243434744 0.09177387979
545.625 0.0814586455 0.09379254644
546.25 0.09494657064 0.06678593369
546.875 0.09530797327 0.04684417437
547.5 0.1141982503 0.05354596831
548.125 0.119369057 0.1023784901
548.75 0.06538506564 0.104539296
549.375 0.07266661316 0.1001393035
550.0 0.03184033339 0.1312603629
550.625 -0.0005932117812 0.09682140397
551.25 -0.03065183201 0.03712840529
551.875 -0.02772986919 0.03387405784
552.5 -0.05100760476 0.06713287241
553.125 -0.06593361799 0.05659012686
553.75 -0.06132314007 0.03915577198
554.375 -0.0474260823 0.06944686172
555.0 -0.04162804093 0.1080044418
555.625 -0.0421120476 0.103008226
556.25 -0.04599457058 0.07752185778
556.875 -0.05104190129 0.0988052339
557.5 -0.06382929796 0.1116447482
558.125 -0.06803119265 0.1049439376
558.75 -0.06963690925 0.07485162481
559.375 -0.05439358322 0.09115984082
560.0 -0.04916189029 0.05969132313
560.625 -0.03191248049 0.03896469896
561.25 -0.03869059159 0.04147714436
561.875 -0.05099685709 0.06673851637
562.5 -0.04219597851 0.08163622366
563.125 -0.007583242355 0.08722895033
563.75 0.04064769959 0.1004631966
564.375 0.06159984585 0.1221779271
565.0 0.04892201626 0.1134624002
565.625 0.06021164704 0.08198454684
566.25 0.04712305718 0.09166974961
566.875 -0.002042056454 0.1129880836
567.5 -0.03380013817 0.08378793786
568.125 -0.03573734869 0.09131541541
568.75 -0.04801692867 0.09697796246
569.375 -0.0474220803 0.06665755518
570.0 -0.03880189872 0.03470133984
570.625 -0.03759816327 0.04504397461
571.25 -0.05580571242 0.05211056579
571.875 -0.04516993299 0.03399601142
572.5 -0.04300753004 0.04699030636
573.125 -0.03515241096 0.09515011876
573.75 0.007936702965 0.13250838
574.375 0.03105810763 0.09136356699
575.0 0.0404493407 0.06692839616
575.625 0.05311412485 0.0883427329
576.25 0.04195974412 0.105563975
576.875 0.05096589363 0.08512605624
577.5 0.06929675441 0.06343821767
578.125 0.08087819878 0.07698866204
578.75 0.0501940798 0.07988299917
579.375 0.05265398397 0.05787577465
580.0 0.06314721464 0.04709500888
580.625 0.05432309769 0.04881925697
581.25 0.01522685056 0.04655133023
581.875 -0.001018859355 0.04988023174
582.5 0.01367585523 0.08119812045
583.125 0.00928193822 0.1017837816
583.75 0.00465868769 0.08464559254
584.375 -0.004625270339 0.07317436253
585.0 -0.01892840576 0.09125273183
585.625 -0.03050694812 0.09622203695
586.25 -0.01305089706 0.0756486058
586.875 -0.003889849072 0.07100620267
587.5 -0.004792633712 0.08971780071
588.125 0.02674617104 0.08664425489
588.75 0.04533441454 0.06054755618
589.375 0.06324247954 0.03083146234
590.0 0.04765255829 0.03681775068
590.625 0.02366427507 0.04427608645
591.25 0.02872547594 0.05615080097
591.875 0.06087514887 0.06275934186
592.5 0.0845145674 0.06514356299
593.125 0.06771372373 0.05394865232
593.75 0.0624227592 0.04885259805
594.375 0.05653520969 0.07426263504
595.0 0.02650889535 0.08612737735
595.625 0.00145437108 0.06614583608
596.25 -0.009202019032 0.05394749487
596.875 -0.02948812751 0.05849221789
597.5 -0.03777317742 0.05304311048
598.125 -0.02123002745 0.05149889297
598.75 -0.001910520109 0.04470542661
599.375 -0.004170226527 0.02984920494
600.0 -0.0153413476 0.008488907139
600.625 -0.02923264351 -0.001702104868
601.25 -0.05019346535 0.006194651579
601.875 -0.06005893995 0.01678111852
602.5 -0.05496662463 0.02326531521
603.125 -0.05355768457 0.02877412133
603.75 -0.05192576276 0.03689800085
604.375 -0.0424435214 0.0267925648
605.0 -0.03267696136 0.009510217867
605.625 -0.03998869039 -0.002455439696
606.25 -0.0559552097 -0.005102107362
606.875 -0.05478947328 0.005430508885
607.5 -0.03320963016 0.02129938736
608.125 -0.01339899273 0.02099474513
608.75 -0.01027260529 0.01330201066
609.375 -0.006215511435 0.0092677527
610.0 0.003448487385 0.005143277449
610.625 0.01074746868 -0.004746412256
611.25 0.01214518852 -0.01561407313
611.875 0.01145808395 -0.02232135745
612.5 0.00466858055 -0.02513520761
613.125 -0.007896185351 -0.01835227745
613.75 -0.01059606938 -0.002518584593
614.375 -0.001294577233 0.007406051187
615.0 0.007191975243 0.004509357451
615.625 0.00133925188 0.001159736528
616.25 -0.005147619934 0.01224418434
616.875 0.003560105418 0.02710389612
617.5 0.01482736878 0.02868153595
618.125 0.01503387136 0.0237872118
618.75 0.01415473089 0.02661485295
619.375 0.01838841327 0.03658220131
620.0 0.02870224627 0.03402334786
620.625 0.03386797115 0.008667230384
621.25 0.02285125298 -0.002260060363
621.875 0.0002244582286 -0.007943398782
622.5 -0.02360808468 0.0153632727
623.125 -0.01905855726 0.04402643806
623.75 -0.008950067151 0.06169967205
624.375 -0.02052283728 0.06370292676
625.0 -0.03976118561 0.05162425699
625.625 -0.03862203775 0.06617152838
626.25 -0.02675638641 0.09099249684
626.875 -0.01663035779 0.08664331685
627.5 -0.01653940805 0.06723226243
628.125 -0.02461092087 0.05981133734
628.75 -0.04476208268 0.05790796179
629.375 -0.04143726959 0.04025648602
630.0 -0.02765561566 0.02882532428
630.625 -0.03147047751 0.01318263719
631.25 -0.04285659712 -0.01407116342
631.875 -0.04287232196 -0.03541305814
632.5 -0.04857628547 -0.03306106126
633.125 -0.06642933996 -0.03928769231
633.75 -0.07766749997 -0.03960281827
634.375 -0.0745986474 -0.04181138456
635.0 -0.08616828734 -0.02546750444
635.625 -0.1038669435 -0.00281793348
636.25 -0.08662451463 -0.008867141256
636.875 -0.06675732924 -0.02248999087
637.5 -0.08522406694 -0.02918948187
638.125 -0.1064210118 -0.03052803264
638.75 -0.08001464865 -0.02289996915
639.375 -0.04411242596 -0.02783133401
640.0 -0.01912584394 -0.05779674396
640.625 0.01753334809 -0.09082222117
641.25 0.02197642806 -0.07672420602
641.875 0.01459866666 -0.07014067543
642.5 0.02910512871 -0.08306194352
643.125 0.07411134446 -0.07698488255
643.75 0.0720082986 -0.0569620502
644.375 0.04077679885 -0.07762208115
645.0 0.03508652311 -0.09251529776
645.625 0.05326318082 -0.06699106744
646.25 0.05814227833 -0.04549899818
646.875 0.05908573241 -0.05666883634
647.5 0.0691728624 -0.0791903829
648.125 0.06495915223 -0.05196508095
648.75 0.07197815605 -0.01838063361
649.375 0.09445553945 -0.00183241438
650.0 0.1168688133 0.02057222841
650.625 0.09923300779 0.03811681979
651.25 0.0884284842 0.05055851449
651.875 0.07551844805 0.0973241326
652.5 0.02496671787 0.1166487049
653.125 0.01432104378 0.09742819604
653.75 0.01174259917 0.08919386948
654.375 -0.03347972504 0.08524495762
655.0 -0.06581824577 0.02681564883
655.625 -0.05916673508 0.01668902482
656.25 -0.06686814122 0.04783634202
656.875 -0.08543671152 0.08153379637
657.5 -0.1026355963 0.04287433756
658.125 -0.09619173572 0.03327573936
658.75 -0.09925388689 0.08682515092
659.375 -0.08631290742 0.1276965634
660.0 -0.04118909562 0.1232019325
660.625 -0.005787828139 0.1099719001
661.25 0.01726329549 0.1204604026
661.875 0.02485460485 0.1128422999
662.5 0.03558951917 0.0819948136
663.125 0.02596655438 0.07997265403
663.75 -0.04037963181 0.0918222535
664.375 -0.08959790248 0.02900138392
665.0 -0.08531522295 -0.01383494228
665.625 -0.09882760546 -0.03845396837
666.25 -0.09437175081 -0.1101154933
666.875 -0.04261233193 -0.1204701188
667.5 -0.04378393647 -0.1110626619
668.125 -0.07081899668 -0.1202055113
668.75 -0.05180661358 -0.1276482869
669.375 -0.016265923 -0.08990511437
670.0 -0.01302300748 -0.07879863958
670.625 -0.01891951289 -0.112148028
671.25 -0.02353903326 -0.1132889299
671.875 -0.02454221336 -0.08980569228
672.5 -0.05539316376 -0.07555327673
673.125 -0.1000167711 -0.08628643628
673.75 -0.1047839784 -0.08951053008
674.375 -0.09074628183 -0.08839181051
675.0 -0.05865183429 -0.1181963531
675.625 -0.001550450151 -0.1290635765
676.25 0.03478614622 -0.1060020501
676.875 0.03247632566 -0.1024592812
677.5 0.0537633436 -0.1091367649
678.125 0.06927145258 -0.0474772738
678.75 0.0653975403 -0.01694756472
679.375 0.08080313022 -0.01820692656
680.0 0.1287172417 -0.04516404075
680.625 0.1342202917 -0.02787373958
681.25 0.09656673804 -0.06010027234
681.875 0.0664295527 -0.1141671759
682.5 0.02569231307 -0.1764831915
683.125 0.03649088407 -0.1550549289
683.75 0.04237868033 -0.1068717647
684.375 0.08509753837 -0.08547144206
685.0 0.1334827173 0.0004356693234
685.625 0.08776944481 0.07203349131
686.25 0.0314846159 0.0826394003
686.875 -0.01308923053 0.08467487849
687.5 -0.06786656562 0.06982488469
688.125 -0.08711636143 0.06454616217
688.75 -0.1115275467 0.08109191065
689.375 -0.1483579176 0.06957475599
690.0 -0.1274715617 0.04549718086
690.625 -0.1095730004 0.06526294902
691.25 -0.0855019059 0.1375722512
691.875 -0.04239748959 0.1801087672
692.5 0.0455765003 0.09870124903
693.125 0.07826470157 0.01868368918
693.75 0.1095218666 -0.02081362759
694.375 0.1582277356 0.002438561899
695.0 0.1022597752 0.07286058672
695.625 0.03637826439 0.1006480717
696.25 -0.07888904644 0.10806197
696.875 -0.1555759624 -0.01599813534
697.5 -0.09749809346 -0.1114798767
698.125 -0.07421996748 -0.1156875122
698.75 -0.06865583261 -0.1124975245
699.375 -0.04282548793 -0.09699567709
700.0 -0.02091989132 -0.0974993861
700.625 0.01782014108 -0.1142035315
701.25 0.05469637778 -0.08282196688
701.875 0.04857089606 -0.06809481206
702.5 0.01467683446 -0.1060524642
703.125 -0.08981140565 -0.1549548982
703.75 -0.1615766921 -0.0867449464
704.375 -0.1248717498 0.02394144793
705.0 -0.1007526217 0.04596765957
705.625 -0.1504500444 -0.00913426698
706.25 -0.06653883099 -0.1308031633
706.875 0.02817908279 -0.08793700557
707.5 0.04919948762 -0.0572016315
708.125 0.09095001941 0.001440125968
708.75 0.06602643362 0.08609220137
709.375 -0.003816924855 0.09944143729
710.0 -0.04029385433 0.08647234093
710.625 -0.07537708432 0.06835568477
711.25 -0.1040356218 0.04297174131
711.875 -0.1168843738 0.06353651757
712.5 -0.09292439164 0.1196448877
713.125 0.0180994441 0.1341920989
713.75 0.09879951016 0.04794191728
714.375 0.1086886157 -0.01831153186
715.0 0.1152147307 -0.02481410998
715.625 0.0797839712 0.01585899564
716.25 0.0474160665 0.04055366293
716.875 0.03180420452 0.07655661778
717.5 -0.03654346035 0.1170572724
718.125 -0.07503368895 0.08041527316
718.75 -0.06387528471 0.05660856541
719.375 -0.0767969838 0.04513222811
720.0 -0.1087485686 -0.01877345049
720.625 -0.04699285665 -0.1024065069
721.25 0.0438580642 -0.08819178403
721.875 0.08507157225 -0.03724332991
722.5 0.07548149517 -0.004292910606
723.125 0.05534985186 -0.003737837919
723.75 0.05587594143 -0.01772513105
724.375 0.03907133272 -0.05769950708
725.0 -0.002747193897 -0.06110437244
725.625 -0.0251058923 -0.05513543481
726.25 -0.03744349328 -0.06609599905
726.875 -0.02436665481 -0.08485913411
727.5 -0.006993696405 -0.0762116005
728.125 0.007698673055 -0.05964701601
728.75 0.01642118234 -0.0479549143
729.375 0.02025244753 -0.04499702168
730.0 0.01161341026 -0.0422155527
730.625 0.007918506071 -0.02883522565
731.25 0.01828710305 -0.01275158281
731.875 0.01712609234 0.009899086468
732.5 -0.002282068628 0.02377588142
733.125 -0.01550125659 0.03053842654
733.75 -0.003891409321 0.03806245906
734.375 0.01214754876 0.03074782732
735.0 0.02035371665 0.009932748842
735.625 0.0175108219 -0.002695226717
736.25 0.008269932199 -0.01810767587
736.875 -0.01483520783 -0.02648870717
737.5 -0.03640605437 -0.01920862196
738.125 -0.04486366575 -0.007604129141
738.75 -0.03347376264 0.005439633896
739.375 -0.007548416947 0.004457809943
740.0 0.002565576124 -0.01839609815
740.625 -0.01594547207 -0.02495678391
741.25 -0.01982073646 -0.01866372679
741.875 0.002061088832 -0.02404438663
742.5 0.02835532081 0.001591403426
743.125 0.009595062103 0.0301615824
743.75 -0.008733803387 0.03317856211
744.375 -0.01826111184 0.03966288949
745.0 -0.0327802972 0.04941507712
745.625 -0.02334465565 0.07148259965
746.25 0.02642056249 0.0796532351
746.875 0.07408451452 0.0418561936
747.5 0.06397910397 0.0004505459749
748.125 0.04181024002 -0.01354089132
748.75 0.03345156879 -0.02446714672
749.375 0.0145393877 -0.05168692598
750.0 -0.04244209336 -0.03919876463
