!Created with skrf (http://scikit-rf.org).
# GHz S RI R 50.0 
!freq ReS11 ImS11
500.0 -0.03114367666 0.0233551247
500.625 -0.007699049245 0.04848305743
501.25 -0.001794952369 0.04505777254
501.875 -0.02046596431 0.06576490432
502.5 -0.02827532876 0.07798800055
503.125 0.006272086525 0.06990064443
503.75 0.03142221167 0.05164592402
504.375 0.0508860485 0.03847957582
505.0 0.07105250395 0.01219313255
505.625 0.07913830933 -0.001358753468
506.25 0.05812056229 -0.011718107
506.875 0.06694194595 0.02430262667
507.5 0.07424045175 0.02219789211
508.125 0.0618937122 0.05111366434
508.75 0.07509791518 0.009392904038
509.375 0.07835181333 0.008358980335
510.0 0.09785718357 0.03936762464
510.625 0.03971411078 -0.05938380852
511.25 0.01067352368 -0.0599988921
511.875 -0.01280462067 -0.04387970182
512.5 -0.01368967288 -0.02972362728
513.125 -0.04240366683 -0.01048626827
513.75 -0.06743395737 0.00178717295
514.375 -0.08181071807 0.04160025508
515.0 -0.06774857167 0.07578512028
515.625 -0.1047666771 0.04933568128
516.25 -0.03996897301 0.112073261
516.875 -0.1064681923 0.05864094633
517.5 -0.03090276196 0.0782092971
518.125 -0.0813019353 0.007965335267
518.75 -0.04275533008 0.04544458374
519.375 -0.0667146436 0.04844621373
520.0 -0.01015914162 0.07428130126
520.625 -0.002374448143 0.05904578247
521.25 0.006910860046 0.06334507989
521.875 -0.01636233149 0.04632935287
522.5 0.03231801138 0.03784340623
523.125 0.04028838645 0.04324144304
523.75 0.002521036818 0.03786026882
524.375 -0.07096396728 0.01881202227
525.0 -0.04857053675 0.02279248014
525.625 -0.04867492396 0.05039902636
526.25 -0.06259858503 0.05520526594
526.875 -0.0329192609 0.04848409056
527.5 -0.007899759968 0.06149100099
528.125 0.04051134538 0.06404280705
528.75 0.05201453018 0.06416624828
529.375 0.06685210637 0.03544029647
530.0 0.08235274767 -0.003651117489
530.625 0.09491339726 -0.1182212497
531.25 0.131350379 -0.1503342577
531.875 0.05520130122 -0.1568609443
532.5 -0.01091196906 -0.1186902237
533.125 0.007964944339 -0.1195872704
533.75 -0.00227287034 -0.09800595935
534.375 -0.0104098507 -0.08584599781
535.0 -0.01483286498 -0.06650789423
535.625 0.03533441734 -0.06077221142
536.25 0.009242974301 -0.0715921438
536.875 0.01051271101 -0.1078173218
537.5 0.02379383371 -0.1197628949
538.125 -0.0008841804114 -0.08603410871
538.75 -0.005611885202 -0.06575018808
539.375 0.03160109446 -0.08474908145
540.0 0.04911337668 -0.1440101725
540.625 0.04794672579 -0.1296249675
541.25 0.0306848346 -0.1023353189
541.875 0.02576298215 -0.1167984443
542.5 0.02475499472 -0.1260470829
543.125 -0.02938152545 -0.1006820703
543.75 -0.05902414174 -0.03406748815
544.375 -0.04970896537 -0.02493612039
545.0 -0.05437993236 -0.01754451838
545.625 -0.06821499635 0.01723538094
546.25 -0.0602007651 0.04120345262
546.875 -0.05314393927 0.05540681811
547.5 -0.0641946671 0.03891575321
548.125 -0.0620754766 0.03988032176
548.75 -0.07008873227 0.01156080107
549.375 -0.07288554314 -0.02029625864
550.0 -0.02673530337 -0.05548244197
550.625 -0.01587716702 -0.0691027723
551.25 0.01589812629 -0.09700637748
551.875 -0.007617372679 -0.1245492442
552.5 -0.03155912261 -0.1029161246
553.125 -0.06266082341 -0.08410170136
553.75 -0.07101480603 -0.08646853227
554.375 -0.08900296742 -0.0686997894
555.0 -0.08204259571 -0.04578873023
555.625 -0.08136001568 -0.02900749187
556.25 -0.08259184922 -0.05029155097
556.875 -0.0782142955 -0.04474923367
557.5 -0.07123890034 -0.03736583782
558.125 -0.05424926114 -0.03125902098
558.75 -0.0156794801 -0.04617723801
559.375 -0.0001966843537 -0.03347254026
560.0 0.01333939138 -0.05762907278
560.625 0.007272580377 -0.08546749452
561.25 -0.02328876387 -0.1002572907
561.875 -0.056176124 -0.06943851855
562.5 -0.08672798547 -0.03665827434
563.125 -0.1061189791 -0.01131991037
563.75 -0.09098903689 0.01663272213
564.375 -0.06117942214 0.04003268962
565.0 -0.05823335599 0.02582414673
565.625 -0.0653742807 0.005613584543
566.25 -0.05807182848 -0.03173070654
566.875 -0.05391217631 -0.03583710136
567.5 -0.05044798031 -0.04488292961
568.125 -0.03077214871 -0.04890286947
568.75 -0.008876653839 -0.05076383874
569.375 0.01778716939 -0.05346508623
570.0 0.01998676055 -0.07925307636
570.625 0.01326227945 -0.08324039036
571.25 -0.01698193021 -0.08341199686
571.875 -0.02631592995 -0.09171430301
572.5 -0.08105522229 -0.08453693864
573.125 -0.09304020558 -0.04589808814
573.75 -0.08556562656 0.0133006257
574.375 -0.07721168514 0.008867892933
575.0 -0.09292213827 -0.005605286782
575.625 -0.07914706689 0.01096120706
576.25 -0.06737431315 0.03278029279
576.875 -0.05675324732 0.04021395987
577.5 -0.05515863037 0.01812766981
578.125 -0.0378511233 0.003257386418
578.75 -0.04035025935 9.689374182e-05
579.375 -0.04784389371 -0.005688456432
580.0 -0.04918611873 -0.02520755451
580.625 -0.05260500827 -0.04550551209
581.25 -0.0819937809 -0.03522431351
581.875 -0.1023432261 -0.02335259676
582.5 -0.09027766722 -0.009341618781
583.125 -0.08100700065 -0.01593513694
583.75 -0.06934099001 -0.02379091097
584.375 -0.07107170895 -0.04495750282
585.0 -0.06043716066 -0.03462887946
585.625 -0.05728163025 -0.03169986932
586.25 -0.04333028906 -0.04225170373
586.875 -0.04288256954 -0.04634624225
587.5 -0.04969176308 -0.0217182009
588.125 -0.05134802585 0.003514131157
588.75 -0.05102885038 -0.01329610688
589.375 -0.05287844858 -0.02968924591
590.0 -0.07092095109 -0.009925370644
590.625 -0.08531449769 0.0314265978
591.25 -0.08634467726 0.05558527635
591.875 -0.06353279959 0.0492695544
592.5 -0.0341131793 0.04530864543
593.125 -0.03439688856 0.03719560244
593.75 -0.0445683737 0.02606393847
594.375 -0.04063789041 0.005036542259
595.0 -0.02364837713 -0.01423386023
595.625 -0.01661875102 -0.03139824437
596.25 -0.009103781979 -0.04350748688
596.875 -0.008657825992 -0.04169451544
597.5 0.001597954367 -0.03847288889
598.125 0.009048600952 -0.03713168286
598.75 0.01329892706 -0.04368373396
599.375 0.009323372405 -0.0555395275
600.0 0.007148016967 -0.0723430929
600.625 0.004722668379 -0.07899199893
601.25 -0.01408534067 -0.06885923537
601.875 -0.03035633649 -0.05165580014
602.5 -0.03139035428 -0.04159095111
603.125 -0.02110843958 -0.03371455693
603.75 -0.01172106231 -0.01830762386
604.375 0.0007132379237 -0.01531897331
605.0 0.01008647157 -0.02502660298
605.625 0.006743404813 -0.03016233477
606.25 -0.004793084797 -0.01982936563
606.875 -0.007512717005 0.0002943734916
607.5 0.007906684228 0.01314746704
608.125 0.02227710123 0.005364584731
608.75 0.02273499031 -0.0002679172304
609.375 0.02457045769 0.004595500353
610.0 0.03040970946 0.007879819789
610.625 0.03309871427 -0.0005989894731
611.25 0.02901989346 -0.009843524571
611.875 0.02149690583 -0.01385783008
612.5 0.008500004971 -0.01720054076
613.125 -0.007533873246 -0.01278278823
613.75 -0.013753713 -0.0002364371933
614.375 -0.007691940349 0.005686628024
615.0 -0.002688852618 -0.0003389666072
615.625 -0.01205105418 -0.007436088257
616.25 -0.02210470068 0.0005524322098
616.875 -0.01651374089 0.01114320043
617.5 -0.006647769625 0.007847723771
618.125 -0.007179400165 -0.001741130619
618.75 -0.01038504689 -0.003677884396
619.375 -0.004019170869 -0.002860405539
620.0 0.008405681476 -0.0115371984
620.625 0.005617110983 -0.03362810291
621.25 -0.001668812872 -0.0517260871
621.875 -0.01908035431 -0.06702426103
622.5 -0.07378731395 -0.02715730785
623.125 -0.0749285927 0.002657767949
623.75 -0.06068503151 0.009231362166
624.375 -0.05166583577 -0.008140842756
625.0 -0.0402481127 -0.03168329707
625.625 -0.03854313794 -0.02321999154
626.25 -0.02972308261 -0.001701139995
626.875 -0.01131413913 -0.004969766643
627.5 0.008161267024 -0.02567013238
628.125 0.02336757277 -0.03209774947
628.75 0.02309006405 -0.02779488877
629.375 0.03217395807 -0.0272146532
630.0 0.0543690857 -0.03159178926
630.625 0.07348754745 -0.02558425699
631.25 0.07444393232 -0.02988288971
631.875 0.07069648543 -0.04226710909
632.5 0.06432412066 -0.047899852
633.125 0.06022513401 -0.04255597147
633.75 0.05589322476 -0.0415396275
634.375 0.05696971176 -0.03959095366
635.0 0.0437431407 -0.03737087575
635.625 0.02806491733 -0.03444922268
636.25 0.04971128356 -0.02529512206
636.875 0.07073282025 -0.02131748333
637.5 0.05342503807 -0.02648345637
638.125 0.03175432164 -0.02248539224
638.75 0.04802059688 0.006586937093
639.375 0.06695377252 0.05456507148
640.0 0.05025056091 0.06433970513
640.625 0.05398351125 0.05080143813
641.25 0.04991573523 0.05216223477
641.875 0.02587378208 0.07053629999
642.5 0.006355896927 0.06700432111
643.125 0.005095158004 0.06733874644
643.75 0.00141854409 0.06957630967
644.375 -0.01074985197 0.0627301466
645.0 -0.01312918982 0.06741203663
645.625 -0.01951354692 0.08098718226
646.25 -0.007230192728 0.1002892107
646.875 -0.006862772606 0.08328229034
647.5 0.001611205188 0.07695109191
648.125 -0.0201828456 0.08325631967
648.75 -0.04868255237 0.09163381666
649.375 -0.04032053937 0.0713577299
650.0 -0.03769052646 0.06221787961
650.625 -0.05296663528 0.03702158057
651.25 -0.06249466168 -0.0001037869852
651.875 -0.04425941447 -0.01470672362
652.5 -0.0324943223 -0.03217881151
653.125 -0.007397741834 -0.06136054318
653.75 0.03117158834 -0.07539706025
654.375 0.04565399519 -0.08027599931
655.0 0.05088836565 -0.09683145711
655.625 0.04854715882 -0.1126881326
656.25 0.02282264623 -0.09765631801
656.875 -0.002427015022 -0.1024517201
657.5 0.008801901594 -0.106267181
658.125 0.01854635815 -0.1068583536
658.75 -0.01517605457 -0.07070130891
659.375 -0.02142260535 -0.05748784529
660.0 -0.01110702455 -0.05927909696
660.625 0.003346020143 -0.07158090238
661.25 -0.01323385303 -0.0644357009
661.875 -0.03434144716 -0.07382127619
662.5 -0.05384451624 -0.0923232721
663.125 -0.03429803576 -0.1005257241
663.75 -0.0121612169 -0.1046336962
664.375 0.05037620229 -0.1035190282
665.0 0.1030876887 -0.06713579784
665.625 0.09184283017 -0.02729610355
666.25 0.08935864281 -0.01569478992
666.875 0.08862078538 0.01798719312
667.5 0.0598867611 0.05191760167
668.125 0.03652606917 0.04728080516
668.75 0.0385365832 0.05894125419
669.375 0.05703962427 0.08065166865
670.0 0.04239708167 0.0884458797
670.625 0.04179402093 0.07478417811
671.25 0.05062797114 0.0771991797
671.875 0.08995362179 0.07427225317
672.5 0.1057847725 0.02433024848
673.125 0.1005766749 -0.01884777931
673.75 0.08391475043 0.0004939625511
674.375 0.06959619747 0.03284397973
675.0 0.0466090125 0.04950636434
675.625 0.03430544529 0.07096792777
676.25 -0.01024652323 0.091432774
676.875 -0.05098459347 0.07029299025
677.5 -0.05019649969 0.07578043683
678.125 -0.05586105367 0.1061595882
678.75 -0.07278167995 0.1278045812
679.375 -0.06991841724 0.08385964261
680.0 -0.03679288052 0.08841572588
680.625 -0.02546080743 0.09559187146
681.25 -0.01388017568 0.1074584898
681.875 0.001921719777 0.06904753809
682.5 0.01850954172 0.05372137832
683.125 0.005322322724 0.0686750919
683.75 -0.03281396841 0.09029253848
684.375 -0.06397538228 0.05730334165
685.0 -0.09043143756 -0.003259620047
685.625 -0.07659561887 -0.07200222788
686.25 -0.0380177965 -0.1174812588
686.875 -0.03349798113 -0.1227268798
687.5 -0.00694790477 -0.1414049136
688.125 0.0134635882 -0.1250614078
688.75 0.01816393502 -0.08821576753
689.375 0.01814388927 -0.07996142512
690.0 0.04322835945 -0.08131444655
690.625 0.06489634468 -0.05957543764
691.25 0.03134031955 -0.04560671219
691.875 0.01699126863 -0.06862112672
692.5 -0.04641776813 -0.1076706286
693.125 -0.1410078081 -0.06623656538
693.75 -0.11971163 0.03998090557
694.375 -0.1039122329 0.06494500383
695.0 -0.1293881736 0.01916505809
695.625 -0.09458772776 -0.08453519315
696.25 0.01049691382 -0.1085233257
696.875 0.08498820095 -0.04612956648
697.5 0.07849062209 0.02648966848
698.125 0.04469160958 0.04583473872
698.75 0.04487043042 0.06839574649
699.375 0.03806020477 0.09710128284
700.0 0.008894543571 0.09698995905
700.625 -0.004918412516 0.08393224923
701.25 -0.004676624004 0.1106161678
701.875 0.01658881925 0.1420736598
702.5 0.04914154325 0.09640750809
703.125 0.0718847262 0.01685847205
703.75 0.06306022007 -0.01634425677
704.375 0.09761713106 -0.02677744096
705.0 0.1043399772 -0.002125765049
705.625 0.08151613692 0.01401200302
706.25 0.04957655868 0.06524262539
706.875 -0.03674421886 0.1028048455
707.5 -0.1001627283 0.06436019557
708.125 -0.1193793929 0.02025772238
708.75 -0.1048394394 -0.02229958644
709.375 -0.06095540303 -0.06915759359
710.0 -0.01472953153 -0.08220785678
710.625 0.02383307899 -0.09113372341
711.25 0.04309873191 -0.0719650489
711.875 0.02154576812 -0.04708028588
712.5 0.003122980601 -0.03604903486
713.125 0.0008786925318 -0.06288106697
713.75 -0.0525266472 -0.08853365823
714.375 -0.08441323526 -0.04499561332
715.0 -0.09250485965 0.009432154483
715.625 -0.1168857424 0.01374522606
716.25 -0.1289131117 -0.04549134612
716.875 -0.07027051742 -0.07166422791
717.5 -0.0273960999 -0.07530838457
718.125 -0.0003151684832 -0.07762649616
718.75 0.03271101031 -0.07417425423
719.375 0.04493184074 -0.05102203383
720.0 0.04954429828 -0.01792538331
720.625 0.02915851909 0.0254544383
721.25 -0.02911740199 0.02693236663
721.875 -0.05831081567 -0.01655281493
722.5 -0.07308250605 -0.04593558269
723.125 -0.1008905552 -0.008031813054
723.75 -0.06252154513 0.06549325113
724.375 0.009261927698 0.07778977185
725.0 0.04599426961 0.04973073968
725.625 0.05040581894 0.02113990929
726.25 0.03549724563 0.003473303691
726.875 0.01805068177 0.01007887506
727.5 -0.007988189875 0.02723464034
728.125 -0.03425940073 0.03214777433
728.75 -0.02978528794 0.03664468484
729.375 -0.008226436467 0.0382225161
730.0 -0.006867530035 0.02839386868
730.625 -0.02066429554 0.02446185653
731.25 -0.02752315599 0.01631810311
731.875 -0.03076995739 0.0002584342765
732.5 -0.02555141603 -0.01113510643
733.125 -0.01733291717 -0.005496118153
733.75 -0.004410905054 0.006290400269
734.375 0.009881466644 0.00452659463
735.0 0.01210492124 -0.006532526721
735.625 0.01223212568 -0.0112674062
736.25 0.008799412568 -0.02260535256
736.875 -0.007594899404 -0.02847174624
737.5 -0.02346797683 -0.01543481967
738.125 -0.02958504296 0.007957379223
738.75 -0.02181906108 0.0331635578
739.375 0.0008976842061 0.04211908796
740.0 0.01932538473 0.02624736675
740.625 0.01528532799 0.01872565885
741.25 0.009981238707 0.03052977781
741.875 -0.01107754086 0.03623611849
742.5 -0.03885576752 0.008922341904
743.125 -0.02718483557 -0.03436227151
743.75 -0.00144892245 -0.04829530295
744.375 -0.001018654058 -0.05415567305
745.0 -0.0148814393 -0.05678054625
745.625 -0.03626961227 -0.03576368345
746.25 -0.02095972243 -0.004464215033
746.875 -0.006303580746 -0.01511980765
747.5 -0.02058117488 -0.03002569137
748.125 -0.04310778792 -0.02135689919
748.75 -0.04785182372 0.01444361721
749.375 -0.02033357352 0.0546018791
750.0 0.04081819258 0.06222460433
