!Created with skrf (http://scikit-rf.org).
# GHz S RI R 50.0 
!freq ReS11 ImS11
500.0 -0.03122896487 0.00295738415
500.625 -0.01973527908 0.0248965794
501.25 -0.0280359997 0.02355818841
501.875 -0.05690663528 0.04272371386
502.5 -0.06755765197 0.04323471654
503.125 -0.02457918479 0.04739254938
503.75 -0.001567745528 0.04428016768
504.375 0.00959227381 0.04495164649
505.0 0.03209042886 0.03689297796
505.625 0.03633310864 0.02709670958
506.25 0.02318551791 0.01670075459
506.875 -0.005275380407 0.03928040301
507.5 0.002646464473 0.05021230364
508.125 -0.01287613304 0.05321444268
508.75 0.008260683513 0.05497533512
509.375 0.01512410227 0.07049256871
510.0 0.02182538569 0.07668969993
510.625 0.04658892537 -0.007835918532
511.25 0.03013700781 -0.007554382553
511.875 0.02529157372 -0.002475562921
512.5 0.02366975867 -0.01243659354
513.125 0.001771017252 -0.04702421377
513.75 -0.03109677338 -0.06995845094
514.375 -0.06288036954 -0.05060271046
515.0 -0.07463134346 -0.006537964404
515.625 -0.07354190563 -0.04265712677
516.25 -0.07554033852 0.01264862219
516.875 -0.04043328538 -0.02814264107
517.5 -0.01663801029 -0.01113380125
518.125 0.03453819975 -0.05731876136
518.75 -0.04432342123 -0.05672511221
519.375 -0.04859477993 -0.03510224129
520.0 -0.04305563046 -0.006098191943
520.625 -0.03869474111 -0.01249059934
521.25 -0.05492901771 -0.009988114948
521.875 -0.02821236898 -0.006715407667
522.5 -0.02689854575 0.0009640257261
523.125 -0.06209162876 -0.04521524455
523.75 -0.1366756171 -0.08227007579
524.375 -0.1481286144 -0.1097163153
525.0 -0.09888413231 -0.03921132269
525.625 -0.1049213143 -0.01787167034
526.25 -0.08268129606 -0.0278901372
526.875 -0.06891891564 -0.001203814229
527.5 -0.07425608725 0.0336678118
528.125 -0.04501678887 0.07352082726
528.75 -0.03520588666 0.0669907183
529.375 0.0007384752888 0.09116842435
530.0 0.07506505988 0.0926362267
530.625 0.1524844768 0.0001949524625
531.25 0.1656162703 -0.007103950479
531.875 0.1006837797 -0.03359112824
532.5 0.09770921805 -0.03084108849
533.125 0.08664754343 -0.01455725012
533.75 0.08068210626 -0.03970438623
534.375 0.0625231863 -0.02092936801
535.0 0.07735089442 -0.02230534945
535.625 0.0736813138 0.01456386629
536.25 0.07341017126 -0.04697948851
536.875 0.0934783025 -0.05043226225
537.5 0.08893308494 -0.02250467248
538.125 0.04940637572 -0.02121856177
538.75 0.06739950871 -0.01782447407
539.375 0.1187017909 -0.003617040602
540.0 0.1423010419 -0.01018613913
540.625 0.09887193542 -0.0313897777
541.25 0.09169169731 -0.02350021771
541.875 0.1026219692 -0.02993751601
542.5 0.07859596925 -0.02752356201
543.125 0.02926241552 -0.0314087333
543.75 0.01743724288 -0.02040498735
544.375 0.05100574378 -0.02341668169
545.0 0.01440971637 -0.06715870587
545.625 -0.02570217137 -0.07492508663
546.25 -0.05403782328 -0.05135108507
546.875 -0.05277892352 -0.05473322204
547.5 -0.05395455176 -0.05074889779
548.125 -0.04803758546 -0.07976161558
548.75 -0.007964277038 -0.09723629177
549.375 0.02490533214 -0.09914954347
550.0 0.06356233653 -0.08352086636
550.625 0.08464665748 -0.1044064892
551.25 0.1353325796 -0.06979590194
551.875 0.08418869108 -0.08074468425
552.5 0.04907669919 -0.09506881944
553.125 0.02256617368 -0.105789653
553.75 0.03013596615 -0.1018860358
554.375 0.003231545647 -0.07808135319
555.0 -0.005466329811 -0.06480248904
555.625 -0.003575155661 -0.07230387239
556.25 0.007410561996 -0.07125576436
556.875 0.005985608508 -0.06283914765
557.5 0.01298077401 -0.03905376832
558.125 0.03974503417 -0.03039416226
558.75 0.0513904535 -0.0001591892646
559.375 0.0707800163 -0.01539983385
560.0 0.09297761836 -0.01824820288
560.625 0.09424465535 -0.05403618602
561.25 0.05035118464 -0.07573596971
561.875 0.01231893738 -0.08552552367
562.5 -0.006192016097 -0.08378909593
563.125 -0.01744738654 -0.06812699716
563.75 -0.03342401207 -0.03902814906
564.375 -0.02900194078 -0.03162837644
565.0 -0.01026548951 -0.05907279177
565.625 0.0068637337 -0.07335915851
566.25 0.01414874278 -0.0686778047
566.875 0.01827689344 -0.07098659814
567.5 0.03539846461 -0.05924176277
568.125 0.05015954678 -0.0403361479
568.75 0.07330248603 -0.01923431816
569.375 0.09025958712 -0.02276214942
570.0 0.09585844341 -0.03005819061
570.625 0.07151996682 -0.05810886359
571.25 0.07008096692 -0.06579557517
571.875 0.05868839699 -0.07965994108
572.5 0.01486969436 -0.08548329989
573.125 -0.03064927143 -0.06603046528
573.75 -0.02452739102 -0.05476293376
574.375 -0.01050743491 -0.07266128191
575.0 -0.02018681945 -0.06708145454
575.625 -0.04280505293 -0.04295381116
576.25 -0.03953035187 -0.03642696134
576.875 -0.02166989198 -0.04640139331
577.5 -0.0006333375682 -0.04145740531
578.125 -0.002423000658 -0.04934529806
578.75 -0.00429518549 -0.06282348491
579.375 -0.0009161004224 -0.07577652722
580.0 0.01022051784 -0.08086733159
580.625 -0.00216515635 -0.09342808705
581.25 -0.03545379407 -0.102192148
581.875 -0.04509497006 -0.0765104222
582.5 -0.03413329066 -0.06486527018
583.125 -0.009281233583 -0.0593268107
583.75 0.003593120262 -0.07110729892
584.375 0.001732249257 -0.06126201308
585.0 0.003017059827 -0.05982585354
585.625 0.02242843425 -0.04772982471
586.25 0.03671991553 -0.04717885565
586.875 0.0186574887 -0.04700831749
587.5 0.002669693867 -0.05090839781
588.125 -0.0008406674702 -0.05622873688
588.75 0.02037537119 -0.06446507031
589.375 -0.008705680044 -0.07386475411
590.0 -0.05423424807 -0.07006467379
590.625 -0.0852304954 -0.0433803262
591.25 -0.06373633597 -0.02415492254
591.875 -0.0378742231 -0.007243314619
592.5 -0.02544425887 -0.01382388214
593.125 -0.02443733436 -0.0311161701
593.75 -0.01606361506 -0.03654894059
594.375 0.007830875224 -0.03609526294
595.0 0.0277573134 -0.0364278881
595.625 0.04473691222 -0.03769081159
596.25 0.04329064041 -0.03533581272
596.875 0.04693490142 -0.02489444281
597.5 0.04993542427 -0.01107903834
598.125 0.05689490493 -0.01022148799
598.75 0.05646150163 -0.0310170323
599.375 0.05882333971 -0.04817249241
600.0 0.05663948245 -0.05111870208
600.625 0.04090460152 -0.04817243734
601.25 0.01845841023 -0.04680207675
601.875 0.008308237682 -0.03544832902
602.5 0.009053460001 -0.02047227063
603.125 0.006376177171 -0.005359873587
603.75 0.01033120264 0.004600793624
604.375 0.02300083852 0.007816892992
605.0 0.02848341586 0.003717887613
605.625 0.01576320269 -0.0007873514518
606.25 -0.001703709732 0.006728324175
606.875 -0.006619429175 0.0257450394
607.5 0.009267392904 0.03719630005
608.125 0.02732507565 0.02610848281
608.75 0.02735546117 0.0181144531
609.375 0.02495963587 0.02131103819
610.0 0.02668698295 0.0217254018
610.625 0.02950060548 0.01031127906
611.25 0.02499175524 -0.001073470017
611.875 0.01672899663 -0.008960882657
612.5 0.005268988752 -0.01546050125
613.125 -0.009414277202 -0.01319184505
613.75 -0.01347855089 -0.00224518216
614.375 -0.00505502547 0.002433990661
615.0 0.001965890967 -0.005391219918
615.625 -0.004547022952 -0.01403694159
616.25 -0.01231474997 -0.007185647592
616.875 -0.005145301025 0.002362235232
617.5 0.00719132351 -0.002109153528
618.125 0.01073081377 -0.01141930545
618.75 0.01020697866 -0.01280264999
619.375 0.01976924181 -0.009854843803
620.0 0.03562499773 -0.01830266403
620.625 0.03275789096 -0.04392558543
621.25 0.02804866064 -0.05944107353
621.875 0.01625567096 -0.07100661605
622.5 -0.04315295869 -0.0503373273
623.125 -0.04547857789 -0.02034520694
623.75 -0.02999350996 -0.01325035399
624.375 -0.006985919747 -0.02014108428
625.0 0.008497435209 -0.01663500094
625.625 0.003368970454 -0.00741539333
626.25 0.01367777729 0.00265755871
626.875 0.04120564465 0.002289115211
627.5 0.05949467879 0.008169398376
628.125 0.05567938798 0.007858791634
628.75 0.05727543182 0.008673994684
629.375 0.0685873303 0.01666123176
630.0 0.07729445954 0.02734759031
630.625 0.07278900922 0.03301789218
631.25 0.07033433184 0.02651509303
631.875 0.06390697057 0.02382243926
632.5 0.05455042967 0.01441984105
633.125 0.04499066923 0.02573879918
633.75 0.03982633717 0.02664592908
634.375 0.03274372249 0.03335912655
635.0 0.02902754956 0.02203683147
635.625 0.03651398818 0.03544358389
636.25 0.04487194643 0.0541500839
636.875 0.0411544136 0.05287228548
637.5 0.0333623284 0.0292101734
638.125 0.02344067108 0.04684116665
638.75 0.01657897101 0.08771900086
639.375 -0.006477695651 0.09018838484
640.0 -0.007904514197 0.07493941153
640.625 -0.01492257014 0.06365557317
641.25 -0.03849197508 0.05676453467
641.875 -0.04743572254 0.0391867961
642.5 -0.05162549108 0.0350038047
643.125 -0.05847606414 0.02975429747
643.75 -0.06591177157 0.01156731743
644.375 -0.06491744386 0.01357242406
645.0 -0.0801045142 0.02287134929
645.625 -0.09204318035 0.03515220266
646.25 -0.07684850377 0.03674712018
646.875 -0.0603060842 0.03647440325
647.5 -0.07037785868 0.02456295774
648.125 -0.08810971042 0.01818195258
648.75 -0.07240534378 0.005054011195
649.375 -0.05845506852 0.007314814709
650.0 -0.04476808702 -0.01975098775
650.625 -0.0277138728 -0.05175511343
651.25 -0.004382840865 -0.05183737224
651.875 0.0123641013 -0.05471121166
652.5 0.05090965728 -0.05511989119
653.125 0.08724344737 -0.04146453672
653.75 0.09604240657 -0.03355702934
654.375 0.1080868884 -0.03229191145
655.0 0.1162365038 -0.02380582249
655.625 0.08847595859 -0.02060071259
656.25 0.07561035325 -0.03497590021
656.875 0.06916764955 -0.04476638853
657.5 0.08157512122 -0.02622563657
658.125 0.04981053268 -0.01550316572
658.75 0.04469013928 -0.01592479023
659.375 0.05974002369 -0.005419615152
660.0 0.08691106472 -0.01295003903
660.625 0.07447686842 -0.02800393038
661.25 0.072579706 -0.05762338968
661.875 0.0689408455 -0.0883877502
662.5 0.05942620327 -0.09894895022
663.125 0.04499422011 -0.09362433687
663.75 0.07946178705 -0.07412983353
664.375 0.1078651987 -0.008318376163
665.0 0.07155888552 0.03766226893
665.625 0.05726236883 0.04248947702
666.25 0.03468324109 0.06351259203
666.875 -0.01535595325 0.07530281332
667.5 -0.03742353473 0.05299001603
668.125 -0.04656878872 0.05998052653
668.75 -0.04773492441 0.0878290714
669.375 -0.05887846225 0.09369327047
670.0 -0.03879240389 0.0773212087
670.625 -0.05294598623 0.06828504766
671.25 -0.0425376008 0.09327442853
671.875 -0.02191917445 0.09737294402
672.5 0.03795014277 0.07862547282
673.125 0.03050384058 0.0696814963
673.75 0.006951168261 0.07322375235
674.375 -0.01723449991 0.07139031655
675.0 -0.03296683024 0.07751233806
675.625 -0.07438544573 0.06574470333
676.25 -0.09900758606 0.0144068002
676.875 -0.0953028626 0.005601094419
677.5 -0.1178784421 0.02078173036
678.125 -0.1345796888 0.02751569846
678.75 -0.1046536872 0.0006961749746
679.375 -0.07593275825 0.01373832448
680.0 -0.07212016527 0.008043427114
680.625 -0.08398293173 -0.00138013485
681.25 -0.0647612937 -0.007518654852
681.875 -0.04950232666 0.01043707121
682.5 -0.06819760292 0.01949511499
683.125 -0.1063597048 0.02906844935
683.75 -0.1058761601 0.008358903202
684.375 -0.09974168551 -0.03452250828
685.0 -0.05404044513 -0.09624549817
685.625 0.02489171228 -0.1250808929
686.25 0.05306297061 -0.1078862973
686.875 0.07649980723 -0.1055765088
687.5 0.08584036988 -0.06613312663
688.125 0.06512549709 -0.0314047164
688.75 0.05554905457 -0.01669514362
689.375 0.07381187829 0.008275531946
690.0 0.07738833728 0.04723407476
690.625 0.05381297784 0.04253991922
691.25 0.07819397313 0.0225009496
691.875 0.1161679942 -0.03024053403
692.5 0.1020223038 -0.1275441481
693.125 -0.03910525693 -0.1188766031
693.75 -0.1015638055 -0.05848733245
694.375 -0.102610461 -0.05149877573
695.0 -0.05582065801 -0.1039404625
695.625 0.01599084832 -0.09111748764
696.25 0.08037652035 -0.02349977892
696.875 0.05130274849 0.05978568883
697.5 -0.01837763885 0.06995766725
698.125 -0.04172734913 0.07451599476
698.75 -0.06517170479 0.08946880092
699.375 -0.07544319084 0.08132957665
700.0 -0.06152732803 0.0591478605
700.625 -0.07955452058 0.05795725086
701.25 -0.1049630834 0.05528787503
701.875 -0.08922874529 0.04454417468
702.5 -0.020715266 0.05142827704
703.125 -0.008658260584 0.05191197493
703.75 0.01399693534 0.09295552604
704.375 0.04314324493 0.1174290451
705.0 0.05934848661 0.07720941605
705.625 0.03143855605 0.0881882942
706.25 -0.04600913326 0.1034189111
706.875 -0.1211840363 0.01822213071
707.5 -0.1134385406 -0.02947950449
708.125 -0.07831203729 -0.0636042327
708.75 -0.02796700883 -0.07688549268
709.375 0.02449409555 -0.06088909176
710.0 0.06599843513 -0.03664704925
710.625 0.06928119814 -0.001461460639
711.25 0.044786306 0.01900018267
711.875 0.03029364321 0.01702505716
712.5 0.06434894951 0.02771718399
713.125 0.115281036 -0.02360074151
713.75 0.05747085831 -0.100814189
714.375 -0.03815551993 -0.09558439575
715.0 -0.08735403288 -0.07612528885
715.625 -0.08157354728 -0.1026373595
716.25 -0.02274588228 -0.09083171202
716.875 0.00485568892 -0.0682216979
717.5 0.04351440604 -0.04390516559
718.125 0.0701650054 -0.01277777769
718.75 0.06132854992 0.01037910085
719.375 0.0466537141 0.02140198937
720.0 0.01553143964 0.04027971565
720.625 -0.04170504718 0.03281264019
721.25 -0.06416263381 -0.02872569472
721.875 -0.03218589757 -0.08533646326
722.5 -0.01979114312 -0.09692251231
723.125 -0.06014888078 -0.06696800303
723.75 -0.07506511275 0.003738775615
724.375 -0.05085416485 0.03519140093
725.0 -0.02012505389 0.04160231965
725.625 0.0004557796482 0.02699332836
726.25 -0.003034919317 0.01629758654
726.875 -0.03105573864 0.01146408454
727.5 -0.05605124406 -0.00114381042
728.125 -0.0569713941 -0.01070884556
728.75 -0.05053256529 0.001626240911
729.375 -0.03713403565 0.01121559653
730.0 -0.03354173789 0.003849933631
730.625 -0.03434518557 -0.000710376475
731.25 -0.02786606842 -0.007935931813
731.875 -0.0163785418 -0.01660387175
732.5 -0.006391053236 -0.01227291717
733.125 -0.003337361234 0.002067609518
733.75 0.007247671052 0.01319289517
734.375 0.01951807128 0.009475175269
735.0 0.01898560651 -0.005485767334
735.625 0.01517408239 -0.01065269712
736.25 0.009017084852 -0.02010253398
736.875 -0.01011935786 -0.02396803684
737.5 -0.03002595433 -0.01026560066
738.125 -0.04212446939 0.009947510359
738.75 -0.03792058199 0.02942440545
739.375 -0.01820378327 0.03528312066
740.0 -0.005887477252 0.02212039982
740.625 -0.01454604287 0.02002100924
741.25 -0.01980714021 0.02792895271
741.875 -0.03280433475 0.0146239906
742.5 -0.02514643492 -0.02357676515
743.125 0.01313457672 -0.03235495026
743.75 0.03055157955 -0.02053756511
744.375 0.03139317941 -0.02059830381
745.0 0.02552187479 -0.02018943834
745.625 0.01224564658 -0.009766256566
746.25 0.02812473132 -0.002709676082
746.875 0.04044398174 -0.03295536221
747.5 0.0158747357 -0.05675744491
748.125 -0.01620002781 -0.05105132362
748.75 -0.04563800913 -0.02900538458
749.375 -0.06064820124 0.007227051171
750.0 -0.03175582721 0.06505209007
