!Created with skrf (http://scikit-rf.org).
# GHz S RI R 50.0 
!freq ReS11 ImS11
500.0 -0.007233030603 0.0207878549
500.625 0.02702332513 0.01602141817
501.25 0.03396597183 -0.004574913499
501.875 0.03228134001 -0.008242687512
502.5 0.01878482307 0.01402841851
503.125 0.02784110634 0.007637470777
503.75 0.03404136535 -0.01678332665
504.375 0.03086512816 -0.02845656146
505.0 0.02012215122 -0.0384195968
505.625 0.01581655479 -0.06158870432
506.25 -0.004341214179 -0.07624207932
506.875 0.02772969032 -0.0934603155
507.5 -0.0034885832 -0.07805886047
508.125 0.02499470988 -0.08951376525
508.75 -0.02683012115 -0.101876528
509.375 -0.03590361256 -0.0729561352
510.0 -0.01124848844 -0.06962328558
510.625 -0.0621226177 -0.0268303839
511.25 -0.08157680344 -0.01901129622
511.875 -0.06402252201 0.02947641488
512.5 -0.02064907825 0.04835050643
513.125 0.04159932455 0.06451237067
513.75 0.05822566922 0.05769362871
514.375 0.06048433566 0.03007536968
515.0 0.08052363643 0.003369126446
515.625 0.08678820646 0.08231213
516.25 0.1094227872 0.04441205749
516.875 0.0608331694 0.1170760818
517.5 0.1437360058 0.03837431723
518.125 0.09320567224 0.2234109972
518.75 0.1064604865 0.01323578527
519.375 0.08379158292 0.01723019939
520.0 0.1109083529 -0.03213500142
520.625 0.1256340508 -0.03263356033
521.25 0.08973244463 -0.05579308522
521.875 0.07379596834 -0.01986866511
522.5 0.07436814099 -0.0902925497
523.125 0.1650961751 -0.1598876178
523.75 0.1081033269 -0.2419423996
524.375 0.1150800661 -0.2401211916
525.0 0.05505806953 -0.09997472119
525.625 0.04594535361 -0.05866181745
526.25 0.05272712536 -0.04076965733
526.875 0.04211414151 -0.06270082425
527.5 0.03215581717 -0.07208549235
528.125 -0.004607044476 -0.06083368833
528.75 -0.02556429476 -0.07348892772
529.375 -0.104966968 -0.06224705222
530.0 -0.09193868024 -0.0007952848583
530.625 -0.03992322093 0.02786451808
531.25 -0.08161578675 0.01661549227
531.875 -0.1656814789 0.0449362818
532.5 -0.1480636882 0.08103430057
533.125 -0.08841930751 0.07508020925
533.75 -0.05346509469 0.09666725738
534.375 -0.08276319083 0.1107505957
535.0 -0.06451340028 0.1036570642
535.625 -0.05507921314 0.0652239661
536.25 -0.004689879022 0.07959162939
536.875 -0.05129079815 0.07865341696
537.5 -0.09066216196 0.03113770401
538.125 -0.07141698444 0.06263387749
538.75 -0.06752003141 0.1181389872
539.375 -0.08362405216 0.08574607972
540.0 -0.07271593911 0.06581297054
540.625 -0.07453678292 0.07035575165
541.25 -0.1044245561 0.08142748316
541.875 -0.09832203154 0.03956719632
542.5 -0.07746792108 0.01628831167
543.125 -0.08228848381 0.06899775994
543.75 -0.03654151234 0.1470573368
544.375 -0.001035686841 0.1409325291
545.0 0.08307143006 0.06310543103
545.625 0.1218035387 0.009468792449
546.25 0.132001443 -0.01313895967
546.875 0.1147789109 -0.01966672795
547.5 0.1256715841 -0.02015150298
548.125 0.1620614284 -0.007921977931
548.75 0.1445692109 0.05728103898
549.375 0.1298776981 0.05528059989
550.0 0.1209875026 0.09301698164
550.625 0.09771590086 0.1090840192
551.25 0.02134218951 0.09114133662
551.875 0.02534167456 0.05076512257
552.5 0.03861837405 0.06133673585
553.125 0.03089770826 0.08835692948
553.75 -0.002947737522 0.0618719072
554.375 0.009687059433 0.05790362421
555.0 0.03802098606 0.07988745863
555.625 0.05031929082 0.09742952628
556.25 0.01180672026 0.08669519205
556.875 0.01687830381 0.08282361723
557.5 0.02113045025 0.1139407825
558.125 0.005242386613 0.1297262217
558.75 -0.02599872257 0.1120569283
559.375 0.0119918604 0.1107320477
560.0 0.01232203159 0.1135522748
560.625 0.01977962585 0.07256032116
561.25 0.02212411995 0.05092980626
561.875 0.02695582615 0.06562707823
562.5 0.04069742911 0.07534319477
563.125 0.04408783012 0.06144038033
563.75 0.06828186947 0.04314356035
564.375 0.1184702428 0.0363260038
565.0 0.1168082376 0.06959818874
565.625 0.1040061667 0.03856943301
566.25 0.09332063523 0.0385155948
566.875 0.09286296222 0.06932960593
567.5 0.03923517428 0.104402037
568.125 0.02546714139 0.09544682274
568.75 0.03111899076 0.1141389243
569.375 0.02033250986 0.1102447848
570.0 0.0114526376 0.08655101212
570.625 0.01842619606 0.06199256486
571.25 0.03249175685 0.07681450087
571.875 0.01692177791 0.06370284705
572.5 0.01663356803 0.0421600815
573.125 0.02824209971 0.05840642312
573.75 0.08507341744 0.06691969943
574.375 0.09465391023 0.05233016743
575.0 0.07182905154 0.02011708529
575.625 0.07467015276 0.006640934363
576.25 0.09971588016 0.03536457729
576.875 0.09501740078 0.03795127095
577.5 0.08879808842 0.01920243551
578.125 0.1042623193 0.001433711368
578.75 0.122256993 0.02157477817
579.375 0.0970539637 0.01998475151
580.0 0.09244854484 -0.001090104284
580.625 0.09740177092 -0.0179886876
581.25 0.07840127242 -0.01060569854
581.875 0.04174777286 0.01484915437
582.5 0.04802980844 0.024491675
583.125 0.07897265586 0.04666338446
583.75 0.07176656854 0.05099739613
584.375 0.05080007653 0.04742432703
585.0 0.04331238915 0.05718337944
585.625 0.05581613161 0.08157772759
586.25 0.04600151447 0.07064027177
586.875 0.04585707037 0.0475183908
587.5 0.06429840197 0.05222394467
588.125 0.08959567073 0.04158004437
588.75 0.0880030391 0.02710660772
589.375 0.07768343745 -0.02424177896
590.0 0.06745375699 -0.04965244951
590.625 0.04917164847 -0.02078044917
591.25 0.03921485494 0.006645464613
591.875 0.05394081899 0.007062401633
592.5 0.08522189448 -0.01398345313
593.125 0.09345423332 -0.007172941111
593.75 0.07663763196 0.003295868793
594.375 0.08009228486 0.0183211287
595.0 0.08528412685 0.04617636385
595.625 0.06200635194 0.06149958055
596.25 0.0373728685 0.05534923476
596.875 0.02892578135 0.06087825043
597.5 0.01828240073 0.07560670908
598.125 0.02626305493 0.0690230782
598.75 0.04551206742 0.0492277822
599.375 0.04698147404 0.03506186922
600.0 0.02963086275 0.02470474709
600.625 0.008791031103 0.01250350054
601.25 -0.005135997559 0.01726868908
601.875 -0.01532837619 0.0349230637
602.5 -0.02082223758 0.04038902607
603.125 -0.023197159 0.04157776914
603.75 -0.01567539073 0.05115582478
604.375 -0.01190025492 0.05369964722
605.0 -0.0157178504 0.03575923357
605.625 -0.02470084531 0.01973642668
606.25 -0.04202682416 0.02224494134
606.875 -0.04896829629 0.03531930365
607.5 -0.02890420101 0.04495673958
608.125 -0.003248532466 0.03910590079
608.75 0.0003542911169 0.03131654264
609.375 -0.001603752494 0.02750726446
610.0 0.003050081831 0.02071128898
610.625 0.01011852985 0.008308958485
611.25 0.009550495 -0.00494442136
611.875 0.006617810987 -0.01539404563
612.5 -0.0003128228628 -0.02136404677
613.125 -0.01132813327 -0.01682577087
613.75 -0.01243769619 -0.00320312781
614.375 -0.00122907527 0.004604583557
615.0 0.008903838084 -0.0004844249051
615.625 0.005118990939 -0.00557626613
616.25 -0.0002670520965 0.00350469868
616.875 0.01027932301 0.0153772655
617.5 0.02530733201 0.01551886087
618.125 0.02807807947 0.01172370603
618.75 0.02772521408 0.01269115769
619.375 0.0375183228 0.0205542589
620.0 0.05418973469 0.01907562887
620.625 0.05581929314 -0.007883570721
621.25 0.04612910008 -0.01867048909
621.875 0.03150269644 -0.02373736421
622.5 -0.001916891176 -0.01459252897
623.125 -0.0004408849301 0.01250456925
623.75 0.01454785117 0.02805751131
624.375 0.01985800643 0.04108932887
625.0 0.003671220493 0.04995168743
625.625 0.004800729085 0.05699781496
626.25 0.02785715774 0.07365943006
626.875 0.04231456723 0.08595312131
627.5 0.03085713073 0.07951019421
628.125 0.02366169704 0.06951556204
628.75 0.02149976743 0.08062793291
629.375 0.00800798776 0.0899007669
630.0 0.002528320039 0.071067349
630.625 0.0001985466367 0.05653281112
631.25 -0.01214131091 0.05102789717
631.875 -0.03333036421 0.03759308103
632.5 -0.03969129355 0.02372153556
633.125 -0.04592041541 0.0245763048
633.75 -0.05882507433 0.03967006099
634.375 -0.06781645692 0.03181700672
635.0 -0.06701811432 0.03949768288
635.625 -0.0636309793 0.06728638625
636.25 -0.06750052267 0.07907209653
636.875 -0.06156501856 0.04792691903
637.5 -0.06152086281 0.039185986
638.125 -0.08894780933 0.06248349575
638.75 -0.09991284918 0.05844064177
639.375 -0.07784142784 0.02420369586
640.0 -0.05992478746 0.00182435812
640.625 -0.07402263109 -0.03214000271
641.25 -0.06051296932 -0.06736258183
641.875 -0.04464209874 -0.05915343295
642.5 -0.04679082959 -0.05701163758
643.125 -0.04473499393 -0.087983603
643.75 -0.01186184503 -0.1082067668
644.375 -0.02338955004 -0.08819264815
645.0 -0.06076106841 -0.08116795267
645.625 -0.05979424934 -0.09281021961
646.25 -0.03390083647 -0.08203500902
646.875 -0.01276524197 -0.07421771139
647.5 -0.03709412125 -0.0858272823
648.125 -0.02709532445 -0.09623332553
648.75 0.005296025445 -0.07085124873
649.375 0.03011679227 -0.05858552842
650.0 0.06286160591 -0.06949758726
650.625 0.09245573052 -0.05384394444
651.25 0.09203059713 -0.02496771593
651.875 0.1039259664 -0.0005086579868
652.5 0.12916511 0.0549804652
653.125 0.1023218407 0.08129174565
653.75 0.08817139264 0.07147774273
654.375 0.08682506404 0.07827178466
655.0 0.04513290269 0.1032324538
655.625 0.003397678353 0.07235899389
656.25 0.01626111736 0.06010599968
656.875 0.04728536186 0.07834768844
657.5 0.01389562228 0.1023080172
658.125 -0.02306638482 0.08561778027
658.75 -0.007012569238 0.08820473923
659.375 0.04987018167 0.1230558142
660.0 0.07846096312 0.1238029645
660.625 0.08722929774 0.09222072031
661.25 0.109374088 0.05778658511
661.875 0.1377860272 0.03308796605
662.5 0.125852676 0.01985915626
663.125 0.1022549124 0.01708117208
663.75 0.09294014745 0.05689843244
664.375 0.007748861979 0.1036273949
665.0 -0.04400945234 0.07226751297
665.625 -0.05488645866 0.05054983909
666.25 -0.09963256981 0.04804632902
666.875 -0.1349531952 -0.02784419521
667.5 -0.1069286869 -0.04508638975
668.125 -0.1143000949 -0.0208817795
668.75 -0.1497093931 0.001702473017
669.375 -0.1335621306 -0.03252655615
670.0 -0.08398714823 -0.03709950752
670.625 -0.09483909403 -0.02833761429
671.25 -0.1285830879 -0.009876699144
671.875 -0.1149820681 -0.001962223886
672.5 -0.08482633675 0.02128816236
673.125 -0.08736648306 0.03803165528
673.75 -0.1218896348 0.04302065014
674.375 -0.1261337398 0.02173524345
675.0 -0.1239941092 -0.008922704783
675.625 -0.1249834306 -0.06445832527
676.25 -0.08531205709 -0.1082006616
676.875 -0.0679462947 -0.1046916412
677.5 -0.09422870361 -0.09655384742
678.125 -0.08012877027 -0.1220375935
678.75 -0.01764140917 -0.0842035392
679.375 0.004376958027 -0.06067534909
680.0 -0.009916000961 -0.081897369
680.625 -0.006810168702 -0.1320530319
681.25 0.004231359608 -0.1156355452
681.875 -0.02469711987 -0.09667228232
682.5 -0.09927381734 -0.09150589243
683.125 -0.1390753574 -0.1122873144
683.75 -0.08674104373 -0.131731559
684.375 -0.01816066314 -0.1236452184
685.0 0.06329921638 -0.1322632707
685.625 0.1382646252 -0.06579855958
686.25 0.1323323047 -0.005723168154
686.875 0.1085857993 0.02166959537
687.5 0.07303354512 0.06157962699
688.125 0.03042107737 0.08005695784
688.75 0.01401405111 0.08876989731
689.375 0.01736779794 0.1250566146
690.0 -0.02611011908 0.1427449893
690.625 -0.02105334096 0.124528914
691.25 0.04001029219 0.1248620635
691.875 0.1591166635 0.0988539508
692.5 0.2010626003 0.01032777683
693.125 0.08317574987 -0.09275262538
693.75 0.002522487697 -0.1041160563
694.375 0.002842225707 -0.1382661133
695.0 0.10588717 -0.1179420532
695.625 0.1091927036 0.009293564525
696.25 0.05411341923 0.08080823632
696.875 -0.05353987568 0.1103618432
697.5 -0.1332081713 0.03991379968
698.125 -0.1383844424 -0.004325822925
698.75 -0.1439834877 0.006741585628
699.375 -0.1355957198 -0.001458359732
700.0 -0.1106584222 -0.02049422244
700.625 -0.1049256115 -0.04434255036
701.25 -0.1109037073 -0.0785108146
701.875 -0.07256681564 -0.06394610956
702.5 -0.06304485237 -0.03786997877
703.125 -0.1011619549 0.006333787283
703.75 -0.1281853471 0.1282888025
704.375 -0.08080333504 0.1489540218
705.0 -0.03057785267 0.1167129136
705.625 -0.05379103074 0.1098397506
706.25 -0.1603040309 0.05534930268
706.875 -0.1142695086 -0.1105884289
707.5 -0.042495467 -0.09710693435
708.125 -0.003447397733 -0.09539445893
708.75 0.06912931193 -0.07004105199
709.375 0.0974177236 0.02051841619
710.0 0.05865141999 0.06157013413
710.625 0.04178644165 0.07286646066
711.25 0.005824870682 0.08472954659
711.875 -0.004797066298 0.09771712265
712.5 0.04186649224 0.1226716592
713.125 0.1438298858 0.07302001887
713.75 0.1318858249 -0.06479442268
714.375 0.04345786867 -0.1210092345
715.0 -0.01423200644 -0.1388790219
715.625 0.02933465398 -0.1389170936
716.25 0.06164536176 -0.06554868686
716.875 0.06135199605 -0.01968752614
717.5 0.08047231731 0.02674561089
718.125 0.07308242093 0.08455872596
718.75 0.02834075007 0.0860154019
719.375 0.006395719939 0.067316601
720.0 -0.03736356122 0.06752338915
720.625 -0.1041072209 0.0003671748787
721.25 -0.04975453353 -0.1027739292
721.875 0.02507837167 -0.1072202448
722.5 0.04036751166 -0.106120997
723.125 -0.001620258432 -0.09868846005
723.75 -0.0381116758 -0.0615976453
724.375 -0.05510744855 -0.03009065832
725.0 -0.05524733474 0.003361764882
725.625 -0.04100186187 0.01247075092
726.25 -0.04534195889 0.004855995955
726.875 -0.06695421841 -0.01734097976
727.5 -0.0734946172 -0.04307333528
728.125 -0.05642758805 -0.05211121836
728.75 -0.05005135386 -0.03657252338
729.375 -0.04683336852 -0.024414855
730.0 -0.04269229656 -0.02788762404
730.625 -0.0333299037 -0.02671732726
731.25 -0.01743785761 -0.02646303717
731.875 0.001905966764 -0.02438000666
732.5 0.01116947578 -0.005609224467
733.125 0.006454316868 0.01498935049
733.75 0.01578891562 0.02361010617
734.375 0.02837120511 0.01658937014
735.0 0.02761577786 -0.004466931814
735.625 0.0200710001 -0.01226377779
736.25 0.00995966925 -0.02217930253
736.875 -0.01169655024 -0.02533348777
737.5 -0.03348442894 -0.01244287335
738.125 -0.04674584526 0.005100056081
738.75 -0.04270135087 0.02105147407
739.375 -0.02335658025 0.0234981015
740.0 -0.01510019641 0.008570761055
740.625 -0.02845836286 0.007869224566
741.25 -0.03370916992 0.01432185409
741.875 -0.03470408511 -0.00536936093
742.5 -0.005259319261 -0.03463446838
743.125 0.03449350676 -0.01520163771
743.75 0.03547245058 0.007585748043
744.375 0.03490296825 0.007403800913
745.0 0.03568894734 0.01153091496
745.625 0.0355960993 0.02248397711
746.25 0.05511312602 0.02308073272
746.875 0.06834787076 -0.02470226531
747.5 0.04166714989 -0.06200045016
748.125 0.009480605614 -0.06591598723
748.75 -0.02179179205 -0.05444023479
749.375 -0.06008322918 -0.0285020308
750.0 -0.06699180224 0.04805886949
