!Created with skrf (http://scikit-rf.org).
# GHz S RI R 50.0 
!freq ReS11 ImS11
500.0 -0.005710758569 0.01796279756
500.625 0.02175890095 0.008861070544
501.25 0.0265711911 -0.01137536112
501.875 0.01884361483 -0.01581630361
502.5 0.01025811635 0.004972421358
503.125 0.01846109124 0.00470402934
503.75 0.02328442103 -0.01629717423
504.375 0.01893989459 -0.02640836357
505.0 0.01237668614 -0.03269392489
505.625 0.008588924141 -0.05342535876
506.25 -0.01469178691 -0.06493059251
506.875 0.006218518313 -0.08855227088
507.5 -0.0184046452 -0.07021177548
508.125 0.00626379732 -0.081826308
508.75 -0.04449677644 -0.08417050767
509.375 -0.05153933236 -0.05598411071
510.0 -0.0261204685 -0.05572758392
510.625 -0.05439184824 -0.01149246975
511.25 -0.07454147157 -0.005052482261
511.875 -0.05400314257 0.0374815625
512.5 -0.008060526974 0.05052348403
513.125 0.05187185824 0.04857139437
513.75 0.06651690613 0.03510407973
514.375 0.06335627794 0.01069700215
515.0 0.06930671271 -0.01430362641
515.625 0.08756596359 0.05130481402
516.25 0.1050007871 0.01997688174
516.875 0.06837343082 0.09755622981
517.5 0.1318296734 0.01802550945
518.125 0.1219313744 0.1930774214
518.75 0.1062526989 -0.01140963408
519.375 0.08044048393 0.002929692593
520.0 0.09264467634 -0.04377879617
520.625 0.1075180548 -0.05028209712
521.25 0.07417365258 -0.07176572495
521.875 0.06624264747 -0.02850128603
522.5 0.0556573647 -0.09036605564
523.125 0.1332310439 -0.175425993
523.75 0.07740766094 -0.2620504703
524.375 0.08449636854 -0.2537481772
525.0 0.03658174047 -0.1109370077
525.625 0.02858666447 -0.07232199032
526.25 0.04209429598 -0.05570916507
526.875 0.02730548129 -0.06793833127
527.5 0.01223348561 -0.07658916753
528.125 -0.02092561685 -0.05576867604
528.75 -0.03885837813 -0.06379478833
529.375 -0.1099341227 -0.03865129826
530.0 -0.08894482576 0.0255684418
530.625 -0.02828455003 0.04588718224
531.25 -0.06018401543 0.0304635486
531.875 -0.1299839609 0.06137010232
532.5 -0.111970438 0.09897053533
533.125 -0.07187253226 0.08983590158
533.75 -0.03631885373 0.09368047004
534.375 -0.05753860855 0.1092267997
535.0 -0.03748350472 0.1076831011
535.625 -0.04519917056 0.07674677122
536.25 0.009973961431 0.07637033359
536.875 -0.02945269434 0.07701938149
537.5 -0.06760836241 0.04541477877
538.125 -0.05851300487 0.06954796995
538.75 -0.04603470881 0.1187299173
539.375 -0.06443452348 0.09328121269
540.0 -0.05012465167 0.07775237256
540.625 -0.05701128151 0.07618840571
541.25 -0.07988480722 0.08711945777
541.875 -0.08029416371 0.05214396693
542.5 -0.06581299728 0.02427730255
543.125 -0.0687160012 0.06723442669
543.75 -0.01982950097 0.1347298558
544.375 0.02010084019 0.1349058389
545.0 0.0880003491 0.05450927551
545.625 0.1141838112 -0.003627399283
546.25 0.1163256424 -0.02744027605
546.875 0.1074772482 -0.03972358697
547.5 0.1204260045 -0.03089003596
548.125 0.1506402687 -0.02068447134
548.75 0.1389570071 0.03480720533
549.375 0.139028602 0.03575312552
550.0 0.1264361921 0.08093124613
550.625 0.1093942704 0.09694449371
551.25 0.0416764999 0.0852019809
551.875 0.04086747511 0.04878439839
552.5 0.04640828536 0.0521182059
553.125 0.04429214745 0.07291875775
553.75 0.01079348759 0.05196963544
554.375 0.01868952918 0.04987728892
555.0 0.04223988875 0.06771744882
555.625 0.05738097771 0.07843839029
556.25 0.02556517984 0.07800940207
556.875 0.02456984696 0.07315529633
557.5 0.0290705743 0.1011820213
558.125 0.0202461725 0.115952121
558.75 -0.01138766108 0.1139641964
559.375 0.02188427357 0.1059032057
560.0 0.02692255817 0.1077131508
560.625 0.03788767294 0.06570246856
561.25 0.03556384804 0.04675271085
561.875 0.03703529976 0.05277043991
562.5 0.04666508181 0.05817710793
563.125 0.04886542119 0.04278519344
563.75 0.0675284163 0.03058718269
564.375 0.1088773533 0.01990419435
565.0 0.1157495673 0.05104527118
565.625 0.1043033648 0.0212732502
566.25 0.09393457372 0.02701960311
566.875 0.09270857598 0.05130895684
567.5 0.05425169653 0.08855706476
568.125 0.03687727777 0.08839450793
568.75 0.04212795622 0.1057632131
569.375 0.0341602823 0.1013543902
570.0 0.03280283962 0.08362574262
570.625 0.03045049362 0.05980414576
571.25 0.04375507493 0.0657674326
571.875 0.02836185263 0.05212803187
572.5 0.02959387673 0.02926471802
573.125 0.03173065149 0.04704944864
573.75 0.08161802498 0.0528130926
574.375 0.08960068313 0.03466063145
575.0 0.07181456976 0.004192169324
575.625 0.06769556377 -0.002454533655
576.25 0.09256003558 0.02025408486
576.875 0.08688590454 0.02336024839
577.5 0.0868939948 0.007613936121
578.125 0.0975188925 -0.006376111241
578.75 0.1151353987 0.00599165452
579.375 0.09499912197 0.00650961793
580.0 0.09157616692 -0.01073893216
580.625 0.09230590407 -0.02726136554
581.25 0.07092535651 -0.02600614563
581.875 0.04323411546 0.001352988252
582.5 0.04556267986 0.01656718454
583.125 0.0742658419 0.03531845472
583.75 0.06868056868 0.03456149507
584.375 0.05614431253 0.03701910698
585.0 0.04379786202 0.04934651129
585.625 0.05454352152 0.06996225515
586.25 0.04946682976 0.05652419522
586.875 0.0506999665 0.04032411884
587.5 0.06295224478 0.04325603339
588.125 0.0837667301 0.03252087648
588.75 0.08447490661 0.01418099172
589.375 0.07552384797 -0.03072264224
590.0 0.05874477877 -0.05444269324
590.625 0.03919097679 -0.02649809174
591.25 0.03074524866 -0.0002039057629
591.875 0.04888961966 0.004094028037
592.5 0.07604207563 -0.01464371767
593.125 0.08356733582 -0.01260037505
593.75 0.07173544021 -0.002393386202
594.375 0.07584030844 0.01442036165
595.0 0.08007235556 0.03906599687
595.625 0.06378880587 0.05081427355
596.25 0.04115137153 0.05032040976
596.875 0.03067332896 0.05530268817
597.5 0.0209221151 0.0680115393
598.125 0.03212098644 0.06212224774
598.75 0.0489131255 0.04495211281
599.375 0.04911566915 0.02966413174
600.0 0.03273980664 0.01833700189
600.625 0.01410777034 0.00777592886
601.25 -0.001956421928 0.01275534923
601.875 -0.012521208 0.02903452796
602.5 -0.01767965198 0.03482095997
603.125 -0.01978555934 0.03792348649
603.75 -0.01374011602 0.0472521299
604.375 -0.008597208354 0.04931074523
605.0 -0.01101543672 0.03334207053
605.625 -0.02103505276 0.01857846709
606.25 -0.03847342948 0.02058806371
606.875 -0.044614121 0.03398928462
607.5 -0.02521307966 0.04472751642
608.125 -0.0007192417422 0.03839554062
608.75 0.002739312827 0.03007682602
609.375 0.001189702737 0.02681166923
610.0 0.005645675896 0.02110944977
610.625 0.01230420971 0.008649598909
611.25 0.01180520968 -0.004639751162
611.875 0.008623569716 -0.01465032835
612.5 0.001343520635 -0.02067017114
613.125 -0.009942254572 -0.01653883303
613.75 -0.01130032588 -0.003161738708
614.375 -0.0002777190131 0.004527881936
615.0 0.00971711334 -0.0008175036816
615.625 0.005759519893 -0.006241718143
616.25 0.0001678454146 0.002494134518
616.875 0.01043479937 0.01413296622
617.5 0.02539174006 0.01403890756
618.125 0.02832963974 0.01004599164
618.75 0.02803269993 0.01107968689
619.375 0.03773901235 0.01876438626
620.0 0.05435161343 0.01676777159
620.625 0.05640565198 -0.01060633249
621.25 0.04738563553 -0.02085666275
621.875 0.03237993058 -0.02637286137
622.5 -0.003670273802 -0.01842319056
623.125 -0.002095882549 0.007725570442
623.75 0.01344609366 0.02414598503
624.375 0.01911019287 0.03694360375
625.0 0.004756426775 0.04461802103
625.625 0.006984893023 0.05216841462
626.25 0.02826311052 0.06890679868
626.875 0.04320884 0.08072485193
627.5 0.0337557245 0.07451156623
628.125 0.02724402707 0.06704779976
628.75 0.02433316669 0.07665318507
629.375 0.01338317672 0.08555252013
630.0 0.009022487114 0.07044972326
630.625 0.004568450957 0.05750961107
631.25 -0.006917217423 0.0502402485
631.875 -0.02382087454 0.03742350104
632.5 -0.03201050111 0.02778223647
633.125 -0.04044684333 0.02613630563
633.75 -0.05175888421 0.03877387902
634.375 -0.05700352382 0.03215216261
635.0 -0.05895879886 0.04284093859
635.625 -0.05787187187 0.06610753622
636.25 -0.05936599009 0.0765762289
636.875 -0.05045608489 0.04982892731
637.5 -0.05556619142 0.04177076383
638.125 -0.08169834312 0.06153819566
638.75 -0.09144221417 0.05929010135
639.375 -0.07216372388 0.03354167475
640.0 -0.05920534908 0.006538564473
640.625 -0.06912066715 -0.02471964381
641.25 -0.05848614846 -0.05556710929
641.875 -0.04849837046 -0.04930700569
642.5 -0.04789648486 -0.05279140057
643.125 -0.04362076205 -0.07835238451
643.75 -0.01845855166 -0.09329892149
644.375 -0.03112131919 -0.08242335333
645.0 -0.0620980731 -0.07581447021
645.625 -0.05936044701 -0.08310555511
646.25 -0.04148454381 -0.06632705231
646.875 -0.02092097911 -0.06897466522
647.5 -0.03897327155 -0.07949494192
648.125 -0.02858311555 -0.08646440313
648.75 -0.006129972025 -0.06284763343
649.375 0.02387391787 -0.05604486983
650.0 0.05509986869 -0.06547789108
650.625 0.08172975703 -0.05051841074
651.25 0.08311665482 -0.03108038932
651.875 0.09861099759 -0.002741640759
652.5 0.1204456447 0.04621227094
653.125 0.1002403293 0.06896765071
653.75 0.09390638118 0.06457701179
654.375 0.08624776046 0.0725880227
655.0 0.04645819758 0.08928308914
655.625 0.01716413578 0.06334826993
656.25 0.02246617065 0.05738519711
656.875 0.0457682485 0.07137091681
657.5 0.01182092117 0.08757430318
658.125 -0.009531610301 0.07428476662
658.75 -0.003072580854 0.08553099809
659.375 0.04666611183 0.115713836
660.0 0.07102179575 0.1103961656
660.625 0.0891059926 0.07926480307
661.25 0.10815225 0.05256072837
661.875 0.1302606629 0.02941204538
662.5 0.1137852665 0.008981604778
663.125 0.1016372582 0.009192781017
663.75 0.08957522568 0.04922991628
664.375 0.01124790027 0.09312862226
665.0 -0.03116311695 0.06585218185
665.625 -0.05105642251 0.05167214421
666.25 -0.09206984653 0.04132978528
666.875 -0.1170803382 -0.02483797263
667.5 -0.1006189501 -0.0361252771
668.125 -0.1119254504 -0.02072847794
668.75 -0.1405665049 -0.00265084759
669.375 -0.1149031887 -0.02283343348
670.0 -0.08472292729 -0.02792964119
670.625 -0.0914256907 -0.02764506049
671.25 -0.1189868886 -0.01177820005
671.875 -0.09708217561 0.003976226644
672.5 -0.07928587707 0.02658130967
673.125 -0.08271944638 0.03353851532
673.75 -0.113637775 0.03352518782
674.375 -0.1135845882 0.02247524468
675.0 -0.1193073601 -0.008512828185
675.625 -0.1135719701 -0.06373469287
676.25 -0.07523316516 -0.09896124266
676.875 -0.07118563493 -0.09658357449
677.5 -0.08861965221 -0.09562871045
678.125 -0.06765286079 -0.1115653109
678.75 -0.02173781784 -0.06887178665
679.375 -0.002040318265 -0.05771040163
680.0 -0.004255318455 -0.07915737951
680.625 0.007496738939 -0.1192655518
681.25 0.001560368231 -0.09498070223
681.875 -0.02575882512 -0.09277969709
682.5 -0.0923442386 -0.09450389702
683.125 -0.1189350816 -0.114504797
683.75 -0.08037462837 -0.1141494287
684.375 -0.0176381728 -0.119793827
685.0 0.06638563551 -0.1228939315
685.625 0.1281251482 -0.05319440861
686.25 0.1234756633 -0.007923423996
686.875 0.09898164853 0.02356501249
687.5 0.0613825349 0.05804038173
688.125 0.02340128693 0.0683965938
688.75 0.01195929635 0.08533065805
689.375 0.004220663913 0.1200819763
690.0 -0.03290518925 0.1237780087
690.625 -0.01715743548 0.1114532888
691.25 0.03660906508 0.1253952794
691.875 0.1451187194 0.1080641976
692.5 0.1705352175 0.01995924818
693.125 0.06995791985 -0.09162269122
693.75 0.007552973276 -0.1020132889
694.375 0.01653822208 -0.1284353896
695.0 0.0993113053 -0.08647995565
695.625 0.09745563306 0.005175830134
696.25 0.0459246795 0.08169734536
696.875 -0.06136739953 0.09687779741
697.5 -0.1214126477 0.02524203837
698.125 -0.1296781471 -0.00857152707
698.75 -0.1365628826 -0.004002100108
699.375 -0.12184669 -0.01117890455
700.0 -0.1003487288 -0.01906759721
700.625 -0.09652019431 -0.05022561539
701.25 -0.09082052822 -0.08241277876
701.875 -0.05515840158 -0.05616908922
702.5 -0.05603522699 -0.03349772981
703.125 -0.1022203146 -0.005411870329
703.75 -0.1401468883 0.1034366136
704.375 -0.07669327367 0.1223913904
705.0 -0.03017236683 0.1105199914
705.625 -0.06350068298 0.1010881466
706.25 -0.1561243254 0.02798795465
706.875 -0.09036613658 -0.09769516574
707.5 -0.03827527911 -0.0940565948
708.125 0.006921905319 -0.08638124257
708.75 0.06958357966 -0.04943345507
709.375 0.08026607056 0.02443078897
710.0 0.05095623406 0.06298867888
710.625 0.0272121889 0.0724639496
711.25 -0.008201015306 0.07420940298
711.875 -0.01286459316 0.09001964933
712.5 0.02793072506 0.12492517
713.125 0.1246181104 0.08514486917
713.75 0.1204363212 -0.04794565034
714.375 0.04612458606 -0.112314765
715.0 0.002973513987 -0.1319151771
715.625 0.04277515293 -0.1139610759
716.25 0.05229807553 -0.0507088324
716.875 0.05708679913 -0.01309417607
717.5 0.06998526072 0.03832431047
718.125 0.04880305829 0.08643509508
718.75 0.01730062302 0.07619152841
719.375 -0.001409884319 0.06384221101
720.0 -0.04655967646 0.05676637416
720.625 -0.09454895629 -0.01573849525
721.25 -0.03786418121 -0.09793864154
721.875 0.03284105791 -0.09906996901
722.5 0.04588758811 -0.09157194105
723.125 0.003382703191 -0.08302003553
723.75 -0.02909720566 -0.05487768463
724.375 -0.0431956198 -0.0342467569
725.0 -0.0463308823 -0.006712251479
725.625 -0.03496533904 0.003469514033
726.25 -0.04305030849 -0.002821642407
726.875 -0.06124609965 -0.02713972833
727.5 -0.06118687368 -0.04851532409
728.125 -0.0459877748 -0.05063082411
728.75 -0.04114215392 -0.03714703674
729.375 -0.03637534834 -0.02807342022
730.0 -0.03246753698 -0.02967853701
730.625 -0.0265279206 -0.02548996235
731.25 -0.01230090342 -0.02352424011
731.875 0.003766770145 -0.01820148885
732.5 0.007130309391 -0.0007816103501
733.125 0.001202291847 0.01636153341
733.75 0.01068770118 0.02522766477
734.375 0.02336164496 0.01887117754
735.0 0.02409493548 -0.001051712495
735.625 0.01781569899 -0.008968466672
736.25 0.00851834785 -0.01949855234
736.875 -0.01338422155 -0.02379571075
737.5 -0.0357695602 -0.01222234998
738.125 -0.04913330122 0.00342430015
738.75 -0.0442481909 0.01814658666
739.375 -0.02451462305 0.02004947984
740.0 -0.01643863552 0.004315741294
740.625 -0.0300234052 0.003175486651
741.25 -0.03449728155 0.009931781091
741.875 -0.03254191608 -0.01013157344
742.5 0.001698335119 -0.03321382358
743.125 0.03381896393 -0.008086864105
743.75 0.03205565362 0.01186912491
744.375 0.0314319067 0.01332451207
745.0 0.02943316495 0.01980431332
745.625 0.02882974871 0.02988862349
746.25 0.05357136665 0.02921464059
746.875 0.07218970988 -0.01787398994
747.5 0.04776664495 -0.05479529784
748.125 0.01369274714 -0.05948840522
748.75 -0.01594064179 -0.05321568541
749.375 -0.05289952564 -0.03479638751
750.0 -0.06732345943 0.03505466289
