!Created with skrf (http://scikit-rf.org).
# GHz S RI R 50.0 
!freq ReS11 ImS11
500.0 -0.008754258224 0.02289036506
500.625 0.0247858883 0.01686118148
501.25 0.03567127016 -0.001424210248
501.875 0.02577334492 -0.0007115869767
502.5 0.01677101752 0.01908902858
503.125 0.02830837969 0.01193576244
503.75 0.03673605137 -0.009986282781
504.375 0.03265886863 -0.02193780573
505.0 0.02423762748 -0.03594396521
505.625 0.02353268927 -0.05994466156
506.25 0.002901096597 -0.07122032677
506.875 0.03044130106 -0.08479233906
507.5 0.003894914278 -0.07501992176
508.125 0.03855892953 -0.07937128682
508.75 -0.01059735666 -0.09021775307
509.375 -0.02782821936 -0.06781912807
510.0 -0.0005763566696 -0.06845358257
510.625 -0.0547349117 -0.03706508441
511.25 -0.06815389736 -0.02588698632
511.875 -0.06122567082 0.02374152076
512.5 -0.02221135509 0.04570303104
513.125 0.02976215391 0.05918073773
513.75 0.04288680064 0.05306086292
514.375 0.05087758433 0.03354538752
515.0 0.07614645911 0.01656968057
515.625 0.05823469006 0.09113081887
516.25 0.09594994201 0.05300309282
516.875 0.04840722699 0.1202452145
517.5 0.1378881662 0.05590026864
518.125 0.06292027525 0.2023306152
518.75 0.09617724713 0.01611189023
519.375 0.07925288734 0.02830467132
520.0 0.1084925166 -0.007264313757
520.625 0.1082560683 -0.01781699208
521.25 0.08857809307 -0.04848288717
521.875 0.07397669122 -0.009446506918
522.5 0.08329370526 -0.07146069172
523.125 0.1485525029 -0.1328730686
523.75 0.1154918198 -0.2334173834
524.375 0.1364742115 -0.2054215072
525.0 0.05174196897 -0.07622151203
525.625 0.03404834094 -0.04643474119
526.25 0.05117260361 -0.03353744656
526.875 0.04806216488 -0.04709304325
527.5 0.0329980946 -0.05091691193
528.125 0.0003517353295 -0.05149852832
528.75 -0.01354520937 -0.07130678894
529.375 -0.07830804985 -0.06990528081
530.0 -0.06936412908 -0.005075669285
530.625 -0.03639894917 0.01682169174
531.25 -0.08615599554 -0.01199463435
531.875 -0.1533468813 -0.005490782746
532.5 -0.1314429364 0.06048248886
533.125 -0.09320292429 0.06179546355
533.75 -0.07236931599 0.08198790312
534.375 -0.09023937064 0.07080832648
535.0 -0.0570163655 0.08931666001
535.625 -0.05987006311 0.05659213451
536.25 -0.01932160334 0.06659826726
536.875 -0.05657332904 0.04335388823
537.5 -0.07928470008 0.02136253033
538.125 -0.08013763339 0.05469992726
538.75 -0.0816151823 0.0918539521
539.375 -0.07334314199 0.05890633719
540.0 -0.06814367918 0.05073510155
540.625 -0.08604188266 0.05196222848
541.25 -0.1078084087 0.0444184901
541.875 -0.08606739282 0.0187923633
542.5 -0.07774169335 0.006721873003
543.125 -0.09633108656 0.05316077847
543.75 -0.05199146439 0.1245532517
544.375 -0.00714124505 0.1281188462
545.0 0.07248857525 0.06773135424
545.625 0.1075931175 0.03431371644
546.25 0.1044470512 0.002719824658
546.875 0.1100288025 -0.01046496978
547.5 0.1233999247 0.0007900538196
548.125 0.1453843666 0.02673915646
548.75 0.1098661518 0.0548920092
549.375 0.1227946448 0.06195497875
550.0 0.09745981171 0.10466597
550.625 0.06375868264 0.09479395822
551.25 0.01835171619 0.06700231521
551.875 0.01698674887 0.0470149499
552.5 0.01339493646 0.06189372223
553.125 -0.003777080397 0.0688906395
553.75 -0.01303188806 0.04768818778
554.375 -0.00415896136 0.06025332053
555.0 0.01214187086 0.08579256293
555.625 0.02168944751 0.09025898514
556.25 -0.001745321261 0.07913289267
556.875 -0.001275034974 0.08815643838
557.5 -0.008996315854 0.1078475443
558.125 -0.007807922149 0.1145458557
558.75 -0.03714577084 0.1030535009
559.375 -0.005992984118 0.1053665151
560.0 -0.006121423917 0.08755364145
560.625 0.01643684675 0.0584536527
561.25 0.007603845383 0.05114190975
561.875 0.001503393154 0.06344407303
562.5 0.009788217752 0.06895935407
563.125 0.03193726592 0.05868681335
563.75 0.06240074005 0.05623277625
564.375 0.09965129751 0.06395039035
565.0 0.09036866342 0.0735845254
565.625 0.09240625826 0.04324989288
566.25 0.08034767244 0.05158814116
566.875 0.0622242949 0.07793264979
567.5 0.02088420235 0.0892536912
568.125 0.01281210975 0.09374231478
568.75 0.007969152857 0.1079587836
569.375 0.005691937955 0.08792122974
570.0 0.004016722323 0.0725035137
570.625 0.005807412014 0.05760653207
571.25 0.004117243837 0.06790185396
571.875 0.002357069447 0.04116119302
572.5 0.008218695297 0.04116802328
573.125 0.01112915313 0.06925963618
573.75 0.05778674772 0.08747536454
574.375 0.06591731822 0.05234727822
575.0 0.06599457624 0.02570494212
575.625 0.06991836819 0.02962112088
576.25 0.07377793454 0.05886325358
576.875 0.07429321255 0.04394880318
577.5 0.08391395383 0.02715264702
578.125 0.09702426711 0.02315927336
578.75 0.09315634576 0.03981361994
579.375 0.08127156308 0.0234982141
580.0 0.0847885204 0.01038349445
580.625 0.08116042493 0.002157660981
581.25 0.0541173263 0.0002415037881
581.875 0.02919737398 0.02098413772
582.5 0.03831527494 0.03968649706
583.125 0.05084667616 0.06326053904
583.75 0.05064801321 0.04903736943
584.375 0.03788122221 0.05404780435
585.0 0.02373646455 0.0662526545
585.625 0.02233129196 0.08238126492
586.25 0.03256288007 0.06093948803
586.875 0.03555860946 0.05371944221
587.5 0.04162444492 0.06582110204
588.125 0.06273516153 0.05341664378
588.75 0.07353403385 0.02730575612
589.375 0.07475356905 -0.01141253166
590.0 0.06205185479 -0.02211333215
590.625 0.03254594814 -0.0003252035272
591.25 0.03140058409 0.01636124122
591.875 0.05497544034 0.02172616039
592.5 0.08271955475 0.01099507796
593.125 0.07954005828 0.01036233387
593.75 0.06994536587 0.01363414724
594.375 0.07256266885 0.03470480717
595.0 0.06298998693 0.0559748925
595.625 0.04519317031 0.05843624137
596.25 0.02385893484 0.05347719324
596.875 0.0105154093 0.05962709782
597.5 0.0002350941212 0.06314992258
598.125 0.01581383507 0.06126231215
598.75 0.03152256676 0.04762374868
599.375 0.03035445926 0.03162513572
600.0 0.01631801428 0.01481141382
600.625 0.0009848897635 0.006212996851
601.25 -0.01764879929 0.01299267254
601.875 -0.02968876229 0.02632577794
602.5 -0.02986556965 0.03090604513
603.125 -0.0302541266 0.03596114132
603.75 -0.02598649026 0.04546431614
604.375 -0.02080015502 0.04280420456
605.0 -0.01827661909 0.02553044634
605.625 -0.0276598328 0.01218607371
606.25 -0.04495970612 0.01257550531
606.875 -0.04846920797 0.02466372615
607.5 -0.02801069171 0.03697379573
608.125 -0.005122409195 0.03257107275
608.75 -0.001795213754 0.02432799443
609.375 -0.001064525247 0.02078454024
610.0 0.00519013654 0.0156646232
610.625 0.0121399546 0.00396976323
611.25 0.01248318751 -0.008369602945
611.875 0.01023727411 -0.01700531995
612.5 0.003260350456 -0.02178062459
613.125 -0.008517190571 -0.01651785526
613.75 -0.01012203018 -0.002143200226
614.375 0.0004064759804 0.006389644968
615.0 0.0100590611 0.001965002568
615.625 0.005306092813 -0.002636187487
616.25 -0.0002601186203 0.006810406377
616.875 0.009900827173 0.01960448827
617.5 0.02349534429 0.02049521067
618.125 0.02514708954 0.01622862701
618.75 0.02491205501 0.01772256393
619.375 0.03306077083 0.02675166319
620.0 0.0474090672 0.0248493089
620.625 0.0508246749 -0.002278163783
621.25 0.04089436035 -0.01259288257
621.875 0.02276899687 -0.01741054492
622.5 -0.008147197836 -0.006213515924
623.125 -0.004090115382 0.02061707872
623.75 0.009742420879 0.0387135286
624.375 0.007423688256 0.04909927694
625.0 -0.009018603189 0.04855781359
625.625 -0.005410620965 0.06006760097
626.25 0.01303418428 0.081622015
626.875 0.02245059495 0.08682111067
627.5 0.01787504594 0.07400276683
628.125 0.01099201852 0.0684949616
628.75 0.0007567997031 0.07714672301
629.375 -0.009268589747 0.07348597159
630.0 -0.0043915242 0.05896735838
630.625 -0.009601012079 0.04619925083
631.25 -0.02322266577 0.03162943103
631.875 -0.03389759732 0.01542814819
632.5 -0.04156474858 0.008625747763
633.125 -0.05352919246 0.007805842882
633.75 -0.06572551011 0.01271824859
634.375 -0.06451536953 0.01165968222
635.0 -0.07395321271 0.02395904992
635.625 -0.07758882622 0.04791327915
636.25 -0.07398456714 0.04732072705
636.875 -0.05752706002 0.03061224625
637.5 -0.07035966586 0.0237882497
638.125 -0.09890857107 0.03316808866
638.75 -0.09001167574 0.03025285399
639.375 -0.06746793053 0.01547505876
640.0 -0.05194832464 -0.01504742538
640.625 -0.04738836694 -0.05548864728
641.25 -0.03104284157 -0.06383664042
641.875 -0.03231381182 -0.05881195656
642.5 -0.02687484665 -0.06754074793
643.125 -0.004378547953 -0.08756677999
643.75 0.01115820049 -0.08548755822
644.375 -0.01075629215 -0.08491227301
645.0 -0.03327972334 -0.08963897462
645.625 -0.01856100455 -0.08220316348
646.25 -0.01284207949 -0.06637485689
646.875 0.00454405018 -0.06964985995
647.5 -0.004479326589 -0.09003051203
648.125 0.00561412255 -0.07511795107
648.75 0.0169890723 -0.05631045982
649.375 0.04853482822 -0.04460262375
650.0 0.08212702667 -0.04232393737
650.625 0.08793733536 -0.02144655306
651.25 0.08987448015 -0.009412585717
651.875 0.09918947971 0.02850406516
652.5 0.09212193183 0.07860500504
653.125 0.07492454605 0.07820811676
653.75 0.07161829197 0.07776828981
654.375 0.05079742105 0.08710606155
655.0 0.004378823837 0.07199170069
655.625 -0.005843390689 0.0523487088
656.25 -0.003707868868 0.06111198451
656.875 0.005581250275 0.08593842764
657.5 -0.02585326851 0.072045673
658.125 -0.03453112157 0.06863971128
658.75 -0.02922760834 0.0922286532
659.375 0.004715041547 0.1318623978
660.0 0.03766224293 0.1130674275
660.625 0.06640788343 0.0926425846
661.25 0.08814582439 0.07955614255
661.875 0.1028056837 0.06443199823
662.5 0.09379264193 0.02702028855
663.125 0.08449293614 0.0329008665
663.75 0.0575525319 0.07384392603
664.375 -0.02174221019 0.07442439514
665.0 -0.04488336593 0.04826605904
665.625 -0.06928724823 0.03063402874
666.25 -0.1063629957 -0.00209951199
666.875 -0.09400191392 -0.0546115063
667.5 -0.09020526546 -0.05564164852
668.125 -0.1081807998 -0.04801180486
668.75 -0.1236016737 -0.04808010045
669.375 -0.08865348634 -0.03956232245
670.0 -0.06769410093 -0.04464561495
670.625 -0.0793915215 -0.05458757376
671.25 -0.09463155707 -0.04933528273
671.875 -0.07998985222 -0.01851501002
672.5 -0.07938767113 -0.004326660212
673.125 -0.09479145814 0.003093656986
673.75 -0.1122196348 -0.00474584168
674.375 -0.1126364854 -0.004599372173
675.0 -0.1125950007 -0.04244770371
675.625 -0.08150685552 -0.08895412757
676.25 -0.04343797607 -0.09956298025
676.875 -0.04692985138 -0.1054053378
677.5 -0.05334583328 -0.1118493707
678.125 -0.01355948933 -0.09649681815
678.75 -0.001131391612 -0.05460778202
679.375 0.02102657022 -0.05390470355
680.0 0.03413891713 -0.08209666105
680.625 0.05901589446 -0.09345603476
681.25 0.02317053499 -0.08646860716
681.875 -0.00520672106 -0.1033467796
682.5 -0.06713138532 -0.1268745152
683.125 -0.0703926071 -0.1326540637
683.75 -0.04897265662 -0.1172723811
684.375 0.008828976282 -0.1159006604
685.0 0.09546960093 -0.09217900904
685.625 0.1166068425 -0.01758908262
686.25 0.106669206 0.02298759545
686.875 0.07069368633 0.04711314733
687.5 0.02261394697 0.0673570588
688.125 -0.003983952691 0.06811863185
688.75 -0.01889232924 0.09427879109
689.375 -0.04451810792 0.1196326101
690.0 -0.06172271305 0.09684819225
690.625 -0.03895350554 0.1043909735
691.25 0.007643527544 0.1365475498
691.875 0.1000258706 0.1504621974
692.5 0.1246650164 0.04349289128
693.125 0.07600442401 -0.0677434005
693.75 0.0386468756 -0.08777065722
694.375 0.06960759638 -0.1035954828
695.0 0.0998242824 -0.03616777328
695.625 0.08575540744 0.03154999362
696.25 0.01435208816 0.09683727045
696.875 -0.09393943451 0.06730366487
697.5 -0.1201672238 -0.01082656744
698.125 -0.1215136114 -0.04112807378
698.75 -0.1223959996 -0.04166337658
699.375 -0.09720130918 -0.03940343751
700.0 -0.08676101537 -0.04221093207
700.625 -0.07136714779 -0.07606801801
701.25 -0.03709594389 -0.09505605084
701.875 -0.02329660061 -0.0568836559
702.5 -0.04309447066 -0.05483283001
703.125 -0.1105419265 -0.04428112703
703.75 -0.1685380242 0.03817765543
704.375 -0.08547318184 0.0929092251
705.0 -0.05130749411 0.09630051793
705.625 -0.0938066278 0.07896963261
706.25 -0.1408780996 -0.03222008619
706.875 -0.05619433547 -0.09594311313
707.5 -0.01145172752 -0.08738402752
708.125 0.03602673004 -0.06665187676
708.75 0.07386314894 -0.007313908407
709.375 0.06203563429 0.04954677344
710.0 0.02397785864 0.07564302554
710.625 -0.005761463273 0.07609574852
711.25 -0.0343183708 0.06496670176
711.875 -0.04057226386 0.09058358601
712.5 -0.009569977086 0.134533568
713.125 0.08880566491 0.10699011
713.75 0.1123095805 -0.02236315348
714.375 0.06765186879 -0.09268070303
715.0 0.0467679561 -0.1136844518
715.625 0.06269081232 -0.06774237054
716.25 0.04978559154 -0.02502594743
716.875 0.05394430418 0.01138820365
717.5 0.04637019667 0.06973726208
718.125 0.006333384486 0.0902529331
718.75 -0.006858715851 0.07189903852
719.375 -0.02305707238 0.06083921003
720.0 -0.06863682499 0.03778428162
720.625 -0.08360149133 -0.04298109805
721.25 -0.0133908356 -0.09934879438
721.875 0.05104483269 -0.08345371486
722.5 0.05750163741 -0.06605989116
723.125 0.01817709508 -0.06344284731
723.75 -0.003028505291 -0.04979338727
724.375 -0.01961786278 -0.04570767475
725.0 -0.03321939711 -0.02473795748
725.625 -0.03274494342 -0.01184842791
726.25 -0.04495282898 -0.02010658208
726.875 -0.05354754045 -0.04635541116
727.5 -0.04428922638 -0.05789371018
728.125 -0.03136555789 -0.0531400341
728.75 -0.02586173822 -0.04198200581
729.375 -0.02040925507 -0.03518142247
730.0 -0.01943313076 -0.03385996474
730.625 -0.01689276013 -0.02632772937
731.25 -0.003668700936 -0.02069480016
731.875 0.007523934642 -0.009988409922
732.5 0.003841011672 0.006164845483
733.125 -0.004040793603 0.01996823117
733.75 0.00588847509 0.02820230519
734.375 0.01914432708 0.02131708695
735.0 0.02132670363 0.001688373386
735.625 0.01591752314 -0.007200794135
736.25 0.00651273943 -0.01858065131
736.875 -0.01596625828 -0.02402142458
737.5 -0.03844103323 -0.01396229651
738.125 -0.05040379393 -0.0005511303277
738.75 -0.04337252966 0.01293358898
739.375 -0.02227897232 0.0131009119
740.0 -0.01449766083 -0.004908748177
740.625 -0.02936134763 -0.00641745966
741.25 -0.0335259457 0.0007481814371
741.875 -0.02466707212 -0.01772006411
742.5 0.01324601365 -0.02617353994
743.125 0.03019162013 0.004946946319
743.75 0.02289558975 0.02112117626
744.375 0.02018753629 0.02536324758
745.0 0.01328479885 0.03382907006
745.625 0.01715157776 0.04577258052
746.25 0.0505846207 0.0463364032
746.875 0.07902500608 -0.000219597765
747.5 0.05742524929 -0.03876593117
748.125 0.024581748 -0.04928954609
748.75 0.001386602567 -0.05015886991
749.375 -0.03363754596 -0.04721510128
750.0 -0.06399742961 0.009745758228
