!Created with skrf (http://scikit-rf.org).
# GHz S RI R 50.0 
!freq ReS11 ImS11
500.0 -0.003600407416 0.01876120057
500.625 0.02431120883 0.01245824643
501.25 0.02875164659 -0.01105643269
501.875 0.02368062935 -0.01509813713
502.5 0.01472627116 0.009275987667
503.125 0.02136633675 0.004431995044
503.75 0.02581790573 -0.01829425055
504.375 0.02244028615 -0.0295667247
505.0 0.01380166331 -0.03615893385
505.625 0.007758990817 -0.05677492653
506.25 -0.01584992946 -0.07121510002
506.875 0.01060707349 -0.09403377111
507.5 -0.01380058562 -0.07419622929
508.125 0.007638323691 -0.08666310144
508.75 -0.04442081728 -0.09385989442
509.375 -0.04852249292 -0.06587521614
510.0 -0.02295626683 -0.06230399685
510.625 -0.05820112948 -0.01403589655
511.25 -0.08211912803 -0.007558451405
511.875 -0.05938131537 0.03676183398
512.5 -0.01069687972 0.05406789582
513.125 0.05147528967 0.05236252937
513.75 0.06998001668 0.04813854998
514.375 0.0660940919 0.01928167958
515.0 0.07488381785 -0.01068337784
515.625 0.09408394239 0.05962239136
516.25 0.1120565024 0.02783762434
516.875 0.06934707719 0.10548009
517.5 0.1425314572 0.01811113579
518.125 0.1273314798 0.2064654643
518.75 0.1109860959 -0.00267486958
519.375 0.08394416219 0.007843826656
520.0 0.1000757964 -0.04527169108
520.625 0.1205191083 -0.05010064564
521.25 0.08250085149 -0.066476363
521.875 0.06969211259 -0.02756783328
522.5 0.06063208044 -0.09538731217
523.125 0.15078043 -0.1818785598
523.75 0.09303928106 -0.2597443805
524.375 0.09094477726 -0.2564969088
525.0 0.04312910027 -0.113386362
525.625 0.03936547004 -0.07219251566
526.25 0.04818179403 -0.05110207546
526.875 0.03136020965 -0.06930319365
527.5 0.01881548123 -0.08138178042
528.125 -0.01546507562 -0.06158420249
528.75 -0.03651446251 -0.06867761136
529.375 -0.11514239 -0.04448431441
530.0 -0.09831418462 0.01805992475
530.625 -0.03574813911 0.04092319186
531.25 -0.06720210124 0.0317115742
531.875 -0.1431209265 0.07107222032
532.5 -0.1328698473 0.1021673933
533.125 -0.07932842174 0.0857439617
533.75 -0.03875052372 0.09854579079
534.375 -0.06093033487 0.1206125816
535.0 -0.0515193121 0.1141435458
535.625 -0.04829175475 0.07365608439
536.25 0.009522708563 0.08106062945
536.875 -0.03201417996 0.08776745266
537.5 -0.08226371239 0.04557294121
538.125 -0.06186503544 0.0686470378
538.75 -0.04821969813 0.1254307928
539.375 -0.07280276595 0.1001815252
540.0 -0.06184212934 0.0786328326
540.625 -0.06023564945 0.07817924674
541.25 -0.08513967876 0.09584468461
541.875 -0.09064815164 0.05603281494
542.5 -0.07084736805 0.02431234575
543.125 -0.06905160877 0.07162675517
543.75 -0.01798050804 0.1458958796
544.375 0.01463579003 0.1422527134
545.0 0.0891099981 0.05638023801
545.625 0.1192308862 -0.006393488012
546.25 0.1302534669 -0.03207107402
546.875 0.112999006 -0.03350687157
547.5 0.1225690757 -0.03350244597
548.125 0.1574071489 -0.02701224184
548.75 0.1550204586 0.03929018598
549.375 0.1376819362 0.04416457735
550.0 0.1306520677 0.08075158147
550.625 0.1167672363 0.1029166163
551.25 0.0367051786 0.09649783414
551.875 0.03556171243 0.05097261812
552.5 0.04981286567 0.05380647053
553.125 0.05107698285 0.08076764492
553.75 0.009077858452 0.06128447267
554.375 0.01760275005 0.05262654943
555.0 0.04667283968 0.06947134817
555.625 0.06391611932 0.0866066562
556.25 0.02360390676 0.08420462002
556.875 0.02438462236 0.07623273975
557.5 0.03328124004 0.1062268068
558.125 0.01835747425 0.1274375858
558.75 -0.01598983076 0.1150227418
559.375 0.02111783777 0.1092272355
560.0 0.02697742674 0.1153313064
560.625 0.03041970564 0.07430715369
561.25 0.03121172213 0.04856638637
561.875 0.03834792325 0.05859399878
562.5 0.05186739168 0.06564875109
563.125 0.0506375638 0.05423903125
563.75 0.06894806694 0.03456648066
564.375 0.1166137133 0.0210238275
565.0 0.1236164582 0.0583995025
565.625 0.107721038 0.02974138621
566.25 0.09582626651 0.02973271914
566.875 0.09961949413 0.05639158709
567.5 0.05349606594 0.1007683681
568.125 0.03326296936 0.09278111861
568.75 0.04181269117 0.110668502
569.375 0.03280249007 0.1107670934
570.0 0.02321416754 0.08938726324
570.625 0.02630460917 0.0620637436
571.25 0.04454282403 0.07198660816
571.875 0.02849653305 0.06309471544
572.5 0.02411918051 0.03804403413
573.125 0.03320697085 0.05042295384
573.75 0.08794080326 0.05453280386
574.375 0.1005945725 0.04187027802
575.0 0.07378230172 0.01290027729
575.625 0.07171517415 -0.002152230121
576.25 0.1012987207 0.0217991026
576.875 0.09743826795 0.02847300429
577.5 0.08953490766 0.01279244441
578.125 0.1017838313 -0.006953587825
578.75 0.1247617616 0.008098242435
579.375 0.1007505174 0.0126272938
580.0 0.09354349284 -0.007894777488
580.625 0.09751784637 -0.02726783261
581.25 0.08076873735 -0.02182548113
581.875 0.04579585309 0.007939050562
582.5 0.04869265364 0.01776718364
583.125 0.08189082588 0.03631490396
583.75 0.07687281454 0.04321918769
584.375 0.05576836799 0.04186685464
585.0 0.04757546056 0.05098376494
585.625 0.06259131479 0.07372210746
586.25 0.05242621478 0.06687626933
586.875 0.04974384729 0.04332977929
587.5 0.06774162513 0.0445796143
588.125 0.09239195955 0.03332448018
588.75 0.09119726812 0.0210467406
589.375 0.0769915112 -0.02934231886
590.0 0.06336594005 -0.057859169
590.625 0.04798540574 -0.02952573218
591.25 0.03803627222 0.0009521841525
591.875 0.05126607766 0.002926901329
592.5 0.08071410372 -0.01998555655
593.125 0.09204477131 -0.01492255996
593.75 0.07630179187 -0.00131842513
594.375 0.07935925946 0.01351654383
595.0 0.08741041847 0.0401404407
595.625 0.06684480534 0.05786955328
596.25 0.04143549568 0.05378102587
596.875 0.03288246253 0.0586052448
597.5 0.02384030942 0.07447740031
598.125 0.03100904002 0.0684054173
598.75 0.0495078905 0.047666719
599.375 0.05118670935 0.03317753827
600.0 0.03402079004 0.02376965741
600.625 0.01227506744 0.01220192912
601.25 -0.001709624688 0.01615824196
601.875 -0.01131896641 0.03399854033
602.5 -0.01766830519 0.04014355449
603.125 -0.02071689755 0.04145472877
603.75 -0.01293445846 0.05054319865
604.375 -0.008619297097 0.05392895608
605.0 -0.01334210629 0.03694618623
605.625 -0.0229353847 0.02070431388
606.25 -0.04009019304 0.02338172214
606.875 -0.04734187223 0.0368388287
607.5 -0.02778682456 0.04638817229
608.125 -0.00216216114 0.03986870944
608.75 0.001568762083 0.03196593212
609.375 -0.0007282991941 0.02837553781
610.0 0.003560674228 0.02161679809
610.625 0.01049656841 0.009096801902
611.25 0.00979504486 -0.004227049245
611.875 0.006600083313 -0.01479778375
612.5 -0.0004502405849 -0.02099550385
613.125 -0.01146075705 -0.0166201353
613.75 -0.01252392985 -0.003154707269
614.375 -0.001236883298 0.004489626997
615.0 0.008890682236 -0.0007828119945
615.625 0.005112760078 -0.006028932891
616.25 -0.0002366046744 0.002962584616
616.875 0.01031172725 0.01463705861
617.5 0.02546774636 0.01447922723
618.125 0.02843420467 0.01070639311
618.75 0.02806244648 0.01171645956
619.375 0.03796199235 0.01936755881
620.0 0.05492272027 0.01777230196
620.625 0.05643896114 -0.009050529994
621.25 0.04681557072 -0.01975796645
621.875 0.03235223418 -0.0249368668
622.5 -0.001658398152 -0.01627438535
623.125 -0.0002908254904 0.01077386799
623.75 0.01481900528 0.02619641822
624.375 0.02088022308 0.03921760753
625.0 0.00537822363 0.04888389116
625.625 0.006290140355 0.05579293754
626.25 0.02932651299 0.07183706993
626.875 0.04440612349 0.0846140151
627.5 0.03272942735 0.07912627766
628.125 0.02521191725 0.06927724902
628.75 0.02376700516 0.07996403065
629.375 0.01082704578 0.09050735291
630.0 0.004200330366 0.07223623403
630.625 0.001692038137 0.05750915691
631.25 -0.01001811068 0.05231185405
631.875 -0.03130520442 0.03974634876
632.5 -0.03837231235 0.02574149496
633.125 -0.04425197756 0.02607307054
633.75 -0.05658640044 0.04151920728
634.375 -0.06620780424 0.03378002117
635.0 -0.06529502398 0.04109415536
635.625 -0.0615519002 0.06848664311
636.25 -0.06496300152 0.08098444878
636.875 -0.0601832259 0.0498204602
637.5 -0.05992821449 0.04057741563
638.125 -0.08655852208 0.06431995423
638.75 -0.09881704925 0.06093867495
639.375 -0.0779397739 0.02619840693
640.0 -0.06005857203 0.003643428889
640.625 -0.07460563577 -0.0292631522
641.25 -0.06243034555 -0.06557186628
641.875 -0.04598851852 -0.05803949835
642.5 -0.04784878189 -0.0556098244
643.125 -0.0468777161 -0.08604877768
643.75 -0.01473973078 -0.107596805
644.375 -0.02510163703 -0.08772847554
645.0 -0.06246864035 -0.07949759079
645.625 -0.06250214564 -0.09128090641
646.25 -0.0364521571 -0.08110339719
646.875 -0.0146188361 -0.0737035279
647.5 -0.0387958466 -0.08443623257
648.125 -0.02882786999 -0.09564866935
648.75 0.003762339594 -0.07086513211
649.375 0.02869309673 -0.05872216803
650.0 0.06119309914 -0.07002144353
650.625 0.09127931053 -0.05495365523
651.25 0.09126862108 -0.02605923451
651.875 0.1033286623 -0.001801862854
652.5 0.1295068238 0.05312175108
653.125 0.1031907004 0.08023304631
653.75 0.08915410956 0.0706812929
654.375 0.08778698446 0.07730630307
655.0 0.04662514823 0.1026331019
655.625 0.004736399508 0.07230369263
656.25 0.01704702512 0.05993626875
656.875 0.04782230091 0.07778515465
657.5 0.01419475646 0.1019532387
658.125 -0.02257665792 0.08529161133
658.75 -0.006746688665 0.08807977132
659.375 0.04973478877 0.12292232
660.0 0.07810295585 0.1235336168
660.625 0.08705620229 0.09192372874
661.25 0.1092131617 0.05787272239
661.875 0.1375165374 0.03348803515
662.5 0.1254070454 0.01979557031
663.125 0.1020451424 0.01705594289
663.75 0.09266500305 0.05704680386
664.375 0.007127063942 0.1032219476
665.0 -0.044276002 0.07159127271
665.625 -0.05540576651 0.05014323766
666.25 -0.1005830973 0.04670860089
666.875 -0.1341323651 -0.02968135113
667.5 -0.1062358236 -0.04599647062
668.125 -0.1143131979 -0.02215779309
668.75 -0.1498913132 -0.0006091361948
669.375 -0.1317411209 -0.03453030613
670.0 -0.0828776869 -0.03802029302
670.625 -0.09455920191 -0.03011952488
671.25 -0.127937749 -0.01273366308
671.875 -0.113749081 -0.004704526229
672.5 -0.08498420765 0.01913881997
673.125 -0.08862881536 0.03625892051
673.75 -0.1229147879 0.03997129623
674.375 -0.1264067681 0.01909299862
675.0 -0.1239920386 -0.01159704404
675.625 -0.1229387498 -0.06795267258
676.25 -0.081569586 -0.1101326091
676.875 -0.0650560558 -0.105662214
677.5 -0.09127641527 -0.09924403646
678.125 -0.0733318751 -0.123804124
678.75 -0.01365451828 -0.08276749477
679.375 0.007173064549 -0.06011243409
680.0 -0.006307308722 -0.08350001488
680.625 0.0001609250549 -0.1327581872
681.25 0.008477134198 -0.1143645989
681.875 -0.022311465 -0.09795619666
682.5 -0.09764517633 -0.09565494094
683.125 -0.1350207346 -0.1179442027
683.75 -0.08084358408 -0.1331537732
684.375 -0.01436146995 -0.1233652131
685.0 0.06831335388 -0.1297960449
685.625 0.1396112011 -0.05950636879
686.25 0.1303148564 -0.0001776883835
686.875 0.1054187736 0.0268493387
687.5 0.06762493232 0.0654044022
688.125 0.02479316104 0.08167790099
688.75 0.00967405903 0.09069463277
689.375 0.01027496759 0.1282574996
690.0 -0.03412788152 0.1403796645
690.625 -0.02678669661 0.1231914125
691.25 0.0355658621 0.1275682666
691.875 0.1553474093 0.1088354878
692.5 0.1952922018 0.0227883617
693.125 0.08476380357 -0.08646361225
693.75 0.008334916476 -0.1033307667
694.375 0.01316608986 -0.138262325
695.0 0.1141284786 -0.1071097252
695.625 0.1067409834 0.01595028334
696.25 0.0493846748 0.08520936075
696.875 -0.0621411121 0.1076358088
697.5 -0.1367255013 0.03086805828
698.125 -0.1378462144 -0.01224927277
698.75 -0.1439042534 -0.001836112157
699.375 -0.1337708014 -0.01036670745
700.0 -0.1079311244 -0.02675897861
700.625 -0.1016447636 -0.05102848374
701.25 -0.1019141371 -0.08690036193
701.875 -0.06464773039 -0.06805252024
702.5 -0.05976313373 -0.04346256029
703.125 -0.1055936687 -0.0006324555695
703.75 -0.1418151679 0.119147695
704.375 -0.08849143973 0.1397294809
705.0 -0.03648739497 0.1134964392
705.625 -0.06151474112 0.1081222443
706.25 -0.165866168 0.04160488137
706.875 -0.1017709249 -0.1155793381
707.5 -0.03610010902 -0.09670241193
708.125 0.004713742769 -0.09377826753
708.75 0.07613165868 -0.06126951658
709.375 0.09377149662 0.03060756286
710.0 0.05288487935 0.06601648242
710.625 0.03456042859 0.07711442148
711.25 -0.002959034073 0.08607498664
711.875 -0.01314127015 0.09960102731
712.5 0.03385528139 0.1282512173
713.125 0.1377157264 0.08367254484
713.75 0.1336051507 -0.05494977253
714.375 0.05065962216 -0.1166569989
715.0 -0.001795185249 -0.1393623732
715.625 0.04317737278 -0.1300962637
716.25 0.06434347521 -0.05588979988
716.875 0.06206077665 -0.01256485695
717.5 0.07849901513 0.03721894105
718.125 0.06234982797 0.09342054223
718.75 0.01940872955 0.08698825035
719.375 0.0006098137321 0.06821352646
720.0 -0.04500131518 0.0655946798
720.625 -0.1059239692 -0.009430935205
721.25 -0.04182430928 -0.1059183695
721.875 0.03145166699 -0.1046982179
722.5 0.04776166695 -0.1007251119
723.125 0.007445678624 -0.09446067675
723.75 -0.02861441366 -0.06276843929
724.375 -0.04941695959 -0.03688848203
725.0 -0.05451429389 -0.00459060223
725.625 -0.04260827722 0.006352181761
726.25 -0.04799818518 -0.0003559470795
726.875 -0.06768168866 -0.02412515111
727.5 -0.06982567641 -0.04937829829
728.125 -0.05141337396 -0.05540538938
728.75 -0.0459882052 -0.04028211025
729.375 -0.04331015884 -0.02969966907
730.0 -0.03907163512 -0.03230161048
730.625 -0.0300225068 -0.02876261242
731.25 -0.01417037462 -0.02705602798
731.875 0.004879550069 -0.02271325135
732.5 0.01178595019 -0.002413399887
733.125 0.005434450744 0.01743336667
733.75 0.01497735562 0.02574012403
734.375 0.02784740437 0.01871629238
735.0 0.02782669329 -0.002682245127
735.625 0.02046877791 -0.01117153233
736.25 0.01012396671 -0.02170426277
736.875 -0.0120378649 -0.02527204432
737.5 -0.03407091223 -0.01281534001
738.125 -0.04723634831 0.004037036047
738.75 -0.04272191268 0.01924194254
739.375 -0.02308930106 0.02103988046
740.0 -0.0152365691 0.005319041057
740.625 -0.02932969368 0.004330700317
741.25 -0.03417492391 0.01084273776
741.875 -0.03276230437 -0.008787751109
742.5 6.237912771e-05 -0.03382299522
743.125 0.03508798677 -0.009198475722
743.75 0.03257631469 0.01237741586
744.375 0.032282819 0.01272622461
745.0 0.03243548794 0.01925019593
745.625 0.03308247574 0.03101874279
746.25 0.05534336726 0.0298486083
746.875 0.07258534708 -0.01982433171
747.5 0.04766297026 -0.0582979204
748.125 0.01591010375 -0.06299576022
748.75 -0.01489642854 -0.05473850168
749.375 -0.05483418339 -0.03534499491
750.0 -0.07026237617 0.03799722431
