!Created with skrf (http://scikit-rf.org).
# GHz S RI R 50.0 
!freq ReS11 ImS11
500.0 -0.01447368101 0.02782871973
500.625 0.02718750816 0.03283998782
501.25 0.04147968919 0.02293004532
501.875 0.0381506602 0.02887849343
502.5 0.0204964209 0.04638448047
503.125 0.04328430281 0.02945294143
503.75 0.05731863811 0.005211691814
504.375 0.05527225289 -0.01224117439
505.0 0.045030598 -0.03859770747
505.625 0.05275328815 -0.0680093196
506.25 0.03778884205 -0.07801716149
506.875 0.07225815855 -0.06748053473
507.5 0.04076413526 -0.07589742155
508.125 0.08650200632 -0.06673810615
508.75 0.04121802503 -0.09771275575
509.375 0.01647403885 -0.07918835803
510.0 0.04405181607 -0.07870790873
510.625 -0.04713824203 -0.07530473648
511.25 -0.06069821795 -0.05960912069
511.875 -0.06899522903 -0.001189118682
512.5 -0.04618981133 0.03161990723
513.125 -0.01052460013 0.0698072399
513.75 4.680990507e-05 0.07266285767
514.375 0.02957421114 0.06940939952
515.0 0.07693989295 0.07033026228
515.625 0.01560992489 0.1426048915
516.25 0.08128782954 0.1019645084
516.875 0.01086457455 0.1530745704
517.5 0.1204641447 0.1145200179
518.125 -0.03405773782 0.2175014295
518.75 0.07032940776 0.05867652505
519.375 0.07030656537 0.06874657665
520.0 0.1213691715 0.04629009503
520.625 0.1121075769 0.03302628051
521.25 0.09776473741 -0.004147515633
521.875 0.08186483117 0.02061630283
522.5 0.114876881 -0.03195356573
523.125 0.1789848148 -0.06137164995
523.75 0.1597334702 -0.1517222003
524.375 0.1804615786 -0.1144815079
525.0 0.06950670839 -0.02199263779
525.625 0.04524614327 0.0003341345862
526.25 0.05740694342 0.01057659311
526.875 0.07209301582 -0.004394957086
527.5 0.05941654035 -0.01420799015
528.125 0.03950166331 -0.04008929035
528.75 0.03463577657 -0.07397062228
529.375 -0.01838788974 -0.1099560453
530.0 -0.03019342037 -0.05394843897
530.625 -0.04552847503 -0.03236023649
531.25 -0.1147733129 -0.09733722881
531.875 -0.1758397343 -0.1095137425
532.5 -0.160506107 -0.02876240344
533.125 -0.1146754608 0.01344563068
533.75 -0.1328983169 0.0439664847
534.375 -0.1340276365 0.0117898527
535.0 -0.09797060912 0.03706209855
535.625 -0.07506919019 0.01460803867
536.25 -0.06490183799 0.04009584112
536.875 -0.09785102235 -0.008936576678
537.5 -0.09870695435 -0.04134525115
538.125 -0.1110868385 0.01343016523
538.75 -0.1230869309 0.03098415049
539.375 -0.1000347938 -0.001733676093
540.0 -0.09934965597 -0.01302995768
540.625 -0.132535912 -0.007414591297
541.25 -0.1400312738 -0.04134841272
541.875 -0.09996385684 -0.03890640586
542.5 -0.09830735846 -0.03728804655
543.125 -0.1426833821 0.01302232677
543.75 -0.1209779004 0.09714040308
544.375 -0.06314710476 0.1010899926
545.0 0.03886814515 0.09343813425
545.625 0.07666655724 0.09817621026
546.25 0.09134887108 0.07205501995
546.875 0.09307928776 0.05025868936
547.5 0.1125292446 0.0570916596
548.125 0.1162849847 0.1065275778
548.75 0.0622044484 0.1064046542
549.375 0.07074038977 0.1004513043
550.0 0.02811444439 0.1318059278
550.625 -0.003803857681 0.09642002174
551.25 -0.03274494963 0.03474530463
551.875 -0.02939781296 0.03282088596
552.5 -0.05457383877 0.06672952408
553.125 -0.06896788031 0.05575362144
553.75 -0.06260803507 0.04017127121
554.375 -0.04856283134 0.07017802339
555.0 -0.04482864786 0.1089982409
555.625 -0.04505239103 0.1032721904
556.25 -0.04803005468 0.07749241197
556.875 -0.05313283832 0.09931803459
557.5 -0.06641238811 0.1121584622
558.125 -0.07014496183 0.1043253919
558.75 -0.07152128613 0.07371188203
559.375 -0.05662402562 0.09056413704
560.0 -0.05128500254 0.05904007156
560.625 -0.03306694328 0.03836883139
561.25 -0.03966507835 0.0415230502
561.875 -0.05212331292 0.06703255254
562.5 -0.04338021899 0.08256179246
563.125 -0.008513827274 0.08767665685
563.75 0.04038107386 0.1011418524
564.375 0.06135850336 0.1233022698
565.0 0.0477496788 0.1147147196
565.625 0.05945733803 0.08252506672
566.25 0.04668438941 0.0925222979
566.875 -0.003896663407 0.1139157068
567.5 -0.03596555081 0.08329110211
568.125 -0.03735660847 0.09079641968
568.75 -0.04931081086 0.09650518903
569.375 -0.04896517693 0.06633367783
570.0 -0.0396410467 0.03415563484
570.625 -0.03828787237 0.04465258033
571.25 -0.05655817434 0.05261676478
571.875 -0.04617996197 0.03445073311
572.5 -0.04305315205 0.04714702592
573.125 -0.03464349479 0.09548161408
573.75 0.009114904381 0.1335584352
574.375 0.03108155287 0.09246139651
575.0 0.04076498925 0.06690440023
575.625 0.05387269677 0.08829224962
576.25 0.04289460023 0.1062709302
576.875 0.05095226617 0.08593839786
577.5 0.06949665507 0.06343826178
578.125 0.08159693693 0.07699039044
578.75 0.05065255105 0.08080539658
579.375 0.05241021834 0.05843662965
580.0 0.06349564438 0.04709771535
580.625 0.05549607589 0.04902029188
581.25 0.01628758862 0.04723962531
581.875 -0.0004751724235 0.04981745478
582.5 0.01460937003 0.08063956068
583.125 0.0106777022 0.1025301145
583.75 0.005646837604 0.0854639419
584.375 -0.002935887487 0.07332896212
585.0 -0.01691110366 0.09160535352
585.625 -0.02909590817 0.09803778097
586.25 -0.01250147192 0.07633226131
586.875 -0.00219213144 0.07115213833
587.5 -0.002127806345 0.09028812249
588.125 0.02963109981 0.08710268334
588.75 0.04576239107 0.06082645349
589.375 0.06439398145 0.02980215792
590.0 0.04994841662 0.03564752283
590.625 0.02549035866 0.04371712897
591.25 0.02941146819 0.05521869059
591.875 0.06174298151 0.06071012217
592.5 0.0867611444 0.06295992401
593.125 0.0697620164 0.05313353518
593.75 0.06352386415 0.04762426068
594.375 0.05876892209 0.07275818212
595.0 0.02919448624 0.086723088
595.625 0.003095765735 0.06730824601
596.25 -0.007733707911 0.05476186876
596.875 -0.02749389961 0.06002826463
597.5 -0.03713147868 0.05499155539
598.125 -0.02036378529 0.0528353631
598.75 -0.0003892147421 0.04589237722
599.375 -0.002485142252 0.03147653085
600.0 -0.01447111261 0.01026360986
600.625 -0.02811776621 -0.0002694995937
601.25 -0.04863053419 0.008156020171
601.875 -0.05895981617 0.01899053099
602.5 -0.05421045362 0.02493554903
603.125 -0.05246901881 0.03019309041
603.75 -0.05067949408 0.03893530675
604.375 -0.04221465487 0.02906984907
605.0 -0.0327108446 0.01116733338
605.625 -0.03978446646 -0.0008379566355
606.25 -0.05623754411 -0.003175766934
606.875 -0.05567955614 0.006909237914
607.5 -0.03371965411 0.02245921053
608.125 -0.01340199811 0.02218077474
608.75 -0.0103465407 0.01449650212
609.375 -0.006604205766 0.01015440813
610.0 0.002877231881 0.005835961794
610.625 0.01021517787 -0.004159434834
611.25 0.01122463 -0.01548033025
611.875 0.01058367892 -0.02235461035
612.5 0.003432732473 -0.02530352677
613.125 -0.008192571522 -0.01854589918
613.75 -0.01077487349 -0.00277566307
614.375 -0.001225223698 0.00714904637
615.0 0.00741477282 0.0041976407
615.625 0.001858308074 0.0008039511458
616.25 -0.004568851565 0.01175164392
616.875 0.004294072326 0.02656468079
617.5 0.01589370297 0.0282420719
618.125 0.01624513351 0.02340609756
618.75 0.01546970837 0.02606990622
619.375 0.02021195106 0.03616814768
620.0 0.03083555007 0.03406613403
620.625 0.03576916676 0.008388188146
621.25 0.02493041166 -0.002546579742
621.875 0.002940927871 -0.007617389597
622.5 -0.0212254214 0.01442955407
623.125 -0.01691990215 0.04274252797
623.75 -0.006113218143 0.06042604399
624.375 -0.01698410254 0.06411798286
625.0 -0.0370630502 0.05309708051
625.625 -0.03533624669 0.06682415593
626.25 -0.02221296638 0.0922623013
626.875 -0.01293436633 0.08933720434
627.5 -0.01389119134 0.06980737241
628.125 -0.02088487089 0.06239325729
628.75 -0.04084115186 0.06327729852
629.375 -0.04074819371 0.04563774278
630.0 -0.02713831117 0.03268880935
630.625 -0.03052868068 0.01802360958
631.25 -0.04392783999 -0.007391763069
631.875 -0.04606000009 -0.02991665266
632.5 -0.05011161105 -0.02820855039
633.125 -0.06811140573 -0.03171815142
633.75 -0.08113228491 -0.0312412713
634.375 -0.07725585951 -0.03640088511
635.0 -0.08719608576 -0.01974166028
635.625 -0.1039631152 0.005393632102
636.25 -0.09012939835 -0.002089404787
636.875 -0.06899107255 -0.01703890725
637.5 -0.08607966787 -0.02178765823
638.125 -0.1102866409 -0.02229787302
638.75 -0.08591861164 -0.01830810075
639.375 -0.04864837356 -0.02463518084
640.0 -0.02625018518 -0.05367705911
640.625 0.005843261643 -0.09256057667
641.25 0.01598637227 -0.07984348322
641.875 0.009361699282 -0.07093922518
642.5 0.01933182635 -0.08451023083
643.125 0.06462217872 -0.08685233068
643.75 0.06931739775 -0.06438130529
644.375 0.03490105605 -0.08048431519
645.0 0.02470829169 -0.09730502237
645.625 0.04573442163 -0.07658709671
646.25 0.05329127422 -0.05292627357
646.875 0.05256144982 -0.0603565956
647.5 0.05926445054 -0.08699399722
648.125 0.06030185455 -0.06104060885
648.75 0.06833605675 -0.02643136112
649.375 0.09064528476 -0.01119914733
650.0 0.1173624438 0.007676459705
650.625 0.1037274256 0.03035226382
651.25 0.09203547763 0.04273935385
651.875 0.08544692288 0.08816593478
652.5 0.03687626082 0.1184958259
653.125 0.02204508629 0.100362444
653.75 0.02074338421 0.09053949053
654.375 -0.01868954782 0.0938851967
655.0 -0.06260638598 0.04151214793
655.625 -0.05530421642 0.02419983443
656.25 -0.05673425651 0.0541118933
656.875 -0.06958327517 0.0920554796
657.5 -0.09717672251 0.055867277
658.125 -0.09192398601 0.03993918108
658.75 -0.08735136224 0.091977506
659.375 -0.0723201101 0.1377489536
660.0 -0.03098383119 0.1306936151
660.625 0.003759022778 0.1122808311
661.25 0.03183731159 0.1191568185
661.875 0.04240553631 0.1142822209
662.5 0.04743387575 0.08046631635
663.125 0.03812948707 0.07631870663
663.75 -0.02261828895 0.09908163647
664.375 -0.08428909648 0.04361189775
665.0 -0.08455391092 -0.003363333656
665.625 -0.0978192004 -0.02379816216
666.25 -0.109293329 -0.09382446128
666.875 -0.05504028956 -0.117993908
667.5 -0.05295791524 -0.1069961415
668.125 -0.08339382056 -0.1095462155
668.75 -0.07462352506 -0.1239629103
669.375 -0.02951306192 -0.09276701013
670.0 -0.02240313113 -0.07630390234
670.625 -0.0352751157 -0.1066984625
671.25 -0.04450624838 -0.1113761938
671.875 -0.03882883919 -0.08661506666
672.5 -0.06311664865 -0.06583366544
673.125 -0.1080503421 -0.06884113334
673.75 -0.1162583955 -0.07658969278
674.375 -0.101306238 -0.07803114499
675.0 -0.07559758371 -0.1092224565
675.625 -0.02058131089 -0.1302300439
676.25 0.02300516802 -0.1142851298
676.875 0.01963996697 -0.1077520581
677.5 0.03188190375 -0.121975372
678.125 0.06300298766 -0.06664005919
678.75 0.0606327106 -0.02858946688
679.375 0.07204362054 -0.02700659732
680.0 0.112588382 -0.06373903626
680.625 0.1326343015 -0.0503861295
681.25 0.09025528006 -0.0695768523
681.875 0.0524234906 -0.1158722307
682.5 -0.0001732700795 -0.1753957619
683.125 0.01397185973 -0.1687215232
683.75 0.03106133898 -0.1172594287
684.375 0.07140039022 -0.09768942821
685.0 0.1358638193 -0.02324102455
685.625 0.1051864999 0.05997737038
686.25 0.05020637874 0.07953346431
686.875 0.007136212752 0.08604227151
687.5 -0.05054106703 0.08029940152
688.125 -0.07399014463 0.07315364219
688.75 -0.09311349589 0.09159848382
689.375 -0.133839111 0.09532415687
690.0 -0.1228460662 0.06377343076
690.625 -0.1012407965 0.07733282909
691.25 -0.06265785781 0.144974196
691.875 -0.004017987321 0.1961155329
692.5 0.06574353083 0.1026338443
693.125 0.08402895416 0.004099412788
693.75 0.09798739058 -0.04326274132
694.375 0.1521837111 -0.03635116154
695.0 0.1190709008 0.05551225405
695.625 0.05005764123 0.09171947431
696.25 -0.05523814354 0.1152980237
696.875 -0.1523318137 0.01273606186
697.5 -0.1161523313 -0.0960120163
698.125 -0.09163163023 -0.1044659364
698.75 -0.09102079509 -0.1019125753
699.375 -0.06297772793 -0.09275636415
700.0 -0.04038406688 -0.09327827583
700.625 -0.009438783154 -0.1155327821
701.25 0.03692000408 -0.09807414561
701.875 0.03385750765 -0.07637923635
702.5 -0.001219704455 -0.09919498912
703.125 -0.1092954686 -0.1267257099
703.75 -0.1858273944 -0.05818804737
704.375 -0.1270052651 0.04257375041
705.0 -0.09226736873 0.06137260372
705.625 -0.1450858095 0.02456098159
706.25 -0.1047550649 -0.1199308008
706.875 0.01453362617 -0.1001292185
707.5 0.03633910264 -0.06963309842
708.125 0.08489305903 -0.02512018253
708.75 0.08467952404 0.06443179187
709.375 0.01513301887 0.0983512539
710.0 -0.02234876999 0.08979968542
710.625 -0.05721916265 0.0808483614
711.25 -0.09081998947 0.05970112167
711.875 -0.1017470553 0.07908989127
712.5 -0.07156130435 0.134510203
713.125 0.04166404019 0.1378663894
713.75 0.1120950009 0.03399295261
714.375 0.1054072037 -0.04271547113
715.0 0.1091165379 -0.06117573188
715.625 0.08980183129 -0.007866207111
716.25 0.05653349721 0.02674597412
716.875 0.0446649084 0.06044046513
717.5 -0.004845336818 0.1163183123
718.125 -0.05730118594 0.09807731538
718.75 -0.05312398158 0.06728565071
719.375 -0.06316345589 0.05584064452
720.0 -0.1062411561 0.004374415824
720.625 -0.06632993113 -0.09489396423
721.25 0.03235335489 -0.09770738718
721.875 0.08171228774 -0.05513980968
722.5 0.08139640519 -0.02368541441
723.125 0.05672834068 -0.02391493851
723.75 0.04580015639 -0.03290089187
724.375 0.02155113118 -0.0630117393
725.0 -0.01668399783 -0.0569949026
725.625 -0.03357296575 -0.04596865597
726.25 -0.04608169892 -0.05491650508
726.875 -0.03866763954 -0.07964161114
727.5 -0.01964831012 -0.07837506125
728.125 -0.00296320029 -0.06413346287
728.75 0.003565714744 -0.05300496474
729.375 0.007129035951 -0.04994613714
730.0 0.002365799231 -0.04590429013
730.625 0.001238590086 -0.03245304879
731.25 0.01355570766 -0.01896550959
731.875 0.01872374152 0.002556185492
732.5 0.002879866245 0.02080421258
733.125 -0.01053736222 0.03021322216
733.75 0.0006806640968 0.03787831892
734.375 0.01614853565 0.03049753067
735.0 0.02318662523 0.008534670635
735.625 0.01898175432 -0.003793054442
736.25 0.009088825793 -0.01835409512
736.875 -0.014256345 -0.02584046269
737.5 -0.03649453315 -0.01785901368
738.125 -0.04650595203 -0.005611833565
738.75 -0.03665111998 0.007087673887
739.375 -0.01223146691 0.006155657192
740.0 -0.002894225908 -0.01590673073
740.625 -0.02076116392 -0.02141642578
741.25 -0.0249850325 -0.01514148826
741.875 -0.005728417189 -0.02485599865
742.5 0.02736006694 -0.00744727999
743.125 0.01743376213 0.02633083732
743.75 0.0005162824192 0.03304190364
744.375 -0.005973026729 0.03967755883
745.0 -0.01847899713 0.0515733913
745.625 -0.01116891899 0.07045807671
746.25 0.0347571957 0.07418773585
746.875 0.08023200045 0.03133911344
747.5 0.06807099339 -0.01012809485
748.125 0.04279932195 -0.02350486121
748.75 0.02836356535 -0.03359207138
749.375 0.001853303826 -0.05600477854
750.0 -0.05442004677 -0.03020794142
