!Created with skrf (http://scikit-rf.org).
# GHz S RI R 50.0 
!freq ReS11 ImS11
500.0 -0.034269636 0.005245879721
500.625 -0.01805539528 0.02835121533
501.25 -0.02337182716 0.02861873563
501.875 -0.05228798611 0.04513548148
502.5 -0.06384777626 0.04861414484
503.125 -0.02336494479 0.05322390124
503.75 0.003641501845 0.04808723484
504.375 0.01663920428 0.04804347439
505.0 0.04008304706 0.03786441196
505.625 0.04450059204 0.0278981055
506.25 0.03202212539 0.01122029851
506.875 0.008385642176 0.04361671963
507.5 0.01758781698 0.05106408571
508.125 0.0004999510937 0.05927547005
508.75 0.02429860987 0.05276201534
509.375 0.03426822351 0.06650182972
510.0 0.03742797842 0.07696270741
510.625 0.05075294074 -0.02106943829
511.25 0.0308439931 -0.01936464346
511.875 0.02321633838 -0.01218146589
512.5 0.01924151097 -0.01825666444
513.125 -0.01254415933 -0.04401726787
513.75 -0.0452255022 -0.05893367249
514.375 -0.07763451695 -0.03540289667
515.0 -0.08058580683 0.01063146027
515.625 -0.09034158214 -0.02500866104
516.25 -0.08117504809 0.03855710537
516.875 -0.06377486902 -0.01763421817
517.5 -0.03083423517 0.004967388448
518.125 0.001143755922 -0.05299865712
518.75 -0.05957532317 -0.03378239986
519.375 -0.0597489775 -0.01774792053
520.0 -0.04618523587 0.01669737547
520.625 -0.03889253825 0.009158626702
521.25 -0.05334637153 0.01646895969
521.875 -0.02935885748 0.005813812228
522.5 -0.01713129369 0.01791802904
523.125 -0.04827957305 -0.009848347032
523.75 -0.1205650126 -0.03443605024
524.375 -0.139886765 -0.07213471409
525.0 -0.0925845741 -0.01833738529
525.625 -0.09953808293 0.008302859632
526.25 -0.08833885682 -0.006927405097
526.875 -0.06443307777 0.01593201513
527.5 -0.058848699 0.04991601862
528.125 -0.02073126129 0.0836873013
528.75 -0.01415118152 0.07731963443
529.375 0.02431702009 0.0825180284
530.0 0.09091290128 0.06482194769
530.625 0.1551608335 -0.03708752683
531.25 0.1753906223 -0.05375903215
531.875 0.1020904704 -0.06974067471
532.5 0.07674682094 -0.07711409283
533.125 0.08351718046 -0.04862721429
533.75 0.06050420798 -0.06891044326
534.375 0.05161021099 -0.04691435072
535.0 0.05444430111 -0.05021946105
535.625 0.07402267802 -0.007350135968
536.25 0.05540854876 -0.06143095958
536.875 0.07735211051 -0.07847335882
537.5 0.0873804425 -0.06128248631
538.125 0.04244127293 -0.04438063652
538.75 0.05018892294 -0.04139167886
539.375 0.1019834671 -0.04243744915
540.0 0.1416332818 -0.06503014106
540.625 0.09433147465 -0.063161493
541.25 0.08233676037 -0.05621406906
541.875 0.0910557848 -0.06925328518
542.5 0.07869574138 -0.06453747646
543.125 0.02244624034 -0.05971043889
543.75 -0.007224917983 -0.03303010064
544.375 0.02113369573 -0.04110057085
545.0 -0.01197948481 -0.05816486083
545.625 -0.05333879268 -0.05307945851
546.25 -0.06597392513 -0.02372387618
546.875 -0.07433074765 -0.02259963277
547.5 -0.06279653617 -0.02214773962
548.125 -0.0707245634 -0.04233994572
548.75 -0.04784558499 -0.07229950012
549.375 -0.01715731796 -0.09081561859
550.0 0.03189854664 -0.08203979733
550.625 0.04535779597 -0.1062085434
551.25 0.09652924569 -0.1023974593
551.875 0.06589854754 -0.1033304759
552.5 0.02344391928 -0.1066884697
553.125 -0.008881275711 -0.1094652274
553.75 -0.007444209037 -0.1132797052
554.375 -0.02551405899 -0.08865304353
555.0 -0.03225183807 -0.06687177694
555.625 -0.03699765861 -0.06907533952
556.25 -0.02377556674 -0.07813109113
556.875 -0.02759017586 -0.0679966936
557.5 -0.01278254265 -0.04910755567
558.125 0.006252473968 -0.04738602006
558.75 0.03832024632 -0.02172727015
559.375 0.04468631095 -0.03134022778
560.0 0.07435745188 -0.04317982734
560.625 0.06896646005 -0.08020545298
561.25 0.03213379618 -0.09103117977
561.875 -0.01548023055 -0.08714616362
562.5 -0.0438290005 -0.08026116657
563.125 -0.05570030917 -0.06687397548
563.75 -0.05791670008 -0.02737866363
564.375 -0.04978171939 -0.0102046076
565.0 -0.04163019737 -0.03401539222
565.625 -0.03127984389 -0.06081133792
566.25 -0.01274705641 -0.06447741946
566.875 -0.01227476637 -0.06816868443
567.5 0.003090660746 -0.06780485844
568.125 0.02144978855 -0.05295711906
568.75 0.05134135805 -0.04265264011
569.375 0.06642824559 -0.04428151161
570.0 0.08032730279 -0.06052761092
570.625 0.05088675164 -0.07046653444
571.25 0.04179740634 -0.08831971034
571.875 0.02855113782 -0.0967503842
572.5 -0.01565731363 -0.1052223104
573.125 -0.0550976889 -0.06196299701
573.75 -0.06015528711 -0.03850159824
574.375 -0.05245764546 -0.05408635247
575.0 -0.05396805826 -0.05928629247
575.625 -0.06174067846 -0.02583375114
576.25 -0.06064249059 -0.01270699297
576.875 -0.05318592207 -0.017554859
577.5 -0.0262092348 -0.0312347386
578.125 -0.02271785432 -0.03297483883
578.75 -0.02766844212 -0.04292398047
579.375 -0.03089125805 -0.05607566126
580.0 -0.02017918489 -0.07055571285
580.625 -0.02646962904 -0.08117562161
581.25 -0.06579893242 -0.0828868779
581.875 -0.07218708227 -0.06668970067
582.5 -0.06685598489 -0.05058418461
583.125 -0.04151674921 -0.05424396183
583.75 -0.03574240122 -0.06433060508
584.375 -0.02343539479 -0.06579725635
585.0 -0.02889284259 -0.05745416689
585.625 -0.01148018329 -0.05439941659
586.25 0.004806666063 -0.05861456294
586.875 -0.001825552509 -0.05446512014
587.5 -0.02384355709 -0.04508130817
588.125 -0.03236098096 -0.03882906485
588.75 -0.01543617188 -0.06080793462
589.375 -0.0296865911 -0.06266552285
590.0 -0.06926822746 -0.04717058962
590.625 -0.09699162913 -0.01094853195
591.25 -0.0881571047 0.0007315343239
591.875 -0.05419395497 0.01028194059
592.5 -0.03731711092 0.0096087465
593.125 -0.03999090833 -0.004502922076
593.75 -0.03688474732 -0.01687171348
594.375 -0.01727333111 -0.02811455892
595.0 0.003608858801 -0.03382297447
595.625 0.01925533968 -0.04601269969
596.25 0.02369058019 -0.04497087491
596.875 0.02656848686 -0.0414054936
597.5 0.0344470709 -0.02889192929
598.125 0.04296945033 -0.02913080423
598.75 0.04038151851 -0.04109305783
599.375 0.03850912758 -0.05912723281
600.0 0.0403362497 -0.0683518392
600.625 0.03214640357 -0.06569378416
601.25 0.007883023433 -0.05992158051
601.875 -0.005834030387 -0.04833668333
602.5 -0.003941294051 -0.0367530566
603.125 0.0004500057772 -0.02039610205
603.75 0.00438974093 -0.007575311109
604.375 0.01699784008 -0.005268879629
605.0 0.02576379599 -0.01119841539
605.625 0.01692635989 -0.01382534824
606.25 0.0009303165462 -0.004562276865
606.875 -0.003103519927 0.01492664426
607.5 0.01253706122 0.02724123612
608.125 0.0284455768 0.01686688986
608.75 0.02837542189 0.009835621096
609.375 0.02748290042 0.01440227261
610.0 0.03037035685 0.01679632705
610.625 0.03261366375 0.006499515848
611.25 0.02801517862 -0.003956375364
611.875 0.01948789392 -0.01010244027
612.5 0.006884993942 -0.01548426467
613.125 -0.00863103071 -0.01272077402
613.75 -0.01394015867 -0.001469157655
614.375 -0.006616025862 0.003379384799
615.0 -0.0007663495013 -0.003917248194
615.625 -0.0086305838 -0.01250975931
616.25 -0.01741931472 -0.005538623915
616.875 -0.01113051234 0.004326533075
617.5 -0.0001563632998 4.256467749e-05
618.125 0.001833634439 -0.01024758344
618.75 0.000475764788 -0.0122106659
619.375 0.008938045151 -0.01045816844
620.0 0.02320613216 -0.01956940661
620.625 0.02036386622 -0.04383184552
621.25 0.01455069146 -0.06043644462
621.875 0.001224785274 -0.07493005079
622.5 -0.05936470618 -0.04581885021
623.125 -0.0603885868 -0.01583914529
623.75 -0.04621260341 -0.007867530764
624.375 -0.0279252944 -0.02238996023
625.0 -0.008209841197 -0.03117414917
625.625 -0.01053237804 -0.0191601069
626.25 -0.004353475523 -0.004931403986
626.875 0.01945647826 -0.008919634743
627.5 0.04545167401 -0.01472583987
628.125 0.04854038522 -0.01155449871
628.75 0.04756215487 -0.01131754589
629.375 0.05964080474 -0.007793223328
630.0 0.07800076945 -0.000286944743
630.625 0.08171113081 0.01014684676
631.25 0.07946911513 0.003480870688
631.875 0.07824868803 -0.002505316804
632.5 0.06683452515 -0.008520776102
633.125 0.06301138961 -0.0005399319002
633.75 0.05565045118 0.001600697266
634.375 0.05604213962 0.008886159347
635.0 0.04080206614 0.00140732997
635.625 0.04356831023 0.003278622726
636.25 0.05952003759 0.02284542492
636.875 0.06611740355 0.02951074187
637.5 0.046632503 0.009347993408
638.125 0.03705693685 0.01826089936
638.75 0.0454062623 0.05871507711
639.375 0.0255902307 0.08983521845
640.0 0.01663780834 0.0767151912
640.625 0.01561562332 0.06844507444
641.25 0.000402391923 0.07158046382
641.875 -0.02648028755 0.06071135147
642.5 -0.0327866628 0.05459402246
643.125 -0.03742261194 0.05444654063
643.75 -0.04894680183 0.04720512367
644.375 -0.04954729689 0.03720917522
645.0 -0.0611196717 0.05008034395
645.625 -0.06788605764 0.06570063995
646.25 -0.06325514865 0.07286031433
646.875 -0.04313165845 0.06020285949
647.5 -0.05105637593 0.05708130464
648.125 -0.07027264384 0.05660332521
648.75 -0.07984415636 0.03810659676
649.375 -0.05779980985 0.03665742684
650.0 -0.05506898518 0.01375269906
650.625 -0.05367091641 -0.0208579723
651.25 -0.03063825064 -0.04308090652
651.875 -0.01627731312 -0.0453904589
652.5 0.01329522672 -0.05867148652
653.125 0.05557143687 -0.06566135038
653.75 0.07781356472 -0.05679977934
654.375 0.08901879173 -0.06022313523
655.0 0.1005427782 -0.06503279059
655.625 0.09216382667 -0.05737062228
656.25 0.06222994705 -0.06882609336
656.875 0.04896634658 -0.07625537448
657.5 0.06586369798 -0.07144162026
658.125 0.05486979903 -0.04770262321
658.75 0.02598126701 -0.04757628869
659.375 0.03659389173 -0.03676840099
660.0 0.05625826382 -0.04954116731
660.625 0.05655748576 -0.049146886
661.25 0.03965106741 -0.07240582452
661.875 0.02492577524 -0.09846409992
662.5 0.01773105613 -0.1158751724
663.125 0.01800875152 -0.1023911498
663.75 0.04915105454 -0.1004323788
664.375 0.1001733704 -0.05548819198
665.0 0.09801033248 0.01075936734
665.625 0.07724145279 0.01977616995
666.25 0.06799927173 0.04009248005
666.875 0.03481523462 0.07190937328
667.5 -0.006850671731 0.064449945
668.125 -0.01449853161 0.06592592472
668.75 -0.009818050236 0.0873381791
669.375 -0.01424962796 0.1119205582
670.0 -0.01242797959 0.08740327704
670.625 -0.02044340038 0.08589116192
671.25 -0.003996499145 0.09812357144
671.875 0.01916665882 0.1102965533
672.5 0.06758774163 0.06432936204
673.125 0.07113193917 0.04960271054
673.75 0.04374676063 0.0569199813
674.375 0.01485289824 0.07159630245
675.0 0.001612716214 0.07609871546
675.625 -0.03330935518 0.08418303809
676.25 -0.0840774608 0.05430870085
676.875 -0.08675158166 0.03109744868
677.5 -0.09824859346 0.051513989
678.125 -0.1149519007 0.06932212507
678.75 -0.122663885 0.04608857448
679.375 -0.07673604054 0.04020143342
680.0 -0.06898769427 0.04308157179
680.625 -0.07617235001 0.04563074539
681.25 -0.07225065238 0.03851035709
681.875 -0.0341245653 0.03596649509
682.5 -0.03988175455 0.04221012585
683.125 -0.06895216271 0.06268600859
683.75 -0.09419609627 0.0443682945
684.375 -0.0992864509 0.00601394741
685.0 -0.07826469867 -0.06603782724
685.625 -0.02219376598 -0.1221846432
686.25 0.02454312654 -0.1200894018
686.875 0.03463612164 -0.1318314491
687.5 0.06297955096 -0.108280222
688.125 0.0613106267 -0.07133375261
688.75 0.04852294057 -0.04727039081
689.375 0.06362059831 -0.03645219434
690.0 0.08841080159 -0.009191933637
690.625 0.06963322114 0.01492960952
691.25 0.06728956141 -0.01063624068
691.875 0.08084588811 -0.05841904454
692.5 0.0359943147 -0.1497016893
693.125 -0.07463987394 -0.1162776338
693.75 -0.1227566314 -0.02078587868
694.375 -0.1194886448 -0.003597548454
695.0 -0.1100212744 -0.06722734325
695.625 -0.02332822999 -0.1015338514
696.25 0.06567685888 -0.06759339454
696.875 0.07980645678 0.02165401641
697.5 0.02405728637 0.06893401745
698.125 -0.00104427233 0.07226332563
698.75 -0.01637244428 0.09767632648
699.375 -0.03447649584 0.107064696
700.0 -0.04175021921 0.08100183772
700.625 -0.04762647348 0.07930975183
701.25 -0.06961549737 0.09542583564
701.875 -0.07196151181 0.1077325499
702.5 0.0003710335735 0.07345503515
703.125 0.03199680656 0.0465041233
703.75 0.05282731216 0.0497869346
704.375 0.0985933866 0.07352051267
705.0 0.08264042861 0.05124110705
705.625 0.06249534921 0.06306203973
706.25 0.003928864839 0.09875238678
706.875 -0.1033026166 0.06959726909
707.5 -0.1200789003 0.01294441092
708.125 -0.107652616 -0.03426224974
708.75 -0.07140079432 -0.06472994069
709.375 -0.009866964708 -0.07690470993
710.0 0.0347688451 -0.07199930743
710.625 0.06529825755 -0.04739752452
711.25 0.0595717181 -0.01957930275
711.875 0.03180009952 -0.01044515673
712.5 0.04458344704 -0.01296021946
713.125 0.07010759771 -0.06415495544
713.75 0.01142669861 -0.1163522581
714.375 -0.06184764765 -0.07757007816
715.0 -0.1017995502 -0.0350321657
715.625 -0.1215552634 -0.05192644687
716.25 -0.07308453374 -0.09425890626
716.875 -0.02771140133 -0.07847570187
717.5 0.0143980121 -0.0681700706
718.125 0.04782510423 -0.0569140896
718.75 0.06413405008 -0.02953574819
719.375 0.05652456867 -0.01049772549
720.0 0.03921803816 0.01854568148
720.625 -0.007810761722 0.04125307337
721.25 -0.05565487665 0.001619003292
721.875 -0.05586529219 -0.05763607454
722.5 -0.05205512472 -0.08177541177
723.125 -0.08753106808 -0.04783040555
723.75 -0.07657788824 0.03458957419
724.375 -0.02924396686 0.06651127928
725.0 0.008939334219 0.05750288159
725.625 0.02289704077 0.03247985291
726.25 0.01693523635 0.01489946909
726.875 -0.006607071886 0.01849695721
727.5 -0.03837433939 0.02100469872
728.125 -0.05355516656 0.01186029325
728.75 -0.04538572309 0.02123914656
729.375 -0.02698311108 0.02913589502
730.0 -0.02481301772 0.02032355079
730.625 -0.03194143477 0.01323172253
731.25 -0.03140618837 0.003819833859
731.875 -0.02622048263 -0.01075173191
732.5 -0.0158084287 -0.01495713437
733.125 -0.008991519887 -0.0038483431
733.75 0.002547031102 0.007878985857
734.375 0.01555274043 0.005442433005
735.0 0.01577347783 -0.007220174602
735.625 0.01378673111 -0.01142656957
736.25 0.009271107306 -0.02140938135
736.875 -0.008139845607 -0.02589392117
737.5 -0.0258326268 -0.01210584602
738.125 -0.03545855389 0.0106806589
738.75 -0.03055834952 0.03349770784
739.375 -0.009430424961 0.04148146313
740.0 0.00677477835 0.0281540456
740.625 0.001119890258 0.02421788826
741.25 -0.005050146624 0.03358926848
741.875 -0.02444649272 0.02910433192
742.5 -0.03765244994 -0.008108525637
743.125 -0.007878115591 -0.04012847988
743.75 0.01803348223 -0.03955591393
744.375 0.01930517781 -0.04316886286
745.0 0.009551021085 -0.04641499377
745.625 -0.008636361561 -0.03098709816
746.25 0.001020555884 -0.010698401
746.875 0.01207125461 -0.03036831772
747.5 -0.00842500045 -0.04780944077
748.125 -0.03447555731 -0.03971212639
748.75 -0.05247336365 -0.004319727526
749.375 -0.0462371942 0.04089006559
750.0 0.008289830087 0.0762549085
