!Created with skrf (http://scikit-rf.org).
# GHz S RI R 50.0 
!freq ReS11 ImS11
500.0 -0.007059969828 0.01978758928
500.625 0.02664886648 0.01648624211
501.25 0.03659826715 -0.004154703332
501.875 0.03020640674 -0.004933822697
502.5 0.02222475525 0.01592612022
503.125 0.02798704057 0.008901900711
503.75 0.03588883355 -0.01587927601
504.375 0.03293186437 -0.02795929327
505.0 0.02190670754 -0.03935448026
505.625 0.01438174009 -0.06239735496
506.25 -0.003009134421 -0.08077530898
506.875 0.03149312649 -0.09450640814
507.5 -0.001118613809 -0.07897235956
508.125 0.02807860798 -0.08979508469
508.75 -0.02208936402 -0.1034194963
509.375 -0.03231633642 -0.07438609848
510.0 -0.007939528494 -0.0710652653
510.625 -0.06198575253 -0.02926229275
511.25 -0.08337197937 -0.02316974314
511.875 -0.06467500088 0.02622731509
512.5 -0.02111287773 0.0487333476
513.125 0.04188289901 0.06469255
513.75 0.05225588999 0.0596459184
514.375 0.05900169898 0.0341801521
515.0 0.08257767237 0.006992434153
515.625 0.08445975533 0.08835916875
516.25 0.1104889189 0.04939311725
516.875 0.05885360034 0.1199719083
517.5 0.1449669874 0.04290022476
518.125 0.08252880532 0.2277144214
518.75 0.1057057621 0.01888743105
519.375 0.08386312737 0.02150005761
520.0 0.1151528822 -0.02624642086
520.625 0.1262652131 -0.02685980056
521.25 0.09167823463 -0.05226411487
521.875 0.07497084497 -0.01766396027
522.5 0.07892498664 -0.08844488009
523.125 0.1694668613 -0.1530008336
523.75 0.1165646377 -0.2365759785
524.375 0.1239572281 -0.2342223816
525.0 0.05823025928 -0.09499777215
525.625 0.04734202193 -0.05430552378
526.25 0.05405040289 -0.03748482626
526.875 0.04535332828 -0.06010268643
527.5 0.03585221053 -0.06852090707
528.125 -0.0009377903411 -0.06031210284
528.75 -0.02180607172 -0.07459411629
529.375 -0.100845056 -0.06773007567
530.0 -0.08871093586 -0.007325385435
530.625 -0.04143265712 0.0228131801
531.25 -0.08743428607 0.009705794984
531.875 -0.1714455101 0.03427289274
532.5 -0.1525989754 0.07286235355
533.125 -0.09132013296 0.07071176265
533.75 -0.05979387444 0.09584220727
534.375 -0.09092966141 0.1060092131
535.0 -0.06933742932 0.09946599785
535.625 -0.05724657857 0.06224744988
536.25 -0.01030454413 0.07856412482
536.875 -0.05910498347 0.07374282936
537.5 -0.09372266472 0.02550145397
538.125 -0.07562315421 0.06029818393
538.75 -0.07580706424 0.1140352593
539.375 -0.08785874947 0.07923109659
540.0 -0.07745691442 0.06001641741
540.625 -0.08124848455 0.06652351615
541.25 -0.1126986689 0.07358725506
541.875 -0.1010366796 0.03224835814
542.5 -0.08065255722 0.01280227556
543.125 -0.08893559171 0.06744686229
543.75 -0.04525154669 0.1467574176
544.375 -0.007636270095 0.1398472188
545.0 0.08013738753 0.06634200476
545.625 0.1224098296 0.01760183079
546.25 0.1318674935 -0.004293182532
546.875 0.1150671485 -0.01293318864
547.5 0.1271127901 -0.01335644362
548.125 0.1635821022 0.002623299829
548.75 0.1385872066 0.06550245794
549.375 0.1255756854 0.06068217293
550.0 0.1154817582 0.09917301182
550.625 0.08756089022 0.1111541973
551.25 0.01374920136 0.08746957816
551.875 0.01956523819 0.05025178478
552.5 0.0316537082 0.06525162967
553.125 0.01927960015 0.09061424389
553.75 -0.009688153617 0.06153896003
554.375 0.004825220591 0.06076764877
555.0 0.03228436453 0.08555735227
555.625 0.04131235854 0.1024360246
556.25 0.004839035869 0.08716159793
556.875 0.01135082711 0.08673191552
557.5 0.01257461254 0.1175390211
558.125 -0.003255594776 0.1299505423
558.75 -0.03193126899 0.1094266985
559.375 0.005799506286 0.1111880732
560.0 0.003022894779 0.1107112836
560.625 0.01290533126 0.0704851623
561.25 0.01570520925 0.05200511308
561.875 0.01859643809 0.06929486419
562.5 0.03209774881 0.08085249779
563.125 0.03898802819 0.06619620829
563.75 0.06752962051 0.0494335018
564.375 0.1183948807 0.04817368213
565.0 0.1113145233 0.07734177485
565.625 0.1007046757 0.04478580295
566.25 0.09083152118 0.04509554336
566.875 0.08640563624 0.07872306092
567.5 0.02855509876 0.1055208633
568.125 0.01941567322 0.09710291609
568.75 0.0227229633 0.1161003986
569.375 0.010965382 0.108768128
570.0 0.002756846735 0.08306944343
570.625 0.01259083886 0.0616614817
571.25 0.02264709213 0.07950433319
571.875 0.008227394035 0.06305360206
572.5 0.01038390099 0.04509896197
573.125 0.02376661593 0.0648161536
573.75 0.08179631389 0.0772671292
574.375 0.08851070325 0.06060843297
575.0 0.06953534577 0.02645417441
575.625 0.07672400659 0.01522636992
576.25 0.09676657146 0.04698109954
576.875 0.09217480539 0.04572433347
577.5 0.0880067661 0.02433836975
578.125 0.1058166921 0.009205936311
578.75 0.1180833695 0.03305874922
579.375 0.09342235393 0.0257303603
580.0 0.09111889875 0.00449245566
580.625 0.09637071237 -0.009415567203
581.25 0.07455951554 -0.000646674231
581.875 0.03762873482 0.02078504624
582.5 0.04710503086 0.03125705091
583.125 0.07468500432 0.05676274702
583.75 0.06577069105 0.0580999288
584.375 0.0455053505 0.05237464192
585.0 0.03862346436 0.0630515052
585.625 0.04751077387 0.08898944914
586.25 0.03906294032 0.07367279437
586.875 0.04154419789 0.05175427322
587.5 0.05921062926 0.06057518892
588.125 0.08554425118 0.05032643378
588.75 0.08396978529 0.0328819173
589.375 0.07797281167 -0.0183868921
590.0 0.07091173596 -0.03961018107
590.625 0.04944381906 -0.01113788499
591.25 0.04010652474 0.01317170146
591.875 0.05695156967 0.01230246245
592.5 0.09007835546 -0.005780417413
593.125 0.09386793135 0.002249693685
593.75 0.07656986414 0.009238454894
594.375 0.08046419523 0.02519163486
595.0 0.0812244738 0.05419274679
595.625 0.05472755512 0.06554322465
596.25 0.03155601715 0.05698232511
596.875 0.02278631549 0.06376886379
597.5 0.01035623114 0.07643903136
598.125 0.01969794889 0.06930500898
598.75 0.03987224678 0.05095380276
599.375 0.04083123153 0.03710431549
600.0 0.02287969315 0.02524912294
600.625 0.003343436558 0.01257290288
601.25 -0.01086533004 0.01862145468
601.875 -0.02209994525 0.03586087082
602.5 -0.02629997164 0.04028591982
603.125 -0.02739993367 0.04153662281
603.75 -0.02025306588 0.05182010208
604.375 -0.01716827703 0.05268143855
605.0 -0.01942023328 0.03330148359
605.625 -0.02765499873 0.01793565883
606.25 -0.04510856979 0.02027417641
606.875 -0.05153271293 0.03228746026
607.5 -0.0307913548 0.0421415935
608.125 -0.005325338868 0.03739947565
608.75 -0.001844254971 0.02983246451
609.375 -0.003198777508 0.02550800517
610.0 0.002241540118 0.01867211161
610.625 0.009375924226 0.006595835927
611.25 0.009033012834 -0.006475909227
611.875 0.006558072702 -0.01659193296
612.5 -0.0002102155848 -0.02211544286
613.125 -0.0112034312 -0.01715926651
613.75 -0.01226983264 -0.003150526991
614.375 -0.001090619358 0.004968831862
615.0 0.008859784 0.0001918474339
615.625 0.004907547032 -0.004526743489
616.25 -0.0004303352692 0.004899615214
616.875 0.01017472877 0.01716398604
617.5 0.02488165032 0.0176206613
618.125 0.0270839588 0.0138523009
618.75 0.02681740857 0.01504223113
619.375 0.03626537325 0.0234462194
620.0 0.05185584293 0.02245627731
620.625 0.05365923562 -0.004466477239
621.25 0.04383990177 -0.01540776956
621.875 0.02837449705 -0.01968035455
622.5 -0.002901346447 -0.008993795275
623.125 -0.0008726566661 0.01784299302
623.75 0.01391479748 0.03355793865
624.375 0.01650040262 0.04650182352
625.0 -0.001942917966 0.0528211583
625.625 0.0001219842221 0.06043858655
626.25 0.02308950993 0.07927663138
626.875 0.03491850737 0.09003579302
627.5 0.02378599023 0.08042863847
628.125 0.01744104777 0.07060394066
628.75 0.01281813026 0.08258265502
629.375 -0.002515347548 0.0871017694
630.0 -0.003891685287 0.06674759788
630.625 -0.005650004434 0.05293273816
631.25 -0.0201501909 0.04535454007
631.875 -0.04006426259 0.02854931619
632.5 -0.04410982841 0.01613109321
633.125 -0.05172447138 0.01850927826
633.75 -0.06681588231 0.03123389689
634.375 -0.07333261246 0.02250946263
635.0 -0.07305056434 0.03232390676
635.625 -0.07223075444 0.06169997205
636.25 -0.0766377172 0.06921053831
636.875 -0.06600182297 0.03863909861
637.5 -0.06772699731 0.03257039253
638.125 -0.09785099372 0.05305855606
638.75 -0.1028190773 0.04624334215
639.375 -0.07528630391 0.01518855735
640.0 -0.05823490858 -0.00673402427
640.625 -0.06851263132 -0.04639647208
641.25 -0.04849352008 -0.07441743881
641.875 -0.03701119201 -0.06316207316
642.5 -0.040355123 -0.06363480465
643.125 -0.03069163961 -0.09630703591
643.75 0.004731414266 -0.1076291268
644.375 -0.01465578878 -0.08874843376
645.0 -0.05129718152 -0.08815045941
645.625 -0.0437780149 -0.09836402349
646.25 -0.01850235977 -0.08371588816
646.875 -0.001996439728 -0.07450858362
647.5 -0.02492846637 -0.09267946954
648.125 -0.01088487279 -0.09700328902
648.75 0.01735190243 -0.0675998642
649.375 0.04119471138 -0.05521637808
650.0 0.07571590978 -0.06210349693
650.625 0.1002457449 -0.04152794046
651.25 0.09496862199 -0.01522499696
651.875 0.1071247799 0.01161508178
652.5 0.1207395493 0.07302434395
653.125 0.09078442689 0.08923813158
653.75 0.07927191777 0.07678133258
654.375 0.07461020428 0.08729803163
655.0 0.02289707496 0.1035526697
655.625 -0.009546654136 0.06649320415
656.25 0.005836765967 0.06247742511
656.875 0.03249687178 0.08871529406
657.5 -0.007344460738 0.1043909105
658.125 -0.03841907238 0.08191684623
658.75 -0.01721298354 0.09257085141
659.375 0.0336942562 0.1355030367
660.0 0.06111513828 0.1330710378
660.625 0.0743946474 0.1006523458
661.25 0.1024056644 0.07124229629
661.875 0.1307216899 0.05250604584
662.5 0.1159682491 0.03499093443
663.125 0.09522712641 0.0292771359
663.75 0.08050641233 0.07157157453
664.375 -0.01107354955 0.0992270256
665.0 -0.05581969756 0.06132024074
665.625 -0.06473512615 0.0420149362
666.25 -0.1142349449 0.02876355807
666.875 -0.1276970308 -0.0520991042
667.5 -0.1013861685 -0.05836029462
668.125 -0.1150462723 -0.0340288747
668.75 -0.1507486694 -0.022308089
669.375 -0.1197146081 -0.05226443446
670.0 -0.07449869685 -0.04653226555
670.625 -0.09195789874 -0.04278253991
671.25 -0.1241449152 -0.03226672366
671.875 -0.1075333486 -0.02349922627
672.5 -0.08614215727 0.004261514177
673.125 -0.09749338171 0.02360481401
673.75 -0.1304599297 0.02217731747
674.375 -0.128810613 0.003239189523
675.0 -0.1237906315 -0.0270486702
675.625 -0.1124937211 -0.08459279452
676.25 -0.06651900764 -0.1182077049
676.875 -0.05326020501 -0.1098197431
677.5 -0.07903025257 -0.1097358387
678.125 -0.04783458308 -0.1284044522
678.75 0.0008825564273 -0.07864184908
679.375 0.01796979738 -0.05778432781
680.0 0.008271876465 -0.08897850804
680.625 0.02591173026 -0.1343623991
681.25 0.02466048033 -0.1122319916
681.875 -0.0135814587 -0.103171751
682.5 -0.09180130339 -0.1105982967
683.125 -0.1209353575 -0.1361082267
683.75 -0.06304849157 -0.1383201827
684.375 -0.00283469629 -0.1232078535
685.0 0.08389797739 -0.1208220428
685.625 0.1429664253 -0.04103458228
686.25 0.1240365473 0.01612107862
686.875 0.09574162419 0.04118020679
687.5 0.05261867784 0.07549406257
688.125 0.01023936597 0.08622845758
688.75 -0.002460757238 0.09603942917
689.375 -0.008147370731 0.1355878409
690.0 -0.05197134186 0.1344615394
690.625 -0.03972608465 0.1205386124
691.25 0.02537748694 0.1337450581
691.875 0.1454527379 0.1304095401
692.5 0.1817247211 0.04685110522
693.125 0.08845265267 -0.07292780189
693.75 0.02141451089 -0.1003013954
694.375 0.03602677267 -0.1365086636
695.0 0.1291238126 -0.08390486957
695.625 0.1013803691 0.02981373335
696.25 0.03940243045 0.09407345036
696.875 -0.0783090438 0.1019416005
697.5 -0.1430519071 0.01397898638
698.125 -0.1368866131 -0.02643107004
698.75 -0.1432253855 -0.01732113609
699.375 -0.1293892757 -0.02564005514
700.0 -0.1029219271 -0.03836553786
700.625 -0.09510929848 -0.06290856066
701.25 -0.08446851376 -0.09992470078
701.875 -0.05171167347 -0.07458193958
702.5 -0.05417211849 -0.05290001682
703.125 -0.1126249802 -0.01290373242
703.75 -0.1620801414 0.1028479684
704.375 -0.09924723711 0.1268299386
705.0 -0.04578304253 0.1083140541
705.625 -0.07445077332 0.1039817945
706.25 -0.1724809049 0.01840800161
706.875 -0.08242377418 -0.1218396892
707.5 -0.02579207172 -0.09554261619
708.125 0.01702592809 -0.09052812055
708.75 0.08547892602 -0.04756298304
709.375 0.08804795343 0.04483375002
710.0 0.04443625549 0.07215413903
710.625 0.02409581401 0.0828267541
711.25 -0.01502819236 0.08790785931
711.875 -0.02479854992 0.1021611944
712.5 0.02193093995 0.1354996005
713.125 0.1287607792 0.09677377989
713.75 0.1354437268 -0.04216550115
714.375 0.06003269365 -0.1104133256
715.0 0.01451183398 -0.138669519
715.625 0.05799752191 -0.1178352567
716.25 0.06728991956 -0.04444996956
716.875 0.06267813104 -0.00360812408
717.5 0.07498083734 0.05040972244
718.125 0.04822747058 0.1033046811
718.75 0.008376510259 0.08813287245
719.375 -0.0072716733 0.06947895119
720.0 -0.05541864956 0.0625738283
720.625 -0.1074214109 -0.02220429192
721.25 -0.03175579426 -0.108998462
721.875 0.03940313176 -0.1017109682
722.5 0.05574840016 -0.09427278527
723.125 0.01712346627 -0.08909996184
723.75 -0.01783134891 -0.06344457153
724.375 -0.04256874042 -0.04405992475
725.0 -0.0529984865 -0.0135091538
725.625 -0.04456878919 -0.0006042563683
726.25 -0.05101070115 -0.00670690664
726.875 -0.06816545497 -0.03223475976
727.5 -0.06578027423 -0.05582681417
728.125 -0.04634896813 -0.05876120429
728.75 -0.04147968619 -0.04420359718
729.375 -0.03939113727 -0.03496456853
730.0 -0.03536275997 -0.0364803143
730.625 -0.026636154 -0.03083802864
731.25 -0.01072559443 -0.02765191772
731.875 0.008101364607 -0.02066723423
732.5 0.01232326716 0.0009925222048
733.125 0.004487856283 0.01999951275
733.75 0.01431078245 0.02793222548
734.375 0.02746649739 0.02060463037
735.0 0.02810939492 -0.001351984134
735.625 0.02079935949 -0.01049173315
736.25 0.01021048205 -0.02145682555
736.875 -0.01233859514 -0.02527591554
737.5 -0.03456718222 -0.01316820438
738.125 -0.04748260981 0.003047838261
738.75 -0.0424057357 0.01772543836
739.375 -0.02241849191 0.01883915249
740.0 -0.01488429593 0.00218827119
740.625 -0.02966911379 0.0009318606633
741.25 -0.03426742482 0.007594473532
741.875 -0.03065638221 -0.01186109178
742.5 0.004246814292 -0.03261415391
743.125 0.03495620501 -0.004374864644
743.75 0.03004037682 0.01589771047
744.375 0.02955741827 0.01721257737
745.0 0.02896849176 0.0255636368
745.625 0.03057591295 0.03832594654
746.25 0.05528245276 0.03578858298
746.875 0.07608083744 -0.01514202921
747.5 0.05239148838 -0.05471235641
748.125 0.02068066385 -0.06030042277
748.75 -0.009466275896 -0.0545208648
749.375 -0.05018905808 -0.04023272734
750.0 -0.07201600082 0.02992722961
