!Created with skrf (http://scikit-rf.org).
# GHz S RI R 50.0 
!freq ReS11 ImS11
500.0 -0.01507787793 0.02994993655
500.625 0.02341341448 0.03775803571
501.25 0.03528120089 0.035653517
501.875 0.0286938488 0.0455769965
502.5 0.01568597285 0.06112838278
503.125 0.0418839712 0.0445498368
503.75 0.05984847269 0.02344131114
504.375 0.06019318948 0.001444480184
505.0 0.05925065772 -0.03348462184
505.625 0.07276643524 -0.05756075557
506.25 0.05708451781 -0.06559425358
506.875 0.08341490335 -0.04533200558
507.5 0.06214262868 -0.06176458381
508.125 0.1066431907 -0.03259077451
508.75 0.06369618026 -0.07590169455
509.375 0.04145312431 -0.0691696361
510.0 0.07643233952 -0.06617900131
510.625 -0.02066237708 -0.09218656249
511.25 -0.04455770321 -0.07196458705
511.875 -0.06277613508 -0.0194693061
512.5 -0.05333437914 0.01392957829
513.125 -0.03367753889 0.05578108231
513.75 -0.02634358288 0.06464664467
514.375 0.001921841131 0.07951770856
515.0 0.04901047568 0.1066395171
515.625 -0.0376312465 0.1336969682
516.25 0.05459156335 0.1209311957
516.875 -0.02861857346 0.1582959224
517.5 0.07684239615 0.1423137159
518.125 -0.08311629766 0.1702275938
518.75 0.04313458724 0.06982110259
519.375 0.04382687462 0.09606628683
520.0 0.09180358088 0.08403915409
520.625 0.08766347809 0.05880832075
521.25 0.08602216186 0.02197264727
521.875 0.0726803115 0.04837943939
522.5 0.1065861157 0.007982130418
523.125 0.1600985784 -0.01561347562
523.75 0.160659138 -0.091907839
524.375 0.1595044005 -0.02632442012
525.0 0.04466010982 0.01593322059
525.625 0.02943064236 0.02590379876
526.25 0.04550830536 0.04077987666
526.875 0.06005159694 0.03624001351
527.5 0.05440613482 0.01704628812
528.125 0.0554269266 -0.01792979183
528.75 0.0680868914 -0.05238096767
529.375 0.04043887002 -0.0944976248
530.0 0.007523472215 -0.0558941783
530.625 -0.03512964877 -0.06788816551
531.25 -0.07937211341 -0.1750906569
531.875 -0.1229148899 -0.1718048562
532.5 -0.1334901183 -0.07611403392
533.125 -0.1160035483 -0.02620765957
533.75 -0.1489997118 -0.02774745942
534.375 -0.116263736 -0.03894480849
535.0 -0.09370297221 -0.0007556253751
535.625 -0.06951658689 -0.0199511447
536.25 -0.08054768634 -0.006592479882
536.875 -0.0836318485 -0.05600181879
537.5 -0.08328174158 -0.07646884298
538.125 -0.1157343376 -0.03137605749
538.75 -0.1118555824 -0.0203662842
539.375 -0.08028737007 -0.0441576389
540.0 -0.09249340198 -0.05998626231
540.625 -0.1327197911 -0.07536196877
541.25 -0.1008876704 -0.09896259192
541.875 -0.08338937181 -0.07344889543
542.5 -0.09489479927 -0.07459364691
543.125 -0.1474838217 -0.04000527557
543.75 -0.1336107088 0.04592569338
544.375 -0.07634652893 0.06926888225
545.0 -6.307627597e-05 0.099596267
545.625 0.01618189618 0.1126898136
546.25 0.04765175971 0.09428514357
546.875 0.0614637215 0.07624732739
547.5 0.08107905091 0.09544147079
548.125 0.0453593331 0.1293227812
548.75 0.01552941938 0.1042643596
549.375 0.02336450037 0.1088741547
550.0 -0.03531290555 0.1045547059
550.625 -0.04428487003 0.05149876407
551.25 -0.04054786878 -0.003740167423
551.875 -0.05755438581 0.005850649862
552.5 -0.104289958 0.01878958483
553.125 -0.0916337785 0.01453442918
553.75 -0.0848532359 0.01369758695
554.375 -0.08645944259 0.05569308931
555.0 -0.09745841136 0.08318782225
555.625 -0.08044928432 0.07021034992
556.25 -0.07640626347 0.05998844596
556.875 -0.09717344921 0.07515688928
557.5 -0.1024728979 0.07560215153
558.125 -0.09428941554 0.06578806399
558.75 -0.08376887965 0.0441479315
559.375 -0.08091929203 0.0438004528
560.0 -0.05560687235 0.01683902888
560.625 -0.04816718261 0.004956686532
561.25 -0.0692359292 0.01225736382
561.875 -0.09315308556 0.03550362793
562.5 -0.07497290329 0.05714789524
563.125 -0.04298978394 0.08609884285
563.75 -0.003787761356 0.1254987057
564.375 0.006675155759 0.1276923077
565.0 0.004521202374 0.1106455574
565.625 0.02277300785 0.09170102977
566.25 -0.005543578447 0.1027750411
566.875 -0.06000749653 0.08073961039
567.5 -0.06026870025 0.05787424764
568.125 -0.06889592419 0.06380200593
568.75 -0.07762827392 0.05291256985
569.375 -0.06162316999 0.01974079933
570.0 -0.04311696341 0.0003256669286
570.625 -0.06634406804 0.008252837519
571.25 -0.07813882836 0.00212384766
571.875 -0.06580332627 0.00363831773
572.5 -0.07410993354 0.03013580143
573.125 -0.08368626195 0.08887343867
573.75 -0.05156169903 0.1198810991
574.375 -0.006109727419 0.09172688981
575.0 0.007723986432 0.08529338529
575.625 -0.001865186646 0.1134734393
576.25 -0.007744345124 0.1108444055
576.875 0.0185466158 0.0930751914
577.5 0.04388631679 0.08490426809
578.125 0.0290918105 0.09991293005
578.75 0.009647583043 0.07481244382
579.375 0.02017093743 0.06321388794
580.0 0.02768073029 0.06316206486
580.625 0.003712275731 0.05944915849
581.25 -0.02787182752 0.04303480496
581.875 -0.03170339172 0.05679560595
582.5 -0.03374363075 0.09466344135
583.125 -0.04054112076 0.09598763862
583.75 -0.03558999191 0.07489112669
584.375 -0.03974709831 0.0679900919
585.0 -0.06899752401 0.07859405705
585.625 -0.06420512775 0.06853245843
586.25 -0.04229872701 0.0594561153
586.875 -0.04069327732 0.06346310871
587.5 -0.04672416948 0.07707625965
588.125 -0.009653197998 0.07953598837
588.75 0.01562515754 0.06514547608
589.375 0.02989515994 0.05668260088
590.0 0.001633154365 0.05627439789
590.625 -0.005486580347 0.06170485801
591.25 0.009639506316 0.07705628112
591.875 0.03955278435 0.09668656984
592.5 0.0483386228 0.09419067268
593.125 0.04160184455 0.06828419713
593.75 0.04129633184 0.06830248628
594.375 0.01925292183 0.08999985203
595.0 -0.01243257288 0.07667433493
595.625 -0.02205180206 0.04776428439
596.25 -0.03193246181 0.03923424405
596.875 -0.05283504663 0.03069992201
597.5 -0.05093439517 0.02410723071
598.125 -0.03533761469 0.02732048339
598.75 -0.02145358239 0.02546362463
599.375 -0.02313621769 0.007226410428
600.0 -0.02764248652 -0.01235999861
600.625 -0.04239023203 -0.02180869126
601.25 -0.06509858524 -0.01813281976
601.875 -0.06982235327 -0.006112704138
602.5 -0.06354642798 0.006024730572
603.125 -0.06397955696 0.01201752237
603.75 -0.06115731772 0.01459833856
604.375 -0.04258902127 0.006425562202
605.0 -0.03168965117 -0.005622404852
605.625 -0.03938699034 -0.01798707755
606.25 -0.05041016139 -0.02222497781
606.875 -0.0458971601 -0.007613177608
607.5 -0.02752107127 0.01073208102
608.125 -0.01131096158 0.009384926888
608.75 -0.007503584509 0.001892115207
609.375 -0.001309328235 0.0005123480469
610.0 0.009023438081 -0.001025894597
610.625 0.01590397926 -0.009992225018
611.25 0.01681196307 -0.01932207475
611.875 0.01545363199 -0.02374407352
612.5 0.007106256165 -0.02527899532
613.125 -0.006016395763 -0.01784544398
613.75 -0.01022788275 -0.001662838351
614.375 -0.002394540715 0.008478779775
615.0 0.004718311515 0.00578195957
615.625 -0.00241234299 0.002456856917
616.25 -0.01024368114 0.01401379478
616.875 -0.003661450963 0.02922549527
617.5 0.006229841538 0.02977547824
618.125 0.006009036086 0.02423720568
618.75 0.003415684507 0.02757336409
619.375 0.004596116717 0.03523428951
620.0 0.01431405545 0.03011593945
620.625 0.02006964134 0.007884442458
621.25 0.006962269311 -0.004026678763
621.875 -0.0172005732 -0.01404962232
622.5 -0.04185359093 0.01891831954
623.125 -0.0372055219 0.05024812218
623.75 -0.03108143619 0.06633340578
624.375 -0.04296656532 0.0571346507
625.0 -0.05728911372 0.03891374377
625.625 -0.06121294054 0.05431432248
626.25 -0.05360189736 0.07391495237
626.875 -0.03635618398 0.06673607816
627.5 -0.031445942 0.04867046545
628.125 -0.04340351022 0.03717558066
628.75 -0.05680467002 0.02034720662
629.375 -0.03991408143 0.01052059462
630.0 -0.02777415982 0.003668186182
630.625 -0.02899482476 -0.01908582859
631.25 -0.02623992669 -0.05017782388
631.875 -0.02195436389 -0.06094403037
632.5 -0.03795992085 -0.05812883254
633.125 -0.04901820064 -0.07427299164
633.75 -0.05554282736 -0.07236525601
634.375 -0.05209833945 -0.07158559208
635.0 -0.07275146659 -0.05813688851
635.625 -0.08850278739 -0.04813469245
636.25 -0.06325298079 -0.0411358093
636.875 -0.04744373018 -0.05200259384
637.5 -0.06710597129 -0.06926558391
638.125 -0.07595461342 -0.06712772572
638.75 -0.05011257345 -0.04165176382
639.375 -0.01627341409 -0.04122741252
640.0 0.02771395989 -0.06714804788
640.625 0.0652161937 -0.06613054307
641.25 0.05092202842 -0.05866005724
641.875 0.04460405582 -0.05966630563
642.5 0.07545949723 -0.05800621959
643.125 0.09908673954 -0.02133790339
643.75 0.08147356434 -0.02120411283
644.375 0.07010831261 -0.05252360422
645.0 0.07655977771 -0.05278319981
645.625 0.07656548725 -0.0179088571
646.25 0.0735926449 -0.006328599738
646.875 0.09057876054 -0.02617184978
647.5 0.1007982064 -0.02956790075
648.125 0.0805971182 -0.01001488202
648.75 0.07914608794 0.02366301175
649.375 0.09826785553 0.04741275026
650.0 0.09616665993 0.07188823916
650.625 0.07476463594 0.06958515118
651.25 0.06143557996 0.08314971545
651.875 0.01653869142 0.1192932148
652.5 -0.02274451602 0.09854123058
653.125 -0.02124112808 0.07803952403
653.75 -0.03233364464 0.07033562155
654.375 -0.07586972297 0.02549299794
655.0 -0.06455820738 -0.02611737888
655.625 -0.07115500589 -0.01967438904
656.25 -0.1024084186 0.008346560508
656.875 -0.1285122804 0.02015483479
657.5 -0.1141775884 -0.01453281975
658.125 -0.1129485579 -0.003254007163
658.75 -0.1429330655 0.04143177231
659.375 -0.125565943 0.07081787822
660.0 -0.07854131327 0.08257828033
660.625 -0.04863618978 0.08962875276
661.25 -0.04821536137 0.1042894224
661.875 -0.03485090151 0.08730605086
662.5 -0.01672391322 0.07620313659
663.125 -0.03165827635 0.08100959236
663.75 -0.09129061244 0.04355177445
664.375 -0.0938134682 -0.02893956586
665.0 -0.07778022404 -0.06045360884
665.625 -0.07861384783 -0.1030601806
666.25 -0.01908748553 -0.1426676975
666.875 0.00952407239 -0.1225609209
667.5 0.002093090127 -0.1210597587
668.125 0.002520795305 -0.1431380112
668.75 0.02799638584 -0.1093596451
669.375 0.02989815413 -0.07147182561
670.0 0.03065061062 -0.08002801688
670.625 0.05175366289 -0.1064862788
671.25 0.0458599259 -0.09499876312
671.875 0.03186753539 -0.08790417905
672.5 -0.0159039414 -0.1073759284
673.125 -0.04546380369 -0.1351582151
673.75 -0.05168581155 -0.1242910842
674.375 -0.03844226022 -0.1175324067
675.0 0.01384378759 -0.1247000664
675.625 0.06178830971 -0.09970322707
676.25 0.07210996378 -0.06977286896
676.875 0.07735132767 -0.06690703938
677.5 0.1020533641 -0.03103519141
678.125 0.07650071862 0.01312120206
678.75 0.0751901697 0.02834682296
679.375 0.1063261108 0.02929170086
680.0 0.1498991466 0.0473907442
680.625 0.1225141002 0.03637213524
681.25 0.1160257283 -0.01899156996
681.875 0.1214048198 -0.0861533812
682.5 0.1151191455 -0.1343946382
683.125 0.08714396438 -0.0950172027
683.75 0.07316306439 -0.06585259783
684.375 0.1146908843 -0.0217236261
685.0 0.09478768317 0.07086818649
685.625 0.01998703312 0.09423298646
686.25 -0.03194099989 0.07439545095
686.875 -0.07911643231 0.05772728995
687.5 -0.1104996877 0.01952466402
688.125 -0.1274581456 0.0198354285
688.75 -0.1604173018 0.01575395576
689.375 -0.1545928986 -0.01671008585
690.0 -0.126466969 -0.01357545577
690.625 -0.1279512782 0.01612499951
691.25 -0.1519614354 0.07451193728
691.875 -0.1084671434 0.08668487542
692.5 -0.0122595614 0.07942644116
693.125 0.04515070118 0.0647306064
693.75 0.1146721596 0.0715968809
694.375 0.1138549371 0.111206199
695.0 0.04713467077 0.1108734771
695.625 -0.02010523448 0.1203906059
696.25 -0.1426251768 0.05436637116
696.875 -0.126656927 -0.1028913113
697.5 -0.0321782654 -0.136695043
698.125 -0.01054188512 -0.1309161318
698.75 0.004250952672 -0.1158302419
699.375 0.01899886976 -0.09337317307
700.0 0.04255406154 -0.08826664495
700.625 0.09183931881 -0.0670155084
701.25 0.09076192159 -0.0274617643
701.875 0.08707837684 -0.03435746031
702.5 0.07609142724 -0.1101309582
703.125 0.01855976331 -0.198690874
703.75 -0.08486258971 -0.1231677816
704.375 -0.1063400755 -0.02834168741
705.0 -0.1143332681 -0.01360070897
705.625 -0.1087368836 -0.1108451954
706.25 0.02314367179 -0.109862956
706.875 0.06002151842 -0.04580075679
707.5 0.07683534519 -0.005145585605
708.125 0.07151001091 0.08257198127
708.75 -0.002293337795 0.1178442659
709.375 -0.05438260213 0.08860246567
710.0 -0.0879156757 0.05875992715
710.625 -0.1092698499 0.01776486202
711.25 -0.122515643 -0.0155184641
711.875 -0.1397657334 0.002725802337
712.5 -0.1270790595 0.05776431217
713.125 -0.03428287758 0.1041006315
713.75 0.05005012983 0.0755854712
714.375 0.08408357249 0.0558662086
715.0 0.07768901709 0.06301929747
715.625 0.0395206295 0.06200161352
716.25 0.01318503207 0.07338375865
716.875 -0.02594300236 0.1068972806
717.5 -0.1104457005 0.07422083394
718.125 -0.09993269413 0.02795356837
718.75 -0.08671403675 0.02045067894
719.375 -0.1028617611 -0.003535522711
720.0 -0.08403617508 -0.07909008096
720.625 0.006019044643 -0.100941867
721.25 0.06763555487 -0.05317929178
721.875 0.07400571539 0.01292872873
722.5 0.04033639021 0.03862044893
723.125 0.0312368701 0.04575022071
723.75 0.06615238904 0.0319623967
724.375 0.07677717536 -0.02602057087
725.0 0.03512374451 -0.05893949054
725.625 0.006744024086 -0.07113214335
726.25 -0.002023916572 -0.08411500366
726.875 0.01590087414 -0.08213458903
727.5 0.0221072419 -0.06110932801
728.125 0.03221054737 -0.03872787141
728.75 0.04203300877 -0.02049198247
729.375 0.0436751231 -0.02003656254
730.0 0.02968519742 -0.02584394385
730.625 0.02171961515 -0.01434194241
731.25 0.02299236771 0.00699346097
731.875 0.006484957727 0.0246910288
732.5 -0.01679658086 0.02601790226
733.125 -0.02801875843 0.02651642169
733.75 -0.01553975429 0.0338676769
734.375 0.002123245934 0.0278810512
735.0 0.01293550842 0.01079802639
735.625 0.01309470891 -0.001183720966
736.25 0.006187654008 -0.01768453902
736.875 -0.01516737665 -0.02814995326
737.5 -0.03435740646 -0.02244073263
738.125 -0.03949355947 -0.01024154029
738.75 -0.02491243542 0.004873365286
739.375 0.004638661614 0.006413272601
740.0 0.01828114033 -0.01718365794
740.625 0.0002590739012 -0.02857613699
741.25 -0.002495846667 -0.02316579974
741.875 0.02019411723 -0.01298266159
742.5 0.02066490602 0.02309421842
743.125 -0.01241125769 0.0321163129
743.75 -0.03238607536 0.02450870073
744.375 -0.04868167193 0.02408357537
745.0 -0.06396953525 0.02893286779
745.625 -0.05523567226 0.06178465621
746.25 -0.004901390296 0.08677808981
746.875 0.0446407604 0.06267605511
747.5 0.04237532623 0.02352244151
748.125 0.02923058725 0.01168611847
748.75 0.03750066686 0.006532271218
749.375 0.04266230375 -0.0271193759
750.0 -0.004161406305 -0.05173252917
