!Created with skrf (http://scikit-rf.org).
# GHz S RI R 50.0 
!freq ReS11 ImS11
500.0 -0.01612875101 0.03049190898
500.625 0.02503885425 0.0367271898
501.25 0.03654674372 0.02683097843
501.875 0.02883513195 0.03252065619
502.5 0.01831017218 0.04917629643
503.125 0.03954174252 0.03504544848
503.75 0.05555861334 0.0124754417
504.375 0.05383132885 -0.006210185842
505.0 0.05012928805 -0.03547590255
505.625 0.05937876639 -0.06098954681
506.25 0.04095526975 -0.07114174384
506.875 0.07327198974 -0.05840873153
507.5 0.04802918525 -0.07106321067
508.125 0.09047510677 -0.04549663747
508.75 0.04471445047 -0.08282599689
509.375 0.02476924775 -0.07365682038
510.0 0.05807140184 -0.06937698051
510.625 -0.03133016501 -0.07952084414
511.25 -0.05283206628 -0.05904257747
511.875 -0.06528098872 -0.007930286274
512.5 -0.04626855769 0.02349706383
513.125 -0.01854338692 0.05818720587
513.75 -0.007643167254 0.06524848492
514.375 0.01751290148 0.07179651818
515.0 0.05971755108 0.08361169518
515.625 -0.01194006145 0.1261678635
516.25 0.06861496063 0.1053306009
516.875 -0.01000236018 0.150753816
517.5 0.09255123557 0.122545233
518.125 -0.04574214913 0.1858122574
518.75 0.05866127018 0.05968589681
519.375 0.05454619775 0.07900560803
520.0 0.09540745054 0.06119136589
520.625 0.10033665 0.03632722451
521.25 0.09232927766 0.008739015785
521.875 0.07339715328 0.03340578151
522.5 0.1020008383 -0.01285039409
523.125 0.1644717369 -0.05386013297
523.75 0.1613440734 -0.1224726524
524.375 0.1585084153 -0.06732431172
525.0 0.04750707436 -0.009971633905
525.625 0.03537063153 0.005229189382
526.25 0.0511256599 0.02404668036
526.875 0.0605762218 0.01553513578
527.5 0.04892329323 -0.001194538948
528.125 0.0426690741 -0.02956609511
528.75 0.04892495209 -0.06095957594
529.375 0.009162653475 -0.09106205139
530.0 -0.01435198727 -0.04689379732
530.625 -0.0375483172 -0.04800157125
531.25 -0.08525139131 -0.1365948191
531.875 -0.1327782863 -0.1245560904
532.5 -0.1454635302 -0.04211487689
533.125 -0.1121718192 -0.006873648293
533.75 -0.1347374905 0.0005525678508
534.375 -0.1079715284 -0.00557076935
535.0 -0.09524162311 0.02561903408
535.625 -0.06950894074 -0.002639493144
536.25 -0.06762452219 0.01139855462
536.875 -0.07652432689 -0.02697139708
537.5 -0.0927482546 -0.05045556729
538.125 -0.1114205763 -0.01045962894
538.75 -0.1070489172 0.003030842099
539.375 -0.08077628484 -0.01403374327
540.0 -0.09372189949 -0.03267890316
540.625 -0.1264370824 -0.04358682691
541.25 -0.1074484633 -0.06565580703
541.875 -0.08617736541 -0.05018187349
542.5 -0.09473849829 -0.05447122345
543.125 -0.1369836475 -0.01603441736
543.75 -0.1155526494 0.07341512634
544.375 -0.06443503863 0.08666744476
545.0 0.01796552602 0.09381376974
545.625 0.03800256645 0.0949430861
546.25 0.07307189759 0.06986557376
546.875 0.07766603924 0.06150649405
547.5 0.09049881642 0.07576097995
548.125 0.06833373313 0.1054578133
548.75 0.04884109634 0.09514824561
549.375 0.04576695753 0.1049779822
550.0 -0.008398066475 0.1097929798
550.625 -0.01576170429 0.06141173284
551.25 -0.02836456438 0.01982698096
551.875 -0.04348723742 0.01761496609
552.5 -0.07909757351 0.03406076014
553.125 -0.07012760097 0.02744993928
553.75 -0.06902707896 0.02582711346
554.375 -0.06912435234 0.05879960754
555.0 -0.07001400515 0.08617193249
555.625 -0.05764611604 0.08065725377
556.25 -0.06012446721 0.06681858058
556.875 -0.07732384135 0.08031186837
557.5 -0.07752822377 0.08330027903
558.125 -0.07859956418 0.08496694334
558.75 -0.07549897909 0.05642711508
559.375 -0.06677503414 0.05784971706
560.0 -0.0410363946 0.03508555861
560.625 -0.03809581367 0.02416974631
561.25 -0.05599139229 0.021831366
561.875 -0.07379121308 0.04164303319
562.5 -0.05266583941 0.0605479077
563.125 -0.02390579492 0.08543118588
563.75 0.01158527545 0.1136073208
564.375 0.02494795222 0.1169948921
565.0 0.0275685418 0.1039696336
565.625 0.03929026592 0.08572065533
566.25 0.01336936365 0.09349595455
566.875 -0.0318089356 0.08538104356
567.5 -0.04374280324 0.06795354564
568.125 -0.05400339849 0.07355136924
568.75 -0.06007012532 0.06405730225
569.375 -0.04684500885 0.04173280516
570.0 -0.03908763098 0.01587637637
570.625 -0.05356343421 0.01992973722
571.25 -0.06140769542 0.01383839154
571.875 -0.04765313106 0.01826667619
572.5 -0.06109968235 0.03691467613
573.125 -0.06737712542 0.08675063089
573.75 -0.02985400134 0.1115564041
574.375 0.0162520261 0.08434090734
575.0 0.02019770167 0.07778786495
575.625 0.01413397599 0.1013845168
576.25 0.008922774769 0.09757629063
576.875 0.03518253665 0.08432837431
577.5 0.05278100755 0.07540485366
578.125 0.04516109178 0.08635392357
578.75 0.02649870401 0.06799967037
579.375 0.03566322589 0.05757424497
580.0 0.03929929609 0.05416878298
580.625 0.02132580079 0.046496321
581.25 -0.007768582088 0.03889569799
581.875 -0.01918986898 0.05177989213
582.5 -0.01881953521 0.08575423324
583.125 -0.01898924642 0.08628072481
583.75 -0.01450640695 0.07715702357
584.375 -0.02783426222 0.06771927206
585.0 -0.05157963695 0.07686750081
585.625 -0.04299441412 0.06978023003
586.25 -0.02618950948 0.06682655246
586.875 -0.02787470793 0.06425693401
587.5 -0.03234811648 0.07428424894
588.125 0.007183225509 0.07269183639
588.75 0.0303747352 0.06139229066
589.375 0.03997194189 0.04523490641
590.0 0.01259585634 0.04344646511
590.625 0.003598396063 0.04756573126
591.25 0.01689533083 0.0667217175
591.875 0.04358573409 0.08224555071
592.5 0.05654602829 0.07768807509
593.125 0.05039635497 0.0574892391
593.75 0.04811046597 0.05901942206
594.375 0.02933451745 0.07928280303
595.0 0.005545557398 0.07310462573
595.625 -0.01058109466 0.052852544
596.25 -0.02243418214 0.0421486212
596.875 -0.04083333662 0.03540246128
597.5 -0.03913858923 0.03398567249
598.125 -0.02777652236 0.0360886845
598.75 -0.01275510392 0.02933255955
599.375 -0.01271842622 0.01070592197
600.0 -0.01783668095 -0.005851519218
600.625 -0.03514264335 -0.01532285333
601.25 -0.05685059259 -0.01255422074
601.875 -0.06168255652 -0.0007683912942
602.5 -0.05685674276 0.01136568071
603.125 -0.05812409227 0.01657434623
603.75 -0.05445433919 0.02030621584
604.375 -0.03822637754 0.01326454928
605.0 -0.02934527921 0.000222594791
605.625 -0.03719425099 -0.01281309004
606.25 -0.04885523982 -0.0154817398
606.875 -0.04627277526 -0.0008718380298
607.5 -0.02757449351 0.01565230512
608.125 -0.00967191582 0.01354634284
608.75 -0.005671404623 0.006422216817
609.375 -0.0008740873673 0.005020314094
610.0 0.008692663509 0.002506489698
610.625 0.01580812067 -0.006787756896
611.25 0.01659944751 -0.01626283801
611.875 0.01476708614 -0.02142120755
612.5 0.00667646496 -0.02347617662
613.125 -0.006561942011 -0.01634350758
613.75 -0.01031464775 -0.0004649661265
614.375 -0.002142529839 0.009381085005
615.0 0.005342309124 0.006393722574
615.625 -0.001405710177 0.002868179301
616.25 -0.00867442113 0.0143255167
616.875 -0.001428088319 0.02919970707
617.5 0.008761359996 0.02965502845
618.125 0.008712530345 0.02430489106
618.75 0.0065000275 0.02749927849
619.375 0.008865587467 0.03529670082
620.0 0.01931358031 0.0310237824
620.625 0.02442515723 0.007998920487
621.25 0.01142202126 -0.004237504829
621.875 -0.01143884188 -0.01406610899
622.5 -0.03551601733 0.0163949075
623.125 -0.03174394141 0.04808766524
623.75 -0.0257310338 0.06344329652
624.375 -0.03537863738 0.05575696447
625.0 -0.04986056642 0.04229348638
625.625 -0.05414137347 0.05720790849
626.25 -0.04530693012 0.07596470797
626.875 -0.02709496361 0.06964225798
627.5 -0.02493770235 0.05414182308
628.125 -0.03722667226 0.0419539926
628.75 -0.04949019724 0.02841462939
629.375 -0.03588887975 0.01997129332
630.0 -0.02629925178 0.01178492151
630.625 -0.02666775935 -0.01100157826
631.25 -0.02499908652 -0.03742123607
631.875 -0.02593656747 -0.05004011942
632.5 -0.03912931647 -0.05041787972
633.125 -0.04840933951 -0.06494139381
633.75 -0.0546175147 -0.05790476737
634.375 -0.05860079587 -0.05965629886
635.0 -0.07409231477 -0.04922271664
635.625 -0.08625978889 -0.03628636799
636.25 -0.06390963446 -0.02529410103
636.875 -0.05364060244 -0.04082868544
637.5 -0.06880834369 -0.05847680909
638.125 -0.07720905393 -0.05373715475
638.75 -0.05777734767 -0.02792308529
639.375 -0.02488715079 -0.03641254976
640.0 0.01729448265 -0.06096540612
640.625 0.04918451785 -0.0630224133
641.25 0.03575944448 -0.06101667448
641.875 0.03627607151 -0.06201404653
642.5 0.06239277164 -0.05793605597
643.125 0.08005904684 -0.03208054208
643.75 0.07340220491 -0.03456799448
644.375 0.06189347331 -0.05837777789
645.0 0.06207177069 -0.05520292752
645.625 0.05681221085 -0.02980909213
646.25 0.06519904007 -0.02013536205
646.875 0.08117074474 -0.03273319465
647.5 0.08603936148 -0.03476528282
648.125 0.06496195857 -0.02396274248
648.75 0.07479603998 0.0101764451
649.375 0.09397170525 0.03500464509
650.0 0.09138971244 0.05574256935
650.625 0.08060728199 0.05210687841
651.25 0.06767238622 0.07248217249
651.875 0.03004365141 0.1068212382
652.5 -0.004454872937 0.09420004357
653.125 -0.004509808867 0.08400681619
653.75 -0.01982761339 0.07279998963
654.375 -0.05556966206 0.03284478823
655.0 -0.05347915211 -0.005919419858
655.625 -0.06556000066 -0.005363350803
656.25 -0.09062522591 0.01570609503
656.875 -0.1059604958 0.02523365775
657.5 -0.09786911586 0.009975084391
658.125 -0.1069844606 0.0100806939
658.75 -0.1285471863 0.0500501486
659.375 -0.1031289678 0.07663386246
660.0 -0.0552993597 0.09562336355
660.625 -0.0343667091 0.09620368798
661.25 -0.02980800202 0.1019500411
661.875 -0.01041834038 0.0808009158
662.5 0.004863859154 0.07478458974
663.125 -0.01360190483 0.07742479302
663.75 -0.07214778809 0.04845635867
664.375 -0.07887454589 -0.007530778186
665.0 -0.08007270032 -0.0426812649
665.625 -0.07817112295 -0.08292642212
666.25 -0.03362037526 -0.1204988728
666.875 -0.01250610518 -0.1126976474
667.5 -0.01334442556 -0.1173773723
668.125 -0.01247662345 -0.1302086481
668.75 8.87707797e-05 -0.09562221319
669.375 0.008245010403 -0.07471068555
670.0 0.01725838461 -0.07828091805
670.625 0.03507860147 -0.1003332436
671.25 0.01839102625 -0.08337833882
671.875 0.009016852985 -0.08606651797
672.5 -0.02453254154 -0.09527865623
673.125 -0.05116112073 -0.1159972742
673.75 -0.06537610063 -0.1006776901
674.375 -0.05543387905 -0.1061057826
675.0 -0.003625714735 -0.1157098749
675.625 0.03935938218 -0.09572050987
676.25 0.05099053338 -0.08234567011
676.875 0.06327586244 -0.07562837535
677.5 0.08241716913 -0.04194494485
678.125 0.05793090814 -0.004280728984
678.75 0.06763894318 0.008016257383
679.375 0.09859307623 0.01889520054
680.0 0.1331292001 0.03263374835
680.625 0.1076268939 0.0107418713
681.25 0.1062851507 -0.03581659133
681.875 0.1074771287 -0.09109787792
682.5 0.09054208285 -0.1290081255
683.125 0.05544243526 -0.1062445639
683.75 0.05929789249 -0.07931364313
684.375 0.1040189533 -0.03652638373
685.0 0.09119851016 0.04766948995
685.625 0.04327524804 0.07836403557
686.25 -0.01306971634 0.07120824087
686.875 -0.05943680591 0.05686001872
687.5 -0.08790991385 0.02635169464
688.125 -0.1111423962 0.03504728787
688.75 -0.1433693423 0.02686713472
689.375 -0.1379068843 0.0009422105258
690.0 -0.1149499756 0.009946807159
690.625 -0.1219846388 0.03246353058
691.25 -0.1331376533 0.08365030636
691.875 -0.07673400148 0.09273506346
692.5 0.01815849069 0.07731781936
693.125 0.05545552529 0.05095846233
693.75 0.1070542093 0.05108402054
694.375 0.1018496093 0.0769310515
695.0 0.06392470895 0.08657071668
695.625 -0.004595731685 0.112567367
696.25 -0.1221016594 0.06016119593
696.875 -0.1190727958 -0.07079130353
697.5 -0.05310501715 -0.1218902497
698.125 -0.02544794048 -0.1227022358
698.75 -0.01248201173 -0.1036438668
699.375 -0.006367922083 -0.08519389501
700.0 0.02257296888 -0.08807470126
700.625 0.07127272989 -0.07290599105
701.25 0.06947966078 -0.03403286935
701.875 0.06460354712 -0.04478510768
702.5 0.05768158932 -0.1071414291
703.125 -0.005874799362 -0.1806954316
703.75 -0.09658311214 -0.09529230616
704.375 -0.1097502111 -0.002763256729
705.0 -0.107546503 0.004061994688
705.625 -0.1107119728 -0.08058438594
706.25 -0.009586187015 -0.09825001804
706.875 0.04455905066 -0.06085564943
707.5 0.06450792574 -0.01902908659
708.125 0.06644739963 0.05693939384
708.75 0.01925851914 0.09405748887
709.375 -0.03545258729 0.09046454089
710.0 -0.07139468486 0.06183044586
710.625 -0.08888802693 0.02683779143
711.25 -0.1075425911 0.008348219625
711.875 -0.130798295 0.0228721032
712.5 -0.1122024056 0.07077200124
713.125 -0.01054983512 0.1019774703
713.75 0.07031860234 0.05907595568
714.375 0.09085981621 0.02975587669
715.0 0.07925128756 0.03579001409
715.625 0.04323153639 0.03683049353
716.25 0.0252222725 0.0555628911
716.875 -0.007589583337 0.09226873963
717.5 -0.08320897916 0.07839991748
718.125 -0.0809111147 0.04326010252
718.75 -0.07444236863 0.03238156254
719.375 -0.08883566007 0.01104314744
720.0 -0.08355793395 -0.05470952818
720.625 -0.01548979354 -0.0948866575
721.25 0.05597405791 -0.06396088495
721.875 0.07118689361 -0.004546073026
722.5 0.04571571108 0.01574407081
723.125 0.03666458334 0.02270371786
723.75 0.0586947412 0.01536048341
724.375 0.06019451195 -0.03032882019
725.0 0.02019252904 -0.05189665118
725.625 -0.004504482686 -0.06123122442
726.25 -0.01204639815 -0.07452774482
726.875 0.002881173045 -0.07646891176
727.5 0.008453713778 -0.06076130347
728.125 0.0201932427 -0.0430900043
728.75 0.02980125235 -0.02576294928
729.375 0.03167566806 -0.02330411886
730.0 0.02001449777 -0.02771987374
730.625 0.01433983992 -0.01655831792
731.25 0.0173131542 0.001880050913
731.875 0.006114437363 0.01732563729
732.5 -0.01280691032 0.02154126102
733.125 -0.0231121026 0.0243771523
733.75 -0.01081388977 0.03134292817
734.375 0.006152679798 0.02474913232
735.0 0.01439379413 0.006973983114
735.625 0.01286797496 -0.004624333034
736.25 0.004873348444 -0.02012550407
736.875 -0.01683665069 -0.02974201507
737.5 -0.03609273866 -0.02338720156
738.125 -0.04113032655 -0.01138853322
738.75 -0.02668557619 0.003109841878
739.375 0.002188731792 0.003751233225
740.0 0.01410981887 -0.01933392421
740.625 -0.00488423773 -0.02858367752
741.25 -0.00766553146 -0.02299974902
741.875 0.01597582259 -0.01642632068
742.5 0.02262630369 0.01730075881
743.125 -0.005863204014 0.03189292831
743.75 -0.02648051165 0.02711414995
744.375 -0.04105257985 0.02670820488
745.0 -0.05370586389 0.03333243122
745.625 -0.04573007733 0.06492331312
746.25 0.00341412014 0.08507132536
746.875 0.05029223002 0.05600589747
747.5 0.04739621105 0.01406334867
748.125 0.03376540027 0.00364395862
748.75 0.03645242856 -0.001556735213
749.375 0.03393746172 -0.03128299495
750.0 -0.01619616916 -0.04376996749
