!Created with skrf (http://scikit-rf.org).
# GHz S RI R 50.0 
!freq ReS11 ImS11
500.0 -0.03789421458 0.0143673836
500.625 -0.01359316887 0.03997275488
501.25 -0.01289379478 0.04058028102
501.875 -0.03604297987 0.06241037712
502.5 -0.0447032508 0.07194597407
503.125 -0.008364629539 0.06758888654
503.75 0.01984086209 0.05270443511
504.375 0.03776553673 0.0451451658
505.0 0.06118632268 0.02560063484
505.625 0.06985373783 0.01610713901
506.25 0.05068643585 0.0010081115
506.875 0.04628748398 0.03874867237
507.5 0.0539476075 0.04223739725
508.125 0.04184450105 0.06094362415
508.75 0.06031248216 0.03214685711
509.375 0.06889557591 0.03611727963
510.0 0.07711446232 0.06299777235
510.625 0.04751400077 -0.04645882365
511.25 0.02310996364 -0.04749303039
511.875 0.005868025634 -0.03747427026
512.5 0.0003272923975 -0.02870609616
513.125 -0.0332283021 -0.02627838297
513.75 -0.06706745154 -0.02025861721
514.375 -0.09150428843 0.01217462447
515.0 -0.07920690125 0.0512996989
515.625 -0.1064401056 0.01835983665
516.25 -0.06418453636 0.09349705036
516.875 -0.09863789481 0.02379865451
517.5 -0.03844412433 0.04929883004
518.125 -0.05550271401 -0.02380788459
518.75 -0.0598867428 0.02009171075
519.375 -0.07041531366 0.02083342808
520.0 -0.03029102063 0.05767060018
520.625 -0.02103143902 0.04352718607
521.25 -0.02120720346 0.054841465
521.875 -0.02540505935 0.0308662119
522.5 0.01287775971 0.03587997794
523.125 0.001388812067 0.03357726695
523.75 -0.0516383228 0.02742419772
524.375 -0.1063279681 -0.01116684925
525.0 -0.06860195631 0.01259128617
525.625 -0.07154865747 0.04134289479
526.25 -0.0808138983 0.03322155435
526.875 -0.04765591802 0.03898885168
527.5 -0.02741850262 0.06236688903
528.125 0.02093622025 0.07854721644
528.75 0.02770659 0.07723993169
529.375 0.05452700813 0.05713357249
530.0 0.09227546914 0.01889793403
530.625 0.1281519928 -0.09583769991
531.25 0.1562816154 -0.1204580539
531.875 0.08240513031 -0.1277439953
532.5 0.02125327923 -0.1135624308
533.125 0.0477672134 -0.1027264582
533.75 0.02099624006 -0.09223452546
534.375 0.01758978 -0.07833422024
535.0 0.009641880031 -0.06773443925
535.625 0.05729341486 -0.04515412081
536.25 0.02606338152 -0.07119427248
536.875 0.037209148 -0.1050671486
537.5 0.05261693151 -0.1077682433
538.125 0.01957924883 -0.07447625006
538.75 0.01619359886 -0.06236649263
539.375 0.0596409234 -0.07728809847
540.0 0.09140892983 -0.1297519757
540.625 0.07156276904 -0.1083232173
541.25 0.05216729761 -0.09152269978
541.875 0.05237060809 -0.1080222432
542.5 0.05072259339 -0.1115014297
543.125 -0.006622211776 -0.09196127027
543.75 -0.04102799649 -0.03719067814
544.375 -0.02869027596 -0.03913215719
545.0 -0.0421255828 -0.03569186882
545.625 -0.07124867723 -0.007754279924
546.25 -0.06823308743 0.01926319002
546.875 -0.06973811971 0.03468061888
547.5 -0.06733524943 0.01656436207
548.125 -0.07343865321 0.01604479402
548.75 -0.0720712371 -0.01496316152
549.375 -0.06236922194 -0.04772233168
550.0 -0.008954647753 -0.06885389688
550.625 -0.001328006102 -0.08598119582
551.25 0.03717618752 -0.1060773516
551.875 0.02031061928 -0.1263007889
552.5 -0.01525756261 -0.1082484756
553.125 -0.04944693861 -0.09594434931
553.75 -0.05693303744 -0.09915830475
554.375 -0.07244110901 -0.08113831109
555.0 -0.06847135289 -0.05579812778
555.625 -0.07293353932 -0.04355881809
556.25 -0.06860616141 -0.06402467414
556.875 -0.06588477718 -0.05460916244
557.5 -0.0546018927 -0.04658235212
558.125 -0.04036881326 -0.04059455939
558.75 0.002904606792 -0.04458663733
559.375 0.01132085409 -0.03522698716
560.0 0.03094757747 -0.06005335228
560.625 0.02290251277 -0.08918674443
561.25 -0.006402028552 -0.1029456067
561.875 -0.04702717413 -0.07630336807
562.5 -0.08011972931 -0.05061878107
563.125 -0.09946221888 -0.03083261659
563.75 -0.0850946549 0.001739105786
564.375 -0.06204819814 0.02674797102
565.0 -0.05863481656 0.01076565628
565.625 -0.06385206704 -0.01336531856
566.25 -0.04873513657 -0.04352588515
566.875 -0.04682063412 -0.04596790848
567.5 -0.04048440241 -0.05397986129
568.125 -0.01882646221 -0.05319845734
568.75 0.00527629438 -0.05422752127
569.375 0.0287717019 -0.05418411177
570.0 0.0343891897 -0.08088022579
570.625 0.02305417202 -0.08168583595
571.25 -0.00573310359 -0.0893421129
571.875 -0.0153207107 -0.09620777849
572.5 -0.0704732226 -0.09455142892
573.125 -0.08486456224 -0.05112102577
573.75 -0.0843874871 0.001929002371
574.375 -0.07698990257 -0.004179108394
575.0 -0.08914926338 -0.01983687086
575.625 -0.07713541225 0.002314836887
576.25 -0.06867681298 0.02368417558
576.875 -0.05981884115 0.02982792656
577.5 -0.05336574436 0.005116610787
578.125 -0.03676538293 -0.004356114762
578.75 -0.04055864319 -0.008215534777
579.375 -0.0480955434 -0.0152125557
580.0 -0.04722374264 -0.0351961538
580.625 -0.04971516883 -0.05354483795
581.25 -0.08211895306 -0.04363594722
581.875 -0.1001138428 -0.03320576405
582.5 -0.0885058009 -0.01725390834
583.125 -0.0764168873 -0.02535985676
583.75 -0.06623965803 -0.03165476119
584.375 -0.06411562618 -0.05200773815
585.0 -0.05664052993 -0.03917587079
585.625 -0.05149781809 -0.03768692219
586.25 -0.03715223018 -0.04719803645
586.875 -0.0369040517 -0.050109212
587.5 -0.046942118 -0.02593427437
588.125 -0.05080298296 -0.003155592255
588.75 -0.04943643884 -0.02212290686
589.375 -0.05090027316 -0.03590268474
590.0 -0.07225090951 -0.01494595219
590.625 -0.08842273423 0.02687098054
591.25 -0.08966850671 0.04920419155
591.875 -0.06388139791 0.04359725152
592.5 -0.03569670168 0.04125014201
593.125 -0.03655560474 0.03310295063
593.75 -0.04567958225 0.02111224289
594.375 -0.03950935232 0.0004810892844
595.0 -0.02124811098 -0.01725010733
595.625 -0.01367745284 -0.03434633366
596.25 -0.005674975065 -0.04489962655
596.875 -0.005366788266 -0.04296059921
597.5 0.005035261885 -0.03864409634
598.125 0.0120840911 -0.0376753274
598.75 0.01563588319 -0.04426196344
599.375 0.01147862889 -0.05666586073
600.0 0.009964167945 -0.07311943103
600.625 0.007396937552 -0.07894964475
601.25 -0.01204896762 -0.0688805747
601.875 -0.02841010255 -0.05213436339
602.5 -0.02922231644 -0.04221262749
603.125 -0.01906833657 -0.03351400351
603.75 -0.0102922137 -0.01803281997
604.375 0.001979753937 -0.01511726371
605.0 0.0113416228 -0.02467165103
605.625 0.007752554666 -0.02953635326
606.25 -0.0041410682 -0.01911100537
606.875 -0.006992546482 0.001011743358
607.5 0.008461964769 0.01375527536
608.125 0.0228397996 0.005818262656
608.75 0.02322590529 8.512062951e-05
609.375 0.02492663318 0.004963887751
610.0 0.03063011132 0.008258900739
610.625 0.03318526333 -0.0003535735287
611.25 0.0290407479 -0.009617683351
611.875 0.02147187289 -0.01363615523
612.5 0.008480673074 -0.01714165423
613.125 -0.007551750627 -0.01277640134
613.75 -0.01378567975 -0.0002732158906
614.375 -0.007652674744 0.005629266609
615.0 -0.002675797888 -0.0004861443064
615.625 -0.01202772556 -0.007641751368
616.25 -0.02203039503 0.0003496419464
616.875 -0.0164717814 0.01090351554
617.5 -0.006594481416 0.007664971545
618.125 -0.007139816633 -0.001935229796
618.75 -0.01025981565 -0.003929579272
619.375 -0.003814362237 -0.003099793089
620.0 0.008637004598 -0.01179706553
620.625 0.00582408205 -0.0340139846
621.25 -0.001407813221 -0.05212477325
621.875 -0.01869272766 -0.06738658969
622.5 -0.07364659746 -0.02756801428
623.125 -0.07484668358 0.002212923889
623.75 -0.06056309109 0.009109912025
624.375 -0.05170017025 -0.008135749314
625.0 -0.04041964245 -0.03164769246
625.625 -0.03879811696 -0.02314067271
626.25 -0.02989033444 -0.00159937325
626.875 -0.01144493344 -0.004873060519
627.5 0.008048691777 -0.02560969946
628.125 0.02332705449 -0.03210512708
628.75 0.02294882511 -0.02778083255
629.375 0.03206372808 -0.02725639023
630.0 0.05421991962 -0.03177175746
630.625 0.07326807209 -0.02590921061
631.25 0.07431412658 -0.03007595151
631.875 0.07063145502 -0.04256878699
632.5 0.06420203054 -0.04805580034
633.125 0.0602815232 -0.04278656202
633.75 0.05590010318 -0.04176729214
634.375 0.05684352286 -0.03963111247
635.0 0.04377089326 -0.0375196791
635.625 0.02791674437 -0.03468752607
636.25 0.04932548317 -0.02586710178
636.875 0.07060655064 -0.02221078994
637.5 0.0534053308 -0.02745664964
638.125 0.03142405846 -0.02335413873
638.75 0.04771658023 0.005376160065
639.375 0.06770873806 0.05334899576
640.0 0.05102623107 0.06407225583
640.625 0.05455614425 0.05045501719
641.25 0.05057387114 0.05175820725
641.875 0.02681912342 0.07061914129
642.5 0.007140660556 0.06717822013
643.125 0.006139631152 0.06742936278
643.75 0.002952482952 0.06973769474
644.375 -0.009144035525 0.06333415316
645.0 -0.01144868617 0.06731670231
645.625 -0.01788738583 0.08109542249
646.25 -0.005125750625 0.1003284751
646.875 -0.005367190726 0.0838551902
647.5 0.003658389358 0.07679359149
648.125 -0.01777561608 0.08351739838
648.75 -0.04576052087 0.09342280795
649.375 -0.03883265406 0.07319505507
650.0 -0.03545036426 0.06459606146
650.625 -0.05125350936 0.04057638255
651.25 -0.06343139127 0.004342804447
651.875 -0.04561953016 -0.01209700415
652.5 -0.03477106521 -0.02923515297
653.125 -0.01147797722 -0.05896743845
653.75 0.0271709739 -0.07565221917
654.375 0.04248316697 -0.08080396583
655.0 0.04692361949 -0.09772368364
655.625 0.04332948583 -0.1149507655
656.25 0.0195074437 -0.09920549895
656.875 -0.007384526834 -0.1030900779
657.5 0.003617200113 -0.1070537573
658.125 0.01264011643 -0.1104305625
658.75 -0.01851181866 -0.07185812964
659.375 -0.02651064775 -0.05739373099
660.0 -0.01609617311 -0.05810071769
660.625 -0.002231982507 -0.07168793652
661.25 -0.01677107435 -0.06246544347
661.875 -0.03821905089 -0.07032823382
662.5 -0.05915295689 -0.08695985716
663.125 -0.04020280948 -0.09836925857
663.75 -0.01749627807 -0.1027263377
664.375 0.04390918929 -0.1061510023
665.0 0.09916243903 -0.07481097006
665.625 0.09195212996 -0.03199714213
666.25 0.0894882412 -0.02066789035
666.875 0.0906531209 0.01189667531
667.5 0.06586915228 0.04760489049
668.125 0.04058772159 0.04374774684
668.75 0.04218822094 0.05472471128
669.375 0.0616500759 0.07439773082
670.0 0.04950634093 0.08597705879
670.625 0.04727429788 0.07061567829
671.25 0.05592443126 0.07306397959
671.875 0.09479844329 0.06678468648
672.5 0.109148574 0.01837229619
673.125 0.1001373549 -0.02639734153
673.75 0.08573203387 -0.007029618067
674.375 0.07334102869 0.0259725047
675.0 0.0503658131 0.04597756378
675.625 0.0403740895 0.06703559549
676.25 -0.0008410943973 0.09088599013
676.875 -0.04523776175 0.07408649573
677.5 -0.04521249485 0.07666430851
678.125 -0.04885875829 0.1074301051
678.75 -0.06359343367 0.1317324381
679.375 -0.06829220017 0.08998996776
680.0 -0.03203037882 0.09179956907
680.625 -0.01861257545 0.09827217531
681.25 -0.003664983653 0.1105385466
681.875 0.008105738817 0.07281387618
682.5 0.0263919938 0.05238631896
683.125 0.01394357442 0.06568393594
683.75 -0.02141118152 0.09194762244
684.375 -0.05749645451 0.06198396756
685.0 -0.0887617669 0.005698833056
685.625 -0.07987335654 -0.0634590882
686.25 -0.04613592411 -0.1134358386
686.875 -0.04010315698 -0.1185550692
687.5 -0.01786302057 -0.1412281613
688.125 0.00324831983 -0.1295329971
688.75 0.01203399593 -0.09302684847
689.375 0.0100448606 -0.08322332204
690.0 0.03224503211 -0.08733470904
690.625 0.05673617798 -0.07208276198
691.25 0.02505465813 -0.04927662937
691.875 0.007427569737 -0.06653202543
692.5 -0.05375133845 -0.09712659948
693.125 -0.1476627255 -0.05077264309
693.75 -0.1168627948 0.04811107481
694.375 -0.09793926109 0.07400279065
695.0 -0.1262436512 0.03214843062
695.625 -0.1061749001 -0.07577520672
696.25 -0.0009969529877 -0.1114495359
696.875 0.08138712049 -0.05812602509
697.5 0.08443459291 0.01446456622
698.125 0.05154642408 0.0390820935
698.75 0.0527841695 0.05864770949
699.375 0.04921380442 0.08884084745
700.0 0.02017853969 0.09587012889
700.625 0.002499634081 0.08308839375
701.25 0.007210518557 0.1078477231
701.875 0.03377901891 0.1377461398
702.5 0.06305019216 0.09794151772
703.125 0.07731595885 0.009354818857
703.75 0.06012047057 -0.02861382998
704.375 0.08653324128 -0.04282184853
705.0 0.1052393014 -0.01729623603
705.625 0.08158450321 0.003396159264
706.25 0.05573298681 0.05639307128
706.875 -0.02189251985 0.1020547381
707.5 -0.0927378046 0.07331690394
708.125 -0.1172732837 0.0323058039
708.75 -0.1080391355 -0.01149881281
709.375 -0.07108496323 -0.06290098652
710.0 -0.02470094352 -0.0808608014
710.625 0.01095582483 -0.09559031196
711.25 0.03473924934 -0.08148054065
711.875 0.01642465057 -0.05530545036
712.5 -0.00545555019 -0.03728663112
713.125 -0.01069553343 -0.05665893735
713.75 -0.06198001979 -0.07640867205
714.375 -0.08750443052 -0.03632512757
715.0 -0.08836571307 0.01639761621
715.625 -0.1111126159 0.02392171158
716.25 -0.1334230279 -0.03018485107
716.875 -0.07855365827 -0.06740107896
717.5 -0.03550032334 -0.07386500201
718.125 -0.009665571986 -0.07751034761
718.75 0.02287038498 -0.07935236233
719.375 0.03996962568 -0.05774236379
720.0 0.04915857582 -0.02529690078
720.625 0.03447915858 0.02032025772
721.25 -0.02267738662 0.03030179404
721.875 -0.05594088476 -0.009491535702
722.5 -0.07441489317 -0.03803154063
723.125 -0.1004705946 0.0004475474196
723.75 -0.05836525221 0.07079573442
724.375 0.01628762462 0.07712645822
725.0 0.0519885958 0.04539057718
725.625 0.05496031739 0.01658725947
726.25 0.03874054501 0.0002983306895
726.875 0.02193399752 0.006979561377
727.5 -0.001807387863 0.02589127344
728.125 -0.02860799332 0.03472308764
728.75 -0.02586617508 0.03880952355
729.375 -0.004058890504 0.03876860585
730.0 -0.002900131306 0.02864797341
730.625 -0.01758974804 0.02584330762
731.25 -0.02600390935 0.0183964399
731.875 -0.03085281714 0.002556234946
732.5 -0.02707154184 -0.009817903369
733.125 -0.01903072503 -0.005187681861
733.75 -0.005789862349 0.006555675069
734.375 0.008707973077 0.004808955212
735.0 0.01143956319 -0.006077213133
735.625 0.01197447496 -0.01112112185
736.25 0.008716903761 -0.02278975947
736.875 -0.007627832961 -0.02914417296
737.5 -0.02319174459 -0.01641858052
738.125 -0.02852582264 0.006725068591
738.75 -0.01991898965 0.03224382715
739.375 0.003417853447 0.04138406088
740.0 0.02218896385 0.02461125557
740.625 0.01815710792 0.01596877367
741.25 0.01351812586 0.02811894665
741.875 -0.007015722966 0.03673070498
742.5 -0.03765265601 0.01324760346
743.125 -0.03139918453 -0.0309386729
743.75 -0.006976896024 -0.0484652645
744.375 -0.006968819641 -0.05505391726
745.0 -0.02136354296 -0.05715680952
745.625 -0.04336593906 -0.03433010638
746.25 -0.02582410243 -0.001328703644
746.875 -0.00941353764 -0.009523578492
747.5 -0.02199084527 -0.02462030783
748.125 -0.04351423351 -0.01576384976
748.75 -0.04515477328 0.01897959741
749.375 -0.01240402966 0.05516252688
750.0 0.04751163661 0.05493016465
