!Created with skrf (http://scikit-rf.org).
# GHz S RI R 50.0 
!freq ReS11 ImS11
500.0 -0.008114369499 0.02659812453
500.625 0.02545765896 0.01791843123
501.25 0.03548456244 -0.001703086958
501.875 0.02652013644 -0.002640509842
502.5 0.0191003865 0.01938951516
503.125 0.02921859641 0.01034095863
503.75 0.03719963129 -0.01196569685
504.375 0.03326225974 -0.02380031493
505.0 0.02390497686 -0.03741090514
505.625 0.02258949548 -0.06032425742
506.25 0.0006363124322 -0.07669108356
506.875 0.0327679736 -0.0873145465
507.5 0.003692022227 -0.07630291369
508.125 0.034537044 -0.08305068209
508.75 -0.01351936254 -0.09598604258
509.375 -0.02938222253 -0.07042451233
510.0 -0.003071970958 -0.06942674709
510.625 -0.05644065831 -0.03441669061
511.25 -0.07312925985 -0.02555034101
511.875 -0.06233489044 0.02746396496
512.5 -0.02512640769 0.04915317098
513.125 0.0302333512 0.0630778597
513.75 0.04544934883 0.05608104482
514.375 0.05574883066 0.03432721627
515.0 0.07834539537 0.0134624813
515.625 0.0687834918 0.0904253328
516.25 0.1007812597 0.05097745207
516.875 0.052585906 0.1200835037
517.5 0.1389428719 0.05141413193
518.125 0.06828319433 0.2105873618
518.75 0.1000207475 0.01786411314
519.375 0.08179541657 0.02628591352
520.0 0.1118237557 -0.01580532714
520.625 0.1147329395 -0.0212393501
521.25 0.08958647948 -0.05082646123
521.875 0.0744419895 -0.01259221011
522.5 0.08207684676 -0.07765698219
523.125 0.1561522397 -0.1393811126
523.75 0.1129437443 -0.2338092914
524.375 0.1300620822 -0.2174053374
525.0 0.05469881933 -0.08370418518
525.625 0.03884169533 -0.04937828474
526.25 0.05220215011 -0.03526184231
526.875 0.04716312281 -0.05190800144
527.5 0.0342484667 -0.05723908073
528.125 -0.0004888503459 -0.05467557628
528.75 -0.01681900172 -0.07235008829
529.375 -0.08676356861 -0.06930215595
530.0 -0.07604135963 -0.005994440195
530.625 -0.0380423801 0.02002987051
531.25 -0.0863849185 -0.003336002275
531.875 -0.1605526324 0.007469387285
532.5 -0.1387742539 0.06312614833
533.125 -0.09260498447 0.06517468546
533.75 -0.06777884793 0.08694402692
534.375 -0.09290050926 0.08216385416
535.0 -0.06174095588 0.09235686217
535.625 -0.05991108749 0.05834147409
536.25 -0.01674431573 0.07088109752
536.875 -0.05950172579 0.05335256431
537.5 -0.08405097224 0.02268307992
538.125 -0.07937716394 0.05592705251
538.75 -0.08159563632 0.09877342818
539.375 -0.08015146395 0.06423472612
540.0 -0.07182111852 0.05360093068
540.625 -0.08578491976 0.056557801
541.25 -0.1115582884 0.05376301858
541.875 -0.09207606846 0.02218769896
542.5 -0.0791500502 0.008009361484
543.125 -0.0950551709 0.05761840587
543.75 -0.05233261193 0.1316709564
544.375 -0.009000480374 0.1325189536
545.0 0.07469537404 0.06821006375
545.625 0.1136430449 0.02942446914
546.25 0.1135927759 0.002554535303
546.875 0.1128138901 -0.01157230029
547.5 0.1245706691 -0.003861305899
548.125 0.1527696526 0.01787778595
548.75 0.119127582 0.05899202083
549.375 0.1257836671 0.06060736117
550.0 0.1041741366 0.1025886464
550.625 0.07291979912 0.1023224389
551.25 0.01753172775 0.07474826276
551.875 0.01946793564 0.04947053406
552.5 0.02111709946 0.06359537813
553.125 0.005530934931 0.07845444115
553.75 -0.009954642158 0.052499674
554.375 0.001226063518 0.06035869085
555.0 0.02140877655 0.08557662159
555.625 0.03043192208 0.09449572273
556.25 0.002277334796 0.08206904737
556.875 0.005868275131 0.0867666309
557.5 0.001024963865 0.1119374852
558.125 -0.004517794654 0.1195506903
558.75 -0.0342849713 0.1063448523
559.375 0.0005248879055 0.1079055558
560.0 -0.001772903804 0.09831278769
560.625 0.01778151389 0.06347168615
561.25 0.01314887786 0.0516042626
561.875 0.01117614956 0.06464616977
562.5 0.0204270263 0.0731877523
563.125 0.03675349003 0.0588897097
563.75 0.06468300497 0.05163660375
564.375 0.1077475336 0.05486646344
565.0 0.09950118653 0.07357973253
565.625 0.09690819337 0.04142530871
566.25 0.08570409513 0.04761421087
566.875 0.07412204563 0.07657109129
567.5 0.02647124712 0.0947490347
568.125 0.01802050683 0.09487797235
568.75 0.01689313561 0.111512341
569.375 0.009764196901 0.0969528019
570.0 0.007196966544 0.07820861706
570.625 0.01185070517 0.05969021374
571.25 0.01618985821 0.07277121777
571.875 0.00683284544 0.04987475211
572.5 0.0128753064 0.041163616
573.125 0.01841149326 0.06460458571
573.75 0.0701505254 0.08022802647
574.375 0.07578269361 0.05355573321
575.0 0.06877730982 0.02290325225
575.625 0.07228795744 0.02019824874
576.25 0.08498287684 0.05096594248
576.875 0.08121348765 0.04224352148
577.5 0.08611651609 0.02389152763
578.125 0.100598751 0.01475025205
578.75 0.1050832033 0.03473919374
579.375 0.08696571961 0.02219073307
580.0 0.08839512945 0.005693216869
580.625 0.08873561054 -0.00533519061
581.25 0.06338102681 -0.002970299522
581.875 0.03440731124 0.01779988419
582.5 0.04250847143 0.03331549894
583.125 0.06278603738 0.05822323706
583.75 0.05774173701 0.04987981648
584.375 0.04361906415 0.05134580022
585.0 0.0316470547 0.06324320491
585.625 0.03461007487 0.08473759816
586.25 0.03666302775 0.06422147051
586.875 0.03982820091 0.05181922533
587.5 0.0508085836 0.06163310528
588.125 0.07323985029 0.05094864446
588.75 0.0781430675 0.0273868716
589.375 0.07665712594 -0.01595055488
590.0 0.06533346271 -0.03243283222
590.625 0.0392823107 -0.006819419499
591.25 0.03371147288 0.01250825035
591.875 0.0548654144 0.01610939946
592.5 0.08448534447 0.002181427999
593.125 0.08467053078 0.005136727131
593.75 0.07219104335 0.009927549324
594.375 0.07584481307 0.02880720713
595.0 0.07111135206 0.05383803284
595.625 0.05073251488 0.05969123507
596.25 0.02870341179 0.05441751949
596.875 0.01740858728 0.0607545568
597.5 0.00545415459 0.06837617806
598.125 0.01908288986 0.06393114616
598.75 0.03613627746 0.04884464586
599.375 0.03580684602 0.03373203771
600.0 0.01971773896 0.01883750886
600.625 0.003150135856 0.008535931122
601.25 -0.01409509871 0.01491241037
601.875 -0.02603998473 0.02974637669
602.5 -0.02813076826 0.0340614973
603.125 -0.02872510655 0.03782201984
603.75 -0.02366927719 0.04767550505
604.375 -0.01939161667 0.0464836549
605.0 -0.01846842845 0.02840346675
605.625 -0.02733506151 0.01437444837
606.25 -0.04495187293 0.01520294626
606.875 -0.04965720794 0.02704700439
607.5 -0.02924587663 0.03874048417
608.125 -0.005443295573 0.03443304077
608.75 -0.002062575331 0.0263260573
609.375 -0.002048364679 0.02245331053
610.0 0.003990241309 0.016851358
610.625 0.01105539586 0.005061237043
611.25 0.01126328155 -0.007755441052
611.875 0.009095336196 -0.01696692487
612.5 0.002090278086 -0.02203382781
613.125 -0.009212663293 -0.01699901355
613.75 -0.01079697259 -0.002762045601
614.375 -7.934477307e-05 0.005752279307
615.0 0.009715295736 0.001259966981
615.625 0.005318995146 -0.003389940859
616.25 -0.0003119202646 0.006000542683
616.875 0.009928223901 0.01876471398
617.5 0.02386459639 0.0197444081
618.125 0.02561719384 0.01571786588
618.75 0.02536717068 0.01713523232
619.375 0.03379390176 0.02621370018
620.0 0.04835520389 0.02488691801
620.625 0.05141128958 -0.002116597574
621.25 0.04174258855 -0.01275096845
621.875 0.02445472622 -0.01737311759
622.5 -0.006596446316 -0.006307102968
623.125 -0.003511647444 0.02049889239
623.75 0.01037999541 0.0380427954
624.375 0.00914174542 0.04947046368
625.0 -0.008617795473 0.0503915002
625.625 -0.005425880975 0.06084949628
626.25 0.01417876361 0.08203697669
626.875 0.02380995364 0.08906302272
627.5 0.01721742805 0.0764398122
628.125 0.0107785112 0.06953101111
628.75 0.001598663318 0.07924234209
629.375 -0.01060889495 0.0768002107
630.0 -0.006527140748 0.060223234
630.625 -0.0106168063 0.04713125325
631.25 -0.02507904009 0.03387478493
631.875 -0.03786199598 0.01613021258
632.5 -0.04373075723 0.008482144733
633.125 -0.05473741659 0.008940885868
633.75 -0.06855828588 0.01574511327
634.375 -0.06879811294 0.01139963459
635.0 -0.07550793188 0.02384357611
635.625 -0.07857030267 0.0498533186
636.25 -0.07792653945 0.05072664628
636.875 -0.06136030234 0.03013964461
637.5 -0.07114716771 0.02369404528
638.125 -0.1008988647 0.03565465708
638.75 -0.09507159365 0.03067920577
639.375 -0.06935674528 0.01264541449
640.0 -0.05294698813 -0.01541560283
640.625 -0.05202610513 -0.05630804174
641.25 -0.03274116809 -0.06898957813
641.875 -0.03174694647 -0.06109376679
642.5 -0.02910766945 -0.0679383653
643.125 -0.008806867239 -0.0924518414
643.75 0.01389040221 -0.09145042958
644.375 -0.009435720137 -0.0862700443
645.0 -0.03599455639 -0.09102803571
645.625 -0.02129435696 -0.08926524708
646.25 -0.01048419368 -0.07171001192
646.875 0.005426914934 -0.07083255119
647.5 -0.007876499561 -0.0922784255
648.125 0.005111552546 -0.08268862695
648.75 0.01935449236 -0.05901215254
649.375 0.04863806034 -0.0465084257
650.0 0.08274275129 -0.04687438663
650.625 0.09406180396 -0.02388591571
651.25 0.0922639306 -0.008250910504
651.875 0.1018538325 0.02720074656
652.5 0.09820115223 0.08196892349
653.125 0.07611423979 0.08434830218
653.75 0.07135116608 0.07993541436
654.375 0.0548661362 0.08961686913
655.0 0.003467666135 0.08202927772
655.625 -0.01007976419 0.05538187698
656.25 -0.004145662172 0.0626739888
656.875 0.009570321894 0.08984256993
657.5 -0.02803551748 0.0825665803
658.125 -0.04050756226 0.07131370007
658.75 -0.03008095111 0.09367703752
659.375 0.007522368919 0.1368150997
660.0 0.03807728257 0.1224272008
660.625 0.064453492 0.09824833177
661.25 0.08985937749 0.08161561393
661.875 0.1096092736 0.06755013923
662.5 0.09689385562 0.03477208852
663.125 0.08518048721 0.03730512735
663.75 0.05933119005 0.0782697312
664.375 -0.02585901817 0.08105443033
665.0 -0.05260679749 0.04787940703
665.625 -0.07213204613 0.02939929279
666.25 -0.1128237883 -0.0008283175422
666.875 -0.1009630176 -0.06241066258
667.5 -0.09121948341 -0.06200891077
668.125 -0.1093550141 -0.04999554964
668.75 -0.1316927139 -0.04948760085
669.375 -0.09241510882 -0.04985665307
670.0 -0.06653736153 -0.0493792546
670.625 -0.08096465782 -0.05670536851
671.25 -0.1018515695 -0.05253317073
671.875 -0.08487316696 -0.02717368716
672.5 -0.08182795883 -0.007833112686
673.125 -0.09836775112 0.004103428521
673.75 -0.1209838022 -0.004610804023
674.375 -0.1182169436 -0.00950730751
675.0 -0.1152552026 -0.04537406267
675.625 -0.08568993614 -0.09515229513
676.25 -0.04165319892 -0.1101109852
676.875 -0.0417458891 -0.1098775374
677.5 -0.05257027033 -0.1167905103
678.125 -0.0106248503 -0.1078775474
678.75 0.007710895138 -0.06043029435
679.375 0.02614998352 -0.05424450123
680.0 0.0337698891 -0.08574698893
680.625 0.06178034712 -0.1063144819
681.25 0.03090257302 -0.0933000137
681.875 -0.002475968017 -0.1060859257
682.5 -0.07089561432 -0.1287545117
683.125 -0.07749663415 -0.1441232208
683.75 -0.04498079095 -0.1258554713
684.375 0.01195065549 -0.118089519
685.0 0.09892265968 -0.09674265192
685.625 0.1268861592 -0.01534598694
686.25 0.1095605927 0.02716180092
686.875 0.07489927708 0.05057659411
687.5 0.02708242483 0.0742826584
688.125 -0.005233390724 0.0756203281
688.75 -0.01836436752 0.0962193664
689.375 -0.03966146772 0.126828651
690.0 -0.06596694481 0.1071253513
690.625 -0.04381634128 0.1079771754
691.25 0.008456937376 0.1376621938
691.875 0.1114190738 0.1516452662
692.5 0.1374613164 0.05403045512
693.125 0.08095313421 -0.06572889351
693.75 0.03754240412 -0.09085210838
694.375 0.06488588297 -0.1150332954
695.0 0.1141861105 -0.0421057477
695.625 0.08930542908 0.03462176324
696.25 0.01910161327 0.09864987556
696.875 -0.09485579899 0.07702592977
697.5 -0.1290548769 -0.009881182912
698.125 -0.1257492925 -0.04078333156
698.75 -0.1295862752 -0.03816213778
699.375 -0.1077560744 -0.03994850078
700.0 -0.09086147084 -0.04305068949
700.625 -0.07803272267 -0.07419835078
701.25 -0.05018224781 -0.1007958241
701.875 -0.02975875195 -0.06471720864
702.5 -0.04591955127 -0.05486991526
703.125 -0.1121262925 -0.03595516038
703.75 -0.1728601605 0.05749246862
704.375 -0.09188575188 0.09955471218
705.0 -0.05103228458 0.09968602635
705.625 -0.08957561824 0.08670289265
706.25 -0.1557208094 -0.02068340339
706.875 -0.06037524908 -0.1039937594
707.5 -0.01535185211 -0.09129774141
708.125 0.03106552934 -0.07556311556
708.75 0.0813313299 -0.01884431376
709.375 0.06864417459 0.04942393603
710.0 0.03062359128 0.07572807081
710.625 0.003384868075 0.08005605814
711.25 -0.03079790575 0.0732403551
711.875 -0.03626967042 0.09390875455
712.5 0.001012318179 0.1359614847
713.125 0.1028362817 0.1060977813
713.75 0.1204058926 -0.02669738849
714.375 0.06524543138 -0.09920616233
715.0 0.03579398202 -0.1243094704
715.625 0.06479113423 -0.08519174828
716.25 0.05592270387 -0.03052627388
716.875 0.05752164813 0.00618903584
717.5 0.05762597843 0.06378311446
718.125 0.01915499174 0.09759983719
718.75 -0.002175628944 0.07726290476
719.375 -0.01757199692 0.06436059182
720.0 -0.06469253499 0.04737333685
720.625 -0.0924504081 -0.03740418637
721.25 -0.01960422063 -0.1030157942
721.875 0.04757632963 -0.0904754317
722.5 0.0589045701 -0.07625271026
723.125 0.01936368494 -0.07181042343
723.75 -0.008030309753 -0.05495532357
724.375 -0.0277231238 -0.04605343246
725.0 -0.04066694137 -0.02200677484
725.625 -0.03666087123 -0.008599100807
726.25 -0.04712753573 -0.01537105983
726.875 -0.05896605008 -0.04198845191
727.5 -0.05136668141 -0.05849086243
728.125 -0.03586986746 -0.05563143664
728.75 -0.03112887641 -0.04351495025
729.375 -0.026661456 -0.03631998485
730.0 -0.02410097462 -0.03575415714
730.625 -0.01964579485 -0.02849168481
731.25 -0.005452899429 -0.02349866322
731.875 0.008575253393 -0.01342655189
732.5 0.00690329367 0.005072971206
733.125 -0.001425755861 0.02043173946
733.75 0.008460946584 0.028747409
734.375 0.02161984575 0.02192174301
735.0 0.02368181297 0.001366783731
735.625 0.01775971239 -0.007664618859
736.25 0.008006833651 -0.01908604511
736.875 -0.0145004289 -0.02425586699
737.5 -0.03713912626 -0.01386017168
738.125 -0.04968973545 0.0002053949153
738.75 -0.04349743811 0.01388903984
739.375 -0.02274932058 0.01457894875
740.0 -0.01500997261 -0.003010272554
740.625 -0.02986509872 -0.004806080994
741.25 -0.03423922401 0.002086538898
741.875 -0.02649445516 -0.01677511561
742.5 0.01158949238 -0.02848553345
743.125 0.03209460541 0.003555746123
743.75 0.02459113674 0.02071638584
744.375 0.022925079 0.02413554995
745.0 0.01820770085 0.03337206122
745.625 0.02087829923 0.04531487558
746.25 0.05220120402 0.04414045581
746.875 0.07926813963 -0.004504326231
747.5 0.05777412047 -0.04350246986
748.125 0.02489285314 -0.05221036376
748.75 -0.00100340153 -0.05203195732
749.375 -0.03856602743 -0.04668954516
750.0 -0.06860808332 0.01426322983
