!Created with skrf (http://scikit-rf.org).
# GHz S RI R 50.0 
!freq ReS11 ImS11
500.0 -0.005617450434 0.02438857661
500.625 0.02584894108 0.01100929289
501.25 0.03137512405 -0.01186372673
501.875 0.02219442234 -0.01672405
502.5 0.01591428838 0.007018175638
503.125 0.0217893941 0.004714110723
503.75 0.02646331122 -0.01880906908
504.375 0.02259801435 -0.02979484595
505.0 0.01395892538 -0.03591035653
505.625 0.006995861812 -0.05876054655
506.25 -0.01737999236 -0.06834816895
506.875 0.01027714912 -0.09504608619
507.5 -0.01486526169 -0.07425934253
508.125 0.008528429456 -0.0860916952
508.75 -0.04487119807 -0.09414575607
509.375 -0.04855401884 -0.06600969603
510.0 -0.02379534005 -0.06244571419
510.625 -0.05959601822 -0.01382317929
511.25 -0.0820707208 -0.00613203562
511.875 -0.05919088473 0.03691325085
512.5 -0.01035119067 0.05311195778
513.125 0.05417433714 0.05103106085
513.75 0.06903057472 0.04720831593
514.375 0.06488599229 0.01862998859
515.0 0.07409582533 -0.01226368968
515.625 0.09498115088 0.05941462005
516.25 0.1134817096 0.02371922812
516.875 0.06945198047 0.1053196918
517.5 0.1418201725 0.01799697798
518.125 0.1302672766 0.2076546497
518.75 0.1127895805 -0.003065240663
519.375 0.08380308728 0.006218449078
520.0 0.09865548436 -0.04695158691
520.625 0.1200050596 -0.05277600957
521.25 0.081023242 -0.06994792579
521.875 0.06885552474 -0.02852022882
522.5 0.05831286497 -0.09613525671
523.125 0.1489531823 -0.1870303569
523.75 0.09074392407 -0.2590303002
524.375 0.09172107153 -0.2582945502
525.0 0.04224600191 -0.1143753065
525.625 0.03837660324 -0.07400262537
526.25 0.04725887375 -0.05277178897
526.875 0.02917744018 -0.07043805716
527.5 0.01624700768 -0.08295906502
528.125 -0.01741824201 -0.06168795789
528.75 -0.03850392702 -0.06750682832
529.375 -0.1167708375 -0.04095740699
530.0 -0.09885644438 0.02100658108
530.625 -0.03497494391 0.04288964273
531.25 -0.06504500839 0.03389214197
531.875 -0.1394965275 0.07618095832
532.5 -0.1301540583 0.1072656728
533.125 -0.07676343046 0.08875240911
533.75 -0.03517170617 0.09907032366
534.375 -0.05560841346 0.1226358525
535.0 -0.04880006391 0.1164831564
535.625 -0.0465726142 0.07515490201
536.25 0.01264734259 0.08110815022
536.875 -0.02751339172 0.08958132305
537.5 -0.08068200948 0.04878627959
538.125 -0.05923814225 0.0700214712
538.75 -0.04287080243 0.1269603206
539.375 -0.0695577285 0.1042352629
540.0 -0.05864064277 0.08223078923
540.625 -0.05608800305 0.08037945157
541.25 -0.07961559387 0.0997727114
541.875 -0.08853865927 0.06088666622
542.5 -0.06934803353 0.02645811865
543.125 -0.06559547262 0.0726008183
543.75 -0.01257832536 0.1456281439
544.375 0.01947424382 0.1424407292
545.0 0.09121537519 0.05386244911
545.625 0.11824715 -0.01152428136
546.25 0.1294375808 -0.03873447172
546.875 0.1121758865 -0.03774896936
547.5 0.1211446761 -0.03811119571
548.125 0.1559378224 -0.03327940176
548.75 0.1582235058 0.03331752007
549.375 0.1398998975 0.0403235424
550.0 0.133829018 0.0762277622
550.625 0.1234539222 0.09977474854
551.25 0.04205263394 0.09798532592
551.875 0.03897348901 0.05058481419
552.5 0.05368840022 0.0507078272
553.125 0.05823692582 0.07711798496
553.75 0.01347957898 0.06115545566
554.375 0.02024619789 0.05075729064
555.0 0.04954547885 0.06575757428
555.625 0.06861625019 0.08250817184
556.25 0.02800067134 0.08313286727
556.875 0.02727936481 0.07380980024
557.5 0.03817463434 0.1030132789
558.125 0.02417095966 0.1262760418
558.75 -0.01130126275 0.1158411483
559.375 0.02521932226 0.1083848145
560.0 0.0332698741 0.1152578323
560.625 0.03461879752 0.0748038582
561.25 0.03487190115 0.04726971216
561.875 0.04276413405 0.05551107155
562.5 0.05632014831 0.06134749617
563.125 0.05374435533 0.05106209679
563.75 0.06934459916 0.03040307198
564.375 0.1155136163 0.01365183005
565.0 0.1272145769 0.0522660662
565.625 0.1096280381 0.02519325749
566.25 0.09697524043 0.02518099251
566.875 0.102627956 0.05030350408
567.5 0.06032988309 0.09847654413
568.125 0.03702600941 0.09148310394
568.75 0.04710554988 0.1086451325
569.375 0.03928616492 0.1105115174
570.0 0.02943736025 0.09011468086
570.625 0.03055122138 0.0618661644
571.25 0.05075858262 0.06883454217
571.875 0.03517581032 0.06237706514
572.5 0.02808744221 0.03573496479
573.125 0.03595244373 0.04623749439
573.75 0.08963382821 0.04768664824
574.375 0.1042075815 0.03518353808
575.0 0.07494251846 0.008485972103
575.625 0.06978958555 -0.007495361825
576.25 0.1016265546 0.01270579531
576.875 0.09895927534 0.02185996528
577.5 0.08977771379 0.008560464077
578.125 0.1002355031 -0.01219274696
578.75 0.1259329506 -0.0009727474284
579.375 0.1032045766 0.007676915552
580.0 0.09384949182 -0.01225907657
580.625 0.09711215351 -0.03382802478
581.25 0.08188508468 -0.02964591941
581.875 0.04824633662 0.003090513399
582.5 0.04910857795 0.0130210589
583.125 0.08381436669 0.0282790961
583.75 0.08080955332 0.0370685363
584.375 0.05924080119 0.03742594272
585.0 0.05071750638 0.04627146407
585.625 0.06750326523 0.06733842045
586.25 0.05731103509 0.06408733453
586.875 0.05250410386 0.03996006594
587.5 0.07036222468 0.03815634495
588.125 0.09449009074 0.02623753458
588.75 0.09376185266 0.01588538113
589.375 0.076045192 -0.03402368993
590.0 0.05944780207 -0.06464298717
590.625 0.04639643393 -0.03702973898
591.25 0.03710743818 -0.003677016108
591.875 0.04911003003 -0.0006677024369
592.5 0.07660952024 -0.025498267
593.125 0.09061036782 -0.02207990093
593.75 0.07613492141 -0.006031897665
594.375 0.07876838756 0.008379704688
595.0 0.08970336279 0.03332014835
595.625 0.07205826981 0.05363671942
596.25 0.0461100583 0.05159630096
596.875 0.03741751396 0.05579093503
597.5 0.02998160515 0.07278279525
598.125 0.03612018408 0.06733517738
598.75 0.05364609381 0.04546269353
599.375 0.05546457137 0.03069610932
600.0 0.03872554683 0.02244965367
600.625 0.01600430902 0.01176852372
601.25 0.002100149048 0.01491958441
601.875 -0.006558949155 0.03295844536
602.5 -0.01351429444 0.04011802332
603.125 -0.01749050704 0.04146366915
603.75 -0.009552504299 0.05006413115
604.375 -0.004456937363 0.0542292177
605.0 -0.01031001644 0.0385428837
605.625 -0.0206619138 0.02205534748
606.25 -0.03754865179 0.02506806743
606.875 -0.04486420708 0.03933326266
607.5 -0.02582491195 0.04847090467
608.125 -0.0001653122798 0.04104480382
608.75 0.003621925116 0.03293036642
609.375 0.0008984753494 0.0297469649
610.0 0.004496967699 0.0230056897
610.625 0.01112823675 0.0101306868
611.25 0.01009985012 -0.00329070654
611.875 0.006447169397 -0.01403145567
612.5 -0.0008305568884 -0.02041506813
613.125 -0.01180755453 -0.01623198099
613.75 -0.01278014771 -0.003006855866
614.375 -0.001425560197 0.004266837894
615.0 0.008669005226 -0.001352598958
615.625 0.004976884193 -0.006855821589
616.25 -0.0002899227703 0.001975522254
616.875 0.01027256702 0.01327050803
617.5 0.02561978132 0.01264680841
618.125 0.02899184381 0.008710922102
618.75 0.02858173448 0.009629470268
619.375 0.03876559326 0.01669170777
620.0 0.05631088175 0.01448190241
620.625 0.05744361854 -0.01231957335
621.25 0.04777959855 -0.02278048938
621.875 0.03383808846 -0.0283843871
622.5 -0.001657116902 -0.02029496977
623.125 -0.0002660297283 0.006931821498
623.75 0.01513101699 0.02210359339
624.375 0.02314217413 0.03484494837
625.0 0.009658823236 0.04635553906
625.625 0.009989647041 0.05301667383
626.25 0.03297674481 0.06718254529
626.875 0.05055482223 0.08013878926
627.5 0.03899799973 0.07733034503
628.125 0.03051853826 0.06768951383
628.75 0.03090670094 0.07737286619
629.375 0.02017130901 0.09120175427
630.0 0.01024639407 0.07505862412
630.625 0.006799182771 0.05977795191
631.25 -0.003373374605 0.05561005707
631.875 -0.02515440744 0.04586883651
632.5 -0.03423192683 0.03143117175
633.125 -0.03959512283 0.03028627958
633.75 -0.0496768282 0.04718462562
634.375 -0.06088869832 0.04097388369
635.0 -0.05974546776 0.04654990084
635.625 -0.05387187213 0.07248596597
636.25 -0.0557859497 0.08790285937
636.875 -0.05534206084 0.05730929437
637.5 -0.05436818029 0.04551735443
638.125 -0.07820326829 0.07116055326
638.75 -0.09448112939 0.07114331918
639.375 -0.07899127602 0.03407905958
640.0 -0.06045462837 0.01044639714
640.625 -0.077111513 -0.01768807438
641.25 -0.07199299596 -0.0578149266
641.875 -0.05230058999 -0.05391821867
642.5 -0.05269115516 -0.04975877516
643.125 -0.05708042224 -0.07778161497
643.75 -0.02893785754 -0.105745257
644.375 -0.03285244076 -0.08648602405
645.0 -0.06936258012 -0.07284817063
645.625 -0.07472625332 -0.08451594082
646.25 -0.04868172147 -0.07807484151
646.875 -0.02358085885 -0.07237104314
647.5 -0.04728998732 -0.07823053049
648.125 -0.04200476421 -0.09300907596
648.75 -0.0060017182 -0.07253397648
649.375 0.01971045694 -0.06054400286
650.0 0.05013700096 -0.07472373636
650.625 0.08337972127 -0.06464705848
651.25 0.08815806989 -0.03431651252
651.875 0.1001304466 -0.01156459922
652.5 0.1339088912 0.03699916425
653.125 0.1122576651 0.07200159992
653.75 0.09602525144 0.06511876053
654.375 0.09633991533 0.06903202922
655.0 0.06395910084 0.09915806557
655.625 0.01588929287 0.07593271932
656.25 0.02486868745 0.0574529891
656.875 0.05808683384 0.06864431299
657.5 0.03086804477 0.0982663982
658.125 -0.01026728707 0.08720300271
658.75 0.001176815967 0.08473283441
659.375 0.06107216793 0.1120857203
660.0 0.09146155629 0.1143352145
660.625 0.09644474238 0.08439906694
661.25 0.1136561667 0.04728152079
661.875 0.1412658492 0.01790487866
662.5 0.132062245 0.005819779439
663.125 0.1067856029 0.006093047522
663.75 0.1010857035 0.04415093871
664.375 0.02390381673 0.1049020511
665.0 -0.03391990794 0.07951208229
665.625 -0.04739255382 0.05618239466
666.25 -0.08876407809 0.05919058319
666.875 -0.1371130854 -0.01039991517
667.5 -0.1100666559 -0.03550128021
668.125 -0.1136152748 -0.01201121698
668.75 -0.1472162083 0.01710291901
669.375 -0.14074318 -0.01739502689
670.0 -0.08989700826 -0.02950373905
670.625 -0.09617377501 -0.01884994387
671.25 -0.1292477365 0.005159262968
671.875 -0.1175314252 0.01290004251
672.5 -0.08258435939 0.03206549364
673.125 -0.08079788138 0.04630143473
673.75 -0.1148941671 0.0550109758
674.375 -0.1232108893 0.03326379977
675.0 -0.1231485576 0.002130495885
675.625 -0.1306643005 -0.05112780503
676.25 -0.09563233336 -0.1005030038
676.875 -0.07636287353 -0.1006008381
677.5 -0.1016903581 -0.08855655411
678.125 -0.09604719897 -0.1150854077
678.75 -0.02765599147 -0.08586777605
679.375 -0.002630283384 -0.06163847901
680.0 -0.01823071309 -0.07797100132
680.625 -0.02267851918 -0.1281906012
681.25 -0.007660478072 -0.1165195847
681.875 -0.03091896727 -0.09301962216
682.5 -0.1028453151 -0.08108174101
683.125 -0.1474091452 -0.09763478285
683.75 -0.09986708473 -0.1256600545
684.375 -0.02712774543 -0.1230406155
685.0 0.05182525074 -0.1363705708
685.625 0.1342260321 -0.07785206973
686.25 0.1342094134 -0.01634698089
686.875 0.112738997 0.01240973829
687.5 0.0806310103 0.05481759806
688.125 0.03914423961 0.07639528243
688.75 0.02139233649 0.0850853961
689.375 0.0281582363 0.119405287
690.0 -0.012813677 0.1449873672
690.625 -0.01236676887 0.1256395944
691.25 0.04589000779 0.1210219168
691.875 0.1625036912 0.08717664198
692.5 0.205288963 -0.004187752217
693.125 0.08042754467 -0.09946144206
693.75 -0.004233662992 -0.1049293315
694.375 -0.008691968458 -0.1376119727
695.0 0.09491430716 -0.1286759318
695.625 0.1115005164 0.0006050460642
696.25 0.05954904872 0.0754151996
696.875 -0.04381955612 0.1128074953
697.5 -0.1284310414 0.04925095883
698.125 -0.1381164464 0.004358262196
698.75 -0.1432655103 0.0153539044
699.375 -0.1364233793 0.006458439319
700.0 -0.1123985066 -0.01448525433
700.625 -0.1074621097 -0.03823879064
701.25 -0.1176996845 -0.07053981396
701.875 -0.07879324257 -0.05975532124
702.5 -0.06570480356 -0.03290226932
703.125 -0.09791043135 0.01185856982
703.75 -0.1181614076 0.1340541342
704.375 -0.0744093065 0.1545458105
705.0 -0.02610973892 0.1185053137
705.625 -0.04867817838 0.1113695658
706.25 -0.156707131 0.06314206108
706.875 -0.121347372 -0.1063832667
707.5 -0.04687119001 -0.09666948544
708.125 -0.008608062429 -0.09588738925
708.75 0.06427083795 -0.07527937193
709.375 0.09917953844 0.01344289022
710.0 0.06239614256 0.05812005605
710.625 0.04605738641 0.06994447191
711.25 0.01036649017 0.08369246241
711.875 -0.001149950296 0.09684113168
712.5 0.04518192467 0.1206215082
713.125 0.1459963798 0.06894934129
713.75 0.1306874631 -0.06888097967
714.375 0.04045273709 -0.1225170305
715.0 -0.01892146216 -0.1384656768
715.625 0.02408966383 -0.1413772689
716.25 0.06000837869 -0.06885989997
716.875 0.06086152586 -0.02210168028
717.5 0.0812039223 0.02331831485
718.125 0.07646354263 0.08142518659
718.75 0.03137603831 0.08532095471
719.375 0.008489849604 0.0669710975
720.0 -0.03493770971 0.06817059162
720.625 -0.103673302 0.00357397925
721.25 -0.05268991331 -0.1014981658
721.875 0.02234493637 -0.1078174907
722.5 0.03783763923 -0.1073654028
723.125 -0.003654511572 -0.09932602995
723.75 -0.039673146 -0.06122862299
724.375 -0.05583589372 -0.02922925904
725.0 -0.0554443008 0.004100529929
725.625 -0.04093012612 0.01288195421
726.25 -0.04545108401 0.00524205421
726.875 -0.06728044143 -0.01667091926
727.5 -0.07405107723 -0.04230521797
728.125 -0.05718567366 -0.05149405311
728.75 -0.05068621565 -0.03602016653
729.375 -0.04747454708 -0.02376092874
730.0 -0.04335262712 -0.02727812056
730.625 -0.033928219 -0.02637353196
731.25 -0.01786276668 -0.02630452578
731.875 0.00169807561 -0.02456216426
732.5 0.01129671234 -0.005571590162
733.125 0.006668483287 0.01511786312
733.75 0.01605667591 0.02363052863
734.375 0.02864374762 0.0165637551
735.0 0.02776044057 -0.004552287391
735.625 0.02015406288 -0.01234037587
736.25 0.009889538422 -0.02229276618
736.875 -0.01185706449 -0.02537315621
737.5 -0.03361905038 -0.01233294474
738.125 -0.04665702154 0.005267262186
738.75 -0.04246752131 0.02111701668
739.375 -0.02307229936 0.02314821995
740.0 -0.01505719477 0.008033058052
740.625 -0.02857775513 0.007482476201
741.25 -0.03360009344 0.01423550149
741.875 -0.03436585623 -0.00547672761
742.5 -0.004724273945 -0.03439701563
743.125 0.03442726124 -0.01453977135
743.75 0.03507874156 0.008272930095
744.375 0.03437619534 0.008076687273
745.0 0.03512279192 0.01311193591
745.625 0.03552028077 0.02439537271
746.25 0.05556650095 0.02439978013
746.875 0.06927757264 -0.02409167719
747.5 0.04281299255 -0.06148604656
748.125 0.01066365352 -0.06540827072
748.75 -0.020446671 -0.05444927923
749.375 -0.05895975139 -0.03000538063
750.0 -0.06774129744 0.04582058549
