!Created with skrf (http://scikit-rf.org).
# GHz S RI R 50.0 
!freq ReS11 ImS11
500.0 -0.006810881456 0.02472853916
500.625 0.02593477511 0.01695770252
501.25 0.0360022444 0.00116649637
501.875 0.02863722784 0.000888843992
502.5 0.01898830524 0.02209691665
503.125 0.03000491425 0.01242935531
503.75 0.03939876299 -0.01030356085
504.375 0.03565502578 -0.02307216897
505.0 0.02571654942 -0.03792927274
505.625 0.02255443686 -0.06194312262
506.25 0.004551580456 -0.07532682356
506.875 0.03655765576 -0.08636457459
507.5 0.00778903541 -0.07680033809
508.125 0.04019165905 -0.08215716389
508.75 -0.007354999243 -0.09527310336
509.375 -0.02426699841 -0.07164723082
510.0 0.003202439658 -0.07148470107
510.625 -0.05814137212 -0.04026545307
511.25 -0.07425334607 -0.0329996112
511.875 -0.06403934613 0.02055484654
512.5 -0.02452952696 0.04633449511
513.125 0.0274625773 0.06296669749
513.75 0.04209789555 0.05829868847
514.375 0.05140379788 0.0386626527
515.0 0.0797265713 0.02262254818
515.625 0.05959055928 0.09870718407
516.25 0.09873069165 0.05782705197
516.875 0.04756643743 0.1262636035
517.5 0.136801928 0.06172676289
518.125 0.05058908686 0.2127749607
518.75 0.09643442761 0.02434227267
519.375 0.07851311657 0.03212875642
520.0 0.1138064544 -0.00495647631
520.625 0.1132527175 -0.01389440741
521.25 0.09218114077 -0.04332642602
521.875 0.07610338728 -0.007627881871
522.5 0.08927149116 -0.0706372878
523.125 0.1604538903 -0.1272211958
523.75 0.1253896121 -0.2220049161
524.375 0.1415533901 -0.2018736593
525.0 0.05765126437 -0.072689193
525.625 0.04027026283 -0.04087455248
526.25 0.05449412155 -0.02776181182
526.875 0.05280401434 -0.04461608788
527.5 0.03901908317 -0.04911327994
528.125 0.005915215846 -0.05286461669
528.75 -0.008548872055 -0.07403714813
529.375 -0.0753622033 -0.07803376855
530.0 -0.06851004617 -0.01486216256
530.625 -0.03987539221 0.01047796811
531.25 -0.09349082164 -0.01939354862
531.875 -0.16451723 -0.01422639878
532.5 -0.1440411119 0.04984073424
533.125 -0.09781130158 0.05540534023
533.75 -0.07994716825 0.08133389479
534.375 -0.100412008 0.06855197075
535.0 -0.06835449116 0.08498771018
535.625 -0.06373998472 0.05034542376
536.25 -0.02672794455 0.06550040667
536.875 -0.06679116344 0.04012903282
537.5 -0.08804634478 0.01272813529
538.125 -0.08685061585 0.04884294239
538.75 -0.09272465562 0.08576310425
539.375 -0.08255341762 0.05143414109
540.0 -0.07846028061 0.04169173864
540.625 -0.09683931774 0.0446775619
541.25 -0.1202623481 0.03354257781
541.875 -0.09326833284 0.00826763873
542.5 -0.08417817578 -0.0006672719828
543.125 -0.1067098752 0.04914921098
543.75 -0.06628277661 0.1259391325
544.375 -0.02138206773 0.127523947
545.0 0.06720809088 0.07394407514
545.625 0.1074531753 0.04634889292
546.25 0.1086868178 0.01534895486
546.875 0.1115351175 0.002997526692
547.5 0.1236881176 0.01068262441
548.125 0.147159963 0.03954449643
548.75 0.1070334412 0.0672125332
549.375 0.1155423289 0.07281654382
550.0 0.0889235564 0.1117030027
550.625 0.0547840062 0.09976729094
551.25 0.007414964552 0.06655886704
551.875 0.008167045875 0.04751132649
552.5 0.005251258064 0.06635413957
553.125 -0.01415489646 0.07332482464
553.75 -0.02094080998 0.05032478051
554.375 -0.01008089013 0.0639991729
555.0 0.006541339233 0.09218871252
555.625 0.01281259335 0.09810154238
556.25 -0.01019345549 0.08095294341
556.875 -0.007958624441 0.09175508565
557.5 -0.01632704419 0.1122221651
558.125 -0.01946393635 0.118020649
558.75 -0.04519900638 0.09841192074
559.375 -0.01388889824 0.1056066649
560.0 -0.01509704363 0.08695656808
560.625 0.005997236936 0.05932592921
561.25 -0.001454860743 0.05098217125
561.875 -0.006446111331 0.06679838091
562.5 0.002650674489 0.0755714942
563.125 0.02709918325 0.0670988406
563.75 0.06005949911 0.0650938932
564.375 0.09820688404 0.07662704967
565.0 0.08577371439 0.08416982124
565.625 0.0886167655 0.05347670683
566.25 0.07596917935 0.06104256209
566.875 0.05348725695 0.08996385686
567.5 0.007291590056 0.0924477755
568.125 0.001818194758 0.09627249976
568.75 -0.004469723244 0.1094574084
569.375 -0.007196774641 0.08808792993
570.0 -0.01070487821 0.06709756584
570.625 -0.004789063627 0.05693765783
571.25 -0.01068430599 0.06954332662
571.875 -0.009042634175 0.04362447538
572.5 -0.005456415723 0.04771319317
573.125 0.001291288497 0.07856911688
573.75 0.0499148345 0.102068164
574.375 0.06073630157 0.06494621928
575.0 0.06190416392 0.03987718988
575.625 0.06976670026 0.04495643359
576.25 0.06850201389 0.0733731819
576.875 0.07187382185 0.0568149339
577.5 0.08190623446 0.03905205848
578.125 0.09678011734 0.03811018496
578.75 0.08451217711 0.05545314855
579.375 0.07591974278 0.03525478075
580.0 0.08080904776 0.0223137959
580.625 0.07736347333 0.01621185137
581.25 0.04808498068 0.01689588829
581.875 0.02186945057 0.03145692115
582.5 0.0343138816 0.05184904807
583.125 0.04264480884 0.07640410363
583.75 0.04220516837 0.0634980479
584.375 0.02594338499 0.06274753348
585.0 0.01381353638 0.07524268026
585.625 0.008611451526 0.09055136655
586.25 0.02140403716 0.06971857711
586.875 0.0243702864 0.06153909541
587.5 0.02978596369 0.07637369185
588.125 0.05547237058 0.06537934171
588.75 0.06832525687 0.03989680234
589.375 0.07370356418 0.001803275992
590.0 0.06294996805 -0.004063323839
590.625 0.03296132683 0.01330253713
591.25 0.03386583882 0.02831069036
591.875 0.05888644829 0.0331995946
592.5 0.08752440395 0.02611146032
593.125 0.07955236775 0.02473550412
593.75 0.06992004366 0.02449745696
594.375 0.07054143391 0.04666594472
595.0 0.05542803295 0.06683181095
595.625 0.03299710327 0.06491098575
596.25 0.01396831859 0.05539134227
596.875 -0.000364742603 0.06200122874
597.5 -0.01067246534 0.06306791924
598.125 0.004242504578 0.06181935024
598.75 0.02138488561 0.04885848486
599.375 0.02045366321 0.0334560124
600.0 0.006897626452 0.01531008023
600.625 -0.008517064696 0.00624791743
601.25 -0.0274586989 0.01317306068
601.875 -0.03929481201 0.0256997208
602.5 -0.03773696098 0.03048322291
603.125 -0.03764977637 0.03544874971
603.75 -0.03384670218 0.04478894754
604.375 -0.02833578736 0.0398998509
605.0 -0.02379140183 0.02178377962
605.625 -0.03220100046 0.008628765686
606.25 -0.04918252432 0.008363639237
606.875 -0.05175293177 0.01974749789
607.5 -0.03066358415 0.03278233408
608.125 -0.00815445735 0.02992552122
608.75 -0.004846863007 0.02192570176
609.375 -0.003336082671 0.01805097102
610.0 0.00397084514 0.01288605172
610.625 0.01120935053 0.001692045099
611.25 0.01186331675 -0.01042199948
611.875 0.01012403264 -0.01861868675
612.5 0.003124821916 -0.02280507241
613.125 -0.008417751737 -0.01696021099
613.75 -0.01024959344 -0.00206918636
614.375 1.323017276e-05 0.00699453179
615.0 0.009402853167 0.003091965132
615.625 0.004438783179 -0.001051709593
616.25 -0.001250096023 0.008975928911
616.875 0.008647483908 0.02253895494
617.5 0.02153742259 0.02389804345
618.125 0.02253814478 0.01956049139
618.75 0.02220777501 0.02147801361
619.375 0.02922892437 0.03121290607
620.0 0.04218214624 0.0296442451
620.625 0.046081397 0.002958189019
621.25 0.03571011277 -0.007749303207
621.875 0.01617603728 -0.01245974417
622.5 -0.0113608837 0.002214002987
623.125 -0.007177803326 0.02998955649
623.75 0.004969262987 0.04805297727
624.375 -0.001202861442 0.05618495427
625.0 -0.01917108302 0.05194859435
625.625 -0.01660360902 0.06484444948
626.25 0.0001991154849 0.08813729225
626.875 0.008686386609 0.08963728331
627.5 0.005695543432 0.07456747495
628.125 -0.001795055064 0.06795165161
628.75 -0.01582393626 0.07471718941
629.375 -0.02342320481 0.06456561248
630.0 -0.01488044448 0.05025834886
630.625 -0.01943301137 0.03609421615
631.25 -0.03338867218 0.01703550093
631.875 -0.04181887805 -0.001588761619
632.5 -0.04740919007 -0.006698138573
633.125 -0.06159062191 -0.007709980462
633.75 -0.07355586043 -0.00493169258
634.375 -0.07299245019 -0.005809404541
635.0 -0.08264784929 0.00573707914
635.625 -0.0905617041 0.0318257213
636.25 -0.08247873329 0.02744649486
636.875 -0.06600326384 0.01251114231
637.5 -0.07970300844 0.00494442802
638.125 -0.106905163 0.00967241611
638.75 -0.08936791394 0.01018945717
639.375 -0.06279649862 -0.003031125843
640.0 -0.04247362265 -0.03245823212
640.625 -0.02630000175 -0.07433040315
641.25 -0.01186750418 -0.07198064943
641.875 -0.01516769295 -0.06736001397
642.5 -0.007298274093 -0.07648855959
643.125 0.0254952281 -0.089825793
643.75 0.0374807129 -0.08083036252
644.375 0.01008555082 -0.08587176052
645.0 -0.007330969673 -0.09566197943
645.625 0.009365568869 -0.08055187144
646.25 0.01678528765 -0.06665552075
646.875 0.0273207291 -0.06735034676
647.5 0.02527913105 -0.09153426274
648.125 0.02903721531 -0.06903959672
648.75 0.04235591727 -0.04742492096
649.375 0.06911789034 -0.03100591665
650.0 0.1006480887 -0.01992756513
650.625 0.09594719793 1.842293634e-05
651.25 0.09448928536 0.01500073661
651.875 0.09493397583 0.05608226309
652.5 0.0673993257 0.09975287129
653.125 0.05379195251 0.09021830597
653.75 0.04716382254 0.08677532883
654.375 0.01828910771 0.09237363748
655.0 -0.02564267628 0.06001368115
655.625 -0.03029481917 0.04237977638
656.25 -0.03068846828 0.05964680068
656.875 -0.0316441985 0.09094478609
657.5 -0.05555298568 0.0653559701
658.125 -0.06506141008 0.05973064676
658.75 -0.05812797423 0.09393022483
659.375 -0.03493348487 0.1368503828
660.0 0.008577775448 0.1222817733
660.625 0.03702606043 0.1070640351
661.25 0.06067774347 0.1021350736
661.875 0.07237959606 0.09115582059
662.5 0.07589782483 0.05408969574
663.125 0.06183216476 0.05687471094
663.75 0.01714275689 0.09126621233
664.375 -0.05298037279 0.05875847849
665.0 -0.06796349776 0.02647091987
665.625 -0.08533202123 0.001893863422
666.25 -0.1110187693 -0.04987705447
666.875 -0.07675771581 -0.08673799686
667.5 -0.07531964417 -0.08440296507
668.125 -0.09668196528 -0.081183666
668.75 -0.09795383073 -0.08843608727
669.375 -0.06497813849 -0.06810158129
670.0 -0.04464936211 -0.06454744987
670.625 -0.05807799381 -0.0841919986
671.25 -0.06737624845 -0.08161377089
671.875 -0.06566109581 -0.05316416361
672.5 -0.07351432419 -0.03980314488
673.125 -0.1048200219 -0.03391928807
673.75 -0.1141170433 -0.03998662662
674.375 -0.1124288076 -0.04162234761
675.0 -0.09649027654 -0.07984422858
675.625 -0.05059341122 -0.1115988888
676.25 -0.0131778903 -0.1077863952
676.875 -0.01176052268 -0.1119168267
677.5 -0.01023739369 -0.1212524544
678.125 0.02599690176 -0.08108209182
678.75 0.02856955813 -0.04597219819
679.375 0.05042778492 -0.04333632183
680.0 0.07425059085 -0.07615281501
680.625 0.09465018609 -0.07137550806
681.25 0.0552115544 -0.08420783844
681.875 0.02309928251 -0.1131180555
682.5 -0.03578147538 -0.1535603335
683.125 -0.03231053408 -0.1491891374
683.75 -0.01174817135 -0.1240707504
684.375 0.03964319036 -0.1099026318
685.0 0.1182568347 -0.05977630337
685.625 0.1138055831 0.01562079554
686.25 0.08365090415 0.05407929412
686.875 0.04291573644 0.06808526927
687.5 -0.01065704201 0.07562757724
688.125 -0.03330813204 0.07456563169
688.75 -0.05366319145 0.09741934016
689.375 -0.08588122666 0.1131204488
690.0 -0.08785579958 0.08411145572
690.625 -0.06766755154 0.09855960766
691.25 -0.02322175509 0.1433064225
691.875 0.05716736233 0.1765290266
692.5 0.1034581978 0.0679380232
693.125 0.0856857487 -0.03893770418
693.75 0.06533086233 -0.0714971759
694.375 0.1073735611 -0.08015805561
695.0 0.1120048141 -0.002699302269
695.625 0.07539852588 0.05909213115
696.25 -0.01226712021 0.1072612036
696.875 -0.1183856486 0.04833756908
697.5 -0.1251027038 -0.04239461433
698.125 -0.1141869092 -0.06787315888
698.75 -0.1132592606 -0.06562959652
699.375 -0.08770626077 -0.05913031594
700.0 -0.07528555534 -0.06385849447
700.625 -0.05302355065 -0.09262144965
701.25 -0.01064705084 -0.1000548745
701.875 -0.006537016098 -0.06619047676
702.5 -0.03198929966 -0.07370136161
703.125 -0.1143481176 -0.07020328831
703.75 -0.1804111302 0.005583439924
704.375 -0.1011581463 0.07965657535
705.0 -0.06811588449 0.08612889256
705.625 -0.1126031125 0.06439970252
706.25 -0.1346772085 -0.06281496084
706.875 -0.03413630772 -0.1029361027
707.5 0.005832873789 -0.08350852473
708.125 0.05308803448 -0.05641391676
708.75 0.08130101382 0.01370233121
709.375 0.05117420205 0.06896268788
710.0 0.008679286561 0.08255193438
710.625 -0.02172229882 0.07983279741
711.25 -0.05103813661 0.06676415471
711.875 -0.0603698864 0.09140733334
712.5 -0.02894290966 0.1381056112
713.125 0.07646599049 0.1185312834
713.75 0.1161502454 -0.007093453691
714.375 0.08178128745 -0.08046726374
715.0 0.06785408839 -0.103247814
715.625 0.07423153029 -0.05197772221
716.25 0.05513725052 -0.01077671629
716.875 0.05361964246 0.02622742923
717.5 0.03539087941 0.08591474382
718.125 -0.01095078628 0.09692893017
718.75 -0.02037995024 0.07377738081
719.375 -0.03406112286 0.06119452698
720.0 -0.08022039248 0.03157982686
720.625 -0.08346370067 -0.05726683993
721.25 -0.001165246794 -0.1023068504
721.875 0.06013041696 -0.07801327817
722.5 0.06581152605 -0.05765013965
723.125 0.03058827844 -0.05681039846
723.75 0.01108985923 -0.04887142225
724.375 -0.01001063151 -0.0525493017
725.0 -0.03110148306 -0.03378537613
725.625 -0.03535777805 -0.02011010543
726.25 -0.04752175542 -0.0286024397
726.875 -0.05217053039 -0.05519431714
727.5 -0.03977730777 -0.06439719109
728.125 -0.0253825863 -0.05761763211
728.75 -0.01976531627 -0.04629458974
729.375 -0.0152769026 -0.04037574412
730.0 -0.01523544981 -0.03814334693
730.625 -0.01305002286 -0.02888797739
731.25 0.0002093502614 -0.02129944728
731.875 0.010769866 -0.00802715527
732.5 0.004704245054 0.009471559936
733.125 -0.004703874981 0.02262643223
733.75 0.005510602769 0.03054100364
734.375 0.01914491161 0.02335786764
735.0 0.02221463078 0.002879877838
735.625 0.01677862665 -0.006773614398
736.25 0.00701044322 -0.01885429739
736.875 -0.01587501539 -0.02461573593
737.5 -0.03840158624 -0.0150987569
738.125 -0.04991280193 -0.002106725984
738.75 -0.04229411313 0.01099614186
739.375 -0.02052761129 0.01063893425
740.0 -0.01286911378 -0.008381118379
740.625 -0.02866334745 -0.01042502661
741.25 -0.03279024154 -0.003499047665
741.875 -0.02110988184 -0.02073263634
742.5 0.01779006387 -0.02333394213
743.125 0.02903861433 0.01105631389
743.75 0.01830451978 0.02563794828
744.375 0.01531953864 0.03027111109
745.0 0.007860949379 0.04031268763
745.625 0.01291580976 0.05379722629
746.25 0.04890200821 0.05367598311
746.875 0.08127184973 0.006294183514
747.5 0.06152064099 -0.0337311354
748.125 0.03088007221 -0.04538100133
748.75 0.008593322235 -0.04805319553
749.375 -0.02651271126 -0.05134591197
750.0 -0.06472235754 0.0003164083412
