!Created with skrf (http://scikit-rf.org).
# GHz S RI R 50.0 
!freq ReS11 ImS11
500.0 -0.03170001205 0.02470452191
500.625 0.002026476065 0.04785196827
501.25 0.007854062891 0.04814079194
501.875 -0.003866334491 0.06601701216
502.5 -0.01480594953 0.07976109446
503.125 0.01673633725 0.07021910826
503.75 0.04070446809 0.04966011912
504.375 0.0545461871 0.03156299411
505.0 0.07454510991 -0.002747718711
505.625 0.08935870253 -0.01300876551
506.25 0.06593290649 -0.02623448817
506.875 0.07992477775 0.007091914778
507.5 0.08628330286 -0.001376053078
508.125 0.08325526432 0.04042431671
508.75 0.08307003736 -0.01202919532
509.375 0.07770988732 -0.01632177782
510.0 0.1124867469 0.008015846006
510.625 0.03356308974 -0.07449378168
511.25 -0.002215364187 -0.0696162747
511.875 -0.0308449937 -0.04261271411
512.5 -0.03234892885 -0.02513960437
513.125 -0.04890602223 0.005247363724
513.75 -0.06486122081 0.02415961274
514.375 -0.0637653048 0.06708684923
515.0 -0.04702845044 0.1056978043
515.625 -0.1045500315 0.0756155833
516.25 -0.0186332976 0.1299513667
516.875 -0.1088394948 0.1030519954
517.5 -0.01836267309 0.113331066
518.125 -0.1020060437 0.04622070603
518.75 -0.02012979886 0.06434644695
519.375 -0.05250323264 0.08505337346
520.0 0.006282798009 0.08881316418
520.625 0.01872417042 0.07187860291
521.25 0.03471212015 0.06421505029
521.875 0.001245315231 0.06846119817
522.5 0.05033004458 0.04038357786
523.125 0.08439242554 0.04257136953
523.75 0.07795402672 0.0279794872
524.375 -0.007116129285 0.05761281956
525.0 -0.02489905453 0.03128253235
525.625 -0.02039109293 0.05271867923
526.25 -0.02670252893 0.0746542867
526.875 -0.01096477575 0.06110195693
527.5 0.01476434405 0.05716759246
528.125 0.05822178469 0.0394853616
528.75 0.08183891526 0.03579592888
529.375 0.0811948167 0.002711807271
530.0 0.06491897916 -0.02738438269
530.625 0.04272248217 -0.1264088552
531.25 0.09408719733 -0.198327387
531.875 0.01334624435 -0.1858092708
532.5 -0.04964798444 -0.1195681163
533.125 -0.05714259978 -0.1166816076
533.75 -0.04003469882 -0.1142216449
534.375 -0.04575005453 -0.08580561106
535.0 -0.04850606834 -0.05748214096
535.625 -0.01059957947 -0.06963203411
536.25 -0.02061322267 -0.07444675405
536.875 -0.02300192164 -0.1034076682
537.5 -0.02133926536 -0.1226338495
538.125 -0.04477330947 -0.09731886579
538.75 -0.03897689063 -0.06908430484
539.375 -0.009439835044 -0.08697872966
540.0 -0.01892691775 -0.1413035672
540.625 -0.01085916822 -0.1602227649
541.25 -0.004025941964 -0.1153567258
541.875 -0.02134690711 -0.1179155673
542.5 -0.02939426833 -0.1358296764
543.125 -0.07425098022 -0.1067605921
543.75 -0.08906149783 -0.02140925616
544.375 -0.07243616288 0.008233710087
545.0 -0.07125830538 0.03051722284
545.625 -0.05785030879 0.0540043617
546.25 -0.03653596498 0.07359229674
546.875 -0.01649163883 0.08096582029
547.5 -0.04169255253 0.09568584574
548.125 -0.04214916754 0.07292645571
548.75 -0.05717069089 0.05391124184
549.375 -0.07332453013 0.04713416731
550.0 -0.06460136719 -0.01600879279
550.625 -0.03636625273 -0.03950497342
551.25 -0.01703133816 -0.07384825357
551.875 -0.06060643394 -0.09200496405
552.5 -0.066577824 -0.091714685
553.125 -0.08346726298 -0.05829748083
553.75 -0.08997962692 -0.05914846881
554.375 -0.1177847436 -0.03186433985
555.0 -0.1101889632 -0.01884452636
555.625 -0.09180957295 0.002642139672
556.25 -0.1041410666 -0.01047945106
556.875 -0.1081181251 -0.01855254814
557.5 -0.09937903664 -0.008526666793
558.125 -0.07880637776 -0.00674411892
558.75 -0.06431946572 -0.03142096941
559.375 -0.0322999471 -0.03118405953
560.0 -0.02065454189 -0.04222774265
560.625 -0.0281323057 -0.06616467544
561.25 -0.06702091349 -0.07350758629
561.875 -0.08113324704 -0.05252929092
562.5 -0.09504667196 -0.004260849933
563.125 -0.1029754692 0.03935719175
563.75 -0.09665856004 0.06674659322
564.375 -0.05637718212 0.0727996802
565.0 -0.05040975576 0.06298201787
565.625 -0.05207228802 0.0566317512
566.25 -0.08082272313 0.0154937116
566.875 -0.06935148646 -0.004901061017
567.5 -0.07252897068 -0.01034399941
568.125 -0.0701923763 -0.02279452888
568.75 -0.04769623153 -0.03376764376
569.375 -0.01537059009 -0.04544656073
570.0 -0.01980419704 -0.06066016253
570.625 -0.03233171899 -0.08150680558
571.25 -0.04328851613 -0.06521131953
571.875 -0.05645461676 -0.06816006265
572.5 -0.103609342 -0.04015086517
573.125 -0.1306202966 -0.0109662911
573.75 -0.08643138894 0.04558550402
574.375 -0.06583013152 0.05171807514
575.0 -0.08333367711 0.05650118285
575.625 -0.08464215455 0.05265110758
576.25 -0.05993602109 0.06237403221
576.875 -0.0375877899 0.07187764845
577.5 -0.03988271792 0.07144850424
578.125 -0.04245628453 0.03705811896
578.75 -0.03469096418 0.03115196994
579.375 -0.03628409785 0.03300994083
580.0 -0.04804058688 0.02233623219
580.625 -0.05924293089 -0.00667124556
581.25 -0.07448403597 -0.001439052238
581.875 -0.09646819355 0.02458004063
582.5 -0.09995058551 0.02914618853
583.125 -0.08854959792 0.02795838345
583.75 -0.07560187067 0.01503832016
584.375 -0.09072279111 0.005672774344
585.0 -0.08511550022 -0.01388982784
585.625 -0.07541269951 0.001959264771
586.25 -0.06537829669 -0.004598576242
586.875 -0.07187656467 -0.01199941678
587.5 -0.06758887288 -0.0001967661169
588.125 -0.0480743839 0.03531218627
588.75 -0.04179900081 0.03413727607
589.375 -0.05660440989 0.01866387958
590.0 -0.06210433408 0.01919539467
590.625 -0.06163868798 0.05463591984
591.25 -0.05321568497 0.08733836771
591.875 -0.04850579285 0.09323104711
592.5 -0.0197676058 0.07221166218
593.125 -0.01109302703 0.0625318023
593.75 -0.02484313523 0.06427977064
594.375 -0.04411049547 0.04349471587
595.0 -0.03851148254 0.0145313665
595.625 -0.03311146415 -0.003005161111
596.25 -0.03984357688 -0.02313877571
596.875 -0.03496692189 -0.02952982308
597.5 -0.02921107925 -0.02848362631
598.125 -0.02072905113 -0.02405881185
598.75 -0.01625436939 -0.03125498961
599.375 -0.01170979095 -0.04226698114
600.0 -0.01818730772 -0.05748685088
600.625 -0.02724044058 -0.07167915833
601.25 -0.04142610689 -0.06693699781
601.875 -0.05130185456 -0.04417820573
602.5 -0.05364523433 -0.03053542865
603.125 -0.04917815708 -0.02986484076
603.75 -0.03337022384 -0.02140885768
604.375 -0.01739969921 -0.01633028747
605.0 -0.00977521417 -0.02716400856
605.625 -0.01229930836 -0.03852700135
606.25 -0.01794252067 -0.03158808607
606.875 -0.01858292149 -0.01021216831
607.5 -0.004310911897 0.003860056796
608.125 0.01020512377 -0.002092009911
608.75 0.01252724415 -0.006763444158
609.375 0.01682353396 -0.002814792708
610.0 0.02543856651 -0.0005855701812
610.625 0.03009217849 -0.00806079718
611.25 0.02797453023 -0.01502565977
611.875 0.02263219567 -0.01805095703
612.5 0.01139918881 -0.0196345323
613.125 -0.005331191114 -0.01389060463
613.75 -0.01174370732 0.0004869087767
614.375 -0.006118937751 0.008339688178
615.0 -0.001036238032 0.003916383938
615.625 -0.01040513432 -0.001180073765
616.25 -0.02077084466 0.008785585529
616.875 -0.01617105102 0.02088991833
617.5 -0.006647020354 0.0189883147
618.125 -0.008119081957 0.01174468958
618.75 -0.01332785112 0.01169279174
619.375 -0.01000999457 0.0128819531
620.0 0.00138595584 0.005569880207
620.625 0.0009678164685 -0.01357968963
621.25 -0.01095387846 -0.03244729169
621.875 -0.030157959 -0.04695615526
622.5 -0.07202565742 -0.001492273617
623.125 -0.07290219 0.03157323132
623.75 -0.0651493628 0.03611563729
624.375 -0.0618860116 0.0188799998
625.0 -0.06535551032 -0.006030655988
625.625 -0.07087055373 -0.00115302286
626.25 -0.05539324484 0.01664404752
626.875 -0.03515532533 0.01808926256
627.5 -0.02849893169 -0.003065711606
628.125 -0.02440308265 -0.02912085027
628.75 -0.01286213152 -0.03065731857
629.375 -0.004313821 -0.02601938787
630.0 0.008626666051 -0.03798649282
630.625 0.03371493955 -0.05505443197
631.25 0.04496452716 -0.06171486504
631.875 0.03695372421 -0.06858541881
632.5 0.02518578825 -0.0835210164
633.125 0.03382426569 -0.08115075897
633.75 0.02120674487 -0.08085903161
634.375 0.01969209708 -0.07891527659
635.0 0.00339368476 -0.08584449736
635.625 -0.005539058785 -0.06436550804
636.25 0.003770339407 -0.05604446
636.875 0.02751657648 -0.06925576215
637.5 0.02441624587 -0.08241290192
638.125 0.004185058075 -0.05860716978
638.75 0.01325061515 -0.03586428038
639.375 0.05757447208 -0.02005337049
640.0 0.08877210551 0.0173589593
640.625 0.0781677127 0.01058774479
641.25 0.07491592515 0.0002993338859
641.875 0.0808496157 0.0133649743
642.5 0.06699864198 0.05218098578
643.125 0.05393435369 0.05229667455
643.75 0.06172098414 0.04443103353
644.375 0.06655102607 0.04254556567
645.0 0.04737333629 0.05040829545
645.625 0.03827683698 0.06457207922
646.25 0.05944300997 0.06545030291
646.875 0.0707261495 0.07825105471
647.5 0.05966197982 0.05743591956
648.125 0.04699358099 0.06868074545
648.75 0.03352309571 0.09504824528
649.375 0.01534088849 0.1121956642
650.0 0.0134796312 0.09086097182
650.625 -0.001891759621 0.08614645335
651.25 -0.03680814859 0.08280891848
651.875 -0.06289929409 0.04414386537
652.5 -0.05364727796 0.02607376567
653.125 -0.05190385018 0.004924026531
653.75 -0.05120732483 -0.04226925891
654.375 -0.01653341868 -0.0756580287
655.0 -0.01516415029 -0.08604047264
655.625 -0.04052119457 -0.09948596304
656.25 -0.06090372947 -0.1117066351
656.875 -0.07405426676 -0.08594256054
657.5 -0.06713480913 -0.08878898946
658.125 -0.08905954972 -0.09758724785
658.75 -0.09579816466 -0.08185489807
659.375 -0.09100780438 -0.02581809706
660.0 -0.07668197164 -0.007825804227
660.625 -0.08148558612 -0.01142646345
661.25 -0.0723645783 -0.02208394567
661.875 -0.07078929009 -0.001789996483
662.5 -0.07961027467 0.005471400447
663.125 -0.1012716034 -0.02485732366
663.75 -0.07442793507 -0.06962596686
664.375 -0.03915915459 -0.1012123787
665.0 0.002710820866 -0.1237487528
665.625 0.06518618645 -0.1190265133
666.25 0.07111086098 -0.084613145
666.875 0.08019542115 -0.07200115134
667.5 0.09717522654 -0.06289529875
668.125 0.09071169039 -0.02111006249
668.75 0.06916473572 -0.009985564005
669.375 0.07574885241 -0.005996100561
670.0 0.105967073 -0.00287706427
670.625 0.09640928823 0.01612325653
671.25 0.0928014025 -0.001032642097
671.875 0.09820885988 -0.02351315129
672.5 0.1032697924 -0.08522032647
673.125 0.06947478283 -0.1014767644
673.75 0.05234921832 -0.1001307034
674.375 0.0699187293 -0.07143896476
675.0 0.09172831038 -0.02586795678
675.625 0.08204828228 -0.001281868313
676.25 0.08009857605 0.02750988021
676.875 0.06565410294 0.06754511637
677.5 0.02419654622 0.07762807411
678.125 0.02654090944 0.08464450615
678.75 0.0412914502 0.1102153999
679.375 0.03754165336 0.1510228533
680.0 0.02926019568 0.1158574422
680.625 0.0595083011 0.09322639658
681.25 0.1017023853 0.07164172461
681.875 0.1294892741 0.06160688454
682.5 0.0980398535 0.01447175847
683.125 0.07601882819 0.008478302413
683.75 0.07885103789 0.03530201378
684.375 0.03688982719 0.0914065966
685.0 -0.02743858252 0.08081695467
685.625 -0.07649329349 0.02950993705
686.25 -0.100126953 -0.01882653309
686.875 -0.1015298818 -0.06368063833
687.5 -0.1043805233 -0.0811918072
688.125 -0.1126741263 -0.1027252488
688.75 -0.08410401639 -0.1176171736
689.375 -0.06567339683 -0.09020739034
690.0 -0.06671618746 -0.08461671523
690.625 -0.08133028916 -0.09609592603
691.25 -0.06610894493 -0.08699970689
691.875 -0.05918861474 -0.02327157284
692.5 -0.07063521961 0.003643112536
693.125 -0.08089298502 0.08993989978
693.75 -0.06201503393 0.1467308398
694.375 -0.02195784242 0.1249296291
695.0 -0.05280980825 0.1125616139
695.625 -0.1337267406 0.05666951689
696.25 -0.1091357046 -0.09854364428
696.875 0.007747164163 -0.1304747724
697.5 0.0708536042 -0.09110140781
698.125 0.08406938799 -0.05238121724
698.75 0.07110608118 -0.02874025141
699.375 0.08769779828 -0.007460096804
700.0 0.1030822389 0.02189962124
700.625 0.07373639823 0.06025779031
701.25 0.06834144869 0.0591673382
701.875 0.1091482806 0.05600074612
702.5 0.1714463109 0.0003768975209
703.125 0.1168331966 -0.05859801276
703.75 0.009051178145 -0.09677496271
704.375 -0.02766573314 -0.08390979288
705.0 -0.008487602962 -0.1266054846
705.625 0.06375293769 -0.08218120476
706.25 0.0719554588 -0.02377976685
706.875 0.05963599595 0.04234994561
707.5 0.01794648034 0.106511064
708.125 -0.06097387057 0.1062659415
708.75 -0.09327589088 0.07193262328
709.375 -0.1071787083 0.01896635017
710.0 -0.09519600302 -0.0425752331
710.625 -0.07609895566 -0.07380623744
711.25 -0.0633971925 -0.1025893989
711.875 -0.07181001761 -0.08882047919
712.5 -0.07318280111 -0.03398049289
713.125 -0.05865119162 0.0215761051
713.75 -0.05269169385 0.04780378019
714.375 -0.06250978151 0.07166944048
715.0 -0.04307173405 0.06868724973
715.625 -0.04195884117 0.07312294074
716.25 -0.08052786625 0.08064768401
716.875 -0.1359162804 0.02741368142
717.5 -0.09884891462 -0.03978270491
718.125 -0.07661154946 -0.04586625844
718.75 -0.07187099671 -0.06064433179
719.375 -0.04271984579 -0.09244338967
720.0 0.01147280221 -0.08621690417
720.625 0.0521987129 -0.04472329656
721.25 0.04947824501 0.01905557604
721.875 -0.007177887363 0.03973414745
722.5 -0.04473017216 0.03177853649
723.125 -0.05256647935 0.0623732858
723.75 0.009599005835 0.09651818768
724.375 0.06877800778 0.04789418254
725.0 0.07320345568 -0.01315858555
725.625 0.0627601021 -0.04325995055
726.25 0.05251194964 -0.04756608411
726.875 0.04207451726 -0.03154865203
727.5 0.03514505886 -0.01123032163
728.125 0.02817980377 0.0211423452
728.75 0.02170769099 0.0388640743
729.375 0.03154866784 0.027036996
730.0 0.02851090914 0.01190218099
730.625 0.01484807627 0.02097400584
731.25 -0.001696082984 0.03013651948
731.875 -0.02134389922 0.02322647851
732.5 -0.03359724057 0.009900944699
733.125 -0.03385012928 0.005630466648
733.75 -0.01894587843 0.01453849631
734.375 -0.001555727176 0.0119963906
735.0 0.005847443167 0.001050014787
735.625 0.008274255225 -0.006972681784
736.25 0.004866413714 -0.02175840549
736.875 -0.01243303536 -0.03168310622
737.5 -0.02735888813 -0.02349824914
738.125 -0.02890671857 -0.005866732348
738.75 -0.0133936218 0.01681653057
739.375 0.01550726919 0.02530200827
740.0 0.03286359407 0.003352965185
740.625 0.02270218838 -0.01236732679
741.25 0.02344740879 -0.002838757514
741.875 0.02144370796 0.02363840887
742.5 -0.01311424254 0.03426311224
743.125 -0.04118676973 0.007319678408
743.75 -0.04614725539 -0.02286968971
744.375 -0.05181293958 -0.03477689683
745.0 -0.06706401399 -0.0296755641
745.625 -0.08071371387 0.01151445178
746.25 -0.0486610047 0.047063357
746.875 -0.007070815865 0.03807519451
747.5 -0.006184659717 0.01752598095
748.125 -0.0172019747 0.02248887922
748.75 -0.005140668381 0.04344289734
749.375 0.03563394594 0.03268403928
750.0 0.05449336482 -0.01634582458
