!Created with skrf (http://scikit-rf.org).
# GHz S RI R 50.0 
!freq ReS11 ImS11
500.0 -0.03323048087 0.006515652727
500.625 -0.01877198734 0.03109688781
501.25 -0.02356380496 0.02972299186
501.875 -0.04894450785 0.05129924316
502.5 -0.06006259196 0.05124283768
503.125 -0.02229712444 0.0552172157
503.75 0.004498709547 0.04921944463
504.375 0.0194472878 0.04825460577
505.0 0.0442983408 0.03598105684
505.625 0.05138827342 0.02598342769
506.25 0.03330671909 0.01279417479
506.875 0.01320970213 0.04464494907
507.5 0.02160325705 0.05388916039
508.125 0.004087476234 0.06117134301
508.75 0.02889482372 0.05281375801
509.375 0.03920721584 0.06463072408
510.0 0.04105844958 0.07752859261
510.625 0.05137069843 -0.02153687264
511.25 0.03160346508 -0.02267527964
511.875 0.02450458714 -0.01654332537
512.5 0.01862596105 -0.01971255954
513.125 -0.01339583645 -0.04223667408
513.75 -0.04843680039 -0.05595355098
514.375 -0.08062221723 -0.03318744717
515.0 -0.0820959691 0.01270407744
515.625 -0.09205631104 -0.02441798452
516.25 -0.08188650064 0.04050648492
516.875 -0.06658185519 -0.01865705252
517.5 -0.03050269256 0.006455750343
518.125 -0.001889429145 -0.05309231883
518.75 -0.06098203486 -0.03241673257
519.375 -0.06165847994 -0.0177675876
520.0 -0.0470615839 0.01647558196
520.625 -0.03875285942 0.008565242202
521.25 -0.05441042048 0.01587343695
521.875 -0.03025810371 0.005118077543
522.5 -0.01729631757 0.01806718435
523.125 -0.04867387954 -0.00926031945
523.75 -0.1221982199 -0.03372788563
524.375 -0.1406880797 -0.07246846906
525.0 -0.09385382685 -0.01638256548
525.625 -0.09974610174 0.008438286026
526.25 -0.08923639344 -0.007639851376
526.875 -0.06545255599 0.01529491366
527.5 -0.06005606254 0.04965289091
528.125 -0.02206737011 0.08432062042
528.75 -0.01579341285 0.07781110929
529.375 0.02285360749 0.08381221686
530.0 0.09094996882 0.06670247598
530.625 0.1570323996 -0.03351038179
531.25 0.1768077148 -0.04843988513
531.875 0.1031446024 -0.06652370166
532.5 0.07983553501 -0.07442109069
533.125 0.08619797267 -0.04598301388
533.75 0.06452649718 -0.06628100533
534.375 0.05356974065 -0.04442044387
535.0 0.05700038378 -0.04907039746
535.625 0.07540395989 -0.005986375861
536.25 0.05737996713 -0.06121217074
536.875 0.07964120782 -0.07646653887
537.5 0.08903574904 -0.05826287924
538.125 0.04432442059 -0.04254149474
538.75 0.05305313684 -0.0396609214
539.375 0.1052964789 -0.03933234921
540.0 0.1447096415 -0.05935882619
540.625 0.0961165835 -0.05941262573
541.25 0.08477631786 -0.05264061631
541.875 0.0939198413 -0.06590006292
542.5 0.08058086082 -0.06052792736
543.125 0.02411568385 -0.05625369959
543.75 -0.004287003097 -0.03239478993
544.375 0.02530951034 -0.04127471295
545.0 -0.009478333976 -0.06099970838
545.625 -0.05088294854 -0.05708482427
546.25 -0.06570284233 -0.02679513161
546.875 -0.0746064901 -0.02708582878
547.5 -0.06343146804 -0.02612429535
548.125 -0.06994675703 -0.04763489902
548.75 -0.04556822661 -0.07611638095
549.375 -0.01489467316 -0.09427216149
550.0 0.03480863429 -0.08407451152
550.625 0.04867428646 -0.107910549
551.25 0.1001594397 -0.1023730103
551.875 0.06865636535 -0.102917992
552.5 0.02603515198 -0.1071508581
553.125 -0.006638239416 -0.1104451607
553.75 -0.003699436132 -0.1143253676
554.375 -0.02249794766 -0.08969172963
555.0 -0.03055256061 -0.06752327151
555.625 -0.03582736436 -0.0701495546
556.25 -0.02275746508 -0.0792899631
556.875 -0.02581590812 -0.06902774241
557.5 -0.01161967747 -0.04900729363
558.125 0.006943349357 -0.04786307563
558.75 0.0394576907 -0.02229653815
559.375 0.04627977663 -0.03169633643
560.0 0.07509945717 -0.04283966544
560.625 0.06962504984 -0.0807572791
561.25 0.03308975379 -0.0917435505
561.875 -0.01463819005 -0.08796852219
562.5 -0.04330880958 -0.08078479111
563.125 -0.05581373955 -0.06776054212
563.75 -0.0579312041 -0.02874852498
564.375 -0.0499252628 -0.0113964754
565.0 -0.04197216231 -0.03487299868
565.625 -0.03174187673 -0.06228100223
566.25 -0.01256626308 -0.0655413471
566.875 -0.01232482299 -0.06883865106
567.5 0.002452269662 -0.06869308308
568.125 0.02183488785 -0.05446031153
568.75 0.05179862831 -0.04329299431
569.375 0.06609234684 -0.04516965107
570.0 0.08004725855 -0.06253200064
570.625 0.05124657492 -0.07172166559
571.25 0.0420231671 -0.0888431543
571.875 0.02794068884 -0.09742664245
572.5 -0.01648260751 -0.1069432524
573.125 -0.05511030181 -0.06315152899
573.75 -0.06043846441 -0.03912271415
574.375 -0.05390605897 -0.05374010001
575.0 -0.05592331716 -0.05995865724
575.625 -0.06264003687 -0.0261655958
576.25 -0.06153215748 -0.01228744112
576.875 -0.05493310018 -0.01624388536
577.5 -0.02828345122 -0.03130840842
578.125 -0.02399291741 -0.03263711424
578.75 -0.02913877007 -0.04188903939
579.375 -0.03339350101 -0.05499396751
580.0 -0.0225379484 -0.07037747446
580.625 -0.0283923969 -0.08059580867
581.25 -0.06832119115 -0.08104527843
581.875 -0.07521526269 -0.06637542034
582.5 -0.06918482253 -0.04969241766
583.125 -0.04424807904 -0.05366084017
583.75 -0.03922804747 -0.06331420317
584.375 -0.0260997868 -0.067193988
585.0 -0.03087174774 -0.05759319283
585.625 -0.01440495121 -0.05457063697
586.25 0.00131286117 -0.05952232247
586.875 -0.003940729986 -0.05608761407
587.5 -0.02594654595 -0.04479202837
588.125 -0.03501061699 -0.03700635375
588.75 -0.02065110086 -0.05953417301
589.375 -0.03267268668 -0.06163969038
590.0 -0.07105086784 -0.04438329802
590.625 -0.09791150293 -0.006528091512
591.25 -0.09140715207 0.005239860631
591.875 -0.05659585928 0.01280732878
592.5 -0.03853881622 0.01300138979
593.125 -0.04180431232 7.865437046e-06
593.75 -0.04015250686 -0.01344790279
594.375 -0.02109135556 -0.02648148464
595.0 1.330676645e-05 -0.03304838095
595.625 0.01466914788 -0.04674259887
596.25 0.02057829473 -0.04657301634
596.875 0.02318070863 -0.04332429322
597.5 0.03158888864 -0.03143573795
598.125 0.03987019174 -0.03220750954
598.75 0.03791730678 -0.0428139933
599.375 0.03503083562 -0.06038570206
600.0 0.03655990079 -0.0708958768
600.625 0.02997156446 -0.068987478
601.25 0.005890014197 -0.06209792872
601.875 -0.008692723637 -0.05013823011
602.5 -0.007092984365 -0.0391990991
603.125 -0.001157662059 -0.02333573713
603.75 0.003043370022 -0.009803926059
604.375 0.01544672765 -0.007608942421
605.0 0.02462934986 -0.01424332373
605.625 0.01672087218 -0.01665220807
606.25 0.001145621302 -0.006927276109
606.875 -0.002702805655 0.01252287853
607.5 0.01298645937 0.0248580625
608.125 0.02846248841 0.01472695323
608.75 0.02832857449 0.007941270162
609.375 0.02783600957 0.01265615216
610.0 0.03110066336 0.01547072981
610.625 0.03333846909 0.005416292085
611.25 0.02873736963 -0.004433776745
611.875 0.0203051303 -0.01025097139
612.5 0.007671399736 -0.01533558138
613.125 -0.008326033371 -0.01247710778
613.75 -0.01384982227 -0.001056941636
614.375 -0.006867072709 0.003874599934
615.0 -0.001248959579 -0.003240602564
615.625 -0.009464948742 -0.01166722539
616.25 -0.01850337359 -0.004654629611
616.875 -0.01234385785 0.005294539302
617.5 -0.001637299286 0.001097867131
618.125 -0.0002000521505 -0.009241070142
618.75 -0.001821724954 -0.01134038666
619.375 0.006343029681 -0.009779508937
620.0 0.0200819465 -0.01889565491
620.625 0.01702264958 -0.04294635484
621.25 0.01116602898 -0.05985019544
621.875 -0.002940907628 -0.07468530889
622.5 -0.06316474325 -0.04321538194
623.125 -0.06400267721 -0.01345210069
623.75 -0.04963912582 -0.005531458816
624.375 -0.03310479927 -0.02117120769
625.0 -0.01403420635 -0.03341517853
625.625 -0.01516344496 -0.02155799565
626.25 -0.009251158141 -0.005700637972
626.875 0.01316429548 -0.01004457189
627.5 0.03906162013 -0.01981755527
628.125 0.04527562273 -0.01687792326
628.75 0.04365181033 -0.01605252346
629.375 0.05501753579 -0.0138739383
630.0 0.07566209933 -0.00867932339
630.625 0.08257307586 0.002356892862
631.25 0.08031640626 -0.004145825439
631.875 0.07970070763 -0.01182654764
632.5 0.06944576998 -0.01668568309
633.125 0.06569666759 -0.01020662945
633.75 0.05867861637 -0.007666972783
634.375 0.06066496651 -0.003419345294
635.0 0.0442362617 -0.007183595479
635.625 0.04232879316 -0.007806881839
636.25 0.06092898991 0.009632508092
636.875 0.07199523182 0.01664130806
637.5 0.05060682253 0.001081197428
638.125 0.03875966143 0.006814742384
638.75 0.0510381024 0.04377494226
639.375 0.03994255684 0.08491021439
640.0 0.02654265591 0.07546273815
640.625 0.02822561859 0.0663561503
641.25 0.01789842904 0.0701723167
641.875 -0.01354180027 0.06871355469
642.5 -0.02260393444 0.06096182675
643.125 -0.02531402628 0.0616779855
643.75 -0.03534351939 0.0591857019
644.375 -0.04105336004 0.04742703211
645.0 -0.04864031788 0.05971061314
645.625 -0.05315075265 0.07450562264
646.25 -0.04891870421 0.08773658273
646.875 -0.03388627246 0.06967108764
647.5 -0.03666830637 0.06875708986
648.125 -0.05577880444 0.06988000907
648.75 -0.07668109127 0.05825916262
649.375 -0.05428008977 0.04906639283
650.0 -0.05404483526 0.03131381022
650.625 -0.05951078682 -0.00102482325
651.25 -0.04495789893 -0.03344029417
651.875 -0.02822465471 -0.03701437934
652.5 -0.005099919261 -0.05353012581
653.125 0.03346109967 -0.0715107928
653.75 0.0645000838 -0.06686887733
654.375 0.0760119404 -0.07013521893
655.0 0.08617068683 -0.08013814987
655.625 0.08605919622 -0.08013114541
656.25 0.05155277662 -0.08155291668
656.875 0.03521977051 -0.08861195823
657.5 0.04866061295 -0.08957625766
658.125 0.05077450626 -0.07082002424
658.75 0.01246413266 -0.05896482032
659.375 0.01852394175 -0.04916186347
660.0 0.0320721533 -0.06009048835
660.625 0.04229224671 -0.06150085856
661.25 0.02018735048 -0.07438944141
661.875 0.001315226388 -0.09468753883
662.5 -0.009294312855 -0.1157625737
663.125 0.001652405285 -0.105875359
663.75 0.02802925088 -0.108162361
664.375 0.08668188476 -0.07744480949
665.0 0.1093082863 -0.01289512898
665.625 0.08551274972 0.00542878846
666.25 0.08037171791 0.0223618336
666.875 0.05968568129 0.05863437688
667.5 0.0144565714 0.06783010126
668.125 0.003905922605 0.06435635996
668.75 0.009321299991 0.08120839491
669.375 0.01510394326 0.1096033115
670.0 0.004104768827 0.09235211717
670.625 0.002349857287 0.08910652761
671.25 0.0172417391 0.09447700903
671.875 0.04878780346 0.106595211
672.5 0.08310760629 0.05359096444
673.125 0.0894508311 0.02827063933
673.75 0.06259967412 0.04110760235
674.375 0.03757008109 0.06532761252
675.0 0.0202557342 0.06988989865
675.625 -0.00704390657 0.08563858152
676.25 -0.06270435248 0.07700143302
676.875 -0.0780387781 0.04757799449
677.5 -0.08159749728 0.06496381889
678.125 -0.09538899365 0.08889232126
678.75 -0.1167967325 0.08450226899
679.375 -0.07634089029 0.05520195325
680.0 -0.06056806014 0.06315786235
680.625 -0.0607143681 0.07092820206
681.25 -0.06026421015 0.07336933135
681.875 -0.0230661404 0.04997836352
682.5 -0.01861108583 0.05155383557
683.125 -0.03864881518 0.0727960519
683.75 -0.07685059038 0.06918179832
684.375 -0.09008572322 0.03048882773
685.0 -0.08840252323 -0.04272475951
685.625 -0.05046273184 -0.1074492686
686.25 0.001183261556 -0.1258636594
686.875 0.004100453141 -0.1351891634
687.5 0.03851860465 -0.1286478831
688.125 0.04844572811 -0.09754632432
688.75 0.03987869998 -0.0656473881
689.375 0.04821261414 -0.05889682551
690.0 0.07770366429 -0.04490275741
690.625 0.0770663116 -0.01230208234
691.25 0.05495567365 -0.02831552586
691.875 0.05490292789 -0.0683189088
692.5 -0.006065382374 -0.1403635277
693.125 -0.1049985692 -0.1064002055
693.75 -0.1267625536 0.005610086054
694.375 -0.1187792459 0.02743818383
695.0 -0.1284058698 -0.03079607471
695.625 -0.05264800427 -0.1025646142
696.25 0.04664405877 -0.08994281749
696.875 0.08799270285 -0.006513431591
697.5 0.0514023739 0.05740480789
698.125 0.02048012811 0.06472076437
698.75 0.01210644798 0.09161201137
699.375 -0.002983864325 0.1113061201
700.0 -0.02337798108 0.09300327459
700.625 -0.02946184466 0.08444938365
701.25 -0.04366472099 0.1081954394
701.875 -0.03897438508 0.1354827351
702.5 0.01627113577 0.08602270563
703.125 0.05126968772 0.03746159733
703.75 0.06305191767 0.02231139552
704.375 0.112542153 0.03042380752
705.0 0.0950337633 0.03350938571
705.625 0.07472047899 0.04430286882
706.25 0.02662833022 0.08812203704
706.875 -0.07917747091 0.09235056127
707.5 -0.1167423389 0.03533130934
708.125 -0.1174598983 -0.01328637829
708.75 -0.08962576638 -0.04970026739
709.375 -0.0313276606 -0.07929873786
710.0 0.01480411605 -0.08086231462
710.625 0.05322138018 -0.06896837659
711.25 0.0581128929 -0.04222385767
711.875 0.03096125327 -0.02487045806
712.5 0.02936584776 -0.02634402755
713.125 0.04098248996 -0.07109910597
713.75 -0.01698310594 -0.1127132782
714.375 -0.07283903019 -0.06680427169
715.0 -0.1015694629 -0.01531558589
715.625 -0.1261849276 -0.02238696434
716.25 -0.1015750228 -0.08184189804
716.875 -0.04519377224 -0.07906305993
717.5 -0.002607583416 -0.07451497335
718.125 0.0286731674 -0.0707752662
718.75 0.05649145956 -0.05134514831
719.375 0.05565074181 -0.02810926363
720.0 0.04663523058 0.004292213487
720.625 0.009440112127 0.0382713259
721.25 -0.04748809801 0.01432610432
721.875 -0.06103078442 -0.04135243224
722.5 -0.06348744743 -0.06951555816
723.125 -0.09669210115 -0.03377126128
723.75 -0.07372791642 0.04768071579
724.375 -0.01511214386 0.07502470566
725.0 0.02428800799 0.05829519376
725.625 0.03447375516 0.03105420363
726.25 0.02503383216 0.0119473462
726.875 0.004168860768 0.01750086064
727.5 -0.02683212321 0.02691628927
728.125 -0.04833185371 0.02175706143
728.75 -0.04067832662 0.02872115267
729.375 -0.02039553946 0.03462981589
730.0 -0.01860513233 0.02553217341
730.625 -0.02887704353 0.01880272985
731.25 -0.03128344072 0.008987400578
731.875 -0.02920237589 -0.007040243003
732.5 -0.01993806792 -0.01469699739
733.125 -0.01187392449 -0.005486600062
733.75 0.0002206597863 0.006286186612
734.375 0.01356665067 0.004160543924
735.0 0.01421138544 -0.007702035574
735.625 0.01291336465 -0.01176560216
736.25 0.008786848757 -0.02209266296
736.875 -0.008076879055 -0.02697781445
737.5 -0.02499925029 -0.01323327371
738.125 -0.03341350814 0.009815719492
738.75 -0.02766963472 0.03370860473
739.375 -0.006173729855 0.04216155167
740.0 0.01087281397 0.0282239192
740.625 0.005881660866 0.02333957332
741.25 -0.0003278735962 0.03358636414
741.875 -0.02091448174 0.0318582973
742.5 -0.03895746799 -0.003235978013
743.125 -0.01360509166 -0.03992460688
743.75 0.01336169644 -0.04328220434
744.375 0.01450041692 -0.04710284656
745.0 0.003764181658 -0.05073340224
745.625 -0.01512966661 -0.03434478768
746.25 -0.00476470286 -0.01064581653
746.875 0.006550742722 -0.02776436605
747.5 -0.01256528605 -0.04416839064
748.125 -0.03794974385 -0.03602460642
748.75 -0.05253058754 0.0003921664148
749.375 -0.04101367329 0.04582979669
750.0 0.01698102681 0.0754153316
