!Created with skrf (http://scikit-rf.org).
# GHz S RI R 50.0 
!freq ReS11 ImS11
500.0 -0.02000050385 0.02853086967
500.625 0.02662441939 0.03484914423
501.25 0.03657724218 0.02315883313
501.875 0.0289164846 0.03105064836
502.5 0.02034906861 0.04474445779
503.125 0.04018821736 0.03247360498
503.75 0.05406104932 0.01122388299
504.375 0.05256609069 -0.008746156707
505.0 0.04822999824 -0.03636327826
505.625 0.05652134022 -0.06132045015
506.25 0.03625258399 -0.07212551221
506.875 0.06934655119 -0.06107480776
507.5 0.04450375051 -0.0705264241
508.125 0.08624800085 -0.05059400424
508.75 0.03951157919 -0.08192865331
509.375 0.01978852151 -0.07317741163
510.0 0.05400880071 -0.07069369309
510.625 -0.03312448372 -0.07617604163
511.25 -0.05282313698 -0.05482090165
511.875 -0.06417565197 -0.003285312376
512.5 -0.04468088302 0.02574802151
513.125 -0.0135965753 0.0583472415
513.75 -0.001466730478 0.06509110191
514.375 0.02137080088 0.06762611254
515.0 0.06296108804 0.07770897758
515.625 -0.002283737889 0.1209870986
516.25 0.07402442223 0.09891667999
516.875 -4.393699593e-05 0.1490175518
517.5 0.09866423578 0.1156225417
518.125 -0.03473117517 0.1896600982
518.75 0.06424401215 0.05570388307
519.375 0.05941891555 0.07424350937
520.0 0.09883479605 0.05234195445
520.625 0.1012219322 0.02516200569
521.25 0.09381712727 0.0008769765053
521.875 0.0746560655 0.02697845816
522.5 0.1003885973 -0.02061904881
523.125 0.1626481151 -0.06541642461
523.75 0.1595161904 -0.1387945578
524.375 0.1600785458 -0.08263689664
525.0 0.04889120682 -0.01786212806
525.625 0.03630332162 -0.002549973715
526.25 0.05289336848 0.01643827609
526.875 0.06095324921 0.007116025201
527.5 0.04704530155 -0.008003828155
528.125 0.03707664228 -0.03401616368
528.75 0.04032273672 -0.06452321423
529.375 -0.004016615084 -0.09052455084
530.0 -0.02340643005 -0.04257235059
530.625 -0.03930962475 -0.03822670254
531.25 -0.09100080731 -0.1181145
531.875 -0.1377943705 -0.1063991095
532.5 -0.1480488685 -0.02494146996
533.125 -0.1109476232 0.003601862291
533.75 -0.1295277928 0.01612460974
534.375 -0.1057925533 0.006161569732
535.0 -0.09257675892 0.03842382655
535.625 -0.0700685206 0.005799055724
536.25 -0.06274007383 0.02076391238
536.875 -0.07455318127 -0.01575328236
537.5 -0.09416734828 -0.03692668425
538.125 -0.109403183 0.001196598164
538.75 -0.1070157851 0.01563072352
539.375 -0.08102194693 -0.001505493682
540.0 -0.09274572941 -0.018106935
540.625 -0.123948046 -0.02622271454
541.25 -0.1121240563 -0.04932583014
541.875 -0.0872552436 -0.03971468223
542.5 -0.09401206117 -0.04380492809
543.125 -0.1332488202 -0.00420546693
543.75 -0.1069503208 0.08475752691
544.375 -0.0577291523 0.09602401243
545.0 0.02852166478 0.09124724954
545.625 0.05145750101 0.08887889799
546.25 0.0821694496 0.05691699027
546.875 0.08741446754 0.0510684709
547.5 0.09901202213 0.06417225585
548.125 0.08498132893 0.09635693716
548.75 0.06432853386 0.08760652953
549.375 0.06320370853 0.1009429108
550.0 0.01240142912 0.1166692929
550.625 -0.001197360675 0.0707346205
551.25 -0.01984653699 0.03215588121
551.875 -0.03219318966 0.02722604039
552.5 -0.06124166974 0.04741171144
553.125 -0.05907894668 0.03743406633
553.75 -0.05711746373 0.03477507747
554.375 -0.05476214597 0.06316500711
555.0 -0.05192793391 0.09069420463
555.625 -0.04159612384 0.08767229337
556.25 -0.04794355687 0.07153113684
556.875 -0.06164639877 0.08674580322
557.5 -0.06407194902 0.09099913235
558.125 -0.06490318516 0.09722119334
558.75 -0.06997419896 0.06698833631
559.375 -0.05764057674 0.07256846167
560.0 -0.03528392397 0.04671299843
560.625 -0.02708005823 0.0366603279
561.25 -0.04431542916 0.03218551181
561.875 -0.05856565197 0.05157853016
562.5 -0.0392829144 0.06454717297
563.125 -0.008581486181 0.08246391791
563.75 0.02845068967 0.10350738
564.375 0.0442424262 0.1119726808
565.0 0.04398017243 0.0996209401
565.625 0.05467917829 0.07896742703
566.25 0.03288364798 0.08793290761
566.875 -0.009826923285 0.09190224983
567.5 -0.03071535047 0.0757335171
568.125 -0.0399686759 0.08291689345
568.75 -0.04809003664 0.07875927733
569.375 -0.03549131156 0.05729776558
570.0 -0.03435356141 0.03110338411
570.625 -0.04132787916 0.03398056917
571.25 -0.05203607852 0.03070227465
571.875 -0.03403662748 0.02676303701
572.5 -0.04554038824 0.04384913257
573.125 -0.047012671 0.08900348515
573.75 -0.008624056378 0.1134421846
574.375 0.03134270727 0.07753669401
575.0 0.03588354559 0.06839103327
575.625 0.03604247886 0.08971216288
576.25 0.02628953851 0.09295484627
576.875 0.04841484478 0.07589826934
577.5 0.06447644513 0.06473440956
578.125 0.06565885551 0.07485186121
578.75 0.04333053481 0.06619735206
579.375 0.05033188184 0.05143522228
580.0 0.05491735531 0.04589164026
580.625 0.04030568416 0.03940559552
581.25 0.01167296233 0.03476673078
581.875 -0.004778897127 0.04681751828
582.5 0.001656765724 0.07852659239
583.125 4.428748974e-05 0.08467925468
583.75 0.007581115348 0.07587909485
584.375 -0.0098406945 0.0696026556
585.0 -0.02888612342 0.08158485086
585.625 -0.0277125111 0.07687547857
586.25 -0.007764754802 0.0708502955
586.875 -0.00903481954 0.06741054946
587.5 -0.01253474378 0.07908120655
588.125 0.02340793404 0.07095490931
588.75 0.045947959 0.0548853005
589.375 0.05544605773 0.03158256294
590.0 0.03198931277 0.03272828595
590.625 0.01418534322 0.036312522
591.25 0.02542416623 0.0533888008
591.875 0.05276405784 0.06504945827
592.5 0.07064184844 0.06204689884
593.125 0.06156973236 0.04717830284
593.75 0.05820295617 0.04712784795
594.375 0.04664798295 0.07039523205
595.0 0.02413490275 0.0728747868
595.625 0.004424622541 0.05999329561
596.25 -0.009507137814 0.0488794211
596.875 -0.028514873 0.04781735556
597.5 -0.02918972199 0.04565092439
598.125 -0.01712397956 0.04826966595
598.75 -0.001443821219 0.03855055605
599.375 -0.002411901307 0.02074616893
600.0 -0.009085276822 0.00273605003
600.625 -0.02607710408 -0.005060340122
601.25 -0.04787972636 -0.0004154963834
601.875 -0.05509165695 0.009983791536
602.5 -0.05008589411 0.01959854227
603.125 -0.05097322617 0.02559448359
603.75 -0.04821718677 0.03159358524
604.375 -0.03600371155 0.02373070885
605.0 -0.02803943307 0.008947716323
605.625 -0.03655593316 -0.003897001177
606.25 -0.05057734217 -0.005966709054
606.875 -0.04942398294 0.007210636049
607.5 -0.02940990544 0.02250680761
608.125 -0.00990455402 0.02026492641
608.75 -0.006086207607 0.01267541517
609.375 -0.002343474657 0.01030175588
610.0 0.006369671783 0.006576817577
610.625 0.01363930316 -0.003516078699
611.25 0.01432909793 -0.01423559911
611.875 0.01257170984 -0.02043348168
612.5 0.004708554754 -0.02321909038
613.125 -0.007325007825 -0.01628596801
613.75 -0.01007079408 -0.0006080282365
614.375 -0.0009448863695 0.008975075548
615.0 0.007332347016 0.005621053086
615.625 0.001277470205 0.001984098853
616.25 -0.0049593762 0.01297326076
616.875 0.003687185302 0.02753874774
617.5 0.01479883238 0.0284275217
618.125 0.0150406684 0.02349194833
618.75 0.01382082719 0.02636887527
619.375 0.01799816884 0.03546688674
620.0 0.02940869883 0.0322792557
620.625 0.03423283928 0.007540396716
621.25 0.02233816036 -0.003726041937
621.875 0.0001247462692 -0.01124827563
622.5 -0.02345681937 0.01171720091
623.125 -0.01875300512 0.0421281499
623.75 -0.01036560118 0.05935373205
624.375 -0.02034311201 0.05834229811
625.0 -0.03563391599 0.0489039986
625.625 -0.03667280947 0.06447829099
626.25 -0.02592419755 0.08623930018
626.875 -0.01239040592 0.0805864493
627.5 -0.01138894174 0.06572612101
628.125 -0.02231981107 0.0575421934
628.75 -0.03904254992 0.05313312374
629.375 -0.03319993873 0.04023650067
630.0 -0.02333255555 0.03074524878
630.625 -0.02744424093 0.01182260139
631.25 -0.03329310348 -0.01377724481
631.875 -0.0373268657 -0.02888650417
632.5 -0.04608817337 -0.03044456963
633.125 -0.06075078179 -0.03958518138
633.75 -0.06633034842 -0.03545038375
634.375 -0.07030999847 -0.03442568987
635.0 -0.08271565249 -0.02510079128
635.625 -0.09565400655 -0.005781110919
636.25 -0.07384065187 -0.003406951816
636.875 -0.06375007355 -0.01584753206
637.5 -0.08048863591 -0.03003219309
638.125 -0.09553780031 -0.0291195131
638.75 -0.0722748222 -0.01188136353
639.375 -0.04490969866 -0.0236205122
640.0 -0.01371769267 -0.05361954616
640.625 0.01989945728 -0.07469214043
641.25 0.01431938612 -0.06702243942
641.875 0.01255294776 -0.06847819598
642.5 0.03191622722 -0.07359047634
643.125 0.06207491082 -0.05988304696
643.75 0.0599271865 -0.05726538602
644.375 0.0398296201 -0.07570088591
645.0 0.03619199385 -0.07968783575
645.625 0.03865834027 -0.05274197255
646.25 0.04812511349 -0.04463763257
646.875 0.05895442183 -0.05343399203
647.5 0.06688400371 -0.06430157397
648.125 0.04927531581 -0.04438076368
648.75 0.0656087998 -0.01849583151
649.375 0.08917556018 0.002825914064
650.0 0.1021956768 0.02600866644
650.625 0.08896276681 0.02810282288
651.25 0.08491641437 0.0483868099
651.875 0.0642862168 0.09046691321
652.5 0.02442489994 0.1004359971
653.125 0.02306916115 0.09002509262
653.75 0.01014599752 0.08445374148
654.375 -0.03012644869 0.06581106891
655.0 -0.04354226988 0.02407591785
655.625 -0.05138562397 0.01989883375
656.25 -0.06608701633 0.04191517801
656.875 -0.08113049086 0.06065168394
657.5 -0.0783367107 0.03779563532
658.125 -0.09080338715 0.03618872768
658.75 -0.09925565294 0.07792646316
659.375 -0.08031945763 0.1064168804
660.0 -0.02468725643 0.1113601646
660.625 -0.0008576546062 0.1074675284
661.25 0.01230301493 0.1103695247
661.875 0.02250527303 0.08923278717
662.5 0.04206296462 0.07017363371
663.125 0.02530161914 0.07296186419
663.75 -0.03827246053 0.07594736573
664.375 -0.069492486 0.02258455241
665.0 -0.07942553181 -0.006893368266
665.625 -0.08927757753 -0.04194380393
666.25 -0.07375156423 -0.09783322009
666.875 -0.04444295992 -0.1020203744
667.5 -0.04745783275 -0.1054406106
668.125 -0.06032446835 -0.1148191161
668.75 -0.04198443841 -0.09929390704
669.375 -0.02932503231 -0.07629411581
670.0 -0.01544684624 -0.07503342865
670.625 -0.01282244796 -0.102489917
671.25 -0.01943958377 -0.08589776637
671.875 -0.03321958618 -0.07513051728
672.5 -0.0517169115 -0.07071848597
673.125 -0.08550080622 -0.08239032468
673.75 -0.09144130269 -0.07159196537
674.375 -0.09116962562 -0.07637847092
675.0 -0.05290010125 -0.1077148234
675.625 -0.002484848609 -0.110495476
676.25 0.01585378505 -0.09791556104
676.875 0.02643942964 -0.1008339094
677.5 0.04736942673 -0.09361334166
678.125 0.04479485037 -0.03868786833
678.75 0.04820970544 -0.0231213472
679.375 0.07812615064 -0.01835655124
680.0 0.1187164027 -0.03013904651
680.625 0.1019290578 -0.02420862141
681.25 0.08178919836 -0.06460205117
681.875 0.06427233217 -0.1111841926
682.5 0.03173732444 -0.1569863252
683.125 0.01496984439 -0.1294111294
683.75 0.02708081268 -0.1059803683
684.375 0.07862085087 -0.08189133928
685.0 0.1150003605 0.001040551833
685.625 0.08468335026 0.04921205
686.25 0.03434467285 0.07134486907
686.875 -0.01013106614 0.0715739263
687.5 -0.05518875313 0.05386595072
688.125 -0.07148433573 0.06212559431
688.75 -0.1065432328 0.07298386719
689.375 -0.1285153378 0.05630260509
690.0 -0.1032253246 0.04714069882
690.625 -0.09915290709 0.07225216557
691.25 -0.0821507065 0.1298004434
691.875 -0.03364906127 0.1479143134
692.5 0.06218284008 0.07215765544
693.125 0.07920388483 0.006796616203
693.75 0.09898839062 -0.01849425877
694.375 0.1257683449 0.00924428693
695.0 0.0913241417 0.04395332937
695.625 0.04120525143 0.09151580721
696.25 -0.07205865349 0.09639937383
696.875 -0.1292905056 -0.01363538707
697.5 -0.09673499285 -0.08891157308
698.125 -0.07586724886 -0.1051871031
698.75 -0.06490564524 -0.09676875284
699.375 -0.04842016769 -0.07466884724
700.0 -0.0304560605 -0.08757020395
700.625 0.01086128252 -0.1024500918
701.25 0.04036191494 -0.06861341549
701.875 0.02786511053 -0.05749472678
702.5 0.006406703745 -0.0988601289
703.125 -0.0828492365 -0.1390701
703.75 -0.1394152481 -0.06346902534
704.375 -0.1091682669 0.04194512502
705.0 -0.09283019888 0.05214010954
705.625 -0.1338860409 -0.002469672113
706.25 -0.0672754696 -0.09614979883
706.875 0.006748750217 -0.08861464395
707.5 0.03867459823 -0.05823884792
708.125 0.07374392612 -0.003564160027
708.75 0.05606092135 0.05893279855
709.375 0.01083675015 0.08853512596
710.0 -0.03233051536 0.07959234236
710.625 -0.06150769713 0.0582351028
711.25 -0.08085164395 0.04394202734
711.875 -0.1019367572 0.06837443958
712.5 -0.08071282163 0.1143307882
713.125 0.02702070351 0.1163262784
713.75 0.100152226 0.02550837467
714.375 0.09982075998 -0.03180466933
715.0 0.09716560081 -0.03317168668
715.625 0.06289672237 -0.000228509492
716.25 0.04519773307 0.02199588238
716.875 0.03294334375 0.06246983214
717.5 -0.02523915941 0.1002490311
718.125 -0.05245200807 0.07370474557
718.75 -0.04959613495 0.05770254231
719.375 -0.06426301628 0.04352423911
720.0 -0.09232487693 -0.01081129379
720.625 -0.0535644713 -0.08272085139
721.25 0.03098405487 -0.08879317721
721.875 0.07370429469 -0.04329089499
722.5 0.06206477988 -0.01849952457
723.125 0.04144724171 -0.02055260199
723.75 0.04178870903 -0.02292260585
724.375 0.02779349339 -0.0493836907
725.0 -0.006251696453 -0.04642960503
725.625 -0.02524320313 -0.04146689541
726.25 -0.03678808396 -0.05441424104
726.875 -0.02757711872 -0.07245941271
727.5 -0.0155920271 -0.06596858121
728.125 -0.003310729774 -0.05480861533
728.75 0.005651515535 -0.04255929375
729.375 0.01005240998 -0.03752064719
730.0 0.002941792842 -0.03609743926
730.625 0.0008895452912 -0.02546736059
731.25 0.01069136438 -0.01208461229
731.875 0.01094389297 0.00483048642
732.5 -0.002781462062 0.0167643827
733.125 -0.01328671162 0.02506823067
733.75 -0.002203813705 0.03221876022
734.375 0.01298276028 0.02478525477
735.0 0.01845952751 0.005174824677
735.625 0.01461855679 -0.005780791323
736.25 0.005174620672 -0.01948460509
736.875 -0.01774716806 -0.02715540371
737.5 -0.03901452072 -0.01944762994
738.125 -0.04717555048 -0.007677450419
738.75 -0.03589824846 0.005107375014
739.375 -0.0106836893 0.003744423848
740.0 -0.001467682561 -0.0179670095
740.625 -0.01957489956 -0.02221906418
741.25 -0.02344968992 -0.01590243513
741.875 -0.002682812436 -0.02406596809
742.5 0.02612024854 -0.003539958715
743.125 0.01423069519 0.02554621085
743.75 -0.002939900065 0.03206547728
744.375 -0.01272828004 0.03675905861
745.0 -0.02414144767 0.04473547155
745.625 -0.01486951073 0.0670663312
746.25 0.03083302801 0.07523279977
746.875 0.07321234804 0.03619420672
747.5 0.05941085625 -0.007149042423
748.125 0.03901399595 -0.02172969946
748.75 0.02931862918 -0.02836824919
749.375 0.008297929809 -0.04929811508
750.0 -0.04360351233 -0.02749739191
