!Created with skrf (http://scikit-rf.org).
# GHz S RI R 50.0 
!freq ReS11 ImS11
500.0 -0.004555460572 0.01224390566
500.625 0.01849405001 0.009861771823
501.25 0.02274911192 -0.018216574
501.875 0.01150573288 -0.02158108209
502.5 0.008802239592 0.0009670588748
503.125 0.01587093099 0.0009425838454
503.75 0.01669114459 -0.01834580996
504.375 0.01202092982 -0.02915738209
505.0 0.006769457941 -0.03198432
505.625 0.0002374423514 -0.04650145679
506.25 -0.0260390255 -0.06043551124
506.875 -0.005525298303 -0.09426497631
507.5 -0.0268555154 -0.06775159126
508.125 -0.007966226971 -0.08031680682
508.75 -0.06352516901 -0.07844703083
509.375 -0.06196786546 -0.05339126733
510.0 -0.03658037236 -0.04979098933
510.625 -0.05306781199 0.0002877537891
511.25 -0.07778159057 0.009764950749
511.875 -0.0531180552 0.04615508677
512.5 -0.003286389015 0.0537360264
513.125 0.06172341304 0.03809283556
513.75 0.08079758415 0.02959201448
514.375 0.06794189016 0.002683308153
515.0 0.06437256693 -0.02843481635
515.625 0.09793205369 0.02622815528
516.25 0.113885649 0.001072888701
516.875 0.07922977814 0.08778137192
517.5 0.1309992148 -0.002910482646
518.125 0.1594410255 0.1806831394
518.75 0.1133637926 -0.02359161001
519.375 0.08172048604 -0.008800989018
520.0 0.08033868321 -0.05939529064
520.625 0.1072088977 -0.07524511141
521.25 0.06953519045 -0.08181073612
521.875 0.06071679365 -0.03605185333
522.5 0.03934844472 -0.09757183166
523.125 0.1188206322 -0.2134948495
523.75 0.05922781047 -0.2808870103
524.375 0.05505431305 -0.2751723983
525.0 0.02179903954 -0.1300196629
525.625 0.02412496218 -0.09148748806
526.25 0.03788378204 -0.06656654719
526.875 0.0132093208 -0.07590315281
527.5 -0.007051517949 -0.09055488512
528.125 -0.03380458254 -0.06010177131
528.75 -0.05227685534 -0.05812224931
529.375 -0.1240148759 -0.01341871901
530.0 -0.1005639665 0.05103793892
530.625 -0.02497954179 0.06296731958
531.25 -0.04225670639 0.05100045592
531.875 -0.09777314371 0.1017901013
532.5 -0.1003193362 0.1334390149
533.125 -0.05916058156 0.1043487561
533.75 -0.01378749677 0.09829343596
534.375 -0.02058857142 0.1255922357
535.0 -0.02458332932 0.1287650041
535.625 -0.0343046727 0.08628076918
536.25 0.03325952575 0.07759785926
536.875 0.003540592118 0.09363857891
537.5 -0.06275844545 0.06816184947
538.125 -0.0434336906 0.07635301126
538.75 -0.012653637 0.1283776987
539.375 -0.04804329603 0.1243288257
540.0 -0.03708701395 0.09930888056
540.625 -0.03266781614 0.08796985176
541.25 -0.04539298498 0.1125424513
541.875 -0.06780195357 0.08612126955
542.5 -0.05692246129 0.03780158919
543.125 -0.04475017991 0.07196606733
543.75 0.01600091494 0.1351403873
544.375 0.04581600886 0.1376824764
545.0 0.1003019617 0.04057545208
545.625 0.1082306846 -0.03341356877
546.25 0.1172992549 -0.06912607921
546.875 0.1044959059 -0.06022083677
547.5 0.1114941221 -0.05836681723
548.125 0.1430772506 -0.06006834403
548.75 0.1670148098 -0.001899505582
549.375 0.1499530018 0.01884509449
550.0 0.1441082552 0.0547920274
550.625 0.1534340219 0.07820839186
551.25 0.07058853815 0.1003410818
551.875 0.05670994972 0.04799909445
552.5 0.06842248633 0.03527902306
553.125 0.0864086889 0.05294932027
553.75 0.03545459885 0.05646112798
554.375 0.03241015479 0.03961529606
555.0 0.05976593025 0.04543806025
555.625 0.08725249835 0.05707729101
556.25 0.05041861895 0.07360098485
556.875 0.03850038639 0.06085890598
557.5 0.05630253388 0.08398314867
558.125 0.048669047 0.1163907596
558.75 0.009036689999 0.11740917
559.375 0.04132453047 0.1035465724
560.0 0.06126228685 0.1099188631
560.625 0.05651411435 0.0746265164
561.25 0.05132932039 0.0397915599
561.875 0.0595770913 0.03677796194
562.5 0.07102107475 0.03774187923
563.125 0.0648166443 0.03371079891
563.75 0.06797479073 0.01361338731
564.375 0.1030914212 -0.01287686725
565.0 0.1372235124 0.02418610119
565.625 0.1141174553 0.005269996037
566.25 0.09887503253 0.007079248211
566.875 0.1086553956 0.0224501887
567.5 0.08796061424 0.07984937515
568.125 0.05213745158 0.08423575977
568.75 0.06604728831 0.09620493742
569.375 0.064987186 0.1045407798
570.0 0.05482092215 0.08926928653
570.625 0.04779214494 0.05961962504
571.25 0.07010277332 0.05229739024
571.875 0.06040455771 0.05369422601
572.5 0.04284933355 0.02367840442
573.125 0.04279477904 0.02769982356
573.75 0.08978937871 0.02105601222
574.375 0.1109742934 0.006426102683
575.0 0.07711098636 -0.009360177633
575.625 0.059692792 -0.02411479858
576.25 0.09277466311 -0.01920162963
576.875 0.09790903536 -0.002426341365
577.5 0.08846402377 -0.006944045281
578.125 0.09100661035 -0.02880063201
578.75 0.1198980521 -0.03329084217
579.375 0.1094377373 -0.01290338762
580.0 0.09349382295 -0.02818671663
580.625 0.0918081901 -0.05476980278
581.25 0.07994670965 -0.05769993219
581.875 0.05451784925 -0.01778124488
582.5 0.04797019168 -0.00293946536
583.125 0.08293094068 0.001484913448
583.75 0.0893911655 0.01382651055
584.375 0.06905714868 0.01987566345
585.0 0.0576672116 0.02852846073
585.625 0.07731740472 0.04261663985
586.25 0.07316653569 0.04944031682
586.875 0.06088485037 0.02667742534
587.5 0.07309902926 0.01580910329
588.125 0.09606602796 0.001585267527
588.75 0.09890736848 -0.003978410312
589.375 0.07221130027 -0.04793886853
590.0 0.04230876285 -0.08216867569
590.625 0.03385996683 -0.06275505902
591.25 0.0297653068 -0.02012794775
591.875 0.03923949515 -0.01134905545
592.5 0.05873575469 -0.03882844737
593.125 0.07878523151 -0.04437726467
593.75 0.07240690288 -0.02147412265
594.375 0.07361007313 -0.005567588461
595.0 0.0908537329 0.0126033697
595.625 0.08462380414 0.03727638534
596.25 0.05912822976 0.04272424801
596.875 0.04834279851 0.04549087028
597.5 0.04700122918 0.06312323969
598.125 0.05176920934 0.06092870141
598.75 0.06567532511 0.03673608783
599.375 0.06783572646 0.02049943744
600.0 0.05325049299 0.01487177817
600.625 0.02848792724 0.0078346617
601.25 0.01312919961 0.008133255288
601.875 0.007018665788 0.02500980931
602.5 -0.0009134714401 0.03599335416
603.125 -0.00782668852 0.03879473345
603.75 -0.0002984437368 0.04558995707
604.375 0.007996704541 0.05144619489
605.0 0.0008086749593 0.04108419502
605.625 -0.01272409519 0.02444893418
606.25 -0.02922957488 0.02723177061
606.875 -0.03645762507 0.0436444359
607.5 -0.01921703743 0.05310997716
608.125 0.005731482913 0.04337149259
608.75 0.009631362244 0.03431116108
609.375 0.006143250863 0.03262816185
610.0 0.007900538558 0.02679386
610.625 0.01388637544 0.01332571317
611.25 0.01222177434 -0.0003140439798
611.875 0.007234507112 -0.01130670391
612.5 -0.0007653690719 -0.01853292216
613.125 -0.01201772308 -0.01521540445
613.75 -0.01323632039 -0.002861950268
614.375 -0.001999524693 0.003637682399
615.0 0.00802450266 -0.002765884598
615.625 0.004484203913 -0.009241051477
616.25 -0.0009899875854 -0.001034518749
616.875 0.009127817261 0.009422033226
617.5 0.02475464701 0.007512399678
618.125 0.02933056144 0.002900984831
618.75 0.0289351829 0.003731764286
619.375 0.03918719611 0.009494528469
620.0 0.05802853742 0.005511848286
620.625 0.05900750821 -0.02117203729
621.25 0.05012891029 -0.03093459686
621.875 0.03698858908 -0.03848552338
622.5 -0.003880034535 -0.03253232357
623.125 -0.00301234298 -0.004883689635
623.75 0.01284722243 0.009843308518
624.375 0.0260774792 0.02066093992
625.0 0.01985996853 0.03566344377
625.625 0.01804997426 0.04254392565
626.25 0.03857614965 0.05271846526
626.875 0.0622585141 0.06482461174
627.5 0.05333549778 0.06983935423
628.125 0.04280290998 0.06204466933
628.75 0.04575521943 0.06751324126
629.375 0.04397736559 0.0863709776
630.0 0.0280368006 0.08013946284
630.625 0.02093358893 0.06412393347
631.25 0.01614795189 0.06054140712
631.875 -0.003384975529 0.0583179325
632.5 -0.01800718793 0.04520479462
633.125 -0.02477074809 0.0393777339
633.75 -0.0274302565 0.05716934828
634.375 -0.04193151815 0.05604981939
635.0 -0.04194636064 0.05748856713
635.625 -0.0329897033 0.0779204423
636.25 -0.02901443171 0.09802760243
636.875 -0.03863801444 0.07418962091
637.5 -0.03820501193 0.05538604361
638.125 -0.053247015 0.08143705173
638.75 -0.07800314174 0.09407387213
639.375 -0.0780372514 0.05605522878
640.0 -0.05960578047 0.02750241515
640.625 -0.07530163975 0.01156100449
641.25 -0.09051434246 -0.02970509571
641.875 -0.06685091065 -0.03990825183
642.5 -0.06175101375 -0.03407915949
643.125 -0.07515643384 -0.05148419165
643.75 -0.06270841777 -0.08960213324
644.375 -0.05358868087 -0.07978824382
645.0 -0.08196866244 -0.05391727363
645.625 -0.1000878848 -0.05979601494
646.25 -0.07874535808 -0.06137795116
646.875 -0.04763151026 -0.06373880512
647.5 -0.06403953614 -0.05899308743
648.125 -0.07237215754 -0.07754573399
648.75 -0.03272247629 -0.07153988441
649.375 -0.003979350312 -0.06036676512
650.0 0.01991491214 -0.07802420426
650.625 0.05744218845 -0.08193180223
651.25 0.07576952097 -0.05345764147
651.875 0.08753076868 -0.03148118227
652.5 0.1311081568 -0.001832805593
653.125 0.1300618092 0.04767236735
653.75 0.1115419711 0.04899912597
654.375 0.1113731241 0.04668221611
655.0 0.1021609131 0.07810158797
655.625 0.05047218147 0.07767509215
656.25 0.04405980457 0.04874417515
656.875 0.07614662378 0.04141351698
657.5 0.06721954103 0.07738750049
658.125 0.02356738476 0.08282582994
658.75 0.01890372639 0.07404215766
659.375 0.0780533159 0.08083071555
660.0 0.1159815093 0.08373629055
660.625 0.1151932447 0.05986488879
661.25 0.1188153519 0.02129180961
661.875 0.1403216563 -0.01896088541
662.5 0.1389524453 -0.0330388468
663.125 0.1127829199 -0.02153443313
663.75 0.1121077042 0.01250761655
664.375 0.0653794076 0.09762652345
665.0 -0.004152203595 0.09173542611
665.625 -0.02705907615 0.0676344254
666.25 -0.05464699569 0.07853947887
666.875 -0.1282069621 0.03927450452
667.5 -0.1142123614 -0.007889992677
668.125 -0.1080479961 0.0100661095
668.75 -0.1296591227 0.05337077663
669.375 -0.1481638498 0.03150143057
670.0 -0.1042817916 -0.004024092009
670.625 -0.09503859839 0.004880497349
671.25 -0.1212547211 0.04415821014
671.875 -0.1143107014 0.05598320357
672.5 -0.07052208896 0.06199215184
673.125 -0.05793389136 0.06580802825
673.75 -0.08573986342 0.08387252113
674.375 -0.1078696593 0.06378014201
675.0 -0.114500539 0.03167380876
675.625 -0.1361921392 -0.008710649348
676.25 -0.1198470315 -0.07136912547
676.875 -0.1005534455 -0.08425503122
677.5 -0.1179096141 -0.06266291017
678.125 -0.1385037068 -0.07918042394
678.75 -0.06607197889 -0.08666234925
679.375 -0.02834572218 -0.06107435763
680.0 -0.04124184857 -0.06024865142
680.625 -0.06915675003 -0.09969622012
681.25 -0.05063767918 -0.1084033571
681.875 -0.04904973528 -0.07853310959
682.5 -0.10487721 -0.04889131225
683.125 -0.1583379096 -0.04917265335
683.75 -0.1368910355 -0.09560387296
684.375 -0.05566348351 -0.1179453452
685.0 0.01380815853 -0.1410743479
685.625 0.1116442393 -0.114064341
686.25 0.1347586301 -0.05573556227
686.875 0.1222202445 -0.0242513419
687.5 0.1060084011 0.0224237347
688.125 0.06997430537 0.0547884077
688.75 0.04495375272 0.06741655175
689.375 0.05835641585 0.09066538749
690.0 0.03898905656 0.1382027285
690.625 0.02135034008 0.1226067557
691.25 0.0658233378 0.1033588615
691.875 0.1636786732 0.03924173138
692.5 0.2034683837 -0.07534097393
693.125 0.06285258337 -0.1318624684
693.75 -0.03308304272 -0.1051740445
694.375 -0.05523469177 -0.1233186231
695.0 0.03606357644 -0.1601357211
695.625 0.114877532 -0.0404509843
696.25 0.07648750157 0.05143958486
696.875 -0.002535361678 0.1127477918
697.5 -0.09979102037 0.08228917312
698.125 -0.1293825685 0.0414441898
698.75 -0.1317978349 0.05180550287
699.375 -0.1322823126 0.04572860383
700.0 -0.1169052428 0.01702420486
700.625 -0.1144939026 -0.007080421836
701.25 -0.1395126583 -0.02243615373
701.875 -0.1089572701 -0.0313815747
702.5 -0.07471573124 -0.003695674508
703.125 -0.07605474834 0.03406872722
703.75 -0.05797751358 0.1457346224
704.375 -0.02647816477 0.1798652298
705.0 0.0017716213 0.1261138333
705.625 -0.01955731852 0.1128406104
706.25 -0.1210759002 0.1035675485
706.875 -0.1615940655 -0.06583484957
707.5 -0.07447415199 -0.09428321139
708.125 -0.03829182077 -0.09432422468
708.75 0.02975244801 -0.09805195119
709.375 0.09843091385 -0.02949885065
710.0 0.08104205065 0.03443766626
710.625 0.06682749463 0.04757806895
711.25 0.03970932048 0.06926002202
711.875 0.02666174537 0.08182631673
712.5 0.06760526843 0.09353300679
713.125 0.1547159558 0.02551083012
713.75 0.1143129474 -0.1019239548
714.375 0.01243082727 -0.1324479275
715.0 -0.0552925675 -0.1261972094
715.625 -0.0295433526 -0.152194046
716.25 0.04077606862 -0.1003172532
716.875 0.05398132383 -0.04619322227
717.5 0.07833693023 -0.01005142843
718.125 0.09937179042 0.04112464859
718.75 0.06240610997 0.0714871585
719.375 0.02834673453 0.05992694534
720.0 -0.008161390504 0.06730246501
720.625 -0.08769716093 0.03295734605
721.25 -0.07663755876 -0.08192225694
721.875 -0.0004496084058 -0.1107904828
722.5 0.01148026314 -0.1165476908
723.125 -0.03459221031 -0.1042426956
723.75 -0.06798660603 -0.04909424065
724.375 -0.06772010383 -0.004048926595
725.0 -0.05052799437 0.02930210771
725.625 -0.03013746414 0.03082220593
726.25 -0.03317739327 0.01946227
726.875 -0.05924556281 0.003361198931
727.5 -0.07908780441 -0.02004946471
728.125 -0.0695956974 -0.03710949399
728.75 -0.06017803982 -0.02216834859
729.375 -0.0527535631 -0.006132246449
730.0 -0.04964422254 -0.01166076176
730.625 -0.04207021008 -0.01745217076
731.25 -0.0268682141 -0.02204850279
731.875 -0.008271654628 -0.0269622732
732.5 0.006902103582 -0.01429859743
733.125 0.007555306624 0.00711860534
733.75 0.01652847603 0.0169000364
734.375 0.02831863422 0.01060927863
735.0 0.02585460873 -0.008717974987
735.625 0.0185215941 -0.01454906397
736.25 0.009363423088 -0.02331202743
736.875 -0.01102246333 -0.02581119886
737.5 -0.03171877213 -0.0118211434
738.125 -0.04458443502 0.007774824544
738.75 -0.04135123362 0.02581315279
739.375 -0.022456776 0.0298280395
740.0 -0.0125487846 0.01665855796
740.625 -0.02391195065 0.01647594048
741.25 -0.03015976152 0.0234350597
741.875 -0.03725174183 0.004529843641
742.5 -0.01820708798 -0.03299483215
743.125 0.02886702339 -0.0291127248
743.75 0.03967012733 -0.005709958027
744.375 0.03810135721 -0.006979324356
745.0 0.03823338846 -0.008138895948
745.625 0.03561286456 0.0006641042439
746.25 0.05040144227 0.006210267104
746.875 0.05587592786 -0.03422916808
747.5 0.02595152497 -0.06667620095
748.125 -0.006663181195 -0.06825247592
748.75 -0.03749768838 -0.04972438541
749.375 -0.06773659428 -0.01046566229
750.0 -0.05385277148 0.06787097827
