!Created with skrf (http://scikit-rf.org).
# GHz S RI R 50.0 
!freq ReS11 ImS11
500.0 -0.03498351536 0.02092601288
500.625 -0.009523916961 0.05026056672
501.25 -0.0008790075547 0.04658440069
501.875 -0.01670833084 0.06807238905
502.5 -0.0330557474 0.08133040542
503.125 0.004428992628 0.07248815866
503.75 0.03102487024 0.05301625029
504.375 0.04952043396 0.0406497528
505.0 0.07427426485 0.01318336413
505.625 0.08091043415 0.005812060589
506.25 0.06163947206 -0.01163224418
506.875 0.06757442264 0.02575563323
507.5 0.0786883577 0.02424583315
508.125 0.06377829228 0.057425279
508.75 0.07743323295 0.01357772501
509.375 0.08026760981 0.006781679738
510.0 0.1052427812 0.04000747691
510.625 0.04559723198 -0.06150808068
511.25 0.01290961953 -0.06161687939
511.875 -0.01498939993 -0.04531425283
512.5 -0.01729324626 -0.03215563042
513.125 -0.04534970431 -0.01334201697
513.75 -0.07186245944 0.002054768913
514.375 -0.08373418961 0.04648857085
515.0 -0.07322116135 0.08178467608
515.625 -0.1127067393 0.04564576802
516.25 -0.04527419262 0.1144655638
516.875 -0.1170486374 0.05671735985
517.5 -0.04082281526 0.08119534116
518.125 -0.08694886219 0.006420788762
518.75 -0.04431511361 0.04810220275
519.375 -0.07573046368 0.05486881955
520.0 -0.01892222839 0.07747887219
520.625 -0.005919561099 0.06193603716
521.25 0.007302186216 0.06814115618
521.875 -0.02093672126 0.05391224599
522.5 0.02965044914 0.04309992996
523.125 0.04275481121 0.0470890225
523.75 0.01812767558 0.04803815657
524.375 -0.07176098616 0.0405300534
525.0 -0.04941492972 0.02688207902
525.625 -0.04606960629 0.05354942992
526.25 -0.06020139411 0.06524560989
526.875 -0.03310832649 0.05542735954
527.5 -0.00566403578 0.06498486837
528.125 0.04688908028 0.06251869093
528.75 0.06302393035 0.0661987225
529.375 0.07442334226 0.03531259394
530.0 0.0830025142 -0.008571604435
530.625 0.08865423242 -0.1269615853
531.25 0.1424952843 -0.1663290111
531.875 0.05954202907 -0.1634764746
532.5 -0.01605383693 -0.1224071144
533.125 -0.005992802741 -0.1319593534
533.75 -0.002063944945 -0.1121585882
534.375 -0.01115384323 -0.09013712947
535.0 -0.02253609741 -0.06807668806
535.625 0.02422810743 -0.07274894952
536.25 0.004479740492 -0.07992351862
536.875 0.007924457747 -0.1108348103
537.5 0.01443727141 -0.1260693076
538.125 -0.009584058044 -0.09719420834
538.75 -0.009909073691 -0.07342338634
539.375 0.02523614721 -0.09083424509
540.0 0.03083584069 -0.1548098342
540.625 0.04184368703 -0.1482502771
541.25 0.0265162305 -0.1102060141
541.875 0.01290895866 -0.1234488341
542.5 0.01166693845 -0.1389926581
543.125 -0.03670807156 -0.1100246812
543.75 -0.06538262067 -0.0338189297
544.375 -0.06018332162 -0.01841712253
545.0 -0.07009837701 -0.009190208312
545.625 -0.07426829057 0.02472936132
546.25 -0.05804857664 0.049303747
546.875 -0.04499600261 0.06808849744
547.5 -0.0722940875 0.05952943699
548.125 -0.06552633896 0.04782366232
548.75 -0.07118624875 0.02002643084
549.375 -0.08437282649 -0.002590601595
550.0 -0.045259433 -0.05623507182
550.625 -0.02336488433 -0.06862746025
551.25 0.006964435259 -0.09598673052
551.875 -0.0278801419 -0.1266874903
552.5 -0.04046574733 -0.1083316429
553.125 -0.06983416702 -0.08222221228
553.75 -0.07699846262 -0.08518299998
554.375 -0.1037522576 -0.0667337534
555.0 -0.09183759133 -0.04614435586
555.625 -0.08735402717 -0.02208946471
556.25 -0.09548021122 -0.04203721304
556.875 -0.09127940058 -0.04547387387
557.5 -0.08002956565 -0.03593022589
558.125 -0.06309269387 -0.02605385529
558.75 -0.03350077382 -0.05111501129
559.375 -0.008327504658 -0.04080012009
560.0 0.005164565944 -0.05863783351
560.625 -0.004728638222 -0.0840378278
561.25 -0.0425725731 -0.1015938949
561.875 -0.06516069748 -0.07137997239
562.5 -0.09188448406 -0.0316895602
563.125 -0.1125819444 0.003878721268
563.75 -0.1023594487 0.02938872509
564.375 -0.06590676994 0.04757096477
565.0 -0.0610497333 0.03570726508
565.625 -0.07028607091 0.02374988977
566.25 -0.0729892557 -0.02535495776
566.875 -0.06201466673 -0.0298634291
567.5 -0.06185268022 -0.03705515815
568.125 -0.04874244202 -0.04857184565
568.75 -0.02050849877 -0.05476490459
569.375 0.008635453706 -0.05437899227
570.0 0.00414845389 -0.07913339629
570.625 -0.001239487683 -0.09313255753
571.25 -0.02532356548 -0.08447168348
571.875 -0.03618487354 -0.08788402677
572.5 -0.09603652324 -0.07220600279
573.125 -0.1126823947 -0.04469811702
573.75 -0.09065647069 0.01961147252
574.375 -0.07773200299 0.02251164873
575.0 -0.1009071602 0.01644871258
575.625 -0.09034517386 0.02122198334
576.25 -0.07019865396 0.04054088706
576.875 -0.05455361056 0.05232608528
577.5 -0.06139582371 0.03848817259
578.125 -0.04540845571 0.01130694326
578.75 -0.04297789601 0.009236245774
579.375 -0.04973232947 0.009434535074
580.0 -0.05915391599 -0.01049520073
580.625 -0.06039830112 -0.03657533735
581.25 -0.08347005205 -0.02371665006
581.875 -0.1091389886 -0.005645890926
582.5 -0.1017902416 -0.0008516927937
583.125 -0.08864137957 -0.005943739183
583.75 -0.0755397887 -0.01171500026
584.375 -0.0886980805 -0.03095931346
585.0 -0.07129627648 -0.0350655741
585.625 -0.06600539517 -0.02519128723
586.25 -0.05584300554 -0.03205046606
586.875 -0.06005635654 -0.04049141409
587.5 -0.0584403362 -0.0205876858
588.125 -0.05435270002 0.01194716245
588.75 -0.05489088121 0.005168007459
589.375 -0.06386955913 -0.01528725386
590.0 -0.07366656402 -0.0005267255953
590.625 -0.0807271486 0.04172346969
591.25 -0.07998007361 0.07287020579
591.875 -0.06808871557 0.06583755043
592.5 -0.03372386475 0.0552665351
593.125 -0.02963759988 0.04927388152
593.75 -0.04532106069 0.04310733622
594.375 -0.04912220089 0.01495626591
595.0 -0.03160615503 -0.008263107698
595.625 -0.02651194337 -0.02389266401
596.25 -0.02323270118 -0.04354557493
596.875 -0.01782110959 -0.04340902118
597.5 -0.008804045505 -0.03980120872
598.125 -0.003535421067 -0.03712659985
598.75 0.0009017186265 -0.04599308235
599.375 0.0007154162044 -0.05530302844
600.0 -0.003148278004 -0.07132395234
600.625 -0.007532191085 -0.08227727025
601.25 -0.02304768366 -0.07366762835
601.875 -0.03794979676 -0.0527720513
602.5 -0.04049130946 -0.04152919717
603.125 -0.03104362586 -0.03805190209
603.75 -0.01744926819 -0.0233450349
604.375 -0.004636016455 -0.01857473701
605.0 0.003846104084 -0.02930823609
605.625 0.002498286945 -0.03688346342
606.25 -0.006151499736 -0.02584771858
606.875 -0.008984266869 -0.004836690307
607.5 0.005918043251 0.007690299845
608.125 0.02038036773 0.0003520180741
608.75 0.02127079507 -0.004411919996
609.375 0.02378886555 0.0006265592699
610.0 0.03085127718 0.003995491116
610.625 0.03409061073 -0.003753783799
611.25 0.03054341493 -0.01128023295
611.875 0.02356155316 -0.01465490746
612.5 0.01115829829 -0.01724850129
613.125 -0.005897466574 -0.01266649111
613.75 -0.0125036915 0.0004613444533
614.375 -0.006948699501 0.00701751163
615.0 -0.002107139195 0.001431946491
615.625 -0.0117179529 -0.005071185673
616.25 -0.02227208386 0.003387574348
616.875 -0.01727230443 0.01422956244
617.5 -0.007666400972 0.01149721755
618.125 -0.008976433445 0.002630701993
618.75 -0.01324528404 0.0007135238767
619.375 -0.007548409227 0.001176679603
620.0 0.004311790361 -0.006840217648
620.625 0.001289947871 -0.02768058214
621.25 -0.007420266888 -0.04744393391
621.875 -0.02476131416 -0.06247693431
622.5 -0.07623659376 -0.01852753961
623.125 -0.07878421434 0.01261147376
623.75 -0.06611651351 0.01647561585
624.375 -0.0581000521 -0.001191751754
625.0 -0.05212704132 -0.02635200107
625.625 -0.0527567307 -0.02161244362
626.25 -0.03983757547 -0.0004027982063
626.875 -0.02155738705 -0.0006858367616
627.5 -0.007872614118 -0.02337666419
628.125 0.008220804398 -0.04012871984
628.75 0.01313327713 -0.03370447161
629.375 0.02003461144 -0.03128540452
630.0 0.03941728879 -0.04157137347
630.625 0.06696904056 -0.04185234815
631.25 0.07021885353 -0.04329807392
631.875 0.06250132002 -0.05538296277
632.5 0.0583592417 -0.06690993707
633.125 0.05975940479 -0.05700680859
633.75 0.05178322161 -0.05739320518
634.375 0.04858235246 -0.05850353464
635.0 0.04061872832 -0.06153715703
635.625 0.02291929635 -0.04766596871
636.25 0.0383622369 -0.0412104532
636.875 0.06292260021 -0.04529469427
637.5 0.0559549072 -0.05043870167
638.125 0.02827300771 -0.03721564319
638.75 0.04104515602 -0.0125464082
639.375 0.07899872606 0.02475887155
640.0 0.07017357596 0.05855547945
640.625 0.06671548265 0.04120148854
641.25 0.06595681275 0.03669782581
641.875 0.05941816111 0.06197492813
642.5 0.02504358164 0.07411639448
643.125 0.02250573178 0.06767906927
643.75 0.0283110616 0.06878651248
644.375 0.02124484253 0.07302940046
645.0 0.007199015198 0.07270239461
645.625 0.0003450525362 0.08146897612
646.25 0.02556229388 0.09778496983
646.875 0.0192216677 0.09904406953
647.5 0.02369979952 0.07988771551
648.125 0.004060798685 0.08665096271
648.75 -0.01635323573 0.1084258019
649.375 -0.03261727985 0.09519654569
650.0 -0.02421317801 0.07948615527
650.625 -0.04185560148 0.06238345136
651.25 -0.07117220528 0.03424244184
651.875 -0.05968060468 -0.001079227905
652.5 -0.04762190187 -0.01538358715
653.125 -0.03674007889 -0.04283240003
653.75 -0.002521422425 -0.08413221532
654.375 0.02724400694 -0.08766955419
655.0 0.02626161843 -0.1016056749
655.625 0.009369041314 -0.124433427
656.25 0.003720282986 -0.1218771577
656.875 -0.02550987439 -0.1079985303
657.5 -0.0225820263 -0.1092503011
658.125 -0.02703176202 -0.1275248321
658.75 -0.03520082297 -0.09144188996
659.375 -0.04879351333 -0.05723759112
660.0 -0.04368103125 -0.04886678342
660.625 -0.04355326661 -0.06947923162
661.25 -0.03778366376 -0.0607992528
661.875 -0.05676375354 -0.05524928109
662.5 -0.08307281652 -0.05705768549
663.125 -0.07546482085 -0.0883372285
663.75 -0.03685023155 -0.1011480948
664.375 0.01762564049 -0.1166722315
665.0 0.07526529912 -0.1132382229
665.625 0.1030674893 -0.05944037823
666.25 0.09234678805 -0.04158395777
666.875 0.09813121152 -0.01958589291
667.5 0.104070393 0.01666604727
668.125 0.06457917479 0.03687422658
668.75 0.05777185784 0.0395893683
669.375 0.07808470951 0.04606596992
670.0 0.09152836318 0.07073535607
670.625 0.06785863673 0.06362577432
671.25 0.07702063578 0.05776299781
671.875 0.1108230025 0.03238009297
672.5 0.1317088011 -0.01458612322
673.125 0.1023990972 -0.05249466084
673.75 0.09071861343 -0.04328831901
674.375 0.08901243452 -0.008487617844
675.0 0.07441606708 0.03590108249
675.625 0.06374702553 0.0521410723
676.25 0.04009494897 0.08115733656
676.875 -0.01142757637 0.09772081769
677.5 -0.02819370908 0.08811606027
678.125 -0.02102129944 0.1099021874
678.75 -0.01763242936 0.1417328765
679.375 -0.05663198913 0.1363605008
680.0 -0.01825497946 0.1065273174
680.625 0.00795729897 0.1055831879
681.25 0.04539620126 0.1156808922
681.875 0.04304856527 0.1022039128
682.5 0.05107500393 0.05304878767
683.125 0.0406326048 0.05327217555
683.75 0.02603238159 0.09137535923
684.375 -0.03928249888 0.08798414419
685.0 -0.08505647914 0.03823396415
685.625 -0.0911403703 -0.03315695551
686.25 -0.08334721991 -0.0948187147
686.875 -0.06384540651 -0.1141330095
687.5 -0.05739766934 -0.1368527953
688.125 -0.03986031359 -0.1445752487
688.75 -0.008161157192 -0.1185123594
689.375 -0.009144921727 -0.09510311334
690.0 -0.001992493198 -0.09989745553
690.625 0.01634049016 -0.1150401153
691.25 0.01465389221 -0.07330272459
691.875 -0.01670905213 -0.06298895409
692.5 -0.07216168697 -0.06540671226
693.125 -0.1612212877 0.01706150965
693.75 -0.1256479303 0.07711789648
694.375 -0.08233291354 0.09840498937
695.0 -0.1129858672 0.07156342102
695.625 -0.1470303371 -0.03798515067
696.25 -0.02825579919 -0.1280413309
696.875 0.07084304568 -0.08843258438
697.5 0.09814397061 -0.02233272557
698.125 0.07898360372 0.02164690291
698.75 0.07270041401 0.03692815692
699.375 0.07578051411 0.06446137348
700.0 0.05873239222 0.09204587094
700.625 0.02328277245 0.09147972147
701.25 0.0329526256 0.1015945887
701.875 0.07395082307 0.1205994402
702.5 0.1174308321 0.1023197019
703.125 0.09675438605 0.0002768471809
703.75 0.05418182822 -0.05476387131
704.375 0.05251069021 -0.07772386767
705.0 0.1075875496 -0.07745493872
705.625 0.08894507901 -0.01843764414
706.25 0.0708736219 0.03559979835
706.875 0.01828493511 0.09595001241
707.5 -0.0728814107 0.109459123
708.125 -0.1145274222 0.05975465246
708.75 -0.1157423242 0.01487130849
709.375 -0.1003272809 -0.04390471428
710.0 -0.04988312239 -0.0862226389
710.625 -0.01707407737 -0.1041405016
711.25 0.009871418798 -0.1055412677
711.875 -0.00159066629 -0.08465326729
712.5 -0.02283278542 -0.0471221459
713.125 -0.03813633403 -0.03972937022
713.75 -0.08635203417 -0.03297947881
714.375 -0.105357035 -0.002061111634
715.0 -0.08396209556 0.03677965394
715.625 -0.09604423896 0.05054636822
716.25 -0.1413701687 0.02171481242
716.875 -0.1151550273 -0.05796481145
717.5 -0.0578942503 -0.07449095277
718.125 -0.0366195136 -0.07746899049
718.75 -0.01344505986 -0.09572135031
719.375 0.02685246161 -0.08501207151
720.0 0.04898209791 -0.04865528116
720.625 0.05141685948 0.001694223367
721.25 0.002873180818 0.04295235502
721.875 -0.05162095436 0.01400276382
722.5 -0.07849399993 -0.01259722643
723.125 -0.09694646243 0.02932343069
723.75 -0.0448266861 0.09313278736
724.375 0.03713710515 0.07804238684
725.0 0.07005526414 0.03143139893
725.625 0.07066171432 -0.0004026327297
726.25 0.05270385846 -0.009792786858
726.875 0.03493363288 -0.0009328301939
727.5 0.01799337986 0.02154614031
728.125 -0.007586072676 0.04416372562
728.75 -0.01263616449 0.04923463055
729.375 0.009085177584 0.04213326564
730.0 0.01108509145 0.03002356952
730.625 -0.006398592159 0.03243246692
731.25 -0.02172913314 0.0275558727
731.875 -0.03251611048 0.01112082106
732.5 -0.03409651848 -0.004999945228
733.125 -0.02659174347 -0.005835224973
733.75 -0.01211757978 0.005308642797
734.375 0.00305446684 0.003955358485
735.0 0.006797447855 -0.005640978431
735.625 0.008346994222 -0.01061815846
736.25 0.005787562466 -0.02289398459
736.875 -0.01004742071 -0.0306046148
737.5 -0.02446460272 -0.01956542966
738.125 -0.02766681086 0.001891598009
738.75 -0.01607020609 0.02765363794
739.375 0.009185238068 0.03766924356
740.0 0.02842110575 0.01892901002
740.625 0.02379153387 0.006759789245
741.25 0.02184869968 0.01944754389
741.875 0.003952948169 0.03693928155
742.5 -0.03221218858 0.02388738586
743.125 -0.04125280237 -0.01919809826
743.75 -0.0242756604 -0.04787469586
744.375 -0.02385416229 -0.05610684489
745.0 -0.04082665505 -0.05453415278
745.625 -0.06550944571 -0.02477235583
746.25 -0.04273634383 0.008965266785
746.875 -0.01617573909 0.006194407689
747.5 -0.02304352912 -0.007758681141
748.125 -0.04140235653 0.002942166513
748.75 -0.03771212973 0.03461194945
749.375 0.00762871445 0.05545538877
750.0 0.0627447901 0.03113718762
