!Created with skrf (http://scikit-rf.org).
# GHz S RI R 50.0 
!freq ReS11 ImS11
500.0 -0.009092547129 0.02910288775
500.625 0.02842331423 0.02726886538
501.25 0.04176229857 0.009677402419
501.875 0.03383200497 0.01726795798
502.5 0.02448572693 0.03386894832
503.125 0.03807267083 0.02090180633
503.75 0.05120410908 -0.003379062438
504.375 0.04739400246 -0.01852845182
505.0 0.03700889267 -0.03973144824
505.625 0.03887301676 -0.0673805898
506.25 0.02401523568 -0.08098244747
506.875 0.05864962025 -0.0792481231
507.5 0.02444385921 -0.07770951849
508.125 0.06647348715 -0.07824729562
508.75 0.01969023096 -0.1013528455
509.375 -0.0006372856748 -0.08019436477
510.0 0.02603262806 -0.07781615074
510.625 -0.05641179167 -0.06048652612
511.25 -0.07097629616 -0.04922006788
511.875 -0.06908079511 0.00855324385
512.5 -0.03673753698 0.04050827394
513.125 0.007624363306 0.06992836785
513.75 0.01690641573 0.06853115532
514.375 0.04127454851 0.05770627941
515.0 0.08245950825 0.04888407445
515.625 0.03649759715 0.126679082
516.25 0.09284546239 0.08592522879
516.875 0.02976489237 0.1439576209
517.5 0.1325533182 0.0915376683
518.125 0.001665499624 0.2225477908
518.75 0.08473225431 0.04730757101
519.375 0.077207032 0.05283010759
520.0 0.1224512189 0.02240684228
520.625 0.1178132647 0.01402089974
521.25 0.09815818354 -0.01989646313
521.875 0.08087858913 0.007000028587
522.5 0.1078064048 -0.05332352333
523.125 0.1782389424 -0.09215376479
523.75 0.1498282017 -0.1840937278
524.375 0.1689650627 -0.1589518311
525.0 0.07076734169 -0.0466871982
525.625 0.04739144037 -0.01773157178
526.25 0.05863012296 -0.006139374103
526.875 0.0671154366 -0.02529212509
527.5 0.05442944964 -0.03141905285
528.125 0.02652772165 -0.04872682888
528.75 0.01501293851 -0.07747621778
529.375 -0.04844311913 -0.1011896231
530.0 -0.05116848787 -0.04211306907
530.625 -0.04573026876 -0.01371571515
531.25 -0.1114370913 -0.05837911022
531.875 -0.1821067103 -0.06394629507
532.5 -0.1633789158 0.005169139961
533.125 -0.1092255412 0.0320988022
533.75 -0.1110905212 0.06721299584
534.375 -0.1262360344 0.04279495613
535.0 -0.09187379072 0.05938456629
535.625 -0.07119857584 0.03190785271
536.25 -0.04853267754 0.05590478383
536.875 -0.0907505927 0.01746349383
537.5 -0.1004199555 -0.01726077103
538.125 -0.1016260979 0.03197159629
538.75 -0.1152116148 0.06000946462
539.375 -0.09839134405 0.02435540464
540.0 -0.09534244991 0.01168666107
540.625 -0.1196727726 0.02046211351
541.25 -0.140115798 -0.004066040732
541.875 -0.101379037 -0.0181566479
542.5 -0.09452554443 -0.01904423196
543.125 -0.1286808534 0.03499231061
543.75 -0.09914336178 0.1181662618
544.375 -0.04724168743 0.1162826862
545.0 0.0536144195 0.08536451961
545.625 0.09780951396 0.07629157436
546.25 0.1068240076 0.04912621099
546.875 0.1040998903 0.03211057565
547.5 0.1205380776 0.03606872245
548.125 0.1390065845 0.07849697683
548.75 0.08607960877 0.09534209549
549.375 0.09041172199 0.09177453948
550.0 0.05886018179 0.1274154259
550.625 0.02267483973 0.1040183945
551.25 -0.01979501223 0.05223359581
551.875 -0.01493124776 0.04081463515
552.5 -0.02695052779 0.07249653842
553.125 -0.048604787 0.06932158575
553.75 -0.04718944662 0.048005968
554.375 -0.03182073467 0.07026094507
555.0 -0.01949629205 0.106843165
555.625 -0.02065246629 0.108439683
556.25 -0.0327569222 0.08149939135
556.875 -0.0320435132 0.1000206345
557.5 -0.04450892928 0.1178613555
558.125 -0.05182310776 0.1153958322
558.75 -0.0618449721 0.08532726625
559.375 -0.03834925835 0.1014744018
560.0 -0.03908440491 0.0751932545
560.625 -0.02029825735 0.05055268202
561.25 -0.02400743872 0.04772998894
561.875 -0.03228826243 0.0708360143
562.5 -0.02364230073 0.08536788023
563.125 0.007215083918 0.08320308049
563.75 0.05125811431 0.08666895651
564.375 0.08264866454 0.1081731985
565.0 0.06714479142 0.1062395942
565.625 0.0735038451 0.07334657647
566.25 0.06217463579 0.08064828218
566.875 0.02480081909 0.1107344146
567.5 -0.01943485682 0.09108136977
568.125 -0.02041850119 0.09624091264
568.75 -0.02999386043 0.1066988769
569.375 -0.03339519778 0.08069406529
570.0 -0.0314692145 0.04934428706
570.625 -0.02367435782 0.05227915209
571.25 -0.03771330164 0.06524625618
571.875 -0.03191947953 0.04271559627
572.5 -0.02831862183 0.04989437675
573.125 -0.01677782216 0.09045581314
573.75 0.03232384838 0.1237298255
574.375 0.04697928618 0.08450745268
575.0 0.05061919635 0.05678367404
575.625 0.0656355112 0.06911639795
576.25 0.05830118154 0.09381074741
576.875 0.06297469924 0.07632157098
577.5 0.07594226012 0.05355137639
578.125 0.09269431106 0.06000356768
578.75 0.06819899313 0.07409256297
579.375 0.06469360422 0.05065451744
580.0 0.07303735614 0.03671757648
580.625 0.06928065891 0.03582440377
581.25 0.03323185261 0.03840842447
581.875 0.01011415365 0.04367580358
582.5 0.02635692608 0.06899572441
583.125 0.02804268699 0.09445014033
583.75 0.02257487486 0.08079988735
584.375 0.009527711483 0.07042396921
585.0 -0.001033603596 0.08661926147
585.625 -0.01143705571 0.09941941917
586.25 0.001599252458 0.07722664689
586.875 0.009970957912 0.06825556749
587.5 0.01308027684 0.08721490752
588.125 0.04298716419 0.08133267712
588.75 0.05624477529 0.05491661572
589.375 0.06981821677 0.01844611764
590.0 0.05934959043 0.02061668884
590.625 0.0314043204 0.03274827791
591.25 0.03333982393 0.04568365424
591.875 0.06248710835 0.04887690972
592.5 0.09087220091 0.04768411923
593.125 0.07611465604 0.04330378183
593.75 0.0675834672 0.03891281651
594.375 0.06605600594 0.06260932599
595.0 0.04206243711 0.0814265588
595.625 0.01430509133 0.06907291218
596.25 0.000641379866 0.05619551235
596.875 -0.01675102868 0.06328670648
597.5 -0.02770152328 0.06079015667
598.125 -0.01210240858 0.05807924053
598.75 0.007858966211 0.04846208414
599.375 0.006445269879 0.03417171906
600.0 -0.006991896254 0.01417152949
600.625 -0.02159494965 0.003489902456
601.25 -0.04109253337 0.01162960307
601.875 -0.05243291715 0.02325394011
602.5 -0.04891301077 0.02837023363
603.125 -0.04760408012 0.03308595003
603.75 -0.04480474909 0.04250304165
604.375 -0.03818256658 0.03424983905
605.0 -0.03045969544 0.01564091033
605.625 -0.03778981076 0.00322045842
606.25 -0.05461706678 0.00193475412
606.875 -0.05537412265 0.01213396789
607.5 -0.03343668201 0.02635972024
608.125 -0.01213014589 0.02526423341
608.75 -0.009112128013 0.017525078
609.375 -0.006204260732 0.01310486302
610.0 0.002700610748 0.00820593549
610.625 0.01004506866 -0.002140581944
611.25 0.01105077126 -0.01363273535
611.875 0.0100966386 -0.02110301538
612.5 0.003261462175 -0.02450563685
613.125 -0.008558875295 -0.01801464894
613.75 -0.01072946198 -0.002489162538
614.375 -0.0008855862172 0.007098484463
615.0 0.008029842637 0.003808154941
615.625 0.002633074238 0.0002830950547
616.25 -0.003367512638 0.01104494983
616.875 0.005984591531 0.02545010667
617.5 0.01807486607 0.0269803369
618.125 0.01852100485 0.02237103641
618.75 0.01801894473 0.02477807231
619.375 0.02367725194 0.03488562888
620.0 0.0349149727 0.0331049153
620.625 0.03917001167 0.007000904404
621.25 0.02847102418 -0.003894094108
621.875 0.007192445639 -0.008511122105
622.5 -0.01746790296 0.01130749476
623.125 -0.01328624713 0.03939893729
623.75 -0.00184149512 0.05692424195
624.375 -0.01124267723 0.06243948678
625.0 -0.03116819928 0.05390523851
625.625 -0.02904587359 0.06720492958
626.25 -0.01419628187 0.09223619433
626.875 -0.005736294555 0.09064568826
627.5 -0.008069677735 0.07226935059
628.125 -0.01516125474 0.0648281868
628.75 -0.03371969092 0.0681456684
629.375 -0.03674340336 0.05217096333
630.0 -0.02427182224 0.03847307979
630.625 -0.0277941595 0.02406552066
631.25 -0.04199093313 0.001129871173
631.875 -0.0465974763 -0.02118093985
632.5 -0.05012056733 -0.02195646215
633.125 -0.06718544546 -0.02437239284
633.75 -0.08009329807 -0.0233328945
634.375 -0.07784409535 -0.02753513097
635.0 -0.08677205714 -0.01253150729
635.625 -0.1012096354 0.01374789777
636.25 -0.08916988382 0.007037540838
636.875 -0.06965863439 -0.008732154425
637.5 -0.08517643118 -0.01369083561
638.125 -0.1110477379 -0.01237466098
638.75 -0.0884479906 -0.009926129683
639.375 -0.05344241754 -0.01931459304
640.0 -0.03207016553 -0.04776905262
640.625 -0.004682759259 -0.08910168698
641.25 0.007709215153 -0.07895687864
641.875 0.002853607353 -0.07103607534
642.5 0.01169549758 -0.08330358696
643.125 0.05407019957 -0.08952953478
643.75 0.06197333712 -0.07027374359
644.375 0.028306431 -0.0827246792
645.0 0.01534532043 -0.09812531508
645.625 0.03595720147 -0.07933606595
646.25 0.04494832457 -0.05831091972
646.875 0.04610677635 -0.06279506845
647.5 0.0504886094 -0.08958791825
648.125 0.05255926585 -0.06405655872
648.75 0.06313574033 -0.03244400687
649.375 0.08581438259 -0.01700224626
650.0 0.1140460525 -0.0002475163076
650.625 0.1031814687 0.02183659037
651.25 0.09361364998 0.03576417429
651.875 0.08950406574 0.07968683183
652.5 0.0456173393 0.1149111452
653.125 0.03078511373 0.09897977083
653.75 0.02697960528 0.08993531582
654.375 -0.01028257839 0.09430195381
655.0 -0.05494854738 0.04652696301
655.625 -0.05042267731 0.02897224056
656.25 -0.05124103284 0.05556904402
656.875 -0.06084136855 0.09241923976
657.5 -0.08700664357 0.0598945592
658.125 -0.08645505049 0.04546016788
658.75 -0.08003560467 0.0936078845
659.375 -0.06332232205 0.1386470368
660.0 -0.02101943875 0.1298960525
660.625 0.01111554951 0.1118482965
661.25 0.03843681388 0.1159266041
661.875 0.04875568887 0.1098076668
662.5 0.05428856377 0.0755621613
663.125 0.04326426451 0.07235650504
663.75 -0.01428579394 0.09840095025
664.375 -0.07775600389 0.0472906483
665.0 -0.08215345452 0.003557645753
665.625 -0.09555888835 -0.01852020194
666.25 -0.1099675059 -0.08550537698
666.875 -0.0599563942 -0.1118633865
667.5 -0.05792954196 -0.1032219854
668.125 -0.08605754928 -0.1041293808
668.75 -0.0786968009 -0.1166358218
669.375 -0.03746471463 -0.08833476482
670.0 -0.02663413047 -0.07449802681
670.625 -0.03977169016 -0.1029351149
671.25 -0.0480727511 -0.1053603905
671.875 -0.04434973411 -0.0807110587
672.5 -0.06467177149 -0.06217575375
673.125 -0.1075877133 -0.06393130746
673.75 -0.1150950599 -0.07043219151
674.375 -0.1032326244 -0.07228372418
675.0 -0.07852350585 -0.104762484
675.625 -0.02494677611 -0.1269255875
676.25 0.01655969755 -0.1127767667
676.875 0.0155232707 -0.108507307
677.5 0.02670237573 -0.1209284284
678.125 0.05677991936 -0.06678383686
678.75 0.05562942887 -0.03103024438
679.375 0.07039627149 -0.02866851728
680.0 0.1089904213 -0.06367497011
680.625 0.125493241 -0.05046149517
681.25 0.08506987024 -0.0719651381
681.875 0.04916106101 -0.1159931952
682.5 -0.003680128745 -0.1725439061
683.125 0.00755376379 -0.1630059829
683.75 0.02495627382 -0.1183123135
684.375 0.06788914341 -0.09892531294
685.0 0.132780121 -0.02623826409
685.625 0.104156826 0.05381170041
686.25 0.05227415545 0.07648904973
686.875 0.008962361115 0.08337787455
687.5 -0.04779417612 0.07795677819
688.125 -0.06983817991 0.07291248162
688.75 -0.0908952578 0.09121379393
689.375 -0.1297726083 0.09359853928
690.0 -0.1177276628 0.06364467999
690.625 -0.0986259825 0.07926775992
691.25 -0.06184005881 0.1438088848
691.875 -0.004828314937 0.190715787
692.5 0.06755249442 0.09547906494
693.125 0.08424367579 0.001735905242
693.75 0.0968330451 -0.04235931705
694.375 0.148785088 -0.03286906925
695.0 0.1140939354 0.05046554588
695.625 0.05091270338 0.08991017762
696.25 -0.05492361385 0.1134540521
696.875 -0.1486786619 0.01133539943
697.5 -0.1138795773 -0.0923435104
698.125 -0.09079928103 -0.1029877667
698.75 -0.08799958064 -0.1003102738
699.375 -0.0605063761 -0.08929552199
700.0 -0.03952620348 -0.09208013162
700.625 -0.007032667311 -0.1135422511
701.25 0.03667904909 -0.09335187551
701.875 0.03230518996 -0.07292504225
702.5 -0.0008995896865 -0.09946451659
703.125 -0.1063770249 -0.12820485
703.75 -0.1775880921 -0.06059036555
704.375 -0.1231137975 0.04254722094
705.0 -0.09281729327 0.05934993029
705.625 -0.1445608348 0.01871279738
706.25 -0.09489342436 -0.1179759909
706.875 0.01290918721 -0.09704639608
707.5 0.03763361735 -0.06700553724
708.125 0.08416722054 -0.01982165423
708.75 0.07794982088 0.06632222332
709.375 0.01329792336 0.09613628146
710.0 -0.02552456847 0.08800375005
710.625 -0.06008985668 0.07633592685
711.25 -0.09086840363 0.05496947942
711.875 -0.103663082 0.07557128512
712.5 -0.07609987089 0.129938601
713.125 0.0358863734 0.1343122616
713.75 0.1081070433 0.03428989352
714.375 0.1051736714 -0.03769610078
715.0 0.109061638 -0.05153543352
715.625 0.08389517887 -0.002546832286
716.25 0.05322102102 0.02780465325
716.875 0.0411856129 0.0635180662
717.5 -0.01304056318 0.1150265308
718.125 -0.05979457121 0.09071466885
718.75 -0.05413294329 0.0639452368
719.375 -0.06571785725 0.05249427303
720.0 -0.1052409137 -0.002157163873
720.625 -0.0608621935 -0.09417339713
721.25 0.03372010845 -0.09472631422
721.875 0.08094379365 -0.05038556256
722.5 0.07718183382 -0.01966033785
723.125 0.05395747436 -0.01942263102
723.75 0.04724050762 -0.02872116237
724.375 0.02619119255 -0.06005271141
725.0 -0.0118557291 -0.05648553963
725.625 -0.03045154409 -0.04734193051
726.25 -0.04289370809 -0.05756483457
726.875 -0.03393666908 -0.07970556067
727.5 -0.01598358349 -0.0757519366
728.125 -0.0007561608818 -0.06150834852
728.75 0.006994523435 -0.05031318648
729.375 0.01077485062 -0.04705734418
730.0 0.004592610001 -0.04343120137
730.625 0.002683077144 -0.0304605813
731.25 0.01431418524 -0.01638143988
731.875 0.0171302076 0.004873611694
732.5 0.0006632018596 0.02109180858
733.125 -0.01218711801 0.0296793376
733.75 -0.0008773105469 0.03705117832
734.375 0.01468458098 0.02948012941
735.0 0.02154287289 0.008320488983
735.625 0.01787120264 -0.003832134173
736.25 0.008089056558 -0.01850313556
736.875 -0.01519399168 -0.02623027939
737.5 -0.03704645686 -0.01839078963
738.125 -0.04617360277 -0.006521986129
738.75 -0.03548585012 0.006155382099
739.375 -0.01049384884 0.004951430322
740.0 -0.001246216104 -0.01730064078
740.625 -0.01946126265 -0.02262861286
741.25 -0.02345198274 -0.01614600908
741.875 -0.003237198357 -0.02478663915
742.5 0.02788742698 -0.004501916547
743.125 0.0149703031 0.02735798583
743.75 -0.002199767322 0.03302925499
744.375 -0.0102149575 0.03980323065
745.0 -0.02329672851 0.05046018049
745.625 -0.01469422453 0.07056914883
746.25 0.03274164731 0.07565522228
746.875 0.07804077897 0.03465195165
747.5 0.06593310237 -0.006877843941
748.125 0.04194912193 -0.02076669282
748.75 0.02984764713 -0.03065264037
749.375 0.006028590779 -0.05441112957
750.0 -0.04973419434 -0.03232907622
