!Created with skrf (http://scikit-rf.org).
# GHz S RI R 50.0 
!freq ReS11 ImS11
500.0 -0.01102573962 0.02888115361
500.625 0.02755602046 0.02240655713
501.25 0.04209419003 0.003336460108
501.875 0.03173289664 0.008891174583
502.5 0.0221348094 0.02780945454
503.125 0.03639101686 0.01653152255
503.75 0.0472830869 -0.009264719285
504.375 0.04419526 -0.02248955721
505.0 0.03170672558 -0.04079926039
505.625 0.03123284154 -0.06749403834
506.25 0.01402774647 -0.08245424238
506.875 0.05151253068 -0.08700348104
507.5 0.01843113163 -0.07897947233
508.125 0.05453643556 -0.08615274765
508.75 0.005802686902 -0.1057161308
509.375 -0.01075745207 -0.08028142657
510.0 0.0136989667 -0.07819315207
510.625 -0.06014363877 -0.04851222138
511.25 -0.07825696042 -0.04315224036
511.875 -0.06825063922 0.0143309791
512.5 -0.03420200476 0.04409216083
513.125 0.02206467184 0.0717036231
513.75 0.02730663406 0.07473534887
514.375 0.04720232533 0.05203579438
515.0 0.08493386871 0.03385891805
515.625 0.0568244134 0.1203467346
516.25 0.0997892263 0.07677545988
516.875 0.04067030576 0.1379717456
517.5 0.142091399 0.0771453803
518.125 0.03270211423 0.2314746437
518.75 0.09184608793 0.03896768739
519.375 0.08077173823 0.04145226991
520.0 0.1245483849 0.005517101956
520.625 0.124571623 0.00293058468
521.25 0.09796627359 -0.03064588431
521.875 0.0806376576 -0.001533370874
522.5 0.101753737 -0.06793236488
523.125 0.1815374571 -0.1106901728
523.75 0.1399640208 -0.2007204596
524.375 0.1602514184 -0.1903866938
525.0 0.07116926084 -0.06461483358
525.625 0.05074367534 -0.02898209509
526.25 0.0584812053 -0.0166753807
526.875 0.06245570155 -0.03943823675
527.5 0.05208564393 -0.04499530727
528.125 0.01852349613 -0.05435584222
528.75 0.002523354474 -0.07893615178
529.375 -0.06944262541 -0.09485559274
530.0 -0.06619846626 -0.03534454276
530.625 -0.04579925632 -0.001614817708
531.25 -0.1084747834 -0.03194679474
531.875 -0.190267702 -0.03118459986
532.5 -0.166084839 0.02648272562
533.125 -0.1050857666 0.0463382272
533.75 -0.09352219816 0.0819278081
534.375 -0.12286674 0.06804220191
535.0 -0.08765824122 0.07315208896
535.625 -0.06793239414 0.04315316538
536.25 -0.03681096089 0.066424546
536.875 -0.08678976401 0.04024568916
537.5 -0.1010627161 -0.004832323121
538.125 -0.09356631767 0.0432271183
538.75 -0.1074732617 0.08230321269
539.375 -0.100531199 0.04367539116
540.0 -0.09224114034 0.0286577965
540.625 -0.1087973278 0.04008063986
541.25 -0.1392051532 0.02632903537
541.875 -0.1053644322 -0.001641346005
542.5 -0.09124406629 -0.007316384915
543.125 -0.116805856 0.05037843989
543.75 -0.08409931585 0.1333825996
544.375 -0.03697832077 0.126758884
545.0 0.06431757772 0.07935558599
545.625 0.1129965823 0.05665112532
546.25 0.120436491 0.0348352685
546.875 0.1103832325 0.01717044619
547.5 0.1258910564 0.01864983564
548.125 0.1562344479 0.05283727494
548.75 0.1053477798 0.09178546732
549.375 0.1037808127 0.08145434309
550.0 0.08221495378 0.1215218304
550.625 0.04560434178 0.1119582948
551.25 -0.01260142049 0.06637715758
551.875 -0.002640775202 0.0453772239
552.5 -0.003225576391 0.07469877456
553.125 -0.02784284137 0.08439741246
553.75 -0.03560543276 0.05523690448
554.375 -0.0173841747 0.06850774279
555.0 0.001924638678 0.103075503
555.625 0.001438820312 0.1124133938
556.25 -0.02066194049 0.08529297274
556.875 -0.01442981187 0.09774818361
557.5 -0.02353729909 0.123110451
558.125 -0.03611582562 0.1240948991
558.75 -0.05308056585 0.09544314146
559.375 -0.02151417144 0.108521116
560.0 -0.02815574589 0.09221875291
560.625 -0.01046290078 0.05917473898
561.25 -0.009260862352 0.05177395699
561.875 -0.01398303886 0.07415114277
562.5 -0.003563089417 0.09032225662
563.125 0.01888404206 0.07911445337
563.75 0.05978823115 0.07301992843
564.375 0.1027906211 0.09026048804
565.0 0.0852302342 0.100645096
565.625 0.08456185629 0.06503976174
566.25 0.07594190165 0.06893725968
566.875 0.05181706334 0.1055746441
567.5 -0.005471103673 0.09995507106
568.125 -0.005497953889 0.0991092518
568.75 -0.01091408811 0.1150514799
569.375 -0.02069159232 0.09530844833
570.0 -0.02304671987 0.06398285645
570.625 -0.009879777617 0.05762668939
571.25 -0.01633056659 0.07737905119
571.875 -0.02061059647 0.05392426056
572.5 -0.01394320661 0.05053389385
573.125 0.000784045692 0.08377218449
573.75 0.05702389737 0.1114373555
574.375 0.06303450425 0.08124623812
575.0 0.0590279276 0.04639966844
575.625 0.07537918032 0.04839542379
576.25 0.07707166288 0.08019378458
576.875 0.07546041138 0.06909663527
577.5 0.08179522751 0.04326323123
578.125 0.102950259 0.04119422496
578.75 0.09066400585 0.06638080999
579.375 0.07645837623 0.04453289957
580.0 0.08221905801 0.02565387363
580.625 0.08441408373 0.02107826548
581.25 0.05254310252 0.02926205694
581.875 0.02112745269 0.03711389705
582.5 0.0377386682 0.05528038331
583.125 0.0496802822 0.08572816196
583.75 0.03973457602 0.07713375975
584.375 0.02418424957 0.06611400496
585.0 0.01657660482 0.08047127952
585.625 0.01148737482 0.1034665824
586.25 0.01442841218 0.07911159959
586.875 0.02348032916 0.06380396861
587.5 0.03360199629 0.08196930353
588.125 0.06266347562 0.07519077975
588.75 0.0673833686 0.04944827176
589.375 0.07594613148 0.004006198886
590.0 0.07116264416 -0.001619542488
590.625 0.04244035678 0.01881588081
591.25 0.03797124997 0.03464186193
591.875 0.0631541394 0.0337468951
592.5 0.09671319862 0.02705044678
593.125 0.08670801146 0.03101250408
593.75 0.07292864429 0.02859547598
594.375 0.07533248943 0.04896170013
595.0 0.0602208727 0.07583365204
595.625 0.02928342194 0.07192599203
596.25 0.01220896441 0.05872668871
596.875 -0.001009502704 0.06753016443
597.5 -0.01561404972 0.07104906669
598.125 -0.001678158919 0.06496464296
598.75 0.0198003099 0.05228339198
599.375 0.01938955846 0.03887573901
600.0 0.002780747527 0.02161921988
600.625 -0.01282893763 0.009018930825
601.25 -0.02972970623 0.0175537139
601.875 -0.04238000036 0.0314230104
602.5 -0.04179384181 0.03502845277
603.125 -0.0405724889 0.03800091947
603.75 -0.03615649803 0.04884261416
604.375 -0.0326325512 0.04369388857
605.0 -0.0282747418 0.02309541618
605.625 -0.03510145561 0.009760735016
606.25 -0.05287086874 0.01005356689
606.875 -0.05636804327 0.02012406116
607.5 -0.03415957422 0.03247544762
608.125 -0.01059794299 0.03072138209
608.75 -0.007657311111 0.02319048452
609.375 -0.006568321171 0.01813165959
610.0 0.001278365418 0.01211218667
610.625 0.008759671695 0.001167529634
611.25 0.0093506356 -0.01115931041
611.875 0.008150614799 -0.01985720588
612.5 0.001643155112 -0.02409207229
613.125 -0.009751538763 -0.01816465306
613.75 -0.0114472298 -0.003103999841
614.375 -0.0009587486073 0.006063220701
615.0 0.008544297217 0.002381205785
615.625 0.00390084151 -0.001526726943
616.25 -0.001838813855 0.008707414079
616.875 0.008169162274 0.02244947006
617.5 0.02140772671 0.024033328
618.125 0.02240385113 0.01984702983
618.75 0.02214102219 0.02163867409
619.375 0.02945956088 0.0314941453
620.0 0.04231063009 0.03068982718
620.625 0.04559628363 0.003951418923
621.25 0.03552294602 -0.007139751695
621.875 0.01669503678 -0.0107564268
622.5 -0.01003302998 0.005061242954
623.125 -0.006813553961 0.0322546244
623.75 0.006384950822 0.04928762886
624.375 0.001026225188 0.059252696
625.0 -0.02034249348 0.05621079514
625.625 -0.01725693823 0.06678947145
626.25 0.001801578039 0.09090646329
626.875 0.00967464142 0.09492912316
627.5 0.003008262071 0.07820779186
628.125 -0.002310836442 0.06970821854
628.75 -0.01644664907 0.07938903137
629.375 -0.02851740805 0.06884324663
630.0 -0.01920957686 0.05039872204
630.625 -0.02139968316 0.03742642341
631.25 -0.0383787972 0.0210834919
631.875 -0.04993194811 -0.0023754743
632.5 -0.0507194945 -0.007553650368
633.125 -0.06473476786 -0.005215003368
633.75 -0.08119998352 -0.0001778880617
634.375 -0.08120084453 -0.008446895859
635.0 -0.08522526789 0.005915968485
635.625 -0.09401365121 0.03628626933
636.25 -0.09268890254 0.0318122102
636.875 -0.07240412791 0.008926408583
637.5 -0.08198389394 0.006714894986
638.125 -0.1137952779 0.01446453031
638.75 -0.100737853 0.00889715862
639.375 -0.06385088893 -0.00831094935
640.0 -0.04675706792 -0.03299883502
640.625 -0.03607379711 -0.08089753837
641.25 -0.01247808381 -0.08352128216
641.875 -0.01231224719 -0.07059598723
642.5 -0.01251656011 -0.08008277271
643.125 0.02102198424 -0.1043482714
643.75 0.04730690124 -0.08986856487
644.375 0.01198798316 -0.08724148021
645.0 -0.01334524363 -0.1015460312
645.625 0.007705157429 -0.09768629664
646.25 0.0249289464 -0.07460979233
646.875 0.02819138103 -0.06998363305
647.5 0.01977867152 -0.1001425304
648.125 0.03298533932 -0.08459046709
648.75 0.04881669081 -0.05000956098
649.375 0.07128879477 -0.03655169233
650.0 0.1054425242 -0.02947053764
650.625 0.1096928865 -0.0009957199968
651.25 0.09779409049 0.01614971433
651.875 0.1044615375 0.05341424925
652.5 0.07827111932 0.1100748034
653.125 0.05282193124 0.1020898586
653.75 0.04894742517 0.08853403976
654.375 0.02641578906 0.1023144045
655.0 -0.035675661 0.07896048051
655.625 -0.0390777652 0.04460849608
656.25 -0.02802924632 0.06281877842
656.875 -0.02219130249 0.1028493504
657.5 -0.0647082868 0.0874812835
658.125 -0.073211235 0.06129569646
658.75 -0.05294909687 0.09831218111
659.375 -0.02409334635 0.1502858744
660.0 0.008427300039 0.1415767918
660.625 0.03523174396 0.1130257433
661.25 0.06961100257 0.1042193398
661.875 0.08969599275 0.09857785525
662.5 0.0797610272 0.06688441632
663.125 0.06710031489 0.05971385657
663.75 0.02740267538 0.1001254589
664.375 -0.05764800152 0.07493036413
665.0 -0.07745572987 0.02598247287
665.625 -0.08766431766 0.009668143409
666.25 -0.1287804504 -0.04030429575
666.875 -0.08947815171 -0.09986592521
667.5 -0.07717037125 -0.09020941226
668.125 -0.1054602128 -0.07699721435
668.75 -0.1226957486 -0.09034242781
669.375 -0.06939939742 -0.08657802325
670.0 -0.04601638775 -0.0667298389
670.625 -0.06867946915 -0.08330564185
671.25 -0.08965192793 -0.08667085239
671.875 -0.07327881079 -0.06718874023
672.5 -0.07825938025 -0.03802081301
673.125 -0.113238084 -0.02508352932
673.75 -0.1327258051 -0.03698023514
674.375 -0.1200770788 -0.04691962171
675.0 -0.1056784309 -0.07837259191
675.625 -0.06215106654 -0.1209926839
676.25 -0.01173036457 -0.1250474488
676.875 -0.01083889358 -0.1142056964
677.5 -0.02000879409 -0.1304340532
678.125 0.02966673006 -0.1055710782
678.75 0.04121488702 -0.05398623179
679.375 0.05073198108 -0.04359912293
680.0 0.06803109118 -0.088273509
680.625 0.1033468799 -0.09961188196
681.25 0.06834508667 -0.09096882243
681.875 0.02222288311 -0.1147202422
682.5 -0.04886434139 -0.1567681107
683.125 -0.04563593776 -0.1743830912
683.75 -0.002786807327 -0.1345252121
684.375 0.0402339526 -0.1144359789
685.0 0.1249324957 -0.07034478489
685.625 0.1316185986 0.02322113633
686.25 0.08629520374 0.06171120517
686.875 0.04779004024 0.07736647706
687.5 -0.008909151998 0.09023265426
688.125 -0.0421811272 0.08546771662
688.75 -0.05461973666 0.1019029568
689.375 -0.08749802194 0.1298127509
690.0 -0.1022185788 0.09685371813
690.625 -0.0802758158 0.09876503044
691.25 -0.02210113023 0.1475056392
691.875 0.07054032838 0.1909390741
692.5 0.1118318531 0.09628880703
693.125 0.09067065912 -0.02591993622
693.75 0.06988364608 -0.07529728763
694.375 0.1166684757 -0.09407973825
695.0 0.1398215577 0.007973057499
695.625 0.07304861506 0.07127191048
696.25 -0.01336164593 0.1159806492
696.875 -0.1318244475 0.05690250346
697.5 -0.1395001603 -0.05696937689
698.125 -0.1161832108 -0.07805869462
698.75 -0.1203991694 -0.07353357477
699.375 -0.09530853923 -0.07410470686
700.0 -0.07084257601 -0.0771881863
700.625 -0.05126384209 -0.1030024961
701.25 -0.005513159809 -0.1143578975
701.875 0.002363745553 -0.0835279523
702.5 -0.0249518705 -0.08408515476
703.125 -0.123648809 -0.0779424267
703.75 -0.2018849474 0.00475734616
704.375 -0.1225167904 0.07393738171
705.0 -0.07691065149 0.0815238701
705.625 -0.1240629275 0.06557770221
706.25 -0.1511769291 -0.07812094353
706.875 -0.01475725348 -0.1160311535
707.5 0.0140686385 -0.08377067237
708.125 0.06494327016 -0.05853563173
708.75 0.09909384117 0.02268341532
709.375 0.04531501474 0.0877153986
710.0 0.003759395005 0.08824805214
710.625 -0.02729339061 0.08986944247
711.25 -0.06569205992 0.07735093752
711.875 -0.07531985911 0.09506967833
712.5 -0.03675767838 0.1451641469
713.125 0.07639270813 0.1321796568
713.75 0.1263974008 0.009245910958
714.375 0.09340906015 -0.07259074067
715.0 0.08350113225 -0.1031120647
715.625 0.092431328 -0.04691165872
716.25 0.06530591078 0.003923115085
716.875 0.05607962972 0.03762262932
717.5 0.03308744294 0.1016137027
718.125 -0.02343733037 0.1129057549
718.75 -0.03436262678 0.07874186959
719.375 -0.04289154873 0.06542179752
720.0 -0.09368079127 0.03171641794
720.625 -0.08913068386 -0.07464835705
721.25 0.01227442278 -0.1071006094
721.875 0.07042503387 -0.07599657696
722.5 0.07981978833 -0.05129109608
723.125 0.0499731704 -0.0501745951
723.75 0.02738762926 -0.0492334095
724.375 -0.002286335518 -0.06291431742
725.0 -0.03308230763 -0.04624745712
725.625 -0.04125189826 -0.03159462601
726.25 -0.05262360075 -0.0383525202
726.875 -0.05417071392 -0.06642830573
727.5 -0.03712355568 -0.07553592989
728.125 -0.01803250852 -0.06585344221
728.75 -0.01317217862 -0.05428807004
729.375 -0.01043349542 -0.05022038224
730.0 -0.01082269989 -0.04674551154
730.625 -0.008136867708 -0.03430791878
731.25 0.00611670434 -0.02427305159
731.875 0.01769959738 -0.006248298439
732.5 0.007977232652 0.01536490997
733.125 -0.004594301779 0.02828845245
733.75 0.006375846995 0.03582502948
734.375 0.0209721557 0.02837770293
735.0 0.02577170152 0.005814177899
735.625 0.02026137999 -0.005838109648
736.25 0.009717048377 -0.01927815436
736.875 -0.0136911093 -0.02541128564
737.5 -0.0362335292 -0.01609331963
738.125 -0.04761071555 -0.002878412016
738.75 -0.03946860839 0.01003878313
739.375 -0.01682408536 0.00933578411
740.0 -0.008846310562 -0.01116994632
740.625 -0.02600540785 -0.01496385816
741.25 -0.03012985972 -0.008229778922
741.875 -0.01553339763 -0.02309610006
742.5 0.02275291084 -0.01836946138
743.125 0.02601199612 0.01850351825
743.75 0.01164315847 0.02988568305
744.375 0.008517584257 0.03560281742
745.0 7.591543625e-05 0.0484352666
745.625 0.005387558011 0.06453456548
746.25 0.04503281937 0.06310510926
746.875 0.08354780724 0.01468455816
747.5 0.06777222087 -0.02701367684
748.125 0.03922863477 -0.0377056836
748.75 0.01752025769 -0.04398272877
749.375 -0.01700164702 -0.05615144005
750.0 -0.06610554603 -0.01226048158
