!Created with skrf (http://scikit-rf.org).
# GHz S RI R 50.0 
!freq ReS11 ImS11
500.0 -0.02064940164 0.03088343194
500.625 0.02498024217 0.03990203479
501.25 0.03687380692 0.03211854791
501.875 0.02959994542 0.04264350142
502.5 0.02009660927 0.05491997894
503.125 0.04347154946 0.04021883882
503.75 0.05990196859 0.01771833758
504.375 0.06000176389 -0.002923954428
505.0 0.05570627821 -0.03543005055
505.625 0.06808879782 -0.06124340196
506.25 0.05243823603 -0.06893390052
506.875 0.08159697475 -0.05029274325
507.5 0.05740977373 -0.0658210506
508.125 0.1029399608 -0.04259962204
508.75 0.06089968637 -0.08094975692
509.375 0.03651712142 -0.07283684972
510.0 0.06940844721 -0.06984743445
510.625 -0.02776543503 -0.089331573
511.25 -0.04756426288 -0.06968023738
511.875 -0.06557532851 -0.01668763501
512.5 -0.05128963788 0.01909206041
513.125 -0.02826781582 0.06018726181
513.75 -0.02227484353 0.07100993231
514.375 0.01051365315 0.07711253797
515.0 0.0565586502 0.09817101581
515.625 -0.02777726131 0.1419809703
516.25 0.06094976377 0.1181820512
516.875 -0.01819689891 0.1584606919
517.5 0.0874588481 0.1385173067
518.125 -0.07458021055 0.1842011196
518.75 0.04923813602 0.06814762344
519.375 0.05140702095 0.09100376487
520.0 0.0985504106 0.07728347695
520.625 0.09323489423 0.05434907116
521.25 0.09111940618 0.01812099113
521.875 0.07563313062 0.04215174269
522.5 0.1101737549 3.566057442e-05
523.125 0.1661575073 -0.02488656291
523.75 0.1619472947 -0.1039249823
524.375 0.1676368471 -0.04653491277
525.0 0.05219331107 0.009406697328
525.625 0.03341414711 0.02153258286
526.25 0.04923033286 0.03442415125
526.875 0.06484544971 0.02833523402
527.5 0.05633891569 0.01088462709
528.125 0.05273219717 -0.02306131387
528.75 0.06170774476 -0.05852681279
529.375 0.02904383307 -0.1003809178
530.0 0.0003333634054 -0.05648687897
530.625 -0.03850017027 -0.06069645953
531.25 -0.09123985321 -0.1598038318
531.875 -0.1367486895 -0.1609852302
532.5 -0.1407925236 -0.067168269
533.125 -0.1167178055 -0.01697073854
533.75 -0.1498458981 -0.01056583571
534.375 -0.1219035432 -0.02930343932
535.0 -0.09583975329 0.006732803899
535.625 -0.07203842445 -0.01260857726
536.25 -0.0797168298 0.004623436212
536.875 -0.08824372077 -0.04752737529
537.5 -0.08760939223 -0.06954618991
538.125 -0.1168051663 -0.02112622929
538.75 -0.1158552705 -0.01035701241
539.375 -0.08564214755 -0.03619687295
540.0 -0.0951900509 -0.05010753352
540.625 -0.1358862029 -0.0604934039
541.25 -0.1112107991 -0.08979109968
541.875 -0.08765702369 -0.06673267074
542.5 -0.09704788449 -0.06629026513
543.125 -0.1490894651 -0.02833368191
543.75 -0.1333653925 0.05666212332
544.375 -0.07444875573 0.07605444171
545.0 0.009165433839 0.09969845071
545.625 0.02935260955 0.1130609205
546.25 0.05753151298 0.091189366
546.875 0.06907834802 0.07175755649
547.5 0.08951892299 0.0877139822
548.125 0.060745626 0.1284507984
548.75 0.02502641372 0.1058729194
549.375 0.03405417804 0.1085609949
550.0 -0.02373258862 0.1135852276
550.625 -0.03838143736 0.06236080459
551.25 -0.0400455409 0.004236500665
551.875 -0.05211691127 0.0129607432
552.5 -0.09640723462 0.03231093535
553.125 -0.08851274505 0.0237124373
553.75 -0.08086749192 0.02000347148
554.375 -0.07840592344 0.06068246579
555.0 -0.08739327006 0.09189127779
555.625 -0.07453306085 0.07826247152
556.25 -0.0702557064 0.06460487919
556.875 -0.08874419262 0.08261210736
557.5 -0.09650381514 0.08473551624
558.125 -0.09077352796 0.07471054129
558.75 -0.0815180332 0.05099600986
559.375 -0.07824626098 0.0552065734
560.0 -0.05615675669 0.02531485467
560.625 -0.04596477111 0.01253996661
561.25 -0.06411384592 0.01983981889
561.875 -0.08593325046 0.04447598855
562.5 -0.06982173598 0.06286946251
563.125 -0.03590185461 0.08741146249
563.75 0.00737431209 0.1224373473
564.375 0.01732936584 0.128922873
565.0 0.01290659395 0.1128246881
565.625 0.03083663168 0.09082915663
566.25 0.006695660362 0.1029576485
566.875 -0.05126869924 0.09041723372
567.5 -0.05569794228 0.06360834936
568.125 -0.06331300181 0.07067663117
568.75 -0.07405707813 0.06294883074
569.375 -0.06107569827 0.02940411127
570.0 -0.04327250077 0.006469809926
570.625 -0.06252826608 0.01706246766
571.25 -0.0768554924 0.01237767328
571.875 -0.06300977065 0.01016029302
572.5 -0.06861760575 0.03440451933
573.125 -0.07396857449 0.09255568047
573.75 -0.04102150288 0.1258546035
574.375 0.0009146097141 0.09277447311
575.0 0.01505172655 0.08265343216
575.625 0.0101383073 0.1119244263
576.25 0.001681973781 0.1123976323
576.875 0.0248083251 0.09269351068
577.5 0.05016078011 0.08124534919
578.125 0.04079248986 0.09853348196
578.75 0.01665971465 0.07711391071
579.375 0.02652803535 0.06313511607
580.0 0.0355458341 0.06140450194
580.625 0.01389322058 0.06019236801
581.25 -0.02064532823 0.04557188991
581.875 -0.02542558749 0.05645284618
582.5 -0.02358337106 0.09468702145
583.125 -0.0316651704 0.09946606516
583.75 -0.02879185387 0.07826984736
584.375 -0.03335479631 0.0703276854
585.0 -0.05985954689 0.08421718638
585.625 -0.05961786874 0.07492754051
586.25 -0.03744634818 0.06347754919
586.875 -0.03357757819 0.06676174521
587.5 -0.03915126278 0.08137897769
588.125 -0.003424650771 0.08229787629
588.75 0.02132057405 0.06515214201
589.375 0.03764512632 0.0532356577
590.0 0.01037055501 0.05540266419
590.625 0.0002047843874 0.05990876928
591.25 0.01400222321 0.07383386353
591.875 0.04555819654 0.09123515813
592.5 0.05636443826 0.09091504494
593.125 0.04660354096 0.06658132692
593.75 0.04597109222 0.06538993192
594.375 0.02696837761 0.0889587648
595.0 -0.006414516959 0.08001865021
595.625 -0.01887020664 0.05150833889
596.25 -0.02841294374 0.04256440535
596.875 -0.05026065053 0.03639394285
597.5 -0.04995700124 0.02938769732
598.125 -0.03387676541 0.03185257813
598.75 -0.01879723585 0.02943381034
599.375 -0.02105950504 0.0118026271
600.0 -0.02650509433 -0.008570138504
600.625 -0.04104909756 -0.01793205167
601.25 -0.06384228287 -0.01341082397
601.875 -0.06924833729 -0.002038860322
602.5 -0.06277650553 0.009153682694
603.125 -0.06283345532 0.01526223978
603.75 -0.0606733355 0.0186299985
604.375 -0.04339192474 0.009460331177
605.0 -0.03230040109 -0.003285916828
605.625 -0.04009655363 -0.01544125453
606.25 -0.05209779217 -0.01963397262
606.875 -0.04774598144 -0.005896257845
607.5 -0.02864840566 0.01215269996
608.125 -0.01201539035 0.0110718608
608.75 -0.008378674676 0.003495600991
609.375 -0.002345761118 0.001561818687
610.0 0.007981842962 -0.0003775028698
610.625 0.01489317143 -0.009474709255
611.25 0.01585703487 -0.01907049889
611.875 0.01464731788 -0.02375889268
612.5 0.006569148503 -0.02542235046
613.125 -0.006306639104 -0.01796793866
613.75 -0.01025724184 -0.001761200041
614.375 -0.002187750576 0.008351678021
615.0 0.00511419778 0.005672977999
615.625 -0.001886082619 0.002394478091
616.25 -0.009443346848 0.01393202093
616.875 -0.002502616447 0.02916382344
617.5 0.007463249959 0.02987609777
618.125 0.007305531333 0.02440324694
618.75 0.004977834419 0.02775385074
619.375 0.006470690243 0.03585837248
620.0 0.01610467242 0.03102190574
620.625 0.02181332352 0.00826360497
621.25 0.008898016181 -0.003327290441
621.875 -0.01534502223 -0.01264112748
622.5 -0.03949420736 0.01918290298
623.125 -0.03470338339 0.05017031971
623.75 -0.02786443215 0.06664915054
624.375 -0.04028098918 0.05883428135
625.0 -0.05536354728 0.04111575589
625.625 -0.0585505199 0.05665174712
626.25 -0.05077172926 0.07707807206
626.875 -0.03450133926 0.06974568432
627.5 -0.02999388731 0.05132340275
628.125 -0.04159076105 0.04080734628
628.75 -0.05670214428 0.02559923808
629.375 -0.04098779151 0.01408175881
630.0 -0.02836673648 0.006932170523
630.625 -0.0304472952 -0.01479871367
631.25 -0.02990529037 -0.04621642731
631.875 -0.0254486128 -0.05850139528
632.5 -0.04016457764 -0.05503276983
633.125 -0.05281319807 -0.07019534351
633.75 -0.05972887242 -0.06888756368
634.375 -0.05579989653 -0.06850708533
635.0 -0.07547191762 -0.05409676394
635.625 -0.0923600639 -0.04279070796
636.25 -0.06719018306 -0.03783372974
636.875 -0.05085811306 -0.04854475812
637.5 -0.07111255435 -0.06434895093
638.125 -0.0814286501 -0.06324926708
638.75 -0.05427598024 -0.04007117887
639.375 -0.02024673084 -0.0400509404
640.0 0.02105135013 -0.06777235079
640.625 0.06057241648 -0.07095875267
641.25 0.04783141759 -0.06169168163
641.875 0.04062572899 -0.06187571647
642.5 0.0700321321 -0.06368352671
643.125 0.09840889146 -0.02945480941
643.75 0.08106589405 -0.02593518248
644.375 0.06645027612 -0.05715273483
645.0 0.0724293009 -0.06010926688
645.625 0.07540484314 -0.0249325787
646.25 0.07281064902 -0.01135150333
646.875 0.08709028275 -0.03166355435
647.5 0.09870526118 -0.03734644517
648.125 0.07990481531 -0.01569734197
648.75 0.07946783565 0.01803747149
649.375 0.09954811925 0.04042947955
650.0 0.1011632269 0.06592079599
650.625 0.07891245964 0.06606102797
651.25 0.06643403932 0.07921946924
651.875 0.02599711666 0.1190305538
652.5 -0.01698351007 0.1026420693
653.125 -0.01704349464 0.08141061092
653.75 -0.02637388025 0.07460880802
654.375 -0.07292919046 0.03607582151
655.0 -0.06655603393 -0.01949586772
655.625 -0.07034347613 -0.01392964222
656.25 -0.09833898746 0.01630853575
656.875 -0.1251089429 0.03171130501
657.5 -0.1150241769 -0.006207685307
658.125 -0.1111902269 0.002679900458
658.75 -0.1382528523 0.05064068666
659.375 -0.1224492543 0.08046256791
660.0 -0.07500231011 0.08935278577
660.625 -0.0430117531 0.0937527108
661.25 -0.03916272047 0.1093833677
661.875 -0.02806300169 0.09302604293
662.5 -0.009605410051 0.07873544696
663.125 -0.02274426914 0.08302399705
663.75 -0.08624598331 0.05232556815
664.375 -0.09573221465 -0.02067731045
665.0 -0.08039699236 -0.05351708034
665.625 -0.08502942774 -0.09372380984
666.25 -0.03083780048 -0.1420520499
666.875 0.002141089913 -0.1239390043
667.5 -0.005270884325 -0.1208093927
668.125 -0.009798701917 -0.1431703265
668.75 0.01863032751 -0.1154697038
669.375 0.02453680068 -0.07512357402
670.0 0.02374710713 -0.08102791161
670.625 0.04142950573 -0.1105752133
671.25 0.03751463967 -0.1005493626
671.875 0.02409120244 -0.09015176262
672.5 -0.02302039223 -0.1035423191
673.125 -0.05566437083 -0.1306714066
673.75 -0.06058115388 -0.1213943811
674.375 -0.04725539096 -0.1149977323
675.0 0.003062284174 -0.1267978304
675.625 0.05417240635 -0.1069643427
676.25 0.06783666786 -0.07609397229
676.875 0.07145418752 -0.07411878708
677.5 0.09944177966 -0.04503331564
678.125 0.07768924821 0.004383489069
678.75 0.07509207691 0.02170414947
679.375 0.1039214897 0.02052496174
680.0 0.1522647447 0.03228451075
680.625 0.1261606071 0.02856458227
681.25 0.1139951531 -0.02549626263
681.875 0.1135002506 -0.09303096801
682.5 0.1037626469 -0.1460038016
683.125 0.08303984862 -0.1052692148
683.75 0.06940354438 -0.07252081757
684.375 0.1127282426 -0.03316862655
685.0 0.1039250884 0.06207617466
685.625 0.03068075237 0.09376004994
686.25 -0.02300825069 0.07800741908
686.875 -0.0701176672 0.0646040943
687.5 -0.1065781421 0.02840473727
688.125 -0.12299722 0.02809681612
688.75 -0.1559970615 0.02843776146
689.375 -0.1577712657 -0.005003352033
690.0 -0.1286892383 -0.005360717839
690.625 -0.1263335773 0.02460923166
691.25 -0.1441255126 0.0888818487
691.875 -0.1050190871 0.1035380668
692.5 -0.00473755952 0.08395000901
693.125 0.05169656059 0.05826569511
693.75 0.11831241 0.05621120356
694.375 0.1265494648 0.09888776364
695.0 0.05572636318 0.1074556946
695.625 -0.01026937738 0.1190950723
696.25 -0.135250467 0.06594793169
696.875 -0.1356271657 -0.09134811578
697.5 -0.04238156613 -0.1354839744
698.125 -0.02094462307 -0.1309044286
698.75 -0.007037353672 -0.1184744261
699.375 0.009588042344 -0.09609572968
700.0 0.0330482511 -0.09211898215
700.625 0.08370832801 -0.07846105078
701.25 0.08767291862 -0.036645952
701.875 0.08236927282 -0.04028935917
702.5 0.0657174356 -0.1116520132
703.125 -0.001610206631 -0.198766536
703.75 -0.09630155611 -0.1215234376
704.375 -0.1108452545 -0.0210155019
705.0 -0.114264674 -0.002445293695
705.625 -0.1223287198 -0.09636991772
706.25 0.0124609819 -0.1174606552
706.875 0.05646613856 -0.0531497616
707.5 0.0744207447 -0.01510405752
708.125 0.07909426892 0.0708958126
708.75 0.008750135344 0.1169260415
709.375 -0.04743944784 0.0916821304
710.0 -0.08156785549 0.0651687664
710.625 -0.1064249341 0.02704942592
711.25 -0.1223774115 -0.005446388257
711.875 -0.1388605885 0.014038091
712.5 -0.1246540324 0.06963818401
713.125 -0.02751436518 0.1108539898
713.75 0.05892775912 0.07274041882
714.375 0.09205831399 0.044554979
715.0 0.08810563056 0.05253735549
715.625 0.04689364362 0.05720914433
716.25 0.01938794078 0.06949045536
716.875 -0.01504884855 0.1047192441
717.5 -0.1022891564 0.08471168928
718.125 -0.09856949547 0.03609852178
718.75 -0.08429245275 0.02687331844
719.375 -0.1010037928 0.005781944157
720.0 -0.09119844528 -0.07124839305
720.625 -0.001357112307 -0.1033158091
721.25 0.06491400605 -0.05932465372
721.875 0.07791331226 0.006017351842
722.5 0.0470722339 0.03440606039
723.125 0.03672128596 0.04014620226
723.75 0.06682647441 0.02439843581
724.375 0.07267806193 -0.03233550323
725.0 0.02983740067 -0.06087820552
725.625 0.001293898738 -0.07019584037
726.25 -0.008329539271 -0.08315629656
726.875 0.01025926303 -0.08451716314
727.5 0.01856061107 -0.06427071023
728.125 0.02944948895 -0.04278723501
728.75 0.03962126367 -0.02564400153
729.375 0.04165861479 -0.02439757887
730.0 0.02795546631 -0.02862082323
730.625 0.02036882153 -0.0168714216
731.25 0.0233085902 0.00411770266
731.875 0.008583687187 0.02318346031
732.5 -0.01476787151 0.02642350453
733.125 -0.02640247835 0.02764853758
733.75 -0.01409420231 0.0349428767
734.375 0.003384275627 0.02866766919
735.0 0.01390480458 0.01099693946
735.625 0.01369827092 -0.00118938792
736.25 0.006402425957 -0.01768047636
736.875 -0.01522814004 -0.02783320358
737.5 -0.03480691152 -0.021965212
738.125 -0.04031291492 -0.00991756349
738.75 -0.02599913279 0.004773224819
739.375 0.003131779666 0.005668064981
740.0 0.01629626911 -0.01797998749
740.625 -0.002012444053 -0.02870373554
741.25 -0.004942982574 -0.02320017047
741.875 0.01861779064 -0.01493533714
742.5 0.02238922562 0.02091678523
743.125 -0.009864047386 0.03263398312
743.75 -0.02986650203 0.02637077434
744.375 -0.04559358192 0.02708835487
745.0 -0.06128940139 0.03260983972
745.625 -0.05173809619 0.06407022765
746.25 -0.0007486449789 0.08720221435
746.875 0.04921057631 0.06142119011
747.5 0.04569264215 0.02176223823
748.125 0.03147881738 0.009397054193
748.75 0.03809833835 0.002680570011
749.375 0.0403348467 -0.0309957645
750.0 -0.008820966348 -0.05170473654
