!Created with skrf (http://scikit-rf.org).
# GHz S RI R 50.0 
!freq ReS11 ImS11
500.0 -0.01537722301 0.0306927096
500.625 0.02790239231 0.03176602524
501.25 0.03911349678 0.01945362102
501.875 0.03588710901 0.02671101349
502.5 0.02379115576 0.04647244732
503.125 0.0423767147 0.02716100762
503.75 0.05708562874 0.004728674519
504.375 0.05422394531 -0.01199135821
505.0 0.04556024464 -0.03964092791
505.625 0.05259541901 -0.06882221701
506.25 0.03728784571 -0.08000032703
506.875 0.07211486466 -0.06781925876
507.5 0.03791046817 -0.07582681178
508.125 0.08559832607 -0.06701898453
508.75 0.03893846108 -0.09652996789
509.375 0.0148967409 -0.08036713446
510.0 0.04477295687 -0.07833344243
510.625 -0.047789114 -0.07440035151
511.25 -0.0640370543 -0.05949967152
511.875 -0.06794013289 -0.0007617341342
512.5 -0.04518682719 0.03277949697
513.125 -0.0116659913 0.06951204534
513.75 0.0001751722324 0.07301629322
514.375 0.02846639022 0.06848798189
515.0 0.07620454932 0.07061294489
515.625 0.01323252275 0.1431329648
516.25 0.08135462787 0.1023704527
516.875 0.0110296023 0.1539792264
517.5 0.1204740192 0.1143986963
518.125 -0.03337312442 0.2129917525
518.75 0.07098374635 0.05785528789
519.375 0.07139108633 0.06745651153
520.0 0.1202499541 0.04448655065
520.625 0.112359624 0.03285339702
521.25 0.09640561914 -0.004446711081
521.875 0.08192505008 0.02098234988
522.5 0.1148701892 -0.03166504872
523.125 0.1787334244 -0.06041959749
523.75 0.1601105558 -0.1494756251
524.375 0.1793005347 -0.1151872204
525.0 0.07000472672 -0.02309003103
525.625 0.04515790384 0.0001169035544
526.25 0.05751324193 0.0101852014
526.875 0.07218757232 -0.004286540974
527.5 0.0595826688 -0.01376519384
528.125 0.03992530015 -0.03971263821
528.75 0.03521660178 -0.07377796222
529.375 -0.01749615947 -0.1099928763
530.0 -0.03028166046 -0.05419095248
530.625 -0.04577899252 -0.03186978238
531.25 -0.1157651522 -0.09600975615
531.875 -0.1764981148 -0.1076499743
532.5 -0.1613760692 -0.0267664256
533.125 -0.1146248607 0.0144275749
533.75 -0.1326428432 0.0452362745
534.375 -0.1342635286 0.0128001899
535.0 -0.09810601391 0.03716744148
535.625 -0.07511073645 0.01470533701
536.25 -0.06497986856 0.04019947044
536.875 -0.09814322098 -0.008560862972
537.5 -0.09877059349 -0.04117532918
538.125 -0.1110410833 0.01362098504
538.75 -0.1231415276 0.03112988609
539.375 -0.100321122 -0.001852118503
540.0 -0.09933063423 -0.01312451307
540.625 -0.132666469 -0.007266322732
541.25 -0.1403698767 -0.04062460986
541.875 -0.1002001586 -0.03852397297
542.5 -0.09813416418 -0.03669961336
543.125 -0.1422600306 0.01408617803
543.75 -0.1205518209 0.09788341235
544.375 -0.06278919576 0.1015434032
545.0 0.03927814589 0.09323664123
545.625 0.07718516669 0.09793978271
546.25 0.0914707626 0.07225770848
546.875 0.09287941992 0.05041036232
547.5 0.1125464212 0.05717004163
548.125 0.1167650128 0.1066248189
548.75 0.06225266525 0.1065848925
549.375 0.07120407741 0.1000972024
550.0 0.02889634024 0.1319673834
550.625 -0.003271072899 0.09696847923
551.25 -0.03263104866 0.03511604413
551.875 -0.02900862487 0.03301369191
552.5 -0.053756479 0.0671558816
553.125 -0.06874614803 0.05638921174
553.75 -0.06232193488 0.04050395986
554.375 -0.04800618164 0.07034517829
555.0 -0.04398703956 0.1092389056
555.625 -0.04471350853 0.1038965051
556.25 -0.04780963981 0.07764450107
556.875 -0.05255451937 0.09963402491
557.5 -0.06623882982 0.1126954179
558.125 -0.07049538131 0.1045651292
558.75 -0.07162347789 0.07382762394
559.375 -0.05657503854 0.09092483614
560.0 -0.05138623806 0.05955939734
560.625 -0.03288894112 0.03870766814
561.25 -0.03900558163 0.0420875812
561.875 -0.05114883058 0.06756072637
562.5 -0.04255800958 0.08317906096
563.125 -0.007934402855 0.08765834956
563.75 0.04085755382 0.1010458365
564.375 0.06152753361 0.1235464917
565.0 0.04742385926 0.1149933215
565.625 0.05916185581 0.08274358056
566.25 0.04636519784 0.09275326969
566.875 -0.004130468918 0.1141670948
567.5 -0.03606697426 0.08352377443
568.125 -0.03719048739 0.09093881324
568.75 -0.04905666731 0.09703907146
569.375 -0.04886352883 0.06683314745
570.0 -0.03985971621 0.03448963014
570.625 -0.03837494266 0.04464480352
571.25 -0.05696586056 0.05254825393
571.875 -0.04657014975 0.03423834115
572.5 -0.04357280331 0.04703294366
573.125 -0.03554836146 0.0957008854
573.75 0.008275897116 0.133962157
574.375 0.0306547529 0.09264794482
575.0 0.04053518917 0.06719173563
575.625 0.0536365502 0.08873574611
576.25 0.04251498833 0.1066082873
576.875 0.05050102488 0.08620106941
577.5 0.06919608257 0.06383040277
578.125 0.08101001343 0.07771020391
578.75 0.04995657849 0.08099593419
579.375 0.05199847452 0.05858752602
580.0 0.06315437776 0.04749525199
580.625 0.05485456345 0.04951584997
581.25 0.01560679435 0.04748557952
581.875 -0.0009298599084 0.05007980487
582.5 0.01390510079 0.08122231607
583.125 0.009399841767 0.1028056242
583.75 0.004201873504 0.08547177223
584.375 -0.004318782115 0.07342932815
585.0 -0.01878660034 0.09185238991
585.625 -0.03081067747 0.09746272154
586.25 -0.01349973598 0.07603844908
586.875 -0.002887656414 0.07122280138
587.5 -0.002983594181 0.09040305584
588.125 0.02892803647 0.08714920067
588.75 0.04511743423 0.0610368538
589.375 0.06374145977 0.03080853187
590.0 0.04871427365 0.03700278781
590.625 0.02430641545 0.04486089025
591.25 0.02864848853 0.0565274674
591.875 0.06132797969 0.06267026997
592.5 0.08552782298 0.06509395497
593.125 0.06845391165 0.0543280054
593.75 0.06276391132 0.04874847631
594.375 0.0574848871 0.07402864865
595.0 0.02710544662 0.08709496537
595.625 0.001542306505 0.06675777778
596.25 -0.009075170342 0.05421026503
596.875 -0.02934015734 0.0589836808
597.5 -0.03850736194 0.05328804202
598.125 -0.02188219833 0.05150508222
598.75 -0.002072312251 0.04500304203
599.375 -0.004299429507 0.03036072412
600.0 -0.01572941746 0.009066117496
600.625 -0.0293012268 -0.00126824974
601.25 -0.05021128296 0.006875321423
601.875 -0.06033257629 0.01741824785
602.5 -0.05532820245 0.02365191669
603.125 -0.05371607142 0.0290116392
603.75 -0.0522241776 0.03729439531
604.375 -0.04290001941 0.02704229235
605.0 -0.03296001918 0.009685264312
605.625 -0.04009869247 -0.002140933884
606.25 -0.05629846374 -0.004696098068
606.875 -0.05523842839 0.005486102561
607.5 -0.03348957585 0.02140052608
608.125 -0.01350195441 0.02126261372
608.75 -0.01043181423 0.01341952517
609.375 -0.006466649366 0.009148904555
610.0 0.003238485925 0.005001574246
610.625 0.01058498452 -0.004888966346
611.25 0.01166347476 -0.0160461694
611.875 0.01096105906 -0.02265669797
612.5 0.003813646684 -0.02543874804
613.125 -0.007934329399 -0.01857520127
613.75 -0.01070382013 -0.002710795732
614.375 -0.001341652968 0.007280249903
615.0 0.007215268396 0.004406820459
615.625 0.001451790418 0.001050906561
616.25 -0.005039906555 0.01207183095
616.875 0.003610114144 0.02700987954
617.5 0.01492540281 0.02870739564
618.125 0.01513845723 0.02378111151
618.75 0.01420552523 0.02654129191
619.375 0.01837839928 0.03655990408
620.0 0.02874085197 0.03416251462
620.625 0.03396087937 0.008808808811
621.25 0.02297050868 -0.002158123998
621.875 0.0005062883875 -0.007707220281
622.5 -0.02340651223 0.01551342559
623.125 -0.01895369464 0.0441700941
623.75 -0.008618795718 0.06190718844
624.375 -0.02022423835 0.06418107289
625.0 -0.03970461493 0.05200706585
625.625 -0.03845136032 0.06617336907
626.25 -0.02640451052 0.09119816233
626.875 -0.01642783419 0.08735864938
627.5 -0.01644383731 0.06767481445
628.125 -0.02406096477 0.06025435757
628.75 -0.04458005771 0.05881095317
629.375 -0.04182202866 0.04095834648
630.0 -0.02793553669 0.02898717827
630.625 -0.03158847069 0.0135249569
631.25 -0.04345842484 -0.01346458887
631.875 -0.04388125471 -0.03501203717
632.5 -0.04927178253 -0.03220106605
633.125 -0.067440507 -0.03757181899
633.75 -0.0794890276 -0.03739041484
634.375 -0.07521899762 -0.04169539179
635.0 -0.08644858192 -0.02489387267
635.625 -0.104340731 -0.001594125155
636.25 -0.08792618587 -0.008267744555
636.875 -0.06721796525 -0.02211381174
637.5 -0.08539602768 -0.0283405728
638.125 -0.1073528689 -0.02984377923
638.75 -0.08140220263 -0.02315137126
639.375 -0.04452110652 -0.02774593774
640.0 -0.01990022295 -0.05763919254
640.625 0.01639556019 -0.09180894346
641.25 0.02202296207 -0.07781072136
641.875 0.01459617682 -0.07026983525
642.5 0.02817227373 -0.08369130997
643.125 0.0737955033 -0.07900661491
643.75 0.07294661025 -0.05750328971
644.375 0.04050563981 -0.07782681917
645.0 0.03407081063 -0.09352627359
645.625 0.05339959986 -0.06897529156
646.25 0.05866072126 -0.04603500386
646.875 0.0589519259 -0.05693728371
647.5 0.06897049199 -0.08030697653
648.125 0.06593805999 -0.05330275908
648.75 0.07227840453 -0.01873983439
649.375 0.09469046849 -0.002324866045
650.0 0.1177653061 0.01965157604
650.625 0.1001807374 0.0386410343
651.25 0.08867193151 0.05063252787
651.875 0.07641370486 0.09746283651
652.5 0.02519112384 0.1180098232
653.125 0.01355526703 0.09821421446
653.75 0.01182318455 0.08961126625
654.375 -0.03220476288 0.08678348572
655.0 -0.06714264485 0.02863121666
655.625 -0.05941827559 0.01709075333
656.25 -0.0659666918 0.04913007197
656.875 -0.08372834895 0.08406332813
657.5 -0.1042860845 0.0438970993
658.125 -0.09673781696 0.03285907855
658.75 -0.09882340517 0.08718726243
659.375 -0.0861332528 0.1292076692
660.0 -0.04253072397 0.1244388171
660.625 -0.006549294149 0.110254874
661.25 0.01777685612 0.1210190396
661.875 0.02603241634 0.11441605
662.5 0.03550252671 0.08299435723
663.125 0.02654831827 0.08033756448
663.75 -0.03940057627 0.09321024752
664.375 -0.09064624851 0.03047235949
665.0 -0.08548783059 -0.01377049362
665.625 -0.09907697641 -0.03703165186
666.25 -0.09681561185 -0.109507114
666.875 -0.043210239 -0.1216712624
667.5 -0.04392928908 -0.1112438677
668.125 -0.072014854 -0.1198624423
668.75 -0.05386652434 -0.1295256561
669.375 -0.01577434616 -0.09141314533
670.0 -0.01301507608 -0.0787443345
670.625 -0.01937799812 -0.1123237266
671.25 -0.02461230962 -0.1150255125
671.875 -0.02389619572 -0.09112730094
672.5 -0.05541420587 -0.07576345851
673.125 -0.1006558661 -0.08617022372
673.75 -0.1063481984 -0.08997379046
674.375 -0.09177429556 -0.08840920949
675.0 -0.06072532956 -0.1179095322
675.625 -0.003784663461 -0.1301969653
676.25 0.03458385971 -0.1078216456
676.875 0.031215776 -0.1032160139
677.5 0.05175613679 -0.1116164205
678.125 0.07038972508 -0.05012433916
678.75 0.06618018002 -0.01764530559
679.375 0.08019708734 -0.01875270328
680.0 0.1281504401 -0.04728971963
680.625 0.1366574743 -0.0297885403
681.25 0.09738817584 -0.06010746219
681.875 0.0655395784 -0.114174642
682.5 0.02302505614 -0.176994647
683.125 0.03546075235 -0.1587552525
683.75 0.04228732723 -0.1080085693
684.375 0.08390165149 -0.08694417774
685.0 0.1346796309 -0.002052304413
685.625 0.09034024991 0.07235495544
686.25 0.03339246742 0.08324267787
686.875 -0.01116750861 0.08563507468
687.5 -0.06674692893 0.0719177137
688.125 -0.08673548272 0.06549251823
688.75 -0.1099785387 0.08254606228
689.375 -0.1484315741 0.07329774084
690.0 -0.1286821992 0.04745061915
690.625 -0.1091376385 0.0659940895
691.25 -0.08335696821 0.138834226
691.875 -0.03910825959 0.1839740918
692.5 0.04591723501 0.1014527455
693.125 0.07849153897 0.0182586299
693.75 0.1088912759 -0.02310082431
694.375 0.1594431077 -0.00245452485
695.0 0.1054447487 0.07306479462
695.625 0.03782271986 0.1001238985
696.25 -0.07646970079 0.1099014028
696.875 -0.1566365089 -0.01244546964
697.5 -0.1000178671 -0.1113575449
698.125 -0.07592871284 -0.1153786887
698.75 -0.07092113488 -0.112683825
699.375 -0.04417551747 -0.09820333307
700.0 -0.02201744819 -0.09782205262
700.625 0.01561512994 -0.1154110662
701.25 0.05420919973 -0.08530653889
701.875 0.04831197284 -0.06960850493
702.5 0.01296048422 -0.1051792693
703.125 -0.09304503006 -0.1517271974
703.75 -0.1673715866 -0.08450244233
704.375 -0.1265727694 0.02555108008
705.0 -0.09995674359 0.04815164686
705.625 -0.150937557 -0.004375521689
706.25 -0.07195158081 -0.1321753399
706.875 0.02811404195 -0.08920945534
707.5 0.04846024262 -0.05875822771
708.125 0.0912808691 -0.001821177405
708.75 0.06967155049 0.08485674319
709.375 -0.002248843634 0.100390749
710.0 -0.03810944059 0.08769115935
710.625 -0.07362054572 0.07109460894
711.25 -0.1033998154 0.04574548227
711.875 -0.115881777 0.06537615221
712.5 -0.09116417388 0.1221731815
713.125 0.02078715459 0.136064678
713.75 0.1008448068 0.0470892696
714.375 0.1087774057 -0.02175262184
715.0 0.115801237 -0.0308929356
715.625 0.08289891429 0.01291640069
716.25 0.04914165315 0.03946529936
716.875 0.03395747338 0.07467569583
717.5 -0.03259210583 0.1183111071
718.125 -0.07455842734 0.08331814558
718.75 -0.06379556239 0.05782116445
719.375 -0.07636115432 0.04604996611
720.0 -0.1095281331 -0.01671319079
720.625 -0.04857795497 -0.1032022288
721.25 0.04361309497 -0.08924509286
721.875 0.08557734393 -0.03990242598
722.5 0.07766748299 -0.006299558406
723.125 0.05691163742 -0.006241960396
723.75 0.05512562233 -0.01999816675
724.375 0.03685456556 -0.05932211045
725.0 -0.004796052185 -0.06149842418
725.625 -0.02656010239 -0.05464957226
726.25 -0.03894082959 -0.0651975831
726.875 -0.02617022544 -0.08540680772
727.5 -0.008148019203 -0.07744939624
728.125 0.006759492401 -0.06074438205
728.75 0.0149502011 -0.04919134214
729.375 0.01853792127 -0.04645142682
730.0 0.01058303323 -0.0432820987
730.625 0.007170639393 -0.02989738939
731.25 0.01793236762 -0.01396702385
731.875 0.01793447623 0.008848915901
732.5 -0.001395526369 0.02376170553
733.125 -0.01495747874 0.03079312737
733.75 -0.00345075176 0.03842612595
734.375 0.01264361962 0.03118853551
735.0 0.02099895295 0.01006686569
735.625 0.01790410783 -0.002615604055
736.25 0.008537396809 -0.01793261509
736.875 -0.01461942635 -0.02618243326
737.5 -0.03629891023 -0.01902252143
738.125 -0.04524310159 -0.007206319096
738.75 -0.03407641347 0.005706493032
739.375 -0.008253327967 0.004877040103
740.0 0.001966335266 -0.01793376891
740.625 -0.01642415603 -0.02461170255
741.25 -0.0205668901 -0.01820211735
741.875 0.0008307822806 -0.0244495013
742.5 0.02852010741 0.0001160810842
743.125 0.01083437997 0.02980361995
743.75 -0.007377148268 0.03326987399
744.375 -0.01700952288 0.03981174967
745.0 -0.03139939186 0.05016486077
745.625 -0.02240584337 0.07149502301
746.25 0.02682154386 0.07954108742
746.875 0.0751716604 0.04113130404
747.5 0.06528319007 -0.0004450981895
748.125 0.0423716126 -0.01481217471
748.75 0.03286877108 -0.02591817374
749.375 0.01259303713 -0.0529612219
750.0 -0.04515933024 -0.0382731451
