!Created with skrf (http://scikit-rf.org).
# GHz S RI R 50.0 
!freq ReS11 ImS11
500.0 -0.004831568547 0.01930269833
500.625 0.02289928098 0.009732520989
501.25 0.02498536203 -0.01122875009
501.875 0.02063978969 -0.01855886565
502.5 0.01160564407 0.006191757851
503.125 0.02120028972 0.003241131324
503.75 0.02357212 -0.01842227934
504.375 0.02011989162 -0.02932743986
505.0 0.01244382302 -0.03490229095
505.625 0.007180286893 -0.05301048851
506.25 -0.01663574768 -0.06827721691
506.875 0.009252188943 -0.09585184141
507.5 -0.01712413579 -0.07281759125
508.125 0.004371720277 -0.08394575598
508.75 -0.04933375539 -0.09063720904
509.375 -0.05150379563 -0.06337403572
510.0 -0.02621204193 -0.0594759827
510.625 -0.05802778955 -0.01037279821
511.25 -0.08032277011 -0.00368418836
511.875 -0.05835991469 0.03871514018
512.5 -0.009347121305 0.05257695453
513.125 0.05653635185 0.04818847909
513.75 0.07253858318 0.04554831351
514.375 0.06567677325 0.01458568859
515.0 0.07210494114 -0.01588766642
515.625 0.09478794706 0.05314275067
516.25 0.1127855004 0.02212749872
516.875 0.07181483128 0.1013599732
517.5 0.1394344336 0.01425847746
518.125 0.1332684661 0.201160759
518.75 0.1131282161 -0.006800403936
519.375 0.08288891261 0.003733705354
520.0 0.09461609284 -0.04837965536
520.625 0.1176363921 -0.05529143683
521.25 0.08046582013 -0.07117150741
521.875 0.06692558659 -0.02903249082
522.5 0.0551397891 -0.09568463194
523.125 0.1433126734 -0.1901087031
523.75 0.08402944729 -0.2649670225
524.375 0.08648618587 -0.2647049192
525.0 0.03796838581 -0.1189652003
525.625 0.03516894817 -0.07825307511
526.25 0.04519489508 -0.05625212
526.875 0.02555707386 -0.07188958813
527.5 0.01097796774 -0.08496839378
528.125 -0.02120997687 -0.06135436817
528.75 -0.04168783008 -0.06539600745
529.375 -0.1186080682 -0.03497172654
530.0 -0.0996179063 0.02781888826
530.625 -0.03309750184 0.04728051642
531.25 -0.05991526289 0.03778002186
531.875 -0.1296591868 0.08182280857
532.5 -0.124322702 0.1118030597
533.125 -0.07350308226 0.09170275101
533.75 -0.03124435767 0.0987527906
534.375 -0.0492167172 0.1235261514
535.0 -0.04426086611 0.118979468
535.625 -0.04405083437 0.07769191967
536.25 0.01697417916 0.08070167367
536.875 -0.02187517864 0.09076888431
537.5 -0.07668900781 0.05291139293
538.125 -0.05603348681 0.07165097583
538.75 -0.03630206844 0.1277630416
539.375 -0.06488489284 0.1082884358
540.0 -0.0541083774 0.08557390465
540.625 -0.05169400614 0.08200387463
541.25 -0.07327785815 0.1022420378
541.875 -0.08438200446 0.06575910538
542.5 -0.06662146907 0.02899530958
543.125 -0.06086761864 0.07299331463
543.75 -0.005999354517 0.1437770693
544.375 0.02572429696 0.141333811
545.0 0.0930117803 0.05103315107
545.625 0.1162807145 -0.01633486105
546.25 0.1270227745 -0.04453527765
546.875 0.1105957085 -0.04247716378
547.5 0.1196217928 -0.04148797866
548.125 0.1536060729 -0.03764189929
548.75 0.1594394793 0.02802779682
549.375 0.1417556759 0.03691861695
550.0 0.1354575771 0.07319357619
550.625 0.1283838235 0.09715233881
551.25 0.04671159892 0.09837645597
551.875 0.04210610444 0.05052830823
552.5 0.055984327 0.04872544136
553.125 0.06240948229 0.07420485835
553.75 0.01558109245 0.06059634476
554.375 0.02194910093 0.04933611828
555.0 0.05128202307 0.06289159275
555.625 0.07172176802 0.07893140861
556.25 0.03167914136 0.08198771101
556.875 0.02927291957 0.07175455645
557.5 0.04129465091 0.1002850216
558.125 0.02823968269 0.1248151081
558.75 -0.007884793544 0.1166299847
559.375 0.02800682647 0.1076721052
560.0 0.03749747834 0.1150039418
560.625 0.03806331489 0.07480244405
561.25 0.03761088852 0.04649766805
561.875 0.04564303886 0.05267707743
562.5 0.05872532621 0.05776666265
563.125 0.0552769495 0.04815313502
563.75 0.06919571902 0.02791207296
564.375 0.1136182039 0.009958208418
565.0 0.128267036 0.04875287179
565.625 0.1100404567 0.02247762471
566.25 0.0973408417 0.02296250846
566.875 0.1033674215 0.04630860714
567.5 0.06448022793 0.09573996601
568.125 0.0395163828 0.09031482779
568.75 0.04993572619 0.1068014806
569.375 0.04264939107 0.1096540417
570.0 0.03331001253 0.09010071676
570.625 0.03293355209 0.06149317406
571.25 0.05330928086 0.06671007441
571.875 0.0378070469 0.06118746247
572.5 0.03018248004 0.03373789794
573.125 0.03654518339 0.04357266359
573.75 0.08919920308 0.04433468032
574.375 0.1045869654 0.03155022185
575.0 0.07514013029 0.005833353669
575.625 0.06825549847 -0.009507656192
576.25 0.1005740713 0.008918819028
576.875 0.09825427548 0.01938452123
577.5 0.08954166594 0.006958522209
578.125 0.09914519052 -0.01369556036
578.75 0.1251303749 -0.004178458049
579.375 0.1034859456 0.005498098844
580.0 0.09388843225 -0.01392315516
580.625 0.09659113486 -0.03611699947
581.25 0.0814934498 -0.03342058624
581.875 0.04909269586 0.0002737389525
582.5 0.04874591072 0.01092453207
583.125 0.0836096427 0.02498305842
583.75 0.08129896694 0.03426666951
584.375 0.06029204158 0.03551706494
585.0 0.05116479243 0.0443731196
585.625 0.06842424316 0.06434830574
586.25 0.05896522087 0.0619234814
586.875 0.05348698408 0.0384688502
587.5 0.07040955677 0.03555599876
588.125 0.09427281684 0.02388705774
588.75 0.09406513329 0.01334200157
589.375 0.07581070967 -0.03574239803
590.0 0.0574400155 -0.06668829214
590.625 0.04497243884 -0.04006083104
591.25 0.03579644403 -0.005766297184
591.875 0.04770895718 -0.001855026886
592.5 0.07417854983 -0.02688030279
593.125 0.08887690141 -0.02474803357
593.75 0.07544961355 -0.008003792628
594.375 0.07775769248 0.006566102598
595.0 0.08964167261 0.03057075929
595.625 0.07354173608 0.05138875597
596.25 0.04759488193 0.05056869211
596.875 0.03854796543 0.05447763992
597.5 0.03168993244 0.07170162873
598.125 0.03777191618 0.06654086105
598.75 0.05507462991 0.04466559245
599.375 0.05709343755 0.02953989419
600.0 0.04078531371 0.02145991787
600.625 0.01789963341 0.01111016012
601.25 0.003742258221 0.01374854157
601.875 -0.004675937783 0.03155574834
602.5 -0.01195791665 0.03925360997
603.125 -0.01634853977 0.04077821955
603.75 -0.008536769618 0.04916636288
604.375 -0.00311167258 0.05369859208
605.0 -0.00893856304 0.0387019324
605.625 -0.01963126006 0.02211871785
606.25 -0.03650902949 0.02498572106
606.875 -0.04393538714 0.03952256846
607.5 -0.02522981813 0.04879743496
608.125 0.0003627957107 0.04128601336
608.75 0.004154837729 0.03304477031
609.375 0.001457370141 0.03006347353
610.0 0.00482429617 0.02350229025
610.625 0.01147745057 0.01059597612
611.25 0.01052495691 -0.002742894601
611.875 0.006884656614 -0.01354635357
612.5 -0.0002431590263 -0.02017119156
613.125 -0.01158323746 -0.01618405004
613.75 -0.01266873151 -0.003099787686
614.375 -0.001374057813 0.00415654953
615.0 0.008767935693 -0.001455489471
615.625 0.0051129419 -0.007099520452
616.25 -0.0002807999623 0.001634641909
616.875 0.01012739124 0.01288262186
617.5 0.02554031838 0.01225391092
618.125 0.02904326229 0.008324907422
618.75 0.02862351857 0.009195084726
619.375 0.03879833873 0.01617489844
620.0 0.05650704927 0.01394997291
620.625 0.05780095638 -0.01285817908
621.25 0.04845216015 -0.02329345625
621.875 0.03458950782 -0.02928456616
622.5 -0.001604860557 -0.02172355915
623.125 -0.0005762574283 0.005487948564
623.75 0.01472038865 0.02078319128
624.375 0.02324782938 0.03341595006
625.0 0.01038452777 0.04519169501
625.625 0.01049995404 0.05179473198
626.25 0.03310602165 0.06578706576
626.875 0.0510217753 0.07905153718
627.5 0.03959266991 0.07690285731
628.125 0.03116771765 0.06734814081
628.75 0.03166864592 0.07669087303
629.375 0.02166752865 0.09094645434
630.0 0.01149814856 0.07555513559
630.625 0.007803235072 0.06031042551
631.25 -0.00187669446 0.0561138832
631.875 -0.0235444295 0.04658648741
632.5 -0.03304099632 0.032206436
633.125 -0.03854664532 0.03061890053
633.75 -0.04845406882 0.04724592143
634.375 -0.05929285994 0.04150458914
635.0 -0.05848916935 0.04699273053
635.625 -0.05287587285 0.07236996373
636.25 -0.05458469441 0.08799654243
636.875 -0.05424658128 0.05783939515
637.5 -0.05338430706 0.04584436429
638.125 -0.07669258334 0.07122230657
638.75 -0.09359052889 0.07194726112
639.375 -0.07882966842 0.03532981648
640.0 -0.06040674691 0.0115189468
640.625 -0.07668425628 -0.01602742873
641.25 -0.07238254539 -0.05631884583
641.875 -0.0527565594 -0.05291612373
642.5 -0.05274899024 -0.04906882659
643.125 -0.05732264344 -0.07634861198
643.75 -0.02982760034 -0.1044184398
644.375 -0.03341285674 -0.08597426535
645.0 -0.06937507706 -0.07211940327
645.625 -0.07520224645 -0.08344696893
646.25 -0.04964036346 -0.07661205899
646.875 -0.02442825663 -0.07173617456
647.5 -0.04745331671 -0.07723925993
648.125 -0.04241297442 -0.09223326275
648.75 -0.007038334664 -0.07175475034
649.375 0.01883675423 -0.06012438364
650.0 0.04877943904 -0.07417741565
650.625 0.08214608425 -0.06453901109
651.25 0.08719659737 -0.03474106101
651.875 0.09931379766 -0.01150858334
652.5 0.1327694752 0.03638409482
653.125 0.1119231408 0.07150723576
653.75 0.09619188025 0.0651718721
654.375 0.09552658953 0.06957170424
655.0 0.06327607878 0.09882935914
655.625 0.01646157304 0.07546709942
656.25 0.02495379118 0.05743185269
656.875 0.05739896472 0.06844112868
657.5 0.03089999081 0.09705786719
658.125 -0.009033639006 0.08609314767
658.75 0.001245189563 0.08418182598
659.375 0.06024676862 0.111540131
660.0 0.09033540532 0.1138249713
660.625 0.0960162281 0.08380151473
661.25 0.1130255404 0.04751688679
661.875 0.1402727892 0.01872200429
662.5 0.1310253664 0.006464543774
663.125 0.1065205116 0.006636606531
663.75 0.1000665769 0.04462883691
664.375 0.02297693856 0.1043495125
665.0 -0.03386524551 0.07850439553
665.625 -0.04772318208 0.0557029334
666.25 -0.08877395155 0.05774246846
666.875 -0.1356090396 -0.01201968671
667.5 -0.1089711157 -0.03619437162
668.125 -0.1130996711 -0.01324024912
668.75 -0.1464389037 0.01519147017
669.375 -0.1386226166 -0.01852309358
670.0 -0.08929911821 -0.02984965132
670.625 -0.09555890306 -0.02022292603
671.25 -0.1284447405 0.002688153433
671.875 -0.1158559378 0.0105405789
672.5 -0.08248657579 0.0306249389
673.125 -0.08165744396 0.04442386405
673.75 -0.1157913887 0.05178594893
674.375 -0.1227941899 0.03040585213
675.0 -0.122719302 -0.0004928232114
675.625 -0.1287014114 -0.0542560262
676.25 -0.09258727826 -0.1019685867
676.875 -0.07438152585 -0.1011813336
677.5 -0.09940326558 -0.09069811932
678.125 -0.0912316345 -0.1167817236
678.75 -0.02515894187 -0.08472773901
679.375 -0.001088577732 -0.06133733384
680.0 -0.01547659438 -0.07888420037
680.625 -0.01723068135 -0.128652052
681.25 -0.003925972567 -0.11470334
681.875 -0.02902971262 -0.09386217666
682.5 -0.1009686954 -0.08445208832
683.125 -0.1435695571 -0.1025336065
683.75 -0.09492478552 -0.1268163493
684.375 -0.02384549425 -0.1231952643
685.0 0.05595232691 -0.1347519675
685.625 0.1353532795 -0.07328420957
686.25 0.1333226476 -0.01277822998
686.875 0.1111703229 0.01567059203
687.5 0.07772427132 0.05676853594
688.125 0.03580189051 0.0769411736
688.75 0.01869838178 0.08598364547
689.375 0.0234697964 0.1208988825
690.0 -0.01840639435 0.1430046691
690.625 -0.01571759881 0.1242926014
691.25 0.04313638024 0.1225568219
691.875 0.1601627974 0.09232933116
692.5 0.2021840201 0.002778759957
693.125 0.08079174043 -0.0965535642
693.75 -0.0009670859062 -0.1045885119
694.375 -0.002843471201 -0.1372867574
695.0 0.1000572585 -0.1218886335
695.625 0.1096553896 0.004414395903
696.25 0.05652280695 0.07789292977
696.875 -0.04879788835 0.1105868045
697.5 -0.1302093981 0.04351396938
698.125 -0.1376844853 -0.0006854504935
698.75 -0.1432710147 0.009443343985
699.375 -0.1354053537 0.0008463019357
700.0 -0.1106142883 -0.01830563881
700.625 -0.1054672598 -0.04261168745
701.25 -0.112482272 -0.07602655769
701.875 -0.07367841469 -0.06218275951
702.5 -0.06350204529 -0.03594221476
703.125 -0.1003226327 0.007199140634
703.75 -0.1264204099 0.128349461
704.375 -0.07982207217 0.1481014645
705.0 -0.02999757499 0.1167709719
705.625 -0.05356970883 0.1096132602
706.25 -0.1600692749 0.05439384774
706.875 -0.1131469483 -0.1096608715
707.5 -0.04284139781 -0.09684166758
708.125 -0.003208571424 -0.09495422504
708.75 0.06883878021 -0.06930439901
709.375 0.09638066378 0.02054217538
710.0 0.05819689153 0.06141510559
710.625 0.04072894441 0.07295329073
711.25 0.003936486466 0.08430488008
711.875 -0.006843542616 0.09762945649
712.5 0.03917436941 0.1241632291
713.125 0.1413807218 0.07663922929
713.75 0.1319520189 -0.06143803333
714.375 0.04573644022 -0.119432667
715.0 -0.009844553607 -0.1388894721
715.625 0.03423243354 -0.1353472208
716.25 0.06200251983 -0.06203666473
716.875 0.06148325528 -0.01715104806
717.5 0.07945837927 0.0307603318
718.125 0.06822940402 0.08800497507
718.75 0.02448547027 0.08581244296
719.375 0.003851240195 0.0674880327
720.0 -0.04084745624 0.066294667
720.625 -0.1046084559 -0.004463431639
721.25 -0.04582417565 -0.1037890925
721.875 0.02820963089 -0.1058092523
722.5 0.04380320867 -0.1033273234
723.125 0.002787570193 -0.09604054488
723.75 -0.03318155381 -0.06191502145
724.375 -0.05174820441 -0.03381896867
725.0 -0.05449781904 -0.001295117246
725.625 -0.04159533798 0.008741286447
726.25 -0.04670972742 0.001617134212
726.875 -0.06711769107 -0.02159204941
727.5 -0.07097330167 -0.04681563194
728.125 -0.05319588414 -0.05386082054
728.75 -0.04739311405 -0.03864259555
729.375 -0.04445070232 -0.0275314147
730.0 -0.04035431175 -0.0304306233
730.625 -0.03134130661 -0.02783795505
731.25 -0.01535394754 -0.02667977906
731.875 0.003771137395 -0.02315766939
732.5 0.01134036635 -0.003466533487
733.125 0.005581575172 0.01649524491
733.75 0.01501204174 0.0249664366
734.375 0.02781533927 0.01794385838
735.0 0.02754757451 -0.003226189205
735.625 0.02020458908 -0.01138483689
736.25 0.01000762169 -0.02176096722
736.875 -0.01195278568 -0.02519698873
737.5 -0.03400075862 -0.01268056027
738.125 -0.0472666806 0.004212989171
738.75 -0.04291097298 0.01967106383
739.375 -0.02339244721 0.02164516333
740.0 -0.01545179933 0.006294192695
740.625 -0.02922003905 0.005428956708
741.25 -0.03430133087 0.01206673602
741.875 -0.03359376456 -0.007689725127
742.5 -0.001729673917 -0.03434044907
743.125 0.03506512505 -0.01127894542
743.75 0.03371252616 0.01069912169
744.375 0.03328478201 0.01110159042
745.0 0.03346900225 0.01690378301
745.625 0.03386870147 0.02848276829
746.25 0.05526108828 0.02778846063
746.875 0.07137157232 -0.02129415791
747.5 0.04583108793 -0.05949662824
748.125 0.01375314661 -0.06396347295
748.75 -0.01724999674 -0.05467328953
749.375 -0.05665685859 -0.03323294362
750.0 -0.06932669794 0.04095957176
