!Created with skrf (http://scikit-rf.org).
# GHz S RI R 50.0 
!freq ReS11 ImS11
500.0 -0.03828627929 0.01669966565
500.625 -0.01147321259 0.04419760945
501.25 -0.01229609768 0.04557377356
501.875 -0.03239721753 0.06128598959
502.5 -0.04475692381 0.07089388228
503.125 -0.006681915866 0.06805174237
503.75 0.02185428267 0.0540128322
504.375 0.03911355783 0.04408338159
505.0 0.06361308478 0.02422468516
505.625 0.07150477107 0.01400021069
506.25 0.05448967809 -0.002787780475
506.875 0.05059435133 0.03620950231
507.5 0.06012620065 0.03983578716
508.125 0.04396406683 0.0602983124
508.75 0.06448770373 0.02907912555
509.375 0.07112427809 0.03090255182
510.0 0.08331010285 0.06053928789
510.625 0.0457954335 -0.04884061954
511.25 0.02022981437 -0.05064437703
511.875 0.001938830961 -0.03945152419
512.5 -0.002995002824 -0.030210017
513.125 -0.03648612459 -0.02471429912
513.75 -0.06819025135 -0.01781090021
514.375 -0.0910165506 0.01811414772
515.0 -0.0790805535 0.05564922356
515.625 -0.1085889659 0.02166100926
516.25 -0.06332414741 0.1000513592
516.875 -0.1052250668 0.02426862572
517.5 -0.03965016346 0.05564081073
518.125 -0.06195133358 -0.01648921846
518.75 -0.05775448658 0.02383139849
519.375 -0.07184854394 0.02519117612
520.0 -0.02941783096 0.0613440799
520.625 -0.01958144626 0.04672978177
521.25 -0.0162733143 0.05786153392
521.875 -0.02527950362 0.03429529711
522.5 0.0166828361 0.03782433776
523.125 0.009980081485 0.0378893014
523.75 -0.03837381186 0.03215814508
524.375 -0.1004313716 -0.003459390928
525.0 -0.06323237044 0.01520186431
525.625 -0.06594855948 0.04465550137
526.25 -0.07745151349 0.04019434288
526.875 -0.04444533784 0.04224561689
527.5 -0.0223218436 0.06271722046
528.125 0.02699806045 0.07528241412
528.75 0.03531758918 0.07514801177
529.375 0.05899794759 0.05194151721
530.0 0.0903907851 0.01210950516
530.625 0.1218700567 -0.102154941
531.25 0.1523333036 -0.1280312058
531.875 0.07796642716 -0.1364782792
532.5 0.01251331775 -0.1161759869
533.125 0.03843302411 -0.1102372142
533.75 0.01587998066 -0.09482666616
534.375 0.01082197879 -0.08196678151
535.0 0.00220380993 -0.06837572052
535.625 0.05110171025 -0.05249650174
536.25 0.02034658445 -0.07262521607
536.875 0.02942266329 -0.1070675999
537.5 0.04343259299 -0.1134411979
538.125 0.01326409088 -0.07989775157
538.75 0.008850748212 -0.06480072814
539.375 0.04971530698 -0.08190670902
540.0 0.07580749638 -0.1388823248
540.625 0.06424508844 -0.1180454902
541.25 0.04417796404 -0.09708044175
541.875 0.04031103316 -0.1139054382
542.5 0.03963212038 -0.1201584647
543.125 -0.01655251492 -0.09669325588
543.75 -0.04889708749 -0.03577491224
544.375 -0.03931439433 -0.03364067015
545.0 -0.04904306895 -0.02860029152
545.625 -0.07160173189 0.003706109582
546.25 -0.06539840908 0.02959569484
546.875 -0.06302649933 0.04588992877
547.5 -0.06806860274 0.02624978786
548.125 -0.07030435608 0.02650573183
548.75 -0.07243398873 -0.004523488728
549.375 -0.06864957481 -0.03764039971
550.0 -0.01652391591 -0.06613494973
550.625 -0.007512464222 -0.08099699245
551.25 0.02928326385 -0.1040908975
551.875 0.01065684721 -0.1287326391
552.5 -0.02065515334 -0.1081368839
553.125 -0.05436993073 -0.09313501762
553.75 -0.05942291997 -0.09800184118
554.375 -0.07849110088 -0.07978211169
555.0 -0.07398646913 -0.05390675461
555.625 -0.07748140525 -0.03840657755
556.25 -0.07602037655 -0.05958212108
556.875 -0.0721297702 -0.05202310345
557.5 -0.06260660285 -0.04414700761
558.125 -0.04795838563 -0.03684029466
558.75 -0.006469924626 -0.04749388962
559.375 0.005347442422 -0.03566415564
560.0 0.02167293355 -0.06017565225
560.625 0.01446005375 -0.08809905414
561.25 -0.01576965634 -0.1034419925
561.875 -0.05220867606 -0.0737016967
562.5 -0.08442461987 -0.043530744
563.125 -0.1047741942 -0.01996754536
563.75 -0.09027884372 0.009943237396
564.375 -0.06261312486 0.0342711279
565.0 -0.05931128253 0.01994296739
565.625 -0.06646274863 -0.001320902124
566.25 -0.05578900979 -0.036958609
566.875 -0.05215057114 -0.03976102078
567.5 -0.0483226149 -0.04800514578
568.125 -0.02836211743 -0.0513572669
568.75 -0.005015488252 -0.05302589608
569.375 0.02072132999 -0.05433000295
570.0 0.02296230018 -0.08067787872
570.625 0.0153581581 -0.08450738508
571.25 -0.01450228543 -0.08587578325
571.875 -0.02407716992 -0.09308817952
572.5 -0.08026871181 -0.08688047863
573.125 -0.09278408427 -0.04831208333
573.75 -0.0861390717 0.01079629135
574.375 -0.07758560528 0.007227583853
575.0 -0.0937863655 -0.006649228468
575.625 -0.08020836004 0.009572935816
576.25 -0.06829737842 0.03182514497
576.875 -0.05738839285 0.03969875085
577.5 -0.05643343598 0.01801787916
578.125 -0.03869126375 0.002824739001
578.75 -0.04080625587 1.605999679e-05
579.375 -0.04847051929 -0.004931775324
580.0 -0.05035256525 -0.02473863426
580.625 -0.05340263852 -0.04523812576
581.25 -0.08207540283 -0.03442774215
581.875 -0.103463771 -0.02214969669
582.5 -0.09167225923 -0.008833825809
583.125 -0.08219460134 -0.01495331135
583.75 -0.07023464928 -0.02244503218
584.375 -0.07354166112 -0.04380513272
585.0 -0.0615214045 -0.03494671966
585.625 -0.05881613762 -0.03075075728
586.25 -0.04537277527 -0.04089395452
586.875 -0.04539170839 -0.04609361928
587.5 -0.05072717914 -0.02172393322
588.125 -0.05204330617 0.004752851633
588.75 -0.05208864286 -0.00933650064
589.375 -0.05485258143 -0.0269889396
590.0 -0.0708686308 -0.007504211263
590.625 -0.08374074771 0.03418600341
591.25 -0.08466443008 0.06011808313
591.875 -0.06406583427 0.05336738153
592.5 -0.03330041568 0.04826211018
593.125 -0.03271569387 0.04083319181
593.75 -0.04439534915 0.0308510662
594.375 -0.04241781733 0.008869434889
595.0 -0.02618260388 -0.01156914784
595.625 -0.0198450227 -0.02850820928
596.25 -0.01342420147 -0.04277838627
596.875 -0.01230844049 -0.04092349005
597.5 -0.002888835985 -0.03843605806
598.125 0.004075232429 -0.03660572287
598.75 0.008815059857 -0.04340084137
599.375 0.005619609569 -0.05409530646
600.0 0.002385536655 -0.07103950267
600.625 -0.0007167349966 -0.07961542347
601.25 -0.01838161969 -0.06978299177
601.875 -0.03449346335 -0.05102072902
602.5 -0.03618351677 -0.04067408948
603.125 -0.02649912456 -0.03480933549
603.75 -0.01549685335 -0.01979100496
604.375 -0.002943585405 -0.01631746523
605.0 0.006112878674 -0.02656391275
605.625 0.00357880195 -0.03291194148
606.25 -0.006796410543 -0.02280417586
606.875 -0.009314198973 -0.002442228847
607.5 0.005899582631 0.01050406731
608.125 0.02021865346 0.003203079376
608.75 0.02088223001 -0.002219469496
609.375 0.02328669365 0.002493461758
610.0 0.02983963424 0.005754353376
610.625 0.03286865395 -0.002282602524
611.25 0.02925266088 -0.01064763448
611.875 0.02228469285 -0.01440479544
612.5 0.009790113492 -0.0173646912
613.125 -0.00688801721 -0.01286124424
613.75 -0.01330899665 9.411843633e-05
614.375 -0.007493036899 0.006499342484
615.0 -0.00250210798 0.0009182738371
615.625 -0.011989712 -0.005668752079
616.25 -0.02228731722 0.002742601177
616.875 -0.01705976693 0.01371921222
617.5 -0.007331327645 0.01085815216
618.125 -0.008320490085 0.001802704486
618.75 -0.01211338485 0.0001054543245
619.375 -0.00645622645 0.000975546274
620.0 0.005539519755 -0.007363530799
620.625 0.003067255591 -0.02859229405
621.25 -0.00502888955 -0.04722770751
621.875 -0.02321552118 -0.0620545835
622.5 -0.07498694087 -0.02005590658
623.125 -0.07646126696 0.01033585393
623.75 -0.06297649729 0.01593802161
624.375 -0.05611048584 -0.0009973735303
625.0 -0.04923669694 -0.02650574717
625.625 -0.04827777557 -0.02023049019
626.25 -0.03695262025 0.001967939524
626.875 -0.01935930624 0.0002652764414
627.5 -0.00392872175 -0.02219054982
628.125 0.01153346461 -0.03507082081
628.75 0.01365079879 -0.02995514496
629.375 0.02160258729 -0.02902767286
630.0 0.04220684226 -0.03704562286
630.625 0.06534083265 -0.03585164216
631.25 0.06854605942 -0.03989774828
631.875 0.06320313201 -0.05170593484
632.5 0.05792505507 -0.05990313641
633.125 0.05509245502 -0.05330350481
633.75 0.04998207348 -0.05471303762
634.375 0.04890330589 -0.0537364274
635.0 0.0385340602 -0.05313062548
635.625 0.01914829617 -0.04359649441
636.25 0.03828519143 -0.03825258068
636.875 0.06302980282 -0.03858845164
637.5 0.05118559578 -0.04227652445
638.125 0.02483338966 -0.03402944817
638.75 0.0405843457 -0.008624699311
639.375 0.07297219599 0.03337259959
640.0 0.06164206535 0.05595054273
640.625 0.06311000762 0.04019246785
641.25 0.06101235758 0.03920766777
641.875 0.046884367 0.06231953978
642.5 0.02155828853 0.06601187211
643.125 0.02000160542 0.06560814346
643.75 0.02065758909 0.0679413519
644.375 0.009449240762 0.06581468038
645.0 0.003862408402 0.06507481892
645.625 -0.003459234314 0.0797767099
646.25 0.01439484614 0.09775225385
646.875 0.009381914462 0.08840998141
647.5 0.01923858271 0.07427581219
648.125 -0.001407289348 0.0841804972
648.75 -0.02719125569 0.1016845869
649.375 -0.03195751162 0.08281551507
650.0 -0.02504633713 0.07399327902
650.625 -0.04374773893 0.05414459163
651.25 -0.06539380042 0.02186696713
651.875 -0.05064023875 -0.002664298221
652.5 -0.04236059106 -0.01802507467
653.125 -0.02570964895 -0.04850387135
653.75 0.01146604335 -0.07557612064
654.375 0.03095342453 -0.08153044888
655.0 0.03301268694 -0.09887445196
655.625 0.02418458735 -0.1195702708
656.25 0.009602610225 -0.1053105
656.875 -0.02161969498 -0.1036744328
657.5 -0.0129945887 -0.1077831863
658.125 -0.0087428048 -0.1189804556
658.75 -0.02930393205 -0.07678349907
659.375 -0.04318839731 -0.05456904688
660.0 -0.0330554468 -0.05183691613
660.625 -0.02359461897 -0.06932225097
661.25 -0.02829270914 -0.05629827181
661.875 -0.04909369289 -0.05794726085
662.5 -0.07235917221 -0.06951710001
663.125 -0.0563349152 -0.09136527197
663.75 -0.02934758647 -0.09772711487
664.375 0.02835846609 -0.1112149677
665.0 0.08665221485 -0.09364666328
665.625 0.09301673039 -0.04580060005
666.25 0.08877717709 -0.03411048604
666.875 0.09494131547 -0.005562444473
667.5 0.08245762747 0.03303870831
668.125 0.05034483483 0.03538175808
668.75 0.05003447922 0.04462366536
669.375 0.0702534443 0.05960661109
670.0 0.06588457533 0.07920892536
670.625 0.05690174687 0.06219686014
671.25 0.06620349475 0.06381022846
671.875 0.1027066585 0.04979417898
672.5 0.1162459981 0.00421668858
673.125 0.09757976795 -0.04171047639
673.75 0.08762740213 -0.02532028607
674.375 0.07959507191 0.009204320943
675.0 0.05852333812 0.03815751469
675.625 0.05228803234 0.05722666907
676.25 0.02012295993 0.08616621992
676.875 -0.03013534849 0.08189938457
677.5 -0.03373244018 0.07849059958
678.125 -0.03155579516 0.1081421877
678.75 -0.03861629963 0.1372715206
679.375 -0.06179792025 0.1079944245
680.0 -0.01941309529 0.0989147719
680.625 -0.001040644464 0.1023245736
681.25 0.02285806198 0.1136959657
681.875 0.02492994494 0.08237161548
682.5 0.04263791153 0.04789226081
683.125 0.03110237393 0.05700780002
683.75 0.004526571036 0.09130742683
684.375 -0.04346389152 0.07116373754
685.0 -0.08279662002 0.02552098987
685.625 -0.08514301755 -0.04273230528
686.25 -0.06582463022 -0.1002682185
686.875 -0.05392252761 -0.1090043111
687.5 -0.04414979574 -0.1366701923
688.125 -0.02350720902 -0.1358140957
688.75 -0.003486401077 -0.1032119128
689.375 -0.00702717938 -0.08804617093
690.0 0.00781297784 -0.09557466999
690.625 0.03252184768 -0.09495329467
691.25 0.01225527692 -0.05674327401
691.875 -0.01120387874 -0.05981138618
692.5 -0.06541781291 -0.07396124557
693.125 -0.1537643446 -0.01241188907
693.75 -0.1106168947 0.06473136201
694.375 -0.08346073005 0.09092927269
695.0 -0.1161349737 0.05722833935
695.625 -0.1264591717 -0.05264393112
696.25 -0.02269691516 -0.1139537177
696.875 0.07117952655 -0.07890791408
697.5 0.09088516655 -0.009302900132
698.125 0.06350521769 0.02486195826
698.75 0.06362553813 0.03901962006
699.375 0.06660270933 0.07013809787
700.0 0.04225165551 0.09043784177
700.625 0.01569149795 0.08145898542
701.25 0.02656769092 0.100123306
701.875 0.06076027406 0.1248869946
702.5 0.09177910579 0.09645988398
703.125 0.08594139815 -0.003163970372
703.75 0.05245492113 -0.0488764824
704.375 0.06159995039 -0.06537180451
705.0 0.1007728386 -0.04972683476
705.625 0.07978392351 -0.01535063609
706.25 0.06492063166 0.03831371012
706.875 0.005100835405 0.09483635525
707.5 -0.07525332025 0.09001208834
708.125 -0.1091905253 0.05354779335
708.75 -0.1109898528 0.008630098001
709.375 -0.0873688916 -0.04831045266
710.0 -0.04169945363 -0.07653952656
710.625 -0.01344827958 -0.0986187147
711.25 0.0151733623 -0.09668372156
711.875 0.002234360517 -0.07095267642
712.5 -0.02180435073 -0.03779995794
713.125 -0.03181198799 -0.03930851873
713.75 -0.07657894625 -0.04452057147
714.375 -0.09304951201 -0.01364596659
715.0 -0.0781339415 0.03083680368
715.625 -0.09546056758 0.04404156552
716.25 -0.1355988638 0.007125914096
716.875 -0.09904643035 -0.05475264545
717.5 -0.05354298205 -0.0687562665
718.125 -0.03104679513 -0.07430779889
718.75 -0.004281199827 -0.08687110149
719.375 0.02460059373 -0.07304760354
720.0 0.04477354112 -0.04379683542
720.625 0.04507114189 0.004504841432
721.25 -0.00388872214 0.03484773357
721.875 -0.04657177729 0.006910481773
722.5 -0.07366598011 -0.01699859136
723.125 -0.09450110352 0.02123755458
723.75 -0.0449669463 0.08270163886
724.375 0.03311955026 0.07219775761
725.0 0.06438065578 0.03134755271
725.625 0.06396203272 0.002190433354
726.25 0.04581652177 -0.009777869646
726.875 0.03044024928 -0.002767612659
727.5 0.01322098077 0.01894182176
728.125 -0.01155198781 0.03792057377
728.75 -0.01346092405 0.04279566529
729.375 0.007384743257 0.03813109613
730.0 0.008304889287 0.02680363988
730.625 -0.007894793403 0.02811228124
731.25 -0.0201360288 0.02402891911
731.875 -0.02995244289 0.009745283185
732.5 -0.03120066601 -0.004478690541
733.125 -0.0245186349 -0.003567589568
733.75 -0.01059696253 0.007702518178
734.375 0.00482205396 0.005976508682
735.0 0.009053805746 -0.004629066797
735.625 0.01044918474 -0.01044859837
736.25 0.007369763556 -0.02324563915
736.875 -0.008878732255 -0.03094803853
737.5 -0.02373679768 -0.01972097864
738.125 -0.02694914173 0.001885660459
738.75 -0.01545302128 0.02742830406
739.375 0.009751622499 0.03707253321
740.0 0.02875672743 0.01777225676
740.625 0.02354438947 0.005567585719
741.25 0.02151440118 0.01787730464
741.875 0.004901905765 0.03486193718
742.5 -0.03008650573 0.02433187893
743.125 -0.04050464662 -0.01674511174
743.75 -0.02526274708 -0.04378829749
744.375 -0.02705107018 -0.05199531083
745.0 -0.04391333939 -0.05118925206
745.625 -0.06569422039 -0.02062107821
746.25 -0.04031412291 0.01440614601
746.875 -0.0131942778 0.01164833866
747.5 -0.02055329963 -0.004482958321
748.125 -0.03811939098 0.003990457699
748.75 -0.03243560067 0.03274248597
749.375 0.01190902149 0.04956152618
750.0 0.06088986721 0.02400648735
