!Created with skrf (http://scikit-rf.org).
# GHz S RI R 50.0 
!freq ReS11 ImS11
500.0 -0.003590864263 0.01842463761
500.625 0.02266037709 0.01204703216
501.25 0.03103931982 -0.01079313286
501.875 0.02329902319 -0.01428435472
502.5 0.01758365123 0.009887641438
503.125 0.02429332613 0.005022197843
503.75 0.0281204355 -0.01782217703
504.375 0.02449103576 -0.02858415981
505.0 0.0164856419 -0.03623318261
505.625 0.008475788547 -0.05677649771
506.25 -0.01345349097 -0.07138352458
506.875 0.0179396053 -0.09597496999
507.5 -0.01035511717 -0.07541153387
508.125 0.01320898937 -0.08517638632
508.75 -0.03851799768 -0.09590082499
509.375 -0.04454052369 -0.06695734788
510.0 -0.01915225565 -0.06364105705
510.625 -0.05875718342 -0.01690063491
511.25 -0.08082256901 -0.01010629315
511.875 -0.0608959968 0.03329050011
512.5 -0.01605837385 0.05066150539
513.125 0.04745460312 0.05457443241
513.75 0.06737992634 0.05143526121
514.375 0.06389722009 0.02301706091
515.0 0.07558198207 -0.006083298509
515.625 0.08966008686 0.06797699329
516.25 0.1102787933 0.03461505248
516.875 0.06505295922 0.1100950387
517.5 0.1411978897 0.02489570616
518.125 0.1079323839 0.2126007703
518.75 0.1102538322 0.003681400622
519.375 0.08356522369 0.01192815181
520.0 0.1040600935 -0.03906569578
520.625 0.121590096 -0.04087041168
521.25 0.08624222578 -0.06198602462
521.875 0.07085232846 -0.02313980457
522.5 0.06675694943 -0.09252905349
523.125 0.1562745799 -0.169897192
523.75 0.1007684756 -0.2534276968
524.375 0.1057620808 -0.2499307201
525.0 0.0473047069 -0.1069366562
525.625 0.04056083299 -0.0666532231
526.25 0.04992273769 -0.04726672896
526.875 0.03544165159 -0.06634134112
527.5 0.02378008503 -0.07686268761
528.125 -0.0118332536 -0.06057732493
528.75 -0.03206825953 -0.07012034604
529.375 -0.1103649906 -0.05130086351
530.0 -0.09434876186 0.01100311692
530.625 -0.0369190728 0.03588474372
531.25 -0.07193703168 0.0239734988
531.875 -0.150538543 0.05782758859
532.5 -0.1362982495 0.09232347808
533.125 -0.0824260735 0.0811450684
533.75 -0.04507533583 0.09648046368
534.375 -0.07007241149 0.1146477602
535.0 -0.05520444298 0.108934798
535.625 -0.05050304776 0.07060469973
536.25 0.003679192413 0.07974176643
536.875 -0.04072355466 0.08203220943
537.5 -0.08346761203 0.03956249942
538.125 -0.06565858193 0.06618972579
538.75 -0.05585962732 0.1215796603
539.375 -0.07591214303 0.09311852126
540.0 -0.06426971284 0.07335826746
540.625 -0.06544838719 0.07467473957
541.25 -0.09213167951 0.08845386033
541.875 -0.09210730454 0.04850098436
542.5 -0.07269541322 0.02107943404
543.125 -0.07424716307 0.07007350717
543.75 -0.0254603978 0.1446972173
544.375 0.009527093486 0.140479182
545.0 0.08617337588 0.05874967213
545.625 0.1194567537 0.0001765890042
546.25 0.1287096683 -0.02351114951
546.875 0.1130659747 -0.02837525295
547.5 0.1235728766 -0.02666397742
548.125 0.1582747741 -0.01666201679
548.75 0.146910307 0.04793117298
549.375 0.1339625539 0.04905348803
550.0 0.1245083398 0.08719913386
550.625 0.1057982066 0.1051512443
551.25 0.03010018882 0.09186818119
551.875 0.0314970692 0.05064494164
552.5 0.04346284374 0.05691590106
553.125 0.03963475493 0.08260820191
553.75 0.002063183434 0.05934596755
554.375 0.01288327937 0.05457877249
555.0 0.04022948946 0.07454195646
555.625 0.05388148419 0.09074706415
556.25 0.01623015947 0.08383441461
556.875 0.01885849433 0.07921515082
557.5 0.02372439582 0.1094358097
558.125 0.009640303781 0.1261386658
558.75 -0.02214057596 0.112262117
559.375 0.01491038039 0.1090604485
560.0 0.01643099373 0.1124095279
560.625 0.02419667188 0.07153092491
561.25 0.02488106631 0.04990158727
561.875 0.0294989522 0.06240353512
562.5 0.04235580109 0.07131323073
563.125 0.04540891405 0.05742916357
563.75 0.06776431182 0.04083928443
564.375 0.1162374789 0.03259320258
565.0 0.1167680863 0.06571524444
565.625 0.1042857773 0.03517179981
566.25 0.09324040967 0.03649849018
566.875 0.09285315343 0.06548525344
567.5 0.0425611717 0.1013465539
568.125 0.02772992593 0.09412954829
568.75 0.03316670303 0.1125710741
569.375 0.02299612399 0.1087053633
570.0 0.01550269557 0.08641672682
570.625 0.02084922622 0.06149608547
571.25 0.03490611391 0.07462293603
571.875 0.0193889749 0.06156555302
572.5 0.01929098011 0.04004532632
573.125 0.02849582635 0.05591363121
573.75 0.08403795233 0.06389406135
574.375 0.09348477685 0.04902513154
575.0 0.07200639931 0.01778456483
575.625 0.07294331981 0.005355410799
576.25 0.098089699 0.03285941328
576.875 0.09308178338 0.03532791939
577.5 0.08853306543 0.01748604512
578.125 0.102762859 0.0005323932427
578.75 0.1208007271 0.01926265315
579.375 0.09653427675 0.01781008223
580.0 0.09230191981 -0.002357846831
580.625 0.09648656832 -0.0191624924
581.25 0.07688730019 -0.01292901658
581.875 0.04175070072 0.01270720357
582.5 0.04728480494 0.02349879376
583.125 0.07761746722 0.04521904377
583.75 0.07058916525 0.04851620887
584.375 0.05090234683 0.04613929519
585.0 0.0426527405 0.05612576886
585.625 0.05452352628 0.07997849757
586.25 0.04569244956 0.06839152709
586.875 0.04553720409 0.04716504096
587.5 0.06265712355 0.05203938915
588.125 0.08729035262 0.04205914051
588.75 0.08665038243 0.0258264526
589.375 0.07731920004 -0.02376103315
590.0 0.0663487885 -0.04852856641
590.625 0.04736486453 -0.01970662283
591.25 0.0377104297 0.006851976024
591.875 0.05344733855 0.008265181671
592.5 0.08463304781 -0.01162947091
593.125 0.09171768577 -0.005026047398
593.75 0.07554690013 0.00452203055
594.375 0.0790473148 0.0201293041
595.0 0.08275604552 0.04775224996
595.625 0.05971161633 0.06127046872
596.25 0.03580494723 0.05513852468
596.875 0.02699660864 0.06085778186
597.5 0.0156548906 0.07461534756
598.125 0.02472738828 0.06810743805
598.75 0.04361139337 0.04941061232
599.375 0.04485568407 0.03510788979
600.0 0.02747065115 0.02397204106
600.625 0.007545622076 0.01176504377
601.25 -0.007025300578 0.01679418593
601.875 -0.01777687708 0.03389705489
602.5 -0.02280484645 0.03893826829
603.125 -0.02469914018 0.04061527415
603.75 -0.0177540977 0.05038174128
604.375 -0.01409609595 0.05220076911
605.0 -0.016828114 0.03394051605
605.625 -0.02555908809 0.0183887481
606.25 -0.04292473576 0.02053029004
606.875 -0.04959623594 0.03318155593
607.5 -0.02945034254 0.04322464429
608.125 -0.004171732014 0.03800351333
608.75 -0.0005107729003 0.0302886682
609.375 -0.001996408325 0.02636725551
610.0 0.003055561034 0.01981709427
610.625 0.01020218125 0.007604014529
611.25 0.009978633336 -0.005475024564
611.875 0.007397342641 -0.01569102156
612.5 0.0006731586841 -0.02155669169
613.125 -0.01066719198 -0.01698128379
613.75 -0.01193321788 -0.003226604642
614.375 -0.0008584022012 0.004806530731
615.0 0.009230195435 -7.66309412e-05
615.625 0.005307018688 -0.00507077152
616.25 -0.0001574913782 0.004070524356
616.875 0.01026744207 0.01617214957
617.5 0.0251144001 0.0165928806
618.125 0.02766074087 0.01282682331
618.75 0.02734337327 0.01387074275
619.375 0.03691713121 0.02209586433
620.0 0.05306240039 0.02098144519
620.625 0.05507217227 -0.006090096873
621.25 0.04557639293 -0.01694011345
621.875 0.03046900408 -0.0217879397
622.5 -0.00241669089 -0.01250348657
623.125 -0.0008829428258 0.01435577143
623.75 0.01383165552 0.03037344922
624.375 0.01755949598 0.04348845275
625.0 0.0003853536737 0.05059881763
625.625 0.00209658888 0.05815995375
626.25 0.02459947572 0.07617879702
626.875 0.03761259325 0.08778679791
627.5 0.02678303093 0.07953407568
628.125 0.02013587471 0.07002488888
628.75 0.01652632207 0.08118826619
629.375 0.002465837661 0.08800374188
630.0 -0.0004101347689 0.0688831891
630.625 -0.002814406429 0.05488261761
631.25 -0.01607302848 0.04771543669
631.875 -0.0358350261 0.03216644186
632.5 -0.04127026395 0.01953991445
633.125 -0.04849982517 0.02063218182
633.75 -0.06275020896 0.03365238392
634.375 -0.06916934974 0.02603105206
635.0 -0.06962208638 0.03522663527
635.625 -0.06816895276 0.06316147044
636.25 -0.07213900986 0.07224858476
636.875 -0.06257632578 0.04246908042
637.5 -0.06447444215 0.03501642505
638.125 -0.09339037071 0.05584560939
638.75 -0.1006282544 0.05067803352
639.375 -0.07577006965 0.02016403212
640.0 -0.05870716603 -0.002911573336
640.625 -0.06978824039 -0.03938116058
641.25 -0.05283732217 -0.06970932347
641.875 -0.0408037585 -0.05999543579
642.5 -0.04269092246 -0.06025319738
643.125 -0.03605429807 -0.09112423914
643.75 -0.00302868557 -0.1051876804
644.375 -0.01902953583 -0.08765483154
645.0 -0.05480523885 -0.08466973495
645.625 -0.04957935208 -0.09476167424
646.25 -0.02587500764 -0.0803932605
646.875 -0.00693743888 -0.07340929933
647.5 -0.02979249934 -0.08878641143
648.125 -0.01703081102 -0.09508624503
648.75 0.01065732892 -0.06750806387
649.375 0.03592522529 -0.05558126201
650.0 0.06940372615 -0.06390650899
650.625 0.09541199535 -0.0453601388
651.25 0.09253322332 -0.01942436926
651.875 0.1045494261 0.007287738194
652.5 0.1223627825 0.06501378675
653.125 0.09463237619 0.08448949462
653.75 0.08344446249 0.07455637324
654.375 0.07853781707 0.0834648166
655.0 0.0310146309 0.1014387716
655.625 -0.002713412512 0.06740515814
656.25 0.01013356902 0.06145105475
656.875 0.03684460011 0.08390956706
657.5 -0.0003103271477 0.1007034222
658.125 -0.03045757624 0.08131031393
658.75 -0.01329297064 0.09024045808
659.375 0.03870285306 0.129441198
660.0 0.0655434126 0.127291542
660.625 0.07925204197 0.09563645065
661.25 0.1044321112 0.06552672115
661.875 0.1319291089 0.0451705902
662.5 0.1173153988 0.02817892577
663.125 0.09756613041 0.02434201977
663.75 0.08431841552 0.06478400325
664.375 -0.00407837601 0.09903420376
665.0 -0.04940326511 0.06397297001
665.625 -0.06089758664 0.04456632443
666.25 -0.1074108049 0.03393258713
666.875 -0.1267004999 -0.0437962604
667.5 -0.1017966158 -0.05302165347
668.125 -0.1138655957 -0.03099307085
668.75 -0.1487330613 -0.01675628745
669.375 -0.1201167525 -0.04519601119
670.0 -0.07734115612 -0.04311010847
670.625 -0.09183704206 -0.03920299151
671.25 -0.1234787024 -0.02711330483
671.875 -0.106312218 -0.01641279173
672.5 -0.0851663691 0.009689078073
673.125 -0.09354321595 0.02630357126
673.75 -0.1267948988 0.02521509666
674.375 -0.1257912592 0.007271797603
675.0 -0.1226185425 -0.02355439288
675.625 -0.1126633502 -0.08044221454
676.25 -0.06804653017 -0.1148299769
676.875 -0.056392508 -0.1080749839
677.5 -0.08037244044 -0.1069359086
678.125 -0.05247167994 -0.1254379785
678.75 -0.003821995962 -0.07745444682
679.375 0.01420733862 -0.05815836361
680.0 0.005676307326 -0.08644371033
680.625 0.02171574162 -0.1311371304
681.25 0.01970703024 -0.1088172758
681.875 -0.01513891962 -0.1011283778
682.5 -0.09095043623 -0.1073977891
683.125 -0.1199812976 -0.1320890467
683.75 -0.0662972163 -0.1337542728
684.375 -0.005035518262 -0.1225878028
685.0 0.08005831544 -0.121181775
685.625 0.1402671056 -0.04424514275
686.25 0.1247566162 0.01071933767
686.875 0.09736426908 0.03675251528
687.5 0.0558964024 0.07137150076
688.125 0.01387242411 0.08249729617
688.75 0.0004738980815 0.09339551381
689.375 -0.004942051912 0.1313365029
690.0 -0.04764300138 0.1324500343
690.625 -0.03485001894 0.1188458657
691.25 0.02716738049 0.1317646871
691.875 0.1455635847 0.124460362
692.5 0.1809452742 0.0400405672
693.125 0.08541276168 -0.07749325919
693.75 0.01828287604 -0.100676526
694.375 0.03052262411 -0.1349374653
695.0 0.1227569837 -0.08580716796
695.625 0.1011372945 0.02472059236
696.25 0.04040290022 0.09094966843
696.875 -0.0744756512 0.1004893399
697.5 -0.1384985559 0.01633303384
698.125 -0.1350409063 -0.0231194492
698.75 -0.1416339595 -0.0143980278
699.375 -0.1284431898 -0.02215561009
700.0 -0.1025403645 -0.03463535984
700.625 -0.09490969765 -0.06021355103
701.25 -0.08660404933 -0.09591831159
701.875 -0.05282478415 -0.07072470241
702.5 -0.05458027101 -0.04904555731
703.125 -0.1096243571 -0.01179927449
703.75 -0.1569240761 0.1028236723
704.375 -0.09530271705 0.1256125285
705.0 -0.04358774391 0.10882084
705.625 -0.07231292893 0.1025934252
706.25 -0.1685330721 0.02083624461
706.875 -0.08428561636 -0.1173469804
707.5 -0.0280892387 -0.09585648453
708.125 0.01489351047 -0.08968260128
708.75 0.0822419834 -0.04810457725
709.375 0.0860728593 0.04107931583
710.0 0.04522650335 0.07051885563
710.625 0.02443971583 0.0804585609
711.25 -0.01385077836 0.08489325427
711.875 -0.02306228093 0.09924322833
712.5 0.02225035997 0.1328859763
713.125 0.1273635834 0.09475043098
713.75 0.1326716366 -0.04259065357
714.375 0.05825636923 -0.1102836712
715.0 0.01317068657 -0.1368638849
715.625 0.05595307994 -0.1164395946
716.25 0.06466190539 -0.04483493486
716.875 0.06159026953 -0.004523453296
717.5 0.07311138839 0.04861635836
718.125 0.04726004589 0.09999146943
718.75 0.009442424367 0.08548115275
719.375 -0.006731427289 0.06792980066
720.0 -0.05409321626 0.0606369062
720.625 -0.1042182311 -0.02197927811
721.25 -0.0315188227 -0.1069762708
721.875 0.0391845165 -0.1003351972
722.5 0.05445152972 -0.0928916832
723.125 0.0154384258 -0.08725055212
723.75 -0.01895187871 -0.06158529468
724.375 -0.04162602198 -0.04247330602
725.0 -0.05118038825 -0.01288129815
725.625 -0.04243646899 -0.0007415889684
726.25 -0.04926901166 -0.007046073981
726.875 -0.06596286968 -0.03248511851
727.5 -0.06341527848 -0.05554289774
728.125 -0.0445605579 -0.05781970207
728.75 -0.03975446422 -0.04353922921
729.375 -0.0371755948 -0.03468514019
730.0 -0.0332690937 -0.03587192466
730.625 -0.02542125032 -0.03032558248
731.25 -0.009984728341 -0.02666201638
731.875 0.007704220874 -0.0194710648
732.5 0.0109052292 0.001300913865
733.125 0.003046985117 0.0195448627
733.75 0.01270559916 0.02782459356
734.375 0.02591805763 0.02087297552
735.0 0.02690807153 -0.0005438422292
735.625 0.0200383309 -0.009571630669
736.25 0.009804638737 -0.02065742226
736.875 -0.01266307249 -0.02489691396
737.5 -0.03518445631 -0.01341787355
738.125 -0.04831312054 0.002122706966
738.75 -0.04320263378 0.01663325626
739.375 -0.02314717804 0.01782354487
740.0 -0.0154603213 0.001252320868
740.625 -0.03018465479 -0.0002998594082
741.25 -0.03479894263 0.006123010046
741.875 -0.02995421214 -0.01335236456
742.5 0.006460389163 -0.03216578739
743.125 0.03481126516 -0.002205651059
743.75 0.02910739602 0.01737118964
744.375 0.02869252463 0.01903357397
745.0 0.02709563137 0.02758354913
745.625 0.02839351517 0.03990418586
746.25 0.0545099198 0.03772672738
746.875 0.07664300369 -0.01278379905
747.5 0.05424834293 -0.05257128432
748.125 0.02221713505 -0.05862680937
748.75 -0.007227621275 -0.05421337906
749.375 -0.04760070874 -0.04229145033
750.0 -0.07208191701 0.02590895636
