!Created with skrf (http://scikit-rf.org).
# GHz S RI R 50.0 
!freq ReS11 ImS11
500.0 -0.01403149167 0.02655664154
500.625 0.02872587861 0.02295105653
501.25 0.0395115776 0.008452449209
501.875 0.03296257581 0.01050371292
502.5 0.02298179716 0.0302092323
503.125 0.03579002389 0.01691151195
503.75 0.04705299092 -0.006684385577
504.375 0.0436483148 -0.02036784602
505.0 0.03329694229 -0.03949799472
505.625 0.03364697682 -0.06609288287
506.25 0.01352039404 -0.07823542896
506.875 0.05301928373 -0.08187481727
507.5 0.02093092724 -0.07918092028
508.125 0.05687373695 -0.08093936439
508.75 0.01007466906 -0.1017491848
509.375 -0.009959272753 -0.07872215954
510.0 0.01733437171 -0.07637150091
510.625 -0.05651543715 -0.05202996446
511.25 -0.07422656616 -0.04094719325
511.875 -0.06779231769 0.01255850839
512.5 -0.03352664163 0.04211470159
513.125 0.01614507062 0.07048309708
513.75 0.02611530021 0.06832591529
514.375 0.04517503401 0.05188274772
515.0 0.08160281301 0.03923022414
515.625 0.04580049381 0.1184400169
516.25 0.09486778555 0.07748723412
516.875 0.03604304264 0.137918793
517.5 0.1359697351 0.07991761213
518.125 0.02110029249 0.2231694286
518.75 0.08971908266 0.03944673551
519.375 0.07936010912 0.04572115611
520.0 0.1214232521 0.01236690792
520.625 0.1177284869 0.005633610017
521.25 0.09790222784 -0.02738002017
521.875 0.0796200322 0.001855398373
522.5 0.1021480994 -0.06086053971
523.125 0.1758296141 -0.1039975846
523.75 0.1434868655 -0.1964321131
524.375 0.163028047 -0.1739746316
525.0 0.06723629074 -0.05572369659
525.625 0.04706590222 -0.02584611872
526.25 0.05842243413 -0.01290841843
526.875 0.06317448224 -0.03214652411
527.5 0.05030238746 -0.0380303808
528.125 0.02044854239 -0.05115274593
528.75 0.00736601209 -0.07717636306
529.375 -0.05837141375 -0.09465032692
530.0 -0.0581648984 -0.03412150078
530.625 -0.04461002265 -0.005977178758
531.25 -0.1068102966 -0.04539554193
531.875 -0.1787417255 -0.04720517224
532.5 -0.1589675777 0.01985592431
533.125 -0.1063767503 0.03945777405
533.75 -0.1012187676 0.07261644146
534.375 -0.1190019431 0.05186735775
535.0 -0.08618134146 0.06830655237
535.625 -0.06934674749 0.03760539261
536.25 -0.04188740552 0.05951649735
536.875 -0.08388446391 0.0255584737
537.5 -0.09807012557 -0.007896604753
538.125 -0.09751678935 0.03685944766
538.75 -0.1095413665 0.06816784612
539.375 -0.09479322471 0.03270135872
540.0 -0.09142202339 0.02096383795
540.625 -0.1134840044 0.02788530314
541.25 -0.1355406457 0.00822566158
541.875 -0.1003390914 -0.0101674409
542.5 -0.09188242004 -0.01372794477
543.125 -0.1225424777 0.03978166246
543.75 -0.08982298638 0.1218668254
544.375 -0.04099259042 0.1207857572
545.0 0.05746644788 0.08256792946
545.625 0.101679591 0.0678833748
546.25 0.1088311248 0.03942258864
546.875 0.1075146034 0.02498820659
547.5 0.122044607 0.02965982267
548.125 0.1425936713 0.06792415938
548.75 0.09338047308 0.08860164341
549.375 0.09764954623 0.08822416183
550.0 0.06766839833 0.12426991
550.625 0.03203227154 0.1042535411
551.25 -0.01291813376 0.0577542384
551.875 -0.008899775993 0.04375492682
552.5 -0.01715151866 0.07203397292
553.125 -0.03900867234 0.07234800892
553.75 -0.03996142183 0.04999786019
554.375 -0.02538317987 0.06952146748
555.0 -0.01106296896 0.1040702524
555.625 -0.01050079115 0.1083163515
556.25 -0.0267095796 0.08274102285
556.875 -0.02458653949 0.09949630944
557.5 -0.03597938017 0.118530505
558.125 -0.04270221091 0.1193297298
558.75 -0.05834868645 0.09013930956
559.375 -0.03138671061 0.104629404
560.0 -0.03306198363 0.0803179856
560.625 -0.01342428992 0.05527497384
561.25 -0.01786023599 0.04963492929
561.875 -0.02454898282 0.07091945604
562.5 -0.01567206221 0.08389071527
563.125 0.01361495928 0.07988238683
563.75 0.0541900819 0.08087731794
564.375 0.08840195072 0.1001284641
565.0 0.07316842424 0.1009820654
565.625 0.0784770628 0.06860622443
566.25 0.06645871789 0.07543163031
566.875 0.03395177532 0.1057648944
567.5 -0.01242297184 0.09239464059
568.125 -0.01440298564 0.09694413269
568.75 -0.02304553974 0.1081170321
569.375 -0.02604514133 0.08386287298
570.0 -0.02648963045 0.05507415893
570.625 -0.01802330948 0.0540219614
571.25 -0.02949838978 0.06761027002
571.875 -0.02474956932 0.04390505542
572.5 -0.02168233536 0.04991157199
573.125 -0.0108852279 0.08695926207
573.75 0.03867684206 0.1172676003
574.375 0.05212662757 0.07908022915
575.0 0.05434874486 0.05225809136
575.625 0.06772724249 0.06100723155
576.25 0.06262979982 0.08730614146
576.875 0.06697077443 0.07032644529
577.5 0.07821489076 0.0489983039
578.125 0.09523878988 0.05208011816
578.75 0.07529278018 0.0686390617
579.375 0.06937645367 0.04607151162
580.0 0.07618512546 0.03195279637
580.625 0.07322830951 0.02927452758
581.25 0.03973248976 0.03206788105
581.875 0.01442097076 0.04007294362
582.5 0.02988377219 0.06314785149
583.125 0.03434622 0.08907586611
583.75 0.03038695595 0.07653154956
584.375 0.01547837558 0.0685462384
585.0 0.005097580371 0.08318917567
585.625 -0.003508328456 0.09807935268
586.25 0.008665309448 0.07635792787
586.875 0.01514505077 0.06633458179
587.5 0.02011261978 0.08406394918
588.125 0.04917619403 0.07651069873
588.75 0.06176407109 0.0504222028
589.375 0.07195553498 0.0117529377
590.0 0.0630431312 0.01013352734
590.625 0.03397286861 0.02471183419
591.25 0.03455341038 0.03856435228
591.875 0.06146577175 0.0416097581
592.5 0.09117943897 0.03777905222
593.125 0.07898769747 0.03614013598
593.75 0.06905876957 0.03320738322
594.375 0.06886092944 0.05591599423
595.0 0.04894181975 0.07657986477
595.625 0.02201592784 0.06885035925
596.25 0.006320024388 0.05648245968
596.875 -0.009186369871 0.06396689691
597.5 -0.02072481928 0.06370053449
598.125 -0.005786958607 0.06085685995
598.75 0.01364375269 0.04935783317
599.375 0.01268872921 0.0349561085
600.0 -0.001307784827 0.01587937344
600.625 -0.01635777273 0.005358595686
601.25 -0.03510910951 0.01304333858
601.875 -0.04676174865 0.02528823725
602.5 -0.04448647156 0.03003836286
603.125 -0.04352755341 0.03456223873
603.75 -0.04007974392 0.04426164629
604.375 -0.03435141575 0.03758478019
605.0 -0.02813530762 0.01867209166
605.625 -0.03572445502 0.00585215607
606.25 -0.05276055613 0.004959844239
606.875 -0.05454839853 0.01550899654
607.5 -0.03291844203 0.02904304509
608.125 -0.0108090216 0.02745523406
608.75 -0.007642385236 0.01977779796
609.375 -0.005370358067 0.01546748485
610.0 0.002892110844 0.01036282876
610.625 0.01030249252 -0.0003139076136
611.25 0.01118625449 -0.01212239939
611.875 0.01001001956 -0.02000420811
612.5 0.003218163414 -0.02378774658
613.125 -0.008484938846 -0.01762975671
613.75 -0.01055227011 -0.002343558573
614.375 -0.0005541660579 0.007121493518
615.0 0.008610924414 0.003662395092
615.625 0.003449417866 -0.0001385079208
616.25 -0.002432232592 0.01026983608
616.875 0.007176930808 0.02445345038
617.5 0.01953248576 0.02603948282
618.125 0.0201303101 0.02159634913
618.75 0.01968262895 0.02381448552
619.375 0.02578275939 0.03391471665
620.0 0.03754183676 0.03247440275
620.625 0.04174508618 0.006145205374
621.25 0.03136092603 -0.004813669415
621.875 0.01085729362 -0.00941864856
622.5 -0.01471249105 0.008287989598
623.125 -0.0108266345 0.03617612123
623.75 0.0009206290153 0.05384713603
624.375 -0.007406747104 0.06064100827
625.0 -0.02713395233 0.05378683513
625.625 -0.02505320562 0.0666390128
626.25 -0.009525047508 0.09132014344
626.875 -0.001449855191 0.09093631335
627.5 -0.004344594692 0.07343392867
628.125 -0.01152675807 0.06607248993
628.75 -0.0286158436 0.07071875817
629.375 -0.03352435471 0.05625094296
630.0 -0.02213192099 0.04210811754
630.625 -0.02583844126 0.02754309792
631.25 -0.04015788086 0.005342639533
631.875 -0.04598774766 -0.01643460705
632.5 -0.04977726534 -0.01880334871
633.125 -0.06613240556 -0.02090938885
633.75 -0.07880296226 -0.01967924481
634.375 -0.07739140656 -0.02303674168
635.0 -0.08637106502 -0.00924114759
635.625 -0.09949156858 0.01723324425
636.25 -0.08825616462 0.01060040866
636.875 -0.06950203893 -0.005072861282
637.5 -0.084392607 -0.01110605909
638.125 -0.1102128313 -0.009850500099
638.75 -0.08821533526 -0.007547512596
639.375 -0.05475468685 -0.01784012375
640.0 -0.0325848093 -0.04631763932
640.625 -0.006131760101 -0.08710132315
641.25 0.005672108765 -0.07777817743
641.875 0.000944754511 -0.07106434566
642.5 0.009924356587 -0.08212337926
643.125 0.05053670264 -0.08870373598
643.75 0.05870959115 -0.0717442487
644.375 0.02655809872 -0.08323752322
645.0 0.01331798363 -0.09731522394
645.625 0.0322657344 -0.07829442242
646.25 0.0411747097 -0.05964274624
646.875 0.04403142844 -0.06326609832
647.5 0.04747234223 -0.08919766006
648.125 0.04853462649 -0.06408093511
648.75 0.06012663736 -0.03490862414
649.375 0.08297781803 -0.0186188423
650.0 0.1116184271 -0.002230694405
650.625 0.1012788163 0.0188092396
651.25 0.09357071626 0.03364181554
651.875 0.0888361975 0.07711408993
652.5 0.04719091957 0.1123220698
653.125 0.03353902346 0.0977632157
653.75 0.02842243317 0.08983442918
654.375 -0.007692965285 0.09302576395
655.0 -0.05018434952 0.0473194278
655.625 -0.04784780284 0.03068344095
656.25 -0.04984403558 0.0553971758
656.875 -0.05933938814 0.09052326004
657.5 -0.08242272567 0.05848431287
658.125 -0.08468107166 0.04647252434
658.75 -0.07977073668 0.09229598401
659.375 -0.06279407035 0.1359799119
660.0 -0.01824618649 0.1277138233
660.625 0.01295515501 0.1114873244
661.25 0.03908605778 0.1144588614
661.875 0.04935998632 0.1070887134
662.5 0.05654763743 0.0729921939
663.125 0.04402641252 0.0707937376
663.75 -0.01254714033 0.09659984704
664.375 -0.07460230769 0.04660924131
665.0 -0.08057702028 0.005757277551
665.625 -0.0936806497 -0.01763538765
666.25 -0.1084384544 -0.08140947416
666.875 -0.06185053514 -0.1078556352
667.5 -0.06032572851 -0.1009143862
668.125 -0.08659348383 -0.1010251579
668.75 -0.08014502471 -0.1118142682
669.375 -0.04204151754 -0.08502958139
670.0 -0.02856472375 -0.07335681617
670.625 -0.04102893042 -0.1003490756
671.25 -0.04896433076 -0.1010146144
671.875 -0.04772010626 -0.07625309301
672.5 -0.06529353849 -0.05939739328
673.125 -0.1063948508 -0.05996228084
673.75 -0.113420718 -0.06572959522
674.375 -0.1045851095 -0.06792558594
675.0 -0.07991462003 -0.1015912015
675.625 -0.02735878885 -0.1242839926
676.25 0.01205459234 -0.1111339935
676.875 0.01267463977 -0.1090340606
677.5 0.02262552587 -0.1201552955
678.125 0.05126307194 -0.06771437881
678.75 0.05075718073 -0.03370037606
679.375 0.06750117236 -0.03073787889
680.0 0.1030447981 -0.06496476913
680.625 0.1186429785 -0.05270236491
681.25 0.08008156731 -0.07433575148
681.875 0.04595107371 -0.1152424298
682.5 -0.00629446901 -0.1691325405
683.125 0.002452317651 -0.1585720695
683.75 0.02030941142 -0.1192212813
684.375 0.06469092735 -0.09965855968
685.0 0.1304949069 -0.02925889398
685.625 0.1049920824 0.04742699402
686.25 0.05686075954 0.07362607423
686.875 0.01430300729 0.08081714755
687.5 -0.04161516696 0.07690852179
688.125 -0.06349489006 0.07316828117
688.75 -0.08545979584 0.09182192902
689.375 -0.12286093 0.09590395443
690.0 -0.1122924271 0.0666176068
690.625 -0.09423478046 0.08302990027
691.25 -0.05612417468 0.1435174654
691.875 0.004509844726 0.1883661596
692.5 0.07453967114 0.0901089882
693.125 0.08574520043 -0.005110998163
693.75 0.0915229184 -0.04713057598
694.375 0.1418102998 -0.04049201883
695.0 0.1139121098 0.04036510063
695.625 0.05518278382 0.0853236614
696.25 -0.04797830754 0.112295101
696.875 -0.1429703723 0.01693911849
697.5 -0.1164809411 -0.083800324
698.125 -0.09493119822 -0.09763204642
698.75 -0.09255001188 -0.09445644782
699.375 -0.06621586183 -0.08344494516
700.0 -0.04739128288 -0.08782407778
700.625 -0.01710738677 -0.1102707636
701.25 0.02757365659 -0.09511939125
701.875 0.02359798914 -0.07201310909
702.5 -0.007524518077 -0.09527001184
703.125 -0.1090128581 -0.1160126704
703.75 -0.1789075858 -0.04848874937
704.375 -0.1192738187 0.05121575385
705.0 -0.08871630823 0.06486518321
705.625 -0.1384944813 0.02910622618
706.25 -0.1040448062 -0.1075526917
706.875 0.00322027752 -0.09998096426
707.5 0.03142214464 -0.07096914425
708.125 0.07795858814 -0.02860714768
708.75 0.079599309 0.05457614523
709.375 0.02201040876 0.09166304734
710.0 -0.01847605373 0.08704083682
710.625 -0.0518819403 0.07746955653
711.25 -0.08188604343 0.05838886129
711.875 -0.09466698086 0.08030552465
712.5 -0.06629419482 0.1325603938
713.125 0.04476435087 0.1316526196
713.75 0.1115241008 0.02491963007
714.375 0.1011471131 -0.0481494628
715.0 0.1013231447 -0.06520422562
715.625 0.08270622831 -0.01432088903
716.25 0.05501612767 0.01837414967
716.875 0.0449462246 0.05443584858
717.5 5.108210946e-06 0.109284717
718.125 -0.04817261535 0.0935323697
718.75 -0.04624485443 0.0673493744
719.375 -0.05786710709 0.0550895635
720.0 -0.09966087977 0.006921834553
720.625 -0.06757479246 -0.08599057423
721.25 0.02622966025 -0.09749209529
721.875 0.07679452474 -0.05722343236
722.5 0.07550519806 -0.02887298855
723.125 0.04951749772 -0.02970157947
723.75 0.03942372692 -0.03453456734
724.375 0.01736510392 -0.05905197518
725.0 -0.01690571217 -0.05116328322
725.625 -0.03239598668 -0.04063565665
726.25 -0.04467149254 -0.05082811714
726.875 -0.03847026327 -0.07452582398
727.5 -0.02154300186 -0.07363492563
728.125 -0.00645103906 -0.06122186386
728.75 0.0007239608762 -0.05000600977
729.375 0.004616756662 -0.04596299118
730.0 -5.79184884e-06 -0.04257923861
730.625 -0.0008823331663 -0.03038090259
731.25 0.01095402404 -0.01765933473
731.875 0.01563034204 0.001617079109
732.5 0.001744502999 0.0181268967
733.125 -0.01042635231 0.02776208276
733.75 0.0005944103937 0.03527366116
734.375 0.01564880718 0.02778373037
735.0 0.02158941566 0.006762152659
735.625 0.01735198232 -0.004821539281
736.25 0.00752936774 -0.01879431218
736.875 -0.0156347815 -0.02617487312
737.5 -0.0377422171 -0.01813967588
738.125 -0.04750777942 -0.006219586537
738.75 -0.03767746347 0.00645356057
739.375 -0.01352905174 0.005399778205
740.0 -0.004751984228 -0.0160573871
740.625 -0.02249786744 -0.02046231871
741.25 -0.0266774552 -0.01383891438
741.875 -0.007935417643 -0.02531394011
742.5 0.02671761916 -0.009826409759
743.125 0.01956426926 0.02420817889
743.75 0.003663591276 0.03244077484
744.375 -0.002438958143 0.03852381684
745.0 -0.01380423733 0.04946077695
745.625 -0.005992692114 0.06765133838
746.25 0.03837321467 0.07053236733
746.875 0.08086456456 0.02659436482
747.5 0.06659070244 -0.0154217696
748.125 0.04072508596 -0.02926508789
748.75 0.0245270353 -0.03747619442
749.375 -0.00445514509 -0.05571667383
750.0 -0.05697071961 -0.02289121641
