!Created with skrf (http://scikit-rf.org).
# GHz S RI R 50.0 
!freq ReS11 ImS11
500.0 -0.006158302472 0.01226395994
500.625 0.01313876604 0.003025168203
501.25 0.01214280719 -0.01820868084
501.875 -0.001711495012 -0.02767519456
502.5 -0.002867012101 -0.007171382344
503.125 0.005558474023 0.0002277034345
503.75 0.005722277025 -0.01339484212
504.375 0.000944244793 -0.02138987812
505.0 0.0005078901338 -0.0229283822
505.625 -0.005534336731 -0.03652862009
506.25 -0.02942745222 -0.04453092242
506.875 -0.02411258826 -0.07850573599
507.5 -0.04057517574 -0.05409343098
508.125 -0.02340161504 -0.06497191331
508.75 -0.07203187518 -0.05257248393
509.375 -0.06974034577 -0.02897107265
510.0 -0.04724870804 -0.03025227782
510.625 -0.04011585709 0.01108662146
511.25 -0.06194710848 0.02049932917
511.875 -0.03945212147 0.05202394736
512.5 0.006741584737 0.0505531195
513.125 0.06552123218 0.0205598399
513.75 0.08045496035 0.006585643172
514.375 0.06063444436 -0.02055003867
515.0 0.04743601176 -0.03958083428
515.625 0.08589625781 -0.0008304787671
516.25 0.09011720888 -0.02155849234
516.875 0.07802631609 0.06198610747
517.5 0.112639969 -0.01768706165
518.125 0.1693129063 0.1382767204
518.75 0.09856880136 -0.04982490589
519.375 0.07341106834 -0.02461288459
520.0 0.05969011727 -0.06241524983
520.625 0.08089439187 -0.0857438906
521.25 0.04581335912 -0.09024831526
521.875 0.04996253618 -0.04390127403
522.5 0.02301739979 -0.09073408906
523.125 0.07646516679 -0.2118073181
523.75 0.01367658197 -0.2824763993
524.375 0.02025479884 -0.2758806869
525.0 -0.001676352317 -0.1324719186
525.625 0.0003978983302 -0.09629081029
526.25 0.01921190091 -0.07722930774
526.875 -0.003538725298 -0.07576358054
527.5 -0.03103921443 -0.08366189378
528.125 -0.04996004728 -0.04702503731
528.75 -0.06371238326 -0.04194792214
529.375 -0.1181018014 0.01322538505
530.0 -0.08300428377 0.0784031094
530.625 0.0006735084579 0.08152429395
531.25 -0.01407421209 0.06043323952
531.875 -0.04954786327 0.1031308356
532.5 -0.04953418959 0.1346794204
533.125 -0.02325289662 0.1151919202
533.75 0.007410154388 0.09052124467
534.375 0.01204673466 0.1093991273
535.0 0.01203532321 0.1184952763
535.625 -0.009099806037 0.09689394246
536.25 0.05149006855 0.06544309287
536.875 0.03322411766 0.08165062878
537.5 -0.02453711682 0.0735401963
538.125 -0.01645831852 0.07961853494
538.75 0.0186139914 0.1154013835
539.375 -0.009150934578 0.1333593966
540.0 0.004136208011 0.1045867206
540.625 0.002021734473 0.08877842307
541.25 -0.002714162544 0.1062502172
541.875 -0.02450491954 0.09725674577
542.5 -0.03257669841 0.04623085445
543.125 -0.02213636983 0.0623386736
543.75 0.03766886402 0.1067911475
544.375 0.07444291684 0.1090012103
545.0 0.1064873786 0.01735199256
545.625 0.08820008118 -0.0516814575
546.25 0.08281098775 -0.09163446728
546.875 0.07189535404 -0.08559555367
547.5 0.09077682099 -0.08231945968
548.125 0.1148466495 -0.08674224908
548.75 0.1480718188 -0.0476099237
549.375 0.1461018241 -0.02477102627
550.0 0.1513047166 0.02427486239
550.625 0.1723992336 0.03059903689
551.25 0.1063966898 0.07777935906
551.875 0.08521191287 0.02811631856
552.5 0.08234381116 0.009527049235
553.125 0.09991661176 0.003377528969
553.75 0.06355713951 0.02813248105
554.375 0.04527153751 0.0121485301
555.0 0.06210510338 0.01277634788
555.625 0.08815000275 0.01142966313
556.25 0.07397389532 0.03493731286
556.875 0.04874899843 0.03491482979
557.5 0.06529452308 0.04710913895
558.125 0.06992555402 0.08115568195
558.75 0.04489887101 0.1009747358
559.375 0.06315235074 0.08705777239
560.0 0.09143153263 0.08064667522
560.625 0.08716227203 0.05096968518
561.25 0.07582363129 0.01397137532
561.875 0.06838809277 0.0006333575224
562.5 0.07237919414 -0.003648999719
563.125 0.06220637765 -0.005473356036
563.75 0.05596854648 -0.0164458618
564.375 0.06988750612 -0.03812737598
565.0 0.1210338433 -0.03020876019
565.625 0.1003114127 -0.0321840036
566.25 0.09168244778 -0.02478282405
566.875 0.09675198837 -0.017771905
567.5 0.102861298 0.02598567401
568.125 0.07512913336 0.05824904595
568.75 0.08531314314 0.06558951201
569.375 0.09549095193 0.07400451637
570.0 0.09201300851 0.05950252548
570.625 0.07942010472 0.04011427728
571.25 0.08542231125 0.01769820405
571.875 0.08815179102 0.01566346228
572.5 0.05499502032 -0.01505813112
573.125 0.04463613651 -0.008596516511
573.75 0.06943327848 -0.02077755087
574.375 0.08915834892 -0.04074756146
575.0 0.05976442947 -0.0460807438
575.625 0.03594118478 -0.04566850677
576.25 0.04992135203 -0.05184191033
576.875 0.07226749534 -0.03622457118
577.5 0.06885176095 -0.03605229222
578.125 0.06703626414 -0.048874251
578.75 0.08074943678 -0.0703045935
579.375 0.09420448478 -0.05729209371
580.0 0.07879774986 -0.05788520293
580.625 0.06784378123 -0.08256839483
581.25 0.04884862483 -0.09541005007
581.875 0.03846826336 -0.0616184647
582.5 0.0367493271 -0.0311445807
583.125 0.05902888214 -0.03540642638
583.75 0.07727282168 -0.03065425956
584.375 0.06700342515 -0.02422523075
585.0 0.05687374262 -0.005252199939
585.625 0.07045472061 0.002123491558
586.25 0.07977324905 0.009180683057
586.875 0.06386014435 -0.007668327408
587.5 0.06083588244 -0.01757059154
588.125 0.07548868549 -0.03736543159
588.75 0.08264071781 -0.04053784623
589.375 0.0516890065 -0.07349257836
590.0 0.004738926862 -0.09340924309
590.625 -0.01522901627 -0.0846089056
591.25 -0.0008339164834 -0.03949015667
591.875 0.01261199521 -0.02421641003
592.5 0.0218550014 -0.04288118237
593.125 0.03497648813 -0.06275129996
593.75 0.04688222029 -0.04633648251
594.375 0.05466875808 -0.02557080876
595.0 0.07332470451 -0.01821262076
595.625 0.08385935877 -0.002217781915
596.25 0.07248171897 0.01097772202
596.875 0.05821848455 0.02002182819
597.5 0.06177912957 0.03193826003
598.125 0.06857333228 0.03230240379
598.75 0.07762181855 0.008917450671
599.375 0.0769855317 -0.007683215617
600.0 0.06730155096 -0.01216893489
600.625 0.04508353475 -0.01299000341
601.25 0.0257964351 -0.01300135656
601.875 0.01902974346 -0.001233318669
602.5 0.01502821836 0.01408521146
603.125 0.006653574469 0.022967167
603.75 0.01101523034 0.02994095596
604.375 0.02280648132 0.03387549427
605.0 0.02139567675 0.03037694286
605.625 0.004122276749 0.01946789909
606.25 -0.01384664953 0.02262374105
606.875 -0.01932434227 0.04039940369
607.5 -0.002877614189 0.05164218598
608.125 0.01834311481 0.04010668508
608.75 0.02028480137 0.02992795574
609.375 0.01706646558 0.03054757934
610.0 0.0178093958 0.02786665075
610.625 0.02166748666 0.01463407649
611.25 0.01859772671 0.001117487698
611.875 0.01176966204 -0.008912001976
612.5 0.001933720676 -0.01639822392
613.125 -0.01059556925 -0.01424993168
613.75 -0.01285212721 -0.003156468646
614.375 -0.002504244865 0.001981922243
615.0 0.006323994317 -0.005741624713
615.625 0.001880461127 -0.01384735419
616.25 -0.004551518801 -0.00668426408
616.875 0.004089386504 0.002727614086
617.5 0.01859223275 -0.001370591401
618.125 0.02419969215 -0.00841672422
618.75 0.02422168676 -0.007918655081
619.375 0.03389759445 -0.003742898245
620.0 0.05216798021 -0.01160588105
620.625 0.05197712326 -0.03887422676
621.25 0.04660890619 -0.04902914123
621.875 0.03306270252 -0.05869836038
622.5 -0.02040666854 -0.05096196393
623.125 -0.0207749835 -0.02324181782
623.75 -0.00253856117 -0.01060985806
624.375 0.01742841665 -0.006519313423
625.0 0.02556906562 0.006127833887
625.625 0.02222283004 0.01456468638
626.25 0.03595147551 0.02333814291
626.875 0.06433348129 0.02721913619
627.5 0.07023877595 0.04017443717
628.125 0.06084144666 0.03858843438
628.75 0.06194707559 0.03941650566
629.375 0.07341752665 0.05265679491
630.0 0.06663292226 0.06624288436
630.625 0.05194853416 0.0599136591
631.25 0.05055636057 0.05206234985
631.875 0.04179680596 0.05386397496
632.5 0.02724633443 0.04825376338
633.125 0.009799420248 0.04571401343
633.75 0.01517868963 0.05157923743
634.375 0.003233729451 0.06001622907
635.0 0.002167433359 0.05675939145
635.625 0.00770469232 0.06983121495
636.25 0.01992385493 0.08677336508
636.875 0.008674668914 0.08155616891
637.5 0.00223057838 0.05914819249
638.125 -0.00825495077 0.07573551698
638.75 -0.02500104768 0.1123015869
639.375 -0.04932470436 0.09040141317
640.0 -0.04552959707 0.06059692415
640.625 -0.04947801089 0.04903821189
641.25 -0.08191113255 0.03264820137
641.875 -0.07639754421 0.002051931477
642.5 -0.06904428262 0.000419697136
643.125 -0.07746582955 -0.002246805121
643.75 -0.08812629481 -0.03057279293
644.375 -0.08449625545 -0.03818697735
645.0 -0.09113433785 -0.01592719945
645.625 -0.1121908285 -0.002431983211
646.25 -0.1009231854 -0.00450687142
646.875 -0.08108948423 -0.01692824822
647.5 -0.07836242895 -0.01759307114
648.125 -0.1009098442 -0.02361480376
648.75 -0.07315764049 -0.03915027308
649.375 -0.04656730793 -0.03784598202
650.0 -0.02618145486 -0.05472565357
650.625 0.00191895928 -0.08155259293
651.25 0.03169813675 -0.07196870796
651.875 0.05285758549 -0.05622690758
652.5 0.08940653111 -0.04879030786
653.125 0.1293756563 -0.01475286284
653.75 0.1212553224 0.001121719358
654.375 0.1204858864 0.00363324487
655.0 0.1298629892 0.01408467493
655.625 0.1024876732 0.03002964402
656.25 0.076671858 0.01353217908
656.875 0.08302311083 -0.01039220938
657.5 0.09707128967 0.01337585631
658.125 0.06619622956 0.03142668094
658.75 0.05019828102 0.0350740147
659.375 0.07696385743 0.02448549951
660.0 0.1190101979 0.01397671773
660.625 0.1128495012 -0.00177125849
661.25 0.1074265112 -0.02907250001
661.875 0.1067649891 -0.0743347997
662.5 0.1045740391 -0.09568241951
663.125 0.09168847009 -0.07782645127
663.75 0.1043881885 -0.04182342672
664.375 0.1168628916 0.03714150769
665.0 0.05415198181 0.07804290229
665.625 0.02389245235 0.07192288103
666.25 0.00290596245 0.07852300831
666.875 -0.06010571641 0.09116481042
667.5 -0.08790077115 0.04640771696
668.125 -0.08367373859 0.0471860789
668.75 -0.0807587632 0.08530332071
669.375 -0.1033500995 0.09691320395
670.0 -0.0891083552 0.06036909024
670.625 -0.08202941381 0.04423890525
671.25 -0.07692711603 0.08933588866
671.875 -0.0651791636 0.1062923271
672.5 -0.01349981566 0.09692574962
673.125 -0.009014934533 0.08166841155
673.75 -0.02320937724 0.09454402376
674.375 -0.05693893965 0.08895207635
675.0 -0.07827841595 0.07142228235
675.625 -0.1083421721 0.04741363295
676.25 -0.1274425126 -0.01294833499
676.875 -0.1183522613 -0.03370882063
677.5 -0.1297195423 -0.01851375828
678.125 -0.1529896287 -0.00614483578
678.75 -0.116649268 -0.04369627572
679.375 -0.06979768998 -0.03256354449
680.0 -0.06553211092 -0.02746599297
680.625 -0.09588961321 -0.03442420697
681.25 -0.08831310193 -0.05100679812
681.875 -0.06953917746 -0.03362171006
682.5 -0.09088390374 -0.005843016929
683.125 -0.1370237182 0.01298097928
683.75 -0.1444409329 -0.02614318338
684.375 -0.0979407607 -0.08243066555
685.0 -0.03274068027 -0.1227678778
685.625 0.0590458752 -0.1395677249
686.25 0.1006826766 -0.1020469906
686.875 0.1097921902 -0.07806072877
687.5 0.1110660752 -0.03686011706
688.125 0.08781021997 0.003376030389
688.75 0.06692865054 0.02496395688
689.375 0.0763784714 0.04299349234
690.0 0.08639918983 0.08541533933
690.625 0.05824501995 0.08737022094
691.25 0.08782993078 0.06288374944
691.875 0.1403809255 -0.008404148938
692.5 0.145724163 -0.1366952428
693.125 0.006526397512 -0.1507448715
693.75 -0.07689350148 -0.09188716447
694.375 -0.09438706875 -0.08382793823
695.0 -0.03882907893 -0.1462622789
695.625 0.0738347485 -0.09129466874
696.25 0.08922275731 0.01155171099
696.875 0.04132837336 0.0873834611
697.5 -0.04793666311 0.0942511098
698.125 -0.08753164771 0.07747300882
698.75 -0.09696247193 0.08390188678
699.375 -0.1035070671 0.08032337294
700.0 -0.09724132795 0.05246701596
700.625 -0.1068651995 0.03327375332
701.25 -0.1279021793 0.03385347496
701.875 -0.1182035817 0.02082050881
702.5 -0.0579492301 0.0384264267
703.125 -0.04290271797 0.05321731741
703.75 -0.0007405342944 0.1198155936
704.375 0.03445042897 0.1625272609
705.0 0.04233900748 0.1112753538
705.625 0.01120644528 0.1056584606
706.25 -0.07053824662 0.1165855718
706.875 -0.1602872831 -0.006386049862
707.5 -0.1081046856 -0.06663861496
708.125 -0.06546978039 -0.08132365672
708.75 -0.01281262659 -0.09776576587
709.375 0.0644261058 -0.06437456238
710.0 0.08494226696 -0.008664076763
710.625 0.0756526816 0.01669044767
711.25 0.05618401348 0.03922246603
711.875 0.04125241689 0.04763030864
712.5 0.07442875794 0.05569887199
713.125 0.1376906475 -0.01379949647
713.75 0.08165074191 -0.1164005032
714.375 -0.0210067094 -0.1221010455
715.0 -0.07961273519 -0.1010857829
715.625 -0.07443488713 -0.1295495207
716.25 0.002957998978 -0.1120108228
716.875 0.03120836917 -0.06749230116
717.5 0.06140708194 -0.03556822715
718.125 0.09260549385 -0.0006249600561
718.75 0.07574168542 0.03723882587
719.375 0.04491262074 0.04169183887
720.0 0.01083974256 0.05385424779
720.625 -0.05993122387 0.04340678759
721.25 -0.0800782132 -0.04992921626
721.875 -0.0224918773 -0.1012488891
722.5 -0.01241376142 -0.1095149563
723.125 -0.05820123702 -0.0883579144
723.75 -0.08185813664 -0.01979496254
724.375 -0.06366506887 0.0224066862
725.0 -0.03342617771 0.04377208865
725.625 -0.0118745028 0.03529981851
726.25 -0.01524649475 0.02259614956
726.875 -0.04317752964 0.0125427641
727.5 -0.06872025257 -0.003818429521
728.125 -0.06755291706 -0.01998086137
728.75 -0.05825736363 -0.006736946607
729.375 -0.04595593624 0.007240365608
730.0 -0.04286546616 0.001016155377
730.625 -0.04055415985 -0.006267907915
731.25 -0.02971211329 -0.0136229251
731.875 -0.01526097117 -0.0218517518
732.5 -0.001636940272 -0.01530727434
733.125 0.001494428444 0.002525289985
733.75 0.01104104534 0.01348443066
734.375 0.02272483715 0.0090473331
735.0 0.02103690608 -0.007081995781
735.625 0.01596790445 -0.01176191258
736.25 0.008926252472 -0.0206022686
736.875 -0.01049123929 -0.0237551619
737.5 -0.03081420439 -0.009687656174
738.125 -0.04384265079 0.01070454526
738.75 -0.04094404467 0.02958329317
739.375 -0.02190468202 0.03469281835
740.0 -0.01036716976 0.02261986228
740.625 -0.01947837059 0.02233900015
741.25 -0.02589200692 0.02932919374
741.875 -0.03767650999 0.01199902328
742.5 -0.02624620753 -0.02956809095
743.125 0.02108085097 -0.03678149643
743.75 0.03885821372 -0.01697454203
744.375 0.03762591634 -0.01789429161
745.0 0.03459882958 -0.02084250747
745.625 0.02650300489 -0.01247600048
746.25 0.03973386779 -0.00442631074
746.875 0.04502940764 -0.03741876152
747.5 0.0153857511 -0.06473474218
748.125 -0.01688439748 -0.06224993908
748.75 -0.04750755167 -0.03914687841
749.375 -0.06775521141 0.00440285487
750.0 -0.03813451991 0.07610713019
