!Created with skrf (http://scikit-rf.org).
# GHz S RI R 50.0 
!freq ReS11 ImS11
500.0 -0.02269246794 0.02424161287
500.625 0.0268889962 0.03686738754
501.25 0.04025328178 0.03191308357
501.875 0.0303565372 0.0406965464
502.5 0.01915505663 0.05449594719
503.125 0.04309460723 0.0392056842
503.75 0.05955415121 0.01582228383
504.375 0.05840068284 -0.005166117447
505.0 0.05343296417 -0.03618252668
505.625 0.06427129491 -0.06296685071
506.25 0.04913396192 -0.07125826317
506.875 0.07996741085 -0.05500788091
507.5 0.05355179862 -0.06879512194
508.125 0.09987146711 -0.04713173962
508.75 0.05960313669 -0.08458090543
509.375 0.03277303613 -0.07426909477
510.0 0.06585830253 -0.07229876747
510.625 -0.03226900871 -0.08745214455
511.25 -0.04950793405 -0.06860363461
511.875 -0.06576453093 -0.01224584223
512.5 -0.05039065407 0.02219427239
513.125 -0.02547161232 0.0639717084
513.75 -0.0169662486 0.07127286965
514.375 0.01502938833 0.076487835
515.0 0.0597115957 0.09488955876
515.625 -0.01771214869 0.1423935916
516.25 0.06498634565 0.114990385
516.875 -0.01236563996 0.1575124857
517.5 0.09574532044 0.1340369565
518.125 -0.06720752044 0.188790171
518.75 0.05368629302 0.06615084856
519.375 0.05659183085 0.0870336732
520.0 0.1045174908 0.07169772122
520.625 0.09883354982 0.05053069112
521.25 0.09184923379 0.0130059562
521.875 0.07776871454 0.03825567163
522.5 0.1125692485 -0.006219995614
523.125 0.1684141058 -0.03200022854
523.75 0.1625024166 -0.1146537007
524.375 0.1750564245 -0.05878105395
525.0 0.05688678743 0.00309672757
525.625 0.0368176525 0.01726715068
526.25 0.05166635605 0.02966759253
526.875 0.06756247625 0.02180115742
527.5 0.05771408459 0.006036187973
528.125 0.05048649205 -0.02685358909
528.75 0.05649799796 -0.06274303027
529.375 0.01957656191 -0.1043376166
530.0 -0.006157466295 -0.05693505631
530.625 -0.04073063125 -0.05438750512
531.25 -0.099212013 -0.1471377508
531.875 -0.1457324852 -0.1518959198
532.5 -0.1455355308 -0.06012292694
533.125 -0.1173563718 -0.01031932441
533.75 -0.1488409715 0.002012248539
534.375 -0.1252953628 -0.02188915957
535.0 -0.09701246063 0.01272720338
535.625 -0.07357022318 -0.006870054573
536.25 -0.07792927887 0.01309659962
536.875 -0.09152578326 -0.03991882423
537.5 -0.09056911676 -0.06387385001
538.125 -0.1167197508 -0.01308877868
538.75 -0.1186626944 -0.002320659601
539.375 -0.08952943236 -0.02978154184
540.0 -0.09680741002 -0.04270337574
540.625 -0.1370885664 -0.04913252301
541.25 -0.1188490789 -0.08153685869
541.875 -0.09071531517 -0.06134579399
542.5 -0.09797827428 -0.05997530671
543.125 -0.1493994037 -0.01920644984
543.75 -0.1324138114 0.06544990725
544.375 -0.07271869898 0.081371872
545.0 0.01615668356 0.09920660543
545.625 0.03985324787 0.112199839
546.25 0.06501351395 0.08837723094
546.875 0.0745179521 0.06812985696
547.5 0.09540577209 0.08161179508
548.125 0.0735297944 0.1267688834
548.75 0.03257958256 0.1070383528
549.375 0.04253547585 0.1079044678
550.0 -0.01317207949 0.1202682283
550.625 -0.03253753228 0.07118316403
551.25 -0.0392908664 0.01070629635
551.875 -0.04774355842 0.01793420425
552.5 -0.08920298121 0.04170961715
553.125 -0.08579331552 0.03025833124
553.75 -0.07766162655 0.02472805233
554.375 -0.07231001749 0.06371413755
555.0 -0.07881918802 0.09743399354
555.625 -0.06976631405 0.08464731246
556.25 -0.06554351339 0.06802912282
556.875 -0.08144809039 0.08826823198
557.5 -0.09107446966 0.0919949512
558.125 -0.08767507354 0.08187985874
558.75 -0.07995737368 0.05609195902
559.375 -0.07545337313 0.06404744878
560.0 -0.05647586467 0.03241893806
560.625 -0.04396853739 0.01867464979
561.25 -0.05926994248 0.02580528816
561.875 -0.07885175172 0.0514960322
562.5 -0.0647721783 0.06789246931
563.125 -0.02951799986 0.08829105956
563.75 0.01629638356 0.1185841419
564.375 0.02669706288 0.1294033777
565.0 0.02021268795 0.1143803
565.625 0.03761694386 0.08979916899
566.25 0.01674454202 0.1020836028
566.875 -0.04190798116 0.09837958026
567.5 -0.05158216389 0.06873487863
568.125 -0.05765956587 0.0766816735
568.75 -0.06945214052 0.07257628857
569.375 -0.05981087042 0.03926571224
570.0 -0.04318456625 0.01310001738
570.625 -0.05749922694 0.02546542474
571.25 -0.07407109142 0.02295383308
571.875 -0.05954640317 0.01656051514
572.5 -0.06271739542 0.03838542464
573.125 -0.06412803326 0.09464162864
573.75 -0.02920273171 0.1304491237
574.375 0.008780594914 0.09358566636
575.0 0.02295349894 0.07899962594
575.625 0.02373938567 0.1082840702
576.25 0.01279825504 0.1130946643
576.875 0.03183384962 0.09180479436
577.5 0.05613285295 0.07686282474
578.125 0.05318229805 0.09516859143
578.75 0.02509388859 0.07923306193
579.375 0.03388687938 0.06264528876
580.0 0.04446946659 0.05833982762
580.625 0.02689436242 0.05917934379
581.25 -0.01041467405 0.04777407181
581.875 -0.01766692936 0.05526484619
582.5 -0.0108506961 0.09254089346
583.125 -0.01953311622 0.102557424
583.75 -0.01928084308 0.08196110277
584.375 -0.02433612969 0.07234647328
585.0 -0.04683331885 0.08924201592
585.625 -0.05199569089 0.08311714984
586.25 -0.03026654638 0.06832233904
586.875 -0.02317909975 0.06984934721
587.5 -0.02750860863 0.08622091196
588.125 0.00675445598 0.08556316922
588.75 0.02961691595 0.06457329329
589.375 0.04836255086 0.04658672371
590.0 0.024369065 0.05172740078
590.625 0.009075732072 0.05581658679
591.25 0.01983254535 0.06806536077
591.875 0.05295614141 0.08133981553
592.5 0.06856206075 0.08364874756
593.125 0.05497136759 0.06300934107
593.75 0.05337496278 0.05948764644
594.375 0.04007758353 0.08493218656
595.0 0.006136371656 0.08486640905
595.625 -0.01189301983 0.05834061904
596.25 -0.02107017466 0.04812401865
596.875 -0.04348926378 0.04670271323
597.5 -0.0468454259 0.03918866346
598.125 -0.02998611362 0.04042847293
598.75 -0.01263274027 0.03676553131
599.375 -0.01521019125 0.02057002939
600.0 -0.02279720638 -0.0006799899124
600.625 -0.03671663445 -0.01004863182
601.25 -0.0591290683 -0.003612655547
601.875 -0.06649965368 0.006794776963
602.5 -0.06022388406 0.01579325256
603.125 -0.05935584079 0.02191573982
603.75 -0.05800619099 0.0276251007
604.375 -0.04415193137 0.01721300318
605.0 -0.0331764778 0.002474005285
605.625 -0.0407609869 -0.009344287625
606.25 -0.05488472433 -0.01313958224
606.875 -0.05178055434 -0.001203050531
607.5 -0.03133475188 0.01611770175
608.125 -0.01325377712 0.0156887121
608.75 -0.00989800855 0.007948315403
609.375 -0.004652097605 0.004860698689
610.0 0.005499442174 0.001926940031
610.625 0.01264941128 -0.007536021981
611.25 0.01378812388 -0.01784223633
611.875 0.01293023446 -0.0234378977
612.5 0.005240383379 -0.02555384431
613.125 -0.00708382592 -0.01835021244
613.75 -0.01041403318 -0.00224523221
614.375 -0.001688617551 0.007881187043
615.0 0.006200939657 0.005193838754
615.625 -0.0001952086792 0.001928561
616.25 -0.007214966305 0.01327048007
616.875 0.0005718918796 0.02852402296
617.5 0.0111228958 0.02972370231
618.125 0.011161685 0.0245412467
618.75 0.009661404461 0.02769101702
619.375 0.0124041597 0.03695744547
620.0 0.02221095257 0.03332239224
620.625 0.02784643853 0.009159207689
621.25 0.01592462796 -0.00198309202
621.875 -0.007820886799 -0.009295144751
622.5 -0.03138555848 0.01824593601
623.125 -0.02646843888 0.04801577713
623.75 -0.01791228687 0.06535844839
624.375 -0.03070987172 0.06260813586
625.0 -0.0479228217 0.04739870148
625.625 -0.04858937228 0.06283894999
626.25 -0.03929192573 0.08596137801
626.875 -0.02651199739 0.0796388174
627.5 -0.0238064528 0.06032084394
628.125 -0.03353887427 0.05200260925
628.75 -0.05305053524 0.04325208485
629.375 -0.04279577989 0.02715387904
630.0 -0.02911816364 0.01818400443
630.625 -0.03266448413 -3.688920987e-05
631.25 -0.03904258938 -0.03029239518
631.875 -0.03602837026 -0.04766816084
632.5 -0.04580431697 -0.04345739587
633.125 -0.06258540361 -0.05403732371
633.75 -0.07167765591 -0.054078958
634.375 -0.06713991563 -0.05581670978
635.0 -0.08251020208 -0.03959965923
635.625 -0.1015387003 -0.02245831478
636.25 -0.07907622405 -0.0241966486
636.875 -0.06051243144 -0.03556917688
637.5 -0.08095715199 -0.04606151146
638.125 -0.09699901097 -0.04744190203
638.75 -0.06882903145 -0.03271848844
639.375 -0.03376665451 -0.03436011486
640.0 -0.001997626911 -0.06484882475
640.625 0.0398266774 -0.08485025693
641.25 0.03539166873 -0.07091250155
641.875 0.02715826348 -0.06714405648
642.5 0.04927341078 -0.07708773164
643.125 0.09003886131 -0.05603168799
643.75 0.07829855819 -0.04157498576
644.375 0.05353318194 -0.0693832113
645.0 0.05461177967 -0.08039601391
645.625 0.06687348292 -0.04857961463
646.25 0.06749991781 -0.02942833638
646.875 0.07281497503 -0.04681536995
647.5 0.08614549273 -0.06185642378
648.125 0.0743306842 -0.03560294532
648.75 0.07759749774 -0.001571008648
649.375 0.0994807407 0.01727641022
650.0 0.113215645 0.0429222872
650.625 0.091042149 0.05271439702
651.25 0.07974304583 0.0649739549
651.875 0.0544167336 0.1113414931
652.5 0.003707719753 0.1126521881
653.125 -0.001875863298 0.09125487034
653.75 -0.006693752524 0.08457467972
654.375 -0.05570562898 0.06560910961
655.0 -0.06921783921 0.003712019548
655.625 -0.06555637581 0.002624011621
656.25 -0.08269682293 0.03560143211
656.875 -0.1078619203 0.06164542986
657.5 -0.1122779996 0.01929223059
658.125 -0.1042130402 0.01865696073
658.75 -0.1196977616 0.0726483186
659.375 -0.1077911002 0.1072322758
660.0 -0.06056870214 0.1085833746
660.625 -0.02458262777 0.1037444376
661.25 -0.0104212403 0.119062262
661.875 -0.00399467537 0.106821816
662.5 0.01208141166 0.08323890934
663.125 0.0020091955 0.08430930062
663.75 -0.06760518534 0.07437228573
664.375 -0.09673829482 0.002748963137
665.0 -0.08462014337 -0.03526093528
665.625 -0.09550237857 -0.06818179731
666.25 -0.06185171755 -0.1336743809
666.875 -0.01770961779 -0.1251390344
667.5 -0.02316238753 -0.1181580552
668.125 -0.04068948029 -0.1371203308
668.75 -0.0110091787 -0.1277833456
669.375 0.008415486852 -0.08401201415
670.0 0.006859389422 -0.0817729609
670.625 0.01461026874 -0.1159868002
671.25 0.01249673477 -0.1114501557
671.875 0.003614737866 -0.09368955186
672.5 -0.03857699033 -0.09279051555
673.125 -0.0782839898 -0.1150921699
673.75 -0.08195751233 -0.1110427102
674.375 -0.06818581814 -0.1062308456
675.0 -0.02460978637 -0.1283494385
675.625 0.03158173245 -0.1215008034
676.25 0.05553481746 -0.09074153175
676.875 0.05565703379 -0.08918381508
677.5 0.08576302858 -0.07728256749
678.125 0.0775044793 -0.01747859041
678.75 0.07318500474 0.005245307055
679.375 0.09527551907 0.001737552245
680.0 0.1490667871 -0.004422204954
680.625 0.1336844521 0.006607498661
681.25 0.1081958176 -0.04084133515
681.875 0.09319015144 -0.1055597351
682.5 0.07122606837 -0.166968439
683.125 0.06806861923 -0.1302727031
683.75 0.06000758827 -0.08802609995
684.375 0.1043282528 -0.05866140194
685.0 0.1218978816 0.0377406749
685.625 0.05683862388 0.08908285687
686.25 -5.384815223e-06 0.08372756755
686.875 -0.04632589172 0.07743664801
687.5 -0.09297109704 0.04897587571
688.125 -0.1091749284 0.04631343553
688.75 -0.13962386 0.05604244473
689.375 -0.1607972143 0.02745354492
690.0 -0.1320316483 0.01617731055
690.625 -0.1206039715 0.0431285249
691.25 -0.1205965467 0.1164501844
691.875 -0.08688899288 0.1428334011
692.5 0.0153700117 0.09343419185
693.125 0.06547097854 0.04149421144
693.75 0.1198041726 0.01874020782
694.375 0.1512475936 0.05855106385
695.0 0.07801838337 0.09583886491
695.625 0.01263919302 0.112817955
696.25 -0.1119910113 0.08994766614
696.875 -0.1515944376 -0.05871490255
697.5 -0.06794737939 -0.1293120103
698.125 -0.04564424311 -0.1277499121
698.75 -0.03447570385 -0.1209843075
699.375 -0.01293516062 -0.1001851479
700.0 0.009849826118 -0.09814956327
700.625 0.05812098101 -0.1006394273
701.25 0.07696752213 -0.05873867796
701.875 0.06983903012 -0.05380549126
702.5 0.04206873469 -0.111872189
703.125 -0.04639476012 -0.1875775787
703.75 -0.1258536254 -0.113576406
704.375 -0.1197381248 -0.003062633891
705.0 -0.1106403001 0.02063732062
705.625 -0.1435151731 -0.05897023394
706.25 -0.01858322488 -0.1311778125
706.875 0.04639255615 -0.06956629005
707.5 0.06527039383 -0.03601293457
708.125 0.0902777014 0.0401058429
708.75 0.03612415925 0.108922639
709.375 -0.02994369904 0.09758192566
710.0 -0.06503517059 0.07735670376
710.625 -0.09619899899 0.04714292397
711.25 -0.1181126045 0.01660973457
711.875 -0.1329331252 0.03690953139
712.5 -0.1151417615 0.0933821025
713.125 -0.009827915619 0.1241265052
713.75 0.07788674341 0.06420451796
714.375 0.1043768852 0.01705429255
715.0 0.1074147682 0.02157503792
715.625 0.0636655613 0.04217194402
716.25 0.03292303017 0.05835003077
716.875 0.008141536106 0.09503973681
717.5 -0.07699738671 0.1047694209
718.125 -0.09230003191 0.0555949619
718.75 -0.07723172091 0.04051277337
719.375 -0.09297106989 0.02481831511
720.0 -0.1034099819 -0.05016121639
720.625 -0.01999539338 -0.1065148295
721.25 0.05769317991 -0.07282153635
721.875 0.08448073597 -0.01240724526
722.5 0.06251059758 0.02022767515
723.125 0.04801743786 0.02313470965
723.75 0.06509138542 0.005959625989
724.375 0.06073407366 -0.04551575727
725.0 0.01653417708 -0.06333734542
725.625 -0.01079317999 -0.06570807762
726.25 -0.02203498754 -0.07819517467
726.875 -0.00418456556 -0.08765617378
727.5 0.008845544443 -0.07119151944
728.125 0.02124576968 -0.05154420629
728.75 0.03143735678 -0.03702428483
729.375 0.03448485102 -0.03478014856
730.0 0.02227650086 -0.03533924703
730.625 0.0160159967 -0.02283561721
731.25 0.02251279505 -0.003407524284
731.875 0.01328523786 0.01827809154
732.5 -0.009364680865 0.02624487465
733.125 -0.02206169191 0.02970061633
733.75 -0.009997562999 0.03711580135
734.375 0.006894740529 0.03030455057
735.0 0.01684489514 0.01107172923
735.625 0.01543167444 -0.001429099211
736.25 0.007276009163 -0.01766911136
736.875 -0.01512555653 -0.02716302522
737.5 -0.03563697811 -0.02096529232
738.125 -0.04241814778 -0.009228304024
738.75 -0.02923949341 0.004509642729
739.375 -0.001412156512 0.004518423252
740.0 0.01057719378 -0.01905782429
740.625 -0.008093767275 -0.02794700153
741.25 -0.01166613988 -0.02224482709
741.875 0.01208693585 -0.02002665769
742.5 0.02640798083 0.01323141091
743.125 -0.001481922261 0.03275709707
743.75 -0.02118593164 0.03068620893
744.375 -0.0351936981 0.03474572929
745.0 -0.05081951392 0.04164746408
745.625 -0.04062242625 0.06877797332
746.25 0.01122384501 0.08575976404
746.875 0.0615611268 0.05518016451
747.5 0.05523134601 0.01441108286
748.125 0.03771071209 0.0005626730388
748.75 0.0381697708 -0.009229133823
749.375 0.03101635547 -0.04194715781
750.0 -0.02404098428 -0.04900793028
