!Created with skrf (http://scikit-rf.org).
# GHz S RI R 50.0 
!freq ReS11 ImS11
500.0 -0.03471955439 0.006153391763
500.625 -0.02065781968 0.0281985963
501.25 -0.02239582012 0.03054393956
501.875 -0.04925387051 0.04903207312
502.5 -0.06118805565 0.05002429127
503.125 -0.0238555077 0.05396296334
503.75 0.003606562 0.04863659326
504.375 0.01808280424 0.04751272476
505.0 0.04106046298 0.03590945526
505.625 0.04561793489 0.02701661663
506.25 0.0324261614 0.01252994819
506.875 0.008713758092 0.0448548184
507.5 0.01780982672 0.05250805209
508.125 0.003018188257 0.0584243978
508.75 0.02653356635 0.05363516592
509.375 0.03435237708 0.06567145947
510.0 0.03758811988 0.07700361913
510.625 0.05303934542 -0.01781146709
511.25 0.03179754632 -0.01979941189
511.875 0.02526711404 -0.01317898052
512.5 0.01974967582 -0.01773613015
513.125 -0.01155605793 -0.04362823951
513.75 -0.04690489716 -0.05943779172
514.375 -0.07641790846 -0.03727637072
515.0 -0.08053037742 0.009135361503
515.625 -0.08890667539 -0.02700611468
516.25 -0.0813259907 0.0364751127
516.875 -0.06161080941 -0.01942034374
517.5 -0.0286647392 0.002978347153
518.125 0.004667421743 -0.05398719652
518.75 -0.0588560533 -0.03783064591
519.375 -0.05876594778 -0.0198617685
520.0 -0.04654878128 0.01395103661
520.625 -0.039095372 0.005527123563
521.25 -0.05452839343 0.01202349349
521.875 -0.02945056798 0.003980064982
522.5 -0.0188067217 0.0156215626
523.125 -0.05157927635 -0.01543656784
523.75 -0.1249308202 -0.04385563717
524.375 -0.1405259197 -0.07827883731
525.0 -0.09444547849 -0.02019902973
525.625 -0.101587771 0.003551878386
526.25 -0.0876969344 -0.01167731192
526.875 -0.06589916137 0.01240784863
527.5 -0.06266305319 0.04691265664
528.125 -0.02626538566 0.08242918729
528.75 -0.01925573167 0.07566887668
529.375 0.01927512257 0.08487716127
530.0 0.08824317918 0.07142879424
530.625 0.1555721876 -0.02807361959
531.25 0.1747536966 -0.04304402902
531.875 0.1026246337 -0.06102394641
532.5 0.0829704762 -0.06738971245
533.125 0.08538261946 -0.03984767439
533.75 0.06683482937 -0.06229055092
534.375 0.05534855003 -0.04019864611
535.0 0.06143294654 -0.0442400822
535.625 0.07455840277 -0.001013649704
536.25 0.06038179123 -0.05830760622
536.875 0.08255257267 -0.07176875156
537.5 0.08979645707 -0.05069946586
538.125 0.0450336201 -0.0381436306
538.75 0.0556343325 -0.03548217698
539.375 0.1081913577 -0.03237083108
540.0 0.1449617944 -0.04889827247
540.625 0.09646703586 -0.05410282754
541.25 0.08624466619 -0.04723373451
541.875 0.09618621012 -0.05856518141
542.5 0.08072681959 -0.05338711659
543.125 0.02586678141 -0.05128712797
543.75 0.0003910007074 -0.0303158692
544.375 0.03161221382 -0.03714930975
545.0 -0.004137325512 -0.06184768753
545.625 -0.04556742386 -0.06142902151
546.25 -0.06304305981 -0.0327493498
546.875 -0.06952139162 -0.03462382264
547.5 -0.06098438386 -0.03094982686
548.125 -0.06550407974 -0.05485467819
548.75 -0.03743946578 -0.08223674716
549.375 -0.005045738947 -0.09602186705
550.0 0.04105545898 -0.08374846687
550.625 0.05732978248 -0.1077149735
551.25 0.110296534 -0.09589069805
551.875 0.07290281988 -0.0969620221
552.5 0.03187959456 -0.1041700684
553.125 0.001020839158 -0.1098337714
553.75 0.003997330706 -0.112105516
554.375 -0.01603653185 -0.08678538527
555.0 -0.02397106749 -0.06717748939
555.625 -0.02704169891 -0.07163316995
556.25 -0.01368948444 -0.07763232199
556.875 -0.01715664325 -0.06830906802
557.5 -0.004235314958 -0.04662252311
558.125 0.01740834821 -0.04406958034
558.75 0.0433916549 -0.01519601633
559.375 0.05327469029 -0.02777786101
560.0 0.08144693688 -0.03581866479
560.625 0.07824591055 -0.0737773052
561.25 0.03856815304 -0.08669189434
561.875 -0.007142679084 -0.08776225122
562.5 -0.03239069274 -0.08344277614
563.125 -0.04325205058 -0.06953799779
563.75 -0.05039516074 -0.03214480825
564.375 -0.04402341215 -0.01803499234
565.0 -0.03307641027 -0.04370991291
565.625 -0.01891697292 -0.06761860082
566.25 -0.003672905896 -0.06672760055
566.875 -0.002197329688 -0.07048068719
567.5 0.0144542972 -0.06669786474
568.125 0.03139926501 -0.05012490694
568.75 0.06007378625 -0.03550568722
569.375 0.07499186942 -0.03858640101
570.0 0.08787183752 -0.05082160003
570.625 0.05795246657 -0.06713219113
571.25 0.05312481718 -0.0819875709
571.875 0.03960056247 -0.09262292991
572.5 -0.002755827612 -0.1003865931
573.125 -0.04706141567 -0.06414612418
573.75 -0.04892596922 -0.04614942345
574.375 -0.03944246636 -0.06362235663
575.0 -0.04198862066 -0.0643730185
575.625 -0.0559859641 -0.03247788375
576.25 -0.05464852184 -0.02201791345
576.875 -0.04470972292 -0.03002743201
577.5 -0.0169719677 -0.0364538232
578.125 -0.01640845395 -0.0397561245
578.75 -0.02052133131 -0.05121246093
579.375 -0.02153885946 -0.06506733643
580.0 -0.009618129832 -0.07623551528
580.625 -0.01849868935 -0.08652705711
581.25 -0.05653609792 -0.09169882588
581.875 -0.06266797658 -0.07167245616
582.5 -0.05650933703 -0.05789591015
583.125 -0.02994942669 -0.05776356536
583.75 -0.02254999073 -0.06984271085
584.375 -0.01346141501 -0.0650560759
585.0 -0.01800361995 -0.06036328386
585.625 0.001343727863 -0.05408393419
586.25 0.01723757267 -0.05664034455
586.875 0.006453498318 -0.05241030263
587.5 -0.01483106477 -0.0486548789
588.125 -0.02244319499 -0.04707802931
588.75 -0.001670425767 -0.06496565319
589.375 -0.02206928994 -0.06789613016
590.0 -0.06495533698 -0.05649385815
590.625 -0.09499109895 -0.02358354213
591.25 -0.08068582598 -0.01097332428
591.875 -0.04893751801 0.00281629363
592.5 -0.03433343935 0.0003215331632
593.125 -0.03612722873 -0.01527955144
593.75 -0.03027037752 -0.02551141339
594.375 -0.008148210352 -0.03273150649
595.0 0.01230968581 -0.03606807649
595.625 0.0295934375 -0.04455549097
596.25 0.03164317369 -0.04224885959
596.875 0.03551302968 -0.03650042863
597.5 0.04145000984 -0.02292379524
598.125 0.04985064776 -0.02256109964
598.75 0.04704314453 -0.03788794458
599.375 0.04689840285 -0.05624173793
600.0 0.04788535562 -0.06280775682
600.625 0.03685175665 -0.05922654871
601.25 0.01271843057 -0.05539468618
601.875 0.000274629967 -0.0443634249
602.5 0.002284384351 -0.03148345466
603.125 0.003737959357 -0.01477532889
603.75 0.007289241999 -0.003228109958
604.375 0.02004035718 -0.0006470708147
605.0 0.02780485457 -0.005649924035
605.625 0.01725582408 -0.008706963866
606.25 0.0005520148295 -0.0001065242243
606.875 -0.003833969721 0.0192187866
607.5 0.01182377731 0.03129730572
608.125 0.02852887892 0.02056570889
608.75 0.02844235667 0.0132459046
609.375 0.02692305355 0.01734410882
610.0 0.02912846926 0.01909473668
610.625 0.03158486235 0.008265348059
611.25 0.02701991795 -0.002672528341
611.875 0.01845603575 -0.009520769574
612.5 0.006177184963 -0.01536938748
613.125 -0.00901204779 -0.01289387498
613.75 -0.0138354106 -0.001817564772
614.375 -0.00614070954 0.002926771183
615.0 0.0001264590151 -0.004648510611
615.625 -0.00715057926 -0.01337284416
616.25 -0.01555513982 -0.006522931489
616.875 -0.008922878336 0.003212001576
617.5 0.002562651371 -0.001225310279
618.125 0.005216643305 -0.01125355845
618.75 0.004270686054 -0.01303951537
619.375 0.01319932479 -0.01087147692
620.0 0.02807025108 -0.0198094579
620.625 0.02532638724 -0.04461589695
621.25 0.01992420294 -0.06084852331
621.875 0.007426987098 -0.07432790102
622.5 -0.05321582562 -0.04873633708
623.125 -0.05455401592 -0.01850931353
623.75 -0.04018721533 -0.01091369333
624.375 -0.0195420682 -0.0229045669
625.0 -0.000377780461 -0.0264665156
625.625 -0.004292930836 -0.01505694972
626.25 0.003045967264 -0.002972703063
626.875 0.02850349771 -0.005948778631
627.5 0.05285432187 -0.00637168505
628.125 0.05241953986 -0.003921802419
628.75 0.05257342096 -0.003866883838
629.375 0.06467269833 0.001446228825
630.0 0.07961614564 0.01126936707
630.625 0.07930378633 0.02029197636
631.25 0.07706539473 0.01320573131
631.875 0.07431225267 0.009118292023
632.5 0.06295041944 0.001330372212
633.125 0.05762061739 0.01102099165
633.75 0.05062214788 0.01230080008
634.375 0.04813218311 0.02089623445
635.0 0.03651138126 0.01048939989
635.625 0.0427531786 0.01681568966
636.25 0.05526881481 0.03693102785
636.875 0.05691342663 0.0416726389
637.5 0.0417764439 0.01829250937
638.125 0.0329773564 0.03090094454
638.75 0.03571326025 0.07292215467
639.375 0.01140240381 0.09199020864
640.0 0.006371936105 0.07710818627
640.625 0.002667470641 0.06812237621
641.25 -0.01683506729 0.06871994642
641.875 -0.03702367044 0.05214242622
642.5 -0.04201871538 0.0468538197
643.125 -0.04805015574 0.04507723663
643.75 -0.05932410996 0.03278492449
644.375 -0.05717645271 0.02743875536
645.0 -0.07120777496 0.03895679428
645.625 -0.08010059967 0.05438019544
646.25 -0.0721590727 0.05732450316
646.875 -0.05137250714 0.05091215024
647.5 -0.06182071892 0.04375387879
648.125 -0.08087726077 0.04120169094
648.75 -0.0784440957 0.02165395686
649.375 -0.05968374473 0.02376213401
650.0 -0.05246333077 -0.002185624104
650.625 -0.04420847916 -0.03683776564
651.25 -0.01838389306 -0.04852022391
651.875 -0.004345955196 -0.05106628064
652.5 0.02982613886 -0.05940298002
653.125 0.07152106149 -0.05694943391
653.75 0.08701804618 -0.04715322815
654.375 0.09891329992 -0.04905257148
655.0 0.1100748303 -0.04816821747
655.625 0.09253267101 -0.0392078774
656.25 0.07045897975 -0.05458392886
656.875 0.05962414727 -0.06313561654
657.5 0.07630990632 -0.05213522352
658.125 0.05401812314 -0.03132050553
658.75 0.03608201243 -0.03508780038
659.375 0.04865105376 -0.02404343689
660.0 0.07277049484 -0.03575355096
660.625 0.06563413187 -0.03984707926
661.25 0.05539547891 -0.06756980446
661.875 0.04544569132 -0.09679720923
662.5 0.03861844789 -0.1110046687
663.125 0.0306662984 -0.09911984923
663.75 0.06498663557 -0.09015234808
664.375 0.1070651055 -0.03476977406
665.0 0.0868729929 0.02537396141
665.625 0.06932891721 0.03087821305
666.25 0.0546240386 0.05267216032
666.875 0.01230476452 0.07741428546
667.5 -0.02200644489 0.06029119258
668.125 -0.02995948375 0.06469538287
668.75 -0.02735224017 0.08955234482
669.375 -0.03739925872 0.1068924036
670.0 -0.0249051164 0.08351843223
670.625 -0.03698747584 0.07958342922
671.25 -0.02129128932 0.09813508596
671.875 -0.0009987804558 0.1073462364
672.5 0.05531702396 0.07178398625
673.125 0.05428444621 0.06143909541
673.75 0.02839380238 0.06612001443
674.375 -0.0004177832655 0.07314355095
675.0 -0.01375268013 0.07863176796
675.625 -0.05286441272 0.07859963844
676.25 -0.09399654048 0.03670925159
676.875 -0.09163275405 0.01952736318
677.5 -0.1085940411 0.03930887657
678.125 -0.1257088343 0.05257085325
678.75 -0.1182680364 0.02287855961
679.375 -0.07756594488 0.0287043369
680.0 -0.07223670745 0.02751435038
680.625 -0.08267628737 0.02524175846
681.25 -0.07251765605 0.0152468272
681.875 -0.04222587713 0.02521378183
682.5 -0.05374624892 0.03321231124
683.125 -0.08805896417 0.05025895121
683.75 -0.1014311497 0.02782215388
684.375 -0.102055814 -0.01215844268
685.0 -0.0690271599 -0.0805344776
685.625 -0.001408316008 -0.1266458868
686.25 0.03787892101 -0.1150385161
686.875 0.05525561058 -0.1230802036
687.5 0.07621775489 -0.09043763006
688.125 0.06547099487 -0.05241809741
688.75 0.0527548561 -0.03339663572
689.375 0.07097436409 -0.01691640136
690.0 0.08778216005 0.01778015848
690.625 0.06234294401 0.02931875036
691.25 0.07368048457 0.003917741747
691.875 0.09784440747 -0.04744744376
692.5 0.06821513085 -0.1454329836
693.125 -0.05665222414 -0.1183453669
693.75 -0.1149029057 -0.0395865665
694.375 -0.1143311289 -0.02650094263
695.0 -0.08766528924 -0.08885526654
695.625 -0.004090858667 -0.09778095459
696.25 0.07525039598 -0.04727840124
696.875 0.06856464651 0.04122976071
697.5 0.003276270089 0.07174156942
698.125 -0.01957415971 0.07546086414
698.75 -0.03974862128 0.09689802585
699.375 -0.0564092733 0.09714882336
700.0 -0.05289267594 0.07030005474
700.625 -0.06364826033 0.07116572122
701.25 -0.08891443739 0.07851663351
701.875 -0.08700725704 0.07606713859
702.5 -0.01099106451 0.06252929984
703.125 0.01254711522 0.05126893483
703.75 0.0371307624 0.07279116227
704.375 0.07359211022 0.1019414171
705.0 0.07171673313 0.06489143809
705.625 0.04842785586 0.0769814293
706.25 -0.01928090704 0.1040418694
706.875 -0.1165992923 0.04439650232
707.5 -0.1192398672 -0.008520600678
708.125 -0.09461672746 -0.05077104775
708.75 -0.05069755108 -0.07390423594
709.375 0.008602318409 -0.07046918612
710.0 0.05265947676 -0.05736510837
710.625 0.07053462991 -0.02450101276
711.25 0.05483091537 0.001334547927
711.875 0.03165836882 0.003156347128
712.5 0.05685188768 0.005296723499
713.125 0.09625797474 -0.04767111235
713.75 0.03716419125 -0.1113194963
714.375 -0.05033491131 -0.08714968685
715.0 -0.09725055677 -0.05587546328
715.625 -0.1064658945 -0.08045512696
716.25 -0.04546586544 -0.09610280327
716.875 -0.01087382544 -0.07481380485
717.5 0.02996718655 -0.05797367734
718.125 0.06223754233 -0.03719024626
718.75 0.06518930305 -0.008661015696
719.375 0.05339769546 0.00611819869
720.0 0.02889214766 0.03057418404
720.625 -0.0252143562 0.03939959379
721.25 -0.06150585554 -0.01294010596
721.875 -0.04623656418 -0.07307997033
722.5 -0.03684173348 -0.09153113513
723.125 -0.0745185952 -0.05963220565
723.75 -0.07757744196 0.01939654986
724.375 -0.04245537926 0.05266140755
725.0 -0.007114681219 0.05164250811
725.625 0.01070111547 0.0310495758
726.25 0.007060938011 0.01668032806
726.875 -0.01929396386 0.01669299801
727.5 -0.04921072468 0.01099215119
728.125 -0.05678238557 9.201745062e-05
728.75 -0.04919595233 0.01155526648
729.375 -0.0333462781 0.0207170539
730.0 -0.03047864287 0.01246468583
730.625 -0.03408850722 0.006195654186
731.25 -0.03037228576 -0.002504223487
731.875 -0.02161884465 -0.014461593
732.5 -0.01070730702 -0.01419323869
733.125 -0.005649407467 -0.001145666039
733.75 0.005310358396 0.01031890552
734.375 0.01796082519 0.007358561362
735.0 0.01767012999 -0.006503878338
735.625 0.01471058686 -0.01104750957
736.25 0.009245733505 -0.02066979005
736.875 -0.009027986704 -0.0247532954
737.5 -0.02789333125 -0.01081066127
738.125 -0.03902476795 0.01085843718
738.75 -0.03488883886 0.03190784119
739.375 -0.01462240821 0.03881930983
740.0 -0.0005372618302 0.02592605369
740.625 -0.007755401763 0.02318895187
741.25 -0.0136827059 0.0316384365
741.875 -0.03015985176 0.02169099224
742.5 -0.03219949384 -0.01751835643
743.125 0.004436884639 -0.03769406988
743.75 0.0263515593 -0.03006452484
744.375 0.02753044747 -0.0316214725
745.0 0.02053240236 -0.03339322722
745.625 0.004796302034 -0.02052793258
746.25 0.01644792431 -0.008534625908
746.875 0.0275968849 -0.0341913241
747.5 0.004339991383 -0.05509812819
748.125 -0.0247124214 -0.0477232917
748.75 -0.05060976231 -0.01856098759
749.375 -0.05767390976 0.0229426249
750.0 -0.01605932676 0.07345873067
