!Created with skrf (http://scikit-rf.org).
# GHz S RI R 50.0 
!freq ReS11 ImS11
500.0 -0.02398155978 0.03172518817
500.625 0.01829006378 0.04518068978
501.25 0.02478866406 0.04075613768
501.875 0.01906358241 0.05255431983
502.5 0.007374240304 0.06647856968
503.125 0.03512487162 0.05291945796
503.75 0.05245998813 0.02960768014
504.375 0.0594903882 0.01080434021
505.0 0.06449404335 -0.02450309785
505.625 0.07885250211 -0.04208443331
506.25 0.05723870834 -0.05396060507
506.875 0.08288244561 -0.02913157541
507.5 0.07441445076 -0.0444972164
508.125 0.09671186171 -0.005166968272
508.75 0.06785369952 -0.056498473
509.375 0.05503934558 -0.05527534513
510.0 0.09183262702 -0.04153148321
510.625 0.0004575660387 -0.08363871517
511.25 -0.03295270526 -0.06773059373
511.875 -0.05212144897 -0.02544169338
512.5 -0.0468287962 -0.0009353588285
513.125 -0.03744364619 0.03610476042
513.75 -0.03325541652 0.05437832196
514.375 -0.01634713491 0.0767091128
515.0 0.01582403816 0.1069220057
515.625 -0.05653408404 0.1130583811
516.25 0.03580318267 0.1238650311
516.875 -0.05585890298 0.1423292126
517.5 0.04109538215 0.1299349746
518.125 -0.09069065725 0.1327523644
518.75 0.02684272081 0.0687926233
519.375 0.01306966768 0.0977028256
520.0 0.05771792959 0.08096569493
520.625 0.07398181454 0.05856788838
521.25 0.07286132095 0.03774743047
521.875 0.05059642049 0.0584063229
522.5 0.0824047409 0.0142224412
523.125 0.1455862913 -0.007268670195
523.75 0.1462929606 -0.05343575043
524.375 0.1045965275 0.006603037221
525.0 0.02028556329 0.01270729407
525.625 0.01947200902 0.02823998666
526.25 0.02794711586 0.05268244271
526.875 0.03498838559 0.04449199793
527.5 0.04020621878 0.02356975144
528.125 0.05496758371 -0.005513835546
528.75 0.07405329672 -0.02751598353
529.375 0.04939492604 -0.06077853874
530.0 0.01863969483 -0.04520869568
530.625 -0.01838527425 -0.08391921551
531.25 -0.02000106397 -0.186430979
531.875 -0.08495910699 -0.1584624678
532.5 -0.1158112289 -0.08381777892
533.125 -0.1042370846 -0.04964539635
533.75 -0.1104285032 -0.06418469635
534.375 -0.09157001067 -0.03681359871
535.0 -0.08737519826 -0.01341004023
535.625 -0.05450996726 -0.03383850631
536.25 -0.05772480233 -0.03236085295
536.875 -0.06261847758 -0.05722473346
537.5 -0.07535352261 -0.08434699286
538.125 -0.09878353448 -0.05267026166
538.75 -0.08367337862 -0.03172553386
539.375 -0.06150753061 -0.04517877984
540.0 -0.07796329971 -0.07774467037
540.625 -0.10062987 -0.1033532877
541.25 -0.06768782116 -0.09506497006
541.875 -0.06865596075 -0.07956843564
542.5 -0.08058878256 -0.09071371597
543.125 -0.1228913242 -0.05764054436
543.75 -0.117452688 0.03414597419
544.375 -0.07346800368 0.05790308085
545.0 -0.02249010866 0.08506592768
545.625 -0.003219096016 0.08367836758
546.25 0.03650750347 0.086230937
546.875 0.04496117605 0.07980358043
547.5 0.04819950496 0.1009873607
548.125 0.02087704298 0.09600656895
548.75 0.01021944764 0.09504444404
549.375 0.0005550681565 0.1013867876
550.0 -0.04350163678 0.06623135705
550.625 -0.02920982511 0.02489590627
551.25 -0.03380480051 -0.01090383072
551.875 -0.0604765343 -0.01332035649
552.5 -0.09302207951 -0.01880747619
553.125 -0.07964787869 -0.0003996099467
553.75 -0.08467340683 0.001291306545
554.375 -0.09527411633 0.03532992574
555.0 -0.0962828646 0.05463425542
555.625 -0.07656169884 0.05522122452
556.25 -0.08243198571 0.04764225141
556.875 -0.1000659964 0.04870173913
557.5 -0.09058279375 0.0567731937
558.125 -0.09086169335 0.05342443672
558.75 -0.08150017974 0.03024761366
559.375 -0.06431588845 0.0200071891
560.0 -0.0384657475 0.01215250918
560.625 -0.04706391911 -0.004354058965
561.25 -0.06949569484 -0.007597517001
561.875 -0.08705928719 0.006665988199
562.5 -0.06894817326 0.0438801609
563.125 -0.05014299962 0.08094638527
563.75 -0.02829650606 0.1157102505
564.375 -0.006641434726 0.108096492
565.0 0.0009206383615 0.09823511681
565.625 0.01014129373 0.0859865906
566.25 -0.0253226158 0.08248607883
566.875 -0.05395574501 0.05704024276
567.5 -0.0600525488 0.04696299222
568.125 -0.07071345369 0.04504798562
568.75 -0.06330014301 0.03032644444
569.375 -0.04841210774 0.01162011753
570.0 -0.0393706433 -0.008855988621
570.625 -0.0614655532 -0.01480735161
571.25 -0.05719484362 -0.01591701168
571.875 -0.06052060784 -0.002763897887
572.5 -0.08181369638 0.01861772496
573.125 -0.1005815618 0.06578353218
573.75 -0.05324120419 0.08920691768
574.375 -0.008199949231 0.08412296925
575.0 -0.01016990852 0.08413670153
575.625 -0.02756292425 0.09690885899
576.25 -0.01585295094 0.08965171209
576.875 0.01364384385 0.08709252456
577.5 0.02758896995 0.08468014715
578.125 0.007646866525 0.08205899599
578.75 0.00548303163 0.05996243258
579.375 0.01270723275 0.05736907744
580.0 0.01013209921 0.05446904685
580.625 -0.00819127271 0.0391045137
581.25 -0.03242317174 0.03214644522
581.875 -0.04219215391 0.05188049224
582.5 -0.05199344924 0.07760058392
583.125 -0.04042941315 0.07480538646
583.75 -0.03938568398 0.06652698519
584.375 -0.05077410882 0.05614696121
585.0 -0.07509637598 0.05063865517
585.625 -0.05366342073 0.05358801309
586.25 -0.0449223169 0.0524876491
586.875 -0.0508604346 0.04785902587
587.5 -0.05202599799 0.05331431749
588.125 -0.009269817714 0.06533519049
588.75 0.009578934526 0.06133820277
589.375 0.01026294579 0.0520984899
590.0 -0.01436396868 0.04083406976
590.625 -0.01329302446 0.05356332026
591.25 0.0005818927753 0.07812925289
591.875 0.02056219629 0.09659775106
592.5 0.03221673681 0.08306104822
593.125 0.03397320034 0.06287992409
593.75 0.0292967569 0.06776445854
594.375 0.004336392063 0.07626493005
595.0 -0.01213314738 0.06162136913
595.625 -0.02172882384 0.03839147278
596.25 -0.03421816705 0.02655706895
596.875 -0.04431845881 0.0146937335
597.5 -0.04208873555 0.01754602881
598.125 -0.03224792825 0.01845920416
598.75 -0.01988608727 0.01280405935
599.375 -0.01620213094 -0.005474844253
600.0 -0.02192025764 -0.01883614524
600.625 -0.03926579005 -0.03087213958
601.25 -0.05833919328 -0.03047192447
601.875 -0.06158293963 -0.01438948373
602.5 -0.05936620778 9.741250669e-05
603.125 -0.06059171214 0.00359268188
603.75 -0.05304727585 0.005729339415
604.375 -0.03439259148 0.003153788377
605.0 -0.02628836685 -0.008551950704
605.625 -0.03295696694 -0.02198461126
606.25 -0.04162337074 -0.02276388207
606.875 -0.0393520565 -0.005594536482
607.5 -0.02221329476 0.01079754837
608.125 -0.005575484026 0.007781615891
608.75 -0.001578954213 0.001652187224
609.375 0.003326594678 0.001757812721
610.0 0.01301901598 0.0006180617457
610.625 0.01974366959 -0.007909228919
611.25 0.0197578835 -0.01652666827
611.875 0.0170344479 -0.0207530402
612.5 0.007956558175 -0.02232680027
613.125 -0.006253085407 -0.01521929047
613.75 -0.01093022295 0.0005344782997
614.375 -0.003769238089 0.0100730989
615.0 0.002980874189 0.0068640392
615.625 -0.004654008981 0.003172588193
616.25 -0.01285031712 0.01471914613
616.875 -0.006844020227 0.02906148692
617.5 0.002975176629 0.02864847366
618.125 0.002432303972 0.02299823307
618.75 -0.001001168916 0.02576779684
619.375 0.0007264951001 0.03143134969
620.0 0.01121351733 0.0261292265
620.625 0.01533889301 0.004836476414
621.25 0.001659656413 -0.009495027557
621.875 -0.01989021524 -0.02144822508
622.5 -0.04727897728 0.01578256378
623.125 -0.04520084359 0.04845304335
623.75 -0.04063227183 0.06008261815
624.375 -0.04592596908 0.04746394071
625.0 -0.05908822759 0.03157496002
625.625 -0.06663846356 0.04376762965
626.25 -0.05542929145 0.0587170887
626.875 -0.03339472782 0.05575721063
627.5 -0.03168077442 0.03981794555
628.125 -0.04309059689 0.02179629149
628.75 -0.04475381753 0.005737803923
629.375 -0.03051011652 0.004577950332
630.0 -0.02198561215 -0.004859487199
630.625 -0.01496762976 -0.0302706204
631.25 -0.007423701526 -0.05141020532
631.875 -0.00944021332 -0.06134829922
632.5 -0.025886313 -0.06591937843
633.125 -0.02516717537 -0.07929309464
633.75 -0.03692094762 -0.06931185027
634.375 -0.03884745971 -0.07471147384
635.0 -0.05738176121 -0.06751563215
635.625 -0.06222235651 -0.05429540827
636.25 -0.04823633103 -0.03735175868
636.875 -0.03540374433 -0.05794534404
637.5 -0.04407988577 -0.0775440385
638.125 -0.0499388326 -0.06247323007
638.75 -0.03967298607 -0.03528612317
639.375 -0.001082184724 -0.04026137413
640.0 0.05169443109 -0.04740856605
640.625 0.06396818797 -0.03914101095
641.25 0.05221434903 -0.04736544767
641.875 0.05742774268 -0.04472954573
642.5 0.08017288385 -0.02103279986
643.125 0.07822942129 -0.001296783042
643.75 0.07727726751 -0.009460218018
644.375 0.07657678299 -0.02688855269
645.0 0.06830352885 -0.01377065745
645.625 0.06062308118 0.0009547930018
646.25 0.07050387365 0.008876255503
646.875 0.09388566385 0.005754933596
647.5 0.08196094859 0.004075690386
648.125 0.06967343064 0.005383829383
648.75 0.06990386785 0.04248441023
649.375 0.07771508756 0.07352966691
650.0 0.06275038718 0.07393026965
650.625 0.05858439906 0.07227288149
651.25 0.03421770493 0.08864388519
651.875 -0.01524131316 0.09496398797
652.5 -0.02603347587 0.0723620919
653.125 -0.0295026314 0.06254938261
653.75 -0.04705296092 0.03782428961
654.375 -0.05118288026 -0.01469842204
655.0 -0.04680448576 -0.03620951
655.625 -0.06805880389 -0.03928091771
656.25 -0.1002765374 -0.03283016485
656.875 -0.0991405004 -0.02069988135
657.5 -0.09964667646 -0.02765549845
658.125 -0.11315336 -0.02743872994
658.75 -0.1376596659 -0.005956301043
659.375 -0.1026560908 0.03672313369
660.0 -0.07523272183 0.06328554476
660.625 -0.065078964 0.06425989327
661.25 -0.0667497073 0.05829965929
661.875 -0.03492439454 0.0569423669
662.5 -0.03190714644 0.05887333143
663.125 -0.06156706448 0.05430622517
663.75 -0.08534293487 0.0003294182136
664.375 -0.0734582164 -0.04075152057
665.0 -0.05953821078 -0.08134670047
665.625 -0.03110935756 -0.1205182636
666.25 0.01204268148 -0.1122640482
666.875 0.02315422435 -0.10780224
667.5 0.03181807662 -0.1130769884
668.125 0.04851985987 -0.102419178
668.75 0.0314017475 -0.06914929607
669.375 0.03985249979 -0.05491437769
670.0 0.05825124485 -0.06371144426
670.625 0.07808209416 -0.05792348928
671.25 0.04951290608 -0.06179793553
671.875 0.05229114758 -0.07066119263
672.5 0.02163709362 -0.1094606578
673.125 0.00115906329 -0.1207356408
673.75 -0.02548313474 -0.1128327402
674.375 -0.001722516588 -0.1117910597
675.0 0.04492957081 -0.09165747562
675.625 0.06121664372 -0.05953733765
676.25 0.07562221034 -0.04653461668
676.875 0.0872588219 -0.02482710242
677.5 0.06811037661 0.02094208982
678.125 0.05148317369 0.02938575227
678.75 0.07092041546 0.04705725566
679.375 0.0980543246 0.07246105711
680.0 0.09305063658 0.08540670167
680.625 0.0987008103 0.04113798899
681.25 0.116993375 0.0007371647767
681.875 0.1391149089 -0.0416420637
682.5 0.1094398042 -0.06674918764
683.125 0.07392012174 -0.06828493296
683.75 0.07764020049 -0.0438958742
684.375 0.09768862605 0.02107344377
685.0 0.04900941715 0.06607635024
685.625 -0.006560354603 0.07659115694
686.25 -0.05202291809 0.04883838683
686.875 -0.08868380072 0.01580083362
687.5 -0.09822259854 -0.007639648968
688.125 -0.131374623 -0.009487226891
688.75 -0.1446414668 -0.03422762806
689.375 -0.1160612574 -0.0376662798
690.0 -0.1086905986 -0.02212930779
690.625 -0.1253493039 -0.009926247896
691.25 -0.1410769825 0.01178431331
691.875 -0.06983579039 0.04747642194
692.5 -0.01408527491 0.06446306614
693.125 0.01995050645 0.07589011135
693.75 0.06755647672 0.1105319044
694.375 0.05931171031 0.09661581014
695.0 0.0320849928 0.1039039926
695.625 -0.04827004952 0.110107247
696.25 -0.1364850259 0.007011980645
696.875 -0.08635617818 -0.09843959782
697.5 -0.01296809917 -0.1260084641
698.125 0.0159151845 -0.1127355787
698.75 0.01935642244 -0.08266748707
699.375 0.02554337194 -0.07539306057
700.0 0.05752091807 -0.06831441844
700.625 0.08848431095 -0.02459596491
701.25 0.07084601414 -0.003970845644
701.875 0.08533546051 -0.02409240539
702.5 0.0987505474 -0.09435436855
703.125 0.06145182226 -0.1552895222
703.75 -0.06601713119 -0.09729348514
704.375 -0.09523840948 -0.03121619391
705.0 -0.0993091829 -0.03937598785
705.625 -0.05005888226 -0.1089330949
706.25 0.01783318353 -0.08004570579
706.875 0.05719929877 -0.03222975072
707.5 0.06609098676 0.02012377509
708.125 0.03052073883 0.08616896023
708.75 -0.01457369201 0.09919326977
709.375 -0.06359107929 0.07546216337
710.0 -0.08982916884 0.03257279609
710.625 -0.09120110286 -0.002683398884
711.25 -0.1099935856 -0.02500534437
711.875 -0.1286217845 -0.01782979883
712.5 -0.1105756632 0.03179422346
713.125 -0.02532392397 0.08274334976
713.75 0.03934656774 0.0693245991
714.375 0.05493568616 0.06552281803
715.0 0.03815289774 0.05999645762
715.625 0.02141975575 0.04969239215
716.25 0.001262353812 0.07058118076
716.875 -0.05021142867 0.09335453832
717.5 -0.1005055322 0.03943208943
718.125 -0.08576115484 0.01771013161
718.75 -0.08169380691 0.007891089518
719.375 -0.08933502134 -0.02248471746
720.0 -0.05855066668 -0.07316434088
720.625 0.008558181616 -0.08706641004
721.25 0.06221370269 -0.04054616609
721.875 0.05214534674 0.01599107285
722.5 0.02360982836 0.0267353946
723.125 0.01696173362 0.04301700054
723.75 0.05348425763 0.04286761135
724.375 0.06847562265 -0.007485094388
725.0 0.03513721139 -0.04546881394
725.625 0.01386801292 -0.06347036882
726.25 0.008544152935 -0.07417600859
726.875 0.01752229226 -0.06590259614
727.5 0.01771910683 -0.05015630849
728.125 0.02760163066 -0.02838024732
728.75 0.03374404509 -0.007744765354
729.375 0.03473722591 -0.009164032702
730.0 0.02435502362 -0.01823731785
730.625 0.01697374476 -0.007301684715
731.25 0.01414030642 0.01042876181
731.875 -0.0007966374296 0.02010621764
732.5 -0.01848633637 0.01944116546
733.125 -0.02658501119 0.02006133039
733.75 -0.01334198857 0.02705835931
734.375 0.004062158199 0.02131264559
735.0 0.01210509137 0.00501306255
735.625 0.01152577153 -0.006091495145
736.25 0.004368515343 -0.02173191866
736.875 -0.0162421853 -0.03178230241
737.5 -0.03402779826 -0.02532591227
738.125 -0.03734415477 -0.01218686171
738.75 -0.02148638412 0.004172297105
739.375 0.008493035281 0.006896926064
740.0 0.02142544881 -0.01613897966
740.625 0.003177167276 -0.02797988866
741.25 0.001788378606 -0.02214813445
741.875 0.02203384248 -0.007364819031
742.5 0.01549453555 0.02474592809
743.125 -0.01626216965 0.02954256677
743.75 -0.03638557406 0.01803566814
744.375 -0.05003501482 0.0128666605
745.0 -0.06249841229 0.01984780533
745.625 -0.059097987 0.05622278862
746.25 -0.01296747893 0.08201410647
746.875 0.03347677629 0.05640394274
747.5 0.03579977899 0.01961089724
748.125 0.02371546564 0.01385415509
748.75 0.03116886039 0.01469342133
749.375 0.03930906154 -0.01406607169
750.0 0.001803365851 -0.04318723865
