!Created with skrf (http://scikit-rf.org).
# GHz S RI R (50+0j) 
!freq	ReS11	ImS11	
500.0	0.4833255443	-1.235843287	
500.625	-0.1816970871	-1.182105181	
501.25	0.007152406168	-0.6074413664	
501.875	-0.5659818378	-0.7192874912	
502.5	-0.0518109373	-0.06437305821	
503.125	-0.08657152289	-0.04259296211	
503.75	0.07465665595	0.1120935679	
504.375	0.002167714115	0.01182442455	
505.0	0.04692587253	-0.04967722169	
505.625	-0.02167867186	0.01143463928	
506.25	0.004446220773	-0.1450490531	
506.875	-0.02141742753	0.259011081	
507.5	0.2558462093	-0.3866174478	
508.125	0.02298207248	-0.9700775827	
508.75	0.1437273234	-0.4963880307	
509.375	0.5331508914	-1.208026867	
510.0	-0.6953302508	-0.4125027847	
510.625	-0.03413826128	-0.06697887683	
511.25	-0.1331471456	-0.1293120329	
511.875	-0.1382067343	0.0337361652	
512.5	-0.01780803174	0.02022600108	
513.125	0.00334531433	-0.1304580441	
513.75	-0.07694034915	0.01771697522	
514.375	0.01193293656	-0.0813234199	
515.0	-0.302585704	0.04768283121	
515.625	0.5488358417	-0.3810413966	
516.25	-1.019319782	-0.6893161216	
516.875	-0.1625225882	-0.03630978595	
517.5	0.1157456004	-0.1906750094	
518.125	-0.1251835524	0.002445179687	
518.75	0.01453367391	-0.2270501324	
519.375	-0.07744933324	0.05915963655	
520.0	0.09661415008	0.02817816564	
520.625	0.1159052812	0.008091967928	
521.25	-0.04054122894	-0.2341046265	
521.875	-0.1560818658	0.08289873486	
522.5	-0.02166531935	-0.05468374347	
523.125	-0.1137669093	0.1530338634	
523.75	0.004283927853	0.0189557414	
524.375	-0.3099176194	-0.05129240528	
525.0	0.09354215994	0.2093710402	
525.625	-0.03751033021	-0.0233059051	
526.25	0.06057282404	0.03175260035	
526.875	-0.0945778158	-0.01711605423	
527.5	0.001867473025	0.2929200146	
528.125	0.1555931071	0.1327732131	
528.75	0.01533810614	0.3168471845	
529.375	0.1306700806	0.08402813995	
530.0	-0.04402248035	0.09834946427	
530.625	0.09278044652	0.3124360785	
531.25	0.3677709389	-0.1043598111	
531.875	0.2092792324	-0.0204851794	
532.5	0.04361343143	-0.1800888892	
533.125	0.03792148506	0.1250972045	
533.75	0.2820702254	-0.2785387959	
534.375	-0.1511013688	-0.1795084681	
535.0	-0.1594656123	-0.1663146923	
535.625	-0.2172376123	0.1709284526	
536.25	0.02730132939	0.06402710569	
536.875	0.09094234873	0.06131732743	
537.5	0.07813396318	-0.0843526697	
538.125	0.058363762	-0.02533117155	
538.75	0.2005449401	-0.1367230267	
539.375	-0.1436617087	-0.1315343457	
540.0	-0.1236578765	-0.1325738409	
540.625	-0.1896331102	-0.06307092304	
541.25	-0.08094325924	0.07291647449	
541.875	0.0008817075015	-0.09230429083	
542.5	-0.09821306535	-0.05025983503	
543.125	-0.02106617604	-0.003410204484	
543.75	-0.146070034	-0.05387904065	
544.375	-0.0009502468619	0.07398736422	
545.0	-0.05717822631	0.04065494299	
545.625	0.1160718645	0.06248111375	
546.25	0.02675906884	-0.01406781274	
546.875	0.1715316375	0.01415424124	
547.5	0.01509066322	-0.1761539653	
548.125	-0.003884136763	-0.1108243093	
548.75	-0.1447455733	-0.1736296901	
549.375	-0.1488721103	-0.0212725647	
550.0	-0.03960784603	-0.03581142745	
550.625	-0.08520517144	0.04438791647	
551.25	-0.0429670356	0.01064094544	
551.875	-0.1127885517	0.07674421627	
552.5	-0.02161838468	0.09666841414	
553.125	-0.03150497701	0.05341025594	
553.75	0.06253083858	0.05202532231	
554.375	0.08821528206	-0.00145813733	
555.0	0.111130023	-0.07003241424	
555.625	0.085749891	-0.1185592723	
556.25	0.06330158974	-0.1434755157	
556.875	-0.03555535087	-0.1664633442	
557.5	-0.1070779493	-0.1125721963	
558.125	-0.1233183297	-0.03543020305	
558.75	-0.1078687024	-0.008844689446	
559.375	-0.1257732416	0.02183910828	
560.0	-0.08858768989	0.08830306294	
560.625	-0.06279536883	0.101482103	
561.25	0.006835449385	0.1397198212	
561.875	0.03805677883	0.01431526071	
562.5	0.001354033021	0.09235045509	
563.125	0.08506982682	0.03610428169	
563.75	0.1231473128	0.04610257087	
564.375	0.1671750708	-0.1326400546	
565.0	0.02358685517	-0.1509381919	
565.625	0.02091136666	-0.171490844	
566.25	-0.2028040635	-0.1535584314	
566.875	-0.101663218	-0.03927524857	
567.5	-0.150578775	-0.1721454786	
568.125	-0.2270073733	-0.1230061223	
568.75	-0.1320974807	-0.09211069948	
569.375	-0.3345688468	0.1093221422	
570.0	-0.05101929444	0.2379315564	
570.625	-0.09633524671	0.09868579446	
571.25	0.009991976277	0.2352792774	
571.875	0.031801018	-0.009680866148	
572.5	0.1825167596	0.07169781739	
573.125	0.04389711935	-0.2098148056	
573.75	0.01482538799	-0.004531098782	
574.375	0.1025722035	-0.1395072467	
575.0	-0.06357824275	-0.01012266302	
575.625	0.130643254	-0.07308986794	
576.25	-0.01663262866	-0.1927782751	
576.875	-0.005967797617	-0.05615482353	
577.5	0.07857565349	-0.215018228	
578.125	-0.1388673998	-0.1837340095	
578.75	-0.04777376086	0.00470682285	
579.375	-0.04013279462	-0.1670551036	
580.0	-0.1369805181	0.03497113628	
580.625	0.0453982304	-0.1289112919	
581.25	-0.1920723213	0.2228832911	
581.875	0.08815374515	0.06607152946	
582.5	-0.06083383057	0.1242063871	
583.125	0.2028934057	0.1687878329	
583.75	-0.01876234352	-0.0853694943	
584.375	0.1047549673	0.1675944689	
585.0	0.118439707	-0.05384462863	
585.625	0.1048177444	0.1139678264	
586.25	0.2575431132	-0.1267358497	
586.875	-0.02162031145	-0.126221787	
587.5	0.07792227926	-0.1194317535	
588.125	-0.07115168403	-0.2139666666	
588.75	-0.03074831124	-0.06517387097	
589.375	0.1799674715	-0.1633189013	
590.0	-0.1578276526	-0.2014230154	
590.625	-0.07803745098	-0.02684763991	
591.25	-0.2264892537	0.08333691476	
591.875	0.1133854969	0.2299056816	
592.5	-0.06077962585	-0.05737759912	
593.125	0.05937502104	0.130140834	
593.75	-0.003784756526	0.03437775245	
594.375	0.2507161409	0.2158682977	
595.0	0.2679607343	0.00671923746	
595.625	0.05960074686	0.08790005891	
596.25	0.2326426173	0.1162573376	
596.875	0.1207985471	-0.04250195465	
597.5	0.06584646854	0.1339960055	
598.125	0.2475585246	0.1176461636	
598.75	0.1274022292	0.02950788974	
599.375	0.2293180881	0.02422929372	
600.0	0.2100433456	-0.2244094567	
600.625	0.06370553505	-0.1894633676	
601.25	0.135065238	-0.141784095	
601.875	-0.1471998966	-0.2221852313	
602.5	-0.06656692308	0.05545845747	
603.125	-0.1784555389	-0.04665082256	
603.75	-0.1018603118	0.187932095	
604.375	-0.04204324771	-0.04685080227	
605.0	-0.17946817	0.09881311484	
605.625	0.03582633908	0.1234379574	
606.25	-0.2515784757	0.01359607263	
606.875	-0.1693194263	0.2075771883	
607.5	-0.1675686006	0.09426428414	
608.125	-0.1364767041	0.2377580649	
608.75	0.2980900859	0.2085974954	
609.375	0.2087451093	-0.038301796	
610.0	0.2496090704	-0.05365598425	
610.625	0.05176658558	-0.2668422177	
611.25	-0.02951919356	-0.1139697224	
611.875	-0.04964234814	-0.2011729814	
612.5	-0.2666973658	0.01430251799	
613.125	-0.1080558268	-0.0352538502	
613.75	-0.2078536547	0.188867405	
614.375	0.1696852604	0.08448986787	
615.0	-0.1130103303	0.1093596558	
615.625	0.1282049606	0.1604661592	
616.25	-0.01864872797	0.03501094168	
616.875	-0.1981137286	0.2273062607	
617.5	0.0003865606981	0.1310349611	
618.125	-0.04566268339	0.08153109454	
618.75	-0.04481403343	0.3044602369	
619.375	0.2016717021	0.1229261371	
620.0	0.2081590221	-0.06760044486	
620.625	0.1809814603	-0.2003290696	
621.25	-0.1669038688	-0.2306509168	
621.875	-0.1230874106	-0.1327609141	
622.5	-0.3168357362	-0.07336080038	
623.125	0.03817508319	0.2189193615	
623.75	0.03283854726	0.06178848203	
624.375	0.1265170419	-0.1177609158	
625.0	-0.04801589742	0.01706948092	
625.625	0.1294396016	-0.1224758036	
626.25	-0.1408460498	-0.1329128584	
626.875	-0.05688177019	-0.05602453499	
627.5	-0.2040938327	-0.1068669486	
628.125	-0.1436282884	-0.01678372686	
628.75	0.007037793445	-0.1214586507	
629.375	-0.1105642212	-0.1891633312	
630.0	-0.1651735574	-0.006989635137	
630.625	-0.1976241781	0.01733804773	
631.25	-0.1792283247	0.2793412501	
631.875	0.0510046661	0.2967853277	
632.5	0.06317796422	0.153334154	
633.125	0.3532224228	0.1477288384	
633.75	0.1197964619	-0.115275473	
634.375	0.1346289795	-0.0707741812	
635.0	-0.07444030823	-0.2199219771	
635.625	-0.07418545368	0.02242903332	
636.25	-0.2382998754	0.002305119716	
636.875	-0.02143757594	0.2194205387	
637.5	-0.005581388855	-0.01151235743	
638.125	-0.149351405	0.1598700982	
638.75	0.05901119252	0.1581578259	
639.375	-0.1076929138	0.2087970918	
640.0	0.2054400308	0.3569417314	
640.625	0.2561281479	0.03556891197	
641.25	0.1816269108	0.04201244892	
641.875	0.2601804675	-0.2786951084	
642.5	-0.1355497791	-0.2045516688	
643.125	0.02245226591	-0.1094510832	
643.75	-0.326414255	-0.1377302276	
644.375	-0.04637914943	0.05746820651	
645.0	-0.3598142373	0.0047144839	
645.625	0.1802761047	0.2603733989	
646.25	-0.0305352185	-0.09889939466	
646.875	0.1605670462	0.1535791989	
647.5	0.004844146721	-0.1461794532	
648.125	0.1702086077	0.2138923911	
648.75	0.3736938449	-0.2732168052	
649.375	0.06711048759	-0.1954593253	
650.0	0.3183968771	-0.2256584063	
650.625	0.1597839275	-0.5138715722	
651.25	-0.004457218978	-0.1429375481	
651.875	0.3994843625	-0.05814748117	
652.5	0.3416633288	-0.2694040592	
653.125	0.09584700549	-0.08397515749	
653.75	0.3827266133	-0.1927074413	
654.375	-0.1983673134	-0.3617614584	
655.0	-0.1378864895	-0.02717209546	
655.625	-0.3416088064	0.1454850573	
656.25	0.2451834923	0.3417225451	
656.875	-0.06502575105	-0.03176289347	
657.5	0.1212214726	0.2291750663	
658.125	0.1409980034	-0.0772572534	
658.75	0.2162252237	0.261082415	
659.375	0.4797259427	-0.35249194	
660.0	0.04584126267	-0.2625951516	
660.625	0.2891638029	-0.2632304772	
661.25	0.1950121934	-0.4502929902	
661.875	0.007887332066	-0.1845374475	
662.5	0.3970260486	-0.09220850316	
663.125	0.275468484	-0.3534491168	
663.75	0.07742917532	-0.201519676	
664.375	0.08245615615	-0.4061080768	
665.0	-0.4054341051	-0.1905260559	
665.625	-0.2094852485	0.067487186	
666.25	-0.2483334547	0.2648970011	
666.875	0.2283343628	0.2463755388	
667.5	0.07327252133	0.07238367687	
668.125	0.3347479729	0.0423431983	
668.75	0.0956344208	-0.284649664	
669.375	0.1104902202	-0.1076527518	
670.0	0.07220270753	-0.3346444092	
670.625	-0.168329027	-0.1470705757	
671.25	0.225027577	-0.09849407014	
671.875	0.1591859979	-0.2945488203	
672.5	0.08000936282	-0.1600804654	
673.125	0.2976159376	-0.05395451652	
673.75	0.1332089502	-0.4021152427	
674.375	-0.02337348444	-0.1469933643	
675.0	0.02327077118	-0.2959923091	
675.625	-0.3196402864	-0.1595959669	
676.25	-0.03282546538	0.02129489735	
676.875	-0.2199051657	-0.1455551781	
677.5	-0.1764182839	0.1607755142	
678.125	-0.08144320784	0.02339492514	
678.75	-0.09393999713	0.3459609511	
679.375	0.3452753976	-0.04013161641	
680.0	0.0156553799	0.008303223838	
680.625	0.3033800741	-0.1188396093	
681.25	-0.008923708343	-0.1559786555	
681.875	0.164454385	0.4651447405	
682.5	0.4767418058	0.01240894286	
683.125	0.1034584721	-0.04085397604	
683.75	0.2724111214	0.2766354866	
684.375	0.4673799825	-0.09667656072	
685.0	0.04441174422	0.1356645137	
685.625	0.399561007	0.2479573512	
686.25	0.2740138531	-0.1709079963	
686.875	0.1705142372	-0.06323276643	
687.5	0.4344465369	-0.2926757203	
688.125	-0.2483584393	-0.5179589219	
688.75	-0.2599317562	-0.23995026	
689.375	-0.4921875132	0.3249758921	
690.0	0.2229517497	0.4136072355	
690.625	0.01911469391	0.1985672078	
691.25	0.511922683	0.460466045	
691.875	0.4651125653	0.1074107904	
692.5	0.4174618867	0.4927842764	
693.125	0.9207442454	0.03261384912	
693.75	0.4292510406	-0.4548028641	
694.375	0.7038623475	-0.1828593206	
695.0	0.6191541409	-0.4284261889	
695.625	0.2958859983	0.1218237657	
696.25	0.3864087853	0.4145106894	
696.875	0.699580786	0.5169552289	
697.5	0.2830141536	0.3560241013	
698.125	0.5985847424	0.239752097	
698.75	0.5532676387	-0.5349411938	
699.375	-0.4573554997	-0.3117154885	
700.0	-0.4036038062	0.1479947628	
700.625	0.1612514859	0.4867376274	
701.25	0.1486972669	0.06178125131	
701.875	0.1779126544	0.3909819518	
702.5	0.5501023027	0.1832439445	
703.125	0.2023365536	0.08914876639	
703.75	0.5009727404	0.02831526763	
704.375	0.3059314476	-0.3477425774	
705.0	0.1371491669	0.007409076765	
705.625	0.439001936	0.1036519536	
706.25	0.2306578432	0.1080961904	
706.875	0.07926748137	0.3047388578	
707.5	0.2719846471	0.4003520154	
708.125	0.4997339779	-0.07256751245	
708.75	0.1476411936	-0.4922739399	
709.375	-0.3170552069	-0.3874050957	
710.0	-0.1321346991	0.3087047689	
710.625	-0.02982384663	0.03639183925	
711.25	0.1304416686	0.4715022104	
711.875	0.08315441442	0.0293345486	
712.5	0.3153656491	0.1731401692	
713.125	0.3233464253	-0.2747439043	
713.75	-0.02026655966	-0.1696807404	
714.375	0.1559347492	-0.2317478649	
715.0	-0.1384271199	-0.2817542264	
715.625	0.00832477417	-0.09320811531	
716.25	0.3070227029	-0.2547950561	
716.875	0.2974372522	-0.3603219916	
717.5	0.3259655502	0.1182477217	
718.125	0.8823378309	0.2136555491	
718.75	0.7446335439	-0.4722459861	
719.375	0.4813291467	-0.395417538	
720.0	0.8368525747	-1.211201674	
720.625	-0.1604345531	-0.6992225912	
721.25	0.3675746122	-0.9090241978	
721.875	-0.09151932159	-1.535801893	
722.5	-0.8218428995	-0.5341582818	
723.125	-0.2652024166	-0.4177127461	
723.75	-0.5422635274	0.6066607364	
724.375	0.287579107	0.2907288372	
725.0	-0.06035083465	0.3493125658	
725.625	0.3689214213	0.6250398016	
726.25	0.1668387753	0.3503691231	
726.875	-0.4380353387	0.9615511698	
727.5	0.0428199178	1.736748475	
728.125	0.376497096	1.308366423	
728.75	-1.199522427	2.486962673	
729.375	0.0005787094178	4.900819949	
730.0	1.242215861	2.787818516	
730.625	-2.159203761	3.939957795	
731.25	0.7696091917	5.194130956	
731.875	-0.9837736113	1.49333168	
732.5	-4.135830885	-0.5270669411	
733.125	-3.337606029	1.4536796	
733.75	-0.4761398525	0.7755419854	
734.375	0.8688414997	0.9427129656	
735.0	-0.674875619	-0.9705235913	
735.625	-0.160953939	0.01385554422	
736.25	-0.2908736924	0.7016620936	
736.875	0.781740133	0.4144193247	
737.5	0.1911931633	0.4481079164	
738.125	2.273525824	-0.08837595276	
738.75	1.385182644	-2.02188954	
739.375	0.8996910261	-0.4009695031	
740.0	5.787460986	-0.001969167556	
740.625	3.581381508	-4.966736249	
741.25	-3.902795763	0.7936611474	
741.875	-5.410714267	2.173181192	
742.5	-0.9407249879	0.3354384431	
743.125	1.975710574	-1.445902343	
743.75	-0.3131103356	-1.607595889	
744.375	-0.3317743295	0.2861799003	
745.0	-0.1448391017	0.1132872881	
745.625	0.01138848225	-0.1796746593	
746.25	0.1174248297	-0.08799581191	
746.875	-0.2896229652	0.03189497095	
747.5	-0.03516338197	0.3434263299	
748.125	-0.1058970667	0.4267726313	
748.75	0.2658783258	0.6251883873	
749.375	0.2052886102	0.3818774234	
750.0	-0.3642326189	0.09905912208	
