!Created with skrf (http://scikit-rf.org).
# GHz S RI R (50+0j) 
!freq	ReS11	ImS11	
500.0	0.7495070763	-4.737792113	
500.625	0.2198917303	-1.58264481	
501.25	-0.09170058599	-2.168598767	
501.875	-1.989012115	-2.078317769	
502.5	-0.4657333507	-0.09525082616	
503.125	-0.2043158082	-0.1294762761	
503.75	0.3047117148	0.4214596519	
504.375	-0.03072835381	0.07375605967	
505.0	0.1114482625	-0.2402980323	
505.625	0.06635758374	0.1268479913	
506.25	-0.4521612379	-0.7112283652	
506.875	0.6438045646	0.379598379	
507.5	0.6250075525	-1.708921051	
508.125	-0.5223251839	-3.203504979	
508.75	-0.3051373576	-1.51950676	
509.375	1.677935124	-5.300334571	
510.0	-2.216900779	0.5789330536	
510.625	-0.04112684686	-0.6450416389	
511.25	-0.7598691397	-0.07506760803	
511.875	-0.121067152	-0.2412085804	
512.5	-0.09300838686	0.169547665	
513.125	-0.008242758893	-0.3924693977	
513.75	-0.3615504999	0.07297770274	
514.375	0.108181158	-0.3533036093	
515.0	-1.254477041	0.2857934451	
515.625	2.167739936	-2.385765465	
516.25	-4.246533537	-1.735254065	
516.875	0.7178474173	-0.1496411487	
517.5	-0.2710787083	-1.362216986	
518.125	0.1139257477	0.3417955528	
518.75	-0.3313058422	-1.131860812	
519.375	-0.08357211177	0.2482009805	
520.0	0.1665822822	0.1676808608	
520.625	0.7199277631	-0.227713291	
521.25	-0.369570128	-0.5850705967	
521.875	-0.1944581372	-0.2916884552	
522.5	-0.1705066786	0.2688885336	
523.125	-0.2463304465	-0.20258057	
523.75	-0.2339098205	0.2288983518	
524.375	-0.4261231415	-0.2699742463	
525.0	0.2508087584	0.6724732423	
525.625	-0.1415995877	-0.07153844446	
526.25	0.1883615853	0.06203515961	
526.875	-0.3604585275	0.02201818899	
527.5	0.1598020024	0.8387341428	
528.125	0.02302199176	0.294957153	
528.75	-0.2423393809	1.080607319	
529.375	0.2289181086	-0.111029338	
530.0	0.1645702197	0.8907429742	
530.625	0.1526529548	0.3146643979	
531.25	1.595255882	0.9444453094	
531.875	-0.006628078984	-0.8712083155	
532.5	0.4043040291	-0.3583929653	
533.125	-0.6262690072	-0.09861125983	
533.75	0.882349595	-0.7272257492	
534.375	-0.7979883219	-0.5117818468	
535.0	-0.2385824394	-0.509601294	
535.625	-0.7308779579	0.610226541	
536.25	0.08136572569	0.110572644	
536.875	0.2230049644	0.1754099593	
537.5	0.2110138988	-0.2106225	
538.125	0.1266525305	-0.02083604973	
538.75	0.5264552267	-0.4128425179	
539.375	-0.2617890235	-0.2131769706	
540.0	-0.2267305006	-0.4936826864	
540.625	-0.6068993223	0.02474870498	
541.25	-0.06223602961	0.05108742514	
541.875	-0.08321000361	-0.1086342012	
542.5	-0.2295180494	-0.1735384816	
543.125	-0.06510132753	0.09411436676	
543.75	-0.2941976132	-0.2513494994	
544.375	0.05418517375	0.3148374089	
545.0	-0.2529167091	0.05817289704	
545.625	0.3922413011	0.1317070052	
546.25	-0.07636968063	0.09433698606	
546.875	0.6423683494	-0.08742445646	
547.5	-0.1060416766	-0.1989450276	
548.125	0.1313798995	-0.3909479278	
548.75	-0.4369765663	-0.4274199542	
549.375	-0.2799166593	0.02531046419	
550.0	-0.1709644083	-0.1780731471	
550.625	-0.1204164555	0.1753119874	
551.25	-0.1940890438	-0.0883851033	
551.875	-0.2121351278	0.3153942225	
552.5	-0.04653939883	0.09024153046	
553.125	-0.08137863496	0.2015119511	
553.75	0.136998004	0.1050542619	
554.375	0.2089328015	0.01915182734	
555.0	0.2747307892	-0.1632692342	
555.625	0.2016305863	-0.277745308	
556.25	0.1670827295	-0.3303755219	
556.875	-0.07374562627	-0.4055455989	
557.5	-0.2431816525	-0.2552020113	
558.125	-0.2651970624	-0.09615649183	
558.75	-0.2722848369	-0.03624091505	
559.375	-0.2817531209	0.08172318443	
560.0	-0.1916937929	0.1510424254	
560.625	-0.1844009634	0.2576056423	
561.25	0.07812593746	0.2972508134	
561.875	-0.004359565162	0.03140397512	
562.5	0.1204867398	0.2106177992	
563.125	0.02928128824	0.1468274142	
563.75	0.4767126107	0.04393558666	
564.375	0.1535936916	-0.3078932392	
565.0	0.2902356131	-0.1836456261	
565.625	-0.1106250094	-0.5283028715	
566.25	-0.3235513701	-0.1365636827	
566.875	-0.1662172859	-0.2221936366	
567.5	-0.4661352786	-0.4133705802	
568.125	-0.3938530386	-0.142013469	
568.75	-0.4660738904	-0.4810860892	
569.375	-0.6386194122	0.4597249191	
570.0	-0.2016018057	0.2417502373	
570.625	-0.4286770712	0.5873660652	
571.25	0.3661311789	0.2306588712	
571.875	-0.2058827981	0.3448460304	
572.5	0.6188773505	-0.1907438248	
573.125	-0.08178439236	-0.119610281	
573.75	0.4400046743	-0.1358575555	
574.375	-0.2031706115	-0.4074346005	
575.0	0.2257852934	0.1885640371	
575.625	-0.01551312028	-0.4654574969	
576.25	-0.0003894055622	0.0803201919	
576.875	0.2337509568	-0.5881830305	
577.5	-0.2638049478	-0.493085423	
578.125	-0.06376974865	-0.1232480921	
578.75	-0.00635642176	-0.4276211115	
579.375	-0.4523223986	-0.2604523771	
580.0	0.07837272004	0.135248663	
580.625	-0.3610415538	-0.2794661467	
581.25	0.02042033106	0.3053016001	
581.875	-0.2880534737	0.1773718984	
582.5	0.2176037526	0.7142475557	
583.125	0.3546814331	-0.2145364879	
583.75	-0.2564229952	0.3675188757	
584.375	0.4830981406	-0.1921061079	
585.0	-0.1315175488	0.3545695838	
585.625	0.7405322272	-0.05456207522	
586.25	0.04787036822	-0.252734288	
586.875	0.5072732243	-0.1631189556	
587.5	-0.2913438425	-0.5137112577	
588.125	0.07485308803	-0.02013716781	
588.75	0.339155065	-0.5052355248	
589.375	-0.06465547186	-0.5441116708	
590.0	0.07399088357	-0.2448111	
590.625	-0.4679338059	-0.318306296	
591.25	-0.3151174239	0.4224340959	
591.875	-0.01895889038	0.1188544229	
592.5	-0.1038565312	0.2618554718	
593.125	-0.04089488851	-0.08858360789	
593.75	0.1637646949	0.5058139668	
594.375	0.4328103643	0.03535063353	
595.0	0.06906115506	0.2174690248	
595.625	0.6147568942	0.6350886229	
596.25	0.3700311296	-0.4119342001	
596.875	0.1357915794	0.4462984573	
597.5	0.6848869603	0.1980999298	
598.125	0.06213697239	0.0797302448	
598.75	0.664589073	0.5118863845	
599.375	0.3017233493	-0.294324425	
600.0	0.4718048786	-0.05708686501	
600.625	0.509258226	-0.5972598398	
601.25	-0.0574198289	-0.4520663307	
601.875	0.02399019823	-0.3047214998	
602.5	-0.3588745069	-0.07163452714	
603.125	-0.3587898797	0.09534199196	
603.75	-0.07621858843	0.1808655033	
604.375	-0.3678130188	0.009868595845	
605.0	-0.1072577696	0.3966959505	
605.625	-0.1788146893	-0.1327701644	
606.25	-0.3882823185	0.3915930913	
606.875	-0.1274392642	0.03805140692	
607.5	-0.8761980961	0.3799579236	
608.125	0.4152789998	0.6002310037	
608.75	-0.03487381558	0.4597476021	
609.375	0.9562635848	-0.07347165158	
610.0	0.004749791299	-0.2202394577	
610.625	0.5603980546	-0.3694555886	
611.25	-0.2459686512	-0.3712855681	
611.875	0.1398141071	-0.3344705788	
612.5	-0.714451076	-0.02899927421	
613.125	-0.1705689793	-0.1004692978	
613.75	-0.4641565339	0.4853448922	
614.375	0.3135171139	0.02804152567	
615.0	-0.03787582898	0.4871982504	
615.625	0.1745435891	-0.1277895321	
616.25	-0.4324144765	0.3948556847	
616.875	0.07868881359	0.7154651901	
617.5	-0.2665878187	0.1041583797	
618.125	-0.1634791124	0.8330441564	
618.75	0.2486976616	0.2851316612	
619.375	-0.04324260858	0.4782155445	
620.0	0.5809785223	0.01611441891	
620.625	0.2863472881	-0.188486776	
621.25	-0.2968604749	-0.5162738634	
621.875	-0.297896153	-0.1802773555	
622.5	-0.7135125062	0.07269061611	
623.125	0.1048366435	0.3160420022	
623.75	0.2027985571	0.3398846254	
624.375	0.03558956507	-0.4005291416	
625.0	0.2501858304	0.2726150408	
625.625	-0.09347083037	-0.6534418932	
626.25	0.1790906806	0.03500734914	
626.875	-0.4514619169	-0.5330711931	
627.5	-0.4159090431	0.1544760537	
628.125	-0.004173351063	-0.2251409093	
628.75	-0.4208952605	-0.4528035086	
629.375	-0.03487866737	-0.179462027	
630.0	-0.4681431835	-0.4577292631	
630.625	-0.5740724414	0.3317603731	
631.25	-0.2016029794	0.2134684221	
631.875	-0.2949721088	0.6798639844	
632.5	0.39317734	0.5001766112	
633.125	0.5293406089	0.05627163674	
633.75	0.2371940389	-0.01042302251	
634.375	0.3840253819	-0.5484954987	
635.0	-0.1219670579	-0.04375838326	
635.625	-0.302067618	-0.5191498679	
636.25	-0.3619760783	0.4029720562	
636.875	-0.1308300559	-0.1109213713	
637.5	-0.2331444907	0.647142629	
638.125	0.1529289415	-0.1132356519	
638.75	-0.6918693301	0.4075458101	
639.375	0.3283516241	0.8584058538	
640.0	0.2873300324	0.2109430936	
640.625	0.3168980411	0.7085591083	
641.25	0.9592437196	-0.1402378495	
641.875	0.1313847654	-0.1772476357	
642.5	0.3752644133	-0.8419250617	
643.125	-0.4422515523	0.1624713951	
643.75	0.005238973651	-0.4591796079	
644.375	-0.8005266744	0.1188380974	
645.0	-0.03616208261	0.3803549197	
645.625	-0.1814831404	0.2629916268	
646.25	0.5621482608	0.6137823692	
646.875	0.1853214121	-0.4543417808	
647.5	-0.02324476426	0.5416447423	
648.125	0.6430850582	-0.3543613753	
648.75	0.1880798818	0.4717228377	
649.375	1.042836224	-0.9728232817	
650.0	-0.2654938333	-0.7644419778	
650.625	0.6748635943	0.0546093489	
651.25	1.044314228	-1.218548391	
651.875	-0.208155029	-0.5548203529	
652.5	0.7378978961	0.4186468604	
653.125	1.038862925	-0.6109816948	
653.75	0.004226928061	-0.3270728046	
654.375	0.479935519	-1.027503097	
655.0	-0.9990931952	0.009443007918	
655.625	-0.0302836505	0.1781848091	
656.25	-0.4616178375	0.546703348	
656.875	0.6110938725	0.1996711571	
657.5	-0.4014988663	0.1402151303	
658.125	0.5558005051	0.6491009824	
658.75	0.7226275391	-0.0412907927	
659.375	0.4556628098	-0.01247397926	
660.0	1.082844283	-0.9287458209	
660.625	-0.173728668	-0.6562078908	
661.25	0.7030712929	-0.3540305974	
661.875	0.8073217566	-0.9791060311	
662.5	-0.004108406574	-0.6351619179	
663.125	0.8693987606	0.2348793845	
663.75	0.4344648852	-1.227615553	
664.375	-0.2177223651	-0.311403089	
665.0	-0.399050945	-0.9270088359	
665.625	-0.8201005351	0.61596029	
666.25	-0.3765228846	0.1763316889	
666.875	0.2864847853	0.8479718939	
667.5	0.5220739774	-0.0595789227	
668.125	0.1938073453	0.2681759268	
668.75	0.8719999667	-0.4153606559	
669.375	-0.02427263359	-0.5697663767	
670.0	0.06700809189	-0.3196210151	
670.625	0.2267585617	-0.5635232605	
671.25	-0.1788896073	-0.5131335393	
671.875	0.5483367036	-0.1702475323	
672.5	0.5283570513	-0.5628199734	
673.125	0.2379578837	-0.3388469168	
673.75	0.7263124272	-0.1936984296	
674.375	0.003309710868	-1.190107226	
675.0	-0.3107908731	0.08433433876	
675.625	-0.1252229631	-0.8820196527	
676.25	-0.8821981339	0.1269865402	
676.875	0.2002880357	-0.04671726239	
677.5	-0.9658360324	0.00231652289	
678.125	0.1504472364	0.2327487584	
678.75	-0.417969459	0.5354772675	
679.375	1.031630715	0.1950765028	
680.0	-0.1476199738	-0.2245630586	
680.625	0.4795801221	0.07748925844	
681.25	0.3500859597	-0.3298834777	
681.875	0.05609262187	4.798059725e-05	
682.5	0.3870457528	0.5112754583	
683.125	0.9150917941	0.1296219729	
683.75	0.4420817766	-0.04962500089	
684.375	0.4607420864	0.5155476203	
685.0	1.233988439	-0.1833128374	
685.625	-0.03301982853	0.1860920024	
686.25	1.434114498	0.1557628803	
686.875	0.1949003898	-0.9304058013	
687.5	0.8379556108	0.2590278383	
688.125	0.1199740083	-2.086667735	
688.75	-0.6580192119	0.4293354445	
689.375	-1.393832393	0.05704102451	
690.0	0.7247899906	1.096673847	
690.625	-0.02354765801	0.3106802724	
691.25	1.295118007	1.085551598	
691.875	0.7912094382	0.331233089	
692.5	1.301720456	0.8350095018	
693.125	1.782078968	-0.08828430802	
693.75	1.184260019	-0.5866342059	
694.375	1.137200573	-0.9883204422	
695.0	0.8047302671	-0.5079431793	
695.625	1.749766212	-0.01217636276	
696.25	1.027116215	-0.1723981181	
696.875	0.3416037879	1.526316723	
697.5	1.820267456	1.050814771	
698.125	0.496059183	0.6249624293	
698.75	2.030701148	-1.097288385	
699.375	-1.431758456	-0.404169927	
700.0	-1.067050309	-0.2031673216	
700.625	0.8237060331	1.159450546	
701.25	0.05394791859	0.1462491625	
701.875	0.986833441	1.17315868	
702.5	0.5796546134	0.01585245091	
703.125	0.9487386738	0.7935537427	
703.75	1.08920576	-0.6572146406	
704.375	0.3546961531	0.07635418271	
705.0	1.075729166	-0.6906939199	
705.625	0.08476077593	-0.1587017317	
706.25	0.680588961	1.188430125	
706.875	1.131471131	0.1607531631	
707.5	0.005203538265	0.9501075651	
708.125	1.557042172	0.565709614	
708.75	0.3393562147	-0.8421303089	
709.375	-0.2467524661	-1.029690455	
710.0	-0.6144991399	0.8839094903	
710.625	-0.0354985221	0.1144349072	
711.25	0.3738706097	0.4717120151	
711.875	0.4387801657	0.2198587394	
712.5	0.757727292	-0.007881000574	
713.125	0.5079604332	-0.2979011728	
713.75	0.6683541947	-0.6486507009	
714.375	-0.4048414371	-0.6437645969	
715.0	0.5112517007	-0.1723780682	
715.625	-0.4040692601	-1.078346971	
716.25	0.1472137439	0.1322605061	
716.875	1.814308251	-0.4174024187	
717.5	0.7334138405	-1.501584337	
718.125	1.075947817	2.116583204	
718.75	3.472483925	-1.141205995	
719.375	0.3003070867	-1.319287898	
720.0	3.407102585	-0.6162547015	
720.625	0.2048915335	-4.094261312	
721.25	0.04685803535	-1.189915145	
721.875	-0.01556143564	-3.153084751	
722.5	-2.462311038	-2.045000522	
723.125	-0.9427927993	-0.4656287843	
723.75	-1.729548027	1.170707244	
724.375	0.4728932129	1.055828468	
725.0	0.2348680478	0.6889980732	
725.625	0.02688701839	1.286176877	
726.25	0.7866271254	2.529879166	
726.875	0.1997767821	0.7147002189	
727.5	-2.153724078	4.359570693	
728.125	2.297956668	7.092507514	
728.75	-0.8837171145	0.8357507839	
729.375	-6.657068668	14.74424544	
730.0	7.308420484	4.571444463	
730.625	-8.480262692	6.112924427	
731.25	-9.120675157	21.17489007	
731.875	3.030625784	5.704198202	
732.5	-11.57098799	-4.646397173	
733.125	-8.256140684	1.835877922	
733.75	-1.184537792	4.133059375	
734.375	0.3206215268	2.433212918	
735.0	-0.8044550228	-2.376696755	
735.625	-0.5052029569	-0.2539444343	
736.25	-0.9680306846	1.629721953	
736.875	2.108006048	1.300542237	
737.5	1.093270299	-0.3462958648	
738.125	4.389315878	1.835820667	
738.75	7.601336716	-6.36187102	
739.375	-0.09735986073	-7.700898521	
740.0	5.371782623	11.16597003	
740.625	20.71936877	-17.98895814	
741.25	-20.26361181	-6.091142737	
741.875	-16.88634121	9.472187068	
742.5	2.177791929	7.762601248	
743.125	6.555875568	-7.458357969	
743.75	-2.253443853	-4.770567367	
744.375	-0.654634648	0.7014421873	
745.0	-0.4183516139	0.1497694963	
745.625	0.3764937081	-0.1784298573	
746.25	0.1565464311	-0.1363028885	
746.875	-0.817796065	0.07854424956	
747.5	0.1041652626	1.023478015	
748.125	-0.22792478	1.258596792	
748.75	1.284084407	1.549586466	
749.375	0.2448023633	0.4934560343	
750.0	-6.357288071	1.566464442	
