!Created with skrf (http://scikit-rf.org).
# GHz S MA R 50.0 
!freq magS11 angS11
500.0 0.011879213989 128.083299096
500.625 0.0106519838763 85.5456605148
501.25 0.0123362962524 -87.4368973981
501.875 0.0320490477075 -172.094655857
502.5 0.027654385784 158.165413298
503.125 0.0114176903338 37.6561656354
503.75 0.0171722197643 110.412621515
504.375 0.00475517595467 87.3930369238
505.0 0.0071810671249 -81.7915654229
505.625 0.0432689186381 -87.8844482463
506.25 0.0312953875298 -113.715781084
506.875 0.0462305784249 -113.149345049
507.5 0.0476605915533 -117.578764021
508.125 0.0657849334189 -86.4251200563
508.75 0.064664131399 -133.442540059
509.375 0.0535665061965 -138.302687973
510.0 0.0384622478578 -120.524952733
510.625 0.0523530739277 -160.561698154
511.25 0.0473698080514 175.903030832
511.875 0.0478334682334 138.634874306
512.5 0.0391324333081 92.2202975135
513.125 0.0681888742868 50.8939400923
513.75 0.0594582623028 33.4760534084
514.375 0.0537379082039 16.6037645169
515.0 0.0644288090423 3.17525234252
515.625 0.0713521884277 38.2757616419
516.25 0.0927276925421 27.8925478642
516.875 0.12107469155 67.8506899162
517.5 0.123243077516 19.4849220063
518.125 0.201491749245 68.0142305775
518.75 0.0800614223671 5.50462709142
519.375 0.0654680311723 11.1938599226
520.0 0.114520888527 -6.19177335401
520.625 0.0939426744189 -13.550489568
521.25 0.0838209748151 -28.0570623288
521.875 0.0755695957732 -2.09468097142
522.5 0.103413580179 -35.543674114
523.125 0.185734930818 -38.0994946379
523.75 0.219803987186 -60.7679491414
524.375 0.221323332181 -53.0780879908
525.0 0.0859236604824 -43.2931418057
525.625 0.0348019557474 -63.7078608562
526.25 0.0382549844394 -21.5214409903
526.875 0.0542073983917 -26.5197137938
527.5 0.0628046491822 -32.0496131831
528.125 0.0288532289195 -71.3184804019
528.75 0.0656654823578 -77.8659309726
529.375 0.084715177106 -121.392015454
530.0 0.062105967326 -136.038719828
530.625 0.0328186104408 -149.240657796
531.25 0.113348540819 -139.025435836
531.875 0.171481985723 -153.643593954
532.5 0.159856524347 -175.716696081
533.125 0.0817294506749 169.659142096
533.75 0.106322474519 163.978349743
534.375 0.106160706642 171.605675856
535.0 0.100838497581 159.048429375
535.625 0.0583436442021 168.038341723
536.25 0.0524442938825 156.002745337
536.875 0.0849918917155 -167.56474733
537.5 0.105655764557 -150.889302558
538.125 0.102273006256 -178.293543896
538.75 0.097422213114 174.949946789
539.375 0.0802630869572 -169.874145682
540.0 0.105118910876 -165.762055392
540.625 0.114828382594 -161.52322387
541.25 0.127644021583 -146.931640907
541.875 0.100849420625 -148.421010439
542.5 0.114564528238 -149.699558785
543.125 0.125933547379 -170.250000382
543.75 0.127969505517 154.634871818
544.375 0.0961268208861 129.476712901
545.0 0.0991963083204 83.8754330816
545.625 0.0924557776307 76.567314879
546.25 0.0974395705475 61.3735648642
546.875 0.097636476142 48.0327009366
547.5 0.127015111367 50.1925519307
548.125 0.111389414501 73.4012553832
548.75 0.0897545329269 85.3724872902
549.375 0.0916241506366 80.961065181
550.0 0.109310947669 117.042074556
550.625 0.0393178269632 144.181781056
551.25 0.0377342876313 -155.928460686
551.875 0.057044662561 -164.180618831
552.5 0.118471493531 -177.614758845
553.125 0.0823525205744 -167.430840302
553.75 0.0860011302757 -170.63004768
554.375 0.102910653732 162.48195327
555.0 0.138041178146 154.235543621
555.625 0.0978423857323 153.014481912
556.25 0.0981302443443 157.804076331
556.875 0.124221400075 159.257258974
557.5 0.122122373691 160.924610527
558.125 0.108323325357 158.674542551
558.75 0.0875052232765 171.668130992
559.375 0.0647547158357 176.439020367
560.0 0.0536176784584 -164.475504769
560.625 0.0515433417559 -144.194206615
561.25 0.0858724297846 -156.339059985
561.875 0.100907382408 -169.266897854
562.5 0.0954927331624 167.172898958
563.125 0.0974436416068 146.085363213
563.75 0.128332550668 126.394038822
564.375 0.103555870813 116.018395837
565.0 0.0978143813417 112.299999468
565.625 0.0765682077563 113.847313045
566.25 0.0947306735992 145.43336819
566.875 0.0815427993935 170.196303345
567.5 0.0769196430892 174.563977303
568.125 0.0892229125058 178.025325424
568.75 0.0645166817149 -152.233866315
569.375 0.0473710577848 -116.841040622
570.0 0.0580131268447 -118.854212568
570.625 0.0900912364492 -126.676244954
571.25 0.090438952802 -127.302584064
571.875 0.0872495430884 -133.056082172
572.5 0.111467905839 -162.634502997
573.125 0.147684662434 176.48305882
573.75 0.101282506907 159.835972954
574.375 0.0874751926736 139.420105547
575.0 0.108575357275 143.252680659
575.625 0.112241722231 148.717657599
576.25 0.0910265322883 141.58248797
576.875 0.0771874980316 125.486049258
577.5 0.0933167252579 122.961125311
578.125 0.059257564975 155.646001477
578.75 0.0501801357233 152.451608014
579.375 0.0575060185638 145.435137588
580.0 0.067125245168 168.928661357
580.625 0.0767378378589 -164.692428008
581.25 0.0867583690522 -168.372613212
581.875 0.113313006569 -179.121749802
582.5 0.118531912292 177.842052652
583.125 0.101413072484 178.091831498
583.75 0.080012579267 -163.689824463
584.375 0.099933914023 -160.914365091
585.0 0.0926992476114 -149.332897596
585.625 0.0788965595007 -160.050821364
586.25 0.0690834723017 -139.441970841
586.875 0.082388568684 -139.43850484
587.5 0.0760284702095 -152.75355333
588.125 0.0629823742563 168.554674837
588.75 0.0676083887249 -158.583687742
589.375 0.0836700259612 -155.005338885
590.0 0.0885190185502 -170.375056132
590.625 0.0997497867794 153.253876267
591.25 0.122122961644 158.086451289
591.875 0.103145171001 149.275121148
592.5 0.0690123075775 138.084500747
593.125 0.0640079554483 129.158318343
593.75 0.0742201613201 178.823354846
594.375 0.0578262220741 -154.738745606
595.0 0.0442129885322 -119.633934022
595.625 0.0497318099264 -124.33152368
596.25 0.0778054731236 -83.7548238733
596.875 0.0659313453591 -82.5195729329
597.5 0.0558616067069 -74.321048298
598.125 0.0538496555879 -81.7494024306
598.75 0.0757634429059 -69.8928774026
599.375 0.0922075961893 -66.5990914435
600.0 0.100774188766 -72.4779719647
600.625 0.0985085629601 -79.6811312395
601.25 0.089092936535 -68.3928723278
601.875 0.0714625089292 -87.5957944405
602.5 0.0602437765766 -89.6621069847
603.125 0.0486356435582 -92.0552265365
603.75 0.0304919612442 -53.4213872139
604.375 0.0360667049555 -30.7246376821
605.0 0.0553572627284 -33.7201805882
605.625 0.0518292625644 -19.3716152288
606.25 0.0220613893455 -32.5251636391
606.875 0.0402127806697 45.7192002265
607.5 0.0660559175145 39.1490784736
608.125 0.0646733600022 18.4106425614
608.75 0.0608876663194 14.7092393031
609.375 0.0622608823298 24.3826986224
610.0 0.0623431986799 31.9825315932
610.625 0.0635486502869 27.8796163509
611.25 0.0465157935229 11.4948605737
611.875 0.0405775396827 48.3728556803
612.5 0.0334956861056 85.4398492504
613.125 0.0297639388655 131.106259511
613.75 0.0179948563418 132.18746125
614.375 0.0463113185467 121.262212854
615.0 0.0302069458414 110.699682685
615.625 0.0224048451967 135.508150403
616.25 0.0394252304547 131.421359716
616.875 0.0402335903361 120.83920512
617.5 0.038481214684 114.255145316
618.125 0.0326248688097 134.870164267
618.75 0.015500952836 141.72497449
619.375 0.0216303144884 144.115659545
620.0 0.0127068840498 129.878994959
620.625 0.0149143815722 -135.422810315
621.25 0.0567493288652 -79.4766068921
621.875 0.067286547652 -125.377342154
622.5 0.0713208347685 -169.695012959
623.125 0.0653616372843 -179.750138947
623.75 0.051869831564 172.416633619
624.375 0.0490118314214 -174.763271398
625.0 0.0426103825968 -146.819175074
625.625 0.0276961737378 -149.242479661
626.25 0.0190611256289 166.703990074
626.875 0.0165771654291 -10.683232751
627.5 0.0204374621373 -52.2958126609
628.125 0.0291555412679 -50.0785445178
628.75 0.0350504892398 -25.5505309918
629.375 0.0632020393845 -3.79585917409
630.0 0.0544978841507 -32.4374214719
630.625 0.0681174248168 -4.69077824054
631.25 0.0695382069472 1.33067475241
631.875 0.075885660071 4.01470359282
632.5 0.0647391734085 -19.4793061768
633.125 0.0490692955111 -13.731634267
633.75 0.0487713480444 -6.88381530313
634.375 0.0608709584596 26.4474272019
635.0 0.03883783457 9.00260875294
635.625 0.0362152991578 28.6746092431
636.25 0.061425027469 40.4342764938
636.875 0.0665194883243 37.1529692076
637.5 0.0612727183946 46.5046271338
638.125 0.0210128502388 29.2222959215
638.75 0.0593639789069 67.5352375899
639.375 0.0886052773864 83.2893719229
640.0 0.0869606940593 105.616796395
640.625 0.0489810770508 76.2116696848
641.25 0.0678118911922 111.220497666
641.875 0.0593079241283 136.091952984
642.5 0.0674286028466 157.1393373
643.125 0.0561585115059 150.553929146
643.75 0.0567656344206 160.136443783
644.375 0.0752167273242 -179.497593806
645.0 0.0911287782814 175.343761599
645.625 0.0712104272241 152.202705661
646.25 0.0867781431877 154.549824131
646.875 0.0794719172211 166.441281784
647.5 0.0805346391017 178.220625604
648.125 0.0740620658158 170.244746623
648.75 0.0825716664591 -168.367813497
649.375 0.0602776922045 -153.741845618
650.0 0.0558706751169 -127.892224368
650.625 0.0784331771811 -97.7564360982
651.25 0.0681066642958 -72.6250687905
651.875 0.0707349289248 -49.1764981894
652.5 0.0908949639061 -29.447084051
653.125 0.134830515173 -8.86775036099
653.75 0.114656125329 1.19480713239
654.375 0.104386471738 -0.517556112206
655.0 0.13662032684 6.45404514732
655.625 0.0984761604984 16.1222073596
656.25 0.0660958804037 14.1174430961
656.875 0.0793892015385 1.06706575146
657.5 0.0881306684126 15.145233579
658.125 0.0869869075828 35.832808248
658.75 0.0404290059648 61.0589279689
659.375 0.0713839584334 37.581071111
660.0 0.107216620505 16.8746504457
660.625 0.126459336532 8.63321412812
661.25 0.0896560694214 -0.551360074081
661.875 0.1227476023 -19.7395483725
662.5 0.117276955152 -28.9037055165
663.125 0.119814145462 -22.4879329331
663.75 0.0848489815298 -2.95301571812
664.375 0.0921705120086 46.7769958468
665.0 0.0808658938944 82.2092574355
665.625 0.0570612897103 102.218649664
666.25 0.0767883071307 123.880585581
666.875 0.107199805781 162.614485884
667.5 0.106078033227 -177.427255831
668.125 0.0983912923291 174.534763503
668.75 0.130036435284 160.066266224
669.375 0.141380896949 169.564494256
670.0 0.0936193284993 -178.167063782
670.625 0.0944367507263 178.730665769
671.25 0.108355322488 165.479009961
671.875 0.10713157705 159.404526765
672.5 0.0775280936623 143.759818342
673.125 0.0896412827518 140.459816583
673.75 0.110341007703 150.707623908
674.375 0.112475765502 160.456969839
675.0 0.1216252064 174.523561478
675.625 0.134041153505 -158.993662366
676.25 0.123443534478 -131.691248925
676.875 0.123930148993 -128.245284259
677.5 0.134546217859 -136.802455771
678.125 0.148025533415 -127.855679691
678.75 0.0691809061066 -102.014351917
679.375 0.0506573604569 -86.0918495919
680.0 0.0798850014409 -91.5780352123
680.625 0.130640240588 -93.220061875
681.25 0.0977118092763 -76.2269255661
681.875 0.098446297968 -97.9199440342
682.5 0.137556751585 -130.418959136
683.125 0.168952099844 -130.027903171
683.75 0.153825962135 -114.352837252
684.375 0.114514121756 -82.4766015163
685.0 0.128856610242 -45.5753682129
685.625 0.138668315101 -10.3399332383
686.25 0.126579207864 10.3390893565
686.875 0.0806291944135 40.9219261289
687.5 0.0777844048877 77.4687594943
688.125 0.0825189988992 97.0517415456
688.75 0.101724526008 98.4957966823
689.375 0.126136381653 120.35664996
690.0 0.134251562496 125.763977707
690.625 0.116112767554 120.199592876
691.25 0.144550720821 86.2044081502
691.875 0.183358076411 59.5442652355
692.5 0.156121536827 30.9640018245
693.125 0.102539522473 -25.8311201091
693.75 0.099867592312 -51.8251100529
694.375 0.143638420867 -45.9257115538
695.0 0.119445663177 11.5427516822
695.625 0.102209972693 48.3639029249
696.25 0.107708991165 107.041392457
696.875 0.140445072479 160.555949668
697.5 0.148597899423 -157.300431903
698.125 0.14344429818 -140.148812568
698.75 0.129168989786 -141.093298546
699.375 0.121553638663 -138.351655814
700.0 0.0891064241495 -113.353627723
700.625 0.110860178567 -95.7838181137
701.25 0.0976513325822 -74.1337588082
701.875 0.0859794441633 -79.0871785689
702.5 0.0966326447824 -81.5409087766
703.125 0.160992975862 -130.520547969
703.75 0.199371079827 -168.014712971
704.375 0.135622926885 162.532023776
705.0 0.114927556144 146.105114627
705.625 0.138018510324 -170.269307912
706.25 0.147205389438 -117.875605057
706.875 0.0988631161319 -72.4626095156
707.5 0.0836394830185 -57.8287378216
708.125 0.0878429153196 21.1863005387
708.75 0.111260085543 58.2732417974
709.375 0.103486772376 101.055715154
710.0 0.100136998411 114.254041368
710.625 0.106565654734 143.480837034
711.25 0.120119026807 166.346155167
711.875 0.14238395838 156.35420564
712.5 0.15958695069 128.82904353
713.125 0.125335002927 102.068220582
713.75 0.106340802912 39.8643079393
714.375 0.109857385602 0.170988722524
715.0 0.120821621773 5.02401107384
715.625 0.0876807124851 28.3221827697
716.25 0.0814634586416 73.5918316093
716.875 0.115624154132 96.265881284
717.5 0.146237374275 141.783976517
718.125 0.118108525205 147.518499274
718.75 0.107568049414 173.221262931
719.375 0.111503546246 176.331391162
720.0 0.129009908771 -142.418675152
720.625 0.118950539655 -84.7964566266
721.25 0.102979313434 -21.735191032
721.875 0.0911538000725 30.550853141
722.5 0.0709970089118 56.5989854999
723.125 0.0666281008849 39.2207499129
723.75 0.128087161542 45.2939753271
724.375 0.10834078804 -12.1073245923
725.0 0.0828163775551 -50.7395408758
725.625 0.0968173983259 -77.978599118
726.25 0.102918493582 -87.4569110809
726.875 0.103180852546 -56.4526069504
727.5 0.0864657366805 -43.4120684767
728.125 0.0759786128959 -13.2756477525
728.75 0.0637313553329 -17.2910830276
729.375 0.108307086563 24.5280069444
730.0 0.0674618194228 -7.40861520099
730.625 0.0489321392458 4.12378247001
731.25 0.0638705309842 51.4909359814
731.875 0.0575433067866 97.3112973141
732.5 0.0703986357344 150.0406423
733.125 0.0997901829512 171.480828344
733.75 0.0753266877469 157.38017308
734.375 0.0803267591882 -179.498967792
735.0 0.0604805322893 139.292525346
735.625 0.0564392866653 129.737048732
736.25 0.0186685495009 122.751081233
736.875 0.0459197435475 160.98546097
737.5 0.0654940167779 175.201947339
738.125 0.0775630317719 175.58463579
738.75 0.0705158168476 175.150911214
739.375 0.0307986657884 163.186264914
740.0 0.0519973387985 -152.076627603
740.625 0.0709860975434 -161.316058912
741.25 0.0507510388969 -163.514185431
741.875 0.0113189567414 -39.4575372429
742.5 0.0326123268884 -24.4729786842
743.125 0.0390049703672 38.7235546925
743.75 0.0428807568564 67.8424554213
744.375 0.0415641167758 169.337597431
745.0 0.0727805524972 98.7431628614
745.625 0.0659190009675 96.9185126371
746.25 0.078038580531 77.9154685883
746.875 0.0575611785799 53.7430614762
747.5 0.0508539075175 0.101150568592
748.125 0.021548967282 -2.55322802064
748.75 0.0228939516364 -20.0886905428
749.375 0.0321355576297 -48.0857940302
750.0 0.0421926559588 -56.2993242919
