!Created with skrf (http://scikit-rf.org).
# GHz S RI R 50.0 
!freq ReS11 ImS11
500.0 -0.02688884657 0.02525464601
500.625 0.009343228137 0.04147695248
501.25 0.02260105434 0.03767618337
501.875 0.01820016584 0.04692827462
502.5 -0.001953628292 0.06510184419
503.125 0.03359445371 0.05163067433
503.75 0.04591328637 0.02844698781
504.375 0.0452548044 0.02470643119
505.0 0.06043313922 -0.01486154582
505.625 0.07044763086 -0.03478200077
506.25 0.05039269338 -0.03645113524
506.875 0.05808630281 -0.001144244123
507.5 0.05507690093 -0.0001019777651
508.125 0.06875612685 0.00728732067
508.75 0.05031360408 -0.0324178393
509.375 0.06291360416 0.00598194944
510.0 0.07473162702 0.00542977863
510.625 0.00756692445 -0.06206026688
511.25 -0.0181350192 -0.05215840875
511.875 -0.02072764784 -0.02699857891
512.5 -0.01906028503 -0.007896495528
513.125 -0.0237556281 0.01569741766
513.75 -0.03281066537 0.01748811733
514.375 -0.04898410933 0.04034016974
515.0 -0.01535322638 0.07135297559
515.625 -0.06151109902 0.05723444558
516.25 -0.002752190136 0.09236401466
516.875 -0.07902080463 0.06187507512
517.5 0.001818398419 0.07256809544
518.125 -0.04217830791 0.05700432731
518.75 -0.01517927814 0.02672438195
519.375 -0.02268364615 0.04382847725
520.0 0.02646227152 0.05116553014
520.625 0.02499670282 0.03812559443
521.25 0.01915537164 0.03040619519
521.875 -0.001575657827 0.032635686
522.5 0.04143252315 0.01024990353
523.125 0.05812791734 -0.003694609264
523.75 0.02212961298 -0.03774499678
524.375 -0.05233633134 -0.01756158508
525.0 -0.02150920062 -0.007055587113
525.625 -0.03161930803 0.01860588298
526.25 -0.04783367433 0.03262922564
526.875 -0.01975006004 0.0275729967
527.5 -0.0004779836353 0.02902155576
528.125 0.02118021056 0.03402600046
528.75 0.03018667122 0.02936556857
529.375 0.03438633893 0.01311946541
530.0 0.0448821849 0.005045412967
530.625 0.07049677402 -0.06676276478
531.25 0.1020320789 -0.1264583835
531.875 0.02432023061 -0.1232455559
532.5 -0.03305879572 -0.07176035083
533.125 -0.006407249534 -0.05851089028
533.75 -0.009687959956 -0.06096531081
534.375 -0.0194098343 -0.04704797311
535.0 -0.02112312416 -0.02686423386
535.625 0.01887108721 -0.02346223049
536.25 0.009768240349 -0.04988800653
536.875 0.009207853511 -0.08215134481
537.5 0.007967575114 -0.07860177193
538.125 -0.01316305244 -0.04984217823
538.75 -0.007340099979 -0.04141372673
539.375 0.0252931091 -0.04856542141
540.0 0.02373371633 -0.07868683987
540.625 0.01947670513 -0.08416880314
541.25 0.0228119217 -0.08560773097
541.875 0.01871187876 -0.08548290847
542.5 0.005445043731 -0.08315191342
543.125 -0.04144959484 -0.06203956419
543.75 -0.05400143883 -0.01909573982
544.375 -0.0233854186 0.001795720733
545.0 -0.01390064844 0.002619642559
545.625 -0.0290595686 0.01156951387
546.25 -0.02938990987 0.02396941092
546.875 -0.03885125319 0.03022928874
547.5 -0.01615435347 0.02239932821
548.125 -0.02288649067 0.02003268497
548.75 -0.05184054311 0.008299993659
549.375 -0.02463277163 -0.01713959908
550.0 0.008314151125 -0.02080426628
550.625 0.01609395315 -0.04564341042
551.25 0.03684755875 -0.06365741005
551.875 0.01071427718 -0.08082074907
552.5 -0.01615506571 -0.06828238763
553.125 -0.03660053821 -0.06374633087
553.75 -0.04797044078 -0.07530900357
554.375 -0.05755192521 -0.04336101071
555.0 -0.05605233302 -0.0198450854
555.625 -0.05496560935 -0.02003093871
556.25 -0.04970411531 -0.03207719903
556.875 -0.06487310628 -0.0269566576
557.5 -0.05942573658 -0.01893215265
558.125 -0.03143580972 -0.005883528212
558.75 -0.006109345291 -0.009653295428
559.375 0.006941606479 -0.006688951259
560.0 0.0223166327 -0.021672526
560.625 0.02277961717 -0.05917040554
561.25 -0.004846166248 -0.06919820438
561.875 -0.03807529648 -0.05252175495
562.5 -0.06029704819 -0.02609074381
563.125 -0.06440392519 -0.01163898007
563.75 -0.06085769449 0.01776372673
564.375 -0.03427389956 0.03141900479
565.0 -0.02133990134 0.01715126641
565.625 -0.02403647386 -0.00290024474
566.25 -0.02728718754 -0.01949290361
566.875 -0.03696353129 -0.02559952716
567.5 -0.02947528483 -0.03293892445
568.125 -0.01103935169 -0.02001946973
568.75 0.005831216364 -0.02202082069
569.375 0.02074881375 -0.03899394273
570.0 0.03436274872 -0.05443539327
570.625 0.02045230774 -0.0544077435
571.25 0.001924712604 -0.06061435417
571.875 -0.02255845032 -0.07929373976
572.5 -0.0539477461 -0.07113253605
573.125 -0.06806637013 -0.02777122469
573.75 -0.05660354507 0.01009120461
574.375 -0.06042361244 0.01154824065
575.0 -0.05186024713 -0.01193177356
575.625 -0.05387430851 0.007264596529
576.25 -0.04565362565 0.02219176017
576.875 -0.0341468315 0.01915296676
577.5 -0.0164377337 0.005711159763
578.125 -0.01548547849 -0.002678965669
578.75 -0.01709472142 -0.01302406348
579.375 -0.02557499911 -0.01070526937
580.0 -0.02115012723 -0.02537087936
580.625 -0.02550209408 -0.04845796374
581.25 -0.05671956699 -0.05192075978
581.875 -0.07602351427 -0.02674486928
582.5 -0.06840409889 -0.008285019072
583.125 -0.04602353772 -0.02050462223
583.75 -0.03663807896 -0.03358256793
584.375 -0.04135617077 -0.03496423445
585.0 -0.03947426351 -0.02848086968
585.625 -0.02515074219 -0.02726396287
586.25 -0.00921499771 -0.035949613
586.875 -0.02611305808 -0.0316328383
587.5 -0.03506810706 -0.01659415312
588.125 -0.02521011264 -0.01379728661
588.75 -0.01541770245 -0.03179556325
589.375 -0.02971494982 -0.03117802622
590.0 -0.05748688378 -0.0296330888
590.625 -0.07787618514 -0.0004964711417
591.25 -0.07062545392 0.0200991273
591.875 -0.04541038781 0.02990944244
592.5 -0.02532793016 0.02924879767
593.125 -0.02514475109 0.003614677356
593.75 -0.02519469169 -0.001655434032
594.375 -0.02273986787 -0.001067501363
595.0 -0.001280547543 -0.02260408033
595.625 0.01842007972 -0.03445807003
596.25 0.01658518892 -0.03605238823
596.875 0.01620401202 -0.03730685092
597.5 0.0192667796 -0.02553188119
598.125 0.04025778507 -0.02210765367
598.75 0.03424844592 -0.03791682561
599.375 0.02021882641 -0.04945672356
600.0 0.03027009229 -0.06820519828
600.625 0.03310998698 -0.06228132674
601.25 0.007717513041 -0.06124160444
601.875 -0.01696314403 -0.04833813588
602.5 -0.002184758563 -0.0364538739
603.125 0.007083888884 -0.01918325412
603.75 0.007944787007 -0.01061024126
604.375 0.02722857038 -0.007049773892
605.0 0.01137439874 -0.0131911691
605.625 0.0213756375 -0.01622318471
606.25 0.0172986354 0.004426050135
606.875 0.01260290858 0.0250043054
607.5 0.01775038528 0.02902952077
608.125 0.03501338919 0.01594459813
608.75 0.0493053646 0.01371117015
609.375 0.04940661457 0.02827255948
610.0 0.02784911345 0.01703788809
610.625 0.04589594654 0.01403875501
611.25 0.0499176595 0.02580678833
611.875 0.02736883046 0.02203653478
612.5 0.008876795054 0.0007636200015
613.125 -0.003189973571 0.02106393864
613.75 -0.01437171152 0.04309496648
614.375 -0.01211552364 0.03844518186
615.0 -0.002189866784 0.03354855068
615.625 -0.01166029706 0.02116184022
616.25 -0.02080854641 0.03374569371
616.875 -0.01599927035 0.04672947111
617.5 -0.004154984319 0.04173134745
618.125 -0.008584407148 0.03990837144
618.75 -0.01646430688 0.03522658864
619.375 -0.007254749033 0.03380921456
620.0 0.005064973233 0.02109558956
620.625 0.003713356632 0.007763458476
621.25 -0.01277348584 -0.01138086397
621.875 -0.02566308005 -0.02556882893
622.5 -0.05704830936 0.01156926186
623.125 -0.06553208686 0.02697785753
623.75 -0.05444621109 0.04775080551
624.375 -0.04791905032 0.03302331238
625.0 -0.06139171773 0.01643472636
625.625 -0.0479616124 -0.008387810935
626.25 -0.03879429657 0.0274175823
626.875 -0.03088802079 0.03896450362
627.5 -0.021682178 0.01627546739
628.125 -0.001154120941 -0.01064521502
628.75 -0.008820633736 -0.007515891756
629.375 -0.0115134221 -0.00842513469
630.0 0.007862787496 -0.01780310177
630.625 0.04307330605 -0.02455963682
631.25 0.03574035343 -0.03958702254
631.875 0.02306947247 -0.0552494296
632.5 0.01898453808 -0.05670712959
633.125 0.02854426762 -0.04833918191
633.75 0.004121845 -0.05598623262
634.375 0.004636563019 -0.06163661796
635.0 0.000191789871 -0.04757858087
635.625 -0.01570842944 -0.03262509515
636.25 0.02452497284 -0.03062094207
636.875 0.03341766708 -0.02938073315
637.5 0.009208409008 -0.0492281213
638.125 -0.01065509253 -0.03039207981
638.75 0.0194376689 -0.002020952786
639.375 0.03203371473 0.01141644835
640.0 0.04636863029 0.01731580381
640.625 0.0475521637 0.008597496354
641.25 0.04142063121 0.009387888163
641.875 0.03270964379 0.02097954529
642.5 0.02851702831 0.02357255576
643.125 0.02722942323 0.0318550665
643.75 0.01453609394 0.04511756123
644.375 0.009016808688 0.02612799226
645.0 0.01269894409 0.01930153002
645.625 0.007184728036 0.04050764074
646.25 0.00745214251 0.06577415219
646.875 0.01849804184 0.05217494953
647.5 0.02750475198 0.03047031428
648.125 0.009689463647 0.04484396958
648.75 -0.006635156231 0.06223724513
649.375 -0.01144545096 0.06528301054
650.0 0.004865082025 0.0544253739
650.625 -0.009660517532 0.04286767317
651.25 -0.02122204615 0.02363385421
651.875 -0.03480814168 0.006232619946
652.5 -0.0210936259 -0.003547444034
653.125 -0.00394130021 -0.009244914157
653.75 0.01559733747 -0.02956352033
654.375 0.02331470593 -0.04497222101
655.0 0.01962829291 -0.06042695263
655.625 0.02121234252 -0.07413057213
656.25 -0.0059852572 -0.06383544036
656.875 -0.02528703717 -0.08349521093
657.5 -0.01027782056 -0.08115794911
658.125 -0.02504750203 -0.06621109504
658.75 -0.04078675098 -0.03659642292
659.375 -0.04066553558 -0.02917545283
660.0 -0.01811049493 -0.01285004274
660.625 -0.008732637679 -0.01812485677
661.25 -0.008121720513 -0.0219158017
661.875 -0.01901009297 -0.03238533184
662.5 -0.03066211073 -0.04847329383
663.125 -0.02722654987 -0.05170453153
663.75 -0.01588785898 -0.06207680834
664.375 0.02567014528 -0.08491834332
665.0 0.05590498429 -0.06117153242
665.625 0.05086728222 -0.03882937478
666.25 0.05659429521 -0.03255091537
666.875 0.05193680905 -0.01189246109
667.5 0.0375149671 0.0004573075201
668.125 0.0221204613 0.009203217414
668.75 0.02131898048 0.02474674251
669.375 0.04972141957 0.05701934528
670.0 0.03578855934 0.04478190566
670.625 0.03341662778 0.03454425867
671.25 0.0366630792 0.03938645617
671.875 0.07610972854 0.0466784112
672.5 0.07193930316 -0.002258193871
673.125 0.0575938108 -0.0362521947
673.75 0.04357152821 -0.02169517145
674.375 0.03726313569 0.005092069582
675.0 0.02557238115 0.01177061755
675.625 0.02603761466 0.03149007502
676.25 -0.00245116738 0.04782117351
676.875 -0.02284995505 0.03915458608
677.5 -0.02811353787 0.04232761732
678.125 -0.03510205984 0.07199998128
678.75 -0.04425134095 0.08345404124
679.375 -0.03350042238 0.07697897839
680.0 -0.004685012741 0.07908882974
680.625 0.00227273391 0.05952423007
681.25 0.007122427694 0.05705738308
681.875 0.02583907397 0.0348240542
682.5 0.03324935885 0.01794161298
683.125 0.01247087655 0.03285008162
683.75 -0.01996202888 0.04123801806
684.375 -0.03303884334 0.02896505913
685.0 -0.0545199912 0.00776913018
685.625 -0.05417528864 -0.04700556692
686.25 -0.01886315204 -0.06981482625
686.875 -0.02388517978 -0.08523672572
687.5 -0.02608277074 -0.1111262172
688.125 -0.01183499486 -0.09292124701
688.75 -0.01184967961 -0.0564973838
689.375 -0.003733791889 -0.05117510916
690.0 0.01442868604 -0.05222422651
690.625 0.01759959055 -0.02649532854
691.25 0.005478931341 -0.01505676956
691.875 0.0134660854 -0.03348374883
692.5 -0.01206968349 -0.07618222452
693.125 -0.0993995145 -0.03359430721
693.75 -0.08257700835 0.04776119773
694.375 -0.06496946694 0.04544919968
695.0 -0.08083354297 0.009972935744
695.625 -0.06580914962 -0.04076849587
696.25 -0.006837187369 -0.06922580808
696.875 0.04218552481 -0.03493408866
697.5 0.03996764719 0.00511693244
698.125 0.01933489868 0.01772957638
698.75 0.02174926587 0.03696832924
699.375 0.008676793728 0.05958565028
700.0 0.0008298289638 0.05920394434
700.625 0.006450026954 0.05770272894
701.25 -0.01027930049 0.07508489703
701.875 -0.000557092603 0.08538583141
702.5 0.04369682094 0.05152010232
703.125 0.05102813168 -0.003826216389
703.75 0.0316922634 -0.03089202078
704.375 0.05242880706 0.004899153402
705.0 0.05635551273 0.004400239806
705.625 0.05097385972 0.0149866513
706.25 0.03593559238 0.04099872933
706.875 -0.0361541789 0.06312828966
707.5 -0.07473843735 0.03312573885
708.125 -0.09055819097 0.006321611987
708.75 -0.07986219837 -0.01352085512
709.375 -0.03789218307 -0.04327333411
710.0 -0.004256969068 -0.05250837633
710.625 0.01874884917 -0.05979399849
711.25 0.02518934648 -0.05023706732
711.875 -0.002574930654 -0.0343784426
712.5 0.007922993349 -0.008615121715
713.125 0.03058952311 -0.04090893804
713.75 -0.01402551933 -0.07474004896
714.375 -0.05323905982 -0.03408017726
715.0 -0.07924457413 -0.01352253719
715.625 -0.09852430497 -0.01459942779
716.25 -0.07894835801 -0.05385300655
716.875 -0.06560218675 -0.03943508337
717.5 -0.01236391412 -0.0594243862
718.125 0.02749552924 -0.04604894096
718.75 0.03744811314 -0.03469632727
719.375 0.04162327778 -0.02583425413
720.0 0.02754604207 -0.02651720793
720.625 0.002045023764 0.02199965008
721.25 -0.03953491558 0.002826699568
721.875 -0.04062597259 -0.02195741975
722.5 -0.05260966718 -0.06474749736
723.125 -0.07975051852 -0.04836251547
723.75 -0.0741547894 0.03756724938
724.375 -0.02372001524 0.07244015871
725.0 0.01511790351 0.05208186467
725.625 0.02564589644 0.02677462907
726.25 0.01870781864 0.02088549682
726.875 -0.006710595242 0.02994989534
727.5 -0.01375247298 0.008399358965
728.125 -0.05616455375 0.01636700894
728.75 -0.06849344705 0.02423216708
729.375 -0.0514973731 0.03983518293
730.0 -0.04406269472 0.02935639225
730.625 -0.02331016063 0.01140000794
731.25 -0.05121126041 -0.004959922867
731.875 -0.03702519339 -0.03506041088
732.5 -0.00596613966 -0.04053026691
733.125 -0.002535507384 -0.01223851846
733.75 0.02639878945 -0.006976202794
734.375 0.05436553172 -0.0266955346
735.0 0.02731147533 -0.04310844038
735.625 0.003765587166 -0.06220553214
736.25 -0.005188241294 -0.07880406757
736.875 -0.016257804 -0.07323831518
737.5 -0.02580335971 -0.05825567852
738.125 -0.01791926127 -0.005340556779
738.75 0.01044411911 -0.001312814208
739.375 0.04304318611 0.01258140706
740.0 0.05152216279 -0.02027590242
740.625 0.02604033184 -0.02107462146
741.25 0.02949755537 -0.02168885542
741.875 0.04547200659 0.01503729733
742.5 -0.001596717084 0.04329051574
743.125 -0.03746886974 0.007878179987
743.75 -0.04739476707 -0.01241712427
744.375 -0.06206543818 -0.01804483878
745.0 -0.07596124585 -0.01408214392
745.625 -0.06282577122 -0.002682808608
746.25 -0.04008707601 0.04835085217
746.875 0.00653590563 0.04365389084
747.5 0.002806972188 0.01415736338
748.125 -0.01297161559 0.0167438497
748.75 -0.02607672752 0.02237092163
749.375 0.01916360246 0.02245133813
750.0 0.04191983529 -0.01595227326
