!Created with skrf (http://scikit-rf.org).
# GHz S RI R 50.0 
!freq ReS11 ImS11
500.0 -0.04502588574 -0.006265548053
500.625 -0.03515591403 0.02403085729
501.25 -0.02388710826 0.009896760572
501.875 -0.07986462159 0.0402396832
502.5 -0.09424237393 0.03978758556
503.125 -0.02364115 0.01604198514
503.75 -0.00902710725 0.02796571895
504.375 0.001512160966 0.05111189336
505.0 0.02497717344 0.04823601043
505.625 0.01141480642 0.006193081866
506.25 0.01552808318 0.01942602479
506.875 -0.01985623885 0.05618457816
507.5 -0.01514120585 0.05644882973
508.125 -0.04228723359 0.003438381005
508.75 -0.01510060622 0.05167416884
509.375 -0.01169757387 0.06646764073
510.0 -0.003549762877 0.07536456247
510.625 0.005746312307 0.02314088594
511.25 0.01097622955 0.01566514636
511.875 0.03240147346 0.01098828638
512.5 0.02616496527 0.001028161595
513.125 0.04876027342 -0.02937399147
513.75 0.002886724138 -0.07398680143
514.375 -0.03900367041 -0.05930461606
515.0 -0.0286516784 -0.03234574466
515.625 -0.03622410511 -0.04439031444
516.25 -0.06250154452 -0.01220659616
516.875 0.004067763536 -0.0198968965
517.5 0.01762160194 -0.01862474141
518.125 0.07933304042 -0.03117047333
518.75 -0.02491457936 -0.07418407052
519.375 -0.009233302692 -0.0487857164
520.0 9.448353693e-05 -0.048860479
520.625 -0.01582912861 -0.0422578485
521.25 -0.04986501794 -0.0348524818
521.875 -0.00584366378 -0.03019255003
522.5 -0.01020914383 -0.03702297892
523.125 -0.04444564997 -0.09738551484
523.75 -0.1286118953 -0.1571072224
524.375 -0.1026580252 -0.199414544
525.0 -0.06944818992 -0.09221768665
525.625 -0.07488899138 -0.07713632608
526.25 -0.06123019594 -0.05302656609
526.875 -0.04867458507 -0.03229374666
527.5 -0.08522284671 -0.02769865302
528.125 -0.07644352667 0.02104060873
528.75 -0.05132943292 0.03698805289
529.375 -0.04023283532 0.06762213752
530.0 0.002641809629 0.1369433675
530.625 0.1143771995 0.06184278632
531.25 0.08533647969 0.03845979445
531.875 0.05417438831 0.009848440516
532.5 0.1017397236 0.09604852391
533.125 0.06870243598 0.07298571428
533.75 0.05732793357 0.01415816424
534.375 0.04412430349 0.02222384867
535.0 0.08340120535 0.0531172914
535.625 0.05160078949 0.06367958842
536.25 0.07079321099 0.0005110966179
536.875 0.07686749234 -0.001869409171
537.5 0.07192208928 0.05531370958
538.125 0.03707699994 0.03048100925
538.75 0.05299584604 0.03559578207
539.375 0.08259553852 0.06304664034
540.0 0.1001705168 0.08978942079
540.625 0.06565396098 0.03776087324
541.25 0.06224476946 0.03336314461
541.875 0.0695271545 0.02988999454
542.5 0.03676444777 0.04721144482
543.125 0.01627860551 0.02030462465
543.75 0.03392018972 0.02213030234
544.375 0.07348949798 0.0257446858
545.0 0.0871311307 -0.04408865073
545.625 0.03154533374 -0.06350255737
546.25 -0.0144021049 -0.06352316237
546.875 -0.003923177216 -0.07864900556
547.5 0.0173058072 -0.1062158007
548.125 0.01850483783 -0.1037946025
548.75 0.0557771683 -0.09211438439
549.375 0.08776990847 -0.07825469996
550.0 0.1307580589 -0.03709901406
550.625 0.1310862094 -0.0534904998
551.25 0.127617818 -0.01233780211
551.875 0.09541706186 -0.02599381678
552.5 0.08834585725 -0.04596753187
553.125 0.07337157669 -0.0775984227
553.75 0.05603840656 -0.05461407365
554.375 0.03048743161 -0.03039295586
555.0 0.03967583582 -0.03556484637
555.625 0.03626529787 -0.03993090628
556.25 0.04313672179 -0.03699541299
556.875 0.04075940762 -0.01089074939
557.5 0.0348978363 0.002038844101
558.125 0.08497602028 0.0002024657736
558.75 0.05304646917 0.04141560821
559.375 0.07053145024 0.04400683513
560.0 0.1079814939 0.02548993612
560.625 0.09948688435 -0.003072742151
561.25 0.06403725411 -0.03499519477
561.875 0.04316981271 -0.03930657573
562.5 0.0407640926 -0.05146432445
563.125 0.03081404546 -0.0515225454
563.75 0.01096667053 -0.025847131
564.375 0.02221057337 -0.03423764319
565.0 0.04545619446 -0.08708721627
565.625 0.06716377545 -0.05823763006
566.25 0.05169771791 -0.04086530456
566.875 0.05763176945 -0.04219149745
567.5 0.07296978755 -0.02459826789
568.125 0.09313347284 0.004883972499
568.75 0.08651307809 0.02275696463
569.375 0.09632075293 0.02181405093
570.0 0.1021736482 0.01750098604
570.625 0.09014730849 -0.003422410964
571.25 0.06826006453 -0.01695749181
571.875 0.08135903933 -0.03652646308
572.5 0.0461989709 -0.04804671926
573.125 0.02075719567 -0.04910738054
573.75 0.02194940747 -0.05023817248
574.375 0.04376594799 -0.06428314402
575.0 0.03163380697 -0.06972085406
575.625 0.006073791957 -0.04725558191
576.25 0.007202261519 -0.03737473817
576.875 0.03686607703 -0.05082920885
577.5 0.04260914726 -0.05648786056
578.125 0.04282117103 -0.04984794329
578.75 0.04133492195 -0.0611259321
579.375 0.06027802771 -0.07998115848
580.0 0.06192512561 -0.06595096836
580.625 0.03334888552 -0.09966513787
581.25 0.01103523989 -0.1031899222
581.875 0.007590184321 -0.08082629446
582.5 0.02099455892 -0.04486233951
583.125 0.02013496431 -0.06220923183
583.75 0.04602984767 -0.07279383889
584.375 0.04824422146 -0.03600825825
585.0 0.04571422379 -0.01923116245
585.625 0.04756368438 -0.04177948184
586.25 0.07285211423 -0.02832588811
586.875 0.05632736393 -0.02309986246
587.5 0.04748009213 -0.0278042176
588.125 0.02661985111 -0.06978866305
588.75 0.05588983517 -0.07505025854
589.375 0.04218638495 -0.0728936274
590.0 -0.007169386235 -0.09111837064
590.625 -0.06403040635 -0.0805775462
591.25 -0.01879224946 -0.05237764961
591.875 0.00961899412 -0.02009762772
592.5 0.01617824735 -0.0426115852
593.125 -0.003952653643 -0.06527281161
593.75 0.02763232888 -0.07164688141
594.375 0.05569256595 -0.02505594034
595.0 0.07548574982 -0.02487880963
595.625 0.08440940187 -0.02824808098
596.25 0.08352138449 0.006132972543
596.875 0.0616020679 0.02578437165
597.5 0.0717854553 0.03883214144
598.125 0.07935726889 0.004117690248
598.75 0.08166011808 0.009944866098
599.375 0.08982696626 -0.004496738143
600.0 0.08183323016 -0.0007978242796
600.625 0.05883850891 -0.03747481477
601.25 0.03805459253 -0.01298734978
601.875 0.03363473693 0.02034336233
602.5 0.02961093407 0.0417135484
603.125 0.0206459112 0.02507097938
603.75 0.02063995405 0.0475249593
604.375 0.03647791312 0.05678214357
605.0 0.02746086115 0.06201089739
605.625 -0.002393935595 0.05021140433
606.25 -0.0005365345522 0.02058294981
606.875 -0.02164671783 0.06600851609
607.5 -0.02972644279 0.09333120678
608.125 0.006115477903 0.07954359704
608.75 0.01602823932 0.07261145853
609.375 -0.002265575153 0.07453509867
610.0 -0.006892304557 0.06221530999
610.625 -0.008390599029 0.05457340395
611.25 0.01836904453 0.01232710604
611.875 -0.02606495636 0.01059525501
612.5 -0.05141668735 -0.00661690623
613.125 -0.06562957719 0.001632071533
613.75 -0.04166521129 0.009648555075
614.375 -0.06773108945 -0.0004825219511
615.0 -0.05647805541 -0.003595394587
615.625 -0.06878762753 0.0007519249824
616.25 -0.08034128549 0.004411941625
616.875 -0.05858131914 -0.0007780730223
617.5 -0.05024086803 -0.0007794336149
618.125 -0.05227106465 -0.002271173464
618.75 -0.04457393639 -0.008265353172
619.375 -0.03888525386 -0.02534829553
620.0 -0.02314621581 -0.03097915226
620.625 -0.02920132335 -0.04034679183
621.25 0.01137553472 -0.06062956679
621.875 -0.03483537195 -0.08263719629
622.5 -0.1043639058 -0.03137065113
623.125 -0.1068126873 0.004042597927
623.75 -0.07252819315 0.001755875629
624.375 -0.06498440249 -0.02377801236
625.0 -0.04547583126 -0.05350147558
625.625 -0.03650247245 -0.03689692042
626.25 -0.0304538278 -0.02041751025
626.875 0.03379270491 -0.007614637672
627.5 0.02432767482 -0.02912267481
628.125 0.03689919937 -0.05037085945
628.75 0.03455725611 -0.03187406653
629.375 0.07070198391 0.002067582888
630.0 0.06804403179 -0.01658410171
630.625 0.09316932853 -0.009426628629
631.25 0.08016410217 -0.01574971042
631.875 0.08094685784 0.01401287217
632.5 0.07140432869 -0.02213729684
633.125 0.07499844949 -0.0226059769
633.75 0.05396512732 -0.02386879155
634.375 0.05048779513 0.01132816508
635.0 0.05045727348 -0.02454353048
635.625 0.04530644248 -0.01153759689
636.25 0.04885900943 0.006955452292
636.875 0.06648548231 -0.0006931176892
637.5 0.04859954033 0.03291707388
638.125 0.0252068527 0.02724739985
638.75 0.04268305719 0.03385689914
639.375 0.04658895283 0.0695562506
640.0 -0.004668204159 0.08318570816
640.625 0.009741025397 0.05894367843
641.25 0.02991277019 0.05944686209
641.875 -0.005356550555 0.06455457815
642.5 -0.0546258068 0.04793077796
643.125 -0.02854025282 0.05304627001
643.75 -0.02405137602 0.05325618368
644.375 -0.04047159781 0.04316624937
645.0 -0.08676727072 0.03278562546
645.625 -0.06285611624 0.05218574715
646.25 -0.0309190472 0.08603430701
646.875 -0.03511082268 0.06583480694
647.5 -0.05688209998 0.03635014846
648.125 -0.0514315601 0.04939659948
648.75 -0.06202186142 0.06414309628
649.375 -0.05154274385 0.03799116244
650.0 -0.04146255475 0.008232689166
650.625 -0.05596992273 -0.02645372585
651.25 -0.04042211553 -0.03091721397
651.875 -0.007716172742 -0.04429139819
652.5 0.01215176021 -0.04092644193
653.125 0.07272449433 -0.09231515347
653.75 0.06477371561 -0.06206087717
654.375 0.08028149767 -0.04622371043
655.0 0.1075568462 -0.06185464853
655.625 0.07884140754 -0.0691302364
656.25 0.05866002311 -0.06964045573
656.875 0.04117386112 -0.05936403495
657.5 0.04104206543 -0.06577563635
658.125 0.0884580512 -0.06163738762
658.75 0.05380251459 -0.02945821435
659.375 0.01978470664 -0.02359801014
660.0 0.03747330675 -0.03482086668
660.625 0.07533341254 -0.07278558667
661.25 0.05784844203 -0.06928441486
661.875 0.01368516103 -0.07467212751
662.5 0.01044843248 -0.09957609116
663.125 0.0294862439 -0.1332259314
663.75 0.06064698215 -0.09334812675
664.375 0.08350709829 -0.05893805412
665.0 0.09596961168 0.004798360958
665.625 0.07270887258 0.02540944683
666.25 0.0570208887 0.02005900712
666.875 0.03628315875 0.05133250625
667.5 -0.007667369156 0.08189240214
668.125 -0.02383459033 0.05403553991
668.75 -0.005385037697 0.06363824865
669.375 0.001095511612 0.1043875712
670.0 -0.01558253195 0.1004507229
670.625 -0.03046798775 0.07793874799
671.25 0.006116595922 0.08965008176
671.875 0.03548678626 0.1043756142
672.5 0.06667006585 0.0750815829
673.125 0.06680155733 0.05876357954
673.75 0.04301265044 0.03048909239
674.375 0.02106001818 0.06306717671
675.0 -0.009068030326 0.09264339293
675.625 -0.03187459487 0.07295607032
676.25 -0.05340182489 0.05576098489
676.875 -0.089036746 0.03176344936
677.5 -0.1050916727 0.04095627364
678.125 -0.1010670077 0.075594489
678.75 -0.124791406 0.0785281698
679.375 -0.09853145082 0.03709406368
680.0 -0.05728590186 0.0295859497
680.625 -0.0736253781 0.06745429913
681.25 -0.06772244936 0.06618863644
681.875 -0.0369036676 0.03601043217
682.5 -0.0404765492 0.02335716571
683.125 -0.05606637354 0.0520824885
683.75 -0.09034428471 0.07511680921
684.375 -0.1188149064 0.001991359508
685.0 -0.0626286893 -0.05716832105
685.625 -0.02189300738 -0.1109087381
686.25 0.008263383207 -0.1599580985
686.875 0.03692738074 -0.144427395
687.5 0.05734642129 -0.1086707992
688.125 0.0602268536 -0.0768196143
688.75 0.07820775592 -0.06247486875
689.375 0.06711705078 -0.03799793181
690.0 0.06108632075 -0.01865637115
690.625 0.08668543751 0.007606836881
691.25 0.09342124522 -0.0157725037
691.875 0.07824050407 -0.04248653248
692.5 0.02311419356 -0.1200412772
693.125 -0.1076742193 -0.1335483966
693.75 -0.1147326661 -0.04122083015
694.375 -0.1286205743 0.01294984747
695.0 -0.1378478644 -0.04557193789
695.625 -0.02760179736 -0.1050954913
696.25 0.07401278756 -0.05077442475
696.875 0.08492436327 0.01864736352
697.5 0.05051309887 0.07456179449
698.125 -0.008981811183 0.07281071331
698.75 -0.02836139674 0.09297859182
699.375 -0.0009118717504 0.1309583769
700.0 -0.03589321486 0.1109089461
700.625 -0.06116470748 0.07206375642
701.25 -0.07247955573 0.08590184913
701.875 -0.04822495717 0.1578587545
702.5 -0.008888336391 0.1117160667
703.125 0.01043699615 0.04264709059
703.75 0.04773302462 0.05017053533
704.375 0.1186086534 0.06171258476
705.0 0.1388498226 0.05409897684
705.625 0.06979549803 0.07234938955
706.25 0.002227853287 0.0957552992
706.875 -0.1125122314 0.08434155177
707.5 -0.1595931206 0.03169073649
708.125 -0.1143600863 -0.04115355507
708.75 -0.06288662486 -0.06762297311
709.375 -0.0002674634648 -0.09797353909
710.0 0.05393575646 -0.09202656215
710.625 0.07234361575 -0.03846249374
711.25 0.06261526699 -0.01018231977
711.875 0.05658150545 0.001400522565
712.5 0.0530699971 -0.03460146622
713.125 0.05585130796 -0.08090398697
713.75 0.02505258521 -0.1292483839
714.375 -0.06393381172 -0.1147626495
715.0 -0.1140114533 -0.05146777608
715.625 -0.1278614266 -0.04852404594
716.25 -0.09187364461 -0.1175704673
716.875 -0.0005167906004 -0.1038937506
717.5 0.0426530903 -0.07041053924
718.125 0.05335087129 -0.08381673901
718.75 0.1082157127 -0.03215609689
719.375 0.0659084317 0.03104842987
720.0 0.0465567871 0.04163092463
720.625 -0.02459831475 0.07267180125
721.25 -0.1033868296 -0.004371912978
721.875 -0.05462051257 -0.103701847
722.5 -0.04820734764 -0.1246460315
723.125 -0.1211805061 -0.03206351829
723.75 -0.1217323587 0.01703161023
724.375 -0.09304249316 0.04682076425
725.0 -0.04270344141 0.08990456514
725.625 -0.00174091748 0.07667830365
726.25 0.02649271329 0.03322608137
726.875 -0.03617172309 0.04867598364
727.5 -0.09451401025 0.03813962989
728.125 -0.1272910529 -0.01132799137
728.75 -0.07691090403 0.0334359748
729.375 -0.07158701893 0.04761409368
730.0 -0.1124920163 0.01923958535
730.625 -0.1012813098 -0.003435512808
731.25 -0.07135371578 -0.03744844489
731.875 -0.03541587383 -0.06066152824
732.5 0.01934947455 -0.07108334133
733.125 0.07034902258 -0.01679170136
733.75 0.07463748625 -0.01766209496
734.375 0.08474054801 -0.03836240184
735.0 0.0874514034 -0.08489529791
735.625 0.04820732812 -0.1049645443
736.25 0.004581768242 -0.0986742407
736.875 0.003327331088 -0.1214621475
737.5 0.01717729561 -0.09385203877
738.125 0.01416869048 -0.05126080097
738.75 0.05656835205 -0.01415509691
739.375 0.07259825959 0.03117915427
740.0 0.07488291149 0.001060442283
740.625 0.0750185171 -0.04686084321
741.25 0.07147231156 -0.04239252337
741.875 0.03067208562 0.03179984072
742.5 -0.01969520556 0.07853720071
743.125 -0.08228605303 0.02529107226
743.75 -0.09377021748 -0.02119325808
744.375 -0.01235678856 -0.05699035719
745.0 -0.05489454006 -0.04888723477
745.625 -0.107621255 -0.0001585728812
746.25 -0.07965527879 0.05762720827
746.875 -0.01456383156 0.03033499441
747.5 -0.01952685369 0.02377555873
748.125 -0.02998397547 0.03815490373
748.75 -0.01606812618 0.05278097844
749.375 0.03915209801 0.04854096521
750.0 0.05192455691 0.05298528953
