!Created with skrf (http://scikit-rf.org).
# GHz S RI R 50.0 
!freq ReS11 ImS11
500.0 -0.02614981203 0.03033953452
500.625 0.01474851319 0.04608877253
501.25 0.007385795582 0.03646065184
501.875 0.002185399539 0.04769110013
502.5 -0.006243669718 0.06446928872
503.125 0.02148197207 0.05302181362
503.75 0.04208210453 0.03351621653
504.375 0.05475076055 0.01381447741
505.0 0.05992000528 -0.00627318428
505.625 0.06976777251 -0.02211218022
506.25 0.0530424077 -0.01038238144
506.875 0.07171951442 -0.0161359668
507.5 0.05802648235 -0.01436225356
508.125 0.05156103589 0.02391842034
508.75 0.05070673425 -0.02098636211
509.375 0.05303982505 -0.02774815211
510.0 0.07290705555 0.003364702851
510.625 0.0206386736 -0.05224144555
511.25 -0.01449923916 -0.05049552557
511.875 -0.03318439027 -0.02556247374
512.5 -0.01681157768 -0.009130061924
513.125 -0.02274803179 0.004529983074
513.75 -0.0376758344 0.009295348578
514.375 -0.04377088012 0.03360147794
515.0 -0.02793093012 0.06004211106
515.625 -0.08608599624 0.03624856425
516.25 -0.03029818614 0.08252185793
516.875 -0.06463948989 0.07650409447
517.5 0.01367533958 0.07053603553
518.125 -0.04969381017 0.01440235592
518.75 -0.009045159275 0.0299484227
519.375 -0.02808248265 0.03376115959
520.0 0.01373960775 0.04734519414
520.625 -0.004495444615 0.04150681995
521.25 0.01053798039 0.03215589898
521.875 0.008068116697 0.03014035173
522.5 0.03500058384 0.00984310502
523.125 0.02795996722 0.01618337082
523.75 -0.0006504143076 -0.03541302375
524.375 -0.01891144011 -0.04300809262
525.0 -0.03450619553 -0.009628774614
525.625 -0.03981761676 0.02045086774
526.25 -0.03156617548 0.02644749672
526.875 -0.01894595759 0.02254568427
527.5 -0.01153429164 0.03234746539
528.125 0.01562006528 0.04886615269
528.75 0.025077488 0.03893320045
529.375 0.03092771256 0.02396976105
530.0 0.06417322278 0.01918689877
530.625 0.07879565531 -0.06183412329
531.25 0.07604291148 -0.1064158023
531.875 0.02015241701 -0.1088421389
532.5 -0.004609867854 -0.07670744876
533.125 0.01518679089 -0.06300319863
533.75 -0.01253705554 -0.05019224776
534.375 -0.0106628257 -0.04768436912
535.0 -0.00538572702 -0.03048924273
535.625 0.03719367621 -0.02580614265
536.25 0.009916967858 -0.03686755877
536.875 0.01312814153 -0.06576713519
537.5 0.03319233714 -0.08104472108
538.125 -0.005654652942 -0.0471954759
538.75 -0.009359994862 -0.02540315723
539.375 0.02837070791 -0.03719116381
540.0 0.04520102905 -0.07676389995
540.625 0.02680008849 -0.07814816531
541.25 0.0135539343 -0.06140054352
541.875 0.02100631699 -0.06885798076
542.5 0.02171662226 -0.08322540075
543.125 -0.03527973165 -0.05884939982
543.75 -0.04687684027 -0.001169663583
544.375 -0.01355612558 -0.001991152353
545.0 -0.01132839862 -0.007698827087
545.625 -0.04561096488 0.008820159363
546.25 -0.04720695369 0.01759002928
546.875 -0.02496526882 0.01649844969
547.5 -0.02213201308 0.0134656672
548.125 -0.02437266547 0.0114483961
548.75 -0.02222230018 -0.001608177027
549.375 -0.01629512024 -0.026747786
550.0 0.01418758304 -0.02989383133
550.625 0.01041306967 -0.05963651218
551.25 0.0431765559 -0.07702167986
551.875 0.02096166704 -0.08271311396
552.5 -0.008610139018 -0.07569312415
553.125 -0.03359319159 -0.06960284114
553.75 -0.03284358746 -0.06435966056
554.375 -0.05238698779 -0.04791773343
555.0 -0.05085670969 -0.02892536612
555.625 -0.06029139395 -0.03012599284
556.25 -0.04666810491 -0.03860851875
556.875 -0.04721599301 -0.02011548835
557.5 -0.04201342589 -0.01463582051
558.125 -0.02772819866 -0.01802468669
558.75 -0.001950421808 -0.01362150076
559.375 0.009587600919 -0.007837787641
560.0 0.02905845103 -0.02670117343
560.625 0.02480048721 -0.07152238039
561.25 -0.001838541981 -0.06988769509
561.875 -0.03175302159 -0.05368508209
562.5 -0.05079855806 -0.03532741625
563.125 -0.07018646363 -0.022878181
563.75 -0.04777555044 0.01241835876
564.375 -0.0333651557 0.02243650426
565.0 -0.02208921343 0.005207872905
565.625 -0.0326557795 -0.00774414115
566.25 -0.02238557186 -0.02422653681
566.875 -0.01780792975 -0.02934791578
567.5 -0.01137753013 -0.0318915409
568.125 -0.009248432031 -0.02447784424
568.75 0.01312280157 -0.02017957857
569.375 0.03497819778 -0.02271574884
570.0 0.04592419189 -0.04179212279
570.625 0.02047365673 -0.0567227396
571.25 -0.0005751032876 -0.06697961151
571.875 0.005669429373 -0.06680800192
572.5 -0.03264206783 -0.06943366415
573.125 -0.06724200481 -0.03236933934
573.75 -0.05079862113 0.001558714333
574.375 -0.03397830721 -0.01308060651
575.0 -0.04471562279 -0.0223010281
575.625 -0.05715858925 0.007923203708
576.25 -0.04558651414 0.01749600233
576.875 -0.03160310909 0.01533912424
577.5 -0.01633390976 0.001200607907
578.125 -0.02073726334 0.001908611374
578.75 -0.01918162969 -0.01355743995
579.375 -0.01061605069 -0.02631979983
580.0 -0.01206811866 -0.03676561427
580.625 -0.03052987238 -0.04965268201
581.25 -0.05323223931 -0.0573672372
581.875 -0.057150176 -0.03886184006
582.5 -0.05745613942 -0.02103038924
583.125 -0.0424040268 -0.02820853106
583.75 -0.03353462248 -0.03348568236
584.375 -0.02336537501 -0.03602992894
585.0 -0.03357234981 -0.03061556421
585.625 -0.02473138193 -0.02905351718
586.25 0.000145474394 -0.03384655123
586.875 -0.006545633156 -0.03176733944
587.5 -0.02235500852 -0.02521892908
588.125 -0.02474606597 -0.01745915872
588.75 -0.01098938047 -0.03065848928
589.375 -0.01808466445 -0.04521205547
590.0 -0.05471649737 -0.03341727168
590.625 -0.07704137927 -0.007777384301
591.25 -0.06482924666 0.02609260545
591.875 -0.04282715978 0.03091880571
592.5 -0.02279875107 0.01571191996
593.125 -0.0226277484 -0.003621827381
593.75 -0.01832026672 0.001934846908
594.375 -0.008966559829 -0.01751195932
595.0 0.006470328811 -0.02344463102
595.625 0.02319250941 -0.03237731252
596.25 0.006557917504 -0.02823766172
596.875 0.009559290945 -0.03011633153
597.5 0.03164013424 -0.0198994383
598.125 0.04037543127 -0.01751272228
598.75 0.03750614028 -0.03436329612
599.375 0.04581269369 -0.05323920969
600.0 0.04805320052 -0.05948703291
600.625 0.02741121325 -0.05916140185
601.25 0.003615315852 -0.05275073815
601.875 0.006383043536 -0.04233162583
602.5 0.002174600349 -0.02790239357
603.125 0.006597877343 -0.01415141717
603.75 -0.00611769136 -0.006138002061
604.375 0.02551402589 -0.0009895392277
605.0 0.03641488042 0.001611339674
605.625 0.02806800624 -0.005832237235
606.25 0.006322292817 0.0006645931861
606.875 0.007399351512 0.0309098733
607.5 0.02159936118 0.0447385905
608.125 0.04660579151 0.02646279426
608.75 0.02556163539 0.01222206123
609.375 0.04012842968 0.02918714566
610.0 0.03900470979 0.03999046097
610.625 0.04859792225 0.02887179056
611.25 0.03506782708 0.01389381425
611.875 0.01864180757 0.01859827035
612.5 0.001783862424 0.0144085494
613.125 -0.01163816688 0.01524688173
613.75 -0.02100143836 0.03634755319
614.375 -0.01434242779 0.01220817739
615.0 -0.007024405305 0.02207758669
615.625 -0.01542461742 0.02406033905
616.25 -0.02537725072 0.03629051275
616.875 -0.01983194545 0.02079070674
617.5 -0.01126539702 0.03585706368
618.125 -0.01115560594 0.02985396814
618.75 -0.01597795318 0.02906481986
619.375 -0.00605832333 0.006842488516
620.0 -0.008785054793 0.02730151795
620.625 0.001149857713 -0.001398899515
621.25 -0.007820446519 -0.02132254149
621.875 -0.02198609261 -0.05237975973
622.5 -0.06490608046 0.00561970686
623.125 -0.06659215421 0.04185826068
623.75 -0.05185572273 0.04219949489
624.375 -0.04888398263 0.007120183086
625.0 -0.05372150782 0.004486419188
625.625 -0.06769607682 0.01148276898
626.25 -0.04543571913 0.0319506892
626.875 -0.01684286732 0.02223747408
627.5 -0.01576046098 0.007959258559
628.125 -0.01596738194 -0.01124941808
628.75 -0.008608454439 -0.01001046334
629.375 0.00435004756 -0.009055039525
630.0 0.03276479813 -0.01693662721
630.625 0.03333202835 -0.02893796999
631.25 0.04403516111 -0.03438093399
631.875 0.05034918246 -0.03103916581
632.5 0.03388552704 -0.04424352577
633.125 0.02718006685 -0.04918131683
633.75 0.02518805985 -0.04259019794
634.375 0.02181738396 -0.04471094196
635.0 0.02274951852 -0.02743264044
635.625 -0.001097007729 -0.02633799552
636.25 0.006678017217 -0.02700009654
636.875 0.03273778663 -0.02400107214
637.5 0.0233325587 -0.02280810493
638.125 0.01016926597 0.01464359804
638.75 -0.0217735179 0.05594199246
639.375 -0.0325455717 0.02147350439
640.0 0.02176154404 0.0006217174799
640.625 0.04040236393 0.02066100924
641.25 0.01382023621 0.02097993696
641.875 0.0039760577 0.01943499946
642.5 9.011044525e-05 0.03204979012
643.125 0.007661284179 0.02890160536
643.75 0.01010523338 0.02078928379
644.375 0.000371314051 0.007428731518
645.0 -0.0250846049 0.02110713049
645.625 -0.04649961752 0.02099404359
646.25 -0.02276349893 0.02743609807
646.875 -0.01656580695 0.01997805929
647.5 -0.02241298597 0.007906294566
648.125 -0.03906047829 0.01341238014
648.75 -0.02729470933 0.03775046722
649.375 0.01797970735 0.04775413248
650.0 0.04503754688 0.01409067106
650.625 0.03859254796 -0.01927948531
651.25 0.001503100959 -0.02177160829
651.875 -0.01246111773 -0.002532037254
652.5 0.0001323058859 -0.0104266738
653.125 0.03328865 -0.02714138441
653.75 0.07462629038 -0.018265958
654.375 0.07033774219 0.01461360534
655.0 0.04805278817 0.005395872231
655.625 0.05035802799 0.005747614497
656.25 0.04034331028 -0.0149591179
656.875 0.01368774282 -0.05217709691
657.5 0.002625537693 -0.06103206398
658.125 -0.02279687925 -0.06730613603
658.75 -0.0566069644 -0.03205603919
659.375 -0.05306226301 0.006099562748
660.0 -0.0171412511 -0.0158653047
660.625 0.02080628828 -0.0206949238
661.25 0.04249774395 -0.03961439029
661.875 0.05528644396 -0.04636215704
662.5 0.03471968249 -0.05634198975
663.125 0.004111903303 -0.07484697711
663.75 -0.002478975238 -0.06668464367
664.375 0.0003388999913 -0.06252679188
665.0 0.0219647662 -0.06708361308
665.625 0.05483577223 -0.05260227978
666.25 0.0546559828 -0.01411561994
666.875 0.008578095834 0.02389910327
667.5 -0.01628847939 0.01639251616
668.125 -0.0383687036 0.04175643544
668.75 -0.02931060031 0.05842034176
669.375 -0.002194310504 0.05378726882
670.0 0.02536863159 0.04284819563
670.625 0.047999641 0.02255578163
671.25 0.0440009682 0.01423389913
671.875 0.05633760915 0.01399725178
672.5 0.06483981331 -0.005712287617
673.125 0.06000334532 0.0091340249
673.75 0.002497725822 0.03230141773
674.375 -0.01168025609 0.03311477083
675.0 -0.01356193708 0.03865544702
675.625 -0.01473688264 0.05672431723
676.25 -0.01007224989 0.04049314656
676.875 -0.01515803547 0.02895385988
677.5 -0.01650720389 0.04080191364
678.125 -0.02183494124 0.08080344286
678.75 -0.04831279323 0.07434323309
679.375 -0.03333704671 0.05191804206
680.0 -0.0329009202 0.02422130151
680.625 -0.03163457006 -0.002819245496
681.25 -0.02180158346 0.004252436168
681.875 -0.006825887514 0.01168667974
682.5 -0.01177745764 0.01032022172
683.125 -0.02552252335 0.02731880896
683.75 -0.01821048351 0.04824700676
684.375 -0.02660558583 0.02782732345
685.0 -0.0371880929 -0.0003942905636
685.625 -0.02635483379 -0.06215474308
686.25 0.005020329641 -0.08238430017
686.875 0.02906162007 -0.0811545421
687.5 0.03150534353 -0.05008763464
688.125 0.01963152112 -0.03276302359
688.75 0.0191855655 -0.02587271148
689.375 0.02180361369 -0.02491406391
690.0 0.02996856219 -0.02113825347
690.625 0.01998837159 -0.01761941182
691.25 0.01277257946 -0.01450580473
691.875 0.0210262722 -0.04402101655
692.5 0.03320195896 -0.09229002524
693.125 -0.04476556093 -0.06956649515
693.75 -0.06463961079 -0.03490743179
694.375 -0.04849894581 -0.04402028
695.0 -0.01327744196 -0.04332196751
695.625 0.01058764687 -0.04631592121
696.25 0.04104909389 -0.01358315684
696.875 0.02378506236 0.02327292716
697.5 0.008937826466 0.02847805987
698.125 -0.003798079726 0.03621122821
698.75 -0.04049276638 0.05432065118
699.375 -0.05638771796 0.02864258771
700.0 -0.05094894236 0.01047258793
700.625 -0.03819266582 -0.02613017235
701.25 -0.02535986476 -0.02624048938
701.875 -0.01779961641 -0.0008734147803
702.5 -0.01523179228 0.002605277165
703.125 -0.04256706668 -0.006944091102
703.75 -0.0652743081 0.03346722693
704.375 -0.01471864902 0.07404376675
705.0 0.01468007409 0.069832708
705.625 -0.03846594888 0.05315176214
706.25 -0.06136408125 -0.003568762292
706.875 -0.03169729477 -0.04709819888
707.5 0.005321675686 -0.02523831227
708.125 0.008619736533 0.0121426605
708.75 -0.005144740073 0.04493400091
709.375 -0.03048441091 0.04646728402
710.0 -0.04083970804 0.02054137976
710.625 -0.0259998713 0.02148486758
711.25 -0.0446536187 0.01784243651
711.875 -0.06921649122 0.03687013383
712.5 -0.05396314544 0.06233509479
713.125 0.01927022814 0.06434109938
713.75 0.03289785329 0.02031526912
714.375 -0.002016167882 0.01543060625
715.0 -0.002067610784 0.0167130647
715.625 0.005224390858 0.01245541435
716.25 -0.015454654 0.03882360956
716.875 -0.02616138431 0.0437187299
717.5 -0.02496922172 0.04111463309
718.125 -0.01773643289 0.0447926748
718.75 0.005201395767 0.0354472685
719.375 -0.01978029965 0.03333181049
720.0 -0.05071454335 -0.0008102126143
720.625 -0.05135881147 -0.04148709353
721.25 -0.01904576381 -0.06351792022
721.875 0.04901854974 -0.05317715915
722.5 0.03413757034 -0.05677321277
723.125 -0.02957627082 -0.0578944136
723.75 -0.05940102327 0.009990893212
724.375 -0.03488159378 0.04355820975
725.0 -0.007061173165 0.04557087182
725.625 0.01275985439 0.03052007349
726.25 0.01512170809 0.01027507465
726.875 -0.02808256164 0.01884145735
727.5 -0.06797780114 -0.007484877962
728.125 -0.06866823579 -0.01159305832
728.75 -0.06846469888 0.004508196111
729.375 -0.03040229485 0.02467714655
730.0 -0.03383280884 0.01814169644
730.625 -0.05504174464 0.01784044028
731.25 -0.05688243763 0.005367913773
731.875 -0.02675123343 -0.005786562267
732.5 -0.02527986542 -0.03752841238
733.125 -0.009137051564 -0.0392812325
733.75 0.006370187365 -0.03669701949
734.375 0.0230207532 -0.003310313653
735.0 0.02025456448 -0.04232405741
735.625 -0.00302508653 -0.05109200248
736.25 -0.02213487043 -0.06835801211
736.875 -0.008871830253 -0.04336719832
737.5 -0.03652369373 -0.04450440579
738.125 -0.04985916017 -0.04837461677
738.75 -0.03063361609 -0.03463738936
739.375 0.01445765546 0.003321511063
740.0 0.02113292999 -0.04289943497
740.625 -0.007186224031 -0.05766956698
741.25 -0.0002403692753 -0.0446114304
741.875 0.03351372185 -0.0167431051
742.5 -0.00778881898 0.03208113567
743.125 -0.02343293309 0.04451516289
743.75 -0.0429070272 0.01501487878
744.375 -0.0465756317 0.006360032152
745.0 -0.06100150029 0.02263619205
745.625 -0.05516362329 0.07124600411
746.25 -0.01227948547 0.07492124475
746.875 0.036928598 0.04454826845
747.5 0.006102832169 0.01514505507
748.125 -0.002100503715 0.01171371314
748.75 0.01531589417 0.02459675911
749.375 0.02633123352 0.002583676878
750.0 0.01829479738 -0.02104695877
