!Created with skrf (http://scikit-rf.org).
# GHz S RI R 50.0 
!freq ReS11 ImS11
500.0 -0.01170634528 0.01625403899
500.625 0.008037536088 0.0004145039418
501.25 0.001678275403 -0.03410733774
501.875 -0.02397553854 -0.03763153811
502.5 0.007761347825 0.01992903684
503.125 -0.007725413698 -0.002839906821
503.75 -0.00084716139 -0.006111317504
504.375 0.004430093883 -0.01010676808
505.0 0.01987771254 -0.02603383077
505.625 0.003313778293 -0.03836339747
506.25 -0.01412236837 -0.04524735721
506.875 -0.01183307269 -0.06351928456
507.5 -0.0284535028 -0.03637093283
508.125 -0.02650364719 -0.05133146519
508.75 -0.05489067301 -0.03111869227
509.375 -0.02774280967 -0.03665209667
510.0 -0.01501389447 -0.02031494086
510.625 -0.03122770813 0.003398981357
511.25 -0.04878442691 0.005052680736
511.875 -0.03626493105 0.03224654493
512.5 -0.01055911664 0.03991050185
513.125 0.0493701323 0.02104856319
513.75 0.04734061889 0.00927812705
514.375 0.03998848512 0.03536914932
515.0 0.04819638761 0.009011562621
515.625 0.04491346341 0.03345903598
516.25 0.05437966163 0.01319897703
516.875 0.03999344511 0.1019376127
517.5 0.08873901951 0.01502466781
518.125 0.1159866957 0.116410789
518.75 0.06886431467 -0.01963381557
519.375 0.0626385905 0.01545876849
520.0 0.06463359332 -0.02768857105
520.625 0.08047075281 -0.0304551738
521.25 0.04787063474 -0.04981693923
521.875 0.06489909473 -0.008138204648
522.5 0.06037297547 -0.05983801045
523.125 0.07617106019 -0.1480615566
523.75 0.02809630475 -0.2076379605
524.375 0.09639236629 -0.1906563514
525.0 0.03104262971 -0.07023615022
525.625 0.008053558618 -0.04400899689
526.25 0.02148919917 -0.02974584251
526.875 0.01669064534 -0.04140894024
527.5 0.0007838789893 -0.04704727681
528.125 -0.01256775185 -0.03091546821
528.75 -0.01941546361 -0.03508569248
529.375 -0.06882737785 -0.04132855824
530.0 -0.04641891266 0.03807058896
530.625 0.008655078332 0.02195976024
531.25 -0.04917993486 -0.01888540938
531.875 -0.08808844383 0.005347590242
532.5 -0.0676628525 0.05895140009
533.125 -0.05897968058 0.04907825486
533.75 -0.04270378272 0.04825805462
534.375 -0.07439598915 0.05580709732
535.0 -0.04905886937 0.07047150092
535.625 -0.03764146086 0.04201070927
536.25 -0.004769571408 0.04120219647
536.875 -0.01969007038 0.02654127014
537.5 -0.03446372107 0.01857513955
538.125 -0.04278065515 0.03499279909
538.75 -0.04201546633 0.07249613779
539.375 -0.03658941243 0.05904361728
540.0 -0.03122195968 0.04008314563
540.625 -0.04382878345 0.02287501481
541.25 -0.08612799269 0.03128005196
541.875 -0.05581628456 0.01795799755
542.5 -0.04009759862 0.002322313207
543.125 -0.06523971529 0.02821192803
543.75 -0.03747473763 0.1033464837
544.375 0.007041653778 0.1125752147
545.0 0.06904829078 0.0496759202
545.625 0.08150078966 0.006387906252
546.25 0.07543599787 -0.006174049563
546.875 0.09983467695 -0.01536526251
547.5 0.0877452647 -0.01441101788
548.125 0.09791343361 0.004092140461
548.75 0.1003575642 0.04272835243
549.375 0.1058398539 0.03354519132
550.0 0.09558102765 0.06977681721
550.625 0.06948773169 0.06552436266
551.25 0.02259830574 0.04187131187
551.875 0.007090293886 0.03175525341
552.5 0.004671632729 0.02124447754
553.125 -0.01326779093 0.03835032748
553.75 -0.01447010226 0.02667045813
554.375 0.003546765586 0.04785885719
555.0 0.01823725353 0.05130429682
555.625 0.02603002259 0.05030827891
556.25 -0.001948282531 0.05318078795
556.875 -0.00341689401 0.07740174458
557.5 -0.02005764853 0.07947643113
558.125 -0.02025221396 0.08068386087
558.75 -0.04182359795 0.0700753022
559.375 -0.004504254705 0.09330650005
560.0 0.01436606655 0.07084706544
560.625 0.02222883144 0.04084528818
561.25 0.01092473033 0.02666133695
561.875 0.01847910286 0.05445023575
562.5 0.009928214299 0.0590621698
563.125 0.01665829974 0.05136773185
563.75 0.03584712224 0.05468781119
564.375 0.0835453951 0.05303400304
565.0 0.07170359485 0.05133721881
565.625 0.07850761266 0.02920391811
566.25 0.06254009046 0.03638660228
566.875 0.07594597017 0.05718052437
567.5 0.02152011241 0.0708219986
568.125 0.005592293701 0.06430782386
568.75 -0.00591569351 0.07781761331
569.375 -0.006753872376 0.0696549781
570.0 -0.003686984769 0.04005146749
570.625 0.009602058528 0.02952851535
571.25 0.01266457979 0.04372402317
571.875 0.02352119327 0.03992912931
572.5 0.01394081759 0.01823656765
573.125 0.003106919945 0.03160509571
573.75 0.04581859638 0.05892508356
574.375 0.07433958237 0.04493272256
575.0 0.05665974478 0.03378059887
575.625 0.03295260685 0.04446626651
576.25 0.04113305617 0.07091376342
576.875 0.06757649433 0.0434569909
577.5 0.07524469749 0.02382932795
578.125 0.080537036 0.004932899367
578.75 0.09002619221 0.0103514556
579.375 0.09456974103 -0.01135757288
580.0 0.07753390314 -0.008453258303
580.625 0.06300566155 -0.01889428953
581.25 0.04293571889 -0.00654736778
581.875 0.01930621621 0.01901484325
582.5 0.01517805312 0.04661512376
583.125 0.02814063919 0.0571489707
583.75 0.04466895426 0.04662308628
584.375 0.03733520649 0.03912831746
585.0 0.05020876346 0.02319633121
585.625 0.0394502398 0.04577871179
586.25 0.03921923932 0.05059968428
586.875 0.03764902064 0.04357031697
587.5 0.02231735906 0.06284427045
588.125 0.03677981604 0.05697448897
588.75 0.05880622535 0.04009722862
589.375 0.06496750624 0.001784673165
590.0 0.05388918581 -0.04559260074
590.625 0.02555322944 -0.02186582734
591.25 0.02130054304 -0.004909280298
591.875 0.04038797772 -0.0008353376303
592.5 0.03035523544 -0.03919398419
593.125 0.07847163899 -0.0202984799
593.75 0.06857673608 0.01610057305
594.375 0.06013857407 0.06093781203
595.0 0.03816379788 0.0703214305
595.625 0.01685521736 0.06058384291
596.25 2.456205556e-05 0.05416423603
596.875 -0.007863023886 0.06658918752
597.5 0.03294922655 0.06312865128
598.125 0.01645629787 0.06512809189
598.75 0.02797640732 0.05775790119
599.375 0.03139360997 0.0435225673
600.0 -0.005648138007 0.02028227256
600.625 -0.03455891628 -0.00106798171
601.25 -0.05946936217 0.007917885494
601.875 -0.07734287459 0.006400277025
602.5 -0.04375450175 0.03031758524
603.125 -0.06186127375 0.02770754162
603.75 -0.07429621162 0.03052794752
604.375 -0.06403913991 0.0287069982
605.0 -0.03234475568 0.03156646466
605.625 -0.0570898871 0.01256810656
606.25 -0.07922965277 0.007722012198
606.875 -0.08710303752 0.003185393168
607.5 -0.05873106221 0.01642359718
608.125 -0.04042702357 0.01057396262
608.75 -0.0328153304 -0.01537389034
609.375 -0.02753700777 -0.02747340229
610.0 -0.01032452586 -0.004136923633
610.625 -0.01080812505 -0.0446426792
611.25 -0.003751193531 -0.05841354074
611.875 -0.009289869112 -0.06342115945
612.5 -0.01567421493 -0.06709171354
613.125 -0.02075873853 -0.03047903046
613.75 -0.01611511213 -0.04529648099
614.375 0.004145795657 -0.04185267228
615.0 0.01058771765 -0.05566896659
615.625 0.001500516386 -0.01451331633
616.25 0.004730153685 -0.02814300436
616.875 0.02060008763 -0.0327817687
617.5 0.02685804838 -0.04159387247
618.125 0.02596127954 -0.002161924771
618.75 0.02228061082 -0.01862946563
619.375 0.04444666418 -0.02898851885
620.0 0.0557954184 -0.04321178284
620.625 0.05382942847 -0.04258037029
621.25 0.06296544971 -0.06675170587
621.875 0.04012535001 -0.06844349714
622.5 -0.01719167732 -0.068989274
623.125 -0.01887337507 0.00495491993
623.75 -0.009345692153 0.001767191849
624.375 0.02373443713 -0.01411397839
625.0 0.03215775094 -0.003264442126
625.625 0.002424375579 0.03161167857
626.25 0.03696516931 0.01914910223
626.875 0.07150868924 0.02790808396
627.5 0.06859956662 0.04505047858
628.125 0.05070564445 0.0408626882
628.75 0.0450074809 0.05349870636
629.375 0.06905123297 0.05692053223
630.0 0.05389620219 0.05422274918
630.625 0.04613844229 0.04450730765
631.25 0.0349353112 0.03541224091
631.875 0.0389311102 0.0461357269
632.5 0.02081831447 0.03280278897
633.125 -0.005210141405 0.02555783769
633.75 -0.04977254115 0.01835249387
634.375 -0.03211764284 0.03049906804
635.0 -0.02106692272 0.03882279802
635.625 -0.01436191704 0.05295507476
636.25 -0.04219874201 0.06114795238
636.875 -0.002508532903 0.05430973687
637.5 -0.006966670404 0.0435774245
638.125 -0.03416311238 0.05320563715
638.75 -0.04072700995 0.06764154197
639.375 -0.05889116627 0.04034200779
640.0 -0.04450145239 0.02618619821
640.625 -0.03938353377 -0.003076221011
641.25 -0.04244180015 -0.01763784916
641.875 -0.04460878487 -0.03230317467
642.5 -0.04867337285 -0.0130917932
643.125 -0.04414294254 -0.01705599736
643.75 -0.0318899769 -0.04324782885
644.375 -0.04628288771 -0.04439098987
645.0 -0.06696033828 -0.02605657118
645.625 -0.05885474883 -0.03625536677
646.25 -0.0416747646 -0.02424823054
646.875 -0.01026093172 -0.06345274176
647.5 -0.03353343503 -0.0594983389
648.125 -0.03908296324 -0.04895367448
648.75 -0.02278516129 -0.02810347228
649.375 0.01460562423 -0.04560082273
650.0 0.03096690549 -0.04682334427
650.625 0.01965096763 -0.04860902522
651.25 0.03819521584 -0.03448924062
651.875 0.07727327134 -0.01625456415
652.5 0.07660259514 0.0005786482606
653.125 0.09086362393 0.01575014932
653.75 0.07837501873 0.03182616804
654.375 0.08735149354 0.05488988371
655.0 0.07620087959 0.03703513296
655.625 0.0537227774 0.02042445356
656.25 0.03544611395 0.01031441864
656.875 0.05503228455 0.03854567946
657.5 0.03329977726 0.03040276205
658.125 0.01220837241 0.02860204878
658.75 -0.006319001963 0.05277845008
659.375 0.02446061221 0.08007143466
660.0 0.06740639668 0.09512943731
660.625 0.07829152498 0.04229346897
661.25 0.08518772578 0.01566472298
661.875 0.09013325323 -0.0160784124
662.5 0.09489933146 -0.03733996593
663.125 0.06695492762 -0.03737508326
663.75 0.06632453345 0.002942562729
664.375 0.02285301771 0.05512959526
665.0 -0.02249094298 0.03880421278
665.625 -0.03019466053 0.02996071811
666.25 -0.04314139344 0.02464464091
666.875 -0.09994755483 0.03265934133
667.5 -0.09007940151 0.001903279154
668.125 -0.06820271289 0.015162605
668.75 -0.08589511698 0.03019328388
669.375 -0.1125089138 0.01371197546
670.0 -0.06884160264 -0.007549357089
670.625 -0.05705290942 -0.004771452263
671.25 -0.07120077068 0.001865609122
671.875 -0.08207787656 0.01275521171
672.5 -0.04470971504 0.02618984796
673.125 -0.02327254936 0.03185460019
673.75 -0.04453729562 0.05003772015
674.375 -0.06760731327 0.07729057907
675.0 -0.07354112152 0.04491265436
675.625 -0.07232149077 0.01220676415
676.25 -0.07522417159 -0.04797159058
676.875 -0.09176530148 -0.07237625597
677.5 -0.0973463899 -0.06091405039
678.125 -0.08691692273 -0.02868134724
678.75 -0.05432404978 -0.03064700481
679.375 -0.04544758411 -0.02859019487
680.0 -0.04122582276 -0.0087991995
680.625 -0.04867878264 0.004032887887
681.25 -0.06853842226 -0.001795452496
681.875 -0.0409702521 -0.02444358658
682.5 -0.08656028337 -0.01105862381
683.125 -0.1154374979 -0.03473143121
683.75 -0.08104516071 -0.05369377695
684.375 -0.02929441112 -0.08433036027
685.0 0.03042019158 -0.09836471989
685.625 0.08329604307 -0.07755790089
686.25 0.07528309238 -0.06076535054
686.875 0.08030788767 -0.05167191684
687.5 0.08472120182 -0.01781419893
688.125 0.04792350767 0.01071346207
688.75 0.02348450162 0.02580879444
689.375 0.02307123151 0.0701598398
690.0 -0.006162849873 0.08991590608
690.625 0.006561136475 0.1028115938
691.25 0.03550370518 0.09187234088
691.875 0.1127315469 0.05575234126
692.5 0.1442810376 -0.03093090626
693.125 0.03856686947 -0.1212438926
693.75 -0.02314730763 -0.07530524245
694.375 -0.02557684574 -0.06910547089
695.0 0.03187041574 -0.09725605883
695.625 0.07010025675 -0.01233659903
696.25 0.05582863539 0.05491785683
696.875 -0.03529742833 0.08644340914
697.5 -0.08182234694 0.01162177826
698.125 -0.103597581 -0.006579312439
698.75 -0.1234503952 0.03930372553
699.375 -0.08741476461 0.01003493651
700.0 -0.08582546868 -0.0002011943181
700.625 -0.09045547808 -0.01387913241
701.25 -0.1146473215 -0.005392187821
701.875 -0.06995270364 -0.008081811536
702.5 -0.04885667829 -0.0007079299822
703.125 -0.07058476398 0.006228673606
703.75 -0.0416700951 0.1231556637
704.375 -0.01232061218 0.1522573275
705.0 0.001654702163 0.08971836278
705.625 -0.02046188174 0.09047103687
706.25 -0.0852425731 0.08615239499
706.875 -0.1321863683 -0.02548693866
707.5 -0.08646127266 -0.05713166823
708.125 -0.05553649228 -0.0749272291
708.75 0.003920780623 -0.07742721166
709.375 0.06528293185 -0.0469005672
710.0 0.07155692214 0.009815061957
710.625 0.03739694938 0.03999031692
711.25 0.004873406522 0.06238159708
711.875 -0.02207686996 0.08585318562
712.5 -0.003008823047 0.1122575612
713.125 0.1031058729 0.09061977755
713.75 0.1164090034 -0.03942938772
714.375 0.0006763056768 -0.1246567334
715.0 -0.05690061177 -0.107101949
715.625 -0.0008622253492 -0.1136492263
716.25 0.03776860879 -0.08229038115
716.875 0.04286224933 -0.05680102106
717.5 0.06705515161 -0.01461552104
718.125 0.07219849276 0.04140402886
718.75 0.02693916218 0.07915774034
719.375 -0.01388903665 0.07170626829
720.0 -0.0402798804 0.06355060322
720.625 -0.1044266837 -0.03317876979
721.25 -0.006069565691 -0.111074841
721.875 0.06388428083 -0.09044157909
722.5 0.07557130332 -0.07451608767
723.125 0.04514637801 -0.06694110756
723.75 -0.01011470823 -0.0720031582
724.375 -0.04258499019 -0.06881382696
725.0 -0.04950076164 0.02404382753
725.625 -0.05022867987 0.008737345602
726.25 -0.07323458427 -0.02979046756
726.875 -0.08494753924 -0.08537015296
727.5 -0.06860497698 -0.08140973887
728.125 -0.0255886921 -0.08966012054
728.75 -0.02003455958 -0.08087358971
729.375 -0.03628483916 -0.08495607161
730.0 -0.02758804103 -0.09054697366
730.625 -0.04191495905 -0.03443507336
731.25 -0.01545294041 -0.04843855729
731.875 0.05585311129 -0.05013435977
732.5 0.07325109576 0.01275402487
733.125 0.04125309911 0.0522456403
733.75 0.04769947698 0.06978038503
734.375 0.05396487847 0.08832955418
735.0 0.08496171926 0.06444241953
735.625 0.04144243899 -0.007985874623
736.25 0.04934867468 -0.03751063928
736.875 0.06442341699 -0.03354367495
737.5 0.04325636331 -0.02483132534
738.125 -0.001764974136 0.001490015175
738.75 0.02837673536 0.05356529083
739.375 0.03500150569 0.1023439464
740.0 0.06529839347 0.07052700598
740.625 0.06706536554 0.03905032023
741.25 0.02291800204 0.0768130368
741.875 -0.02735526774 0.05667791862
742.5 -0.07515680403 0.004511585022
743.125 -0.0369675682 -0.07745684138
743.75 0.0377664129 -0.05911171855
744.375 0.02974385315 -0.08451410997
745.0 -0.02131118603 -0.08418230363
745.625 -0.06348602444 -0.04399755042
746.25 -0.006124564003 -0.01609729245
746.875 0.004505541016 -0.01977730587
747.5 -0.02488903129 -0.03141218568
748.125 -0.05492183996 -0.01503302419
748.75 -0.04408368465 0.001073244772
749.375 -0.04771998528 0.04599451983
750.0 0.02299168714 0.09123013364
