!Created with skrf (http://scikit-rf.org).
# GHz S RI R 50.0 
!freq ReS11 ImS11
500.0 -0.03937527772 0.03105933192
500.625 -0.01394402934 0.03727795067
501.25 0.005877088062 0.05614665396
501.875 -0.003584368807 0.07433796651
502.5 -0.01737702541 0.0776936097
503.125 0.00936467024 0.0609110916
503.75 0.05364694994 0.05625506564
504.375 0.06025888796 0.02894480893
505.0 0.06162227003 0.0140973527
505.625 0.08303907486 -0.0008062582783
506.25 0.0720033657 -0.006603749861
506.875 0.073905946 0.02147366652
507.5 0.03351669295 0.06591508956
508.125 0.04676806133 0.05670142988
508.75 0.06892471587 0.007837024847
509.375 0.07128468634 -0.01249139913
510.0 0.0783078537 0.07467322186
510.625 0.04348605596 -0.03937330635
511.25 0.01265580871 -0.05239677078
511.875 -0.01099902755 -0.03726797909
512.5 0.01920633361 -0.02254842637
513.125 -0.01716728751 -0.03236248715
513.75 -0.05374251264 -0.01454595072
514.375 -0.07153367535 0.01843319257
515.0 -0.06442839898 0.06851734878
515.625 -0.1031125188 0.04444482772
516.25 -0.04716730711 0.08171993101
516.875 -0.09092445165 0.0307590577
517.5 -0.03471122633 -0.007747315962
518.125 -0.04682189587 -0.007134217713
518.75 -0.04476465118 0.009054397659
519.375 -0.06271546522 -0.02220416072
520.0 -0.02863526521 0.02928592587
520.625 -0.005876841119 0.03982143227
521.25 -0.00512449127 0.04298611376
521.875 -0.02346316557 0.02478770857
522.5 -0.001266593183 0.01902837656
523.125 0.01303457871 0.01211339877
523.75 -0.08438177079 -0.01193361042
524.375 -0.1180084104 -0.05680218002
525.0 -0.07029088053 -0.01759353376
525.625 -0.06867437386 0.02425305291
526.25 -0.07461631262 0.01292302087
526.875 -0.07682208623 0.01168893567
527.5 -0.04046392721 0.04205017102
528.125 0.01352841237 0.06637845015
528.75 0.003869235675 0.06576594799
529.375 0.006804119761 0.08724688304
530.0 0.07963161039 0.06941443151
530.625 0.1428783157 -0.03434382501
531.25 0.1503962048 -0.0401900368
531.875 0.1076228046 -0.04114254534
532.5 0.08397444899 -0.06941556611
533.125 0.05350584039 -0.07353971732
533.75 0.05174601187 -0.04843419352
534.375 0.05485857098 -0.03133641049
535.0 0.03637283611 -0.03616906391
535.625 0.06540974844 -0.0125823549
536.25 0.0628288054 -0.0330163454
536.875 0.1008877727 -0.05531751508
537.5 0.0934763374 -0.03070843786
538.125 0.04828099641 -0.02433578037
538.75 0.0487904842 -0.01072878724
539.375 0.1240809316 -0.01996331798
540.0 0.1330199688 -0.03432832434
540.625 0.09177783101 -0.03804869332
541.25 0.06853270058 -0.0199571177
541.875 0.1265636701 -0.02960811768
542.5 0.08529241918 -0.01420447532
543.125 0.01408957771 -0.02576314618
543.75 0.01034352753 -0.003678606184
544.375 0.0643520093 -0.03223868936
545.0 0.02496425548 -0.0601520208
545.625 -0.01882680748 -0.05001730824
546.25 -0.04496866982 -0.04248811131
546.875 -0.05429241709 -0.0468503823
547.5 -0.03809601357 -0.06874772333
548.125 -0.02078642073 -0.06862373291
548.75 0.009900168781 -0.08343997311
549.375 0.04491498476 -0.131367584
550.0 0.08863734375 -0.06112745089
550.625 0.07827611527 -0.07484074711
551.25 0.1261760594 -0.05787383084
551.875 0.1094318173 -0.0822449319
552.5 0.06371393476 -0.08237371457
553.125 0.01361751813 -0.0848574922
553.75 0.03566087 -0.08892374488
554.375 0.03074131012 -0.07188312639
555.0 0.01038950881 -0.04707531725
555.625 -0.0007351610831 -0.05132409133
556.25 0.02898964367 -0.06777938274
556.875 0.02373048111 -0.03726431052
557.5 0.0262463286 -0.0414607555
558.125 0.04413080442 -0.03443266653
558.75 0.06344135554 0.008011823388
559.375 0.08638000455 0.004866594368
560.0 0.0913259344 -0.00228000232
560.625 0.08378669675 -0.04076763652
561.25 0.06535054136 -0.05414902792
561.875 0.0376126546 -0.06699881448
562.5 0.006930643284 -0.07997868747
563.125 -0.009923690717 -0.05384400102
563.75 -0.00862514039 -0.04018442474
564.375 -0.01817206677 -0.04239374613
565.0 0.0006311424188 -0.06461664781
565.625 0.02014860788 -0.06328175059
566.25 0.03964664142 -0.05657498675
566.875 0.03649859607 -0.05759577921
567.5 0.05171637373 -0.07684739861
568.125 0.0767223469 -0.02323894158
568.75 0.07090456183 0.009549937109
569.375 0.09372758398 0.001014120637
570.0 0.1224669363 -0.03726601471
570.625 0.08197800041 -0.03285986706
571.25 0.07584506735 -0.04424590198
571.875 0.06456568532 -0.06305678461
572.5 0.03468877091 -0.1112829194
573.125 0.0006284886467 -0.06142144712
573.75 0.002036950526 -0.03841090804
574.375 0.0190408545 -0.06779235985
575.0 -2.509496203e-05 -0.08584944729
575.625 -0.01291996926 -0.04230971453
576.25 -0.01499762732 -0.04071774068
576.875 -0.02461510604 -0.06943157967
577.5 0.01999491632 -0.05131288078
578.125 0.02173405544 -0.04519720026
578.75 0.01078965238 -0.07035823776
579.375 0.02949395176 -0.08973843697
580.0 0.02867243893 -0.1025187535
580.625 0.02058358631 -0.09394111221
581.25 -0.01216429791 -0.1114200357
581.875 -0.01176819025 -0.09329309124
582.5 -0.01670800648 -0.08180096741
583.125 0.00593935286 -0.05818644858
583.75 0.02248651165 -0.06224322512
584.375 0.03485172955 -0.06554861784
585.0 0.02982610605 -0.0529554541
585.625 0.0356235815 -0.04725963228
586.25 0.05661663574 -0.03352401867
586.875 0.05308641259 -0.03717122692
587.5 0.0175527359 -0.0573649676
588.125 0.01853006056 -0.06699234962
588.75 0.04878657403 -0.06239533447
589.375 0.02296571707 -0.0893632917
590.0 -0.04530501595 -0.08690701747
590.625 -0.07512425195 -0.07142660288
591.25 -0.03587762113 -0.04478942947
591.875 -0.01101304704 -0.03047412794
592.5 -0.01195910312 -0.03417694729
593.125 -0.005477029889 -0.06417741011
593.75 0.02619706277 -0.05856720035
594.375 0.04360212214 -0.04186748199
595.0 0.03617397079 -0.04966434482
595.625 0.0815571392 -0.03626069979
596.25 0.07844882207 -0.01179135863
596.875 0.06884890856 -0.004509460311
597.5 0.07339192384 0.002411658478
598.125 0.08478119422 0.0001856236623
598.75 0.08758204327 -0.01146543584
599.375 0.09458266416 -0.02406948736
600.0 0.07217474083 -0.0598396547
600.625 0.06605843237 -0.03594342528
601.25 0.04007800079 -0.01361216307
601.875 0.04418413105 -0.01210086295
602.5 0.04371410154 -0.007613886232
603.125 0.03029067476 0.02913414338
603.75 0.02761393111 0.03728622698
604.375 0.04989441187 0.03316560422
605.0 0.04868844053 0.0592532968
605.625 0.03014389601 0.01114206222
606.25 0.003878111197 0.034146219
606.875 -0.008316027427 0.07224395959
607.5 0.004108084658 0.09712061312
608.125 0.04024662397 0.0325194228
608.75 0.03300187462 0.06641617357
609.375 0.03350022118 0.06799608558
610.0 0.009995007308 0.07870832529
610.625 0.03456956547 0.02316386628
611.25 0.01445622396 0.03565672602
611.875 -0.01845639217 0.02847475277
612.5 -0.04310640427 0.0141923493
613.125 -0.03448798812 0.01490726215
613.75 -0.06722005415 0.03236123255
614.375 -0.07183615308 0.01793380816
615.0 -0.0521931959 0.0226247545
615.625 -0.04643911338 0.02160014182
616.25 -0.04532870623 0.009932842899
616.875 -0.07512500711 0.02266353506
617.5 -0.05250463169 0.02255086034
618.125 -0.02554610316 0.0133778087
618.75 -0.04749175295 0.002527764686
619.375 -0.0538199702 -0.01291407085
620.0 -0.03108817468 -0.008425873881
620.625 0.001486349399 -0.0247991584
621.25 -0.02725144915 -0.04303633182
621.875 -0.05785540737 -0.07486082758
622.5 -0.1020117001 -0.003753197297
623.125 -0.09642894415 0.02747507629
623.75 -0.08264369804 0.008517480618
624.375 -0.08039228044 -0.01070202044
625.0 -0.05644372003 -0.03254187436
625.625 -0.0677014089 -0.03467926545
626.25 -0.0006377939556 -0.006260153113
626.875 -0.007584343233 -0.002325839747
627.5 -0.003305455206 -0.03179849941
628.125 0.00391339632 -0.04859075595
628.75 0.0445998412 -0.01270388087
629.375 0.04141636285 -0.01786302203
630.0 0.04203483994 -0.05240289129
630.625 0.07111204079 -0.03731117928
631.25 0.07712597332 -0.007828663296
631.875 0.06848847328 -0.02727882507
632.5 0.07157002705 -0.05093901958
633.125 0.06301294497 -0.04470617085
633.75 0.04463817245 -0.01789229163
634.375 0.04797562686 -0.04177367661
635.0 0.04580239733 -0.0574460485
635.625 0.0308575003 -0.02354949712
636.25 0.03764686165 -0.02140027764
636.875 0.08076466984 0.02482124912
637.5 0.05054160063 -0.01179123082
638.125 0.03596711153 -0.01871463508
638.75 0.0344867429 0.01356584268
639.375 0.0396010273 0.08146701993
640.0 0.03729236301 0.06929854141
640.625 0.0491826253 0.05160946425
641.25 0.0431482628 0.04075549081
641.875 -0.01145652365 0.07778529583
642.5 -0.02130122185 0.06230406958
643.125 -0.009737185962 0.05478220993
643.75 -0.001885674047 0.05157940975
644.375 -0.06431902375 0.06372859191
645.0 -0.06353081398 0.0482096104
645.625 -0.02351346281 0.06934646148
646.25 -0.01172505009 0.08104176965
646.875 -0.02854509443 0.0731982544
647.5 -0.01526221957 0.06109718271
648.125 -0.0195226744 0.06927023432
648.75 -0.05357761878 0.06964685086
649.375 -0.04686270018 0.05573387039
650.0 -0.04344571747 0.03695458633
650.625 -0.0545222854 0.01141095112
651.25 -0.04898439046 -0.0204393962
651.875 -0.02648513702 -0.02596310143
652.5 -0.003212007197 -0.06228586795
653.125 0.02511002053 -0.07096970108
653.75 0.05729264408 -0.07287339455
654.375 0.08326084292 -0.06254805421
655.0 0.06646714511 -0.07217818111
655.625 0.04375642917 -0.0967590116
656.25 0.05533332668 -0.08332972604
656.875 0.02104444381 -0.0721299747
657.5 0.05170507874 -0.101717571
658.125 0.04515409349 -0.08407184567
658.75 9.573151558e-05 -0.06441625683
659.375 0.005934565024 -0.02980504791
660.0 0.02462496898 -0.05886937625
660.625 0.02406901906 -0.06444235266
661.25 0.004950454808 -0.06310761293
661.875 0.001394770441 -0.06902515719
662.5 -0.02121574834 -0.1230247964
663.125 -0.01332731602 -0.1164789601
663.75 0.01210284337 -0.09197733498
664.375 0.06649092075 -0.07020233637
665.0 0.1350624792 -0.04029388452
665.625 0.08317431591 -0.01365207515
666.25 0.06362510078 0.008134023295
666.875 0.07049600579 0.04846057439
667.5 0.04472915323 0.06767227421
668.125 0.01093793733 0.04969720481
668.75 0.004724397844 0.06227828363
669.375 0.0237283547 0.08380440773
670.0 0.0268601597 0.1224955526
670.625 0.004749858393 0.0782304478
671.25 0.02194583735 0.07810040179
671.875 0.05743479746 0.08358086958
672.5 0.1233027576 0.06830250465
673.125 0.0877963954 0.01760435846
673.75 0.05459622687 0.01695684988
674.375 0.05639314819 0.05556315615
675.0 0.02072136795 0.06474731239
675.625 0.002912712473 0.06349338088
676.25 -0.03810763918 0.06636242978
676.875 -0.07803111521 0.05642942714
677.5 -0.07848540118 0.05938815367
678.125 -0.07108077106 0.08255019009
678.75 -0.07955419346 0.103552712
679.375 -0.09142867554 0.06591729228
680.0 -0.07553126868 0.07122985397
680.625 -0.04684039946 0.07690358903
681.25 -0.01504168279 0.07852286487
681.875 -0.02821531921 0.06035197931
682.5 -0.02350426195 0.04340263714
683.125 -0.01834502156 0.07681821524
683.75 -0.0490674057 0.07866109022
684.375 -0.08737536497 0.04178380484
685.0 -0.07970741351 -0.04315498814
685.625 -0.08349358937 -0.09813848747
686.25 -0.02696775261 -0.1428913886
686.875 0.00140050758 -0.1191099338
687.5 0.02912244765 -0.1260523092
688.125 0.04433241165 -0.1485227718
688.75 0.05421567909 -0.07865987992
689.375 0.0317630631 -0.04525866078
690.0 0.05709128867 -0.04407940414
690.625 0.0978712071 -0.06275752294
691.25 0.06982553356 -0.02854096056
691.875 0.04618088536 -0.04599513271
692.5 -0.01088513341 -0.1172389332
693.125 -0.1354526043 -0.08908369317
693.75 -0.1747478767 0.01205769862
694.375 -0.1164844259 0.03225434204
695.0 -0.106367377 -0.01006172937
695.625 -0.06734773612 -0.1084153213
696.25 0.06335511888 -0.1111577866
696.875 0.08001716016 -0.01104100023
697.5 0.06454202166 0.04025800894
698.125 0.0312227278 0.07752936025
698.75 0.02162454891 0.0970472436
699.375 0.02297046999 0.1164560204
700.0 -0.01207499299 0.09139057002
700.625 -0.03933043754 0.09108246112
701.25 -0.02717890951 0.1179175974
701.875 -0.01723795346 0.1482624389
702.5 0.02190570478 0.09327282922
703.125 0.03688539807 0.0500801214
703.75 0.05621233696 0.02023469362
704.375 0.1162489779 -0.01367100277
705.0 0.1372854441 0.01935155908
705.625 0.06291150443 0.05454469059
706.25 0.02723114105 0.08764960889
706.875 -0.02991141427 0.1291000107
707.5 -0.1425933966 0.05287054438
708.125 -0.1054435842 -0.02454801024
708.75 -0.0922335795 -0.05384697702
709.375 -0.07195843189 -0.0954387717
710.0 0.03541305531 -0.09121732703
710.625 0.05565725349 -0.0548934082
711.25 0.06717193024 -0.04730493636
711.875 0.03808591249 -0.07872041693
712.5 0.03790267651 -0.04530691236
713.125 0.05400166537 -0.06597258062
713.75 -0.02397648725 -0.1328269279
714.375 -0.100214565 -0.08690685079
715.0 -0.1152157491 -0.03078988429
715.625 -0.1308175401 -0.02787501664
716.25 -0.1185142669 -0.1042418026
716.875 -0.02749420281 -0.1166499352
717.5 -0.01138728274 -0.09686491663
718.125 0.04990802623 -0.08566026188
718.75 0.09218749925 -0.04702592646
719.375 0.09103433861 -0.0102207265
720.0 0.05809838359 0.02594338459
720.625 0.03283843798 0.04275960033
721.25 -0.08970008068 0.01597915644
721.875 -0.08796991951 -0.07866356164
722.5 -0.09036705337 -0.05727164936
723.125 -0.1313109049 -0.02383534734
723.75 -0.1273551114 0.01987911207
724.375 -0.07387113427 0.09616445768
725.0 0.01870320489 0.1011546095
725.625 0.05215080367 0.05464538813
726.25 0.03168774711 0.04177981536
726.875 -0.008727939113 0.05882315879
727.5 -0.07921247765 0.07621996615
728.125 -0.05066726762 0.06144727761
728.75 -0.0975284768 0.03503277951
729.375 -0.08075213152 0.05657590092
730.0 -0.08677264788 0.07117480397
730.625 -0.104204479 0.02644537024
731.25 -0.06296999031 0.003179978824
731.875 -0.06122321518 -0.0605494525
732.5 -0.01251930416 -0.08010737228
733.125 0.04978303139 -0.06321202002
733.75 0.01864750444 -0.01637701675
734.375 0.0791280595 -0.0594255255
735.0 0.04517584095 -0.1087150258
735.625 -0.006263508898 -0.07731987559
736.25 -0.007864734057 -0.09351666498
736.875 -0.02511000487 -0.1240021081
737.5 -0.02509096428 -0.1032078095
738.125 -0.0006867205612 -0.07627580067
738.75 0.006223655756 -0.009408430028
739.375 0.08835332346 -0.00685003683
740.0 0.08045098156 -0.02699108578
740.625 0.04538349023 -0.07286332244
741.25 0.01769170046 -0.009156118634
741.875 0.08021280026 0.01143546942
742.5 0.0007455250198 0.08650012804
743.125 -0.0596477502 0.04541018195
743.75 -0.02872372043 -0.02282940665
744.375 -0.05644654287 -0.02767684422
745.0 -0.1216205796 -0.02911919913
745.625 -0.1017295849 0.03966705164
746.25 -0.04363526251 0.04749672723
746.875 -0.0156565521 0.06790623609
747.5 -0.009535505018 0.04470226033
748.125 -0.01202840324 0.02846553965
748.75 0.01308815216 0.04740164712
749.375 0.008462710044 0.04984253892
750.0 0.04612422888 0.005943754228
