!Created with skrf (http://scikit-rf.org).
# GHz S RI R (50+0j) 
!freq	ReS11	ImS11	
500.0	0.5047582181	-0.8474187295	
500.625	-0.1327033357	-1.097876982	
501.25	0.01879834184	-0.2484297604	
501.875	-0.3250782738	-0.6961063739	
502.5	-0.08612164926	-0.05534305492	
503.125	-0.06055726531	-0.04524312832	
503.75	0.05852691558	0.1026399989	
504.375	-0.0009560392293	0.01283393704	
505.0	0.03610631341	-0.05145925936	
505.625	-0.0151536076	0.01711619926	
506.25	0.005121569134	-0.1260209405	
506.875	-0.1083219398	0.2455468065	
507.5	0.2113831635	-0.1432847216	
508.125	0.1319038626	-0.8452849442	
508.75	0.09709346653	-0.5934320378	
509.375	0.3786009359	-1.0500207	
510.0	-0.5565733818	-0.1847505236	
510.625	-0.07512702185	-0.0239191304	
511.25	-0.128513228	-0.1540350875	
511.875	-0.1117737018	-0.002998789341	
512.5	-0.02388756229	0.01268102131	
513.125	0.02510786704	-0.102006262	
513.75	-0.08481650201	0.0208191369	
514.375	0.04242237941	-0.05037998161	
515.0	-0.2664563745	-0.03617975821	
515.625	0.4748109846	-0.2069676607	
516.25	-0.731266189	-0.5724437775	
516.875	-0.0250896717	-0.03058361707	
517.5	0.1000383886	-0.1929126473	
518.125	-0.09413847674	0.01479606434	
518.75	0.01107952193	-0.150326478	
519.375	-0.06472600752	0.04321070331	
520.0	0.08513818637	0.03241269947	
520.625	0.08140802561	-0.01578612151	
521.25	-0.01054920928	-0.1885550063	
521.875	-0.1447235116	0.02958417483	
522.5	-0.01245788632	-0.03260985917	
523.125	-0.1012556428	0.1060997308	
523.75	0.01228393875	0.0260585408	
524.375	-0.2302713596	-0.08200951186	
525.0	0.06482563384	0.2221369542	
525.625	-0.01687164242	-0.03886694137	
526.25	0.03430351748	0.04038759948	
526.875	-0.07584976976	-0.01795876888	
527.5	0.01381508384	0.2374997523	
528.125	0.1202094525	0.1034539433	
528.75	0.04375048195	0.2781072113	
529.375	0.07131945548	0.04969325165	
530.0	0.0272541054	0.1275198417	
530.625	0.01960619609	0.2175444784	
531.25	0.3939616539	0.002358158538	
531.875	0.1355635786	-0.08969056683	
532.5	0.09023375201	-0.1288142985	
533.125	-0.02170925514	0.04787847604	
533.75	0.2481508624	-0.2121276697	
534.375	-0.1527216315	-0.1984917831	
535.0	-0.1199882365	-0.121648857	
535.625	-0.2017853001	0.1101219999	
536.25	0.03459960877	0.07044636098	
536.875	0.05697274711	0.04261033385	
537.5	0.07289917683	-0.06509763631	
538.125	0.05215442587	-0.03892635164	
538.75	0.16104592	-0.1039854227	
539.375	-0.1146549443	-0.1162220435	
540.0	-0.1253248145	-0.1084265568	
540.625	-0.1427308079	-0.04928274829	
541.25	-0.08718102869	0.03585453558	
541.875	0.004046808623	-0.03098096562	
542.5	-0.06552228667	-0.1081300799	
543.125	-0.05481765863	0.03909376405	
543.75	-0.08029723634	-0.07009701656	
544.375	-0.03119806672	0.1044258409	
545.0	-0.04515994049	0.0132026903	
545.625	0.09411450609	0.07708946433	
546.25	0.02752820906	-0.01650097686	
546.875	0.1470952121	0.0296377311	
547.5	0.02228203489	-0.1674471773	
548.125	-0.02975723244	-0.08072270311	
548.75	-0.09248352509	-0.1473088659	
549.375	-0.146622817	-0.04394354447	
550.0	-0.02748593233	-0.001557241947	
550.625	-0.08484005331	0.02319205895	
551.25	-0.03702071619	0.02664373704	
551.875	-0.09052237675	0.05643575996	
552.5	-0.02265951548	0.08967805179	
553.125	-0.02105873863	0.04243881942	
553.75	0.05216973581	0.05053586139	
554.375	0.07734304147	-0.01091544551	
555.0	0.09314068106	-0.05480460531	
555.625	0.07989351039	-0.1027937489	
556.25	0.05241276736	-0.124820949	
556.875	-0.02853407455	-0.1435856231	
557.5	-0.09331372606	-0.09417829453	
558.125	-0.1084322753	-0.02885246263	
558.75	-0.09400968516	-0.003311281402	
559.375	-0.1099042084	0.01913228651	
560.0	-0.07805622339	0.08157017794	
560.625	-0.04521411446	0.08529006878	
561.25	-0.004721087232	0.1174955412	
561.875	0.0460652495	0.01765163053	
562.5	-0.01420036497	0.07064055106	
563.125	0.08942649809	0.03999647038	
563.75	0.09372727198	0.02487890059	
564.375	0.156968224	-0.100725749	
565.0	0.01506718661	-0.1518902945	
565.625	0.009776813194	-0.1217074205	
566.25	-0.1687626064	-0.1656344759	
566.875	-0.1065122138	0.007564770979	
567.5	-0.08791594056	-0.1449867453	
568.125	-0.224768758	-0.1275956269	
568.75	-0.1082128223	-0.04104689745	
569.375	-0.2932976416	0.05763084021	
570.0	-0.0312713795	0.2377302057	
570.625	-0.05991145472	0.07063583656	
571.25	-0.01236921276	0.1947213847	
571.875	0.06153027006	-0.02475764516	
572.5	0.1263595405	0.08509346696	
573.125	0.06913823146	-0.2007961107	
573.75	-0.0257402307	-0.01942812749	
574.375	0.1016845282	-0.09625466057	
575.0	-0.06826893747	-0.03783426661	
575.625	0.1129120313	-0.04428113624	
576.25	0.004567347135	-0.184062872	
576.875	-0.04491464602	-0.05037859711	
577.5	0.08774309053	-0.1345394457	
578.125	-0.1032557713	-0.2236198196	
578.75	-0.09837357754	0.02483432899	
579.375	0.02882984691	-0.1376018474	
580.0	-0.1666892197	-0.01357211996	
580.625	0.08734808347	-0.08633076553	
581.25	-0.1944922834	0.1851855732	
581.875	0.1132652183	0.07092504752	
582.5	-0.07339211915	0.1036541726	
583.125	0.1628002591	0.1626001016	
583.75	0.002500574793	-0.09739623091	
584.375	0.0454623387	0.165013585	
585.0	0.1439573464	-0.04627155827	
585.625	0.05832063585	0.06584897727	
586.25	0.2343791466	-0.05858531778	
586.875	-0.02097399996	-0.1426342992	
587.5	0.06347172873	-0.08818803899	
588.125	-0.04410579967	-0.1926705178	
588.75	-0.04546545911	-0.07112854657	
589.375	0.1626925448	-0.1129849347	
590.0	-0.1519010045	-0.208150702	
590.625	-0.06499812185	0.02219714243	
591.25	-0.1888949792	0.02037356873	
591.875	0.06175539235	0.2562116583	
592.5	-0.03519297746	-0.1012730996	
593.125	0.03771812645	0.1426040358	
593.75	-0.009197661625	0.006149290952	
594.375	0.1925196116	0.1857133325	
595.0	0.2255784106	-0.009641998837	
595.625	0.05421507377	0.06568381213	
596.25	0.198648319	0.1003177135	
596.875	0.1309998605	-0.04823078562	
597.5	0.05819141797	0.09237259773	
598.125	0.2006691626	0.128276908	
598.75	0.137486882	0.01692320832	
599.375	0.1735353113	0.02151541394	
600.0	0.1889324456	-0.1722957496	
600.625	0.04940910718	-0.1974280033	
601.25	0.1017971313	-0.09798743135	
601.875	-0.1230403246	-0.2172838481	
602.5	-0.06809837933	0.0768500704	
603.125	-0.1274558861	-0.07372686511	
603.75	-0.1310915589	0.1834028707	
604.375	-0.01431318558	-0.04020039834	
605.0	-0.1718065198	0.07524653629	
605.625	0.04123130658	0.1073885025	
606.25	-0.2173483655	0.0181222413	
606.875	-0.142096168	0.170445291	
607.5	-0.1313926148	0.09613298771	
608.125	-0.09970882676	0.2048857352	
608.75	0.2275420643	0.1977182373	
609.375	0.1988386018	-0.05439017641	
610.0	0.1778941453	-0.04838375054	
610.625	0.08233769899	-0.2167020583	
611.25	-0.05702833723	-0.1266814684	
611.875	-0.0139093716	-0.1550817711	
612.5	-0.2568695067	0.001161610389	
613.125	-0.06742539215	0.005843681639	
613.75	-0.1925946201	0.147369475	
614.375	0.1578136379	0.1114994231	
615.0	-0.09042941099	0.104608999	
615.625	0.1171449902	0.1379196266	
616.25	0.006622105537	0.02869296436	
616.875	-0.162147166	0.1882957533	
617.5	-0.02538604333	0.09533630804	
618.125	-0.05738998114	0.1464625741	
618.75	-0.03093751495	0.2481812133	
619.375	0.1390420971	0.1193481848	
620.0	0.1980324938	-0.07151476933	
620.625	0.1296493604	-0.09675518766	
621.25	-0.1493052233	-0.2548817203	
621.875	-0.1178278113	-0.05894279675	
622.5	-0.25271716	-0.07208429503	
623.125	-0.003909671029	0.2431350601	
623.75	0.04839651765	0.004871747459	
624.375	0.1227533241	-0.04821499502	
625.0	-0.04612214716	-0.009508360244	
625.625	0.1224826766	-0.07808004931	
626.25	-0.1217615345	-0.1422816881	
626.875	-0.07050183888	-0.0451922549	
627.5	-0.1556685065	-0.08561873137	
628.125	-0.131207172	-0.04547067974	
628.75	-0.04021799436	-0.09755965727	
629.375	-0.03775474842	-0.1412327098	
630.0	-0.1764913346	-0.04328883468	
630.625	-0.1555797127	0.04315820859	
631.25	-0.1660315125	0.1962838824	
631.875	0.05057573733	0.3128783143	
632.5	0.06565632587	0.08902602596	
633.125	0.2675440119	0.1689066272	
633.75	0.1271054951	-0.1683683109	
634.375	0.1001339202	-0.02705969954	
635.0	-0.01493840467	-0.2211199789	
635.625	-0.1127683101	0.01177311077	
636.25	-0.1659090368	-0.04066072542	
636.875	-0.07026066282	0.2120626833	
637.5	0.03385767815	0.008092473518	
638.125	-0.1512169396	0.1015240613	
638.75	0.03098985703	0.1891286572	
639.375	-0.05670972192	0.149369733	
640.0	0.1193392826	0.3108454449	
640.625	0.2558032145	0.06592224845	
641.25	0.1375832647	-0.03067959866	
641.875	0.2650345612	-0.1380416959	
642.5	-0.1360487207	-0.260886228	
643.125	0.02759754079	-0.02399572922	
643.75	-0.2343536809	-0.2019543974	
644.375	-0.08251648191	0.1726278176	
645.0	-0.2831449731	-0.1085931018	
645.625	0.1222703893	0.3387881488	
646.25	0.04720104003	-0.1222164096	
646.875	0.09999827946	0.1776284058	
647.5	0.1045407942	-0.1477223631	
648.125	0.05833222391	0.2066606854	
648.75	0.3814850165	-0.1836535928	
649.375	0.0432638346	-0.2063452618	
650.0	0.2323696026	-0.1415510795	
650.625	0.2239378282	-0.4435770195	
651.25	-0.01460319584	-0.2005795062	
651.875	0.2816162249	0.004032485933	
652.5	0.364088733	-0.1627746736	
653.125	0.1064582809	-0.1981398714	
653.75	0.301223171	-0.03421185047	
654.375	-0.119954566	-0.4267329147	
655.0	-0.1641960872	0.04535686783	
655.625	-0.2531709448	0.01438399397	
656.25	0.1603690792	0.3748578451	
656.875	-0.04090327569	-0.1230381418	
657.5	0.06384050997	0.2757030326	
658.125	0.1780948752	-0.06289339608	
658.75	0.1078520816	0.1990556637	
659.375	0.5003278938	-0.1948628364	
660.0	0.01057138309	-0.2791025642	
660.625	0.2259644635	-0.1860629866	
661.25	0.2172162623	-0.3723372381	
661.875	0.002858706321	-0.25829141	
662.5	0.3170430848	-0.02307149061	
663.125	0.2964532499	-0.3057566749	
663.75	0.04838950863	-0.1980379511	
664.375	0.0814746804	-0.2980956042	
665.0	-0.3457081949	-0.2421125008	
665.625	-0.1888140291	0.1213246062	
666.25	-0.2243622144	0.150999196	
666.875	0.1878717176	0.2894856508	
667.5	0.1010021414	-0.01496145613	
668.125	0.2675834289	0.1295713856	
668.75	0.114319783	-0.2884121153	
669.375	0.06324762857	-0.06529107654	
670.0	0.1233322329	-0.2845265503	
670.625	-0.1791759093	-0.1656277583	
671.25	0.1870365432	-0.0493475577	
671.875	0.1671866713	-0.2695655912	
672.5	0.0805548647	-0.1445079116	
673.125	0.2064184088	-0.03588836455	
673.75	0.2278418904	-0.3318308538	
674.375	-0.06567842689	-0.1626133458	
675.0	0.04343749172	-0.2180310466	
675.625	-0.2575819737	-0.1827010168	
676.25	-0.09288834075	0.05938457897	
676.875	-0.1473013436	-0.1400766084	
677.5	-0.1961202449	0.1309905249	
678.125	-0.03168065711	0.03785839953	
678.75	-0.1398017122	0.2657361747	
679.375	0.3720512038	0.02255646381	
680.0	-0.07500280533	-0.04113236098	
680.625	0.3165258531	-0.03477539153	
681.25	0.03482340789	-0.2035181358	
681.875	0.02113613105	0.3562620114	
682.5	0.4791317065	0.05843866965	
683.125	0.06999735528	-0.09488646545	
683.75	0.2434423551	0.2336063086	
684.375	0.414958172	-0.0529286066	
685.0	0.02141577096	0.03093676446	
685.625	0.3460048139	0.2173552205	
686.25	0.2605247762	-0.1368139466	
686.875	0.1554816532	-0.08516983875	
687.5	0.3428325815	-0.1691055331	
688.125	-0.1225668929	-0.5362314134	
688.75	-0.2568370261	-0.09969693139	
689.375	-0.4203763063	0.1892962791	
690.0	0.2175239493	0.459495118	
690.625	0.04137354786	0.07240632364	
691.25	0.4031517858	0.4902878643	
691.875	0.4695647149	0.05128043088	
692.5	0.3395949272	0.4241507457	
693.125	0.8342542694	0.02907595997	
693.75	0.3497322743	-0.4282270406	
694.375	0.6251586756	-0.1702631142	
695.0	0.5314904206	-0.3980827555	
695.625	0.3172868189	0.060279867	
696.25	0.4060995408	0.2686719698	
696.875	0.5178815016	0.4900912227	
697.5	0.2842937078	0.3678260745	
698.125	0.4588853481	0.2052417439	
698.75	0.5070532135	-0.3244493959	
699.375	-0.4073293583	-0.3653854161	
700.0	-0.2672860384	0.1170129394	
700.625	0.1079175945	0.4837174994	
701.25	0.2079037482	0.03054567977	
701.875	0.1187860414	0.3177811453	
702.5	0.4840306877	0.2350726043	
703.125	0.1848340634	0.07605188268	
703.75	0.4222359049	0.0499904836	
704.375	0.3041496963	-0.3127114811	
705.0	0.1601802828	0.01159666086	
705.625	0.3710703897	0.06558647783	
706.25	0.2004372246	0.1122281853	
706.875	0.1379002135	0.307697811	
707.5	0.2044600451	0.2862928648	
708.125	0.4052160917	0.06506209903	
708.75	0.1419382252	-0.4575523597	
709.375	-0.1131044252	-0.2610707558	
710.0	-0.2004397151	0.2456344434	
710.625	0.06397547624	0.01377219095	
711.25	0.05814519449	0.3845896495	
711.875	0.1795367667	-0.04621989721	
712.5	0.2189596451	0.1405754249	
713.125	0.3260166043	-0.2105773433	
713.75	0.009107151095	-0.191589414	
714.375	0.1235999723	-0.1650050469	
715.0	-0.09583093438	-0.2753060578	
715.625	-0.01766691722	-0.1002791843	
716.25	0.2386564816	-0.1991101695	
716.875	0.2868401883	-0.2968209139	
717.5	0.355641664	-0.003326203629	
718.125	0.6294309301	0.175357394	
718.75	0.7001052904	-0.1962094886	
719.375	0.3544641077	-0.5984743419	
720.0	0.7455823577	-0.4880821863	
720.625	0.02037593976	-0.9881420938	
721.25	0.06233661504	-0.5693848612	
721.875	0.02180561893	-1.273706744	
722.5	-0.9518973903	-0.5427511712	
723.125	-0.1296117868	-0.304096892	
723.75	-0.6076358626	0.4378555929	
724.375	0.2659289386	0.3057569307	
725.0	-0.04112607088	0.2412846533	
725.625	0.209772775	0.6018769695	
726.25	0.3134887397	0.4809787592	
726.875	-0.3171465158	0.6214683455	
727.5	-0.1167433913	1.516203632	
728.125	0.4696737456	1.392392236	
728.75	-0.9202622685	1.713477132	
729.375	-0.6463241162	3.975496756	
730.0	1.08701578	2.849964526	
730.625	-1.67193493	2.681966851	
731.25	-1.441892963	4.008688076	
731.875	-0.2267767745	2.751585566	
732.5	-2.700617808	-1.395174666	
733.125	-3.107814549	0.7448062018	
733.75	-0.1507252996	1.154677812	
734.375	0.1873624991	0.7960766759	
735.0	-0.3887356437	-1.026433629	
735.625	0.007677805746	0.01231870177	
736.25	-0.3687065905	0.544800954	
736.875	0.7287704904	0.4454729472	
737.5	0.2527723195	0.01215889633	
738.125	1.776709806	0.2287466379	
738.75	1.404323608	-1.898812819	
739.375	0.4091960975	-0.927633532	
740.0	3.777140835	1.111621126	
740.625	4.935381002	-3.150981202	
741.25	-1.955467379	-0.8350131696	
741.875	-5.003768176	0.7214822914	
742.5	-1.944605289	0.1310047913	
743.125	1.454056667	-0.1532445872	
743.75	0.08389548552	-1.739533995	
744.375	-0.4550023665	0.315933398	
745.0	-0.1301133613	-0.01739171205	
745.625	0.1149686516	-0.1578063901	
746.25	0.1100191565	-0.02441310692	
746.875	-0.296318064	-0.02196958773	
747.5	0.01497089937	0.3049822503	
748.125	-0.0139155437	0.3213991559	
748.75	0.2120279879	0.535116	
749.375	0.2296118	0.3161160815	
750.0	-0.2907930963	0.05283046019	
