!Created with skrf (http://scikit-rf.org).
# GHz S MA R 50.0 
!freq magS11 angS11
500.0 0.0378453330541 128.75776419
500.625 0.0422126075434 81.5905327716
501.25 0.0433366093276 65.4065523972
501.875 0.0567056758103 70.4464874319
502.5 0.0658475482913 91.5280997893
503.125 0.0620410610539 73.141430147
503.75 0.0584481965926 34.2239001131
504.375 0.0536223314751 19.025639596
505.0 0.0610182896166 -10.4175268183
505.625 0.0724036832435 -5.39302911281
506.25 0.0547769143845 -22.1978958586
506.875 0.0633140937938 -7.88076017098
507.5 0.0528348797979 -3.81216564296
508.125 0.0642008346922 10.4686212786
508.75 0.0668261963193 -32.1867129061
509.375 0.0553901669091 -24.6418054827
510.0 0.0727194075438 16.4999171107
510.625 0.0584722993338 -74.3744052387
511.25 0.058446091128 -108.386203348
511.875 0.0345263320695 -135.882258869
512.5 0.0208319905973 -154.439367204
513.125 0.0256390473137 -178.733646483
513.75 0.0439336354342 150.405662186
514.375 0.0552012219091 140.327857342
515.0 0.0769906691674 134.222180155
515.625 0.0861583846887 147.919315172
516.25 0.0940025961005 91.0333052206
516.875 0.0931309249484 130.452701812
517.5 0.0642063732529 88.0135784427
518.125 0.0533103357106 140.757955496
518.75 0.0290728217442 120.91174113
519.375 0.0460614704262 123.701922689
520.0 0.0533420654133 88.6769392846
520.625 0.0378318856265 80.3207567738
521.25 0.033847414389 64.7145950082
521.875 0.0287477332246 79.731409672
522.5 0.0334701636868 36.3621407123
523.125 0.0368528330354 1.75663153108
523.75 0.0438376900055 -56.3057916054
524.375 0.0532143036326 -123.934952105
525.0 0.0504480484684 176.78474528
525.625 0.0380242296926 148.245653009
526.25 0.0483505220604 148.314978392
526.875 0.0316286556192 131.580602199
527.5 0.0507822570482 110.50209376
528.125 0.0458292149777 68.0202454015
528.75 0.0410128971522 47.6858038609
529.375 0.0364605008409 32.479750589
530.0 0.0531109758551 15.1201915331
530.625 0.0939537616139 -43.4750659032
531.25 0.134037945558 -51.4135820664
531.875 0.11603478513 -77.3258451143
532.5 0.079050047161 -95.9263799118
533.125 0.0606822041846 -84.6561865722
533.75 0.0551521481971 -95.9352228517
534.375 0.0462340940174 -105.156853858
535.0 0.0539232743382 -84.9025300672
535.625 0.039525070298 -36.2084432699
536.25 0.0442265717493 -71.0621697723
536.875 0.0757413593192 -75.9110085528
537.5 0.0771013630738 -74.3812556249
538.125 0.0479948145277 -105.761699132
538.75 0.0306794090718 -95.237800964
539.375 0.0521418952852 -52.4734977678
540.0 0.114900894106 -59.931967837
540.625 0.0797834884951 -76.5431055764
541.25 0.0650715291942 -72.0300027258
541.875 0.0821990682036 -68.9216857506
542.5 0.0783735941988 -78.340746292
543.125 0.0694348106041 -124.205538209
543.75 0.0432196463937 -170.833845471
544.375 0.0143901204223 179.174078404
545.0 0.0285367929371 -147.841236386
545.625 0.0392769264468 173.759237594
546.25 0.0320267646693 145.96274087
546.875 0.0327237724286 154.677563297
547.5 0.0393238308156 153.785679654
548.125 0.0236020395446 143.663792913
548.75 0.0281715113185 -163.914210219
549.375 0.0309114207301 -121.992630897
550.0 0.0421621398963 -87.7379690178
550.625 0.0563162388809 -75.8524090599
551.25 0.07306724244 -53.9910186934
551.875 0.0822847959337 -75.3296794345
552.5 0.0831748003827 -98.5969660728
553.125 0.0719162569682 -116.32451079
553.75 0.0805369469531 -114.960630225
554.375 0.0696254591367 -137.539510798
555.0 0.0739959349505 -149.032909959
555.625 0.0625644127586 -151.239689136
556.25 0.0518878254082 -144.493944288
556.875 0.0532093077386 -151.994726029
557.5 0.0484887451043 -155.577032931
558.125 0.0244046697832 -154.082389941
558.75 0.00427487751666 -113.15348317
559.375 0.0145345432206 -27.3918353451
560.0 0.045883546272 -57.4349275439
560.625 0.0736039607694 -65.3128220205
561.25 0.0665417079624 -89.4845062629
561.875 0.0623178752972 -119.394071475
562.5 0.0731634353541 -148.865293133
563.125 0.0666126766891 -162.352870789
563.75 0.0534804075655 168.811888396
564.375 0.0388788616904 144.864155401
565.0 0.0338990235766 163.668144227
565.625 0.0290103355928 -161.068321414
566.25 0.0318163140198 -128.932037842
566.875 0.0382574557224 -120.026503308
567.5 0.0420733212443 -113.439269759
568.125 0.0220887478294 -97.8343766949
568.75 0.022823721422 -49.1222153316
569.375 0.0470970757789 -34.921362241
570.0 0.0662937959632 -44.8124590069
570.625 0.0600881252172 -65.1991536298
571.25 0.0590360571962 -79.1542233719
571.875 0.0718761396582 -84.8103898562
572.5 0.0853716463469 -117.53356568
573.125 0.0693557488973 -152.657443612
573.75 0.048329475592 175.901102425
574.375 0.0420018142647 -159.361261943
575.0 0.0611456130409 -161.818893554
575.625 0.0539925848668 176.695124663
576.25 0.0443875730678 159.200397864
576.875 0.0314937935137 161.04533834
577.5 0.0288800327532 165.335833208
578.125 0.0178927024942 -157.860498906
578.75 0.0223414542883 -116.667399763
579.375 0.0318056610379 -116.016862475
580.0 0.0393077336801 -117.856684514
580.625 0.0610258912244 -110.823918306
581.25 0.0757288822269 -128.093073308
581.875 0.0733868544368 -146.993025935
582.5 0.0638052210573 -162.424227931
583.125 0.0592551202026 -160.969648435
583.75 0.0457997066792 -129.748534685
584.375 0.0483482139708 -126.344195488
585.0 0.0460280662501 -133.769674544
585.625 0.0413159773618 -129.235587899
586.25 0.0329389927628 -85.1949650178
586.875 0.0354086868254 -100.763290176
587.5 0.035694768109 -135.515767721
588.125 0.0306189131056 -159.470891811
588.75 0.0354743295799 -96.7203413963
589.375 0.04993125148 -115.715028122
590.0 0.0678015312178 -144.668361426
590.625 0.0772701372186 171.276207539
591.25 0.069626842688 165.516866926
591.875 0.0458264379669 156.135457084
592.5 0.028266053147 153.985572201
593.125 0.0298788581711 138.743151308
593.75 0.018233386457 -162.447359353
594.375 0.0202478391759 -131.036450211
595.0 0.0284995008632 -69.7113311063
595.625 0.0261475410095 -81.4072400311
596.25 0.034894044909 -62.8171788336
596.875 0.0431137297641 -47.6772751728
597.5 0.0426154452038 -29.5062213521
598.125 0.0383340322259 -37.1940963263
598.75 0.055510452462 -37.1040577434
599.375 0.0700124036617 -51.6318858485
600.0 0.0761550719132 -54.2943896287
600.625 0.0657271552593 -59.8572037111
601.25 0.0549680591497 -79.6954040675
601.875 0.0452382379476 -89.4221570816
602.5 0.030715166195 -76.2236576363
603.125 0.0227778008945 -130.384209852
603.75 0.00917536574233 -41.1948080495
604.375 0.0328113968338 6.7255963938
605.0 0.0375510280686 1.94036254535
605.625 0.0271688796675 -14.9483997388
606.25 0.0147925227034 37.1315260791
606.875 0.0376686050696 78.6395219952
607.5 0.0458940486904 64.429666113
608.125 0.0464414392066 30.8230050407
608.75 0.043466984865 23.9275340237
609.375 0.0590750298979 43.0604447326
610.0 0.0558888021986 45.0389720883
610.625 0.0519062745544 29.0191247771
611.25 0.0510356944471 35.0415976111
611.875 0.0300208987335 57.0811190748
612.5 0.0113867992457 69.3972737061
613.125 0.0241609404809 116.948636424
613.75 0.021642847107 154.312474447
614.375 0.0307056833555 119.158297526
615.0 0.0352330179698 107.162662431
615.625 0.0331449080127 118.922546992
616.25 0.0315038756987 141.379955358
616.875 0.0416217043807 117.67922677
617.5 0.0426763224563 104.836478135
618.125 0.0384368624417 113.16575938
618.75 0.0148187323886 135.529224951
619.375 0.022895102244 110.27035965
620.0 0.0228294080167 99.8723631523
620.625 0.00432210935335 136.583181033
621.25 0.0339906193566 -101.004912141
621.875 0.0479433049475 -119.471947793
622.5 0.0662928150392 171.556676355
623.125 0.0785208205229 149.270536337
623.75 0.0582838670434 155.703018949
624.375 0.0526946904797 158.964985607
625.0 0.068526664025 173.521486727
625.625 0.0646986042841 172.6265499
626.25 0.0490564456054 145.635394008
626.875 0.0413917123977 133.3955232
627.5 0.0258447168712 162.965528363
628.125 0.0135983274189 -126.963784296
628.75 0.0134569355811 -128.184343218
629.375 0.0159042403399 -59.2767127423
630.0 0.0288859984577 -39.0032190275
630.625 0.0420572088069 -37.3545208925
631.25 0.0594446924138 -30.9124946039
631.875 0.0607269490342 -57.1865700287
632.5 0.0643392764874 -67.9279681064
633.125 0.054269980179 -63.738292187
633.75 0.0536728479038 -77.9821800506
634.375 0.0547009595361 -41.2526109648
635.0 0.0384294432069 -69.8084090358
635.625 0.0370509465475 -108.905352768
636.25 0.0255801793423 -79.303101577
636.875 0.041511305075 -37.1428622462
637.5 0.0423272110121 -50.933472919
638.125 0.0295429760356 -99.2834264124
638.75 0.0117847315976 -12.4295286646
639.375 0.0396293056481 32.1611088509
640.0 0.0617373421664 46.5886067682
640.625 0.0520844719142 23.302001215
641.25 0.0450532577542 20.017450034
641.875 0.0356172092612 42.2379174842
642.5 0.0360263825099 53.7717907687
643.125 0.0438776409534 52.7312550356
643.75 0.0389963388955 67.956231937
644.375 0.023832699588 77.8628530279
645.0 0.0311591119695 84.9202837082
645.625 0.0525826973456 92.7033424072
646.25 0.0617265599728 88.9767723407
646.875 0.0491262250532 77.2253341846
647.5 0.0559905320277 81.7571442313
648.125 0.0579726207856 97.4329914602
648.75 0.0627232534825 100.82884994
649.375 0.0564671608324 99.7263250055
650.0 0.0539122086771 110.619035181
650.625 0.0351147245714 115.732229318
651.25 0.0298053792251 135.42585242
651.875 0.0211078300821 158.409582141
652.5 0.0154271678969 -151.205499847
653.125 0.0194041385537 -70.486321971
653.75 0.0353494971414 -57.7211731734
654.375 0.0567929044686 -54.9394070407
655.0 0.0923554298866 -59.1814161477
655.625 0.0819194896344 -62.6585809902
656.25 0.0628283780626 -93.9580973513
656.875 0.0650963725649 -103.979440772
657.5 0.0734402080774 -88.9609502582
658.125 0.0665014848451 -89.2801393757
658.75 0.0517522728267 -136.749446815
659.375 0.0336476747162 -144.110668851
660.0 0.018115437764 -108.722909596
660.625 0.0398396185648 -78.0715509149
661.25 0.0295547288252 -97.9494869144
661.875 0.037941982014 -110.292679443
662.5 0.0583717906542 -109.807759481
663.125 0.0612368061593 -108.147078818
663.75 0.0622687500894 -99.7477598998
664.375 0.0742224636745 -64.4775742654
665.0 0.0785701832115 -32.2498831134
665.625 0.0669390440506 -28.4740837912
666.25 0.0598879815853 -21.1200316251
666.875 0.0462072021753 1.74811143161
667.5 0.0411832339787 35.8761180634
668.125 0.0299262422724 42.7150580333
668.75 0.0316147881549 64.0651616132
669.375 0.0558403270471 69.8707756337
670.0 0.0605119711635 63.8460198413
670.625 0.0491244795961 59.9854402578
671.25 0.049108292501 54.8319894993
671.875 0.0663775377873 45.4330734741
672.5 0.0659490959382 5.82824875792
673.125 0.0626854559371 -19.4762910939
673.75 0.0400699067257 -18.1643581558
674.375 0.0299472137833 26.2244890136
675.0 0.0460167099026 41.2552979722
675.625 0.0458366797388 70.8526631568
676.25 0.0451084576129 114.012952872
676.875 0.0441445595947 138.237292943
677.5 0.0713635777356 123.29560691
678.125 0.0876171909042 127.066859217
678.75 0.0850191041742 124.620611674
679.375 0.0689129921707 117.424362961
680.0 0.0697451091664 105.795581218
680.625 0.0693473725544 105.351719083
681.25 0.0566793992175 95.8200419802
681.875 0.0351468790264 56.4411745876
682.5 0.0212394078352 53.3443750001
683.125 0.0443035972365 100.356477962
683.75 0.0506332013502 131.915673703
684.375 0.0407232847639 153.537179587
685.0 0.0530121181851 -166.715647453
685.625 0.0748419970908 -122.277155017
686.25 0.0815004833744 -100.043359645
686.875 0.0842272058219 -97.4031618809
687.5 0.0917444684529 -89.2708796518
688.125 0.0797882884877 -88.2772774974
688.75 0.0618853343332 -91.4147345047
689.375 0.0411438226916 -85.9020602686
690.0 0.0441584488562 -52.4200196428
690.625 0.0266953645929 -35.3678241947
691.25 0.0303981469057 -68.5424098026
691.875 0.0471019982036 -60.3115223169
692.5 0.0811947581565 -84.5506140464
693.125 0.089722282425 -143.46294709
693.75 0.0936003835463 162.523485309
694.375 0.0798728649831 156.510187157
695.0 0.0709624837116 -174.769454789
695.625 0.0682688764305 -138.637006777
696.25 0.0648989245872 -83.2184573984
696.875 0.0701314916051 -32.5789634371
697.5 0.0351045557529 31.0390290808
698.125 0.0234417649387 69.9877414188
698.75 0.0503297081488 81.3528373955
699.375 0.0687031596919 83.5390158393
700.0 0.0536990036215 100.751421613
700.625 0.0583384354486 103.129720144
701.25 0.0773757365559 110.391789706
701.875 0.102334136019 89.873322071
702.5 0.0610507199204 53.345804278
703.125 0.0403843152168 5.86223118543
703.75 0.0283863819958 21.2580576427
704.375 0.0588918834314 7.21729527776
705.0 0.0587576289787 15.8883259502
705.625 0.0513417771262 34.2878438695
706.25 0.059473363988 81.0022436775
706.875 0.0756129670777 137.689391152
707.5 0.0839591077438 149.361541804
708.125 0.0875896116548 -177.793657044
708.75 0.0726470351344 -154.86456589
709.375 0.0506293674392 -119.63448458
710.0 0.0584766795021 -109.226779234
710.625 0.0605045556021 -66.049007544
711.25 0.0403969678599 -45.8467866875
711.875 0.0210402573795 -75.9549831172
712.5 0.00946267905882 -54.4308419105
713.125 0.06277843046 -30.2128504685
713.75 0.0787961914351 -85.2865626518
714.375 0.0755889322739 -133.859614945
715.0 0.0724832399026 179.079926044
715.625 0.0986160731105 -160.925655758
716.25 0.0828241709497 -133.74932373
716.875 0.0689853199292 -119.400297088
717.5 0.055687098836 -83.8966205143
718.125 0.0501228445569 -88.1377577294
718.75 0.0423551577862 -39.6959994034
719.375 0.0441651297251 -10.5017657946
720.0 0.0348096353309 31.3569573382
720.625 0.0190576175705 89.7859828853
721.25 0.0335949197316 -175.640693716
721.875 0.0728664508221 -129.968039654
722.5 0.0920226883015 -114.830163005
723.125 0.0809332777327 -147.441894472
723.75 0.0758436999572 157.652366355
724.375 0.070115212999 126.080764602
725.0 0.0552519342472 98.9294057031
725.625 0.0302064358637 38.7273618727
726.25 0.0250312951838 67.5972344582
726.875 0.0389302922085 135.39058412
727.5 0.0657278986349 166.963871508
728.125 0.0664638919506 177.341499142
728.75 0.0413002314946 152.692970236
729.375 0.0535622907714 154.833986086
730.0 0.0532552105451 164.347129069
730.625 0.0578713298332 172.834024374
731.25 0.0355759553702 -174.553699559
731.875 0.0400701358625 -125.199862069
732.5 0.0374100102474 -78.8713363776
733.125 0.0284384880508 -45.9170608441
733.75 0.0236425121955 -5.55770538092
734.375 0.0472418393215 -3.50655195834
735.0 0.0550015837573 -47.9023252057
735.625 0.0672934180305 -74.8681004527
736.25 0.0418319939321 -73.7237981065
736.875 0.0545948771544 -97.0126289718
737.5 0.0590538624185 -103.511709562
738.125 0.0402406048646 -99.3878573849
738.75 0.0127649754137 75.5426206888
739.375 0.0452041789068 30.6332640241
740.0 0.063423543556 -8.47984548209
740.625 0.0475100854777 -36.5542779982
741.25 0.0420228691854 -20.0192106879
741.875 0.0337209059508 80.7657110434
742.5 0.0355166621565 122.595409537
743.125 0.0497315170528 172.558844575
743.75 0.0525275960688 -152.578810196
744.375 0.0505837554389 -137.301006415
745.0 0.0847866548717 -157.51124044
745.625 0.0789944497688 178.336809237
746.25 0.0554732667572 136.254010452
746.875 0.00750993357255 122.889245953
747.5 0.00909767989726 -145.217140521
748.125 0.0283953619544 147.732589186
748.75 0.0312124915605 116.024246373
749.375 0.033659935226 55.2198842339
750.0 0.0476304552757 19.6541934459
