!Created with skrf (http://scikit-rf.org).
# GHz S MA R 50.0 
!freq magS11 angS11
500.0 0.00948206385466 124.358803902
500.625 0.00616376805331 19.0647454735
501.25 0.0202920024875 -90.6374090029
501.875 0.0417785602888 -128.892940906
502.5 0.0284679670755 -152.975076186
503.125 0.0144359131688 164.240837557
503.75 0.0103015261078 -165.135769358
504.375 0.0164883576904 -174.20175132
505.0 0.0109712003488 169.499736791
505.625 0.0134246689051 -140.651005237
506.25 0.0329628869771 -159.889728323
506.875 0.0620806853805 -149.97376536
507.5 0.0632879255454 177.773426051
508.125 0.0624979464317 -160.284426258
508.75 0.0754277248576 163.677036314
509.375 0.0786410839908 147.402608614
510.0 0.0729340282022 136.373348597
510.625 0.034604474513 69.8463597435
511.25 0.0392960427294 90.5126023893
511.875 0.0503375149842 69.3431035485
512.5 0.0433777664646 27.6282892375
513.125 0.0639774107616 -45.1896152565
513.75 0.097199290902 -66.5605965336
514.375 0.084608275739 -96.7457712202
515.0 0.0749772682461 -128.507108525
515.625 0.0816949642988 -106.579207324
516.25 0.0739253860419 -137.777653322
516.875 0.0562544077896 -74.7267932971
517.5 0.0499626073859 -80.7621099698
518.125 0.130688771119 -34.5500130172
518.75 0.0969984351949 -102.924781938
519.375 0.0840245390381 -118.506204548
520.0 0.0584753744535 -140.556936062
520.625 0.0678149266388 -141.048298675
521.25 0.0748805569903 -152.948929634
521.875 0.0448014506477 -149.873207661
522.5 0.0430171719525 -170.071624982
523.125 0.108402491258 -151.915090969
523.75 0.191922178488 -152.801042227
524.375 0.210742521435 -149.155241018
525.0 0.120157152559 -162.01044837
525.625 0.124779851855 -175.870372918
526.25 0.107299626764 -166.082684352
526.875 0.0800541690758 173.849797215
527.5 0.091270279006 144.254915388
528.125 0.104878140092 106.355573786
528.75 0.0998681811526 104.449121081
529.375 0.102039380301 73.1183573794
530.0 0.125758489701 32.2800469776
530.625 0.179816468182 -18.461100788
531.25 0.225916921737 -20.0842449384
531.875 0.157965528401 -34.5723376478
532.5 0.132686744673 -56.8144066721
533.125 0.125083706284 -45.8863093277
533.75 0.115491085723 -63.5421419333
534.375 0.0952011923441 -59.6431786053
535.0 0.086685477002 -68.4420805131
535.625 0.0879524241395 -30.5200578694
536.25 0.0886517307507 -68.0809180315
536.875 0.126279984958 -68.7245178793
537.5 0.143676133039 -60.3369512096
538.125 0.0937379028131 -73.5323157031
538.75 0.0785664612007 -79.8524281234
539.375 0.111311881415 -61.9280818429
540.0 0.180853615271 -69.2429556964
540.625 0.164841102606 -66.0692691719
541.25 0.123520396471 -70.3712350615
541.875 0.135388290696 -80.1685717588
542.5 0.143317023155 -81.2548669113
543.125 0.132221701197 -109.620130194
543.75 0.0866673966594 -146.367465104
544.375 0.0732910137375 -160.659623811
545.0 0.0718529918002 179.51563896
545.625 0.0858372670633 141.609227664
546.25 0.0997125834157 126.323354743
546.875 0.0954554821234 112.883579672
547.5 0.100861219314 123.048204168
548.125 0.0882765489822 114.497733141
548.75 0.0979874339053 131.04461099
549.375 0.108585514798 144.562338854
550.0 0.0739124345855 -168.128876593
550.625 0.0481686892784 -151.559397213
551.25 0.0694718660855 -120.507138297
551.875 0.107012809722 -140.11824194
552.5 0.124219184552 -141.055140499
553.125 0.0999670266123 -159.620842401
553.75 0.105874355383 -163.73362467
554.375 0.118190835845 174.788893981
555.0 0.128583363991 164.32558233
555.625 0.10619981008 158.435933261
556.25 0.108373167686 162.295091585
556.875 0.115451799127 164.318164524
557.5 0.118622434643 151.636362878
558.125 0.117766540973 156.470094823
558.75 0.0955603118705 169.353778659
559.375 0.0684446369278 169.661476134
560.0 0.0492858438829 158.101968303
560.625 0.06120203073 175.323458807
561.25 0.0851075117701 179.292078439
561.875 0.0942816183222 171.479864588
562.5 0.0840065504989 138.481600185
563.125 0.101400083785 110.180095587
563.75 0.131928764829 90.6903979814
564.375 0.126279100841 85.216964938
565.0 0.112001910044 78.3635234336
565.625 0.1027230811 66.6692622391
566.25 0.101333998189 80.3634921788
566.875 0.104926352253 103.769857153
567.5 0.0913403880584 119.4906003
568.125 0.101341746664 121.770856324
568.75 0.0942124008164 125.363457309
569.375 0.0803626493908 118.447595164
570.0 0.0642762441159 137.523282953
570.625 0.0652718830041 137.86120225
571.25 0.063550681248 143.46602769
571.875 0.0439500735362 117.779744338
572.5 0.0675382322721 112.147444093
573.125 0.106110965351 104.39544179
573.75 0.120229448642 82.2964319365
574.375 0.0871352258213 50.3388054661
575.0 0.0861681149481 35.5462838313
575.625 0.10169991019 39.8893106213
576.25 0.106850680248 52.431375161
576.875 0.0923676978877 37.2200965636
577.5 0.0986213940034 22.720473228
578.125 0.111367143452 19.9579925645
578.75 0.110449780941 27.2273706824
579.375 0.0927326013291 19.998504732
580.0 0.0954391983364 9.48615486304
580.625 0.0879827033742 2.88049742467
581.25 0.0691881359414 -7.44540836522
581.875 0.05020985398 21.1149645638
582.5 0.0623629757441 33.2690317898
583.125 0.0843370259948 41.3317776878
583.75 0.0743563822842 24.8976415261
584.375 0.0810458055372 30.9549310331
585.0 0.0780856219188 50.3569953258
585.625 0.0898433201296 56.9550804506
586.25 0.0724453401295 40.5657775706
586.875 0.0746859095365 26.8887546746
587.5 0.085466394437 26.8960041206
588.125 0.0919122221923 15.3404692699
588.75 0.0868389742354 -1.50077127609
589.375 0.0937622610488 -33.5505032657
590.0 0.0943410897649 -56.5152039003
590.625 0.0637259476398 -62.4392558041
591.25 0.0313464985905 -50.8528161056
591.875 0.0409398357473 -28.2526322185
592.5 0.0658471764027 -34.1923508853
593.125 0.077943896803 -39.314074624
593.75 0.0738029944482 -30.8481859322
594.375 0.0732575496646 -13.9722644764
595.0 0.0844069499371 1.54408354593
595.625 0.0824125025022 5.85504787542
596.25 0.0813016545057 13.5696773829
596.875 0.0706365883316 26.5324375699
597.5 0.0729628505254 36.4143185434
598.125 0.0735429220746 25.4425316905
598.75 0.0855644560897 3.93658154082
599.375 0.0859621569583 -3.76697065436
600.0 0.0710844066545 -8.29477909046
600.625 0.052109278665 -21.3881950374
601.25 0.0398471289839 -32.3803360041
601.875 0.0282518627678 -17.6380210619
602.5 0.022242654386 17.0549028221
603.125 0.0193720316662 46.7146256473
603.75 0.0281704142658 48.2287341153
604.375 0.0397688678334 38.8565946345
605.0 0.0396003882396 32.7381306876
605.625 0.0227630928531 37.1183275966
606.25 0.0184273506095 91.6098584624
606.875 0.0367747848947 100.803815532
607.5 0.0474405805304 77.2886127993
608.125 0.0463263644323 46.8948015502
608.75 0.0398683244181 36.8468624344
609.375 0.0386022019489 42.8341674947
610.0 0.0393903037531 43.1538524657
610.625 0.0357412894777 24.2311740069
611.25 0.028281815983 4.53573384501
611.875 0.0200532769569 -16.5719479752
612.5 0.0145407843279 -61.676249321
613.125 0.0134730800058 -125.636716668
613.75 0.0127633488702 -177.263903825
614.375 0.00652844086397 141.686691986
615.0 0.00415163751027 -68.5181801618
615.625 0.0142998089363 -113.672910356
616.25 0.0167892475951 -154.724693321
616.875 0.0100242605879 166.062117003
617.5 0.00197985766793 -58.1565866208
618.125 0.0127306352253 -76.9235136349
618.75 0.0148851199535 -87.8905761789
619.375 0.01521726041 -58.7161660662
620.0 0.0300935783187 -47.1257603755
620.625 0.0484621720709 -70.6064931939
621.25 0.0639257948817 -81.5291514296
621.875 0.0786598701222 -93.8122925609
622.5 0.0825952126328 -146.842875736
623.125 0.073806380703 -169.718148379
623.75 0.059925703645 -175.800019674
624.375 0.0512452054019 -153.698943108
625.0 0.0505215932315 -123.335909584
625.625 0.0433829096368 -131.870739433
626.25 0.028424802357 -156.529305523
626.875 0.0169370242022 -121.379233263
627.5 0.0369720762754 -69.6466896243
628.125 0.0489414552315 -55.4832931674
628.75 0.0445501677318 -54.4177524166
629.375 0.0480972549027 -48.3697610392
630.0 0.0674596537306 -38.6166978542
630.625 0.0851176531734 -28.0904239104
631.25 0.0901122995741 -29.6124342516
631.875 0.0920320052406 -39.994231719
632.5 0.0924225231629 -48.4026221902
633.125 0.0889483134092 -49.7357402836
633.75 0.0899253412958 -54.0615369961
634.375 0.0877279212629 -53.2160238226
635.0 0.0799570618371 -62.9003426588
635.625 0.0624113907943 -80.7688404965
636.25 0.0665695238114 -68.1678023629
636.875 0.0872673670727 -51.382566415
637.5 0.0857085596197 -57.264832612
638.125 0.0601784260974 -78.6230404176
638.75 0.0475605778805 -61.8203057761
639.375 0.0743595409098 -14.2943431195
640.0 0.095459850618 15.0292243487
640.625 0.0850655046582 6.88296590752
641.25 0.0844607864398 -1.569884631
641.875 0.0892593063374 7.38097001161
642.5 0.09002701931 27.4591044403
643.125 0.087151703923 34.8974330807
643.75 0.0877946922438 27.0204346596
644.375 0.086166222945 21.0555536612
645.0 0.0704006567019 20.2655607432
645.625 0.0844188666393 32.1072317216
646.25 0.0941800664517 31.1432061253
646.875 0.108939646458 29.8897078666
647.5 0.0859047360623 17.2612921433
648.125 0.0902146761142 18.989131491
648.75 0.106466370485 44.9295382165
649.375 0.119890823292 58.2067826105
650.0 0.101498623915 55.2340501212
650.625 0.106119239909 56.7780154934
651.25 0.113100940647 76.1300709935
651.875 0.105744160766 106.851728015
652.5 0.0842782346387 113.514768528
653.125 0.0826916512579 116.590973564
653.75 0.0768074002934 140.11374601
654.375 0.0663183196603 -177.794865306
655.0 0.0693128762525 -154.745034638
655.625 0.0832928378517 -162.859863192
656.25 0.112093506362 -174.754579376
656.875 0.109949844695 173.945255006
657.5 0.118934481602 177.079893506
658.125 0.123323035941 178.756857426
658.75 0.148852672507 165.102902791
659.375 0.129503555814 141.313014521
660.0 0.131553753678 116.439965222
660.625 0.119487981379 110.500260434
661.25 0.115904683678 105.164937682
661.875 0.0907589658981 84.7570727758
662.5 0.0961946136497 69.4274203579
663.125 0.0969513896035 87.0233002596
663.75 0.0923899675649 127.56187012
664.375 0.0788036091599 163.07349714
665.0 0.0936059976579 -178.178473414
665.625 0.117454318861 -155.030685505
666.25 0.126874440775 -129.319253199
666.875 0.123352181352 -118.330682257
667.5 0.129215211075 -120.952175049
668.125 0.145191259005 -123.138232014
668.75 0.120997231015 -124.7202309
669.375 0.105190548356 -126.323511861
670.0 0.0909958909347 -117.813354153
670.625 0.11357578516 -113.33611178
671.25 0.0999484431405 -127.324121663
671.875 0.100276838057 -145.475559311
672.5 0.0983427914072 -154.337605816
673.125 0.117724223377 -161.089725827
673.75 0.116286113127 -167.125630249
674.375 0.133693144713 -171.32864873
675.0 0.14147821249 -147.865669558
675.625 0.129589693965 -122.958159604
676.25 0.113788359921 -111.030533135
676.875 0.130679876041 -112.999064865
677.5 0.143792010332 -110.303593275
678.125 0.105417197243 -97.9723773075
678.75 0.0701801572641 -96.1071258595
679.375 0.0694887480156 -80.7662722822
680.0 0.100656315524 -76.6114265075
680.625 0.112725532459 -71.7650645933
681.25 0.102171957803 -92.8559772111
681.875 0.109035970224 -106.61704155
682.5 0.144630898646 -130.530529077
683.125 0.155706336093 -136.335670735
683.75 0.152418540121 -134.442550512
684.375 0.13986325616 -102.722975667
685.0 0.145044994097 -64.6892024569
685.625 0.136051648837 -34.2347027798
686.25 0.146655000623 -19.9078035617
686.875 0.131698540575 0.457246989811
687.5 0.0927080939966 23.8777936831
688.125 0.0694908998095 35.7164978266
688.75 0.0860129204402 45.5097672937
689.375 0.120329967486 60.152591634
690.0 0.123780432193 79.3473646646
690.625 0.105383604273 67.9508763066
691.25 0.124393149461 43.6088068143
691.875 0.171853319261 9.05671987212
692.5 0.189248554401 -25.8807393911
693.125 0.150947618716 -87.1641867152
693.75 0.131332653854 -124.664687701
694.375 0.13835759428 -128.570235442
695.0 0.138183082015 -98.5337183546
695.625 0.126503140755 -59.4032620749
696.25 0.10636712516 6.18731007341
696.875 0.102461729336 65.2249023549
697.5 0.0963980210892 109.820551968
698.125 0.115968238221 121.053091178
698.75 0.142777953365 128.879114149
699.375 0.132824222292 134.226487053
700.0 0.107614239652 134.323258624
700.625 0.119025095559 141.408057506
701.25 0.14925709118 148.024288425
701.875 0.137457290665 149.041120409
702.5 0.0851426146979 109.177218789
703.125 0.0767718936223 82.0720795232
703.75 0.106929422032 56.0217295384
704.375 0.152751914932 44.9820721122
705.0 0.123745538094 35.5227505439
705.625 0.112041189491 48.1813765814
706.25 0.123262826295 87.5679857338
706.875 0.146311928945 142.827616644
707.5 0.148186901372 172.290409283
708.125 0.135836658177 -163.236884381
708.75 0.119859817512 -140.827790075
709.375 0.102418060475 -105.139716686
710.0 0.104925068169 -74.4705016833
710.625 0.108152455133 -48.5166220314
711.25 0.0913607608684 -33.834747822
711.875 0.0596618443788 -43.4038937247
712.5 0.0580563622458 -57.2054635305
713.125 0.0946296033506 -78.212237747
713.75 0.13060528335 -114.949003574
714.375 0.114362588023 -152.376559962
715.0 0.11545200588 174.265072045
715.625 0.140634116838 173.555685706
716.25 0.160184034838 -161.376002192
716.875 0.125048039838 -135.436902993
717.5 0.102100657059 -110.82344842
718.125 0.0977719859686 -94.6414593448
718.75 0.101227886306 -76.7790988048
719.375 0.0932462758824 -59.0501013982
720.0 0.0774703424666 -31.4027771765
720.625 0.0603959301701 20.5281917855
721.25 0.0492114675292 99.7423895226
721.875 0.0609480652003 163.476341716
722.5 0.0903236440833 -172.509126565
723.125 0.113731606336 163.835060318
723.75 0.110463235993 115.977856194
724.375 0.0959043118252 59.3846028034
725.0 0.0875594145973 17.2639929249
725.625 0.0828971250169 -6.8344372778
726.25 0.0654448163248 -18.1496273192
726.875 0.0499546285417 -13.074556776
727.5 0.0389785827585 18.3030197104
728.125 0.0473152233878 68.9422617535
728.75 0.0539258342511 79.6469371005
729.375 0.0493165644905 54.4109552836
730.0 0.0381575871568 38.1911272767
730.625 0.0324605449145 65.938781959
731.25 0.0361003376064 97.9187258891
731.875 0.0368911611162 134.710235662
732.5 0.0400427953972 166.296815208
733.125 0.0386948254375 174.449360383
733.75 0.0282364323649 149.174399015
734.375 0.0157043085561 117.816868954
735.0 0.00532534673111 62.082798215
735.625 0.00637430486265 -24.1897479625
736.25 0.0181680849633 -76.6421446546
736.875 0.0315665873061 -115.069164129
737.5 0.0371785105673 -142.148526402
738.125 0.0338705643394 -166.693507075
738.75 0.0213808022603 145.305617819
739.375 0.0222719519542 57.529838563
740.0 0.029216621367 -7.97004201506
740.625 0.0266407414174 -53.4546200046
741.25 0.0206735748576 -45.5162369844
741.875 0.0256877954451 15.0417374972
742.5 0.0324792738231 80.6157562715
743.125 0.0377841088695 139.304600264
743.75 0.0450777522795 172.89361003
744.375 0.0555060262713 179.545525383
745.0 0.071667847026 171.797257797
745.625 0.0864099552804 144.101747024
746.25 0.0848491111027 107.504631787
746.875 0.0654286957522 63.6293463554
747.5 0.0439125491262 34.2331540702
748.125 0.0314357488438 34.5507266418
748.75 0.0376761980582 24.7538416881
749.375 0.0447253614775 -25.0082524169
750.0 0.0490156843849 -96.836358361
