!Created with skrf (http://scikit-rf.org).
# GHz S MA R 50.0 
!freq magS11 angS11
500.0 0.0198421009611 -175.134384574
500.625 0.00824647151328 130.260335972
501.25 0.0182335211913 -151.926609743
501.875 0.0131810738516 -132.116202356
502.5 0.0368596951927 176.775249767
503.125 0.0137525736912 77.5420151052
503.75 0.00739317362977 20.8940530887
504.375 0.00596254661803 -62.6862047833
505.0 0.0121149330982 -44.2510683426
505.625 0.0280012674066 -71.8411642915
506.25 0.0337684755803 -108.913877132
506.875 0.0710533015792 -93.3071441727
507.5 0.039830099614 -128.6196904
508.125 0.0505723699244 -106.199782694
508.75 0.0830249827388 -118.320256077
509.375 0.0493800448973 -179.736513252
510.0 0.0321036484403 -137.068580417
510.625 0.0439919245564 -160.086833588
511.25 0.0623071707186 -171.730002692
511.875 0.0559417139835 150.392022754
512.5 0.0395872246547 101.16461595
513.125 0.0555916997876 47.1446497251
513.75 0.0694879693707 44.1331282044
514.375 0.0312532785884 -3.52739727213
515.0 0.0371242487207 -4.73510311104
515.625 0.0778916599322 49.7082417381
516.25 0.109978623806 29.2935632107
516.875 0.0821368965377 62.1893831312
517.5 0.113810113402 18.8573250426
518.125 0.18592820637 62.049748716
518.75 0.0934807407815 14.98696783
519.375 0.0673853345977 18.5221706762
520.0 0.0975129933902 -2.21850533538
520.625 0.099889593663 -5.86946374248
521.25 0.094033942355 -22.0501362621
521.875 0.0529971622133 -10.109017286
522.5 0.0839789914176 -38.4022704242
523.125 0.174881647604 -40.9554497884
523.75 0.231813488776 -55.2493119227
524.375 0.194241807549 -67.6209968689
525.0 0.0674370568548 -55.5320627831
525.625 0.0382601903838 -37.6105498953
526.25 0.0494116549624 -12.4018537119
526.875 0.0556292411059 -22.4406517527
527.5 0.0459712887005 -29.7067788729
528.125 0.040561827024 -59.6616086929
528.75 0.0762116890863 -74.0411811327
529.375 0.087654944932 -113.996956511
530.0 0.0485782209455 -141.928302801
530.625 0.044727238359 -152.231487619
531.25 0.0876576808303 -133.836430847
531.875 0.176004682446 -149.436718242
532.5 0.149901025217 -171.934651225
533.125 0.100661144063 174.240180039
533.75 0.129258158715 165.293727635
534.375 0.110992921677 176.859786161
535.0 0.0799332651972 159.308563669
535.625 0.0649519857166 176.904169686
536.25 0.0619518681995 162.172758476
536.875 0.0758648755907 -162.261203996
537.5 0.0916365267026 -148.438170214
538.125 0.113630889481 -176.333156504
538.75 0.105380333645 178.427558437
539.375 0.079719593528 -166.267179517
540.0 0.0945389479202 -156.622480467
540.625 0.136434923073 -160.010459943
541.25 0.109136780473 -144.197958459
541.875 0.095226339963 -143.493076331
542.5 0.101112299415 -143.488011385
543.125 0.143619732453 -168.360346612
543.75 0.128003365233 157.618038173
544.375 0.0958510219564 134.992841116
545.0 0.0804422574187 90.058247663
545.625 0.0992119563273 82.2842466289
546.25 0.104768410309 64.553122622
546.875 0.0711013763033 52.5077978776
547.5 0.111119214819 57.2802692675
548.125 0.12456698187 76.0227551772
548.75 0.0831531956893 87.2373683702
549.375 0.097351517453 83.7913862263
550.0 0.0824097550857 122.720889848
550.625 0.0498926907997 151.808221247
551.25 0.0441575830327 -155.493578381
551.875 0.0596039920941 -163.190756819
552.5 0.111618206809 -166.924489907
553.125 0.0919850686058 -170.008779792
553.75 0.0918606060446 -172.947314042
554.375 0.10353650655 165.823436874
555.0 0.123810702954 162.45907477
555.625 0.0934943897344 156.171134598
556.25 0.105074263253 157.476325412
556.875 0.101615453122 167.544437829
557.5 0.113892766269 164.961838341
558.125 0.0952598654908 162.716797878
558.75 0.0915169462228 173.722888707
559.375 0.0651692040855 -173.213095127
560.0 0.0461950387309 -150.551358577
560.625 0.0563236315205 -139.186172074
561.25 0.0920006676093 -156.703250419
561.875 0.0952056383744 -160.500720625
562.5 0.0886895976055 174.080049427
563.125 0.105462789343 144.313832672
563.75 0.137688009798 126.841046252
564.375 0.103249020182 119.471931913
565.0 0.089798074178 118.210694918
565.625 0.0821238078819 116.521550981
566.25 0.102699234987 146.765544959
566.875 0.0636861198793 -174.982731978
567.5 0.0723689187216 -178.369883441
568.125 0.0740634335153 -171.625577975
568.75 0.0738029419045 -153.026882068
569.375 0.0459626754638 -113.196852232
570.0 0.0603342109697 -111.852645775
570.625 0.0842210120184 -112.795479948
571.25 0.0935011937763 -127.587805865
571.875 0.084017802377 -123.926492837
572.5 0.111663090446 -156.47746427
573.125 0.133649356114 -174.184378887
573.75 0.108436702816 158.53529744
574.375 0.0739179412296 155.207810985
575.0 0.100230330082 156.71322012
575.625 0.102235973304 155.796457521
576.25 0.094703513485 141.58007198
576.875 0.0811388854115 128.23182903
577.5 0.0779898828818 138.88434562
578.125 0.0593705539031 158.81555674
578.75 0.0527977445318 151.229410522
579.375 0.0491876981447 175.830850242
580.0 0.0676122821629 -176.999885201
580.625 0.072218377915 -149.888983743
581.25 0.0867036408295 -171.018548919
581.875 0.113219579918 -178.654824736
582.5 0.11759318316 -178.329829512
583.125 0.0952947126007 -171.119260338
583.75 0.0827988524677 -169.062436028
584.375 0.105617284042 -165.797797159
585.0 0.0894652024831 -141.96437618
585.625 0.0753687191858 -153.153435039
586.25 0.0708377385897 -146.558878488
586.875 0.0794508670159 -135.625676947
587.5 0.073146867986 -145.530662009
588.125 0.0607234101449 -178.130619123
588.75 0.068063776905 -166.611979482
589.375 0.0825582911836 -159.317070383
590.0 0.093055146513 -166.777026582
590.625 0.105753298116 164.49117455
591.25 0.12207502072 153.271798544
591.875 0.10414558659 148.953891631
592.5 0.0613744966637 156.578333853
593.125 0.0605215763769 153.556381888
593.75 0.0727229383855 171.397247427
594.375 0.0606390119409 -164.290996839
595.0 0.0425137256199 -119.703342459
595.625 0.0626029136608 -97.7582710917
596.25 0.0749036386951 -87.916346163
596.875 0.0635156589009 -86.4165744433
597.5 0.065926173992 -50.7430000163
598.125 0.0654345823461 -63.222471101
598.75 0.0710599733137 -73.7222310857
599.375 0.087997551715 -66.1543295871
600.0 0.0996837884137 -68.5127023132
600.625 0.0989163992168 -71.139089681
601.25 0.0852953726959 -76.1052279123
601.875 0.0703107699283 -97.0381882654
602.5 0.0654750608566 -74.9807194471
603.125 0.048697996533 -49.2981998252
603.75 0.0349662745544 -27.4383475519
604.375 0.0306670471691 -43.4185339886
605.0 0.076944609377 -5.70177561928
605.625 0.0507827109913 -12.8671354489
606.25 0.0211396344932 -0.0386238693648
606.875 0.026689622756 40.9188374467
607.5 0.0486472552177 37.157925209
608.125 0.0748833945142 27.1228425488
608.75 0.0663370361584 23.9023650799
609.375 0.0479534478562 18.4225622104
610.0 0.0908872458021 53.7013542044
610.625 0.0668634529183 35.8073101727
611.25 0.0499273151781 30.1904476399
611.875 0.03026025288 31.4125018697
612.5 0.0161279135524 69.5240861567
613.125 0.0326194954565 124.057450854
613.75 0.0502008889047 117.940686295
614.375 0.0537885170344 124.10459988
615.0 0.0171008880203 101.893929121
615.625 0.0514985189974 130.08216358
616.25 0.0595398482666 132.930233062
616.875 0.0632860336231 137.9268689
617.5 0.0231691954788 110.014683027
618.125 0.0358805406518 127.733072205
618.75 0.0507556103345 140.527342734
619.375 0.0289960647301 147.12696879
620.0 0.0110461649239 -10.3794896261
620.625 0.0150995226307 -100.146508384
621.25 0.0407016244289 -92.566151634
621.875 0.0592411975609 -113.023199915
622.5 0.0692053030617 -155.160718934
623.125 0.0997992249339 158.835242215
623.75 0.0790045009594 157.764093954
624.375 0.0519195953863 179.800815948
625.0 0.0292023537416 -115.622443492
625.625 0.070267092162 -159.856635751
626.25 0.0247552581513 178.018592827
626.875 0.0064746936481 -44.3477432443
627.5 0.0383881235633 -14.1911438144
628.125 0.0416176179209 -14.2545613712
628.75 0.0362936627328 -18.1416658929
629.375 0.0512895924244 -4.41177599819
630.0 0.0622788723321 -4.49108086178
630.625 0.073429724132 6.11748552579
631.25 0.0674407634498 -8.18973116881
631.875 0.0734100364439 -3.78106941565
632.5 0.0637488986388 4.61207092629
633.125 0.0478494553625 13.4963546782
633.75 0.0431603398819 -8.24879667083
634.375 0.0419179140831 1.4874491171
635.0 0.0379334622799 6.69194546142
635.625 0.0517734767666 45.7677169132
636.25 0.0398889644978 6.30039064007
636.875 0.0628837414388 34.8389756157
637.5 0.0466394197993 47.9719073171
638.125 0.0370121560795 67.8951805817
638.75 0.0803703266874 72.2158266448
639.375 0.0868375472404 90.7073305975
640.0 0.0689852049618 101.823045724
640.625 0.0539326532708 101.368231197
641.25 0.080650160532 126.132392506
641.875 0.0641678692765 145.670268978
642.5 0.0628191004706 147.368375412
643.125 0.06867520041 161.424434138
643.75 0.0740517099308 169.429824474
644.375 0.0778003743209 -176.189384459
645.0 0.0839520135879 179.298236348
645.625 0.090211878482 165.994327711
646.25 0.103332204066 167.232856389
646.875 0.0575020254602 165.314692234
647.5 0.0561079917786 178.672532361
648.125 0.0832433356854 -177.410531487
648.75 0.0919373080578 -160.450619661
649.375 0.0379545784832 -179.854552292
650.0 0.0320027822932 -126.690846186
650.625 0.0571789094984 -97.3613682263
651.25 0.0807500671227 -67.982465245
651.875 0.0449079629649 -47.9918994891
652.5 0.0886393309778 -25.9089247129
653.125 0.121996157401 -5.23743542637
653.75 0.123414387157 4.45734788994
654.375 0.106026247183 4.41172472404
655.0 0.112132720315 10.3119186116
655.625 0.089919983605 21.5721713135
656.25 0.0735221077066 20.7904414624
656.875 0.0490919548996 -8.43275034252
657.5 0.0772965783778 18.7925847222
658.125 0.0749198339034 44.9424395564
658.75 0.0589020424293 60.7684893229
659.375 0.0852810949782 37.5153762522
660.0 0.109782009001 22.2477517473
660.625 0.110953615802 17.0608725752
661.25 0.108205432239 3.98998843534
661.875 0.135004938084 -15.9015638436
662.5 0.124332527766 -23.4069087287
663.125 0.104030811539 -24.0058140767
663.75 0.104778920767 3.16578333587
664.375 0.098450431922 51.1118908355
665.0 0.070435969692 87.360956496
665.625 0.0638774403547 108.594472867
666.25 0.0924235206398 126.381843125
666.875 0.105640679449 167.077867467
667.5 0.088921392776 -169.272704651
668.125 0.0989666259096 175.868443465
668.75 0.13956832322 162.471420122
669.375 0.102421472379 173.569440046
670.0 0.0809245316376 -172.148397757
670.625 0.0778604553261 -172.854916766
671.25 0.122358678003 171.188647309
671.875 0.0905104523094 165.166953948
672.5 0.0806160717061 152.977193336
673.125 0.0740702135205 150.152335322
673.75 0.120453450858 152.635357029
674.375 0.100739630676 168.855809902
675.0 0.107428653555 -174.932212132
675.625 0.114805182589 -150.382202491
676.25 0.131951787809 -129.205036101
676.875 0.0986078521641 -120.944467593
677.5 0.114677985239 -128.470493315
678.125 0.118384643494 -123.559798253
678.75 0.0776397977511 -97.8481763858
679.375 0.0476189007008 -74.1614455667
680.0 0.0757583391737 -81.7315034074
680.625 0.124430733806 -80.8863287489
681.25 0.106388146687 -75.9899289862
681.875 0.103739064658 -97.8921057627
682.5 0.120564411962 -114.871535954
683.125 0.160856232423 -123.286585075
683.75 0.130169616998 -107.317410027
684.375 0.124084105443 -82.7599968394
685.0 0.142520796201 -44.8431848389
685.625 0.127063804179 -3.8628738142
686.25 0.116740165363 17.372032257
686.875 0.0964708969829 40.5355721159
687.5 0.0701292442466 74.2763731147
688.125 0.0788879892 106.730055778
688.75 0.103248521574 107.929647138
689.375 0.143132184911 117.558615822
690.0 0.141164182862 128.35434179
690.625 0.119729300833 125.732036929
691.25 0.141628933289 97.3266948807
691.875 0.182649369488 66.858016062
692.5 0.159896346655 34.5816001676
693.125 0.0733266366701 -11.7826273111
693.75 0.0939185596151 -41.2161137681
694.375 0.128477504255 -34.7754694752
695.0 0.131467863454 8.11843868136
695.625 0.106186465616 47.5021711597
696.25 0.111659548044 110.495495771
696.875 0.132488188361 175.116178517
697.5 0.13530484978 -145.413878202
698.125 0.147007872124 -140.625578314
698.75 0.125263227374 -130.579001081
699.375 0.115184554048 -130.27696642
700.0 0.0983800014748 -118.231817458
700.625 0.112760743515 -95.7997955347
701.25 0.0985050790887 -66.9603133716
701.875 0.0821462518346 -62.8514001455
702.5 0.0987559986777 -86.1179430014
703.125 0.169221442008 -130.937929343
703.75 0.167092595619 -147.842283514
704.375 0.126440657836 172.69425052
705.0 0.104490303205 157.835192142
705.625 0.145512123786 -176.474744192
706.25 0.148121677958 -115.718002921
706.875 0.0963240367413 -67.6815619958
707.5 0.0782616679061 -39.6347601709
708.125 0.0914869362602 13.2535012728
708.75 0.112225347258 53.583407951
709.375 0.106195032551 102.215923183
710.0 0.102543198453 132.285153741
710.625 0.101410930354 157.855063362
711.25 0.117632597367 163.67412085
711.875 0.148889013258 165.02027832
712.5 0.156198104891 139.640389719
713.125 0.129922528313 97.0910170998
713.75 0.107958349287 37.3508760665
714.375 0.111010474997 35.523661745
715.0 0.112070856081 35.3560859068
715.625 0.0830799349053 54.455633294
716.25 0.0757811757786 66.7393682887
716.875 0.120172207901 105.865104839
717.5 0.139479283162 143.025146227
718.125 0.12119440437 169.265988763
718.75 0.103365339524 167.865631286
719.375 0.107753446461 174.551603906
720.0 0.137790597938 -117.037590086
720.625 0.115625067677 -72.4707043283
721.25 0.100061780057 -25.8189728319
721.875 0.0831130893633 23.4001729864
722.5 0.0683358739387 65.7009283655
723.125 0.0763446414397 59.6126498751
723.75 0.110526933237 38.6555145208
724.375 0.0985200098318 -15.9978323967
725.0 0.106437727641 -34.5033282898
725.625 0.110338698286 -62.5174920327
726.25 0.106495733284 -67.7646149701
726.875 0.0985379081454 -63.9468632428
727.5 0.0867387722743 -24.5378478616
728.125 0.0812023586974 -8.94654526794
728.75 0.0946763808195 17.8461326614
729.375 0.0879328245955 14.3494243263
730.0 0.0567034640302 -16.1290769436
730.625 0.0929579372746 35.733055409
731.25 0.089138553898 66.9021188348
731.875 0.0844045463089 117.913945503
732.5 0.0566858766689 140.132518192
733.125 0.0800691643236 168.214086698
733.75 0.0849386917324 177.326567469
734.375 0.0659811996437 163.663965638
735.0 0.037070931399 125.343112843
735.625 0.0643204414905 141.390430066
736.25 0.0646922347287 148.095851862
736.875 0.0589919468611 164.381277449
737.5 0.0490319454936 -173.970150334
738.125 0.12930398337 -170.233872397
738.75 0.0888206313977 -170.005644629
739.375 0.0697548150901 -162.13953546
740.0 0.0213833538702 -134.036148852
740.625 0.038720596598 -149.715106087
741.25 0.0455497498024 -159.557962989
741.875 0.0436548204725 -114.216095286
742.5 0.0446782009921 -32.0916185157
743.125 0.0176930110312 89.4293695075
743.75 0.0338110705299 89.6425582339
744.375 0.0303889612714 136.37522614
745.0 0.0449797406453 138.521268853
745.625 0.0634021751112 118.175927942
746.25 0.0764655186156 79.2662775888
746.875 0.0842798957071 26.7114688481
747.5 0.0448281568469 2.0636442025
748.125 0.0163261962041 62.1177434468
748.75 0.0328183938661 -24.743168302
749.375 0.0317202011416 -33.1104215251
750.0 0.0273546426621 -66.4243646412
