!Created with skrf (http://scikit-rf.org).
# GHz S MA R 50.0 
!freq magS11 angS11
500.0 0.0126893343928 130.032465122
500.625 0.00485167422698 109.785470087
501.25 0.0113293165956 -47.0432411234
501.875 0.0297994397988 -169.418740477
502.5 0.0235987644266 172.527708018
503.125 0.0149526967264 27.0505897533
503.75 0.0146205238359 121.704456685
504.375 0.00448385231166 128.296529215
505.0 0.00807905220845 -58.5246406487
505.625 0.0460647453899 -83.794380201
506.25 0.0347031073094 -118.10791793
506.875 0.0509028113569 -115.234284491
507.5 0.0472514805511 -116.817837723
508.125 0.0655147713843 -81.0322683859
508.75 0.0644011710394 -128.235241048
509.375 0.0512024984773 -136.243794283
510.0 0.0359793721066 -116.951873716
510.625 0.0533446983965 -153.515926841
511.25 0.0497370509286 -178.477209989
511.875 0.0457082910801 139.523363341
512.5 0.0382963043984 97.5750178567
513.125 0.0657510185088 57.9956209429
513.75 0.0541862510189 37.9021311001
514.375 0.0500785055764 20.8873300226
515.0 0.0665450022802 12.2433623235
515.625 0.0721678193802 42.3075695369
516.25 0.0934011823336 31.8889027366
516.875 0.12401476621 71.7041612113
517.5 0.123240531894 22.7825657602
518.125 0.19299127669 71.7078898814
518.75 0.0764590104508 8.04086663568
519.375 0.0635942884826 16.752421699
520.0 0.115587348867 -0.212378923596
520.625 0.0926256150841 -10.7280953551
521.25 0.0825209060317 -25.2386807257
521.875 0.0737634715125 2.45123429815
522.5 0.101830899381 -30.5972872633
523.125 0.177686977422 -34.8520412979
523.75 0.209492408224 -58.7400087466
524.375 0.208071264376 -47.8818425276
525.0 0.0767686592934 -35.7538993555
525.625 0.030912155273 -59.2899028734
526.25 0.0358390456624 -15.8729139613
526.875 0.0524277071346 -18.8661169775
527.5 0.0590817478574 -21.9316904615
528.125 0.0274197084076 -64.9344349451
528.75 0.0626693489551 -70.3747401626
529.375 0.0816809782376 -114.689721433
530.0 0.0564929881824 -123.032765993
530.625 0.0375233564394 -138.514070916
531.25 0.123738118663 -131.601350536
531.875 0.170732384537 -145.396591394
532.5 0.155539085076 -168.490923642
533.125 0.0801091070355 174.105743658
533.75 0.104903793857 170.97307737
534.375 0.0998579208784 179.81491775
535.0 0.096288320139 165.584678215
535.625 0.053716030738 175.5006591
536.25 0.0504893790005 167.251902674
536.875 0.0844545613274 -157.335520491
537.5 0.106885101377 -143.541623782
538.125 0.103079605895 -171.37758622
538.75 0.0917993444552 -177.78179506
539.375 0.0760726785257 -160.087388652
540.0 0.107451186236 -156.225458097
540.625 0.119925712165 -152.326206409
541.25 0.124986428431 -137.451724376
541.875 0.100666555139 -140.870030699
542.5 0.118905924349 -142.548175896
543.125 0.125934110446 -164.093137408
543.75 0.12016952751 161.380508516
544.375 0.0892098972195 135.766042989
545.0 0.0969275642248 92.7119717987
545.625 0.0859673351733 85.7506359297
546.25 0.0917309624526 71.1662490567
546.875 0.0950666516799 56.9274018416
547.5 0.125249893469 59.0251934071
548.125 0.104925019077 80.172909134
548.75 0.0826011549047 93.5163084663
549.375 0.0871641785722 89.5807359285
550.0 0.099951902884 128.81913625
550.625 0.0321969231043 166.788014217
551.25 0.0422795760679 -136.76742228
551.875 0.0625850606951 -153.693272935
552.5 0.122807390672 -165.486248581
553.125 0.0830485101566 -159.975734113
553.75 0.0882846564618 -163.815913761
554.375 0.103755582421 168.195960539
555.0 0.137057230442 163.185199006
555.625 0.0939630698375 160.435785363
556.25 0.0980209014886 164.735396459
556.875 0.123072685961 166.976662373
557.5 0.116332659513 169.376935204
558.125 0.10200109177 166.01196621
558.75 0.0820233716733 -179.732954977
559.375 0.0579473705047 -170.830425306
560.0 0.0516057661273 -149.182790526
560.625 0.0556172549639 -130.883916118
561.25 0.0884335809084 -147.005249933
561.875 0.0993209807289 -161.027643346
562.5 0.0953557349964 174.606733907
563.125 0.0961201760215 153.737344319
563.75 0.122891229924 135.644041659
564.375 0.0974938820664 123.588474829
565.0 0.0926327728141 119.717797688
565.625 0.0722452864082 125.037598595
566.25 0.0904783186629 158.337571237
566.875 0.078569387215 179.940951439
567.5 0.0744120183095 -175.260428477
568.125 0.0864612894768 -171.123337936
568.75 0.0608220034652 -138.255453752
569.375 0.0483151724069 -101.068102572
570.0 0.0634147023203 -107.910335002
570.625 0.0945166536837 -115.253812598
571.25 0.0920297333373 -117.710663186
571.875 0.0902583284499 -125.089211361
572.5 0.114613952942 -155.312615204
573.125 0.146657611682 -175.109468365
573.75 0.0963050942101 167.600115984
574.375 0.0853980680203 148.66660292
575.0 0.108466573998 154.807311636
575.625 0.108682739752 158.068330605
576.25 0.0856646266701 149.036450214
576.875 0.0735044586455 133.730296545
577.5 0.089823907502 135.161295175
578.125 0.052822145667 168.17913791
578.75 0.04842949222 165.952219694
579.375 0.0580729381057 158.406025581
580.0 0.0704707447348 -174.695183877
580.625 0.079873685716 -153.067942804
581.25 0.0911517992056 -161.233758996
581.875 0.116511666065 -170.886901121
582.5 0.11756041872 -173.084141362
583.125 0.0975221423922 -172.838473108
583.75 0.078528780736 -154.651858872
584.375 0.10157544906 -149.641085134
585.0 0.0882044596685 -140.510659482
585.625 0.0750061052305 -151.011748871
586.25 0.0675969079963 -128.86267361
586.875 0.0820857039973 -128.560910453
587.5 0.0738601056698 -142.292161101
588.125 0.0606603228678 178.861706322
588.75 0.0692481721928 -143.475232598
589.375 0.0860769297396 -143.714413612
590.0 0.08993370688 -161.95902316
590.625 0.10244411489 159.613761202
591.25 0.118748664615 166.737093304
591.875 0.0948893332275 160.331442701
592.5 0.0610752721609 147.47445338
593.125 0.0616275176552 140.387823053
593.75 0.0714844385845 -166.593459174
594.375 0.0562059499337 -137.905679429
595.0 0.0450869790122 -104.681358557
595.625 0.0541803299788 -111.321448422
596.25 0.0796499769911 -70.938320225
596.875 0.0668014927006 -70.0656595874
597.5 0.0575818038467 -60.8033338051
598.125 0.0583497767738 -70.3792668206
598.75 0.0802343033687 -59.4509474287
599.375 0.0971729631581 -59.2352274795
600.0 0.104672210912 -64.7213293238
600.625 0.0976027158026 -71.7095631277
601.25 0.0829686247163 -60.2102733056
601.875 0.0691238243909 -77.2851762885
602.5 0.0571069078674 -76.5195445037
603.125 0.0437945941813 -78.0357204567
603.75 0.0292387112623 -32.8960179776
604.375 0.0412647008724 -19.8632085581
605.0 0.0581892539205 -20.8521233989
605.625 0.051289326252 -5.64040921068
606.25 0.0200513376187 -8.95531528381
606.875 0.0456086786584 55.3458257394
607.5 0.0752931531099 49.9686370595
608.125 0.0701394724877 27.8382158917
608.75 0.0639060458016 26.7711149375
609.375 0.0650690291713 33.9074359088
610.0 0.064635422613 39.1787362653
610.625 0.0627808560837 36.7569866848
611.25 0.0451626454143 19.4033865159
611.875 0.0382816522641 61.008546156
612.5 0.0348549142633 105.678549136
613.125 0.0343316891286 137.161551439
613.75 0.0224252912409 134.260011916
614.375 0.0492990718143 128.239530782
615.0 0.0353588243574 119.607905116
615.625 0.027973421476 151.890467411
616.25 0.0456272099659 135.399256381
616.875 0.0450284250718 131.508360101
617.5 0.0408851385181 121.884635455
618.125 0.0328562498077 141.346907174
618.75 0.0177496759556 151.238328278
619.375 0.0239605003572 156.788849274
620.0 0.013988570881 164.284003971
620.625 0.0188346795113 -137.934710303
621.25 0.0564007644682 -76.798055151
621.875 0.0722662231581 -123.133489697
622.5 0.0758011051756 -167.964812219
623.125 0.0665367554603 -179.766995891
623.75 0.04967315408 171.462596079
624.375 0.0476671204996 -173.593952024
625.0 0.041495798117 -142.320517418
625.625 0.0255771883787 -148.365454302
626.25 0.0183653734754 163.35766072
626.875 0.0214346983559 3.2193227161
627.5 0.0235708568255 -39.3246926556
628.125 0.0341326339419 -46.8523693227
628.75 0.0393092251367 -19.8000363752
629.375 0.06436158078 3.41075696566
630.0 0.0616503949896 -28.1987220613
630.625 0.0712566224367 -1.06153619489
631.25 0.0663209817978 4.31064046717
631.875 0.0715361904013 10.1086392287
632.5 0.0650598746469 -10.4958841509
633.125 0.0494075604032 -11.5882260475
633.75 0.0456548521096 -1.22254222658
634.375 0.0564118466945 38.2690503306
635.0 0.0371223669747 18.5127536979
635.625 0.0358972366025 40.5147649359
636.25 0.0607675099647 48.7853427201
636.875 0.0630755323909 45.1073371482
637.5 0.0581549022674 57.8670543158
638.125 0.0244601727803 39.7277290825
638.75 0.0618376584615 73.2809245685
639.375 0.0873850480253 88.8883353821
640.0 0.0822173870247 113.155600036
640.625 0.0494847589114 81.913869198
641.25 0.0604480422033 122.203762543
641.875 0.0601234541311 142.579961663
642.5 0.0651629712218 165.683929905
643.125 0.0549941466962 160.657487413
643.75 0.0560090169462 169.737056915
644.375 0.0743895262219 -171.528303032
645.0 0.0901002322823 -176.898848906
645.625 0.0727662427534 156.748503189
646.25 0.083127675594 161.075493522
646.875 0.0722054456981 177.176944328
647.5 0.0790545594413 -171.251252869
648.125 0.0704972058264 177.611462979
648.75 0.0766012603297 -159.988802127
649.375 0.0553629798489 -141.493754785
650.0 0.0557524303132 -114.505097881
650.625 0.0798804732118 -84.8164566365
651.25 0.0679880140626 -61.8059230898
651.875 0.072480471229 -39.5294632441
652.5 0.0946880083375 -20.3390608687
653.125 0.133602487228 0.982021290884
653.75 0.11261805655 6.81640127551
654.375 0.10479987712 4.53061782808
655.0 0.132602338931 15.6414554673
655.625 0.0858601161922 25.555685382
656.25 0.060524436819 22.728974287
656.875 0.0754525051985 10.8608008026
657.5 0.0837172845215 28.1638329319
658.125 0.0839778407884 52.0084983129
658.75 0.0425038663974 73.0606482642
659.375 0.0754373100632 47.0707057856
660.0 0.107847116115 28.8394169393
660.625 0.126662095411 18.5171848158
661.25 0.0877211657158 6.07495544247
661.875 0.121306847418 -10.1641958137
662.5 0.114392629831 -22.282711225
663.125 0.114190764035 -13.6286105526
663.75 0.0799263489253 5.13702715849
664.375 0.0843560071649 57.2401848789
665.0 0.0742518041571 93.8465977887
665.625 0.054093346757 111.894232305
666.25 0.079320378154 138.910906092
666.875 0.104795107194 170.570242713
667.5 0.105090745815 -168.776763337
668.125 0.0999576839205 -175.926989257
668.75 0.127919282243 169.121854625
669.375 0.134719990484 -179.299415928
670.0 0.0866261181017 -167.442727255
670.625 0.0931640065289 -171.172544217
671.25 0.106923621613 176.378132385
671.875 0.102417667553 173.832892515
672.5 0.074081416482 157.336480407
673.125 0.0916625733973 153.100639189
673.75 0.110540676841 162.195861932
674.375 0.110826281323 169.767840838
675.0 0.124266569367 -175.313893045
675.625 0.131776730459 -149.450362805
676.25 0.119192460721 -122.445053599
676.875 0.120415544667 -120.248014744
677.5 0.132030900007 -127.45541563
678.125 0.138259031156 -114.218557427
678.75 0.0596993264349 -88.66309441
679.375 0.0515343084179 -66.776035037
680.0 0.0831603927184 -76.958685741
680.625 0.134832470002 -78.4196921529
681.25 0.0935469240283 -64.8735242512
681.875 0.100767816215 -88.8025176323
682.5 0.141683129166 -121.321600913
683.125 0.168214678797 -119.637842676
683.75 0.146696077842 -104.449444338
684.375 0.107528629405 -75.9855745739
685.0 0.12441999726 -34.7469518753
685.625 0.131206710688 0.445488423009
686.25 0.118836908825 21.1952999919
686.875 0.0718056495311 53.6784299344
687.5 0.0752436969315 94.2376122661
688.125 0.0858926355119 110.995546608
688.75 0.108569832393 109.304862678
689.375 0.128285162586 131.820841492
690.0 0.131094356889 136.323109081
690.625 0.115081147771 129.538517629
691.25 0.149098504333 95.073545032
691.875 0.177824246347 71.3019161873
692.5 0.136402703448 41.8606869236
693.125 0.0932824632021 -15.3372039731
693.75 0.0980033599332 -37.7309968073
694.375 0.14672794286 -31.5473898572
695.0 0.114312785901 24.6676607601
695.625 0.100764753274 60.0834861034
696.25 0.110428768182 118.738262593
696.875 0.14392123499 171.20863996
697.5 0.150233070974 -146.663526164
698.125 0.13990879188 -130.115000149
698.75 0.126973468065 -129.505077902
699.375 0.115967674971 -127.392010873
700.0 0.0868942325158 -101.298457137
700.625 0.108680732122 -80.1842018793
701.25 0.0925851191215 -59.7479101959
701.875 0.0860934171142 -65.3637400247
702.5 0.102564955311 -71.3432693384
703.125 0.172349062291 -117.871714866
703.75 0.190521071304 -155.937505761
704.375 0.129905722897 171.866149447
705.0 0.114585783138 156.039740476
705.625 0.135566827323 -157.163689557
706.25 0.134944659854 -102.898839612
706.875 0.0903495856669 -60.342245335
707.5 0.0805381129178 -44.648678871
708.125 0.0913383503682 37.7038203222
708.75 0.114255985952 73.8097104926
709.375 0.103457497234 112.521691197
710.0 0.102650896737 124.886503177
710.625 0.108291402362 156.10813653
711.25 0.119053627025 179.188071201
711.875 0.145359075863 167.251388053
712.5 0.156205568137 138.775401308
713.125 0.115654087324 111.365032285
713.75 0.0985971955999 52.1346729508
714.375 0.109424169807 17.3476790705
715.0 0.118185298669 22.7996080496
715.625 0.0850607752972 44.7230534376
716.25 0.0854622954535 85.3896381725
716.875 0.12685413695 108.820956106
717.5 0.144449874573 153.838984245
718.125 0.116253140337 159.563578582
718.75 0.109032726091 -174.844874832
719.375 0.114864685473 -170.222811418
720.0 0.131346339313 -130.567074983
720.625 0.114025390154 -73.3649996829
721.25 0.0945513208616 -9.63644676371
721.875 0.0852128062916 46.9782271506
722.5 0.0741006482574 78.3884800715
723.125 0.0715652624811 59.5541351111
723.75 0.133963977898 58.3414384381
724.375 0.113316589603 2.04532249879
725.0 0.0927725169753 -39.150528139
725.625 0.101223014484 -64.7206023284
726.25 0.105824150144 -75.8819599011
726.875 0.10715272875 -46.4940156883
727.5 0.0803165672109 -31.4036302959
728.125 0.0822505852559 3.56401655419
728.75 0.0668824984167 1.26146807254
729.375 0.106723002049 37.9450463682
730.0 0.0714590422982 7.11216387803
730.625 0.0528230791169 16.594816529
731.25 0.0728525026896 66.614784172
731.875 0.0630551466478 111.519430808
732.5 0.0770512264775 154.263611032
733.125 0.102358529087 -176.638732116
733.75 0.0748171706518 171.529559656
734.375 0.0816264953917 -167.396793672
735.0 0.0646446328676 157.603657728
735.625 0.0565783682073 160.999800627
736.25 0.0247643812737 142.131819202
736.875 0.0588939519328 173.161461622
737.5 0.0776328293492 179.546719237
738.125 0.0821939361105 -178.398084263
738.75 0.0759779194331 -176.63661619
739.375 0.0320779172588 -178.699357577
740.0 0.0561913194389 -129.764086345
740.625 0.0753821728255 -147.618555658
741.25 0.0519204404175 -149.092024319
741.875 0.0100620142113 -39.0539730539
742.5 0.0405814132248 -6.77006504547
743.125 0.0460085688749 51.2815801506
743.75 0.0457226124136 83.3311042358
744.375 0.0405398166355 175.696136526
745.0 0.0806491606459 112.515708523
745.625 0.0764259582863 107.558057994
746.25 0.0839646660034 80.9254296313
746.875 0.0537385931585 55.3998187677
747.5 0.0550717179477 11.2041557288
748.125 0.0174116076044 -1.54476101813
748.75 0.0226528501286 -7.06324195251
749.375 0.0343144722615 -34.3148439086
750.0 0.0416558680252 -43.3061913448
