!Created with skrf (http://scikit-rf.org).
# GHz S MA R 50.0 
!freq magS11 angS11
500.0 0.0134216657746 129.46956654
500.625 0.0142013117409 165.156511435
501.25 0.0199521941259 -160.566097466
501.875 0.0456828656896 -172.459726195
502.5 0.0120567604313 122.36832415
503.125 0.015393893853 88.7073345683
503.75 0.00858225564395 -40.0801341524
504.375 0.015239794137 -60.8697253236
505.0 0.0222737866535 -67.8058932408
505.625 0.0291705044412 -76.8224804239
506.25 0.0336761635904 -110.324400464
506.875 0.0622380900858 -97.7274987641
507.5 0.0415329674321 -156.595509417
508.125 0.0429812083232 -104.46547332
508.75 0.0586679926724 -142.963396014
509.375 0.0685269851868 -123.659901922
510.0 0.0303665562162 -172.729478372
510.625 0.0341649616075 -158.919728286
511.25 0.0559873560316 -178.072340741
511.875 0.0544952187119 149.068394527
512.5 0.0415727285793 102.660233869
513.125 0.0532467235907 49.0390609591
513.75 0.0502530669041 25.2491880261
514.375 0.0546630018493 33.5524548983
515.0 0.0495676625215 2.33037550533
515.625 0.0779514600114 49.1262446559
516.25 0.0843434446969 29.7518955105
516.875 0.129117042764 70.320383724
517.5 0.0973365752717 12.9181603025
518.125 0.176763131966 65.1662335035
518.75 0.0821794167572 12.0880910355
519.375 0.0757273628531 23.1794161385
520.0 0.0966229217713 -1.46893455546
520.625 0.0961109197918 -4.79355277863
521.25 0.0844807382645 -22.5543213244
521.875 0.078143752606 3.22524612105
522.5 0.0851155191509 -37.0832528681
523.125 0.164303910412 -38.3405338904
523.75 0.201345471858 -63.0245407666
524.375 0.230795479387 -44.6336869545
525.0 0.0691711414416 -46.6776396004
525.625 0.0409213291624 -26.9045465012
526.25 0.0506899614535 -3.51085629634
526.875 0.0506604451635 -22.9309131216
527.5 0.0471417187094 -25.7789517118
528.125 0.0468477784165 -52.2063630117
528.75 0.0655749109867 -68.8033706264
529.375 0.0939346199535 -105.737407983
530.0 0.0417914370501 -128.401404522
530.625 0.0305333780522 -140.373731527
531.25 0.145195892042 -140.086917686
531.875 0.163420916272 -146.918299018
532.5 0.135394185159 -168.92420478
533.125 0.108624256476 176.864213521
533.75 0.117697279686 170.785553379
534.375 0.115631677994 -177.699637653
535.0 0.0848198110553 163.934229553
535.625 0.06365627648 -179.42830709
536.25 0.0671052964326 167.212503848
536.875 0.0607265145694 -156.418981683
537.5 0.0927257139268 -141.033974993
538.125 0.0961655769143 -172.364268616
538.75 0.109657719777 -176.897661944
539.375 0.0700439034991 -161.806016218
540.0 0.0934355235376 -152.579394296
540.625 0.120944070037 -153.76939638
541.25 0.142911452021 -140.235224092
541.875 0.081701452507 -137.886083756
542.5 0.104368028059 -138.000757918
543.125 0.13907880994 -165.940226072
543.75 0.137740575302 162.026572199
544.375 0.0979471759824 138.055667873
545.0 0.0854759898151 94.4638484219
545.625 0.0974955827161 88.2019941871
546.25 0.0878474330554 70.2550255342
546.875 0.097739139847 55.8675038007
547.5 0.111420134171 59.8400603393
548.125 0.108411406858 76.5105307107
548.75 0.0983817065348 91.9407309912
549.375 0.0958104427663 89.0062944066
550.0 0.0823974981115 128.928828054
550.625 0.0497756072917 162.271551851
551.25 0.0417170765025 -135.698055841
551.875 0.0716588851052 -161.904489925
552.5 0.11088446718 -160.973597715
553.125 0.0969686065852 -169.258974393
553.75 0.0947719485276 -170.614152242
554.375 0.116602286388 165.632988018
555.0 0.12352876984 166.719986603
555.625 0.0923844666206 161.670361029
556.25 0.0915000620295 165.705127835
556.875 0.129508580641 164.48242622
557.5 0.101946668765 170.450272558
558.125 0.0919310184367 167.337880769
558.75 0.0799822000697 -179.470642829
559.375 0.0704693733009 -170.79229774
560.0 0.0444233446454 -143.198175316
560.625 0.058317689674 -132.16872597
561.25 0.0904284527004 -148.289123982
561.875 0.109590621307 -163.139028533
562.5 0.0856957346704 179.051827562
563.125 0.108093317505 145.933720966
563.75 0.129578013192 133.79759973
564.375 0.105740227523 122.360563066
565.0 0.0848282665284 122.20623272
565.625 0.0810361972337 121.8703665
566.25 0.093563618864 157.49280289
566.875 0.0799082731112 178.412677243
567.5 0.0626480648717 -167.7765296
568.125 0.0734327587882 -165.199771173
568.75 0.0663471871314 -145.290181166
569.375 0.052592724755 -114.897907171
570.0 0.0612308332878 -98.7037898495
570.625 0.0885098322713 -107.602480724
571.25 0.089016829586 -115.990027304
571.875 0.0912013139656 -131.034622799
572.5 0.107491167774 -147.461868895
573.125 0.133081078232 -169.221965445
573.75 0.101093455247 162.338835192
574.375 0.0883846230855 145.525258278
575.0 0.0980566657728 164.367706852
575.625 0.102366681271 161.743952895
576.25 0.0884252204438 148.976999733
576.875 0.0821471729812 127.952711707
577.5 0.0810232725243 141.687103804
578.125 0.0577669870939 164.828726597
578.75 0.0468797857049 169.522012025
579.375 0.058452673889 155.535310314
580.0 0.0655186145948 -158.618173285
580.625 0.0775164637733 -143.693566311
581.25 0.0909410913083 -158.196375049
581.875 0.117233041322 179.674584314
582.5 0.109052259645 -169.865300962
583.125 0.091229477572 -167.279749563
583.75 0.083447242008 -170.431101923
584.375 0.104501316157 -158.431725771
585.0 0.0976617488767 -145.71084185
585.625 0.0707024958028 -143.094902283
586.25 0.0667094882184 -135.96154304
586.875 0.0846822244372 -142.035609513
587.5 0.0689394022711 -132.502007984
588.125 0.0584000316597 -172.223357694
588.75 0.0664745458505 -170.064749124
589.375 0.0826254286417 -155.508408981
590.0 0.0924436423819 -170.752624927
590.625 0.106134135797 166.65212046
591.25 0.122785314024 153.737319525
591.875 0.0954627652865 159.541468093
592.5 0.066068182566 141.646524743
593.125 0.060449979836 153.592297747
593.75 0.0761550373951 165.074199822
594.375 0.0580358995817 -150.469702467
595.0 0.0418555500604 -115.710441465
595.625 0.0617021964004 -96.9758709212
596.25 0.0763466859494 -83.4964965544
596.875 0.0689195041498 -67.593380074
597.5 0.0561252162891 -68.4976456373
598.125 0.0668585994005 -56.6508613789
598.75 0.0816152873289 -53.2599815891
599.375 0.0847892435919 -69.4664353137
600.0 0.107447350042 -59.467065417
600.625 0.100545607472 -61.1033573756
601.25 0.08324470624 -79.1052435276
601.875 0.0681803187373 -89.2975831171
602.5 0.0606012971407 -93.8626252756
603.125 0.0420280924459 -51.269358101
603.75 0.03681440128 -18.2411476574
604.375 0.0471581257846 -11.8684536647
605.0 0.0467825326809 -36.4807662878
605.625 0.0530249676858 9.64437540109
606.25 0.0292154950234 25.3070930183
606.875 0.0398406882447 56.6525689045
607.5 0.0576177499202 41.8275458507
608.125 0.0903334366953 39.8863388167
608.75 0.0712040706745 27.2175640794
609.375 0.0758464471982 38.5262142166
610.0 0.0536515364901 30.7702188516
610.625 0.0741427835075 49.8928735276
611.25 0.0579831204997 38.5414097241
611.875 0.0378231999947 64.8094834664
612.5 0.0149230210202 70.3753981196
613.125 0.0145184725408 132.027385777
613.75 0.0470803599311 125.223507039
614.375 0.0586639108408 129.897848983
615.0 0.0361272341656 116.703323913
615.625 0.0176104572721 139.755460582
616.25 0.0779762339228 138.385791218
616.875 0.0662245554515 134.183728109
617.5 0.0375114419391 122.586585606
618.125 0.0119548342054 124.079550925
618.75 0.0467839411006 146.232293056
619.375 0.0346568290306 149.290550094
620.0 0.00418008366425 92.8451627919
620.625 0.0211704040521 -85.4976552698
621.25 0.0436601848299 -100.763977694
621.875 0.0594575601396 -112.183142185
622.5 0.0737814520071 -167.449571089
623.125 0.0629508909916 -174.91448878
623.75 0.0758445580531 163.479176068
624.375 0.0550835557909 177.126300944
625.0 0.0571825698845 -150.809738747
625.625 0.0191256544837 -110.048334293
626.25 0.0391108724502 -175.678893925
626.875 0.00280385897752 127.277369332
627.5 0.0271231451666 -47.9855587752
628.125 0.0437755275397 -7.82489730497
628.75 0.0389807601673 -22.5441202847
629.375 0.0462092696353 -10.05196501
630.0 0.0722781069464 4.91371187673
630.625 0.0796482331268 18.1666774096
631.25 0.0729724394527 -17.123090737
631.875 0.0649086417857 -7.71556393988
632.5 0.0714963364384 -11.0160780607
633.125 0.0456245199175 19.2587364733
633.75 0.0442489545761 25.6479837606
634.375 0.0433687270269 13.0365817453
635.0 0.0327522010626 6.07005393265
635.625 0.0281137864458 21.1417945383
636.25 0.0745934850733 50.6399980673
636.875 0.0576330073043 20.5114278164
637.5 0.0457169078875 47.4864968077
638.125 0.0491649508223 72.2112839014
638.75 0.0885944777448 80.8576183121
639.375 0.101104394456 99.0301654754
640.0 0.0686502110374 105.76642552
640.625 0.0615755993172 112.26872287
641.25 0.0635064280691 127.650324008
641.875 0.0680070104386 155.372257741
642.5 0.0536924063504 156.40054048
643.125 0.0545642165307 152.806393536
643.75 0.0790654906071 -179.544561282
644.375 0.0683295579941 -175.320766839
645.0 0.0730502152042 -179.100326111
645.625 0.100148928628 172.519894174
646.25 0.0891604752853 169.309342989
646.875 0.0803334515451 -174.494103332
647.5 0.0627820777652 -174.815747726
648.125 0.0813273514691 -172.048546217
648.75 0.0709665883192 -162.646051207
649.375 0.0588885944045 -141.128570508
650.0 0.0359580220091 -123.679908347
650.625 0.0561599525859 -86.4046706421
651.25 0.0583751438183 -64.7473239459
651.875 0.0795494354174 -42.6543394894
652.5 0.074242809844 -22.3907806982
653.125 0.114768129473 -0.0372640395513
653.75 0.107259498845 7.43871485405
654.375 0.118147595071 9.47677844776
655.0 0.112721348905 13.5626197204
655.625 0.083170725751 26.1236163235
656.25 0.0532674514645 17.1180015949
656.875 0.0832129105247 9.62038220973
657.5 0.0587461406854 17.2000381438
658.125 0.0686876943753 52.8674800808
658.75 0.0634101138142 64.9713295192
659.375 0.0922737760332 40.2180102695
660.0 0.129006852662 27.4834485938
660.625 0.111948327912 19.6266236095
661.25 0.115696431209 6.21793952832
661.875 0.123552943103 -9.92654831799
662.5 0.124579452945 -19.0238693572
663.125 0.0980461598938 -13.8728118011
663.75 0.103146369894 5.80050454328
664.375 0.106592221336 57.8743063945
665.0 0.0532995134542 89.9051950427
665.625 0.0633410846421 116.282754547
666.25 0.0822924886647 136.569861186
666.875 0.128011612686 171.812412899
667.5 0.0897639709777 -164.905463028
668.125 0.0967160181507 -175.312899412
668.75 0.130290632874 170.971728405
669.375 0.144951189278 178.584207146
670.0 0.0673589429572 -167.933468127
670.625 0.0784460055554 -166.887991105
671.25 0.103424495797 174.870979777
671.875 0.116838290726 169.528071482
672.5 0.0740585426516 160.149425729
673.125 0.0758233468006 160.225629057
673.75 0.113902696051 162.011322971
674.375 0.12330257794 169.137386011
675.0 0.113037580693 -173.822523503
675.625 0.11641030833 -143.39667052
676.25 0.122880316814 -122.771350876
676.875 0.122752455254 -119.996855042
677.5 0.114556560014 -125.506213661
678.125 0.109960414071 -112.17330179
678.75 0.0634414105006 -92.2236766788
679.375 0.0609713203089 -77.1058144571
680.0 0.0677424474373 -64.902654264
680.625 0.121537764127 -73.9430096315
681.25 0.10933998795 -71.0267666761
681.875 0.102599426179 -90.2456108364
682.5 0.146150873834 -121.473347098
683.125 0.142899691835 -114.589675808
683.75 0.127202657965 -100.67538044
684.375 0.111317043727 -76.328980398
685.0 0.138145741195 -38.7555831298
685.625 0.107833132399 3.81418692014
686.25 0.105760983818 24.8588405552
686.875 0.0908428027366 47.2943475704
687.5 0.089307809843 82.1372933313
688.125 0.0757435386516 122.024871526
688.75 0.103852919413 115.838235264
689.375 0.148429292132 120.327046758
690.0 0.133350328096 136.14341666
690.625 0.126296839751 125.157150622
691.25 0.141702691453 99.7640418076
691.875 0.182563253659 74.557286586
692.5 0.140171616099 42.7900046663
693.125 0.098125103503 -17.4700654178
693.75 0.0811741494353 -25.8690576335
694.375 0.134375233949 -23.3753792294
695.0 0.131749741684 12.1014232575
695.625 0.102018432902 57.5945155514
696.25 0.123213335081 109.665153002
696.875 0.135897227394 178.53265625
697.5 0.137739690273 -138.341534627
698.125 0.130037940206 -128.249232072
698.75 0.139084159826 -133.139940896
699.375 0.106643856781 -122.244673786
700.0 0.0944624071665 -112.278608919
700.625 0.118710987219 -92.4280958467
701.25 0.10576017965 -65.7323127737
701.875 0.0820708590664 -57.0669047929
702.5 0.100789078017 -86.8166644804
703.125 0.173484360322 -119.411684842
703.75 0.19572333288 -158.156712465
704.375 0.117675417023 179.678476842
705.0 0.110203560323 163.94499828
705.625 0.142342425007 -169.712563398
706.25 0.149346283034 -113.894933627
706.875 0.0825153830311 -55.6126836569
707.5 0.0771161868911 -32.2672546552
708.125 0.0951900593795 12.2699318271
708.75 0.114434261691 65.2591391874
709.375 0.105649772572 105.958125841
710.0 0.101498034473 134.233190207
710.625 0.108386106616 163.811221069
711.25 0.121184253378 174.839597143
711.875 0.144599925387 179.480896463
712.5 0.147762492732 146.061174993
713.125 0.125445794205 98.2486468136
713.75 0.100674120193 49.5428198718
714.375 0.113379915777 14.5253553185
715.0 0.108926857088 40.576612244
715.625 0.0870431051724 64.2707874782
716.25 0.0804647363041 84.28953143
716.875 0.108346397452 93.7295501191
717.5 0.138593287178 149.20191557
718.125 0.118608336527 170.651812448
718.75 0.101148292366 170.626743889
719.375 0.120432269188 -167.930895533
720.0 0.125180705444 -139.461211965
720.625 0.113315025558 -58.7631132691
721.25 0.0986972005739 -19.9575093049
721.875 0.0856593400783 24.8467510214
722.5 0.0713026205877 80.8486454085
723.125 0.0857712658263 80.6082554973
723.75 0.101497845414 37.468558344
724.375 0.113604360628 -0.0620073526775
725.0 0.0865607220943 -47.4036402335
725.625 0.122086770542 -51.1460978071
726.25 0.121471290258 -61.9322820626
726.875 0.0992464265799 -41.6748450607
727.5 0.0729803367918 -51.8184259321
728.125 0.082275300899 10.8490763338
728.75 0.0918415880132 23.3065721496
729.375 0.0769012792504 11.5464110663
730.0 0.070052575077 4.70367582033
730.625 0.0438145657705 4.18285805493
731.25 0.102245161298 82.0017323052
731.875 0.0873891526188 123.313280376
732.5 0.0791733447144 161.138067532
733.125 0.0733935571025 166.457141318
733.75 0.104708015569 -165.086259393
734.375 0.0610427766338 166.79592636
735.0 0.0603739380376 151.002381672
735.625 0.0315498204327 127.005120917
736.25 0.0633075166817 151.528981771
736.875 0.0691158267713 167.398048299
737.5 0.0782122600854 176.731337787
738.125 0.0575482881867 -177.034991408
738.75 0.107429520959 -161.041165697
739.375 0.0769756658404 -158.206489597
740.0 0.061064551242 -130.948282972
740.625 0.036844792823 -140.263792171
741.25 0.0525059747471 -147.709210706
741.875 0.0413072045237 -104.800739444
742.5 0.0514915353173 -25.2023619673
743.125 0.029951648589 58.0542789057
743.75 0.0363886081778 104.922566844
744.375 0.0430546681888 120.44070187
745.0 0.0562707822329 147.568715541
745.625 0.0660614531035 136.49582898
746.25 0.066983255677 97.1621011208
746.875 0.0749703009016 41.2181116925
747.5 0.047494628875 5.5246632017
748.125 0.0266024896544 -6.46055540984
748.75 0.0292733115849 59.547683874
749.375 0.0394665447375 -29.8209268625
750.0 0.0311907787045 -86.1743447318
