!Created with skrf (http://scikit-rf.org).
# GHz S MA R 50.0 
!freq magS11 angS11
500.0 0.0133453311201 178.955428417
500.625 0.016876919318 29.5017803945
501.25 0.0280642659788 -172.114973036
501.875 0.0392824785094 -175.684351715
502.5 0.0284640436455 159.663460905
503.125 0.0136069417887 73.7218712536
503.75 0.0048891212407 23.6771832366
504.375 0.014963810891 -55.5091516757
505.0 0.014783356155 -47.8389959526
505.625 0.0404239981088 -78.862061817
506.25 0.0271695296572 -123.959948225
506.875 0.0658203298042 -98.5334089397
507.5 0.0568133596612 -107.699450025
508.125 0.0431493372849 -117.388420584
508.75 0.0557065165929 -133.229956882
509.375 0.0505464542007 -154.485033085
510.0 0.0560070402729 -104.464854637
510.625 0.0346529783297 -159.567758565
511.25 0.0575034044119 -174.700173104
511.875 0.0548625801752 148.930984829
512.5 0.0391971197322 104.261161677
513.125 0.0562275629995 52.2487210792
513.75 0.0518538956639 34.8028985045
514.375 0.0389715986297 21.7509930798
515.0 0.0718622914657 10.6491598222
515.625 0.063678152018 45.3779120972
516.25 0.0777445232993 28.4790577292
516.875 0.0976663661092 66.4717332099
517.5 0.140920319277 24.1553755063
518.125 0.168141135975 57.4059389091
518.75 0.0812437520587 12.9906432872
519.375 0.0687545357419 23.3166742407
520.0 0.108283100896 1.05817638669
520.625 0.093017682222 -10.5211293
521.25 0.0783073806303 -26.0163079789
521.875 0.0604923154437 -2.80773699389
522.5 0.111464591672 -29.4975024291
523.125 0.160282004664 -44.8335599804
523.75 0.201576135377 -58.8751509057
524.375 0.201296963416 -56.5725575568
525.0 0.0769457289103 -34.8459445159
525.625 0.0372924108689 -32.7692309797
526.25 0.052332781613 -3.52920687993
526.875 0.0582028329648 -16.4050116844
527.5 0.0554902337618 -22.2699499979
528.125 0.0394717751838 -56.6643266809
528.75 0.053245907674 -72.8433744853
529.375 0.0871915715096 -106.562145362
530.0 0.0368772135532 -137.537212712
530.625 0.0355890922931 -133.175828914
531.25 0.111912606199 -135.526546288
531.875 0.18513796852 -145.621292806
532.5 0.140001778865 -171.067549519
533.125 0.0971495353586 175.422158804
533.75 0.117612746483 171.070170906
534.375 0.111448874491 -177.772494702
535.0 0.0967973651311 165.202031463
535.625 0.057425111377 175.448319281
536.25 0.0692057656266 165.730034082
536.875 0.0911367801425 -159.954844651
537.5 0.0856385554875 -142.728912299
538.125 0.100094444964 -171.32968052
538.75 0.109929093221 -177.969644584
539.375 0.0836429891679 -160.808688064
540.0 0.104692970393 -155.956347875
540.625 0.127429343428 -153.995027854
541.25 0.120707772291 -141.110878065
541.875 0.107676527133 -145.076883698
542.5 0.0960023562666 -137.44877075
543.125 0.139703020279 -165.865899348
543.75 0.132437162231 160.74647129
544.375 0.0954026711483 137.164006308
545.0 0.0979333499856 92.0715862439
545.625 0.0885450515379 83.6711616179
546.25 0.0814127659853 69.9285773064
546.875 0.0798919244124 55.7630721255
547.5 0.121982643137 59.2075213614
548.125 0.113813936286 80.0073806405
548.75 0.0894149131466 90.2991358599
549.375 0.0968710462876 89.8501184417
550.0 0.0984192019153 127.547002529
550.625 0.0418066633351 156.597411659
551.25 0.0366428857838 -126.003705233
551.875 0.0684368157536 -158.71456486
552.5 0.117625513486 -163.989603418
553.125 0.092530278365 -166.84493798
553.75 0.0939896767359 -169.958177013
554.375 0.111015854183 168.592543565
555.0 0.134401864255 163.375685669
555.625 0.0856174009074 161.657981084
556.25 0.0961281353798 166.052757251
556.875 0.111014791272 167.34559264
557.5 0.11945132049 166.74266282
558.125 0.0885196086797 166.180329122
558.75 0.073467410499 -178.215478867
559.375 0.0637685530812 -170.449508025
560.0 0.0501280440638 -148.899270274
560.625 0.0534440594867 -127.894662918
561.25 0.084996776926 -144.461340662
561.875 0.10347020004 -160.315476736
562.5 0.0994549293429 170.322822014
563.125 0.102841382018 147.724240682
563.75 0.130209543882 133.191103466
564.375 0.104334666085 122.71365334
565.0 0.0913060047129 120.046814374
565.625 0.0736943365919 121.946193415
566.25 0.0883266122831 159.920389673
566.875 0.0668029433832 -176.727842398
567.5 0.0794557416374 178.843233816
568.125 0.067367408508 -161.979598948
568.75 0.0707785164644 -144.980983498
569.375 0.0511358177179 -111.76021681
570.0 0.0627566672588 -112.760582484
570.625 0.0834811774534 -104.118570362
571.25 0.0880973413655 -113.466935068
571.875 0.0855552039597 -124.911977093
572.5 0.116857201295 -160.198099858
573.125 0.126863545891 -167.174446509
573.75 0.103460041769 162.583748197
574.375 0.0774490757728 153.218816602
575.0 0.113645250704 148.188148123
575.625 0.0968533300275 164.73498775
576.25 0.0832898634456 149.158856864
576.875 0.0798531164763 130.68421863
577.5 0.0910672626626 131.743030896
578.125 0.0535541241482 170.183444208
578.75 0.0459571479109 171.859212337
579.375 0.0516869870544 172.576182785
580.0 0.0713946506937 175.104107187
580.625 0.0779405058301 -140.410461728
581.25 0.0909839762902 -161.162046938
581.875 0.117778382909 179.7677144
582.5 0.119971145206 -177.06641713
583.125 0.0969047902816 -171.546573481
583.75 0.0804984903959 -165.068639463
584.375 0.105191214697 -158.213161312
585.0 0.0933871848647 -141.757377048
585.625 0.073455754234 -145.318358083
586.25 0.0708072529742 -138.607587699
586.875 0.0825907050364 -137.863099365
587.5 0.0743397302519 -146.479918759
588.125 0.0602028793565 -177.30347717
588.75 0.0660808393562 -162.62211747
589.375 0.0831793941403 -155.874354702
590.0 0.0937923034823 -166.173596959
590.625 0.104113751621 160.79960653
591.25 0.121613426314 156.215032432
591.875 0.0895814168138 166.057767854
592.5 0.0620309076942 150.568306448
593.125 0.064001066368 143.399738108
593.75 0.0727636394468 173.549339468
594.375 0.0591890514693 -150.739128493
595.0 0.0442389064275 -115.985262673
595.625 0.054326895757 -110.042988258
596.25 0.0777442305795 -79.0516600988
596.875 0.0716501896481 -60.647112335
597.5 0.0597303771568 -55.8649551696
598.125 0.0619831294068 -65.5525296321
598.75 0.0837035433957 -58.6993689269
599.375 0.0865971596021 -68.7290938752
600.0 0.100172703063 -70.0613844297
600.625 0.0979485138967 -62.4319465736
601.25 0.0830443120526 -73.7717555437
601.875 0.0674399233644 -90.2240332183
602.5 0.062552272403 -80.2980622055
603.125 0.0449931262063 -72.9591217436
603.75 0.0411414728162 -8.43235747321
604.375 0.0445850197051 -17.9278056561
605.0 0.0654212565521 -12.8161804885
605.625 0.0472558616144 -16.786648892
606.25 0.0289045989465 24.160726702
606.875 0.0384974732697 49.935253965
607.5 0.0554815151265 41.6755725186
608.125 0.0545550088166 21.1779833409
608.75 0.078986556577 32.4711152531
609.375 0.071688142547 33.4045566603
610.0 0.0756229674124 50.1106239939
610.625 0.0571296012332 30.2984209056
611.25 0.0607785780469 42.9158045462
611.875 0.0411005859247 59.0229229098
612.5 0.0130594125259 69.3409473958
613.125 0.029471602324 126.687728957
613.75 0.02917231745 125.81472835
614.375 0.0709866507792 133.350151748
615.0 0.0503747448833 122.911656522
615.625 0.0384476977447 133.290194718
616.25 0.0236840221347 154.296080935
616.875 0.078857459965 138.974097967
617.5 0.0458994522741 120.336124032
618.125 0.0293632088339 127.8527994
618.75 0.00645139527064 -179.135613829
619.375 0.0471155801915 159.819964766
620.0 0.00661344016654 88.5970454147
620.625 0.0165163531259 -97.313823228
621.25 0.0475996368574 -83.8124001193
621.875 0.0665476131333 -119.439094445
622.5 0.0762037549528 -173.265544938
623.125 0.0832746844668 167.607799831
623.75 0.0438223150095 -174.224925602
624.375 0.0696810778173 177.959602131
625.0 0.0483269572485 -153.066963739
625.625 0.0499688476058 -150.89484394
626.25 0.00889802633209 160.936717609
626.875 0.0081505888724 -170.777354163
627.5 0.0225347908758 -39.1346199718
628.125 0.0454634634981 -7.1137271988
628.75 0.0366281522957 -10.0129613973
629.375 0.04938921116 -4.14461148738
630.0 0.0676884637313 -5.67544537546
630.625 0.0771485513626 16.3061450589
631.25 0.0764674083194 15.9440509838
631.875 0.0681857526489 -14.4798226488
632.5 0.0588508057658 -10.3019773973
633.125 0.0460030489048 22.1583043102
633.75 0.0367103783292 7.77471090304
634.375 0.0502306956921 34.1644758925
635.0 0.0374483824012 -19.9378362622
635.625 0.030639453117 32.1155429289
636.25 0.0468848448701 33.2957864354
636.875 0.0735631322025 47.0277042195
637.5 0.050012818017 53.7578923567
638.125 0.0419496466919 68.7428447837
638.75 0.0915976967387 80.9634972381
639.375 0.0882513021364 95.1487448067
640.0 0.0771181422028 111.244090482
640.625 0.0551707621403 101.034610369
641.25 0.050773722129 114.515047866
641.875 0.0639147162466 153.600425276
642.5 0.0508514101514 146.47066162
643.125 0.05292943864 157.911380013
643.75 0.0818870404504 -177.992893137
644.375 0.0805579806961 -167.587248815
645.0 0.0768395165639 178.876289888
645.625 0.0875099088277 168.220013727
646.25 0.0892818801313 168.851284456
646.875 0.0667791642865 179.668424347
647.5 0.0792760812766 -171.737988632
648.125 0.0739725244047 -178.57783984
648.75 0.0644334450671 -169.015177513
649.375 0.0421361370652 -155.858761887
650.0 0.0640524772044 -116.395989844
650.625 0.0444363233826 -93.208304807
651.25 0.0632633960016 -60.9778090819
651.875 0.0598126802425 -43.6283043313
652.5 0.101100810286 -21.9448120599
653.125 0.109640895078 -1.86172322638
653.75 0.0999426753769 5.459127332
654.375 0.108816197148 9.03343009415
655.0 0.127382489588 16.27309371
655.625 0.0758395135355 16.6572071833
656.25 0.0527013021467 20.6444253803
656.875 0.0619733701019 4.19342540381
657.5 0.0915048070472 27.1224077206
658.125 0.0741995969788 51.9420003067
658.75 0.059581002606 65.8636797605
659.375 0.0928400864452 39.1687665961
660.0 0.116547636165 29.3266470296
660.625 0.122741869689 19.2626492266
661.25 0.105269143481 5.21726287496
661.875 0.109222983532 -9.83125908614
662.5 0.124046426887 -18.2608387259
663.125 0.0916312232803 -19.8383382241
663.75 0.100826907567 6.77217061399
664.375 0.110017199437 57.3460389239
665.0 0.0863487272645 92.3860724841
665.625 0.0522493543284 114.323659335
666.25 0.077212150858 139.028377393
666.875 0.116578735944 174.324276379
667.5 0.108959192591 -170.674637537
668.125 0.0870520057541 -174.501652203
668.75 0.114952400602 172.505591854
669.375 0.118745232321 176.747805188
670.0 0.097447649741 -169.957328806
670.625 0.068924937735 -166.870953326
671.25 0.10818276493 176.619347447
671.875 0.097213616956 168.736790428
672.5 0.0809468009182 159.049188693
673.125 0.0656155217882 163.732962438
673.75 0.101813028514 164.202611513
674.375 0.114293311985 171.97861175
675.0 0.1252950421 -175.892039829
675.625 0.102662345259 -144.183581961
676.25 0.119205881175 -121.970992088
676.875 0.110845145613 -118.853033774
677.5 0.136738808289 -129.535282543
678.125 0.0941593194197 -113.80484665
678.75 0.0675364325943 -90.3507929202
679.375 0.0535042976506 -73.5187311512
680.0 0.0862314443195 -81.3848261007
680.625 0.126327718081 -75.9972550994
681.25 0.0987549621685 -70.8789015915
681.875 0.100936707501 -89.1183986641
682.5 0.132793405746 -118.16558003
683.125 0.179051126527 -123.675755121
683.75 0.115933074339 -99.1653141638
684.375 0.115661317551 -76.8856299413
685.0 0.139339973181 -38.7524686868
685.625 0.139702739424 -2.76021290821
686.25 0.10987165526 23.4743366756
686.875 0.0899025363767 48.6229683181
687.5 0.0816595212428 81.2217222087
688.125 0.0855637338456 106.835278704
688.75 0.105454113527 111.931473566
689.375 0.144305664473 121.500892466
690.0 0.132197670329 136.892850631
690.625 0.121533921785 127.808044359
691.25 0.148056007105 96.3406051819
691.875 0.166010657956 77.0022399811
692.5 0.126801417837 45.2308441784
693.125 0.0780344424052 -14.4485370019
693.75 0.10093835134 -41.5226648633
694.375 0.125784541426 -20.7007914099
695.0 0.129108380513 13.5220318741
695.625 0.102969036853 58.9455537905
696.25 0.119090434902 114.124607477
696.875 0.146064117429 167.587075624
697.5 0.132028726993 -134.179903079
698.125 0.134582058678 -128.19119536
698.75 0.132786552412 -129.820717373
699.375 0.109661143437 -123.427034814
700.0 0.0968122629282 -112.188802009
700.625 0.119717669648 -94.5556307067
701.25 0.100101246674 -61.8562212265
701.875 0.0852266426684 -62.8141788863
702.5 0.102435406051 -81.0209656496
703.125 0.173667839943 -113.506488619
703.75 0.171475778572 -149.070841432
704.375 0.13537322566 166.979781241
705.0 0.101798045193 167.468516265
705.625 0.148606010014 -168.51347195
706.25 0.151544663309 -116.09286111
706.875 0.095065219095 -64.9703007835
707.5 0.0801830570222 -41.2718139231
708.125 0.0888540937447 21.5107017925
708.75 0.114958575909 64.9503120762
709.375 0.10671973004 105.862159821
710.0 0.103851877636 125.363343084
710.625 0.107392397367 169.499475539
711.25 0.122267802584 173.560025632
711.875 0.145888736225 162.613141969
712.5 0.151510148849 143.42442624
713.125 0.122453125242 100.704568846
713.75 0.101955027906 52.1695214638
714.375 0.112432988959 28.4552364827
715.0 0.117710642937 16.4950001411
715.625 0.088451461365 71.9702427949
716.25 0.0816063947638 80.3834783322
716.875 0.106647876596 104.144040693
717.5 0.147327073962 147.969457643
718.125 0.117713872565 161.388373969
718.75 0.105820766198 174.852201276
719.375 0.12475193109 -159.575427184
720.0 0.129811122869 -120.345620753
720.625 0.113386087362 -85.5509064959
721.25 0.0952696828622 -15.0625682379
721.875 0.0877726816922 21.9622095516
722.5 0.0717256317572 66.9908513657
723.125 0.089009305595 75.9529057354
723.75 0.114396137645 47.6046021383
724.375 0.122539587324 9.14089738762
725.0 0.0974202134162 -38.1809403589
725.625 0.0860333125302 -77.7159939709
726.25 0.117842562539 -55.1484417413
726.875 0.105140371623 -43.9257421895
727.5 0.0803925152052 -30.766456207
728.125 0.0744480232404 -7.80974474786
728.75 0.0762142344932 8.75309085371
729.375 0.0878633838735 23.3160534736
730.0 0.0822023372617 14.6577552419
730.625 0.0778975838575 30.4070516297
731.25 0.0453748990558 46.7103942529
731.875 0.0981833761415 129.476100679
732.5 0.0818981119552 154.403748351
733.125 0.0690445188993 165.362245359
733.75 0.0531167649732 148.807245347
734.375 0.0791790521523 177.602492229
735.0 0.0734913322624 158.201408627
735.625 0.0551613089947 140.522033983
736.25 0.00888857572559 148.110886414
736.875 0.0859899161351 165.822377346
737.5 0.102877193538 177.028995311
738.125 0.103864585894 -167.643873661
738.75 0.0444494716993 171.072108775
739.375 0.0923253688769 -149.263391184
740.0 0.0565793203727 -140.360146652
740.625 0.0372923668741 -147.998044712
741.25 0.0411374260771 -163.601916517
741.875 0.0148104815741 -91.4252981335
742.5 0.0742160529406 -20.7428679268
743.125 0.0263579839959 60.5004018705
743.75 0.0307123326298 90.732141647
744.375 0.032937558831 131.595220888
745.0 0.0536789452309 143.528175077
745.625 0.065012942796 134.189100093
746.25 0.0739578898301 84.7272938945
746.875 0.0523018479961 64.9723126171
747.5 0.0602848215638 7.4209898483
748.125 0.0338917619612 -11.0084945374
748.75 0.0263946229911 12.1936946
749.375 0.0273364030676 -24.3618090243
750.0 0.0322327689152 -74.3694760384
