!Created with skrf (http://scikit-rf.org).
# GHz S RI R (50+0j) 
!freq	ReS11	ImS11	
500.0	3.453560521	-3.771285892	
500.625	-0.2913386275	-3.594635452	
501.25	-0.9151687939	-0.5780267134	
501.875	-0.9763360913	-2.010006391	
502.5	-0.4991090057	-0.2152849063	
503.125	-0.125275332	-0.04236668326	
503.75	0.104017321	0.4450482466	
504.375	-0.06380188854	-0.05407140644	
505.0	0.2245072414	-0.09018844315	
505.625	-0.2236646492	-0.02557116663	
506.25	0.2482839174	-0.4172918308	
506.875	-0.4225580997	0.9681826755	
507.5	0.9168667958	-0.7455195329	
508.125	0.2291600034	-2.873736597	
508.75	-0.6974191338	-2.536923688	
509.375	2.125157593	-3.568106388	
510.0	-3.038951802	0.3459240311	
510.625	-0.121221967	-0.2594535957	
511.25	-0.5007455907	-0.3114137429	
511.875	-0.4233539636	0.09793981222	
512.5	-0.03204611888	0.1452840817	
513.125	0.06639687596	-0.289307244	
513.75	-0.4187015588	-0.1556103611	
514.375	0.1386942032	-0.03789032584	
515.0	-0.9479830159	-0.5237138415	
515.625	1.896023033	-0.05421694709	
516.25	-2.659248246	-4.388454432	
516.875	-0.7814387231	0.7432285423	
517.5	0.5285479235	-0.821708034	
518.125	-0.3570113829	0.3126919758	
518.75	0.2756906999	-0.7245149326	
519.375	-0.1858839613	0.2852512144	
520.0	0.1925361213	0.05361855035	
520.625	0.6037698123	-0.03251032502	
521.25	-0.3585149042	-0.8164432703	
521.875	-0.1325387976	-0.03641489447	
522.5	-0.2712262201	0.1343921664	
523.125	-0.009575484025	-0.1501590653	
523.75	-0.4333586813	0.2027152323	
524.375	-0.1347825291	-0.07698013977	
525.0	-0.26096265	0.6318976304	
525.625	0.1628614182	-0.1893781259	
526.25	0.006372076785	0.1733275296	
526.875	-0.1297164341	-0.07708164353	
527.5	-0.2226032964	0.8736871092	
528.125	0.4216772456	0.3400421263	
528.75	-0.2972564919	0.6419932306	
529.375	0.3578252765	0.1071470239	
530.0	-0.3225986427	0.6143963969	
530.625	0.7025151474	0.4902348371	
531.25	0.7839725351	0.5414418651	
531.875	0.6354438028	-0.9942855223	
532.5	0.1002630739	0.09273984632	
533.125	-0.3060911925	-0.6814911286	
533.75	0.7238973417	-0.008655781434	
534.375	-0.9304309954	-1.026839991	
535.0	-0.2208733972	-0.02458259311	
535.625	-0.6827396481	0.2018250303	
536.25	0.1745639799	0.2455252702	
536.875	0.1073067625	0.1388897838	
537.5	0.2493425455	-0.1749754088	
538.125	0.08376528688	-0.1633713916	
538.75	0.4951928596	-0.1640613331	
539.375	-0.3658762855	-0.3787303489	
540.0	-0.2071076179	-0.2474204287	
540.625	-0.4432565209	-0.1437661036	
541.25	-0.2087619035	0.1131704315	
541.875	-0.04539882974	-0.04470879029	
542.5	-0.1644977775	-0.1866672985	
543.125	-0.2016192319	0.05864537118	
543.75	-0.1208755422	-0.156435295	
544.375	-0.1376621147	0.2830399759	
545.0	-0.05718787118	-0.08890022729	
545.625	0.2813489381	0.3525063199	
546.25	0.06490276784	-0.1736237276	
546.875	0.3966074015	0.2084773906	
547.5	-0.03712136513	-0.5033045151	
548.125	0.04512929565	-0.1768400942	
548.75	-0.294363561	-0.4526324435	
549.375	-0.3926458132	-0.03314859077	
550.0	-0.02581069264	-0.06734388906	
550.625	-0.2581344834	0.1036967092	
551.25	-0.04474055319	0.002877760005	
551.875	-0.2818259237	0.1900445462	
552.5	0.004352593127	0.2052985629	
553.125	-0.08303001627	0.1414555255	
553.75	0.1458889002	0.1041706275	
554.375	0.1942320445	-0.009151840569	
555.0	0.2366031026	-0.15644007	
555.625	0.1841802593	-0.2740408346	
556.25	0.1342226925	-0.3276777233	
556.875	-0.07875753488	-0.3690338085	
557.5	-0.2349746231	-0.2399354642	
558.125	-0.2725657037	-0.06826366528	
558.75	-0.2285501679	-0.01430144372	
559.375	-0.2851553378	0.0508630002	
560.0	-0.1667453776	0.1917732123	
560.625	-0.1589168797	0.2057356365	
561.25	0.05572941552	0.3010816451	
561.875	0.05538238593	0.001519233008	
562.5	0.01937249861	0.2343503301	
563.125	0.1649321096	0.02210959099	
563.75	0.2901360987	0.1428459027	
564.375	0.3373936126	-0.3633260408	
565.0	0.03589411519	-0.2240688729	
565.625	0.04331061446	-0.4257455892	
566.25	-0.3877969681	-0.1794635594	
566.875	-0.1809568931	-0.1325106803	
567.5	-0.3688957147	-0.3850476049	
568.125	-0.4655978942	-0.2266751707	
568.75	-0.3006055932	-0.2744069285	
569.375	-0.7740357245	0.2889630581	
570.0	0.001647431499	0.5053832433	
570.625	-0.3085629493	0.1234734085	
571.25	0.103392442	0.6622283055	
571.875	-0.1527315815	-0.08142664917	
572.5	0.6035224251	0.1255432897	
573.125	-0.1381056896	-0.3978931376	
573.75	0.2761789026	0.05019950508	
574.375	0.04644108628	-0.5037215978	
575.0	-0.07071064571	0.1794759098	
575.625	0.3162005316	-0.3486408668	
576.25	-0.201214217	-0.3035712673	
576.875	0.2678696234	-0.1226657951	
577.5	-0.01372037152	-0.6506181524	
578.125	-0.2858254485	-0.207124649	
578.75	0.03056369708	-0.2183445908	
579.375	-0.2725891289	-0.359911752	
580.0	-0.1740722689	0.1861681557	
580.625	-0.1079548502	-0.3278452078	
581.25	-0.2706331854	0.4355425386	
581.875	0.09082329637	0.03028089992	
582.5	-0.2172944912	0.485542994	
583.125	0.6210009468	0.204430073	
583.75	-0.3372928342	-0.03917196765	
584.375	0.5049124071	0.3011385547	
585.0	-0.1716332123	-0.09982902944	
585.625	0.5814512935	0.3112265459	
586.25	0.2905930683	-0.4663291052	
586.875	0.08493116508	-0.01758047814	
587.5	0.1106571429	-0.5550800954	
588.125	-0.3363787779	-0.2268177598	
588.75	0.343245624	-0.1270053138	
589.375	0.190642783	-0.6164773068	
590.0	-0.1455929751	-0.1130016523	
590.625	-0.4002454933	-0.316799654	
591.25	-0.3337369088	0.4350452992	
591.875	0.03582785096	0.1568179605	
592.5	-0.1494961289	0.08410690027	
593.125	0.1272912756	0.1644488094	
593.75	-0.1830706931	0.2386426881	
594.375	0.6579361264	0.3820491818	
595.0	0.2734088301	-0.1138953402	
595.625	0.1660985659	0.520718765	
596.25	0.8073135739	-0.1061360041	
596.875	-0.127080502	0.1533749362	
597.5	0.6348076909	0.4805706203	
598.125	0.3682019164	-0.09024613185	
598.75	0.1792706901	0.450974747	
599.375	0.6751353986	-0.221716414	
600.0	0.1574433053	-0.2934008755	
600.625	0.4497502849	-0.2349006501	
601.25	0.157599723	-0.6217168924	
601.875	-0.1279501715	-0.126708427	
602.5	-0.3530612693	-0.1684789121	
603.125	-0.1825428805	0.1586261638	
603.75	-0.2499966468	0.1549427239	
604.375	-0.18181788	0.08601409421	
605.0	-0.2830603315	0.2521780524	
605.625	0.07919393812	0.0613211883	
606.25	-0.5909260948	0.0849536071	
606.875	-0.08409799387	0.4434366131	
607.5	-0.4898966902	-0.03715624616	
608.125	0.05875575543	1.053306053	
608.75	0.1425999054	-0.002190468911	
609.375	0.779651924	0.2302184493	
610.0	0.2225177193	-0.6309837193	
610.625	0.3296958046	0.03923890362	
611.25	-0.09492608694	-0.6617958982	
611.875	-0.02474923246	-0.0597025404	
612.5	-0.511791229	-0.3947144092	
613.125	-0.1801571812	0.3146657275	
613.75	-0.4740873746	0.1780589335	
614.375	0.3651859364	0.3212460519	
615.0	-0.2714364089	0.04134699225	
615.625	0.3690398143	0.285112752	
616.25	-0.2848829818	0.0109954313	
616.875	-0.3291430234	0.7062781487	
617.5	0.2091128299	0.3570511538	
618.125	-0.3735383152	0.4748694498	
618.75	0.3017227163	0.5132344979	
619.375	0.05257801501	0.2113646658	
620.0	0.5879547852	0.1965132358	
620.625	0.1024534192	-0.3034920624	
621.25	-0.1389199714	-0.5141306775	
621.875	-0.4438713217	-0.05370305958	
622.5	-0.4697177854	-0.05062872494	
623.125	0.06487051194	0.6168845608	
623.75	-0.04858445424	0.04033790355	
624.375	0.3884654237	-0.3114434195	
625.0	-0.1102059896	0.2225403034	
625.625	0.3832321223	-0.4636897903	
626.25	-0.3767216968	0.08211280963	
626.875	-0.04107039113	-0.5242942221	
627.5	-0.620833272	0.04017277588	
628.125	-0.01276993734	0.02091635894	
628.75	-0.07995599838	-0.5324944855	
629.375	-0.419165123	-0.1777645309	
630.0	-0.2295917739	-0.2769813557	
630.625	-0.6494138154	0.1196711127	
631.25	-0.1356452763	0.5380309035	
631.875	-0.1665642429	0.3894671865	
632.5	0.4372871766	0.5592829363	
633.125	0.4421578162	0.01415885884	
633.75	0.3028397003	-0.1208559323	
634.375	0.2849892811	-0.3128068674	
635.0	-0.3032211353	-0.2995303186	
635.625	-0.03794499665	-0.3153202281	
636.25	-0.6177572004	0.280960531	
636.875	0.1996932404	0.2978138515	
637.5	-0.498615736	-0.08884287855	
638.125	0.2764951854	0.5358460848	
638.75	-0.3598286818	-0.06230073052	
639.375	-0.01938632652	1.011811706	
640.0	0.5733353518	0.1656366945	
640.625	0.1259010131	0.4792036568	
641.25	0.9947677188	-0.06746374861	
641.875	0.0114565149	-0.5279561378	
642.5	0.2655074946	-0.259669193	
643.125	-0.6335761849	-0.5629327497	
643.75	0.03393479754	0.2250079167	
644.375	-0.6135988436	-0.2804908297	
645.0	-0.1946431444	0.6032016417	
645.625	0.1431598785	0.188992555	
646.25	0.2217760357	0.5028822212	
646.875	0.438320619	-0.3740000269	
647.5	-0.2058425326	0.2534048068	
648.125	0.7797182655	0.1130883748	
648.75	0.05143422514	-0.4754244035	
649.375	0.9771944549	0.0512193222	
650.0	0.2712160679	-1.431884615	
650.625	-0.2479877936	-0.1769544097	
651.25	1.128781648	-0.2835079671	
651.875	0.397355386	-1.183822199	
652.5	0.1067938786	0.2242465533	
653.125	1.11802516	-0.2622323263	
653.75	-0.04491560057	-0.8214875064	
654.375	0.144192743	-0.2717842005	
655.0	-1.058011142	-0.5755059432	
655.625	-0.01700497197	0.6926962939	
656.25	-0.1629058299	0.02880936886	
656.875	0.2841228863	0.5475326303	
657.5	-0.001975098019	-0.2026823918	
658.125	0.2761951783	0.7667342066	
658.75	0.843775099	-0.09839834298	
659.375	0.4335973597	-0.3605156124	
660.0	0.6969900981	-0.3096048541	
660.625	0.2310615275	-1.349514601	
661.25	-0.08235856134	-0.2262170593	
661.875	0.9423305584	-0.4581214457	
662.5	0.4895343432	-0.9627357954	
663.125	0.08886467007	-0.07170705151	
663.75	0.8507905769	-0.9807789075	
664.375	-0.6201629766	-0.4925471203	
665.0	-0.1590796159	-0.5203597667	
665.625	-1.072275823	0.2691680044	
666.25	0.2127253581	0.601759241	
666.875	-0.06107144041	0.4641143238	
667.5	0.6881664519	0.276125607	
668.125	0.2314955201	-0.2749839314	
668.75	0.6053140761	-0.01271738914	
669.375	0.04717111213	-0.8451696244	
670.0	-0.02686805488	-0.2229208167	
670.625	0.1844725488	-0.480602114	
671.25	0.0008152402477	-0.5939169081	
671.875	0.05855699098	-0.1464742677	
672.5	0.750506089	-0.2978178921	
673.125	0.2917559003	-0.7158006008	
673.75	0.113240209	-0.2016750556	
674.375	0.5257983083	-0.7519073428	
675.0	-0.8735098209	-0.4143889234	
675.625	0.2294161009	-0.2868054848	
676.25	-0.9413559461	-0.1557411853	
676.875	0.02953305433	0.4734176442	
677.5	-0.5711697973	-0.4603110998	
678.125	-0.08603003437	0.8799706179	
678.75	-0.02098798754	0.1282528165	
679.375	0.4303191981	0.4797159265	
680.0	0.5077453969	-0.6130137917	
680.625	-0.2282471042	0.1664163635	
681.25	0.5959416677	-0.09172026437	
681.875	0.2107402704	-0.1745806952	
682.5	0.2103144385	0.3528870841	
683.125	0.8256309392	0.2537562727	
683.75	0.5030215138	-0.162395842	
684.375	0.36703054	0.1208487684	
685.0	0.9232097171	0.3976273614	
685.625	0.5934971853	-0.7555515692	
686.25	0.3569228339	0.7523954276	
686.875	1.156330399	-1.277634321	
687.5	-0.1906919266	-0.09430726961	
688.125	0.5481468417	-1.395829677	
688.75	-1.748737365	0.3145766167	
689.375	-0.3076261923	-0.1609993709	
690.0	0.3729559878	1.57872504	
690.625	0.5767564714	-0.03407515041	
691.25	0.417198246	0.9830931924	
691.875	1.506517633	0.5022414013	
692.5	1.007590606	0.3218984393	
693.125	1.571878926	0.02684392034	
693.75	1.277256086	-0.7463170111	
694.375	0.9051863438	-0.7838121739	
695.0	0.8928600076	-0.8499822392	
695.625	0.996044565	0.02399894803	
696.25	1.635309494	-0.007996688735	
696.875	0.4625493522	0.4456104224	
697.5	1.324805356	1.671311304	
698.125	1.114666544	-0.6105956263	
698.75	1.387268464	-0.388941758	
699.375	-1.738614706	-0.9142291406	
700.0	0.1674160052	0.3865191783	
700.625	0.1340425687	1.421517574	
701.25	0.6186327229	-0.1865543424	
701.875	0.2035557659	0.9089993725	
702.5	1.388573198	0.2624409845	
703.125	0.4084975032	0.3090608898	
703.75	1.300706865	-0.2480366798	
704.375	0.1275338796	-0.6745492115	
705.0	0.8744333064	0.230291347	
705.625	0.6135257884	-0.6722811111	
706.25	0.01709872304	0.5182762115	
706.875	1.211893314	1.062919862	
707.5	0.4040931482	-0.03035711305	
708.125	1.329705132	0.6718808348	
708.75	0.2982634177	-1.421668512	
709.375	-0.3294099268	-0.3481481998	
710.0	-0.663132233	0.6181558318	
710.625	0.4494371864	0.1372620938	
711.25	0.1289778425	0.4110710927	
711.875	0.5678664804	0.09243454643	
712.5	0.7730029193	-0.04288529901	
713.125	0.4659255673	-0.4822452477	
713.75	0.3557626189	-0.4045958949	
714.375	-0.08721058172	-0.8164570965	
715.0	-0.1769634085	-0.004616897062	
715.625	0.5294289593	-0.9150261869	
716.25	-0.4652774723	-0.6802916596	
716.875	0.9306675818	0.4120646742	
717.5	2.377994405	-0.6569202936	
718.125	-0.2357262986	-0.9213033078	
718.75	3.387571066	0.898666118	
719.375	0.8078417779	-2.962232281	
720.0	0.7028422272	-0.6812348152	
720.625	1.282531878	-4.026200758	
721.25	-1.758508779	-1.647340749	
721.875	0.2875166237	-2.282170924	
722.5	-2.06476308	-2.095118705	
723.125	-1.961868097	0.5944291963	
723.75	-0.75918187	0.5505162136	
724.375	0.1469748525	1.580623658	
725.0	0.6306932242	0.5032628755	
725.625	0.1532030611	0.9078478781	
726.25	-0.1341078045	2.088396696	
726.875	1.489377496	2.171973345	
727.5	-1.57378493	1.716338516	
728.125	0.7891512753	8.371803055	
728.75	3.917679418	3.887142201	
729.375	-7.527343441	2.888708091	
730.0	8.835604982	20.46456749	
730.625	4.194448273	0.3503012292	
731.25	-7.724905636	9.517350162	
731.875	-3.976988049	15.58568694	
732.5	-2.02095639	-1.581354675	
733.125	-9.494410444	1.654209761	
733.75	-0.3477116916	4.183992822	
734.375	1.272987979	-0.08563202333	
735.0	0.8396191378	-2.12627744	
735.625	-0.7288461295	1.501824342	
736.25	-0.7772291704	0.6406043567	
736.875	1.3955336	1.848784884	
737.5	3.093160037	-0.759268123	
738.125	1.121351505	-0.30643701	
738.75	7.97946262	-2.421971008	
739.375	4.367146781	-9.392703126	
740.0	-3.46060689	1.716685198	
740.625	18.41479965	15.79920554	
741.25	16.38930009	-9.981401471	
741.875	-18.29552515	-11.24867482	
742.5	-11.78203092	-4.50595497	
743.125	-0.430745109	2.468843981	
743.75	1.393519694	-5.459222134	
744.375	-1.905265552	1.264128378	
745.0	-0.1010824151	-0.1142596374	
745.625	0.3872350033	-0.08190644761	
746.25	-0.1465058425	-0.06076045286	
746.875	-0.5864011138	0.0808202291	
747.5	0.4134775927	1.195273635	
748.125	0.478757508	1.170603481	
748.75	0.362830787	1.313600583	
749.375	0.6408950951	1.473470982	
750.0	-0.8043145058	0.2360468397	
