!Created with skrf (http://scikit-rf.org).
# GHz S RI R (50+0j) 
!freq	ReS11	ImS11	
500.0	0.3602249317	-0.966736864	
500.625	1.434607506	-3.006437879	
501.25	-2.009288121	-2.131930592	
501.875	-1.233436516	0.01106265467	
502.5	0.09453927021	-0.3477820179	
503.125	-0.3427527316	0.2031225338	
503.75	-0.01952151473	-0.04031432572	
504.375	0.188537478	-0.02700188683	
505.0	-0.08777763722	0.03570471198	
505.625	0.1041922568	-0.3861474847	
506.25	-0.2433934499	0.3504678052	
506.875	-0.5955604358	-0.9458837426	
507.5	-1.530946239	-0.9793100446	
508.125	0.06841639924	-0.1950393709	
508.75	2.99602016	-3.48476311	
509.375	-3.387478415	-3.217392651	
510.0	-0.625622128	-0.658189761	
510.625	-1.150292666	-0.7088287336	
511.25	0.01303573653	-0.3379567951	
511.875	-0.5766246713	-0.1756432213	
512.5	-0.07965469444	0.1285038062	
513.125	-0.01678849779	-0.1390873793	
513.75	0.02403808985	-0.2940580795	
514.375	-0.6664176369	-0.03358602807	
515.0	1.378583371	-0.01102315689	
515.625	-2.247485906	-1.419066115	
516.25	1.076157561	-0.3476136211	
516.875	-1.388338311	-2.689520274	
517.5	-0.711686196	0.2385506824	
518.125	0.0004918485196	-0.439245368	
518.75	-0.5440796402	0.03544456856	
519.375	-0.1995780179	0.006180658429	
520.0	0.4807542814	0.2032052707	
520.625	0.3066264341	-0.2932164175	
521.25	0.1891100411	-0.5552467817	
521.875	-0.6225621877	0.08366144795	
522.5	0.006384227067	-0.03091253685	
523.125	-0.1887723746	0.186514052	
523.75	-0.154041862	-0.1767794088	
524.375	-0.4800675345	0.463970056	
525.0	-0.1558061864	-0.01529940888	
525.625	0.1130147826	0.3703909957	
526.25	-0.177801052	-0.2550016454	
526.875	0.004632528026	0.3021894212	
527.5	-0.1434238876	0.1638453875	
528.125	-0.01766392653	1.197134501	
528.75	0.5329402299	0.4756031102	
529.375	-0.02662034129	0.3439167986	
530.0	0.2655333406	0.1443145036	
530.625	0.1175699497	1.317114945	
531.25	0.9454395557	-0.5302572178	
531.875	0.6685314518	-0.1082409131	
532.5	-0.5773189907	-0.4428658036	
533.125	0.667937318	0.02587105858	
533.75	-0.1743203222	-0.6655421012	
534.375	0.2296990896	-0.6350957661	
535.0	-1.131362027	-0.1257794473	
535.625	-0.1134160197	0.1547991362	
536.25	-0.1114309942	0.2688782639	
536.875	0.3364252708	-0.01692165714	
537.5	0.06204361488	-0.03000388638	
538.125	0.4488210293	-0.2041853384	
538.75	0.1146285787	-0.2759433452	
539.375	-0.02233021174	-0.4774816634	
540.0	-0.6461863454	-0.2995907339	
540.625	-0.140249501	-0.04153967663	
541.25	-0.2907090226	-0.06275734403	
541.875	-0.147312689	0.01488922335	
542.5	-0.04304922547	-0.03422909651	
543.125	-0.2012393679	-0.2876014056	
543.75	-0.2607802346	0.261479131	
544.375	-0.158753207	-0.1313684642	
545.0	0.1251509619	0.283553406	
545.625	-0.09989578037	0.03271910802	
546.25	0.4777479571	0.1705641363	
546.875	-0.01098648869	-0.1382265627	
547.5	0.4084686238	-0.194947436	
548.125	-0.2987870563	-0.5260995609	
548.75	-0.2003445029	-0.0759753043	
549.375	-0.1858599463	-0.3170759602	
550.0	-0.2718880505	0.1442365015	
550.625	-0.04125955873	-0.1152247152	
551.25	-0.2523571421	0.1995471509	
551.875	-0.0918459007	0.04335601673	
552.5	-0.1948880927	0.2577793423	
553.125	0.02554973248	0.1332079378	
553.75	0.08524180969	0.1267912814	
554.375	0.2524660337	-0.004729943363	
555.0	0.2094323089	-0.1757625516	
555.625	0.2093284569	-0.2403643324	
556.25	0.1551690244	-0.3515259678	
556.875	-0.09655739565	-0.3769300067	
557.5	-0.2188497746	-0.2421465787	
558.125	-0.2771918814	-0.09941099963	
558.75	-0.2583047318	0.01223233865	
559.375	-0.2260398936	0.02109486758	
560.0	-0.2690156362	0.1800441595	
560.625	-0.06393484467	0.2878808791	
561.25	-0.01890207536	0.1587426497	
561.875	0.1243428645	0.1830467848	
562.5	-0.03382279803	0.02510775501	
563.125	0.2514709548	0.251973204	
563.75	0.1975483413	-0.0974561215	
564.375	0.3985347693	-0.09572363053	
565.0	0.1249084507	-0.500051333	
565.625	-0.09924693569	-0.2055272268	
566.25	-0.1621755083	-0.3289156953	
566.875	-0.4766249917	-0.1931161149	
567.5	-0.2154510672	-0.08631289768	
568.125	-0.2640314134	-0.5739220516	
568.75	-0.655655899	-0.01117724972	
569.375	-0.3951508062	0.01989337207	
570.0	-0.4614112728	0.6687165216	
570.625	0.128986867	0.3611043547	
571.25	-0.3053645235	0.1331884361	
571.875	0.5278383028	0.2271762203	
572.5	-0.06440211149	0.09612238752	
573.125	0.5277103877	-0.3217792017	
573.75	-0.1566656897	-0.4207522439	
574.375	0.1930936774	0.1233499548	
575.0	-0.02140918151	-0.4155450397	
575.625	0.1568399852	0.1320110792	
576.25	0.2837327621	-0.4741666814	
576.875	-0.2936551413	-0.2691520672	
577.5	0.1918049925	-0.1227069748	
578.125	-0.01542048668	-0.614954044	
578.75	-0.4031647501	-0.2013169701	
579.375	-0.009845314182	-0.0150084277	
580.0	-0.2205257263	-0.3140958875	
580.625	0.009007540458	0.1518964282	
581.25	-0.4842712301	0.003439552057	
581.875	0.2129527949	0.5298309954	
582.5	0.1455178599	-0.02441991623	
583.125	-0.1629554042	0.4378059404	
583.75	0.5571126436	-0.1723322087	
584.375	-0.3459964705	0.3174331535	
585.0	0.6268659028	0.07223053337	
585.625	-0.01085073514	-0.1027131399	
586.25	0.6396234866	0.05747395448	
586.875	-0.1216346654	-0.4758338527	
587.5	0.1802917653	-0.1301638679	
588.125	-0.03843626889	-0.6059571615	
588.75	-0.2194630341	-0.253268423	
589.375	0.3966742603	-0.06605473166	
590.0	-0.2336707291	-0.6084199767	
590.625	-0.3835071445	0.03750883605	
591.25	-0.2412635313	0.09065846608	
591.875	-0.2544958489	0.3869142935	
592.5	0.1576661912	-0.03644852422	
593.125	-0.1193908641	0.2590449173	
593.75	0.1259283116	0.1232413041	
594.375	0.1609454334	0.4214282579	
595.0	0.7344940986	0.3451298572	
595.625	0.1896713219	-0.2196851461	
596.25	0.2673958	0.5274262486	
596.875	0.6828166523	-0.1357876485	
597.5	-0.01795432897	0.1514104497	
598.125	0.5380610278	0.5180232119	
598.75	0.2794073542	-0.05898556269	
599.375	0.5472100118	0.2554179708	
600.0	0.37768917	-0.6012078073	
600.625	0.1457546727	-0.2358528116	
601.25	0.3634034153	-0.3743719603	
601.875	-0.2685333131	-0.4533637555	
602.5	-0.1854656386	-0.04182545966	
603.125	-0.2026100068	0.08259099216	
603.75	-0.3722625552	0.115022352	
604.375	-0.1177108482	0.3417152886	
605.0	-0.2088574921	-0.04850965595	
605.625	-0.1828179447	0.3664569931	
606.25	-0.1134267225	-0.06687168314	
606.875	-0.7400613211	0.2662534529	
607.5	0.01402548736	0.4083407181	
608.125	-0.4428732034	0.3923256921	
608.75	0.8416601048	0.5039598871	
609.375	0.1236868724	-0.01529491559	
610.0	0.70922762	-0.2472661352	
610.625	-0.01295515487	-0.4674057298	
611.25	0.3271098188	-0.2314983339	
611.875	-0.4839480808	-0.2277033957	
612.5	-0.1437387359	-0.2017245264	
613.125	-0.7326397253	0.08349527861	
613.75	0.06839708628	0.2261568565	
614.375	-0.03033523419	0.4221346234	
615.0	0.1931219484	-0.1161659842	
615.625	-0.3101910077	0.4239682733	
616.25	0.2458669535	0.3078164161	
616.875	-0.4217349752	0.206520387	
617.5	-0.1248519495	0.797590646	
618.125	0.160367087	0.2078734885	
618.75	-0.2088954336	0.595448181	
619.375	0.4165933532	0.298256544	
620.0	0.2604323944	0.1927529378	
620.625	0.2692222433	-0.4785145704	
621.25	-0.1027791699	-0.3174382336	
621.875	-0.5649086767	-0.2499299896	
622.5	-0.3850024856	0.1573577119	
623.125	-0.2746608773	0.42685734	
623.75	0.4205267751	-0.0747908756	
624.375	0.09810944386	0.1374064571	
625.0	-0.1097265878	-0.3578637685	
625.625	0.2897989275	0.1084657074	
626.25	-0.203921576	-0.6071008255	
626.875	-0.2994047412	0.1473412406	
627.5	-0.1861860932	-0.4146007223	
628.125	-0.4727917747	-0.0624355917	
628.75	0.02984109223	-0.1581561367	
629.375	-0.2809783776	-0.5758644319	
630.0	-0.3471500572	0.04939679004	
630.625	-0.5511682805	-0.07225715263	
631.25	-0.4174117367	0.5747368934	
631.875	0.1094395823	0.5078593954	
632.5	0.2549369742	0.371935732	
633.125	0.4250756336	0.2468650649	
633.75	0.5173128352	-0.3468905464	
634.375	0.04251546119	-0.1233643882	
635.0	0.09075092666	-0.5053319635	
635.625	-0.3871729113	0.1030643461	
636.25	-0.4616330819	-0.1355620051	
636.875	-0.08761655605	0.5319365473	
637.5	0.05877465658	-0.07001845711	
638.125	-0.5802795328	0.4038761985	
638.75	0.3901142562	0.3564563802	
639.375	-0.4142582292	0.3139560844	
640.0	0.3799901533	0.9053649342	
640.625	0.6905602512	0.06325965204	
641.25	0.2755300406	0.1184910657	
641.875	0.6688330718	-0.7518692251	
642.5	-0.2194076923	-0.1700682402	
643.125	-0.0736009628	-0.586662882	
643.75	-0.6958630723	0.0982970804	
644.375	0.08611631911	-0.224058802	
645.0	-0.6901599287	0.447233788	
645.625	0.3555525743	0.5510742223	
646.25	0.2876952745	-0.1044097815	
646.875	0.1473551941	0.4428951941	
647.5	0.2187679547	-0.5142393371	
648.125	0.2825760296	0.6031058262	
648.75	0.8575524084	-0.5539253378	
649.375	-0.05530157271	-0.2608941025	
650.0	1.140611312	-0.5749424868	
650.625	-0.1157848955	-1.263987605	
651.25	0.03988689486	0.1001284649	
651.875	1.309747209	-0.2585666729	
652.5	0.4648307552	-0.8480010575	
653.125	0.2297041184	0.177408948	
653.75	0.7885289431	-0.8117005241	
654.375	-0.563264838	-0.4232850405	
655.0	-0.2093929592	-0.4572417203	
655.625	-0.8650119594	0.7453740778	
656.25	0.4631965621	0.08396249522	
656.875	-0.2592957185	0.2537404602	
657.5	0.4116078861	0.2991530872	
658.125	0.1275406144	0.06425652172	
658.75	0.6962780774	0.6205293305	
659.375	0.7634908272	-0.7157102068	
660.0	0.2563402161	-0.4399879915	
660.625	0.722290161	-0.6567524829	
661.25	-0.00451015454	-1.181841199	
661.875	0.3059960394	-0.003053557432	
662.5	1.131051775	-0.5497116098	
663.125	0.30683332	-0.8861268234	
663.75	0.2891995812	-0.1051506223	
664.375	0.007423488874	-1.228499623	
665.0	-0.6457322784	0.01433590916	
665.625	-0.747813948	-0.2142658715	
666.25	-0.1554373291	0.9942501566	
666.875	0.1720152962	0.04001397174	
667.5	0.4544568569	0.5455359076	
668.125	0.658114006	-0.2667935239	
668.75	0.1360254974	-0.2753643687	
669.375	0.4638822499	-0.3679766414	
670.0	-0.07276410577	-0.7750268182	
670.625	-0.08162030459	-0.1637866181	
671.25	0.3047576268	-0.4548813614	
671.875	0.1369149215	-0.5709341999	
672.5	0.3582713293	-0.03625997098	
673.125	0.6572543817	-0.6422426833	
673.75	-0.006005146989	-0.5590625752	
674.375	0.2857035575	-0.2172574655	
675.0	-0.0906727756	-1.014995506	
675.625	-0.8254183858	0.2046254247	
676.25	0.04170486379	-0.4555975721	
676.875	-0.7953905949	0.32541011	
677.5	0.1336694991	-0.01725702275	
678.125	-0.857483807	0.4354478441	
678.75	0.6245481675	0.2242932794	
679.375	0.1379860709	0.4038685861	
680.0	0.6788564839	-0.1744155523	
680.625	-0.1234004494	-0.5409039527	
681.25	0.05505846304	0.4808012982	
681.875	0.7182781333	0.03080235804	
682.5	0.3887770541	0.02768703172	
683.125	0.2940708703	0.1224981496	
683.75	0.8589539177	0.4820708209	
684.375	0.5355178075	-0.3932267653	
685.0	0.4322434369	0.4831463687	
685.625	1.12408816	-0.1627584623	
686.25	-0.04699096656	-0.3681955867	
686.875	1.524608665	0.2156749853	
687.5	-0.07913533411	-1.578366004	
688.125	0.3644779231	-0.1944589772	
688.75	-1.393243134	-1.035708866	
689.375	-0.03509332731	1.192766554	
690.0	-0.4112221602	0.5689785054	
690.625	1.230210989	0.4830041621	
691.25	0.301765453	0.402278124	
691.875	1.135758891	1.074649015	
692.5	1.491963011	0.07553947639	
693.125	1.314110306	0.1581265253	
693.75	1.37317475	-0.560983731	
694.375	0.9334072401	-0.8811326315	
695.0	1.124114231	-0.9020220062	
695.625	0.7993781879	-0.1887561729	
696.25	1.502312179	0.8982796879	
696.875	1.251664803	0.1816721171	
697.5	0.3786138444	1.279154974	
698.125	2.223433275	0.227948421	
698.75	0.2045772885	-0.5129720555	
699.375	-0.8031467247	-1.664710003	
700.0	-0.2284002744	1.396474412	
700.625	-0.2745724169	0.2627279387	
701.25	1.234370466	0.4767964338	
701.875	0.2153201738	0.2622669873	
702.5	0.9207540467	0.9626830849	
703.125	0.9445474587	-0.1677200324	
703.75	0.9221598629	0.2692694202	
704.375	0.6752281899	-0.8170324879	
705.0	0.1932167976	-0.05585161982	
705.625	1.363199243	-0.0109760153	
706.25	0.2781678443	-0.09260791599	
706.875	0.3126844219	1.116768127	
707.5	1.35003536	0.6122333924	
708.125	0.5197818299	0.3108084494	
708.75	1.019046671	-1.15153193	
709.375	-0.911120458	-0.2566932241	
710.0	-0.5698173049	0.2158936414	
710.625	0.419438148	0.5962337526	
711.25	-0.01036166587	0.1402610002	
711.875	0.6058381421	0.3936471471	
712.5	0.60422057	-0.06405838938	
713.125	0.7587329922	-0.601930329	
713.75	0.04968361321	-0.4323970591	
714.375	0.441024039	-0.7264113643	
715.0	-0.4943505183	-0.4579740362	
715.625	0.4155864509	-0.1435177297	
716.25	0.3990877542	-1.417910288	
716.875	-0.01102162607	0.004516253282	
717.5	2.101435242	0.5331608944	
718.125	2.073225002	-1.606208164	
718.75	0.2451777603	1.172762301	
719.375	3.791781282	-2.136023502	
720.0	-0.5174536724	-1.495825488	
720.625	1.021258467	-1.785005793	
721.25	-0.3387023024	-3.775540879	
721.875	-1.069807899	-1.117515131	
722.5	-1.294250383	-2.678016914	
723.125	-2.348665712	0.12340722	
723.75	-0.3249188653	0.8973946671	
724.375	-0.3725718331	1.173133872	
725.0	0.8574190003	1.035733425	
725.625	0.5298404367	0.600119264	
726.25	-0.4566400216	1.427614625	
726.875	-0.2060711114	3.491687498	
727.5	2.1507378	1.916539938	
728.125	-2.783355262	4.512565597	
728.75	1.859436952	9.515393672	
729.375	1.45921701	1.726071443	
730.0	-5.033860279	15.04632908	
730.625	13.96662573	4.105802244	
731.25	-6.398656443	2.497237785	
731.875	-12.22200471	10.22416584	
732.5	-5.051345092	9.39774099	
733.125	-3.012595305	-1.286864442	
733.75	-3.37855737	5.239875522	
734.375	1.973094041	0.06462665486	
735.0	0.5014707329	-0.7159899796	
735.625	-2.152287988	0.9566895769	
736.25	0.08822423801	0.03822345185	
736.875	0.7952801794	2.221783628	
737.5	3.45174364	0.02162335438	
738.125	3.07258382	-3.293369126	
738.75	1.315392215	0.8363029772	
739.375	17.16377196	-5.605122694	
740.0	-5.969268822	-14.888021	
740.625	-3.657296914	14.8546756	
741.25	18.1662566	11.80737423	
741.875	-3.578446881	-18.45641272	
742.5	-12.19771157	-12.71136899	
743.125	-5.748418843	-2.035228776	
743.75	2.989930591	-0.7895738962	
744.375	-2.703509792	-1.164569543	
745.0	0.6943825018	-0.02132130282	
745.625	0.266143712	0.1890300048	
746.25	-0.2052479967	-0.3670268741	
746.875	-0.3013026172	0.08648582152	
747.5	-0.5004998027	1.096269598	
748.125	0.742648498	1.208129922	
748.75	0.09904436094	0.8919807395	
749.375	-0.2843985403	1.527150805	
750.0	-0.5630355969	0.2506455672	
