!Created with skrf (http://scikit-rf.org).
# GHz S MA R 50.0 
!freq magS11 angS11
500.0 0.0106438892648 167.029880761
500.625 0.0093626541536 34.8019692628
501.25 0.0124945676357 -157.520300443
501.875 0.0297853200806 -160.736346086
502.5 0.0288852992096 172.526644545
503.125 0.0149124959099 39.5487151769
503.75 0.00714063277405 16.849929201
504.375 0.0122492989586 -56.9073484416
505.0 0.0166706249974 -54.7258674673
505.625 0.0429422386983 -81.4120597812
506.25 0.0227973103001 -136.725017638
506.875 0.0582448320194 -104.818329696
507.5 0.0530162884402 -106.968113733
508.125 0.0506808500883 -92.6266727681
508.75 0.0722402922795 -126.232416144
509.375 0.0591446498664 -135.031440103
510.0 0.0511266776792 -108.833724851
510.625 0.0502149803341 -155.938460588
511.25 0.0630940792589 -171.744756052
511.875 0.0523434016303 145.864975005
512.5 0.0412940343036 108.593740635
513.125 0.06321462645 56.7223514315
513.75 0.0613821791661 38.9458755767
514.375 0.0380899317413 12.0490590861
515.0 0.0777708227992 9.20232064484
515.625 0.0595233794184 36.3930775269
516.25 0.0913918176493 29.7292007036
516.875 0.106052709806 68.0940736066
517.5 0.135549453596 22.952591318
518.125 0.168097016105 59.931870153
518.75 0.0789408836646 8.70166344705
519.375 0.0737509811758 23.5054579322
520.0 0.112060172286 -0.230318685279
520.625 0.0866486090145 -13.2386167009
521.25 0.0759970960287 -26.1361638535
521.875 0.0664978086786 -2.80071016227
522.5 0.113381572929 -30.954461912
523.125 0.161373791711 -43.0783847397
523.75 0.213734665378 -56.8745832671
524.375 0.213644108217 -51.0573455958
525.0 0.0836769916975 -34.0708074979
525.625 0.0386197704323 -29.9489403437
526.25 0.0481107935628 -4.56690701868
526.875 0.0581816838444 -17.1007793465
527.5 0.0596633851843 -24.3937995169
528.125 0.0357403661877 -57.9742762594
528.75 0.0581668582853 -73.3496398904
529.375 0.0945452974601 -107.399156536
530.0 0.0509456380187 -128.229004865
530.625 0.041862434706 -142.168229761
531.25 0.137346709128 -140.031650152
531.875 0.18431109617 -147.120839856
532.5 0.155283695774 -169.780943511
533.125 0.0928381985815 174.791437191
533.75 0.110136387226 169.311547739
534.375 0.118022620162 -179.353254579
535.0 0.100749251187 164.059017514
535.625 0.0511036814947 173.676088977
536.25 0.0662614369331 165.361679479
536.875 0.0892977455936 -160.643504792
537.5 0.0992308958804 -143.751275237
538.125 0.107560244276 -173.273311186
538.75 0.107894670983 -178.601206363
539.375 0.0834973701466 -161.801685512
540.0 0.105514199178 -157.760415678
540.625 0.134705309498 -156.82199511
541.25 0.141491403568 -141.923034548
541.875 0.105712613702 -145.052962933
542.5 0.107656086985 -141.903196347
543.125 0.140483138163 -167.114993583
543.75 0.13598396689 160.148889921
544.375 0.0989126978535 136.550170751
545.0 0.101232668665 89.4060562213
545.625 0.0815432832914 83.4313656212
546.25 0.0916220503818 68.0843476183
546.875 0.0849169898848 53.977838304
547.5 0.125181653091 56.7735903276
548.125 0.120284703214 78.0577040983
548.75 0.0962443357938 91.4357044262
549.375 0.101966014642 87.3684062468
550.0 0.104167029615 125.614264074
550.625 0.0368310162556 163.111375382
551.25 0.0404315314535 -136.095656251
551.875 0.0686982787209 -162.763107218
552.5 0.120061310524 -167.427956518
553.125 0.0927520241526 -168.759768913
553.75 0.0931848265323 -169.170577426
554.375 0.108607219931 167.197652142
555.0 0.137692390922 161.420465014
555.625 0.0873980962208 162.039098058
556.25 0.100187262393 163.357795514
556.875 0.119687414152 164.117271849
557.5 0.119314351427 166.665581125
558.125 0.0997774259042 164.861948488
558.75 0.0821312923819 179.128310137
559.375 0.0681024157729 -171.561817913
560.0 0.0513895184914 -151.772826245
560.625 0.0531414712573 -126.709289777
561.25 0.0866631697022 -146.887755651
561.875 0.100096002799 -160.833568643
562.5 0.0995423369342 169.47654427
563.125 0.0985111876166 149.379543444
563.75 0.125692345098 132.616998336
564.375 0.108440131897 120.613887096
565.0 0.0928171446338 118.432180786
565.625 0.0700473808401 124.582989954
566.25 0.087469807339 157.824016715
566.875 0.0713488573586 179.93720685
567.5 0.0779978216847 178.550820363
568.125 0.0791937120744 -168.66275773
568.75 0.0711401160457 -148.976526558
569.375 0.052103266105 -114.690834714
570.0 0.0628882635156 -112.138715168
570.625 0.0853625110912 -109.485403285
571.25 0.0916028202756 -119.495488847
571.875 0.0903112981346 -131.776641752
572.5 0.115413775022 -160.217867113
573.125 0.137433132366 -174.155042225
573.75 0.105554409708 161.957479856
574.375 0.0807769855055 148.928148885
575.0 0.113313612994 145.751553323
575.625 0.101227828667 162.482249606
576.25 0.0851868857866 150.040786986
576.875 0.0825086719833 128.125324812
577.5 0.0936359209836 127.947524281
578.125 0.0525288797067 171.12182839
578.75 0.048981015316 164.663890008
579.375 0.0511170904411 163.817342784
580.0 0.070440078738 175.5231836
580.625 0.0789848656298 -150.218942455
581.25 0.0893863564911 -165.255305177
581.875 0.117144903971 178.933582675
582.5 0.119860599589 -177.156551592
583.125 0.0980018742395 -174.122110708
583.75 0.0826487254686 -165.353164399
584.375 0.105631405427 -156.664166509
585.0 0.0920411205738 -141.832284449
585.625 0.0756293127585 -152.21612133
586.25 0.0704157094886 -142.083055175
586.875 0.0834860939162 -142.381101609
587.5 0.074115069404 -145.437500883
588.125 0.0610442201141 178.677122895
588.75 0.0671792094452 -165.62748861
589.375 0.0838933917123 -154.480003825
590.0 0.0940665309397 -166.732086723
590.625 0.102749857592 158.163033474
591.25 0.123308302856 159.422680229
591.875 0.0931858051725 160.576303848
592.5 0.0614891540848 152.837264003
593.125 0.0640211871766 137.082026275
593.75 0.0810310514888 176.707253036
594.375 0.0594222487429 -146.880705943
595.0 0.0422849348636 -122.891206561
595.625 0.0510277655166 -117.112498237
596.25 0.0813391044436 -74.4581600782
596.875 0.0685555267654 -70.5164730889
597.5 0.0588596133403 -55.570850417
598.125 0.0599921759229 -69.852616014
598.75 0.0784484480611 -66.1565652342
599.375 0.0863499754843 -68.3565142278
600.0 0.0986520464938 -68.1624681788
600.625 0.098634756572 -72.4490073258
601.25 0.0845640702949 -73.3654924664
601.875 0.0695401950491 -86.4695574319
602.5 0.0619780825179 -78.9260504135
603.125 0.0457734595235 -85.0390437305
603.75 0.040069022053 -14.9814514702
604.375 0.0361995389851 -26.8840562887
605.0 0.0529684788849 -24.7248691469
605.625 0.0491701218115 -14.4221578011
606.25 0.0209681074975 -8.93856421496
606.875 0.0303334608827 47.8296636997
607.5 0.0631453778553 41.4611400845
608.125 0.0586530133412 22.1288687376
608.75 0.0788861428198 30.3120254845
609.375 0.0626611949418 29.5862743967
610.0 0.065684895769 41.9126870745
610.625 0.0611921205993 32.2350335156
611.25 0.0473274434024 26.6227383443
611.875 0.0332884162581 41.4537469998
612.5 0.0193991567279 74.984052902
613.125 0.0278470328899 128.202764921
613.75 0.0217802457702 133.948568108
614.375 0.0714645577689 130.675143359
615.0 0.0418126335834 117.761489596
615.625 0.041490599783 139.086052582
616.25 0.0253421119174 153.691376547
616.875 0.0718849140544 133.408447338
617.5 0.0481035016313 122.677284505
618.125 0.0286023201169 126.506519491
618.75 0.00612144995963 -135.827583843
619.375 0.0465176305071 155.669195581
620.0 0.0110765829083 126.287960843
620.625 0.0214130518412 -80.1379656044
621.25 0.0515384465878 -79.3501712154
621.875 0.0704342230732 -129.085515592
622.5 0.0760517483484 -176.437165095
623.125 0.0802675027805 172.40805
623.75 0.0446320047324 -169.430522933
624.375 0.068188771781 176.424721047
625.0 0.0399128376555 -146.85942865
625.625 0.0378991943677 -136.228091333
626.25 0.0157861560229 169.115357111
626.875 0.0128775740491 -3.06327140735
627.5 0.035283274408 -21.6489099515
628.125 0.0389079817409 -12.463062709
628.75 0.0398230865108 -10.0530138581
629.375 0.0603955602565 1.3472773979
630.0 0.0597378120484 -16.4304993267
630.625 0.0746362795394 14.7521922996
631.25 0.0753998438605 13.4245859701
631.875 0.0713112331627 3.07661830099
632.5 0.0641070411854 0.0177762628337
633.125 0.0438984740353 13.6931983946
633.75 0.0404881854932 5.50348199655
634.375 0.057431886976 35.7807747885
635.0 0.0368880273568 -19.0810124467
635.625 0.0364152268082 41.7290075902
636.25 0.0603515547661 37.8566369413
636.875 0.066262702985 44.2435503719
637.5 0.0553806651908 55.2098203546
638.125 0.0428954870572 67.7671479275
638.75 0.0841831554668 80.1550229267
639.375 0.0924101161264 94.6177429392
640.0 0.0816249879166 111.208558844
640.625 0.0511949164112 96.6873986138
641.25 0.0594803217217 113.098660464
641.875 0.0701044619628 154.739141886
642.5 0.061931381349 157.377430063
643.125 0.0625645678904 159.982895324
643.75 0.0761840658072 177.686549094
644.375 0.0811878957663 -169.157458035
645.0 0.0893835680586 -178.341757641
645.625 0.0816826519839 164.797794486
646.25 0.0837384430171 163.160577296
646.875 0.0629517813419 173.135636649
647.5 0.0837028441566 -174.400139376
648.125 0.0655970777239 174.332263003
648.75 0.0750874518579 -162.687260806
649.375 0.0488512244848 -157.28618723
650.0 0.065146842796 -120.281509351
650.625 0.0631500081322 -90.6186254939
651.25 0.0711332016565 -65.7374711504
651.875 0.0681935296593 -45.0592814703
652.5 0.094921034866 -23.464230611
653.125 0.128891095586 -1.8594373531
653.75 0.110464866766 6.24721490953
654.375 0.109186528562 7.6469084295
655.0 0.133114735243 13.9054392629
655.625 0.0749727908682 16.1331399379
656.25 0.0604658146982 21.873868643
656.875 0.0692866412043 3.66718344993
657.5 0.0886090655297 24.7591938222
658.125 0.0826939482477 48.2306170437
658.75 0.0596079219205 61.6048824265
659.375 0.0893094684589 38.3110107239
660.0 0.116833688226 24.8479399084
660.625 0.126662452545 16.0744033184
661.25 0.099928920912 4.2202005474
661.875 0.115845501439 -12.5348565081
662.5 0.130785174004 -20.3338951297
663.125 0.106710223672 -16.795074044
663.75 0.102041142643 5.15534239764
664.375 0.107553112373 55.3279483253
665.0 0.0848353798594 92.0700611736
665.625 0.0479831915521 114.937892194
666.25 0.0736910433775 136.841348181
666.875 0.11384222896 169.81428617
667.5 0.110786987309 -172.714486397
668.125 0.0887528630282 -174.368816829
668.75 0.122298545605 168.501234982
669.375 0.130633836571 173.922483435
670.0 0.0972803131946 -171.95239542
670.625 0.0786795558187 -170.718716799
671.25 0.116008881241 172.856763616
671.875 0.115163818932 166.097643345
672.5 0.0823502734722 155.216795739
673.125 0.0795343295171 155.974136546
673.75 0.10814752076 162.395554793
674.375 0.107238315311 169.37121159
675.0 0.126411848217 -178.860434497
675.625 0.113286207023 -146.321747322
676.25 0.117930585378 -122.792532565
676.875 0.109613268523 -120.038105488
677.5 0.138167322838 -132.113889165
678.125 0.117637149469 -117.565300719
678.75 0.0739626195197 -95.0563233718
679.375 0.0606960226424 -79.2727662079
680.0 0.0852845713583 -81.9325099252
680.625 0.132185285087 -80.9489189834
681.25 0.0962440097316 -68.6403788777
681.875 0.0979952601716 -89.5712034962
682.5 0.130103976205 -119.674350559
683.125 0.176101366164 -124.325994995
683.75 0.133187352782 -102.548209939
684.375 0.120558881103 -78.9782354609
685.0 0.134476214464 -38.8616225808
685.625 0.138605406389 -3.967779558
686.25 0.119368971741 19.2268241582
686.875 0.0892335647805 45.0419170447
687.5 0.0871244273766 80.5967086445
688.125 0.0851413215715 106.104372034
688.75 0.107029133776 107.849755221
689.375 0.144765692252 118.86457788
690.0 0.130191884235 135.916379395
690.625 0.121750755213 125.983340917
691.25 0.147487410219 92.796719312
691.875 0.167861208232 74.8051955648
692.5 0.137273806199 41.2890676166
693.125 0.0857462050971 -17.8780986731
693.75 0.100182067676 -43.0271390577
694.375 0.141092206055 -31.1050393828
695.0 0.133125840615 11.369271198
695.625 0.099305786551 59.6008933197
696.25 0.117556497632 112.545864699
696.875 0.146262628872 165.045421013
697.5 0.143637702302 -142.565304006
698.125 0.13984549659 -132.232061026
698.75 0.125604007961 -132.812597837
699.375 0.116482164833 -129.299695753
700.0 0.0956847656786 -115.298590533
700.625 0.118657370705 -94.2948271374
701.25 0.104168840828 -66.1914915329
701.875 0.0862427833706 -67.2342646514
702.5 0.0987663509044 -81.786791608
703.125 0.170702948097 -118.173191019
703.75 0.180513445237 -155.73277502
704.375 0.137246183734 164.674995813
705.0 0.111170288272 157.550893814
705.625 0.144895621763 -172.677439263
706.25 0.152235785707 -116.779790318
706.875 0.0961463587033 -65.5979062605
707.5 0.080876411042 -46.2547477681
708.125 0.0900318157927 21.6520444533
708.75 0.114027867975 66.5746070279
709.375 0.107373818872 101.652119387
710.0 0.102853011233 120.815994735
710.625 0.108693404507 164.557945675
711.25 0.12040159614 175.456706189
711.875 0.145681573223 161.961805129
712.5 0.156710032538 137.616541916
713.125 0.126545939558 98.9210702511
713.75 0.100415503692 52.0324474324
714.375 0.105552803023 26.7181246583
715.0 0.120440522953 9.77843205704
715.625 0.0902219190819 56.76605906
716.25 0.0773634442823 73.994727477
716.875 0.109876302152 92.252721269
717.5 0.144319650403 142.479655997
718.125 0.116326511024 155.398196676
718.75 0.107130040236 179.789247821
719.375 0.119499441011 -168.950893552
720.0 0.122205517075 -133.222936698
720.625 0.113689062571 -86.3218290353
721.25 0.0983004905613 -9.43007789619
721.875 0.0877874274882 24.9654415588
722.5 0.0726797098464 64.4564161292
723.125 0.0721722058425 56.3791554494
723.75 0.118547683947 47.3350851914
724.375 0.117367172698 2.48760643954
725.0 0.0942350952594 -33.1641023338
725.625 0.0852160373332 -79.496949766
726.25 0.107048307389 -72.0999316389
726.875 0.098375704549 -55.4063253013
727.5 0.0742899001541 -50.4798195823
728.125 0.0753718666718 -10.3557886342
728.75 0.0674406136373 -2.00281377077
729.375 0.0917598281872 26.7570818945
730.0 0.0739981752756 8.96671356923
730.625 0.0648335641201 22.6764791161
731.25 0.0445081375486 47.9848694436
731.875 0.0931764045849 119.944271657
732.5 0.0678892576655 148.408729914
733.125 0.0761919181102 168.199692967
733.75 0.0580207937361 150.188894714
734.375 0.0893300962053 -174.90753612
735.0 0.0770859985189 155.722357289
735.625 0.0553815103774 139.706385464
736.25 0.00268133450083 -165.594941087
736.875 0.0841257144891 163.980513602
737.5 0.0890512045323 177.315875584
738.125 0.0782337432468 -169.846689259
738.75 0.0471577166195 170.762402095
739.375 0.0691010068252 -159.520153136
740.0 0.0342476662981 -131.778158841
740.625 0.0470643252554 -154.7185175
741.25 0.0411052946226 -153.912467758
741.875 0.00993353913019 -45.1928211343
742.5 0.0736632881182 -23.7057571573
743.125 0.0369806053139 52.5600637257
743.75 0.023075082407 113.577040669
744.375 0.0357238673154 166.810109769
745.0 0.0490632826411 136.796161485
745.625 0.0572094415223 128.381072081
746.25 0.0675569242172 85.9983086054
746.875 0.0543870382711 72.4393060854
747.5 0.0690795961741 1.74768303282
748.125 0.0233999993636 -1.75432746313
748.75 0.0256177133792 55.2400055612
749.375 0.0266678497076 -18.0076752199
750.0 0.037718516951 -49.2438040369
