!Created with skrf (http://scikit-rf.org).
# GHz S RI R (50+0j) 
!freq	ReS11	ImS11	
500.0	-0.1900000762	-1.65742586	
500.625	2.242703608	-2.916242273	
501.25	-3.43733088	-1.685138352	
501.875	-0.9563839585	0.1299743982	
502.5	-0.06805375533	-0.7732259143	
503.125	-0.130519161	0.2345705485	
503.75	-0.1479328197	0.2577250785	
504.375	0.1105822858	-0.1183542684	
505.0	0.08465048386	0.1032977005	
505.625	-0.1222011809	-0.4316572602	
506.25	-0.03244835602	0.237357132	
506.875	-0.6985045434	-0.8278355682	
507.5	-1.761775725	-0.4152190258	
508.125	1.581068678	-0.8649753171	
508.75	1.724242362	-5.29330636	
509.375	-2.207810537	-1.380755063	
510.0	-1.077621508	-2.207759582	
510.625	-0.9018439769	0.08439943965	
511.25	-0.483671061	-0.3024215727	
511.875	-0.5987582336	-0.07778290512	
512.5	-0.03225899636	0.2383237878	
513.125	-0.02188013098	-0.1866985276	
513.75	-0.1577453766	-0.4728714786	
514.375	-0.6166572516	0.3236436512	
515.0	0.8888015251	-1.466559437	
515.625	-1.598691626	0.08432799074	
516.25	1.786334875	-3.023634355	
516.875	-2.733446373	-1.65497579	
517.5	0.02793073929	0.3380132201	
518.125	-0.3102060658	-0.421960397	
518.75	-0.0413551966	0.2292047093	
519.375	-0.3224889663	0.0730606399	
520.0	0.5191349868	0.0197811351	
520.625	0.3160114558	-0.1487901603	
521.25	0.2387252037	-0.891699502	
521.875	-0.4195516144	0.1729742138	
522.5	-0.1390519939	-0.04394202275	
523.125	-0.05063149796	0.08013033109	
523.75	-0.4566967666	-0.1903131622	
524.375	-0.1070089756	0.3593765995	
525.0	-0.3749245297	0.1607018809	
525.625	0.3010935956	0.2686317871	
526.25	-0.2572410186	-0.04160785216	
526.875	0.0494030323	0.1510570671	
527.5	-0.4839748843	0.3385646005	
528.125	0.4549577424	1.196539241	
528.75	0.1581288731	0.2289936765	
529.375	0.1610547931	0.4329942673	
530.0	-0.2285520669	0.08024551418	
530.625	0.5092638618	1.405984678	
531.25	0.7356070615	0.003013587864	
531.875	0.8073259221	-0.3055450611	
532.5	-0.5554036084	-0.1123645998	
533.125	0.5034586413	-0.3301625394	
533.75	-0.08718598336	-0.2876799337	
534.375	0.1135011474	-1.222777157	
535.0	-0.9364259666	0.1621082966	
535.625	-0.3061633654	0.09297422254	
536.25	-0.08921725369	0.3412704079	
536.875	0.2478265571	-0.1034804264	
537.5	0.2594709215	0.027742424	
538.125	0.2584145354	-0.3465381312	
538.75	0.2676595196	-0.08150853701	
539.375	-0.1918101069	-0.6351606466	
540.0	-0.5076964685	-0.1249434605	
540.625	-0.2965821561	-0.1558722328	
541.25	-0.2296064306	-0.04325272563	
541.875	-0.1986033679	-0.01128653906	
542.5	0.05186239162	-0.09688524285	
543.125	-0.362067993	-0.2059024999	
543.75	-0.0475906615	0.09169847712	
544.375	-0.2755260032	0.08668094681	
545.0	0.1709357572	0.0875421953	
545.625	-0.06096658613	0.2988972248	
546.25	0.4724208755	-0.07577002145	
546.875	0.03060009681	0.09814120785	
547.5	0.4418644985	-0.3875644269	
548.125	-0.3203007954	-0.3757855354	
548.75	-0.07913785782	-0.2546539792	
549.375	-0.3680792144	-0.3305561726	
550.0	-0.1086965836	0.1608785586	
550.625	-0.2296173958	-0.1300056518	
551.25	-0.09689178253	0.1927479325	
551.875	-0.2319858823	0.03363997898	
552.5	-0.1511579358	0.2911161832	
553.125	-0.004555098497	0.1210777654	
553.75	0.09680255513	0.1639913839	
554.375	0.2575460869	-0.0100450615	
555.0	0.2406404257	-0.1486987029	
555.625	0.2426669296	-0.2603784635	
556.25	0.1697495414	-0.3594479246	
556.875	-0.06327258175	-0.3999172163	
557.5	-0.2245758469	-0.2831106639	
558.125	-0.3053701472	-0.113325308	
558.75	-0.2522178066	-0.0002826086335	
559.375	-0.2689621379	0.00107267913	
560.0	-0.2695007822	0.2174005931	
560.625	-0.07626108516	0.2350071601	
561.25	-0.0721944396	0.2698732692	
561.875	0.1665212739	0.07469510434	
562.5	-0.1065584196	0.1552982248	
563.125	0.2977693448	0.1486907946	
563.75	0.1726329398	0.04525916357	
564.375	0.4767208794	-0.1859674108	
565.0	0.08475110468	-0.4567039573	
565.625	-0.01353428484	-0.2528393203	
566.25	-0.2479999662	-0.416987077	
566.875	-0.4084440082	-0.04155204954	
567.5	-0.1677562461	-0.3316105394	
568.125	-0.5103000259	-0.5106368914	
568.75	-0.4125920142	-0.04889456946	
569.375	-0.7223299586	-0.03458614172	
570.0	-0.2880508605	0.7620507988	
570.625	0.05625280494	0.1721779789	
571.25	-0.3995930957	0.4372806822	
571.875	0.3896065627	-0.08709452111	
572.5	0.1921651239	0.3714738268	
573.125	0.3158962999	-0.587805828	
573.75	-0.1653543469	-0.04425451704	
574.375	0.4063062779	-0.2389751658	
575.0	-0.2830263167	-0.1557386622	
575.625	0.3646454662	-0.007634047056	
576.25	0.124145434	-0.571008626	
576.875	-0.169052786	-0.09235128467	
577.5	0.2988686116	-0.3772007378	
578.125	-0.2628987426	-0.5877982039	
578.75	-0.2211554584	-0.08713145951	
579.375	-0.006930870601	-0.3371905001	
580.0	-0.3866334998	-0.03720535641	
580.625	0.1338257309	-0.1623659051	
581.25	-0.5447724426	0.2415172283	
581.875	0.3240214581	0.3883376648	
582.5	-0.1175887899	0.002580324196	
583.125	0.1301209182	0.7348296299	
583.75	0.1648267945	-0.4637028508	
584.375	0.01213435341	0.5695290199	
585.0	0.3847215294	-0.2689742833	
585.625	0.1690658671	0.430168673	
586.25	0.6971338364	-0.3823569076	
586.875	-0.09619890914	-0.1835371412	
587.5	0.28815264	-0.2961232465	
588.125	-0.1659412638	-0.6143654898	
588.75	-0.1261082821	-0.09467858572	
589.375	0.4770668974	-0.2887094744	
590.0	-0.2563743916	-0.5158092121	
590.625	-0.2586252475	-0.1162348723	
591.25	-0.5123107127	0.1742000558	
591.875	0.07795201226	0.3628793465	
592.5	-0.1313563516	0.04394196704	
593.125	0.02294329207	0.2200864424	
593.75	-0.01111209983	0.07753890888	
594.375	0.2874591647	0.6381671624	
595.0	0.8549118567	0.09295326484	
595.625	-0.08640553384	0.1024455665	
596.25	0.6310170901	0.4769243791	
596.875	0.2742243879	-0.2947147512	
597.5	0.1700303292	0.611767208	
598.125	0.680854504	0.1049062251	
598.75	0.04630275586	0.2168286873	
599.375	0.847278489	0.1081378598	
600.0	0.281085321	-0.4939526545	
600.625	0.2916969558	-0.1867601342	
601.25	0.3728133092	-0.45463921	
601.875	-0.2533298054	-0.3995096724	
602.5	-0.2674298204	-0.06244832055	
603.125	-0.261241687	0.05346364948	
603.75	-0.3193732172	0.2217655931	
604.375	-0.125192656	0.1183689342	
605.0	-0.3113252096	0.1391810847	
605.625	-0.01088253693	0.2235926563	
606.25	-0.397643245	-0.1707849587	
606.875	-0.5084210395	0.5792552175	
607.5	-0.1644784855	0.0981064511	
608.125	-0.5527754588	0.8045485519	
608.75	0.6799078207	0.140801046	
609.375	0.4033604663	0.3506771873	
610.0	0.6369466652	-0.5117889114	
610.625	-0.050017022	-0.1795482916	
611.25	0.2963233633	-0.7050535289	
611.875	-0.2701135207	-0.06842475633	
612.5	-0.2903320959	-0.3400908731	
613.125	-0.5465602815	0.2858081634	
613.75	-0.3001915349	-0.003865685124	
614.375	0.1951060931	0.4282605273	
615.0	-0.06537406486	-0.1039872158	
615.625	0.144992251	0.5817095073	
616.25	-0.005444065133	0.03521957569	
616.875	-0.5170689797	0.5278483731	
617.5	0.06176211753	0.7434721939	
618.125	-0.2094463625	0.1709868423	
618.75	0.03381155528	0.7472050544	
619.375	0.2597421228	0.1892609095	
620.0	0.418518603	0.3866100761	
620.625	0.2034297253	-0.4343409079	
621.25	-0.02058877329	-0.4775904101	
621.875	-0.5618525645	-0.2502418393	
622.5	-0.4226698253	0.04294762522	
623.125	-0.2182800121	0.6531734969	
623.75	0.184159267	-0.1458621575	
624.375	0.426609463	0.0644980023	
625.0	-0.2883765901	-0.06743690879	
625.625	0.5032699041	-0.1223437189	
626.25	-0.4141451531	-0.4229997764	
626.875	0.135668147	-0.1664245293	
627.5	-0.6570516001	-0.2791181416	
628.125	-0.2104154096	0.09962217206	
628.75	0.09355880541	-0.5119350189	
629.375	-0.5231749828	-0.3423881163	
630.0	-0.1670821215	-0.2048581991	
630.625	-0.6555306231	-0.05717562998	
631.25	-0.3963158872	0.5579975932	
631.875	-0.04615826313	0.563317202	
632.5	0.1810735979	0.4526342516	
633.125	0.5874918655	0.2312176573	
633.75	0.3192509915	-0.1968817163	
634.375	0.2925726017	-0.2092226635	
635.0	-0.1573152131	-0.4264833417	
635.625	-0.07436166403	-0.2475907996	
636.25	-0.643256422	0.09844335318	
636.875	0.04550086412	0.4475992513	
637.5	-0.1616181134	-0.2618441902	
638.125	-0.3363491771	0.7065069575	
638.75	0.1313281043	0.06233902513	
639.375	-0.4427647854	0.6321007752	
640.0	0.6149806245	0.7087723427	
640.625	0.2818252074	0.1350068966	
641.25	0.9614281147	0.4226560375	
641.875	0.1697695651	-0.6637240769	
642.5	0.2699880481	-0.1820667975	
643.125	-0.339996594	-0.770743086	
643.75	-0.4080386203	0.2883012314	
644.375	-0.2311780151	-0.4256715397	
645.0	-0.6068596622	0.4585445719	
645.625	0.354544786	0.5093311802	
646.25	-0.01884609752	0.09553905145	
646.875	0.7731667849	0.1234871328	
647.5	-0.3366125989	-0.00850917637	
648.125	0.7093260517	0.357085471	
648.75	0.3740079872	-0.6032694905	
649.375	0.6151652995	0.2601028421	
650.0	0.9197115035	-1.373417219	
650.625	-0.4078808652	-0.6757305857	
651.25	0.7959309512	0.1856493851	
651.875	1.128399788	-0.9049396713	
652.5	0.06108706738	-0.409926697	
653.125	0.953683326	0.2813480542	
653.75	0.4803755795	-1.007347613	
654.375	-0.06209520193	-0.1953477555	
655.0	-0.5664903859	-0.9510110716	
655.625	-0.4369079806	0.9142020466	
656.25	0.08122926489	-0.0166707581	
656.875	-0.09381345083	0.5251948331	
657.5	0.3415022438	-0.02589555439	
658.125	-0.1343671046	0.5890897042	
658.75	1.066183666	0.2349349775	
659.375	0.5472797979	-0.4161073722	
660.0	0.59279607	-0.2360194605	
660.625	0.7930053356	-1.252932499	
661.25	-0.2611740604	-0.6574003949	
661.875	0.8820567526	-0.02026346307	
662.5	0.9682302189	-0.8839569048	
663.125	0.0635910635	-0.4633329646	
663.75	1.038328092	-0.3936717393	
664.375	-0.5539791676	-0.9428589459	
665.0	-0.09513110383	-0.4179670867	
665.625	-1.173842732	-0.04633053013	
666.25	0.02269538779	0.8529749696	
666.875	-0.05323247842	0.2291383456	
667.5	0.5332065254	0.5690824213	
668.125	0.5689991511	-0.2774548798	
668.75	0.3112951199	-0.03514354516	
669.375	0.5286084052	-0.7356476043	
670.0	-0.1874931513	-0.348798764	
670.625	0.2540481642	-0.4428401187	
671.25	0.06747418451	-0.6411812782	
671.875	0.1089403191	-0.1495221164	
672.5	0.8146147413	-0.212502444	
673.125	0.5738868598	-0.7539125029	
673.75	-0.005290337695	-0.3508141864	
674.375	0.6347377029	-0.3853319928	
675.0	-0.5286615833	-1.101197538	
675.625	0.03522863475	0.1965681974	
676.25	-0.8370082972	-0.5501909079	
676.875	-0.220151396	0.5492418896	
677.5	-0.3806945665	-0.6897490221	
678.125	-0.3662991875	0.9839543159	
678.75	-0.003794451892	0.03983146975	
679.375	0.264312855	0.5392332988	
680.0	0.7855993247	-0.280591365	
680.625	-0.3142771789	-0.3080126601	
681.25	0.4191037919	0.3442539697	
681.875	0.5076348963	-0.07932052571	
682.5	0.3097816477	0.1114051639	
683.125	0.6044939517	0.5743529773	
683.75	0.6939406522	-0.1150768947	
684.375	0.4217162684	0.2309840079	
685.0	0.894354534	0.4700933601	
685.625	0.8691836103	-0.5903084828	
686.25	-0.0344612851	0.6826043212	
686.875	1.849955779	-0.6607319609	
687.5	-0.3271030387	-0.6392189539	
688.125	0.865203526	-0.9717981461	
688.75	-1.821571759	-0.5940228371	
689.375	-0.08100324942	0.1757235627	
690.0	-0.2438095284	1.58791095	
690.625	0.7079630756	0.1052051294	
691.25	0.2317657879	1.065572928	
691.875	1.485222585	0.8813809569	
692.5	1.204674181	0.3784015019	
693.125	1.618790579	0.1857776149	
693.75	1.481062407	-0.4345719522	
694.375	1.260888507	-0.8050800914	
695.0	0.9119723801	-0.7700236409	
695.625	1.206920867	0.2131455882	
696.25	1.748192921	0.2844732077	
696.875	0.4758883323	0.6091416325	
697.5	0.8713544172	2.131722625	
698.125	1.591741711	-0.102880755	
698.75	1.399985276	0.1154264236	
699.375	-1.365482929	-1.69459307	
700.0	-0.05557617822	0.7691280914	
700.625	-0.4014032205	1.148079553	
701.25	0.8053252423	0.02237591829	
701.875	0.09985566524	0.9001957555	
702.5	1.293873078	0.6289265905	
703.125	0.5127376442	0.3041606198	
703.75	1.374121788	-0.08599574615	
704.375	0.3567137715	-0.6294384356	
705.0	0.9538968936	0.3741109675	
705.625	0.8050494491	-0.5387861766	
706.25	0.1621105743	0.5020992998	
706.875	0.824791921	1.239802254	
707.5	0.6136550405	0.1623340183	
708.125	1.022646122	1.041440255	
708.75	0.9359324134	-1.262925731	
709.375	-0.2691669133	-0.4120572471	
710.0	-0.9916211747	0.3792617364	
710.625	0.4540398269	0.2954939202	
711.25	-0.005227594889	0.4577213626	
711.875	0.5623162239	0.2199763674	
712.5	0.962208318	0.2398067943	
713.125	0.5440511518	-0.5585090806	
713.75	0.4543370525	-0.3430373621	
714.375	0.00868770409	-0.9218688298	
715.0	-0.1675530633	-0.09327639319	
715.625	0.5408053774	-0.9873524977	
716.25	-0.3249765379	-0.6926777205	
716.875	0.9548394551	0.4090881463	
717.5	2.458714668	-0.255249029	
718.125	0.2904885215	-1.176844859	
718.75	2.457195131	1.771297309	
719.375	2.279977519	-2.607554243	
720.0	0.7703176246	-1.222178739	
720.625	2.50673559	-2.847907837	
721.25	-1.466520211	-2.294160826	
721.875	0.8530620511	-2.754157628	
722.5	-1.668575835	-2.686104112	
723.125	-2.120355398	0.1603878957	
723.75	-0.9225928385	0.4482751447	
724.375	-0.3282037698	1.506906855	
725.0	0.7818955571	0.8752814291	
725.625	0.1155962864	0.7230637748	
726.25	-0.5575729434	2.200671821	
726.875	1.210612958	2.809934631	
727.5	-1.990385248	1.860879051	
728.125	-0.6844724658	7.135163451	
728.75	5.60779757	3.366172545	
729.375	-9.925585159	4.041083233	
730.0	3.880142546	19.32568339	
730.625	3.691064734	1.259868082	
731.25	-12.79844776	8.345750902	
731.875	-9.857501468	12.72553017	
732.5	-2.208322585	1.54323256	
733.125	-9.86337359	-2.619096443	
733.75	-2.013262976	4.131122446	
734.375	0.9697891059	0.7165610735	
735.0	1.426571765	-2.248953075	
735.625	-0.8535630153	1.267080606	
736.25	-0.9408084024	0.5980583776	
736.875	1.062691325	2.14326121	
737.5	3.856531253	0.1322974826	
738.125	0.7257714472	-1.568443394	
738.75	8.901999445	0.2404428988	
739.375	4.66422538	-10.26541909	
740.0	-2.9124414	2.677116928	
740.625	23.98429178	16.08692463	
741.25	11.44091197	-10.21807122	
741.875	-19.69879937	-6.48382499	
742.5	-8.232207312	-21.56452467	
743.125	-0.2878797815	1.776029147	
743.75	5.940840309	-4.044511323	
744.375	-2.434634418	0.1965995284	
745.0	-0.189436027	-0.2724108703	
745.625	0.4170527854	0.04357581755	
746.25	-0.1380979391	0.008297229198	
746.875	-0.9724435271	-0.1295550218	
747.5	-0.09913488759	1.022539424	
748.125	0.4588940817	1.299265096	
748.75	0.3829857801	1.975244467	
749.375	1.199719899	1.274923277	
750.0	0.1113335275	0.398797712	
