!Created with skrf (http://scikit-rf.org).
# GHz S RI R (50+0j) 
!freq	ReS11	ImS11	
500.0	0.1105410482	-0.7753980217	
500.625	0.1466372801	-0.7475166733	
501.25	-0.3550309131	-0.4902252919	
501.875	-0.2671710869	-0.347290536	
502.5	-0.04418193923	-0.09858868926	
503.125	-0.05810691949	0.007845623872	
503.75	0.01585351409	0.06457521137	
504.375	0.02185863226	-0.007780667364	
505.0	0.01425644721	-0.01843296267	
505.625	-0.00557778872	-0.03961069279	
506.25	-0.05333521802	-0.04251031345	
506.875	-0.0851179092	0.007972201349	
507.5	-0.07288407565	-0.271990021	
508.125	0.0793014934	-0.5405919113	
508.75	0.3809899341	-0.7936082142	
509.375	-0.273298076	-0.9305320011	
510.0	-0.3704167575	-0.2624985521	
510.625	-0.074067504	-0.1176196034	
511.25	-0.03995340636	-0.04270979627	
511.875	-0.1172920037	-0.03634569716	
512.5	-0.01323587849	0.05495271014	
513.125	0.001073434556	-0.05252979575	
513.75	-0.0432169968	-0.03021495633	
514.375	-0.04982415608	-0.01063367533	
515.0	-0.005215653158	-0.02673228619	
515.625	0.008655867597	-0.2588247336	
516.25	-0.3244279949	-0.5229413846	
516.875	-0.20790892	-0.2887966131	
517.5	-0.04160963566	-0.1232346842	
518.125	-0.02467867126	-0.02524782428	
518.75	-0.0437700619	-0.09249961052	
519.375	-0.04415600887	0.03256283746	
520.0	0.09131806969	0.03945714018	
520.625	0.1221396673	-0.05636102187	
521.25	-0.03453725097	-0.2029854181	
521.875	-0.1211957122	-0.007256073936	
522.5	-0.03715149829	0.0246647992	
523.125	-0.04703088232	0.02702835342	
523.75	-0.08731626839	0.001200079428	
524.375	-0.1253570435	0.03857168984	
525.0	-0.0235699815	0.1121421642	
525.625	0.03210074291	0.03555923081	
526.25	-0.01101666696	-0.009825830708	
526.875	-0.03825851776	0.04576627102	
527.5	-0.0218957806	0.1494585624	
528.125	0.06564846806	0.1984172717	
528.75	0.04462898001	0.1618820091	
529.375	0.04124228142	0.04362463658	
530.0	0.03692030166	0.1150294849	
530.625	0.1094654782	0.2112654081	
531.25	0.342903439	0.02956678886	
531.875	0.1626882882	-0.1661432747	
532.5	-0.05613975793	-0.08650395709	
533.125	0.04019254454	-0.04848009756	
533.75	0.06294294878	-0.1558090423	
534.375	-0.09595796905	-0.2144902416	
535.0	-0.2080721321	-0.05877228641	
535.625	-0.1244553609	0.1070060367	
536.25	0.006619608174	0.08032833211	
536.875	0.08003781673	0.005557521469	
537.5	0.05337451785	-0.041133462	
538.125	0.09138785091	-0.0591208169	
538.75	0.09667918578	-0.110773158	
539.375	-0.07225361103	-0.1344467033	
540.0	-0.1497891155	-0.1134213549	
540.625	-0.1405971528	-0.009991507645	
541.25	-0.0737421768	0.01089247469	
541.875	-0.04047857932	-0.0127958253	
542.5	-0.04300128532	-0.04216842727	
543.125	-0.07248881481	-0.03194991156	
543.75	-0.07467052894	0.003247940593	
544.375	-0.0363618179	0.03890813921	
545.0	0.000615390045	0.05025294709	
545.625	0.04954422962	0.04976190449	
546.25	0.08657470834	0.02397483082	
546.875	0.09889224207	-0.03480915819	
547.5	0.04539739694	-0.1119958632	
548.125	-0.05232630024	-0.1336338273	
548.75	-0.1160279177	-0.08666606885	
549.375	-0.1040633371	-0.04690264201	
550.0	-0.06446213598	0.01443138074	
550.625	-0.0435918539	0.01307597184	
551.25	-0.06212897303	0.033188344	
551.875	-0.05560458005	0.06585074949	
552.5	-0.02914194618	0.0694694923	
553.125	-0.004558562059	0.055096973	
553.75	0.04472302173	0.03512502725	
554.375	0.08201516938	-0.01106859176	
555.0	0.07867459263	-0.07228581341	
555.625	0.06494099382	-0.1028710527	
556.25	0.04621719046	-0.1280780085	
556.875	-0.04406443715	-0.1354620592	
557.5	-0.09882711326	-0.08152023321	
558.125	-0.108108374	-0.02341897574	
558.75	-0.09952072633	0.009581983782	
559.375	-0.09642393426	0.03122675627	
560.0	-0.07906765054	0.07649747161	
560.625	-0.03577916327	0.1028936909	
561.25	0.01298671666	0.08898120263	
561.875	0.0305077967	0.03784489401	
562.5	0.01501544697	0.04607831535	
563.125	0.06945058093	0.05775848104	
563.75	0.1252540833	-0.01070731551	
564.375	0.1045621692	-0.09812259889	
565.0	0.05067851938	-0.1375941989	
565.625	-0.04318467978	-0.1350868562	
566.25	-0.1115694373	-0.08514651768	
566.875	-0.1287610223	-0.05558782223	
567.5	-0.1307564985	-0.08266241352	
568.125	-0.1391967531	-0.1214957597	
568.75	-0.2023274803	-0.04363230028	
569.375	-0.1899919271	0.1093676357	
570.0	-0.08159740346	0.1870289201	
570.625	-0.02930836863	0.1574781999	
571.25	0.01700133173	0.1007893633	
571.875	0.05788160576	0.05785585563	
572.5	0.1084730046	-0.01444070915	
573.125	0.0655760148	-0.1052973497	
573.75	0.02545468536	-0.1019762138	
574.375	0.003033414885	-0.06139582104	
575.0	0.02087095067	-0.03637062326	
575.625	0.02814427153	-0.06695463109	
576.25	0.03044781423	-0.1005488116	
576.875	-0.01663003628	-0.1232932577	
577.5	-0.01697281436	-0.1380047962	
578.125	-0.05508086136	-0.1331688103	
578.75	-0.08679904677	-0.09613498026	
579.375	-0.08301527953	-0.04707798082	
580.0	-0.04920260242	-0.01967993128	
580.625	-0.06414484335	-0.01506725155	
581.25	-0.08062027432	0.07727056659	
581.875	0.02317134997	0.1349097256	
582.5	0.06380265673	0.1158254478	
583.125	0.07430010132	0.059271837	
583.75	0.03746102302	0.01385336665	
584.375	0.03490953814	0.04637787685	
585.0	0.1029575608	0.0394254616	
585.625	0.1349342309	-0.01763596907	
586.25	0.1226319144	-0.0724136858	
586.875	0.04851603127	-0.1247680985	
587.5	-0.0259992769	-0.1206415647	
588.125	-0.02902623382	-0.1195734483	
588.75	0.01278122124	-0.1287888024	
589.375	0.03761343715	-0.1404510728	
590.0	-0.07044523183	-0.1435854996	
590.625	-0.1641985853	-0.01438312088	
591.25	-0.0979311212	0.1128091944	
591.875	-0.01468495901	0.107123067	
592.5	0.01333633085	0.04168064335	
593.125	-0.01915398494	0.04685413877	
593.75	0.05828879698	0.09721889262	
594.375	0.1386409209	0.07104924833	
595.0	0.1553709321	0.0692452737	
595.625	0.1543073979	0.04953043024	
596.25	0.1416664354	0.01702259084	
596.875	0.1387644048	0.01276345288	
597.5	0.1357895702	0.05157029209	
598.125	0.1421049828	0.07564713904	
598.75	0.1629509654	0.04666575091	
599.375	0.1772104683	-0.05885149828	
600.0	0.1237753233	-0.1467766769	
600.625	0.0947517027	-0.1704716998	
601.25	0.02951525109	-0.1722202598	
601.875	-0.08670138484	-0.11242104	
602.5	-0.1139754029	0.003789443758	
603.125	-0.0868789512	0.05548142962	
603.75	-0.08210248766	0.07510416707	
604.375	-0.07577492498	0.07665021268	
605.0	-0.05116382248	0.07528115595	
605.625	-0.05444554317	0.06141439726	
606.25	-0.09145977429	0.06613747136	
606.875	-0.1367174294	0.09453608874	
607.5	-0.1195573319	0.1734745602	
608.125	0.01039216659	0.2148455679	
608.75	0.1804650185	0.1206056613	
609.375	0.1992883048	-0.06227497073	
610.0	0.1276440297	-0.1283670882	
610.625	0.05196088706	-0.1507708194	
611.25	-0.01617905727	-0.1399147792	
611.875	-0.09167095359	-0.09759228866	
612.5	-0.1498336699	-0.03747904194	
613.125	-0.1619350065	0.05227219457	
613.75	-0.06423341501	0.1380494713	
614.375	0.05342831972	0.09150061819	
615.0	0.04124337685	0.03300856792	
615.625	0.005503870618	0.07424712278	
616.25	-0.02776542384	0.1292257216	
616.875	-0.05260921956	0.1713528203	
617.5	-0.03528173732	0.1984527316	
618.125	0.01118559369	0.1875429251	
618.75	0.04753105441	0.164554059	
619.375	0.1073466901	0.1283929253	
620.0	0.1740927974	0.008242497157	
620.625	0.07181032866	-0.1546098577	
621.25	-0.1055085813	-0.1478601463	
621.875	-0.1920745943	-0.04729418715	
622.5	-0.1804888652	0.08384677758	
623.125	-0.005306914873	0.1690632764	
623.75	0.1213688936	0.01903963716	
624.375	0.02781321982	-0.05325775283	
625.0	0.03102422008	-0.02895464277	
625.625	0.03374893332	-0.08481514394	
626.25	-0.05864610726	-0.1163799948	
626.875	-0.1306263013	-0.061803534	
627.5	-0.1330249634	-0.02378240891	
628.125	-0.1038332724	-0.05070637687	
628.75	-0.07821246993	-0.0984398897	
629.375	-0.09805163828	-0.1219743029	
630.0	-0.1774209137	-0.06132915001	
630.625	-0.1853462	0.08913862846	
631.25	-0.09688504089	0.1938026698	
631.875	0.01555805132	0.2198856941	
632.5	0.1571023191	0.1493749157	
633.125	0.1921602083	0.01387755788	
633.75	0.1368596418	-0.0867319389	
634.375	0.03388582165	-0.1292240059	
635.0	-0.03496513504	-0.1297239341	
635.625	-0.1420020273	-0.05777863844	
636.25	-0.1271960666	0.08539837457	
636.875	-0.03991492932	0.1198568454	
637.5	-0.01988730193	0.0834184791	
638.125	-0.04522271653	0.08713636144	
638.75	-0.03997029554	0.1539801595	
639.375	0.03281957958	0.2184820248	
640.0	0.1583827515	0.1924148549	
640.625	0.2311613455	0.09291981786	
641.25	0.2405378816	-0.0454134409	
641.875	0.1216296863	-0.1882476685	
642.5	-0.04100506611	-0.1866323728	
643.125	-0.1252904629	-0.0880569773	
643.75	-0.1284182854	-0.04604578227	
644.375	-0.1575023218	0.02354724927	
645.0	-0.1088083322	0.158297154	
645.625	0.07706117634	0.1827265586	
646.25	0.1554370107	0.04636582247	
646.875	0.08709090531	-0.02794219151	
647.5	0.05346333267	0.02100355566	
648.125	0.1449362023	0.027440231	
648.75	0.2220134838	-0.08941697183	
649.375	0.1697853328	-0.23799557	
650.0	0.1060587409	-0.2831527426	
650.625	0.09875082514	-0.2647583241	
651.25	0.1397440507	-0.2283517603	
651.875	0.1955744964	-0.1777836634	
652.5	0.225976282	-0.1273826003	
653.125	0.2138634295	-0.1429184899	
653.75	0.1249817479	-0.235698939	
654.375	-0.107451768	-0.2554326801	
655.0	-0.266679013	-0.03104253736	
655.625	-0.1263237186	0.1918736224	
656.25	0.05588890872	0.1483900269	
656.875	0.05697854257	0.05120284922	
657.5	0.04571892564	0.08500832006	
658.125	0.1473990445	0.1201010617	
658.75	0.2682734601	0.02797464347	
659.375	0.2645588121	-0.1684789115	
660.0	0.1544599255	-0.2852842925	
660.625	0.0781080655	-0.3012094377	
661.25	0.1034148168	-0.2764275364	
661.875	0.1539292267	-0.245055753	
662.5	0.1956844175	-0.2108906284	
663.125	0.1958788071	-0.2082417792	
663.75	0.09606646764	-0.2697848671	
664.375	-0.08584161247	-0.2802839595	
665.0	-0.2639571785	-0.1408137633	
665.625	-0.2618404313	0.1237482564	
666.25	-0.04869589244	0.2506349285	
666.875	0.1317646836	0.1643615172	
667.5	0.1747326066	0.05559901526	
668.125	0.1894399106	-0.04309793257	
668.75	0.1483761455	-0.149789866	
669.375	0.05637251543	-0.2057613198	
670.0	-0.01959072644	-0.1952208899	
670.625	-0.01633928162	-0.1685404614	
671.25	0.03158625662	-0.1605855166	
671.875	0.09931401944	-0.1623416526	
672.5	0.1570180874	-0.1557422645	
673.125	0.1570876755	-0.1791849473	
673.75	0.1040817855	-0.2146500221	
674.375	0.002834235437	-0.23395362	
675.0	-0.1142459357	-0.1937347701	
675.625	-0.1834225835	-0.08408881259	
676.25	-0.1612703247	0.006158864144	
676.875	-0.1251924428	0.03227389083	
677.5	-0.1264661764	0.05173694235	
678.125	-0.09334718906	0.1457327544	
678.75	0.06816282547	0.1884998805	
679.375	0.1919825721	0.0320684275	
680.0	0.1167700019	-0.1021942329	
680.625	0.0505407437	-0.0790677514	
681.25	0.07786259666	-0.02176687386	
681.875	0.1361562856	0.02584091461	
682.5	0.1864967512	0.05585627373	
683.125	0.2247920746	0.0409456825	
683.75	0.2370492091	0.02914870247	
684.375	0.2462761575	0.002632176429	
685.0	0.2516663934	-0.004129524046	
685.625	0.2519528632	-0.03843443824	
686.25	0.2514837299	-0.0815567087	
686.875	0.2369031776	-0.1789007513	
687.5	0.1599635222	-0.3008264048	
688.125	-0.1085786128	-0.3699648173	
688.75	-0.3931629103	-0.07767284195	
689.375	-0.1875553949	0.3273054145	
690.0	0.1494727216	0.2890511488	
690.625	0.2444407357	0.1810841484	
691.25	0.3108364539	0.1929269778	
691.875	0.4306803811	0.214033282	
692.5	0.5468723164	0.1144917408	
693.125	0.5760158733	-0.09565047153	
693.75	0.4848003687	-0.2798851625	
694.375	0.333824132	-0.3901308968	
695.0	0.3546489242	-0.3023098162	
695.625	0.4208308169	-0.137233992	
696.25	0.4437650952	0.06847877118	
696.875	0.4042085508	0.255511577	
697.5	0.4120820084	0.2923308168	
698.125	0.5213769792	0.05441103408	
698.75	0.2661563357	-0.4481640729	
699.375	-0.4110744133	-0.232180045	
700.0	-0.1617246524	0.3480718118	
700.625	0.1746094175	0.2272219176	
701.25	0.2186031119	0.1196654287	
701.875	0.2530900685	0.1669592048	
702.5	0.3262574856	0.1660541508	
703.125	0.3782883949	0.0492493299	
703.75	0.3245054479	-0.1333109517	
704.375	0.220783608	-0.1967191785	
705.0	0.1933844863	-0.1421891308	
705.625	0.2255667193	-0.02920990647	
706.25	0.2354421596	0.1228971063	
706.875	0.2380749998	0.2141310748	
707.5	0.2877512121	0.2390560615	
708.125	0.397321924	0.007095894595	
708.75	0.1609611825	-0.351689168	
709.375	-0.2867429152	-0.169227005	
710.0	-0.1085140828	0.2159432905	
710.625	0.08840432233	0.1132958984	
711.25	0.09884612639	0.07988466423	
711.875	0.1951668875	0.06325830295	
712.5	0.2601701052	-0.06751124255	
713.125	0.2026798746	-0.1854531252	
713.75	0.08321773352	-0.2332324873	
714.375	-0.01817714071	-0.2079921949	
715.0	-0.0425962547	-0.1740176452	
715.625	-0.005649521795	-0.1881256663	
716.25	0.1055916458	-0.2181948391	
716.875	0.2560816636	-0.1874590429	
717.5	0.4144822252	-0.09861613467	
718.125	0.5471400873	-0.07151622979	
718.75	0.5944262674	-0.2266597965	
719.375	0.5093693302	-0.4833096409	
720.0	0.2195637154	-0.7220866319	
720.625	-0.01062424461	-0.7915949481	
721.25	-0.2265600151	-0.7799524084	
721.875	-0.3738778273	-0.751630786	
722.5	-0.654881437	-0.5009194282	
723.125	-0.6727163422	0.05170207294	
723.75	-0.2582625161	0.4419711587	
724.375	0.09555054969	0.382459056	
725.0	0.1909334044	0.2960348635	
725.625	0.1835682883	0.366397509	
726.25	0.1047936966	0.5560420439	
726.875	0.04688187932	0.7764739742	
727.5	0.08999890029	1.110773961	
728.125	0.2776670245	1.526867393	
728.75	0.2884247978	2.139242059	
729.375	0.09305636288	2.799553393	
730.0	0.8821022256	2.953054491	
730.625	0.8386569635	2.954177367	
731.25	0.04879458336	3.11123312	
731.875	-1.346547556	2.543511341	
732.5	-2.254100382	1.409673702	
733.125	-1.726000427	0.9222011749	
733.75	-0.3239085258	1.212880671	
734.375	0.787803287	0.1113277092	
735.0	-0.1611343413	-0.4909407789	
735.625	-0.3674941973	0.1770539354	
736.25	0.02430414938	0.4429800797	
736.875	0.4179412978	0.4000774989	
737.5	0.8647734068	0.01093562028	
738.125	1.099285433	-0.5334874875	
738.75	1.208851539	-1.156166897	
739.375	1.540858538	-1.440233392	
740.0	1.877648311	-1.247271793	
740.625	2.097528306	-0.2696964413	
741.25	0.7164579793	1.582345	
741.875	-2.078761362	0.2909395524	
742.5	-1.491756452	-1.493419153	
743.125	-0.1426136837	-1.437270643	
743.75	-0.3086957007	-0.8037686501	
744.375	-0.3188377341	0.04699613471	
745.0	0.05849869613	0.05912484297	
745.625	0.04449747804	-0.01635811141	
746.25	-0.01755586581	-0.08792444658	
746.875	-0.1897830328	0.06247082251	
747.5	-0.03503020757	0.2882052804	
748.125	0.172293437	0.3880480241	
748.75	0.2676644303	0.3329715018	
749.375	0.1462785638	0.3728054324	
750.0	-0.2406360762	0.2527608285	
