!Created with skrf (http://scikit-rf.org).
# GHz S RI R (50+0j) 
!freq	ReS11	ImS11	
500.0	-0.2785623977	-1.245364604	
500.625	0.1607015063	-0.2126556062	
501.25	-0.4964761059	-0.9561573329	
501.875	-0.3143320917	-0.03824380294	
502.5	0.04624625108	-0.1135165662	
503.125	-0.08283788306	0.04839237422	
503.75	-0.00974422056	0.00951346944	
504.375	0.05310609629	-0.004408184627	
505.0	-0.02516086563	-0.005975796222	
505.625	0.03961277622	-0.05406389993	
506.25	-0.1399237431	-0.02389821229	
506.875	0.06016716475	-0.1307100774	
507.5	-0.4385683927	-0.4819955327	
508.125	0.004977083204	-0.1174066498	
508.75	0.7409759438	-0.832879013	
509.375	-0.3550120695	-0.9743459672	
510.0	-0.1610937477	-0.1420780475	
510.625	-0.07062883454	-0.1959451095	
511.25	-0.1390869621	-0.01974627918	
511.875	-0.04685102355	-0.02924112865	
512.5	-0.03872163279	0.04711459395	
513.125	-0.0500348257	-0.03401415311	
513.75	0.006492539941	-0.04479945315	
514.375	-0.1578862619	-0.001132964667	
515.0	0.3179004231	0.05016638421	
515.625	-0.4697004315	-0.4945732065	
516.25	0.1836690024	-0.03797260353	
516.875	-0.07603800125	-0.5476458308	
517.5	-0.1905568287	-0.04399327195	
518.125	0.02675751876	-0.04234186405	
518.75	-0.1201263286	-0.06704602385	
519.375	-0.03556109473	0.007831923728	
520.0	0.07460746143	0.06032884775	
520.625	0.1327688142	-0.06556390743	
521.25	0.02719368911	-0.2072259418	
521.875	-0.07122095751	0.004517215672	
522.5	-0.06150192752	-0.02127996104	
523.125	0.04258211971	0.06453353824	
523.75	-0.1258973411	-0.1165145858	
524.375	-0.1347023775	0.1765480317	
525.0	-0.04589992094	-0.01902970123	
525.625	0.0181276626	0.1321237561	
526.25	-0.04656133967	-0.09383879293	
526.875	-0.002968813116	0.0973102849	
527.5	0.002826784839	0.07607651661	
528.125	-0.00765928862	0.2319387532	
528.75	0.09096512905	0.07808624282	
529.375	0.01474440908	0.08682996942	
530.0	0.03252671213	0.08245912252	
530.625	0.1470247508	0.2244676488	
531.25	0.2464475014	0.02786008141	
531.875	0.2340527955	-0.0002554945709	
532.5	-0.1762598677	-0.1024495884	
533.125	0.1905034422	-0.04296452377	
533.75	-0.08000401858	-0.2200754458	
534.375	0.02121776681	-0.1222062286	
535.0	-0.2916446136	-0.1253902736	
535.625	-0.05573472016	0.1353062003	
536.25	-0.02632321892	0.06982079644	
536.875	0.1169009091	0.004493090833	
537.5	0.0140853534	-0.0244096035	
538.125	0.1524857591	-0.05204529245	
538.75	0.05199576901	-0.1311363605	
539.375	-0.05886607757	-0.126926224	
540.0	-0.1557615846	-0.1514839423	
540.625	-0.1625982439	0.0171763968	
541.25	-0.03711534286	0.01690570235	
541.875	-0.03712642243	-0.1242877808	
542.5	-0.0538122763	0.03670559298	
543.125	-0.05478623088	-0.1009680516	
543.75	-0.1279413904	0.08038460021	
544.375	-0.01048539412	-0.06120291214	
545.0	0.01581124891	0.1251596295	
545.625	0.01754030558	-0.02450994731	
546.25	0.1080742761	0.1118750247	
546.875	0.09456203376	-0.09872562605	
547.5	0.04182291091	-0.04994893785	
548.125	-0.0226036388	-0.1904894655	
548.75	-0.1624211249	-0.04703074187	
549.375	-0.0371336635	-0.05351930781	
550.0	-0.1133057477	0.01350772211	
550.625	-0.008192176063	0.0157373912	
551.25	-0.08878343644	0.01015382366	
551.875	-0.04430747953	0.09350786571	
552.5	-0.03227579297	0.04370211041	
553.125	-0.006117942536	0.07360409659	
553.75	0.04061522495	0.0199122767	
554.375	0.08538924808	0.002503388152	
555.0	0.08010570156	-0.08111600096	
555.625	0.06112184093	-0.09405389552	
556.25	0.05008809496	-0.1275432301	
556.875	-0.04961247363	-0.13890032	
557.5	-0.098010099	-0.0757138619	
558.125	-0.1032483553	-0.02645236984	
558.75	-0.1056326463	0.008093234223	
559.375	-0.09042856441	0.03752723599	
560.0	-0.08275111567	0.06231311912	
560.625	-0.04502314324	0.1231618736	
561.25	0.03660990165	0.06381331667	
561.875	0.004499354751	0.06234766143	
562.5	0.04832968884	0.02498552254	
563.125	0.0357637772	0.07130223838	
563.75	0.1641309345	-0.007205319148	
564.375	0.06271264211	-0.1161418636	
565.0	0.08869134432	-0.09697433721	
565.625	-0.08018985719	-0.1838225863	
566.25	-0.08124959606	-0.01914739936	
566.875	-0.1237137431	-0.1220443405	
567.5	-0.217915451	-0.02079638751	
568.125	-0.02466240923	-0.1022482137	
568.75	-0.2905704543	-0.0753520727	
569.375	-0.1082869267	0.1731543499	
570.0	-0.133628559	0.0932393616	
570.625	-0.06463031258	0.2509723912	
571.25	0.08037460196	0.01940361994	
571.875	0.02435513443	0.135437864	
572.5	0.1174240847	-0.129593989	
573.125	0.05198072863	0.01178884859	
573.75	0.1002799159	-0.1828520613	
574.375	-0.09218754205	-0.03692967994	
575.0	0.1225693019	-0.00988988662	
575.625	-0.0345415479	-0.1204901273	
576.25	0.002303385491	-0.01093103364	
576.875	0.07451203836	-0.1810725462	
577.5	-0.1041340964	-0.1853952867	
578.125	-0.01671624534	-0.02968208484	
578.75	-0.0133720645	-0.2048514335	
579.375	-0.2157534234	0.004021455725	
580.0	0.1246491077	-0.04166937017	
580.625	-0.2170444606	0.01370530531	
581.25	0.05206294816	0.02247163027	
581.875	-0.1299628345	0.1705348276	
582.5	0.1888775374	0.1983726822	
583.125	0.0375984703	-0.04650989482	
583.75	0.02947742379	0.1228973066	
584.375	0.06517489837	-0.06752102985	
585.0	0.02635442803	0.1496233232	
585.625	0.2284769161	-0.06492488773	
586.25	0.03761982871	-0.0780388752	
586.875	0.1339678949	-0.09444054787	
587.5	-0.08592533614	-0.1608365249	
588.125	-0.02760913566	-0.0415778618	
588.75	0.1008470697	-0.146943513	
589.375	-0.02242445974	-0.2046337108	
590.0	-0.005403030877	-0.04962829872	
590.625	-0.2428267222	-0.1217644397	
591.25	-0.01213288635	0.2041981611	
591.875	-0.06871042601	-0.03895230863	
592.5	0.007643550192	0.1810852592	
593.125	-0.03936528034	-0.09868464346	
593.75	0.1171119426	0.2190054114	
594.375	0.09984689723	-0.05082773256	
595.0	0.06870227129	0.1647782459	
595.625	0.2335020282	0.0778117622	
596.25	0.09865494524	-0.04606308318	
596.875	0.1384391416	0.1212818084	
597.5	0.199629368	0.03235918511	
598.125	0.08503554876	0.04343866422	
598.75	0.1634175884	0.1092262385	
599.375	0.2017311891	-0.07831539282	
600.0	0.09922384436	-0.1184899302	
600.625	0.158055329	-0.1205206836	
601.25	0.04099578831	-0.2427934073	
601.875	-0.09493280305	-0.01436011083	
602.5	-0.1516400648	-0.1330119206	
603.125	-0.05061080851	0.1632778658	
603.75	-0.05176625633	-0.05513720623	
604.375	-0.1979400352	0.1193869271	
605.0	0.0799246637	0.06799635491	
605.625	-0.2132168217	0.061522542	
606.25	-0.03417568515	0.1329597675	
606.875	-0.1068542476	0.02729871616	
607.5	-0.1578118316	0.2359463035	
608.125	0.01854804955	0.1417385645	
608.75	0.1472266015	0.1464046035	
609.375	0.2209712977	-0.04079329185	
610.0	0.1476125665	-0.1536008903	
610.625	0.02391002437	-0.1756173503	
611.25	0.05199202841	-0.1439972422	
611.875	-0.1701889877	-0.06743957394	
612.5	-0.03152290929	-0.05227568987	
613.125	-0.2874588752	0.008530418196	
613.75	0.06058522908	0.1763990054	
614.375	-0.09311871737	0.09334290271	
615.0	0.168273734	0.01979474944	
615.625	-0.08266756523	0.006764243835	
616.25	0.01986643898	0.2339242269	
616.875	0.006288795072	0.09875856975	
617.5	-0.1058229497	0.2714694456	
618.125	0.04832440445	0.1768519415	
618.75	-0.0631638238	0.2214482468	
619.375	0.1439075526	0.1020063157	
620.0	0.08628334454	0.1100364855	
620.625	0.08495378974	-0.2670104515	
621.25	-0.04787496247	-0.09486564473	
621.875	-0.2306478115	-0.1670106774	
622.5	-0.1857497604	0.2331536455	
623.125	-0.07070138299	0.07315278861	
623.75	0.2162377803	0.09918273578	
624.375	-0.0584486826	-0.07432165462	
625.0	0.1190341697	-0.01497515583	
625.625	-0.03897993939	-0.1049832302	
626.25	0.01257714194	-0.08814043847	
626.875	-0.17388992	-0.1149335128	
627.5	-0.1249233261	0.03695438878	
628.125	-0.05888477632	-0.0792455672	
628.75	-0.07197488768	-0.1144008364	
629.375	-0.1041551593	-0.1087017864	
630.0	-0.1305726432	-0.07701709016	
630.625	-0.2507248018	0.0532953982	
631.25	-0.02007440885	0.2776201126	
631.875	-0.05867840633	0.1211282851	
632.5	0.2164272634	0.2258205013	
633.125	0.147757297	-0.09760533767	
633.75	0.1558767062	0.06037953768	
634.375	0.013993805	-0.2581546848	
635.0	-0.001359172289	0.007538730401	
635.625	-0.1810767068	-0.1743770187	
636.25	-0.09805261717	0.1637084737	
636.875	-0.01296560589	0.03891928522	
637.5	-0.1177360247	0.142856913	
638.125	0.06234008346	0.05508664115	
638.75	-0.1568535603	0.1194138966	
639.375	0.08173198392	0.3028980151	
640.0	0.1448072671	0.1041317405	
640.625	0.1679714608	0.1801195947	
641.25	0.3462584196	-0.02289902936	
641.875	0.01628917963	-0.2353958482	
642.5	0.08586364265	-0.09544091984	
643.125	-0.2496580238	-0.1801239471	
643.75	0.02181612768	0.1125139439	
644.375	-0.2739063741	-0.1764582117	
645.0	-0.0120206678	0.3323125584	
645.625	-0.03260602958	-0.004054994945	
646.25	0.2814340206	0.3167183445	
646.875	0.01675598794	-0.2412221307	
647.5	0.04800051861	0.2380546325	
648.125	0.2069217249	-0.1155571427	
648.75	0.06081175608	-0.03604686339	
649.375	0.3744926181	-0.1782533524	
650.0	-0.02101681879	-0.4602652535	
650.625	0.04022019622	-0.07624066442	
651.25	0.3202937606	-0.2352383731	
651.875	0.1368193023	-0.3247512682	
652.5	0.1126645014	0.01370864962	
653.125	0.3722901115	-0.1011148106	
653.75	0.03219840603	-0.3340201881	
654.375	0.003771595674	-0.088104442	
655.0	-0.3983315188	-0.228062207	
655.625	0.006668580005	0.3379698309	
656.25	-0.04976934303	-0.01524841293	
656.875	0.1211474033	0.2533720846	
657.5	-0.03919550222	-0.1875540912	
658.125	0.1472237042	0.3812786537	
658.75	0.3387234173	-0.1459705679	
659.375	0.1245037622	-0.04197539076	
660.0	0.3362091643	-0.2510133223	
660.625	-0.005192749552	-0.4623333235	
661.25	0.03834029984	-0.09929973371	
661.875	0.3298711307	-0.2667610372	
662.5	0.1437342567	-0.3247009602	
663.125	0.1253767427	-0.06756333084	
663.75	0.2243313043	-0.3506344704	
664.375	-0.1931101703	-0.232295964	
665.0	-0.1403104901	-0.1645499726	
665.625	-0.3612704686	0.070833843	
666.25	0.05033421816	0.3385204848	
666.875	-0.001801833947	0.07865285989	
667.5	0.2957138769	0.1724784674	
668.125	0.1013654403	-0.1676023925	
668.75	0.2082953599	0.03728413972	
669.375	0.06468585453	-0.3944492882	
670.0	-0.08577152576	0.01556165079	
670.625	0.136830986	-0.2241895088	
671.25	-0.04586546103	-0.262517625	
671.875	0.03021200871	-0.03025901252	
672.5	0.3447952192	-0.1643953512	
673.125	0.0751220651	-0.2643702476	
673.75	0.1049873748	-0.1148890201	
674.375	0.1162131642	-0.2780761197	
675.0	-0.2646343563	-0.1508914995	
675.625	-0.03217369001	-0.111418539	
676.25	-0.2743158226	-0.0190019638	
676.875	-0.09353951796	0.12043262	
677.5	-0.08501246731	-0.04972750492	
678.125	-0.2026900873	0.2406988618	
678.75	0.1939672391	0.1032987942	
679.375	0.02492482063	0.1251365586	
680.0	0.3567296118	-0.1653031354	
680.625	-0.196819301	-0.1207360107	
681.25	0.287650029	0.1836654688	
681.875	0.1442008925	-0.2848678668	
682.5	-0.02031234598	0.1151920585	
683.125	0.5264018172	0.1993822116	
683.75	0.1852982559	-0.2584967018	
684.375	0.1341773806	0.1987742166	
685.0	0.3705481859	-0.06759089447	
685.625	0.1901731035	-0.1264261836	
686.25	0.1433438344	0.07881719388	
686.875	0.3990273461	-0.2800351531	
687.5	0.08113508576	-0.2391873801	
688.125	-0.03565169367	-0.3987655398	
688.75	-0.4947408906	-0.1586895898	
689.375	-0.04225800973	0.3761059478	
690.0	-0.00102291777	0.2165219402	
690.625	0.4326376329	0.2949393849	
691.25	0.1991376785	-0.01914576252	
691.875	0.3463436676	0.5395708247	
692.5	0.7959433045	-0.1646306755	
693.125	0.3056767276	0.006749270801	
693.75	0.7881313025	-0.2313244372	
694.375	0.174990512	-0.5783817574	
695.0	0.275959972	-0.09257827585	
695.625	0.6399359098	-0.3461873698	
696.25	0.2984751852	0.0290824965	
696.875	0.4604964517	0.4522136341	
697.5	0.3871821116	0.3229747644	
698.125	0.578921755	0.04415992257	
698.75	0.2417943924	-0.4136459873	
699.375	-0.3408731944	-0.324385036	
700.0	-0.1725499859	0.4916742095	
700.625	0.1506883785	0.08459808342	
701.25	0.1777503325	0.3289649296	
701.875	0.3593443786	-0.01299393825	
702.5	0.1405300351	0.2370150694	
703.125	0.5421454201	0.1167174512	
703.75	0.2331972311	-0.2586058824	
704.375	0.3706711917	-0.0632827601	
705.0	0.2246337112	-0.2488769957	
705.625	0.1419528136	-0.04826667712	
706.25	0.3103803087	0.1841076128	
706.875	0.1437798448	0.1578175022	
707.5	0.2631773293	0.2669949238	
708.125	0.3748897327	0.005012578101	
708.75	0.3603218469	-0.2081131307	
709.375	-0.4697500295	-0.1659473017	
710.0	0.007041301608	0.006847005172	
710.625	0.09328701352	0.3291160414	
711.25	-0.02282482926	-0.172644467	
711.875	0.2355475783	0.2721423815	
712.5	0.2627585202	-0.2281284403	
713.125	0.1528076982	-0.0349414959	
713.75	0.192150392	-0.3158285273	
714.375	-0.1081734613	-0.2071686518	
715.0	0.02961910105	-0.1013987257	
715.625	0.01561300751	-0.2716988454	
716.25	0.008583393915	-0.2063365111	
716.875	0.2510468817	-0.08615453496	
717.5	0.5009376732	-0.05589288864	
718.125	0.5722441578	-0.164924914	
718.75	0.4526597251	-0.1176279647	
719.375	0.8431398849	-0.3577886754	
720.0	-0.1017109163	-0.7798939937	
720.625	0.4693683756	-0.1839043898	
721.25	-0.4264986402	-1.409863909	
721.875	-0.427865829	0.03460305418	
722.5	-0.3276704428	-1.08484778	
723.125	-0.9019738216	0.2498143205	
723.75	-0.005882335683	0.3055153977	
724.375	-0.2020072166	0.5202440732	
725.0	0.4376131375	0.2591611379	
725.625	-0.02469848271	0.227179712	
726.25	-0.02247001725	0.7381216383	
726.875	0.2367285937	0.8416748308	
727.5	-0.04700679285	0.6715218701	
728.125	-0.2762606734	2.042051118	
728.75	0.9300444746	2.405219843	
729.375	-0.2714944352	1.620763029	
730.0	-0.6405704805	3.872792592	
730.625	1.823320143	3.256860455	
731.25	0.05149796248	0.9744773292	
731.875	-3.471409546	2.260598538	
732.5	-1.910659719	2.857943519	
733.125	-0.7436378872	-0.7379362037	
733.75	-1.142955084	2.19453548	
734.375	0.7767808928	-0.3740176301	
735.0	0.2570155313	-0.1632034453	
735.625	-0.8725282655	0.250682038	
736.25	0.3594524677	-0.0578078325	
736.875	0.1170290059	0.8461342257	
737.5	1.250666761	-0.2755549711	
738.125	0.6315239077	-0.6960023542	
738.75	1.541463599	0.3581574058	
739.375	3.116505361	-3.204410458	
740.0	-0.189851038	-2.104027751	
740.625	1.405191634	2.658623845	
741.25	3.195205039	4.825656943	
741.875	1.442485	-0.9144392239	
742.5	-1.015050229	-3.93545298	
743.125	-1.146475771	-1.987256065	
743.75	-0.06575417518	0.01521330239	
744.375	-0.6102546	-0.3547450357	
745.0	0.259359502	0.00221871604	
745.625	0.09052995285	0.1191783837	
746.25	-0.1277044296	-0.1396409192	
746.875	-0.04065734182	0.007847651032	
747.5	-0.1771347871	0.3461288951	
748.125	0.3039941552	0.4747818896	
748.75	0.1961669259	0.2487881166	
749.375	0.03735353757	0.4977635467	
750.0	-0.2419942002	0.3220558975	
