!Created with skrf (http://scikit-rf.org).
# GHz S RI R (50+0j) 
!freq	ReS11	ImS11	
500.0	0.2613190936	-1.356232826	
500.625	-0.1900744413	-0.7600977086	
501.25	0.003506992103	-0.7487684649	
501.875	-0.5166255697	-0.4009741434	
502.5	-0.01493779932	-0.05219714878	
503.125	-0.08437113298	-0.02747969234	
503.75	0.07986208282	0.06578037396	
504.375	0.005180461704	0.01591380349	
505.0	0.02789269744	-0.0471485893	
505.625	0.01119007514	0.01353586074	
506.25	-0.06390134105	-0.1403244606	
506.875	0.04227391888	0.1464517557	
507.5	0.1233982868	-0.4883291865	
508.125	-0.1143318106	-0.7724210779	
508.75	0.4394903339	-0.3224078563	
509.375	0.3133695308	-1.106604729	
510.0	-0.5400211652	-0.313090312	
510.625	-0.02669926409	-0.03798405563	
511.25	-0.07813836229	-0.09135072525	
511.875	-0.09048693106	0.04349344589	
512.5	-0.05091608707	0.0118489259	
513.125	-0.02293475147	-0.07853741363	
513.75	-0.02547918978	0.02193192655	
514.375	-0.03640928072	-0.1035179226	
515.0	-0.1483430052	0.2412147342	
515.625	0.4257129016	-0.5493826352	
516.25	-0.6664389967	-0.0993283798	
516.875	0.01311476421	-0.1070375287	
517.5	0.07292155172	-0.2096539061	
518.125	-0.05982893462	0.04281091567	
518.75	0.0180070793	-0.1838924473	
519.375	-0.04693885956	0.05743624959	
520.0	0.06783381275	0.04035995649	
520.625	0.1327010054	-0.0003307950959	
521.25	-0.004399360529	-0.2554713743	
521.875	-0.1120139037	0.04641307813	
522.5	-0.02001469844	-0.02746358273	
523.125	-0.05670992765	0.134134703	
523.75	0.02368923893	-0.02822699084	
524.375	-0.2631792051	0.03449956003	
525.0	0.1006441814	0.08753465567	
525.625	-0.05505252746	0.03237121326	
526.25	0.0630991704	0.001628618605	
526.875	-0.1015668194	0.008864933584	
527.5	0.04638418725	0.1663114237	
528.125	0.01779749115	0.1337804646	
528.75	0.04698342	0.2268621526	
529.375	0.09545175091	0.02588508017	
530.0	-0.09277648022	0.1067092346	
530.625	0.0122202993	0.2233749216	
531.25	0.2895228845	0.02251537245	
531.875	0.2476925662	-0.02451717179	
532.5	-0.06329959373	-0.1712381947	
533.125	-0.005084027917	0.09107743271	
533.75	0.1058230957	-0.2655821453	
534.375	-0.09317022097	-0.1334669075	
535.0	-0.1253959545	-0.1557420483	
535.625	-0.1619278813	0.1508760309	
536.25	0.002663488843	0.04867645238	
536.875	0.09711317182	0.04486115178	
537.5	0.04423935153	-0.07054312494	
538.125	0.07811905152	-0.0105523301	
538.75	0.1580131518	-0.1406030298	
539.375	-0.1029825753	-0.1002987836	
540.0	-0.1297179768	-0.1030628966	
540.625	-0.1527506898	-0.05109212956	
541.25	-0.0622153813	0.03119175594	
541.875	-0.04208906016	-0.08101284726	
542.5	-0.06705134424	-0.0009624133384	
543.125	0.00425164618	-0.003808338492	
543.75	-0.1258086453	-0.0301704429	
544.375	0.01087008794	0.04695606808	
545.0	-0.07231179057	0.0373921247	
545.625	0.1013689646	0.05244765437	
546.25	0.005827060482	0.006170313603	
546.875	0.161066101	0.0007065245389	
547.5	-0.008890089178	-0.1246889929	
548.125	0.02112438195	-0.1218948935	
548.75	-0.1459504934	-0.1388010045	
549.375	-0.09468407264	-0.01024563822	
550.0	-0.05491777655	-0.04192806342	
550.625	-0.06178730797	0.04228000795	
551.25	-0.03706280265	0.01165079272	
551.875	-0.09132987056	0.07137913767	
552.5	-0.01674244344	0.07918648132	
553.125	-0.02986631142	0.04401455055	
553.75	0.04946995531	0.03655441428	
554.375	0.07616947072	0.002188234643	
555.0	0.09949867765	-0.06292926655	
555.625	0.07332000839	-0.09849666101	
556.25	0.05804487562	-0.1197778565	
556.875	-0.02989136715	-0.1440582609	
557.5	-0.09179601489	-0.09267223983	
558.125	-0.1038247587	-0.03107423566	
558.75	-0.09684604966	-0.008556450056	
559.375	-0.1086244068	0.02367323692	
560.0	-0.07381715926	0.07061605026	
560.625	-0.06181913892	0.09295479491	
561.25	0.02223977729	0.1138713935	
561.875	0.01620767744	0.01265028185	
562.5	0.01493142095	0.08142044086	
563.125	0.06204170027	0.02912222817	
563.75	0.1230496369	0.04140402962	
564.375	0.1337350388	-0.1239344825	
565.0	0.01933368091	-0.1101772174	
565.625	0.01716610571	-0.1615745826	
566.25	-0.1677893674	-0.08167508591	
566.875	-0.06385632616	-0.0482902028	
567.5	-0.1502176388	-0.1438177906	
568.125	-0.166108423	-0.08025094626	
568.75	-0.1111006435	-0.1362176755	
569.375	-0.2834271178	0.1242464805	
570.0	-0.03491795165	0.176613519	
570.625	-0.1050901703	0.104657758	
571.25	0.07278073754	0.1851790502	
571.875	-0.02484108339	0.009780604604	
572.5	0.1842754056	0.02869116241	
573.125	0.005024018222	-0.1455794976	
573.75	0.07919262813	0.002523594345	
574.375	0.05366204019	-0.1545389662	
575.0	-0.04446618917	0.02158563213	
575.625	0.1136883388	-0.08633220684	
576.25	-0.03253101864	-0.1386042366	
576.875	0.0386540786	-0.04967416183	
577.5	0.04996974535	-0.229069779	
578.125	-0.1286965175	-0.1169617615	
578.75	0.03502592295	-0.03098072381	
579.375	-0.08645311571	-0.1759055175	
580.0	-0.09369348671	0.06606814272	
580.625	-0.01532312277	-0.1329645742	
581.25	-0.09525528581	0.2212763934	
581.875	0.05129507789	0.03629143556	
582.5	-0.05144722237	0.1495228202	
583.125	0.2101875188	0.07338037282	
583.75	-0.07927419824	-0.01316262065	
584.375	0.1157108605	0.1081084939	
585.0	0.03061456856	-0.03116476774	
585.625	0.1499536263	0.1123858365	
586.25	0.1748677443	-0.1498463327	
586.875	-0.007164747545	-0.0740357605	
587.5	0.07113798994	-0.1314814882	
588.125	-0.07704762449	-0.1762359898	
588.75	0.002669209859	-0.02998948482	
589.375	0.134850722	-0.1902122197	
590.0	-0.1427062411	-0.1180729926	
590.625	-0.05351166505	-0.08833724142	
591.25	-0.2317563349	0.1375014974	
591.875	0.1386126176	0.08252727209	
592.5	-0.109030231	0.01185147873	
593.125	0.1132774315	0.05577567184	
593.75	-0.09369228551	0.08961599296	
594.375	0.2023702098	0.1660961897	
595.0	0.1662136365	-0.02153327769	
595.625	0.09982430067	0.1500275199	
596.25	0.2279380254	0.03448298063	
596.875	0.05732813076	0.004383751758	
597.5	0.1118445744	0.1554548532	
598.125	0.1903820658	0.04628867938	
598.75	0.1022261095	0.06643019347	
599.375	0.2258563658	0.02603035333	
600.0	0.1501278783	-0.2053399751	
600.625	0.05285602287	-0.1138320671	
601.25	0.1361916533	-0.1612542722	
601.875	-0.1515187223	-0.1481254002	
602.5	-0.01995001926	0.007153806302	
603.125	-0.242285017	0.01982147441	
603.75	-0.02719290685	0.1445535654	
604.375	-0.1214181364	-0.05572739289	
605.0	-0.1251751302	0.1588188478	
605.625	0.04382723958	0.05281970236	
606.25	-0.1992502943	0.04056812656	
606.875	-0.06854562624	0.122029448	
607.5	-0.1087820784	0.07654093373	
608.125	-0.1068291453	0.2672434678	
608.75	0.2516429605	0.1151771988	
609.375	0.2171698264	-0.02021694323	
610.0	0.211240154	-0.09749551582	
610.625	0.009675538547	-0.21166845	
611.25	0.02216870859	-0.06734951176	
611.875	-0.05632721774	-0.1918278431	
612.5	-0.1374543263	0.04649764827	
613.125	-0.1360145334	-0.06124980277	
613.75	-0.1451114582	0.2205543921	
614.375	0.1104846728	0.00876275799	
615.0	0.007866755643	0.1749758395	
615.625	0.1035813809	0.03466977831	
616.25	-0.08656370085	0.04420890875	
616.875	-0.1489602926	0.2443227826	
617.5	-0.05729346478	0.1670514307	
618.125	-0.06648645833	0.1540639639	
618.75	0.02650605257	0.1873411849	
619.375	0.1259027508	0.08328081356	
620.0	0.108223306	0.05882951907	
620.625	0.1365230857	-0.1923186968	
621.25	-0.1748545355	-0.1642940227	
621.875	-0.1349007686	-0.1203070411	
622.5	-0.311781524	0.05199892354	
623.125	0.0367071305	0.1721468031	
623.75	0.03619204907	0.0755207987	
624.375	0.08043271227	-0.1161753205	
625.0	-0.01198517713	0.0400900064	
625.625	0.1015522213	-0.1288586606	
626.25	-0.1046831514	-0.07196486696	
626.875	-0.05477873469	-0.1050854856	
627.5	-0.1868558337	-0.04862508671	
628.125	-0.08769741598	0.005418375879	
628.75	-0.009742192138	-0.1413001848	
629.375	-0.1033243403	-0.1691645461	
630.0	-0.1566203032	-0.05392632831	
630.625	-0.2098382653	0.009661573136	
631.25	-0.1379971498	0.2278371865	
631.875	0.0461400476	0.2007081996	
632.5	-0.0008702651817	0.1616791193	
633.125	0.2609011919	0.02800352052	
633.75	0.0775327221	-0.08732118307	
634.375	0.1758457555	-0.07953254522	
635.0	-0.08235699817	-0.1685425172	
635.625	-0.01526632508	-0.03598949362	
636.25	-0.2372114462	0.02821961328	
636.875	0.007437104365	0.1564916205	
637.5	-0.04481742868	-0.008976227389	
638.125	-0.09984119	0.1732162246	
638.75	0.006931627846	0.07808578931	
639.375	-0.09821363864	0.234034763	
640.0	0.1967471384	0.2769337812	
640.625	0.2040558042	0.05173149557	
641.25	0.1634416221	0.0844759862	
641.875	0.2031110655	-0.2481067969	
642.5	-0.08457904658	-0.1098468591	
643.125	0.04902424899	-0.1808956993	
643.75	-0.2389765845	-0.02807799372	
644.375	-0.02622299144	-0.04092936243	
645.0	-0.3223882088	0.1572566204	
645.625	0.2276173497	0.1958255511	
646.25	-0.004058240823	0.0510674791	
646.875	0.2472340531	0.108264743	
647.5	-0.09874194739	-0.1279466428	
648.125	0.2060972541	0.194067329	
648.75	0.2266821868	-0.2390636418	
649.375	0.08898787842	-0.1047341757	
650.0	0.3322120443	-0.2644918827	
650.625	0.02167186291	-0.3860828071	
651.25	0.1014221363	-0.02615448851	
651.875	0.3869022315	-0.1351448819	
652.5	0.2188159226	-0.2304921968	
653.125	0.1267093078	0.0149195438	
653.75	0.3754526798	-0.2050406882	
654.375	-0.1988242223	-0.2874058639	
655.0	-0.04264013856	-0.0508325395	
655.625	-0.3301786004	0.1618243616	
656.25	0.2820155141	0.1447020993	
656.875	-0.1323201377	0.0259455076	
657.5	0.1564840212	0.1430803742	
658.125	-0.04299918203	-0.02732099771	
658.75	0.3391054227	0.2979535442	
659.375	0.3098064498	-0.2930594887	
660.0	0.09795707281	-0.1347181085	
660.625	0.2581973081	-0.2973214174	
661.25	0.09820413971	-0.4160424183	
661.875	0.06788427515	-0.05436407249	
662.5	0.3775017145	-0.1629525812	
663.125	0.179948963	-0.2782006339	
663.75	0.1283752879	-0.130650108	
664.375	0.04010882988	-0.3979688429	
665.0	-0.3166324487	-0.1064124804	
665.625	-0.1975992762	0.003901618403	
666.25	-0.201662824	0.2953437568	
666.875	0.2247759123	0.1588618134	
667.5	0.02089860408	0.1144643082	
668.125	0.3145743208	-0.01513049257	
668.75	-0.004209231856	-0.1658711483	
669.375	0.1799791874	-0.0819297067	
670.0	0.001323614878	-0.3373128274	
670.625	-0.08548849289	-0.05419498056	
671.25	0.1962111272	-0.2234549227	
671.875	0.06808427997	-0.2513794837	
672.5	0.0814915315	-0.07570514233	
673.125	0.318639196	-0.09717141906	
673.75	0.01860903469	-0.2832083746	
674.375	0.06911501992	-0.117157875	
675.0	-0.02048949241	-0.3069950289	
675.625	-0.2780186579	-0.08658923115	
676.25	-0.03632031054	-0.0353281378	
676.875	-0.2497557502	-0.06497403024	
677.5	-0.09222927875	0.1288824337	
678.125	-0.1318397436	-0.007800001347	
678.75	-0.01161784035	0.3786309743	
679.375	0.1946673595	-0.1011920019	
680.0	0.09720295455	0.06986470599	
680.625	0.2170231162	-0.2533028678	
681.25	-0.135601663	-0.05338224084	
681.875	0.3277653956	0.2854049813	
682.5	0.2768486089	-0.1564748758	
683.125	0.05625071655	0.04969316818	
683.75	0.2735487497	0.2290175437	
684.375	0.2826186721	-0.182234182	
685.0	0.04482485923	0.1062484825	
685.625	0.4483268469	0.09021966621	
686.25	0.2008500988	-0.1110400227	
686.875	0.2301828406	0.02098154594	
687.5	0.4004029446	-0.3970492109	
688.125	-0.1945157298	-0.2855009683	
688.75	-0.2813879245	-0.2404963999	
689.375	-0.3930672812	0.332441979	
690.0	0.2702780692	0.2678093549	
690.625	-0.01962197654	0.3011650121	
691.25	0.5630948792	0.2515337301	
691.875	0.288826821	0.1092306507	
692.5	0.6153887625	0.5278400619	
693.125	0.7642903824	-0.2259359295	
693.75	0.2848124557	-0.201793023	
694.375	0.5965799128	-0.3249866545	
695.0	0.3257648932	-0.4315893663	
695.625	0.3991563066	0.05932896797	
696.25	0.5422850587	0.314631397	
696.875	0.4487384931	0.2333561196	
697.5	0.1907923686	0.3191307547	
698.125	0.4364452496	0.2083839066	
698.75	0.4158434081	-0.4551786306	
699.375	-0.3302972834	-0.2566863816	
700.0	-0.3728496429	0.2081610952	
700.625	0.2549096551	0.2700748908	
701.25	0.08204708041	0.09922680344	
701.875	0.2506131771	0.3827972118	
702.5	0.394100481	0.04019029318	
703.125	0.2492120682	0.2355912083	
703.75	0.4845299017	-0.07596017194	
704.375	0.1591545808	-0.2885062633	
705.0	0.2074287155	0.02419631338	
705.625	0.3079519485	-0.08763159056	
706.25	0.1580376586	0.03843088311	
706.875	0.1120156145	0.3355760026	
707.5	0.1342657489	0.2814043764	
708.125	0.3926753773	0.08700384555	
708.75	0.2293262283	-0.1903803971	
709.375	-0.2444786136	-0.3207208658	
710.0	-0.1185193837	0.3350633694	
710.625	-0.07393525681	0.1319821168	
711.25	0.3114775754	0.1294467065	
711.875	0.0615108453	0.1155429397	
712.5	0.3818326025	0.09671664076	
713.125	0.2208439916	-0.2750638691	
713.75	0.09231058917	-0.1102729632	
714.375	0.1071641067	-0.2662503798	
715.0	-0.1240887928	-0.1858920561	
715.625	0.07550221794	-0.09708433572	
716.25	0.1929814301	-0.2810448436	
716.875	0.1584644128	-0.2206345254	
717.5	0.3950858919	0.1032402764	
718.125	0.634285848	0.09761868075	
718.75	0.4981535387	-0.2140976664	
719.375	0.1810850862	-0.1764638487	
720.0	0.635241034	-0.8236946744	
720.625	0.01440695829	-0.5500829176	
721.25	0.2733305033	-0.7788119971	
721.875	-0.3528176903	-1.136650168	
722.5	-0.5053597888	-0.3218876939	
723.125	-0.5711956615	-0.5599137099	
723.75	-0.3762852426	0.5942131918	
724.375	0.07697244988	0.144584943	
725.0	-0.02805489454	0.4541488776	
725.625	0.3810512462	0.3703606585	
726.25	-0.04524506646	0.3366274332	
726.875	-0.290110126	0.9495881872	
727.5	0.2169643017	1.339439252	
728.125	0.03357519627	1.056090131	
728.75	-0.8804789613	2.329577529	
729.375	0.1719299006	3.763632549	
730.0	0.7544514939	1.995848587	
730.625	-1.496230696	4.006206428	
731.25	0.5287610293	3.325434492	
731.875	-1.865925296	0.9835111992	
732.5	-4.203671516	-0.006602555375	
733.125	-2.028235992	1.272276332	
733.75	-0.6193140978	0.4824602521	
734.375	0.8668062668	0.8809677188	
735.0	-0.4687116234	-0.3947460836	
735.625	-0.2168772619	-0.1804184797	
736.25	-0.1305114794	0.7481093035	
736.875	0.5184275312	0.10713348	
737.5	0.6193686438	0.8204942576	
738.125	1.865197061	-0.687970927	
738.75	0.6803302967	-1.405230106	
739.375	1.333512503	0.1613705463	
740.0	5.356215467	-1.462062636	
740.625	0.1281193492	-2.824043598	
741.25	-2.466650789	2.625978193	
741.875	-3.400423687	3.646730302	
742.5	0.2291831538	-0.374315086	
743.125	1.155458356	-2.363015045	
743.75	-0.5642467047	-1.172609484	
744.375	-0.03093906254	0.1668744338	
745.0	-0.1547980953	0.235754024	
745.625	-0.05209901857	-0.09939332188	
746.25	0.1006540586	-0.1605621458	
746.875	-0.2552933848	0.07912338078	
747.5	-0.02565258884	0.2295498515	
748.125	-0.08798476967	0.511095257	
748.75	0.3749479043	0.4161967925	
749.375	0.1224897438	0.2411880659	
750.0	-0.3849904186	0.1853011572	
