!Created with skrf (http://scikit-rf.org).
# GHz S RI R (50+0j) 
!freq	ReS11	ImS11	
500.0	-0.06387662731	-1.194982428	
500.625	-0.1431553734	-0.4705295158	
501.25	-0.1861837856	-0.9042254782	
501.875	-0.4701495641	-0.2192336435	
502.5	0.01430485732	-0.08205382587	
503.125	-0.1011793109	0.01562193473	
503.75	0.03851082605	0.005705128501	
504.375	0.03132410306	0.01744714756	
505.0	-0.003100215313	-0.04464897238	
505.625	0.04545342678	-0.0160124266	
506.25	-0.1050641301	-0.11666429	
506.875	0.0940980471	0.07183345118	
507.5	0.003522316226	-0.545026706	
508.125	-0.2631288472	-0.507572362	
508.75	0.7893444737	-0.5986908933	
509.375	-0.3908976788	-1.34485155	
510.0	-0.3018623469	0.002317105934	
510.625	-0.0488494747	-0.1526580796	
511.25	-0.1332855018	-0.05287197363	
511.875	-0.04760645359	0.02393894376	
512.5	-0.05334593398	0.02306660107	
513.125	-0.05479067281	-0.06338651259	
513.75	0.01845209395	-0.001976916846	
514.375	-0.1084709776	-0.07106120758	
515.0	0.1595309043	0.2938091581	
515.625	0.007610237041	-0.7862937981	
516.25	-0.1466080157	0.1168098166	
516.875	0.139804124	-0.2976668896	
517.5	-0.03040254132	-0.2543760412	
518.125	-0.01285980988	0.04670814696	
518.75	-0.06141474955	-0.1987424239	
519.375	-0.02672310279	0.05763455025	
520.0	0.07950073886	0.05529935225	
520.625	0.1745547652	-0.0285031649	
521.25	-0.0393768525	-0.2120453019	
521.875	-0.05882756703	0.004925291987	
522.5	-0.07853923151	-0.01964294614	
523.125	0.03683208752	0.1059630985	
523.75	-0.0253394156	-0.111172511	
524.375	-0.2315240659	0.129356238	
525.0	0.04411519746	0.01036009943	
525.625	-0.03604801437	0.09508773582	
526.25	0.04083603944	-0.07152320778	
526.875	-0.09343966922	0.09215004073	
527.5	0.03412872028	0.09131222209	
528.125	-0.01690162955	0.1664833499	
528.75	0.09786071497	0.1523588251	
529.375	0.0677008311	0.003136806945	
530.0	-0.05141467673	0.1625611104	
530.625	0.06499121089	0.2740870628	
531.25	0.2467706887	0.06424642145	
531.875	0.3125629969	-0.1343532636	
532.5	-0.1277412376	-0.1254929034	
533.125	0.1550969718	0.03151663661	
533.75	-0.01154572554	-0.2338104736	
534.375	-0.01817863059	-0.1470884768	
535.0	-0.2051613581	-0.1851401883	
535.625	-0.1099649442	0.1550706525	
536.25	-0.01417447184	0.05409387005	
536.875	0.1136072387	0.02167497608	
537.5	0.0202951491	-0.05230061929	
538.125	0.1279826558	-0.01646202663	
538.75	0.08434788763	-0.1728832148	
539.375	-0.04905376717	-0.08890908827	
540.0	-0.1249882307	-0.1287513201	
540.625	-0.171284429	-0.02978537864	
541.25	-0.04677066575	0.02391018804	
541.875	-0.07626934554	-0.06453393256	
542.5	-0.0413002755	0.005302215205	
543.125	0.004845363777	-0.06640258198	
543.75	-0.123635274	0.02529283175	
544.375	-0.0009277423056	1.115746908e-05	
545.0	-0.04281201708	0.1085957469	
545.625	0.06477161213	0.00230589189	
546.25	0.02636662606	0.09849081915	
546.875	0.1535488132	-0.06219213214	
547.5	-0.002796701577	-0.07606386489	
548.125	0.01229119459	-0.1608459092	
548.75	-0.167108441	-0.09417461204	
549.375	-0.06149869956	-0.02063449461	
550.0	-0.09751492736	-0.02583420705	
550.625	-0.02297691864	0.03883944655	
551.25	-0.06695034631	-0.003564430455	
551.875	-0.06471467042	0.09186895812	
552.5	-0.009836838692	0.05460675422	
553.125	-0.02576517429	0.06464419484	
553.75	0.04532758281	0.02991814192	
554.375	0.07983650603	0.005052202028	
555.0	0.09393720903	-0.07433583067	
555.625	0.06822310926	-0.09696074009	
556.25	0.05866476971	-0.1226383395	
556.875	-0.03618814961	-0.1465644247	
557.5	-0.09707509929	-0.08813438242	
558.125	-0.1036807197	-0.02805581094	
558.75	-0.1033578603	-0.003983850386	
559.375	-0.1021916707	0.03192643966	
560.0	-0.07357054964	0.06155396918	
560.625	-0.05874286806	0.1075286375	
561.25	0.03929741441	0.09213360228	
561.875	-0.00237525725	0.03326907361	
562.5	0.0429453782	0.05872691939	
563.125	0.03337683498	0.04769488073	
563.75	0.1555131577	0.02470536423	
564.375	0.09915910935	-0.129439246	
565.0	0.03822678916	-0.08039812838	
565.625	-0.01809102842	-0.1884065239	
566.25	-0.1401031756	-0.03071118024	
566.875	-0.07315679735	-0.09841713308	
567.5	-0.1827430204	-0.0941618282	
568.125	-0.0986256906	-0.06694286757	
568.75	-0.2336554624	-0.1574484864	
569.375	-0.199461587	0.1752539415	
570.0	-0.05964606023	0.1203615446	
570.625	-0.1127452347	0.1701293685	
571.25	0.1192223271	0.1149907803	
571.875	-0.03245286513	0.06946939843	
572.5	0.1843657702	-0.03423356417	
573.125	-0.01073679934	-0.07422963126	
573.75	0.1432907277	-0.08457328844	
574.375	-0.07014206614	-0.1293076647	
575.0	0.05296623938	0.04471856472	
575.625	0.03904637356	-0.1497814866	
576.25	-0.04204816098	-0.06575336733	
576.875	0.08152748109	-0.1026086842	
577.5	-0.03149038945	-0.2431319508	
578.125	-0.09953667192	-0.06410185247	
578.75	0.05113307008	-0.128466349	
579.375	-0.1847634629	-0.1219983437	
580.0	0.01886904282	0.05796454295	
580.625	-0.1473460617	-0.09841786613	
581.25	0.04697268441	0.1423302725	
581.875	-0.06382106447	0.05857352459	
582.5	0.04011628635	0.2331713717	
583.125	0.1374819116	-0.05772868265	
583.75	-0.06068727659	0.07132438304	
584.375	0.1316143631	0.02925045593	
585.0	-0.007518878463	0.03268928997	
585.625	0.2395452702	0.04611592831	
586.25	0.07785527882	-0.143746392	
586.875	0.06584570446	-0.03556385738	
587.5	0.008637648252	-0.2046057565	
588.125	-0.0918729838	-0.07607754972	
588.75	0.0995418831	-0.08054554202	
589.375	0.04096797692	-0.2319201575	
590.0	-0.08514118979	-0.05233176139	
590.625	-0.1288781381	-0.1562765661	
591.25	-0.1492888091	0.2240430862	
591.875	0.04668293853	-0.03968521757	
592.5	-0.08094597834	0.1155515025	
593.125	0.05753419814	-0.06273447853	
593.75	-0.03402788247	0.2000994153	
594.375	0.2413822933	0.03029389098	
595.0	0.07033602595	0.02451149895	
595.625	0.1960010991	0.1353508383	
596.25	0.1944842203	-0.04736573436	
596.875	0.06916943279	0.08327997755	
597.5	0.2003562635	0.1145043291	
598.125	0.1195400505	0.01798407579	
598.75	0.1296981606	0.1077487974	
599.375	0.2570298426	-0.0378511915	
600.0	0.072056951	-0.1828341075	
600.625	0.1145270167	-0.08886709979	
601.25	0.08810017137	-0.2387719019	
601.875	-0.1462358537	-0.0654050003	
602.5	-0.04397688887	-0.08987343679	
603.125	-0.1603754823	0.1611536012	
603.75	0.002511961287	0.04888725162	
604.375	-0.2057126722	0.03970681116	
605.0	-0.00691736213	0.1770830861	
605.625	-0.01394485794	-0.0458699924	
606.25	-0.1467256532	0.145119026	
606.875	-0.07322567663	0.05131443889	
607.5	-0.1725875943	0.112073923	
608.125	-0.02762027517	0.3163949652	
608.75	0.1778842099	0.0433327245	
609.375	0.2232560702	-0.04559386708	
610.0	0.17234487	-0.1690627181	
610.625	-0.01958803075	-0.1104071029	
611.25	0.06977956153	-0.1289360877	
611.875	-0.1497486287	-0.1586149286	
612.5	-0.05671814569	-0.004699341741	
613.125	-0.2270368903	-0.04000980861	
613.75	-0.03175680008	0.2483533505	
614.375	0.01320167542	-0.01752144527	
615.0	0.147039769	0.1145858876	
615.625	0.02995008277	-0.02807785153	
616.25	-0.1374356128	0.1251614061	
616.875	-0.01483810073	0.2812401776	
617.5	-0.08815516857	0.1945629467	
618.125	-0.05716758786	0.2348234728	
618.75	0.05967396218	0.1935710415	
619.375	0.0594193901	0.06650361586	
620.0	0.1210124135	0.1072644334	
620.625	0.07474769149	-0.1968459093	
621.25	-0.1403428815	-0.07005319419	
621.875	-0.2049901887	-0.1295963987	
622.5	-0.2726473624	0.1634065815	
623.125	0.004504097827	0.1017944889	
623.75	0.1339357135	0.1174978222	
624.375	-0.008192700776	-0.1108244171	
625.0	0.07316447217	0.04906307273	
625.625	0.02233506208	-0.1578930528	
626.25	-0.02831789148	-0.04175937371	
626.875	-0.1215071633	-0.1399411015	
627.5	-0.1705932267	0.0001597045485	
628.125	-0.0442655166	-0.02863999193	
628.75	-0.07758342273	-0.1739304732	
629.375	-0.1155174641	-0.1388456883	
630.0	-0.1335488548	-0.08793210933	
630.625	-0.249975776	0.05925182081	
631.25	-0.07007323635	0.211637537	
631.875	0.0007714043154	0.1429438373	
632.5	0.08775657756	0.2872802657	
633.125	0.2098882888	-0.03037397151	
633.75	0.08515058611	-0.01688111823	
634.375	0.152189329	-0.2043130367	
635.0	-0.07968897059	-0.07758803468	
635.625	-0.04254295869	-0.1707236122	
636.25	-0.2123658962	0.1270716994	
636.875	0.01448485874	0.08623088945	
637.5	-0.1166535874	0.03084262283	
638.125	0.01829640001	0.1660193333	
638.75	-0.09569941086	0.06146526249	
639.375	-0.0275431864	0.3112693963	
640.0	0.2109376277	0.1773381247	
640.625	0.127013893	0.1110105386	
641.25	0.2977989903	0.09811043388	
641.875	0.1061879864	-0.2493933676	
642.5	0.01054533553	-0.07485165273	
643.125	-0.08048234212	-0.2793702974	
643.75	-0.141588844	0.07530818984	
644.375	-0.1279930148	-0.1300834301	
645.0	-0.2186985575	0.3162336997	
645.625	0.1363272794	0.05025545356	
646.25	0.05411192506	0.2335590267	
646.875	0.2602644656	-0.1466551884	
647.5	-0.1217880188	0.1195237288	
648.125	0.2878185039	0.05085276937	
648.75	0.1134746416	-0.1489830048	
649.375	0.2310248513	-0.0444345849	
650.0	0.2186302674	-0.4410849552	
650.625	-0.03887540911	-0.2329098183	
651.25	0.2791822284	-0.0718739027	
651.875	0.3187710039	-0.277248042	
652.5	0.09374992678	-0.1266765292	
653.125	0.3036099486	0.04091251759	
653.75	0.2285309798	-0.3731962504	
654.375	-0.1200276298	-0.1394048778	
655.0	-0.120589455	-0.2739372141	
655.625	-0.2148120777	0.3175355559	
656.25	0.1355627622	-0.043038495	
656.875	-0.08700618338	0.1885562934	
657.5	0.1557193816	0.003877889251	
658.125	-0.1252933851	0.2411786437	
658.75	0.4919540255	0.05885481946	
659.375	0.1569198558	-0.2065875228	
660.0	0.2476655564	-0.1212013572	
660.625	0.2001382781	-0.4425657153	
661.25	-0.04637701373	-0.2751200505	
661.875	0.3082029254	-0.08138991328	
662.5	0.2986401624	-0.2936913719	
663.125	0.1162251888	-0.1906812147	
663.75	0.2448178513	-0.1673469002	
664.375	-0.1089785144	-0.4015977674	
665.0	-0.1948161932	-0.08441137893	
665.625	-0.3078613273	-0.02279315323	
666.25	-0.1045781381	0.3655320126	
666.875	0.1280879955	0.04704461415	
667.5	0.1384253296	0.2060237012	
668.125	0.2480626704	-0.111207949	
668.75	0.04322455166	0.002249506057	
669.375	0.2463310404	-0.2408512335	
670.0	-0.1282255813	-0.2331753193	
670.625	0.0748847738	-0.06405457091	
671.25	0.06878583859	-0.2875080427	
671.875	0.0003813278542	-0.1757274904	
672.5	0.196270731	0.007246048855	
673.125	0.2715875572	-0.267718442	
673.75	0.04422827054	-0.1308687295	
674.375	0.134285731	-0.1885981996	
675.0	-0.1314993421	-0.3245023864	
675.625	-0.1711231815	0.02187053491	
676.25	-0.1619143493	-0.1429996738	
676.875	-0.2214885088	0.08120080929	
677.5	-0.02073428912	0.03274884326	
678.125	-0.2529808791	0.0593838287	
678.75	0.1771225916	0.3037368718	
679.375	0.04870049204	-0.0145211079	
680.0	0.2369870733	0.03362326908	
680.625	-0.03968595844	-0.3182082146	
681.25	-0.03382405134	0.177916558	
681.875	0.4057907269	-0.09927425198	
682.5	0.0367243818	-0.07011842944	
683.125	0.112079206	0.1952618099	
683.75	0.4554120581	0.06773722741	
684.375	-0.004427606691	-0.03521068104	
685.0	0.3011020588	0.1941839933	
685.625	0.3862719949	-0.09439920362	
686.25	0.1366086292	-0.0548451385	
686.875	0.4198466607	0.003118968169	
687.5	0.1520329415	-0.4641927814	
688.125	0.02687635724	-0.2140302407	
688.75	-0.3678551555	-0.2661316404	
689.375	-0.2646654183	0.4262669058	
690.0	0.08963639915	0.1205617162	
690.625	0.2334683831	0.4429183877	
691.25	0.4032840678	0.02093938139	
691.875	0.2082554084	0.2780725445	
692.5	0.9235778811	0.2480571856	
693.125	0.4534855075	-0.274403781	
693.75	0.4639985571	-0.02771769863	
694.375	0.4791632779	-0.5087073289	
695.0	0.1994715875	-0.2451885672	
695.625	0.6219692792	-0.01186809309	
696.25	0.6112146437	0.04791569925	
696.875	0.2886713006	0.2243978596	
697.5	0.2348270487	0.438103579	
698.125	0.4785011571	0.2541580004	
698.75	0.2711406323	-0.391096825	
699.375	-0.2605166902	-0.2839695034	
700.0	-0.3855541693	0.3339458376	
700.625	0.2060992328	0.1558095389	
701.25	0.09480797058	0.2503802275	
701.875	0.4273716586	0.215322135	
702.5	0.1836204076	0.09093942604	
703.125	0.4481740389	0.2459908184	
703.75	0.4189289765	-0.2205314212	
704.375	0.08188563541	-0.1532583996	
705.0	0.3280296021	-0.09405639588	
705.625	0.2020568655	-0.07316964434	
706.25	0.1169986111	0.1572000607	
706.875	0.2459835369	0.3633958614	
707.5	0.1914444566	0.3447550304	
708.125	0.3304039772	0.1334319542	
708.75	0.293841783	-0.1901951255	
709.375	-0.2728273171	-0.2665724174	
710.0	-0.01761823083	0.1680889916	
710.625	0.02087697392	0.2651405864	
711.25	0.1990713693	-0.08871115917	
711.875	0.1336688428	0.1977669714	
712.5	0.4262811514	-0.06388400354	
713.125	0.1018999958	-0.1809981951	
713.75	0.2112706329	-0.1644313836	
714.375	-0.0223955699	-0.3099756487	
715.0	-0.05857399127	-0.08160492056	
715.625	0.1165167676	-0.2213178429	
716.25	0.07809250407	-0.2892633681	
716.875	0.1825769819	-0.07055681092	
717.5	0.5215515743	0.05743187485	
718.125	0.6526302304	-0.009612570933	
718.75	0.429553973	0.00145513216	
719.375	0.6383020974	0.1948873413	
720.0	0.3332356984	-0.8972897708	
720.625	0.3271742025	-0.4969630348	
721.25	0.0763450143	-1.120349935	
721.875	-0.6156516933	-0.6575156049	
722.5	-0.1996419682	-0.5737189453	
723.125	-1.020043513	-0.2982106326	
723.75	-0.2007971483	0.4880553941	
724.375	-0.1902317816	0.209826215	
725.0	0.2476875891	0.5500374038	
725.625	0.1902655486	0.180239873	
726.25	-0.1614231194	0.5835293422	
726.875	0.03019202523	1.039197256	
727.5	0.2401462358	0.8857961002	
728.125	-0.5447579814	1.392133272	
728.75	-0.03485624406	2.998263871	
729.375	0.5703664942	2.536751784	
730.0	-1.004379043	1.919288233	
730.625	0.09872372972	4.759543118	
731.25	-0.02133623053	1.821588018	
731.875	-2.972801172	1.365158378	
732.5	-4.245043337	1.793001174	
733.125	-0.9740989034	0.7026778505	
733.75	-1.312181795	0.9360993469	
734.375	1.064636166	0.3264556473	
735.0	-0.07291236491	-0.09665860158	
735.625	-0.533842948	-0.2477070301	
736.25	0.2276885257	0.6676535371	
736.875	0.03283122195	0.2237473865	
737.5	1.361519433	0.4381660572	
738.125	1.155209911	-0.9835512228	
738.75	0.6315675485	-0.4265387059	
739.375	3.384586223	-0.6875320681	
740.0	1.854790319	-4.365654546	
740.625	-0.5085811941	1.000187895	
741.25	-0.4678891475	4.39076121	
741.875	0.4993683374	3.386230227	
742.5	1.002686316	-2.608378288	
743.125	0.2279009926	-2.866627505	
743.75	-0.5311148829	-0.5649884097	
744.375	0.04974057789	-0.4540815924	
745.0	0.1520862014	0.3029492475	
745.625	-0.03425287753	0.07785872032	
746.25	-0.01197305174	-0.2035247385	
746.875	-0.1492354355	0.1107238649	
747.5	-0.1127705077	0.1707226563	
748.125	0.1175847298	0.6083599204	
748.75	0.3270688098	0.2661659374	
749.375	0.03081603591	0.3031513858	
750.0	-0.3650957184	0.2950908688	
