!Created with skrf (http://scikit-rf.org).
# GHz S RI R (50+0j) 
!freq	ReS11	ImS11	
500.0	0.1123323434	-0.7659472035	
500.625	0.1899637676	-0.8404858603	
501.25	-0.3152968479	-0.5732883392	
501.875	-0.2271047418	-0.3461617201	
502.5	-0.04045011259	-0.1114143066	
503.125	-0.05880270967	0.003174407115	
503.75	0.01110198347	0.07102510409	
504.375	0.0244320893	-0.005468908241	
505.0	0.01689839256	-0.01813869949	
505.625	-0.002131627686	-0.04261002479	
506.25	-0.05238253258	-0.04816934761	
506.875	-0.1006760114	0.01117241103	
507.5	-0.06448095011	-0.272319041	
508.125	0.118252874	-0.544694925	
508.75	0.396001291	-0.7880278444	
509.375	-0.2476770001	-1.041683685	
510.0	-0.3955017542	-0.2365490867	
510.625	-0.07147240058	-0.1284863246	
511.25	-0.1021749418	-0.04487454925	
511.875	-0.0942402421	-0.01580980456	
512.5	-0.02701551863	0.03384799869	
513.125	-0.02054500336	-0.0453960484	
513.75	-0.04448848918	-0.02668256664	
514.375	-0.04295721678	-0.009225046878	
515.0	-0.0004474433566	-0.04829339526	
515.625	-0.04381203743	-0.3243797052	
516.25	-0.1636042399	-0.4817218374	
516.875	-0.1559650052	-0.2822232518	
517.5	-0.05427622985	-0.1180846046	
518.125	-0.02632607391	-0.02409181253	
518.75	-0.04104566579	-0.1096603619	
519.375	-0.04501838279	0.03371537649	
520.0	0.08954292152	0.04405267686	
520.625	0.1257648954	-0.04915803585	
521.25	-0.02092926592	-0.2154567242	
521.875	-0.1239341845	-0.01652712002	
522.5	-0.03838043762	0.02415154834	
523.125	-0.0491753625	0.02583378754	
523.75	-0.09020797361	-0.004419487923	
524.375	-0.1304039003	0.03130229072	
525.0	-0.03212182169	0.1160490723	
525.625	0.03132810652	0.03647428956	
526.25	-0.01067261143	-0.01173655945	
526.875	-0.03845356834	0.0460622723	
527.5	-0.02723084359	0.1514472253	
528.125	0.05801029239	0.2018191918	
528.75	0.0362867949	0.1720856165	
529.375	0.03425198048	0.04314473167	
530.0	0.02338420761	0.1177213809	
530.625	0.0966662386	0.2285279012	
531.25	0.3320446856	0.07334665587	
531.875	0.1807014613	-0.1496323629	
532.5	-0.04866808175	-0.09120544992	
533.125	0.04676571368	-0.04231694265	
533.75	0.08268893929	-0.1470531548	
534.375	-0.07345293749	-0.2264467405	
535.0	-0.1995264599	-0.08379349551	
535.625	-0.1362826107	0.09345039686	
536.25	0.002532218072	0.08110153926	
536.875	0.08061618249	0.009540535744	
537.5	0.05462375599	-0.0395706002	
538.125	0.09385272831	-0.05900930384	
538.75	0.102365431	-0.1101910099	
539.375	-0.07269825752	-0.1375190915	
540.0	-0.1457911502	-0.1216090261	
540.625	-0.1418696683	-0.01740493614	
541.25	-0.0743007223	0.00602100187	
541.875	-0.03844051755	-0.0175697379	
542.5	-0.0397003236	-0.04553410566	
543.125	-0.06989223918	-0.03919809509	
543.75	-0.07648999499	-0.002520844865	
544.375	-0.03960035777	0.03741018919	
545.0	-0.003251559691	0.05186884888	
545.625	0.04610938247	0.05551781437	
546.25	0.08539452376	0.03060179796	
546.875	0.1024611463	-0.02706023959	
547.5	0.05414650088	-0.1103147884	
548.125	-0.04435372822	-0.1378109127	
548.75	-0.1122702776	-0.0948227709	
549.375	-0.1003034501	-0.05522723378	
550.0	-0.06740499828	0.009265495273	
550.625	-0.04591220103	0.0085342692	
551.25	-0.06691028856	0.02825716887	
551.875	-0.06166723321	0.06306624762	
552.5	-0.03612187663	0.06804624487	
553.125	-0.01018881714	0.05729159386	
553.75	0.04285348266	0.03956242453	
554.375	0.083688609	-0.004188285077	
555.0	0.08651547343	-0.06675510564	
555.625	0.07607481826	-0.09855020336	
556.25	0.05522630672	-0.1271121679	
556.875	-0.0369896299	-0.1393881672	
557.5	-0.09250851886	-0.08986945456	
558.125	-0.1068500165	-0.03116708627	
558.75	-0.1006661461	0.003037067028	
559.375	-0.09890712124	0.02410712055	
560.0	-0.084962996	0.07127976423	
560.625	-0.04242116144	0.1035779186	
561.25	0.01012526449	0.09016740779	
561.875	0.02773576762	0.03895401999	
562.5	0.009805084704	0.04830248698	
563.125	0.06687309738	0.06449180236	
563.75	0.1266576663	-0.001824846705	
564.375	0.1131301143	-0.08943725893	
565.0	0.06259121152	-0.1344851662	
565.625	-0.03423777424	-0.1405883719	
566.25	-0.1074133952	-0.09371543355	
566.875	-0.1264383726	-0.06500888384	
567.5	-0.1276769663	-0.09067714462	
568.125	-0.1337688874	-0.1285676879	
568.75	-0.2017312074	-0.05636171085	
569.375	-0.2006103168	0.0956428148	
570.0	-0.09586948727	0.1827509329	
570.625	-0.03599369026	0.1572681946	
571.25	0.01369035926	0.1015962313	
571.875	0.05480593636	0.06220826444	
572.5	0.1115019015	-0.006065797658	
573.125	0.07360396038	-0.1032805875	
573.75	0.03155947138	-0.1014779253	
574.375	0.007425768797	-0.06179614596	
575.0	0.0226198426	-0.03651128067	
575.625	0.0312280572	-0.06697511469	
576.25	0.03524655723	-0.09991133584	
576.875	-0.00955640494	-0.1266668976	
577.5	-0.01067727	-0.1416090049	
578.125	-0.04827134525	-0.1377935791	
578.75	-0.08143759194	-0.1035180193	
579.375	-0.07997987913	-0.05413400228	
580.0	-0.04942966928	-0.02406400695	
580.625	-0.06293509164	-0.02157811091	
581.25	-0.08951542917	0.06972649592	
581.875	0.01174597178	0.1393103851	
582.5	0.05762786665	0.1212256032	
583.125	0.07194920412	0.06307986589	
583.75	0.03612915401	0.0172441942	
584.375	0.03305010006	0.04946139145	
585.0	0.0991083361	0.04757851454	
585.625	0.1375019406	-0.003826053278	
586.25	0.1322458253	-0.06151113586	
586.875	0.06057941242	-0.1226718127	
587.5	-0.0146589801	-0.1235715293	
588.125	-0.0192541046	-0.1224864517	
588.75	0.02060748903	-0.1304585623	
589.375	0.04317276904	-0.140029076	
590.0	-0.05814838485	-0.1505428513	
590.625	-0.163965176	-0.03332918901	
591.25	-0.1116165189	0.1039325396	
591.875	-0.02078131256	0.1073492371	
592.5	0.01079154171	0.04150691496	
593.125	-0.02379045535	0.04669769384	
593.75	0.05348151638	0.1026575187	
594.375	0.1356807592	0.07889336484	
595.0	0.1530587089	0.07568599281	
595.625	0.1543452962	0.05776161797	
596.25	0.1438304954	0.02491231658	
596.875	0.1392429656	0.02033636705	
597.5	0.1327356695	0.06215495265	
598.125	0.1381650454	0.09046932366	
598.75	0.1609097806	0.0647052219	
599.375	0.1851058299	-0.04154494668	
600.0	0.1380210674	-0.1350251772	
600.625	0.109555344	-0.1647194342	
601.25	0.04115710812	-0.1733816346	
601.875	-0.07960447861	-0.1202980041	
602.5	-0.1137493905	-0.007993863108	
603.125	-0.096111525	0.04567840035	
603.75	-0.09140917154	0.06875866648	
604.375	-0.08163011246	0.07224643833	
605.0	-0.05637498532	0.07106457169	
605.625	-0.0608610599	0.05832013318	
606.25	-0.0971368749	0.06280878927	
606.875	-0.144162358	0.08424677103	
607.5	-0.1343735297	0.1648290732	
608.125	-0.01582313355	0.2192010266	
608.75	0.1673916567	0.1456941447	
609.375	0.2079641245	-0.03789202463	
610.0	0.1434057612	-0.1140109387	
610.625	0.07005178517	-0.1463583324	
611.25	-0.003857599154	-0.1439348855	
611.875	-0.08189669347	-0.107126862	
612.5	-0.1471279185	-0.05294309958	
613.125	-0.1696416617	0.038881564	
613.75	-0.07631566935	0.1346503421	
614.375	0.04714921828	0.0962617322	
615.0	0.03718761241	0.03711664075	
615.625	-1.891179448e-05	0.07798437869	
616.25	-0.03061823964	0.1305637069	
616.875	-0.06300566606	0.1716906931	
617.5	-0.05114070584	0.1987891455	
618.125	-0.009645476799	0.1908995107	
618.75	0.02780276234	0.1699896519	
619.375	0.09209465367	0.1427231429	
620.0	0.1718768552	0.03406481118	
620.625	0.09540221709	-0.1430621916	
621.25	-0.08448377696	-0.1640418209	
621.875	-0.1873479224	-0.07071150266	
622.5	-0.1920655397	0.06252949012	
623.125	-0.02848371431	0.1693433442	
623.75	0.1190737711	0.0350494027	
624.375	0.03589762567	-0.04851200816	
625.0	0.03527982136	-0.02628778042	
625.625	0.04246599561	-0.08156274402	
626.25	-0.04542539593	-0.1226721164	
626.875	-0.1280326373	-0.07385717935	
627.5	-0.1341958706	-0.03351191522	
628.125	-0.1024282319	-0.05629045993	
628.75	-0.07005361954	-0.1062040732	
629.375	-0.08860688256	-0.133189333	
630.0	-0.1740395281	-0.08335856587	
630.625	-0.1981177766	0.06685858052	
631.25	-0.1223826199	0.1802503319	
631.875	-0.01496110232	0.2231820402	
632.5	0.1362704379	0.1746311417	
633.125	0.1913977855	0.04333499676	
633.75	0.1512728371	-0.06551352058	
634.375	0.05381576968	-0.1242231136	
635.0	-0.01483336531	-0.1340224653	
635.625	-0.132526502	-0.08093254667	
636.25	-0.1423473025	0.0674376509	
636.875	-0.05537016663	0.1172963861	
637.5	-0.02954092888	0.08065226506	
638.125	-0.05896020044	0.08026164568	
638.75	-0.06212110346	0.1499730977	
639.375	0.004606436462	0.2252995412	
640.0	0.1315644485	0.2150862594	
640.625	0.2176176356	0.1273839511	
641.25	0.2485887211	-0.005127736905	
641.875	0.155034147	-0.1675265156	
642.5	-0.00896044907	-0.1952301295	
643.125	-0.1103794767	-0.1080163462	
643.75	-0.1200527449	-0.06516902635	
644.375	-0.1625468418	8.392478234e-05	
645.0	-0.1316293394	0.1434959915	
645.625	0.05477185388	0.1921370309	
646.25	0.1489966415	0.06488794978	
646.875	0.08907794793	-0.01640991848	
647.5	0.05228533756	0.02883164386	
648.125	0.1421588555	0.04420656851	
648.75	0.2335268532	-0.06491970204	
649.375	0.1975549488	-0.2215015711	
650.0	0.1369104832	-0.276404643	
650.625	0.126016583	-0.2583199881	
651.25	0.1692451205	-0.2114960146	
651.875	0.2246095482	-0.1541674354	
652.5	0.2480683134	-0.09227127192	
653.125	0.239659213	-0.1026580952	
653.75	0.1765992558	-0.2015647577	
654.375	-0.04288343224	-0.2785143039	
655.0	-0.2570061294	-0.09094352777	
655.625	-0.160742913	0.1646520086	
656.25	0.02719862039	0.1548623834	
656.875	0.04588772756	0.0627536681	
657.5	0.03459723062	0.09330040571	
658.125	0.1285356335	0.14089972	
658.75	0.2626464406	0.07087093559	
659.375	0.2906279501	-0.130513254	
660.0	0.1986414645	-0.268004811	
660.625	0.113453579	-0.2954845204	
661.25	0.1377167446	-0.2637769899	
661.875	0.1895939133	-0.2289137667	
662.5	0.2290773335	-0.1850508395	
663.125	0.2298272021	-0.1776637227	
663.75	0.1445204128	-0.2522282039	
664.375	-0.03482904416	-0.2976180032	
665.0	-0.2421888812	-0.1879455454	
665.625	-0.2816888056	0.07888352224	
666.25	-0.09183134791	0.2422295444	
666.875	0.1046193384	0.188822861	
667.5	0.1665926906	0.08204561399	
668.125	0.1959639189	-0.01238380515	
668.75	0.1724100499	-0.1265433322	
669.375	0.08663111382	-0.2002555051	
670.0	0.002727024428	-0.1986218811	
670.625	0.003210050589	-0.1695553688	
671.25	0.05093078708	-0.1594839655	
671.875	0.1189996647	-0.1541062725	
672.5	0.1773162509	-0.1351542443	
673.125	0.1858243433	-0.1535168624	
673.75	0.1440773587	-0.197176488	
674.375	0.04571132076	-0.2338861088	
675.0	-0.07761006121	-0.2141739086	
675.625	-0.1672811025	-0.1166679171	
676.25	-0.164145704	-0.0249862098	
676.875	-0.1326350495	0.009204567073	
677.5	-0.1342520303	0.02219930372	
678.125	-0.1298893699	0.1222619279	
678.75	0.02658745187	0.2056378639	
679.375	0.1863812466	0.06947853275	
680.0	0.1322727496	-0.07901127208	
680.625	0.06255951687	-0.07006297723	
681.25	0.08212589872	-0.01558617788	
681.875	0.1336222211	0.0388327267	
682.5	0.1789067655	0.07867702481	
683.125	0.219619494	0.06735945299	
683.75	0.2372587465	0.05806491118	
684.375	0.2472030136	0.03195728867	
685.0	0.2522909232	0.03416391824	
685.625	0.260185834	0.004533778808	
686.25	0.2682893723	-0.03491067669	
686.875	0.2707661124	-0.1309295208	
687.5	0.2288374359	-0.2584610477	
688.125	-0.01263176822	-0.3884060439	
688.75	-0.3657662131	-0.182460442	
689.375	-0.2667402896	0.2778555644	
690.0	0.08812433569	0.3183878417	
690.625	0.2090210406	0.2216943244	
691.25	0.2840838049	0.2382957364	
691.875	0.4102157553	0.2682437955	
692.5	0.5420301762	0.1758924358	
693.125	0.5886545552	-0.03183268406	
693.75	0.5176683529	-0.2250213709	
694.375	0.3805831635	-0.3561141432	
695.0	0.3949123453	-0.2642057444	
695.625	0.4436780291	-0.08713055371	
696.25	0.4361558473	0.1374790759	
696.875	0.3481330766	0.3373600954	
697.5	0.3334183127	0.396204425	
698.125	0.4953609392	0.2143326933	
698.75	0.4024241632	-0.3449429456	
699.375	-0.318764823	-0.3533025401	
700.0	-0.2552505354	0.2923414583	
700.625	0.1190326307	0.2628250147	
701.25	0.2024012208	0.1572294691	
701.875	0.2390256919	0.1964615845	
702.5	0.310841681	0.1991768957	
703.125	0.3735611913	0.09467186828	
703.75	0.3408019634	-0.09625214684	
704.375	0.2417319747	-0.1774178621	
705.0	0.2076804748	-0.1297330395	
705.625	0.2304705516	-0.004517475487	
706.25	0.2204072435	0.1480501719	
706.875	0.205902525	0.2523191317	
707.5	0.2346684696	0.3020327096	
708.125	0.384623829	0.1279190214	
708.75	0.2691776498	-0.2876196951	
709.375	-0.2165969133	-0.2584301048	
710.0	-0.1771357527	0.1718778719	
710.625	0.05419201302	0.1370534736	
711.25	0.07985494571	0.1007424703	
711.875	0.1809042862	0.1017149583	
712.5	0.2713312975	-0.02094341638	
713.125	0.2309233723	-0.1553993297	
713.75	0.1154811989	-0.223333758	
714.375	0.006468640813	-0.2107085192	
715.0	-0.02579656626	-0.1767254996	
715.625	0.0106734358	-0.1895080877	
716.25	0.1258708833	-0.2123074857	
716.875	0.2791023712	-0.1659832478	
717.5	0.4278136992	-0.03704911954	
718.125	0.5561439664	0.04056353689	
718.75	0.6436006636	-0.07773341725	
719.375	0.6274185886	-0.3489077215	
720.0	0.4199937809	-0.6700027742	
720.625	0.1931996539	-0.7640703608	
721.25	-0.01964559715	-0.8307635828	
721.875	-0.196009982	-0.8362365192	
722.5	-0.5219471223	-0.6481467893	
723.125	-0.6667997025	-0.1286538841	
723.75	-0.3568652252	0.3667744561	
724.375	0.02787616224	0.3979856865	
725.0	0.1597443362	0.312056762	
725.625	0.1600751236	0.3785911209	
726.25	0.05704278254	0.5638946085	
726.875	-0.04101931519	0.7846134982	
727.5	-0.06822303648	1.125784599	
728.125	0.02934021674	1.570964341	
728.75	-0.009793239943	2.113385333	
729.375	-0.5642889491	2.742373494	
730.0	0.06791826008	3.193106201	
730.625	-0.2181050733	3.018006973	
731.25	-0.5766584811	2.900222764	
731.875	-2.07448299	2.06425018	
732.5	-2.692742406	0.7214513559	
733.125	-2.011278933	0.3394849875	
733.75	-0.7296162704	1.079856368	
734.375	0.6964971768	0.4091697184	
735.0	0.0191689044	-0.5281806569	
735.625	-0.4044150453	0.08972928682	
736.25	-0.0517161293	0.445313078	
736.875	0.3493809983	0.4657945047	
737.5	0.8773333279	0.1478897661	
738.125	1.197396591	-0.3668995632	
738.75	1.341358747	-0.9921165046	
739.375	1.733087293	-1.270945554	
740.0	2.237941347	-1.118775067	
740.625	2.031912587	0.1393219652	
741.25	0.6409742891	1.707015073	
741.875	-2.026165862	-0.06188743846	
742.5	-1.025439323	-1.747816744	
743.125	0.09176186777	-1.428591152	
743.75	-0.02040776576	-0.8040776266	
744.375	-0.3550863884	-0.07248639268	
745.0	0.03614911462	0.1179125854	
745.625	0.05202786879	-0.002232478761	
746.25	-0.003957193525	-0.1121106279	
746.875	-0.1931282275	0.01286557531	
747.5	-0.07409486153	0.2922080295	
748.125	0.1046931332	0.4294940041	
748.75	0.2383338314	0.3790499877	
749.375	0.109910815	0.4097296258	
750.0	-0.3055467936	0.2483185992	
