!Created with skrf (http://scikit-rf.org).
# GHz S RI R (50+0j) 
!freq	ReS11	ImS11	
500.0	-0.3325510082	-0.8890507726	
500.625	0.4420781664	-0.4122816296	
501.25	-0.650290681	-0.8304400248	
501.875	-0.2850934706	-0.184739028	
502.5	0.03271419551	-0.1341189375	
503.125	-0.07536565202	0.05951831366	
503.75	-0.01792749968	0.01646332146	
504.375	0.05229946309	-0.007005269495	
505.0	-0.01467507696	-0.01320612279	
505.625	0.03847657779	-0.07977596844	
506.25	-0.1412614944	-0.03018067399	
506.875	0.06732184452	-0.06956638929	
507.5	-0.2605583436	-0.5179732863	
508.125	0.06583131576	-0.1609110756	
508.75	0.8275310418	-0.7838910981	
509.375	-0.4420043405	-0.9658208712	
510.0	-0.158390991	-0.2069114757	
510.625	-0.2226012406	-0.196383616	
511.25	-0.09544248242	0.00925041218	
511.875	-0.03188450969	-0.03351135422	
512.5	-0.02642466654	0.04808460092	
513.125	-0.03740685699	-0.03664116921	
513.75	0.006504900776	-0.05359840578	
514.375	-0.1552198272	0.01923278634	
515.0	0.3244491244	0.01498704106	
515.625	-0.4133505314	-0.3690867301	
516.25	0.1028575218	-0.1277675952	
516.875	-0.3353895875	-0.6678889451	
517.5	-0.1770268413	-0.136144642	
518.125	0.03783925373	-0.001967457787	
518.75	-0.07983271854	-0.2043855821	
519.375	-0.01832224605	0.04650403722	
520.0	0.09781588113	0.05831106669	
520.625	0.1701285754	-0.07402512349	
521.25	-0.1023227482	-0.1553133355	
521.875	-0.1109633712	-0.03119057593	
522.5	-0.06481071335	0.04510783034	
523.125	0.02652140974	-0.0572810983	
523.75	-0.1778211658	-0.04276523622	
524.375	-0.11779585	0.168842364	
525.0	-0.04435741096	-0.01233767991	
525.625	0.01090636621	0.1253539048	
526.25	-0.02297649371	-0.09133577531	
526.875	-0.03383846861	0.1120597582	
527.5	-0.03220369113	0.05793681155	
528.125	-0.03619735158	0.2713707673	
528.75	0.1352153223	0.2454082179	
529.375	-0.01383527291	-0.0129488109	
530.0	0.03573549534	0.07315122472	
530.625	0.1362101445	0.1655576704	
531.25	0.2719771295	-0.006189988833	
531.875	0.2875448547	-0.2249097117	
532.5	-0.2453576285	-0.1338986326	
533.125	0.1298510694	-0.09504380888	
533.75	-0.02075496632	-0.08374543278	
534.375	0.02453221299	-0.2639856512	
535.0	-0.2924804003	-0.1122719084	
535.625	-0.07878287998	0.09335972356	
536.25	-0.03070594166	0.08307646929	
536.875	0.108665904	-0.009614571908	
537.5	0.0221954688	-0.01693355021	
538.125	0.150793576	-0.06529066266	
538.75	0.04657006399	-0.1243035538	
539.375	-0.01701684265	-0.135168975	
540.0	-0.1579949297	-0.1440067834	
540.625	-0.1412109208	0.02190246612	
541.25	-0.04111044696	0.01744134454	
541.875	-0.08600273454	-0.02422906044	
542.5	-0.01829660489	0.02637273823	
543.125	-0.07554600552	-0.08505594307	
543.75	-0.08456999288	0.06629652985	
544.375	-0.07012267463	-0.000990167464	
545.0	0.03008045733	0.1133707705	
545.625	0.004079137654	0.01848521752	
546.25	0.11831082	0.07627464804	
546.875	0.09240043217	-0.09671627106	
547.5	0.04679540346	-0.04742612816	
548.125	-0.02036210473	-0.1897306672	
548.75	-0.1550314768	-0.04940125319	
549.375	-0.0539544706	-0.07026021167	
550.0	-0.1150765317	0.02210247098	
550.625	-0.008292261191	-0.006988834524	
551.25	-0.1004478396	0.04108592261	
551.875	-0.02780777989	0.06397540454	
552.5	-0.04483369726	0.04262223489	
553.125	-0.009773808669	0.07261047271	
553.75	0.03728424455	0.02908451101	
554.375	0.08672302143	0.006750539005	
555.0	0.08732807379	-0.07943995393	
555.625	0.06966216147	-0.09294013178	
556.25	0.05889163066	-0.1263743445	
556.875	-0.0434328011	-0.1441957943	
557.5	-0.09136741298	-0.08562181078	
558.125	-0.1053059934	-0.03850187244	
558.75	-0.1051437052	0.003490394174	
559.375	-0.09330637987	0.02955330558	
560.0	-0.08625572073	0.0568682465	
560.625	-0.05130567295	0.1167383913	
561.25	0.02846134131	0.07683033487	
561.875	0.003601915478	0.05786634762	
562.5	0.03929919062	0.02413362633	
563.125	0.04294409297	0.09355975046	
563.75	0.1512716658	-0.03023062407	
564.375	0.07429604647	-0.06921454124	
565.0	0.1133610499	-0.1140835817	
565.625	-0.0736407219	-0.1664102333	
566.25	-0.07805394343	-0.05453693279	
566.875	-0.1105041432	-0.1418248461	
567.5	-0.1850466665	-0.05371484902	
568.125	-0.03088635738	-0.1142187896	
568.75	-0.2781861587	-0.09646413783	
569.375	-0.1232437006	0.134629241	
570.0	-0.1516775876	0.1245592165	
570.625	-0.01778577094	0.2421182353	
571.25	0.03721443768	0.02209174278	
571.875	0.04077369606	0.1568107749	
572.5	0.1179542593	-0.09233501735	
573.125	0.06490802446	0.003950734399	
573.75	0.109702602	-0.1716219263	
574.375	-0.09131271059	-0.02896183778	
575.0	0.1179635836	-0.02207724933	
575.625	-0.0457686646	-0.102720267	
576.25	0.05874665221	-0.01359343148	
576.875	0.02630302544	-0.2033713339	
577.5	-0.1026097611	-0.1550415955	
578.125	0.001227330007	-0.06205598065	
578.75	-0.04318544281	-0.2041675112	
579.375	-0.2098397379	0.03860628509	
580.0	0.0587004737	-0.05270527798	
580.625	-0.1949257128	0.04369853265	
581.25	0.02271715076	0.006071425777	
581.875	-0.1127401177	0.1900312748	
582.5	0.1589495543	0.1735098526	
583.125	-0.0004354646999	-0.04121681006	
583.75	0.03364859313	0.1348411964	
584.375	0.0741515615	-0.04298375492	
585.0	0.03489568172	0.1441492262	
585.625	0.2121292811	-0.09231257678	
586.25	0.0355340986	-0.04923120479	
586.875	0.157677585	-0.1165023199	
587.5	-0.09774688219	-0.16245649	
588.125	0.02978793991	-0.05940049333	
588.75	0.09239551173	-0.183926514	
589.375	-0.02677391368	-0.1885230302	
590.0	0.003962999394	-0.06816937421	
590.625	-0.2479177535	-0.1451986965	
591.25	-0.02764490885	0.1879213954	
591.875	-0.06202704209	0.01600502036	
592.5	0.04606521241	0.1614782539	
593.125	-0.1079836714	-0.07423773429	
593.75	0.1503713633	0.1945125217	
594.375	0.1199728852	-0.01276646922	
595.0	0.07048402198	0.1232831453	
595.625	0.2424541724	0.06791175651	
596.25	0.1227290797	-0.05792752136	
596.875	0.09006677489	0.1058256245	
597.5	0.2040005802	0.03680634615	
598.125	0.07039924152	0.07580902107	
598.75	0.1874167765	0.1350076072	
599.375	0.1750961376	-0.1158962723	
600.0	0.1042285501	-0.06803466811	
600.625	0.1367280615	-0.1654659954	
601.25	0.003340770925	-0.2292082222	
601.875	-0.06318766358	-0.03615436776	
602.5	-0.1513674586	-0.1228442795	
603.125	-0.05373938696	0.1581623103	
603.75	-0.05160137926	-0.02388777481	
604.375	-0.17982843	0.117904149	
605.0	0.08208568499	0.009689100913	
605.625	-0.1589790692	0.00659751463	
606.25	0.04890894776	0.09622264085	
606.875	-0.118759182	-0.02096677467	
607.5	-0.2424446247	0.1811396636	
608.125	0.0707393853	0.2554024806	
608.75	0.09160080119	0.09244965966	
609.375	0.257982773	0.006920309571	
610.0	0.1522760463	-0.1235167607	
610.625	0.05868601399	-0.05163618337	
611.25	0.06280489104	-0.1137762294	
611.875	-0.1023781279	-0.03798870579	
612.5	-0.09495108345	-0.1352510946	
613.125	-0.2595899551	0.07455133303	
613.75	0.05329419239	0.1384228322	
614.375	-0.06642845874	0.1003311476	
615.0	0.1418393492	0.06519011553	
615.625	-0.08313977876	0.01383220761	
616.25	-0.05867266949	0.221600263	
616.875	0.03770780574	0.1363405398	
617.5	-0.1275344372	0.1249148114	
618.125	0.004718747016	0.2498402879	
618.75	0.02468372305	0.1399585725	
619.375	0.01143239103	0.160838745	
620.0	0.2633668999	0.03154701679	
620.625	0.02758950605	-0.1328048236	
621.25	-0.03906208234	-0.05381823146	
621.875	-0.2443965957	-0.09334681887	
622.5	-0.1148415382	0.09915811525	
623.125	-0.0951686447	0.07103602672	
623.75	0.2097504155	0.05532219143	
624.375	-0.03758726355	-0.02551805524	
625.0	0.1120291159	-0.04304096239	
625.625	-0.04096892675	-0.08251536343	
626.25	0.02746577772	-0.1165194016	
626.875	-0.1636886869	-0.1099615829	
627.5	-0.122145407	0.0300232449	
628.125	-0.04278363727	-0.1036163121	
628.75	-0.1428677714	-0.1265852665	
629.375	-0.1033661623	-0.1155413148	
630.0	-0.1733285471	-0.1266822155	
630.625	-0.2168992128	0.1121197503	
631.25	-0.07292865234	0.1569494237	
631.875	-0.131273168	0.1259860594	
632.5	0.1877009714	0.2141122263	
633.125	0.1437850622	0.0006839271727	
633.75	0.1784996624	0.02896828165	
634.375	0.01880179108	-0.2591581479	
635.0	0.02602311521	-0.05303761112	
635.625	-0.1732735502	-0.1607714052	
636.25	-0.07403343541	0.1569940204	
636.875	-0.07133560834	0.03153180419	
637.5	-0.08590205929	0.1913245433	
638.125	0.02700204995	0.01867347879	
638.75	-0.1504257595	0.1543659749	
639.375	0.0705858604	0.2898513304	
640.0	0.1347413052	0.1203568558	
640.625	0.1691214257	0.2055246991	
641.25	0.3261723813	-0.06680024459	
641.875	0.0692460956	-0.122916924	
642.5	0.1350315989	-0.1591152324	
643.125	-0.2397830212	-0.1076639616	
643.75	-0.006656327126	-0.04878593621	
644.375	-0.2612630645	-0.04584277889	
645.0	0.02187051222	0.3345980123	
645.625	-0.02445508062	0.03331219065	
646.25	0.2298166568	0.1927706054	
646.875	0.01746100611	-0.2073110028	
647.5	0.06578905111	0.2316479941	
648.125	0.1927123272	-0.09752408103	
648.75	0.09506152357	0.05621806653	
649.375	0.3950615927	-0.3139393112	
650.0	-0.0369724376	-0.3559819903	
650.625	0.1280074935	-0.07545501428	
651.25	0.3265595123	-0.2412222249	
651.875	0.1422538442	-0.3223917514	
652.5	0.1501462143	0.02688750618	
653.125	0.404647045	-0.0975087844	
653.75	0.03718113093	-0.2609461255	
654.375	0.09056704401	-0.2073147797	
655.0	-0.4328846829	-0.1569103519	
655.625	-0.02577314101	0.2094443982	
656.25	-0.08751250286	0.04293094704	
656.875	0.163386809	0.2775381551	
657.5	-0.01621824888	-0.07220493861	
658.125	0.1601359889	0.4266247895	
658.75	0.3544160565	-0.09518044238	
659.375	0.1670640256	-0.07275172251	
660.0	0.3637236371	-0.251168548	
660.625	-0.08043581999	-0.3944107859	
661.25	0.1656267697	-0.09456180108	
661.875	0.2958122148	-0.3002780607	
662.5	0.1451331672	-0.275147838	
663.125	0.1721205006	-0.02628411287	
663.75	0.2598847758	-0.3375746248	
664.375	-0.1595515803	-0.2691447459	
665.0	-0.1287703839	-0.1790485388	
665.625	-0.3872670968	0.07309277142	
666.25	0.02960754158	0.2459930619	
666.875	-0.01062250068	0.1846326269	
667.5	0.2816759573	0.1092317729	
668.125	0.1014686846	-0.08003717391	
668.75	0.2356299933	-0.01057986463	
669.375	0.04091433853	-0.4007970569	
670.0	-0.05562882817	-0.06345352343	
670.625	0.1280472796	-0.2117810482	
671.25	-0.03630862055	-0.2687791263	
671.875	0.06679813632	0.004217792874	
672.5	0.318140689	-0.1566825658	
673.125	0.0645619211	-0.1800625069	
673.75	0.1355982753	-0.09906600989	
674.375	0.1247350604	-0.3232891573	
675.0	-0.21965147	-0.1411470073	
675.625	-0.02755672968	-0.1278454723	
676.25	-0.2564829411	-0.09086856615	
676.875	-0.08483283623	0.09923388783	
677.5	-0.1025012027	-0.09499080299	
678.125	-0.1786893216	0.2424332957	
678.75	0.1078903179	0.07800627749	
679.375	0.08611749403	0.1820057967	
680.0	0.2721014814	-0.1728705879	
680.625	-0.2089292162	-0.02316833939	
681.25	0.2538913593	0.1098766416	
681.875	0.1716610795	-0.1240917534	
682.5	-0.04900324394	0.1848545597	
683.125	0.3736506593	0.209636779	
683.75	0.1145175827	-0.2337612972	
684.375	0.1446907152	0.2488068315	
685.0	0.4083052373	0.06690012129	
685.625	0.2042435294	-0.1647009955	
686.25	0.3088591374	0.1363529057	
686.875	0.3911528764	-0.3048540374	
687.5	0.05796099973	-0.204366565	
688.125	0.1231884737	-0.3567896839	
688.75	-0.4620271459	-0.2010492123	
689.375	-0.06922809673	0.2902424677	
690.0	-0.1089599913	0.3533153713	
690.625	0.38703248	0.219035224	
691.25	0.1438022375	0.09721071182	
691.875	0.4342549166	0.4926094409	
692.5	0.6640271332	-0.04031158992	
693.125	0.346361392	0.1418959009	
693.75	0.6619071658	-0.1311674401	
694.375	0.06712933998	-0.4899038433	
695.0	0.2441641973	-0.08302457556	
695.625	0.635396457	0.04706159748	
696.25	0.3799237893	-0.003391503524	
696.875	0.3102143172	0.3955907453	
697.5	0.3605344402	0.345374342	
698.125	0.4598570143	0.06368747093	
698.75	0.4037464263	-0.3217843076	
699.375	-0.2093496922	-0.3395306305	
700.0	-0.2013090578	0.390401196	
700.625	0.03951713098	0.1247469903	
701.25	0.251948907	0.3209412681	
701.875	0.3161574249	0.02059941237	
702.5	0.1856624583	0.2621696519	
703.125	0.5069016693	0.1314556793	
703.75	0.1947281279	-0.1901291085	
704.375	0.3130999742	-0.03657450427	
705.0	0.1621044463	-0.2363039109	
705.625	0.09854313762	-0.01365607457	
706.25	0.2128175814	0.2967274788	
706.875	0.3606433441	0.2205064504	
707.5	0.2391728763	0.3388875729	
708.125	0.4022553554	0.151694335	
708.75	0.2819216371	-0.4098555158	
709.375	-0.2371151847	-0.1483125533	
710.0	-0.1100486413	0.04793265792	
710.625	0.1577326444	0.2572957773	
711.25	-0.02300461303	0.09199200836	
711.875	0.2707840076	0.1553504213	
712.5	0.2560050929	-0.2292933767	
713.125	0.1869909112	-0.0428843853	
713.75	0.1787579984	-0.301682659	
714.375	-0.09734835735	-0.2093100165	
715.0	0.05788658657	-0.1128783762	
715.625	0.0135524213	-0.2715548021	
716.25	0.01456219727	-0.1657733221	
716.875	0.3364468234	-0.05547398779	
717.5	0.5642231935	-0.1615180244	
718.125	0.4677407629	-0.04827250658	
718.75	0.7386113965	0.09174928942	
719.375	0.6685766317	-0.5420717001	
720.0	0.05334478821	-0.7298352213	
720.625	0.4844262201	-0.7294708263	
721.25	-0.3748685982	-0.9897407162	
721.875	-0.03762746623	-0.5756609195	
722.5	-0.5107975415	-0.8557741152	
723.125	-0.9420048486	0.1574022212	
723.75	-0.1439452143	0.2506413007	
724.375	-0.1356214678	0.5336412323	
725.0	0.4121368	0.1892520871	
725.625	-0.02464197799	0.3067424562	
726.25	0.03748942048	0.805197629	
726.875	0.2639902475	0.7744125281	
727.5	-0.3154775326	0.7529951013	
728.125	-0.111584913	2.103313729	
728.75	0.7842085644	2.309741632	
729.375	-1.081706018	1.77637552	
730.0	-0.2326327102	4.662556255	
730.625	1.581810069	3.30347853	
731.25	-0.9545445876	1.817590576	
731.875	-3.514193381	2.718168659	
732.5	-2.00693836	2.413841517	
733.125	-1.761203929	-0.4607227319	
733.75	-0.9691901181	1.600303791	
734.375	0.6873215467	0.02023331632	
735.0	0.28195284	-0.3895848224	
735.625	-0.7826872522	0.3933034945	
736.25	0.05870050358	0.01020121186	
736.875	0.2289644386	0.7781523853	
737.5	1.234025117	-0.07461480662	
738.125	0.5692683219	-0.625574758	
738.75	1.733145596	0.1313592588	
739.375	2.747946403	-3.239858931	
740.0	-0.152923247	-1.518410784	
740.625	2.291381947	2.731094929	
741.25	4.613463376	2.056581985	
741.875	0.04520962367	-2.908258768	
742.5	-2.090915243	-3.116973171	
743.125	-0.8467617499	-1.176804446	
743.75	0.3033377992	-0.3718700582	
744.375	-0.6399806078	-0.4392809892	
745.0	0.2308250001	0.01943461322	
745.625	0.07022544398	0.09251847362	
746.25	-0.1026155242	-0.1334122415	
746.875	-0.06739585114	-0.02853825439	
747.5	-0.1592741778	0.368908507	
748.125	0.2589715573	0.413526794	
748.75	0.1308277265	0.276144231	
749.375	0.04548719208	0.4886562375	
750.0	-0.237896023	0.3194979774	
