!Created with skrf (http://scikit-rf.org).
# GHz S MA R 50.0 
!freq magS11 angS11
600.0 0.0869979694901 -89.3722278889
600.125 0.051344096126 177.306489669
600.25 0.017197370063 77.219889755
600.375 0.0260240941048 28.940800181
600.5 0.112172232246 -82.1824105681
600.625 0.0780812691717 -95.0864212509
600.75 0.041839309583 176.1567907
600.875 0.0257536383883 -172.653545016
601.0 0.00966222214504 8.20972490124
601.125 0.108937141722 -105.823337984
601.25 0.0701928740958 -135.042986571
601.375 0.0380501896851 174.901769551
601.5 0.0087738475068 28.5253341112
601.625 0.0511350797172 -73.5593132029
601.75 0.121131840242 -140.805160317
601.875 0.086531762073 169.527470376
602.0 0.0491814540778 -177.276262534
602.125 0.0489069285124 -31.5065290976
602.25 0.0297983999286 -110.184614247
602.375 0.0943446780557 -171.062640772
602.5 0.0647812786238 144.513655153
602.625 0.0252509378133 139.310773746
602.75 0.035555200995 -57.8491249764
602.875 0.0772098158386 -134.731876481
603.0 0.103920938617 155.902540018
603.125 0.0714142988079 111.245861841
603.25 0.036418709289 -177.958861649
603.375 0.0307166060116 -77.4489507321
603.5 0.111291672456 -151.751223137
603.625 0.100662977338 126.745357638
603.75 0.0739753432296 72.1211433711
603.875 0.0159512030213 154.62160684
604.0 0.0441972959206 -85.8591201801
604.125 0.0837961447426 -158.748693244
604.25 0.138203084746 121.089426964
604.375 0.100657679155 44.3996673217
604.5 0.00671878000407 -39.8392345629
604.625 0.0385519018771 -111.659769621
604.75 0.0705679869068 -174.250603385
604.875 0.0553944255798 115.958618119
605.0 0.107718081727 38.4980759272
605.125 0.0563809562225 -58.1628981456
605.25 0.0512948307556 -132.821880014
605.375 0.0754128886457 168.089328954
605.5 0.0513468619033 107.408701068
605.625 0.0854103164067 36.5734847549
605.75 0.0543130405151 -65.9003397011
605.875 0.0980484201545 -136.214150899
606.0 0.114775216083 153.707514762
606.125 0.0677279556611 96.0548103223
606.25 0.0525403458348 27.7022264568
606.375 0.0565808295503 -64.0959973052
606.5 0.103803489068 -136.391700683
606.625 0.153745029397 152.689687956
606.75 0.110509209591 85.9163855035
606.875 0.0563155526487 11.5098674983
607.0 0.0504618559909 -83.1427422822
607.125 0.0756840090755 -157.517717527
607.25 0.139434774146 139.645579932
607.375 0.122999159249 73.7759278188
607.5 0.0967944282873 -6.51966753582
607.625 0.0612212880017 -107.256683011
607.75 0.0744401570397 169.528511607
607.875 0.113615145336 112.497949242
608.0 0.139782285402 45.9103022161
608.125 0.110593264584 -29.3327733137
608.25 0.0763235949917 -114.433167607
608.375 0.0886241332049 153.180230927
608.5 0.089383315174 85.4443553202
608.625 0.114668573161 25.4233666247
608.75 0.113296209061 -41.0594005992
608.875 0.0804985905663 -123.601582329
609.0 0.094884887483 149.662388498
609.125 0.115271396081 78.2794402352
609.25 0.102717305018 17.4969919154
609.375 0.0957541081931 -46.5412997847
609.5 0.085649918173 -121.528288176
609.625 0.0865729016392 151.142995909
609.75 0.118796939966 82.7589925556
609.875 0.134888755234 19.7333615207
610.0 0.11601327919 -55.0662524653
610.125 0.0835480931366 -129.995421256
610.25 0.0703512272456 150.835451609
610.375 0.11724848469 65.8868522166
610.5 0.118915053368 7.16109801466
610.625 0.131450001484 -58.8345917223
610.75 0.0950770383349 -133.945970149
610.875 0.0716076431223 151.351194152
611.0 0.105376846977 59.9157100496
611.125 0.115292341835 -2.1512094836
611.25 0.117594579837 -68.0123722005
611.375 0.0993484849116 -130.206646576
611.5 0.0622881918001 167.874998705
611.625 0.0896862829503 61.4577940315
611.75 0.12327896912 -13.9593398058
611.875 0.111356834882 -67.357980466
612.0 0.0947242215739 -133.877618994
612.125 0.0598015124559 178.425010675
612.25 0.0805102961527 72.1837338505
612.375 0.117730813042 -8.19788931369
612.5 0.134545489575 -78.2675600225
612.625 0.108090501731 -145.149402001
612.75 0.0729093984036 174.18354251
612.875 0.0729873971119 69.6297601261
613.0 0.0905934704084 -10.2655375459
613.125 0.134250872502 -87.2513196458
613.25 0.130036785213 -160.024567751
613.375 0.0918709555404 162.864128679
613.5 0.0655239128446 84.1249422525
613.625 0.0753615756253 -21.9450502021
613.75 0.0765267353315 -81.11296897
613.875 0.112910973553 -165.647608587
614.0 0.092507576016 151.494760875
614.125 0.0834952941927 67.5230506675
614.25 0.0734792374999 -36.3212545265
614.375 0.0681349926824 -93.0930310785
614.5 0.089598390052 178.472785794
614.625 0.0718018735455 142.897887985
614.75 0.0929950469564 34.9601525641
614.875 0.0909349214393 -57.4084783075
615.0 0.0660190379292 -99.2690702702
615.125 0.0718861865344 163.435863634
615.25 0.0736645819919 97.0126502338
615.375 0.0669766727464 42.7150897022
615.5 0.105273252748 -66.7237118692
615.625 0.084990579272 -129.877222736
615.75 0.0697694813458 158.991939299
615.875 0.0573684927855 87.6458795897
616.0 0.0541492511023 44.9875384946
616.125 0.0850808011765 -83.1941574638
616.25 0.069135358701 -133.449487216
616.375 0.0875120404992 130.795569455
616.5 0.0679291639486 91.3401450835
616.625 0.0592957601827 41.3887149398
616.75 0.0687674760567 -117.009551389
616.875 0.0756856622575 -173.862970539
617.0 0.0616057459497 130.715605162
617.125 0.080648099684 39.6328992146
617.25 0.0685624565044 -48.0338174894
617.375 0.0297524154356 -71.1710126748
617.5 0.0620098031643 148.226604859
617.625 0.0455720838772 156.121855261
617.75 0.0567907130981 75.1488546115
617.875 0.078604269608 -65.858637831
618.0 0.0369121164518 -65.3643075586
618.125 0.0398104723592 133.14065701
618.25 0.0391092339434 117.999068461
618.375 0.0479968255717 74.1320187154
618.5 0.0782014069817 -74.2810485535
618.625 0.0149038767595 -111.200123671
618.75 0.0709522150885 105.249327469
618.875 0.0353653927642 133.476161039
619.0 0.0412720642753 53.267365473
619.125 0.0552776872267 -86.0059252464
619.25 0.0575014842502 -176.18054278
619.375 0.0104318732663 -121.392537274
619.5 0.0233598819029 117.970131061
619.625 0.0735324456138 -41.0554319982
619.75 0.0472647730302 -102.346406706
619.875 0.0560778422106 -29.1046351751
620.0 0.0647372032719 66.7227677638
620.125 0.106713422848 9.92470255145
620.25 0.113135513114 -67.3362190972
620.375 0.056847862128 -128.015802582
620.5 0.0606663615923 -51.1559007342
620.625 0.0351126906571 -1.39546646595
620.75 0.130171169638 -30.3532909844
620.875 0.0628338608379 -61.3021717169
621.0 0.0489736934164 -111.457893422
621.125 0.0436645303593 -75.1573521944
621.25 0.0622050070421 6.55381692747
621.375 0.0525900926711 -55.7664907498
621.5 0.0876156792862 -90.5708684369
621.625 0.044238188154 -108.694829274
621.75 0.0538970148489 -79.7430117544
621.875 0.0648669683917 -3.66579294792
622.0 0.0653267204003 -89.3310273625
622.125 0.116319651596 -112.749878008
622.25 0.075253719427 -160.710745773
622.375 0.0414305316398 -175.194635645
622.5 0.0659949141189 -40.9196373418
622.625 0.103818316451 -118.61661994
622.75 0.0434771407256 165.633336468
622.875 0.110653747194 133.656720982
623.0 0.0469541618143 94.953086188
623.125 0.0589556088829 -60.0760906668
623.25 0.0682258702719 -146.989241642
623.375 0.0671324809141 145.145896571
623.5 0.107546585748 115.869395492
623.625 0.0830854739475 57.3305788532
623.75 0.071155295089 -52.3734960525
623.875 0.0821703674321 -142.056534278
624.0 0.046095216146 120.986763993
624.125 0.0814285830982 111.329539139
624.25 0.0889710601865 53.8563950247
624.375 0.0509521852793 -54.38567207
624.5 0.0893285618869 -124.781040141
624.625 0.0428091835739 135.8747431
624.75 0.0825333486316 122.831844805
624.875 0.0860877966996 68.0118134413
625.0 0.0748619510005 -20.7017700849
625.125 0.101470056692 -110.958311279
625.25 0.0515562429294 154.355212406
625.375 0.0760854831681 113.997977529
625.5 0.0771549787244 54.3534166653
625.625 0.0145553703039 -52.8273171608
625.75 0.0709755548599 -132.622374387
625.875 0.0893742114621 151.813716292
626.0 0.0703484740831 95.4755493031
626.125 0.0962564832353 26.9413906355
626.25 0.0149519683476 -60.579767379
626.375 0.0642518907255 -152.009601432
626.5 0.0686283047211 118.870637108
626.625 0.0980870899965 79.9890046178
626.75 0.135200914437 21.1407140769
626.875 0.0460075988513 -48.5610302972
627.0 0.0494352835137 -168.460523997
627.125 0.0928423616957 131.632518202
627.25 0.101213851333 78.0590827733
627.375 0.139814730711 27.8109980491
627.5 0.103824044879 -42.0478487237
627.625 0.043680647936 -154.169193686
627.75 0.0876366603807 127.638400762
627.875 0.0793508266521 72.5646798441
628.0 0.114192583388 21.5764516724
628.125 0.082360691724 -33.6572390982
628.25 0.075529141447 -121.928254663
628.375 0.100430727943 134.107565629
628.5 0.078614093739 66.3677868155
628.625 0.114487574946 10.7827270712
628.75 0.0808650521852 -46.5790093972
628.875 0.0287491297963 -135.698926207
629.0 0.101332057063 145.703210141
629.125 0.151437294982 69.9087150738
629.25 0.134607404113 -0.513265691763
629.375 0.0880776438535 -60.1879662993
629.5 0.0223163190403 -131.331678785
629.625 0.0850537373976 141.29795512
629.75 0.126578226178 77.6187024354
629.875 0.16293657744 7.92219620073
630.0 0.117061147492 -57.2658202244
630.125 0.0379264061764 -123.144907746
630.25 0.0653197267616 133.250066344
630.375 0.105733161418 73.6034233313
630.5 0.113784397127 17.2541910512
630.625 0.0870621176477 -38.0659978494
630.75 0.0983296355514 -123.193628403
630.875 0.0848758921105 141.695460936
631.0 0.108223851235 61.6866969059
631.125 0.0887700983628 7.40365307213
631.25 0.123403879872 -45.1966750341
631.375 0.121475178146 -121.542766247
631.5 0.0859461192282 149.781756049
631.625 0.0804392466418 58.4762664933
631.75 0.13498039092 -7.06874849279
631.875 0.110969080261 -61.9800866775
632.0 0.10715779641 -123.920224811
632.125 0.0995888889867 151.3837958
632.25 0.0686493988627 54.4465082584
632.375 0.11525972932 -15.9448368355
632.5 0.141110089441 -82.9488375999
632.625 0.098599673753 -146.223563725
632.75 0.08601422894 142.014310447
632.875 0.0690239556197 58.9887621603
633.0 0.121693895973 -20.768770667
633.125 0.142829878463 -83.0135646333
633.25 0.131639694183 -150.411598346
633.375 0.108257678635 125.139566177
633.5 0.0675396388706 48.1469183908
633.625 0.123095782336 -28.6961351125
633.75 0.145073451434 -102.076585795
633.875 0.11242052717 -166.664340177
634.0 0.114062313719 120.612332019
634.125 0.103145701453 37.3753457602
634.25 0.0997876123805 -41.1649842182
634.375 0.137681839653 -109.570526138
634.5 0.117673927109 -177.528618056
634.625 0.101389562066 103.986743296
634.75 0.0846058661274 26.1793391841
634.875 0.115405068067 -58.0927925128
635.0 0.144707565319 -137.074497477
635.125 0.122215263266 160.737253856
635.25 0.115331172031 84.2074348983
635.375 0.0736034569738 4.38937860283
635.5 0.101759692406 -79.9571749036
635.625 0.154875973742 -153.308611884
635.75 0.14087419604 135.726500255
635.875 0.124997136571 65.3874905838
636.0 0.0905865000088 -7.29483097135
636.125 0.0835920728627 -87.8058348141
636.25 0.134401466853 -165.025992099
636.375 0.14295688385 125.115674011
636.5 0.129383782755 55.3407866722
636.625 0.121834498873 -22.2073047946
636.75 0.0961309429918 -92.2080788645
636.875 0.11665367027 -171.424346195
637.0 0.102774178675 121.325305678
637.125 0.112416295359 38.5204102817
637.25 0.112688927752 -35.861639744
637.375 0.111805180107 -101.985790198
637.5 0.116017403234 163.427558842
637.625 0.0830064733478 106.817143662
637.75 0.0750059233182 31.7376321309
637.875 0.101778804388 -70.0305163095
638.0 0.123463955161 -148.363787478
638.125 0.144537867786 134.580682799
638.25 0.0948355073089 72.2349626168
638.375 0.0682906032517 45.4164188727
638.5 0.0487494628626 -60.8774599065
638.625 0.104314076906 -177.886614911
638.75 0.102274660882 138.536494812
638.875 0.0930635134959 69.7001141162
639.0 0.0579750259103 28.2426886026
639.125 0.0403418756372 -25.3713313995
639.25 0.0649281173362 154.629521548
639.375 0.0727012431264 131.891120327
639.5 0.0858974364335 47.4680759859
639.625 0.06611987254 49.6409182252
639.75 0.0354609921454 -2.68190078766
639.875 0.0544078639319 123.536483404
640.0 0.0404383875338 103.125672352
640.125 0.0525186084953 102.692180026
640.25 0.0455615378597 -65.7290353014
640.375 0.0125229064523 -110.504853198
640.5 0.0631857190652 88.3701486494
640.625 0.0428322455372 27.74694648
640.75 0.013568729632 57.4964901682
640.875 0.0463797310477 -97.4154238802
641.0 0.00621372336354 82.8651668582
641.125 0.0765849177239 58.1560680083
641.25 0.0389725766312 -11.6609891171
641.375 0.0273897400932 -76.4017891711
641.5 0.0615129997395 -140.19116457
641.625 0.0532003310227 144.749043919
641.75 0.0342138047126 18.0197595167
641.875 0.0576733354152 -33.6338581885
642.0 0.0268620243848 -114.339406718
642.125 0.0605907644751 -169.352587005
642.25 0.0682447860103 119.642517886
642.375 0.0939684392118 55.9830638506
642.5 0.0165254796524 -104.630493182
642.625 0.0829435731531 -110.51779986
642.75 0.076341719343 171.607590177
642.875 0.0561051850653 91.7067963082
643.0 0.0661630073933 40.413033431
643.125 0.0637491324345 -32.8163285891
643.25 0.0300911234784 -126.086485985
643.375 0.0941501894061 164.790601645
643.5 0.0487697550268 77.9798018621
643.625 0.0862582900251 18.750207518
643.75 0.0508280271787 -53.606707827
643.875 0.0544599642828 -126.648750809
644.0 0.098041534998 163.665575695
644.125 0.0604607016249 71.5473868652
644.25 0.103361941814 -4.34721686009
644.375 0.081809418291 -78.2802581341
644.5 0.0591048080238 -141.038602704
644.625 0.104000659791 151.798097085
644.75 0.0835305000528 73.9044462767
644.875 0.0531998453575 -26.5496244415
645.0 0.110031599445 -93.8272076407
645.125 0.0878328489663 -160.878148133
645.25 0.110266065933 135.928656107
645.375 0.0869513904171 70.5198689987
645.5 0.0647997042065 -21.6040907474
645.625 0.0818428940877 -100.520279106
645.75 0.0827086957252 -177.981136648
645.875 0.142083626651 113.354335731
646.0 0.105462644154 52.8815477024
646.125 0.0414065924184 -13.2889726209
646.25 0.0827232303344 -111.149010817
646.375 0.106217753779 172.025206695
646.5 0.126809944505 106.57407298
646.625 0.132131436793 40.3949569109
646.75 0.0562887430199 -22.5542958384
646.875 0.0968305042632 -106.102373301
647.0 0.106850923688 170.290959262
647.125 0.116531909741 90.1837758942
647.25 0.110858834343 30.3503199232
647.375 0.0687212119882 -40.9046530862
647.5 0.0968202115692 -119.88897653
647.625 0.114284209707 164.224295586
647.75 0.107678294091 87.862606196
647.875 0.106625257207 14.4866157773
648.0 0.0609285629756 -54.6150579229
648.125 0.0743368777579 -131.927472261
648.25 0.127542105182 160.205400949
648.375 0.107154006998 91.4645014443
648.5 0.114331999083 26.5172500185
648.625 0.0502065309952 -41.2209608813
648.75 0.0680236375327 -134.06101439
648.875 0.102954777457 162.555003399
649.0 0.122848720916 98.8180152036
649.125 0.135903225199 37.0860268754
649.25 0.0776121380585 -24.738484269
649.375 0.0511872081434 -115.525823057
649.5 0.0968937028121 153.355170034
649.625 0.101777145942 92.6054914849
649.75 0.115524186538 39.7791046727
649.875 0.111087381236 -23.4868007239
650.0 0.0649705856933 -94.2173035128
