!Created with skrf (http://scikit-rf.org).
# GHz S RI R (50+0j) 
!freq	ReS11	ImS11	
500.0	-1.506950147	-3.849876236	
500.625	0.8551102109	-1.885560013	
501.25	-0.4698590687	-2.585827692	
501.875	-2.496330891	-1.198768325	
502.5	-0.2043877911	-0.006206311946	
503.125	-0.313748562	-0.09466237901	
503.75	0.3227573157	0.1479381122	
504.375	0.07946568097	0.1050638326	
505.0	-0.04599974792	-0.1865073656	
505.625	0.2373653283	-0.006978954538	
506.25	-0.7068971126	-0.2793199872	
506.875	0.6072779438	-0.2437506301	
507.5	0.0475666432	-2.092313742	
508.125	-1.311712984	-2.402039258	
508.75	1.418104055	-0.7382678781	
509.375	-1.484522169	-5.440857145	
510.0	-1.042980628	0.4096248007	
510.625	-0.2637271968	-0.8755255006	
511.25	-0.3935425908	0.3021413949	
511.875	-0.3449017803	-0.3090767858	
512.5	-0.09288574668	0.1909884008	
513.125	-0.1518999395	-0.3388385303	
513.75	-0.1017713122	0.003305868734	
514.375	-0.2272191214	-0.4278513651	
515.0	-0.5861211644	0.8263445774	
515.625	0.3911619312	-3.165885169	
516.25	-2.575117927	-0.07959340982	
516.875	0.934716416	-1.52809505	
517.5	-0.8361936004	-1.017299262	
518.125	0.3008498102	0.0962140196	
518.75	-0.7255007039	-0.8980986445	
519.375	-0.03427169	0.1259668947	
520.0	0.2487052824	0.3425737106	
520.625	0.5620282364	-0.3862727216	
521.25	-0.2065827239	-0.3964668487	
521.875	-0.4195946738	-0.3737806104	
522.5	-0.04159819023	0.2257758969	
523.125	-0.3494613565	-0.03386653685	
523.75	-0.1129222519	0.1147213045	
524.375	-0.7020758382	-0.1059063454	
525.0	0.3234830769	0.3172010794	
525.625	-0.1557590845	0.1130624063	
526.25	0.1960575483	-0.09639154863	
526.875	-0.3577048765	0.1908412237	
527.5	0.245599529	0.5424828908	
528.125	-0.2605606575	0.5376336654	
528.75	0.1403109058	1.126201092	
529.375	-0.01063415324	-0.08654651561	
530.0	0.4732153463	0.6996333505	
530.625	-0.1379153625	0.504953591	
531.25	1.882975857	0.3441706015	
531.875	0.01785950537	-0.4641434615	
532.5	0.1430613391	-0.6115881543	
533.125	-0.2307557646	0.3703749372	
533.75	0.4623695145	-0.9499080085	
534.375	-0.5062467393	-0.2384525015	
535.0	-0.534231525	-0.7193829248	
535.625	-0.3547532277	0.7032140139	
536.25	-0.01945937961	0.1050395384	
536.875	0.3002237755	0.155210193	
537.5	0.1117215212	-0.2193475062	
538.125	0.3024463481	0.08441165317	
538.75	0.3104399144	-0.5293633838	
539.375	-0.07157446288	-0.2254267154	
540.0	-0.3941375852	-0.5879704915	
540.625	-0.4701933659	0.1731075383	
541.25	-0.09696349439	-0.05107319906	
541.875	-0.1211670178	-0.1072249672	
542.5	-0.228270989	-0.08785128813	
543.125	0.02463576634	-0.07447372577	
543.75	-0.4198664852	-0.09280591919	
544.375	0.1343479373	0.1057660858	
545.0	-0.1819145213	0.2515063731	
545.625	0.2677925665	-0.05030995948	
546.25	0.03471458198	0.3175395235	
546.875	0.4381790883	-0.3494376579	
547.5	0.05544686186	-0.04153640853	
548.125	0.07720035213	-0.5342002154	
548.75	-0.4956997065	-0.2424040074	
549.375	-0.09366256959	-0.04772003078	
550.0	-0.321854554	-0.09233371244	
550.625	0.0009692737713	0.1027494914	
551.25	-0.3028392558	-0.02736762618	
551.875	-0.07666225913	0.28127199	
552.5	-0.1421029232	0.07865585467	
553.125	-0.03660020962	0.2172104604	
553.75	0.1114396952	0.08836574165	
554.375	0.2236000815	0.03111413083	
555.0	0.2525858264	-0.1858534014	
555.625	0.1883170757	-0.254295035	
556.25	0.1672533175	-0.3352305686	
556.875	-0.08398149057	-0.3954451731	
557.5	-0.2396267757	-0.2392523223	
558.125	-0.261060906	-0.09919167932	
558.75	-0.2791275584	-0.0171468594	
559.375	-0.2438740387	0.08108812381	
560.0	-0.2196406044	0.1240633883	
560.625	-0.1604733377	0.3018586953	
561.25	0.1025316364	0.2050118996	
561.875	-0.02593723039	0.1436361495	
562.5	0.1287828922	0.0646226069	
563.125	0.06600965127	0.2568886473	
563.75	0.4384533819	-0.08034329599	
564.375	0.1236664748	-0.164793768	
565.0	0.3499073526	-0.3106140268	
565.625	-0.1959459905	-0.4293017663	
566.25	-0.2132759003	-0.1237523372	
566.875	-0.2589409831	-0.3227661236	
567.5	-0.5129639356	-0.2188346895	
568.125	-0.1342300674	-0.263090729	
568.75	-0.6960092455	-0.3453484856	
569.375	-0.3974368999	0.3685942284	
570.0	-0.4269789207	0.2407493856	
570.625	-0.198825177	0.7296443002	
571.25	0.1923997074	-0.007909817992	
571.875	-0.01530151313	0.5182873384	
572.5	0.3339949184	-0.3664539953	
573.125	0.1531773899	0.08588954765	
573.75	0.3516171568	-0.5099399714	
574.375	-0.2602019829	-0.06764550432	
575.0	0.3982480969	-0.09158712602	
575.625	-0.2331116783	-0.2357505033	
576.25	0.3280968468	0.02711159092	
576.875	-0.01565437632	-0.6236666656	
577.5	-0.26760098	-0.2688686924	
578.125	0.1137692149	-0.2350513423	
578.75	-0.1910166775	-0.529537595	
579.375	-0.3758083694	0.02938158737	
580.0	0.1198052547	-0.1373498149	
580.625	-0.4071786879	0.0173894331	
581.25	-0.002474832481	0.003495953916	
581.875	-0.299969441	0.4913762472	
582.5	0.4468308462	0.45803428	
583.125	0.01143372157	-0.2021701772	
583.75	0.1003744344	0.5436686299	
584.375	0.03962310258	-0.365672478	
585.0	0.2184439026	0.5779889157	
585.625	0.5006814574	-0.3298508109	
586.25	0.04565479343	0.1005559543	
586.875	0.4706323285	-0.5221193882	
587.5	-0.3270397502	-0.1742825714	
588.125	0.2412142337	-0.2256325405	
588.75	0.1448682676	-0.624258866	
589.375	-0.123601111	-0.2747385035	
590.0	0.1401272996	-0.4100106582	
590.625	-0.606468873	-0.1613283935	
591.25	-0.1666181783	0.2796943573	
591.875	-0.2123094753	0.1564074719	
592.5	0.1009181551	0.2547249677	
593.125	-0.2590698596	0.02650955155	
593.75	0.2766095996	0.3253743355	
594.375	0.2539032952	0.04246531671	
595.0	0.1334112636	0.4738139457	
595.625	0.8955723759	0.2969631782	
596.25	-0.02934204281	-0.1629171314	
596.875	0.4945371235	0.4943068854	
597.5	0.5163749767	-0.09959031235	
598.125	-0.02291762402	0.4448148263	
598.75	0.7850370686	0.1495863006	
599.375	0.1838064364	-0.04182229401	
600.0	0.655444535	-0.1682052354	
600.625	0.2866646372	-0.6504465055	
601.25	0.02363730028	-0.2487590357	
601.875	-0.0193382941	-0.4236250652	
602.5	-0.326613245	-0.007606284399	
603.125	-0.2648361574	0.1527351625	
603.75	-0.1914964812	0.07410249674	
604.375	-0.369878949	0.1668428012	
605.0	0.007715137542	0.2222006345	
605.625	-0.31948212	0.0368745017	
606.25	-0.1606712155	0.3225557148	
606.875	-0.3286749333	-0.1096680657	
607.5	-0.6628347955	0.7664132449	
608.125	0.1850966117	0.2273522929	
608.75	0.1127960792	0.7268160817	
609.375	0.7596896442	-0.4474676982	
610.0	0.2342654948	0.09722665404	
610.625	0.4385468356	-0.5962520044	
611.25	-0.2076409743	-0.1445851678	
611.875	0.01296594258	-0.6230032961	
612.5	-0.422747276	0.1812440998	
613.125	-0.392742004	-0.2341442348	
613.75	-0.2715403045	0.5788581944	
614.375	0.02199726803	-0.05184388487	
615.0	0.2536307038	0.3604489833	
615.625	-0.16217163	-0.1328485959	
616.25	-0.2864079996	0.6028301642	
616.875	0.2043200979	0.3844574207	
617.5	-0.4904461142	0.3289535824	
618.125	0.1279706756	0.7529588886	
618.75	0.06734220618	0.1526825007	
619.375	0.1368687305	0.6655905958	
620.0	0.4039986731	-0.07396401993	
620.625	0.3897212361	-0.2371146346	
621.25	-0.3240341262	-0.404918161	
621.875	-0.3174565518	-0.2855217213	
622.5	-0.6161214575	0.2154518168	
623.125	-0.09361619521	0.2392648585	
623.75	0.3707957071	0.2989683887	
624.375	-0.1534742274	-0.2645308786	
625.0	0.4924114817	0.06037000983	
625.625	-0.3625163731	-0.2022458789	
626.25	0.2760408705	-0.2834134022	
626.875	-0.6174998517	-0.3141341327	
627.5	-0.1258612808	0.1486493082	
628.125	-0.2006307116	-0.4946511644	
628.75	-0.3827279999	-0.0713513349	
629.375	0.07064075238	-0.4019184569	
630.0	-0.6312777466	-0.3052374401	
630.625	-0.302307939	0.2951947525	
631.25	-0.443329561	0.206705649	
631.875	-0.08979827153	0.7269946815	
632.5	0.3671267136	0.4443790884	
633.125	0.4239093871	0.03145572253	
633.75	0.4206512109	0.09232218882	
634.375	-0.008051775721	-0.5093483227	
635.0	0.1340924825	-0.1959490966	
635.625	-0.488465469	-0.3394842742	
636.25	-0.09231425987	0.2538103829	
636.875	-0.4800666373	0.1516137781	
637.5	0.1650200457	0.4701934113	
638.125	-0.1888054969	-0.2326819674	
638.75	-0.4472597618	0.7699393484	
639.375	0.4311148026	0.4478089487	
640.0	-0.0658534376	0.3811004005	
640.625	0.7163622041	0.6355157363	
641.25	0.5630244925	-0.3466654623	
641.875	0.4888319122	-0.01606867676	
642.5	-0.3247530821	-0.8868116663	
643.125	-0.0232963628	0.01528999932	
643.75	-0.3544126333	-0.5814604158	
644.375	-0.5042946529	0.3792355365	
645.0	-0.08291209402	0.06139635417	
645.625	-0.227632484	0.6618920385	
646.25	0.7178285637	0.1633857735	
646.875	-0.1011210875	-0.2250662569	
647.5	0.4344510958	0.4483254887	
648.125	-0.05461807024	-0.3218028316	
648.75	0.9460872882	0.3507219224	
649.375	0.4336239376	-1.10051095	
650.0	-0.06739881065	-0.2137621879	
650.625	1.159592965	-0.5037638727	
651.25	0.06237314526	-1.367176779	
651.875	0.1121209348	0.1899931945	
652.5	1.263882036	-0.02860725904	
653.125	0.3829988577	-0.7510402262	
653.75	0.4288090233	0.07853443573	
654.375	-0.2159171702	-1.209771517	
655.0	-0.6418486388	0.2178499114	
655.625	-0.3622618839	-0.09770158477	
656.25	-0.08967892743	0.9059744181	
656.875	0.326618549	-0.326061927	
657.5	-0.126433809	0.5872343054	
658.125	0.5819613807	0.282313208	
658.75	0.4187772472	0.01241370555	
659.375	1.027200065	0.07047512018	
660.0	0.3326261654	-1.109006597	
660.625	0.2141312034	-0.3629386804	
661.25	0.7670604311	-0.6618986285	
661.875	0.3062549304	-1.142620459	
662.5	0.08896840319	0.03422020042	
663.125	1.248277708	-0.4090635709	
663.75	-0.0966988779	-0.8857404486	
664.375	0.2663278088	-0.3877222105	
665.0	-0.9837388517	-0.8034083877	
665.625	-0.2483747402	0.3396759005	
666.25	-0.6599302161	0.5005367953	
666.875	0.5594758591	0.63354833	
667.5	0.2200018436	-0.08271615213	
668.125	0.5691507889	0.3945781023	
668.75	0.5225993328	-0.6501966874	
669.375	0.04858587469	-0.3777923123	
670.0	0.2229078635	-0.4198913997	
670.625	-0.1035942236	-0.6847475533	
671.25	0.1182247526	-0.08816405484	
671.875	0.4321993814	-0.5428720606	
672.5	0.2973296874	-0.4602454471	
673.125	0.3997324351	-0.09466955032	
673.75	0.7967802156	-0.700317958	
674.375	-0.4443410104	-0.6992945814	
675.0	0.275954276	-0.1557734742	
675.625	-0.6425125394	-0.762221688	
676.25	-0.4546987048	0.5062591354	
676.875	-0.2132240324	-0.6034149815	
677.5	-0.49312135	0.6496571997	
678.125	-0.1747499955	-0.1690066175	
678.75	-0.1450811597	1.069922555	
679.375	0.5907557205	-0.4082942072	
680.0	0.1394181302	0.2024477041	
680.625	0.498069117	-0.2288896768	
681.25	0.06239953597	-0.3705133006	
681.875	0.04685598233	0.3537109559	
682.5	0.7355135058	0.348584412	
683.125	0.5284855711	-0.07142696575	
683.75	0.3885514686	0.1682301803	
684.375	0.9346728998	0.3870612907	
685.0	0.4726099044	-0.405339466	
685.625	0.6596100795	0.5279030983	
686.25	1.119288512	-0.4606130106	
686.875	-0.1155807931	-0.2344454446	
687.5	1.56354989	-0.324631874	
688.125	-1.030569464	-1.525044742	
688.75	0.03294511293	-0.4149608379	
689.375	-1.419391496	1.04618081	
690.0	0.778918573	0.4830138273	
690.625	-0.06758279719	1.130135585	
691.25	1.280658584	0.2293213879	
691.875	0.5520216425	0.6784770387	
692.5	1.570619946	0.7847909272	
693.125	1.562858201	-0.3500044048	
693.75	1.185066053	-0.3928510159	
694.375	0.99207476	-0.9965385512	
695.0	1.017898025	-0.3962278371	
695.625	1.427032923	-0.4932176116	
696.25	0.6613966134	0.2215253431	
696.875	1.19914128	1.553856039	
697.5	1.220391267	0.4165433365	
698.125	0.9260962183	1.155927807	
698.75	1.309076417	-1.795862796	
699.375	-0.5108617812	-0.06670800037	
700.0	-1.587525329	0.7610160729	
700.625	0.8970542706	0.4878641016	
701.25	-0.1160536911	0.7505428482	
701.875	1.294810741	0.4372657232	
702.5	0.2586920569	0.4904794379	
703.125	1.294215839	0.6061628644	
703.75	0.515648183	-0.6154366488	
704.375	0.9536767958	0.04111399991	
705.0	0.5169398504	-0.8495852234	
705.625	0.1306745142	0.3639370631	
706.25	1.324485358	0.7037428437	
706.875	0.3743387615	0.01916536134	
707.5	0.4135542491	1.318670125	
708.125	1.497425463	-0.1273672143	
708.75	0.4894967132	-0.290053998	
709.375	-0.849009098	-1.23703415	
710.0	-0.07834148321	0.7132508848	
710.625	-0.2853081278	0.4395496185	
711.25	0.4934250558	0.1991987987	
711.875	0.3255000327	0.3295204737	
712.5	0.7770951659	-0.06624822863	
713.125	0.6084056641	-0.17245574	
713.75	0.4409733482	-0.8726605057	
714.375	-0.2418758018	-0.1353820494	
715.0	0.3234633572	-0.8799142998	
715.625	-0.4788054448	-0.3740415712	
716.25	0.8396371363	-0.05458941517	
716.875	1.233814167	-1.378733691	
717.5	-0.2072721951	0.02942538477	
718.125	2.870226912	1.143407413	
718.75	2.185528986	-1.961122755	
719.375	0.4258707069	0.6408855955	
720.0	3.263474775	-3.60877413	
720.625	-1.142286302	-1.815547127	
721.25	0.9380021485	-2.442249724	
721.875	-0.9235743422	-3.421309006	
722.5	-1.447123053	-0.7221505197	
723.125	-1.953711089	-1.241461292	
723.75	-0.9282472626	1.554465684	
724.375	0.2490269234	0.7253618148	
725.0	0.1357417335	0.8115461798	
725.625	0.4604968065	1.63288359	
726.25	1.047670684	1.158905553	
726.875	-1.160919163	1.620444806	
727.5	-0.5088941982	5.1853161	
728.125	2.737143528	2.657686416	
728.75	-5.527917643	5.785200068	
729.375	2.626674938	14.99707626	
730.0	1.297995883	1.564402254	
730.625	-11.16093311	17.48680153	
731.25	10.98644909	11.98747702	
731.875	-6.205897258	-2.041245029	
732.5	-13.14319334	2.733976202	
733.125	-6.858591756	3.637416327	
733.75	-1.03640522	1.052177671	
734.375	3.463317618	2.361265355	
735.0	-0.5809963008	-0.7461636094	
735.625	-0.9000262832	-0.3669756054	
736.25	-0.157283807	2.37407183	
736.875	1.329831765	0.016761154	
737.5	1.536462771	1.788081309	
738.125	5.994174367	-0.827678709	
738.75	3.665567382	-6.370588258	
739.375	-1.13624272	0.3459362982	
740.0	23.59421513	3.687288872	
740.625	0.6688008501	-14.14799377	
741.25	-12.75582805	14.57652397	
741.875	-15.18175238	16.26048288	
742.5	8.600953227	-4.156379922	
743.125	2.166042604	-11.36771041	
743.75	-2.530494844	-2.191481912	
744.375	0.01813993991	-0.08743594076	
745.0	-0.3111790509	0.7645253939	
745.625	-0.2367341727	-0.2803626851	
746.25	0.2911725165	-0.4895706652	
746.875	-0.5928064577	0.1570280536	
747.5	-0.1527704733	0.4323243259	
748.125	0.2569517151	1.975451176	
748.75	1.166972888	0.8080576416	
749.375	0.05535596409	0.8045900066	
750.0	-0.6392206315	-0.01079637021	
