!Created with skrf (http://scikit-rf.org).
# GHz S RI R (50+0j) 
!freq	ReS11	ImS11	
500.0	-0.06488456537	-1.228996153	
500.625	0.3628600442	-0.3590061872	
501.25	-0.2552087018	-0.9251564273	
501.875	-0.321399068	-0.1869776934	
502.5	0.04310386714	-0.1006382595	
503.125	-0.1086747179	0.02393834192	
503.75	0.01354346564	-0.01638093871	
504.375	0.06247308725	0.01657790428	
505.0	-0.03537708681	-0.02345155824	
505.625	0.08337947424	-0.06160811591	
506.25	-0.1754396621	-0.02899175604	
506.875	0.1231661875	-0.1741910557	
507.5	-0.2603366219	-0.7021172779	
508.125	-0.05006972975	-0.0134696657	
508.75	1.382138892	-0.4536852232	
509.375	-0.08121854772	-1.130946337	
510.0	-0.06316774196	-0.2570491658	
510.625	-0.02905177519	-0.2156799469	
511.25	-0.0491071543	0.001131272205	
511.875	-0.02457785721	-0.0507052123	
512.5	-0.04565176478	0.03314027174	
513.125	-0.02994183439	-0.05432083429	
513.75	0.008921536386	-0.01989224053	
514.375	-0.1347837406	-0.1053900996	
515.0	0.2588595811	0.2716234948	
515.625	-0.1702763332	-0.7884002593	
516.25	-0.006807226642	0.2490780682	
516.875	0.4440785288	-0.7669762955	
517.5	-0.2020531486	-0.2171961013	
518.125	0.09252141192	-0.0291437544	
518.75	-0.1213918598	-0.1700291749	
519.375	-0.01946321194	-0.01709276862	
520.0	0.07861569059	0.1297554461	
520.625	0.1335948844	-0.06699634349	
521.25	0.09133958669	-0.123600339	
521.875	-0.1927137077	-0.07483299589	
522.5	0.006597189516	-0.01464734438	
523.125	-0.09683613743	0.08534437977	
523.75	0.01224163374	-0.07837710615	
524.375	-0.2902977054	0.03526398073	
525.0	0.02943056697	-0.008589321239	
525.625	-0.07356156705	0.0977710185	
526.25	0.04829758572	-0.1019558571	
526.875	-0.09043519926	0.08785372721	
527.5	-0.02531644077	0.04935627694	
528.125	-0.1918165407	0.2656931559	
528.75	0.09078967408	0.2316172479	
529.375	-0.07938952275	0.084690228	
530.0	0.1104810934	0.1121942648	
530.625	-0.2303187776	0.3006816066	
531.25	0.5331406933	0.04280146447	
531.875	0.09556518143	0.08090188561	
532.5	-0.03816763945	-0.3434307816	
533.125	0.113938614	0.252094841	
533.75	0.08497751925	-0.3466114123	
534.375	0.01587412934	-0.0525841279	
535.0	-0.1868948246	-0.3093489006	
535.625	-0.1177629839	0.1357923881	
536.25	-0.05341793227	0.03934902652	
536.875	0.09481222053	0.07667685716	
537.5	0.03032189544	-0.03725131974	
538.125	0.1409514624	0.06052869983	
538.75	0.1256070558	-0.101217473	
539.375	0.01781812133	-0.1265054044	
540.0	-0.0583339364	-0.1899715994	
540.625	-0.140272607	-0.08118217175	
541.25	-0.06808301562	0.01824161037	
541.875	0.002852166878	-0.08245569636	
542.5	-0.09944721404	-0.01019224747	
543.125	0.0448365333	-0.08039014635	
543.75	-0.2007036588	-0.02424005308	
544.375	0.05838248353	-0.03347374165	
545.0	-0.08124814476	0.1236724579	
545.625	0.07063883314	-0.03196852612	
546.25	0.00463433315	0.1613478091	
546.875	0.1561379121	-0.06041395489	
547.5	0.04415223918	-0.02292223152	
548.125	0.08846660469	-0.1718632619	
548.75	-0.1435830854	-0.1347796066	
549.375	-0.003445418117	-0.04354703555	
550.0	-0.1128449391	-0.06021870834	
550.625	-0.01213983861	0.02398486535	
551.25	-0.08763229273	-0.03508873854	
551.875	-0.07866557366	0.06723898512	
552.5	-0.04210341669	0.02622101146	
553.125	-0.04920327757	0.05682290615	
553.75	0.03011799361	0.03890668291	
554.375	0.07066458435	0.03993122596	
555.0	0.1107099788	-0.03495230554	
555.625	0.09542911618	-0.05876228878	
556.25	0.1094706774	-0.08380365282	
556.875	0.03203697434	-0.146788209	
557.5	-0.04782354378	-0.1166867459	
558.125	-0.07395798018	-0.07341577005	
558.75	-0.09417109309	-0.04744874024	
559.375	-0.0977233707	-0.008990001257	
560.0	-0.09844939975	0.01200906616	
560.625	-0.1020743227	0.08228743502	
561.25	0.004358334145	0.08242357092	
561.875	-0.03247643106	0.04770132908	
562.5	0.04004923375	0.04853528972	
563.125	-0.008482697491	0.07748382517	
563.75	0.1581988203	0.0567158823	
564.375	0.1008064669	-0.07496219156	
565.0	0.1165090136	-0.04570376833	
565.625	0.02150983622	-0.1986167706	
566.25	-0.07434304757	-0.06237833567	
566.875	-0.03535958312	-0.1549973129	
567.5	-0.1617153331	-0.1583492392	
568.125	0.005211567535	-0.06453306194	
568.75	-0.1829642965	-0.2596618735	
569.375	-0.2063564153	0.1240187926	
570.0	-0.135127641	-0.01288861791	
570.625	-0.2052276989	0.197765878	
571.25	0.07292998875	0.06233734516	
571.875	-0.07693553651	0.1288575588	
572.5	0.1807560344	-0.04024909657	
573.125	0.008997157869	0.02640962412	
573.75	0.2112567627	-0.08914047407	
574.375	-0.0724062345	-0.10802183	
575.0	0.09918783242	0.08310517874	
575.625	0.01937930214	-0.1449438841	
576.25	0.02498968791	0.009354455532	
576.875	0.1297687943	-0.139313406	
577.5	0.006316086012	-0.2033177108	
578.125	-0.01140061634	-0.04156034538	
578.75	0.07404319149	-0.1702368399	
579.375	-0.1830457269	-0.1350263877	
580.0	0.08259784735	0.06453141755	
580.625	-0.1825244795	-0.1485299523	
581.25	0.05976283473	0.1026607493	
581.875	-0.2145302749	0.04119860681	
582.5	0.07447436201	0.3032203391	
583.125	0.07698237577	-0.06814954319	
583.75	-0.06121997793	0.1627813586	
584.375	0.09971055514	-0.04549013788	
585.0	-0.0550703961	0.1411714032	
585.625	0.2563541589	0.04695256628	
586.25	0.0445114878	-0.07483602484	
586.875	0.1833107385	0.009116777077	
587.5	-0.03143260201	-0.206809383	
588.125	0.01980158475	-0.02765445486	
588.75	0.1466235054	-0.1154508369	
589.375	0.08118425132	-0.1659233244	
590.0	0.01030166773	-0.07101030129	
590.625	-0.1392839393	-0.1989007042	
591.25	-0.1350563172	0.1763411231	
591.875	-0.002197042886	-0.03117221197	
592.5	-0.133633544	0.1398657813	
593.125	0.07164929293	-0.1120323769	
593.75	-0.0685777907	0.3014155311	
594.375	0.1712584519	-0.01232466558	
595.0	-0.07945830096	0.1368248972	
595.625	0.1967273551	0.239040233	
596.25	0.08506034201	-0.01793676464	
596.875	0.04247573228	0.1858022898	
597.5	0.1857777403	0.1191517175	
598.125	0.01587494405	0.05825652974	
598.75	0.1309792954	0.2113993421	
599.375	0.1792947626	-0.03746982663	
600.0	0.1514594275	-0.03170892763	
600.625	0.188809368	-0.1060994604	
601.25	0.1268606029	-0.1447999425	
601.875	-0.06192247832	-0.1163022306	
602.5	-0.02744964746	-0.1185350164	
603.125	-0.1682257545	0.1119414942	
603.75	0.01093284354	-0.03115599734	
604.375	-0.2488109116	-0.02682286609	
605.0	0.06474186968	0.1715896359	
605.625	-0.2042122292	-0.148745191	
606.25	-0.09875980793	0.1731676011	
606.875	-0.04600141197	-0.135855947	
607.5	-0.338596925	0.1670020059	
608.125	0.0130141478	0.1360125038	
608.75	0.003623381148	0.24593447	
609.375	0.2843248912	-0.02812118052	
610.0	0.09760393636	0.01286165403	
610.625	0.17814828	-0.1649833737	
611.25	-0.002962837203	-0.06688854389	
611.875	0.004845826033	-0.227438616	
612.5	-0.09717539485	0.02905502389	
613.125	-0.1729590456	-0.1595448714	
613.75	-0.1219651714	0.2219840457	
614.375	-0.06296171449	-0.04610187233	
615.0	0.1032419993	0.1696919484	
615.625	-0.05920277829	-0.0585230828	
616.25	-0.167040503	0.1747913842	
616.875	-0.004010156586	0.1186213272	
617.5	-0.2372849491	0.1063578771	
618.125	-0.01732184787	0.2360071272	
618.75	-0.09200785384	0.07196496498	
619.375	0.1061518621	0.2510401482	
620.0	0.02620969293	0.02830357947	
620.625	0.2743352785	-0.1447933695	
621.25	-0.1407210568	-0.06790347713	
621.875	-0.02694753851	-0.2386572908	
622.5	-0.3508375504	0.09717266762	
623.125	0.03933572963	-0.009271830067	
623.75	0.1190482771	0.2310562635	
624.375	-0.02010367895	-0.1554021866	
625.0	0.1195509323	0.08081030897	
625.625	0.01315949635	-0.1471900794	
626.25	0.03448137104	-0.04301741268	
626.875	-0.08015299774	-0.1906539617	
627.5	-0.1611475791	-0.04081050582	
628.125	-0.0002577143345	-0.07015860602	
628.75	-0.01941999869	-0.1715848713	
629.375	-0.02408962489	-0.1463088039	
630.0	-0.09209245997	-0.1216227503	
630.625	-0.2108010854	-0.09105587379	
631.25	-0.1801244777	0.1999484108	
631.875	-0.04892040946	0.07827811395	
632.5	0.02695216737	0.3437485833	
633.125	0.2383847487	-0.02084672498	
633.75	0.03642795271	0.09241938712	
634.375	0.2080458242	-0.250180047	
635.0	-0.08219794546	0.03195732328	
635.625	-0.03347554826	-0.2635252542	
636.25	-0.2051237341	0.1606256303	
636.875	-0.01550308126	0.00454961455	
637.5	-0.1841163753	0.05210393383	
638.125	0.03674676887	0.1178983668	
638.75	-0.1723381032	-0.008593570864	
639.375	-0.09612588293	0.3380672302	
640.0	0.1306341026	0.1418479784	
640.625	0.04790172211	0.2268133002	
641.25	0.3287516519	0.08602806067	
641.875	0.1082929194	-0.1940352074	
642.5	0.08844775518	-0.06889762276	
643.125	-0.1401944711	-0.2940469639	
643.75	-0.07868961279	0.1134331421	
644.375	-0.1266999199	-0.2403607668	
645.0	-0.2343889513	0.3181710723	
645.625	0.08280924707	-0.06023711753	
646.25	-0.02642405559	0.4016975471	
646.875	0.2523053732	-0.2291232701	
647.5	-0.1888151349	0.1985501025	
648.125	0.3376704888	0.007723549418	
648.75	0.02944423095	0.002964882388	
649.375	0.4439821492	0.07276800832	
650.0	0.2323284079	-0.4113434398	
650.625	0.02475746564	-0.06227715026	
651.25	0.4161133072	-0.03485449593	
651.875	0.2629698913	-0.3223591126	
652.5	0.06781342594	0.05435004624	
653.125	0.404084953	0.0171903525	
653.75	0.1051457956	-0.3102209666	
654.375	0.01615629237	-0.1104193858	
655.0	-0.2840328897	-0.3169085026	
655.625	-0.1293876014	0.3189517077	
656.25	0.009388386243	-0.04086389682	
656.875	-0.0675824325	0.2878732396	
657.5	0.1538776211	-0.1444426561	
658.125	-0.2009846141	0.3665548106	
658.75	0.4603200615	0.1236138181	
659.375	0.07545907231	-0.05224530255	
660.0	0.4429889774	0.04337365952	
660.625	0.2317612645	-0.4609814483	
661.25	0.04859100296	-0.02665506734	
661.875	0.4284699484	-0.08594628321	
662.5	0.2607994676	-0.2443679915	
663.125	0.1104038594	-0.02934003355	
663.75	0.3862851759	-0.2309139352	
664.375	-0.135899267	-0.2996709327	
665.0	-0.05830334601	-0.1813223155	
665.625	-0.3832854072	-0.04314753726	
666.25	-0.06912607023	0.2962612989	
666.875	-0.01288946372	0.1059026907	
667.5	0.1606130648	0.2503607971	
668.125	0.1997881125	-0.09077729261	
668.75	0.1214016263	0.09461957735	
669.375	0.3126169362	-0.284124565	
670.0	-0.1231360925	-0.1262731224	
670.625	0.2420441737	-0.04938003345	
671.25	0.1331658726	-0.3198232651	
671.875	-0.03881661	0.01091371672	
672.5	0.4133861476	0.06090402017	
673.125	0.1530186119	-0.2592621273	
673.75	0.1419778307	-0.02601105766	
674.375	0.2097079419	-0.2504802516	
675.0	-0.2150939989	-0.25086729	
675.625	0.02667475118	-0.08310792336	
676.25	-0.2793290027	-0.130120178	
676.875	-0.1045501066	0.1155511575	
677.5	-0.08903323831	-0.1051680193	
678.125	-0.233340731	0.1615689918	
678.75	0.06485575368	0.1836879268	
679.375	0.01631322523	0.09870502315	
680.0	0.3145253518	0.06843068575	
680.625	-0.05333149458	-0.2475993502	
681.25	0.03946657345	0.3091704417	
681.875	0.37309473	-0.02428936002	
682.5	-0.1208842558	-0.04549883915	
683.125	0.1586616281	0.5502448258	
683.75	0.4375967683	-0.1956239662	
684.375	-0.1537975597	0.2993304235	
685.0	0.5437333388	0.07567131217	
685.625	0.1250305345	-0.1303244382	
686.25	0.2188868472	0.1872418238	
686.875	0.3940044594	-0.3359290927	
687.5	0.09260967239	-0.1132510649	
688.125	0.1368245362	-0.4397623712	
688.75	-0.4237990921	-0.1935182302	
689.375	-0.2431268001	0.1888604799	
690.0	-0.02214529013	0.3247318317	
690.625	0.09951334846	0.3673865773	
691.25	0.2563817704	0.2068378383	
691.875	-0.01769279678	0.447781325	
692.5	0.6631716753	0.534703412	
693.125	0.2669624747	0.00561733553	
693.75	0.667521684	0.3732612575	
694.375	0.5524110636	-0.5331228025	
695.0	0.1043608626	0.1426801189	
695.625	0.8538634098	0.01764502481	
696.25	0.239558182	-0.1368079826	
696.875	0.1694331991	0.5712925014	
697.5	0.5943380855	0.2719666174	
698.125	0.2613841841	0.1891119775	
698.75	0.5513751098	-0.4359229478	
699.375	-0.3717678815	-0.1470306323	
700.0	-0.4445886537	0.09642429601	
700.625	0.219685086	0.3110461278	
701.25	-0.07110019414	0.151958334	
701.875	0.288541849	0.4764334385	
702.5	0.03415070872	0.1162771232	
703.125	0.210332437	0.484562331	
703.75	0.4308438047	-0.04768908031	
704.375	0.150874875	0.131030347	
705.0	0.377450455	-0.1322963463	
705.625	0.104740729	0.01339966898	
706.25	0.2140315026	0.3027499294	
706.875	0.2223970292	0.11284789	
707.5	0.1655300705	0.3777188564	
708.125	0.4720786534	-0.05843956869	
708.75	0.1997996968	-0.09349253521	
709.375	-0.3835465569	-0.4298793793	
710.0	0.1169814841	0.2113163665	
710.625	-0.25382144	0.2923182094	
711.25	0.2705032453	-0.1372813365	
711.875	-0.08488965675	0.3263819317	
712.5	0.5269572557	0.09293571984	
713.125	-0.009534186504	-0.06300732201	
713.75	0.3934900421	-0.009206827158	
714.375	0.04231241948	-0.2819618578	
715.0	0.01967459555	-0.04100556103	
715.625	0.1869328021	-0.2352636949	
716.25	0.1012234436	-0.2287427931	
716.875	0.225495628	0.002322313211	
717.5	0.5350016954	0.101539721	
718.125	0.4861281434	-0.120937168	
718.75	0.465459417	-0.02336366002	
719.375	0.7374534826	-0.3388938396	
720.0	0.2127887039	-1.022820026	
720.625	0.1635015337	-0.2012067914	
721.25	0.5609202764	-1.399948236	
721.875	-0.787821888	-0.5917125465	
722.5	0.5563626574	-0.7146374299	
723.125	-0.8837578618	-0.7166540912	
723.75	-0.2257743261	0.4027774256	
724.375	-0.5936614944	0.0366294216	
725.0	0.3149095544	0.6044998376	
725.625	-0.1273320052	0.05842086933	
726.25	-0.4482971323	0.6505265496	
726.875	-0.05232799386	0.9147391955	
727.5	-0.09441892926	0.5485445376	
728.125	-0.7768021459	1.71256166	
728.75	0.6152913115	2.436954233	
729.375	0.3000097286	1.103663218	
730.0	-1.062667572	4.123480154	
730.625	2.168438805	3.211064482	
731.25	-0.617739241	1.582695965	
731.875	-3.562729114	1.218494075	
732.5	-3.849395572	1.934308971	
733.125	-0.1868677006	-0.3465604168	
733.75	-2.280018625	0.3921927556	
734.375	1.002453496	0.4988651869	
735.0	0.09531009449	0.0657346423	
735.625	-0.7579964736	-0.7026825338	
736.25	0.4253619936	0.4256770708	
736.875	-0.6394841622	0.5316227262	
737.5	1.245131895	0.8191396842	
738.125	0.6695962062	-0.4735931447	
738.75	1.06175691	0.7666044993	
739.375	3.633822693	-1.888143412	
740.0	-0.4195664146	-2.409791244	
740.625	0.9943431937	2.581237353	
741.25	3.804325195	4.312588862	
741.875	2.690857279	-0.4703670669	
742.5	-0.07589426397	-4.301068284	
743.125	-0.4520969833	-1.945864349	
743.75	-0.04596970734	-0.1344805645	
744.375	-0.09041931466	-0.6594009119	
745.0	0.1671056676	0.2544333878	
745.625	-0.05691823942	0.1232618194	
746.25	0.0384605514	-0.219779923	
746.875	-0.06047844551	0.03837700609	
747.5	-0.3618502857	0.04027162895	
748.125	0.01364958163	0.5655167348	
748.75	0.136049354	0.2193933641	
749.375	-0.1039419525	0.4387233353	
750.0	-0.2208868516	0.3476453052	
