!Created with skrf (http://scikit-rf.org).
# GHz S RI R (50+0j) 
!freq	ReS11	ImS11	
500.0	0.5115121335	-0.3634591637	
500.625	0.8094663352	-0.9387086223	
501.25	-0.4332244782	-0.437225079	
501.875	0.08110236455	-0.4647122029	
502.5	-0.06839689589	-0.1734903286	
503.125	-0.01073793566	0.001229371756	
503.75	-0.05212014758	0.1227340949	
504.375	0.007725797284	-0.04432553679	
505.0	0.06202154016	0.01894788508	
505.625	-0.05905750185	-0.07342606423	
506.25	0.07291847735	0.01894990591	
506.875	-0.421635561	-0.004261069721	
507.5	0.08931424026	0.1385609906	
508.125	0.7796961292	-0.6256229046	
508.75	0.3833365266	-1.108480927	
509.375	0.4488918187	-0.2715962597	
510.0	-0.4611637436	-0.4844642801	
510.625	-0.0552077795	-0.005766317429	
511.25	-0.04221765152	-0.03263435334	
511.875	-0.1209107967	-0.05110897929	
512.5	-0.01494393194	0.02877331574	
513.125	0.03420523898	-0.04509566705	
513.75	-0.05194944116	-0.09078708059	
514.375	0.02415487158	0.08822529863	
515.0	-0.01377701872	-0.3603851779	
515.625	0.133350701	0.4184294794	
516.25	0.4265904603	-1.049963347	
516.875	-0.5873190183	-0.2160898767	
517.5	0.1750383704	0.02794384359	
518.125	-0.1029752339	-0.09690262149	
518.75	0.1181615717	-0.005486140391	
519.375	-0.09588049674	0.01828898638	
520.0	0.09082739634	0.03282709694	
520.625	0.1116512974	0.05482122266	
521.25	0.006883074664	-0.317856485	
521.875	-0.05772266346	-0.009953278594	
522.5	-0.09458867242	-0.004896134864	
523.125	0.0317171123	-0.03529554591	
523.75	-0.2046936702	-0.0253732095	
524.375	0.004723314457	0.0003109808121	
525.0	-0.2244025982	0.09978958668	
525.625	0.1256703577	0.02108228695	
526.25	-0.07103364261	0.03972132621	
526.875	0.003687518005	-0.0166154447	
527.5	-0.2313861345	0.1402910952	
528.125	0.08637817115	0.2287646073	
528.75	-0.1503537845	0.1033634522	
529.375	0.08252592131	0.1018426121	
530.0	-0.1977449426	0.08639212958	
530.625	0.1971098019	0.3330199632	
531.25	0.05263435291	0.2367230954	
531.875	0.4837031172	-0.1910989179	
532.5	-0.06068599721	0.1073139413	
533.125	0.156273311	-0.2650473981	
533.75	0.02260323282	0.1179608161	
534.375	0.04124309864	-0.4747754992	
535.0	-0.1728996017	-0.01686771185	
535.625	-0.1508142487	-0.03672085269	
536.25	-0.0445833195	0.1201583119	
536.875	0.04086435544	-0.00323512813	
537.5	0.09595724845	0.0269196102	
538.125	0.103977422	-0.05815988316	
538.75	0.1194645247	0.004288096163	
539.375	0.005454380119	-0.186102529	
540.0	-0.09079326632	-0.1536109831	
540.625	-0.107124182	-0.04947807814	
541.25	-0.06566888371	-0.0574409842	
541.875	-0.0798696737	0.008221151222	
542.5	0.05343428448	-0.06378426984	
543.125	-0.1636364982	-0.07956916158	
543.75	0.05415702221	0.01129398353	
544.375	-0.1612913458	0.02327396707	
545.0	0.07916114245	-0.004495279496	
545.625	-0.04928153412	0.1512315277	
546.25	0.1403511476	-0.007975912477	
546.875	0.02513026254	0.04740628334	
547.5	0.1696391812	-0.1036222612	
548.125	-0.06120896927	-0.1239846975	
548.75	0.01498114343	-0.1155063638	
549.375	-0.1046748205	-0.1485203808	
550.0	-0.03995442221	0.03847678232	
550.625	-0.06765456922	-0.05686256691	
551.25	-0.05869682717	0.03934840192	
551.875	-0.06882972674	0.005595532931	
552.5	-0.08193177389	0.0640322908	
553.125	-0.01145080227	0.0420963937	
553.75	0.01280333587	0.06056348708	
554.375	0.08663058108	0.0172084147	
555.0	0.090050933	-0.02309952513	
555.625	0.1124478404	-0.06009923218	
556.25	0.09877461136	-0.09632442205	
556.875	0.02855002342	-0.1344205365	
557.5	-0.03962230768	-0.1222864927	
558.125	-0.08719719837	-0.0736871995	
558.75	-0.08525121544	-0.03200054064	
559.375	-0.09459420028	-0.03084601695	
560.0	-0.1181644765	0.04065056023	
560.625	-0.05709351932	0.06834710799	
561.25	-0.05969773402	0.07672057616	
561.875	0.0493152271	0.05810125499	
562.5	-0.04742719387	0.02825550099	
563.125	0.08290360255	0.09830003974	
563.75	0.07443769593	0.01664895692	
564.375	0.1611245073	-0.005290812693	
565.0	0.1023144499	-0.1526901267	
565.625	0.005095372466	-0.08528630066	
566.25	-0.02203176903	-0.176897878	
566.875	-0.1626556855	-0.07041748008	
567.5	0.01049311883	-0.0947396997	
568.125	-0.07528765545	-0.2833445783	
568.75	-0.1657842093	-0.01673985324	
569.375	-0.1891644003	-0.1331196335	
570.0	-0.2047371231	0.2470542573	
570.625	0.00786059932	0.0684840046	
571.25	-0.1641522646	0.09776806309	
571.875	0.1269357011	0.04342908513	
572.5	0.002232192602	0.1115330439	
573.125	0.2086757521	-0.1188464603	
573.75	-0.04952115138	-0.1078955895	
574.375	0.1251183596	0.05579190805	
575.0	-0.01652667011	-0.1351140222	
575.625	0.0731839723	0.05422931672	
576.25	0.1418311169	-0.1279041972	
576.875	-0.0387430265	-0.1087232852	
577.5	0.08945682556	-0.04135668983	
578.125	0.06555082964	-0.239647674	
578.75	-0.1381231267	-0.08908336208	
579.375	0.06446150689	-0.01502259093	
580.0	-0.1088696289	-0.1715416228	
580.625	0.05337248895	0.1035830058	
581.25	-0.2737964109	-0.08069316331	
581.875	0.09773209303	0.227569356	
582.5	-0.02713822237	-0.05212491451	
583.125	-0.03897462107	0.2401221768	
583.75	0.1321113135	-0.08903494271	
584.375	-0.09107687717	0.1528620305	
585.0	0.1951609037	0.04012102986	
585.625	0.0007103647798	0.01403063984	
586.25	0.2332367033	0.0946973032	
586.875	0.02343712988	-0.1836919555	
587.5	0.06972103047	-0.02917261388	
588.125	0.05726780721	-0.2003132745	
588.75	0.002225823541	-0.1173646393	
589.375	0.1167539518	-0.01541712573	
590.0	0.004871754743	-0.2478818382	
590.625	-0.1391312797	0.01223710213	
591.25	-0.11376548	-0.04982369332	
591.875	-0.1648369488	0.1904654664	
592.5	0.1326142026	-0.06696906656	
593.125	-0.1428368025	0.1685414475	
593.75	0.07294438316	-0.03671021068	
594.375	-0.05970961234	0.2525176243	
595.0	0.252549713	0.1642977907	
595.625	-0.001318901357	0.01088619913	
596.25	0.1071871728	0.2172484714	
596.875	0.1703045501	-0.0007955814441	
597.5	-0.01083992613	0.09876799911	
598.125	0.1375717911	0.2240398224	
598.75	0.1167315838	0.03064629906	
599.375	0.166414215	0.1062763735	
600.0	0.1872785564	-0.1297397526	
600.625	0.1474367114	-0.1033752442	
601.25	0.08850752667	-0.1177964239	
601.875	0.02803004157	-0.1750410055	
602.5	-0.14933878	0.01303101478	
603.125	-0.01680600835	-0.05163375165	
603.75	-0.2667524063	0.0708789158	
604.375	0.06950831788	0.06913034261	
605.0	-0.2171127141	-0.07025575708	
605.625	-0.01527623217	0.1932279437	
606.25	-0.09452715882	-0.1948321788	
606.875	-0.268093463	0.1630776424	
607.5	-0.05440626805	0.01239776192	
608.125	-0.2324337722	0.2267142263	
608.75	0.2007975973	0.1267420971	
609.375	0.1330411151	0.1060160872	
610.0	0.2369823746	-0.09853447725	
610.625	0.03521402121	-0.06600985283	
611.25	0.1202966328	-0.2105381422	
611.875	-0.04809714829	-0.026714639	
612.5	-0.107888848	-0.2076392579	
613.125	-0.1788096018	0.1243695962	
613.75	-0.1535062137	-0.05358521453	
614.375	0.05336145788	0.2279273354	
615.0	-0.0307517956	-0.08009490338	
615.625	-0.01134992657	0.2200618071	
616.25	-0.0104255049	-0.008355746721	
616.875	-0.235647797	0.1286860183	
617.5	-0.04631432224	0.2135706384	
618.125	-0.167692778	0.08119424887	
618.75	0.02892324252	0.2417310618	
619.375	-0.03830909326	0.07375831895	
620.0	0.2656210408	0.1464729692	
620.625	4.801532093e-05	-0.0759879012	
621.25	0.09436360093	-0.2828845809	
621.875	-0.2750748971	0.01758131308	
622.5	-0.05699752262	-0.1284556862	
623.125	-0.1662873113	0.2783265193	
623.75	0.1232493806	-0.1004427159	
624.375	0.131671955	0.09721356149	
625.0	-0.04944154359	-0.09471822027	
625.625	0.1142827044	0.01204457139	
626.25	-0.02313370146	-0.2059081508	
626.875	-0.1061920154	-0.02800637027	
627.5	-0.04320521432	-0.1492141144	
628.125	-0.1239012917	-0.1006867758	
628.75	-0.004596382986	-0.08564822994	
629.375	0.00762372236	-0.1650092986	
630.0	-0.1286695347	-0.1763763647	
630.625	-0.1792827088	0.0382973387	
631.25	-0.1866821877	0.02923589798	
631.875	-0.1119377888	0.3040613445	
632.5	0.1362256376	0.08264087082	
633.125	0.06278319863	0.2418627636	
633.75	0.2595587256	-0.1751318781	
634.375	0.004661611214	0.04731231817	
635.0	0.121077655	-0.2772709583	
635.625	-0.1541975355	0.04357166095	
636.25	-0.09195467413	-0.1172452828	
636.875	-0.1744436296	0.1977944075	
637.5	0.06683305137	0.03501811724	
638.125	-0.1812236147	0.005342929069	
638.75	-0.05072409748	0.2340998199	
639.375	-0.07429756435	0.05436656414	
640.0	-0.02226022461	0.3501017197	
640.625	0.2652616577	0.1413860985	
641.25	0.1446329944	0.03355188954	
641.875	0.2768591537	-0.04504497883	
642.5	-0.04839965712	-0.2789697171	
643.125	-0.0227161212	0.01243010585	
643.75	-0.1147202769	-0.2868290973	
644.375	-0.1606500246	0.1850914815	
645.0	-0.1495229544	-0.1742745718	
645.625	-0.01146175144	0.4499091072	
646.25	0.1960291996	-0.1345596078	
646.875	-0.08211377231	0.2600276738	
647.5	0.2466604708	-0.1281975202	
648.125	-0.1417005603	0.2084666717	
648.75	0.4687888119	0.05856671001	
649.375	0.09222143403	-0.2210482534	
650.0	0.2349574861	0.01131247935	
650.625	0.4102429631	-0.3360470625	
651.25	-0.01296011482	-0.2093270631	
651.875	0.2896365158	0.1377888491	
652.5	0.4094051222	-0.17330832	
653.125	0.07807915506	-0.1061909616	
653.75	0.3070697114	-0.05581949502	
654.375	-0.08982404261	-0.4225303513	
655.0	-0.2028505111	0.06156744637	
655.625	-0.2065275585	-0.07795950946	
656.25	0.01872256735	0.4119140079	
656.875	0.02281775097	-0.1710304453	
657.5	-0.05887655193	0.316194918	
658.125	0.2495309712	0.0256684479	
658.75	-0.107531311	0.2431559734	
659.375	0.6262730897	0.02608101999	
660.0	0.04444966224	-0.2644456721	
660.625	0.3149394583	-0.01301780885	
661.25	0.3438166719	-0.2884832797	
661.875	0.07890810162	-0.2443612659	
662.5	0.3010042074	0.1057731792	
663.125	0.3638080751	-0.2437565972	
663.75	0.04801958472	-0.1553995479	
664.375	0.1886420415	-0.301710712	
665.0	-0.3425927828	-0.2333784504	
665.625	-0.167497145	0.04076863458	
666.25	-0.230095258	0.1539152427	
666.875	0.1245449383	0.2916821818	
667.5	0.0884239531	-0.009083390598	
668.125	0.212910913	0.2173802518	
668.75	0.2286461683	-0.2138098343	
669.375	0.04495438913	-0.01627412636	
670.0	0.2786639012	-0.2258241063	
670.625	-0.1566937633	-0.2558482668	
671.25	0.2130513209	0.1047944182	
671.875	0.2755918702	-0.2631591797	
672.5	0.05229633326	-0.09717757539	
673.125	0.2614591839	0.08150103125	
673.75	0.2582703871	-0.3180136546	
674.375	-0.01736615368	-0.08503632075	
675.0	0.0729827663	-0.2674896936	
675.625	-0.2812893323	-0.1639633935	
676.25	-0.01945041456	0.06194796554	
676.875	-0.2182245966	-0.142046307	
677.5	-0.1242328629	0.1208779033	
678.125	-0.09417879729	0.01846711993	
678.75	-0.1348064867	0.2342678758	
679.375	0.2975284214	0.1098471151	
680.0	-0.02744117663	-0.04432993604	
680.625	0.2510728445	0.1039800236	
681.25	0.07328015792	-0.2478309089	
681.875	-0.1858513184	0.2910107277	
682.5	0.4904872053	0.2659142497	
683.125	-0.04229654849	-0.1462487156	
683.75	0.1005711843	0.4616004143	
684.375	0.4915475967	-0.08216760644	
685.0	-0.1301896124	0.05119207219	
685.625	0.5410510714	0.1583431623	
686.25	0.1329059025	-0.1880862043	
686.875	0.2360453314	0.00582434714	
687.5	0.3846869992	-0.3514031636	
688.125	-0.1384772599	-0.2656225207	
688.75	-0.2510847296	-0.3285603649	
689.375	-0.3260847137	0.2815146015	
690.0	0.0152008568	0.3383612965	
690.625	0.1179181652	0.1844547293	
691.25	0.1044794305	0.502265107	
691.875	0.4308573747	0.2632451086	
692.5	0.07326458082	0.3978455364	
693.125	0.7924444103	0.4546309715	
693.75	0.3396187129	-0.3015802653	
694.375	0.6371170255	0.2206872329	
695.0	0.5720198479	-0.4575496393	
695.625	0.053507014	0.05693820942	
696.25	0.6762995525	0.4326733593	
696.875	0.3900404264	-0.02272641912	
697.5	0.1366585542	0.539950752	
698.125	0.7030363227	0.03956169673	
698.75	0.2465257648	-0.1973710804	
699.375	-0.3447565886	-0.5166766775	
700.0	-0.1466864757	0.3551708392	
700.625	-0.2014197766	0.2919054678	
701.25	0.32638241	0.1353437875	
701.875	-0.09141913211	0.2281953111	
702.5	0.2497781076	0.5456262469	
703.125	0.1695437333	0.04354723196	
703.75	0.3593010497	0.3072025259	
704.375	0.3261857939	-0.182124167	
705.0	0.09813919234	0.06124283248	
705.625	0.3849438861	0.0219758726	
706.25	0.09918836227	0.09570163842	
706.875	0.1864704982	0.3620179203	
707.5	0.290765241	0.1229417327	
708.125	0.3685566789	0.2414852566	
708.75	0.14652195	-0.4976173693	
709.375	-0.01749700521	-0.1106649383	
710.0	-0.4202847555	0.2859556527	
710.625	0.2031437214	-0.09544550571	
711.25	-0.1039601234	0.39417283	
711.875	0.3097256675	-0.1653294761	
712.5	0.05713220487	0.3184419262	
713.125	0.4804033235	-0.05800904102	
713.75	0.01714408816	-0.1939594352	
714.375	0.2728928359	-0.08857809971	
715.0	0.00552078355	-0.2622101685	
715.625	0.02041079369	-0.09073554482	
716.25	0.2956771249	-0.08250595639	
716.875	0.3096579939	-0.2301966106	
717.5	0.2718298192	0.04687491068	
718.125	0.5832468577	0.1431152162	
718.75	0.6713129925	-0.2120806398	
719.375	0.3273650213	-0.3977943659	
720.0	0.7403772443	-0.469499064	
720.625	-0.1531543675	-1.245790326	
721.25	0.1275136885	-0.200438292	
721.875	0.5334808572	-1.244957322	
722.5	-0.91147641	-0.8740940216	
723.125	0.2517323763	-0.3759439499	
723.75	-0.9864939745	0.1591118642	
724.375	0.1518963877	0.3319419117	
725.0	-0.3528415947	0.1818591727	
725.625	0.167003261	0.7190055741	
726.25	0.001537499283	0.1762178714	
726.875	-0.6370838336	0.6588660891	
727.5	-0.204555059	1.399683924	
728.125	0.3972385018	0.9166015283	
728.75	-1.069337351	1.945056362	
729.375	0.8496410542	4.083569246	
730.0	1.070882442	1.541631658	
730.625	-1.480981419	3.031784477	
731.25	0.430832608	4.246361003	
731.875	-0.6025037427	1.274134983	
732.5	-3.019410091	-1.295367809	
733.125	-3.310221065	0.1322838004	
733.75	0.0321726336	0.6160848415	
734.375	-0.2646898739	1.45019598	
735.0	-0.07369979171	-0.9673450904	
735.625	0.104767302	-0.1455816385	
736.25	-0.7890886348	0.464387165	
736.875	0.6939990448	0.4771310269	
737.5	-0.3070739439	0.6313640063	
738.125	2.086260336	0.5444981569	
738.75	0.7911485994	-1.439439053	
739.375	0.9154337438	0.2349047145	
740.0	5.378636731	-0.6607973514	
740.625	0.3112285034	-3.816911158	
741.25	-3.571356665	1.362664336	
741.875	-3.130860804	3.982482221	
742.5	0.0915120576	0.5338363767	
743.125	1.917443895	-1.458796592	
743.75	-0.007627875879	-1.197178702	
744.375	-0.3090717945	0.1185348152	
745.0	-0.241260032	0.03450779331	
745.625	0.06785363442	-0.1509293403	
746.25	0.1873994851	-0.01295397484	
746.875	-0.2769394657	-0.1306029866	
747.5	-0.06512367679	0.2034052347	
748.125	-0.2632828409	0.2721448794	
748.75	0.2107919904	0.5544426064	
749.375	0.1156092541	0.1794616343	
750.0	-0.4115338738	0.06910287929	
