!Created with skrf (http://scikit-rf.org).
# GHz S RI R (50+0j) 
!freq	ReS11	ImS11	
500.0	0.1345271745	-0.3969006231	
500.625	0.5784842076	-0.9957987201	
501.25	-0.5763825806	-0.3354274263	
501.875	0.03221674672	-0.3797293699	
502.5	-0.09822469694	-0.1509028149	
503.125	-0.01447405443	0.01845922335	
503.75	-0.04704985305	0.09293856137	
504.375	0.03140211138	-0.03114834184	
505.0	0.0250846901	0.01838817466	
505.625	-0.0402524566	-0.07955714952	
506.25	-0.002883907619	0.03659724798	
506.875	-0.3198340442	-0.04780057663	
507.5	-0.06023906375	0.0539307708	
508.125	0.4770500315	-0.7186794278	
508.75	0.3323251634	-1.210566532	
509.375	-0.2129488449	-0.5928690553	
510.0	-0.0797975905	-0.3720945195	
510.625	-0.1388264413	-0.1432902275	
511.25	-0.03164989503	-0.008561182492	
511.875	-0.1432402599	-0.06640104012	
512.5	0.001542647081	0.03255823681	
513.125	0.02832723358	-0.03300310343	
513.75	-0.07601269786	-0.05272832636	
514.375	0.005191551251	0.07286689353	
515.0	0.007301704396	-0.2729365145	
515.625	-0.212294661	0.03979408981	
516.25	0.3594139204	-1.003636864	
516.875	-0.532984708	-0.3277248182	
517.5	-0.06436061791	0.01062551312	
518.125	-0.06120952741	-0.08018410475	
518.75	-0.02392882518	0.01007128316	
519.375	-0.06823978412	0.02201798237	
520.0	0.09950397746	0.01835692247	
520.625	0.08477957097	-0.08357688349	
521.25	0.02076511548	-0.143977988	
521.875	-0.1033368629	-0.02708175636	
522.5	-0.03524664358	0.06984839093	
523.125	-0.0582247938	-0.06974259366	
523.75	-0.1413041819	0.06216541157	
524.375	-0.01223279503	-0.005957416567	
525.0	-0.1247747323	0.1843760462	
525.625	0.09738170764	-0.007529968991	
526.25	-0.06147197265	0.03990201629	
526.875	0.01669700842	0.02557143285	
527.5	-0.1359645236	0.1521105187	
528.125	0.105008413	0.303487812	
528.75	0.07655357376	0.08791892111	
529.375	0.03249742638	0.1109119395	
530.0	-0.1065939211	0.1345599875	
530.625	0.09243263819	0.2851394141	
531.25	0.3551370385	0.0850129504	
531.875	0.07781795713	-0.1829137265	
532.5	-0.03048309681	0.06138356059	
533.125	-0.0154440741	-0.1277783545	
533.75	0.1309876066	-0.07111416434	
534.375	-0.1103745061	-0.3284996343	
535.0	-0.2106025253	0.02230222984	
535.625	-0.1463288553	0.05036324133	
536.25	0.01610341725	0.1082328029	
536.875	0.04810362357	-0.005551499349	
537.5	0.09285585804	-0.01306241666	
538.125	0.07893467513	-0.1010991366	
538.75	0.09251928439	-0.0463669203	
539.375	-0.05994463295	-0.1899670778	
540.0	-0.166917107	-0.1104478646	
540.625	-0.1128799851	-0.02805091893	
541.25	-0.09856291992	-0.009006597941	
541.875	-0.007013747896	0.01131351902	
542.5	0.01949507886	-0.07422711321	
543.125	-0.1179802743	-0.01614905208	
543.75	-0.0217896411	-0.01646490311	
544.375	-0.09841969419	0.05772585167	
545.0	0.06092923348	0.01901699649	
545.625	0.008968916955	0.09173537157	
546.25	0.1489315981	-0.002763271894	
546.875	0.03112643691	-0.001216755321	
547.5	0.1143889709	-0.1475390089	
548.125	-0.1005933424	-0.1017858972	
548.75	-0.04976697298	-0.1072177065	
549.375	-0.1393048486	-0.08978610999	
550.0	-0.04000718541	0.05408523617	
550.625	-0.05953602791	-0.02879984728	
551.25	-0.0664754806	0.0622665027	
551.875	-0.04163651495	0.04180924167	
552.5	-0.05659097312	0.07626504419	
553.125	0.004944999784	0.04793528554	
553.75	0.04388918191	0.04688792723	
554.375	0.08369552035	-0.01715146211	
555.0	0.07916314337	-0.06082690847	
555.625	0.07315515816	-0.102018897	
556.25	0.04840855299	-0.1318822887	
556.875	-0.03964984514	-0.1348908646	
557.5	-0.09054875947	-0.08908908212	
558.125	-0.111949661	-0.03360437051	
558.75	-0.0977231693	0.009239212933	
559.375	-0.09563338194	0.01448496145	
560.0	-0.09247616416	0.08377389604	
560.625	-0.02703629679	0.09297218284	
561.25	-0.01770819102	0.09361014266	
561.875	0.06469335652	0.04220668868	
562.5	-0.0208028237	0.03254924886	
563.125	0.09545188838	0.08441671498	
563.75	0.1045099139	-0.03901906776	
564.375	0.118884217	-0.0483783909	
565.0	0.0633426149	-0.1868179065	
565.625	-0.04159531595	-0.09172091602	
566.25	-0.09217348902	-0.1424919991	
566.875	-0.1796105097	-0.007357327186	
567.5	-0.06113002812	-0.09377889765	
568.125	-0.1791648965	-0.2306193141	
568.75	-0.1991804935	0.03673882641	
569.375	-0.1699964074	0.01203905334	
570.0	-0.159217783	0.2490345274	
570.625	0.04927630284	0.1263240434	
571.25	-0.09825237373	0.08539613408	
571.875	0.1436670331	0.03646144533	
572.5	0.03038056006	0.05698797142	
573.125	0.1536455326	-0.1846808471	
573.75	-0.07658574764	-0.1072697305	
574.375	0.09493994201	0.02428588277	
575.0	0.006763933894	-0.1372385886	
575.625	0.01617762115	0.02367125269	
576.25	0.115143553	-0.1320295908	
576.875	-0.09430069843	-0.1295038415	
577.5	0.03381246166	-0.05879321762	
578.125	-0.02023135636	-0.2337666472	
578.75	-0.1708941976	-0.04257800924	
579.375	0.04680141488	-0.01749430366	
580.0	-0.1216797557	-0.11061238	
580.625	0.05142706127	0.1132719281	
581.25	-0.2031545805	-0.043051206	
581.875	0.08794488212	0.2342905113	
582.5	0.07867197275	0.006292977037	
583.125	-0.006912895573	0.1845327154	
583.75	0.1401942603	-0.06982508452	
584.375	-0.06185161484	0.1180396946	
585.0	0.204457795	-0.01458004037	
585.625	0.0186769281	-0.01613102106	
586.25	0.1936300964	0.02653185653	
586.875	0.04419866591	-0.2216356493	
587.5	-0.04009680806	-0.03600244741	
588.125	0.04311727341	-0.1642490155	
588.75	-0.0420567959	-0.1798899151	
589.375	0.05401820477	-0.03465645181	
590.0	-0.06842927218	-0.252961258	
590.625	-0.1404504317	0.06770872461	
591.25	-0.1166267604	0.00863100719	
591.875	-0.0834301269	0.2060503689	
592.5	0.1317860119	-0.07731035602	
593.125	-0.1126566925	0.1777277933	
593.75	0.1296983499	0.008492574141	
594.375	0.03529545902	0.1009906432	
595.0	0.2393554328	0.1412811572	
595.625	0.09371998141	-0.04277324363	
596.25	0.1195225912	0.1289966032	
596.875	0.1965708526	-0.0454500024	
597.5	0.04668738702	0.07234198715	
598.125	0.165913231	0.1708398936	
598.75	0.202480458	0.004541931396	
599.375	0.1080591118	-0.03214329827	
600.0	0.1992973271	-0.1067357739	
600.625	0.1220053578	-0.1878637118	
601.25	0.01098693387	-0.1048282622	
601.875	-0.03037558602	-0.1980940785	
602.5	-0.1427644974	0.07531650484	
603.125	-0.04123944919	-0.03123166372	
603.75	-0.2069005642	0.1279561349	
604.375	0.04685801131	0.09366180221	
605.0	-0.1547339445	-0.009941520646	
605.625	-0.08099028292	0.1630676768	
606.25	-0.0937494004	-0.1038513943	
606.875	-0.2573024913	0.1140357351	
607.5	-0.05742257463	0.2391373994	
608.125	-0.05697228953	0.147943572	
608.75	0.2226044977	0.1561678934	
609.375	0.1634608936	-0.07038040689	
610.0	0.1537739272	-0.1080129051	
610.625	0.1203980717	-0.196770385	
611.25	0.00801454165	-0.2219930931	
611.875	-0.03020363698	-0.08774849984	
612.5	-0.2402307061	-0.08137989011	
613.125	-0.119030659	0.1391740569	
613.75	-0.1293599666	0.02890887657	
614.375	0.1177326976	0.1842812829	
615.0	-0.01791779502	-0.05833044964	
615.625	0.03045074788	0.211530869	
616.25	0.05946527103	0.06278866266	
616.875	-0.1473567055	0.1600146791	
617.5	-0.05978772014	0.2869116699	
618.125	-0.01822604561	0.1417146962	
618.75	0.02050164774	0.1784655913	
619.375	0.1026178569	0.1330162843	
620.0	0.126978399	-0.01385285299	
620.625	0.07256026055	-0.1277243524	
621.25	-0.04630831861	-0.224117729	
621.875	-0.1519141044	-0.004564823012	
622.5	-0.190634892	0.001949822801	
623.125	-0.0684909109	0.2742027527	
623.75	0.1173293475	-0.05950631563	
624.375	0.07852333651	0.03397516884	
625.0	-0.01209072451	-0.105625559	
625.625	0.07670788819	-0.01600890207	
626.25	-0.08226820956	-0.1812912838	
626.875	-0.131339739	0.01382804525	
627.5	-0.09358289496	-0.1087800257	
628.125	-0.1711793585	-0.03836459117	
628.75	-0.03983618284	-0.05541074942	
629.375	-0.06940718716	-0.1481957321	
630.0	-0.2166891254	-0.04907353466	
630.625	-0.1380079848	0.06922339806	
631.25	-0.1455795684	0.1656498699	
631.875	-0.01347140126	0.3315816065	
632.5	0.1731001594	0.08539906692	
633.125	0.1992214768	0.08948536917	
633.75	0.1953290923	-0.2093259379	
634.375	0.003937872107	-0.005643955258	
635.0	0.005970883637	-0.2332609942	
635.625	-0.1940433014	0.04020183457	
636.25	-0.07480811473	-0.02012990025	
636.875	-0.1149473973	0.1885500877	
637.5	0.09230870655	0.0736621995	
638.125	-0.1391932735	0.04107327265	
638.75	0.009250886061	0.231297038	
639.375	0.02273123393	0.09389504408	
640.0	0.1005837048	0.3052831465	
640.625	0.3091731429	0.04549982486	
641.25	0.1471979003	-0.0443717067	
641.875	0.2199584176	-0.1269880573	
642.5	-0.1146156716	-0.3255125104	
643.125	-0.07229396785	0.02373007149	
643.75	-0.1621688328	-0.1546714397	
644.375	-0.1596449504	0.1638925859	
645.0	-0.103659661	-0.08168673073	
645.625	0.09217046792	0.356593338	
646.25	0.1621033823	-0.09552397609	
646.875	-0.01282789895	0.2076238472	
647.5	0.1997946614	-0.125157998	
648.125	-0.03026083653	0.109775165	
648.75	0.4365499322	-0.07184318404	
649.375	0.008185337487	-0.3487658467	
650.0	0.1156622673	-0.1098794127	
650.625	0.3086856246	-0.3823846203	
651.25	-0.05679158046	-0.295926092	
651.875	0.2301419754	0.0237163407	
652.5	0.3672913433	-0.2116028304	
653.125	0.06328935062	-0.19091481	
653.75	0.2150136703	-0.08669764188	
654.375	-0.1462678706	-0.4216924003	
655.0	-0.263819772	0.1449110607	
655.625	-0.1306154384	0.009024820185	
656.25	0.02970649058	0.3673893944	
656.875	0.05997125183	-0.1838779103	
657.5	0.0310578361	0.2465283887	
658.125	0.261310204	-0.0550532925	
658.75	0.06039308226	0.1264925496	
659.375	0.4664216702	-0.1628187862	
660.0	-0.06899326259	-0.364134396	
660.625	0.1729454055	-0.1278972979	
661.25	0.2190214338	-0.3471335904	
661.875	0.04816046534	-0.3494190759	
662.5	0.1761698216	-0.02171600865	
663.125	0.3060494932	-0.3437943971	
663.75	-0.02928448482	-0.2278274903	
664.375	0.03684093119	-0.2652331595	
665.0	-0.3856541421	-0.1868432391	
665.625	-0.157633201	0.1737925873	
666.25	-0.1319895732	0.1678059397	
666.875	0.1918370372	0.2746779776	
667.5	0.1509738063	-0.07183560339	
668.125	0.2000575517	0.1257444912	
668.75	0.1565325797	-0.3004382309	
669.375	-0.01290580962	-0.07476665942	
670.0	0.113006655	-0.2454814186	
670.625	-0.2368843184	-0.2225795116	
671.25	0.1339123125	0.02419418412	
671.875	0.1871961424	-0.2860460649	
672.5	0.04196702067	-0.1964380708	
673.125	0.1871837959	-0.05098847936	
673.75	0.2211099237	-0.3146913555	
674.375	-0.1356599431	-0.1441555863	
675.0	0.01098176195	-0.2118668786	
675.625	-0.2905377909	-0.1268630545	
676.25	-0.1050996781	0.1255751109	
676.875	-0.1654625055	-0.1081918519	
677.5	-0.1686908749	0.1746030559	
678.125	-0.0261234051	0.08048902262	
678.75	-0.05877179991	0.2348137552	
679.375	0.3611887437	-0.002467619753	
680.0	-0.07103540853	-0.09030282793	
680.625	0.2422939748	0.02988945393	
681.25	0.05576251916	-0.2101584732	
681.875	-0.05426558134	0.1727450458	
682.5	0.5471806625	0.08831086855	
683.125	0.09743462701	-0.1740035745	
683.75	0.2549403626	0.3367261642	
684.375	0.4485843815	-0.04847892415	
685.0	0.1312611464	-0.2076059392	
685.625	0.2608718958	0.2189636687	
686.25	0.2328753854	-0.2605156391	
686.875	0.1361404069	-0.09929680729	
687.5	0.3171556258	-0.2385110766	
688.125	-0.2901846751	-0.4627319516	
688.75	-0.2698420202	-0.09673020334	
689.375	-0.3209103054	0.3188636928	
690.0	0.2883709301	0.3434899304	
690.625	0.1516030209	0.04082190352	
691.25	0.3238363275	0.4397027011	
691.875	0.5706073003	-0.008555083914	
692.5	0.3275765148	0.1941263401	
693.125	0.8286601642	0.001557740155	
693.75	0.3811909358	-0.5034607935	
694.375	0.553686527	-0.04503600145	
695.0	0.5206869966	-0.4739866495	
695.625	0.2671311907	-0.2452983481	
696.25	0.5254842224	0.2591004541	
696.875	0.5802346508	0.2207380431	
697.5	0.2480274146	0.4235459801	
698.125	0.5582059831	0.09513131523	
698.75	0.2227556035	-0.354930527	
699.375	-0.4729760862	-0.2427482739	
700.0	-0.1762810555	0.2526449404	
700.625	0.2702584604	0.3424646931	
701.25	0.2634073793	0.004277734471	
701.875	0.1179296817	0.2317119982	
702.5	0.4710251349	0.1841422494	
703.125	0.2669508874	-0.05267179464	
703.75	0.3994165312	0.02304535369	
704.375	0.2826137119	-0.3195449644	
705.0	0.09886150398	-0.0287644651	
705.625	0.3468648185	0.07585647653	
706.25	0.311044725	0.002349350312	
706.875	0.1355679554	0.2211988185	
707.5	0.359522891	0.1979960136	
708.125	0.3716874024	-0.07748661056	
708.75	0.1626691546	-0.2648893436	
709.375	-0.218025782	-0.1709965847	
710.0	-0.1764667252	0.2886509367	
710.625	0.1375723395	-0.1085472493	
711.25	0.1467026205	0.1710147579	
711.875	0.1650155338	-0.04763241668	
712.5	0.180852984	0.1217273925	
713.125	0.2968271704	-0.2489531142	
713.75	-0.01470460951	-0.2226421226	
714.375	0.1264081717	-0.1536108686	
715.0	-0.09875288782	-0.2701450651	
715.625	-0.05240776357	-0.1114750239	
716.25	0.2326091941	-0.1790875919	
716.875	0.2526967713	-0.3336188861	
717.5	0.2741857843	-0.06241154975	
718.125	0.6125923032	0.04107706062	
718.75	0.6139169712	-0.4212783037	
719.375	0.3542840843	-0.4587596462	
720.0	0.4636432906	-0.7059661537	
720.625	-0.2685475361	-0.8325036363	
721.25	-0.0578178912	-0.4824731294	
721.875	-0.3500080833	-1.006843239	
722.5	-0.978537244	-0.3098956805	
723.125	-0.1317910941	-0.09234258955	
723.75	-0.4616815142	0.5992963953	
724.375	0.3306314862	0.3073110537	
725.0	-0.1061569654	0.2491050568	
725.625	0.2664587108	0.5870450781	
726.25	0.2750783865	0.2508990692	
726.875	-0.3165623611	0.7083904761	
727.5	0.1375829409	1.493090138	
728.125	0.7578957871	1.194305139	
728.75	-0.5162059813	1.723283447	
729.375	0.4550379862	4.047708662	
730.0	1.646723447	2.226983603	
730.625	-0.756914013	2.521449742	
731.25	0.59736181	4.597987202	
731.875	0.4022941455	1.995732533	
732.5	-2.83348711	0.3419553739	
733.125	-2.11616489	1.544295273	
733.75	0.2654183878	0.9467798712	
734.375	0.6793743271	0.6848635707	
735.0	-0.5627093047	-0.7849681237	
735.625	0.07673077432	-0.01138373639	
736.25	-0.2748740852	0.6314019854	
736.875	0.8245712845	0.1831052419	
737.5	0.09816217036	0.1642403875	
738.125	2.059845898	-0.2952135164	
738.75	0.8321307565	-2.13144601	
739.375	0.5591815594	-0.3000622851	
740.0	4.430738038	0.1733356782	
740.625	2.882016931	-3.75875137	
741.25	-2.739979807	0.005383533523	
741.875	-4.278103265	2.008931106	
742.5	-1.432890602	0.440082475	
743.125	0.9496793647	-1.366822058	
743.75	-0.6393422074	-1.237077832	
744.375	-0.200300522	0.3303883258	
745.0	-0.1329945958	0.1111869057	
745.625	0.01704537122	-0.1297544759	
746.25	0.1058950031	-0.06830884865	
746.875	-0.2805347891	0.06832124253	
747.5	0.08994063673	0.2665155815	
748.125	-0.0130361989	0.3094399318	
748.75	0.3094278989	0.4930216077	
749.375	0.2378210484	0.2492463075	
750.0	-0.313213684	0.1562361856	
