!Created with skrf (http://scikit-rf.org).
# GHz S MA R 50.0 
!freq magS11 angS11
500.0 0.0162442680356 159.708790485
500.625 0.0130824326342 144.178766363
501.25 0.0107614853546 -152.187465979
501.875 0.011398770171 -117.000712905
502.5 0.0238654271679 160.438178895
503.125 0.0145045857449 125.91411775
503.75 0.0178604756501 -36.0732775585
504.375 0.0146055302424 137.224848352
505.0 0.0162886709765 -56.6062858311
505.625 0.0336371457587 -82.9880667013
506.25 0.0392647058334 -107.055022435
506.875 0.0498917513851 -114.193849678
507.5 0.0391867479591 -141.886150737
508.125 0.0478411399113 -100.599661722
508.75 0.0827963964131 -115.644838421
509.375 0.0477622976361 -169.010936683
510.0 0.0260727624273 -143.345997109
510.625 0.0296412988736 -168.247622954
511.25 0.0747043616033 -167.948901076
511.875 0.049380950477 136.372931246
512.5 0.0373923170516 101.229718424
513.125 0.0536350331402 39.0658938937
513.75 0.0701711734995 48.6220714795
514.375 0.041407764669 22.309114613
515.0 0.0600709919647 10.1410432061
515.625 0.0825838162924 53.0496822509
516.25 0.105595152429 32.1187130678
516.875 0.107297145263 66.9971470497
517.5 0.104731204487 17.6164996223
518.125 0.190907457279 71.1695894851
518.75 0.0793392118491 8.43664407568
519.375 0.0689883024691 20.8137171135
520.0 0.100305292407 -6.92356535445
520.625 0.100694403793 -5.27585772258
521.25 0.0866174745496 -21.5501417908
521.875 0.0660355397873 -1.52469726475
522.5 0.0933663591988 -32.7451594702
523.125 0.178660724168 -34.9683180932
523.75 0.22641613916 -53.544394649
524.375 0.195431722973 -60.1897956043
525.0 0.073219335314 -39.4551081091
525.625 0.0465649828823 -22.7486411933
526.25 0.0340780563671 -27.1360323149
526.875 0.0516945828616 -20.8600173961
527.5 0.0523338951727 -26.0236735626
528.125 0.0469670455219 -54.9387493434
528.75 0.0746096484936 -70.2739257319
529.375 0.0867681642002 -110.040859693
530.0 0.0390595482733 -137.006465739
530.625 0.0495598091089 -148.912160283
531.25 0.0870168227736 -128.293546638
531.875 0.169847765473 -146.428652756
532.5 0.131727964245 -173.823524386
533.125 0.108751014137 175.737173843
533.75 0.105948901196 166.974754896
534.375 0.10900671419 -179.195216253
535.0 0.0935300581818 164.09082414
535.625 0.0648398908121 179.328484321
536.25 0.0431256530274 162.600569832
536.875 0.0706478425844 -157.743199626
537.5 0.0904708624669 -142.521309852
538.125 0.116340873704 -174.272028336
538.75 0.0848014434195 176.514057477
539.375 0.0742310512354 -162.524657326
540.0 0.0975225289569 -157.562807565
540.625 0.148124246201 -158.761746925
541.25 0.102927508561 -140.821223538
541.875 0.0907020944535 -139.560773385
542.5 0.107094269266 -140.504183005
543.125 0.152248106945 -167.774290248
543.75 0.111426664641 158.182425228
544.375 0.0943915119105 136.577102033
545.0 0.0942114649804 92.3345480438
545.625 0.0991007359377 85.0141750443
546.25 0.100655765796 68.6256283951
546.875 0.0858165190271 54.8907019717
547.5 0.116685060118 58.4773171099
548.125 0.131272355797 78.1890015787
548.75 0.0709033028851 88.8174355726
549.375 0.0928658580233 89.1932485017
550.0 0.0972441935061 126.727754959
550.625 0.0525429832969 157.93392738
551.25 0.0451847835004 -147.016861461
551.875 0.066628889594 -160.300106488
552.5 0.104540367548 -163.682807204
553.125 0.0986606639014 -171.340307897
553.75 0.0834335299447 -164.927222185
554.375 0.110502574201 167.09855666
555.0 0.133322463469 162.478892616
555.625 0.0975479920611 159.088876738
556.25 0.105389211423 160.42993826
556.875 0.109959995493 167.272892668
557.5 0.108391425576 168.83519293
558.125 0.0886822948457 164.95568362
558.75 0.0894718570886 177.421133386
559.375 0.0661010044265 -171.552227065
560.0 0.0463386806785 -148.987264082
560.625 0.0589073054108 -137.154037146
561.25 0.0922242343301 -152.751260133
561.875 0.103346393417 -161.678857299
562.5 0.0919535156073 175.308075263
563.125 0.108210474865 144.795541488
563.75 0.124803112067 133.011916251
564.375 0.103724873483 122.50921738
565.0 0.084339364755 119.37645379
565.625 0.0818601661941 119.586500289
566.25 0.0978504628 153.657368392
566.875 0.0720622655071 -178.796071643
567.5 0.0683011769005 -172.951443517
568.125 0.0775120482343 -168.179024301
568.75 0.0786769688527 -152.570143994
569.375 0.0442859113778 -95.9080164799
570.0 0.0611514209873 -103.923180104
570.625 0.0925060986005 -115.448023744
571.25 0.0939670268256 -122.971293546
571.875 0.0851316909382 -119.419992954
572.5 0.11137131894 -151.908899399
573.125 0.136345393748 -172.38346443
573.75 0.111659097109 158.680449092
574.375 0.0782262888253 152.903860642
575.0 0.105174755361 156.445785082
575.625 0.108699161392 156.538670202
576.25 0.0919924069744 145.95790479
576.875 0.081604303419 130.793526106
577.5 0.0880028087062 135.903341348
578.125 0.0591143850831 162.026698639
578.75 0.0514528564729 158.008615263
579.375 0.0539812580415 167.036603519
580.0 0.0672202964491 -167.385641694
580.625 0.0779191952949 -146.844344387
581.25 0.0887180359857 -168.887576903
581.875 0.112759067358 -167.730228675
582.5 0.11537715212 -172.180402219
583.125 0.0906843649945 -169.22275947
583.75 0.0838018236216 -171.496233053
584.375 0.0986508959362 -151.320442079
585.0 0.0947240835965 -142.817016934
585.625 0.068208619937 -143.359898856
586.25 0.0731831412598 -148.982299606
586.875 0.0789164955238 -122.53074852
587.5 0.0712610542604 -137.841158064
588.125 0.0559676064056 -171.637528962
588.75 0.0670197161151 -175.28288279
589.375 0.0847977120103 -142.984999456
590.0 0.0925029160443 -167.104092191
590.625 0.103160006956 161.515547952
591.25 0.121644845337 150.992145829
591.875 0.100708188497 153.056232277
592.5 0.0628421907966 149.274627827
593.125 0.0610028233745 144.576996342
593.75 0.079291106321 164.289440936
594.375 0.0531112085355 -141.236044356
595.0 0.0446438853284 -112.495352313
595.625 0.0560401845707 -108.495226298
596.25 0.0757385070361 -87.3621765376
596.875 0.0660203261439 -79.2623380626
597.5 0.0606868529641 -58.3276509028
598.125 0.0664934498347 -56.8574643676
598.75 0.071544102038 -71.3751447976
599.375 0.0993610249842 -54.9457488906
600.0 0.104665900287 -62.1934100625
600.625 0.097792758875 -58.9669769352
601.25 0.0845639224315 -81.7932777184
601.875 0.0681824966554 -79.0119022686
602.5 0.0613057014846 -83.0277857662
603.125 0.045092107803 -68.1580319339
603.75 0.0316191313863 -34.4093969318
604.375 0.0312501170299 -39.1806221417
605.0 0.0724199927116 -6.27857360391
605.625 0.0558082645323 -0.188054931314
606.25 0.0310993985018 30.4940511386
606.875 0.0173523879124 43.8339894428
607.5 0.0736875542386 50.7479551516
608.125 0.0833378119136 33.9135489973
608.75 0.0644622529426 21.3269044242
609.375 0.050766069611 21.8953821752
610.0 0.082409494906 49.3977813316
610.625 0.0708475584939 43.2883595834
611.25 0.0573451512832 46.6256727966
611.875 0.0285781228201 12.5094306002
612.5 0.0362585564923 107.159177955
613.125 0.0262785669491 129.497821005
613.75 0.0341707632794 125.842418959
614.375 0.0474624498351 122.142257033
615.0 0.0203708008009 106.029756345
615.625 0.0330900084237 138.601886775
616.25 0.0591854795325 134.120172012
616.875 0.0480787488106 128.032895995
617.5 0.0309296705867 126.42213428
618.125 0.0261294281331 131.063060471
618.75 0.0305117135358 138.051913827
619.375 0.0225085007859 146.304406235
620.0 0.011800478736 163.715052803
620.625 0.0162401791069 -111.8948534
621.25 0.0548722494416 -101.570540398
621.875 0.0595851600611 -109.025499752
622.5 0.0733128197322 -161.976106735
623.125 0.0761596744175 169.273947857
623.75 0.060795045948 164.247187253
624.375 0.0451490813534 -177.4752127
625.0 0.0284685097819 -117.483502996
625.625 0.0532479302654 -156.967698275
626.25 0.0322702179378 178.377902545
626.875 0.0104571101976 -168.100830208
627.5 0.0519538663163 -8.90912329252
628.125 0.0367559384745 -54.2084584202
628.75 0.0329117906419 -17.6253508813
629.375 0.0466466079752 -18.5054570918
630.0 0.0739719014508 5.72149203496
630.625 0.0745806129017 -13.4040928986
631.25 0.0654701323356 -6.85048482881
631.875 0.0693274472507 -17.126775498
632.5 0.0698473266376 14.8332741964
633.125 0.0553673136796 -12.8783197821
633.75 0.0371876188115 9.22535394396
634.375 0.0477869717594 29.1752502965
635.0 0.034224830908 24.6311703878
635.625 0.050558057903 51.3434580402
636.25 0.0429374313986 28.7253382698
636.875 0.0602179303745 28.6891506735
637.5 0.046468654739 34.2667679273
638.125 0.0557395918513 71.326960863
638.75 0.0547621143634 62.0456389917
639.375 0.0919636596733 94.5066668487
640.0 0.0741594367661 105.976915539
640.625 0.0611304521599 110.811215576
641.25 0.0767769392253 129.593682566
641.875 0.0607468370898 150.2135603
642.5 0.0479300372986 154.623214151
643.125 0.0724528233628 164.553936927
643.75 0.0519911657338 156.621542629
644.375 0.0722722147343 -174.527600405
645.0 0.0721956196288 175.460308723
645.625 0.100274201307 171.376133784
646.25 0.0877498372666 158.681714379
646.875 0.0692796782389 179.325235509
647.5 0.0745238230276 -173.35714848
648.125 0.0847573216193 -173.887745213
648.75 0.0857075407778 -157.127355838
649.375 0.0462366376858 -150.361701883
650.0 0.0468699535045 -115.113661504
650.625 0.0632224685816 -88.4107050507
651.25 0.0811788638339 -63.7919655184
651.875 0.0552561516709 -42.0499572574
652.5 0.0809118296395 -21.2275612226
653.125 0.108256477431 -3.6899585217
653.75 0.120216123207 7.34190402252
654.375 0.110593351197 7.16183891772
655.0 0.121609227326 13.3993301268
655.625 0.0927818669757 27.4332397361
656.25 0.0697470890728 24.7626345238
656.875 0.0583658635861 4.85171414477
657.5 0.0691363231491 21.5476157552
658.125 0.06256675421 46.6823127406
658.75 0.0694935434807 60.0798554031
659.375 0.0659024097472 45.9876607779
660.0 0.117403529007 26.7626542287
660.625 0.117400735348 18.9144402068
661.25 0.115714982008 4.33901883515
661.875 0.133410216901 -12.4493728452
662.5 0.120018478708 -20.1575381296
663.125 0.0994038925655 -16.8863032618
663.75 0.1148104386 5.19583725801
664.375 0.0734657815331 50.1990659741
665.0 0.0650343161066 94.1029049843
665.625 0.0648559119556 114.128166838
666.25 0.0847777621222 133.679937725
666.875 0.116236383636 172.054717603
667.5 0.102180922845 -167.879078395
668.125 0.103534459525 -177.781447342
668.75 0.139118657528 166.843208195
669.375 0.113230064063 178.369999021
670.0 0.0793216848076 -167.318065462
670.625 0.0895232118025 -170.218372112
671.25 0.127186182074 173.256956582
671.875 0.0812585161314 169.566268634
672.5 0.0769544787147 160.687902261
673.125 0.0803344895488 156.9438641
673.75 0.120515276982 157.550565903
674.375 0.115067356071 170.490449021
675.0 0.12049841399 -174.743581972
675.625 0.130284200319 -148.567716946
676.25 0.120607725288 -125.668206147
676.875 0.113080968068 -119.338228355
677.5 0.128732489533 -127.435812955
678.125 0.124178267318 -114.4274673
678.75 0.0809343822243 -94.2842380845
679.375 0.0395039256549 -62.4400917184
680.0 0.0725370424828 -72.9509462742
680.625 0.114088130408 -73.340035361
681.25 0.10908479005 -73.4926861922
681.875 0.0989666311618 -91.4718614607
682.5 0.136847498289 -118.583034033
683.125 0.155856774625 -118.54447986
683.75 0.137551775624 -103.4709389
684.375 0.127384824988 -81.7408793597
685.0 0.122790891884 -37.2679009058
685.625 0.119391918658 1.71172819292
686.25 0.0973073360933 21.2791655953
686.875 0.103070759313 42.1172572041
687.5 0.0623402263577 96.5865132888
688.125 0.0796226187742 115.482415808
688.75 0.0960838437027 115.457684722
689.375 0.153590710601 115.088234305
690.0 0.13367178716 133.991424523
690.625 0.121328641085 126.775700007
691.25 0.144335831039 96.2923553603
691.875 0.191200344429 69.8224695949
692.5 0.152889829239 38.7084520921
693.125 0.0807752058624 -11.510872262
693.75 0.088022844044 -33.4709253984
694.375 0.123378937897 -24.385078816
695.0 0.140824526776 7.47079926351
695.625 0.100930847193 56.3061323676
696.25 0.116633616039 112.464359851
696.875 0.141882367318 172.634378452
697.5 0.144937171962 -143.674178737
698.125 0.145908607583 -135.879208247
698.75 0.132270474483 -131.385406938
699.375 0.101644161539 -122.305954984
700.0 0.102659518335 -119.14177269
700.625 0.100014035212 -76.1333543898
701.25 0.102026117294 -64.1710782933
701.875 0.0840935808173 -59.6595068666
702.5 0.0992481540117 -87.5058659584
703.125 0.172184734409 -125.238729944
703.75 0.176294025646 -151.609334355
704.375 0.127739133029 173.430923191
705.0 0.106692223466 162.201534836
705.625 0.1513157914 -179.066473838
706.25 0.127918227357 -99.3204438762
706.875 0.0892221246679 -59.6169089101
707.5 0.0774268892192 -37.7337478465
708.125 0.0929766731958 11.1974619065
708.75 0.11454482489 71.9718627506
709.375 0.107027589787 107.937685198
710.0 0.103502917987 126.497989839
710.625 0.10931705315 155.15401427
711.25 0.116433840124 175.462258313
711.875 0.142712209062 173.441198245
712.5 0.145682108523 147.03521685
713.125 0.132890384812 93.3978239159
713.75 0.0958193414143 47.2148246666
714.375 0.113166046907 24.9940309253
715.0 0.116765645381 26.0955951591
715.625 0.086228352043 52.8937428602
716.25 0.073713359728 65.1431888624
716.875 0.132506192987 118.620556137
717.5 0.149182266307 149.325138484
718.125 0.116984384273 162.91990507
718.75 0.101905406772 168.272439762
719.375 0.112261374668 -178.837920278
720.0 0.139797390679 -117.643751279
720.625 0.115956835698 -68.9442650064
721.25 0.0947972954025 -22.0279347871
721.875 0.0859759534325 51.7615818072
722.5 0.0736223034255 75.3372681656
723.125 0.0833902123769 83.7992820998
723.75 0.101812324513 34.8583914949
724.375 0.101361195935 -10.2028696305
725.0 0.095093350951 -40.891401461
725.625 0.109446012279 -61.0767837939
726.25 0.121467530528 -58.1251443412
726.875 0.0966210706731 -65.0843561428
727.5 0.0904478407116 -14.6709565321
728.125 0.0826236536289 3.5816849353
728.75 0.0723272056595 16.3497187407
729.375 0.0765189631661 10.0327224709
730.0 0.0587069725282 -8.93781210446
730.625 0.0770199598246 27.7731536883
731.25 0.0813107272841 70.4244160691
731.875 0.070461248821 111.205056122
732.5 0.0523055969007 140.665052108
733.125 0.11204740139 -172.555772502
733.75 0.0932431695055 -178.479869032
734.375 0.0597453068158 165.021946938
735.0 0.0479998447623 152.674726344
735.625 0.049781596404 142.806104351
736.25 0.0383123487346 138.051912773
736.875 0.0523969012095 168.503581689
737.5 0.056056641624 -177.679914911
738.125 0.112676508635 -171.395758185
738.75 0.0924433247494 -171.166720353
739.375 0.0497762409964 -174.41905801
740.0 0.0104720402538 -80.1992407949
740.625 0.082524141383 -146.421530084
741.25 0.0516380695409 -152.227811877
741.875 0.0189773609947 -85.054587462
742.5 0.0347815905288 -18.0007710789
743.125 0.044112892665 55.715287789
743.75 0.0357812405546 93.6406004661
744.375 0.0518984389321 115.264240739
745.0 0.0555405146649 176.07102387
745.625 0.0919291891644 97.0312731561
746.25 0.0734415575258 87.7244180796
746.875 0.0575741052919 48.1679402313
747.5 0.0430209971129 7.31619596333
748.125 0.011828014516 48.1518732752
748.75 0.0458694317044 -28.2805802117
749.375 0.0271969182284 -40.0814305707
750.0 0.0358199895967 -100.475141845
