!Created with skrf (http://scikit-rf.org).
# GHz S RI R (50+0j) 
!freq	ReS11	ImS11	
500.0	0.1687242207	-1.779605513	
500.625	-0.2906445493	-0.9173952334	
501.25	-0.04309480848	-0.8087268376	
501.875	-0.503206151	-0.4450324317	
502.5	-0.02195006689	-0.08084125081	
503.125	-0.1040305146	-0.006615526199	
503.75	0.05693364601	0.05769260342	
504.375	0.02824078208	0.02926829911	
505.0	0.006367889273	-0.06239910763	
505.625	0.01443601256	0.003464758985	
506.25	-0.08135988784	-0.1669861105	
506.875	0.09241685043	0.1507050834	
507.5	0.1169171094	-0.7514258554	
508.125	-0.274696205	-0.7989116005	
508.75	0.5073020206	-0.4041961231	
509.375	0.4084684987	-2.160056052	
510.0	-0.4226234378	-0.1649542286	
510.625	0.01675190381	-0.1339456739	
511.25	-0.1904490502	-0.1235555913	
511.875	-0.1308694064	0.04412867496	
512.5	-0.03591956173	0.05027706148	
513.125	-0.03543142247	-0.1262290218	
513.75	-0.02425672003	0.009329545158	
514.375	-0.05721223016	-0.1014456402	
515.0	-0.01439818839	0.41698229	
515.625	0.2931103626	-0.8207218441	
516.25	-0.552606578	-0.2998381075	
516.875	0.06610347959	-0.1738868175	
517.5	-0.123233823	-0.3207628862	
518.125	-0.05787582283	0.05708484205	
518.75	-0.04087483858	-0.2423804734	
519.375	-0.05199194986	0.06043075011	
520.0	0.06866441898	0.02572360132	
520.625	0.199057208	0.0007597593996	
521.25	-0.07569434942	-0.2795263871	
521.875	-0.05690492553	0.04751650919	
522.5	-0.004354528514	0.007238208142	
523.125	0.00384846445	0.1410461607	
523.75	-0.01716187146	-0.1397046304	
524.375	-0.3243640763	0.08460858701	
525.0	0.1222765081	0.0804554237	
525.625	-0.06367060823	0.04470551557	
526.25	0.07841398952	-0.03998008658	
526.875	-0.1328326413	0.08060998287	
527.5	0.0634169261	0.211438685	
528.125	0.01109348312	0.1097576948	
528.75	0.02518807548	0.3151601796	
529.375	0.08024111008	0.02325136987	
530.0	-0.1295749267	0.1671132891	
530.625	0.3002302624	0.3994366743	
531.25	0.224628704	-0.02305502262	
531.875	0.2085487897	-0.09603558459	
532.5	-0.1855766729	-0.1446986819	
533.125	0.1893536611	0.03911031592	
533.75	0.118602572	-0.3399651764	
534.375	-0.09192763229	-0.1473741158	
535.0	-0.204379369	-0.2273647744	
535.625	-0.1630455792	0.1863604182	
536.25	-0.002061607476	0.05637500491	
536.875	0.1171116054	0.05268437817	
537.5	0.0397045085	-0.07689490416	
538.125	0.1266842866	0.01157265268	
538.75	0.1479494507	-0.2031780429	
539.375	-0.07694268357	-0.118049363	
540.0	-0.1207918811	-0.1852266314	
540.625	-0.247997426	-0.02124962436	
541.25	-0.0402537395	0.05538637581	
541.875	0.02228881172	-0.04726762781	
542.5	-0.06619453475	-0.002914928111	
543.125	-0.03467417133	-0.1049850553	
543.75	-0.1486130605	0.004901390626	
544.375	0.03036953067	0.02838044215	
545.0	-0.08204137652	0.1116731333	
545.625	0.09101414449	0.0167219408	
546.25	0.03682348574	0.07803240683	
546.875	0.1815078552	-0.05508610835	
547.5	0.003344158768	-0.1218520137	
548.125	0.01579106473	-0.1654089122	
548.75	-0.1802030531	-0.1506084109	
549.375	-0.09935837868	-0.001125579709	
550.0	-0.09940635557	-0.05011858558	
550.625	-0.03474508089	0.05332731297	
551.25	-0.08938733608	-0.01547212094	
551.875	-0.08851572111	0.1089053373	
552.5	-0.01734166185	0.05657430611	
553.125	-0.03293717444	0.07366191386	
553.75	0.06297242839	0.04323290104	
554.375	0.08975885211	0.002987681476	
555.0	0.1123232961	-0.07888545626	
555.625	0.08278030778	-0.1158865737	
556.25	0.06749514506	-0.1437273409	
556.875	-0.04081609508	-0.1711719075	
557.5	-0.1100728576	-0.1069253473	
558.125	-0.1210896178	-0.037536417	
558.75	-0.1170746859	-0.008655818554	
559.375	-0.1244153533	0.02928420858	
560.0	-0.08673805259	0.0775594865	
560.625	-0.07235396579	0.1101079466	
561.25	0.0290527415	0.1254189008	
561.875	0.00956498887	0.02409586669	
562.5	0.04301888492	0.09448264828	
563.125	0.04378863301	0.0444440397	
563.75	0.1733120117	0.04199369668	
564.375	0.1240188256	-0.1495547836	
565.0	0.05951684451	-0.104148483	
565.625	-0.003448889864	-0.2061679583	
566.25	-0.1845942192	-0.07495389929	
566.875	-0.09306193574	-0.09697128541	
567.5	-0.2083446026	-0.1887545492	
568.125	-0.1691651235	-0.08095680797	
568.75	-0.2122799166	-0.1497689749	
569.375	-0.2963179847	0.1820675588	
570.0	-0.02265329755	0.138129463	
570.625	-0.1507552599	0.153800722	
571.25	0.0822569302	0.1755706054	
571.875	-0.02599191762	0.05392141246	
572.5	0.24929244	-0.002595766832	
573.125	-0.01342292583	-0.1283228573	
573.75	0.1156256697	-0.04628526375	
574.375	-0.01084087444	-0.1722499979	
575.0	0.0184323876	0.07850247492	
575.625	0.1040157277	-0.1506313905	
576.25	-0.04831194105	-0.1234498848	
576.875	0.05711971574	-0.07644514128	
577.5	0.03272710054	-0.2862394268	
578.125	-0.1380617331	-0.1175757279	
578.75	0.01109266685	-0.109465953	
579.375	-0.1585082245	-0.1392853026	
580.0	-0.01819136898	0.1406047052	
580.625	-0.1089783029	-0.1480942837	
581.25	-0.06303086646	0.1669490765	
581.875	-0.02246022027	0.02267338188	
582.5	-0.0233978162	0.2739587382	
583.125	0.2084135757	0.0555879709	
583.75	-0.07005889864	-0.01469239852	
584.375	0.162270941	0.1021077032	
585.0	0.0390223939	-0.01843766145	
585.625	0.2095691898	0.09438342253	
586.25	0.1551857188	-0.1681946692	
586.875	0.05416157153	-0.03834713399	
587.5	0.01935685169	-0.2442182864	
588.125	-0.1172358995	-0.1262944031	
588.75	0.07887559343	-0.05471197604	
589.375	0.1389140023	-0.2451839628	
590.0	-0.1476581517	-0.1233480181	
590.625	-0.08631897858	-0.1118479604	
591.25	-0.2375704738	0.1680991967	
591.875	0.09862737556	0.07199466318	
592.5	-0.08925457036	0.0537941752	
593.125	0.1137878547	0.007082749281	
593.75	-0.05404050895	0.1572742087	
594.375	0.3267688178	0.06294441746	
595.0	0.09553135287	-0.007700149028	
595.625	0.1704837277	0.1880561999	
596.25	0.2649347777	0.02370393066	
596.875	0.08560584925	-0.02636663347	
597.5	0.1302947673	0.1816636162	
598.125	0.2295588189	0.04354229025	
598.75	0.09754873554	0.0760031825	
599.375	0.2912480288	-0.02256616977	
600.0	0.120327103	-0.1947143486	
600.625	0.1119761679	-0.09905354819	
601.25	0.136122208	-0.2409816736	
601.875	-0.1763508603	-0.1372467492	
602.5	-0.034634017	-0.02670437189	
603.125	-0.2731337957	0.08219503213	
603.75	-0.005250297342	0.1365866966	
604.375	-0.1101496462	-0.01848195055	
605.0	-0.1234405967	0.175970631	
605.625	-0.004397424156	-0.07736015219	
606.25	-0.2472903278	0.06110458573	
606.875	-0.1160134902	0.1991818918	
607.5	-0.2493823275	0.1282937185	
608.125	0.008729545824	0.3010685053	
608.75	0.2560765695	0.0876482833	
609.375	0.1516008201	0.04711645609	
610.0	0.2779631385	-0.1556197284	
610.625	0.05920260862	-0.1931936047	
611.25	0.09334199044	-0.09757165593	
611.875	-0.188844565	-0.2109695284	
612.5	-0.1442582873	0.0431418513	
613.125	-0.2031062378	-0.07869856678	
613.75	-0.1233884768	0.2839342143	
614.375	0.1012336967	-0.009354882638	
615.0	-0.001127205237	0.1819522963	
615.625	0.1064823118	0.02799218901	
616.25	-0.1460646632	0.1601340391	
616.875	-0.1025546365	0.340944802	
617.5	-0.0154793543	0.131921166	
618.125	-0.1267292899	0.190439225	
618.75	0.004764029084	0.09242486871	
619.375	0.1089371095	0.07934143419	
620.0	0.1468796588	0.0007618851426	
620.625	0.1623363472	-0.2014780593	
621.25	-0.1142883795	-0.09826826481	
621.875	-0.2029229095	-0.1535726107	
622.5	-0.3212578081	0.09432945268	
623.125	0.01292487254	0.1051391182	
623.75	0.03236677172	0.1836787504	
624.375	0.0321871035	-0.1427472531	
625.0	0.06068619459	0.06169913297	
625.625	0.07021236964	-0.1800565014	
626.25	-0.1060536944	-0.06492705333	
626.875	-0.07109097983	-0.1493721479	
627.5	-0.2426710607	-0.03974414981	
628.125	-0.08818917956	-0.01350201317	
628.75	-0.04046326868	-0.1877220176	
629.375	-0.1937068458	-0.118158855	
630.0	-0.1226255687	-0.106277994	
630.625	-0.2586194529	0.03845575333	
631.25	-0.1960462807	0.2751552256	
631.875	-0.01698098591	0.182521164	
632.5	0.1328533953	0.3034174131	
633.125	0.3431212676	0.02940093843	
633.75	0.1033747384	-0.04575873651	
634.375	0.199804429	-0.1639951006	
635.0	-0.1176568076	-0.1574504458	
635.625	-0.0631162132	-0.1470180708	
636.25	-0.2426835433	0.1224500266	
636.875	0.05302214158	0.1341780877	
637.5	-0.1146278362	0.0319945336	
638.125	-0.02813532909	0.2021561383	
638.75	-0.02808813673	0.05306823328	
639.375	-0.09118013467	0.3288931393	
640.0	0.2626667333	0.2566780413	
640.625	0.1560446949	0.07808848638	
641.25	0.3238385623	0.1029001981	
641.875	0.1717101468	-0.3120598597	
642.5	0.001119979759	-0.1106317424	
643.125	-0.1322185058	-0.2656250328	
643.75	-0.2958727604	0.03932357451	
644.375	-0.01378490078	-0.1040473394	
645.0	-0.2452175593	0.2612243764	
645.625	0.1878333412	0.1594682691	
646.25	-0.08129852895	0.1214105529	
646.875	0.2653531748	-0.04167796112	
647.5	-0.2197326757	0.006588254815	
648.125	0.3169827749	0.1621223159	
648.75	0.1919927908	-0.2158422139	
649.375	0.1978086289	-0.08777490014	
650.0	0.4182657378	-0.4337250409	
650.625	-0.02278368946	-0.3820006284	
651.25	0.2116082047	-0.077426431	
651.875	0.4217128991	-0.242422693	
652.5	0.1609082233	-0.2524592843	
653.125	0.281239288	0.05676125711	
653.75	0.2706112604	-0.3886466141	
654.375	-0.1587390063	-0.1938257958	
655.0	-0.1217267124	-0.2107536619	
655.625	-0.335127781	0.2858628191	
656.25	0.1327964985	0.07749312674	
656.875	-0.06887896439	0.118895002	
657.5	0.28710715	0.1198755735	
658.125	-0.02886092435	0.09863286436	
658.75	0.43214694	0.2223895284	
659.375	0.2159284899	-0.3492224136	
660.0	0.2021711155	-0.1490739507	
660.625	0.2844578443	-0.4508200717	
661.25	0.005776101889	-0.4107274794	
661.875	0.2319831663	-0.07318513864	
662.5	0.4089213332	-0.2817071648	
663.125	0.1766209393	-0.2925230938	
663.75	0.189167505	-0.1641820077	
664.375	-0.03099299608	-0.4982615581	
665.0	-0.2943131918	-0.06992068124	
665.625	-0.2985441372	-0.03251058563	
666.25	-0.1620959297	0.3883138169	
666.875	0.1772014588	0.1146551116	
667.5	0.05648244241	0.2309374415	
668.125	0.34138558	-0.07129398508	
668.75	0.06784605152	-0.1302806468	
669.375	0.2079701981	-0.1758396909	
670.0	-0.167286157	-0.4278368607	
670.625	-0.0169731804	-0.02380204839	
671.25	0.1588005699	-0.2317090372	
671.875	0.03970484178	-0.2590946252	
672.5	0.1530499009	0.002980685183	
673.125	0.376072035	-0.2270912721	
673.75	0.0290173049	-0.2602733079	
674.375	0.1077796421	-0.1633682307	
675.0	-0.08384433792	-0.3863337554	
675.625	-0.2938499906	-0.02321819185	
676.25	-0.06324755042	-0.1486359266	
676.875	-0.2935596299	0.009227435558	
677.5	-0.05719524493	0.06370767914	
678.125	-0.2321355923	0.02222960837	
678.75	0.1047009342	0.3747819877	
679.375	0.1444025539	-0.08098527754	
680.0	0.1919746952	0.1295714265	
680.625	0.1550815144	-0.2596594201	
681.25	-0.1448398333	0.04100075264	
681.875	0.4583804873	0.1956086325	
682.5	0.2472286809	-0.0964529167	
683.125	0.08422603601	0.2841146792	
683.75	0.4624115021	0.2261061466	
684.375	0.2972043772	-0.2138023196	
685.0	0.2986600636	0.3440515669	
685.625	0.4157690723	-0.1341780108	
686.25	0.2048366469	-0.1580449001	
686.875	0.298429224	0.06838366933	
687.5	0.334690339	-0.5069837076	
688.125	-0.04662253514	-0.2962826118	
688.75	-0.345876999	-0.3432052915	
689.375	-0.3939370948	0.472130993	
690.0	0.1670215785	0.2082969879	
690.625	0.1251165329	0.4755847069	
691.25	0.5517528271	0.1895290439	
691.875	0.2757866239	0.2196921625	
692.5	0.6930454703	0.477425554	
693.125	0.8235034146	-0.2225949126	
693.75	0.4177543501	0.03609354052	
694.375	0.6748348572	-0.357661059	
695.0	0.4539250869	-0.5066779258	
695.625	0.447250852	0.1202505309	
696.25	0.6977480936	0.3795226824	
696.875	0.1455642855	0.3986851098	
697.5	0.2324386843	0.5133233551	
698.125	0.7077857741	0.3998993128	
698.75	0.3285344467	-0.6198625185	
699.375	-0.185425433	-0.32211473	
700.0	-0.4955473795	0.4087637542	
700.625	0.277130996	0.3269203399	
701.25	0.06192233816	0.1796947286	
701.875	0.3926091957	0.4493284613	
702.5	0.3452521198	0.05190608607	
703.125	0.3239359829	0.2722629758	
703.75	0.547757664	-0.1347935165	
704.375	0.1011017046	-0.1944293972	
705.0	0.2984733738	0.05850503286	
705.625	0.4106540292	-0.1112485394	
706.25	0.1551849821	0.1728448626	
706.875	0.2589406153	0.4049058121	
707.5	0.2867909683	0.3420437265	
708.125	0.2801317703	0.1083283467	
708.75	0.2249470876	-0.3053045067	
709.375	-0.318302185	-0.3967135393	
710.0	-0.06311674292	0.4329216972	
710.625	-0.05240194263	0.2335515606	
711.25	0.3030471708	0.1474797781	
711.875	0.01211223035	0.1157372033	
712.5	0.4745109503	0.003505779561	
713.125	0.1891170443	-0.2679749938	
713.75	0.1673991521	-0.0928839093	
714.375	0.04271565884	-0.3777030021	
715.0	-0.1215047226	-0.1668344355	
715.625	0.1454892551	-0.1547281138	
716.25	0.1924916936	-0.4119022991	
716.875	0.1661176962	-0.1781816538	
717.5	0.5319770684	0.1537122617	
718.125	0.8468879307	0.09356916413	
718.75	0.4496307075	-0.1280416824	
719.375	1.081665475	-0.09351411476	
720.0	0.3325777981	-1.18763277	
720.625	-0.2000667918	-0.6961217804	
721.25	0.2197773015	-1.14817739	
721.875	-0.6512229831	-1.53191697	
722.5	-0.3662275328	-0.3393890216	
723.125	-0.9770792765	-0.4029266826	
723.75	-0.3889559509	0.626000572	
724.375	0.006574747457	0.2203024891	
725.0	0.1009179945	0.613083344	
725.625	0.4622305425	0.281059186	
726.25	-0.1864483073	0.5320962648	
726.875	-0.1690295991	1.238024532	
727.5	0.305332296	1.322418809	
728.125	-0.4755415414	1.26493774	
728.75	-0.6865054143	3.816693381	
729.375	0.5752284029	3.267188003	
730.0	-1.43688205	2.332753026	
730.625	-0.3376049572	6.407145808	
731.25	1.2521258	4.021039683	
731.875	-2.767376024	1.652047252	
732.5	-4.461042949	1.483351038	
733.125	-2.001012929	2.04716159	
733.75	-1.200649701	-0.08715110095	
734.375	1.273713626	0.7090424311	
735.0	-0.3348598692	-0.2993120031	
735.625	-0.4641404387	-0.1883824406	
736.25	0.1584259737	1.108767301	
736.875	0.3010418555	0.0460310673	
737.5	1.093209687	0.8734480016	
738.125	1.928600285	-0.884421042	
738.75	0.7078434158	-1.128961565	
739.375	2.893074411	0.4046066892	
740.0	4.318907251	-4.022889417	
740.625	-1.594889293	-1.289898546	
741.25	-1.479139527	5.719645784	
741.875	-1.523442797	4.82053115	
742.5	1.425282698	-1.343642284	
743.125	0.3063453226	-3.118510946	
743.75	-0.5538301841	-1.003292895	
744.375	-0.1048212669	-0.1642915893	
745.0	-0.007042390078	0.3242834108	
745.625	-0.1202802498	-0.03240996749	
746.25	0.06483601811	-0.2383089155	
746.875	-0.2659871112	0.1552727574	
747.5	-0.06151893547	0.2164300044	
748.125	-0.02361797446	0.6104239152	
748.75	0.4013610203	0.4320509518	
749.375	0.03805092571	0.3386221392	
750.0	-0.5076189216	0.262532335	
