!Created with skrf (http://scikit-rf.org).
# GHz S MA R 50.0 
!freq magS11 angS11
500.0 0.0138185424291 174.413182553
500.625 0.0118346150582 130.003256497
501.25 0.0103887551516 -160.261827401
501.875 0.013077712984 -113.496478561
502.5 0.0219680307578 163.167629004
503.125 0.0146498644441 119.761384759
503.75 0.0168977168237 -37.1471352993
504.375 0.0168070640965 134.943420862
505.0 0.0145561294831 -58.0125066697
505.625 0.029944798233 -81.7687751804
506.25 0.0361244259996 -104.867962669
506.875 0.0514530248371 -122.499317454
507.5 0.0367076186427 -142.107328495
508.125 0.0437354072086 -99.8495288156
508.75 0.0848662520399 -115.999987425
509.375 0.0482422415758 -170.076399938
510.0 0.024952805571 -148.415631893
510.625 0.0277964528125 -172.813958738
511.25 0.0752944820182 -168.313529801
511.875 0.0490524817148 134.313280565
512.5 0.0374792780281 100.913962185
513.125 0.0521634522695 38.2002863825
513.75 0.0697882535464 45.7928182295
514.375 0.0414531915315 21.0035209273
515.0 0.0583084449602 10.1680359237
515.625 0.0829280520709 47.9117105949
516.25 0.105719237977 30.9898515728
516.875 0.108576300159 69.1049573215
517.5 0.10438287624 17.6686400132
518.125 0.188172130111 69.1883410404
518.75 0.0806784057518 5.08800205786
519.375 0.0674957282847 19.1660924906
520.0 0.0925194212114 -5.80068486905
520.625 0.102732902425 -4.80072694361
521.25 0.0858540442986 -24.1875913231
521.875 0.0669003046371 -0.997276522767
522.5 0.0958984457135 -32.7917714277
523.125 0.178113358242 -35.7889316238
523.75 0.228470436956 -54.2624019714
524.375 0.193877477245 -60.3579997627
525.0 0.0746930485298 -40.5606685526
525.625 0.0480230776008 -24.0640397739
526.25 0.0322994088324 -32.3948088255
526.875 0.0509793179202 -23.7992879348
527.5 0.0531113593542 -29.0497576517
528.125 0.0473206542092 -57.3858198415
528.75 0.0727971185538 -72.2009220291
529.375 0.0856173172029 -112.532276542
530.0 0.0431261088678 -139.325156514
530.625 0.0487560972285 -150.757239581
531.25 0.088006876571 -129.429904678
531.875 0.164294147608 -146.162802683
532.5 0.129426841636 -174.322941914
533.125 0.10885396168 174.646969333
533.75 0.101977491894 166.992630527
534.375 0.108538303717 178.468736601
535.0 0.0936797005019 163.580230467
535.625 0.0666238689686 178.02889079
536.25 0.040814079071 159.121473639
536.875 0.0686723835215 -159.008595759
537.5 0.0915329273509 -144.392779712
538.125 0.115703412369 -175.575025077
538.75 0.08377764641 174.824373407
539.375 0.0734286344403 -163.93197858
540.0 0.0932291737429 -158.086658065
540.625 0.146980517762 -160.28786499
541.25 0.104048591628 -142.144823522
541.875 0.0902036092948 -141.480831908
542.5 0.106829919822 -141.470866724
543.125 0.152055500973 -168.984074117
543.75 0.111521581749 157.019744259
544.375 0.0939285554737 136.377521613
545.0 0.094193919697 91.4043833662
545.625 0.101669437788 83.9950319264
546.25 0.101564274071 67.1671933022
546.875 0.0869518812781 54.0647797783
547.5 0.116323858643 57.3314184989
548.125 0.131987558481 76.6562321777
548.75 0.0713518448567 87.2824198338
549.375 0.0944421701976 87.1532033471
550.0 0.0973045231943 126.04134748
550.625 0.0539120186036 154.717027335
551.25 0.0447985554544 -149.754407836
551.875 0.0646024350787 -160.271226655
552.5 0.0991597957346 -166.188278199
553.125 0.098099448523 -172.995495684
553.75 0.0829326531005 -164.228808381
554.375 0.109682199581 166.159558623
555.0 0.130691379776 162.228711409
555.625 0.097575386805 157.880202088
556.25 0.105239522393 159.522788221
556.875 0.111693182942 166.086947047
557.5 0.108823560391 167.71363429
558.125 0.0898415246759 163.485748286
558.75 0.0898920221528 176.060608195
559.375 0.0660096255176 -173.414888732
560.0 0.0439358361734 -151.121455378
560.625 0.0574866514966 -139.41352305
561.25 0.0908793668027 -153.344483403
561.875 0.103582502486 -162.931271847
562.5 0.0936651867536 173.537381031
563.125 0.107644287427 143.377229769
563.75 0.124513789248 132.711842071
564.375 0.103636254749 121.08003454
565.0 0.0831910117989 118.620595461
565.625 0.0832292015891 117.050728836
566.25 0.0953977136091 151.133085086
566.875 0.0733036338967 179.123751676
567.5 0.0687176751107 -174.649889789
568.125 0.0779166309476 -170.171598921
568.75 0.078937133036 -154.91420445
569.375 0.0436476563025 -97.4032513706
570.0 0.0607810516722 -104.801533297
570.625 0.0914288256725 -116.935418498
571.25 0.0934457067537 -124.732016013
571.875 0.0840192831318 -121.246181481
572.5 0.109773401366 -153.302165339
573.125 0.137951919488 -173.866989533
573.75 0.112673412594 157.171243062
574.375 0.0787659737887 151.06417838
575.0 0.107274519522 154.521820427
575.625 0.109311251517 155.15199141
576.25 0.0924656444637 145.038039208
576.875 0.0812161982822 130.091626111
577.5 0.0899057804157 132.348571796
578.125 0.0597394979824 160.190779883
578.75 0.0519187341333 155.751485199
579.375 0.0538233585371 163.649787123
580.0 0.0670401891376 -169.986239394
580.625 0.0773286104674 -148.357828513
581.25 0.0878384329525 -169.847335814
581.875 0.112209993816 -168.52198636
582.5 0.115448618764 -172.481282785
583.125 0.0930295081399 -169.218105519
583.75 0.0839757700152 -173.644462846
584.375 0.0997010541314 -151.250733712
585.0 0.0939996604419 -144.739640489
585.625 0.0694126332577 -143.776744669
586.25 0.0730077687498 -150.915899352
586.875 0.0787850436184 -123.751438725
587.5 0.070445517787 -138.840391244
588.125 0.0555174673837 -171.994546095
588.75 0.0668137545617 -178.064536982
589.375 0.0855430254815 -142.903396406
590.0 0.0926437333151 -167.827314855
590.625 0.103050535372 162.571952916
591.25 0.123304533966 149.631223548
591.875 0.102157844452 151.850809115
592.5 0.063214567525 147.224615053
593.125 0.0622246685024 141.081242008
593.75 0.0771273221595 161.3543168
594.375 0.0572335263154 -141.026575224
595.0 0.0440566622648 -114.527717999
595.625 0.0556034148933 -108.312321731
596.25 0.0736631159006 -89.3578250281
596.875 0.0652508611935 -81.0611923459
597.5 0.061252064679 -60.7509773906
598.125 0.0676852434233 -58.6085772424
598.75 0.0709540235654 -72.2355745486
599.375 0.0994490738524 -55.7288413417
600.0 0.104410302513 -62.2542253993
600.625 0.0992483436477 -59.0616606019
601.25 0.0847674439902 -83.6657286643
601.875 0.0695852478608 -77.7711051839
602.5 0.0598532890326 -84.281612926
603.125 0.0462349731344 -75.7407582375
603.75 0.0316375874242 -35.7208785792
604.375 0.0312224643265 -41.5155151043
605.0 0.0709625703312 -6.9920072789
605.625 0.0574708451611 -0.320959719033
606.25 0.0316215417804 29.4732091687
606.875 0.0163311619795 41.7675417446
607.5 0.0766020575362 51.360607239
608.125 0.0826502461102 33.348654284
608.75 0.0642320176169 21.3843535722
609.375 0.0515388657536 20.4562519647
610.0 0.0798798037264 50.5774171761
610.625 0.0727182945083 44.1471764883
611.25 0.0584071617979 44.5074565516
611.875 0.0292023399006 13.2856393128
612.5 0.0398522076319 111.872759848
613.125 0.0260369120787 125.890661074
613.75 0.0329211559665 127.86442076
614.375 0.0487332984207 120.962103922
615.0 0.0215186835738 105.10788247
615.625 0.0336716558913 132.335691945
616.25 0.0582062541902 132.075583847
616.875 0.0512986442101 128.531563073
617.5 0.0341688915472 123.926410099
618.125 0.0262916299191 126.908480214
618.75 0.0267347916348 142.156322189
619.375 0.0228177798333 139.826745752
620.0 0.0152037824648 161.720807338
620.625 0.0132188332972 -115.46094886
621.25 0.0456538629795 -109.350185316
621.875 0.059437220313 -107.501472758
622.5 0.07556489244 -163.333835395
623.125 0.0756608549277 170.127949825
623.75 0.0567443180982 164.672709074
624.375 0.0453829403902 -178.460278456
625.0 0.0297679218017 -120.259752945
625.625 0.0533803319408 -160.666435266
626.25 0.0351922038334 175.47090295
626.875 0.0120843403227 168.894548366
627.5 0.0501326359038 -10.7038421395
628.125 0.0367830601731 -63.7082603217
628.75 0.0322958931011 -23.9793391359
629.375 0.0425115297593 -19.3252287575
630.0 0.0740415884524 5.25726031758
630.625 0.0746728838679 -15.5374031957
631.25 0.0638687645065 -6.6378992262
631.875 0.0724553986196 -15.5296839377
632.5 0.0705025067321 12.9115735861
633.125 0.0559376539261 -19.2665538546
633.75 0.0414269406642 6.24519614241
634.375 0.0531758528144 25.8881962603
635.0 0.0344204275853 21.3600173364
635.625 0.0497000945193 48.2855798518
636.25 0.0458925373762 26.0379266877
636.875 0.0565923584181 27.0232210916
637.5 0.0441640270525 29.4144701005
638.125 0.055538627883 69.9624130788
638.75 0.0514775288053 58.6159842107
639.375 0.0901542404695 92.3404380435
640.0 0.0753322676327 103.943030696
640.625 0.0618880107838 108.602156826
641.25 0.0739598463484 126.325094972
641.875 0.0621868061492 146.651416347
642.5 0.0498946956916 154.538189369
643.125 0.0721075218034 162.611003131
643.75 0.0494418608205 151.403532654
644.375 0.0701502365523 -177.060891116
645.0 0.0717264590621 172.435433154
645.625 0.100116595711 169.110007747
646.25 0.0831695748784 156.733677045
646.875 0.070258585853 177.069780114
647.5 0.0734296178819 -174.688973667
648.125 0.0864572265179 -175.342104134
648.75 0.0869156019124 -158.615140368
649.375 0.047070013799 -152.254979023
650.0 0.0498949723102 -117.256825786
650.625 0.0629196224391 -87.978529181
651.25 0.080364172742 -65.7180119781
651.875 0.0549104706285 -43.8328669966
652.5 0.0797993790423 -22.323112124
653.125 0.10667828937 -5.33763307614
653.75 0.120429389315 6.2869992561
654.375 0.110617118894 6.11849295746
655.0 0.123484459095 11.2484968811
655.625 0.0941500960912 24.8819306034
656.25 0.0706165726928 22.9505056252
656.875 0.0612374371166 0.325943017363
657.5 0.0665733581399 20.5522685281
658.125 0.0605834503262 41.8730318771
658.75 0.0691025349592 57.4586057927
659.375 0.0617570677704 45.8624391403
660.0 0.115625699801 25.5264205057
660.625 0.116642827066 15.3748328773
661.25 0.11578622595 3.13617494097
661.875 0.131667666196 -13.9405591034
662.5 0.121270621714 -21.0428353515
663.125 0.0996483433687 -16.0483816106
663.75 0.115540109012 3.33979377002
664.375 0.0728249900068 47.235760172
665.0 0.0659901689373 93.9870139902
665.625 0.064663240933 112.225872871
666.25 0.080969495069 129.408383348
666.875 0.115986774184 170.197502664
667.5 0.10121927776 -169.810318235
668.125 0.103077901845 -179.248633394
668.75 0.138654627257 165.142248294
669.375 0.116316899181 174.798994143
670.0 0.0818139039563 -169.130367866
670.625 0.0896229505534 -171.20654109
671.25 0.127367739834 171.396789547
671.875 0.0812388331598 167.875189579
672.5 0.0758488794623 155.544120869
673.125 0.081710539254 155.251457632
673.75 0.118744450984 156.17704127
674.375 0.114859307365 168.186979139
675.0 0.123157215534 -177.548258298
675.625 0.129391974437 -150.170854471
676.25 0.120897917977 -125.509674411
676.875 0.112759710411 -120.433259109
677.5 0.129209118113 -128.367551352
678.125 0.127051701384 -117.101485592
678.75 0.0825289497507 -96.7251809854
679.375 0.0388882410963 -65.3651039252
680.0 0.0725351358157 -72.5644115561
680.625 0.110625081362 -76.2683951142
681.25 0.109384002914 -75.5641335263
681.875 0.099451631914 -91.6188673137
682.5 0.134153817399 -119.297174411
683.125 0.155521174302 -119.345701507
683.75 0.139255836688 -105.583990678
684.375 0.127856157071 -83.3836890027
685.0 0.121670057343 -35.9374095056
685.625 0.119570659146 -0.315635567144
686.25 0.101499262729 20.2276156527
686.875 0.104899897019 39.4773238914
687.5 0.0614638997104 93.8949031093
688.125 0.0784758055767 114.332085795
688.75 0.0947342359635 114.738177172
689.375 0.151855184161 112.618096786
690.0 0.13324898705 133.0161328
690.625 0.121117575496 125.222584427
691.25 0.142020385514 94.8602456293
691.875 0.189214714943 67.5237413082
692.5 0.153906758215 36.9900233306
693.125 0.0831494596959 -14.0189482544
693.75 0.0888027917417 -35.0095471546
694.375 0.124697591626 -27.6729541207
695.0 0.140673807979 4.522627524
695.625 0.0995816989593 55.0880502433
696.25 0.115958441232 110.517952915
696.875 0.142299800744 169.378209783
697.5 0.143825143057 -146.031666231
698.125 0.146362198085 -137.637653434
698.75 0.134873087659 -131.968414691
699.375 0.100606017193 -123.72754997
700.0 0.102694440063 -121.396566431
700.625 0.0991425151984 -78.1195268991
701.25 0.101268442748 -65.616433744
701.875 0.0812974977899 -61.9788629881
702.5 0.0968149474653 -89.6137625089
703.125 0.169741084702 -126.051102124
703.75 0.180068193371 -153.51198275
704.375 0.129297137145 171.781029148
705.0 0.108237382656 159.78000063
705.625 0.150835613081 178.960275408
706.25 0.128039374694 -101.308330246
706.875 0.0905732091928 -60.1649328533
707.5 0.0757386323105 -39.8762649128
708.125 0.0923104963888 7.86870963797
708.75 0.110740775102 71.3176046431
709.375 0.104676793795 105.620150771
710.0 0.103694362195 125.053185069
710.625 0.108456576522 153.77789126
711.25 0.117206064099 175.360427544
711.875 0.144239187608 171.658391006
712.5 0.142058662449 145.99734478
713.125 0.134523385748 91.5955855486
713.75 0.0980769002345 46.896800321
714.375 0.109588205408 22.5579574361
715.0 0.118046336834 23.8405047049
715.625 0.0852557384831 49.3780848334
716.25 0.072757586805 62.4143396357
716.875 0.130734875984 116.833895942
717.5 0.144922108099 147.672122299
718.125 0.118034559703 158.401738618
718.75 0.101062588538 165.721285017
719.375 0.111442455471 179.193603365
720.0 0.13750166117 -120.780858789
720.625 0.115860706842 -70.7743361738
721.25 0.0965260696601 -25.447758848
721.875 0.0867862708521 52.0333066916
722.5 0.0759155755668 74.7852654664
723.125 0.0834488423761 82.3186599864
723.75 0.100831969847 32.1448627606
724.375 0.100989908767 -9.66122802576
725.0 0.094524629703 -41.4256326546
725.625 0.108160930535 -62.5141389555
726.25 0.115535930428 -62.5642471476
726.875 0.0963996917824 -66.3764038802
727.5 0.0913161487216 -18.1793678014
728.125 0.0826911421846 -0.806642848872
728.75 0.0728507442796 13.8379692533
729.375 0.0746867831798 7.76044376663
730.0 0.0594367607346 -7.42441751778
730.625 0.0695996370517 28.2081356321
731.25 0.0834065891714 68.3300579604
731.875 0.0700175823355 110.380442119
732.5 0.0524398886735 138.712798141
733.125 0.113596053337 -172.593331626
733.75 0.0900253060709 178.971904234
734.375 0.0600237094281 159.098168122
735.0 0.0510969428161 153.04284513
735.625 0.0478484831158 142.319611665
736.25 0.0400651115046 136.666954361
736.875 0.051032606372 165.861157477
737.5 0.0551617873094 -176.895190496
738.125 0.108401130258 -173.238236174
738.75 0.0888799454147 -172.149765383
739.375 0.0500493265947 -175.660984506
740.0 0.0103160201157 -81.7427038294
740.625 0.0872911788076 -147.96652427
741.25 0.0554974723375 -157.167826651
741.875 0.0233659393827 -95.8369607817
742.5 0.0353619736565 -21.4859514382
743.125 0.047334708584 48.2056071517
743.75 0.0348504671286 87.877653322
744.375 0.0475021314818 108.757139547
745.0 0.0564004292868 175.235843106
745.625 0.0935148416512 95.299437487
746.25 0.075196586692 81.1468709709
746.875 0.0603380713354 44.6956161404
747.5 0.0401748334462 0.600606362546
748.125 0.0112862031605 47.6855816117
748.75 0.0461478594921 -31.3210803023
749.375 0.0277945716121 -47.0622904636
750.0 0.0455590694849 -97.9147204171
