!Created with skrf (http://scikit-rf.org).
# GHz S RI R (50+0j) 
!freq	ReS11	ImS11	
500.0	0.03361499076	-4.301766683	
500.625	-0.5681491854	-2.852857764	
501.25	-0.12618125	-1.98248548	
501.875	-1.999622691	-1.818206953	
502.5	-0.1662032536	-0.0956543734	
503.125	-0.3467134323	-0.02706155847	
503.75	0.2396231072	0.09301678686	
504.375	0.1091824955	0.07616762722	
505.0	-0.05029333789	-0.1780753373	
505.625	0.2212945087	0.01130904768	
506.25	-0.6440462583	-0.3548344263	
506.875	0.4721126343	0.2866470331	
507.5	0.3876182934	-1.950602791	
508.125	-1.356471907	-2.322421492	
508.75	1.682155866	-0.88031424	
509.375	-2.840586086	-6.150906628	
510.0	-1.034118798	0.26885908	
510.625	-0.3277690135	-0.8861660582	
511.25	-0.4963564573	0.2654800921	
511.875	-0.3576803161	-0.2123450285	
512.5	-0.09692952558	0.1377628442	
513.125	-0.07107811104	-0.3738133525	
513.75	-0.1750081065	0.08456814313	
514.375	-0.2865025111	-0.4605377151	
515.0	-0.4717790462	0.9444128297	
515.625	0.4141052458	-3.778377151	
516.25	-2.221210496	0.08389443107	
516.875	0.9094819327	-1.382015687	
517.5	-0.9000122799	-0.9793287882	
518.125	0.2980088891	0.08080706174	
518.75	-0.5788523081	-0.7515216686	
519.375	-0.03887480167	0.1335930422	
520.0	0.2501830848	0.2930839793	
520.625	0.548935685	-0.4089639244	
521.25	-0.1988708029	-0.427482607	
521.875	-0.3431523873	-0.2650805522	
522.5	-0.04663333992	0.1868297362	
523.125	-0.368212324	0.04857762098	
523.75	-0.08232001673	-0.02229568199	
524.375	-0.6609357838	0.006910070612	
525.0	0.2787648562	0.2769386728	
525.625	-0.1342510226	0.1298877545	
526.25	0.1864657359	-0.09450027623	
526.875	-0.3696426209	0.2337255841	
527.5	0.2424285199	0.5084709328	
528.125	-0.2523450105	0.5733126047	
528.75	0.2453388806	1.083849351	
529.375	-0.03938338916	-0.009563103531	
530.0	0.4364246786	0.6121922432	
530.625	0.0825931344	0.5810041813	
531.25	1.590116762	0.4403087606	
531.875	0.07706450247	-0.4070251462	
532.5	0.03463595148	-0.4949813654	
533.125	-0.2237483593	0.3645429651	
533.75	0.4337897047	-0.9742851431	
534.375	-0.4483632529	-0.1986870587	
535.0	-0.526186084	-0.6309669931	
535.625	-0.39467097	0.6694565108	
536.25	-0.01927337712	0.1126920051	
536.875	0.3196102958	0.1398282012	
537.5	0.08850492933	-0.2012337187	
538.125	0.3558285358	0.05454708686	
538.75	0.261194514	-0.5268105433	
539.375	-0.07772240901	-0.2321920512	
540.0	-0.3719223879	-0.5491529186	
540.625	-0.4801561502	0.09875137161	
541.25	-0.1404382236	0.01787080581	
541.875	-0.06769361746	-0.1349493106	
542.5	-0.2334869363	-0.06747264636	
543.125	-0.02990842733	-0.1146477595	
543.75	-0.3719978912	-0.01258040014	
544.375	0.06056717838	0.05480803497	
545.0	-0.1227410344	0.2501940545	
545.625	0.2596785272	-0.06309221449	
546.25	0.0351980202	0.3112398308	
546.875	0.473459477	-0.2909945874	
547.5	0.03184505623	-0.1053194872	
548.125	0.07262829846	-0.5119063555	
548.75	-0.4996423255	-0.2257290995	
549.375	-0.08051045945	-0.09303970224	
550.0	-0.3366303449	-0.04325140504	
550.625	0.0175527121	0.06896205752	
551.25	-0.3110129156	-0.01033549875	
551.875	-0.08974964108	0.2867677107	
552.5	-0.1164110044	0.09565483205	
553.125	-0.06733648799	0.1955920088	
553.75	0.12933534	0.09023709348	
554.375	0.2204324606	0.02990689352	
555.0	0.2470197191	-0.1848525878	
555.625	0.1946058093	-0.2471627351	
556.25	0.1710473224	-0.3445009837	
556.875	-0.08614659949	-0.3999446904	
557.5	-0.2410036063	-0.241485191	
558.125	-0.2640165614	-0.1000119973	
558.75	-0.2802657459	-0.02114570543	
559.375	-0.2553760031	0.08227175391	
560.0	-0.2107887068	0.1327871012	
560.625	-0.1660858257	0.3034662702	
561.25	0.09998854203	0.2021169289	
561.875	-0.01376555687	0.1629101936	
562.5	0.1092375265	0.04043178811	
563.125	0.07883603638	0.2712238996	
563.75	0.442756522	-0.07795678966	
564.375	0.1191696967	-0.1911068172	
565.0	0.322579578	-0.2860883614	
565.625	-0.1634936593	-0.4586382858	
566.25	-0.2398031416	-0.1156204629	
566.875	-0.2529609947	-0.3211142609	
567.5	-0.5155594034	-0.2043766533	
568.125	-0.1280163299	-0.3014607921	
568.75	-0.7122453113	-0.3046025568	
569.375	-0.394021873	0.3543756702	
570.0	-0.4253160768	0.2343261806	
570.625	-0.2270649746	0.7567182444	
571.25	0.2065577205	-0.007189902783	
571.875	-0.02224803155	0.503147439	
572.5	0.3220145369	-0.3669688265	
573.125	0.1788587976	0.08694980745	
573.75	0.3296931324	-0.5361631529	
574.375	-0.2543740674	-0.0672306275	
575.0	0.3929619985	-0.06594170681	
575.625	-0.2170344455	-0.2885260421	
576.25	0.2815546153	0.05735947969	
576.875	0.006625829335	-0.6302209145	
577.5	-0.260013847	-0.2771225345	
578.125	0.1424061582	-0.2693604422	
578.75	-0.2497861686	-0.5337369664	
579.375	-0.3155577322	0.06287535021	
580.0	0.09622598699	-0.1727039032	
580.625	-0.4202218486	0.01362670798	
581.25	0.03872258394	0.05438009455	
581.875	-0.3626129899	0.3980562625	
582.5	0.4642900439	0.5882882638	
583.125	0.07019683116	-0.2362039	
583.75	0.09449597914	0.5585373122	
584.375	-0.01158320812	-0.3718123137	
585.0	0.3103878837	0.5791962982	
585.625	0.4267414622	-0.3822460776	
586.25	0.07498303074	0.165529246	
586.875	0.472897597	-0.5222253778	
587.5	-0.3358349935	-0.2698409882	
588.125	0.1663222827	-0.1164490879	
588.75	0.2309718425	-0.578899114	
589.375	-0.08918177337	-0.3507262198	
590.0	0.09461644646	-0.3478966237	
590.625	-0.6217503245	-0.1302294047	
591.25	-0.1672388051	0.1730900596	
591.875	-0.2518974742	0.2778170911	
592.5	0.1886352849	0.1639032417	
593.125	-0.2737790156	0.07353024431	
593.75	0.2774699251	0.3882740571	
594.375	0.3271176822	-0.05309245828	
595.0	0.02838170876	0.4123504595	
595.625	0.8741946628	0.3852799465	
596.25	0.0291312988	-0.1721847327	
596.875	0.5050504838	0.4719776953	
597.5	0.4889599104	-0.1265724019	
598.125	-0.01328415073	0.5466893268	
598.75	0.7910896094	0.08269581519	
599.375	0.182372558	-0.01501854951	
600.0	0.6283427939	-0.1819217282	
600.625	0.3908576157	-0.6022649246	
601.25	0.002736843145	-0.3062269709	
601.875	-0.07854664259	-0.3605038614	
602.5	-0.3184579536	-0.1059859448	
603.125	-0.259508174	0.1986234525	
603.75	-0.2004981909	0.08580673927	
604.375	-0.3338222455	0.2055948373	
605.0	-0.05568985108	0.1761306365	
605.625	-0.3089866778	0.04623585921	
606.25	-0.1248647735	0.3093331909	
606.875	-0.3539616416	-0.1383726461	
607.5	-0.6675096304	0.8242926687	
608.125	0.1782914603	0.1879332734	
608.75	0.1477594556	0.7421172784	
609.375	0.7382761689	-0.3607947331	
610.0	0.2155501733	0.02700830858	
610.625	0.3842721033	-0.6319220972	
611.25	-0.1639637404	-0.1800504247	
611.875	-0.02247154569	-0.5428317601	
612.5	-0.412612948	0.151116589	
613.125	-0.3979920115	-0.1218205188	
613.75	-0.2378565707	0.4792749892	
614.375	-0.03650226191	-0.08235729968	
615.0	0.3127406365	0.3062910845	
615.625	-0.1480750546	-0.03772926748	
616.25	-0.2578943858	0.6276034729	
616.875	0.2138622474	0.3439360935	
617.5	-0.5097214708	0.3724222304	
618.125	0.1033023175	0.7312071619	
618.75	0.05514440628	0.1945162244	
619.375	0.1694234014	0.6331627117	
620.0	0.4016285895	-0.0598476358	
620.625	0.3791942734	-0.2275346106	
621.25	-0.3061603316	-0.4620686578	
621.875	-0.3378616731	-0.2779108057	
622.5	-0.5957041806	0.2205952563	
623.125	-0.08267321955	0.2915357169	
623.75	0.3960508803	0.3153488396	
624.375	-0.1984909541	-0.2893508296	
625.0	0.4290673408	0.0622596871	
625.625	-0.296473998	-0.2479445715	
626.25	0.2854769875	-0.3255941923	
626.875	-0.6273458058	-0.2649585947	
627.5	-0.06481042337	0.1150764681	
628.125	-0.3350982661	-0.5636994871	
628.75	-0.3138401577	0.00142208143	
629.375	0.0551111471	-0.4199342435	
630.0	-0.6099380508	-0.3267884573	
630.625	-0.4146589037	0.3512972058	
631.25	-0.3292235012	0.2414291979	
631.875	-0.1371818295	0.6596054747	
632.5	0.3697477105	0.482449561	
633.125	0.4196695936	0.04530920405	
633.75	0.4769762875	-0.01837858587	
634.375	0.01721444803	-0.3317005919	
635.0	0.1124113924	-0.3195998772	
635.625	-0.4507957633	-0.2596530753	
636.25	-0.1195675193	0.2174548964	
636.875	-0.5200410177	0.09635921577	
637.5	0.1040018729	0.5561917665	
638.125	-0.0678284805	-0.2768829149	
638.75	-0.4835209226	0.6724681549	
639.375	0.3449008783	0.5747025134	
640.0	-0.04069987099	0.3734773077	
640.625	0.7971037254	0.5929697294	
641.25	0.4089628924	-0.2719979359	
641.875	0.6696517401	-0.07155706636	
642.5	-0.3822756104	-0.8099174791	
643.125	-0.07049207528	0.02314849632	
643.75	-0.2464720624	-0.5835818193	
644.375	-0.5922798957	0.2694637947	
645.0	-0.04297956215	0.2598393305	
645.625	-0.3147453659	0.4930047486	
646.25	0.750886372	0.1997894763	
646.875	-0.08452237494	-0.1826503262	
647.5	0.472919649	0.3572318181	
648.125	-0.1488338426	-0.1655451835	
648.75	0.9920219782	0.2159632407	
649.375	0.4209968519	-1.054863873	
650.0	-0.0790144434	-0.2333768732	
650.625	1.145681975	-0.452479141	
651.25	0.2213916355	-1.361177427	
651.875	0.06650314568	0.08272613353	
652.5	1.219418397	0.008658993351	
653.125	0.4169652451	-0.7476629776	
653.75	0.455830153	0.06105767025	
654.375	-0.2192100572	-1.180352	
655.0	-0.663891807	0.1864032215	
655.625	-0.3510959168	-0.1089560969	
656.25	-0.1195973319	0.8924642048	
656.875	0.3448916237	-0.3088011614	
657.5	-0.127588124	0.5869750984	
658.125	0.57910493	0.2878562429	
658.75	0.4112805175	0.02553491511	
659.375	1.042523233	0.06945702625	
660.0	0.3519730307	-1.114790618	
660.625	0.1719438795	-0.3609303816	
661.25	0.8023943539	-0.6230974766	
661.875	0.3876902121	-1.167879961	
662.5	0.06225398472	-0.01840441766	
663.125	1.263832333	-0.4337670817	
663.75	-0.1109526761	-0.8606222557	
664.375	0.3237744745	-0.4248066979	
665.0	-1.07472222	-0.7749656448	
665.625	-0.242666281	0.3236857276	
666.25	-0.6164575863	0.4548606471	
666.875	0.4559802329	0.7188863871	
667.5	0.3605955845	-0.1300443151	
668.125	0.4613185976	0.4012979391	
668.75	0.5600934449	-0.6318141104	
669.375	0.0505549645	-0.3728646948	
670.0	0.2628501534	-0.4936913743	
670.625	-0.2284077642	-0.6103599611	
671.25	0.2604595158	-0.12871667	
671.875	0.4060249635	-0.5705826411	
672.5	0.3101120191	-0.4866951513	
673.125	0.2765545539	-0.09860296729	
673.75	0.9178381627	-0.5256846446	
674.375	-0.4144065233	-0.8640536284	
675.0	0.2550542339	-0.1410802911	
675.625	-0.6788237435	-0.7598772601	
676.25	-0.3424843221	0.5565926342	
676.875	-0.3659985342	-0.6594526983	
677.5	-0.3912852007	0.6747825771	
678.125	-0.2121985967	-0.1904743498	
678.75	-0.1858752439	1.024651014	
679.375	0.7472276931	-0.2405234408	
680.0	0.002547626631	0.04706672377	
680.625	0.4964532418	-0.07795945312	
681.25	0.1425062472	-0.3423049098	
681.875	0.04674342364	0.3279836586	
682.5	0.801945956	0.3309420697	
683.125	0.4347119853	0.0126999262	
683.75	0.4431754851	0.2230232511	
684.375	0.9819485079	0.2356919368	
685.0	0.3984167909	-0.3394046343	
685.625	0.5678116469	0.6382061649	
686.25	1.269761561	-0.5250033671	
686.875	-0.1869130898	-0.2959076352	
687.5	1.479249869	-0.230371757	
688.125	-1.05290209	-1.503702729	
688.75	-0.02350121537	-0.4425578191	
689.375	-1.435187364	1.154006417	
690.0	0.7438202147	0.335139113	
690.625	-0.03908403881	1.134827851	
691.25	1.234101546	0.2859608787	
691.875	0.6235976901	0.6936610943	
692.5	1.391231071	0.7038885423	
693.125	1.691706588	-0.1717926871	
693.75	1.286328021	-0.4491229286	
694.375	0.8962909862	-0.9602574874	
695.0	1.04424625	-0.342340315	
695.625	1.406081332	-0.5904156254	
696.25	0.7767909315	0.3963982558	
696.875	1.264389663	1.472994981	
697.5	1.113607431	0.4023295777	
698.125	1.067218294	1.212841736	
698.75	1.349609097	-1.720544315	
699.375	-0.5823171908	-0.1393357345	
700.0	-1.625007	0.7910116104	
700.625	0.8414028332	0.4936482093	
701.25	0.002406053046	0.6329643515	
701.875	1.142393836	0.49775022	
702.5	0.2531242392	0.5303443518	
703.125	1.260150823	0.5264545033	
703.75	0.6459498886	-0.5293806338	
704.375	0.9807422369	-0.04389929272	
705.0	0.4571662112	-0.7670443913	
705.625	0.1256540764	0.3724766888	
706.25	1.271874831	0.670760833	
706.875	0.3031819834	0.0869603292	
707.5	0.4558964565	1.258889087	
708.125	1.495313828	-0.1358050836	
708.75	0.5997983109	-0.2893046369	
709.375	-0.8611102687	-1.186829316	
710.0	-0.1300694141	0.663331491	
710.625	-0.1771016879	0.4573385787	
711.25	0.4078133718	0.2635820434	
711.875	0.4284623948	0.2972698156	
712.5	0.7753845199	-0.03912402948	
713.125	0.6350572016	-0.1572551429	
713.75	0.4096696137	-0.8806750331	
714.375	-0.1573222601	-0.231258289	
715.0	0.2301969498	-0.8629242416	
715.625	-0.4343536338	-0.3285846791	
716.25	0.8245353892	-0.1024247278	
716.875	1.264222712	-1.335502335	
717.5	-0.1314240684	-0.08133158649	
718.125	2.673526712	1.175203523	
718.75	2.259699208	-1.914464787	
719.375	0.5020269271	0.3069216875	
720.0	3.249965052	-3.793379117	
720.625	-0.9320483273	-1.640428273	
721.25	0.7786544005	-2.595484663	
721.875	-0.7014416385	-3.429750984	
722.5	-1.687250282	-0.871047893	
723.125	-1.612115902	-1.186090982	
723.75	-1.128361119	1.573902377	
724.375	0.2784383419	0.8320579455	
725.0	0.1718116372	0.7456123327	
725.625	0.4569351692	1.716616368	
726.25	0.8706959693	1.073036889	
726.875	-1.096912167	1.995198531	
727.5	-0.3593934646	5.07745731	
728.125	2.543312111	2.691573368	
728.75	-6.665119127	5.665455976	
729.375	3.536198439	15.12140099	
730.0	1.920305397	1.679624484	
730.625	-12.1783258	14.69320866	
731.25	8.169925835	17.06217523	
731.875	-4.936422428	-1.043825325	
732.5	-13.80436204	2.188722506	
733.125	-6.446068817	3.694097052	
733.75	-2.0121977	0.6649255128	
734.375	3.56244758	1.802873204	
735.0	-0.4782961421	-0.7848666487	
735.625	-0.8340482046	-0.3475770246	
736.25	-0.4216111999	2.201828479	
736.875	1.904415443	0.488185876	
737.5	0.9347136534	1.038494694	
738.125	5.926953048	-0.05731106995	
738.75	4.028666757	-6.721431071	
739.375	0.02387489706	1.540544613	
740.0	18.29673513	-4.309602615	
740.625	-4.684546527	-18.29412736	
741.25	-11.9753239	16.45622398	
741.875	6.031876207	15.20902533	
742.5	10.6227374	-3.395361643	
743.125	1.965398358	-11.87509248	
743.75	-3.403472558	-2.699373753	
744.375	-0.1554536785	-0.004117471542	
745.0	-0.1663127689	0.7167555286	
745.625	-0.241775797	-0.1124328119	
746.25	0.1108260298	-0.5669791575	
746.875	-0.6277692293	0.1852090972	
747.5	-0.2186413874	0.6488627915	
748.125	0.1624512305	2.130123613	
748.75	1.006507205	1.048019776	
749.375	-0.2875671197	0.6839209463	
750.0	-1.138665225	0.3024680739	
