!Created with skrf (http://scikit-rf.org).
# GHz S MA R 50.0 
!freq magS11 angS11
500.0 0.017671576044 176.940419282
500.625 0.0106632620431 52.9281760013
501.25 0.00546148489909 -76.4396985289
501.875 0.0387336977467 -171.75434727
502.5 0.0389070136163 161.983945617
503.125 0.0143957068269 86.1376107475
503.75 0.0137121955852 -25.0246989914
504.375 0.00427830414252 -54.3195956431
505.0 0.0080158900898 -12.1220000265
505.625 0.026066562252 -71.5877434133
506.25 0.0574694440459 -105.56996148
506.875 0.0572106003046 -120.095310975
507.5 0.0547939490564 -108.801629955
508.125 0.055864077013 -88.9107654658
508.75 0.0659088977122 -131.173237816
509.375 0.0547674215615 -141.770525078
510.0 0.043354375567 -117.510312189
510.625 0.0374587485023 -158.905941806
511.25 0.0683522680012 -171.311632666
511.875 0.0504017042924 136.285253232
512.5 0.0363076638603 99.1152183953
513.125 0.0539961917431 45.8223576864
513.75 0.058533324857 33.1621437687
514.375 0.0383644148973 12.3776015639
515.0 0.0434990185964 -4.5214960253
515.625 0.113827799205 47.330567533
516.25 0.0768016581741 21.9119536604
516.875 0.103545670096 68.7768718356
517.5 0.136870424788 21.1414088651
518.125 0.227560286394 72.6323278942
518.75 0.0756743594854 -1.27227138642
519.375 0.0605556360391 17.0908696344
520.0 0.0940631179587 -4.32900853683
520.625 0.120449828767 -4.7624148291
521.25 0.0715760903656 -36.6309612323
521.875 0.0650372673922 -2.07168473475
522.5 0.0944290538896 -38.430871957
523.125 0.201409826316 -33.5236427606
523.75 0.214315032255 -60.7334350479
524.375 0.219596338751 -53.4541626884
525.0 0.0702245041811 -55.3419973932
525.625 0.0476027001155 -26.7665818982
526.25 0.0449993412189 -13.7598838956
526.875 0.0565943128067 -20.5852799271
527.5 0.0472498161753 -32.4454412264
528.125 0.0517911562583 -59.7463600921
528.75 0.0452468785128 -83.0405507345
529.375 0.0822403494169 -117.899638591
530.0 0.0512237328126 -134.844311346
530.625 0.0396117866329 -150.441795017
531.25 0.11976989868 -138.842071056
531.875 0.180304438946 -149.408109091
532.5 0.142429149439 -172.64149503
533.125 0.114086504781 172.057082657
533.75 0.098186384671 165.155553104
534.375 0.104484238693 176.422675558
535.0 0.0818739877724 156.526763067
535.625 0.0772301858822 174.611182455
536.25 0.060366251682 159.95566985
536.875 0.0907155429206 -165.008502551
537.5 0.0999075903626 -146.083699017
538.125 0.105595041587 -176.214486698
538.75 0.104315791125 176.7631428
539.375 0.0823089092559 -164.712916721
540.0 0.0906841899864 -157.451300084
540.625 0.138890291567 -161.34123327
541.25 0.130484035554 -145.303702721
541.875 0.106350875157 -147.959284297
542.5 0.112736274547 -145.722665378
543.125 0.148654094206 -170.356945061
543.75 0.13162420581 157.50382326
544.375 0.0923153769047 134.6397684
545.0 0.0813278011796 88.2107388586
545.625 0.115660343521 78.6719717575
546.25 0.0818135053129 63.1657398127
546.875 0.0881389804601 53.0254068276
547.5 0.111332516244 55.4365800247
548.125 0.130369146975 75.1759246283
548.75 0.0919315389382 87.4594749905
549.375 0.0935676460906 86.4298357675
550.0 0.0812439250319 120.191916359
550.625 0.0626267372837 146.784218878
551.25 0.0313371404424 -125.831432705
551.875 0.0600918075853 -157.512230754
552.5 0.109947699315 -168.100300309
553.125 0.0980603928286 -174.230095681
553.75 0.0866742471818 -171.417257321
554.375 0.102210661082 168.045385468
555.0 0.124593356699 161.110343633
555.625 0.105512334094 153.576259659
556.25 0.0952091159271 161.877578163
556.875 0.119326158412 163.249715783
557.5 0.122971921784 163.411333097
558.125 0.0997835398876 162.710564118
558.75 0.07329180851 178.237579023
559.375 0.0606618849363 -173.5540894
560.0 0.044800592496 -151.658759588
560.625 0.0601604882891 -150.802158958
561.25 0.078672532134 -144.176832815
561.875 0.0999691458312 -161.817598836
562.5 0.0911690751007 170.614414075
563.125 0.110354445178 139.006712825
563.75 0.119821837081 131.583308006
564.375 0.102239799973 120.438505354
565.0 0.0885783989251 117.863984068
565.625 0.0913921784726 109.779763313
566.25 0.0777639081666 157.497968936
566.875 0.0757546914751 177.803468288
567.5 0.0795701649907 174.868502686
568.125 0.0856562335793 -176.154206396
568.75 0.0781908725805 -156.768502586
569.375 0.0486737411958 -115.992847809
570.0 0.0608016347368 -116.081725292
570.625 0.0937267820069 -125.335708992
571.25 0.0853361792713 -117.615531427
571.875 0.0872745199585 -131.349437083
572.5 0.113849422988 -163.521863101
573.125 0.145178745732 -179.109378265
573.75 0.112129391102 156.949264138
574.375 0.0833753244787 146.374409536
575.0 0.102549855713 150.975143755
575.625 0.115579845731 147.63198592
576.25 0.0810198885695 150.509623219
576.875 0.0810951498035 131.272930886
577.5 0.0781439113071 134.573044817
578.125 0.0677232827067 149.248808292
578.75 0.0448450514986 166.036846402
579.375 0.0544576897051 159.715730091
580.0 0.0700921749193 170.541223332
580.625 0.0772876402998 -157.011155272
581.25 0.0891783337431 -166.198753396
581.875 0.114054763293 179.930011372
582.5 0.120805167005 179.452260404
583.125 0.0956375192835 -171.87726607
583.75 0.0841796196752 -176.386001501
584.375 0.100742225402 -157.475445078
585.0 0.0927916012757 -141.124811097
585.625 0.073295613821 -149.979591088
586.25 0.0728485740381 -151.103174037
586.875 0.0822391842285 -140.844396263
587.5 0.0763904582005 -151.105427407
588.125 0.060238011904 -178.795254488
588.75 0.0675945653232 179.162682963
589.375 0.0834914169598 -155.51458161
590.0 0.0948871589965 -165.09141829
590.625 0.104267667038 163.075825914
591.25 0.12352980495 142.480030251
591.875 0.0906221577396 165.239494875
592.5 0.0634247987538 147.878939177
593.125 0.0558983622854 146.784255442
593.75 0.0738741180242 154.03628059
594.375 0.0603915914887 -147.196452227
595.0 0.0451211853067 -117.672907752
595.625 0.0618585780651 -99.2677782108
596.25 0.0685311847322 -103.912728813
596.875 0.0713360504607 -63.7668297989
597.5 0.0619224505533 -61.7462762204
598.125 0.0648893380476 -65.1040622507
598.75 0.0785417342793 -65.8548874527
599.375 0.0875134433172 -67.5715155711
600.0 0.101422952951 -71.2731749008
600.625 0.101460156355 -68.5810285142
601.25 0.0858639236556 -87.1456147977
601.875 0.0698877591182 -85.1580367145
602.5 0.0677277300423 -76.1721616947
603.125 0.046823930094 -52.214977789
603.75 0.026459343479 -69.4727863294
604.375 0.0392324955684 -28.9127157254
605.0 0.0559237975952 -27.8302323863
605.625 0.0521877074162 -18.5532950443
606.25 0.0260055658226 4.29337949886
606.875 0.021039657247 40.5670756156
607.5 0.0680644894383 41.207062879
608.125 0.0547237314933 18.1230761314
608.75 0.0450890189736 7.97266075958
609.375 0.0663650822335 28.9805699308
610.0 0.0712174369959 39.0038897279
610.625 0.0616375249186 27.372117133
611.25 0.0545053946204 28.8619397567
611.875 0.0336700649507 32.4870901559
612.5 0.0222722831909 88.0552517707
613.125 0.0401429442074 121.043581611
613.75 0.0473381781539 124.355692008
614.375 0.0218785663197 115.017010558
615.0 0.0585442946091 123.043806577
615.625 0.0405754606203 126.463480828
616.25 0.0442195991278 143.21172621
616.875 0.0271860592624 127.065614284
617.5 0.0598656457367 127.394235133
618.125 0.0440885468544 127.952193039
618.75 0.0358310768652 149.783175942
619.375 0.00224000400896 -24.1167619238
620.0 0.0197288281356 141.651221681
620.625 0.0093511547227 -144.427742852
621.25 0.0393301147731 -98.2109708846
621.875 0.0684301528339 -91.6826494913
622.5 0.0872014890847 176.101789303
623.125 0.0759076932735 166.771030003
623.75 0.0717295910192 167.318009726
624.375 0.0324440277237 -149.13174777
625.0 0.0492517953853 -146.595772227
625.625 0.0382162240951 -149.930038163
626.25 0.0146434624191 158.458057368
626.875 0.00462202464916 58.7941073838
627.5 0.0363634331567 -17.8317610555
628.125 0.033558054845 -28.6786207142
628.75 0.0338557793891 -17.2653571819
629.375 0.0442536267436 -8.11908895321
630.0 0.0850661439328 6.34067262678
630.625 0.0763111520373 4.81481427088
631.25 0.0737042432679 2.97390126224
631.875 0.0669198093307 -5.47764441545
632.5 0.066012297269 2.52530848783
633.125 0.0502551846633 -0.615383601421
633.75 0.0409385636428 -18.4138146594
634.375 0.0449204630197 4.37474623871
635.0 0.0520441147039 36.9638996269
635.625 0.0316624148521 28.1367899645
636.25 0.0553223061353 36.5795678981
636.875 0.0686056402223 42.2529971635
637.5 0.0440678213225 42.9647339125
638.125 0.0534648905074 68.2259801313
638.75 0.0742445401599 75.8087162072
639.375 0.0819080967748 84.1981889421
640.0 0.0689111112791 100.922568498
640.625 0.0675103039861 108.619090974
641.25 0.0497202652396 90.9631403848
641.875 0.0588510251838 140.822243878
642.5 0.0578311750149 158.543965586
643.125 0.0627250070822 155.624830619
643.75 0.0679840690769 169.283323178
644.375 0.0789136859657 -173.035941464
645.0 0.0779803515609 178.238097002
645.625 0.107232751545 167.205227169
646.25 0.0810859696233 152.807207691
646.875 0.0630642230293 167.919269677
647.5 0.058893624147 173.667916797
648.125 0.103040114324 -177.639230455
648.75 0.0665937188583 -177.495269881
649.375 0.0480372960298 -156.787268539
650.0 0.0429654479601 -131.333923735
650.625 0.0743444981405 -92.0387803588
651.25 0.0654634014542 -70.4702560247
651.875 0.0658354988813 -46.0631499465
652.5 0.0957532635459 -26.3771363365
653.125 0.121070300369 -4.20452541188
653.75 0.098903377683 0.36886160578
654.375 0.0987253090356 4.4517056096
655.0 0.116156617564 7.56052971093
655.625 0.115877526878 24.7552620832
656.25 0.0582267499516 13.9086599726
656.875 0.068007497065 2.10780665744
657.5 0.0901751856146 19.7165536391
658.125 0.0718107817449 44.0442364109
658.75 0.0673442259188 55.2961583023
659.375 0.0794284122374 35.1166589842
660.0 0.102513577214 24.4274743966
660.625 0.110095232714 15.0703898648
661.25 0.119795507584 -0.653924795645
661.875 0.0978006151011 -17.2358480091
662.5 0.119184744058 -24.8259040746
663.125 0.111930255336 -18.0442303277
663.75 0.113731695556 1.22120558808
664.375 0.100877775647 50.2684350484
665.0 0.0811525035564 85.5967734909
665.625 0.0762783255628 105.136637703
666.25 0.057518351088 132.780143266
666.875 0.0992217524915 169.670904969
667.5 0.0920478874128 -174.009882015
668.125 0.110732540399 174.586421303
668.75 0.10346752824 166.964148773
669.375 0.1310856399 172.102443912
670.0 0.090629230785 -176.034361239
670.625 0.0946923641586 -177.615430732
671.25 0.119581827253 169.869570023
671.875 0.108360292232 163.989954521
672.5 0.0794362424649 152.510394003
673.125 0.0874722516786 145.923211679
673.75 0.0903626314171 161.14413
674.375 0.108785485924 168.378470813
675.0 0.105255539951 -177.931446464
675.625 0.140570711888 -156.669557278
676.25 0.106581705767 -125.509896778
676.875 0.1143939712 -122.543383249
677.5 0.119858203749 -132.440192947
678.125 0.140813582763 -122.015697401
678.75 0.082740984929 -99.4242014596
679.375 0.0541218266919 -81.6268132519
680.0 0.0827749671689 -88.8495493111
680.625 0.122189200393 -82.2384842084
681.25 0.115749657684 -82.3182076387
681.875 0.0906030707305 -87.8914322558
682.5 0.133731434018 -122.064053374
683.125 0.170407581504 -128.192863647
683.75 0.148053989037 -110.185093484
684.375 0.125807233379 -84.2097979504
685.0 0.127811932957 -42.4652278649
685.625 0.14159413444 -7.89977919648
686.25 0.112584533592 17.3041656383
686.875 0.103839653645 36.7190144975
687.5 0.0774132131341 76.2696570268
688.125 0.0836867524252 100.576824026
688.75 0.101682731679 108.616628092
689.375 0.148345877643 109.763262601
690.0 0.122068611047 136.159007656
690.625 0.117222214918 126.796539388
691.25 0.139586547572 95.4947217424
691.875 0.203939026833 58.6686244417
692.5 0.123219392455 40.2605321673
693.125 0.0921070117377 -19.0420211156
693.75 0.101763357191 -47.7737689807
694.375 0.13649419856 -35.3302784932
695.0 0.142089500869 1.95049916267
695.625 0.093869184881 61.4014558861
696.25 0.11239105611 115.099467252
696.875 0.133927395079 171.573664141
697.5 0.14740232515 -152.24390278
698.125 0.133339692726 -133.650368777
698.75 0.129368106317 -131.006174172
699.375 0.112470038443 -129.479337536
700.0 0.102548234318 -123.210232081
700.625 0.112957953802 -96.2771362005
701.25 0.0985043644213 -63.7745343979
701.875 0.0831615517666 -63.8790342469
702.5 0.0965632811572 -94.8641473184
703.125 0.163372085384 -114.109757388
703.75 0.187817961814 -157.217498313
704.375 0.128586517965 169.429894737
705.0 0.110988621404 153.203639725
705.625 0.149994028335 177.416459322
706.25 0.14548050444 -118.082712115
706.875 0.0981819631196 -69.5522585581
707.5 0.0776510151989 -41.3314229253
708.125 0.0926152187092 -0.669865662094
708.75 0.110564511587 66.3623971805
709.375 0.106564848032 103.972737581
710.0 0.100983695603 132.696276421
710.625 0.10664982771 141.922919197
711.25 0.120375682969 176.355015653
711.875 0.142254101345 157.659731821
712.5 0.155996038962 139.889030588
713.125 0.134964538598 90.5658334566
713.75 0.0975409923194 55.0218824114
714.375 0.111206936149 19.9391272933
715.0 0.107352365645 27.0176063758
715.625 0.0863490481322 36.609699736
716.25 0.0744600641343 63.8479709058
716.875 0.11115528984 96.5500767552
717.5 0.151078526251 143.319359846
718.125 0.119851299207 166.735780419
718.75 0.0959529446318 156.804754529
719.375 0.127178693998 -160.901124819
720.0 0.12986313799 -136.259062772
720.625 0.111128141987 -80.8226378115
721.25 0.100103737296 -39.9587034847
721.875 0.0925496961314 27.0223056581
722.5 0.0723425034126 61.0140254155
723.125 0.0830291178705 64.3041896318
723.75 0.0898041895848 22.7674792892
724.375 0.129592712018 8.46513420793
725.0 0.101211759562 -39.346693759
725.625 0.0944056027096 -68.6459989924
726.25 0.112023407428 -73.1759641256
726.875 0.10025117954 -58.2194428128
727.5 0.0796015008622 -42.5535682447
728.125 0.0806358832433 -13.4053865514
728.75 0.0859708930659 18.770079422
729.375 0.0697232667425 -4.74364796968
730.0 0.0899625939991 16.2254226151
730.625 0.0665761135925 15.7276386833
731.25 0.0639411011452 66.31173333
731.875 0.0495316424001 95.7433354418
732.5 0.0664956439676 146.280311268
733.125 0.082476220385 168.08225286
733.75 0.0629725711377 161.212493224
734.375 0.0390611901146 129.199968789
735.0 0.0967627148592 162.247515326
735.625 0.0773072138412 143.152828402
736.25 0.0475815441381 149.187977592
736.875 0.024473247528 -157.912425007
737.5 0.114510942708 174.236807165
738.125 0.0890476200876 -176.049307172
738.75 0.0639792999112 -175.266044672
739.375 0.0284252913852 162.080664027
740.0 0.0269140289564 -148.839850599
740.625 0.0565922386375 -156.044574676
741.25 0.0510077088773 -166.042465512
741.875 0.0388415481712 -112.096673704
742.5 0.0190847547176 57.2804607992
743.125 0.0512981437942 49.2297158934
743.75 0.0383593926338 76.8519201952
744.375 0.0330410586995 115.974289698
745.0 0.0483137463312 166.264478679
745.625 0.0684006102782 115.505914025
746.25 0.0812357458986 69.5681906704
746.875 0.0808923860687 37.1310321867
747.5 0.0272557623114 45.4605508172
748.125 0.0358048448306 -12.7957777976
748.75 0.0222252821689 8.6352677813
749.375 0.0263903422228 -39.0825310357
750.0 0.0271983880972 -91.0435508646
