!Created with skrf (http://scikit-rf.org).
# GHz S RI R (50+0j) 
!freq	ReS11	ImS11	
500.0	1.797148162	-2.585847113	
500.625	-0.2511016703	-3.9237989	
501.25	-0.7916974361	-0.772277146	
501.875	-0.9754754536	-1.955533081	
502.5	-0.4483357527	-0.1983364241	
503.125	-0.1411320901	-0.06317204998	
503.75	0.1129959784	0.4634547401	
504.375	-0.06769572275	-0.04722776723	
505.0	0.2306740997	-0.09718387986	
505.625	-0.2193190596	-0.02008255335	
506.25	0.234346573	-0.4508691781	
506.875	-0.3284272198	1.038882691	
507.5	0.9616467552	-0.9693901988	
508.125	0.338914255	-3.125241091	
508.75	-0.7862500627	-2.449628277	
509.375	1.492370647	-3.475694434	
510.0	-2.647434772	-0.5908258027	
510.625	-0.2861082196	-0.1639072283	
511.25	-0.5496479987	-0.3773981835	
511.875	-0.426564473	0.06488741499	
512.5	-0.05461183966	0.1333169831	
513.125	0.03553218533	-0.3690922484	
513.75	-0.4258649996	-0.0647320537	
514.375	0.1376609258	-0.1063402233	
515.0	-1.197491516	-0.6495740524	
515.625	2.210108228	-0.3397551499	
516.25	-2.494244023	-3.885839177	
516.875	-0.7850585963	0.6338554212	
517.5	0.5533169565	-0.9198549911	
518.125	-0.3610549513	0.2918115134	
518.75	0.2863891715	-0.8667828926	
519.375	-0.2027187502	0.2771116289	
520.0	0.1631898639	0.03713821366	
520.625	0.6176682916	-0.015685526	
521.25	-0.277717856	-0.8704491898	
521.875	-0.2117124556	-0.01632485264	
522.5	-0.2673045468	0.1358709674	
523.125	-0.06365620887	-0.08543473749	
523.75	-0.3309242843	0.114428923	
524.375	-0.2219147623	-0.1075550071	
525.0	-0.2585426524	0.6804123723	
525.625	0.1153662034	-0.1450678551	
526.25	0.02370371853	0.17253787	
526.875	-0.1669975514	-0.0733443314	
527.5	-0.2087082222	0.9383219626	
528.125	0.4120619521	0.3771161065	
528.75	-0.3551128361	0.6920788575	
529.375	0.359734024	0.1272752081	
530.0	-0.3149058632	0.5152849313	
530.625	0.6726964572	0.7145446724	
531.25	0.8604689071	0.6316348684	
531.875	0.6968923969	-0.913707868	
532.5	0.0919749765	-0.02198905161	
533.125	-0.2525027876	-0.6186949078	
533.75	0.8189899413	-0.08140970395	
534.375	-0.7904599504	-0.9825474351	
535.0	-0.2156679915	-0.08767367388	
535.625	-0.7174753701	0.2084380843	
536.25	0.1725077249	0.239218315	
536.875	0.1242195893	0.1662161953	
537.5	0.2484584848	-0.1727987615	
538.125	0.09895924436	-0.1480044342	
538.75	0.5332943902	-0.1787926967	
539.375	-0.3650752784	-0.3844570099	
540.0	-0.2063150454	-0.2889781003	
540.625	-0.4707018401	-0.1584520226	
541.25	-0.205573967	0.1095526414	
541.875	-0.05003859134	-0.0657579608	
542.5	-0.1795915917	-0.1603483836	
543.125	-0.1835540854	0.01836850078	
543.75	-0.1461208906	-0.1831710641	
544.375	-0.1226997209	0.2623600893	
545.0	-0.08255674484	-0.08746884053	
545.625	0.2864561593	0.3545413807	
546.25	0.07979251786	-0.1433281363	
546.875	0.4058584932	0.2093798581	
547.5	-0.04462551006	-0.4993331379	
548.125	0.06493154916	-0.2025778914	
548.75	-0.3148983645	-0.4826315661	
549.375	-0.3851166002	-0.03575931667	
550.0	-0.03665097105	-0.1028762942	
550.625	-0.2568489514	0.1127176603	
551.25	-0.05860027138	-0.01350927074	
551.875	-0.3005266261	0.1916447637	
552.5	-0.008298578622	0.2051646082	
553.125	-0.09730259686	0.1395395763	
553.75	0.1470766721	0.1159396121	
554.375	0.2036930235	0.006674363388	
555.0	0.2568466646	-0.1551962542	
555.625	0.2033681247	-0.2691856135	
556.25	0.1526137145	-0.3361231963	
556.875	-0.06974285682	-0.3935314084	
557.5	-0.2374201852	-0.2639791848	
558.125	-0.2748688471	-0.08528545659	
558.75	-0.2397227915	-0.02719424133	
559.375	-0.2965272125	0.04837449377	
560.0	-0.173122426	0.1832995107	
560.625	-0.1759553111	0.2171761694	
561.25	0.05512274519	0.3066961901	
561.875	0.04264097491	0.006954140555	
562.5	0.03245173791	0.246849012	
563.125	0.143910214	0.03162665413	
563.75	0.3211127875	0.1605835239	
564.375	0.3427091245	-0.3714059491	
565.0	0.06623673924	-0.2077085053	
565.625	0.04721073505	-0.4593474698	
566.25	-0.3876157291	-0.1810590676	
566.875	-0.1766369596	-0.1592214263	
567.5	-0.3870510398	-0.4061001074	
568.125	-0.4563298987	-0.2329818667	
568.75	-0.3196823665	-0.3280033867	
569.375	-0.8052573272	0.3008308789	
570.0	-0.01806852042	0.4850818168	
570.625	-0.3647420524	0.1581558158	
571.25	0.1525366941	0.6435670462	
571.875	-0.1946890654	-0.03329431574	
572.5	0.6398249019	0.1059071548	
573.125	-0.1326624465	-0.3720977022	
573.75	0.3170662834	0.03162050881	
574.375	0.02787956691	-0.5186886363	
575.0	-0.05388472829	0.1986279786	
575.625	0.3095994284	-0.3701937211	
576.25	-0.2060784126	-0.2819787557	
576.875	0.2988750801	-0.1700833705	
577.5	-0.06472435956	-0.6617267243	
578.125	-0.2704750903	-0.1797340512	
578.75	0.04126431894	-0.266256063	
579.375	-0.3188449632	-0.3651871999	
580.0	-0.1341368968	0.199445709	
580.625	-0.1401026594	-0.348029791	
581.25	-0.2629675285	0.4527436941	
581.875	0.06234063602	0.01925551398	
582.5	-0.2171944297	0.5392491362	
583.125	0.6518206275	0.1470072899	
583.75	-0.3452236717	0.006997498942	
584.375	0.5428025846	0.2468651224	
585.0	-0.1889304089	-0.03518087248	
585.625	0.6532854252	0.2912062611	
586.25	0.2648994049	-0.4573804981	
586.875	0.1356957846	-0.002831107475	
587.5	0.1079227719	-0.581287061	
588.125	-0.3391407203	-0.2078444438	
588.75	0.3635897432	-0.15353674	
589.375	0.1708610183	-0.6393784665	
590.0	-0.1319026231	-0.1321310048	
590.625	-0.4323535608	-0.3516146067	
591.25	-0.3284619836	0.4529661931	
591.875	0.02384525188	0.1390096562	
592.5	-0.1700445979	0.1253790441	
593.125	0.1354512033	0.1337987865	
593.75	-0.2002444404	0.2947320037	
594.375	0.6973464563	0.353473451	
595.0	0.2403076358	-0.1043072625	
595.625	0.2061317652	0.5717168488	
596.25	0.7948128259	-0.1662493874	
596.875	-0.09081785909	0.1942161088	
597.5	0.658218244	0.4517646691	
598.125	0.3200562993	-0.0915550414	
598.75	0.2144755999	0.4828768437	
599.375	0.6767141207	-0.2414219177	
600.0	0.1889470397	-0.2766648707	
600.625	0.4634139438	-0.249899686	
601.25	0.1622152389	-0.6372312204	
601.875	-0.1122056296	-0.1516720016	
602.5	-0.3176070484	-0.1863599873	
603.125	-0.1934800916	0.1419753157	
603.75	-0.2223331628	0.1651317165	
604.375	-0.2470752973	0.07321021054	
605.0	-0.2634290186	0.2932709422	
605.625	0.04961149726	0.0027338346	
606.25	-0.6018735377	0.1649864019	
606.875	-0.07751603962	0.3929688975	
607.5	-0.5732704066	-0.01999621427	
608.125	0.0879029888	1.059971666	
608.75	0.1275062813	0.0542897683	
609.375	0.7654866898	0.2492299074	
610.0	0.2313055545	-0.6096014936	
610.625	0.3740616627	-0.001330157113	
611.25	-0.05689605463	-0.6120411651	
611.875	-0.06387636751	-0.1013328313	
612.5	-0.556720696	-0.3831175491	
613.125	-0.2907437666	0.2248836316	
613.75	-0.5148905384	0.2284738137	
614.375	0.3161543926	0.2809743022	
615.0	-0.1529047151	0.1265048225	
615.625	0.2726825728	0.2096608205	
616.25	-0.3298744958	0.06042809619	
616.875	-0.276354429	0.7163690372	
617.5	0.1500232877	0.3440001276	
618.125	-0.3636583712	0.524528037	
618.75	0.2968883357	0.5188006261	
619.375	0.03197605704	0.2402586575	
620.0	0.6136592545	0.2148690849	
620.625	0.1191934289	-0.3221454302	
621.25	-0.1395779031	-0.5416077194	
621.875	-0.4681186662	-0.09508335628	
622.5	-0.490326814	-0.03248686294	
623.125	0.03330262059	0.5792357766	
623.75	-0.04722615066	0.09076007395	
624.375	0.3470254701	-0.305732174	
625.0	-0.07113009169	0.1845456754	
625.625	0.3599775319	-0.4828665743	
626.25	-0.2993581803	0.08443867001	
626.875	-0.1164154785	-0.5242917083	
627.5	-0.6085032618	0.04895943881	
628.125	0.008941998144	-0.01775820965	
628.75	-0.1151193657	-0.5612512559	
629.375	-0.3940511011	-0.1649648843	
630.0	-0.2383497917	-0.3168118843	
630.625	-0.6900748455	0.1038699217	
631.25	-0.1536050111	0.5217338403	
631.875	-0.2193175216	0.4096036084	
632.5	0.4363365076	0.5901156888	
633.125	0.4419870916	0.05963327187	
633.75	0.3435418915	-0.08390614312	
634.375	0.3228455899	-0.3381572412	
635.0	-0.2510825095	-0.2738030628	
635.625	-0.08505212628	-0.3484983639	
636.25	-0.6262523453	0.2802892286	
636.875	0.1744880309	0.2761836175	
637.5	-0.5724417553	-0.04614367113	
638.125	0.2810988275	0.502784419	
638.75	-0.4274909134	-0.05112573242	
639.375	-0.04013798539	1.020768487	
640.0	0.5324589457	0.1744849649	
640.625	0.13665677	0.5757344417	
641.25	1.017583161	-0.03349557896	
641.875	0.04660707728	-0.4884671817	
642.5	0.3196015796	-0.292798182	
643.125	-0.6596799872	-0.5718067716	
643.75	0.07685021303	0.1659293877	
644.375	-0.6442797653	-0.2966655834	
645.0	-0.218946658	0.5955092721	
645.625	0.1087035936	0.1987933754	
646.25	0.258484847	0.5543854955	
646.875	0.3944509652	-0.3775114103	
647.5	-0.1905645894	0.2953644886	
648.125	0.7958669375	0.08448500422	
648.75	0.04383826929	-0.3780920995	
649.375	1.097700015	-0.04411286552	
650.0	0.2044236595	-1.432524979	
650.625	-0.1622697373	-0.1490459306	
651.25	1.18634293	-0.336264535	
651.875	0.3835447913	-1.181733038	
652.5	0.1694616143	0.278078116	
653.125	1.172554879	-0.2114284309	
653.75	0.02424474611	-0.7993472182	
654.375	0.2463988183	-0.3112210367	
655.0	-1.115529195	-0.6180162996	
655.625	-0.06623761721	0.6569049211	
656.25	-0.2246316764	0.04518673152	
656.875	0.3112837487	0.5659383664	
657.5	-0.06405402283	-0.1998968822	
658.125	0.2971589997	0.8149958107	
658.75	0.8525093806	-0.04870512486	
659.375	0.4649099215	-0.3257107838	
660.0	0.8079599666	-0.2978962326	
660.625	0.2030223127	-1.382450073	
661.25	0.02227721629	-0.1964650468	
661.875	0.9953080574	-0.5101946914	
662.5	0.5045305083	-0.9524777084	
663.125	0.1825015374	0.005661002678	
663.75	0.904683365	-1.023707713	
664.375	-0.5536048825	-0.4962123951	
665.0	-0.1366176123	-0.6176868807	
665.625	-1.117278955	0.226566263	
666.25	0.1598429291	0.5948320829	
666.875	-0.08482471141	0.509995613	
667.5	0.7061019431	0.3021988672	
668.125	0.2283171743	-0.2331383288	
668.75	0.6834187063	0.0004773865719	
669.375	0.03609513064	-0.8347512672	
670.0	0.02900505259	-0.2421671268	
670.625	0.2174721177	-0.5052098558	
671.25	-0.004144541628	-0.6096252399	
671.875	0.1118446234	-0.1074093638	
672.5	0.810262821	-0.3110396992	
673.125	0.3151309958	-0.6997573824	
673.75	0.1849582454	-0.1708072125	
674.375	0.5880186878	-0.8084887242	
675.0	-0.8459890797	-0.3898135443	
675.625	0.2124009432	-0.3924347285	
676.25	-0.9470690974	-0.1774561052	
676.875	0.02396212669	0.4385601259	
677.5	-0.6300951812	-0.5067265539	
678.125	-0.1447648346	0.8424016339	
678.75	-0.0697932951	0.1615628683	
679.375	0.4500140192	0.5634941365	
680.0	0.5239320431	-0.6231936911	
680.625	-0.1641378428	0.2329166506	
681.25	0.6030917415	-0.09068012713	
681.875	0.2254539586	-0.1724783138	
682.5	0.1935153356	0.4044426775	
683.125	0.8616915057	0.2827782383	
683.75	0.5133668898	-0.1748940619	
684.375	0.3676201756	0.2056128455	
685.0	1.016167115	0.4316623427	
685.625	0.5293636416	-0.7509843128	
686.25	0.5161666272	0.873096076	
686.875	1.160358185	-1.239209189	
687.5	-0.06828915119	-0.02101032753	
688.125	0.6910038645	-1.464352833	
688.75	-1.722404119	0.2410980723	
689.375	-0.4171171227	-0.1897955461	
690.0	0.2641880123	1.568684506	
690.625	0.5911557651	0.08822278013	
691.25	0.4394757054	1.108826325	
691.875	1.462589387	0.5830319352	
692.5	1.099057833	0.3509538281	
693.125	1.601829071	0.08772841508	
693.75	1.384393674	-0.7093265755	
694.375	0.9271254768	-0.8557849128	
695.0	0.9695383975	-0.7588749128	
695.625	1.207364834	0.02193185112	
696.25	1.508467445	0.0250276428	
696.875	0.3639187684	0.6158153818	
697.5	1.302922741	1.788660145	
698.125	1.165353056	-0.3056094721	
698.75	1.514918914	-0.3118486518	
699.375	-1.61789637	-1.157779857	
700.0	0.03402489779	0.3696779263	
700.625	0.1150942862	1.487776037	
701.25	0.6499519613	-0.057633524	
701.875	0.2503404077	1.022320692	
702.5	1.316267064	0.3149680091	
703.125	0.5755954601	0.3236516427	
703.75	1.283519151	-0.2478561612	
704.375	0.1402870234	-0.6079643625	
705.0	0.8679597721	0.04608033916	
705.625	0.6070410268	-0.5808500476	
706.25	0.07230506502	0.6209610813	
706.875	1.154431219	1.02348677	
707.5	0.2606053127	0.0907242811	
708.125	1.304334608	0.8420926846	
708.75	0.5317437269	-1.33941159	
709.375	-0.2956221356	-0.4588829241	
710.0	-0.8174139866	0.5479016903	
710.625	0.4132053658	0.1893105242	
711.25	0.07947603355	0.4472862353	
711.875	0.5567181558	0.1624756003	
712.5	0.8212200145	-0.008793001584	
713.125	0.5586199978	-0.4355596661	
713.75	0.3790759688	-0.4571518825	
714.375	-0.05266884162	-0.7799658066	
715.0	-0.1031192707	-0.004978109079	
715.625	0.3876553318	-0.9160915222	
716.25	-0.3935943407	-0.6131757471	
716.875	1.081290537	0.4124899228	
717.5	2.327178324	-0.6180055457	
718.125	-0.313838915	-0.6342952084	
718.75	3.579102494	1.089273056	
719.375	1.270061117	-2.71768989	
720.0	0.9745476687	-0.4963782143	
720.625	1.571568595	-4.207515253	
721.25	-1.569623294	-1.61291983	
721.875	0.5897359962	-2.511034952	
722.5	-1.936007585	-2.377214489	
723.125	-1.925400781	0.3683560533	
723.75	-0.9817544496	0.4126098336	
724.375	0.1504928617	1.599606912	
725.0	0.4933051103	0.5035580156	
725.625	0.1243056384	0.9895769671	
726.25	-0.05047217397	2.236958275	
726.875	1.242872106	2.122051812	
727.5	-2.007908965	2.075412768	
728.125	-0.6697717861	9.27698047	
728.75	4.75191815	3.269837377	
729.375	-9.892670281	1.702064339	
730.0	9.187108672	22.06067663	
730.625	1.823521699	0.5737887135	
731.25	-8.143807485	10.41208416	
731.875	-3.736548531	15.92818439	
732.5	-3.046814267	-2.882449348	
733.125	-9.755094994	0.7240195396	
733.75	-1.153980015	4.028591105	
734.375	1.193100571	0.2771251397	
735.0	1.210161312	-2.105608328	
735.625	-0.7950582762	1.367093714	
736.25	-0.8858538296	0.7043704568	
736.875	1.357420327	2.006901015	
737.5	3.052640095	-0.7423048943	
738.125	1.555624865	0.4609310101	
738.75	8.657342751	-3.498863866	
739.375	4.86315376	-9.990068105	
740.0	-1.817913106	2.828902467	
740.625	22.55680022	6.449644575	
741.25	10.67952316	-13.38543499	
741.875	-12.64249435	-13.08427039	
742.5	-16.44574527	-5.802402486	
743.125	0.7629757816	3.14510742	
743.75	3.716211967	-5.386004034	
744.375	-1.502557101	1.060172286	
745.0	-0.1838180948	-0.06298255227	
745.625	0.3715703472	-0.131304399	
746.25	0.003264277419	0.04496822672	
746.875	-1.082683071	-0.1496961802	
747.5	-0.07115708943	1.101611518	
748.125	0.560420645	0.6977972206	
748.75	0.4783738851	1.265445188	
749.375	1.201772132	1.990210076	
750.0	1.091222135	1.04706722	
