!Created with skrf (http://scikit-rf.org).
# GHz S MA R 50.0 
!freq magS11 angS11
500.0 0.014579782638 175.891701106
500.625 0.0109165794884 50.3250640554
501.25 0.00812420048116 -111.979678281
501.875 0.035237484043 -168.989888711
502.5 0.0379971724321 167.332249791
503.125 0.0159160441041 93.8430446797
503.75 0.0136588365181 -20.4324856357
504.375 0.00519492930543 -74.8621426034
505.0 0.00556636866603 -14.9393019458
505.625 0.024024766221 -68.5573710172
506.25 0.0584078127806 -104.331387297
506.875 0.0532205847271 -122.417336178
507.5 0.0509094876836 -109.371277264
508.125 0.0515081279535 -91.0456997024
508.75 0.0674975576884 -130.260372849
509.375 0.0536475356059 -142.864596363
510.0 0.0462704058369 -113.636595941
510.625 0.0366605337241 -157.290455722
511.25 0.0679422092775 -169.43796141
511.875 0.049528913946 136.682995297
512.5 0.0358961871963 97.7949548564
513.125 0.0510754347763 45.3013561759
513.75 0.0561195376412 35.5786038814
514.375 0.0387826343949 10.6857593109
515.0 0.0437866043448 -4.68409719448
515.625 0.113119364625 49.9100803587
516.25 0.0783997406739 22.4079681724
516.875 0.103359761741 68.5246477669
517.5 0.131814761304 21.667464954
518.125 0.224563002599 72.1341570945
518.75 0.0744786470527 -1.64052500896
519.375 0.0608152964322 16.1985682856
520.0 0.0930154221103 -2.9655168954
520.625 0.119630251017 -2.9093633668
521.25 0.0714654629725 -37.4794391629
521.875 0.0645186558449 -0.129844447245
522.5 0.0929185218055 -37.5376500246
523.125 0.198815147971 -33.2568902311
523.75 0.214883506812 -59.3603505893
524.375 0.214770691819 -53.1842473104
525.0 0.0709700797146 -55.545397896
525.625 0.0464131497085 -26.1080484594
526.25 0.0430074617961 -14.9994397123
526.875 0.0524801584171 -21.1370288798
527.5 0.0459815600553 -33.1231134816
528.125 0.0515630741675 -58.6356849586
528.75 0.0452865802948 -82.8053338775
529.375 0.0790530087345 -116.424644527
530.0 0.0486073106628 -133.518870953
530.625 0.0403287725899 -148.361655508
531.25 0.118588320686 -138.300589555
531.875 0.17408358558 -148.217239349
532.5 0.141621736954 -172.167136272
533.125 0.114230042492 172.892660586
533.75 0.0969435589877 165.53865945
534.375 0.101651337822 177.199852478
535.0 0.0804040942138 157.005649771
535.625 0.0771589653432 175.730414831
536.25 0.0580131353438 161.185845795
536.875 0.0875698199651 -162.812186694
537.5 0.0983947470583 -144.833928328
538.125 0.106666614043 -175.753322404
538.75 0.103338776458 178.451228994
539.375 0.0817066766548 -164.776486499
540.0 0.0898795991152 -156.405898358
540.625 0.140476383912 -160.268927996
541.25 0.128723960969 -144.447678741
541.875 0.104075431762 -146.809421159
542.5 0.112357046303 -144.492699069
543.125 0.149161946221 -169.407695737
543.75 0.130512603277 157.958396938
544.375 0.0908230492973 135.030828202
545.0 0.0806005993077 87.7212309451
545.625 0.114706893637 79.9661203278
546.25 0.0826486195731 64.1010880743
546.875 0.087123716734 53.2255996267
547.5 0.109192488445 55.4760204007
548.125 0.130041964844 75.9058444644
548.75 0.0912195385605 88.1463882582
549.375 0.0922311128802 85.8378067726
550.0 0.077570394196 121.237367075
550.625 0.0617870186164 148.450438098
551.25 0.0312402711491 -127.017106213
551.875 0.0594676635599 -157.123439496
552.5 0.109663277479 -166.325337012
553.125 0.0979686385562 -173.648609637
553.75 0.0880408341994 -169.967285885
554.375 0.102031788599 169.107226688
555.0 0.121148148367 161.770906316
555.625 0.104830014483 154.050977701
556.25 0.095366509789 161.339606452
556.875 0.119845627399 163.790591474
557.5 0.120490714097 164.601113087
558.125 0.0985498329281 163.192529173
558.75 0.0726340463832 177.884928224
559.375 0.0591475960862 -173.646975083
560.0 0.0432673791008 -150.314264854
560.625 0.0604812294969 -149.773699429
561.25 0.0784169577923 -143.366871555
561.875 0.0989761720702 -161.359161334
562.5 0.0905305683535 171.199095695
563.125 0.110594349733 139.995560829
563.75 0.117619752791 132.451677945
564.375 0.100612711446 121.342963879
565.0 0.087021192155 118.898361251
565.625 0.0911523003039 110.941898962
566.25 0.0761699565574 158.820359863
566.875 0.0745761597772 178.51655624
567.5 0.0778628641146 176.491342374
568.125 0.0836019871583 -175.3758979
568.75 0.0778502088513 -155.498021333
569.375 0.0492929623147 -113.77570877
570.0 0.0608148096901 -115.44926728
570.625 0.0934933961918 -123.259315463
571.25 0.0859277793296 -117.050394192
571.875 0.0877902621316 -129.877583896
572.5 0.113854741041 -161.430798334
573.125 0.143918853515 -177.581469828
573.75 0.111720141152 157.268486828
574.375 0.0840090697774 147.261658596
575.0 0.100711136401 151.610124069
575.625 0.115352386524 148.846685193
576.25 0.0797936092109 150.87841189
576.875 0.0794664942131 132.083224442
577.5 0.0768034685924 135.449860391
578.125 0.0668582476344 150.780014119
578.75 0.046229414566 167.283092669
579.375 0.0539694354987 162.023321956
580.0 0.0703647943092 171.398321511
580.625 0.0773358843476 -155.079800469
581.25 0.0874049155074 -165.496209479
581.875 0.113748745745 -178.499013377
582.5 0.12004095925 -178.165870959
583.125 0.09419332111 -170.227427685
583.75 0.0842974420171 -175.415737389
584.375 0.0991829637065 -156.298366619
585.0 0.0919377249552 -140.395218691
585.625 0.0735015930936 -148.587154612
586.25 0.0727196252167 -149.634858863
586.875 0.0802594989117 -138.157321353
587.5 0.0753838131527 -148.742571188
588.125 0.059820794847 -176.572568948
588.75 0.0676136839224 -178.998325731
589.375 0.0836686366946 -152.87335852
590.0 0.0950501015407 -163.009517805
590.625 0.103341903811 165.537328446
591.25 0.122799809693 144.35624048
591.875 0.088898815544 167.405465035
592.5 0.0635230506174 149.27729428
593.125 0.0580131884682 152.601422655
593.75 0.0740168621033 155.957054821
594.375 0.0573071309303 -143.642797624
595.0 0.0461514817445 -114.471072414
595.625 0.0629533959407 -94.8297877606
596.25 0.0682088330002 -101.650480668
596.875 0.073058095355 -63.3132088338
597.5 0.0610065497384 -60.8404459029
598.125 0.0657820029692 -61.847674627
598.75 0.0761360436327 -64.9702274336
599.375 0.0899693794921 -67.2407991544
600.0 0.101155505661 -70.4410272545
600.625 0.101346672081 -66.8352973814
601.25 0.0851118066904 -86.2341303142
601.875 0.0706404184711 -81.3083883993
602.5 0.0647979544827 -74.8574577555
603.125 0.0466476741574 -48.0601704725
603.75 0.0261366788751 -65.2040962492
604.375 0.0374739278305 -27.0039123972
605.0 0.0568356908179 -24.4935438797
605.625 0.0529798057601 -17.8976054036
606.25 0.0264974972121 9.93248696938
606.875 0.0216483373221 38.8679589233
607.5 0.0711854150493 46.0476121959
608.125 0.0587486685843 22.3219997106
608.75 0.0462597974554 10.4712377172
609.375 0.0658607053276 30.1682174071
610.0 0.0695052679029 40.6411195514
610.625 0.0619839206603 27.3452362816
611.25 0.0540351872614 31.7537766802
611.875 0.0344446427695 30.7955815147
612.5 0.0264098553778 92.847092817
613.125 0.0416053833949 123.750851422
613.75 0.0501067354603 121.481866321
614.375 0.0235184852527 116.92780336
615.0 0.0586764547778 124.532967461
615.625 0.0410228286735 131.615519041
616.25 0.0408988037504 139.523653886
616.875 0.0299373340032 129.475907278
617.5 0.0610630112293 129.606782804
618.125 0.0447792210499 130.292557328
618.75 0.037919458044 149.617435715
619.375 0.00126382412838 0.353046311185
620.0 0.0217987454119 139.047278074
620.625 0.0121833770325 -148.873543384
621.25 0.0402953158804 -102.189419687
621.875 0.0682257624839 -91.3665152329
622.5 0.0897070389922 177.689107378
623.125 0.0770937921046 167.183979526
623.75 0.0708783529285 168.369681508
624.375 0.032720173178 -150.380746
625.0 0.0442931997089 -153.881493777
625.625 0.0360374940265 -155.081689354
626.25 0.0138762113934 160.137917214
626.875 0.00416671417462 58.897882769
627.5 0.0355928131618 -12.3241898526
628.125 0.0358832171912 -37.0261057357
628.75 0.031209753953 -23.2683944595
629.375 0.0432083069061 -8.27350055555
630.0 0.0854165559136 7.09472090711
630.625 0.0751783573117 6.42585844605
631.25 0.0725269152175 4.75984932896
631.875 0.0654943049725 -5.57828756374
632.5 0.0629732232204 5.00158082099
633.125 0.0450175752232 -6.63656015421
633.75 0.0402753149486 -20.7351307185
634.375 0.0459679425796 -0.268175251186
635.0 0.050947786122 37.9527079913
635.625 0.0332856503114 30.0075311955
636.25 0.0531061669622 41.5718180051
636.875 0.0693326749963 43.2791922483
637.5 0.040807525695 43.3802726508
638.125 0.052666458516 68.9788028395
638.75 0.0715050274268 74.9291469262
639.375 0.0794339018799 84.0295195582
640.0 0.0690201140485 99.0943634508
640.625 0.0673841757992 109.166662434
641.25 0.0500706214423 91.5244760741
641.875 0.0586166898157 140.668543749
642.5 0.0553586857154 158.849368683
643.125 0.0624841226475 157.552264377
643.75 0.0664274139887 168.301138607
644.375 0.0739708647623 -172.950204299
645.0 0.0769821498339 178.301903765
645.625 0.107044522412 167.82278561
646.25 0.0803192423671 152.58929544
646.875 0.0637123501524 169.187741791
647.5 0.0591226170086 175.415473266
648.125 0.102712005631 -176.255893597
648.75 0.0655957852046 -175.212228499
649.375 0.0475328109558 -156.053147369
650.0 0.0440048395767 -132.83289133
650.625 0.0726787177935 -90.8907294479
651.25 0.0654109856988 -67.6251334915
651.875 0.06648462654 -44.8978048073
652.5 0.0965537429362 -26.4355568055
653.125 0.11929111807 -3.45034775208
653.75 0.100287997427 0.508572772967
654.375 0.0989148046199 4.07176775299
655.0 0.112142248428 7.8464517046
655.625 0.113951896367 25.9674755495
656.25 0.0580363101381 15.5317677435
656.875 0.0677507155185 2.89462988827
657.5 0.0899823073688 19.2375280468
658.125 0.0706421252678 45.0499857665
658.75 0.0670843065222 56.2205814053
659.375 0.0781366935896 38.3980963902
660.0 0.100592960511 25.3135082492
660.625 0.108757385285 14.5641673945
661.25 0.120329605019 0.522865398227
661.875 0.0974776333894 -16.4752938248
662.5 0.117101459885 -23.1177789979
663.125 0.108610625159 -17.4432601533
663.75 0.113081209445 1.76903200892
664.375 0.0987981068221 51.8034730813
665.0 0.0810788769568 88.2265221451
665.625 0.0761140894741 106.127849619
666.25 0.0569479216879 133.75191682
666.875 0.0988022690381 170.230237452
667.5 0.0912627238034 -174.445090749
668.125 0.111159027531 175.450579855
668.75 0.103233033853 167.58671581
669.375 0.13130641032 173.89168141
670.0 0.0898060962443 -174.924034744
670.625 0.0930605097945 -176.592891557
671.25 0.120231817478 169.188816902
671.875 0.106627472884 165.230261656
672.5 0.0784555876658 153.505220526
673.125 0.0875446359016 148.562688114
673.75 0.0893579980971 162.294444706
674.375 0.108336133534 168.960379269
675.0 0.105917187744 -176.507376197
675.625 0.138520232401 -155.871845535
676.25 0.104893450001 -124.933063665
676.875 0.113111526952 -122.536735339
677.5 0.116635036981 -131.486400148
678.125 0.13932237188 -120.343966255
678.75 0.0813263656329 -97.8151950531
679.375 0.0549083873452 -78.4313643388
680.0 0.083617704441 -85.1614277887
680.625 0.121675317026 -80.3042920589
681.25 0.115722833832 -80.8942461412
681.875 0.0899146077748 -87.1637267614
682.5 0.133540884819 -121.158943181
683.125 0.171705342975 -126.985853206
683.75 0.146615713907 -109.402164849
684.375 0.125872192564 -83.7510160024
685.0 0.125161849216 -39.4843809531
685.625 0.138679822202 -6.24859926975
686.25 0.112396010018 19.3394141662
686.875 0.103419485316 37.9885483511
687.5 0.0778768134188 75.54932168
688.125 0.0830732368703 101.008342415
688.75 0.103337273626 110.337564728
689.375 0.149012235884 111.281965584
690.0 0.119343334615 137.517997116
690.625 0.116589782266 128.060138484
691.25 0.137583833988 96.3950969784
691.875 0.203185741724 60.1125089814
692.5 0.120942624339 41.2055083093
693.125 0.0914751310216 -18.3323798385
693.75 0.101135890949 -47.1109976087
694.375 0.135690241668 -33.8464496314
695.0 0.141021171302 3.18320134087
695.625 0.0926458197765 63.0778896436
696.25 0.111384094823 115.820354362
696.875 0.130379659384 171.811678364
697.5 0.146735268173 -150.645472278
698.125 0.136598241209 -132.449055069
698.75 0.129272601872 -130.485246993
699.375 0.112593025311 -127.536696992
700.0 0.102467845006 -121.825372024
700.625 0.111429393987 -94.1158643426
701.25 0.0965282117745 -61.7104754621
701.875 0.0810257224548 -62.0963324755
702.5 0.0969060361284 -93.9427487808
703.125 0.163298204175 -112.835539609
703.75 0.18462960609 -156.572730714
704.375 0.125912455519 167.965196524
705.0 0.11299014138 154.858769528
705.625 0.150565533073 179.025390403
706.25 0.14156946569 -116.113204937
706.875 0.0965178211541 -67.2708824238
707.5 0.0754964277631 -38.297394416
708.125 0.0928922747667 1.22914175952
708.75 0.114445200474 68.4656331122
709.375 0.105641102756 106.085262701
710.0 0.0992213307127 133.890998154
710.625 0.10672070648 143.654711786
711.25 0.120942371342 178.353752443
711.875 0.144870219128 160.300356754
712.5 0.154162197334 141.206401507
713.125 0.134560689431 91.3044323047
713.75 0.0962211048 56.1709081291
714.375 0.110543003767 20.8543488465
715.0 0.10512923305 28.290744111
715.625 0.0862725660689 39.1296183181
716.25 0.0747991244152 64.901301713
716.875 0.111306745495 99.5681396326
717.5 0.146404853258 147.299452105
718.125 0.1169584426 169.683719071
718.75 0.096101686457 157.860273334
719.375 0.126560439146 -160.251180324
720.0 0.126241699027 -133.786428006
720.625 0.112297318309 -81.0964138751
721.25 0.0991465972392 -38.8996112446
721.875 0.0940996008926 30.4063696434
722.5 0.0747114324891 67.5878925891
723.125 0.0837783962508 68.0208845659
723.75 0.0907057653011 24.9144587508
724.375 0.1296738586 10.2286703323
725.0 0.0978119895275 -38.2723891516
725.625 0.0897667834162 -69.4894797375
726.25 0.116291486832 -71.2878864063
726.875 0.103332021447 -58.7475590986
727.5 0.0800427772165 -40.110317518
728.125 0.0837689092592 -7.34979496573
728.75 0.083180717615 25.6032578489
729.375 0.0683737878465 -3.54552762284
730.0 0.0896393336685 17.5574861712
730.625 0.065158067854 19.0575298996
731.25 0.063465672009 65.513317076
731.875 0.0516016670726 98.9213316753
732.5 0.0663802932751 146.363272121
733.125 0.0869761666423 172.808755132
733.75 0.0657125498279 164.554594246
734.375 0.0391377160027 130.376754179
735.0 0.0971367547617 164.787141525
735.625 0.0783387768711 146.835458107
736.25 0.0455792262121 156.544871484
736.875 0.0247007963893 -161.41166304
737.5 0.116187930614 175.768210067
738.125 0.0891256534489 -179.509458754
738.75 0.0695104072213 -179.158046229
739.375 0.0314339730435 168.348033717
740.0 0.0262574573678 -139.805192982
740.625 0.0598067544945 -157.080461506
741.25 0.0517931029343 -164.028834165
741.875 0.0437793074917 -113.665037154
742.5 0.0183960435082 51.8336765922
743.125 0.0559584778438 47.6330894443
743.75 0.0423219431824 70.507671935
744.375 0.0338669157648 118.172280507
745.0 0.0481345402836 168.078208219
745.625 0.0661444682296 117.138560827
746.25 0.0835638015362 70.4389302846
746.875 0.0784531888005 37.3581906642
747.5 0.027056888588 44.1197706589
748.125 0.0372707169065 -7.26311079264
748.75 0.0200166687256 7.04821761151
749.375 0.0319556061662 -50.5188349669
750.0 0.0284652168535 -88.2381152967
