!Created with skrf (http://scikit-rf.org).
# GHz S RI R (50+0j) 
!freq	ReS11	ImS11	
500.0	0.3307438294	-0.899600099	
500.625	0.358996309	-0.9554550485	
501.25	-0.3270621985	-0.7460706868	
501.875	-0.1906342974	-0.533595786	
502.5	-0.04326056953	-0.1471865993	
503.125	-0.07595675995	-0.0002060376124	
503.75	0.002490860313	0.08760942573	
504.375	0.02883298355	-0.002885382824	
505.0	0.01971131044	-0.02121272913	
505.625	-0.0004312764053	-0.04964799617	
506.25	-0.05446807038	-0.05503049531	
506.875	-0.1068363269	-0.01829556199	
507.5	-0.02453990687	-0.3601979034	
508.125	0.2465047584	-0.6510278789	
508.75	0.6429657578	-1.012901071	
509.375	0.00587560734	-1.488970086	
510.0	-0.5124712102	-0.36114628	
510.625	-0.06974439571	-0.1868885807	
511.25	-0.07859573877	-0.02100983758	
511.875	-0.0888944714	-0.02914559271	
512.5	-0.03545060522	0.02211731096	
513.125	-0.006101748228	-0.05369457805	
513.75	-0.05017371203	-0.04914932107	
514.375	-0.05480780428	-0.01972164259	
515.0	0.02787404573	-0.0631443907	
515.625	0.05801795893	-0.4422874876	
516.25	-0.2529819809	-0.6439463192	
516.875	-0.1972627572	-0.4243767913	
517.5	-0.04414585344	-0.1526343576	
518.125	-0.0220571674	-0.02709086925	
518.75	-0.03087402525	-0.1280176116	
519.375	-0.05961437551	0.02865840188	
520.0	0.09956465193	0.06255310584	
520.625	0.1647759528	-0.04649862451	
521.25	0.0002797671757	-0.2649619592	
521.875	-0.1489226548	-0.03645433065	
522.5	-0.05033539004	0.02664471468	
523.125	-0.05410687002	0.02416698648	
523.75	-0.09858723212	-0.01909395973	
524.375	-0.1574252424	0.01828927153	
525.0	-0.05704501975	0.1338356687	
525.625	0.02556176357	0.05145264534	
526.25	-0.007374117356	-0.01267117625	
526.875	-0.05297506619	0.04650749085	
527.5	-0.06068443811	0.1792564946	
528.125	0.03680477341	0.2676645542	
528.75	0.02569475342	0.2310273716	
529.375	0.04480414162	0.07193655037	
530.0	0.02344121371	0.154970642	
530.625	0.08223042325	0.3016083146	
531.25	0.3973736033	0.1534862385	
531.875	0.2479807241	-0.1782339086	
532.5	-0.05490637874	-0.1179151118	
533.125	0.06500871935	-0.0343663531	
533.75	0.1275242715	-0.1761970369	
534.375	-0.07507761382	-0.2927522753	
535.0	-0.2339433379	-0.1175136411	
535.625	-0.1640124205	0.09356620245	
536.25	-0.01253167548	0.09592083088	
536.875	0.09699806296	0.02247374734	
537.5	0.06721840254	-0.0431369732	
538.125	0.1122385692	-0.0507526177	
538.75	0.1414084393	-0.1158768672	
539.375	-0.07570219743	-0.1738539102	
540.0	-0.1617524214	-0.1479446433	
540.625	-0.1557941141	-0.03369669771	
541.25	-0.09244504612	-0.00682194634	
541.875	-0.04807818361	-0.01660713994	
542.5	-0.03637278713	-0.05454874193	
543.125	-0.08226034672	-0.05714883711	
543.75	-0.09259439612	-0.001075049719	
544.375	-0.04256504623	0.03553133239	
545.0	-0.01290931601	0.0608941662	
545.625	0.05886811538	0.06713918435	
546.25	0.09182057353	0.0347349081	
546.875	0.1206906305	-0.01326495085	
547.5	0.08066788848	-0.1288282065	
548.125	-0.04499368949	-0.166702054	
548.75	-0.1148790292	-0.1165795715	
549.375	-0.1037858518	-0.08123808818	
550.0	-0.0862841866	0.001350272086	
550.625	-0.04894945317	0.01135599856	
551.25	-0.07966819881	0.01770949846	
551.875	-0.0873820981	0.07194490168	
552.5	-0.03950149722	0.08039724277	
553.125	-0.01835244508	0.05939422467	
553.75	0.04752976212	0.05683666415	
554.375	0.0976487408	-0.002708013839	
555.0	0.1021520184	-0.06481107935	
555.625	0.1006131385	-0.1102134918	
556.25	0.07240507571	-0.1495833049	
556.875	-0.03235890648	-0.1634296551	
557.5	-0.09742754445	-0.1151872314	
558.125	-0.1252854112	-0.04514363196	
558.75	-0.1136988299	-0.003723145025	
559.375	-0.1185490693	0.01028906763	
560.0	-0.1072329798	0.08209174814	
560.625	-0.0534580659	0.1126704199	
561.25	-0.002487779148	0.1009191335	
561.875	0.03357650301	0.05365593393	
562.5	0.005515214418	0.05102391549	
563.125	0.07264657658	0.08526634	
563.75	0.1455697132	0.003166822663	
564.375	0.1365775416	-0.08875698072	
565.0	0.08698405855	-0.1570102823	
565.625	-0.032763812	-0.1620411164	
566.25	-0.1094133073	-0.1195330284	
566.875	-0.1468670194	-0.08724133453	
567.5	-0.1394346022	-0.1102821044	
568.125	-0.1400833647	-0.1726875682	
568.75	-0.2356080675	-0.08875053721	
569.375	-0.2403649174	0.08854655904	
570.0	-0.1403127427	0.1997491682	
570.625	-0.06064364017	0.1814942798	
571.25	-0.003428066399	0.1141922997	
571.875	0.05682225831	0.08720213104	
572.5	0.1296049029	-0.00127296684	
573.125	0.0966554569	-0.1056615569	
573.75	0.05491542755	-0.1178201551	
574.375	0.008608737927	-0.07158844554	
575.0	0.03590336826	-0.03488772195	
575.625	0.04285182254	-0.08015656852	
576.25	0.04735658709	-0.1089106862	
576.875	0.002854249394	-0.1461088213	
577.5	0.001047861644	-0.1690972885	
578.125	-0.04808458948	-0.1655177565	
578.75	-0.08467310068	-0.1231575956	
579.375	-0.08244157231	-0.07116032752	
580.0	-0.05552838079	-0.0364884618	
580.625	-0.07043302183	-0.02899078407	
581.25	-0.1088702596	0.06969425292	
581.875	-0.00154772791	0.1631632496	
582.5	0.05875917568	0.1470345529	
583.125	0.07846902005	0.07581649668	
583.75	0.03845159124	0.02433102251	
584.375	0.03627473901	0.06055454475	
585.0	0.1105292004	0.06098461801	
585.625	0.1609756375	0.0044616464	
586.25	0.1583566874	-0.06388826998	
586.875	0.07872984419	-0.1371707184	
587.5	-0.007896100499	-0.1441156489	
588.125	-0.01450346582	-0.1442706925	
588.75	0.03452913695	-0.1485244807	
589.375	0.06819696608	-0.1573391248	
590.0	-0.05284816176	-0.1814721561	
590.625	-0.1875044027	-0.05239619731	
591.25	-0.1373561247	0.1088420069	
591.875	-0.03729802458	0.1204074627	
592.5	0.007173144594	0.05154762611	
593.125	-0.03238613873	0.0509784296	
593.75	0.05413305679	0.1257641363	
594.375	0.1535414883	0.103274873	
595.0	0.1742268513	0.101732037	
595.625	0.1763426596	0.08117196222	
596.25	0.16411525	0.0437705196	
596.875	0.1622704957	0.03943165314	
597.5	0.1514841317	0.08589375525	
598.125	0.1529657072	0.1177773913	
598.75	0.1813436905	0.09268420338	
599.375	0.2214616048	-0.03120576991	
600.0	0.1719623403	-0.1442236532	
600.625	0.1434256278	-0.182564577	
601.25	0.0610923308	-0.1988557921	
601.875	-0.07737151928	-0.1441502131	
602.5	-0.1343904267	-0.02407545796	
603.125	-0.1125215864	0.04985364577	
603.75	-0.1100692981	0.06681886798	
604.375	-0.1064740454	0.07860008203	
605.0	-0.06678411612	0.07960571195	
605.625	-0.07843460927	0.05910812687	
606.25	-0.1181858681	0.07078707512	
606.875	-0.1718019993	0.08519451509	
607.5	-0.1767381138	0.1830378169	
608.125	-0.03368772825	0.2577694249	
608.75	0.1787892568	0.1807558372	
609.375	0.2470689984	-0.02285161436	
610.0	0.1753605661	-0.1231209902	
610.625	0.09136452712	-0.1614236387	
611.25	0.01175421213	-0.1660461941	
611.875	-0.08758913122	-0.1295533514	
612.5	-0.1669181949	-0.06999213829	
613.125	-0.1988877327	0.03433849627	
613.75	-0.09585924271	0.1479314993	
614.375	0.04265732294	0.1147220955	
615.0	0.04188563801	0.04638386686	
615.625	-0.004116211575	0.08945926073	
616.25	-0.04306437962	0.1516490244	
616.875	-0.08181266117	0.1951453373	
617.5	-0.07378705608	0.2282518712	
618.125	-0.01801139451	0.2218285682	
618.75	0.02035093994	0.1984504992	
619.375	0.09489070669	0.1756208154	
620.0	0.1935430661	0.05518248197	
620.625	0.1257175389	-0.1567785345	
621.25	-0.08765550521	-0.196088015	
621.875	-0.2062202981	-0.09500990907	
622.5	-0.2297052164	0.05394097154	
623.125	-0.04384542403	0.1960269086	
623.75	0.1314985088	0.04693810143	
624.375	0.04724632221	-0.05268722902	
625.0	0.0391195493	-0.02585707818	
625.625	0.05973584591	-0.0918469061	
626.25	-0.05187460501	-0.1454447392	
626.875	-0.1391053654	-0.08791176251	
627.5	-0.152517199	-0.04879566429	
628.125	-0.1163687995	-0.0680806616	
628.75	-0.07053667215	-0.1287218764	
629.375	-0.09552876864	-0.1633603903	
630.0	-0.1905795513	-0.107376959	
630.625	-0.2395410192	0.05889244037	
631.25	-0.1509293116	0.1981818867	
631.875	-0.0370087964	0.2527488076	
632.5	0.1455780367	0.2148813809	
633.125	0.2141588949	0.06135606096	
633.75	0.1813658996	-0.05781844911	
634.375	0.06949829501	-0.1437452478	
635.0	-0.003679782946	-0.152312781	
635.625	-0.1509504655	-0.1062526481	
636.25	-0.1632898311	0.06870184281	
636.875	-0.0786378098	0.1264288721	
637.5	-0.03933080968	0.09717061572	
638.125	-0.07348527655	0.0835007471	
638.75	-0.0806576292	0.1749836513	
639.375	-0.005846399811	0.2553267294	
640.0	0.1312721879	0.2622509178	
640.625	0.2468340188	0.1646474251	
641.25	0.284455604	0.009584226115	
641.875	0.1954964174	-0.1817162418	
642.5	-0.001038352096	-0.2227439076	
643.125	-0.1136268138	-0.1343789722	
643.75	-0.1417567547	-0.08413790902	
644.375	-0.1792901273	-0.009455938336	
645.0	-0.1656133535	0.1560670546	
645.625	0.05543216167	0.2238771247	
646.25	0.1629472306	0.08658457373	
646.875	0.1092758776	-0.01493947036	
647.5	0.0488127408	0.03666138224	
648.125	0.1700258866	0.06432936992	
648.75	0.2707229072	-0.06663085682	
649.375	0.2417624622	-0.2363982357	
650.0	0.1794885777	-0.3144798624	
650.625	0.1591525274	-0.2879699499	
651.25	0.2147026602	-0.2298100843	
651.875	0.2710335252	-0.1704350675	
652.5	0.2840022259	-0.09117550512	
653.125	0.289721232	-0.09208707717	
653.75	0.2183717516	-0.2292839596	
654.375	-0.03051606579	-0.3167097075	
655.0	-0.2878730833	-0.1305359835	
655.625	-0.2015302215	0.18048354	
656.25	0.02342728424	0.1754816799	
656.875	0.04383382235	0.08116674047	
657.5	0.03735469402	0.1084558338	
658.125	0.1294069817	0.1727762093	
658.75	0.3030894708	0.107632687	
659.375	0.3481549919	-0.1333519876	
660.0	0.2432890573	-0.2909734071	
660.625	0.1630494545	-0.3302125035	
661.25	0.1778822848	-0.3030978078	
661.875	0.2280137676	-0.2517776931	
662.5	0.2791176593	-0.1928846575	
663.125	0.2841853199	-0.1901264639	
663.75	0.1822483396	-0.2841170091	
664.375	-0.01537319801	-0.3444204353	
665.0	-0.2661505418	-0.2383693606	
665.625	-0.3321810333	0.07036884539	
666.25	-0.1284082157	0.2692217006	
666.875	0.1056472569	0.2295773637	
667.5	0.1863018866	0.1093650454	
668.125	0.227550001	0.004364811222	
668.75	0.2117436983	-0.1353416377	
669.375	0.1120964078	-0.2246054041	
670.0	0.01928579352	-0.2288989427	
670.625	0.01553620618	-0.1990549756	
671.25	0.06649305284	-0.1823477942	
671.875	0.1456836066	-0.1703953391	
672.5	0.2167059742	-0.1447488109	
673.125	0.2245070067	-0.1711323339	
673.75	0.1800089983	-0.2132066473	
674.375	0.07540573706	-0.2714488443	
675.0	-0.07477575057	-0.2525223026	
675.625	-0.1806429625	-0.154952511	
676.25	-0.1912293247	-0.03900928994	
676.875	-0.1484859097	-0.00898127007	
677.5	-0.1674055554	0.01492858521	
678.125	-0.1578426247	0.1269725758	
678.75	0.004503804464	0.2435040706	
679.375	0.2119793663	0.09371792898	
680.0	0.1625683925	-0.07925542403	
680.625	0.07734435704	-0.08212802435	
681.25	0.08990973421	-0.007271041087	
681.875	0.1584209841	0.05866384137	
682.5	0.207296628	0.09630177721	
683.125	0.2445867812	0.0935969058	
683.75	0.2718403851	0.08624838366	
684.375	0.2831421053	0.05133984733	
685.0	0.2826964758	0.0612939404	
685.625	0.3049565864	0.02909421714	
686.25	0.3175608571	-0.02746157945	
686.875	0.322381106	-0.1252359349	
687.5	0.2992626127	-0.2748357188	
688.125	0.01820590437	-0.4579042735	
688.75	-0.3988944794	-0.2429522059	
689.375	-0.3398542878	0.2863098921	
690.0	0.07141340428	0.3791021246	
690.625	0.2205070932	0.2766742419	
691.25	0.3140494209	0.3040273582	
691.875	0.4565532291	0.3340714001	
692.5	0.6073777881	0.2455116818	
693.125	0.6876573988	0.01016086187	
693.75	0.6166930848	-0.2266679432	
694.375	0.4637941441	-0.3804063118	
695.0	0.4804105141	-0.2770016495	
695.625	0.5263643135	-0.0693597117	
696.25	0.4974771085	0.1994384698	
696.875	0.3776755079	0.4384946511	
697.5	0.3703827757	0.5020975688	
698.125	0.5602256932	0.2960076061	
698.75	0.5144303922	-0.3648438956	
699.375	-0.3453219463	-0.4481842221	
700.0	-0.3367682328	0.3102473453	
700.625	0.1211072312	0.3188095921	
701.25	0.2127837883	0.2046721246	
701.875	0.2618712048	0.2545247008	
702.5	0.3416489938	0.2593752642	
703.125	0.4300595966	0.1423642972	
703.75	0.3974911611	-0.09070974461	
704.375	0.2941172049	-0.1813876118	
705.0	0.2521967469	-0.1353798169	
705.625	0.2684577468	0.01047800034	
706.25	0.262550285	0.1883557439	
706.875	0.2228488648	0.3101376408	
707.5	0.2558886436	0.3791392638	
708.125	0.4411149319	0.1757713595	
708.75	0.3547891442	-0.3134062067	
709.375	-0.2312726607	-0.330466617	
710.0	-0.2293286105	0.1862740219	
710.625	0.0508263082	0.1642761763	
711.25	0.08308349949	0.1337411919	
711.875	0.198634025	0.1421464683	
712.5	0.3243303307	0.005076614691	
713.125	0.2834883099	-0.1532471502	
713.75	0.1602133458	-0.2481537382	
714.375	0.02619003588	-0.2425890204	
715.0	-0.01353534694	-0.2104932627	
715.625	0.02457778839	-0.2187819791	
716.25	0.1698135486	-0.2338010812	
716.875	0.3480213346	-0.1720219985	
717.5	0.5202637103	-0.001187485114	
718.125	0.678256706	0.09940204771	
718.75	0.7735805763	-0.03634929038	
719.375	0.802083945	-0.3516394036	
720.0	0.5915718698	-0.7542264467	
720.625	0.3399557191	-0.9156491661	
721.25	0.06898832337	-0.9896055231	
721.875	-0.1310361963	-1.067781113	
722.5	-0.5390316028	-0.8321150389	
723.125	-0.7790946684	-0.2418222475	
723.75	-0.4580010717	0.3923021564	
724.375	-0.01639199332	0.4657881343	
725.0	0.1504724465	0.3821264956	
725.625	0.153603156	0.4627597122	
726.25	0.03225712033	0.679532748	
726.875	-0.1155860173	0.9286859048	
727.5	-0.2000890782	1.373699271	
728.125	-0.1444405753	1.937407289	
728.75	-0.3536083253	2.661456125	
729.375	-0.788819018	3.398802851	
730.0	-0.08947903864	3.954612334	
730.625	-0.1596634971	4.048535652	
731.25	-1.114713378	3.418651608	
731.875	-2.817012163	2.283288955	
732.5	-3.385118472	0.5231612868	
733.125	-2.486436725	0.1674815711	
733.75	-0.9934467199	1.198203315	
734.375	0.7821297398	0.5726136242	
735.0	0.07111542486	-0.6126639122	
735.625	-0.4880918004	0.05036170684	
736.25	-0.1133301459	0.5196844164	
736.875	0.3615218891	0.6039779573	
737.5	1.026382325	0.2647721491	
738.125	1.485463317	-0.2845343808	
738.75	1.818712826	-1.047748293	
739.375	2.242741812	-1.413740455	
740.0	2.646535039	-1.417405215	
740.625	2.856890513	0.1458372938	
741.25	0.6592718037	2.456075183	
741.875	-2.213742632	-0.2796898125	
742.5	-1.346397268	-2.003317883	
743.125	0.3198533468	-1.786166043	
743.75	0.08936836999	-0.9885759481	
744.375	-0.4172676189	-0.2137492275	
745.0	0.03073457691	0.1421964588	
745.625	0.05335743053	0.003967161972	
746.25	-0.002940490853	-0.1287593889	
746.875	-0.2247767915	-0.002983944302	
747.5	-0.1769751315	0.3264803064	
748.125	0.02960687356	0.5078338841	
748.75	0.240677687	0.4863543169	
749.375	0.1245128351	0.4679359473	
750.0	-0.3670011725	0.2534312877	
