!Created with skrf (http://scikit-rf.org).
# GHz S RI R (50+0j) 
!freq	ReS11	ImS11	
500.0	0.5738692874	-0.8445379962	
500.625	-0.06079995238	-1.047981119	
501.25	0.004097937373	-0.3023875275	
501.875	-0.2919793845	-0.7568288001	
502.5	-0.0741076876	-0.04457118039	
503.125	-0.05188510197	-0.03711154026	
503.75	0.05876810431	0.1099405402	
504.375	-0.006155130976	-0.0005055466699	
505.0	0.03914127797	-0.04925110229	
505.625	-0.03765566489	-0.001927500891	
506.25	0.02803421819	-0.09901869178	
506.875	-0.1471327858	0.2127837132	
507.5	0.2426295653	-0.2725975292	
508.125	0.1079396663	-0.847853875	
508.75	0.03798929236	-0.4537834372	
509.375	0.3301079703	-1.026334527	
510.0	-0.4396445359	-0.3323846619	
510.625	-0.04454580634	-0.03570294187	
511.25	-0.03102232779	-0.07836605671	
511.875	-0.139106716	0.003410072878	
512.5	0.002388899744	0.0008451382625	
513.125	0.01880337646	-0.08629447408	
513.75	-0.076425435	0.02981780562	
514.375	0.0346444658	-0.08136400337	
515.0	-0.2568916212	-0.03406168988	
515.625	0.3837462032	-0.1369968474	
516.25	-0.7413116579	-0.7599703321	
516.875	-0.05583320195	-0.02706792813	
517.5	0.08407355447	-0.1795826773	
518.125	-0.09403993259	-0.009407601078	
518.75	0.06083161068	-0.08401753843	
519.375	-0.03923402034	0.05355833419	
520.0	0.08740023147	0.01081293982	
520.625	0.07664323427	-0.01349545508	
521.25	0.0258673703	-0.278118343	
521.875	-0.1441406163	-0.008065219334	
522.5	-0.0006681697863	-0.01595462748	
523.125	-0.1209833247	0.08722641904	
523.75	-0.009174582191	0.06484545532	
524.375	-0.1942251775	-0.09868099935	
525.0	0.05549364609	0.2140808879	
525.625	-0.02043451483	-0.04007535645	
526.25	0.02629254188	0.05243571579	
526.875	-0.1097389437	0.01960745931	
527.5	-0.02125814879	0.2534350371	
528.125	0.1440704548	0.1186901373	
528.75	-0.04671205277	0.1683479569	
529.375	0.01491124282	-0.01453210901	
530.0	-0.02433026246	0.118489588	
530.625	0.06129325197	0.1335717721	
531.25	0.402299815	0.05275814412	
531.875	-0.01491970391	-0.2564235181	
532.5	0.01159836977	-0.1162975163	
533.125	-0.03229126589	0.04412254482	
533.75	0.1505021653	-0.2211693484	
534.375	-0.2337375461	-0.2082117157	
535.0	-0.12247296	-0.07105570759	
535.625	-0.1825895408	0.1185450809	
536.25	0.03025315228	0.06886349077	
536.875	0.05640864621	0.04110743488	
537.5	0.0760298147	-0.0618733644	
538.125	0.05215615979	-0.04396142931	
538.75	0.1641042017	-0.09250437951	
539.375	-0.075859473	-0.1409656604	
540.0	-0.1175606618	-0.1068571005	
540.625	-0.1141537871	-0.03807126199	
541.25	-0.09731683139	0.02430929464	
541.875	0.004443344908	-0.003685321124	
542.5	-0.0628685261	-0.07522302935	
543.125	-0.05900965846	0.05437231668	
543.75	-0.07735569508	-0.04656091891	
544.375	-0.02256940353	0.148626563	
545.0	-0.02804342849	-0.001453248823	
545.625	0.08734504577	0.078316315	
546.25	0.05112264056	-0.03355578586	
546.875	0.1249712503	0.03945306199	
547.5	0.03522716904	-0.1667373487	
548.125	-0.03197678158	-0.07148636309	
548.75	-0.0891009308	-0.1455911609	
549.375	-0.1527940558	-0.0313926522	
550.0	-0.0209071648	-0.003674874891	
550.625	-0.08368139497	0.02254053065	
551.25	-0.03581306786	0.02887346581	
551.875	-0.07981284766	0.03535900689	
552.5	-0.02864730004	0.0863180319	
553.125	-0.01402715603	0.03843977785	
553.75	0.05082387484	0.04289493659	
554.375	0.07342744902	-0.01597140253	
555.0	0.08775439619	-0.0574032788	
555.625	0.07207433384	-0.1024330608	
556.25	0.04483414978	-0.1229558923	
556.875	-0.03393393192	-0.1380581865	
557.5	-0.09203202551	-0.09071664654	
558.125	-0.1076485647	-0.02675624726	
558.75	-0.09130141891	0.0002658119217	
559.375	-0.1064900002	0.01709185378	
560.0	-0.07825684899	0.08278280663	
560.625	-0.0395277092	0.08400878969	
561.25	-0.001995573314	0.1111659656	
561.875	0.04540566713	0.01102375746	
562.5	-0.01151956615	0.06959126445	
563.125	0.09195697929	0.03758600662	
563.75	0.09269900837	0.01601669607	
564.375	0.1583635993	-0.08861855523	
565.0	0.01548662903	-0.1581998114	
565.625	-0.000897636032	-0.1139688563	
566.25	-0.1431867485	-0.1346569508	
566.875	-0.1050533614	0.0158895807	
567.5	-0.08190818445	-0.1516139004	
568.125	-0.2168424694	-0.1367040595	
568.75	-0.0993847955	-0.02582407593	
569.375	-0.27636734	0.04164231057	
570.0	-0.02477853242	0.2423423859	
570.625	-0.03827530407	0.06329121643	
571.25	-0.03544741984	0.1843979617	
571.875	0.07451846099	-0.03082032884	
572.5	0.1263470112	0.08723976907	
573.125	0.07524026193	-0.1982941401	
573.75	-0.03391259159	-0.01176859536	
574.375	0.1064486856	-0.09505469102	
575.0	-0.06818762131	-0.05049760205	
575.625	0.1014742776	-0.02610463339	
576.25	0.02752694339	-0.1782852134	
576.875	-0.06155148578	-0.04972970689	
577.5	0.08547940507	-0.118344032	
578.125	-0.09748005842	-0.2108061665	
578.75	-0.1020238408	0.02315709581	
579.375	0.03042527406	-0.1378426038	
580.0	-0.1823042258	-0.0104861105	
580.625	0.09028089041	-0.05314153684	
581.25	-0.2173136041	0.1828966684	
581.875	0.1270548731	0.1053315169	
582.5	-0.09042198051	0.09321710618	
583.125	0.1227421737	0.1827794984	
583.75	0.02164195422	-0.1018567252	
584.375	0.0214003727	0.1546535123	
585.0	0.1323257639	-0.06037883077	
585.625	0.04190835841	0.0540658846	
586.25	0.2369961336	-0.05972229112	
586.875	-0.02989028028	-0.1520347023	
587.5	0.05130448741	-0.0864223209	
588.125	-0.02294653908	-0.199563127	
588.75	-0.05412958561	-0.09412138397	
589.375	0.1470704738	-0.08206490468	
590.0	-0.1460450961	-0.2154131239	
590.625	-0.07113717074	0.03056168284	
591.25	-0.1760307979	0.02296402844	
591.875	0.0001626800889	0.2418091103	
592.5	-0.04333163874	-0.1150020264	
593.125	0.02898226328	0.1648187412	
593.75	0.01933537114	-0.01352075776	
594.375	0.1092100944	0.1882170494	
595.0	0.2260200809	-0.01458661494	
595.625	0.04149398841	0.04601726892	
596.25	0.17893993	0.1135830444	
596.875	0.1333787544	-0.05176944354	
597.5	0.06101968652	0.1058700755	
598.125	0.2034145207	0.1419945335	
598.75	0.1203939522	0.01945668605	
599.375	0.156672526	0.03358584974	
600.0	0.1644585241	-0.1316897922	
600.625	0.06079452604	-0.1914932835	
601.25	0.08615098894	-0.083409065	
601.875	-0.09766501338	-0.2031634469	
602.5	-0.07088359111	0.08982645944	
603.125	-0.1118229526	-0.06975480185	
603.75	-0.1361724864	0.1779326746	
604.375	0.002857894137	-0.06011578839	
605.0	-0.1753506527	0.08556043786	
605.625	0.1055062156	0.04681136632	
606.25	-0.1634136441	-0.03786177394	
606.875	-0.1375344295	0.1731188083	
607.5	-0.03814304138	0.1390827386	
608.125	-0.06239138185	0.2543225736	
608.75	0.2323472157	0.1793523616	
609.375	0.2065277308	-0.007437406148	
610.0	0.1507271313	-0.09313067321	
610.625	0.1167878509	-0.1279335875	
611.25	-0.03051308487	-0.1064383572	
611.875	-0.008520844105	-0.1144371805	
612.5	-0.2202118361	0.00390690118	
613.125	-0.0289347917	0.0283871501	
613.75	-0.1771512213	0.1162093786	
614.375	0.148931588	0.115613567	
615.0	-0.09278491953	0.01473455648	
615.625	0.1259378002	0.1100112829	
616.25	-0.01551446166	0.03482383591	
616.875	-0.162761103	0.1781625647	
617.5	0.009373961153	0.2561692262	
618.125	-0.05926866699	0.2193877285	
618.75	-0.005790220699	0.2186084597	
619.375	0.146955991	0.1186376769	
620.0	0.121897877	0.03849230134	
620.625	0.07196136404	-0.01116520673	
621.25	-0.1106544388	-0.2134732136	
621.875	-0.1170554149	-0.06195441008	
622.5	-0.2313595928	0.0001379188081	
623.125	0.01228727233	0.2608378334	
623.75	0.0524536744	-0.01335415925	
624.375	0.1094200243	-0.04048234647	
625.0	-0.04854403932	-0.02674293072	
625.625	0.1086866407	-0.06310143882	
626.25	-0.1062632371	-0.1520238367	
626.875	-0.07303973633	-0.01932426807	
627.5	-0.1431064434	-0.08214847077	
628.125	-0.1477977574	-0.01238428429	
628.75	-0.0876853288	-0.07976656479	
629.375	-0.08492927514	-0.1440536614	
630.0	-0.1752962747	-0.02081293189	
630.625	-0.1787404363	0.0372802191	
631.25	-0.1620821757	0.1748815685	
631.875	0.0205642165	0.2885270578	
632.5	0.09073277993	0.05067978361	
633.125	0.2160151857	0.09550294526	
633.75	0.1121042144	-0.2122920817	
634.375	0.0550734536	-0.0142146972	
635.0	-0.018883805	-0.2105416922	
635.625	-0.1161949532	0.03168951599	
636.25	-0.143806248	-0.03769711293	
636.875	-0.07308009629	0.2247117708	
637.5	0.04642480166	0.01675049887	
638.125	-0.1364767269	0.09278078501	
638.75	0.03710635775	0.1925906042	
639.375	-0.0365288781	0.1238244529	
640.0	0.1280879005	0.296517778	
640.625	0.2659974064	0.04259719522	
641.25	0.1561255104	-0.0186226913	
641.875	0.2707383832	-0.1024190509	
642.5	-0.1194513211	-0.2548076288	
643.125	0.01417051477	0.02102333077	
643.75	-0.1825807483	-0.1581255217	
644.375	-0.04513574001	0.2498805722	
645.0	-0.2012000723	-0.06783337982	
645.625	0.1127202748	0.3065893113	
646.25	0.1378368748	-0.100327794	
646.875	0.1087587016	0.1839931889	
647.5	0.1223752516	-0.1551566083	
648.125	0.03950666334	0.1684090173	
648.75	0.3907134622	-0.1804277008	
649.375	0.01414318889	-0.2389564613	
650.0	0.1789820463	-0.1357268811	
650.625	0.2276292322	-0.4268251173	
651.25	-0.058213925	-0.2124357126	
651.875	0.2723686426	-0.0001659132654	
652.5	0.3441224409	-0.2014809692	
653.125	0.09694824796	-0.1808964997	
653.75	0.2679765027	-0.06819843054	
654.375	-0.1602509503	-0.427106021	
655.0	-0.1886782753	0.1010335329	
655.625	-0.202675631	0.02208522612	
656.25	0.1520067995	0.4058175381	
656.875	-0.03292596139	-0.1601767338	
657.5	0.1075310442	0.3024751162	
658.125	0.2182762506	-0.06479882445	
658.75	0.09793203761	0.1631233644	
659.375	0.4776138633	-0.1958795441	
660.0	-0.04468872867	-0.2672737175	
660.625	0.2049358629	-0.178197419	
661.25	0.1954375169	-0.3696488381	
661.875	0.005213661441	-0.2856937226	
662.5	0.2938178845	-0.01884993298	
663.125	0.2882854736	-0.3195442027	
663.75	0.002143131962	-0.2145761699	
664.375	0.05625455374	-0.2785541836	
665.0	-0.3619031991	-0.2055727138	
665.625	-0.1674538252	0.1422026074	
666.25	-0.1681455351	0.179115729	
666.875	0.2109601554	0.2639220484	
667.5	0.1080826906	-0.03751805845	
668.125	0.2505169223	0.1068602877	
668.75	0.1152399954	-0.2956258836	
669.375	0.02709863251	-0.05572425822	
670.0	0.1137446091	-0.2740117937	
670.625	-0.1963525671	-0.2036520403	
671.25	0.1815290415	-0.01804205494	
671.875	0.1669571492	-0.2939998451	
672.5	0.05676805929	-0.138500636	
673.125	0.1929592771	-0.05236590309	
673.75	0.2016947157	-0.3300923775	
674.375	-0.08525160379	-0.1347743879	
675.0	0.02459527235	-0.2111423942	
675.625	-0.2698957245	-0.1633036401	
676.25	-0.1083755325	0.09974232337	
676.875	-0.1337126567	-0.1113839233	
677.5	-0.189611836	0.1477857456	
678.125	-0.009758782577	0.06007837335	
678.75	-0.09548524151	0.2430516947	
679.375	0.3609817463	-0.0009945437883	
680.0	-0.1149127846	-0.02237245573	
680.625	0.2738177327	-0.01997298878	
681.25	0.03856455504	-0.2065724853	
681.875	-0.03942631052	0.2196585932	
682.5	0.5237450345	0.02803339115	
683.125	0.02791937385	-0.08568045106	
683.75	0.2117329343	0.247690619	
684.375	0.4102134538	-0.0566803631	
685.0	0.09321833474	-0.1524663603	
685.625	0.395723916	0.1293458387	
686.25	0.2792001299	-0.21239332	
686.875	0.1319025988	-0.1090972549	
687.5	0.3501379282	-0.2013506223	
688.125	-0.1673256269	-0.3956893667	
688.75	-0.2338584955	-0.07621845938	
689.375	-0.3671660541	0.2546856455	
690.0	0.2519559311	0.3764833661	
690.625	0.09392584342	0.003197438563	
691.25	0.3787036721	0.4549094393	
691.875	0.5086214036	0.007694807316	
692.5	0.3164259515	0.263038401	
693.125	0.8555575349	-0.03174679207	
693.75	0.1485422631	-0.3853721327	
694.375	0.4726902813	-0.09230680078	
695.0	0.5240189894	-0.4278927521	
695.625	0.2841253082	-0.1797898229	
696.25	0.5272067134	0.2150627767	
696.875	0.5550804221	0.3672618937	
697.5	0.2907162947	0.2559158243	
698.125	0.5630965321	0.0452611987	
698.75	0.3850656993	-0.3245912771	
699.375	-0.4177186227	-0.2331045686	
700.0	-0.2117685974	0.1787421595	
700.625	0.2113893193	0.3606851429	
701.25	0.2506526483	-0.03932615155	
701.875	0.1332189077	0.2465585682	
702.5	0.4691558986	0.1981554169	
703.125	0.223732465	-0.04770356	
703.75	0.4235661899	0.00263778941	
704.375	0.2624027849	-0.3121406192	
705.0	0.06470252722	-0.04432486921	
705.625	0.3243072073	0.05933963501	
706.25	0.299447867	-0.009394824503	
706.875	0.3157102142	0.3468034021	
707.5	0.3304285057	0.2386062769	
708.125	0.4054628703	-0.04245208649	
708.75	0.2080706442	-0.2386260651	
709.375	-0.02175333304	-0.1407171745	
710.0	-0.1950889251	0.2492692354	
710.625	0.1059995094	0.0373301831	
711.25	0.1019131454	0.2025175156	
711.875	0.1828029331	-0.180374732	
712.5	0.1762433026	0.07850753342	
713.125	0.2900852385	-0.2321764301	
713.75	-0.01257211825	-0.2390061116	
714.375	0.08076803952	-0.1702508037	
715.0	-0.09164100744	-0.267746836	
715.625	-0.04658318214	-0.1013987763	
716.25	0.2059941171	-0.1738855019	
716.875	0.2647393102	-0.3270936653	
717.5	0.3890055176	-0.1466795238	
718.125	0.6047855656	0.05879795891	
718.75	0.6280218866	-0.3549841161	
719.375	0.3653142213	-0.6472930478	
720.0	0.5526594608	-0.4395457543	
720.625	-0.3302248789	-1.175811985	
721.25	-0.1027655963	-0.6206686207	
721.875	-0.1161808498	-0.9450006906	
722.5	-1.203955052	-0.3755472261	
723.125	-0.1719124727	0.0006707086704	
723.75	-0.4899266703	0.4600464382	
724.375	0.3243577416	0.3275313652	
725.0	-0.02296952496	0.2387394436	
725.625	0.23700297	0.5643108989	
726.25	0.3135781933	0.398610632	
726.875	-0.2414456439	0.5869670682	
727.5	-0.04198077284	1.456280191	
728.125	0.8177604525	1.467802405	
728.75	-0.5776680848	1.513512177	
729.375	-0.3976669859	3.888146609	
730.0	1.356796783	2.699110841	
730.625	-0.4655107167	2.078960217	
731.25	-0.5819665365	5.051150132	
731.875	-0.1564584753	2.759238988	
732.5	-2.501731666	-0.8765400124	
733.125	-2.633414875	0.8852296306	
733.75	0.225512727	1.173970744	
734.375	0.2961221981	0.5382386143	
735.0	-0.3164520204	-0.9702084419	
735.625	0.07250935401	0.06652678544	
736.25	-0.302003806	0.5259075644	
736.875	0.7992938211	0.427476334	
737.5	0.2210296817	-0.09926397641	
738.125	1.781971084	0.1408305557	
738.75	1.256468161	-2.068192913	
739.375	0.2462691699	-1.093421439	
740.0	3.376606905	1.356222147	
740.625	4.221443255	-2.557675028	
741.25	-1.769689845	-1.361570833	
741.875	-4.517270086	0.5847935626	
742.5	-2.214096994	0.1051352418	
743.125	0.9057465852	-0.7807504001	
743.75	0.04251367402	-1.63657337	
744.375	-0.4201532039	0.3492602487	
745.0	-0.08897052117	-0.02097042269	
745.625	0.1054673285	-0.1275353609	
746.25	0.08931477817	-0.01795506632	
746.875	-0.2211929418	-0.05090487324	
747.5	0.04551810289	0.3716257618	
748.125	0.008868986955	0.2898097752	
748.75	0.1625974168	0.4640701251	
749.375	0.3020663841	0.2461483199	
750.0	-0.3725975559	-0.002793660386	
