!Created with skrf (http://scikit-rf.org).
# GHz S MA R 50.0 
!freq magS11 angS11
500.0 0.0142608448287 -173.988246522
500.625 0.0109175612803 74.0013406013
501.25 0.00912981991344 -134.768080115
501.875 0.0274154279594 -163.111665301
502.5 0.0312667259282 170.39057533
503.125 0.0122654658921 44.7910772617
503.75 0.0073900933433 107.438156382
504.375 0.00160367317627 93.3662153504
505.0 0.00948456742131 -49.1387721727
505.625 0.0450910949766 -81.2694460486
506.25 0.0238674901229 -144.175810869
506.875 0.0525093281952 -119.580542859
507.5 0.0422797848977 -117.994234452
508.125 0.0587002424447 -83.4738209504
508.75 0.0625571515127 -126.272427306
509.375 0.054591848437 -129.98193243
510.0 0.0385853662248 -112.126653047
510.625 0.0509852436732 -153.73965825
511.25 0.05671803536 -173.205317228
511.875 0.0469369479535 137.377277192
512.5 0.0390580604677 102.549491143
513.125 0.061268898517 57.8313877829
513.75 0.0533906493185 39.1557170372
514.375 0.0412059664315 10.864602828
515.0 0.0735080515503 12.290584731
515.625 0.0546772892907 29.2957654011
516.25 0.0884655204423 30.9230273151
516.875 0.11720888622 68.9892793594
517.5 0.119128895625 22.917813475
518.125 0.177354596363 64.067296448
518.75 0.0736322800786 4.00005304308
519.375 0.0669657566816 21.7706804465
520.0 0.113260409386 0.376814791283
520.625 0.0858204376212 -17.1823922443
521.25 0.077734402985 -27.4993021042
521.875 0.0697317480134 -1.58805600041
522.5 0.105929438169 -29.7401098033
523.125 0.166906038875 -40.8331737636
523.75 0.211115905187 -57.8427125612
524.375 0.212723791028 -47.5156594415
525.0 0.0793441317046 -33.7103519258
525.625 0.0298998312786 -45.2821009327
526.25 0.0366439442374 -9.85483058699
526.875 0.0548523680599 -15.9277152551
527.5 0.0588168882068 -21.9993632531
528.125 0.0267765151631 -65.7549800667
528.75 0.0586958960557 -69.9062777896
529.375 0.08457643637 -109.946807268
530.0 0.0555190085061 -123.462489975
530.625 0.0389979735602 -135.997339137
531.25 0.133066739952 -135.791624179
531.875 0.179026017107 -144.049201095
532.5 0.153301222151 -168.026459818
533.125 0.0802791252244 174.276768963
533.75 0.0980326774038 171.088005116
534.375 0.106328974763 -178.126087298
535.0 0.0984162897131 165.481856009
535.625 0.0475509749735 171.25780732
536.25 0.0547684175335 168.162347
536.875 0.0823186248191 -156.647740719
537.5 0.105236693958 -143.126773775
538.125 0.1032431017 -171.069800196
538.75 0.0954369745118 -177.733891586
539.375 0.0801856901555 -159.73846558
540.0 0.107047305461 -156.501636499
540.625 0.127251827851 -153.674548666
541.25 0.133897657452 -138.823348007
541.875 0.0991265516619 -141.076217271
542.5 0.113003240399 -140.971829583
543.125 0.135332371205 -164.879363595
543.75 0.125612219708 162.831217144
544.375 0.0927819598563 136.280557491
545.0 0.0996176868229 92.3792913217
545.625 0.0756408009781 84.1681614422
546.25 0.0877423847088 70.3296490707
546.875 0.0865376806526 55.6644738565
547.5 0.124857784243 59.1461883835
548.125 0.109660816879 80.9912043499
548.75 0.0884889134042 93.5885491579
549.375 0.0943390195438 90.6213493371
550.0 0.10113102408 128.128639047
550.625 0.0270821432678 166.751480729
551.25 0.0393782866691 -131.718433964
551.875 0.0633491522499 -157.230132475
552.5 0.121304594287 -164.486021627
553.125 0.0860242479754 -162.462254304
553.75 0.08759583707 -165.011864063
554.375 0.10073940591 171.334254095
555.0 0.13704492803 163.298500397
555.625 0.0865746696463 162.756340811
556.25 0.0993808115445 164.769969167
556.875 0.12504472603 165.14376204
557.5 0.114628262798 169.203528021
558.125 0.101224073066 165.720490878
558.75 0.0779179318186 -178.76371512
559.375 0.0579711978783 -167.676767851
560.0 0.0513547992356 -149.123884005
560.625 0.0518278698455 -122.325766061
561.25 0.0885958296567 -144.853235794
561.875 0.09655939149 -159.094824861
562.5 0.0973071540663 173.26777155
563.125 0.0937853894734 154.128595682
563.75 0.118938132054 137.009731658
564.375 0.100561911464 123.169545708
565.0 0.0917401895742 120.323028853
565.625 0.0649432332485 127.517170029
566.25 0.0855451399432 161.51027848
566.875 0.0722887357529 -178.525572816
567.5 0.0741631979319 -175.024796687
568.125 0.0821949684002 -168.193217401
568.75 0.0675086788454 -142.45086923
569.375 0.0503820706887 -105.797588326
570.0 0.0632584572629 -107.230483596
570.625 0.0894241924782 -110.130230915
571.25 0.0911396697329 -115.708476939
571.875 0.090416459064 -128.039807825
572.5 0.113835023348 -154.647081974
573.125 0.141506596967 -172.516320419
573.75 0.101092747701 164.513157706
574.375 0.0846657100236 149.179240667
575.0 0.110930402275 152.263366425
575.625 0.102285378238 161.663977248
576.25 0.0857523991039 152.091681157
576.875 0.0810358783099 135.01202656
577.5 0.091528265927 132.465659478
578.125 0.0489754064887 176.020436485
578.75 0.0475188340077 167.343653155
579.375 0.0536112691309 163.379384717
580.0 0.069778682752 -173.485192468
580.625 0.0791359632432 -150.598382462
581.25 0.0908203560817 -162.107195442
581.875 0.116858253957 -174.267053788
582.5 0.116846945185 -173.148301941
583.125 0.097442414084 -172.178313058
583.75 0.0799941207832 -156.229209687
584.375 0.10072794947 -148.729630125
585.0 0.0875160518406 -137.57872082
585.625 0.0747583136378 -149.132549882
586.25 0.0702120283266 -134.986834864
586.875 0.0839386995601 -133.974482157
587.5 0.0722747973805 -141.668326142
588.125 0.060745974845 -179.210625148
588.75 0.0673545992723 -149.318784525
589.375 0.0866832208374 -144.548571216
590.0 0.0929278022749 -159.154627059
590.625 0.102832722253 160.157569516
591.25 0.11814609435 167.999649604
591.875 0.0921418328345 163.495524004
592.5 0.0574280472226 152.900523199
593.125 0.063346500004 140.532402805
593.75 0.0745933197093 -167.090923742
594.375 0.0584638555256 -134.69935208
595.0 0.0452582293498 -111.827664059
595.625 0.0527412274941 -112.192292133
596.25 0.0827015544897 -66.5378809499
596.875 0.0698443507482 -64.8187706229
597.5 0.0586963565781 -52.9448552109
598.125 0.0606210879019 -68.0013693455
598.75 0.082169631507 -60.1009209228
599.375 0.093833893569 -61.1902840062
600.0 0.102521315687 -64.4430870525
600.625 0.0981802528818 -70.3720314108
601.25 0.0842378123155 -62.37047652
601.875 0.0688821511508 -75.3917078306
602.5 0.0600870203403 -68.506363563
603.125 0.0437231924906 -79.7618719947
603.75 0.0336545350307 -13.9413998515
604.375 0.0409669336372 -19.8825244204
605.0 0.0550919123102 -25.6062634928
605.625 0.051035038833 -4.51851283098
606.25 0.0211876578063 -4.48369368375
606.875 0.0396407777939 51.58897738
607.5 0.0782502595431 48.71455843
608.125 0.0708612870523 30.4649109116
608.75 0.0748218295019 33.3480037411
609.375 0.0652238773413 32.1620027011
610.0 0.0630712174544 37.6583631041
610.625 0.0649785295348 38.5121363585
611.25 0.045612268057 21.3876721483
611.875 0.0376652064481 54.647647728
612.5 0.0328865145877 101.328563804
613.125 0.0409717348864 133.936934193
613.75 0.0219221502785 133.397574572
614.375 0.0680107535197 131.777803551
615.0 0.0409992544911 121.595534424
615.625 0.0400731502329 140.327968724
616.25 0.0383577034941 141.197670045
616.875 0.0617433473818 133.895809862
617.5 0.0485141735483 130.711868422
618.125 0.0434058023447 139.707840133
618.75 0.010418696094 172.160453703
619.375 0.0429855339107 159.278278422
620.0 0.0212204773107 153.788413622
620.625 0.0162127796399 -115.209096927
621.25 0.0519916504993 -79.6953770189
621.875 0.0779747519846 -130.53011211
622.5 0.0807213442906 -173.887577869
623.125 0.0804264978603 177.791151747
623.75 0.0442048747966 179.764372297
624.375 0.0643982330321 -178.160742016
625.0 0.040578741854 -145.636475468
625.625 0.0242501296885 -141.563474217
626.25 0.0209898802906 170.296476797
626.875 0.0194951305215 4.09221373493
627.5 0.0274824726805 -31.7073338525
628.125 0.0319592659864 -40.8062206607
628.75 0.034812008031 -11.5159154334
629.375 0.0589022129796 2.6470843963
630.0 0.0628487195692 -30.0493631937
630.625 0.0691086934271 4.36726011064
631.25 0.0678144545198 9.24236013618
631.875 0.0705905586376 9.23463500954
632.5 0.0611761439659 -5.30338651854
633.125 0.0478721351999 -7.66970464634
633.75 0.044406933145 -11.2692517653
634.375 0.0569341070509 38.8862023282
635.0 0.037396144295 -10.0824612217
635.625 0.0369305804144 41.4244851312
636.25 0.0625993837148 50.0626014363
636.875 0.061565745225 42.6140582971
637.5 0.0538133077174 57.939587716
638.125 0.0290028777745 57.7329378468
638.75 0.0668706237729 78.1015349745
639.375 0.0857685752503 88.3055923385
640.0 0.0812293812349 113.128882419
640.625 0.0492789369722 82.7144104554
641.25 0.0587407547306 119.064657135
641.875 0.0624352574226 149.063210438
642.5 0.064160160953 166.133582657
643.125 0.0580278643625 160.057561697
643.75 0.0599132642983 174.060399885
644.375 0.0770570558431 -168.948232147
645.0 0.0876548426423 -176.529179871
645.625 0.0731196812658 156.802878997
646.25 0.0768972350901 158.960970105
646.875 0.0668473929393 170.175502914
647.5 0.0820471739712 -171.47528079
648.125 0.0641974488071 170.7951744
648.75 0.0705674612177 -162.662409414
649.375 0.0503479459116 -152.598927675
650.0 0.0606931377513 -113.50716209
650.625 0.0699944002827 -84.5958563814
651.25 0.0689698335143 -61.3621814228
651.875 0.0744772585982 -40.3193218864
652.5 0.0927390643122 -20.0604241158
653.125 0.132826638282 1.4148745607
653.75 0.107044611401 7.69665887983
654.375 0.10081747909 5.0301031122
655.0 0.132359177962 16.1276862225
655.625 0.074847906872 15.7435280295
656.25 0.0593978326478 23.705621121
656.875 0.0737566927682 10.7120322141
657.5 0.0797924290571 28.1094517049
658.125 0.0807531817725 52.7775102956
658.75 0.0501807412406 67.9775597751
659.375 0.0792360922802 45.8474470452
660.0 0.105257087902 29.8368184662
660.625 0.126289021371 19.0817281352
661.25 0.0873193808922 6.37316848532
661.875 0.115977170382 -10.7249118473
662.5 0.119986732456 -17.9599289882
663.125 0.111728024247 -13.5512114313
663.75 0.090470229072 6.68798288398
664.375 0.0909716588537 57.6923034399
665.0 0.0776107983201 94.3687976199
665.625 0.0434932950407 114.546058969
666.25 0.0701863356582 136.902180906
666.875 0.0994154285142 176.815673321
667.5 0.108530680883 -169.276616901
668.125 0.0900630491227 -173.180733019
668.75 0.122805043632 170.339798382
669.375 0.139626503204 179.899521393
670.0 0.0904986598562 -168.08022013
670.625 0.0837795081918 -168.892303962
671.25 0.109279800572 178.632477226
671.875 0.10764387081 172.748436886
672.5 0.0793022675718 160.179328238
673.125 0.0867018050002 157.956398277
673.75 0.11039267588 166.502364549
674.375 0.10696745142 172.898202837
675.0 0.126428340922 -175.991677016
675.625 0.118450086696 -144.204543353
676.25 0.112631805404 -121.822871629
676.875 0.108814537565 -119.673498766
677.5 0.136151733116 -128.688296183
678.125 0.12220754992 -112.223285935
678.75 0.0672371190341 -89.1487164016
679.375 0.0556258412231 -71.3160508496
680.0 0.0816627319434 -75.4440995561
680.625 0.132249509024 -76.4061929407
681.25 0.0886797261569 -63.1028835364
681.875 0.0971528759173 -85.0818462236
682.5 0.131342563109 -116.336320248
683.125 0.17145099883 -120.34429298
683.75 0.13758077324 -101.603211599
684.375 0.114443937169 -77.4420907145
685.0 0.123124494827 -34.7559458107
685.625 0.130092383679 1.1821529047
686.25 0.116186431571 22.366507994
686.875 0.0828788620896 54.5814441732
687.5 0.0802612277501 90.1900939746
688.125 0.0843826099185 112.440801489
688.75 0.108244610705 111.078730836
689.375 0.136587374737 128.065532028
690.0 0.125573382433 139.275658202
690.625 0.112844755181 130.284217114
691.25 0.148978513566 95.2873483435
691.875 0.164012755951 77.1773822413
692.5 0.13440771409 45.2351010941
693.125 0.0914248312691 -15.2318166137
693.75 0.0969523903701 -35.6344765584
694.375 0.145866979023 -30.9757024674
695.0 0.120453735899 20.013118998
695.625 0.0984905781777 64.0725917933
696.25 0.109931528814 119.488214126
696.875 0.146070389476 168.953183202
697.5 0.143354272578 -142.219375894
698.125 0.139171228826 -130.109135119
698.75 0.122824300023 -126.251600374
699.375 0.113837763081 -125.548492597
700.0 0.0904049569427 -106.598307355
700.625 0.113564257026 -83.5559267641
701.25 0.0954383657589 -57.5309360367
701.875 0.0858989710696 -64.1106841814
702.5 0.102212539894 -71.676406032
703.125 0.171958631166 -115.414395773
703.75 0.183227992526 -153.771217049
704.375 0.132241381418 170.412878273
705.0 0.113367796208 157.380036894
705.625 0.135355651699 -164.129578144
706.25 0.139724422214 -106.351071049
706.875 0.0915004632037 -61.1505551335
707.5 0.0808118744795 -43.0444004243
708.125 0.0918987112506 37.2116996921
708.75 0.114875572439 75.8878168065
709.375 0.107828696047 108.342494016
710.0 0.103254633228 123.83727126
710.625 0.11022988166 163.339891856
711.25 0.122268324693 -178.204776496
711.875 0.144977197202 169.049013566
712.5 0.155873642899 141.269970206
713.125 0.117842214602 107.206997638
713.75 0.0952947833317 57.8937831122
714.375 0.103150265075 30.3012385559
715.0 0.118063055011 17.8413254856
715.625 0.0806137452562 55.2917731021
716.25 0.0830740955748 81.3572111817
716.875 0.119197201813 102.62043826
717.5 0.147823459839 149.934627606
718.125 0.116001576028 159.240824171
718.75 0.109492449162 -171.789161076
719.375 0.123537666201 -164.298926213
720.0 0.131365617515 -132.554093152
720.625 0.111918052724 -77.7930325606
721.25 0.0959524098944 -2.83663063751
721.875 0.0844974788941 43.6478715286
722.5 0.0741056838664 73.7917418271
723.125 0.0753675364444 64.2405757289
723.75 0.134060118199 59.5982844023
724.375 0.118293996987 4.62121786495
725.0 0.0981109857082 -32.4255788291
725.625 0.0972053999911 -69.2853902334
726.25 0.106432720229 -74.7705668267
726.875 0.100208230389 -46.8509515667
727.5 0.0782306630328 -41.5090086834
728.125 0.0813628116688 -2.03573869831
728.75 0.0671572099771 2.298661162
729.375 0.106248408045 38.7819758386
730.0 0.0716690123919 11.6271683754
730.625 0.0546963736505 20.0171220567
731.25 0.0601749304513 61.8233236056
731.875 0.0796273568799 121.436549445
732.5 0.0760464845402 154.332136835
733.125 0.096232843691 -179.251581841
733.75 0.070507088618 166.1470582
734.375 0.0949918316666 -163.796234651
735.0 0.0751882310223 167.242908716
735.625 0.0743364629715 158.608458786
736.25 0.0130145042213 129.961899154
736.875 0.083952695175 172.370977847
737.5 0.0891204772429 178.245955586
738.125 0.0690607383304 -175.441679436
738.75 0.064331529406 -177.926311066
739.375 0.054608407498 -158.867211306
740.0 0.0510644057282 -142.70457476
740.625 0.0724396122719 -150.588872562
741.25 0.0461566193184 -156.640479604
741.875 0.0110082465917 -40.9181767317
742.5 0.0702152388897 -16.638100858
743.125 0.05535070368 51.0053837612
743.75 0.0384209727676 93.4482569428
744.375 0.0344571833324 163.591922296
745.0 0.0604666856742 120.635752813
745.625 0.0688266112696 110.209139171
746.25 0.0795623357109 80.5664745182
746.875 0.051915085235 67.8928942619
747.5 0.0737805098667 6.28453734995
748.125 0.0232172300223 4.78575259768
748.75 0.0187592835645 31.2804346488
749.375 0.0245964465815 -29.013810223
750.0 0.0346288680601 -45.3798854817
