!Created with skrf (http://scikit-rf.org).
# GHz S RI R (50+0j) 
!freq	ReS11	ImS11	
500.0	-1.129740793	-3.418698763	
500.625	0.5544199217	-1.436463335	
501.25	0.1187416908	-2.317572529	
501.875	-2.0949951	-1.703701802	
502.5	-0.2429371239	0.01023957668	
503.125	-0.2832808722	-0.07272126825	
503.75	0.3445448315	0.1694766882	
504.375	0.06769643411	0.08986676547	
505.0	-0.03816748545	-0.1968729497	
505.625	0.202247561	0.007853330872	
506.25	-0.6880030588	-0.3001071338	
506.875	0.631125763	-0.238061914	
507.5	0.01102252951	-1.882347334	
508.125	-1.181105791	-2.387925456	
508.75	0.8993383916	-0.8101489517	
509.375	-1.110871114	-5.622133108	
510.0	-0.920159927	0.4073111936	
510.625	-0.01974688705	-0.6813510358	
511.25	-0.4851134501	0.2641752385	
511.875	-0.3337421116	-0.2900944493	
512.5	-0.0476651327	0.2064069849	
513.125	-0.07874026659	-0.2879088832	
513.75	-0.1122708826	0.04409290945	
514.375	-0.2134412793	-0.4426542417	
515.0	-0.972584124	0.9598076438	
515.625	1.059276782	-3.296069587	
516.25	-3.131370077	0.2748218237	
516.875	0.8675192883	-1.173259146	
517.5	-0.7974200297	-1.041195222	
518.125	0.298595884	0.09977602597	
518.75	-0.6867695228	-0.8477668109	
519.375	-0.02351683212	0.1297441402	
520.0	0.2525316913	0.2788636678	
520.625	0.5352438861	-0.3413519529	
521.25	-0.2224106111	-0.3711929512	
521.875	-0.3230848162	-0.2702590991	
522.5	0.00271706177	0.2226575046	
523.125	-0.3388704708	-0.01527182033	
523.75	-0.1037239708	0.0882475798	
524.375	-0.589684537	-0.03730875426	
525.0	0.3490059443	0.3314105486	
525.625	-0.1208746256	0.1146673953	
526.25	0.1864548044	-0.08067956621	
526.875	-0.3562889209	0.1995977594	
527.5	0.2463959268	0.5136854537	
528.125	-0.184568708	0.4709136322	
528.75	0.2113771948	1.064835704	
529.375	-0.01741960482	-0.07628228187	
530.0	0.4299068246	0.6017709061	
530.625	0.05349258552	0.4802446509	
531.25	1.612406818	0.3223013375	
531.875	-0.06092140864	-0.400014757	
532.5	0.08446012376	-0.5125782216	
533.125	-0.2431785889	0.2796358996	
533.75	0.4246855249	-1.011540329	
534.375	-0.5520658598	-0.1814172642	
535.0	-0.4650930463	-0.649909187	
535.625	-0.369820329	0.6951174624	
536.25	0.003407009103	0.102393876	
536.875	0.2837275911	0.1360983356	
537.5	0.123124545	-0.2097368729	
538.125	0.2533321971	0.05398490291	
538.75	0.32198771	-0.5118858183	
539.375	-0.1029733086	-0.2071094054	
540.0	-0.3476374693	-0.5319599175	
540.625	-0.4865879234	0.1501200739	
541.25	-0.09417943551	-0.01528049502	
541.875	-0.08826484945	-0.1150484318	
542.5	-0.24192072	-0.08401346094	
543.125	0.001707345139	-0.03794903695	
543.75	-0.3849498963	-0.09752131329	
544.375	0.1332616581	0.1208273303	
545.0	-0.1816436424	0.2380437415	
545.625	0.2715331444	-0.04555390879	
546.25	0.02821298579	0.2777131698	
546.875	0.4494550384	-0.3134903485	
547.5	0.02118008695	-0.06266869504	
548.125	0.06675394473	-0.4762028101	
548.75	-0.4801757419	-0.2635283261	
549.375	-0.136149487	-0.003897612832	
550.0	-0.2847160663	-0.1043595933	
550.625	-0.01176846455	0.1188497958	
551.25	-0.2673402626	-0.02842377202	
551.875	-0.06760537164	0.2846336848	
552.5	-0.1210327414	0.0816691565	
553.125	-0.02283082379	0.2139799067	
553.75	0.1175457447	0.07451268439	
554.375	0.2122878241	0.01280116378	
555.0	0.2346414236	-0.1883210139	
555.625	0.1724386853	-0.2542523361	
556.25	0.1453645055	-0.3286068935	
556.875	-0.09597165942	-0.3806925273	
557.5	-0.2465879978	-0.2212288854	
558.125	-0.2574558613	-0.08265446434	
558.75	-0.2672846716	-0.007337940345	
559.375	-0.2340368133	0.09063036612	
560.0	-0.2038230306	0.1315042721	
560.625	-0.146724041	0.2956584811	
561.25	0.1034160165	0.2112213418	
561.875	-0.02604294018	0.1098151481	
562.5	0.1436143641	0.09414444874	
563.125	0.04881187708	0.2081068566	
563.75	0.439698477	-0.06127195457	
564.375	0.1026948183	-0.2066477673	
565.0	0.3153859953	-0.2931994968	
565.625	-0.2122591651	-0.4111327469	
566.25	-0.2062360239	-0.1139842991	
566.875	-0.2605384252	-0.2924292502	
567.5	-0.5024394915	-0.1998176215	
568.125	-0.1620377002	-0.2076459501	
568.75	-0.6555788358	-0.3382699098	
569.375	-0.4023476438	0.4418602058	
570.0	-0.3141186003	0.210241026	
570.625	-0.2445123445	0.7084551246	
571.25	0.2401275695	0.01386269835	
571.875	-0.02258298751	0.4692210668	
572.5	0.3274275099	-0.3851308599	
573.125	0.1386859661	0.07745062977	
573.75	0.3285111901	-0.4940338695	
574.375	-0.2652404325	-0.0930936933	
575.0	0.3740830471	-0.03755497099	
575.625	-0.1866199281	-0.3131795273	
576.25	0.2194968967	0.07834294693	
576.875	0.04114880976	-0.6059209348	
577.5	-0.2757878011	-0.310342588	
578.125	0.07450444079	-0.1962298645	
578.75	-0.1785891527	-0.4970668173	
579.375	-0.3698004854	0.03496875302	
580.0	0.1005757934	-0.129141583	
580.625	-0.3976159058	0.01797948572	
581.25	0.0225101629	0.03750328887	
581.875	-0.2891274378	0.4337812242	
582.5	0.4399719392	0.5059853981	
583.125	0.08451088296	-0.2315475687	
583.75	0.005979934501	0.5072550003	
584.375	0.122980561	-0.3522136347	
585.0	0.1242494235	0.5072084194	
585.625	0.5147115696	-0.3137630536	
586.25	0.02130565311	0.04244943104	
586.875	0.4475180865	-0.5065488578	
587.5	-0.3326550208	-0.1553451718	
588.125	0.2071758597	-0.2061165224	
588.75	0.1489773062	-0.5928992112	
589.375	-0.1439533506	-0.3084268445	
590.0	0.0910613626	-0.3409068863	
590.625	-0.5613321216	-0.1849212502	
591.25	-0.154846844	0.3483643864	
591.875	-0.1376524031	0.1104937155	
592.5	0.06518095752	0.2768621627	
593.125	-0.2213347112	0.0005208613491	
593.75	0.2808214655	0.3140556345	
594.375	0.2667695934	0.03587589685	
595.0	0.1240448458	0.4241057157	
595.625	0.8562401144	0.3134766902	
596.25	0.009654934256	-0.2192846044	
596.875	0.4288215072	0.4627744846	
597.5	0.5562508721	-0.03923472304	
598.125	0.006439718836	0.3088166939	
598.75	0.7379260005	0.1814357049	
599.375	0.1824052774	-0.1053339199	
600.0	0.6017690156	-0.1977643506	
600.625	0.2673399635	-0.6320764474	
601.25	-0.0089894031	-0.2623052435	
601.875	-0.03327430034	-0.4195357568	
602.5	-0.3514317106	0.005585939296	
603.125	-0.2733319276	0.1619477962	
603.75	-0.1352003345	0.07252949281	
604.375	-0.3849350163	0.1667993118	
605.0	0.04816287099	0.248484506	
605.625	-0.347979552	-0.02729753283	
606.25	-0.1325898912	0.3654067441	
606.875	-0.2941775706	-0.08764412207	
607.5	-0.6424626833	0.7703921852	
608.125	0.2313573183	0.1925677338	
608.75	0.1546814655	0.6718933594	
609.375	0.7398317199	-0.4324057274	
610.0	0.1465435867	0.005401687752	
610.625	0.3730991942	-0.6050806961	
611.25	-0.1910042428	-0.20734138	
611.875	0.006162202808	-0.475507734	
612.5	-0.4362490933	0.2070567461	
613.125	-0.3451466061	-0.1493602788	
613.75	-0.2621315525	0.5610782718	
614.375	0.06823273359	-0.07339678492	
615.0	0.270239854	0.3600439511	
615.625	-0.07469089287	-0.09922740629	
616.25	-0.2971942163	0.5937855669	
616.875	0.212701699	0.3807663729	
617.5	-0.4621208321	0.3318384804	
618.125	0.1217927797	0.7197220565	
618.75	0.09575858374	0.1741536587	
619.375	0.1657769981	0.5763693018	
620.0	0.3897655767	-0.07998274965	
620.625	0.3334063831	-0.2595793691	
621.25	-0.3344092258	-0.394052155	
621.875	-0.3252701134	-0.2200205222	
622.5	-0.5794964716	0.262556035	
623.125	-0.02385807514	0.2758099528	
623.75	0.3841147957	0.278866764	
624.375	-0.1551484813	-0.2639397813	
625.0	0.419562099	0.07111350907	
625.625	-0.3264866622	-0.2892315947	
626.25	0.2682148034	-0.2566169179	
626.875	-0.5678630118	-0.3024233794	
627.5	-0.1859809388	0.1550556352	
628.125	-0.1482653813	-0.4438730113	
628.75	-0.3882087676	-0.08390464288	
629.375	0.03477196988	-0.3409958157	
630.0	-0.6011918819	-0.2724731171	
630.625	-0.3119230413	0.3482792417	
631.25	-0.3576858217	0.2101505703	
631.875	-0.05666948567	0.7137542193	
632.5	0.3964143004	0.3938203679	
633.125	0.4292239277	-0.03406656011	
633.75	0.3564393825	0.04048946035	
634.375	-0.01297675524	-0.5526201281	
635.0	0.1011117368	-0.1501343806	
635.625	-0.4860479318	-0.310682039	
636.25	-0.1077855263	0.3048038271	
636.875	-0.4625172809	0.1151195501	
637.5	0.1570545362	0.479528354	
638.125	-0.1313510678	-0.2009556215	
638.75	-0.4228518299	0.7367107523	
639.375	0.4589037948	0.4808713844	
640.0	0.02084773815	0.2909727776	
640.625	0.6704273693	0.5881287026	
641.25	0.6133879454	-0.3945923179	
641.875	0.3530928482	-0.06442733103	
642.5	-0.2681942508	-0.9019240673	
643.125	-0.07187841719	0.05860068861	
643.75	-0.3286927846	-0.5316630286	
644.375	-0.5078693795	0.3998056952	
645.0	-0.03712451212	0.09976426818	
645.625	-0.1993971232	0.5899246956	
646.25	0.7369345279	0.1940184867	
646.875	-0.06750663125	-0.2771155258	
647.5	0.3636703985	0.4762205809	
648.125	0.07423591379	-0.4294917235	
648.75	0.8091118	0.3992164622	
649.375	0.4750079332	-1.099623919	
650.0	-0.135314027	-0.2601983303	
650.625	1.043218254	-0.4311866896	
651.25	0.1316733855	-1.36696851	
651.875	0.02180307124	0.1152510459	
652.5	1.184572109	-0.03398478187	
653.125	0.4055453118	-0.7989032461	
653.75	0.2332142675	-0.03411818759	
654.375	-0.2177114976	-1.177178048	
655.0	-0.6912251974	0.2828204358	
655.625	-0.2508745454	-0.03862790527	
656.25	-0.07274728906	0.854013815	
656.875	0.3668205683	-0.3163720089	
657.5	-0.1045573782	0.575582374	
658.125	0.6009547944	0.2394481992	
658.75	0.4410673466	-0.04493280831	
659.375	0.8721555805	0.05586565788	
660.0	0.3785259782	-1.164829865	
660.625	0.05938917299	-0.359861665	
661.25	0.7000505127	-0.606430562	
661.875	0.352205479	-1.143029957	
662.5	-0.004872959299	-0.08883414655	
663.125	1.164331099	-0.3954941993	
663.75	-0.1556143984	-0.9132607714	
664.375	0.1693725896	-0.3446404718	
665.0	-0.9725663161	-0.7467455271	
665.625	-0.2463375445	0.4611367519	
666.25	-0.5414001592	0.4502300571	
666.875	0.5306049365	0.6334999003	
667.5	0.2955732716	-0.1389899585	
668.125	0.4762020783	0.3465785169	
668.75	0.5105492613	-0.6684203724	
669.375	-0.007463816985	-0.3782087434	
670.0	0.179151599	-0.4011298381	
670.625	-0.08684228783	-0.6626688845	
671.25	0.02519330589	-0.1006456947	
671.875	0.430944287	-0.5202041065	
672.5	0.2902121454	-0.5093274241	
673.125	0.2730804982	-0.1486090912	
673.75	0.7685379474	-0.6331498371	
674.375	-0.4803677177	-0.7653219618	
675.0	0.1960243795	-0.08037271503	
675.625	-0.6462555187	-0.7006229695	
676.25	-0.4638780058	0.5291524767	
676.875	-0.1383706412	-0.506232386	
677.5	-0.4959884903	0.682311369	
678.125	-0.1201208407	-0.1096372347	
678.75	-0.1067294696	0.960210025	
679.375	0.651885917	-0.4120496184	
680.0	0.08588458218	0.1239358077	
680.625	0.4736686372	-0.1722473766	
681.25	0.1144294255	-0.3713814776	
681.875	0.03130782635	0.2538752466	
682.5	0.6778196775	0.410772131	
683.125	0.5953296916	-0.1005263215	
683.75	0.3475906242	0.07096767896	
684.375	0.8725521854	0.3694126161	
685.0	0.5382670503	-0.5133460512	
685.625	0.5573795045	0.465273145	
686.25	1.072832266	-0.5379004301	
686.875	-0.1244154332	-0.3370773064	
687.5	1.378189069	-0.3969654542	
688.125	-1.171391587	-1.450845839	
688.75	-0.06264779925	-0.1799326365	
689.375	-1.262219656	1.035383254	
690.0	0.7926350593	0.4674460075	
690.625	-0.02542784993	0.8213591793	
691.25	1.297721425	0.2502298427	
691.875	0.6232612101	0.5489465948	
692.5	1.474638076	0.6590807531	
693.125	1.591349139	-0.3922690089	
693.75	1.121349527	-0.4074090948	
694.375	0.9279833437	-0.9938878863	
695.0	0.9229614	-0.4697620351	
695.625	1.429742552	-0.6275224145	
696.25	0.670937525	0.09440874182	
696.875	1.244316749	1.504804515	
697.5	1.285655952	0.112372906	
698.125	1.023038959	0.8679866698	
698.75	1.025632524	-1.830434703	
699.375	-0.6239052735	0.07565962002	
700.0	-1.345145977	0.8055733294	
700.625	0.9385143213	0.3966694113	
701.25	-0.04762647556	0.5424389073	
701.875	1.261363726	0.4274064173	
702.5	0.3141360326	0.3546639217	
703.125	1.247401898	0.5018999089	
703.75	0.6312880368	-0.6554271528	
704.375	0.8869649791	0.06933804455	
705.0	0.534590309	-0.8288049187	
705.625	0.1138467727	0.2146722082	
706.25	1.300808182	0.7190376674	
706.875	0.37030547	-0.07644766306	
707.5	0.5174793729	1.195020336	
708.125	1.478996193	-0.2860623368	
708.75	0.3811618776	-0.43725848	
709.375	-0.9174063219	-0.9817654087	
710.0	0.006478833578	0.7142690302	
710.625	-0.07984333132	0.3657139817	
711.25	0.41183756	0.2229375909	
711.875	0.4255905693	0.2026617783	
712.5	0.7302327239	-0.1065147324	
713.125	0.5221674427	-0.2696960039	
713.75	0.3857526825	-0.8644160961	
714.375	-0.2933621849	-0.2347800063	
715.0	0.3678436106	-0.8260970956	
715.625	-0.5090208526	-0.4179814817	
716.25	0.6647673433	-0.01215490846	
716.875	1.313314383	-1.256446855	
717.5	-0.2376796957	-0.2974247896	
718.125	2.805234982	1.012883431	
718.75	2.104194644	-2.094822769	
719.375	0.2317448991	0.05011368961	
720.0	2.599244409	-3.268761492	
720.625	-1.475664848	-2.088573733	
721.25	0.4556596301	-2.243881629	
721.875	-0.9479643073	-3.160196017	
722.5	-1.89491893	-0.4214161975	
723.125	-1.73289632	-0.9116950019	
723.75	-0.8383323646	1.693466665	
724.375	0.3798555135	0.7026056947	
725.0	0.2136198495	0.7246469251	
725.625	0.3221044823	1.600951878	
726.25	1.190987724	1.299765853	
726.875	-0.9275571949	1.413988192	
727.5	-0.4327332676	5.014518964	
728.125	3.600104044	3.421171207	
728.75	-6.169450632	4.839784246	
729.375	8.587242743	13.73566632	
730.0	2.424084615	1.250833661	
730.625	-10.02052398	17.98294671	
731.25	13.59613083	13.43815145	
731.875	-3.589675996	-1.892112878	
732.5	-12.6935329	5.155697393	
733.125	-6.347360483	4.545482316	
733.75	0.01027800838	1.701733253	
734.375	3.244595768	1.807958078	
735.0	-1.009941436	-0.6976464381	
735.625	-0.8454695044	-0.1582538932	
736.25	-0.1577586506	2.248093717	
736.875	1.535600529	-0.04684614733	
737.5	1.437408089	1.491273984	
738.125	5.465861382	-1.034132259	
738.75	4.030709439	-7.401166287	
739.375	-1.747378913	-0.8873681375	
740.0	19.0931642	5.279644432	
740.625	2.721272932	-15.02606204	
741.25	-10.97126238	13.05025065	
741.875	-20.2970576	17.84638102	
742.5	9.653679119	-3.60220119	
743.125	0.01731644142	-9.649367778	
743.75	-3.044121434	-1.617074929	
744.375	0.04881035488	-0.04960381712	
745.0	-0.1030946013	0.7470640179	
745.625	-0.1875061451	-0.2177199915	
746.25	0.1530905013	-0.5313328329	
746.875	-0.4681155039	0.3326500067	
747.5	-0.0344030703	0.7660364933	
748.125	0.04768316399	1.88593857	
748.75	1.094999207	1.119532403	
749.375	-0.06462448847	0.865009534	
750.0	-1.085159509	0.1675647346	
