!Created with skrf (http://scikit-rf.org).
# GHz S RI R (50+0j) 
!freq	ReS11	ImS11	
500.0	-0.2872421374	-0.7511905418	
500.625	0.4812227666	-0.5644779135	
501.25	-0.7302560433	-0.6166670357	
501.875	-0.1337396438	-0.1280856088	
502.5	-0.001630947683	-0.1441183774	
503.125	-0.05808048591	0.03869049917	
503.75	-0.02515603799	0.03555231149	
504.375	0.05099062945	-0.02671853688	
505.0	-0.005669734635	0.003950207029	
505.625	0.02752130663	-0.06838537732	
506.25	-0.09338348066	0.0362268834	
506.875	-0.1055260762	-0.2181078954	
507.5	-0.3940931116	-0.297547586	
508.125	0.2723011831	-0.1946365772	
508.75	0.7639906173	-0.8699732088	
509.375	-0.2511125905	-0.7349737418	
510.0	-0.1237445949	-0.1466084926	
510.625	-0.1426665137	-0.3227244659	
511.25	-0.0693817602	0.007048586656	
511.875	-0.06552311962	-0.05112642308	
512.5	-0.02401858822	0.06760817894	
513.125	-0.0250400884	-0.01456539377	
513.75	0.0007222688656	-0.07418947149	
514.375	-0.1124331232	0.06062065392	
515.0	0.2613853889	-0.1044916644	
515.625	-0.3989440888	0.001304664976	
516.25	0.230460926	-0.2803883522	
516.875	-0.3108493693	-0.5894825878	
517.5	-0.1340784942	-0.06388008749	
518.125	-0.01098286115	-0.08438629217	
518.75	-0.08649320065	-0.05194149694	
519.375	-0.01696460061	0.01329790066	
520.0	0.07204008962	0.07784410095	
520.625	0.1200822769	-0.06036302392	
521.25	-0.04912898859	-0.1947510068	
521.875	-0.06645156117	-0.03890324949	
522.5	-0.08132627713	0.06318214004	
523.125	0.04628266127	-0.01436736392	
523.75	-0.208088376	-0.02195580232	
524.375	-0.0006167519305	0.1252724347	
525.0	-0.1273194512	0.01177349504	
525.625	0.0841674586	0.1209970058	
526.25	-0.09420926922	-0.01153475144	
526.875	0.01051828759	0.08501699117	
527.5	-0.02674782326	0.05117170894	
528.125	0.03260176939	0.2801658703	
528.75	0.04994001429	0.1272948628	
529.375	-0.005935514713	0.04213791994	
530.0	0.04944225213	0.1615817747	
530.625	0.1081546439	0.1112443607	
531.25	0.09933055162	-0.03199027812	
531.875	0.2487048597	-0.2286192137	
532.5	-0.03440536042	0.03540272214	
533.125	0.130791158	-0.1596553185	
533.75	-0.06297474733	-0.1002018133	
534.375	0.006436030187	-0.2917325709	
535.0	-0.2726356002	-0.007646710448	
535.625	-0.07059293134	0.06304613787	
536.25	-0.02576697957	0.09352469171	
536.875	0.09752374154	-0.0261017542	
537.5	0.04477401176	0.00406098097	
538.125	0.1398319782	-0.09742714226	
538.75	0.0809970204	-0.1022289941	
539.375	-0.03470205514	-0.1565430393	
540.0	-0.2050141507	-0.1358194595	
540.625	-0.09595921737	0.02304106331	
541.25	0.008320615428	0.004049934498	
541.875	-0.07757422249	-0.01348312967	
542.5	0.0208277952	-0.008658699967	
543.125	-0.124146429	-0.06071856239	
543.75	-0.0366250393	0.1194826684	
544.375	-0.08288449347	-0.007606998889	
545.0	0.05004832441	0.06832877427	
545.625	-0.02866631635	0.03003276853	
546.25	0.1445739875	0.04798926617	
546.875	0.04763944171	-0.06384104103	
547.5	0.09788634561	-0.07851052	
548.125	-0.07229378372	-0.1800069864	
548.75	-0.09528551201	-0.02850229255	
549.375	-0.07258695553	-0.1022021948	
550.0	-0.08829002926	0.04386185496	
550.625	-0.01919793964	-0.0103671129	
551.25	-0.09253701904	0.03993430922	
551.875	-0.03439350392	0.05738316625	
552.5	-0.05821765344	0.06426496634	
553.125	0.002192810306	0.0630605399	
553.75	0.0305044499	0.03041770717	
554.375	0.09014866228	-0.006088098499	
555.0	0.0786393493	-0.06796008647	
555.625	0.07180432742	-0.09312176291	
556.25	0.05202704919	-0.1296175415	
556.875	-0.04285699343	-0.1345165143	
557.5	-0.09122335082	-0.08286948395	
558.125	-0.1068284344	-0.03430487626	
558.75	-0.1017403756	0.004238108118	
559.375	-0.09197271659	0.02401223189	
560.0	-0.09214609687	0.0634999389	
560.625	-0.03840091206	0.1181791998	
561.25	0.0108753345	0.0644577449	
561.875	0.023829593	0.06550616156	
562.5	0.02281726717	0.01966349697	
563.125	0.0491666631	0.08675067925	
563.75	0.1551109948	-0.02620111361	
564.375	0.0745611732	-0.07305482985	
565.0	0.09767491362	-0.1432914045	
565.625	-0.0971204708	-0.1538057961	
566.25	-0.04711005197	-0.06153642253	
566.875	-0.1653541267	-0.1255180612	
567.5	-0.1457404894	-0.00882945366	
568.125	-0.04896787368	-0.1872991283	
568.75	-0.2687539116	-0.04156173128	
569.375	-0.09174072776	0.08192890341	
570.0	-0.182001813	0.1405787706	
570.625	-0.003519056514	0.2392640898	
571.25	0.003157264505	0.02307309485	
571.875	0.08617769166	0.1618239786	
572.5	0.05935305266	-0.08937429614	
573.125	0.1294856513	-0.010470439	
573.75	0.04646138986	-0.1856149763	
574.375	-0.05621304985	0.01006011403	
575.0	0.1026086005	-0.05975648066	
575.625	-0.04841272569	-0.07645222798	
576.25	0.08707241378	-0.02259989627	
576.875	0.006291670868	-0.2038837954	
577.5	-0.08342323498	-0.1019211533	
578.125	0.05944162342	-0.07787042015	
578.75	-0.09328627573	-0.2136537319	
579.375	-0.1238795129	0.08956201889	
580.0	0.0545137907	-0.1192964167	
580.625	-0.136402743	0.08348073413	
581.25	-0.02840415521	-0.02445930871	
581.875	-0.06871921778	0.2765242067	
582.5	0.1612909653	0.102884228	
583.125	-0.00812097729	0.009779274843	
583.75	0.09821432247	0.1008499564	
584.375	-0.036537357	-0.06090461374	
585.0	0.1103331702	0.1542236751	
585.625	0.178388063	-0.07847593624	
586.25	0.05506253306	-0.01955337695	
586.875	0.1314902993	-0.1543593447	
587.5	-0.0894682283	-0.135956008	
588.125	0.03002298863	-0.0585356984	
588.75	0.08201308995	-0.1941033789	
589.375	-0.04726494925	-0.1376142032	
590.0	0.05221993501	-0.1359158486	
590.625	-0.2689435236	-0.04024063556	
591.25	0.01233152863	0.09668817695	
591.875	-0.1447075046	0.03498884052	
592.5	0.08737699486	0.1336796686	
593.125	-0.1053447651	-0.03757927443	
593.75	0.1536387757	0.1190535339	
594.375	0.03529680256	0.02368437931	
595.0	0.1083271463	0.1652092467	
595.625	0.2248347615	0.07522981419	
596.25	0.04335632064	0.01836000134	
596.875	0.1736885767	0.1115508609	
597.5	0.1623413532	0.002457251984	
598.125	0.05928103208	0.07598996699	
598.75	0.1842379913	0.1300490216	
599.375	0.1716018235	-0.07579660395	
600.0	0.1153683122	-0.0652259484	
600.625	0.1988100754	-0.1554895455	
601.25	0.003392675553	-0.2255918476	
601.875	0.02879241035	-0.03440444985	
602.5	-0.2113712903	-0.05502148612	
603.125	-0.01361967453	0.1005428699	
603.75	-0.1750300279	-0.05891223799	
604.375	-0.1464396892	0.1573040225	
605.0	-0.04771562799	-0.111419244	
605.625	-0.1536644287	0.09067718627	
606.25	-0.04554881579	0.1198076967	
606.875	-0.1217754582	-0.00151913012	
607.5	-0.1111686952	0.212926189	
608.125	0.04367083347	0.1898307754	
608.75	0.1845075556	0.1756328995	
609.375	0.2846276038	-0.01915405638	
610.0	0.1917094625	-0.1247653812	
610.625	0.0933942059	-0.0715082484	
611.25	-0.00437840547	-0.2346073906	
611.875	-0.07960061064	-0.009513076728	
612.5	-0.085567265	-0.149524934	
613.125	-0.2586927481	0.1097752961	
613.75	0.03342016456	0.04717953743	
614.375	-0.01217269715	0.2174637205	
615.0	0.1171308068	-0.04175693727	
615.625	-0.1064511905	0.08588289511	
616.25	0.03635002576	0.2199370969	
616.875	-0.1104974849	0.1142409052	
617.5	-0.07459816679	0.2349499556	
618.125	0.02528038497	0.2546312726	
618.75	0.03583485251	0.1374517224	
619.375	0.08056749945	0.03925180137	
620.0	0.2151551037	0.1306592466	
620.625	0.03958651651	-0.1227766055	
621.25	-0.02269658056	-0.2125901437	
621.875	-0.3147550099	-0.1076504966	
622.5	-0.08163675821	0.08952199701	
623.125	-0.1371987597	0.1609341721	
623.75	0.1966083336	-0.003621388774	
624.375	-0.03982907543	0.004302139572	
625.0	0.09630693738	-0.0936402354	
625.625	-0.01413053514	-0.03976482821	
626.25	0.01477877725	-0.1639068256	
626.875	-0.2055637267	-0.05572247121	
627.5	-0.05673904295	0.01123959064	
628.125	-0.09243761342	-0.07869235792	
628.75	-0.09691268858	-0.08439070295	
629.375	-0.03188142054	-0.1062183667	
630.0	-0.1351249573	-0.1248068127	
630.625	-0.272162984	0.1095990154	
631.25	-0.06860563303	0.1449399647	
631.875	-0.06184397903	0.2576238229	
632.5	0.202120945	0.1413517859	
633.125	0.05789782283	-0.002909762462	
633.75	0.2441247357	-0.04075922691	
634.375	-0.0518951532	-0.1416007768	
635.0	0.09502827886	-0.08007980585	
635.625	-0.2228315268	-0.08218985976	
636.25	-0.06443866479	0.1148326926	
636.875	-0.09728053593	0.03527459355	
637.5	-0.0003256702834	0.1772941824	
638.125	-0.02036715534	-0.01875642258	
638.75	-0.1303594975	0.2097397486	
639.375	0.11108288	0.2118858581	
640.0	0.04358172829	0.1682498951	
640.625	0.2252582291	0.1960190593	
641.25	0.2970251708	-0.102082522	
641.875	0.0700224167	-0.1028681396	
642.5	0.0648801737	-0.2629654812	
643.125	-0.1969396142	-0.02382467367	
643.75	0.08838691906	-0.08040861213	
644.375	-0.3341310445	-0.005630744341	
645.0	0.02161964291	0.1380681023	
645.625	-0.1637191037	0.1776888255	
646.25	0.3992463444	0.06633999318	
646.875	-0.07754130182	-0.07371994416	
647.5	0.1760862962	0.1155207073	
648.125	0.1100362149	-0.111847622	
648.75	0.1841273551	0.08216435633	
649.375	0.3152906529	-0.3827595778	
650.0	-0.05684943786	-0.2667172637	
650.625	0.2144037768	-0.1244450222	
651.25	0.2330195144	-0.3502804036	
651.875	0.03047468564	-0.2196473824	
652.5	0.2526045204	0.03406011823	
653.125	0.2971575774	-0.2215476901	
653.75	0.02326430197	-0.1926051305	
654.375	0.0860628972	-0.2880852261	
655.0	-0.4098462547	-0.03051467523	
655.625	0.08356964209	0.1744362871	
656.25	-0.1142303868	0.1312904663	
656.875	0.3286363125	0.1197653174	
657.5	-0.1929197706	0.01475976963	
658.125	0.2758865178	0.2185325621	
658.75	0.1857102668	-0.09727108027	
659.375	0.2588041554	0.0198691324	
660.0	0.2848513289	-0.3809230332	
660.625	-0.06195426118	-0.2824974913	
661.25	0.2212123563	-0.1438018681	
661.875	0.2375648426	-0.3426222987	
662.5	0.08387549731	-0.2347032365	
663.125	0.2611242878	-0.06689976234	
663.75	0.1212400722	-0.3834905838	
664.375	-0.1020033225	-0.1702549586	
665.0	-0.1795452331	-0.2308153629	
665.625	-0.3860148158	0.1504184778	
666.25	0.06105797024	0.1832570391	
666.875	0.009239018468	0.2300700947	
667.5	0.2991860968	0.03804707556	
668.125	0.0119474605	-0.03024500162	
668.75	0.3196147815	-0.1023426062	
669.375	-0.1466504269	-0.2872625663	
670.0	0.06376313409	-0.07004432446	
670.625	0.04881406129	-0.2981148669	
671.25	-0.08278973114	-0.1637340056	
671.875	0.243691813	-0.02644995721	
672.5	0.2142321032	-0.2620293887	
673.125	0.08236803167	-0.1619569864	
673.75	0.1598991606	-0.1194459328	
674.375	0.04032555241	-0.3700405747	
675.0	-0.1529145408	-0.0692301233	
675.625	-0.1164477697	-0.1960393641	
676.25	-0.2524862969	0.02025809959	
676.875	-0.04701070532	0.07386582667	
677.5	-0.1773408558	-0.08406540918	
678.125	-0.07775599774	0.2826404446	
678.75	0.05342170906	0.04912032713	
679.375	0.1923452619	0.2721088604	
680.0	0.1709824148	-0.3151153654	
680.625	-0.0762387154	0.07265898983	
681.25	0.3398750622	-0.1510590207	
681.875	-0.04456878865	-0.1042673291	
682.5	0.1194049473	0.3065506368	
683.125	0.458192944	-0.01130498591	
683.75	0.02128672241	-0.03803335133	
684.375	0.2546020014	0.1570591282	
685.0	0.330012707	-0.05904678595	
685.625	0.1049453989	-0.1307918649	
686.25	0.3085335225	0.1598552854	
686.875	0.2255638788	-0.3361308149	
687.5	0.189539919	-0.192082377	
688.125	0.03455491924	-0.4385494553	
688.75	-0.5426171822	-0.0537879231	
689.375	-0.06987120511	0.1995612773	
690.0	-0.0209453143	0.4466434895	
690.625	0.3970974998	0.09613847287	
691.25	0.0645502397	0.1727684627	
691.875	0.7574507875	0.4076357694	
692.5	0.4385217308	-0.1512193178	
693.125	0.6464643425	0.2496196715	
693.75	0.6799318903	-0.3693290287	
694.375	0.1709748923	-0.4762120989	
695.0	0.4853274333	-0.1259675759	
695.625	0.4346509634	-0.2740321702	
696.25	0.3771761304	0.02985436576	
696.875	0.2875738606	0.3066030945	
697.5	0.4511627161	0.4124830211	
698.125	0.4118609675	-0.06012503874	
698.75	0.3290120331	-0.3027035228	
699.375	-0.4891620705	-0.3949820046	
700.0	-0.05508113919	0.3983315463	
700.625	-0.01558503717	0.1369699805	
701.25	0.4043827319	0.1744825476	
701.875	0.1294523157	0.0389692584	
702.5	0.2909483794	0.3561448716	
703.125	0.5138288432	-0.04854798542	
703.75	0.2185586235	0.03526251056	
704.375	0.3866807927	-0.1542102656	
705.0	0.1828103242	-0.2543359288	
705.625	0.1523978108	0.0637933363	
706.25	0.2647188616	0.02219396081	
706.875	0.2217007779	0.1587066566	
707.5	0.1810953284	0.2572061796	
708.125	0.2920479714	0.08433763447	
708.75	0.3279298995	-0.4526809552	
709.375	-0.1821809335	-0.1050155991	
710.0	-0.2598609894	0.1730839155	
710.625	0.3100493764	0.1472016435	
711.25	-0.08834472489	0.1099081035	
711.875	0.3508036132	0.08512956484	
712.5	0.1014222213	-0.08645809661	
713.125	0.3033754355	-0.08659430786	
713.75	0.09218100285	-0.3248290101	
714.375	-0.0686520067	-0.1294650363	
715.0	0.06131144539	-0.2181678373	
715.625	-0.08203776655	-0.2436930247	
716.25	0.08242111427	-0.08757709684	
716.875	0.301242284	-0.1138792524	
717.5	0.4002400049	-0.2312080496	
718.125	0.4134463255	0.04585185373	
718.75	0.5198618634	0.1016140283	
719.375	0.5666888255	-0.6251711053	
720.0	-0.2752877555	-0.2937539594	
720.625	0.5082081599	-0.9592823163	
721.25	-1.13203093	-0.7634436147	
721.875	0.2983793258	-0.4821063206	
722.5	-0.796568885	-0.8228875961	
723.125	-0.5862914785	0.2621584882	
723.75	-0.3656998884	0.09331440716	
724.375	0.1533752965	0.6386115273	
725.0	0.1915155121	0.09125661569	
725.625	0.01703787993	0.4433879391	
726.25	0.2181716563	0.7153511757	
726.875	0.1687186293	0.5188570712	
727.5	-0.4653273894	0.9692036152	
728.125	0.3155401635	1.974736939	
728.75	0.6197273257	1.395092405	
729.375	-1.172110617	2.44561508	
730.0	1.022921117	4.211542509	
730.625	2.159699847	2.259652775	
731.25	-1.66414954	1.9324067	
731.875	-2.461419302	4.611234478	
732.5	-1.054569172	0.9804992913	
733.125	-3.000754909	-0.6296234482	
733.75	-0.1906631639	1.853867513	
734.375	0.2752905566	-0.1445612294	
735.0	0.3979027369	-0.7210175708	
735.625	-0.3584131368	0.5419217663	
736.25	-0.246105665	0.1246666775	
736.875	0.6038325766	0.7011576669	
737.5	0.9109210882	-0.2943860382	
738.125	0.2865392382	-0.08282681547	
738.75	2.5541219	-0.8367760369	
739.375	0.8107154758	-2.833683506	
740.0	0.5771452689	0.2309093793	
740.625	4.710596896	2.251060292	
741.25	3.071138656	0.06988258863	
741.875	-2.782238792	-2.14456911	
742.5	-2.032494731	-3.095919582	
743.125	-1.110865215	-0.4743412979	
743.75	0.5285140686	-0.6819511519	
744.375	-0.6214976605	0.08541039719	
745.0	0.07173835195	-0.08742957981	
745.625	0.1899765168	0.04232275208	
746.25	-0.09790275417	-0.02555917468	
746.875	-0.1207507209	-0.07209072358	
747.5	-0.007038804021	0.4463590362	
748.125	0.2081575159	0.3450768079	
748.75	0.1288446752	0.3909290561	
749.375	0.1704246555	0.4554986281	
750.0	-0.2796394657	0.2049419929	
