!Created with skrf (http://scikit-rf.org).
# GHz S RI R (50+0j) 
!freq	ReS11	ImS11	
500.0	1.023258092	-4.894022681	
500.625	-0.2679203737	-1.381375508	
501.25	-1.754144489	-2.347725709	
501.875	-1.065239246	-0.4836786097	
502.5	-0.1053274272	-0.3682378563	
503.125	-0.3192102356	-0.04067045293	
503.75	0.3174204146	0.2311059951	
504.375	-0.007248042458	0.06156528166	
505.0	0.1051444569	-0.1761275029	
505.625	-0.002780649034	0.08300177522	
506.25	-0.40454931	-0.4864977996	
506.875	0.7076980249	-0.1806751376	
507.5	-1.056868378	-2.12951935	
508.125	-1.005683861	-0.4589886766	
508.75	2.681697068	-1.637766342	
509.375	-1.12432494	-5.267915973	
510.0	-1.20795472	-0.3540127348	
510.625	-0.2895810391	-0.3287119566	
511.25	-0.5588408583	-0.06637193524	
511.875	-0.3355077933	-0.06321482235	
512.5	-0.09855898161	0.107645166	
513.125	-0.06541844359	-0.2881959687	
513.75	-0.1037747873	-0.1421656046	
514.375	-0.3218672486	-0.2396661272	
515.0	-0.3996271951	0.9406420176	
515.625	0.4515260608	-3.300962911	
516.25	-3.120384572	0.02419799614	
516.875	0.9168009407	-0.7727951797	
517.5	-0.5847885856	-1.145326649	
518.125	0.2576388243	0.1901836854	
518.75	-0.5717682535	-0.8317887956	
519.375	0.009262785499	0.09935449532	
520.0	0.2188608541	0.3330580303	
520.625	0.5420839055	-0.3821214417	
521.25	-0.2177936486	-0.3991375971	
521.875	-0.3688605027	-0.2605157651	
522.5	-0.02641101815	0.1807588174	
523.125	-0.3367413798	-0.01040499646	
523.75	-0.09817834595	0.1504287555	
524.375	-0.4534152905	-0.1184213995	
525.0	0.2110195428	0.4405711487	
525.625	-0.11872166	0.06294192236	
526.25	0.1969817364	-0.06571852048	
526.875	-0.3642978115	0.2205412288	
527.5	0.222018079	0.5273974173	
528.125	-0.2170646087	0.4844852458	
528.75	0.1814950552	1.077362957	
529.375	0.02538064444	-0.1013155575	
530.0	0.3110794853	0.8419472799	
530.625	0.1995858931	0.4529457523	
531.25	1.497237936	0.5145429277	
531.875	-0.08737613389	-0.4207400407	
532.5	0.1830114882	-0.6829524203	
533.125	-0.3550735701	0.4415529853	
533.75	0.5303993308	-1.099286512	
534.375	-0.560435761	-0.08409435526	
535.0	-0.4496184974	-0.595607849	
535.625	-0.3648432448	0.7151365593	
536.25	-0.06235921866	0.07437253969	
536.875	0.360580426	0.1310023407	
537.5	0.08892687932	-0.2018626384	
538.125	0.2402566176	0.07182253286	
538.75	0.3907588371	-0.4341534511	
539.375	-0.1565580691	-0.275611722	
540.0	-0.319018346	-0.3976273175	
540.625	-0.4734647764	0.0459032745	
541.25	-0.06959208191	-0.02685096692	
541.875	-0.213467081	-0.05696059563	
542.5	-0.07817223147	-0.03778225031	
543.125	-0.1298735055	-0.1361800619	
543.75	-0.344013499	-0.0201565745	
544.375	0.1419130149	0.1188038085	
545.0	-0.2230034578	0.2029620718	
545.625	0.3499758076	-0.01828608632	
546.25	-0.05869742858	0.2318127603	
546.875	0.5077676445	-0.2592408063	
547.5	0.009954629006	-0.06048581779	
548.125	0.08856118017	-0.5478765572	
548.75	-0.4973995834	-0.1773593658	
549.375	-0.07616773349	-0.07070551364	
550.0	-0.2909208162	-0.1007109557	
550.625	-0.04440625478	0.1376427205	
551.25	-0.2238145547	-0.05915732585	
551.875	-0.1410752489	0.2850269009	
552.5	-0.09754199196	0.08494292522	
553.125	-0.03132487061	0.21462139	
553.75	0.09282156967	0.08041107851	
554.375	0.2316070861	0.01640323188	
555.0	0.2277775269	-0.1834565341	
555.625	0.1742096577	-0.248166868	
556.25	0.1563095869	-0.329379939	
556.875	-0.08246977908	-0.3904140236	
557.5	-0.2370459858	-0.2303635732	
558.125	-0.247885263	-0.08371423035	
558.75	-0.2655055224	-0.0221053305	
559.375	-0.2349189787	0.08017080004	
560.0	-0.224053909	0.1148981206	
560.625	-0.139454775	0.3190460347	
561.25	0.08992161943	0.1638560794	
561.875	-0.02768649075	0.1276121561	
562.5	0.1447182446	0.1202121694	
563.125	0.03059303753	0.1427595976	
563.75	0.4436060207	0.02610668252	
564.375	0.121596886	-0.2547510054	
565.0	0.3148356197	-0.2719473232	
565.625	-0.2265078065	-0.3956746332	
566.25	-0.1127138858	-0.1640770421	
566.875	-0.3654555313	-0.2958549639	
567.5	-0.4370375749	-0.1370239576	
568.125	-0.1276561149	-0.2731145947	
568.75	-0.6234177521	-0.4011835553	
569.375	-0.4985567165	0.4811823374	
570.0	-0.2020982369	0.1391526923	
570.625	-0.4116838486	0.6717881119	
571.25	0.2617708451	0.03955410662	
571.875	-0.03874217413	0.4756662606	
572.5	0.2996426633	-0.4053167208	
573.125	0.2320593909	0.1631584539	
573.75	0.3113214225	-0.5631669934	
574.375	-0.2679665865	-0.134801687	
575.0	0.330003555	0.07611826904	
575.625	-0.1181725989	-0.4063739507	
576.25	0.1640669933	0.1020637074	
576.875	0.0570743153	-0.607033683	
577.5	-0.261678446	-0.2922303467	
578.125	0.1599456093	-0.2121119166	
578.75	-0.2218267757	-0.53167712	
579.375	-0.3605207841	0.01594457823	
580.0	0.1200392903	-0.07239400559	
580.625	-0.4257871615	-0.1180836878	
581.25	0.07746124209	0.139172329	
581.875	-0.3510287028	0.3227301431	
582.5	0.4143581283	0.5427719422	
583.125	0.04231654027	-0.1963626727	
583.75	0.1043803766	0.4834479956	
584.375	0.0505169507	-0.3748866192	
585.0	0.1788379196	0.5815439209	
585.625	0.5762004446	-0.2518698172	
586.25	0.028621659	-0.1379079606	
586.875	0.446874652	-0.2241688658	
587.5	-0.3096965735	-0.4011622332	
588.125	0.1762996521	-0.1126355489	
588.75	0.1533029405	-0.5930036353	
589.375	-0.0852664842	-0.1969538456	
590.0	0.2355932886	-0.5289658166	
590.625	-0.6365197764	0.02588253025	
591.25	-0.1345845833	0.2269074722	
591.875	-0.1370263219	0.09903840029	
592.5	-0.1299887963	0.3293018404	
593.125	0.03029233288	-0.1891981772	
593.75	0.1623827179	0.613758971	
594.375	0.335836271	-0.03821265763	
595.0	0.1213431479	0.4582338109	
595.625	0.7539077863	0.1976688078	
596.25	-0.03643393428	-0.006104261889	
596.875	0.5726185096	0.4504363446	
597.5	0.5414942323	-0.1311831184	
598.125	-0.008238533496	0.2405025923	
598.75	0.5104638714	0.3897886506	
599.375	0.4133936905	-0.254587011	
600.0	0.4088876772	-0.09904204018	
600.625	0.4169962898	-0.5719199218	
601.25	0.03874387914	-0.2479699476	
601.875	-0.02580581647	-0.490545518	
602.5	-0.3659705487	0.1069598592	
603.125	-0.1595273046	-0.02750108768	
603.75	-0.2717622349	0.1636280047	
604.375	-0.3213931315	0.1293868297	
605.0	0.05124714006	0.3057107082	
605.625	-0.4055829988	-0.189666703	
606.25	-0.1780737567	0.5075210769	
606.875	-0.1590365217	-0.1625558918	
607.5	-0.7769211521	0.7374641051	
608.125	0.2092723246	0.2063968471	
608.75	0.1288340384	0.6835068413	
609.375	0.7722535093	-0.4660982133	
610.0	0.1040230122	0.08120436816	
610.625	0.4333809959	-0.604872223	
611.25	-0.1912630002	-0.1982945819	
611.875	-0.003339666426	-0.4760622199	
612.5	-0.430392988	0.1138438371	
613.125	-0.3719395455	-0.2129769084	
613.75	-0.2690182878	0.5182501427	
614.375	0.06174339793	-0.07575876442	
615.0	0.2599962899	0.4288966462	
615.625	-0.04136117527	-0.142400486	
616.25	-0.3580870289	0.5481290522	
616.875	0.2059646161	0.4540091328	
617.5	-0.467095432	0.2936219402	
618.125	0.102417248	0.734099019	
618.75	0.08949387313	0.1701927152	
619.375	0.1579703649	0.6018091206	
620.0	0.4076229449	-0.07490892142	
620.625	0.3452211138	-0.2397103908	
621.25	-0.319871074	-0.4133548943	
621.875	-0.2897877674	-0.2484816297	
622.5	-0.6646188003	0.2730473996	
623.125	0.0137439442	0.1700348545	
623.75	0.3657234881	0.3532736558	
624.375	-0.1567306081	-0.2809484948	
625.0	0.4439467146	0.0540042727	
625.625	-0.2961288335	-0.2010755098	
626.25	0.281087095	-0.3392639777	
626.875	-0.6437089338	-0.2858102055	
627.5	-0.1483975574	0.1805658815	
628.125	-0.08078285612	-0.4029428368	
628.75	-0.3989937108	-0.2989211951	
629.375	-0.07588377062	-0.1987837548	
630.0	-0.4400621548	-0.386518228	
630.625	-0.4351882521	0.3580579029	
631.25	-0.4371984737	0.2029782431	
631.875	-0.0009348750692	0.7314132528	
632.5	0.3454463896	0.250425809	
633.125	0.3647039007	0.2036198574	
633.75	0.4672839142	-0.115708657	
634.375	0.01639844469	-0.4938288456	
635.0	0.05711419856	-0.03960162551	
635.625	-0.4269003807	-0.5026639171	
636.25	-0.2376850442	0.5008029389	
636.875	-0.2617368534	-0.2334331761	
637.5	0.02009798693	0.6643849562	
638.125	-0.1100678406	-0.2228589955	
638.75	-0.3512277722	0.7629093178	
639.375	0.4778239252	0.169898835	
640.0	-0.207495603	0.676950708	
640.625	0.8902136425	0.5051209646	
641.25	0.4920653239	-0.3723840436	
641.875	0.1822368954	-0.09600450604	
642.5	0.2267688296	-0.810617193	
643.125	-0.4041323637	0.1573355254	
643.75	-0.1247541009	-0.4683054857	
644.375	-0.5338150305	0.3581112206	
645.0	-0.1500187198	-0.09570035914	
645.625	0.09368060997	0.8977395623	
646.25	0.4928284936	-0.1125708223	
646.875	-0.01772989379	-0.01628974109	
647.5	0.3560853196	0.4013161035	
648.125	0.2481373564	-0.4910314077	
648.75	0.4581937463	0.5920877744	
649.375	0.8394916052	-1.140580842	
650.0	-0.32475834	-0.4229766412	
650.625	1.006703993	-0.2892826573	
651.25	0.1207774437	-1.362064574	
651.875	0.1190881023	0.2380023642	
652.5	1.312941539	-0.191207713	
653.125	0.1888350719	-0.805708992	
653.75	0.2960346221	-0.005185663968	
654.375	-0.06369695082	-1.186349544	
655.0	-0.8141703907	0.2391953286	
655.625	-0.1398255104	0.005038601721	
656.25	-0.1380762735	0.7909922559	
656.875	0.3767744972	-0.3028936429	
657.5	-0.07321810829	0.5868617123	
658.125	0.5916586166	0.2056705894	
658.75	0.4210329689	-0.008277251823	
659.375	0.812621381	0.07654948936	
660.0	0.5289780759	-1.216807433	
660.625	-0.07676588578	-0.3954669029	
661.25	0.716103828	-0.5271437163	
661.875	0.4091935635	-1.129411786	
662.5	0.0925032161	0.01315479687	
663.125	1.140412908	-0.5708746927	
663.75	-0.1844896933	-0.8019051096	
664.375	0.1901968022	-0.3530074863	
665.0	-0.8069449749	-0.779113632	
665.625	-0.5261190842	0.6098766662	
666.25	-0.3422231468	0.3146711157	
666.875	0.4080431138	0.7048742197	
667.5	0.3139294876	-0.1391009166	
668.125	0.660137449	0.3128392305	
668.75	0.2931153836	-0.6303680692	
669.375	0.07025239733	-0.2568747057	
670.0	0.2597184988	-0.539389386	
670.625	-0.1066114262	-0.6558685443	
671.25	-0.1581581052	-0.1838384961	
671.875	0.5877481256	-0.2244899146	
672.5	0.4365077732	-0.6999340338	
673.125	0.09898959986	-0.239094649	
673.75	0.7765047937	-0.617325243	
674.375	-0.3932529114	-0.5111745823	
675.0	0.1867624869	-0.3984553225	
675.625	-0.7766717856	-0.5876416303	
676.25	-0.3718874278	0.6001201941	
676.875	-0.1067332465	-0.5253380184	
677.5	-0.698116502	0.4596318882	
678.125	0.03502772811	0.1971596963	
678.75	-0.219274169	0.5273808073	
679.375	0.893893434	0.00665104627	
680.0	-0.02425688227	0.02194498713	
680.625	0.4601463763	-0.2324424293	
681.25	-0.05648054467	-0.3399022893	
681.875	0.2149041325	0.6065109363	
682.5	0.8850601324	-0.04015649474	
683.125	0.3235215281	-0.001103670122	
683.75	0.399941546	0.09707092465	
684.375	0.7606480173	0.5068073163	
685.0	0.9673832273	-0.6632473322	
685.625	-0.02652914804	0.6278525194	
686.25	1.412240219	-0.4944894308	
686.875	-0.1543245665	-0.3732012044	
687.5	1.393450917	-0.4947655402	
688.125	-1.290974993	-1.11689318	
688.75	-0.004277516237	-0.4818868322	
689.375	-1.290232438	1.11033501	
690.0	0.8320753966	0.4151578618	
690.625	-0.0006082907785	0.6865153047	
691.25	1.179742903	0.6200298967	
691.875	0.7908020116	0.4146553473	
692.5	1.378366513	0.6309706318	
693.125	1.57920284	-0.3197989257	
693.75	1.138466635	-0.3587327803	
694.375	0.9747102989	-1.043711009	
695.0	0.8951660622	-0.6075263359	
695.625	1.360300133	-0.4750895031	
696.25	0.7092778981	0.06967156921	
696.875	1.156657544	1.510458412	
697.5	1.414102398	0.04372169895	
698.125	0.8580511665	0.9216928759	
698.75	1.074139001	-1.891176565	
699.375	-0.6529127618	0.08840075394	
700.0	-1.370978349	0.8025288369	
700.625	0.9584421778	0.4008567591	
701.25	-0.09559795336	0.62080837	
701.875	1.259063544	0.5334397221	
702.5	0.2991579874	0.3313254582	
703.125	1.27932424	0.5370942305	
703.75	0.6149288059	-0.6807520121	
704.375	0.8675086386	0.1526407983	
705.0	0.5783961361	-0.8546540739	
705.625	0.1195317072	0.1821390186	
706.25	1.230744446	0.7358814656	
706.875	0.2623635024	-0.1050377123	
707.5	0.5186150798	1.249506455	
708.125	1.496498829	-0.4111715016	
708.75	0.3240952514	-0.4430246621	
709.375	-0.821707597	-0.8728063761	
710.0	-0.07923658307	0.7910116147	
710.625	0.01323299719	0.3225597087	
711.25	0.3618547374	0.2073811154	
711.875	0.4027068816	0.1761743431	
712.5	0.8053474041	-0.05783941486	
713.125	0.483280447	-0.4280763969	
713.75	0.3245274092	-0.748643138	
714.375	-0.1914165887	-0.2719122557	
715.0	0.3667875608	-0.761497226	
715.625	-0.5933999439	-0.5084832176	
716.25	0.5519271311	0.1209584906	
716.875	1.595218296	-0.9473748062	
717.5	-0.2733729272	-0.7605067449	
718.125	2.517128889	1.193330205	
718.75	1.9918822	-2.149953688	
719.375	0.4136392469	0.763020247	
720.0	2.37265746	-4.467960075	
720.625	-1.295741136	-0.8662917147	
721.25	0.5022471526	-2.559225946	
721.875	-0.8880924699	-3.089194162	
722.5	-2.51830673	-0.8022606965	
723.125	-1.259240748	-0.5398659534	
723.75	-1.008417264	1.6292644	
724.375	0.4140987897	0.7575709654	
725.0	0.1780815758	0.8333365365	
725.625	0.7217907161	1.446739739	
726.25	0.6358927099	1.032623679	
726.875	-0.8895079356	1.764149234	
727.5	-0.3966572366	4.90502445	
728.125	3.823462472	3.995078809	
728.75	-6.029594286	2.438509505	
729.375	3.431059746	15.37755122	
730.0	4.786223125	2.974538688	
730.625	-6.911098377	16.46739924	
731.25	10.81745259	12.58212312	
731.875	-7.862630694	-2.164871953	
732.5	-11.3007217	6.922938702	
733.125	-4.379423652	5.350786259	
733.75	-0.2868571769	1.43606622	
734.375	2.536128292	2.297038263	
735.0	-1.459013591	-1.437803807	
735.625	-0.6170161293	-0.1199493471	
736.25	-0.4660578407	1.879612031	
736.875	1.717583825	0.07027420754	
737.5	2.158368057	1.988527398	
738.125	4.923783945	-2.658094696	
738.75	2.517404113	-5.29144905	
739.375	0.2056011684	0.6728229937	
740.0	24.20728584	9.409200416	
740.625	5.445380534	-22.15071402	
741.25	-11.460671	1.599968083	
741.875	-17.91447221	31.05735827	
742.5	5.126527447	3.593600605	
743.125	2.750011011	-11.0374672	
743.75	-2.700395825	-1.980109773	
744.375	0.1298896121	-0.6710794972	
745.0	0.3299986952	0.9219122515	
745.625	-0.1980380779	-0.01344126314	
746.25	0.09493755689	-0.5316273176	
746.875	-0.6362888628	0.1330191552	
747.5	0.08668256838	0.8395290642	
748.125	-0.1334163586	1.016166017	
748.75	1.118364274	1.557513104	
749.375	0.3166967812	0.4080143796	
750.0	-2.884699596	3.673809156	
