!Created with skrf (http://scikit-rf.org).
# GHz S RI R (50+0j) 
!freq	ReS11	ImS11	
500.0	-0.8329738754	-2.464745329	
500.625	1.198715402	-3.148101482	
501.25	-1.838713948	-0.9141592018	
501.875	-0.4669114494	-1.344799528	
502.5	-0.4456253015	-0.4854775784	
503.125	-0.1017261728	0.1592013214	
503.75	-0.189540534	0.1551770066	
504.375	0.1701368491	-0.09515074419	
505.0	-0.03869514874	0.07178132039	
505.625	0.05798828875	-0.3578713224	
506.25	-0.1857637074	0.2350660139	
506.875	-1.238854878	-0.5646636053	
507.5	0.01047908919	0.7375604064	
508.125	1.429509588	-2.516736381	
508.75	0.6910442839	-4.53726052	
509.375	-1.285949308	-0.8623534269	
510.0	-1.168759842	-1.696645877	
510.625	-0.9365970697	-0.1171197872	
511.25	-0.1713472361	-0.2116908672	
511.875	-0.484416775	-0.1721854485	
512.5	0.001806696338	0.1921536051	
513.125	-0.01906648414	-0.2797491876	
513.75	-0.264351124	-0.3118497306	
514.375	-0.3656549782	0.3318830013	
515.0	0.6360043252	-1.449878378	
515.625	-1.891611414	0.6345609679	
516.25	1.91770155	-2.954527965	
516.875	-2.556299754	-1.751501779	
517.5	0.07028359785	0.4292461016	
518.125	-0.397373267	-0.4442347122	
518.75	0.2172186728	0.3206033238	
519.375	-0.3642855408	0.111493693	
520.0	0.5194814545	0.04489669829	
520.625	0.2478903573	-0.1445742592	
521.25	0.1473840579	-0.9675871751	
521.875	-0.3534692654	0.1543979579	
522.5	-0.1587150774	-0.06808375359	
523.125	0.01722499919	0.2709486113	
523.75	-0.317793546	-0.2998081335	
524.375	-0.2657299441	0.4546120093	
525.0	-0.2870142862	0.1203865793	
525.625	0.3278613924	0.2779113387	
526.25	-0.3045606953	0.002094033349	
526.875	0.08298822186	0.1205285588	
527.5	-0.4594934329	0.3750899358	
528.125	0.5046091818	1.063513526	
528.75	0.1162227779	0.1786100834	
529.375	0.1536816058	0.4273510273	
530.0	0.116104892	0.01647845242	
530.625	0.2668547328	1.328706801	
531.25	0.7373492878	-0.1193868474	
531.875	1.02676343	-0.3398763299	
532.5	-0.6837188755	0.149883335	
533.125	0.7558768267	-0.5784696128	
533.75	-0.3875751133	-0.1516186161	
534.375	0.2594336533	-1.265957442	
535.0	-0.888229599	0.24923309	
535.625	-0.3380758496	-0.01901212706	
536.25	-0.01797501704	0.4206796159	
536.875	0.08788606884	-0.1230383154	
537.5	0.2908006738	0.002156436188	
538.125	0.2892093179	-0.3262794906	
538.75	0.1826238956	-0.1557533757	
539.375	-0.1298899052	-0.5053283889	
540.0	-0.4824066814	-0.2706776031	
540.625	-0.2984158902	-0.1022415626	
541.25	-0.2956695814	0.005467570773	
541.875	-0.01035410507	0.01080330407	
542.5	-0.1252829387	-0.186804416	
543.125	-0.2814662697	-0.04136744767	
543.75	-0.02940418432	0.07663546805	
544.375	-0.3165553106	0.04434104921	
545.0	0.2483714083	0.1206346432	
545.625	-0.1727051211	0.2804121974	
546.25	0.5137778557	-0.0577754565	
546.875	0.01965999471	0.06151481832	
547.5	0.4129504973	-0.4617872196	
548.125	-0.3262358051	-0.1632120384	
548.75	-0.0675934012	-0.3726579275	
549.375	-0.4147680058	-0.2572991548	
550.0	-0.1005729077	0.1639476906	
550.625	-0.1761113392	-0.1441075592	
551.25	-0.1465894683	0.2029841602	
551.875	-0.1726338538	0.06043855755	
552.5	-0.1272670488	0.2878542432	
553.125	-0.02959295478	0.09180757503	
553.75	0.1373467758	0.1505599188	
554.375	0.2120497883	-0.02240360693	
555.0	0.2331067469	-0.1508153946	
555.625	0.2149330864	-0.2634476051	
556.25	0.1472416139	-0.3492012087	
556.875	-0.08866885937	-0.3720879479	
557.5	-0.216774017	-0.2485109905	
558.125	-0.2952444733	-0.1009048925	
558.75	-0.2424820123	0.01473126131	
559.375	-0.265844387	0.01383499127	
560.0	-0.2268142262	0.2363210013	
560.625	-0.08436292797	0.1836502053	
561.25	-0.04990206077	0.2930187112	
561.875	0.1629571191	0.06989368407	
562.5	-0.09497367909	0.1090434824	
563.125	0.2964814919	0.204553004	
563.75	0.1686747104	-0.03006314708	
564.375	0.4394986838	-0.1846368413	
565.0	0.02274342417	-0.4244223336	
565.625	0.06916408874	-0.2667682466	
566.25	-0.3944769252	-0.3557889656	
566.875	-0.2647875486	-0.03156579553	
567.5	-0.2133763526	-0.3562845219	
568.125	-0.5012704493	-0.4823560216	
568.75	-0.457541405	0.03617115158	
569.375	-0.5739330302	-0.09699825362	
570.0	-0.3077690433	0.8109939702	
570.625	0.0761037827	0.1548482328	
571.25	-0.3351249898	0.4696731363	
571.875	0.3233302978	-0.1973921015	
572.5	0.3177928384	0.4073206577	
573.125	0.2285170215	-0.6230160522	
573.75	-0.1716780608	-0.01195232957	
574.375	0.3706509089	-0.1246296151	
575.0	-0.2350343463	-0.2748542077	
575.625	0.327600276	0.02829311713	
576.25	0.06125688635	-0.5546210285	
576.875	-0.09543759756	-0.006196333154	
577.5	0.3062995433	-0.5297156469	
578.125	-0.3889626209	-0.449697255	
578.75	-0.1367222522	-0.05538696022	
579.375	-0.004869056678	-0.2832221296	
580.0	-0.3845997129	-0.1336691816	
580.625	0.1444993255	0.03594587614	
581.25	-0.5898060194	0.1544638241	
581.875	0.3594485394	0.3829113844	
582.5	-0.1670866481	0.08341327825	
583.125	0.3353635822	0.5836265217	
583.75	-0.07076348154	-0.3749088037	
584.375	0.164839159	0.547243869	
585.0	0.328001113	-0.3359975551	
585.625	0.09098421179	0.3015365735	
586.25	0.6608703673	-0.128028166	
586.875	-0.1126284678	-0.4032483749	
587.5	0.2158176655	-0.1799836292	
588.125	-0.1822732092	-0.581069301	
588.75	-0.004052817161	0.0126411173	
589.375	0.3914323391	-0.5745019771	
590.0	-0.3432757138	-0.2402226689	
590.625	-0.1912177452	-0.30641986	
591.25	-0.4976458208	0.3119981797	
591.875	0.04789268015	0.4013499953	
592.5	0.04390739554	-0.135641956	
593.125	-0.1426590058	0.3980317269	
593.75	0.1165750717	-0.0700214661	
594.375	0.2700307729	0.6241649463	
595.0	0.6595600505	-0.06085114623	
595.625	0.04102629469	0.2742806899	
596.25	0.7159058829	0.2624508234	
596.875	0.07652876892	-0.312370815	
597.5	0.2462357198	0.6678117595	
598.125	0.6840839724	0.152227286	
598.75	0.217530762	0.04721724035	
599.375	0.6003493712	0.134923416	
600.0	0.3371558804	-0.538635907	
600.625	0.2525790275	-0.2052183478	
601.25	0.3212762909	-0.553225103	
601.875	-0.3173366584	-0.1702810653	
602.5	-0.2209668496	-0.248705404	
603.125	-0.287613622	0.2492406844	
603.75	-0.2199253795	0.1051963009	
604.375	-0.1315242507	0.1721623085	
605.0	-0.3655859878	0.1029851176	
605.625	0.0555932271	0.3634810247	
606.25	-0.3839942158	-0.2752200433	
606.875	-0.4850357148	0.6701149704	
607.5	-0.1205098827	0.0435404061	
608.125	-0.4661601869	0.8790824031	
608.75	0.6511526198	-0.05681652786	
609.375	0.4006003563	0.3641799188	
610.0	0.5931606706	-0.5752751644	
610.625	-0.09024273123	-0.06752035385	
611.25	0.2449234108	-0.6645454399	
611.875	-0.2471509958	-0.01970155736	
612.5	-0.3064038306	-0.4127596693	
613.125	-0.5080686072	0.393850361	
613.75	-0.2927220332	-0.01792265735	
614.375	0.2221573566	0.5257957147	
615.0	-0.0561850214	-0.1976881064	
615.625	0.07412005629	0.6156270715	
616.25	0.08030432051	-0.01439309604	
616.875	-0.5398911193	0.4875103273	
617.5	0.1428753629	0.6979417061	
618.125	-0.23401599	0.1747164696	
618.75	0.1414656092	0.7117221718	
619.375	0.1989809082	0.1236332316	
620.0	0.4494637471	0.3223740908	
620.625	0.1430215772	-0.4453536147	
621.25	-0.06139359942	-0.4607214801	
621.875	-0.5683361467	-0.04617565136	
622.5	-0.3344864627	-0.05646507608	
623.125	-0.2102541395	0.7118383118	
623.75	0.1855632526	-0.2502449713	
624.375	0.4807780846	0.0442761381	
625.0	-0.2572887986	0.01002236792	
625.625	0.4505053439	-0.2408062102	
626.25	-0.5379657831	-0.2365182481	
626.875	0.1739188535	-0.2829701108	
627.5	-0.6996720924	-0.2505444816	
628.125	-0.2348901723	0.1166482069	
628.75	0.03866707526	-0.2963980608	
629.375	-0.3140186443	-0.5589814406	
630.0	-0.3247711906	-0.02500199087	
630.625	-0.5871031466	-0.005945712166	
631.25	-0.2625721265	0.6177838063	
631.875	-0.08387612163	0.3154914171	
632.5	0.3789626296	0.7140927491	
633.125	0.46455758	-0.06690851983	
633.75	0.3251278299	-0.06188702338	
634.375	0.2450202297	-0.2169795617	
635.0	-0.1346246381	-0.6021058983	
635.625	-0.08489390567	0.1631983959	
636.25	-0.6852390425	-0.1717363026	
636.875	0.06168812146	0.6338781722	
637.5	-0.1217852703	-0.273840887	
638.125	-0.1540556347	0.7717140607	
638.75	-0.1258854136	-0.1405520284	
639.375	-0.289524177	0.9896251385	
640.0	0.7688741812	0.3231975852	
640.625	0.03347524488	0.2556248658	
641.25	0.9857704492	0.3074477315	
641.875	0.3284270469	-0.7646196091	
642.5	-0.1115131263	-0.1029777208	
643.125	-0.1861088292	-0.6744810699	
643.75	-0.4856662301	0.2471521221	
644.375	-0.3804020428	-0.4505680081	
645.0	-0.3424460545	0.6839521348	
645.625	0.1739743432	0.1828425871	
646.25	0.1493321494	0.4562485421	
646.875	0.5893831075	-0.2162124542	
647.5	-0.2961205327	0.01871304644	
648.125	0.6943809309	0.4613628261	
648.75	0.4881487036	-0.7323624642	
649.375	0.2781084391	0.2204526109	
650.0	0.9521156756	-1.338652941	
650.625	-0.4305163114	-0.6152379198	
651.25	0.8963040923	0.09639541106	
651.875	0.927266556	-1.159293217	
652.5	-0.1420021917	-0.135826485	
653.125	1.039939932	0.1426214709	
653.75	0.3749369756	-1.013868302	
654.375	-0.1919881513	-0.1908727775	
655.0	-0.5870104704	-0.8161057046	
655.625	-0.267266576	0.9154985879	
656.25	0.01602919889	-0.03204115995	
656.875	0.05546246528	0.6023141095	
657.5	0.2130323785	-0.1867300789	
658.125	-0.02122314918	0.6845212259	
658.75	1.045831635	0.1632824729	
659.375	0.5182063418	-0.5495894017	
660.0	0.410251312	-0.2719726575	
660.625	0.8325110764	-1.094157772	
661.25	-0.3221750705	-0.6626423611	
661.875	0.8780103986	-0.1765608356	
662.5	0.677590415	-0.9250800971	
663.125	0.04822960828	-0.2431867123	
663.75	1.043663678	-0.6815690415	
664.375	-0.6633014542	-0.8275369604	
665.0	-0.225807591	-0.2219215002	
665.625	-0.8945371119	-0.09634344005	
666.25	-0.1209855291	0.9341549657	
666.875	0.003214177538	0.1859066884	
667.5	0.6325133208	0.4286568633	
668.125	0.3137710512	-0.2795475835	
668.75	0.6105691448	0.03869417811	
669.375	0.1019170931	-0.9190943095	
670.0	-0.07947822509	-0.1934964063	
670.625	0.2084938918	-0.410286787	
671.25	0.2179443159	-0.5955326979	
671.875	-0.03919863061	-0.5525710757	
672.5	0.4829238237	0.1607645071	
673.125	0.6600302339	-0.8209428229	
673.75	0.05553171504	-0.2833741897	
674.375	0.5711021232	-0.6419919238	
675.0	-0.7961352332	-0.5447895105	
675.625	0.1794938339	-0.1885182534	
676.25	-0.8927945722	-0.420207706	
676.875	-0.2533509162	0.5514745851	
677.5	-0.1299957595	-0.3912915873	
678.125	-0.6480601853	0.6570628288	
678.75	0.3545751121	0.2708003041	
679.375	0.2050646651	0.389692442	
680.0	0.6949170284	-0.4363562183	
680.625	-0.3229250945	0.06413829533	
681.25	0.6358385597	-0.05153980478	
681.875	0.2322383101	-0.2028622699	
682.5	0.1459991515	0.4018874619	
683.125	0.822605014	0.3533554819	
683.75	0.7897680479	-0.1364807468	
684.375	0.2070252614	-0.05014863104	
685.0	0.7772534109	0.6832589283	
685.625	1.081706107	-0.6795298107	
686.25	-0.1395883371	0.5422041252	
686.875	1.571374056	-0.96850799	
687.5	-0.2528498587	-0.3180267953	
688.125	0.7903994639	-1.222989573	
688.75	-1.943140163	-0.104646558	
689.375	0.008180674965	-0.04787240655	
690.0	-0.1071628178	1.601656012	
690.625	0.7764256088	0.1436909767	
691.25	0.3463489108	0.7343385594	
691.875	1.393681786	0.8569407022	
692.5	1.119944596	0.2623608139	
693.125	1.605230112	0.1142567008	
693.75	1.36108512	-0.7442123051	
694.375	0.913286946	-0.7203827003	
695.0	1.071243658	-0.8441628898	
695.625	0.9809924434	0.006026156237	
696.25	1.7736959	0.2697619145	
696.875	0.5188789121	0.3530334409	
697.5	0.8595621339	2.04699688	
698.125	1.66064086	-0.5182449013	
698.75	1.224799308	-0.01310588346	
699.375	-1.592281538	-1.369704839	
700.0	0.1590572346	0.6273179378	
700.625	-0.1687640436	1.473054414	
701.25	0.7434798822	-0.1762876135	
701.875	0.1388172677	0.848749637	
702.5	1.410410841	0.4834581222	
703.125	0.3866261649	0.2317650394	
703.75	1.383083476	-0.12926462	
704.375	0.2220846302	-0.7761279857	
705.0	0.8101026019	0.3218438475	
705.625	0.8031315129	-0.6810072668	
706.25	0.00195482585	0.4935230611	
706.875	1.138159862	1.242729447	
707.5	0.4650972002	-0.07258858304	
708.125	1.169397105	0.9701844915	
708.75	0.6361966893	-1.383495013	
709.375	-0.410240305	-0.3913053317	
710.0	-0.6927523485	0.4353599078	
710.625	0.3819080982	0.3090237932	
711.25	0.09380701672	0.3932769265	
711.875	0.5933192796	0.1768406014	
712.5	0.7315345141	-0.02158540775	
713.125	0.609131905	-0.3907482824	
713.75	0.3402170068	-0.4875416244	
714.375	-0.0193109577	-0.8154185253	
715.0	-0.252764634	-0.03691393798	
715.625	0.6878407349	-0.8291665269	
716.25	-0.4670813608	-0.989261557	
716.875	0.7973816234	0.518745655	
717.5	2.431644729	-0.3172316928	
718.125	0.04998622272	-1.169602712	
718.75	3.459295887	1.345305981	
719.375	1.025830333	-2.919383309	
720.0	1.017469082	-0.1881865888	
720.625	1.70403165	-4.318549285	
721.25	-1.706343054	-2.353232369	
721.875	0.3043788216	-1.715673115	
722.5	-1.758539368	-2.529046392	
723.125	-2.131874519	0.2453050881	
723.75	-0.7913228869	0.5180753256	
724.375	0.07997755519	1.610563552	
725.0	0.4715718176	0.4277391581	
725.625	0.1491473855	1.079925797	
726.25	0.06921106736	2.122703324	
726.875	1.214445903	2.145386627	
727.5	-1.694612756	1.343718271	
728.125	0.2075120041	8.150325422	
728.75	4.560145455	6.023007017	
729.375	-7.016630693	0.2644701281	
730.0	0.7112669237	23.13897609	
730.625	3.137816874	0.3533187004	
731.25	-11.29383469	10.29514448	
731.875	1.453766512	17.51448639	
732.5	-3.717464897	-5.368676362	
733.125	-9.598994941	1.734617684	
733.75	-1.126276418	4.065071337	
734.375	1.656109857	0.07458127535	
735.0	1.180050736	-1.373622797	
735.625	-1.454938102	1.364748349	
736.25	-0.7188238281	0.4598983711	
736.875	1.343978574	2.017444315	
737.5	2.573946148	-1.113764819	
738.125	2.794091208	1.419489989	
738.75	7.25563196	-4.786923324	
739.375	2.711422355	-9.123912806	
740.0	-3.180772175	1.38441974	
740.625	20.56550689	18.11991452	
741.25	32.22267832	-2.906462671	
741.875	-4.587292692	-13.94028242	
742.5	-12.51159628	-8.645008282	
743.125	0.7778168703	2.576363896	
743.75	2.560343683	-5.970504164	
744.375	-1.429610851	1.346360446	
745.0	-0.2005783933	-0.1151736907	
745.625	0.4556164481	-0.2124727285	
746.25	-0.07011815114	0.04738717822	
746.875	-0.4203245381	-0.5445504768	
747.5	-0.1172028991	0.8674257796	
748.125	0.6589680156	1.042445303	
748.75	0.5707881361	0.964128527	
749.375	0.9924070202	1.393035557	
750.0	-0.1073309923	0.1049906774	
