!Created with skrf (http://scikit-rf.org).
# GHz S RI R (50+0j) 
!freq	ReS11	ImS11	
500.0	1.252924972	-3.998023601	
500.625	-0.7093747355	-0.93018775	
501.25	-1.783276756	-2.795143433	
501.875	-0.9176006079	-0.5431383283	
502.5	-0.2353036379	-0.4961741755	
503.125	-0.1465177157	0.1308467716	
503.75	-0.06324635487	0.102897569	
504.375	0.1915406876	-0.01685727519	
505.0	-0.1085465094	-0.04872299643	
505.625	0.182951414	-0.1356050521	
506.25	-0.5088089658	-0.1809933314	
506.875	0.2576248848	-0.468608215	
507.5	-1.682026629	-0.788557034	
508.125	1.405503369	-0.8657626987	
508.75	0.9921494895	-4.541484973	
509.375	-3.035275791	-2.410320931	
510.0	-0.4265594797	-1.255406165	
510.625	-0.8389493443	-0.2765117308	
511.25	-0.1996218402	-0.08819357947	
511.875	-0.3823893314	-0.1450357713	
512.5	-0.1274257991	0.1531439449	
513.125	-0.128821862	-0.1804762824	
513.75	-0.1079439122	-0.2827148573	
514.375	-0.3636789829	0.09357732302	
515.0	0.9688134689	-0.2832467194	
515.625	-2.106845001	-1.071504416	
516.25	1.365473812	-0.1874082721	
516.875	-1.061259255	-2.846280894	
517.5	-0.7747845919	0.1488974712	
518.125	0.09788778885	-0.3933844333	
518.75	-0.6809399412	0.1174543342	
519.375	-0.203958175	-0.03933387404	
520.0	0.5248477812	0.1792374686	
520.625	0.2320345147	-0.3032158679	
521.25	0.2783695995	-0.5850460267	
521.875	-0.5707896366	0.08758408284	
522.5	-0.03741076469	-0.06849209831	
523.125	-0.1010616883	0.3006431742	
523.75	-0.1450212061	-0.2520603709	
524.375	-0.5334430299	0.4217935223	
525.0	-0.01500207163	0.004172844883	
525.625	0.03617200253	0.3093120589	
526.25	-0.1325371618	-0.2814120904	
526.875	0.002730610735	0.3167988498	
527.5	-0.1377445806	0.1593996163	
528.125	0.08264079505	1.112078098	
528.75	0.4386980426	0.3119177863	
529.375	0.01026804461	0.3876734788	
530.0	0.3433612751	0.1659392164	
530.625	-0.0600966795	0.924114333	
531.25	1.278479842	-0.3162242668	
531.875	0.5176361398	-0.1801711749	
532.5	-0.5958580624	-0.4758526222	
533.125	0.7912850717	0.07084353197	
533.75	-0.4692419185	-0.7301719474	
534.375	0.2629626133	-0.4154746627	
535.0	-1.109725585	-0.2445040211	
535.625	-0.07472188179	0.2502837143	
536.25	-0.1163207063	0.2848688604	
536.875	0.3147895071	-0.1522823568	
537.5	0.1427039536	0.08388625827	
538.125	0.3988083631	-0.3176562675	
538.75	0.09541650969	-0.2617098837	
539.375	-0.02471175049	-0.4004144263	
540.0	-0.485372992	-0.3663943483	
540.625	-0.3944046662	-0.002344062742	
541.25	-0.1267842462	0.02278069221	
541.875	-0.1842539538	-0.04390382703	
542.5	-0.05347115614	-0.1061754275	
543.125	-0.2664233558	-0.1125800746	
543.75	-0.1181441249	0.08547345221	
544.375	-0.1798518529	-0.006063892206	
545.0	0.1237011491	0.2390329604	
545.625	-0.1196002014	-0.03136414186	
546.25	0.4900224155	0.2600505895	
546.875	0.06625623166	-0.2366997735	
547.5	0.3036906223	-0.1293578998	
548.125	-0.3001602238	-0.5308471917	
548.75	-0.112948042	-0.07774444711	
549.375	-0.2861291692	-0.3304062565	
550.0	-0.1971304674	0.1755393263	
550.625	-0.05853087008	-0.1214254794	
551.25	-0.2544749147	0.2027187771	
551.875	-0.04959393768	0.1091048322	
552.5	-0.1667169354	0.1856260305	
553.125	0.02405535918	0.1659514405	
553.75	0.08950269421	0.1158581969	
554.375	0.2370821944	-0.02771351364	
555.0	0.1981001108	-0.1645415077	
555.625	0.1896146585	-0.2515910556	
556.25	0.1362367551	-0.3478399124	
556.875	-0.1109515054	-0.3621394298	
557.5	-0.2318942774	-0.2182853458	
558.125	-0.2741088501	-0.09286042346	
558.75	-0.2578536184	0.02508620241	
559.375	-0.2159120296	0.04229957557	
560.0	-0.2598926435	0.1891537823	
560.625	-0.03084681405	0.2566318954	
561.25	-0.06985353371	0.1916434098	
561.875	0.1725215291	0.1311057038	
562.5	-0.05349918689	0.04065515142	
563.125	0.2087743683	0.2734889796	
563.75	0.2870990017	-0.1541412186	
564.375	0.244810634	-0.09054610836	
565.0	0.20412491	-0.4478976643	
565.625	-0.1562169737	-0.2344600311	
566.25	-0.1916557137	-0.3413833379	
566.875	-0.4266510336	-0.06274501497	
567.5	-0.164816586	-0.2195759141	
568.125	-0.4051262598	-0.5062847357	
568.75	-0.560265449	0.02190479588	
569.375	-0.3316065826	0.07108766385	
570.0	-0.5765040026	0.5728921747	
570.625	0.2175150918	0.5285599192	
571.25	-0.2295031699	0.01559898257	
571.875	0.4969557067	0.2826861221	
572.5	-0.09010394245	0.1172210138	
573.125	0.509501936	-0.4522173106	
573.75	-0.2713929068	-0.3065999987	
574.375	0.2748208889	0.09736262369	
575.0	0.02709877717	-0.4177737401	
575.625	-0.01780573226	0.1581213063	
576.25	0.356395433	-0.3688325484	
576.875	-0.2842852396	-0.3636092219	
577.5	0.1213705942	-0.1111911733	
578.125	-0.05197720987	-0.6254492845	
578.75	-0.3608250296	-0.09046730133	
579.375	0.01812856953	-0.1144701813	
580.0	-0.2657730419	-0.2348350699	
580.625	-0.02636249337	0.1660694485	
581.25	-0.3725014268	-0.1158383981	
581.875	0.1282120295	0.6628308455	
582.5	0.3107114136	-0.03867835636	
583.125	-0.2532258762	0.3517989871	
583.75	0.5486894045	-0.1716822119	
584.375	-0.3095601409	0.395819066	
585.0	0.6359420495	-0.02154270847	
585.625	-0.08627721379	-0.06949968871	
586.25	0.5951113874	0.09224937004	
586.875	0.04615591369	-0.5853095632	
587.5	-0.03645218794	-0.03380444002	
588.125	0.1633906333	-0.4963107729	
588.75	-0.2203269476	-0.3973825864	
589.375	0.3697605694	-0.06326487768	
590.0	-0.3319279942	-0.5685528971	
590.625	-0.1727893762	0.03474692864	
591.25	-0.4670530025	0.1537780179	
591.875	-0.02678957296	0.4353810394	
592.5	0.1319048803	-0.03772170608	
593.125	-0.2986616647	0.2338735249	
593.75	0.4090129003	0.1525434307	
594.375	-0.05321583769	0.1985018916	
595.0	0.6916553229	0.5795329129	
595.625	0.2330357931	-0.2927757462	
596.25	0.3410964309	0.4906047107	
596.875	0.6363486635	-0.2564890925	
597.5	-0.1520972599	0.2857927058	
598.125	0.7007805978	0.499865638	
598.75	0.3745242795	-0.0872239016	
599.375	0.3373388758	0.1014520348	
600.0	0.551831621	-0.3981726631	
600.625	0.1104432594	-0.4502279449	
601.25	0.2726375068	-0.3054724387	
601.875	-0.2956141618	-0.4187296623	
602.5	-0.1001933539	-0.02739353112	
603.125	-0.3937367617	0.1399149711	
603.75	-0.09232477116	0.1683910291	
604.375	-0.2735239391	0.1458191751	
605.0	-0.1419248344	0.05835689311	
605.625	-0.2509422253	0.3617157039	
606.25	0.06403821333	-0.05178253475	
606.875	-0.9125552615	0.1698680993	
607.5	0.1309290268	0.5078167968	
608.125	-0.4355347289	0.3342687474	
608.75	0.9139508807	0.4504340409	
609.375	0.04287505488	-0.01326533431	
610.0	0.747523316	-0.2466965524	
610.625	-0.159400358	-0.4856583646	
611.25	0.3989367575	-0.1798198118	
611.875	-0.5132135262	-0.2558660802	
612.5	-0.09677553772	-0.2026209688	
613.125	-0.6901727425	0.09703763961	
613.75	0.1433415023	0.1910731457	
614.375	-0.104872747	0.4962577078	
615.0	0.2725438808	-0.1800567206	
615.625	-0.3350313781	0.3575097952	
616.25	0.3207394691	0.386697006	
616.875	-0.3858779872	0.08995491587	
617.5	-0.1881570778	0.8107913403	
618.125	0.2000752715	0.2623875369	
618.75	-0.1747377285	0.5541249086	
619.375	0.4065574387	0.2519875112	
620.0	0.2825004196	0.1865593976	
620.625	0.2495564983	-0.4945633489	
621.25	-0.150996504	-0.2767122188	
621.875	-0.5799990669	-0.2399792342	
622.5	-0.2785346715	0.1821110841	
623.125	-0.3090328606	0.3937574633	
623.75	0.534086711	-0.1257535132	
624.375	-0.06030939972	0.2846806703	
625.0	-0.08072826301	-0.5125990219	
625.625	0.2684475343	0.124266062	
626.25	-0.2702459204	-0.6385437631	
626.875	-0.1661391599	0.25644433	
627.5	-0.2969951127	-0.5586555067	
628.125	-0.4857867512	0.06442765941	
628.75	0.04459702746	-0.1247778249	
629.375	-0.1382883108	-0.4977892558	
630.0	-0.6003235209	-0.05976658841	
630.625	-0.3146147265	0.05091308719	
631.25	-0.4103806482	0.5209932913	
631.875	0.1247169261	0.5143388841	
632.5	0.1632947573	0.4139805993	
633.125	0.6575649361	0.03825866757	
633.75	0.2196833612	-0.1639366503	
634.375	0.1824265604	-0.2650119583	
635.0	-0.009288087176	-0.4568511998	
635.625	-0.4560053433	0.1124762009	
636.25	-0.1261691241	-0.2452249937	
636.875	-0.3780004447	0.6601060843	
637.5	0.3519626432	0.05014680915	
638.125	-0.5743484253	0.2188016113	
638.75	0.3580980029	0.4675804949	
639.375	-0.4258360661	0.3480686345	
640.0	0.7080066344	0.8372130988	
640.625	0.353511787	-0.1682048406	
641.25	0.5800734809	0.4684640959	
641.875	0.5096556998	-0.8535585123	
642.5	-0.3846839616	-0.3161882565	
643.125	0.08649863414	-0.2541814587	
643.75	-0.5614233014	-0.25234193	
644.375	-0.1061898859	0.2465080643	
645.0	-0.6287376399	0.2822067454	
645.625	0.3940281039	0.4800002696	
646.25	0.1258423578	0.074371777	
646.875	0.4929284728	0.1835396381	
647.5	-0.1207685906	-0.2703618492	
648.125	0.3499244136	0.5309166386	
648.75	0.9270134467	-0.5213984165	
649.375	-0.1823460131	-0.5608425579	
650.0	0.8709458188	-0.09464602117	
650.625	0.2815506873	-1.473292399	
651.25	-0.1475306264	-0.06094217884	
651.875	1.230434883	-0.2410563306	
652.5	0.281169213	-0.906003807	
653.125	0.4294143944	0.3481910229	
653.75	0.6512077172	-0.9862490788	
654.375	-0.6412731052	-0.4365107486	
655.0	-0.1558212674	-0.2070319207	
655.625	-0.8747935113	0.5185465493	
656.25	0.6045051245	0.2612489487	
656.875	-0.2298143972	0.1682088545	
657.5	0.4065634928	0.2863590133	
658.125	0.07967619153	0.08192730002	
658.75	0.8335929723	0.5080835709	
659.375	0.6525349188	-0.7231039037	
660.0	0.198241745	-0.4707695907	
660.625	0.6096447846	-0.5239403607	
661.25	0.3143891649	-1.291301776	
661.875	-0.1042424247	-0.1285313802	
662.5	1.124545394	-0.4185658714	
663.125	0.2205141869	-0.8662167704	
663.75	0.3515559371	-0.08384569121	
664.375	-0.2907821196	-1.311139734	
665.0	-0.5547291718	0.1026388761	
665.625	-0.592100854	-0.1352712299	
666.25	-0.3563946457	0.8444544381	
666.875	0.5846948659	0.2348036997	
667.5	0.1073634134	0.4039665844	
668.125	0.7060008932	-0.2540975491	
668.75	0.1107979984	-0.2426012316	
669.375	0.5408077066	-0.5174079206	
670.0	-0.4122088688	-0.5194985406	
670.625	0.1964559447	-0.2137292184	
671.25	0.2012490429	-0.5449910537	
671.875	0.1793018078	-0.5896900255	
672.5	0.04894712575	-0.2085714978	
673.125	0.8874502557	-0.1442097717	
673.75	-0.02486429558	-0.945605666	
674.375	0.1799915591	-0.1287210602	
675.0	-0.2210463809	-0.9876328494	
675.625	-0.5479898436	0.4174058699	
676.25	-0.2834125778	-0.6685248005	
676.875	-0.641251544	0.5365782941	
677.5	0.1929930433	-0.03475439777	
678.125	-0.7636419637	0.3171309056	
678.75	0.5464657631	0.6597289334	
679.375	0.1882182808	-0.1379837971	
680.0	0.4851518484	0.06283719303	
680.625	0.1386048654	-0.5776844182	
681.25	-0.03885683321	0.3963181661	
681.875	0.6617786493	-0.1838477631	
682.5	0.2021251712	0.05113720867	
683.125	0.5374114	0.4154438008	
683.75	0.8628931404	-0.0162405214	
684.375	0.4207900661	-0.1945454839	
685.0	0.3124903429	0.3714318031	
685.625	1.348717615	0.006676167746	
686.25	0.0624586603	-0.7905871419	
686.875	1.095964277	0.5248033971	
687.5	-0.08132083016	-1.789668798	
688.125	0.3882617458	-0.2154877739	
688.75	-1.560224093	-0.8498280043	
689.375	0.3926826077	1.16287491	
690.0	-0.655707418	0.77879805	
690.625	1.332774937	0.4497026166	
691.25	0.4277330129	0.269624383	
691.875	0.9676292378	0.9139744954	
692.5	1.589089525	0.2179259406	
693.125	1.223643501	-0.04804606727	
693.75	1.336416256	-0.6990735793	
694.375	0.7789501062	-0.8765185733	
695.0	1.087222007	-0.7336133544	
695.625	0.8946209911	-0.4299336755	
696.25	1.267455863	0.6829643699	
696.875	1.317974782	0.1266777467	
697.5	0.3513315129	1.063155242	
698.125	2.309909536	0.1411285108	
698.75	-0.177989699	-0.7139429327	
699.375	-0.8945185328	-1.505735383	
700.0	-0.05253568091	1.43891085	
700.625	-0.3323125996	0.2327093975	
701.25	1.287021887	0.4559176698	
701.875	0.1626235006	0.1785247604	
702.5	0.9375502638	0.9772598943	
703.125	0.9463078695	-0.4058221171	
703.75	0.7911832078	0.2999490024	
704.375	0.7538657496	-0.9390997584	
705.0	-0.03343204084	-0.1048364972	
705.625	1.312564791	0.2295209099	
706.25	0.3366301977	-0.28895024	
706.875	0.2548614344	1.10940488	
707.5	1.524915504	0.3970287655	
708.125	0.3466623237	0.3845987037	
708.75	0.8545502486	-1.4170608	
709.375	-0.9821223493	-0.05687288749	
710.0	-0.4305363071	0.3333194996	
710.625	0.3156401929	0.4593281238	
711.25	0.1811514004	0.1988137244	
711.875	0.572473522	0.2269128169	
712.5	0.5580659969	-0.08849299105	
713.125	0.6538079651	-0.566300801	
713.75	0.1561031458	-0.4732651872	
714.375	0.1752065766	-0.6267190798	
715.0	-0.3991740978	-0.4384743565	
715.625	0.3956112732	-0.08645553435	
716.25	0.6293077251	-1.371119753	
716.875	-0.3879742558	-0.354935155	
717.5	1.831912346	0.7333195591	
718.125	2.472466651	-1.253330454	
718.75	-0.05148845411	0.3382295616	
719.375	3.696975703	-2.251789827	
720.0	-0.8860934041	-1.3536968	
720.625	1.525104306	-1.913502609	
721.25	-1.876017033	-3.50506372	
721.875	-1.218495375	-0.8977743196	
722.5	-1.132840573	-2.270771393	
723.125	-2.493541583	0.1726180183	
723.75	-0.3960786177	1.21888914	
724.375	0.03587689156	0.7578419262	
725.0	0.6619303988	1.218032182	
725.625	0.4999103487	0.5797124525	
726.25	-0.2719189299	1.577927887	
726.875	0.2831156827	2.969398228	
727.5	1.450706834	1.713692801	
728.125	-2.494920008	5.56174843	
728.75	5.704705326	8.894514486	
729.375	4.849829701	2.698784777	
730.0	-14.11152786	12.71069049	
730.625	16.24620788	10.92349002	
731.25	-3.736002035	1.859902183	
731.875	-11.07814444	12.52529347	
732.5	-2.064825547	9.231848061	
733.125	-5.834719951	-2.44006597	
733.75	-0.9095359879	5.812497889	
734.375	1.926465251	-0.2632588417	
735.0	-0.02854730505	-0.6072119322	
735.625	-1.91659674	0.1219775134	
736.25	1.088879869	1.128623532	
736.875	0.1205705642	1.462510429	
737.5	3.387946372	0.2716080319	
738.125	2.617723929	-3.051198274	
738.75	4.362605908	0.7226724572	
739.375	11.0033758	-9.15869854	
740.0	-0.8765981086	-7.63186027	
740.625	2.916231806	10.10567281	
741.25	20.97992214	17.34243717	
741.875	13.56315283	-7.509371311	
742.5	-7.943000442	-22.45838664	
743.125	-7.664531877	-5.499860723	
743.75	0.9477992562	0.2131169186	
744.375	-2.721469485	-0.8046171482	
745.0	0.4144340464	-0.4534044702	
745.625	0.4461220892	0.06739350148	
746.25	-0.3054281186	-0.1906169955	
746.875	-0.02781435769	-0.0522541739	
747.5	-0.334871201	1.271342983	
748.125	0.9441470544	1.298042506	
748.75	0.5885113999	0.6886599384	
749.375	-0.3090623263	0.8949970903	
750.0	0.01055729838	0.2696963849	
