!Created with skrf (http://scikit-rf.org).
# GHz S RI R (50+0j) 
!freq	ReS11	ImS11	
500.0	-2.821806023	-2.819429197	
500.625	1.513882605	-1.451001664	
501.25	-1.786916658	-3.32954971	
501.875	-1.780414979	-1.058642687	
502.5	-0.2185398531	-0.04708589799	
503.125	-0.299346551	-0.08530345413	
503.75	0.3313617963	0.2056282044	
504.375	0.05932943613	0.1112821024	
505.0	-0.02404359986	-0.2155976031	
505.625	0.2351808343	0.008564900325	
506.25	-0.719079025	-0.2753357013	
506.875	0.6077863711	-0.4796802845	
507.5	-0.3824177843	-2.233602225	
508.125	-1.390946949	-2.304164163	
508.75	1.168592799	-0.9923708368	
509.375	0.04922485528	-5.72082465	
510.0	-1.390127181	0.2220039969	
510.625	-0.176087655	-0.7135855134	
511.25	-0.4242570686	0.1545753635	
511.875	-0.1991288262	-0.5407280688	
512.5	-0.06794922809	0.1495971788	
513.125	-0.1107780226	-0.2777934939	
513.75	-0.08208218605	-0.007204440209	
514.375	-0.2377657491	-0.4360057711	
515.0	-0.8918253093	1.572815777	
515.625	0.6419532594	-3.995708083	
516.25	-2.987274076	-0.1155673253	
516.875	0.965637489	-1.185747032	
517.5	-0.8521448385	-1.077577245	
518.125	0.3375656809	0.06345730441	
518.75	-0.7580378359	-0.7492637886	
519.375	-0.02536833985	0.1412862042	
520.0	0.2459025034	0.3174773607	
520.625	0.5878114258	-0.3471644899	
521.25	-0.1893842574	-0.4504301797	
521.875	-0.3035105614	-0.2514058543	
522.5	0.0003473747453	0.2181513901	
523.125	-0.3120070845	0.007280296431	
523.75	-0.1584599727	0.002854273095	
524.375	-0.6074734461	0.0176003253	
525.0	0.3386986249	0.3051490805	
525.625	-0.1364037208	0.1430136435	
526.25	0.1972525911	-0.1250882994	
526.875	-0.3614622751	0.2449057992	
527.5	0.239018886	0.4958421005	
528.125	-0.2466655284	0.5429780829	
528.75	0.1831688077	1.087547489	
529.375	0.01565828874	-0.0577463385	
530.0	0.3028498491	0.7259395713	
530.625	0.1100518801	0.5669565414	
531.25	1.65782972	0.4289041761	
531.875	0.03598175164	-0.3546471002	
532.5	0.02335245809	-0.5215909802	
533.125	-0.180750348	0.3367305573	
533.75	0.456555231	-1.044867649	
534.375	-0.4535749437	-0.2832644019	
535.0	-0.5250603668	-0.7575887027	
535.625	-0.3584825191	0.6786847968	
536.25	-0.03915711622	0.1072284287	
536.875	0.3041687863	0.1515324729	
537.5	0.1280119637	-0.2058505596	
538.125	0.2819736157	0.05537298489	
538.75	0.3461633793	-0.512464973	
539.375	-0.09012189239	-0.2321358883	
540.0	-0.3789217406	-0.5716362648	
540.625	-0.4747844143	0.1600850489	
541.25	-0.08906079732	-0.06924390937	
541.875	-0.1402285907	-0.1061380103	
542.5	-0.2044344613	-0.07532642809	
543.125	-0.01257077755	-0.07599718307	
543.75	-0.4162347844	-0.1107320716	
544.375	0.1418534777	0.1115769823	
545.0	-0.2114181732	0.2655654929	
545.625	0.2748333772	-0.04813337484	
546.25	0.0468581332	0.3009901931	
546.875	0.4328164795	-0.2949595391	
547.5	0.07528169396	-0.04136254598	
548.125	0.07417209575	-0.5369656164	
548.75	-0.4823754928	-0.2644001583	
549.375	-0.1270020543	-0.03086619048	
550.0	-0.2988669673	-0.1214897968	
550.625	-0.02059806021	0.1225831	
551.25	-0.2829887912	-0.04563883967	
551.875	-0.08311676999	0.2827613463	
552.5	-0.1572244625	0.08045807326	
553.125	-0.02402353404	0.2275839389	
553.75	0.09886269547	0.0905703032	
554.375	0.2319717004	0.03200839092	
555.0	0.2549358805	-0.1799713841	
555.625	0.1923597118	-0.257738493	
556.25	0.1705467244	-0.3339825994	
556.875	-0.08626967939	-0.4033240604	
557.5	-0.2419700964	-0.2449744641	
558.125	-0.2619497977	-0.1022049886	
558.75	-0.2805452387	-0.02088548947	
559.375	-0.2431709283	0.07817761125	
560.0	-0.2354576831	0.1201303929	
560.625	-0.1569001702	0.3143430651	
561.25	0.09255072937	0.2077516722	
561.875	-0.03167324872	0.117602657	
562.5	0.1453938741	0.1012329216	
563.125	0.04039549062	0.2241879999	
563.75	0.462685018	-0.04913318086	
564.375	0.125298718	-0.1763871443	
565.0	0.3594142594	-0.3300002265	
565.625	-0.2156153208	-0.4044151471	
566.25	-0.1668896658	-0.1553118295	
566.875	-0.2972519312	-0.3271813118	
567.5	-0.5072068456	-0.2034117914	
568.125	-0.1362656288	-0.2515566837	
568.75	-0.6794205037	-0.4019556015	
569.375	-0.4392835541	0.4236401083	
570.0	-0.3807990545	0.1864164704	
570.625	-0.2548721327	0.7373707473	
571.25	0.1806085462	0.004194269409	
571.875	-0.001883444843	0.5195417211	
572.5	0.2926806067	-0.3887445549	
573.125	0.2002402143	0.09572021568	
573.75	0.3378980754	-0.517386823	
574.375	-0.2601700443	-0.1059756538	
575.0	0.3958747621	-0.03704310397	
575.625	-0.1948437892	-0.3013882599	
576.25	0.2909264832	0.05058669484	
576.875	0.01384179948	-0.629204706	
577.5	-0.2654950961	-0.2704916637	
578.125	0.1306783325	-0.2403847751	
578.75	-0.1891356001	-0.5346766749	
579.375	-0.3766843031	0.02157603601	
580.0	0.1269695182	-0.1338782104	
580.625	-0.4244147698	-0.003494537127	
581.25	0.0109936965	0.01226164871	
581.875	-0.3184115855	0.4886055233	
582.5	0.4534787743	0.4642017722	
583.125	0.01270362501	-0.194056284	
583.75	0.08510582761	0.5361795882	
584.375	0.04924059355	-0.3691996571	
585.0	0.1616638735	0.5489301971	
585.625	0.5396335768	-0.2736775346	
586.25	0.04903434727	0.04273931337	
586.875	0.4770465685	-0.4849116475	
587.5	-0.3049093369	-0.1604919523	
588.125	0.2404639522	-0.2454122927	
588.75	0.1225735013	-0.6231853884	
589.375	-0.1181489672	-0.2440714003	
590.0	0.1738165065	-0.4088787622	
590.625	-0.5979802917	-0.1916828684	
591.25	-0.1856542179	0.3330461471	
591.875	-0.165245563	0.07940445043	
592.5	0.0299248462	0.3384507365	
593.125	-0.2357449483	-0.05310535165	
593.75	0.2852864013	0.35098002	
594.375	0.240786172	0.07300316782	
595.0	0.1744207898	0.512554578	
595.625	0.8812076667	0.2309640464	
596.25	-0.05361589807	-0.1334561273	
596.875	0.4951398851	0.4910648139	
597.5	0.5523419513	-0.01297582763	
598.125	0.02414586462	0.3355069449	
598.75	0.6930512847	0.2689921121	
599.375	0.2261481296	-0.07396458564	
600.0	0.6534042509	-0.1859218721	
600.625	0.3030962377	-0.6209329878	
601.25	0.06211634727	-0.2343576499	
601.875	-0.01244815613	-0.4744903991	
602.5	-0.3897571684	-0.01757369517	
603.125	-0.2771378862	0.1323406726	
603.75	-0.1697856147	0.03491754061	
604.375	-0.4398985871	0.1875289941	
605.0	0.08686454133	0.2228541782	
605.625	-0.4229919112	-0.02820457944	
606.25	-0.1061824944	0.3521772942	
606.875	-0.3708497661	-0.1329999358	
607.5	-0.6590251411	0.7937426577	
608.125	0.1378250233	0.1905472832	
608.75	0.1325185163	0.756099728	
609.375	0.7655861767	-0.375189772	
610.0	0.2020512983	0.008946869956	
610.625	0.3978666202	-0.5914100764	
611.25	-0.1311389962	-0.2732113935	
611.875	-0.0006453728702	-0.4682195276	
612.5	-0.3949589927	0.1670979408	
613.125	-0.3892009228	-0.1240159141	
613.75	-0.2784007318	0.5640237371	
614.375	0.02381058475	-0.01395276738	
615.0	0.2564320335	0.3107420585	
615.625	-0.1255539379	-0.03436776849	
616.25	-0.2899813198	0.6288798756	
616.875	0.1682484809	0.3331589449	
617.5	-0.5053533895	0.4012169838	
618.125	0.1043562518	0.7211080908	
618.75	0.03639493407	0.1842252595	
619.375	0.1478106584	0.6358090959	
620.0	0.4010846059	-0.04132885684	
620.625	0.3785569691	-0.2209923944	
621.25	-0.29626505	-0.4408785336	
621.875	-0.3262556016	-0.2759803869	
622.5	-0.6041873096	0.2280868721	
623.125	-0.07388604491	0.3120759524	
623.75	0.4102009325	0.315606879	
624.375	-0.1383822886	-0.2352108543	
625.0	0.3996229211	0.01677704585	
625.625	-0.2804317635	-0.2198145417	
626.25	0.2916405703	-0.3279218608	
626.875	-0.5696974831	-0.3007084695	
627.5	-0.1832630925	0.1176718966	
628.125	-0.1640839424	-0.4622463605	
628.75	-0.3715228504	-0.1317045988	
629.375	0.02319112243	-0.3634091308	
630.0	-0.5985763037	-0.3403411458	
630.625	-0.3045311598	0.2765160178	
631.25	-0.4985206367	0.2097406241	
631.875	-0.0885491095	0.7514352312	
632.5	0.3549400193	0.4080809179	
633.125	0.4211255859	0.04134466855	
633.75	0.4052673218	0.06894826412	
634.375	0.02493524961	-0.5809964624	
635.0	0.138290454	-0.1334427137	
635.625	-0.477599687	-0.3820940053	
636.25	-0.1264110949	0.2864845287	
636.875	-0.5235558011	0.1372277296	
637.5	0.1557914794	0.4432284444	
638.125	-0.2232476005	-0.1831708447	
638.75	-0.4133734129	0.7988511219	
639.375	0.438912425	0.4116264304	
640.0	-0.0852860842	0.4155638483	
640.625	0.668402452	0.6638244998	
641.25	0.6752827399	-0.3350511579	
641.875	0.3598220428	-0.01822542788	
642.5	-0.1759787521	-0.9462665458	
643.125	-0.055201748	0.02148034582	
643.75	-0.3791848683	-0.5855133859	
644.375	-0.4591137163	0.410799316	
645.0	-0.1505411437	-0.053015117	
645.625	-0.1597635959	0.7593931012	
646.25	0.7136932592	0.1570901278	
646.875	-0.07029218872	-0.2466520564	
647.5	0.3945930765	0.5259924511	
648.125	0.07178760326	-0.440326271	
648.75	0.8385499628	0.4565086656	
649.375	0.5049286334	-1.102024547	
650.0	-0.04490103316	-0.1820949469	
650.625	1.147716191	-0.5871385278	
651.25	0.001741478021	-1.285685522	
651.875	0.1616731434	0.2362740907	
652.5	1.308998813	-0.07153907429	
653.125	0.4523336379	-0.7372782482	
653.75	0.2887038855	0.01507083004	
654.375	-0.05656443742	-1.229736919	
655.0	-0.7178805519	0.2018363978	
655.625	-0.3401921499	-0.1107614974	
656.25	-0.08354171258	0.911960117	
656.875	0.267122578	-0.3506656772	
657.5	-0.07584490083	0.6219135459	
658.125	0.577471716	0.2581201534	
658.75	0.4191258169	0.02881928487	
659.375	0.9840054233	0.135854147	
660.0	0.4291752384	-1.167784556	
660.625	0.1468626717	-0.3461566619	
661.25	0.7913571325	-0.6288191177	
661.875	0.3371266926	-1.144137151	
662.5	0.1397674206	0.05460949816	
663.125	1.23546145	-0.4444001476	
663.75	-0.08856769097	-0.870869144	
664.375	0.2807354153	-0.3936405721	
665.0	-0.9311729626	-0.8539462988	
665.625	-0.3127109758	0.4033535279	
666.25	-0.6236852444	0.4624222411	
666.875	0.5223273861	0.6707129117	
667.5	0.2104831795	-0.07420503133	
668.125	0.6266790862	0.3969022427	
668.75	0.4898291783	-0.6503645746	
669.375	0.05449092097	-0.3573664367	
670.0	0.2321713511	-0.4232473121	
670.625	-0.04622132978	-0.7023695623	
671.25	0.006542549521	-0.1034366206	
671.875	0.5064805787	-0.4963952134	
672.5	0.3302160537	-0.5226762365	
673.125	0.3714694831	-0.07992437357	
673.75	0.78089464	-0.7324574787	
674.375	-0.4010941522	-0.6315883085	
675.0	0.3165214139	-0.2143725586	
675.625	-0.6514662805	-0.7667838379	
676.25	-0.4751344936	0.4797713625	
676.875	-0.114534189	-0.4997656584	
677.5	-0.5678746203	0.6068238096	
678.125	-0.1520152302	-0.08152786799	
678.75	-0.2120231739	0.9707465726	
679.375	0.5957758775	-0.3729330518	
680.0	0.2212165918	0.2046766904	
680.625	0.4934824692	-0.2337275437	
681.25	0.0315595791	-0.3811497749	
681.875	0.05090684635	0.4086512533	
682.5	0.7545734575	0.4118411625	
683.125	0.6016067369	-0.05627205779	
683.75	0.2731117025	0.1137527922	
684.375	0.9418621856	0.5145716168	
685.0	0.559884619	-0.5741715414	
685.625	0.5988737607	0.6128774305	
686.25	1.126000094	-0.5080779821	
686.875	-0.04917563336	-0.1831492669	
687.5	1.625659106	-0.4399972133	
688.125	-1.109519011	-1.420577423	
688.75	-0.01982248348	-0.4313385927	
689.375	-1.411506255	0.9369524336	
690.0	0.6658881593	0.5837156652	
690.625	-0.01455256718	0.806105425	
691.25	1.229751168	0.3538391409	
691.875	0.6611607445	0.6493779519	
692.5	1.464509211	0.7614707868	
693.125	1.659359139	-0.3016497634	
693.75	1.244020947	-0.3307580921	
694.375	1.028294045	-0.8808362387	
695.0	1.072195521	-0.4658927317	
695.625	1.430342966	-0.5743069956	
696.25	0.6554638871	0.3115164389	
696.875	1.272122923	1.710435473	
697.5	1.164214443	0.3035337414	
698.125	1.015132728	1.194869569	
698.75	1.308053575	-1.70069903	
699.375	-0.4838121849	-0.2053188668	
700.0	-1.547400037	0.6991006438	
700.625	0.8641102309	0.4652991861	
701.25	-0.04479468764	0.5978901437	
701.875	1.205132188	0.4126535674	
702.5	0.3396217098	0.476720194	
703.125	1.224448812	0.5210871126	
703.75	0.6834815821	-0.5331860807	
704.375	1.021718436	0.02077726065	
705.0	0.5205523819	-0.6952521106	
705.625	0.2271575472	0.3012147364	
706.25	1.403052297	0.6651606944	
706.875	0.2634333877	0.09866082306	
707.5	0.482636514	1.363265749	
708.125	1.495007684	-0.09108046607	
708.75	0.5861501023	-0.374742762	
709.375	-0.7471436071	-1.174961456	
710.0	-0.1557577021	0.6677358743	
710.625	-0.1507604416	0.4032791084	
711.25	0.4185728824	0.2692070074	
711.875	0.3513178023	0.2829884264	
712.5	0.8226181374	0.0175202875	
713.125	0.5854789974	-0.2564693804	
713.75	0.4120171064	-0.8565456986	
714.375	-0.1918249694	-0.2552222864	
715.0	0.3589293743	-0.9384719148	
715.625	-0.4621286193	-0.401195417	
716.25	0.7609850398	-0.0476079727	
716.875	1.289822836	-1.346433706	
717.5	-0.1080758556	-0.02211506224	
718.125	2.956163919	1.112045316	
718.75	2.117615558	-1.977772275	
719.375	0.5642955299	0.6339159634	
720.0	3.16805398	-3.728529856	
720.625	-1.048675753	-1.884562128	
721.25	0.8088565647	-2.309929071	
721.875	-0.5588472795	-3.466733036	
722.5	-1.700679217	-0.8881764824	
723.125	-1.878468816	-1.269225923	
723.75	-0.9963155441	1.565672525	
724.375	0.2261159489	0.7044898954	
725.0	0.112463422	0.9021173328	
725.625	0.5820000956	1.69670632	
726.25	0.9807792074	1.149906915	
726.875	-1.175794245	1.648502031	
727.5	-0.5569447673	5.118014051	
728.125	2.940396039	3.067695877	
728.75	-5.792459267	4.997794164	
729.375	4.004988847	15.66750023	
730.0	1.613556233	1.963103241	
730.625	-11.96258393	14.73450589	
731.25	12.98253166	13.15220762	
731.875	-6.671888904	-2.900161057	
732.5	-13.78110047	3.891788008	
733.125	-7.132296164	3.165045625	
733.75	-0.5483979797	1.368629355	
734.375	2.881612451	2.838667984	
735.0	-0.7468245905	-0.9352144009	
735.625	-0.8800701223	-0.3817322801	
736.25	-0.1372990015	2.411712266	
736.875	1.005123459	-0.1031173901	
737.5	2.09177937	2.108070666	
738.125	5.622644571	-1.288369795	
738.75	3.560453802	-6.590815956	
739.375	-1.189973933	0.2367371303	
740.0	23.82494567	-1.722020998	
740.625	-2.993873402	-19.45880887	
741.25	-8.274317816	8.966404225	
741.875	-7.964176915	22.20266619	
742.5	11.31901449	-6.023354794	
743.125	1.02864304	-12.51673891	
743.75	-2.458265941	-2.682067005	
744.375	0.228639928	-0.4367603695	
745.0	-0.1160514432	0.9333812846	
745.625	-0.1775950365	-0.1878521485	
746.25	0.2091778697	-0.4546151285	
746.875	-0.5247982386	0.003730885674	
747.5	0.2047789131	0.4519980644	
748.125	0.09942861338	1.377536186	
748.75	1.105754129	1.288863117	
749.375	0.298452092	0.6340058882	
750.0	-1.36492329	0.9793335781	
