!Created with skrf (http://scikit-rf.org).
# GHz S RI R (50+0j) 
!freq	ReS11	ImS11	
500.0	1.322614425	-1.90967039	
500.625	1.600181306	-4.429675637	
501.25	-2.330854871	-1.142955515	
501.875	-0.7732101275	-0.0324535836	
502.5	0.0192915553	-0.7305509241	
503.125	-0.1625766231	0.2629159991	
503.75	-0.1760883379	0.1518751979	
504.375	0.1331478934	-0.1215081382	
505.0	0.05782058794	0.107891624	
505.625	-0.136401225	-0.3819864884	
506.25	0.1447343279	0.2289608365	
506.875	-1.279544167	-0.5029910891	
507.5	-1.464402465	0.01404076264	
508.125	1.270251949	-0.7934997844	
508.75	2.037545733	-4.567492951	
509.375	-1.747203177	-1.792289331	
510.0	-1.022748636	-2.643231679	
510.625	-0.9131824362	0.1094437232	
511.25	-0.2222253354	-0.4048079329	
511.875	-0.5886685199	-0.06105208079	
512.5	0.05992864962	0.1818434828	
513.125	0.02063234317	-0.1992619798	
513.75	-0.1134627568	-0.468840913	
514.375	-0.5419523299	0.4189951406	
515.0	1.150684182	-1.316497946	
515.625	-1.530511792	0.1829376115	
516.25	1.542601568	-2.455298657	
516.875	-2.621310738	-1.921894459	
517.5	0.06105473492	0.3837946725	
518.125	-0.3228834599	-0.4340975823	
518.75	-0.02125961321	0.1576933873	
519.375	-0.2794689516	0.08045422495	
520.0	0.4833665177	0.1063089924	
520.625	0.2583904687	-0.1455105248	
521.25	0.244754423	-0.8999335286	
521.875	-0.3947367409	0.2282568996	
522.5	-0.101902356	-0.07813182341	
523.125	-0.07620200131	0.1789865697	
523.75	-0.3729938133	-0.1171648072	
524.375	-0.11680062	0.385846182	
525.0	-0.3858114503	0.1829976981	
525.625	0.3595836826	0.2621932867	
526.25	-0.2902882287	-0.03010611644	
526.875	0.05392083037	0.1320178258	
527.5	-0.4312190611	0.3220827915	
528.125	0.4402327756	1.153124958	
528.75	0.171050464	0.1723278221	
529.375	0.1454401478	0.4272907007	
530.0	0.0294784114	0.1116426763	
530.625	0.5389786782	1.274165099	
531.25	0.5288930497	-0.04370252998	
531.875	0.8538805421	-0.3511303929	
532.5	-0.4720165825	-0.1595964055	
533.125	0.5855250573	-0.4218648961	
533.75	-0.1487295317	-0.2846733578	
534.375	0.01363492834	-1.121615557	
535.0	-0.8547406479	0.1885959815	
535.625	-0.3436239597	0.02202591452	
536.25	-0.06607663595	0.3501457007	
536.875	0.2575276478	-0.0856688041	
537.5	0.1964035268	0.02825473843	
538.125	0.310683874	-0.3076981266	
538.75	0.210730665	-0.1122204606	
539.375	-0.1637390589	-0.5894720872	
540.0	-0.4927070123	-0.09665316028	
540.625	-0.2696912858	-0.2194435878	
541.25	-0.3075075159	0.01007446881	
541.875	-0.1101753481	0.01030152777	
542.5	-0.009717499278	-0.1216888483	
543.125	-0.3558531882	-0.2053344148	
543.75	-0.01498524837	0.1860120479	
544.375	-0.2881365187	0.03740261893	
545.0	0.1871459095	0.1103887243	
545.625	-0.09081421497	0.2900699746	
546.25	0.4375298774	-0.06045388263	
546.875	0.03687504502	0.118998105	
547.5	0.417494375	-0.43205078	
548.125	-0.3069104229	-0.2988993738	
548.75	-0.07664260033	-0.2569103692	
549.375	-0.3470494253	-0.3169428225	
550.0	-0.1197287242	0.1646799829	
550.625	-0.2128186211	-0.1341856742	
551.25	-0.1046231626	0.189931088	
551.875	-0.2264027892	0.03950609087	
552.5	-0.1158868318	0.2972944524	
553.125	-0.01679450475	0.1010937342	
553.75	0.1020735787	0.1519738275	
554.375	0.2456184494	-0.01811975268	
555.0	0.229576629	-0.1511134753	
555.625	0.2277393165	-0.2568402184	
556.25	0.160880118	-0.3568062869	
556.875	-0.07543136684	-0.3842744937	
557.5	-0.224726993	-0.26420506	
558.125	-0.2936280612	-0.1009341391	
558.75	-0.2434724144	0.001065740646	
559.375	-0.2633223807	0.009035476623	
560.0	-0.2534638177	0.2153846638	
560.625	-0.07034552293	0.2297866754	
561.25	-0.06049410242	0.2388193341	
561.875	0.1676026094	0.08976916543	
562.5	-0.09547730299	0.1337080582	
563.125	0.2885796476	0.1249304702	
563.75	0.1790597326	0.07160479384	
564.375	0.4609723413	-0.2269282232	
565.0	0.03497293873	-0.426881935	
565.625	0.01792885505	-0.2490200292	
566.25	-0.2477956182	-0.3947821378	
566.875	-0.4236145985	-0.04374479954	
567.5	-0.1463751687	-0.2766015509	
568.125	-0.473114258	-0.5351068514	
568.75	-0.4257325466	-0.01324073806	
569.375	-0.7059383137	-0.01463198369	
570.0	-0.2241013096	0.6968039567	
570.625	-0.01464793658	0.15993328	
571.25	-0.3480797467	0.4356995193	
571.875	0.3734945668	-0.1386178901	
572.5	0.1883588197	0.3565530841	
573.125	0.3383467274	-0.5350919341	
573.75	-0.1835302255	-0.1118370769	
574.375	0.3848570794	-0.1819599538	
575.0	-0.2733618117	-0.1415192177	
575.625	0.3684394488	-0.05680050755	
576.25	0.04050549518	-0.5400972287	
576.875	-0.1338294799	-0.04596371863	
577.5	0.3196971968	-0.4087553492	
578.125	-0.2761187092	-0.5577695167	
578.75	-0.2443640622	-0.08796007638	
579.375	0.02086998939	-0.2776891223	
580.0	-0.3838716376	-0.08954150203	
580.625	0.1303663929	-0.1338668844	
581.25	-0.4886421281	0.2728476517	
581.875	0.2929195461	0.3008508953	
582.5	-0.1525616169	0.08341182979	
583.125	0.1971085337	0.651177083	
583.75	0.1156038101	-0.4722671572	
584.375	0.01669533193	0.5680799347	
585.0	0.4093105079	-0.2525966814	
585.625	0.1176536569	0.3213499633	
586.25	0.669915541	-0.3457254322	
586.875	-0.0969566119	-0.1409882122	
587.5	0.2808312549	-0.368901225	
588.125	-0.2487552725	-0.5147017644	
588.75	-0.05566756184	-0.01020712776	
589.375	0.5071549571	-0.3816467862	
590.0	-0.2928942329	-0.4560663856	
590.625	-0.2657125446	-0.06725826275	
591.25	-0.435799468	0.1254122278	
591.875	0.002825694215	0.4522350912	
592.5	-0.09399565732	0.001479784963	
593.125	0.03016675755	0.2037081154	
593.75	-0.03024397406	0.1559780414	
594.375	0.4053485872	0.5564549032	
595.0	0.7076583638	0.01655897799	
595.625	-0.05279728948	0.1430649071	
596.25	0.6497713651	0.4902982117	
596.875	0.3089458551	-0.286287101	
597.5	0.1330419853	0.5142206519	
598.125	0.6553957599	0.1840179395	
598.75	0.06769169312	0.1857198869	
599.375	0.8750881325	0.02994836542	
600.0	0.1879960536	-0.45013697	
600.625	0.3296329038	-0.1780429025	
601.25	0.3721763001	-0.523609005	
601.875	-0.30506838	-0.3073481945	
602.5	-0.2531536657	-0.1026598549	
603.125	-0.2462489905	0.03654640605	
603.75	-0.3468930276	0.2504533945	
604.375	-0.05555149112	0.1100740917	
605.0	-0.3285280498	0.1137257966	
605.625	0.007425830498	0.2257718289	
606.25	-0.392957168	-0.08308452517	
606.875	-0.4719601036	0.5322707037	
607.5	-0.1760729807	0.07193830339	
608.125	-0.5153815578	0.8148197331	
608.75	0.6641910057	0.07298682664	
609.375	0.3636024238	0.2812025172	
610.0	0.6089368842	-0.5102358835	
610.625	-0.0400281979	-0.207004416	
611.25	0.2780778549	-0.5543507777	
611.875	-0.2768946884	-0.06838396939	
612.5	-0.2551132633	-0.3828432289	
613.125	-0.5807900139	0.3444291594	
613.75	-0.2229869457	0.04420038529	
614.375	0.1795166765	0.450294857	
615.0	-0.03487732994	-0.07607309609	
615.625	0.1302692218	0.6120603903	
616.25	-0.0006997023976	0.005537293288	
616.875	-0.4799800059	0.5262420478	
617.5	0.1014069522	0.6638679009	
618.125	-0.2261479187	0.1753791484	
618.75	0.08201115094	0.7266784118	
619.375	0.2462185692	0.176639681	
620.0	0.4107879128	0.330353026	
620.625	0.180674575	-0.4243095884	
621.25	-0.0498235321	-0.4360888823	
621.875	-0.5530787284	-0.1622940721	
622.5	-0.3948544098	0.0810585375	
623.125	-0.1850632983	0.6175135519	
623.75	0.1891262671	-0.09036388327	
624.375	0.3447117537	-0.001885015468	
625.0	-0.2107625554	-0.05200235037	
625.625	0.4916694609	-0.1450544995	
626.25	-0.4135133067	-0.4015976742	
626.875	0.03102365501	-0.07625664572	
627.5	-0.5745513746	-0.3049759989	
628.125	-0.2446687746	0.085415878	
628.75	0.06270046021	-0.427002378	
629.375	-0.5021691375	-0.3241351734	
630.0	-0.1506343683	-0.2687861731	
630.625	-0.6802776607	0.03294425958	
631.25	-0.3196398017	0.6106289165	
631.875	-0.01843187822	0.4189967711	
632.5	0.2036310734	0.4754089539	
633.125	0.5770082784	0.2475326043	
633.75	0.3015878639	-0.2962392352	
634.375	0.2515951919	-0.1455483138	
635.0	-0.1556086577	-0.5303701901	
635.625	-0.06735222844	-0.1534016387	
636.25	-0.6130032251	0.1469466484	
636.875	0.04844830855	0.3691311069	
637.5	-0.23211027	-0.1414922889	
638.125	-0.1233850071	0.7723170854	
638.75	0.04583993626	-0.09056788403	
639.375	-0.4241234368	0.7321761191	
640.0	0.6273350599	0.6740063646	
640.625	0.3946876732	0.06681676205	
641.25	0.7444037258	0.4418103863	
641.875	0.2323575346	-0.710326263	
642.5	0.2390202397	-0.1893772844	
643.125	-0.4505176497	-0.6876737556	
643.75	-0.1781904838	0.3518943239	
644.375	-0.4022667194	-0.4694382036	
645.0	-0.470379274	0.5968116873	
645.625	0.3302095632	0.400677511	
646.25	-0.004805217816	0.0775558213	
646.875	0.7414324318	0.1741149778	
647.5	-0.3356769479	-0.101963143	
648.125	0.7089815913	0.3919119895	
648.75	0.3700257302	-0.5979790722	
649.375	0.6451346678	0.2088807518	
650.0	0.72108333	-1.371182412	
650.625	-0.3459225133	-0.5873765923	
651.25	0.8151976881	0.1325501183	
651.875	1.048270574	-1.006589357	
652.5	0.00616166354	-0.3776014027	
653.125	0.9179888663	0.2155974845	
653.75	0.3780333423	-1.006484532	
654.375	-0.03632947769	-0.1905171148	
655.0	-0.7006131286	-0.8488323942	
655.625	-0.2848130499	0.8948649988	
656.25	0.06637751358	-0.02495373685	
656.875	-0.0520208892	0.5367937678	
657.5	0.3308277724	-0.03503421133	
658.125	-0.1071748832	0.5152149389	
658.75	1.055878283	0.2050077899	
659.375	0.5098822593	-0.4331749754	
660.0	0.5713350897	-0.2792990222	
660.625	0.5482466325	-1.273025145	
661.25	-0.1886820173	-0.4346095458	
661.875	0.9022814333	-0.2270005088	
662.5	0.8375078895	-0.9178781754	
663.125	0.07147819884	-0.5087243209	
663.75	0.9173816572	-0.3630823358	
664.375	-0.5434836518	-1.00573017	
665.0	-0.1575947939	-0.3056678182	
665.625	-1.169446596	0.05210809686	
666.25	0.1972624834	0.6960874975	
666.875	-0.1623544942	0.4633774741	
667.5	0.6558459115	0.3954823008	
668.125	0.4398747191	-0.3262696537	
668.75	0.3161120508	-0.0132957493	
669.375	0.4833352217	-0.6946976475	
670.0	-0.2644622552	-0.4684402963	
670.625	0.1852540434	-0.3199510165	
671.25	0.1654107495	-0.6219484871	
671.875	0.05591970442	-0.2049642524	
672.5	0.7567537437	-0.3125003724	
673.125	0.367839896	-0.6323959827	
673.75	0.1145117112	-0.2841956933	
674.375	0.6022053862	-0.4859688166	
675.0	-0.6357254924	-0.9953223303	
675.625	-0.0502429658	0.2410002547	
676.25	-0.7096843523	-0.5805997537	
676.875	-0.2889904392	0.5226406118	
677.5	-0.264317391	-0.5444936539	
678.125	-0.3698759105	0.9320568216	
678.75	-0.05650650832	0.007205246404	
679.375	0.4437757435	0.6091319255	
680.0	0.6336449013	-0.5280652617	
680.625	-0.33884634	-0.05134000979	
681.25	0.616638155	0.213192961	
681.875	0.434489935	-0.1497933447	
682.5	0.3135341093	0.09251654437	
683.125	0.4737051299	0.5213401101	
683.75	0.9169023218	-0.1219059396	
684.375	0.3104001289	0.09809564972	
685.0	0.8472280688	0.4778203988	
685.625	0.7655666293	-0.5934882945	
686.25	0.22354204	0.647801901	
686.875	1.52623115	-0.938022894	
687.5	-0.3689892078	-0.4687333711	
688.125	0.7613613246	-1.027248672	
688.75	-1.80893337	-0.4692150699	
689.375	-0.0002218348822	0.1766951013	
690.0	-0.1839259587	1.478695106	
690.625	0.7082677841	0.03861021265	
691.25	0.2669480726	0.9684866963	
691.875	1.548339778	0.7494045575	
692.5	1.12817445	0.2671024808	
693.125	1.609574434	0.1385911362	
693.75	1.475391433	-0.5616375651	
694.375	1.025508376	-0.9427933698	
695.0	0.9242568056	-0.8654221683	
695.625	1.11529785	0.1193807792	
696.25	1.800540747	0.2194724218	
696.875	0.5318859927	0.5007054907	
697.5	0.9931044751	1.828508891	
698.125	1.458052457	-0.2369586043	
698.75	1.355776569	-0.06246947168	
699.375	-1.441299966	-1.44486301	
700.0	0.1004842197	0.6917745918	
700.625	-0.2803841368	1.249976172	
701.25	0.7589121003	-0.04434555171	
701.875	0.152688491	0.7563900215	
702.5	1.414513231	0.5536305704	
703.125	0.5805292184	0.1535794341	
703.75	1.349301689	-0.1066709123	
704.375	0.3412628072	-0.6914272614	
705.0	0.723577191	0.1071371369	
705.625	0.7776099586	-0.6524306477	
706.25	0.08006807442	0.4578532363	
706.875	0.8684997002	1.186751396	
707.5	0.690740587	0.1586360832	
708.125	1.058816507	0.8721007837	
708.75	0.7504818968	-1.309963605	
709.375	-0.3237998845	-0.3707094937	
710.0	-0.9011530077	0.5084014827	
710.625	0.4863603275	0.199893639	
711.25	0.009117806989	0.4700034575	
711.875	0.6693599727	0.2069784244	
712.5	0.7931629256	0.07563335916	
713.125	0.4845046849	-0.6040130436	
713.75	0.3733485744	-0.3146911816	
714.375	-0.008061281254	-0.9693401792	
715.0	-0.253980943	-0.06100130799	
715.625	0.4961748895	-0.8062789584	
716.25	-0.3620759705	-0.7117265696	
716.875	0.9779804412	0.3822383033	
717.5	2.366405555	-0.5529525414	
718.125	-0.02195437893	-0.8854139804	
718.75	3.295572644	1.659935466	
719.375	1.80108702	-2.844829671	
720.0	0.6669651432	-1.036097766	
720.625	2.199096752	-2.962443771	
721.25	-1.645258404	-2.608150394	
721.875	0.6596422873	-2.278766657	
722.5	-2.046353103	-2.419437477	
723.125	-1.915008454	0.3610933989	
723.75	-1.013022485	0.3529867581	
724.375	0.05809920935	1.614958264	
725.0	0.6483009949	0.532350606	
725.625	0.1565572146	0.8360248242	
726.25	-0.2964848851	2.010183137	
726.875	1.288704371	2.781519594	
727.5	-1.696935855	1.580903525	
728.125	-0.01878945161	7.197129961	
728.75	4.486069541	4.880514904	
729.375	-11.99280231	2.82339842	
730.0	5.487708542	19.50152745	
730.625	1.933858701	0.4403572907	
731.25	-14.45697623	9.968054636	
731.875	-6.290916155	17.02473215	
732.5	-1.764821763	0.9613452183	
733.125	-9.320824557	-1.708693964	
733.75	-1.330441325	4.303446775	
734.375	1.152107284	0.3689634793	
735.0	1.036702635	-2.449187108	
735.625	-0.4462947048	1.169810836	
736.25	-0.9483433102	0.87431489	
736.875	1.391740986	2.007039992	
737.5	3.381375439	-0.4303910504	
738.125	0.7854113655	-1.293652451	
738.75	9.328663938	-0.2702810187	
739.375	5.568668232	-10.40163384	
740.0	-3.768362516	1.031513233	
740.625	18.73265423	6.761047027	
741.25	11.06450152	-10.08139489	
741.875	-15.55089559	-12.18947122	
742.5	-12.38550369	0.1680382326	
743.125	1.219778615	2.407968174	
743.75	3.482723426	-6.938803362	
744.375	-2.359119166	0.8587131111	
745.0	-0.04760212403	-0.1876109152	
745.625	0.3182300796	0.01441332685	
746.25	-0.2233025982	-0.1209766039	
746.875	-0.7116540628	-0.1921334998	
747.5	0.1680567733	1.154311721	
748.125	0.259066897	0.8840591093	
748.75	0.8043435784	1.524322225	
749.375	0.725100694	1.161735472	
750.0	-0.5935770203	0.09321296608	
