!Created with skrf (http://scikit-rf.org).
# GHz S RI R (50+0j) 
!freq	ReS11	ImS11	
500.0	-0.1801949384	-8.080976333	
500.625	0.1310171229	-1.398035188	
501.25	-2.331644913	-3.974755469	
501.875	-0.7143122755	-0.6587402439	
502.5	-0.3094854217	-0.5258653212	
503.125	-0.1779219167	0.1761156228	
503.75	-0.1035906817	0.0778932693	
504.375	0.2089174278	-0.02080710109	
505.0	-0.1130560933	-0.0294143128	
505.625	0.2168206065	-0.1999227684	
506.25	-0.5268441783	-0.03433476249	
506.875	0.01607492389	-0.7183004612	
507.5	-1.784745829	-0.417239578	
508.125	1.643563879	-1.077000697	
508.75	2.367612342	-4.663444074	
509.375	-2.750050615	-2.611085014	
510.0	-0.4622368603	-0.9247734583	
510.625	-1.060221208	-0.753124634	
511.25	-0.2686673545	-0.02104626834	
511.875	-0.4389921211	-0.2591337601	
512.5	-0.158563421	0.2342628848	
513.125	-0.1126491649	-0.2751290787	
513.75	-0.08372692571	-0.32700087	
514.375	-0.5872636784	0.1327452687	
515.0	1.37499817	-0.2277253044	
515.625	-2.584101851	-0.6101793027	
516.25	1.604126814	-0.6328467789	
516.875	-1.075633676	-3.009433313	
517.5	-0.7381405283	0.1903416142	
518.125	-0.003700230308	-0.5582555663	
518.75	-0.6435204509	0.1742821436	
519.375	-0.2445576825	-0.05097875199	
520.0	0.5410158222	0.2572316957	
520.625	0.3180176507	-0.2885450989	
521.25	0.2101661669	-0.6726354509	
521.875	-0.4586698475	-0.07747743701	
522.5	-0.1028572101	0.0362528427	
523.125	-0.09714351707	0.3027665676	
523.75	-0.2448695644	-0.1104501134	
524.375	-0.4626459227	0.2303103544	
525.0	-0.1169120644	0.1608408563	
525.625	0.1154916386	0.3422997222	
526.25	-0.1956266634	-0.2559360731	
526.875	0.03282622713	0.3024921588	
527.5	-0.1612103546	0.173224018	
528.125	0.1469496413	1.286172678	
528.75	0.4282574751	0.4107560777	
529.375	-0.05573160683	0.3855576683	
530.0	0.3897337459	0.2495060342	
530.625	-0.2462193429	0.916458519	
531.25	1.486967834	0.01790318533	
531.875	0.6918380415	-0.107211918	
532.5	-0.6038715665	-0.4660698743	
533.125	0.9161432022	0.01756103015	
533.75	-0.2864678785	-0.7392573298	
534.375	0.3345406152	-0.5686998812	
535.0	-1.037400467	-0.3588050941	
535.625	-0.1451148072	0.1698344561	
536.25	-0.1378447561	0.3212975527	
536.875	0.3087492381	-0.1436158978	
537.5	0.1808967518	0.08120375761	
538.125	0.433587731	-0.3078865497	
538.75	0.127427913	-0.2530529806	
539.375	-0.03681025995	-0.4672973098	
540.0	-0.5247329154	-0.4124032557	
540.625	-0.3483435578	-0.009891183098	
541.25	-0.2053073142	-0.04442445129	
541.875	-0.1546135567	0.004835259041	
542.5	-0.04682838669	-0.1474249875	
543.125	-0.2813486595	-0.1260780575	
543.75	-0.1496286465	0.09675564465	
544.375	-0.2171452287	-0.05926799785	
545.0	0.1180398008	0.2732756685	
545.625	-0.182695343	-0.003248956357	
546.25	0.506225594	0.2707119856	
546.875	0.07881182997	-0.1967920954	
547.5	0.3912695213	-0.1659299544	
548.125	-0.3121799605	-0.5505427036	
548.75	-0.09343452546	-0.1319797858	
549.375	-0.2808530602	-0.3800134463	
550.0	-0.2439131431	0.1638861552	
550.625	-0.04070465602	-0.1389400698	
551.25	-0.2859566684	0.1769729664	
551.875	-0.09209238212	0.1048262069	
552.5	-0.2049199987	0.2045404378	
553.125	0.0112551906	0.163444906	
553.75	0.08927270142	0.1604322654	
554.375	0.2574727016	-0.007006403349	
555.0	0.2440818266	-0.1510799015	
555.625	0.2431866188	-0.252410621	
556.25	0.1857862413	-0.3617670788	
556.875	-0.08252710925	-0.4034166406	
557.5	-0.2253966126	-0.2495075404	
558.125	-0.2890734846	-0.1326248028	
558.75	-0.2779494613	0.003487987937	
559.375	-0.2436674663	0.01143254083	
560.0	-0.2936104228	0.1964100925	
560.625	-0.05003489469	0.2533358593	
561.25	-0.08751487972	0.216089213	
561.875	0.1631430598	0.1606746863	
562.5	-0.05643140405	0.03429087059	
563.125	0.2066321353	0.3205864212	
563.75	0.3003174226	-0.1249248114	
564.375	0.3372717256	-0.06242676143	
565.0	0.2044931868	-0.4960988035	
565.625	-0.07716940404	-0.2222435393	
566.25	-0.2311512107	-0.4295584464	
566.875	-0.4258758103	-0.06693208682	
567.5	-0.1604623284	-0.2689077594	
568.125	-0.3826076321	-0.6002361073	
568.75	-0.6536815621	-0.03291881141	
569.375	-0.3404080893	0.02609360864	
570.0	-0.7011076315	0.6217367544	
570.625	0.2057308239	0.471852825	
571.25	-0.3403912918	0.09896269913	
571.875	0.5344436356	0.2186219648	
572.5	-0.05427652585	0.2647862159	
573.125	0.5411242129	-0.5079583957	
573.75	-0.2397376124	-0.3208054655	
574.375	0.2390600096	0.1206908788	
575.0	0.08851953862	-0.4538234877	
575.625	0.036556554	0.1770508243	
576.25	0.3743379896	-0.4369309197	
576.875	-0.3042465335	-0.3122299334	
577.5	0.2287347554	-0.1655200448	
578.125	-0.1422203573	-0.7118307439	
578.75	-0.3395856155	-0.102613069	
579.375	0.03524320323	-0.1230560432	
580.0	-0.2585693487	-0.315256554	
580.625	-0.05267041166	0.2041471293	
581.25	-0.412481342	-0.1887128851	
581.875	0.1367326188	0.7311455231	
582.5	0.2310013814	-0.0703134559	
583.125	-0.1919148445	0.495050967	
583.75	0.490727142	-0.3082649489	
584.375	-0.2557686863	0.4879545417	
585.0	0.6415124476	-0.02810005305	
585.625	-0.04881621759	-0.0277987924	
586.25	0.5761515791	0.1515418929	
586.875	0.1434805809	-0.621987425	
587.5	-0.0003755746486	-0.03928410359	
588.125	0.1766766175	-0.5515700775	
588.75	-0.2247872441	-0.3474267924	
589.375	0.5051674662	-0.1294865121	
590.0	-0.3207418935	-0.5884940564	
590.625	-0.1790235836	-0.03427868439	
591.25	-0.5274069653	0.1301483234	
591.875	-0.1262648944	0.4668894427	
592.5	0.2231984802	-0.02520741981	
593.125	-0.3786517277	0.2541949667	
593.75	0.4255810655	0.1139399545	
594.375	-0.05305114417	0.3468540896	
595.0	0.8286111561	0.496985222	
595.625	0.1333921183	-0.1490029191	
596.25	0.4518043332	0.5449989462	
596.875	0.6003971509	-0.2851889968	
597.5	-0.1128987185	0.350238544	
598.125	0.6357987946	0.5846878245	
598.75	0.4527295445	0.005448280121	
599.375	0.3788426673	0.1587081113	
600.0	0.622059096	-0.419530579	
600.625	0.1662194666	-0.4192981404	
601.25	0.3679993964	-0.3410398044	
601.875	-0.2902385833	-0.4711842477	
602.5	-0.1303972964	-0.03520330474	
603.125	-0.4037273782	0.04000550538	
603.75	-0.1927861193	0.140269329	
604.375	-0.1757261934	0.1730137291	
605.0	-0.2668085414	-0.009207683656	
605.625	-0.2348834939	0.4463561723	
606.25	0.006652705608	-0.1514532872	
606.875	-0.9191136641	0.2545458399	
607.5	0.037639707	0.4341208648	
608.125	-0.5668732289	0.3961384578	
608.75	0.9408043992	0.4831137514	
609.375	0.131637534	-0.01206603583	
610.0	0.776975342	-0.1630027086	
610.625	-0.1000656054	-0.4756071481	
611.25	0.4120688003	-0.2459740174	
611.875	-0.3835528828	-0.3247467905	
612.5	-0.1807405379	-0.2673983865	
613.125	-0.6302801796	0.09196123849	
613.75	-0.1111752219	0.2276799121	
614.375	-0.05744621902	0.56665111	
615.0	0.1928099631	-0.136393954	
615.625	-0.2068000396	0.3775754652	
616.25	0.2262139285	0.3465165371	
616.875	-0.4889228432	0.1646750807	
617.5	-0.2327322537	0.8316603429	
618.125	0.1436459344	0.2672052623	
618.75	-0.2539598874	0.6243753237	
619.375	0.3830042458	0.2852340394	
620.0	0.2414162171	0.289456113	
620.625	0.3656076408	-0.5026085185	
621.25	-0.1302230445	-0.3227676647	
621.875	-0.6511821082	-0.2829593833	
622.5	-0.3152430701	0.118454968	
623.125	-0.365173134	0.4305176984	
623.75	0.5080238775	-0.05111708761	
624.375	0.02807657782	0.3720930933	
625.0	-0.06802834702	-0.3712381619	
625.625	0.30920416	0.04184870826	
626.25	-0.3272724486	-0.6583542726	
626.875	-0.05449507845	0.1699389599	
627.5	-0.3781463272	-0.5125804774	
628.125	-0.4755839882	0.03283191024	
628.75	0.02867082311	-0.1608060162	
629.375	-0.08809557068	-0.573583166	
630.0	-0.6063971642	-0.1328256458	
630.625	-0.4124503063	-0.0350914546	
631.25	-0.5068463256	0.5364698362	
631.875	0.03771702988	0.5125066234	
632.5	0.07612958627	0.5830866982	
633.125	0.6813009198	0.08689099315	
633.75	0.2778434601	-0.09553356954	
634.375	0.2438842318	-0.2433651762	
635.0	0.1136616369	-0.5460965815	
635.625	-0.4867237062	0.01739901364	
636.25	-0.1693307691	-0.2996239387	
636.875	-0.429868475	0.68693937	
637.5	0.2972609359	0.01757305095	
638.125	-0.648522137	0.2906979295	
638.75	0.3467398275	0.3485946982	
639.375	-0.5559384529	0.4627951418	
640.0	0.6521901088	0.9181159566	
640.625	0.3288463137	-0.04669031549	
641.25	0.546245924	0.5599788823	
641.875	0.7462179353	-0.7541545969	
642.5	-0.3206255042	-0.3876237658	
643.125	0.1242540131	-0.3702701341	
643.75	-0.61484253	-0.288155086	
644.375	-0.003832472533	0.05678609092	
645.0	-0.7254736352	0.3734249485	
645.625	0.3454508521	0.5021227226	
646.25	0.1159006348	0.1126019772	
646.875	0.4958972087	0.283629009	
647.5	-0.04980196647	-0.3505619933	
648.125	0.3072785933	0.6762237115	
648.75	1.040443068	-0.5022528359	
649.375	-0.1040013744	-0.4574264781	
650.0	1.174161334	-0.2499048677	
650.625	0.05310352536	-1.473548741	
651.25	0.07580039571	0.08751083317	
651.875	1.406637993	-0.2887629094	
652.5	0.3501207156	-0.8396008187	
653.125	0.409547912	0.4070745807	
653.75	0.9664705181	-0.7464414848	
654.375	-0.5254246433	-0.6550675406	
655.0	-0.1033651139	-0.3995571857	
655.625	-1.064798644	0.5685312437	
656.25	0.458680112	0.1634829814	
656.875	-0.2809383314	0.2976594318	
657.5	0.444089405	0.2284469295	
658.125	-0.05113560325	0.1842459791	
658.75	0.827114305	0.7031348008	
659.375	0.9219521402	-0.6838246043	
660.0	0.2039869077	-0.4717470604	
660.625	0.7782130761	-0.4548305083	
661.25	0.3929489543	-1.408728424	
661.875	0.09558554238	0.003051742005	
662.5	1.22936234	-0.5638510334	
663.125	0.2756828383	-0.7448302358	
663.75	0.6794069289	-0.0291097267	
664.375	-0.2105316339	-1.422136137	
665.0	-0.5969096209	-0.07751584341	
665.625	-0.5703038686	-0.1889069139	
666.25	-0.6061819901	0.7923703076	
666.875	0.5542558144	0.3313897417	
667.5	0.1265881185	0.5508017421	
668.125	0.7272557238	-0.2153652845	
668.75	0.2108887492	-0.09509975212	
669.375	0.6640255909	-0.6601443257	
670.0	-0.3576636116	-0.4682909692	
670.625	0.2417571051	-0.2613355559	
671.25	0.323541398	-0.530210497	
671.875	0.2808043139	-0.6842734617	
672.5	0.0531858016	-0.1785559266	
673.125	1.076880101	-0.1063122317	
673.75	0.0439303732	-0.8527125146	
674.375	0.3754013265	-0.2069192133	
675.0	-0.1968866985	-1.126746852	
675.625	-0.3830529053	0.3563451078	
676.25	-0.3056209805	-0.7878629591	
676.875	-0.7358894645	0.384489264	
677.5	0.1198758804	0.002157921795	
678.125	-0.8259676404	0.1278309556	
678.75	0.3317160919	0.8468351735	
679.375	0.1879183895	-0.03271229263	
680.0	0.6226075663	0.1118680786	
680.625	0.09010290799	-0.6127154952	
681.25	0.1866838047	0.5509800911	
681.875	0.633128388	-0.1732867242	
682.5	0.2241428097	0.07291863531	
683.125	0.491048397	0.5000745118	
683.75	0.9542708275	0.2523695948	
684.375	0.4984998695	-0.3302549596	
685.0	0.2471702492	0.6453674603	
685.625	1.495166989	0.08409182445	
686.25	0.07617557603	-0.607523335	
686.875	1.460713422	0.6447545023	
687.5	0.0642407086	-1.596870895	
688.125	0.7354284972	-0.3206437587	
688.75	-1.402826925	-1.272166249	
689.375	0.06050775238	1.097436152	
690.0	-0.7182795509	0.7251580171	
690.625	1.071176168	0.7829600268	
691.25	0.524440412	0.4055029784	
691.875	0.9761441896	1.132077372	
692.5	1.645381089	0.4181271636	
693.125	1.384099833	0.06995733382	
693.75	1.518960638	-0.5648894495	
694.375	1.036901074	-0.8811012636	
695.0	1.201165895	-0.7585488498	
695.625	1.05010647	-0.1209917613	
696.25	1.525555552	0.8640358323	
696.875	1.178693956	0.4094179391	
697.5	-0.001733524504	1.491444376	
698.125	2.243914882	0.8734577766	
698.75	0.3379355343	-0.6519395051	
699.375	-0.4256533728	-1.945338762	
700.0	-0.5113094808	1.349521345	
700.625	-0.5130217878	0.3530412742	
701.25	1.196143118	0.6409241463	
701.875	0.2508188778	0.2811590338	
702.5	1.062011673	1.157303602	
703.125	0.885153274	-0.1503788172	
703.75	0.9910133843	0.2048009997	
704.375	0.7483567642	-0.8359442036	
705.0	0.1660012828	0.04532544519	
705.625	1.374859096	0.002461393544	
706.25	0.2681487649	-0.01044033058	
706.875	0.2603335344	1.393088087	
707.5	1.223282429	0.6880917441	
708.125	0.3610694488	0.840937447	
708.75	1.3736078	-1.055758599	
709.375	-0.858327741	-0.5613216799	
710.0	-0.5495472943	0.1059190345	
710.625	0.1995353953	0.5402166507	
711.25	0.06095185776	0.2636176571	
711.875	0.5894622209	0.4147706071	
712.5	0.6237347223	0.007819496576	
713.125	0.7029925079	-0.4521397183	
713.75	0.3213421828	-0.5083085626	
714.375	0.2061582146	-0.6441478844	
715.0	-0.3567510892	-0.4706179763	
715.625	0.5647371686	-0.113661973	
716.25	0.6373327809	-1.387055331	
716.875	-0.2168160519	-0.2082470556	
717.5	1.972304349	0.8518814329	
718.125	2.614099271	-0.8442756081	
718.75	0.2101331332	1.447687624	
719.375	4.157337353	-1.798447469	
720.0	-0.1728218932	-1.165001717	
720.625	2.57142546	-1.862591139	
721.25	-0.4443503902	-4.159114664	
721.875	-0.9331464697	-1.374189577	
722.5	-0.5487071966	-2.801597424	
723.125	-2.521026662	-0.544598854	
723.75	-0.7728746179	1.061605337	
724.375	-0.3197586566	0.8784751747	
725.0	0.7468276613	1.110937986	
725.625	0.306021305	0.7760776631	
726.25	-0.4099597532	1.72378629	
726.875	0.1437801109	3.197625842	
727.5	0.8906720962	1.695368633	
728.125	-4.067814116	5.957587336	
728.75	10.60496584	12.18027798	
729.375	3.29581829	4.17509263	
730.0	-11.77234266	13.58559554	
730.625	19.72699128	14.54458583	
731.25	-7.904015504	2.559429807	
731.875	-14.92014993	10.66131994	
732.5	-2.652375011	6.841437835	
733.125	-7.238421365	-4.675519572	
733.75	-3.146751673	5.077538193	
734.375	2.118164915	0.7505561108	
735.0	0.3744693044	-0.6020213648	
735.625	-2.058118422	-0.3941556645	
736.25	0.8299275985	1.004794437	
736.875	0.1460751028	2.126858289	
737.5	3.64026403	0.5189597885	
738.125	2.330839868	-2.242447548	
738.75	6.44106251	1.02490679	
739.375	10.12955574	-9.318444793	
740.0	-1.103626574	-8.459374232	
740.625	0.4600057078	14.0326658	
741.25	26.27453313	25.06327399	
741.875	12.55645633	-3.900766004	
742.5	-3.570351038	-19.28166883	
743.125	-4.328930938	-5.837944904	
743.75	2.409370319	-0.1535745705	
744.375	-2.839525638	-1.668296819	
745.0	0.4120713572	-0.3563340979	
745.625	0.4100017114	0.187941073	
746.25	-0.2324329671	-0.3727239231	
746.875	-0.5756223165	0.06224523096	
747.5	-0.5827559391	0.9400313628	
748.125	0.765734213	1.890544925	
748.75	0.8181456279	1.010103776	
749.375	0.1807252862	1.559183311	
750.0	-1.613892997	0.1559305031	
