!Created with skrf (http://scikit-rf.org).
# GHz S RI R (50+0j) 
!freq	ReS11	ImS11	
500.0	0.4455556714	-1.019959955	
500.625	-0.06590622765	-0.9982599939	
501.25	0.01487428361	-0.4195985896	
501.875	-0.3905224021	-0.6013517052	
502.5	-0.066271295	-0.05864452298	
503.125	-0.06512987721	-0.03880276827	
503.75	0.05696277729	0.09938828833	
504.375	-0.003531348007	0.01174610845	
505.0	0.03916055246	-0.04197043848	
505.625	-0.02351406548	0.007686914092	
506.25	0.00529712137	-0.1135571988	
506.875	-0.009772025873	0.2181205105	
507.5	0.2043131692	-0.299053759	
508.125	-0.02911357496	-0.850457611	
508.75	0.04148358646	-0.4681875228	
509.375	0.3363577253	-1.076467004	
510.0	-0.6521413603	-0.3197306589	
510.625	-0.07289551317	-0.03806066476	
511.25	-0.1052209297	-0.07784457928	
511.875	-0.1326747899	0.003676693524	
512.5	-0.01108110206	-0.004660227294	
513.125	-0.007112239194	-0.0758124508	
513.75	-0.05699191252	0.01154642722	
514.375	0.009030197361	-0.0622655855	
515.0	-0.228179446	-0.01518333721	
515.625	0.4418146439	-0.2542733692	
516.25	-0.8291854112	-0.6837922899	
516.875	-0.1525302111	-0.02160122568	
517.5	0.1026367113	-0.1527959626	
518.125	-0.08684201362	0.003709121554	
518.75	-0.007605608747	-0.2031104679	
519.375	-0.06390704882	0.04915835674	
520.0	0.08231536038	0.02476030251	
520.625	0.0885705029	-0.004397477707	
521.25	-0.03857762233	-0.1932502112	
521.875	-0.1409171538	0.05207416379	
522.5	-0.008385830702	-0.03821522209	
523.125	-0.111318174	0.1001398624	
523.75	-0.001125662168	0.02990744057	
524.375	-0.2392896984	-0.06181900499	
525.0	0.07310571092	0.1930457616	
525.625	-0.02020044855	-0.02732895317	
526.25	0.05196750568	0.02944734954	
526.875	-0.07470429504	-0.01673743198	
527.5	-0.02326200224	0.2503916297	
528.125	0.140336922	0.1143734009	
528.75	-0.02645421878	0.2368597201	
529.375	0.1015215715	0.05957407731	
530.0	0.01515416744	0.1598009466	
530.625	0.09127825426	0.2652871638	
531.25	0.3286246934	-0.052616213	
531.875	0.1426371768	-0.0693953956	
532.5	0.06620272077	-0.1362472665	
533.125	0.007777657902	0.08740177979	
533.75	0.2828977675	-0.1859603095	
534.375	-0.1478560511	-0.1764755241	
535.0	-0.1295186528	-0.1303198147	
535.625	-0.1882074463	0.1306799971	
536.25	0.0334285879	0.06269503086	
536.875	0.06663293913	0.04757030137	
537.5	0.07091346186	-0.06843864611	
538.125	0.04397452042	-0.02980258763	
538.75	0.1592741635	-0.1059346506	
539.375	-0.1202234639	-0.1182216027	
540.0	-0.09911228433	-0.1094057838	
540.625	-0.1621970229	-0.05523702481	
541.25	-0.08024911662	0.05365553722	
541.875	0.003349390611	-0.05388433494	
542.5	-0.07922812453	-0.08228173166	
543.125	-0.03188825056	0.005040137527	
543.75	-0.09407087785	-0.07504034432	
544.375	-0.01227486376	0.08374364804	
545.0	-0.04778729935	0.03085327009	
545.625	0.09798656575	0.06885429561	
546.25	0.02940253595	-0.02185770544	
546.875	0.1429315355	0.02249825503	
547.5	0.0147325151	-0.1531269811	
548.125	-0.01343189225	-0.08544838756	
548.75	-0.1116290191	-0.1528812678	
549.375	-0.1383599453	-0.02175626146	
550.0	-0.02911522386	-0.02158712442	
550.625	-0.08044218178	0.03348648268	
551.25	-0.03341124006	0.01357840444	
551.875	-0.09341403488	0.06019964819	
552.5	-0.01936707494	0.08367675142	
553.125	-0.0257830504	0.04522978965	
553.75	0.05278905908	0.04838208751	
554.375	0.07460596438	-0.005988851347	
555.0	0.09133444044	-0.05972086926	
555.625	0.07287103281	-0.1006905692	
556.25	0.05029866843	-0.1230518328	
556.875	-0.02943692712	-0.1412204696	
557.5	-0.09273832567	-0.09398762689	
558.125	-0.1064043307	-0.02590287062	
558.75	-0.09446312063	-0.003231649282	
559.375	-0.1085051671	0.01924691659	
560.0	-0.07671999289	0.07908002062	
560.625	-0.04915767076	0.08574887793	
561.25	0.0006013235399	0.1185826019	
561.875	0.03832810716	0.01298400017	
562.5	-0.005341013987	0.07649868062	
563.125	0.08312396408	0.03136943622	
563.75	0.09836485764	0.03285310348	
564.375	0.1469069934	-0.1106402666	
565.0	0.01673493357	-0.1347931425	
565.625	0.01383000422	-0.13528955	
566.25	-0.1686986082	-0.1392548319	
566.875	-0.09100070454	-0.0177360356	
567.5	-0.1125447281	-0.1480656366	
568.125	-0.2168191139	-0.1099485519	
568.75	-0.1109204524	-0.05239277497	
569.375	-0.2996561541	0.08231724419	
570.0	-0.02388782399	0.2241884428	
570.625	-0.07313953075	0.06735428127	
571.25	0.00670201896	0.2007731263	
571.875	0.03656827944	-0.01960924495	
572.5	0.150231422	0.07008357347	
573.125	0.03576672474	-0.1925832164	
573.75	-0.002407538586	-0.00935542753	
574.375	0.09263725396	-0.1122737252	
575.0	-0.06766498195	-0.02394261156	
575.625	0.1141922483	-0.05033147517	
576.25	-0.007722346652	-0.1737841348	
576.875	-0.02285535865	-0.04860318368	
577.5	0.07055185848	-0.1705619233	
578.125	-0.1213581629	-0.1753420909	
578.75	-0.06024002409	0.0091500574	
579.375	-0.02241713303	-0.1420450538	
580.0	-0.1421266025	0.02419070245	
580.625	0.0743715223	-0.1162290252	
581.25	-0.1828025028	0.1755956769	
581.875	0.1075001571	0.04901716713	
582.5	-0.06488016689	0.09923211689	
583.125	0.1566347844	0.1561922225	
583.75	-0.004195891765	-0.08504596284	
584.375	0.08328550181	0.160006309	
585.0	0.1112125272	-0.04784698803	
585.625	0.07584187481	0.08556948063	
586.25	0.2249218173	-0.09185945051	
586.875	-0.02853226507	-0.1084671883	
587.5	0.06486745979	-0.09976459835	
588.125	-0.05938454104	-0.1848649567	
588.75	-0.03887334545	-0.06457474872	
589.375	0.1472826439	-0.12334796	
590.0	-0.1425561964	-0.1835718436	
590.625	-0.07662254701	-0.001246391377	
591.25	-0.1893655815	0.05530905899	
591.875	0.07598814325	0.2201461711	
592.5	-0.05281506935	-0.06536191797	
593.125	0.03340109145	0.1250241964	
593.75	0.001023242295	0.0210696381	
594.375	0.2295958741	0.2038785258	
595.0	0.2239910871	-0.008330283929	
595.625	0.05393121929	0.054030146	
596.25	0.1970643234	0.09198329307	
596.875	0.1120984197	-0.04251820992	
597.5	0.06008112298	0.0968172866	
598.125	0.2093434018	0.1135144334	
598.75	0.1206015112	0.01497562984	
599.375	0.2043868906	0.006549448729	
600.0	0.1721428302	-0.1861053779	
600.625	0.0616798922	-0.1686578849	
601.25	0.1055370425	-0.1166566226	
601.875	-0.1159476772	-0.1962475548	
602.5	-0.06508211502	0.06236793121	
603.125	-0.1284234732	-0.04369246019	
603.75	-0.09392746159	0.1857559911	
604.375	-0.01104144546	-0.03002661144	
605.0	-0.1544515007	0.07147877245	
605.625	0.0386398027	0.1092737276	
606.25	-0.2203861465	0.007466809077	
606.875	-0.1540743652	0.1826612773	
607.5	-0.1596078606	0.05170133156	
608.125	-0.09468034969	0.2183902261	
608.75	0.235300848	0.1632903897	
609.375	0.1797363429	-0.03441537824	
610.0	0.1894001738	-0.04553646988	
610.625	0.0630161233	-0.2208864942	
611.25	-0.05124578368	-0.1336355258	
611.875	-0.03128274298	-0.1711821925	
612.5	-0.2548037263	-0.02765489361	
613.125	-0.07857811235	-0.004043583074	
613.75	-0.1792867453	0.1498306841	
614.375	0.1531156989	0.08892086255	
615.0	-0.1017319805	0.04836686689	
615.625	0.1058538096	0.1456395723	
616.25	-0.003046595588	0.02703720823	
616.875	-0.1564406478	0.2006040232	
617.5	0.01865570843	0.1302453668	
618.125	-0.03163716371	0.1027907929	
618.75	-0.03908185891	0.2455978933	
619.375	0.1398074797	0.1297319303	
620.0	0.2405403833	-0.06397437993	
620.625	0.1375062698	-0.141318231	
621.25	-0.149576777	-0.2041266589	
621.875	-0.1086099746	-0.08325610508	
622.5	-0.2448188304	-0.07418181956	
623.125	0.02845996109	0.2143496212	
623.75	0.03208060407	0.02586782277	
624.375	0.128078612	-0.072504632	
625.0	-0.04781479547	0.000263412323	
625.625	0.1174670483	-0.09198931513	
626.25	-0.1238205599	-0.1329943124	
626.875	-0.06061520436	-0.03257683408	
627.5	-0.1651265436	-0.1029104903	
628.125	-0.1291604901	-0.02738152971	
628.75	-0.009429719051	-0.0948850519	
629.375	-0.09111717177	-0.1623453087	
630.0	-0.1582609465	-0.009211284238	
630.625	-0.146428781	0.04462437455	
631.25	-0.1575304712	0.2219260528	
631.875	0.04930163365	0.2866605944	
632.5	0.06687201059	0.1198941539	
633.125	0.276601794	0.1824030699	
633.75	0.1094899508	-0.1408700351	
634.375	0.1010673369	-0.05546852362	
635.0	-0.04692799604	-0.2223516963	
635.625	-0.08501505907	0.02983040033	
636.25	-0.1913179707	-0.01589190404	
636.875	-0.03280543616	0.2096506807	
637.5	0.00764423281	-0.006181148792	
638.125	-0.1326519453	0.1294649015	
638.75	0.05877327107	0.1696883469	
639.375	-0.08224830913	0.1569295343	
640.0	0.1650859552	0.3101053619	
640.625	0.2424126719	0.03274339382	
641.25	0.1585196486	0.02324950721	
641.875	0.244330939	-0.2061491701	
642.5	-0.1315046487	-0.2253925484	
643.125	0.001912162359	-0.0835778942	
643.75	-0.2705264244	-0.1828597321	
644.375	-0.04686946377	0.1088831946	
645.0	-0.2878231382	-0.0221144035	
645.625	0.15629651	0.2670934844	
646.25	0.004792253901	-0.1387148551	
646.875	0.1161501087	0.1642286977	
647.5	0.05615177072	-0.1378580735	
648.125	0.09813422803	0.2021236079	
648.75	0.3614356513	-0.2140887877	
649.375	0.04505157525	-0.1840606641	
650.0	0.2513063985	-0.1678721699	
650.625	0.1707049352	-0.4686316458	
651.25	-0.01850006574	-0.1483499375	
651.875	0.3269679823	-0.03080627917	
652.5	0.3134992362	-0.2298064167	
653.125	0.0784729011	-0.1064701464	
653.75	0.3162848415	-0.13647433	
654.375	-0.1644346996	-0.3507407154	
655.0	-0.1451223987	-0.003174074966	
655.625	-0.2715108687	0.06337164888	
656.25	0.1822776293	0.3255565278	
656.875	-0.05283698747	-0.05677101854	
657.5	0.09671813083	0.2362568949	
658.125	0.1558214039	-0.05613541501	
658.75	0.154714033	0.2004374539	
659.375	0.4825913413	-0.3110262251	
660.0	0.009064813281	-0.2371800824	
660.625	0.2278198556	-0.2066935733	
661.25	0.1801634642	-0.3850212149	
661.875	0.004760892393	-0.2108155758	
662.5	0.3222637336	-0.05944869463	
663.125	0.2519517315	-0.323067789	
663.75	0.04768440804	-0.1905605314	
664.375	0.07705863669	-0.3389404556	
665.0	-0.361461105	-0.1789280644	
665.625	-0.1717979201	0.08384827137	
666.25	-0.1996339947	0.2127324519	
666.875	0.2013432945	0.2273978937	
667.5	0.07353792012	0.02619303799	
668.125	0.2906626598	0.07877903527	
668.75	0.09551014079	-0.2603000186	
669.375	0.07828685751	-0.08755399231	
670.0	0.08943564263	-0.2893622096	
670.625	-0.1897421827	-0.1469539728	
671.25	0.1889415774	-0.06364023531	
671.875	0.13611413	-0.2785536559	
672.5	0.0667843593	-0.137153584	
673.125	0.2595170478	-0.04300349492	
673.75	0.1402547297	-0.3493874547	
674.375	-0.03124080907	-0.1312046407	
675.0	0.01621783888	-0.2383566844	
675.625	-0.2733025869	-0.1420059178	
676.25	-0.04243802953	0.05608607813	
676.875	-0.168589597	-0.1259154562	
677.5	-0.1650155354	0.144688115	
678.125	-0.05225013651	0.03752478355	
678.75	-0.08043279773	0.2806439534	
679.375	0.3299046753	-0.02515589155	
680.0	-0.02197603469	-0.005572267195	
680.625	0.2555227873	-0.06911373402	
681.25	0.0009644937199	-0.1657993734	
681.875	0.05669046977	0.3616925441	
682.5	0.4382533493	0.0300285448	
683.125	0.06243268804	-0.06977419824	
683.75	0.2693937124	0.2608591313	
684.375	0.4090008128	-0.03947272558	
685.0	-0.02944871041	0.1060438935	
685.625	0.3537483614	0.1835604889	
686.25	0.2343446522	-0.1586770482	
686.875	0.1458218973	-0.08415547672	
687.5	0.3536002165	-0.2774418926	
688.125	-0.2117932686	-0.4569903939	
688.75	-0.2209769807	-0.1566663349	
689.375	-0.4138919754	0.2671536839	
690.0	0.1935092339	0.3672417307	
690.625	0.04485168274	0.1236176657	
691.25	0.4061871781	0.4132570544	
691.875	0.436569208	0.04833033567	
692.5	0.3351142038	0.34431626	
693.125	0.7912769265	0.02400776494	
693.75	0.3275365381	-0.4134938273	
694.375	0.6117438703	-0.1542113425	
695.0	0.5361173762	-0.3780716041	
695.625	0.2095287423	0.04374286579	
696.25	0.363038289	0.3008203085	
696.875	0.572390984	0.4447165495	
697.5	0.267935799	0.3958282201	
698.125	0.5265690582	0.1917023602	
698.75	0.4621552514	-0.4079599482	
699.375	-0.4143456325	-0.2725136728	
700.0	-0.3231515215	0.1197503488	
700.625	0.04990390539	0.4407420446	
701.25	0.1616034755	0.02690828295	
701.875	0.1465582616	0.3186338096	
702.5	0.4780520792	0.1799682777	
703.125	0.1978701041	0.01298615001	
703.75	0.4134867368	0.02832082622	
704.375	0.2789283423	-0.3091837511	
705.0	0.1230736676	0.001842605866	
705.625	0.3580264854	0.1132877007	
706.25	0.1703069354	0.1211983168	
706.875	0.1034816374	0.2652472131	
707.5	0.2712771367	0.3811196371	
708.125	0.4234159951	-0.03541567931	
708.75	0.1445926894	-0.471277521	
709.375	-0.2155864013	-0.297014144	
710.0	-0.1105759473	0.2641385969	
710.625	0.05436132112	-0.0001182790465	
711.25	0.0531880315	0.3790422781	
711.875	0.1202294291	-0.03781454059	
712.5	0.2513052014	0.1286802136	
713.125	0.2823761761	-0.2437047055	
713.75	-0.0368844738	-0.1888824042	
714.375	0.127230316	-0.1806079365	
715.0	-0.1123195453	-0.2600555451	
715.625	-0.01664627728	-0.09648203667	
716.25	0.2559633939	-0.2039563517	
716.875	0.2703131077	-0.2969832525	
717.5	0.2800234055	0.03773841238	
718.125	0.7303409254	0.1771466206	
718.75	0.6383509625	-0.3811352548	
719.375	0.3876321922	-0.4011326114	
720.0	0.7348252199	-0.8046209296	
720.625	-0.141441347	-0.7531649793	
721.25	0.156340411	-0.6782177632	
721.875	0.07972776058	-1.309263223	
722.5	-0.8474481923	-0.447769958	
723.125	-0.201512901	-0.2692098124	
723.75	-0.5019813624	0.5183256615	
724.375	0.2728933915	0.276455129	
725.0	-0.05177652573	0.2774765193	
725.625	0.3090652933	0.562169807	
726.25	0.201773127	0.2938065706	
726.875	-0.3383065062	0.7525043877	
727.5	0.007799853334	1.493842557	
728.125	0.4360008445	1.219203084	
728.75	-1.006767355	1.862579769	
729.375	-0.4128753793	3.959794451	
730.0	1.172312963	2.387646706	
730.625	-1.601732099	2.914612939	
731.25	0.0602790239	4.088160231	
731.875	-0.3609805918	1.86968918	
732.5	-3.074928595	-0.2895244188	
733.125	-3.032997804	1.142671029	
733.75	-0.1408255213	0.8511852857	
734.375	0.538566372	0.7948643362	
735.0	-0.450628596	-0.9533987791	
735.625	-0.05333038389	0.00968377358	
736.25	-0.273618054	0.5986771616	
736.875	0.7382716988	0.3220703723	
737.5	0.1181976621	0.2246471114	
738.125	1.872485825	-0.07064891498	
738.75	0.9647556547	-1.807899286	
739.375	0.6072455997	-0.5201606866	
740.0	4.463085079	0.4825377427	
740.625	3.38147455	-4.313682357	
741.25	-2.265240105	-0.1888415106	
741.875	-4.698157266	1.891360414	
742.5	-1.316471716	0.38025022	
743.125	1.630684419	-1.22862688	
743.75	-0.2569304928	-1.302547154	
744.375	-0.2845357278	0.193958665	
745.0	-0.08436775294	0.09365513731	
745.625	0.05922818293	-0.1711145923	
746.25	0.08235643821	-0.06798543122	
746.875	-0.2707300121	0.02053912319	
747.5	0.02684056494	0.2878608778	
748.125	-0.02400138834	0.2919966862	
748.75	0.2937181152	0.5099342485	
749.375	0.2548976721	0.2972330735	
750.0	-0.3352718893	0.1230285087	
