!Created with skrf (http://scikit-rf.org).
# GHz S RI R (50+0j) 
!freq	ReS11	ImS11	
500.0	0.09908596383	-1.153607206	
500.625	-0.101794341	-0.3314616537	
501.25	-0.1683638394	-0.8062902702	
501.875	-0.4631436992	-0.2180934574	
502.5	0.00926960414	-0.06685380935	
503.125	-0.1034728557	0.007560899129	
503.75	0.04598028372	0.02182983402	
504.375	0.03321323233	0.02009913277	
505.0	-0.01696450897	-0.04212364264	
505.625	0.03901551514	-0.01104700568	
506.25	-0.1509826004	-0.07392532794	
506.875	0.113255706	0.01610759425	
507.5	-0.06867456581	-0.6041922919	
508.125	-0.2387921248	-0.3274364547	
508.75	0.6094449809	-0.3556461564	
509.375	0.1207973997	-1.546632045	
510.0	-0.330543291	0.01149181313	
510.625	-0.01157303485	-0.1461007209	
511.25	-0.133709158	0.004490453906	
511.875	-0.03133927174	-0.00549425544	
512.5	-0.04024779498	0.02724439515	
513.125	-0.05490999811	-0.05990966444	
513.75	0.0001268794996	-0.0030576319	
514.375	-0.09285902551	-0.07927388808	
515.0	0.0322543421	0.2071522786	
515.625	-0.4077494303	-0.8590364348	
516.25	-0.4073631991	-0.01440054878	
516.875	0.1304005074	-0.2532332801	
517.5	-0.1242537414	-0.2245398194	
518.125	0.04533698672	-0.01236420225	
518.75	-0.0710125987	-0.1917601304	
519.375	-0.01648579321	0.02638356835	
520.0	0.05331264633	0.0393795202	
520.625	0.1146201645	-0.08007741788	
521.25	-0.08618238453	-0.2120024717	
521.875	-0.0412421609	0.01448774358	
522.5	-0.09181558977	-0.01218391694	
523.125	-0.03123453648	0.1147807416	
523.75	-0.06863914062	-0.107018622	
524.375	-0.2095720591	0.1346425427	
525.0	0.04646585787	0.02642034964	
525.625	-0.03768244077	0.08796396895	
526.25	0.04534541814	-0.06870947604	
526.875	-0.05692271086	0.1131466538	
527.5	0.07366366415	0.1448459847	
528.125	-0.03100978478	0.2393023988	
528.75	0.05347326701	0.2645454321	
529.375	0.0008808037059	0.05880624477	
530.0	0.05422751022	0.1070889422	
530.625	0.1854975109	0.221123471	
531.25	0.2039260961	0.07140682419	
531.875	0.1132372561	-0.01337034399	
532.5	-0.1094553665	-0.1879438528	
533.125	0.1232377026	0.1300881149	
533.75	0.03618284387	-0.2278371677	
534.375	-0.07045856318	-0.09821514098	
535.0	-0.235922863	-0.1340251484	
535.625	-0.106900473	0.1773910359	
536.25	-0.01184617469	0.05311127978	
536.875	0.1057610074	0.02996016903	
537.5	0.0242738794	-0.05513145848	
538.125	0.1226403595	-0.002864534987	
538.75	0.09139988086	-0.1622067486	
539.375	-0.06495247878	-0.1243289531	
540.0	-0.1302639747	-0.1688119876	
540.625	-0.178719706	0.0156207756	
541.25	-0.02771441151	0.009315527231	
541.875	-0.03215923079	-0.05954260336	
542.5	-0.1137766427	0.005531481091	
543.125	-0.03430368507	-0.0727580425	
543.75	-0.1239715163	0.01613692751	
544.375	0.04844150389	0.001766547315	
545.0	-0.02230491295	0.08533858602	
545.625	0.09114689734	-0.02473616363	
546.25	0.03316585431	0.07503852003	
546.875	0.1344715956	-0.066145148	
547.5	0.01330257123	-0.07794135808	
548.125	0.007542912734	-0.1572411762	
548.75	-0.1568729005	-0.1054696126	
549.375	-0.05739563218	-0.008447614874	
550.0	-0.0924972734	-0.02487381317	
550.625	-0.02862945277	0.04033898084	
551.25	-0.07481522224	-0.00330809455	
551.875	-0.07382844215	0.08764756494	
552.5	-0.01891021849	0.05032247159	
553.125	-0.02555841528	0.06378853092	
553.75	0.04869194274	0.02864485916	
554.375	0.07606252442	0.004178135617	
555.0	0.08892088253	-0.07106562339	
555.625	0.0605132312	-0.09793914853	
556.25	0.05213809685	-0.1214705265	
556.875	-0.04045640382	-0.1392826003	
557.5	-0.09545873098	-0.08110468863	
558.125	-0.1010698405	-0.02875410354	
558.75	-0.100657269	-0.004221515125	
559.375	-0.1017081751	0.03178163973	
560.0	-0.07495174443	0.06264807767	
560.625	-0.06376621585	0.1048831772	
561.25	0.03607422531	0.0966690307	
561.875	0.0008594379235	0.02841852686	
562.5	0.04375947448	0.06224033854	
563.125	0.03273990688	0.04317009674	
563.75	0.1512153714	0.02298103308	
564.375	0.09593197511	-0.1325572202	
565.0	0.05129624615	-0.08858578891	
565.625	-0.005843475137	-0.204837232	
566.25	-0.1407707597	-0.03777333291	
566.875	-0.08351994692	-0.08906807702	
567.5	-0.1950213945	-0.1253107866	
568.125	-0.09218529399	-0.02580363291	
568.75	-0.2031355937	-0.1440129022	
569.375	-0.2175594805	0.1747452842	
570.0	-0.05621760744	0.07582882363	
570.625	-0.1430949041	0.1853254932	
571.25	0.1017648861	0.1124902406	
571.875	-0.02571856286	0.07250041115	
572.5	0.1941232321	-0.04602280408	
573.125	-0.02830746009	-0.05167477772	
573.75	0.1291325011	-0.06048694253	
574.375	-0.04379477555	-0.1403905428	
575.0	0.03640487065	0.05339272836	
575.625	0.04062479838	-0.1531235531	
576.25	-0.03940484732	-0.06438708107	
576.875	0.08631499308	-0.09115561275	
577.5	-0.02860954069	-0.2208050283	
578.125	-0.1136072561	-0.03298143349	
578.75	0.03548563109	-0.1195478433	
579.375	-0.1522902948	-0.1184543642	
580.0	0.03535631016	0.1044423143	
580.625	-0.1736281773	-0.1311552225	
581.25	0.004647538454	0.1602020644	
581.875	-0.07477783263	0.03425038886	
582.5	0.04954594159	0.2706447284	
583.125	0.1569119478	-0.01818783187	
583.75	-0.06396101321	0.08250130867	
584.375	0.1397501202	0.01326832664	
585.0	-0.0143353452	0.03447892716	
585.625	0.23210558	0.05428509078	
586.25	0.09692472448	-0.1451564504	
586.875	0.06659429646	-0.02780977702	
587.5	-0.009112893358	-0.1966332954	
588.125	-0.094096913	-0.08329880984	
588.75	0.1004541112	-0.06588510418	
589.375	0.0710690235	-0.2293367036	
590.0	-0.09113573915	-0.05423122788	
590.625	-0.1211471018	-0.1283057198	
591.25	-0.1648408036	0.2527061511	
591.875	0.0543004481	0.002781888385	
592.5	-0.09657682264	0.08838532868	
593.125	0.07256328247	-0.01568589779	
593.75	-0.009714278593	0.2262663625	
594.375	0.2477140615	0.02004606842	
595.0	0.02995556577	0.06216946846	
595.625	0.1424743969	0.1666476791	
596.25	0.1549342986	-0.048533207	
596.875	0.04595016489	0.04836112011	
597.5	0.1774046388	0.1432355719	
598.125	0.1505235709	0.02006367451	
598.75	0.09422332705	0.106237553	
599.375	0.2453993868	-0.04058871793	
600.0	0.1098991137	-0.1518642412	
600.625	0.1216720607	-0.08016725951	
601.25	0.1183759622	-0.2149295887	
601.875	-0.1410156917	-0.07761194785	
602.5	-0.02274032782	-0.0791032106	
603.125	-0.1793387283	0.1098483654	
603.75	0.02958859938	0.009048665063	
604.375	-0.1664634501	-0.006711495845	
605.0	-0.04224483318	0.1784249124	
605.625	-0.1441143299	-0.08578074441	
606.25	-0.1480545964	0.1554345631	
606.875	-0.05382812371	0.09694584782	
607.5	-0.2171864476	0.1251406677	
608.125	0.0149077446	0.251906645	
608.75	0.1262905056	0.1535465116	
609.375	0.2032791558	0.0345455106	
610.0	0.2022007328	-0.1696308703	
610.625	0.05562646193	-0.170361662	
611.25	0.04441260323	-0.1034681454	
611.875	-0.1677809132	-0.1196096825	
612.5	-0.08007448461	-0.008382251537	
613.125	-0.2185927025	-0.06175809065	
613.75	-0.04965675289	0.2260409243	
614.375	-0.03884904398	-0.02835866714	
615.0	0.08548145999	0.149746391	
615.625	0.04217864935	-0.02704453543	
616.25	-0.1258203706	0.1477793482	
616.875	0.02400813183	0.1607927681	
617.5	-0.07766052643	0.1023192188	
618.125	-0.01821218551	0.23731436	
618.75	0.1019590611	0.1880856932	
619.375	0.1694677369	0.1915706897	
620.0	0.1488373573	0.03142626146	
620.625	0.1725479214	-0.1923928002	
621.25	-0.07690545573	-0.1227724343	
621.875	-0.07504035888	-0.1940974282	
622.5	-0.2527908984	0.09785055955	
623.125	-0.01037877356	0.09536171536	
623.75	0.1291782635	0.09905798771	
624.375	0.00279627913	-0.1384693087	
625.0	0.06288468008	0.04355431862	
625.625	0.02512104641	-0.1489484869	
626.25	-0.04087456405	-0.04988707029	
626.875	-0.1169739489	-0.1350428727	
627.5	-0.1842811919	0.01104298563	
628.125	-0.0500818162	-0.03720493285	
628.75	-0.06153065497	-0.11626462	
629.375	-0.1092001856	-0.1129015402	
630.0	-0.1495129061	-0.00340297215	
630.625	-0.2079869298	0.04474974898	
631.25	-0.1161737403	0.2225432113	
631.875	0.02694810817	0.1291278919	
632.5	0.1311614523	0.2316999547	
633.125	0.2550195426	-0.02572729076	
633.75	0.06816877575	-0.009672591918	
634.375	0.1161154805	-0.162518961	
635.0	-0.1287495135	-0.05086653163	
635.625	-0.05878824044	-0.1424885467	
636.25	-0.1906511094	0.1274803806	
636.875	0.03121840285	0.08082552389	
637.5	-0.1083893081	0.04322787769	
638.125	0.02111322446	0.170568627	
638.75	-0.07294013882	0.04998583597	
639.375	-0.03076949277	0.3087925609	
640.0	0.2154461832	0.1599134688	
640.625	0.1400766747	0.07042606935	
641.25	0.2964078819	0.04220491248	
641.875	0.1147048242	-0.2902810427	
642.5	-0.01876470827	-0.0571794744	
643.125	-0.1245668325	-0.2116339423	
643.75	-0.1943704225	0.09791629878	
644.375	-0.06060101383	-0.2146808525	
645.0	-0.2237044127	0.3057929854	
645.625	0.1753484722	-0.02104586526	
646.25	-0.0189990689	0.2127570307	
646.875	0.2458389945	-0.1223920912	
647.5	-0.1139078832	0.06686519524	
648.125	0.3398259515	-0.009286135511	
648.75	0.09278751574	-0.1580950518	
649.375	0.2249049749	-0.07552412904	
650.0	0.203854717	-0.436832585	
650.625	-0.08351877631	-0.215747508	
651.25	0.2484713967	-0.07976674452	
651.875	0.3072939537	-0.2867422783	
652.5	0.07594288367	-0.1703335187	
653.125	0.2809052778	0.02341719901	
653.75	0.1891120413	-0.3561565453	
654.375	-0.1344288281	-0.127430279	
655.0	-0.1771619016	-0.1978322698	
655.625	-0.2383685574	0.4184396903	
656.25	0.1322089535	0.0070852318	
656.875	-0.06073432821	0.1448036636	
657.5	0.2302391041	-0.07210729042	
658.125	-0.08353292251	0.1764553577	
658.75	0.4965779571	0.05450239881	
659.375	0.09794662216	-0.2427059722	
660.0	0.2377516126	-0.1282433345	
660.625	0.1774200437	-0.4325781877	
661.25	-0.09304759776	-0.2388426651	
661.875	0.2738368402	-0.0963777773	
662.5	0.2687000719	-0.325978826	
663.125	0.07981689573	-0.1918874556	
663.75	0.2244059175	-0.1809789528	
664.375	-0.1426546565	-0.3943113251	
665.0	-0.1944860121	-0.05674498241	
665.625	-0.2965135175	-0.01437405337	
666.25	-0.08136866547	0.3556028705	
666.875	0.1374355135	0.04116792373	
667.5	0.1389798527	0.189858901	
668.125	0.2535904006	-0.1865716733	
668.75	0.04218705468	-0.0350229041	
669.375	0.207126716	-0.2229716204	
670.0	-0.2055017242	-0.2247358505	
670.625	0.1392289574	-0.06216443232	
671.25	0.08657082551	-0.2719278227	
671.875	-0.03035572887	-0.1717738309	
672.5	0.2456386664	-0.003065789727	
673.125	0.211854312	-0.3138330106	
673.75	0.01332205339	-0.1494987326	
674.375	0.1140818583	-0.1828962915	
675.0	-0.1373112963	-0.3166778563	
675.625	-0.1235605181	0.0415908348	
676.25	-0.1462214613	-0.150529581	
676.875	-0.2169327107	0.1009493907	
677.5	-0.01483327503	0.02986467943	
678.125	-0.2359531745	0.07943094521	
678.75	0.187073039	0.2680257166	
679.375	0.04484206907	-0.03513968715	
680.0	0.3017494776	0.05407597757	
680.625	-0.002142712234	-0.2783276127	
681.25	-0.006210404916	0.3187569197	
681.875	0.4117852188	-0.05667019685	
682.5	0.08587274042	-0.1147606912	
683.125	0.1592036829	0.2684060757	
683.75	0.4613103548	-0.0875655353	
684.375	0.01726440142	-0.1136423038	
685.0	0.3761660682	0.2017747652	
685.625	0.2695432483	-0.1222920628	
686.25	0.1124161508	-0.07320659954	
686.875	0.4005183214	-0.07345364623	
687.5	0.08293963366	-0.4346995453	
688.125	0.01634655393	-0.3145136237	
688.75	-0.4127727454	-0.2557105757	
689.375	-0.2287087982	0.4276351044	
690.0	0.07846839732	0.1281512771	
690.625	0.240927949	0.4107656006	
691.25	0.3891591051	0.03798752526	
691.875	0.145231314	0.3259744313	
692.5	0.8090597533	0.2543445881	
693.125	0.485956691	-0.3286739576	
693.75	0.6378280566	0.01235938715	
694.375	0.4451863785	-0.5801718057	
695.0	0.1328754236	-0.2049580212	
695.625	0.521069951	0.1051589027	
696.25	0.5817069793	-0.0248344744	
696.875	0.261197917	0.1483252825	
697.5	0.4404091873	0.3240219026	
698.125	0.6082260674	0.1526779586	
698.75	0.1920957063	-0.3968790665	
699.375	-0.2774143421	-0.3505321679	
700.0	-0.3413473451	0.3361606392	
700.625	0.2145435456	0.1764621917	
701.25	0.07855874299	0.1974802555	
701.875	0.4010376442	0.1773991759	
702.5	0.1373388125	0.05010116962	
703.125	0.370786943	0.209536055	
703.75	0.4199489014	-0.2247818742	
704.375	0.08302202972	-0.1073851028	
705.0	0.3373043933	-0.1506792299	
705.625	0.1780230448	-0.07737860206	
706.25	0.1358750196	0.2012261149	
706.875	0.2627057219	0.1021633455	
707.5	0.30265454	0.135802741	
708.125	0.4993409348	-0.08963351509	
708.75	0.1648700382	-0.2784969046	
709.375	-0.3507737332	-0.356620184	
710.0	-0.08492702375	0.1514721298	
710.625	-0.1506839979	0.2088102418	
711.25	0.2095380347	0.00151726487	
711.875	0.05222293125	0.2097071958	
712.5	0.3714423399	-0.0779066729	
713.125	0.05577675202	-0.182956683	
713.75	0.1852460387	-0.1323327846	
714.375	-0.05052891332	-0.295657653	
715.0	-0.08041730898	-0.08124728228	
715.625	0.08863141615	-0.2098182481	
716.25	0.05743387773	-0.3180766384	
716.875	0.1831822919	-0.0888390386	
717.5	0.4458652457	0.00411800536	
718.125	0.5636565528	-0.2262829878	
718.75	0.4676752303	-0.4378611203	
719.375	0.5974954629	-0.2416394001	
720.0	0.2050776476	-0.7636396687	
720.625	-0.07137173894	-0.417300191	
721.25	0.4763686966	-1.235749846	
721.875	-0.886560493	-0.8472099811	
722.5	0.0798174126	-0.4063798493	
723.125	-0.9584932242	-0.1441796237	
723.75	0.002417184296	0.541842149	
724.375	-0.1038721462	0.152119468	
725.0	0.267511159	0.5179515786	
725.625	0.2464589206	0.1239695098	
726.25	-0.127172979	0.5636566944	
726.875	0.07806216502	1.021925659	
727.5	0.3370234378	0.9066961208	
728.125	-0.5088305308	1.198158667	
728.75	0.3565740671	2.802309446	
729.375	0.9372806524	2.555095411	
730.0	-0.9414717632	2.502821754	
730.625	1.00896501	4.329114838	
731.25	0.9430656166	2.247807032	
731.875	-2.855665975	0.7346486995	
732.5	-3.308207515	1.970448606	
733.125	-0.5497611585	1.482135412	
733.75	-1.487077081	0.6717207296	
734.375	1.43590831	-0.07814699427	
735.0	-0.1898110698	-0.1057630204	
735.625	-0.5349451368	-0.2110821259	
736.25	0.3561185183	0.7027049644	
736.875	-0.1428908391	0.2267804073	
737.5	1.359952514	0.3787355064	
738.125	1.105133198	-1.11537787	
738.75	0.446536607	-0.549394009	
739.375	3.532934385	-0.2513935482	
740.0	1.98832404	-3.975295953	
740.625	-1.024968001	0.5941725329	
741.25	0.1978294633	5.067641001	
741.875	0.4347301771	2.124655692	
742.5	1.341488329	-2.410803625	
743.125	-0.2210288366	-2.650926568	
743.75	-0.7263213999	-0.4680350168	
744.375	-0.03845713453	-0.3114980029	
745.0	0.1908481714	0.2961713322	
745.625	-0.08860858479	0.07209672131	
746.25	-0.0695791759	-0.2155709985	
746.875	-0.1980052482	0.1530367489	
747.5	-0.1455005273	0.1981044987	
748.125	0.1051035312	0.5473907222	
748.75	0.3599882997	0.2777076139	
749.375	-0.08962386698	0.4168302003	
750.0	-0.4307004905	0.1888865506	
