!Created with skrf (http://scikit-rf.org).
# GHz S RI R (50+0j) 
!freq	ReS11	ImS11	
500.0	-0.147515503	-0.557416358	
500.625	0.9425995367	-0.8875568598	
501.25	-0.7522114297	-0.6840898656	
501.875	-0.06379817416	-0.3650069145	
502.5	-0.04363905846	-0.2105349698	
503.125	-0.05128983507	0.03782534102	
503.75	-0.04275278785	0.05740767899	
504.375	0.05387416049	-0.03117409586	
505.0	-0.004272606616	0.007274587379	
505.625	0.01097200526	-0.1096762938	
506.25	-0.09947535233	0.0374650246	
506.875	-0.2787585355	-0.2429863616	
507.5	-0.3877961971	-0.03881681795	
508.125	0.4654225413	-0.3190118757	
508.75	0.9388693603	-1.258772581	
509.375	-0.4501223873	-1.130889684	
510.0	-0.2296231916	-0.4459740565	
510.625	-0.243672897	-0.3111482007	
511.25	-0.07551605251	-0.007304286484	
511.875	-0.114474313	-0.05405391731	
512.5	-0.01860540841	0.0773082226	
513.125	0.00536244824	-0.01291755856	
513.75	-0.05809169515	-0.102450161	
514.375	-0.0985572316	0.07138196151	
515.0	0.2091318373	-0.4196163112	
515.625	-0.4341322665	-0.1624271281	
516.25	0.3877222631	-0.4553205013	
516.875	-0.2200387654	-0.7220854003	
517.5	-0.1200403253	0.00546399487	
518.125	0.0341772993	-0.08792505506	
518.75	-0.1014301262	-0.04786696887	
519.375	-0.03528798807	0.01065998406	
520.0	0.132830361	0.07499738119	
520.625	0.1594056388	-0.1143713503	
521.25	-0.01636033219	-0.1798833227	
521.875	-0.1586542757	-0.1500534971	
522.5	-0.08343059831	0.03442108434	
523.125	-0.06806608839	-0.09520648178	
523.75	-0.2234101023	0.05414525653	
524.375	-0.0126273569	0.07938939969	
525.0	-0.2026856782	0.07065741908	
525.625	0.1245543395	0.1118283682	
526.25	-0.1068169463	-0.01596059314	
526.875	0.01444957281	0.0805148481	
527.5	-0.1442153096	0.1387598712	
528.125	0.01764655971	0.4027984966	
528.75	0.1700738805	0.1710602255	
529.375	-0.03165559733	0.07953934787	
530.0	0.1735190318	0.1933112381	
530.625	0.01081594004	0.1368725784	
531.25	0.3964031841	0.2404446459	
531.875	0.273469339	-0.2951373218	
532.5	-0.01548745227	0.0218595713	
533.125	0.0517218955	-0.1912593335	
533.75	0.002205283978	-0.07146033092	
534.375	-0.05227314955	-0.4066774523	
535.0	-0.3332953892	0.00918981759	
535.625	-0.1534450694	0.04548310525	
536.25	-0.02606356144	0.1291130763	
536.875	0.09500263851	-0.0316651995	
537.5	0.07524961364	0.003438492244	
538.125	0.1540627212	-0.1193019998	
538.75	0.08972803255	-0.1024077891	
539.375	-0.035045371	-0.1890088268	
540.0	-0.1903066025	-0.1843742777	
540.625	-0.08863945814	-0.005439787412	
541.25	-0.105107574	-0.03941610408	
541.875	-0.0795616386	0.007871956359	
542.5	-0.01046317939	-0.1008973296	
543.125	-0.1424062801	-0.02094383468	
543.75	-0.0187672102	0.06971113049	
544.375	-0.1120375534	0.03198561015	
545.0	0.09527499311	0.0898755695	
545.625	-0.0112760199	0.06435344697	
546.25	0.163937505	0.03587965841	
546.875	0.0585107298	-0.03607185885	
547.5	0.1412805499	-0.09708184014	
548.125	-0.1058218231	-0.1806745385	
548.75	-0.0703549899	-0.06821298711	
549.375	-0.1183523713	-0.1299421122	
550.0	-0.09508167713	0.06813927659	
550.625	-0.0381016355	-0.03830594687	
551.25	-0.09975963698	0.06835542147	
551.875	-0.04092243331	0.04932434178	
552.5	-0.076485759	0.07058974169	
553.125	0.005710531965	0.06767642767	
553.75	0.03231215331	0.04707388065	
554.375	0.1060442473	-0.007426327249	
555.0	0.08806640137	-0.07584148927	
555.625	0.09493813849	-0.1100971912	
556.25	0.0682770023	-0.1511979716	
556.875	-0.04007964923	-0.1646906167	
557.5	-0.09772970734	-0.1091539374	
558.125	-0.1257365295	-0.04685151076	
558.75	-0.1176048686	0.0008634260377	
559.375	-0.1087171212	0.01759645797	
560.0	-0.1192967494	0.07509173928	
560.625	-0.03968070627	0.1272698473	
561.25	-0.008141493695	0.08010297708	
561.875	0.04564185363	0.07497253634	
562.5	-0.005789314759	0.01312515267	
563.125	0.08384111237	0.1178416991	
563.75	0.1423204649	-0.044842633	
564.375	0.1236556399	-0.05027358195	
565.0	0.1218097143	-0.1937491366	
565.625	-0.07898782223	-0.1365548766	
566.25	-0.05651432598	-0.1287283184	
566.875	-0.2033094844	-0.08983969231	
567.5	-0.1022447025	-0.01517329086	
568.125	-0.115479992	-0.2367938506	
568.75	-0.2886656294	-0.0283987591	
569.375	-0.1347949673	0.02982719945	
570.0	-0.2460102691	0.2359809006	
570.625	0.03307711586	0.2217445427	
571.25	-0.05540970619	0.05698889181	
571.875	0.1429927192	0.1313512597	
572.5	0.0174485124	-0.038669575	
573.125	0.1904692392	-0.06577600795	
573.75	0.005135755588	-0.211071822	
574.375	-0.0228545199	0.02847722174	
575.0	0.09591965757	-0.1339492394	
575.625	-0.04801503618	-0.02029166708	
576.25	0.1463549171	-0.09680471589	
576.875	-0.0705822909	-0.2097557132	
577.5	-0.04385244821	-0.06251560768	
578.125	0.0591556562	-0.1939229059	
578.75	-0.1877429587	-0.1640089877	
579.375	-0.04677240508	0.03403791168	
580.0	-0.01448395174	-0.1910648123	
580.625	-0.1028218125	0.08379073579	
581.25	-0.08909757296	-0.03757253645	
581.875	0.01524042597	0.3486346282	
582.5	0.1603723086	0.0485590754	
583.125	-0.06757713675	0.1221770766	
583.75	0.1696353727	0.05727200961	
584.375	-0.1084680836	0.03141890768	
585.0	0.1939670238	0.1356592784	
585.625	0.1265511298	-0.1075024215	
586.25	0.1017267566	0.02440627839	
586.875	0.1438502472	-0.2277986838	
587.5	-0.0983748765	-0.09089769571	
588.125	0.0703131765	-0.1264411068	
588.75	0.02143439186	-0.2485660082	
589.375	-0.01959947147	-0.09441483004	
590.0	0.03709783534	-0.246840133	
590.625	-0.2898286674	0.05126851372	
591.25	-0.04424645065	0.04759654459	
591.875	-0.1416680804	0.1296130465	
592.5	0.110776509	0.08758751611	
593.125	-0.2533661926	0.09169018762	
593.75	0.1813006824	0.1128027125	
594.375	0.01839753377	0.07604949228	
595.0	0.1782084282	0.2139277078	
595.625	0.1997911843	-0.05412065143	
596.25	0.05271967931	0.0755884506	
596.875	0.2461357454	0.0947262633	
597.5	0.1625003148	-0.00870470842	
598.125	0.09563559159	0.1859588778	
598.75	0.2709744465	0.1264818433	
599.375	0.1613520162	-0.05869867335	
600.0	0.1981246613	-0.09111961462	
600.625	0.1889130161	-0.2479782723	
601.25	-0.02752543713	-0.1861599641	
601.875	0.03376979172	-0.1378756306	
602.5	-0.227971253	0.003314577194	
603.125	0.02256503405	0.0295766481	
603.75	-0.2034722714	0.007036195189	
604.375	-0.09308100161	0.1922967681	
605.0	-0.04499690094	-0.05038401035	
605.625	-0.1503535216	0.1650105687	
606.25	-0.01004233442	0.08326792809	
606.875	-0.2065120121	-0.01945987484	
607.5	-0.1093097401	0.2624543752	
608.125	-0.03235573589	0.1897729931	
608.75	0.1326642071	0.2481554041	
609.375	0.3355012961	-0.09489445006	
610.0	0.0941295869	-0.1206915088	
610.625	0.1397925601	-0.1367684127	
611.25	-0.0841315942	-0.2368864855	
611.875	-0.01315525099	-0.04547535628	
612.5	-0.1686952716	-0.1632973046	
613.125	-0.1954444422	0.170103801	
613.75	-0.04741174184	-0.01893284315	
614.375	0.01002658079	0.2244597711	
615.0	0.1113290762	-0.06228474094	
615.625	-0.1309213287	0.1309308648	
616.25	0.08952249607	0.1622750752	
616.875	-0.06807484201	0.07419328818	
617.5	-0.1465124504	0.2820395485	
618.125	0.08690644984	0.2980345146	
618.75	0.04686280787	0.2667101584	
619.375	0.1021994877	0.2500020306	
620.0	0.2412199433	0.05987109689	
620.625	0.107894099	-0.08771502384	
621.25	0.02070682907	-0.2423999088	
621.875	-0.2547084897	-0.0164631735	
622.5	-0.1324105825	0.007544896784	
623.125	-0.09347948806	0.2649990271	
623.75	0.2352490772	-0.0399585631	
624.375	0.01750191717	0.03001368865	
625.0	0.03057833502	-0.1303641238	
625.625	0.04123556851	-0.002221668702	
626.25	-0.01511469616	-0.2193564517	
626.875	-0.2060458911	-0.02632944118	
627.5	-0.05567793318	-0.04283221247	
628.125	-0.156654875	-0.1213868613	
628.75	-0.1143771615	-0.07121207272	
629.375	-0.04763676571	-0.1444567483	
630.0	-0.248510743	-0.1304337977	
630.625	-0.2553651009	0.1317149318	
631.25	-0.1111743889	0.1306545102	
631.875	-0.02216257722	0.3299283665	
632.5	0.1735442003	0.1389609838	
633.125	0.08919561142	0.07210115623	
633.75	0.2533188235	-0.1264829086	
634.375	-0.1345645341	-0.09708693783	
635.0	0.08053136567	-0.1641350905	
635.625	-0.2327241853	-0.069997546	
636.25	-0.06293512975	0.07188517268	
636.875	-0.1839129526	0.09149841484	
637.5	0.05048812459	0.1874431717	
638.125	-0.1027954265	-0.008022889516	
638.75	-0.1142571476	0.282210279	
639.375	0.09208076023	0.1778801694	
640.0	0.01105361309	0.2614251549	
640.625	0.3475207577	0.2058131977	
641.25	0.2266398266	-0.103155683	
641.875	0.1947537527	-0.06944574657	
642.5	-0.006574558842	-0.3599768125	
643.125	-0.134823932	0.006434053509	
643.75	0.02815101023	-0.1795766527	
644.375	-0.3231284063	0.1022968948	
645.0	0.005303484976	0.034469618	
645.625	-0.1021053237	0.3338916385	
646.25	0.3778968383	-0.04563712163	
646.875	-0.03378307094	0.01999162777	
647.5	0.3161847844	0.05195716438	
648.125	0.01528593656	-0.08179357522	
648.75	0.363174642	0.08861013098	
649.375	0.2463599664	-0.4273443141	
650.0	-0.002970349309	-0.1865789357	
650.625	0.3105466748	-0.2112102798	
651.25	0.1901502533	-0.4360484409	
651.875	0.08309040909	-0.06697262576	
652.5	0.4533815329	-0.0007740758169	
653.125	0.2509528609	-0.2805169752	
653.75	0.1323188547	-0.07693763971	
654.375	0.03098271244	-0.4702356985	
655.0	-0.4914020181	0.03313395955	
655.625	-0.0441888198	0.0940868302	
656.25	-0.09668067795	0.2745331414	
656.875	0.2650080904	0.002099877587	
657.5	-0.2013323751	0.1824947936	
658.125	0.3700427573	0.1706866158	
658.75	0.1818828922	-0.04371009727	
659.375	0.4576747443	0.09334805314	
660.0	0.2589701764	-0.4932922308	
660.625	0.02133673792	-0.1151276121	
661.25	0.3275051357	-0.2645936164	
661.875	0.2236684682	-0.3956126168	
662.5	0.1145359182	-0.1674164725	
663.125	0.4028181533	-0.1155779318	
663.75	0.09231209532	-0.4195986967	
664.375	0.00260625634	-0.2020484083	
665.0	-0.2693329555	-0.3437148951	
665.625	-0.361315802	0.2237359078	
666.25	-0.07982319095	0.1541524705	
666.875	0.08313093746	0.3294418327	
667.5	0.2896088251	-0.01193172097	
668.125	0.09847579387	0.0752910665	
668.75	0.3226404048	-0.2042062404	
669.375	-0.05241614145	-0.2254079468	
670.0	0.1557163397	-0.1285662516	
670.625	0.02819459397	-0.343814781	
671.25	-0.08556201075	-0.1127467937	
671.875	0.3408586818	-0.1376274537	
672.5	0.1944723626	-0.2937345395	
673.125	0.1147152107	-0.12837658	
673.75	0.2769923184	-0.1683629381	
674.375	-0.03003119947	-0.3980501046	
675.0	0.02060498684	-0.1197189512	
675.625	-0.1774193348	-0.268619217	
676.25	-0.2816171069	0.06040877229	
676.875	-0.008616283212	0.009963095542	
677.5	-0.3016735039	-0.02113666751	
678.125	-0.0297870314	0.2392587144	
678.75	-0.06218192364	0.1147067612	
679.375	0.3141379978	0.2697915547	
680.0	0.06203373122	-0.3104959316	
680.625	0.1017044032	0.1808801647	
681.25	0.2422613433	-0.156139833	
681.875	-0.06755122073	-0.05394704792	
682.5	0.1910291338	0.3242551954	
683.125	0.4108791602	-0.2374671659	
683.75	0.0311505807	0.04832685486	
684.375	0.372229953	0.2097629821	
685.0	0.3467457153	-0.1233080814	
685.625	0.09229252134	0.0761736088	
686.25	0.5405900763	-0.02815475819	
686.875	0.1739011849	-0.2939562092	
687.5	0.29928338	-0.186702759	
688.125	0.01485610956	-0.6123459568	
688.75	-0.4287355146	-0.07306348929	
689.375	-0.3270170359	0.1020256928	
690.0	0.1007724595	0.5474902039	
690.625	0.3155543113	0.08192719165	
691.25	0.01145132987	0.425732883	
691.875	0.7460058647	0.3723673694	
692.5	0.4816936579	0.03490899785	
693.125	0.6849808055	0.2237205133	
693.75	0.7538597753	-0.4734053923	
694.375	0.1922899195	-0.3571975257	
695.0	0.6886955986	-0.1233022602	
695.625	0.5445530561	-0.2704600723	
696.25	0.3480086652	0.0597742658	
696.875	0.6006694844	0.4169274365	
697.5	0.653229783	0.3961497424	
698.125	0.3453468437	0.1543768489	
698.75	0.6335603967	-0.3719354096	
699.375	-0.4422483478	-0.5358702336	
700.0	-0.1120397418	0.294928712	
700.625	-0.01763319962	0.3176048831	
701.25	0.381940446	0.0579174472	
701.875	0.07018052465	0.1234906214	
702.5	0.4107699019	0.3997186254	
703.125	0.5043076364	-0.0470739488	
703.75	0.2658258777	0.03135470894	
704.375	0.4363856091	-0.2616615578	
705.0	0.1673433916	-0.2706938305	
705.625	0.1686939514	0.1431191223	
706.25	0.3396462821	0.1059468447	
706.875	0.2159792868	0.1872533101	
707.5	0.4312456637	0.2994443726	
708.125	0.559179158	0.1127071884	
708.75	0.300251177	-0.4696183771	
709.375	-0.1157148157	-0.3729233166	
710.0	-0.434110209	0.03709994238	
710.625	0.1199072504	0.07709678838	
711.25	-0.04845473281	0.2112273078	
711.875	0.3783261904	0.06378771159	
712.5	0.07010231572	0.02504399564	
713.125	0.3918774467	-0.1251653462	
713.75	0.0855236103	-0.3581722238	
714.375	0.008301975932	-0.1197796337	
715.0	0.04345279809	-0.298596062	
715.625	-0.1170114991	-0.2110119298	
716.25	0.2057280376	-0.09589958412	
716.875	0.4866651141	-0.217118884	
717.5	0.3647229035	-0.2211178239	
718.125	0.5047413003	0.08441904989	
718.75	1.008513149	-0.2067532806	
719.375	0.381395704	-0.5644824973	
720.0	0.6007071303	-0.4701149411	
720.625	0.7350570375	-1.427391426	
721.25	-0.2304817478	-0.6956934802	
721.875	0.3597470294	-0.9508380162	
722.5	-0.9172762179	-0.9379194062	
723.125	-0.4791774736	0.2296823016	
723.75	-0.6217009171	0.2027582343	
724.375	0.1987364717	0.5799198794	
725.0	0.07742013832	0.2094246276	
725.625	0.008237486076	0.7065958273	
726.25	0.3256089088	0.7447407289	
726.875	-0.1511365005	0.5738195125	
727.5	-0.5720631262	1.599578638	
728.125	0.4890053806	2.237692775	
728.75	0.1455275265	1.427323823	
729.375	-2.217798971	4.073589585	
730.0	1.378612443	4.340777818	
730.625	-0.2474388189	2.360245873	
731.25	-3.23493302	4.155904561	
731.875	-1.153211006	3.721506257	
732.5	-2.593843484	-0.371277746	
733.125	-3.75515567	0.03615205344	
733.75	-0.2568850187	2.013037888	
734.375	0.3209913412	0.2848126618	
735.0	0.2430560883	-1.028510566	
735.625	-0.2657968024	0.3612838693	
736.25	-0.553217572	0.3345819687	
736.875	0.665121578	0.8852995067	
737.5	0.8510517302	-0.2873929647	
738.125	1.305023801	0.6935143875	
738.75	2.884666356	-2.224970497	
739.375	0.5978916057	-2.160640294	
740.0	2.273999335	1.500075866	
740.625	7.162453851	0.8460250251	
741.25	1.580919209	-2.01240102	
741.875	-5.791254096	-2.057525217	
742.5	-2.952920055	-1.468450516	
743.125	0.2496047237	-0.1994896905	
743.75	0.5028506402	-1.57542216	
744.375	-0.7122162937	0.1818437634	
745.0	-0.006599010598	-0.06266839853	
745.625	0.2289600987	-0.03690733232	
746.25	-0.01371614166	-0.03498768125	
746.875	-0.3239048608	-0.1167180353	
747.5	-0.06893692258	0.4348915807	
748.125	0.1179699031	0.3952942872	
748.75	0.08220019256	0.6171698557	
749.375	0.2083470007	0.5732327081	
750.0	-0.3105573925	0.01080120948	
