!Created with skrf (http://scikit-rf.org).
# GHz S RI R (50+0j) 
!freq	ReS11	ImS11	
500.0	0.415463195	-1.349609376	
500.625	-0.2860180655	-0.7793166516	
501.25	-0.132259413	-0.9864116659	
501.875	-0.5368934606	-0.4075305651	
502.5	-0.004230597823	-0.08678877545	
503.125	-0.09910832487	-0.00538253296	
503.75	0.06974353637	0.06742986185	
504.375	0.02290814128	0.03499045407	
505.0	0.03219391422	-0.05583653339	
505.625	-0.0210086497	0.0002309963287	
506.25	-0.09439105204	-0.1722947439	
506.875	0.1261937499	0.1295001041	
507.5	0.06513559092	-0.6705223812	
508.125	-0.274941195	-0.6633187615	
508.75	0.5010057383	-0.4120737734	
509.375	-0.1423407157	-1.631668221	
510.0	-0.7453608973	0.0589685105	
510.625	-0.0509835978	-0.0713552248	
511.25	-0.08903842154	-0.1226150329	
511.875	-0.1148530618	0.05671638602	
512.5	-0.03273053386	0.02707883362	
513.125	-0.05193344822	-0.08680020895	
513.75	-0.02438756773	0.005865160645	
514.375	-0.1047490914	-0.1070153992	
515.0	-0.1212580922	0.2669668662	
515.625	0.01097661394	-1.388361888	
516.25	-0.688738223	-0.5979926631	
516.875	0.1318799796	-0.3054419746	
517.5	0.07107594283	-0.2830953775	
518.125	-0.004930925791	0.03763349811	
518.75	-0.0706702427	-0.2177728427	
519.375	-0.05523686693	0.07374830485	
520.0	0.06349727952	0.01570365366	
520.625	0.1725497217	-0.07317501217	
521.25	-0.0697246155	-0.2751943623	
521.875	-0.1577934881	-0.008272057897	
522.5	-0.06521629316	-0.03898289864	
523.125	-0.09922632088	0.1250574523	
523.75	0.008568617257	-0.09592540147	
524.375	-0.3631171831	0.02111929241	
525.0	0.1011349091	0.09580484452	
525.625	-0.06114006178	0.05174023925	
526.25	0.0773761215	-0.05398647755	
526.875	-0.1413708153	0.03879680132	
527.5	0.03913977994	0.2878198768	
528.125	0.005668186877	0.1452869616	
528.75	-0.02314421721	0.3025819705	
529.375	0.1127523132	0.04907178709	
530.0	-0.1166042935	0.1617405175	
530.625	0.3164840088	0.3989326646	
531.25	0.6908496272	0.002234413786	
531.875	0.2977324364	-0.1154929862	
532.5	-0.2024001202	-0.1520234042	
533.125	0.08301658442	0.1055665281	
533.75	0.1504989644	-0.3562747334	
534.375	-0.1093705076	-0.1370994479	
535.0	-0.2220925514	-0.1730913063	
535.625	-0.1963213108	0.2013116229	
536.25	0.008373597023	0.05149591934	
536.875	0.1180661607	0.05107614277	
537.5	0.04135209188	-0.0737543102	
538.125	0.1082356356	0.01626694286	
538.75	0.1594498474	-0.1668554267	
539.375	-0.09263863059	-0.1053808157	
540.0	-0.0845578184	-0.1741698119	
540.625	-0.2395548158	-0.04143725833	
541.25	-0.1428603916	0.0552800591	
541.875	-0.04940943821	-0.06802808435	
542.5	-0.08270869089	-0.01245378664	
543.125	-0.04192347907	-0.09440324582	
543.75	-0.1902351665	-0.06076926159	
544.375	0.005092240565	0.02031310898	
545.0	-0.04457825074	0.08676448184	
545.625	0.1415320897	0.03179418457	
546.25	0.03126848707	0.04702586753	
546.875	0.1999957798	-0.01246687746	
547.5	0.008828824398	-0.1264245467	
548.125	0.01328181474	-0.160660044	
548.75	-0.1850401629	-0.1699215502	
549.375	-0.09327011611	-0.0111293151	
550.0	-0.09569964617	-0.04228064285	
550.625	-0.04584159176	0.05962408983	
551.25	-0.07188512668	-0.008893238122	
551.875	-0.09551311461	0.1022244218	
552.5	-0.009943014645	0.0687938119	
553.125	-0.03111228119	0.06263345712	
553.75	0.06820770155	0.04273315598	
554.375	0.09006602902	0.00188142024	
555.0	0.1042434777	-0.0823876629	
555.625	0.07507106691	-0.1214123182	
556.25	0.06648020619	-0.1443656572	
556.875	-0.0338048637	-0.16992177	
557.5	-0.1096602971	-0.1100907824	
558.125	-0.1218152075	-0.03655137895	
558.75	-0.1122220546	-0.0077322466	
559.375	-0.1221923656	0.0273378699	
560.0	-0.0880681914	0.07640027929	
560.625	-0.07492110098	0.1038324879	
561.25	0.02940282328	0.1233056636	
561.875	0.006754367584	0.02271561136	
562.5	0.03435186129	0.091117098	
563.125	0.05669204708	0.03188372566	
563.75	0.1440041828	0.04389049754	
564.375	0.1403325343	-0.1476823983	
565.0	0.04042567284	-0.1149420335	
565.625	0.03206073153	-0.1885961008	
566.25	-0.1839894631	-0.07466618128	
566.875	-0.061903517	-0.08181089805	
567.5	-0.1875496892	-0.165085959	
568.125	-0.1585110186	-0.07616913978	
568.75	-0.1930859638	-0.1542208598	
569.375	-0.3283578451	0.2018826847	
570.0	-0.0238045742	0.1923071529	
570.625	-0.151644191	0.1150117276	
571.25	0.03825690344	0.2031364145	
571.875	-0.04957558426	0.01390724077	
572.5	0.2280387503	0.01635121334	
573.125	-0.01794813819	-0.1226477647	
573.75	0.1194270143	-0.04178764728	
574.375	-0.03751263034	-0.2089850647	
575.0	-0.01470745603	0.0560315282	
575.625	0.1223019193	-0.1301076295	
576.25	-0.03745864582	-0.1595583358	
576.875	0.03260747944	-0.06603799151	
577.5	0.05484413437	-0.2468360072	
578.125	-0.1765981863	-0.1306718451	
578.75	0.003838279673	-0.0925650047	
579.375	-0.1612213686	-0.197060841	
580.0	-0.04709384257	0.1035254307	
580.625	-0.1033879158	-0.1522226144	
581.25	-0.08669002309	0.1859985533	
581.875	-0.01843430044	-0.01802833131	
582.5	-0.05629638231	0.210097425	
583.125	0.1948639473	0.1136802876	
583.75	-0.07526715305	-0.02903120288	
584.375	0.162981458	0.1071667567	
585.0	0.03744753433	-0.02510048321	
585.625	0.1916327731	0.09105255878	
586.25	0.1687241296	-0.1763452062	
586.875	0.04822680996	-0.0310705137	
587.5	0.0543366664	-0.2110914687	
588.125	-0.117105803	-0.1636733794	
588.75	0.0419595523	-0.04210269335	
589.375	0.1688845422	-0.2260293559	
590.0	-0.1496675002	-0.1303581718	
590.625	-0.1018116562	-0.08555038467	
591.25	-0.2570191415	0.1885663263	
591.875	0.1004773901	0.09244949688	
592.5	-0.1290694396	0.05602366557	
593.125	0.08411141998	0.07016438316	
593.75	-0.07613651549	0.1423789808	
594.375	0.3119042355	0.1183614479	
595.0	0.1639521103	-0.02453200272	
595.625	0.09614669818	0.157989104	
596.25	0.2402778017	-0.02008906378	
596.875	0.0837776527	-0.02429675869	
597.5	0.1788267183	0.1754037351	
598.125	0.2421852738	0.06801073234	
598.75	0.1001719583	0.04714016726	
599.375	0.2552275109	-0.03366169757	
600.0	0.1513051949	-0.2297911907	
600.625	0.07069185388	-0.114586865	
601.25	0.151485371	-0.199060338	
601.875	-0.1733643433	-0.1535743591	
602.5	-0.02573593826	-0.02228828269	
603.125	-0.2219452584	0.06531095966	
603.75	0.03724235346	0.1073430422	
604.375	-0.1080387266	-0.02434793607	
605.0	-0.04292144895	0.2730796069	
605.625	0.05098094259	0.007909762597	
606.25	-0.2116767187	-0.01538763992	
606.875	-0.1655623214	0.2195751576	
607.5	-0.2218188644	0.1314736559	
608.125	-0.06863165542	0.323751029	
608.75	0.1673036117	0.13391573	
609.375	0.1602901995	0.04525376774	
610.0	0.07990110348	-0.1046349534	
610.625	0.0007520371004	-0.1765731814	
611.25	0.08611638428	-0.08229936585	
611.875	-0.1592791238	-0.2256910926	
612.5	-0.199065066	0.07912924971	
613.125	-0.1487532593	-0.07545826157	
613.75	-0.1638067051	0.2445505227	
614.375	0.1301369238	-0.02047075868	
615.0	-0.030581544	0.1607399757	
615.625	0.07768096278	-0.008370454564	
616.25	-0.1456952031	0.0780643966	
616.875	-0.03525510929	0.2941684113	
617.5	-0.01974425742	0.1211931773	
618.125	-0.0976832389	0.1684895146	
618.75	0.077544044	0.2602997232	
619.375	0.126724654	0.2293465264	
620.0	0.143723072	-0.03849743869	
620.625	0.1386996681	-0.2479866492	
621.25	-0.09785886863	-0.08311514208	
621.875	-0.07531837324	-0.1052619973	
622.5	-0.3281574036	0.09177020035	
623.125	0.1355734163	0.1429166589	
623.75	0.09661801299	0.1151333258	
624.375	0.06797491568	-0.1689377376	
625.0	0.03737216745	0.05647467093	
625.625	0.09701681082	-0.1563915225	
626.25	-0.1309200311	-0.07237784337	
626.875	-0.0578757811	-0.1259447683	
627.5	-0.2425338966	-0.05716279085	
628.125	-0.1091661769	-0.02215202353	
628.75	-0.02091241009	-0.1870735276	
629.375	-0.2040015096	-0.1397774279	
630.0	-0.1863610607	-0.05570264784	
630.625	-0.1934687027	0.01633070479	
631.25	-0.1286861283	0.2524375371	
631.875	0.003849796174	0.1698152694	
632.5	0.1272753803	0.2730806437	
633.125	0.3830836788	0.0149548943	
633.75	0.0776958105	-0.05834783618	
634.375	0.1348776437	-0.152895142	
635.0	-0.1750767403	-0.1683682885	
635.625	-0.05610892723	-0.1022244058	
636.25	-0.3011306343	0.1010561457	
636.875	0.03951013184	0.1698756079	
637.5	-0.08345596957	0.01556298068	
638.125	-0.06890906973	0.2157075107	
638.75	0.01438796323	0.05581347232	
639.375	-0.07897169968	0.3161493168	
640.0	0.273469678	0.241337235	
640.625	0.1771870903	0.05356527496	
641.25	0.3233307119	0.09064809702	
641.875	0.1450378672	-0.3185420727	
642.5	-0.0426042444	-0.1014099351	
643.125	-0.09224122619	-0.2240906627	
643.75	-0.382366182	0.0006687266231	
644.375	-0.03100764779	-0.0469728241	
645.0	-0.2245337129	0.259509069	
645.625	0.2854835999	0.1474421133	
646.25	-0.07298440319	0.1135689134	
646.875	0.3390522929	-0.05935208417	
647.5	-0.1316473796	-0.0281181339	
648.125	0.373117529	0.1820559438	
648.75	0.2305049918	-0.2380921124	
649.375	0.1034281982	-0.1169184319	
650.0	0.3678957278	-0.3037749894	
650.625	0.01767655376	-0.4464495565	
651.25	0.1379031431	-0.07559334988	
651.875	0.4542856379	-0.2415366199	
652.5	0.1555162585	-0.2628132173	
653.125	0.2827368808	0.03150644874	
653.75	0.2206476803	-0.4134594212	
654.375	-0.2084984142	-0.1780145222	
655.0	-0.1662767179	-0.1439624808	
655.625	-0.4381644054	0.2704174312	
656.25	0.1978003677	0.1269317817	
656.875	-0.2258047983	0.07118105706	
657.5	0.2346383255	0.1738586561	
658.125	0.02759617228	0.04974130579	
658.75	0.4612675576	0.2532897833	
659.375	0.1733927333	-0.3888402071	
660.0	0.1853146876	-0.1541869673	
660.625	0.2770886776	-0.4067149922	
661.25	-0.01340212704	-0.43448473	
661.875	0.163931675	-0.08301682112	
662.5	0.4052538564	-0.2353592476	
663.125	0.1817755193	-0.3252519005	
663.75	0.1367225343	-0.1685823808	
664.375	-0.02625126642	-0.4773975413	
665.0	-0.3295277309	-0.05749488363	
665.625	-0.2788698058	-0.01512238824	
666.25	-0.144086482	0.3848066941	
666.875	0.2129329731	0.107745739	
667.5	0.07102183235	0.1623274239	
668.125	0.3879340432	-0.090191892	
668.75	0.06351598367	-0.1662647231	
669.375	0.2761951722	-0.1105648972	
670.0	-0.05883902712	-0.4078042997	
670.625	-0.03663356335	-0.005398328798	
671.25	0.1779182336	-0.2134645367	
671.875	-0.01609854773	-0.2566416337	
672.5	0.1134903438	-0.04773848968	
673.125	0.3577460056	-0.2040007176	
673.75	0.01976500475	-0.3056979814	
674.375	0.09360615352	-0.1703009179	
675.0	-0.06882159484	-0.3497905289	
675.625	-0.2992784953	-0.001831661114	
676.25	-0.05290897888	-0.0935900328	
676.875	-0.2780808979	0.05195842836	
677.5	-0.04973967455	0.1238622178	
678.125	-0.1899674281	0.03542952071	
678.75	0.1046281467	0.3823090583	
679.375	0.1743383237	-0.1735708172	
680.0	0.1316527622	0.09297594702	
680.625	0.1729272569	-0.2154840515	
681.25	-0.2354967735	0.08540746284	
681.875	0.3894764543	0.2392489488	
682.5	0.1450521555	-0.2551071071	
683.125	0.04352466466	0.1620928594	
683.75	0.422272985	0.1965409345	
684.375	0.3164776774	-0.21650272	
685.0	0.232731875	0.3116320403	
685.625	0.5040351342	-0.03134578474	
686.25	0.2237135328	-0.2134315676	
686.875	0.2570053825	-0.005116334777	
687.5	0.2291251067	-0.5219335111	
688.125	-0.1864670941	-0.2463470595	
688.75	-0.3532600476	-0.3069554079	
689.375	-0.3264212285	0.4823953909	
690.0	0.2170523665	0.2040999412	
690.625	0.1055504282	0.4122529393	
691.25	0.5521925788	0.2032917757	
691.875	0.2250321197	0.1276336124	
692.5	0.5891092526	0.4557798137	
693.125	0.731237489	-0.4892589356	
693.75	0.3022258674	-0.1600002728	
694.375	0.6356740752	-0.2790316646	
695.0	0.3705869256	-0.4673998854	
695.625	0.4151498403	0.09929176607	
696.25	0.66954842	0.2896414761	
696.875	0.4523924611	0.1073633365	
697.5	0.3294144352	0.4648604046	
698.125	0.7228021033	0.240684485	
698.75	0.3799252435	-0.6297025026	
699.375	-0.2518526675	-0.163928295	
700.0	-0.3755005858	0.352531223	
700.625	0.3472540238	0.3819228517	
701.25	0.07626802943	0.1318510376	
701.875	0.3761723504	0.3952671924	
702.5	0.3945146508	0.01106614543	
703.125	0.3020206794	0.2420904082	
703.75	0.5333743069	-0.1993308559	
704.375	0.1501826674	-0.3104155737	
705.0	0.2147506896	0.06147105219	
705.625	0.3840090203	-0.0919178855	
706.25	0.185160241	0.2142533169	
706.875	0.180335342	0.4098586577	
707.5	0.4913395345	0.3322622988	
708.125	0.5167159148	0.06136897092	
708.75	0.1322071731	-0.3438776126	
709.375	-0.4346706812	-0.2369958871	
710.0	-0.06520442531	0.2473507427	
710.625	-0.133383559	0.1086908861	
711.25	0.3549196068	0.1083412267	
711.875	0.09263974978	0.1000319904	
712.5	0.4312961951	-0.007455653757	
713.125	0.2134253427	-0.3234648327	
713.75	0.1204069507	-0.1018509805	
714.375	0.0716513074	-0.3412334335	
715.0	-0.1420068113	-0.177669964	
715.625	0.1237951404	-0.1301120779	
716.25	0.2426001185	-0.3775358039	
716.875	0.2454517777	-0.2335304855	
717.5	0.5108415886	0.1641761482	
718.125	0.8946014442	-0.1024404566	
718.75	0.8187619593	-0.414717683	
719.375	0.9909358097	-0.1932789313	
720.0	1.130777163	-1.366658783	
720.625	-0.04354955307	-0.7813298545	
721.25	0.5338218628	-0.8841368299	
721.875	-0.7787265182	-1.586883576	
722.5	-0.5085812448	-0.3694403711	
723.125	-0.9690574327	-0.2639894151	
723.75	-0.3000015297	0.8169121015	
724.375	0.08583929523	0.2536254944	
725.0	0.02912421274	0.6178996363	
725.625	0.4476577634	0.4187712219	
726.25	-0.1550198987	0.4764425185	
726.875	-0.2642024403	1.190144662	
727.5	0.3478890937	1.510300171	
728.125	-0.2771774684	1.238596918	
728.75	-0.4930329455	3.872325863	
729.375	1.075490827	3.841193801	
730.0	-0.3941489806	2.284820713	
730.625	-2.102095882	5.002480873	
731.25	0.9923882061	3.722571292	
731.875	-1.943319444	1.093732532	
732.5	-4.134320618	1.934734534	
733.125	-1.851397854	2.697687927	
733.75	-0.6396751236	0.5729665011	
734.375	1.826089532	0.6086388747	
735.0	-0.4946992397	-0.336995944	
735.625	-0.4566638337	-0.1846700773	
736.25	-0.05234242488	0.9967011533	
736.875	0.4466292794	-0.09832379707	
737.5	0.8913195776	0.827935038	
738.125	2.060784887	-1.110049106	
738.75	0.7416434305	-1.433000179	
739.375	2.255397333	0.6406048861	
740.0	5.44550932	-3.05959974	
740.625	-0.9822361473	-2.518557784	
741.25	-2.771211665	4.307793844	
741.875	-2.507892011	4.200567647	
742.5	1.165499479	-0.7551371727	
743.125	0.7161146249	-3.032938684	
743.75	-0.7592159467	-0.9313184602	
744.375	-0.1404918942	0.01346941297	
745.0	0.004353717871	0.3208621206	
745.625	-0.1541391795	-0.0584428749	
746.25	0.05062155085	-0.2221437721	
746.875	-0.3069613901	0.1160651238	
747.5	-0.01628839266	0.1673545187	
748.125	-0.07655637396	0.5564385249	
748.75	0.4567395476	0.5012460685	
749.375	0.07400288122	0.3536524172	
750.0	-0.5487549056	0.1401263967	
