!Created with skrf (http://scikit-rf.org).
# GHz S MA R 50.0 
!freq magS11 angS11
500.0 0.0162705927408 147.851817278
500.625 0.00887662105796 91.3795582276
501.25 0.0140770740109 -56.5172821868
501.875 0.0340514149108 -168.164072539
502.5 0.00774337960751 99.843484938
503.125 0.0142185864732 22.6342576889
503.75 0.0158173290085 122.644552584
504.375 0.00260905893876 -146.062365301
505.0 0.0146127980098 -74.798803531
505.625 0.0436414556772 -82.9734174213
506.25 0.0469039848465 -105.25009951
506.875 0.0579525509 -104.559405879
507.5 0.0449303435102 -118.505947284
508.125 0.072340646623 -80.8992739205
508.75 0.0560428771763 -143.18920865
509.375 0.044026963142 -150.838108626
510.0 0.0394813115936 -112.94021374
510.625 0.0585082520522 -157.621661222
511.25 0.0432474306881 170.949208044
511.875 0.053187372915 146.522887183
512.5 0.040526651961 98.4868755106
513.125 0.0677641886402 56.9512943276
513.75 0.0509712499512 23.0427028366
514.375 0.0511173503991 29.6438225772
515.0 0.0604949778265 10.242160697
515.625 0.0914715725125 49.9608016721
516.25 0.0930047567336 29.9122419648
516.875 0.116311940793 70.9534183893
517.5 0.122608119257 22.2417253015
518.125 0.21706721016 74.1100396933
518.75 0.0825703578243 10.7172941266
519.375 0.0681002709387 18.0390131292
520.0 0.115836798992 -2.1524352273
520.625 0.102331254534 -3.56434618172
521.25 0.0872161913341 -23.2465875021
521.875 0.0714325924079 1.21922281697
522.5 0.0996167452565 -32.1438715334
523.125 0.194574319121 -32.0488145703
523.75 0.208808516953 -62.7448204374
524.375 0.200569341886 -53.7842355704
525.0 0.0752607703625 -39.201609279
525.625 0.0316031047769 -57.6300604812
526.25 0.0413204672205 -12.3423077141
526.875 0.0502105980736 -23.8635180422
527.5 0.0565665226854 -24.0523885335
528.125 0.0356512429545 -60.5508816877
528.75 0.066958948197 -71.669896408
529.375 0.0862212191271 -110.75644644
530.0 0.0603494821037 -126.149396129
530.625 0.0282831285766 -127.131428858
531.25 0.108244190067 -132.515535502
531.875 0.163395025849 -148.840142029
532.5 0.159747947496 -170.604920812
533.125 0.0911866942082 174.579274377
533.75 0.114147836502 168.595108331
534.375 0.10984097049 177.766566989
535.0 0.0940607751959 164.14704643
535.625 0.065255362736 178.093456696
536.25 0.0554584100847 165.302644251
536.875 0.0810981227589 -159.14194979
537.5 0.10784447111 -146.06091276
538.125 0.0923191494023 -171.698769085
538.75 0.098262676162 -179.675251445
539.375 0.0718595212372 -163.40950658
540.0 0.104612507982 -157.277809534
540.625 0.107734080629 -151.528452161
541.25 0.118718366302 -139.713660658
541.875 0.101073124659 -142.095678836
542.5 0.118459381609 -144.592215474
543.125 0.120873317615 -164.549351826
543.75 0.123384070507 160.054909488
544.375 0.0939462794661 134.92454366
545.0 0.0943082280077 91.5804533708
545.625 0.100799478724 83.7956266118
546.25 0.092864603288 69.4782974835
546.875 0.093505910751 55.333698276
547.5 0.12190556255 57.5364343936
548.125 0.0958493253163 78.3361744545
548.75 0.0814352993974 91.760326858
549.375 0.0925735456595 84.3888540279
550.0 0.0975422325751 126.55794312
550.625 0.0460843642051 155.262299536
551.25 0.0414352867684 -140.697581476
551.875 0.0662061525682 -158.317880663
552.5 0.122533551172 -168.259616258
553.125 0.0850792803187 -161.86795306
553.75 0.0909788223867 -168.438039888
554.375 0.112137162613 165.141463679
555.0 0.134810300754 162.295829949
555.625 0.10296019231 157.098916597
556.25 0.0974391070892 164.338009317
556.875 0.120183227792 166.813473383
557.5 0.113814894908 166.717941878
558.125 0.105722589607 163.769577251
558.75 0.0822378812432 178.179617801
559.375 0.0651325121973 -174.413737629
560.0 0.05117663158 -151.266200359
560.625 0.0593510382064 -140.993956825
561.25 0.0904366229732 -151.425986387
561.875 0.110771851947 -165.605506385
562.5 0.0952957256664 172.738332077
563.125 0.104103137677 147.607694317
563.75 0.129452313785 131.86175768
564.375 0.101601023042 120.947036091
565.0 0.0935540469738 118.265512545
565.625 0.0826675509369 118.417964793
566.25 0.096530207416 152.642636328
566.875 0.0781208398371 179.008978668
567.5 0.075492372859 -177.816357334
568.125 0.0879933951335 -174.148142566
568.75 0.0581925970689 -138.370556894
569.375 0.0488089871351 -105.412327148
570.0 0.0598893742446 -106.823334714
570.625 0.095500666122 -121.20259382
571.25 0.0909794919125 -119.817587048
571.875 0.0876253509565 -124.516444573
572.5 0.114252993552 -157.264541938
573.125 0.147909731745 -177.384242266
573.75 0.0944300257748 167.358192873
574.375 0.0831804343985 149.300437231
575.0 0.108499289609 152.336436182
575.625 0.114715350894 151.573471364
576.25 0.0902189539791 146.203419582
576.875 0.0747848820144 125.924327694
577.5 0.0880885821994 134.515768386
578.125 0.0604503627903 159.619316967
578.75 0.0493340940122 164.988259037
579.375 0.0562503445982 161.10158115
580.0 0.069583721013 -177.492639149
580.625 0.0794097198113 -156.802416767
581.25 0.0908673950496 -160.017524178
581.875 0.1136674606 -174.357623566
582.5 0.112843137599 -172.386445749
583.125 0.0986741959676 -174.457503734
583.75 0.0800742177796 -160.05832874
584.375 0.104534152465 -157.403475694
585.0 0.0971894415587 -146.91187777
585.625 0.0760254244368 -153.832818325
586.25 0.0685037411843 -126.173855011
586.875 0.082059443764 -130.414108535
587.5 0.0717348376132 -142.179964876
588.125 0.0610457174357 176.138646089
588.75 0.069670650266 -148.420303134
589.375 0.0822498146078 -151.271670407
590.0 0.0899496353067 -169.115575675
590.625 0.10251631525 160.565568146
591.25 0.122250204855 158.321293287
591.875 0.0968569711199 156.217474074
592.5 0.0663363671416 140.819877415
593.125 0.0616230954149 142.864835336
593.75 0.0636100478778 -172.62378656
594.375 0.0594429096084 -149.81402099
595.0 0.0425950138297 -113.796457662
595.625 0.0550743518226 -109.011609908
596.25 0.0740905150785 -84.2744272517
596.875 0.0685625150244 -72.4745312659
597.5 0.0555798271217 -68.6286006429
598.125 0.0565377256672 -71.4148068517
598.75 0.0859773733319 -56.5078147926
599.375 0.0912492994829 -61.6270567805
600.0 0.104349585449 -61.5711555981
600.625 0.0967602195509 -76.3940749122
601.25 0.0832051295143 -66.2645054161
601.875 0.068025855992 -86.0411282594
602.5 0.059890953578 -96.6244346027
603.125 0.0437174232459 -72.4482879315
603.75 0.0269739685329 -55.6854143683
604.375 0.0461286030333 -14.8080855075
605.0 0.0658196772993 -15.0400535595
605.625 0.0539573187075 1.65645865536
606.25 0.0191365015155 -27.7159763229
606.875 0.0539760834391 53.7257639531
607.5 0.0641360095734 42.41313306
608.125 0.0692032804254 26.7805698878
608.75 0.0527173205353 14.0812124935
609.375 0.0690486790686 34.5886066593
610.0 0.0753398058805 44.2900509059
610.625 0.0668685611278 39.9487883642
611.25 0.0413912307259 11.3286830928
611.875 0.0488184605754 70.8674670074
612.5 0.0247080071955 95.7620323972
613.125 0.0178042155623 133.477093086
613.75 0.0292577704581 130.265152156
614.375 0.0318314516636 118.678679183
615.0 0.0298511402042 112.743072203
615.625 0.0209685768193 140.39431417
616.25 0.0407155310019 134.998823754
616.875 0.0292056420484 127.11227268
617.5 0.0313646233754 118.330257663
618.125 0.0164527002702 134.978753143
618.75 0.0250526432954 146.507751762
619.375 0.00682557675788 119.398275871
620.0 0.00462845409013 149.173192089
620.625 0.0219746156833 -104.600796397
621.25 0.0568982749897 -77.6116421646
621.875 0.0703808300228 -107.69769224
622.5 0.0722464142165 -161.241895331
623.125 0.0658473311416 177.140561821
623.75 0.055106216941 168.278178932
624.375 0.0326528326065 -160.608247551
625.0 0.0472063477547 -152.751398273
625.625 0.0396739066205 -161.047224635
626.25 0.0243873627115 -177.137020051
626.875 0.025774022468 -8.1698836064
627.5 0.0201937522782 -84.4003842291
628.125 0.0346201308675 -26.8259973778
628.75 0.0407132954914 -26.5964002714
629.375 0.0677794781048 1.65816759652
630.0 0.0683628022036 -11.4551561055
630.625 0.066906704623 1.70833186755
631.25 0.0690384942493 6.6976246496
631.875 0.0777236469936 11.3440368921
632.5 0.0677013616766 -25.9126072049
633.125 0.050062371272 3.66481691976
633.75 0.0468659831387 15.8965437659
634.375 0.050525872958 31.6901351429
635.0 0.0452258076626 40.566800767
635.625 0.0283508621061 37.5690885452
636.25 0.0492773549011 41.6743921951
636.875 0.0601413790323 37.856658719
637.5 0.0592784258664 55.809999043
638.125 0.0235108955321 45.4600495549
638.75 0.0700225201076 74.000726892
639.375 0.102834161412 90.9353493509
640.0 0.0803622508796 111.018382452
640.625 0.051793813964 92.6654235616
641.25 0.0704553278972 123.705151221
641.875 0.0653299479145 144.995386802
642.5 0.0689718929294 164.267947128
643.125 0.0467415985396 150.670223535
643.75 0.0651731669998 167.324412422
644.375 0.0686631015765 -175.660192348
645.0 0.0931334736106 -178.7064335
645.625 0.0821445353754 162.164884689
646.25 0.0906136329646 164.020592315
646.875 0.0808520042046 -176.792807717
647.5 0.0752744544911 -173.306381067
648.125 0.0869132993282 -178.063705439
648.75 0.0767919108727 -162.161751375
649.375 0.0535265977428 -142.334079781
650.0 0.051643626474 -115.417544944
650.625 0.0806547737843 -87.6025183809
651.25 0.0631014823507 -64.3349441323
651.875 0.0643527229693 -39.4879710545
652.5 0.0870475534169 -25.3306245945
653.125 0.137984596786 -1.80662552678
653.75 0.112502877538 6.28504950737
654.375 0.114408454372 5.35704938634
655.0 0.127943515697 13.5399066293
655.625 0.103420692849 28.7355213876
656.25 0.0591479272713 18.5095968158
656.875 0.0687703933808 8.11768114135
657.5 0.0804425643686 22.4902059902
658.125 0.0852243805749 48.3596633288
658.75 0.0437216567217 71.7016076978
659.375 0.0793847433344 41.6088771256
660.0 0.120795686118 24.4420845726
660.625 0.123062720424 16.888424586
661.25 0.0997850691114 4.44845095334
661.875 0.124913094013 -13.088221779
662.5 0.118721815566 -20.7331207494
663.125 0.117517731857 -15.2665280314
663.75 0.0799564999311 3.72596411503
664.375 0.0911572833508 56.7563011358
665.0 0.0782937971271 92.6872229458
665.625 0.0669603274958 111.810506171
666.25 0.0857368293564 131.56545471
666.875 0.119884096778 168.977239263
667.5 0.103450602358 -168.93361363
668.125 0.109965247019 179.43054379
668.75 0.13134956411 167.528165796
669.375 0.127609252361 177.354213377
670.0 0.0904745405476 -169.363090968
670.625 0.0966339627581 -173.8497576
671.25 0.0947993782527 176.88420091
671.875 0.0964442177971 168.505602477
672.5 0.071732618618 155.247927641
673.125 0.0924037684465 150.230500041
673.75 0.11526921205 158.758023637
674.375 0.122902466989 166.858734495
675.0 0.121834355612 -175.641562102
675.625 0.139852130611 -151.631827505
676.25 0.125399448232 -124.539057156
676.875 0.120391847944 -120.021751517
677.5 0.12867464521 -128.236918862
678.125 0.141835188189 -117.550787368
678.75 0.0547994370288 -89.695311695
679.375 0.0490459238247 -68.6317665444
680.0 0.0768621240996 -79.9458678922
680.625 0.135019941863 -81.3957997035
681.25 0.104238050457 -72.7719264734
681.875 0.102174874866 -92.1183597548
682.5 0.142083245794 -121.761692767
683.125 0.171004544841 -121.760625869
683.75 0.149594110018 -106.479863683
684.375 0.104267472808 -73.710438124
685.0 0.133133124637 -39.1240675769
685.625 0.130122271126 -1.84510963454
686.25 0.12125772654 18.95826195
686.875 0.0708559720042 53.9897804658
687.5 0.0718918798308 87.836346357
688.125 0.0808120245567 109.914266319
688.75 0.107626131577 107.284398839
689.375 0.130564507221 129.252140177
690.0 0.135662270344 133.018210413
690.625 0.12119475217 124.233077483
691.25 0.145958638059 94.3346974475
691.875 0.19707447523 65.2701384095
692.5 0.145212119366 39.6978601369
693.125 0.0896553818654 -14.2367946065
693.75 0.0938039567822 -39.1466455663
694.375 0.148361670058 -35.6225164313
695.0 0.117479526433 22.4820030731
695.625 0.102313204246 55.9949001432
696.25 0.115288603665 110.864244189
696.875 0.140742436253 171.667431156
697.5 0.150448322654 -148.901076809
698.125 0.137578765764 -131.110328632
698.75 0.1397255164 -135.25534914
699.375 0.117541034966 -130.001651471
700.0 0.0883782667499 -102.737714093
700.625 0.11371714016 -84.7992309934
701.25 0.0972348323005 -66.5800966961
701.875 0.0853574994544 -66.5887660158
702.5 0.101074688005 -78.5311416102
703.125 0.167934818388 -123.929320463
703.75 0.188461140973 -155.459803983
704.375 0.131689287315 169.781056633
705.0 0.114708482031 152.284074396
705.625 0.137209789431 -158.767521901
706.25 0.142156607426 -108.228253585
706.875 0.0863256254513 -58.3738384758
707.5 0.0798455874906 -45.4888850346
708.125 0.0941339518325 27.5519073772
708.75 0.112918411963 65.5454077783
709.375 0.10426848127 107.491428847
710.0 0.102927751861 125.699961029
710.625 0.108554399105 147.639719867
711.25 0.122297076583 174.308073071
711.875 0.147025115534 167.117181118
712.5 0.157021473487 136.241496283
713.125 0.116909294567 110.158112026
713.75 0.102172583188 46.5833453264
714.375 0.11432496152 16.3171770868
715.0 0.114321980717 26.2842953209
715.625 0.084772676384 39.9589983581
716.25 0.090646960335 89.5525512453
716.875 0.124108837789 109.543003196
717.5 0.144563150403 148.593147825
718.125 0.118399182382 160.28629033
718.75 0.101561115359 173.816278664
719.375 0.115260293453 -171.457020925
720.0 0.133594140516 -125.514473914
720.625 0.115215864231 -77.8279507343
721.25 0.100110739462 -22.2414204906
721.875 0.0804994196742 37.1537597866
722.5 0.0698055528793 78.3353368002
723.125 0.0664745631902 50.841016396
723.75 0.115764054172 50.1199010724
724.375 0.107150467516 -3.93260135553
725.0 0.0845622281109 -47.3984644948
725.625 0.100314687706 -68.7372382398
726.25 0.10053252808 -81.4978171466
726.875 0.106377805829 -37.8589981513
727.5 0.0851282333188 -26.0408972233
728.125 0.0808774085153 5.39084436851
728.75 0.0731800341516 1.19450411691
729.375 0.0918345774355 28.0159693624
730.0 0.0624413248791 1.12686225073
730.625 0.0651042762471 20.0325850619
731.25 0.0681135966636 60.1889939674
731.875 0.0515518290831 101.00716075
732.5 0.0917823378411 159.116747503
733.125 0.0919867726563 177.59819943
733.75 0.0692625748958 165.409619618
734.375 0.0530200949341 173.34341516
735.0 0.0453181423728 152.931684587
735.625 0.035364053269 146.58681475
736.25 0.0329864620752 141.580553856
736.875 0.0319843485684 -178.617421184
737.5 0.0709626501609 -179.22442853
738.125 0.0951105719184 -177.950542852
738.75 0.0669280946463 -179.267912595
739.375 0.0244236436599 160.743871237
740.0 0.0849403047714 -139.336339651
740.625 0.0556569704704 -148.398725083
741.25 0.0550693796321 -148.172043823
741.875 0.0160268612316 -92.5310240965
742.5 0.0173294433994 25.4772484341
743.125 0.0344210473578 56.6319132815
743.75 0.0443359691228 111.066256428
744.375 0.0458442917974 179.044646581
745.0 0.0825125351842 106.248643517
745.625 0.0694213888026 108.519370042
746.25 0.0824724707226 91.0580143875
746.875 0.0576366152513 46.4780074821
747.5 0.0331969698633 13.0848355571
748.125 0.0185428965349 -2.60886825376
748.75 0.0293391045127 -14.9771997178
749.375 0.0382323610561 -37.4850717396
750.0 0.0457957893499 -42.7448580345
