!Created with skrf (http://scikit-rf.org).
# GHz S RI R (50+0j) 
!freq	ReS11	ImS11	
500.0	-1.039108483	-4.907601296	
500.625	0.1522405741	-1.169392785	
501.25	-0.6689481801	-2.862806601	
501.875	-2.072117168	-0.8175819975	
502.5	0.08397273444	-0.1837638183	
503.125	-0.3504776418	0.1031461937	
503.75	0.06698687716	0.02797746825	
504.375	0.1525119461	0.01499558535	
505.0	-0.09553768237	-0.05667059035	
505.625	0.2733359232	-0.2018754169	
506.25	-0.610625171	0.03535409246	
506.875	0.4169848048	-0.3084258956	
507.5	-0.6502920558	-2.084660042	
508.125	-1.069096765	-1.031257928	
508.75	3.060957679	-2.531031277	
509.375	-3.548762221	-4.785720451	
510.0	-0.346296057	-0.4961159201	
510.625	-0.8863090985	-0.7110025957	
511.25	-0.1037626461	0.1451270082	
511.875	-0.5022698329	-0.2708885688	
512.5	-0.02842770375	0.2178461119	
513.125	-0.2129727598	-0.2933407572	
513.75	-0.03573861974	-0.07128182636	
514.375	-0.4743559107	-0.2622451905	
515.0	0.5760179125	0.8520942829	
515.625	-1.288563045	-2.777052904	
516.25	-0.3919661954	0.5888511739	
516.875	0.1107280576	-2.669964822	
517.5	-1.035316786	-0.3005672348	
518.125	0.264544778	-0.2901661007	
518.75	-0.8144866852	-0.3307597912	
519.375	-0.1003084337	0.01471195125	
520.0	0.4472500609	0.3376210352	
520.625	0.4015133849	-0.4122149641	
521.25	0.09940265334	-0.3657616052	
521.875	-0.5917482785	-0.2375208645	
522.5	0.03525837991	0.08420065895	
523.125	-0.2959402311	0.2303623883	
523.75	-0.05588743771	-0.08967608402	
524.375	-0.7176871355	0.2470735299	
525.0	0.1634166587	0.09827645597	
525.625	-0.06762056781	0.2102028502	
526.25	0.08717976091	-0.2580640792	
526.875	-0.2071795986	0.3617058104	
527.5	0.1526677742	0.2858195738	
528.125	-0.2929841403	0.8848436928	
528.75	0.5372089674	0.7704266524	
529.375	-0.1590530059	0.2278088787	
530.0	0.4499123077	0.2561697733	
530.625	-0.2033955422	0.8448101129	
531.25	1.639227579	-0.1295694286	
531.875	0.2821044765	-0.1886084964	
532.5	-0.1379235381	-0.5842316382	
533.125	0.1663088612	0.2994926034	
533.75	0.007777512827	-0.9880343408	
534.375	-0.0320028979	-0.1856870087	
535.0	-0.9055598602	-0.6837160596	
535.625	-0.1769948515	0.5282269965	
536.25	-0.0857350144	0.1645889422	
536.875	0.3659186434	0.07462687333	
537.5	0.01882175031	-0.09190897288	
538.125	0.5299904294	-0.115069893	
538.75	0.1039826029	-0.3496070121	
539.375	0.02045501492	-0.3791124877	
540.0	-0.5918933401	-0.4932859544	
540.625	-0.3110251387	0.1179895925	
541.25	-0.154144586	0.01303469867	
541.875	-0.1103763665	-0.145175644	
542.5	-0.200472145	0.02665635442	
543.125	-0.06570345082	-0.2088935209	
543.75	-0.3476856006	0.1262968083	
544.375	-0.02605044993	-0.05843818865	
545.0	0.006464675988	0.2911983062	
545.625	0.04236267241	-0.07394637292	
546.25	0.3223415829	0.3812801726	
546.875	0.1849782056	-0.3518409322	
547.5	0.2150430649	-0.04631853791	
548.125	-0.051281948	-0.6147271941	
548.75	-0.3895539701	-0.0859050286	
549.375	-0.0813840871	-0.2447524963	
550.0	-0.3304464366	0.07697717761	
550.625	0.01822475423	-0.04573567205	
551.25	-0.3277956669	0.1146517285	
551.875	-0.02496230841	0.163057458	
552.5	-0.1948860633	0.1457453886	
553.125	-0.006707091778	0.196997268	
553.75	0.09082071985	0.09279868144	
554.375	0.2435484865	0.02209290263	
555.0	0.2234100552	-0.1839490852	
555.625	0.1984274245	-0.2405285861	
556.25	0.1672900527	-0.3493030318	
556.875	-0.08947081183	-0.3823802854	
557.5	-0.2276008545	-0.2380883514	
558.125	-0.2667729901	-0.1122343786	
558.75	-0.2810749021	-0.0007734983436	
559.375	-0.22385365	0.06285396997	
560.0	-0.257499339	0.1368950027	
560.625	-0.1022994004	0.3213580662	
561.25	0.01969438382	0.1386189905	
561.875	0.09018213804	0.2112408922	
562.5	0.00243422361	0.005174118269	
563.125	0.172226389	0.2978016272	
563.75	0.3518351197	-0.1437900404	
564.375	0.1959115	-0.07194660927	
565.0	0.2979616266	-0.4048908935	
565.625	-0.1984681015	-0.3570647566	
566.25	-0.1334385507	-0.1952865521	
566.875	-0.4044487483	-0.2983994613	
567.5	-0.3314888279	-0.06368897404	
568.125	-0.2141300933	-0.53101257	
568.75	-0.6870450828	-0.09646354074	
569.375	-0.3460866142	0.151829463	
570.0	-0.5742751762	0.4198534541	
570.625	0.05501285166	0.7035345558	
571.25	-0.0388028262	-0.0702347169	
571.875	0.2588395876	0.5332257942	
572.5	0.03164556123	-0.2361830777	
573.125	0.5079812734	-0.03553325501	
573.75	-0.02830410643	-0.5656845499	
574.375	0.002451480175	0.1894265811	
575.0	0.2168075882	-0.4065677876	
575.625	-0.1395462882	0.0768690767	
576.25	0.4381352074	-0.2205533206	
576.875	-0.1857446132	-0.5424131166	
577.5	-0.1139817204	-0.1185393776	
578.125	0.1347729427	-0.4283714582	
578.75	-0.4128125356	-0.410137183	
579.375	-0.1037247521	0.04697903873	
580.0	-0.08109570533	-0.3145778321	
580.625	-0.179616591	0.1850519026	
581.25	-0.2352877815	-0.1329384399	
581.875	-0.07076934999	0.6735673327	
582.5	0.4678378801	0.184932559	
583.125	-0.2258443079	-0.001497680182	
583.75	0.5109832046	0.3435831726	
584.375	-0.371825452	-0.08275695653	
585.0	0.5911447292	0.3624153004	
585.625	0.1202168808	-0.3266344673	
586.25	0.4255609367	0.2770555967	
586.875	0.1422134563	-0.6730468874	
587.5	-0.1055289993	-0.02753533768	
588.125	0.2366081715	-0.3863840889	
588.75	-0.04909081344	-0.5941466645	
589.375	0.04478987419	-0.0904826118	
590.0	0.06210613714	-0.5834742365	
590.625	-0.4846439034	0.05319819735	
591.25	-0.2555722563	0.08216796476	
591.875	-0.1985065269	0.3880227551	
592.5	0.1630344761	-0.01604725854	
593.125	-0.1937171645	0.2359854675	
593.75	0.2852295835	0.2250068004	
594.375	0.08686535997	0.06076293797	
595.0	0.3125312354	0.6665217289	
595.625	0.7894115302	-0.1376822083	
596.25	-0.06252068825	0.274577091	
596.875	0.7713964632	0.1771225087	
597.5	0.09370742823	-0.1416500429	
598.125	0.3736582564	0.7252877702	
598.75	0.511602374	-0.1509123482	
599.375	0.2977006859	0.1938361771	
600.0	0.6442256751	-0.4031270271	
600.625	0.1815715927	-0.5625925325	
601.25	0.1546202871	-0.2356455273	
601.875	-0.1369048721	-0.4258122107	
602.5	-0.308038593	-0.01009950988	
603.125	-0.2303863192	0.08838252701	
603.75	-0.2437074099	0.1248083662	
604.375	-0.2466429741	0.1907565888	
605.0	-0.08502464936	0.1251480324	
605.625	-0.2894631983	0.184857385	
606.25	-0.047591569	0.1597744263	
606.875	-0.6250188083	-0.08964200734	
607.5	-0.1424796914	0.8498635409	
608.125	-0.1761715066	0.1489408015	
608.75	0.5573883716	0.8508529575	
609.375	0.2688792168	-0.4279553839	
610.0	0.5972086007	0.0801257127	
610.625	0.1091913972	-0.6748433694	
611.25	0.0840535954	0.02435061044	
611.875	-0.369162054	-0.6208102937	
612.5	-0.1043286985	0.02583663553	
613.125	-0.5832837541	-0.1338205873	
613.75	-0.02960730895	0.4995768354	
614.375	-0.2695657097	0.2319130563	
615.0	0.4060363676	0.05115185512	
615.625	-0.29987842	0.07068921293	
616.25	0.06732317765	0.6699173398	
616.875	-0.1035056588	0.02535834853	
617.5	-0.4340702247	0.708946066	
618.125	0.2856938526	0.5638453864	
618.75	-0.2074863353	0.2356649906	
619.375	0.4026691561	0.5038274732	
620.0	0.2504067868	0.06237085689	
620.625	0.4209584087	-0.3942208009	
621.25	-0.2786675556	-0.2959430073	
621.875	-0.434167972	-0.3359819076	
622.5	-0.4380299994	0.2423770841	
623.125	-0.1731385885	0.2870752203	
623.75	0.5357335907	0.1493535657	
624.375	-0.2450335362	0.02650004781	
625.0	0.4439465237	-0.391749534	
625.625	-0.101444214	0.1571754028	
626.25	0.1217406136	-0.5958006323	
626.875	-0.5752400405	0.03172544703	
627.5	0.07759021902	-0.2270141355	
628.125	-0.6193847654	-0.2215961185	
628.75	-0.0398902309	0.00945884453	
629.375	-0.0928411318	-0.6329718994	
630.0	-0.6350068191	-0.0778705808	
630.625	-0.2344309213	0.09888700429	
631.25	-0.4944083213	0.3607791848	
631.875	-0.02192865339	0.6272543322	
632.5	0.375134907	0.4229560334	
633.125	0.3339397809	0.1375735096	
633.75	0.5257441806	-0.1854142277	
634.375	0.07991850273	-0.217689976	
635.0	0.069724933	-0.4007104978	
635.625	-0.4561257981	-0.09457659477	
636.25	-0.1857317609	-0.08275134681	
636.875	-0.4224316232	0.4875893115	
637.5	0.2934678465	0.2354850704	
638.125	-0.4772876992	-0.14487361	
638.75	-0.08578635279	0.7785986043	
639.375	0.1914369585	0.1927772217	
640.0	0.01179862136	0.7987204949	
640.625	0.8735950196	0.190865369	
641.25	0.2713882801	0.02972735101	
641.875	0.8856265127	-0.5884237393	
642.5	-0.3722931191	-0.3057296383	
643.125	0.1256150313	-0.2647596352	
643.75	-0.622478101	-0.4325524661	
644.375	-0.2695155389	0.3441298739	
645.0	-0.295680395	-0.02073406713	
645.625	0.01800690318	0.8113061914	
646.25	0.5583576247	-0.06923019921	
646.875	-0.103196181	0.1401797789	
647.5	0.5699923399	-0.1912421728	
648.125	-0.0240758605	0.4632317466	
648.75	1.032755154	-0.264201036	
649.375	0.03638120335	-0.769429145	
650.0	0.4984455902	0.04348494803	
650.625	0.9044452297	-1.345331534	
651.25	-0.3763377879	-0.6413097578	
651.875	0.7368479262	0.2975071643	
652.5	1.079209212	-0.666384	
653.125	0.03991107887	-0.3210909441	
653.75	1.013087412	-0.3833625013	
654.375	-0.5591211465	-0.8521567553	
655.0	-0.2265277698	0.02313808414	
655.625	-0.8461551585	0.07340022276	
656.25	0.4857184216	0.7670556327	
656.875	-0.2179772764	-0.1559861358	
657.5	0.2327127175	0.5250585443	
658.125	0.3926730609	0.079421989	
658.75	0.3513039071	0.4422291733	
659.375	1.123560076	-0.5414105	
660.0	0.1318390706	-0.6538518959	
660.625	0.4747263293	-0.4243276156	
661.25	0.7434453945	-1.023070655	
661.875	-0.196285244	-0.7487152867	
662.5	0.791813724	0.1889493187	
663.125	0.8409026255	-0.9775968965	
663.75	-0.06855833581	-0.3736437334	
664.375	0.4225546899	-1.023031604	
665.0	-1.002747266	-0.07338276697	
665.625	-0.3879745396	-0.1692334646	
666.25	-0.533471967	0.8393829053	
666.875	0.5891073096	0.4244187647	
667.5	0.03237811759	0.09802455022	
668.125	0.8285930722	0.1549381782	
668.75	0.2757688113	-0.5221728815	
669.375	0.2105271156	-0.2625267716	
670.0	0.1312112145	-0.7572887753	
670.625	-0.1903304081	-0.1636570291	
671.25	0.3506767806	-0.4812181513	
671.875	0.2053881328	-0.5545471819	
672.5	0.2107179421	-0.2419556558	
673.125	0.722241698	-0.08065342162	
673.75	0.4984778755	-1.029324166	
674.375	-0.3377679022	-0.2416816881	
675.0	0.3036261126	-0.6965599717	
675.625	-0.9573684533	-0.3975458274	
676.25	0.2862776608	0.05998942292	
676.875	-0.9723546826	-0.1291175327	
677.5	0.1312323354	0.3331777346	
678.125	-0.807392651	-0.08408018806	
678.75	0.5582831159	0.9605863296	
679.375	0.1056403575	-0.1402214632	
680.0	0.3744676835	0.1445164779	
680.625	0.4222821723	-0.4041956158	
681.25	-0.1633983237	-0.1751930926	
681.875	0.4334366039	0.4529442196	
682.5	0.626281829	-0.04362869087	
683.125	0.4260113008	0.1257254742	
683.75	0.6013262461	0.4086256394	
684.375	0.7541450183	-0.2364945436	
685.0	0.3422667711	0.2030078856	
685.625	1.007800271	0.2350288092	
686.25	0.681882562	-0.7288897608	
686.875	0.2253532277	0.4366949482	
687.5	1.432832519	-1.486137121	
688.125	-0.8073492224	-0.2028425195	
688.75	-0.5561411663	-1.218375053	
689.375	-0.7830102931	1.482951612	
690.0	-0.01955097215	0.0232170414	
690.625	0.8998376514	1.365250329	
691.25	0.5992647864	0.01694465648	
691.875	0.7649053039	1.050749498	
692.5	1.697917498	0.4992642545	
693.125	1.228833564	-0.2324477224	
693.75	1.431372115	-0.458079953	
694.375	0.8684226324	-0.9083663535	
695.0	1.208094436	-0.5868678513	
695.625	0.9892702068	-0.5220427501	
696.25	0.8997355805	0.6567028114	
696.875	1.60935728	0.9254854829	
697.5	0.4236406092	0.5483445938	
698.125	1.70047861	1.194264429	
698.75	0.4452734578	-1.696143303	
699.375	0.06727912351	-0.9272824615	
700.0	-1.165489237	1.417926584	
700.625	0.3828473403	0.01075550454	
701.25	0.5303406647	1.193538049	
701.875	0.7417027472	-0.07570149753	
702.5	0.4221624084	0.943527636	
703.125	1.407295348	0.05787264765	
703.75	0.3432085069	0.0142424893	
704.375	1.151370127	-0.5860830044	
705.0	0.07453723906	-0.5323425176	
705.625	0.7020908936	0.625791349	
706.25	1.066485388	-0.2086492313	
706.875	-0.007947285482	0.6247316325	
707.5	1.013061498	1.398094628	
708.125	0.7366961126	-0.3551434166	
708.75	1.281691095	-0.584636589	
709.375	-1.227118052	-0.6809856563	
710.0	-0.08213904367	0.1553841849	
710.625	0.09476854914	0.6584773099	
711.25	0.2962879195	0.0955328195	
711.875	0.4971956631	0.3606541164	
712.5	0.6314520444	-0.1585977555	
713.125	0.8447961089	-0.2586660358	
713.75	0.02850724098	-0.7821275605	
714.375	0.2929395263	-0.2588011681	
715.0	-0.2878890609	-0.7745412644	
715.625	-0.02384932025	-0.03445501431	
716.25	1.01148065	-0.7779134668	
716.875	-0.02716820088	-1.150666267	
717.5	0.8769910711	1.145114521	
718.125	3.069097596	-0.1720483263	
718.75	0.5379762078	-1.624978428	
719.375	2.830688061	0.9825981034	
720.0	0.517931174	-3.969729055	
720.625	0.7088659237	-1.119490328	
721.25	0.5857137034	-3.349401574	
721.875	-1.83133554	-2.035608211	
722.5	-0.3418782576	-1.868934237	
723.125	-2.650123891	-0.5183706991	
723.75	-0.6410689595	1.352403076	
724.375	0.02291356415	0.7880282699	
725.0	0.06770136536	1.027776955	
725.625	1.087850607	1.213377827	
726.25	0.006591635725	0.8091913716	
726.875	-0.9045748924	2.733228675	
727.5	1.517181503	3.93529122	
728.125	-1.751337653	1.817763615	
728.75	-1.762232645	10.33375207	
729.375	5.786422474	7.967249529	
730.0	-8.162972172	2.511859429	
730.625	6.192347921	24.76264235	
731.25	4.937495824	1.471029056	
731.875	-12.27121532	3.204666675	
732.5	-12.80376281	5.819918778	
733.125	-2.668115241	3.279556912	
733.75	-4.653083111	2.919021528	
734.375	2.707022239	-0.01709014795	
735.0	-0.03937725728	-0.8608807025	
735.625	-1.560733233	-0.5468201829	
736.25	0.912721954	1.81749944	
736.875	0.01333382153	0.4845448161	
737.5	3.058678671	1.556740695	
738.125	4.982050297	-2.267834388	
738.75	0.4516747807	-3.991955167	
739.375	10.72252877	2.48009058	
740.0	4.988191939	-14.884285	
740.625	-7.081324054	4.264852995	
741.25	8.132974179	22.7709203	
741.875	15.02423361	6.381931841	
742.5	1.507437962	-18.68852316	
743.125	-6.646755218	-9.382449893	
743.75	-1.988832189	-0.4808353528	
744.375	-0.2573726464	-1.352826899	
745.0	0.7047534097	0.6917603094	
745.625	-0.002479789678	0.3292610081	
746.25	-0.2174244352	-0.4039029097	
746.875	-0.3640538257	0.3868758089	
747.5	-0.5256178567	0.8453860255	
748.125	0.5450546148	1.495917704	
748.75	0.8069605746	0.6241609109	
749.375	-0.6296728436	1.22531094	
750.0	-0.9894410766	0.3665844725	
