!Created with skrf (http://scikit-rf.org).
# GHz S RI R 50.0 
!freq ReS11 ImS11
500.0 -0.02859744661 -0.01029584644
500.625 -0.02308873079 0.005894951763
501.25 -0.03085048915 -0.005416224908
501.875 -0.09026819982 0.00970056519
502.5 -0.07313987955 0.00155688441
503.125 -0.008130413213 0.001216841612
503.75 -0.0136156586 0.01657081699
504.375 -0.01481279387 0.02480352536
505.0 0.001635830917 0.0275585461
505.625 -0.006179131465 -0.02020988787
506.25 -0.006936686391 0.00239387435
506.875 -0.05627083431 0.008186026133
507.5 -0.04047593199 0.01906225627
508.125 -0.03998475874 -0.01591676044
508.75 -0.04199183075 0.04886595278
509.375 -0.04916217099 0.04401976398
510.0 -0.0337976779 0.03919401043
510.625 -0.01620744732 0.02246915716
511.25 -0.0096883817 0.02874624041
511.875 0.0113642296 0.03867138457
512.5 0.02474867998 0.02301079481
513.125 0.06825561909 -0.004520068407
513.75 0.03419467201 -0.07317919875
514.375 0.002512968617 -0.0542385203
515.0 0.01503115577 -0.04407671032
515.625 0.02299751359 -0.04058916223
516.25 -0.01588491647 -0.04305032835
516.875 0.03753002853 0.005770652074
517.5 0.0531139187 -0.02089465272
518.125 0.1283476918 0.0154081665
518.75 0.02717703117 -0.08388223836
519.375 0.03030713868 -0.04319592213
520.0 0.03256444441 -0.06697765933
520.625 0.02438953824 -0.07628191482
521.25 -0.02129852596 -0.06908545521
521.875 0.01478638695 -0.03635844025
522.5 0.002634722379 -0.06619870685
523.125 -0.005747349738 -0.1546293227
523.75 -0.09234803473 -0.2055330558
524.375 -0.05418010958 -0.2291424027
525.0 -0.03677696021 -0.1274309714
525.625 -0.03766720169 -0.09534543605
526.25 -0.02238224341 -0.07177246378
526.875 -0.03014577737 -0.0506634532
527.5 -0.06373621425 -0.07031203482
528.125 -0.06771291254 -0.02758010172
528.75 -0.05703361829 0.007373216993
529.375 -0.07772635303 0.04743266988
530.0 -0.04764459433 0.1114988888
530.625 0.06550360002 0.07173967347
531.25 0.03195364447 0.04709157514
531.875 0.01187244971 0.05064217341
532.5 0.01150904828 0.1552066082
533.125 0.01097830337 0.1096677076
533.75 0.0346819744 0.04856408027
534.375 0.02817149863 0.06309727727
535.0 0.05029849369 0.1111999822
535.625 0.01301510316 0.08664431087
536.25 0.06539600287 0.03529921
536.875 0.05435718659 0.03913061414
537.5 0.01360505369 0.07282440782
538.125 0.009806389235 0.04635144864
538.75 0.03545699581 0.07705020767
539.375 0.03563665002 0.1026875016
540.0 0.03836369393 0.1157386871
540.625 0.03435373938 0.05806846498
541.25 0.02809455233 0.07554065989
541.875 0.01943824345 0.07268704147
542.5 -0.00999890574 0.04236060331
543.125 -0.006775753304 0.0398215057
543.75 0.0361247592 0.07003184822
544.375 0.07400430293 0.076895141
545.0 0.1080375716 -0.004796147926
545.625 0.06787239912 -0.05568901447
546.25 0.0284847211 -0.07287267767
546.875 0.04153702993 -0.07545158684
547.5 0.06711164546 -0.09768901046
548.125 0.07393670247 -0.0887936149
548.75 0.1127171062 -0.06444116197
549.375 0.1226800827 -0.03742921831
550.0 0.1492528395 0.00303804905
550.625 0.1649931643 -0.003708428843
551.25 0.1080607801 0.03581761859
551.875 0.08078779606 0.01015033886
552.5 0.08921576259 -0.008329418338
553.125 0.09241219099 -0.02260794137
553.75 0.06303706458 0.00101090357
554.375 0.03337334741 0.002880117088
555.0 0.06008820722 -0.004042202711
555.625 0.06684961576 -0.003736023039
556.25 0.04865330221 0.009544681104
556.875 0.03758793761 0.02598547037
557.5 0.04477761774 0.0363195904
558.125 0.07749158774 0.06117770667
558.75 0.0350871973 0.0741671673
559.375 0.0584837071 0.07519168661
560.0 0.1029208353 0.06943232453
560.625 0.08609879934 0.03885957867
561.25 0.05732005734 -0.002998504329
561.875 0.05337415531 -0.004655184521
562.5 0.06477673867 -0.009600562799
563.125 0.05841092396 -0.01298753228
563.75 0.0363735367 -0.005974271265
564.375 0.06015580415 -0.02809796121
565.0 0.1175588311 -0.05791268962
565.625 0.09440547132 -0.03149173366
566.25 0.06980296309 -0.01592673904
566.875 0.08074861095 -0.009932416873
567.5 0.08908167091 0.02456063463
568.125 0.0710959559 0.05466579641
568.75 0.07492849507 0.05849897918
569.375 0.08541775078 0.06384054984
570.0 0.0789238153 0.05616325639
570.625 0.06591639677 0.03550205804
571.25 0.06161160507 0.01584786326
571.875 0.07678139469 0.01063905469
572.5 0.04640263149 -0.009867336041
573.125 0.03679821929 -0.00752717361
573.75 0.0644148233 -0.01225996211
574.375 0.08172910634 -0.02179624605
575.0 0.06026341316 -0.0418084971
575.625 0.03635070341 -0.03241192262
576.25 0.04979924154 -0.02227399767
576.875 0.07378224829 -0.02230686006
577.5 0.07192078354 -0.03554567419
578.125 0.06979174056 -0.04020468676
578.75 0.08132710397 -0.03955849567
579.375 0.09412219958 -0.03563541832
580.0 0.08059956093 -0.04302607132
580.625 0.06688515619 -0.07536375577
581.25 0.04911910093 -0.06640888043
581.875 0.03922430152 -0.04798859757
582.5 0.03732097206 -0.01449148873
583.125 0.05798836887 -0.04338598263
583.75 0.08048448189 -0.02882883481
584.375 0.06068925727 -0.0006618736538
585.0 0.05327944054 0.01495511298
585.625 0.0732662358 -0.007744822175
586.25 0.07346706248 0.0202701936
586.875 0.06098229178 0.008666724882
587.5 0.06591981793 0.005798058892
588.125 0.07432907183 -0.04763281999
588.75 0.08953956517 -0.03295982648
589.375 0.06330485115 -0.0563017794
590.0 0.03105114902 -0.08371059861
590.625 -0.01642354563 -0.08972152581
591.25 0.008275836573 -0.0395537865
591.875 0.03686508495 -0.006252640326
592.5 0.05566371561 -0.03764150641
593.125 0.04002576611 -0.06418887184
593.75 0.06061777925 -0.0467291056
594.375 0.07470145171 -0.004221465385
595.0 0.09237751451 0.01120563255
595.625 0.09399252183 0.00380626184
596.25 0.07238599633 0.03351370304
596.875 0.04260435223 0.05612504626
597.5 0.04468820497 0.07389817957
598.125 0.07252524548 0.03356107307
598.75 0.06279892288 0.05089634629
599.375 0.07228548497 0.02613020309
600.0 0.05257934313 0.02977634957
600.625 0.04436966564 -0.005205023474
601.25 0.02467157224 0.001968205304
601.875 0.00268946082 0.04809143256
602.5 -0.006066952488 0.05816473511
603.125 0.00343560989 0.03726809525
603.75 -0.002974858358 0.06876174929
604.375 -0.01365265931 0.08521810496
605.0 -0.01298530103 0.06208974329
605.625 -0.0311695206 0.04321288295
606.25 -0.02219275543 0.03045621003
606.875 -0.06220671987 0.05461109494
607.5 -0.05465368694 0.06516267745
608.125 -0.01902889197 0.06476314285
608.75 -0.01568259273 0.0646329276
609.375 -0.04260900848 0.05365811277
610.0 -0.0339639702 0.04197554035
610.625 -0.03152919745 0.02756151613
611.25 -0.005544696897 0.004566323031
611.875 -0.03720520034 -0.02238440863
612.5 -0.04044633036 -0.03347326779
613.125 -0.06549241284 -0.03391031796
613.75 -0.03148270064 -0.01085099574
614.375 -0.04445186344 -0.02736105148
615.0 -0.04646126065 -0.03635365118
615.625 -0.06178244421 -0.04067135588
616.25 -0.0515273619 -0.03042497135
616.875 -0.04565115769 -0.02558596816
617.5 -0.03598670104 -0.03184242373
618.125 -0.03395648542 -0.03798724856
618.75 -0.009691721582 -0.02729698792
619.375 -0.005018798856 -0.03815012984
620.0 0.003800407349 -0.05204489961
620.625 -0.0005257281825 -0.06629034446
621.25 0.04330953311 -0.05527583751
621.875 0.001537858811 -0.08249885437
622.5 -0.08783711227 -0.0686164175
623.125 -0.08665457963 -0.03448464316
623.75 -0.03946855601 -0.01233629087
624.375 -0.02969357484 -0.03633563337
625.0 -0.0009096630127 -0.06288194891
625.625 0.001381340748 -0.0362007682
626.25 0.002755081513 -0.01770708324
626.875 0.05224714479 0.004998459536
627.5 0.06233326905 -0.0202358221
628.125 0.06545040787 -0.006910837591
628.75 0.05640106713 -0.005544354207
629.375 0.08115066779 0.04440869472
630.0 0.07590829138 0.03307616218
630.625 0.07990894286 0.03374032594
631.25 0.07157755594 0.02049001112
631.875 0.06051382642 0.03946473168
632.5 0.07146406051 0.02138608194
633.125 0.04685709776 0.02430917748
633.75 0.04297238796 0.01272742667
634.375 0.01933734649 0.05120971218
635.0 0.03264465994 0.02408802834
635.625 0.04272433197 0.02478640674
636.25 0.04307305181 0.04201650591
636.875 0.05058942833 0.04442248471
637.5 0.009959100379 0.06270461804
638.125 0.005935660176 0.05879670332
638.75 0.01308010378 0.08312187817
639.375 -0.001488565776 0.08810588107
640.0 -0.0407264716 0.06534584046
640.625 -0.03242084785 0.05111703871
641.25 -0.01928436695 0.06586228938
641.875 -0.05221878905 0.03051362004
642.5 -0.06424863301 0.01820469879
643.125 -0.05086981149 0.03134651165
643.75 -0.06959103939 0.01000130783
644.375 -0.06615774638 -0.002945497493
645.0 -0.09571254968 -0.008584076571
645.625 -0.09885226855 0.01210521787
646.25 -0.07317597026 0.04739576858
646.875 -0.05942366222 0.01774512456
647.5 -0.07725376906 -0.008802678876
648.125 -0.08236649256 -0.0003258905146
648.75 -0.07696386437 0.01405379377
649.375 -0.04486148322 -0.001985682035
650.0 -0.02855073725 -0.03853395336
650.625 -0.01590329803 -0.05992436306
651.25 -0.005851640214 -0.05213089174
651.875 0.02809062667 -0.04543978849
652.5 0.05431896852 -0.04054304291
653.125 0.1249804042 -0.03398723861
653.75 0.09495944151 -0.02591815689
654.375 0.09804870329 -0.01209186939
655.0 0.1346835908 0.001888091748
655.625 0.09593034664 -0.0006246512963
656.25 0.0643889796 -0.02114457204
656.875 0.05484748173 -0.02360543812
657.5 0.06862748516 -0.01618659694
658.125 0.09095778155 0.02575654799
658.75 0.05144377203 0.02468713843
659.375 0.05575471557 0.01093984492
660.0 0.08322829399 0.001504363216
660.625 0.1204120138 -0.01538135565
661.25 0.1035186421 -0.03354907056
661.875 0.06248262469 -0.06730016388
662.5 0.07256019257 -0.08759883013
663.125 0.08078116104 -0.09053973631
663.75 0.09446094316 -0.05641783756
664.375 0.1023841089 0.01334855613
665.0 0.05419008385 0.05944108483
665.625 0.03143423491 0.05832228062
666.25 0.02026305926 0.04594020541
666.875 -0.0340006985 0.07023215463
667.5 -0.0864168199 0.0516976851
668.125 -0.06477434202 0.04062249765
668.75 -0.04919882509 0.06574764355
669.375 -0.0723166746 0.08829658374
670.0 -0.07982390462 0.06060003334
670.625 -0.06078702564 0.04259819236
671.25 -0.047427568 0.07906632428
671.875 -0.03777836678 0.105596803
672.5 -0.002713853203 0.08536159799
673.125 0.007539574582 0.06832711079
673.75 -0.004113796896 0.05792118622
674.375 -0.03900417564 0.07479353856
675.0 -0.06920043959 0.07895587648
675.625 -0.08088059707 0.04137861335
676.25 -0.09176967291 0.004895001531
676.875 -0.1014699501 -0.02351609148
677.5 -0.1266834038 -0.008486269683
678.125 -0.1284248977 0.01142543143
678.75 -0.1202551553 -0.01031135939
679.375 -0.0678148118 -0.02181395636
680.0 -0.05165775244 -0.01291136769
680.625 -0.1078175863 -0.005173714545
681.25 -0.09717296114 -0.02380275736
681.875 -0.04613596727 -0.02146372914
682.5 -0.07110462023 -0.01135127677
683.125 -0.1118506724 0.01491338678
683.75 -0.1328938845 -0.006546931438
684.375 -0.09232381688 -0.06584513472
685.0 -0.03180071867 -0.0979177675
685.625 0.0441632442 -0.122007342
686.25 0.08997257645 -0.1331622851
686.875 0.09439527934 -0.08933735714
687.5 0.09819092968 -0.04944906779
688.125 0.0725417855 -0.008741955333
688.75 0.08245256178 0.007210455427
689.375 0.07487873572 0.02153292426
690.0 0.05841740687 0.05509528987
690.625 0.05689168296 0.07833956544
691.25 0.09626164814 0.0477611247
691.875 0.1235025332 -0.009069429948
692.5 0.1060473258 -0.1057917981
693.125 -0.002357671207 -0.1479865349
693.75 -0.06995668482 -0.07898516176
694.375 -0.1051633395 -0.06049206008
695.0 -0.07296698121 -0.1233785883
695.625 0.05266171421 -0.07482138486
696.25 0.07951838322 0.0104047677
696.875 0.0552754794 0.07623704488
697.5 -0.03305180846 0.08633458341
698.125 -0.07385376575 0.05488871831
698.75 -0.09048868171 0.07559257433
699.375 -0.08469212176 0.1135461458
700.0 -0.08911315611 0.0690186869
700.625 -0.09264998136 0.03602120733
701.25 -0.1168922759 0.03064075107
701.875 -0.1302637873 0.07026656852
702.5 -0.06176781091 0.05860529255
703.125 -0.04039764994 0.02993785053
703.75 -0.01368601607 0.1085349056
704.375 0.0585217722 0.1524132321
705.0 0.05547345914 0.1163568144
705.625 0.02242525034 0.09858124687
706.25 -0.06265189637 0.1077041839
706.875 -0.1543310849 -0.005477143758
707.5 -0.1390049703 -0.05593308806
708.125 -0.07921532273 -0.07665716832
708.75 -0.004160782772 -0.08362704036
709.375 0.06524228925 -0.0623865374
710.0 0.09036249605 -0.03286923369
710.625 0.06953590808 0.02605968885
711.25 0.03958592307 0.04777869781
711.875 0.03848266261 0.0574761048
712.5 0.08147319935 0.02167644403
713.125 0.1315946177 -0.02245543498
713.75 0.09757992276 -0.09799459401
714.375 -0.002947391093 -0.1302654579
715.0 -0.09406907389 -0.09593000027
715.625 -0.06013931745 -0.1314296709
716.25 0.01188751412 -0.114731312
716.875 0.04427743576 -0.06700476044
717.5 0.07576241143 -0.02305891907
718.125 0.09652988699 -0.02534648273
718.75 0.08743533364 0.04622955773
719.375 0.02416549213 0.06545387984
720.0 -0.002457990869 0.06913254069
720.625 -0.08041750053 0.04358883247
721.25 -0.09267369505 -0.06248642429
721.875 -0.00896894567 -0.1182841695
722.5 0.01760487967 -0.1325905038
723.125 -0.08652095968 -0.08109776643
723.75 -0.09340670221 -0.03595692765
724.375 -0.08651907237 -0.03717474719
725.0 -0.08098450139 0.024746101
725.625 -0.04180686644 0.04461661663
726.25 -0.02511583863 0.02644082686
726.875 -0.0955950522 -0.002568801254
727.5 -0.1043361577 -0.0310731528
728.125 -0.09109559397 -0.06986362019
728.75 -0.07236004792 -0.00731707751
729.375 -0.07683939633 -0.0005273706561
730.0 -0.09184078312 -0.07599173763
730.625 -0.06230739659 -0.06584470511
731.25 -0.03682218192 -0.05546742876
731.875 0.02687109128 -0.07783092389
732.5 0.07572804894 -0.0148345238
733.125 0.05257520156 0.0303618915
733.75 0.07331416745 0.03351766924
734.375 0.09096278148 0.01845850911
735.0 0.1276826367 -0.01153554841
735.625 0.09268957459 -0.05481925967
736.25 0.04099291094 -0.06170047132
736.875 0.05273901485 -0.07715139394
737.5 0.05573142823 -0.04103221864
738.125 0.04351053594 -0.001050206309
738.75 0.04445989559 0.04698946248
739.375 0.06231412559 0.08131195531
740.0 0.07124013504 0.05602827439
740.625 0.07418298495 0.01453342407
741.25 0.07768726262 0.03010398854
741.875 -0.01686123528 0.03535493922
742.5 -0.05481478565 0.04316917736
743.125 -0.08750782014 -0.03562303181
743.75 -0.04397296738 -0.0851081781
744.375 0.02798398077 -0.04655740739
745.0 -0.02371076596 -0.07419408496
745.625 -0.07017353308 -0.05093706974
746.25 -0.06202310753 -0.009542194951
746.875 0.0007451844223 -0.01936394925
747.5 -0.02864813249 -0.0203311395
748.125 -0.06516830168 0.004595234046
748.75 -0.05258158006 0.02575522358
749.375 -0.006210535459 0.06344709642
750.0 0.007918971618 0.09023094272
