!Created with skrf (http://scikit-rf.org).
# GHz S RI R 50.0 
!freq ReS11 ImS11
500.0 -0.00527025905 0.007598887537
500.625 0.008158925929 0.004429463981
501.25 -0.0001095598844 -0.01764935129
501.875 -0.02125321259 -0.0284054904
502.5 -0.01544060917 -0.01301030731
503.125 -0.006497781523 0.00281942657
503.75 -0.005026156547 -0.006564135788
504.375 -0.009694125409 -0.01081195344
505.0 -0.006440679152 -0.0127109163
505.625 -0.007828898015 -0.02318678685
506.25 -0.03163187056 -0.02890720524
506.875 -0.04452086917 -0.06217108465
507.5 -0.05487184495 -0.03785296917
508.125 -0.03866494173 -0.05039495615
508.75 -0.0820312344 -0.02080225471
509.375 -0.08159505921 -0.005717134775
510.0 -0.05866335397 -0.008526094587
510.625 -0.02548748813 0.02318494317
511.25 -0.04602424514 0.0376931791
511.875 -0.02216201627 0.0597465677
512.5 0.01678583423 0.04459881271
513.125 0.0691623171 -0.001666458646
513.75 0.09054165551 -0.02534157083
514.375 0.05850401374 -0.04454218108
515.0 0.0267854478 -0.05592761019
515.625 0.07110044196 -0.04179956313
516.25 0.06849927828 -0.05468159892
516.875 0.08692229167 0.03625464981
517.5 0.09106844936 -0.03878576663
518.125 0.1995372932 0.07470729186
518.75 0.09092856399 -0.07951653499
519.375 0.0666433009 -0.04845794428
520.0 0.03487670535 -0.06914232734
520.625 0.05006262869 -0.1046010705
521.25 0.02148046054 -0.1051606068
521.875 0.0360013518 -0.05336127433
522.5 0.0005401037102 -0.08579384571
523.125 0.01152699364 -0.2250360413
523.75 -0.04111094128 -0.2953852305
524.375 -0.03312528652 -0.2854880135
525.0 -0.03706944049 -0.1416901175
525.625 -0.0295287609 -0.1127875904
526.25 -0.003018138918 -0.09221115072
526.875 -0.02723117656 -0.07723811268
527.5 -0.06721613424 -0.07725616646
528.125 -0.07721961569 -0.03898427334
528.75 -0.07756210845 -0.02358815972
529.375 -0.1131602563 0.05267650078
530.0 -0.06755628089 0.1209682336
530.625 0.02924849697 0.1113219774
531.25 0.01777783951 0.07736691517
531.875 0.01098341758 0.1084273358
532.5 0.01210216957 0.1589439439
533.125 0.01373213795 0.1289362184
533.75 0.03545164201 0.0865629697
534.375 0.0467776106 0.09351247472
535.0 0.05820499001 0.1219663975
535.625 0.0123584037 0.105906914
536.25 0.07417301814 0.05285758386
536.875 0.06872028496 0.07456622485
537.5 0.009150337492 0.0921214261
538.125 0.007482429667 0.08183005847
538.75 0.05041255625 0.1021895471
539.375 0.03851285298 0.1540562394
540.0 0.04085884426 0.1198527988
540.625 0.035189378 0.09180717128
541.25 0.03980052921 0.1035660983
541.875 0.02713582612 0.1174250289
542.5 -0.01265382625 0.06184588031
543.125 0.001737213904 0.05653148772
543.75 0.0630927801 0.07980376299
544.375 0.1045086955 0.08849882725
545.0 0.1153924401 -0.009476368809
545.625 0.07504961098 -0.07199496255
546.25 0.04971716788 -0.1173477643
546.875 0.05323729734 -0.109881507
547.5 0.06777293268 -0.1041600899
548.125 0.0936031691 -0.1179122633
548.75 0.1364147889 -0.08748148493
549.375 0.1503751507 -0.05415028498
550.0 0.1546320941 -0.0008861874922
550.625 0.188945201 -0.009141130241
551.25 0.136955839 0.0743420165
551.875 0.1033465738 0.02150152256
552.5 0.09145870808 -0.008316343563
553.125 0.1117460842 -0.02975172345
553.75 0.09232689354 0.01701402861
554.375 0.05478293516 0.0002001505036
555.0 0.06361999962 -0.006468863438
555.625 0.09296984035 -0.02006069075
556.25 0.09394384651 0.01329698099
556.875 0.06005467643 0.02311306985
557.5 0.07162060433 0.02608322697
558.125 0.09061092273 0.06076229794
558.75 0.0633378211 0.09520156215
559.375 0.0812132822 0.08025400525
560.0 0.1059581257 0.06945321602
560.625 0.1087675441 0.04566065935
561.25 0.08714545009 0.00478940993
561.875 0.07841228356 -0.01748739534
562.5 0.08276175851 -0.02208255051
563.125 0.0700756142 -0.02380036411
563.75 0.05211848144 -0.02869435665
564.375 0.05722468116 -0.05402027906
565.0 0.1189813645 -0.06187130587
565.625 0.1039582298 -0.0468547755
566.25 0.09068129687 -0.03707523069
566.875 0.09723615513 -0.03700011395
567.5 0.1169452712 0.002804742327
568.125 0.08985715021 0.05380805417
568.75 0.09396504122 0.05570416178
569.375 0.111205672 0.06482150443
570.0 0.1113468395 0.05720721955
570.625 0.09454265156 0.03617334421
571.25 0.0941451992 0.0105059601
571.875 0.1030095594 0.003297239476
572.5 0.06871661657 -0.02399249601
573.125 0.04743133837 -0.0225281627
573.75 0.06846332862 -0.03927109775
574.375 0.08725759664 -0.06115683626
575.0 0.06318706332 -0.05995955224
575.625 0.03042200528 -0.05612984404
576.25 0.04025623203 -0.06751460761
576.875 0.07118530923 -0.0543113868
577.5 0.069527194 -0.04640932124
578.125 0.06238669867 -0.05874214681
578.75 0.0738163525 -0.08612177584
579.375 0.09859616087 -0.0772861649
580.0 0.08014805055 -0.06682107218
580.625 0.0652782058 -0.09395419268
581.25 0.04667892601 -0.1128151836
581.875 0.04309324156 -0.07702717316
582.5 0.03825630607 -0.04191552555
583.125 0.05788820824 -0.04892352142
583.75 0.08232209803 -0.04920480823
584.375 0.07413863114 -0.03352056128
585.0 0.06249016606 -0.0161336506
585.625 0.07582048253 -0.009738573562
586.25 0.09080924325 -0.002818576043
586.875 0.07082923048 -0.01196563306
587.5 0.06272972386 -0.02929394201
588.125 0.07536103755 -0.05350157575
588.75 0.08623866815 -0.05524923867
589.375 0.0531359954 -0.08169215311
590.0 -0.003450849225 -0.1027007917
590.625 -0.02602620958 -0.09811084437
591.25 -0.003587143663 -0.0526120998
591.875 0.0103869284 -0.03189848466
592.5 0.0142226128 -0.05076134783
593.125 0.02739282936 -0.07636795334
593.75 0.04685492485 -0.05976658786
594.375 0.05687214985 -0.0343080592
595.0 0.07546895743 -0.02913088213
595.625 0.09343805915 -0.01229741346
596.25 0.08276517658 0.007107349797
596.875 0.06725716972 0.0185861816
597.5 0.07113194665 0.02943339959
598.125 0.07963594099 0.03060187362
598.75 0.0865977519 0.006242925817
599.375 0.08663730127 -0.008236102625
600.0 0.07640962867 -0.01297379136
600.625 0.05330247852 -0.01165463008
601.25 0.03324458516 -0.01305839177
601.875 0.02854792995 0.0009903822783
602.5 0.0242396713 0.01631055178
603.125 0.01302226351 0.02619133945
603.75 0.01696871744 0.032409343
604.375 0.03060464876 0.03723104634
605.0 0.02687523113 0.03886559539
605.625 0.008175791951 0.02541875765
606.25 -0.01063895578 0.02841991464
606.875 -0.01634495287 0.04760460008
607.5 -0.0027349644 0.0613411608
608.125 0.0215788165 0.04637854922
608.75 0.02331192138 0.03600763886
609.375 0.01894988904 0.03709897784
610.0 0.01592205893 0.03585797443
610.625 0.02147836986 0.0204998323
611.25 0.01643239304 0.007591310787
611.875 0.008701008459 -0.003726199584
612.5 -0.004362911896 -0.01236534501
613.125 -0.0145776692 -0.0110512793
613.75 -0.0178225635 -0.0006867068174
614.375 -0.008062745649 0.004152013066
615.0 -0.0001612064517 -0.003211680813
615.625 -0.002709591331 -0.01187539317
616.25 -0.008509953413 -0.00560332124
616.875 -0.0009981923801 0.004252238598
617.5 0.01149693498 0.0004060189361
618.125 0.02063467141 -0.008190231803
618.75 0.02064839691 -0.008429265422
619.375 0.02971758868 -0.004170617879
620.0 0.04530758076 -0.01263557469
620.625 0.04984916769 -0.03992279078
621.25 0.04443393491 -0.05021459262
621.875 0.03132598385 -0.06015453652
622.5 -0.02655758698 -0.05056860574
623.125 -0.02475862131 -0.02411933533
623.75 -0.005566099554 -0.01192126627
624.375 0.0147382848 -0.0093266936
625.0 0.02550124035 0.001647101132
625.625 0.02236105686 0.01051810656
626.25 0.03627068012 0.01962190437
626.875 0.06451583459 0.02228301857
627.5 0.07406992395 0.03624282438
628.125 0.06319230828 0.03488093786
628.75 0.065639632 0.03649793216
629.375 0.07882262135 0.04771658909
630.0 0.07404597501 0.06661613002
630.625 0.05607325098 0.05936697845
631.25 0.05635495624 0.05224260582
631.875 0.05036917661 0.05481487482
632.5 0.03438622556 0.05367728478
633.125 0.01492701235 0.04719798565
633.75 0.02158101284 0.05347229549
634.375 0.01371845675 0.0637061717
635.0 0.01047982536 0.06088172133
635.625 0.01633544222 0.07020479131
636.25 0.02881777785 0.08720309685
636.875 0.02072773007 0.08863535152
637.5 0.009269326544 0.0636077927
638.125 0.002083221659 0.07789570346
638.75 -0.0128148086 0.1181793932
639.375 -0.04609639774 0.1043347868
640.0 -0.04651107243 0.06760105366
640.625 -0.04616220579 0.06002153681
641.25 -0.08120272818 0.05034993732
641.875 -0.08693275413 0.01178973151
642.5 -0.0736226886 0.006935721707
643.125 -0.08163886407 0.01010546461
643.75 -0.09872335987 -0.01394316962
644.375 -0.09939531847 -0.03246159716
645.0 -0.09733590047 -0.009461763859
645.625 -0.1181411547 0.01173362938
646.25 -0.1134267707 0.01242832575
646.875 -0.09388117472 -0.009534809121
647.5 -0.08850096311 -0.01003466036
648.125 -0.1097127374 -0.01068515829
648.75 -0.0909827762 -0.03349401111
649.375 -0.05863204545 -0.03597941316
650.0 -0.04190367826 -0.0551943733
650.625 -0.01091791857 -0.08707037082
651.25 0.02388313594 -0.08292907054
651.875 0.04638673051 -0.0647620805
652.5 0.08346529592 -0.06670551841
653.125 0.1392860533 -0.035218857
653.75 0.1292431255 -0.005447848817
654.375 0.1260033441 -0.005720875633
655.0 0.1431105831 -0.0008454220356
655.625 0.130554273 0.02537560909
656.25 0.08705733751 0.01476525478
656.875 0.08753768248 -0.01992072469
657.5 0.1108681104 -0.004580913776
658.125 0.09330425139 0.0240927195
658.75 0.06348102716 0.03255257212
659.375 0.07971823165 0.01277728463
660.0 0.1230712132 -0.009025167064
660.625 0.1251062409 -0.02052193588
661.25 0.1128848016 -0.04493926099
661.875 0.1027268233 -0.09096460845
662.5 0.09687374883 -0.1186494078
663.125 0.09696437517 -0.09632202049
663.75 0.1105520808 -0.06007300754
664.375 0.1362198384 0.02555571167
665.0 0.0735226442 0.08447149602
665.625 0.03799174496 0.07967739281
666.25 0.02086688084 0.08496577608
666.875 -0.03802443618 0.1172687852
667.5 -0.09375129608 0.071053325
668.125 -0.07887182821 0.06034335869
668.75 -0.06732232101 0.1002101268
669.375 -0.08751069039 0.1286103108
670.0 -0.1002173377 0.08673446749
670.625 -0.08132040221 0.05997805989
671.25 -0.06366462331 0.1081388342
671.875 -0.04604595228 0.1348292354
672.5 0.002951859094 0.1214999272
673.125 0.01264743377 0.09357037087
673.75 0.001063711202 0.1032771169
674.375 -0.03558498369 0.111939073
675.0 -0.0665284411 0.09155134422
675.625 -0.09925011319 0.07613415405
676.25 -0.1423425938 0.01683546078
676.875 -0.1365750553 -0.01425440089
677.5 -0.1368338847 0.00130759436
678.125 -0.1620164233 0.02947496922
678.75 -0.162777426 -0.01804029853
679.375 -0.0912443752 -0.02973678644
680.0 -0.07980075169 -0.01136765592
680.625 -0.1102791989 0.0004818752659
681.25 -0.1284230052 -0.009148718024
681.875 -0.08890898622 -0.01993308607
682.5 -0.08789050698 0.01500155229
683.125 -0.1260991914 0.04762892458
683.75 -0.1614120733 0.02263384592
684.375 -0.1288060128 -0.06835682113
685.0 -0.05716091274 -0.1215913972
685.625 0.02658642135 -0.1583013294
686.25 0.08631401495 -0.1381161528
686.875 0.1026858906 -0.1164799399
687.5 0.1222614839 -0.07938215454
688.125 0.1079692049 -0.0313689157
688.75 0.08534830138 0.002303761726
689.375 0.09037490703 0.01096028487
690.0 0.1239777856 0.04394080859
690.625 0.09955594643 0.07601870604
691.25 0.1030577241 0.04068576988
691.875 0.1271970665 -0.04303340837
692.5 0.0943985728 -0.1812525223
693.125 -0.03769663182 -0.1930164428
693.75 -0.1063073906 -0.08679401016
694.375 -0.1254542796 -0.05575073066
695.0 -0.1046975012 -0.130446558
695.625 0.04813825178 -0.1476950827
696.25 0.1079387893 -0.01788861376
696.875 0.07856310617 0.07072629878
697.5 -0.004930379396 0.1134510643
698.125 -0.05526497418 0.1092223311
698.75 -0.06829951775 0.1180528085
699.375 -0.08183140861 0.1199287694
700.0 -0.08996183612 0.09183605605
700.625 -0.09945035451 0.06437762679
701.25 -0.118521901 0.08375053788
701.875 -0.1351127202 0.08930212989
702.5 -0.05987462248 0.08000841482
703.125 -0.01757372535 0.06951172121
703.75 0.04954882751 0.09880579323
704.375 0.1167580239 0.1388117122
705.0 0.08446204698 0.1179327794
705.625 0.04304980458 0.1033786505
706.25 -0.0246947564 0.1318815965
706.875 -0.1619759699 0.06953819407
707.5 -0.1514043646 -0.0478436755
708.125 -0.09781655428 -0.07363541945
708.75 -0.0572436835 -0.1032225092
709.375 0.03231708718 -0.1096034276
710.0 0.0920879758 -0.05399728901
710.625 0.0926737243 -0.018377368
711.25 0.08470191177 0.00798733057
711.875 0.06823184922 0.0182637331
712.5 0.08453448504 0.01338256844
713.125 0.1148689671 -0.0696361902
713.75 0.03967519189 -0.1532669258
714.375 -0.06041120851 -0.1266614543
715.0 -0.1124880122 -0.07504799682
715.625 -0.1338505814 -0.09856380913
716.25 -0.05499029213 -0.1466338741
716.875 0.01566124678 -0.1003198624
717.5 0.04842943754 -0.0698122736
718.125 0.08866692795 -0.05519265372
718.75 0.1093499839 -0.008555601656
719.375 0.07401829758 0.02686061917
720.0 0.04074155775 0.04662243562
720.625 -0.02610350493 0.06843430702
721.25 -0.09704456384 -0.01004725191
721.875 -0.05678472372 -0.0976407244
722.5 -0.04698929891 -0.1115427995
723.125 -0.09884100476 -0.08294967492
723.75 -0.111528089 0.006094574482
724.375 -0.06905983708 0.06078778406
725.0 -0.01483138045 0.07528802244
725.625 0.0108754055 0.05725870212
726.25 0.003982149474 0.03844734302
726.875 -0.02523691011 0.0353282665
727.5 -0.0681792988 0.02961676743
728.125 -0.08249111022 0.008757325016
728.75 -0.07129493018 0.01413195692
729.375 -0.04958978334 0.03252019118
730.0 -0.04974357507 0.02566884857
730.625 -0.05455059507 0.009101654355
731.25 -0.04482393251 -0.007247839308
731.875 -0.0305337342 -0.02676371813
732.5 -0.009018371368 -0.030414235
733.125 0.008279693779 -0.01255584163
733.75 0.01473985636 0.0006308661855
734.375 0.02643695311 -0.003996440085
735.0 0.02393081772 -0.02283931616
735.625 0.01313015656 -0.02317611694
736.25 0.006590915618 -0.03090558585
736.875 -0.009806863651 -0.03453433328
737.5 -0.02509875675 -0.02147628744
738.125 -0.03208341723 0.002413100971
738.75 -0.02881981086 0.02909434243
739.375 -0.007353280876 0.0385373834
740.0 0.006819762581 0.02570328178
740.625 0.003404785754 0.01899092969
741.25 -0.008198832378 0.03374699879
741.875 -0.02693346185 0.02667879454
742.5 -0.03704899961 -0.01026990875
743.125 -0.006830238798 -0.04032914727
743.75 0.02669223375 -0.0397314317
744.375 0.02582014971 -0.04028369716
745.0 0.01556356467 -0.04733642235
745.625 -0.00474626717 -0.0373257032
746.25 0.01119643814 -0.02105347436
746.875 0.01742416321 -0.03663657068
747.5 -0.008978305797 -0.05299954057
748.125 -0.04008297394 -0.04649633121
748.75 -0.06100658621 -0.01267247797
749.375 -0.05827388334 0.03928922497
750.0 0.005264830168 0.08735195607
