!Created with skrf (http://scikit-rf.org).
# GHz S RI R 50.0 
!freq ReS11 ImS11
500.0 -0.005734826194 0.008765462855
500.625 0.008540294983 0.002783776641
501.25 0.001831591494 -0.01811409847
501.875 -0.02053145775 -0.02855542714
502.5 -0.01813978951 -0.01134282613
503.125 -0.006397411969 0.002459225403
503.75 -0.004929272974 -0.006556700768
504.375 -0.009519482257 -0.01065202445
505.0 -0.007021173927 -0.0129602658
505.625 -0.006731562343 -0.02154835175
506.25 -0.03170396425 -0.02804515831
506.875 -0.04335542004 -0.06160569614
507.5 -0.05463160969 -0.03800548893
508.125 -0.03835543072 -0.05027284444
508.75 -0.08200145421 -0.02104074049
509.375 -0.0807090276 -0.006523450102
510.0 -0.05919248797 -0.009675446419
510.625 -0.02572047949 0.02319614735
511.25 -0.04442751229 0.03788343836
511.875 -0.02526135071 0.0603347413
512.5 0.01750654365 0.04869937971
513.125 0.06952633252 4.67357967e-05
513.75 0.09135542237 -0.02448022649
514.375 0.05826053738 -0.04437297082
515.0 0.02682316409 -0.05623985919
515.625 0.07216711945 -0.03891802982
516.25 0.06681868499 -0.05383025383
516.875 0.08889867467 0.03783662899
517.5 0.09200478089 -0.03736420669
518.125 0.1974201549 0.07178916203
518.75 0.09033286609 -0.08040365241
519.375 0.06699666764 -0.04848497136
520.0 0.03614630092 -0.06900001771
520.625 0.04925800905 -0.1055608705
521.25 0.02023628702 -0.1050719338
521.875 0.03637643452 -0.05316276285
522.5 0.0005609083312 -0.0855874678
523.125 0.01450799708 -0.2262513839
523.75 -0.04142901366 -0.2956418619
524.375 -0.03344742453 -0.2867423433
525.0 -0.0373530646 -0.1415465124
525.625 -0.0293836124 -0.1125460196
526.25 -0.00300087048 -0.09216237462
526.875 -0.02716175488 -0.0776212499
527.5 -0.0674314068 -0.0772518858
528.125 -0.07754072666 -0.03880528594
528.75 -0.07753882619 -0.02337304103
529.375 -0.1130347245 0.0527214249
530.0 -0.06747605751 0.1208699527
530.625 0.02892693574 0.1113369047
531.25 0.01775589617 0.07718466276
531.875 0.01075502143 0.1084709048
532.5 0.01156006994 0.1589466992
533.125 0.01374127192 0.1289971664
533.75 0.03549661758 0.08642009626
534.375 0.04706027827 0.09333069283
535.0 0.05862410433 0.1217523903
535.625 0.01294869222 0.105919326
536.25 0.07439244106 0.05253589085
536.875 0.06903080354 0.07441304992
537.5 0.009203338196 0.09226945279
538.125 0.007296144 0.08189967469
538.75 0.05023770268 0.1024260823
539.375 0.03808237413 0.1540431849
540.0 0.04056159853 0.1199685086
540.625 0.03523510515 0.09176601152
541.25 0.04018588825 0.1032867039
541.875 0.02761946342 0.1173621424
542.5 -0.01218127799 0.06188320809
543.125 0.001969187787 0.05644765328
543.75 0.06327287336 0.07959725072
544.375 0.1046944622 0.08845648808
545.0 0.1154009484 -0.009345442488
545.625 0.07500332579 -0.07206126704
546.25 0.04955138282 -0.1174389341
546.875 0.05288191954 -0.1101618834
547.5 0.06738417405 -0.1043304745
548.125 0.09280348316 -0.1181799741
548.75 0.1361311471 -0.08808481769
549.375 0.150299897 -0.05436994858
550.0 0.1545355196 -0.001154141793
550.625 0.1888998547 -0.00951756489
551.25 0.1370017455 0.07416932746
551.875 0.1032550705 0.02159285256
552.5 0.09143869768 -0.008307233337
553.125 0.1116433662 -0.03006071465
553.75 0.09269263937 0.01665472844
554.375 0.05486319395 -7.359730445e-05
555.0 0.06340226253 -0.006966799326
555.625 0.09265913554 -0.02089389238
556.25 0.09398369409 0.01249515986
556.875 0.06006277076 0.02278877792
557.5 0.07156526625 0.02583977139
558.125 0.09068811155 0.06056798426
558.75 0.06331660859 0.09517274746
559.375 0.08121155219 0.08022464065
560.0 0.105996515 0.06935798125
560.625 0.1088640647 0.04548770564
561.25 0.08710898253 0.004754244919
561.875 0.07839655149 -0.01751146711
562.5 0.0827281474 -0.02220740434
563.125 0.06997731652 -0.02385279026
563.75 0.05211122106 -0.02865369626
564.375 0.05713648865 -0.05399208986
565.0 0.1189409086 -0.06184354942
565.625 0.1038894787 -0.04714053183
566.25 0.09058939632 -0.03723237133
566.875 0.097124 -0.03723908732
567.5 0.1169257945 0.002442485131
568.125 0.09005090888 0.05357328058
568.75 0.09422766496 0.05533036238
569.375 0.1113723757 0.06450257538
570.0 0.1114546272 0.05705447556
570.625 0.09459609669 0.0361478479
571.25 0.09433117281 0.0103996994
571.875 0.1030788209 0.003287046294
572.5 0.06857847752 -0.02384199444
573.125 0.04735831112 -0.02225697907
573.75 0.06868889633 -0.038983192
574.375 0.08747806141 -0.06103476213
575.0 0.0632022484 -0.05981755341
575.625 0.03046485394 -0.05627675321
576.25 0.04018740629 -0.06772104834
576.875 0.07118795621 -0.05450816314
577.5 0.06951593294 -0.0465892563
578.125 0.06222200778 -0.05875424478
578.75 0.07378469161 -0.08617042772
579.375 0.0987193142 -0.07750657049
580.0 0.08012167223 -0.06691095659
580.625 0.06512319513 -0.09401063388
581.25 0.04636122696 -0.1129401347
581.875 0.04283859115 -0.07705961381
582.5 0.03820602522 -0.04200094007
583.125 0.05781311495 -0.04883075841
583.75 0.08240836373 -0.0489179607
584.375 0.07418731533 -0.03343377073
585.0 0.06238501816 -0.01604882706
585.625 0.07598257871 -0.009474464926
586.25 0.09078673109 -0.002677849888
586.875 0.07100378889 -0.01194101248
587.5 0.06258301494 -0.02924045212
588.125 0.07541114364 -0.05357703112
588.75 0.0860382002 -0.05541797217
589.375 0.0529296954 -0.08195965324
590.0 -0.003549190854 -0.102749164
590.625 -0.02625620153 -0.0981751944
591.25 -0.003751048335 -0.05257704834
591.875 0.0102089018 -0.0318663677
592.5 0.01430997507 -0.05071818826
593.125 0.02749843925 -0.07642643069
593.75 0.04705715185 -0.05955460006
594.375 0.05708829629 -0.03393850025
595.0 0.07591862227 -0.02874928653
595.625 0.09351847538 -0.01175513504
596.25 0.08275474223 0.007480273186
596.875 0.06713901216 0.01875650885
597.5 0.0710915965 0.02948244409
598.125 0.07956542844 0.03068066879
598.75 0.08653024966 0.006366490381
599.375 0.08670104677 -0.008353448559
600.0 0.07635819363 -0.01289965425
600.625 0.05342515802 -0.011519709
601.25 0.03329873222 -0.01294860027
601.875 0.02839374609 0.001182895201
602.5 0.02411249521 0.01647532813
603.125 0.01294308062 0.026264853
603.75 0.01694589398 0.03241266644
604.375 0.03045171902 0.03724515844
605.0 0.02689088406 0.03887417833
605.625 0.008095457677 0.02549157704
606.25 -0.01074322281 0.02842745439
606.875 -0.01661841465 0.04754242128
607.5 -0.002921301814 0.06134052855
608.125 0.0213601534 0.0464973073
608.75 0.02328869791 0.03602565557
609.375 0.01900441302 0.03711626979
610.0 0.01595810306 0.03589885525
610.625 0.02153666102 0.02052838693
611.25 0.01645484419 0.007649576613
611.875 0.008631090481 -0.003728585984
612.5 -0.0044571804 -0.01237371119
613.125 -0.0146065843 -0.01119574875
613.75 -0.01788108082 -0.0006339048818
614.375 -0.008062711348 0.004179794204
615.0 -0.0001191925249 -0.003117830853
615.625 -0.002693874725 -0.01190959285
616.25 -0.008527115182 -0.005548876422
616.875 -0.00100239617 0.004204455119
617.5 0.01147995221 0.0003815023865
618.125 0.02061892648 -0.008293566917
618.75 0.02063969475 -0.008438605315
619.375 0.02969124281 -0.004132208967
620.0 0.04539213782 -0.01268736961
620.625 0.04996217217 -0.03975760095
621.25 0.04438864617 -0.05015812866
621.875 0.03127857489 -0.06007299336
622.5 -0.02657874365 -0.05053635969
623.125 -0.02462569595 -0.0241195171
623.75 -0.005632807234 -0.0119267129
624.375 0.01479729353 -0.009344500232
625.0 0.0255351553 0.001687561175
625.625 0.02239444132 0.01076210012
626.25 0.03624171473 0.01966773997
626.875 0.06442831726 0.02223056277
627.5 0.07407597976 0.03619400015
628.125 0.0631828429 0.03486471037
628.75 0.06563602551 0.03631909983
629.375 0.07882821949 0.04752262972
630.0 0.07411999913 0.06663694973
630.625 0.05613299924 0.05934487051
631.25 0.05628419197 0.05228443832
631.875 0.050106516 0.05494584922
632.5 0.03393028025 0.05374856905
633.125 0.01452390324 0.04717441243
633.75 0.02124235944 0.05363921195
634.375 0.01355561042 0.06364252652
635.0 0.01039339901 0.06100237376
635.625 0.01644772791 0.07006098935
636.25 0.02925372129 0.08697324247
636.875 0.02138530837 0.0885485625
637.5 0.009642297696 0.06352526976
638.125 0.002399763595 0.07763020723
638.75 -0.01273512741 0.1181378918
639.375 -0.04629091375 0.1043794808
640.0 -0.04668268559 0.06741976046
640.625 -0.04624123817 0.05991040394
641.25 -0.08135618192 0.04984307914
641.875 -0.08700051793 0.01172014057
642.5 -0.07353433719 0.007103590239
643.125 -0.08142325806 0.01048472357
643.75 -0.09870899245 -0.01347474215
644.375 -0.09953826056 -0.03222449494
645.0 -0.0972666217 -0.009628105573
645.625 -0.1181093747 0.01149835429
646.25 -0.1134342243 0.01188433928
646.875 -0.09390550866 -0.009765057551
647.5 -0.08841532896 -0.01005017987
648.125 -0.1098299442 -0.0104639689
648.75 -0.09129645856 -0.0331747742
649.375 -0.05893414967 -0.03562589573
650.0 -0.04222565993 -0.05479462185
650.625 -0.01111873582 -0.08698633176
651.25 0.02369126293 -0.08300225792
651.875 0.04649421149 -0.06468769229
652.5 0.08367208224 -0.06647139932
653.125 0.1394481459 -0.03440255086
653.75 0.129343554 -0.005147737824
654.375 0.1259656444 -0.005760715107
655.0 0.1430129679 -0.001276689541
655.625 0.1312110329 0.02459659042
656.25 0.08735520139 0.01419703785
656.875 0.08750641904 -0.02044521199
657.5 0.1108463272 -0.004893460325
658.125 0.09332786766 0.02398841776
658.75 0.06336535877 0.03285872536
659.375 0.07977676771 0.01327496459
660.0 0.123256743 -0.008423465474
660.625 0.1253836938 -0.02028710745
661.25 0.11263351 -0.04512913887
661.875 0.1021769462 -0.09138837089
662.5 0.09616057807 -0.119337183
663.125 0.09654350649 -0.09710611766
663.75 0.1101802879 -0.06064343783
664.375 0.1361904527 0.02535783326
665.0 0.07318655687 0.08451191
665.625 0.03751878726 0.07972847766
666.25 0.02052472586 0.08501075415
666.875 -0.03817596083 0.1174217118
667.5 -0.09367421112 0.07099403883
668.125 -0.07879532488 0.06038446791
668.75 -0.06699673038 0.1003410741
669.375 -0.08718979937 0.1289587716
670.0 -0.1003646096 0.08652425857
670.625 -0.08130143711 0.05968638815
671.25 -0.06397670695 0.1080591019
671.875 -0.04626628443 0.134664038
672.5 0.002504407069 0.1213618051
673.125 0.01277603394 0.09366455097
673.75 0.001728203226 0.1030961613
674.375 -0.03505495953 0.1121148211
675.0 -0.06607180134 0.0916328718
675.625 -0.09882197905 0.07651932817
676.25 -0.1421892195 0.01621919624
676.875 -0.136553269 -0.01518326044
677.5 -0.1370329457 0.0003344867816
678.125 -0.1622731299 0.02821490504
678.75 -0.1622248789 -0.01933613729
679.375 -0.09093566407 -0.03007469745
680.0 -0.07978055479 -0.0111800338
680.625 -0.1101287429 0.001226945827
681.25 -0.1287401722 -0.007794204861
681.875 -0.08914307847 -0.0193024902
682.5 -0.08763919649 0.01529288399
683.125 -0.1255534027 0.04803902542
683.75 -0.1613037689 0.02304447044
684.375 -0.1287150598 -0.06849967528
685.0 -0.05671769791 -0.1217877879
685.625 0.02682431319 -0.1582216488
686.25 0.08658795248 -0.1379010806
686.875 0.1027263525 -0.1163071783
687.5 0.1223721101 -0.07943863691
688.125 0.1079914843 -0.03157772881
688.75 0.0854509968 0.002104254919
689.375 0.0903352952 0.01093631975
690.0 0.1238040157 0.044421324
690.625 0.0991059551 0.07654974308
691.25 0.1029319376 0.04133427982
691.875 0.1274310445 -0.04264753519
692.5 0.09478066541 -0.181292438
693.125 -0.03812819956 -0.1931169886
693.75 -0.106661303 -0.08656451796
694.375 -0.1258111995 -0.05492291628
695.0 -0.1056577535 -0.129749644
695.625 0.04741734537 -0.1481906107
696.25 0.1078883337 -0.01815356349
696.875 0.07832496582 0.07087124899
697.5 -0.005667187985 0.1134025206
698.125 -0.05629904698 0.1089161779
698.75 -0.06914609362 0.1177372831
699.375 -0.0823976921 0.1194828177
700.0 -0.09019725243 0.09190297543
700.625 -0.09939837702 0.06458009489
701.25 -0.118081766 0.08415483926
701.875 -0.1347195202 0.09020155797
702.5 -0.05985692032 0.08041689615
703.125 -0.01758013018 0.06947344637
703.75 0.04941059057 0.09893317884
704.375 0.1160516141 0.1396671176
705.0 0.08369037751 0.1184432526
705.625 0.04252359369 0.1037370506
706.25 -0.02482427472 0.1320936408
706.875 -0.1619752183 0.0696754089
707.5 -0.1516740109 -0.04741593769
708.125 -0.09825171028 -0.07327235139
708.75 -0.05806381677 -0.1030046047
709.375 0.03149283752 -0.109958916
710.0 0.09190630389 -0.05416310783
710.625 0.09278003297 -0.01833506294
711.25 0.08458754474 0.00840945189
711.875 0.06815281801 0.01868094237
712.5 0.08461821261 0.01382982768
713.125 0.1148364867 -0.06964015035
713.75 0.03892385018 -0.1534214527
714.375 -0.0611232702 -0.1264136788
715.0 -0.1127955721 -0.07446630673
715.625 -0.1343641045 -0.09781339136
716.25 -0.05574444847 -0.1464886505
716.875 0.01578207169 -0.1003576787
717.5 0.04852782033 -0.06959894341
718.125 0.08919393122 -0.0547882234
718.75 0.1091681428 -0.007939322146
719.375 0.07375824771 0.02717277018
720.0 0.04067274309 0.04654464397
720.625 -0.02568458027 0.06858363815
721.25 -0.09685048431 -0.009069922051
721.875 -0.05741838676 -0.09705315375
722.5 -0.04720748678 -0.1114530237
723.125 -0.09876995238 -0.08294650611
723.75 -0.1117247846 0.005723577565
724.375 -0.06906537266 0.06024629634
725.0 -0.01531557975 0.07492428895
725.625 0.01050644936 0.05719629558
726.25 0.003877565136 0.03851193201
726.875 -0.0252119009 0.03525710951
727.5 -0.06759371217 0.03017702869
728.125 -0.0825563277 0.009380907938
728.75 -0.07106064925 0.01491783649
729.375 -0.04915693994 0.03279790779
730.0 -0.04953625701 0.02604825003
730.625 -0.05446253391 0.009056878441
731.25 -0.04466387022 -0.007271324409
731.875 -0.03044254563 -0.02676319363
732.5 -0.008925757614 -0.03035625638
733.125 0.008364618329 -0.0125538503
733.75 0.01464076869 0.0005637301849
734.375 0.02630743515 -0.004181018289
735.0 0.02365346269 -0.02291879407
735.625 0.01307790495 -0.02321635187
736.25 0.006529595532 -0.03096663439
736.875 -0.009895635858 -0.03437730721
737.5 -0.02479290085 -0.02149032726
738.125 -0.03215114936 0.002479294835
738.75 -0.02872266604 0.02914188524
739.375 -0.007368709503 0.03848351652
740.0 0.006910859484 0.02546468728
740.625 0.003518028966 0.01914472567
741.25 -0.007783141095 0.03371106177
741.875 -0.02665638169 0.02694213281
742.5 -0.03707402269 -0.009812985608
743.125 -0.007025675466 -0.0403277652
743.75 0.02693660239 -0.03961596601
744.375 0.02592361317 -0.03991827897
745.0 0.01558731867 -0.04719144969
745.625 -0.004595216045 -0.03712344488
746.25 0.01106178115 -0.02111849868
746.875 0.01711700781 -0.03657289366
747.5 -0.009315107748 -0.05268330083
748.125 -0.04027093569 -0.0460070281
748.75 -0.06111475678 -0.0121106861
749.375 -0.05783821672 0.03966109861
750.0 0.005907283763 0.0873231437
