!Created with skrf (http://scikit-rf.org).
# GHz S RI R 50.0 
!freq ReS11 ImS11
500.0 -0.008295180687 0.004568033686
500.625 0.008479279059 0.003009058461
501.25 -0.002632177274 -0.01645532212
501.875 -0.02153751873 -0.0307308981
502.5 -0.0181881017 -0.01211122538
503.125 -0.006338424104 0.003531912006
503.75 -0.005294916029 -0.006303883617
504.375 -0.01133733485 -0.01101101999
505.0 -0.006214266089 -0.01109799836
505.625 -0.00659489356 -0.02232911047
506.25 -0.03034756855 -0.0278161193
506.875 -0.04635546556 -0.06211730671
507.5 -0.05486722689 -0.03618315637
508.125 -0.03777527589 -0.04764651513
508.75 -0.08406066355 -0.0205073411
509.375 -0.08412879738 -0.004482335201
510.0 -0.05882653854 -0.005797801648
510.625 -0.02437363245 0.02341617907
511.25 -0.04464548522 0.03750263245
511.875 -0.02426479482 0.06183046518
512.5 0.01950355931 0.04677464199
513.125 0.06807277815 -0.002473057655
513.75 0.09190149185 -0.02756219553
514.375 0.05681266881 -0.04621267549
515.0 0.02495232683 -0.05611419352
515.625 0.06954247334 -0.04194974533
516.25 0.06770011363 -0.05797784256
516.875 0.08688755197 0.03351364662
517.5 0.08950439489 -0.03946005669
518.125 0.195351921 0.07099813786
518.75 0.09045364952 -0.08452023255
519.375 0.06494081665 -0.04964373418
520.0 0.03404811247 -0.06772553929
520.625 0.04588010501 -0.104413866
521.25 0.01830009278 -0.1080383736
521.875 0.03604428648 -0.05414296339
522.5 -0.0004176044686 -0.08462483693
523.125 0.01201476469 -0.2236880035
523.75 -0.04622602461 -0.2969297324
524.375 -0.03656155555 -0.2877473693
525.0 -0.03939883848 -0.1408687686
525.625 -0.03150899693 -0.1123931764
526.25 -0.005002955845 -0.09382345849
526.875 -0.02848360361 -0.07669596169
527.5 -0.06900973222 -0.07544052883
528.125 -0.07847544243 -0.0373284262
528.75 -0.07907237418 -0.02198008285
529.375 -0.1114543555 0.05420078132
530.0 -0.06519097541 0.1219848389
530.625 0.03230475231 0.1124276165
531.25 0.02069836036 0.07904940995
531.875 0.01446188032 0.1065203718
532.5 0.01549507801 0.1566115527
533.125 0.01701265911 0.1279264448
533.75 0.03782907706 0.08620830586
534.375 0.04793734136 0.09175669756
535.0 0.06019609215 0.1204619381
535.625 0.01416572212 0.1055009726
536.25 0.07603589157 0.051492614
536.875 0.07117770555 0.07287714758
537.5 0.01262772718 0.09105534038
538.125 0.01038761591 0.08140239383
538.75 0.05357157708 0.1003765313
539.375 0.04309983981 0.1528394485
540.0 0.04397690514 0.1192099237
540.625 0.03800066306 0.09118740123
541.25 0.04316970269 0.1027214486
541.875 0.03058489536 0.1166384947
542.5 -0.01090365519 0.06169156272
543.125 0.003145507761 0.05556358698
543.75 0.06498068899 0.07690243369
544.375 0.105426841 0.08554027183
545.0 0.1152222469 -0.01202310453
545.625 0.07334104137 -0.07269386112
546.25 0.04584611759 -0.1189538453
546.875 0.05030986206 -0.1114148528
547.5 0.0655335151 -0.1051750237
548.125 0.09052832184 -0.1194806651
548.75 0.133939936 -0.09174843998
549.375 0.1490268389 -0.05688372434
550.0 0.1543942876 -0.003245975685
550.625 0.1878563033 -0.01308928821
551.25 0.1406021736 0.07219222711
551.875 0.1046279647 0.01957679801
552.5 0.09158225315 -0.009917691604
553.125 0.1109156173 -0.03304346208
553.75 0.09532637139 0.01391527455
554.375 0.05492821883 -0.001536356516
555.0 0.06297162394 -0.008463680742
555.625 0.09133244295 -0.02292069794
556.25 0.09486971048 0.008871680551
556.875 0.06089470258 0.02061127144
557.5 0.07110699755 0.0233719344
558.125 0.09084672858 0.0577658725
558.75 0.06576831341 0.09334303241
559.375 0.08205471784 0.07882412369
560.0 0.106640882 0.0675264929
560.625 0.1097352564 0.0438122701
561.25 0.08860147955 0.002685273491
561.875 0.07797698883 -0.01979820624
562.5 0.08233279634 -0.02555079246
563.125 0.06908337511 -0.02638844033
563.75 0.05069253453 -0.03098081632
564.375 0.05476930447 -0.05462664908
565.0 0.1163332983 -0.06412609286
565.625 0.1028747237 -0.04829555975
566.25 0.09004015716 -0.03942568394
566.875 0.09596675052 -0.03910099714
567.5 0.1165165185 -0.0003077695952
568.125 0.09055898936 0.05217260252
568.75 0.09460179424 0.05387362712
569.375 0.1132817225 0.06198950595
570.0 0.1127166389 0.05503542638
570.625 0.09560462631 0.03451305353
571.25 0.09515760712 0.008117838626
571.875 0.1046032453 -0.0001042916309
572.5 0.06880808561 -0.02585606371
573.125 0.04677033763 -0.02366840594
573.75 0.06674973817 -0.04102033401
574.375 0.08554276369 -0.06351525522
575.0 0.06201564027 -0.06142436768
575.625 0.02934537557 -0.05653723364
576.25 0.0373970093 -0.06902032048
576.875 0.07042984025 -0.0550760981
577.5 0.06861912049 -0.04720088517
578.125 0.06203592764 -0.05875215937
578.75 0.07191944474 -0.0873695631
579.375 0.09771979172 -0.07898611773
580.0 0.07952534958 -0.0676212796
580.625 0.06473268524 -0.09395843926
581.25 0.04495264247 -0.1143303177
581.875 0.0415494821 -0.07981942427
582.5 0.03778057677 -0.04276875487
583.125 0.0571323297 -0.0493673892
583.75 0.08183455845 -0.04979123077
584.375 0.07393096548 -0.03558012087
585.0 0.06222624216 -0.01643990388
585.625 0.07585631083 -0.009219555116
586.25 0.09079158251 -0.003778350272
586.875 0.07092589721 -0.0136154735
587.5 0.06223002764 -0.02984514614
588.125 0.07479990819 -0.05393435589
588.75 0.08529480391 -0.05663508664
589.375 0.05125431361 -0.08347420664
590.0 -0.004141562657 -0.1026061501
590.625 -0.02723457762 -0.09792189621
591.25 -0.003849094669 -0.05264538231
591.875 0.008711769084 -0.03242778369
592.5 0.01401981652 -0.05066129662
593.125 0.02722185238 -0.07654022956
593.75 0.04692570263 -0.05993340972
594.375 0.05555537544 -0.03519366298
595.0 0.07576226994 -0.02884591594
595.625 0.0930409529 -0.01252944074
596.25 0.08284151311 0.007388324029
596.875 0.06753550199 0.01676387632
597.5 0.07130079642 0.02873901266
598.125 0.07962030361 0.03096969247
598.75 0.08679694852 0.004831122548
599.375 0.08653339093 -0.01098276666
600.0 0.07651696335 -0.01290648522
600.625 0.05316248024 -0.01055598903
601.25 0.03355630054 -0.01298591173
601.875 0.02846367631 -0.001781481269
602.5 0.02404621837 0.01694413589
603.125 0.01290682356 0.0263755172
603.75 0.01688791654 0.03351593668
604.375 0.03069624547 0.03624540217
605.0 0.02796240523 0.03709213297
605.625 0.007922683171 0.02590205681
606.25 -0.01131201964 0.02962920715
606.875 -0.01540260298 0.04706958258
607.5 7.865641966e-05 0.05937955976
608.125 0.02184167418 0.04649158929
608.75 0.02300884731 0.0372225152
609.375 0.020083211 0.0360769596
610.0 0.01725220737 0.03490881322
610.625 0.0209416781 0.02096627085
611.25 0.01453172769 0.008732939755
611.875 0.00920947735 -0.003885278072
612.5 -0.001948179034 -0.0125888645
613.125 -0.01577147709 -0.01119154602
613.75 -0.01860219709 -0.0005439515609
614.375 -0.009861350339 0.004157068847
615.0 0.002410421546 -0.003107030053
615.625 -0.00320883719 -0.01195112014
616.25 -0.008795622193 -0.005664828048
616.875 -0.003030210588 0.004380489434
617.5 0.01416389638 -0.0001946917853
618.125 0.01902975132 -0.008470107936
618.75 0.02065066296 -0.008662544956
619.375 0.02778171402 -0.004467031468
620.0 0.04807730478 -0.01282605971
620.625 0.04849290042 -0.03976895575
621.25 0.0427739707 -0.05043394623
621.875 0.02979298774 -0.0600894661
622.5 -0.02404725757 -0.05200963183
623.125 -0.02419952515 -0.02437357499
623.75 -0.00555858527 -0.0120203371
624.375 0.01289009447 -0.00917037387
625.0 0.02666557129 0.001599230505
625.625 0.02356779193 0.01024638635
626.25 0.03529450954 0.01874679866
626.875 0.06177066242 0.02092693689
627.5 0.07467691108 0.03534656097
628.125 0.06492412326 0.03539981032
628.75 0.06503063536 0.03538610593
629.375 0.07722616981 0.04623144447
630.0 0.07335029494 0.06569698295
630.625 0.05599633828 0.06116907263
631.25 0.05582052269 0.05246366339
631.875 0.04915006872 0.05326480802
632.5 0.03387079744 0.05429258587
633.125 0.0149049734 0.04888676333
633.75 0.02171717136 0.052444821
634.375 0.01468764639 0.06287039229
635.0 0.01135180153 0.05940032098
635.625 0.01810847861 0.07006500531
636.25 0.03116321471 0.08724185317
636.875 0.02254267284 0.08767287204
637.5 0.01037629861 0.06243116229
638.125 0.002929152776 0.07710645183
638.75 -0.01152273435 0.1201952094
639.375 -0.04536434194 0.1038656441
640.0 -0.04609463555 0.06734469236
640.625 -0.04592295377 0.05957982452
641.25 -0.08294147749 0.05145625622
641.875 -0.08614737746 0.01184279597
642.5 -0.0727051879 0.007108221418
643.125 -0.08173778121 0.01094772
643.75 -0.1003073368 -0.01245772117
644.375 -0.09926281167 -0.03077818312
645.0 -0.09665042771 -0.008549810872
645.625 -0.1173293064 0.01321573659
646.25 -0.1151716984 0.01465806915
646.875 -0.09403359596 -0.007569246151
647.5 -0.08859978009 -0.008861701143
648.125 -0.1089980259 -0.01018999683
648.75 -0.09207754643 -0.03343888727
649.375 -0.05897507229 -0.03594537498
650.0 -0.0418154865 -0.05535651381
650.625 -0.009921446491 -0.08629690887
651.25 0.02398440141 -0.08327958159
651.875 0.04620031737 -0.0653552935
652.5 0.08311989811 -0.06634468447
653.125 0.1378926869 -0.0351680437
653.75 0.129928826 -0.007041052764
654.375 0.125603222 -0.007175547727
655.0 0.142647795 -0.003282846233
655.625 0.1310440163 0.02225583436
656.25 0.08846695774 0.01342544327
656.875 0.08785284339 -0.02140243861
657.5 0.1105146355 -0.005582105535
658.125 0.09250171254 0.02356112273
658.75 0.06341762083 0.03245980842
659.375 0.08047437482 0.01250256
660.0 0.1227843483 -0.008014768542
660.625 0.1250266893 -0.02035215773
661.25 0.1123677149 -0.04497934842
661.875 0.1021852208 -0.09269043769
662.5 0.09499699477 -0.1193275536
663.125 0.09505758506 -0.09757370333
663.75 0.1096951346 -0.06197089709
664.375 0.1382782118 0.02232760218
665.0 0.07499264354 0.08369916452
665.625 0.03848313199 0.07908048113
666.25 0.02211718587 0.08532821074
666.875 -0.03769744459 0.1167243134
667.5 -0.09352423395 0.07109727445
668.125 -0.07897086044 0.05996097425
668.75 -0.06697081995 0.1010132838
669.375 -0.08721653429 0.1293957125
670.0 -0.1001143003 0.08690070893
670.625 -0.08084890746 0.05990208069
671.25 -0.06263619292 0.1088669234
671.875 -0.04421656074 0.136487583
672.5 0.004552470293 0.1214063701
673.125 0.0139568829 0.09306118462
673.75 0.003512056045 0.1035198457
674.375 -0.03435593355 0.1118611334
675.0 -0.06581380045 0.09184493094
675.625 -0.09897935113 0.07591210832
676.25 -0.1431033589 0.01739733276
676.875 -0.1364975283 -0.0147234497
677.5 -0.1369051109 0.000740256501
678.125 -0.1619501327 0.02793283739
678.75 -0.162585179 -0.01858043315
679.375 -0.09194135018 -0.02961896661
680.0 -0.07997069589 -0.01076176516
680.625 -0.1096466225 0.001917315163
681.25 -0.12830376 -0.006396082551
681.875 -0.09018087011 -0.017104165
682.5 -0.0870264673 0.01652270802
683.125 -0.1244369128 0.0493593614
683.75 -0.1602090936 0.02401791795
684.375 -0.1296480169 -0.06695964622
685.0 -0.05858546298 -0.1214200478
685.625 0.02645821996 -0.1581618312
686.25 0.0863771724 -0.1371948351
686.875 0.102701251 -0.1163163733
687.5 0.1227504334 -0.08027321632
688.125 0.1077107893 -0.03128772199
688.75 0.084932593 0.002157985978
689.375 0.09036392082 0.01026446546
690.0 0.125397557 0.04127217919
690.625 0.09991558092 0.07500975872
691.25 0.1030421084 0.03955516534
691.875 0.1264669729 -0.04343888412
692.5 0.09078603112 -0.1833617185
693.125 -0.04111275947 -0.1936059903
693.75 -0.107363893 -0.08598760976
694.375 -0.1252867253 -0.05490004132
695.0 -0.1058144197 -0.1295177172
695.625 0.04623612416 -0.1495157992
696.25 0.1077442465 -0.01806154246
696.875 0.07855619632 0.0706411294
697.5 -0.006075239009 0.1129892448
698.125 -0.0546666678 0.1097798286
698.75 -0.06797110115 0.1179248325
699.375 -0.08174435775 0.1196173625
700.0 -0.08912077872 0.09299724676
700.625 -0.09828206861 0.06665964119
701.25 -0.1170627423 0.0850235169
701.875 -0.13382272 0.09177051418
702.5 -0.05899032575 0.08123044413
703.125 -0.01545790145 0.07030328505
703.75 0.05076719468 0.0976067637
704.375 0.1170121166 0.1384522259
705.0 0.08313263794 0.1182056317
705.625 0.04292122516 0.1036324466
706.25 -0.02325374598 0.1322846623
706.875 -0.1619418123 0.06913842562
707.5 -0.1512991522 -0.04746093262
708.125 -0.09825514824 -0.07320353729
708.75 -0.06030566804 -0.1024573646
709.375 0.0313830264 -0.1098212268
710.0 0.09125974728 -0.05537783009
710.625 0.0927617637 -0.01859123341
711.25 0.08550026477 0.005442589881
711.875 0.0683424095 0.01768558183
712.5 0.08433479748 0.01386470246
713.125 0.1141663107 -0.0702184425
713.75 0.03595250887 -0.1541840654
714.375 -0.06144261556 -0.1260343338
715.0 -0.112781474 -0.07438319337
715.625 -0.1328943238 -0.09995233652
716.25 -0.0559855676 -0.1466271962
716.875 0.01412357322 -0.1013266089
717.5 0.0490071286 -0.06946647648
718.125 0.08908136878 -0.0546220095
718.75 0.1092412964 -0.007412104791
719.375 0.07512628419 0.02473603344
720.0 0.04187119424 0.04511344579
720.625 -0.02531300949 0.06858290934
721.25 -0.0971565498 -0.01032962215
721.875 -0.05896952625 -0.09512173386
722.5 -0.04621845602 -0.112035362
723.125 -0.09724784352 -0.08511689014
723.75 -0.1114852337 0.004413952874
724.375 -0.06662290574 0.06257958318
725.0 -0.01609445988 0.07489929833
725.625 0.01036399435 0.05727116681
726.25 0.002145655565 0.03914686193
726.875 -0.02419733462 0.03532516331
727.5 -0.06456865864 0.03136771142
728.125 -0.08334418225 0.00828106232
728.75 -0.07185620634 0.01472262562
729.375 -0.05020066984 0.03297470666
730.0 -0.04585339237 0.02770129887
730.625 -0.05332712669 0.01050254733
731.25 -0.04476200315 -0.00707693005
731.875 -0.02998067302 -0.02886010561
732.5 -0.009731786445 -0.02991096559
733.125 0.00502149677 -0.01255419275
733.75 0.01487983038 0.0005689984776
734.375 0.0286700394 -0.00472688761
735.0 0.02038491463 -0.02005398462
735.625 0.01402479949 -0.02481028656
736.25 0.006501607183 -0.03081782539
736.875 -0.00933676837 -0.03691423756
737.5 -0.02631148933 -0.01861214807
738.125 -0.03368995842 0.003729884791
738.75 -0.02856703881 0.02905704756
739.375 -0.004720037692 0.03779059742
740.0 0.006337789607 0.0258325099
740.625 0.0006840386849 0.02192026489
741.25 -0.006507725216 0.03282202732
741.875 -0.02571509997 0.02672521989
742.5 -0.03600240454 -0.007886642539
743.125 -0.004514926128 -0.04330431557
743.75 0.02519339117 -0.03911946335
744.375 0.02313352145 -0.03981823989
745.0 0.01571393841 -0.04717239958
745.625 -0.001847952708 -0.03953284283
746.25 0.009855947716 -0.01997926781
746.875 0.01677733048 -0.03654296896
747.5 -0.008951870639 -0.05126460024
748.125 -0.04125179287 -0.04707539172
748.75 -0.06272584278 -0.01278437695
749.375 -0.05658047841 0.0394840464
750.0 0.006473917411 0.08486668501
