!Created with skrf (http://scikit-rf.org).
# GHz S RI R 50.0 
!freq ReS11 ImS11
500.0 -0.009242139848 0.03142990433
500.625 0.03620120482 0.0107558962
501.25 -0.01424375178 -0.02078721957
501.875 -0.07400030203 0.03519312316
502.5 -0.02000371058 0.08986034895
503.125 0.03862208812 0.06500349347
503.75 0.03664292214 0.05632928246
504.375 -0.009937798458 0.02699799453
505.0 0.004713979181 0.007967250131
505.625 0.01229480046 -0.06635404047
506.25 0.02595663701 -0.08015800828
506.875 0.07084640584 -0.04759890737
507.5 -0.04477957516 0.009054205393
508.125 0.02333809821 0.05307041132
508.75 0.06618729476 -0.04907729206
509.375 0.07353808089 -0.007627533164
510.0 0.07671918388 0.08061302386
510.625 0.04319099321 -0.01223659593
511.25 5.511062565e-06 0.02203428861
511.875 -0.05096404592 0.0381952159
512.5 -0.02908795006 0.03473469009
513.125 0.02186304604 0.05509720324
513.75 0.06182618482 -0.007855923724
514.375 -0.06155031288 -0.04134811699
515.0 -0.06365849119 0.07963306732
515.625 -0.08762211544 0.0567751702
516.25 -0.0373355312 0.08772106105
516.875 -0.04810919954 -0.0210016359
517.5 0.04673104365 -0.03096759777
518.125 0.1140995353 0.144575775
518.75 0.06595923738 0.04805039283
519.375 0.06253602121 0.02085750126
520.0 0.01100982649 -0.04207133509
520.625 -0.01728785671 -0.0363696465
521.25 -0.05537962513 0.008048130671
521.875 -0.02288857378 0.02625168766
522.5 0.009853707471 0.02420329949
523.125 -0.008125989518 -0.01123694411
523.75 -0.1110239111 -0.1415429638
524.375 0.006576810366 -0.2527512427
525.0 0.0007830301118 -0.102449186
525.625 0.002263833545 -0.06128594803
526.25 0.008215160102 -0.08297645392
526.875 -0.0567312749 -0.04051150339
527.5 -0.05284274711 0.03723036856
528.125 -0.0458596864 0.05576434797
528.75 -0.05884525903 0.03580738522
529.375 -0.05858385022 0.07326742585
530.0 -0.03124343094 0.09725879996
530.625 0.06758232131 0.06437507795
531.25 0.05077420077 0.06278150522
531.875 0.02784042653 0.06450846924
532.5 0.05392185033 0.07871659248
533.125 0.050242235 0.05784316439
533.75 0.05811569762 0.05602702525
534.375 0.04913648412 0.05143909683
535.0 0.06762392548 0.02420296183
535.625 0.04663321475 0.05734854174
536.25 0.0787762252 0.04015545819
536.875 0.05443446511 0.04857021658
537.5 -0.033973356 0.04259218615
538.125 0.01143825539 0.04134558972
538.75 0.08362448144 0.01590624102
539.375 0.1033892799 -0.02266496743
540.0 0.1119032099 -0.0478617124
540.625 0.06475029589 0.01912282964
541.25 0.03313895893 0.08235143382
541.875 -0.03508606146 0.05506351472
542.5 -0.07108734151 -0.01786506679
543.125 -0.09869191769 0.01661099123
543.75 -0.03021537919 0.1419782894
544.375 0.07961680072 0.0754849825
545.0 0.02549428217 -0.05507643367
545.625 -0.04789999152 -0.02058144686
546.25 -0.05547190834 0.01381298754
546.875 -0.05032980017 0.02653813377
547.5 -0.001059354591 -0.07019910977
548.125 0.1041624441 0.03050977165
548.75 0.01857549026 0.1011108161
549.375 0.0432666063 0.09348625969
550.0 0.08476953003 0.06650604956
550.625 0.1343038359 -0.000703774118
551.25 0.1316943445 -0.07005647757
551.875 -0.03541758492 -0.1126268702
552.5 -0.05087835799 -0.07328124665
553.125 -0.0296052615 -0.08679483767
553.75 0.08868110579 -0.04519584471
554.375 -0.002688053141 0.04525364525
555.0 -0.05720586804 0.061236366
555.625 -0.04976506651 0.06024200354
556.25 -0.02768102501 0.06217136703
556.875 0.03879869899 0.01899259197
557.5 0.003545884162 -0.03492162206
558.125 -0.03963096553 -0.02909214866
558.75 0.03587670248 -0.03385236622
559.375 0.07911056587 0.04930721198
560.0 0.06406724373 0.0610418884
560.625 0.04142642774 0.04695563199
561.25 0.01035861125 0.04595550793
561.875 -0.002192048706 0.05025547871
562.5 0.01366725028 0.04316395152
563.125 0.03898112291 0.01478216706
563.75 0.03477126396 -0.03839404011
564.375 -0.03668496472 -0.02751415776
565.0 -0.02707794151 -0.02165400357
565.625 -0.02194806104 -0.06082658642
566.25 0.01223052821 -0.07563073723
566.875 0.05551711054 -0.04101165517
567.5 0.07423828215 0.01694856357
568.125 0.003986650907 0.08208693504
568.75 -0.01813708033 0.08652840817
569.375 -0.004991914569 0.1001698363
570.0 0.03238185357 0.06811624578
570.625 0.05974703517 0.03409044543
571.25 0.08221818543 -0.03050679585
571.875 0.0598065511 -0.08105063397
572.5 0.02229010459 -0.0811112745
573.125 0.02194609916 -0.03877671334
573.75 0.06283508523 0.001935779281
574.375 0.07504558 0.04759191616
575.0 0.05010941616 0.007040337844
575.625 0.03061145273 -0.03126090142
576.25 -0.04709684084 -0.03047341094
576.875 -0.06899072875 0.026051544
577.5 -0.03056187635 -0.01579357962
578.125 0.0258665526 -0.04951345063
578.75 0.08697452498 -0.04470719584
579.375 0.08067459265 0.01499190204
580.0 0.07527050686 0.002479618913
580.625 0.07995687644 -0.05005217735
581.25 0.04804545797 -0.07996670955
581.875 0.008298147155 -0.1031648796
582.5 -0.01244500171 -0.06877054535
583.125 -0.02244720662 -0.04875947573
583.75 -0.04663308809 -0.0569357059
584.375 -0.01002939719 -0.09408365229
585.0 0.03322486262 -0.04397873974
585.625 0.06014897768 0.03815429455
586.25 0.01482390196 0.06792660852
586.875 0.03713866672 0.056378238
587.5 0.06385032673 0.01170551888
588.125 0.05669861272 -0.03933150828
588.75 0.03763526175 -0.07199526752
589.375 -0.06377540596 -0.05682587189
590.0 -0.07235263181 -0.06009086615
590.625 -0.07493387577 -0.05958392817
591.25 0.01144311565 -0.03456009053
591.875 0.03764227062 -0.01376902052
592.5 0.09173110866 0.01454293512
593.125 0.06839261953 0.04688760888
593.75 0.07818601355 0.01368163435
594.375 0.05910116831 -0.02726846436
595.0 0.02307412238 -0.04793941924
595.625 8.790393457e-05 -0.05214905313
596.25 0.0008455843669 -0.06670232288
596.875 0.02048136236 -0.06101204464
597.5 0.06354534613 0.05102261184
598.125 -0.03023041564 0.04987678938
598.75 -0.02760896738 0.03669116626
599.375 0.008019066321 0.03921403026
600.0 0.01722945939 0.02840504142
600.625 0.04974731235 -0.0002556866471
601.25 0.04243123188 -0.03763758268
601.875 -0.04546893753 -0.05749133868
602.5 -0.04578174321 -0.062903683
603.125 0.02839768189 -0.03614598424
603.75 0.03564494801 0.01841603551
604.375 0.01911148283 0.07631334579
605.0 -0.03709279983 0.01649525234
605.625 -0.05872036756 -0.01845167743
606.25 -0.07520864134 -0.02771556997
606.875 -0.09643568828 0.009313778875
607.5 -0.02017804857 0.06125021422
608.125 0.04369295935 0.06596069636
608.75 0.07504682625 0.00962910164
609.375 0.07138997505 0.0177070841
610.0 0.04323231282 0.0532638419
610.625 0.009576100748 0.04526434983
611.25 -0.02479913131 -0.03230074216
611.875 0.03094374502 -0.07218632929
612.5 0.003086538918 -0.03478348904
613.125 -0.0111678389 -0.06702933097
613.75 -0.03197398158 -0.06518948702
614.375 -0.06616269209 -0.01081715166
615.0 -0.01789616785 0.03802281717
615.625 -0.003265664027 0.04816646976
616.25 -0.00133074534 0.06793304502
616.875 -0.06550691873 0.04873374009
617.5 -0.009030729192 -0.006368963742
618.125 0.04627186752 -0.02868102013
618.75 0.06610579586 0.001827649379
619.375 0.07712429545 0.00561953945
620.0 0.04783647481 -0.009854934939
620.625 -0.006047954812 -0.02625281436
621.25 -0.02861064125 0.01148409806
621.875 -0.04188273301 -0.0007343323813
622.5 -0.05735663565 0.001186552376
623.125 -0.09670421822 0.0403480722
623.75 -0.09076406998 -0.006884595181
624.375 -0.02430940112 -0.04687123764
625.0 0.03112434661 -0.01915382712
625.625 0.02492179318 0.02259701419
626.25 0.03432352371 0.02849488979
626.875 0.05632057707 0.01144472026
627.5 0.05181711088 -0.02913316623
628.125 0.0397229586 -0.02597486783
628.75 -0.0219115493 -0.02259929815
629.375 -0.03503722766 0.01177101238
630.0 -0.01928955918 -0.0120120692
630.625 0.05605422079 0.05654434124
631.25 -0.007215981381 0.05379910615
631.875 -0.02645986911 0.01556444516
632.5 -0.01777742713 0.02756997098
633.125 -0.05556180219 0.00033916143
633.75 -0.003263285303 0.03856907246
634.375 0.06606770095 -0.01094031921
635.0 0.03523718377 -0.05590902587
635.625 -0.01715944063 -0.05775426609
636.25 -0.01613573468 -0.04637272744
636.875 0.0140510166 -0.0615504154
637.5 0.04971280456 -0.04276826498
638.125 0.006353156355 0.04628667344
638.75 -0.09612957065 0.01176862846
639.375 -0.0413279887 -0.004190278028
640.0 -0.04690069484 -0.002393551868
640.625 -0.0146205485 0.05133051781
641.25 0.02988657362 0.05083418516
641.875 0.06409882006 -0.01102692899
642.5 0.06619548333 -0.01376343876
643.125 0.03632794012 0.04072455044
643.75 -0.08599467019 -0.005358422831
644.375 -0.01631332088 -0.07498517278
645.0 0.01881341726 -0.06774715691
645.625 0.009437041611 -0.05501027288
646.25 0.02478771065 -0.0630366839
646.875 -0.04343616438 -0.02758843074
647.5 -0.01724313687 0.06349441336
648.125 0.04199884924 0.03904071543
648.75 0.05607563666 0.03187183916
649.375 0.05753186163 0.0636067972
650.0 -0.02169509557 0.05893122721
650.625 -0.003484985651 -0.05675060738
651.25 0.07129287575 -0.003925872229
651.875 0.08431489627 0.04269777194
652.5 0.09010109161 0.05148518633
653.125 0.1060221531 0.004951476552
653.75 0.06325648608 -0.06323094234
654.375 0.0003872518685 -0.07342187024
655.0 -0.02757887781 -0.04002726731
655.625 -0.02895311448 -0.07140668999
656.25 0.03020131671 -0.08630791614
656.875 0.06082824208 -0.002392116877
657.5 -0.02851880456 0.07186434908
658.125 -0.05862964375 0.03584447998
658.75 -0.06596706177 0.06313621301
659.375 0.03998594518 0.1223782884
660.0 0.0808327895 -0.01196339552
660.625 -0.02571087516 -0.04227579438
661.25 -0.05167896676 -0.01279802448
661.875 -0.05577191679 -0.04320102604
662.5 -0.04400553606 -0.1065648878
663.125 0.07080568419 -0.07597509089
663.75 0.08329421235 -0.01222073337
664.375 0.09120127234 0.08137138749
665.0 0.07405361798 0.02960233902
665.625 0.06749214349 0.0141299701
666.25 0.07281432812 0.03570645302
666.875 0.05270440659 0.04953780886
667.5 0.02406138075 0.05249198784
668.125 -0.01030502304 0.05281631432
668.75 0.0007674827468 0.07877582876
669.375 -0.01605607415 0.1085558081
670.0 -0.06135815165 0.0465606561
670.625 -0.06458935301 0.02782118699
671.25 -0.07558121394 0.03637869812
671.875 -0.07912798959 0.09024211142
672.5 0.01276959998 0.09884498132
673.125 0.04635630799 0.05402769487
673.75 0.06027102125 0.04662976081
674.375 0.02935094605 0.06801571024
675.0 -0.0009278127867 0.06346769411
675.625 -0.05606832473 0.05627487727
676.25 -0.1197109048 0.02956235097
676.875 -0.08767172924 -0.03756630541
677.5 -0.08282496487 -0.04884963931
678.125 -0.06940119225 -0.08365688396
678.75 -0.01982894871 -0.05032496046
679.375 -0.06097568527 -0.04438985785
680.0 -0.06502682019 0.03648244824
680.625 0.0005855205824 0.08006653148
681.25 0.0425147099 0.08891504189
681.875 0.1042668319 0.09664099751
682.5 0.02164917395 0.04191291462
683.125 -0.04952354888 0.04048668792
683.75 -0.08711476073 -0.08861533854
684.375 0.02968662129 -0.08805269235
685.0 0.130579603 -0.03356383149
685.625 0.1070662216 -0.01414114667
686.25 0.1004833576 -0.003967646785
686.875 0.05141348163 -0.1132292904
687.5 -0.09770234121 -0.1222901058
688.125 -0.1151133519 -0.06949104334
688.75 -0.1080091437 -0.06730966337
689.375 -0.04021520157 -0.08635830506
690.0 0.05471870506 -0.08116722899
690.625 0.02260642732 0.1008823161
691.25 -0.08638717967 0.07743220967
691.875 -0.07300675903 0.02000341526
692.5 -0.02899955086 0.05686746147
693.125 0.06201935903 0.004046938692
693.75 0.004855523546 -0.08339693331
694.375 -0.100985758 0.05647925974
695.0 -0.004806231197 0.1009142931
695.625 0.04658683545 0.09244581108
696.25 -0.0852704471 0.08706787246
696.875 -0.01676602811 -0.1074487602
697.5 0.07185189067 0.01819061725
698.125 -0.110908431 -0.04236853089
698.75 0.06163933305 -0.04912590907
699.375 0.06515372889 -0.02033235347
700.0 -0.05084394824 -0.06084400157
700.625 -0.02457912547 0.1142155167
701.25 0.05344716693 0.08120511075
701.875 0.07112060691 -0.01144622868
702.5 0.0942393901 -0.08626334731
703.125 0.1274824884 -0.05320701046
703.75 0.04557881526 0.03576151047
704.375 -0.03653067651 0.1236235705
705.0 -0.06947372743 0.07727739105
705.625 -0.1151430533 -0.05727577365
706.25 -0.06685566216 -0.1327957047
706.875 -0.0659007436 -0.1073249791
707.5 -0.09256133539 -0.06008616213
708.125 -0.1141032929 0.06297423574
708.75 -0.0423223658 0.1151416873
709.375 -0.1158925819 0.02027132098
710.0 0.01212792755 -0.08386290573
710.625 0.04252530868 0.04998926502
711.25 -0.1174519821 0.02036194531
711.875 -0.1102869711 0.04832291676
712.5 0.04051742314 0.1006409957
713.125 0.03133863905 -0.07979372791
713.75 -0.07356292397 0.0481923602
714.375 0.004088603585 0.0982785493
715.0 -0.01222679871 0.07849586149
715.625 -0.05810458517 0.07447574882
716.25 -0.1436526436 -0.06638267057
716.875 0.04731331592 -0.04539267254
717.5 0.02791730681 0.1032714083
718.125 -0.09892425423 0.03813074445
718.75 -0.08137343944 0.04461425246
719.375 -0.05977927748 0.06557339185
720.0 0.01316353746 0.06148689372
720.625 0.06651377734 -0.006476025532
721.25 0.08126942352 0.01051238965
721.875 -0.04350916595 0.03945151911
722.5 -0.02440778223 -0.1114325957
723.125 0.07506943808 -0.03141056024
723.75 0.09027095209 0.05213673539
724.375 0.09482998978 -0.03169021325
725.0 0.01420516149 -0.08635712866
725.625 -0.04476344998 -0.06309183776
726.25 -0.05214561734 0.02382268659
726.875 -0.01593472291 0.06311152589
727.5 0.05944131699 -0.03240914845
728.125 0.05517226113 -0.04554851562
728.75 0.09494983767 0.05747076867
729.375 0.01001347141 0.09293308696
730.0 -0.07062299956 0.04339833666
730.625 0.01967705004 -0.05100435767
731.25 -0.0548288923 0.08372696116
731.875 -0.06894132415 0.06039704474
732.5 -0.02951836726 0.07798331536
733.125 0.01352330245 0.004494981157
733.75 -0.02768110143 -0.07671920767
734.375 -0.09337099556 0.002219134327
735.0 -0.04547545647 -0.01307258323
735.625 0.0306837092 -0.08796506895
736.25 0.1068433252 -0.000985799038
736.875 0.02194339628 0.05495339118
737.5 -0.01964262736 0.03683212092
738.125 -0.07634746475 0.05642657619
738.75 -0.08849323519 0.09549034605
739.375 0.0827155947 0.05091368089
740.0 0.04228736415 -0.09138434578
740.625 -0.006629228153 -0.02600991151
741.25 -0.04805160675 -0.01468491433
741.875 -0.01873150513 -0.08482408082
742.5 0.08492505817 0.00863953949
743.125 -0.03124440722 -0.02791440133
743.75 0.0241352159 -0.01125124708
744.375 0.04859098755 0.0323376339
745.0 0.04608376759 -0.05812043579
745.625 0.002500668643 -0.03307996789
746.25 -0.04276899673 0.06755638376
746.875 0.06553451314 0.08191842668
747.5 0.0860037294 -0.01642395443
748.125 0.02940150924 -0.05206657395
748.75 0.03226520627 -0.01224345582
749.375 0.03375842212 -0.02025871295
750.0 0.04684380578 -0.02533416035
