!Created with skrf (http://scikit-rf.org).
# GHz S RI R 50.0 
!freq ReS11 ImS11
500.0 -0.04957679897 0.01879887971
500.625 -0.01416394794 0.05138644322
501.25 -0.03796886167 0.02400342684
501.875 -0.01703862982 -0.03258187791
502.5 0.03566929908 0.02172532758
503.125 0.03264659261 0.01168860291
503.75 0.04858037007 0.008838762886
504.375 0.02105011768 -0.0171791164
505.0 -0.01484432189 0.01299779651
505.625 0.04221113025 0.03279002821
506.25 0.03661946448 0.0002848818106
506.875 0.04616466869 0.02412320057
507.5 -0.0002747969558 0.04702769613
508.125 -0.03371522169 -0.03243902514
508.75 0.03991680726 -0.07974752172
509.375 0.01835743888 -0.06750374918
510.0 0.01460577476 -0.05325284735
510.625 -0.03734673179 -0.05382671441
511.25 -0.06609491991 -0.04884667823
511.875 -0.02486338062 0.04116085938
512.5 0.02887411883 -0.01074049517
513.125 -0.007069327018 -0.03310945703
513.75 0.01763675182 -0.07493542028
514.375 0.02606003904 -0.0468572734
515.0 0.03949636704 -0.01271043048
515.625 -0.02235192528 0.1053002153
516.25 0.05603871374 0.08693860678
516.875 0.05084110036 0.08776456519
517.5 0.1020135465 0.02161644136
518.125 0.1228014541 0.0175523057
518.75 -0.0002954064568 -0.07501504808
519.375 0.002503849957 -0.0528478831
520.0 0.02014688174 -0.0378278102
520.625 0.08759980919 -0.04554543143
521.25 0.06191608891 -0.03982167189
521.875 0.06130957911 -0.005070352176
522.5 0.05870160461 -0.05745749406
523.125 0.09473211777 -0.1527045841
523.75 0.03854084784 -0.240385316
524.375 -0.08703156019 -0.2080025194
525.0 -0.04580159199 -0.09486196674
525.625 0.00978146044 -0.08903065409
526.25 0.03503632126 -0.04022842427
526.875 0.01340512852 -0.04930105296
527.5 -0.02184556012 -0.05070662135
528.125 -0.04723995092 -0.03954354415
528.75 -0.04710904223 -0.01334677987
529.375 -0.08174633779 0.0251488009
530.0 -0.05170872858 0.04712991127
530.625 -0.02077688391 0.03604928182
531.25 -0.06408945864 -0.05200765632
531.875 -0.1169313221 -0.05989884221
532.5 -0.1062384408 -0.02115140293
533.125 -0.09942712448 0.01602285689
533.75 -0.03502687181 0.06660889451
534.375 -0.01230387271 0.07018523365
535.0 -0.01423158598 0.07872167797
535.625 -0.03418180757 0.06577504222
536.25 -0.007801124707 0.06209307223
536.875 -0.002988500133 0.05202697799
537.5 -0.009318996215 0.04253054976
538.125 0.05453162264 0.03304641621
538.75 0.06507427709 0.03131288146
539.375 0.07978442319 0.06644315521
540.0 0.03801052468 0.06602361408
540.625 -0.04714257061 0.07651885243
541.25 -0.06899687816 0.05210351012
541.875 -0.04815815571 0.05014864672
542.5 -0.04252473891 0.009828895227
543.125 -0.03151368191 0.06401331124
543.75 0.03944544221 0.0294307963
544.375 0.02788866421 -0.01620663776
545.0 0.06212322301 -0.04070291363
545.625 0.08159564891 -0.0405610318
546.25 0.0919186724 0.00774944982
546.875 0.05590259885 0.03222332128
547.5 0.03510745034 0.07079396046
548.125 0.1443008637 0.05983274088
548.75 0.1246842126 -0.02911712885
549.375 0.09369622799 -0.0550557608
550.0 0.1134796566 -0.01430128204
550.625 0.1426702062 -0.0588969034
551.25 0.1270940678 0.01405437649
551.875 0.04070167709 0.01555847792
552.5 -0.03354310572 0.02734263542
553.125 -0.08243347966 0.02365963116
553.75 -0.06304801723 0.02427854613
554.375 0.006373177932 0.0190545927
555.0 0.03146418758 -0.001861521336
555.625 0.05596962031 -0.0346585829
556.25 0.02346450434 -0.07300316896
556.875 0.01179124893 -0.03709167529
557.5 0.02611963265 -0.01402523337
558.125 0.03601711622 0.07890093717
558.75 -0.04602995006 0.0714471634
559.375 -0.03954695983 0.01495708176
560.0 -0.02778813137 -0.002361028834
560.625 -0.01149300711 0.03756005875
561.25 0.03767418708 0.022890697
561.875 0.02489413592 -0.05246540117
562.5 -0.03076384116 -0.06734845767
563.125 -0.008010110618 -0.0795513244
563.75 0.05130113503 0.00517234171
564.375 0.04754227825 0.07782643759
565.0 -0.02135049118 0.07010732431
565.625 -0.04268366054 0.05620071394
566.25 -0.05176954927 0.04709507939
566.875 -0.01104978595 0.05827753012
567.5 0.03922650113 0.07961056211
568.125 0.04706434636 -0.03961542176
568.75 0.01678169468 -0.06827990167
569.375 0.03529052883 -0.04661468608
570.0 0.1009714635 -0.02408987967
570.625 -0.02031763614 0.0269927803
571.25 -0.01983927324 -0.07612474748
571.875 -0.005677195193 -0.08073971539
572.5 -0.08483939005 -0.02452405702
573.125 0.01513243668 0.037555624
573.75 -0.01711358175 -0.05803679211
574.375 -0.05331273406 0.0003168413213
575.0 -0.05746405049 0.05392383885
575.625 -0.07395211168 -0.02990267181
576.25 0.07754072501 -0.006265624596
576.875 0.004369057747 0.0623373154
577.5 -0.03888983013 0.04302635313
578.125 -0.03472438394 -0.03181428624
578.75 -0.03604701969 0.001736984324
579.375 0.01353471926 0.04069275144
580.0 0.08028344859 -0.002948542982
580.625 -0.01042301591 -0.08482282107
581.25 -0.07833662742 -0.02769523386
581.875 -0.104109075 -0.04959057947
582.5 0.01590671736 -0.03948147797
583.125 -0.008036378456 0.0889870364
583.75 -0.07168771926 0.02196316045
584.375 -0.07041776848 -0.05728991038
585.0 -0.03083736233 -0.05262837332
585.625 -0.04205234128 0.07377169395
586.25 0.0254942824 -0.06572047747
586.875 -0.0648088226 -0.03130883519
587.5 -0.07065834071 0.00529492984
588.125 -0.04692365059 -0.01009467935
588.75 0.0833456312 -0.04482083272
589.375 0.03526447057 0.04997129073
590.0 -0.03426174047 0.03304886556
590.625 -0.07438496728 0.04320711284
591.25 -0.08685980846 0.07044067389
591.875 -0.06256924003 0.07938215654
592.5 0.01709943653 0.08283416956
593.125 0.07724971713 -0.01210739697
593.75 -0.07397199406 0.01552288549
594.375 -0.05430490961 0.03427032729
595.0 -0.009308661933 -0.03289580328
595.625 0.05006549488 -0.05014059992
596.25 0.06211262818 0.03946167603
596.875 -0.05256622566 0.02844700366
597.5 -0.003701186824 -0.04396417932
598.125 -0.003465632331 -0.04787522498
598.75 -0.0177570814 0.03237549995
599.375 0.02581271383 0.04423603821
600.0 0.07810238307 -0.02248657621
600.625 0.04961692884 -0.0850966663
601.25 -0.007337933912 -0.08471329549
601.875 -0.01581665801 -0.06798962067
602.5 0.03872654889 -0.0249509091
603.125 -0.03227207443 0.05842607533
603.75 -0.07463386003 0.03066954213
604.375 -0.03583514006 -0.01972767846
605.0 0.02854981935 -0.0405594032
605.625 0.03449395591 -0.04261613592
606.25 0.01895286536 -0.04782571901
606.875 -0.04493464334 0.04116122394
607.5 0.003972865403 0.06554985979
608.125 0.06440865719 0.02306136168
608.75 0.06239929841 0.008886240199
609.375 0.01946794933 0.04988677028
610.0 -0.03022066434 -0.01316629684
610.625 0.02618244567 -0.0526101588
611.25 0.07495236212 2.768521006e-05
611.875 0.03624950168 -0.0123440981
612.5 0.02499593322 0.006856181445
613.125 0.04645500105 0.006837175233
613.75 0.03786159451 -0.03077816367
614.375 0.01293326287 -0.03410379011
615.0 -0.05142621394 -0.01000627095
615.625 -0.05576364503 0.02301845039
616.25 -0.04727888705 0.04932986022
616.875 -0.04023202013 0.06295603259
617.5 -0.03956648108 0.008102714967
618.125 0.06219370325 -0.03922144869
618.75 0.05146458109 0.03914611891
619.375 0.04043942019 0.05052002125
620.0 0.06981430055 0.01752592203
620.625 0.09076217653 -0.04737902466
621.25 0.04270695902 -0.08501242383
621.875 -0.01981318122 -0.06596048795
622.5 -0.07040797651 0.02168789012
623.125 -0.06730237999 0.0696500002
623.75 -0.08855092081 0.002799356832
624.375 0.01266796924 -0.006634447981
625.0 -0.03294901917 0.05406477496
625.625 -0.05210965173 0.0747143135
626.25 -0.05633669316 0.06940481011
626.875 -0.02995526806 0.08007557445
627.5 -0.009068893891 0.06090096895
628.125 0.02498859857 0.05624901917
628.75 0.05056839183 -0.02439635577
629.375 0.01525860717 -0.03174464811
630.0 0.06586992471 -0.003392330189
630.625 0.04818402594 0.04522275305
631.25 -0.02804419013 0.001312515945
631.875 -0.02148370203 -0.04607421932
632.5 -0.01445681518 -0.07115174494
633.125 -0.03939764801 -0.05205423737
633.75 -0.05678549837 0.02643070271
634.375 -0.003097787617 0.04561691428
635.0 0.03692747341 -0.0001895483198
635.625 0.03438192261 -0.01381687961
636.25 0.03301772392 -0.0313512621
636.875 0.05044561784 0.03072015099
637.5 0.003816149471 0.03859372121
638.125 -0.04689551861 0.06948648136
638.75 -0.08220271448 0.04630085256
639.375 -0.05939255684 0.05415168754
640.0 -0.03947984254 0.03170451195
640.625 -0.05438434975 -0.01758363736
641.25 -0.05371013408 -0.0131818606
641.875 -0.06247163642 0.01072482552
642.5 -0.04615658044 0.01497084012
643.125 -0.06427995643 -0.04609452171
643.75 -0.03804618955 -0.07488912558
644.375 -0.05377518353 0.03148539778
645.0 -0.06516107364 -0.0002537117254
645.625 -0.09036560557 -0.02371996388
646.25 -0.06627163015 -0.02241348743
646.875 -0.04602833994 -0.02170253263
647.5 0.002230461796 -0.06028715958
648.125 0.01781874634 -0.06643542176
648.75 -0.009888725739 -0.04192141248
649.375 -0.00905280011 -0.03235563086
650.0 0.01684337884 -0.03673621667
650.625 0.05667716242 -0.0380127211
651.25 0.05462739532 -0.04729312094
651.875 0.05258835735 -0.03027757929
652.5 0.09442857823 0.006750265218
653.125 0.08244197885 0.04621661183
653.75 0.09565292278 0.02110482156
654.375 0.07998945341 0.03900597989
655.0 0.04651395796 0.04967424984
655.625 -0.0139008436 0.03526416473
656.25 -0.002776216587 0.04627724754
656.875 0.03594031564 0.02924023334
657.5 -0.02386821637 0.06353524384
658.125 -0.05478786984 0.03355808514
658.75 -0.06638790551 0.09238719992
659.375 0.06120354114 0.04691648181
660.0 0.02337961313 -0.03503524318
660.625 0.03095166286 -0.0539839997
661.25 0.06166708084 -0.07418448807
661.875 0.0897866976 -0.03403561741
662.5 0.05707668399 0.03014771307
663.125 0.0365087536 0.0382337717
663.75 -0.01173133812 0.0944921276
664.375 -0.05577550245 0.04268145509
665.0 0.002157211079 0.06249787059
665.625 -0.03355585466 0.04536733424
666.25 -0.05634739286 0.01284727712
666.875 -0.05860681352 -0.05875779281
667.5 -0.02710540395 -0.07963322465
668.125 -0.02239844229 -0.108209725
668.75 -0.05277198836 -0.07371086114
669.375 -0.03968646523 -0.05092812889
670.0 -0.07223875772 0.00110616058
670.625 -0.03318391228 0.06073024054
671.25 -0.01463958942 0.1023836255
671.875 -0.008570779623 0.1067903019
672.5 0.002669173307 0.07193880889
673.125 -0.06727745787 0.003806124229
673.75 -0.09270573308 -0.001277519375
674.375 -0.08369909268 0.008460289241
675.0 -0.0806265724 0.001402420419
675.625 -0.08482087628 -0.05895899341
676.25 -0.03147083104 -0.0937089392
676.875 -0.003465722805 -0.07602508233
677.5 -0.01183962628 -0.07970423811
678.125 -0.02271355873 -0.08119645304
678.75 -0.04314696374 -0.08070049451
679.375 -0.01763381082 -0.04445795992
680.0 0.01020065089 -0.05842703528
680.625 0.04502334821 -0.08377269694
681.25 -0.003398015864 -0.1034412892
681.875 -0.01624158787 -0.07737059824
682.5 -0.05866395622 -0.07008960139
683.125 -0.1203899831 -0.02574383769
683.75 -0.1199822561 -0.0238191851
684.375 -0.0378657755 -0.11989867
685.0 0.03773156963 -0.1244888377
685.625 0.1087735326 -0.05788078881
686.25 0.1013987048 -0.05273575068
686.875 0.08135259308 0.05539105682
687.5 0.04635217007 0.05011151716
688.125 0.01670956547 0.05507590005
688.75 -0.0455173328 0.06829110834
689.375 -0.04336264474 0.1321370586
690.0 -0.06549628493 0.09989219307
690.625 0.009227727748 0.08118988438
691.25 0.04824910304 0.08456757111
691.875 0.1251986971 -0.003593758729
692.5 0.08290864995 -0.1269553089
693.125 -0.01764275305 -0.1266821488
693.75 -0.07683754533 -0.07274110938
694.375 -0.08607936052 -0.04363756346
695.0 -0.08512954169 -0.127843807
695.625 0.07340699908 -0.08204416127
696.25 0.02292264146 0.05595142201
696.875 -0.09359899487 0.03998134126
697.5 -0.08640066007 -0.08887408845
698.125 -0.06992556487 -0.09678616047
698.75 -0.09869982534 -0.02199308993
699.375 -0.0908757742 0.07292557654
700.0 -0.07578674867 0.1001492983
700.625 -0.1046882469 0.002779561134
701.25 -0.07929420494 -0.03528843989
701.875 -0.043650244 -0.0526759099
702.5 -0.01440809549 -0.08286129793
703.125 -0.04759930001 -0.1427091971
703.75 -0.1278239659 -0.05415361687
704.375 -0.1115432657 0.04624257649
705.0 -0.03981004427 0.08980235284
705.625 0.05597158319 0.08766274314
706.25 0.04695114452 0.07499454823
706.875 -0.06411635317 0.0994703121
707.5 -0.1396000135 -0.01712001913
708.125 -0.04956269956 -0.08667120613
708.75 0.08634068843 -0.01505182879
709.375 0.01309261537 0.07400218222
710.0 -0.04837576421 0.07047264142
710.625 -0.09706691727 0.02342967461
711.25 -0.1061056542 0.02725005597
711.875 -0.02732293944 0.09171807934
712.5 0.03538425712 0.1186992337
713.125 0.06408975528 -0.08014839643
713.75 -0.02471804154 -0.135210688
714.375 -0.0957839476 -0.05960210684
715.0 -0.07576080595 -0.1026121549
715.625 0.01324222946 -0.1350027183
716.25 0.05768751642 -0.06336892398
716.875 -0.03314743194 0.08322130787
717.5 -0.1037920068 -0.05651645846
718.125 -0.0725704757 -0.06320439129
718.75 -0.08262909724 0.03022558786
719.375 -0.07056462075 0.05290852172
720.0 -0.03413922299 0.06599208304
720.625 -0.03236172691 0.07166856498
721.25 -0.08930065561 0.01737290077
721.875 -0.05815104024 -0.08729911513
722.5 0.06900856264 -0.09683458758
723.125 0.08264551392 -0.03131069512
723.75 0.05471922868 -0.03762062988
724.375 0.1139969143 0.03436622681
725.0 0.09321840904 -0.03273417996
725.625 -0.004671777441 -0.09278492052
726.25 -0.08132239374 -0.02356762174
726.875 -0.05795646778 0.0131682701
727.5 -0.08914421364 0.03426974604
728.125 -0.1058161181 -0.05055622491
728.75 -0.0673225394 -0.08089769598
729.375 -0.04449206394 -0.05941568433
730.0 0.04192331171 -0.07955564848
730.625 0.0636747789 -0.02826809025
731.25 0.07498755989 -0.005432812025
731.875 0.05771160582 0.05190032383
732.5 0.01087795294 0.02421597316
733.125 -0.0005288021807 0.05476403444
733.75 0.03866395689 0.08352499162
734.375 0.08318543985 0.02597481944
735.0 0.1043489549 0.02857596946
735.625 0.09364631713 0.03726828983
736.25 0.02817277369 0.07292108092
736.875 -0.06694504472 0.007585031076
737.5 -0.09124059359 0.03697493261
738.125 -0.1117886212 0.0560790924
738.75 -0.05950954705 0.08790512619
739.375 0.06234530133 0.07608839929
740.0 0.03117286002 0.02049142634
740.625 0.003443209118 -0.04552177022
741.25 0.0726759873 -0.04295231673
741.875 -0.006329124995 0.08864570955
742.5 -0.06012636434 0.007037703181
743.125 0.03813344509 -0.03006994497
743.75 0.005947735115 0.06589802596
744.375 -0.02635722405 0.07082390018
745.0 -0.03053858681 0.03659428092
745.625 0.0300981434 0.0134087068
746.25 0.003930245852 -0.05771716083
746.875 -0.03519243674 0.04729754634
747.5 0.01553295663 0.01726602325
748.125 -0.009826454577 0.02900147719
748.75 -0.03787510982 0.03998567396
749.375 -0.05797575867 0.05374837201
750.0 -0.02832282308 0.07672353977
