!Created with skrf (http://scikit-rf.org).
# GHz S RI R 50.0 
!freq ReS11 ImS11
500.0 -0.0065085 0.001390378751
500.625 0.006716815377 -0.000317183772
501.25 -0.0005691220704 -0.01812053565
501.875 -0.02322802834 -0.02858032238
502.5 -0.01534770213 -0.01232053451
503.125 -0.006051360617 0.002037492235
503.75 -0.005228332772 -0.004062772558
504.375 -0.01253517716 -0.01112712257
505.0 -0.007165079644 -0.0108950082
505.625 -0.007594763547 -0.02027886091
506.25 -0.0300278025 -0.02651377208
506.875 -0.04787979811 -0.06021244692
507.5 -0.05462543588 -0.03492887619
508.125 -0.03952236831 -0.04842655239
508.75 -0.08136286491 -0.01801740168
509.375 -0.08519548358 -0.00267405169
510.0 -0.06024350885 -0.00490792863
510.625 -0.02419469157 0.02464680649
511.25 -0.04246390656 0.03678554079
511.875 -0.02281286475 0.06095993724
512.5 0.01637282366 0.04369368869
513.125 0.06863213873 -0.003064998362
513.75 0.08920545619 -0.02829720714
514.375 0.05605240992 -0.04622137676
515.0 0.0248846944 -0.05669620914
515.625 0.06676520032 -0.04286981576
516.25 0.0658900557 -0.05716137508
516.875 0.0866137482 0.03760021082
517.5 0.09005888998 -0.03791902935
518.125 0.1939487888 0.07004619959
518.75 0.09045836258 -0.08539649741
519.375 0.06507995179 -0.04984675277
520.0 0.03370690712 -0.06893968916
520.625 0.04775430524 -0.1045190269
521.25 0.0165456808 -0.1073920493
521.875 0.03609218342 -0.05455078118
522.5 -0.0005674828537 -0.08448565823
523.125 0.007666940863 -0.221989092
523.75 -0.04333604944 -0.2917612201
524.375 -0.03628038248 -0.2901690343
525.0 -0.04004984432 -0.1409945569
525.625 -0.03207994811 -0.1112114892
526.25 -0.00485351743 -0.09429791714
526.875 -0.02899358136 -0.07647589296
527.5 -0.06955043335 -0.07568091034
528.125 -0.07823398071 -0.03649000216
528.75 -0.07895077024 -0.02201311793
529.375 -0.1116690698 0.05476888143
530.0 -0.06489547487 0.1232686768
530.625 0.03239529509 0.1116086134
531.25 0.02099927409 0.07906805164
531.875 0.0149670186 0.1058817007
532.5 0.01822085346 0.1589446645
533.125 0.0173360201 0.1270162276
533.75 0.03848732542 0.08611148377
534.375 0.04849610372 0.09120778212
535.0 0.06161465962 0.1199002168
535.625 0.01429585759 0.1052144938
536.25 0.07637829991 0.05159483405
536.875 0.07080441712 0.07260084275
537.5 0.01264699231 0.09208969643
538.125 0.009420948898 0.08092610047
538.75 0.05361995114 0.1003796067
539.375 0.04296074282 0.1529470431
540.0 0.0444695675 0.1197522057
540.625 0.03727875538 0.09056703873
541.25 0.04425914734 0.1020895225
541.875 0.03134135005 0.1161793558
542.5 -0.01002683557 0.06239790346
543.125 0.002837239115 0.05496873321
543.75 0.06546572027 0.07612355161
544.375 0.1058688048 0.08512898145
545.0 0.1151365085 -0.0120998276
545.625 0.07301072993 -0.07260818978
546.25 0.04542124208 -0.1186690089
546.875 0.05021717779 -0.1114753349
547.5 0.06521961004 -0.1055436567
548.125 0.09026659559 -0.1185447887
548.75 0.1337653879 -0.09232132195
549.375 0.1492453126 -0.05701850996
550.0 0.1542846762 -0.003635893814
550.625 0.1870559864 -0.01333366026
551.25 0.1409447033 0.07177773568
551.875 0.104943521 0.01931429757
552.5 0.09196388611 -0.01061626996
553.125 0.1102116605 -0.03298924504
553.75 0.09591604555 0.01345976082
554.375 0.05516584817 -0.001698709586
555.0 0.0629413932 -0.008686209829
555.625 0.09119178568 -0.02272990465
556.25 0.09422752748 0.009738579546
556.875 0.060749749 0.02063564526
557.5 0.07097485639 0.02363665503
558.125 0.09152387507 0.05749654382
558.75 0.06559500462 0.09313618183
559.375 0.082314035 0.07845953253
560.0 0.1071567094 0.06693604888
560.625 0.109960585 0.04358729245
561.25 0.08870053831 0.00261682955
561.875 0.07792727764 -0.02000992319
562.5 0.08220592334 -0.02553030838
563.125 0.06904793386 -0.02594169048
563.75 0.05079052815 -0.03099743707
564.375 0.05485589608 -0.05463212798
565.0 0.1159573906 -0.06496348817
565.625 0.1027024142 -0.0483172203
566.25 0.0900008103 -0.03939898159
566.875 0.09598841703 -0.0392820833
567.5 0.1163370245 -0.0002308883445
568.125 0.09130731823 0.05179849054
568.75 0.09399862107 0.05408263896
569.375 0.1137403854 0.06137161091
570.0 0.1127392143 0.0549283292
570.625 0.09575908054 0.03434987256
571.25 0.09471036968 0.008416614132
571.875 0.1047847684 -0.0001368078714
572.5 0.06858603146 -0.02552950386
573.125 0.04681049838 -0.02425117902
573.75 0.06683489488 -0.04014517968
574.375 0.08508767354 -0.06409435261
575.0 0.06191420471 -0.06173455602
575.625 0.02890595886 -0.05681481104
576.25 0.03594182085 -0.06909581398
576.875 0.06933174311 -0.05630183597
577.5 0.06810096974 -0.04796881984
578.125 0.06133926581 -0.05896915799
578.75 0.07121658713 -0.08733003022
579.375 0.09684467835 -0.08015856224
580.0 0.07907975086 -0.0677892617
580.625 0.06340944142 -0.0951177003
581.25 0.04451335493 -0.1140606472
581.875 0.04074809079 -0.08100945949
582.5 0.03738762036 -0.04332200887
583.125 0.05570559601 -0.050647253
583.75 0.08126295299 -0.05024248328
584.375 0.07336414477 -0.03745287599
585.0 0.06181874431 -0.01790103055
585.625 0.07500062296 -0.01186593946
586.25 0.09035509634 -0.004238694032
586.875 0.07076968492 -0.01526906628
587.5 0.06145626302 -0.03068532222
588.125 0.0725399211 -0.0562581524
588.75 0.08491733166 -0.05669034512
589.375 0.05030937603 -0.08417329453
590.0 -0.005430315964 -0.1023657455
590.625 -0.0294054018 -0.09831315679
591.25 -0.004087115139 -0.05251427625
591.875 0.008224343053 -0.03259754562
592.5 0.01255787848 -0.05031286524
593.125 0.02464536953 -0.07654863227
593.75 0.04647229908 -0.05989395221
594.375 0.05421009358 -0.03614486314
595.0 0.0742757686 -0.03011570595
595.625 0.09258361593 -0.01481974604
596.25 0.08301830389 0.006525681209
596.875 0.06768075338 0.01630455519
597.5 0.07166708108 0.02707214577
598.125 0.08025524137 0.02870066865
598.75 0.08698404831 0.005483794775
599.375 0.0864800734 -0.01269465902
600.0 0.07676252541 -0.01394693096
600.625 0.05427008826 -0.01337814487
601.25 0.0336810236 -0.01246143928
601.875 0.02856278174 -0.004086112042
602.5 0.02478647436 0.01528376217
603.125 0.01367210826 0.02505193503
603.75 0.01730853548 0.03245475399
604.375 0.03106905365 0.03725346623
605.0 0.02902850359 0.03619085792
605.625 0.008279983917 0.02584462426
606.25 -0.009738906228 0.0278280724
606.875 -0.01667269172 0.04871094089
607.5 0.001161293551 0.05850880885
608.125 0.02176509403 0.04686990561
608.75 0.02344751955 0.03711192591
609.375 0.01947452036 0.03746971245
610.0 0.01772050041 0.03487662367
610.625 0.0210532877 0.02134447744
611.25 0.01695060357 0.007502218332
611.875 0.007043191001 -0.0028253416
612.5 -0.0008790138702 -0.01255214347
613.125 -0.01499273935 -0.01083863212
613.75 -0.01760783773 -0.0005481878127
614.375 -0.009827931081 0.004217431477
615.0 0.00191112676 -0.00310375601
615.625 -0.002709470145 -0.01206410657
616.25 -0.009771742401 -0.005352816088
616.875 -0.002420687736 0.004300123699
617.5 0.01443166063 -5.923148777e-05
618.125 0.01942309964 -0.008672790938
618.75 0.01991023031 -0.008807108341
619.375 0.02739283233 -0.004709670316
620.0 0.04846254418 -0.01346350208
620.625 0.04812922564 -0.04062087574
621.25 0.04411165425 -0.05109779322
621.875 0.02825513957 -0.0611777356
622.5 -0.02507428216 -0.05277507205
623.125 -0.02520439797 -0.02508776745
623.75 -0.007040990355 -0.01240651438
624.375 0.01213895015 -0.01006464374
625.0 0.02458042038 -0.0002640055561
625.625 0.02367021844 0.009388738441
626.25 0.03456101879 0.01804313657
626.875 0.06391695851 0.02023778562
627.5 0.07275661277 0.03314838124
628.125 0.06578403201 0.03493296253
628.75 0.06533334597 0.03436349483
629.375 0.07980199864 0.04575805577
630.0 0.07483066231 0.06270362816
630.625 0.0579482187 0.06080992104
631.25 0.057784378 0.05057720592
631.875 0.05285736975 0.05375594808
632.5 0.0369502361 0.05108741151
633.125 0.0172555052 0.04930714909
633.75 0.02372766022 0.05192487869
634.375 0.01662842978 0.0631169217
635.0 0.0124413307 0.05897399047
635.625 0.01816480574 0.06844942411
636.25 0.0319456442 0.08684513019
636.875 0.02346317211 0.08710086517
637.5 0.01142245371 0.06342157696
638.125 0.003568099736 0.07518849128
638.75 -0.008618296516 0.1208425401
639.375 -0.04359907653 0.1056291891
640.0 -0.04545348431 0.06921656194
640.625 -0.04329628354 0.06026255053
641.25 -0.08032614668 0.0546743751
641.875 -0.08662407432 0.01472279077
642.5 -0.07345616533 0.009027575547
643.125 -0.07995461072 0.01223502875
643.75 -0.1010851441 -0.009412126469
644.375 -0.09989532714 -0.02890979399
645.0 -0.09759307189 -0.00710738878
645.625 -0.1159070871 0.01474684284
646.25 -0.115635189 0.01683946195
646.875 -0.09473836734 -0.006025439348
647.5 -0.08880852459 -0.007412776618
648.125 -0.1086988442 -0.007758090398
648.75 -0.0930554862 -0.03124496173
649.375 -0.06051616488 -0.03430483597
650.0 -0.04355725777 -0.05310583412
650.625 -0.01389880393 -0.08613464222
651.25 0.02101361301 -0.08312275181
651.875 0.04390718098 -0.06611774084
652.5 0.07997901039 -0.06759772029
653.125 0.1376199784 -0.0397560008
653.75 0.1297523222 -0.008360604521
654.375 0.1255715638 -0.008333842885
655.0 0.1431385166 -0.005097004338
655.625 0.1318094731 0.02057406124
656.25 0.08869595443 0.01232484153
656.875 0.0874817196 -0.02321907877
657.5 0.1103541684 -0.008945761356
658.125 0.09537042278 0.01973655543
658.75 0.06407480318 0.02946852949
659.375 0.07954581271 0.0091510858
660.0 0.121186793 -0.01283873029
660.625 0.1242321465 -0.02408584004
661.25 0.1108361295 -0.04668732882
661.875 0.09994123722 -0.09426645625
662.5 0.09356694829 -0.1208287801
663.125 0.0946637487 -0.09960533283
663.75 0.1085798982 -0.06250511457
664.375 0.1393415256 0.01972939654
665.0 0.0771283321 0.082558812
665.625 0.04061922876 0.07845302521
666.25 0.0249450806 0.08446820839
666.875 -0.03238360806 0.1179719233
667.5 -0.09107529514 0.07465716689
668.125 -0.07691560754 0.06156832173
668.75 -0.06376930959 0.1014832343
669.375 -0.08282022028 0.1321084276
670.0 -0.09786545636 0.09043210174
670.625 -0.07967100396 0.06210922157
671.25 -0.06002355656 0.1089506837
671.875 -0.0409584008 0.1379645318
672.5 0.007066281521 0.1219157196
673.125 0.01612175928 0.09334826194
673.75 0.005446214952 0.1031172559
674.375 -0.03224469494 0.1125691779
675.0 -0.06395786665 0.09273967363
675.625 -0.09594033778 0.07834236216
676.25 -0.1426030527 0.02251981212
676.875 -0.1369729927 -0.01054981664
677.5 -0.1363445673 0.004032528963
678.125 -0.1604935723 0.0336377691
678.75 -0.1637615271 -0.01309552912
679.375 -0.09421419864 -0.02768297821
680.0 -0.08018237591 -0.009111707675
680.625 -0.1097661976 0.005050266113
681.25 -0.1279148006 -0.004214278242
681.875 -0.09072556583 -0.01615137724
682.5 -0.08644397587 0.01730243539
683.125 -0.1231971798 0.05026017308
683.75 -0.1597784613 0.02681005004
684.375 -0.1296650066 -0.06539945643
685.0 -0.06053793027 -0.120140612
685.625 0.02288917716 -0.15816027
686.25 0.08337485825 -0.1401646651
686.875 0.1005116781 -0.117996055
687.5 0.1209847648 -0.08501704081
688.125 0.1075950146 -0.03463081962
688.75 0.08599767418 -0.0006675208042
689.375 0.08974094481 0.008639401917
690.0 0.1259262901 0.03755628803
690.625 0.102065538 0.0730031263
691.25 0.1035418112 0.03801663503
691.875 0.1250409585 -0.04445299508
692.5 0.08810274115 -0.1835297095
693.125 -0.04376671136 -0.1940656657
693.75 -0.1079113192 -0.08540210038
694.375 -0.1266406712 -0.05273654891
695.0 -0.1063563792 -0.1279031347
695.625 0.04330402452 -0.1515701674
696.25 0.1077196083 -0.02034347989
696.875 0.0800511593 0.0686577936
697.5 -0.002243599596 0.1130761914
698.125 -0.05270647519 0.1100182278
698.75 -0.06539023471 0.1187859561
699.375 -0.0788371585 0.1218143701
700.0 -0.08849128698 0.09320512568
700.625 -0.09762215611 0.06782828248
701.25 -0.1159874149 0.08626213705
701.875 -0.1332767023 0.09449725129
702.5 -0.05885325261 0.08120825224
703.125 -0.01458771284 0.07050607067
703.75 0.05203260948 0.09583589679
704.375 0.119047738 0.1358212005
705.0 0.08655023867 0.1170325165
705.625 0.04334523342 0.1029602244
706.25 -0.0197894486 0.1316935644
706.875 -0.1601104044 0.07182834063
707.5 -0.1530727172 -0.04531104702
708.125 -0.09821391875 -0.07282019724
708.75 -0.06216438065 -0.101611864
709.375 0.02961013314 -0.1106594258
710.0 0.09069107243 -0.05690515452
710.625 0.09249483418 -0.02004119993
711.25 0.08594208505 0.003651470479
711.875 0.06837935409 0.01708971432
712.5 0.08399798271 0.01132319319
713.125 0.1144235734 -0.0696798854
713.75 0.03386548296 -0.1548517561
714.375 -0.06264221604 -0.1257064887
715.0 -0.1131520824 -0.07338066834
715.625 -0.1349104879 -0.09667706613
716.25 -0.05498935636 -0.1465029099
716.875 0.01252969285 -0.1023260077
717.5 0.04806941107 -0.06997042005
718.125 0.08750588654 -0.05684804822
718.75 0.1094112055 -0.007412302809
719.375 0.07521497582 0.02454896297
720.0 0.04241842463 0.04451408616
720.625 -0.02537112389 0.06851993838
721.25 -0.09747741907 -0.01027441691
721.875 -0.0600139898 -0.09380906846
722.5 -0.04734838709 -0.1117440789
723.125 -0.1000176171 -0.08154783697
723.75 -0.1120793001 0.003875779746
724.375 -0.06594903447 0.06389355948
725.0 -0.01402468816 0.07568336395
725.625 0.01086344517 0.05756048634
726.25 0.005020050254 0.03858079976
726.875 -0.02651478947 0.03571151927
727.5 -0.06355476992 0.03201740824
728.125 -0.0834489069 0.008340472899
728.75 -0.07078987771 0.01552775054
729.375 -0.05233802736 0.0316592136
730.0 -0.04615596498 0.02752598056
730.625 -0.05309537731 0.01071298275
731.25 -0.04513126147 -0.007764355255
731.875 -0.03032575594 -0.0276838694
732.5 -0.007249871962 -0.03166420772
733.125 0.003609009618 -0.01277168947
733.75 0.01557474533 0.0001052044574
734.375 0.03015069 -0.004849592088
735.0 0.01952370725 -0.01976202015
735.625 0.01361290851 -0.0240967097
736.25 0.006420292693 -0.0313712729
736.875 -0.009176102014 -0.03697571374
737.5 -0.02632883835 -0.01923864892
738.125 -0.03363431298 0.004119421542
738.75 -0.02746893974 0.02837221065
739.375 -0.006091953783 0.03829873847
740.0 0.009814891988 0.02390732084
740.625 -0.0004138754144 0.02311192996
741.25 -0.006333634966 0.03265100207
741.875 -0.02713300169 0.02676269101
742.5 -0.03601848043 -0.007799427545
743.125 -0.004044251727 -0.04429753458
743.75 0.02539310702 -0.03985682497
744.375 0.02591071116 -0.04058537858
745.0 0.01200971353 -0.04641565151
745.625 -0.001118981083 -0.04060444538
746.25 0.009885493738 -0.020291239
746.875 0.01666423804 -0.03645136379
747.5 -0.008895783182 -0.05066514424
748.125 -0.04051425497 -0.04595214447
748.75 -0.06325204104 -0.01308253178
749.375 -0.05667416974 0.03941868209
750.0 0.00602605788 0.08770549348
