!Created with skrf (http://scikit-rf.org).
# GHz S RI R 50.0 
!freq ReS11 ImS11
500.0 -0.04991843433 0.003234811487
500.625 -0.03260766661 0.02932166717
501.25 -0.02479961745 -0.01247009673
501.875 -0.04021621287 -0.05216704464
502.5 -0.02870303599 -0.02385620323
503.125 0.003371303064 0.003477270116
503.75 -0.009542351104 0.02432482656
504.375 0.005171826837 0.05084915608
505.0 0.06628662369 0.03559175899
505.625 0.03094314486 0.02181800131
506.25 0.04188870703 0.01207344807
506.875 0.01888258717 0.05883226998
507.5 -0.006822028785 0.0549780797
508.125 -0.04345493082 -0.00701325228
508.75 -0.06637562227 0.01718884666
509.375 -0.0620767925 0.005720451458
510.0 -0.03711446511 0.03136629973
510.625 -0.01145017118 0.02087306379
511.25 0.02057069 -0.004547270305
511.875 0.01843538742 -0.02480497291
512.5 -0.007021409153 -0.02442353076
513.125 -0.01383284674 -0.04544756365
513.75 0.01601103384 -0.07618625871
514.375 0.04093600157 -0.02049670199
515.0 0.04851915378 0.006766658023
515.625 0.04823029733 -0.001930994462
516.25 0.02182932905 -0.04261644422
516.875 0.03451226601 0.002857876188
517.5 0.04047642261 -0.02154142222
518.125 0.03212949175 -0.03521010882
518.75 -0.0529212724 -0.02904310142
519.375 -0.02494436975 -0.0403827732
520.0 -0.00613317237 -0.04733918221
520.625 -0.01667400791 -0.0378480951
521.25 -0.02637054552 -0.06329220829
521.875 0.03469920566 -0.03177127453
522.5 0.06096896637 -0.0635694416
523.125 0.06015237028 -0.1660814059
523.75 -0.01998042462 -0.2435458667
524.375 -0.08401535328 -0.2078711874
525.0 -0.08828309963 -0.05228867994
525.625 -0.08388898373 0.02149883185
526.25 -0.07400856228 -0.0274245906
526.875 -0.03607655865 -0.04394157393
527.5 -0.01095484562 -0.08020147004
528.125 -0.01887873629 -0.04637337607
528.75 -0.05400305492 -0.01068535365
529.375 -0.06485813524 0.05276726931
530.0 -0.03237231649 0.1218329819
530.625 0.1210398998 0.03704323777
531.25 0.1526504012 -0.01858508219
531.875 0.0752400661 -0.05042937378
532.5 0.1264539783 -0.01933051492
533.125 0.09502154213 0.04954046992
533.75 0.04137863199 0.03652164881
534.375 -0.02396500471 0.07228338443
535.0 -0.06069978436 0.08426550446
535.625 -0.04993943866 0.03150511087
536.25 0.03843932482 0.04981657945
536.875 0.07774580617 -0.009896467469
537.5 0.09205879525 -0.06411586282
538.125 0.0221165233 -0.06144671336
538.75 0.0486032486 -0.01890267393
539.375 0.07150667292 0.07372271871
540.0 0.01985645764 0.1076256585
540.625 -0.005288889774 0.05981274572
541.25 -0.02890137754 0.07328079635
541.875 -0.03052014655 0.05469025982
542.5 -0.03539471308 0.03248061614
543.125 -0.02145779892 0.04989722565
543.75 0.036923819 0.05542403633
544.375 0.07337140928 0.04731387984
545.0 0.07816672834 -0.05650887241
545.625 0.04071504915 -0.064242316
546.25 0.008477089136 -0.07071350195
546.875 0.02542620855 -0.07357370282
547.5 0.04965759251 -0.1032065863
548.125 0.0622788208 -0.0964343648
548.75 0.1165686242 -0.04572322036
549.375 0.1194319261 -0.01558493668
550.0 0.1423544566 0.0007075708179
550.625 0.1277410819 -0.06269465591
551.25 0.09327669748 -0.06922156269
551.875 0.0650197605 -0.09727673694
552.5 0.05589567095 -0.1089589988
553.125 0.07228705512 -0.07568902016
553.75 0.033340608 0.0211434918
554.375 -0.008985578242 0.03948443597
555.0 -0.006639363378 0.09514290911
555.625 0.0335136713 0.06402430702
556.25 0.04135467845 0.01183994583
556.875 0.02714946747 -0.03528671164
557.5 0.008942411782 -0.02641881936
558.125 0.001471509303 -0.05423213806
558.75 0.02122894175 -0.02128641965
559.375 0.06704139811 0.04442649054
560.0 0.03420874205 0.1052350647
560.625 -0.01276511623 0.03191720087
561.25 -0.01998525334 0.01798180762
561.875 0.01115757623 0.04004579438
562.5 0.05253468691 0.02034736451
563.125 0.02643149979 -0.0579436778
563.75 -0.03285515652 -0.02900868307
564.375 -0.02421096066 -0.02385279704
565.0 0.04291204962 -0.08886158073
565.625 0.0793140614 -0.04498604714
566.25 0.07034004837 -0.007481203286
566.875 0.0600166651 0.05518452623
567.5 0.02392590707 0.07895502268
568.125 0.06168558851 0.06289090511
568.75 0.08268403853 0.03849338727
569.375 0.09036932335 -0.005243821036
570.0 0.09240422004 -0.03677428956
570.625 0.08555097264 -0.01172708787
571.25 0.04669690942 0.02864775759
571.875 0.01375602728 0.04362658307
572.5 -0.001693138262 0.03178009501
573.125 0.02785221354 0.03767021096
573.75 0.07064132094 0.003878590724
574.375 0.03233535583 -0.06373196754
575.0 -0.04999764691 -0.07588858248
575.625 -0.0314209804 -0.04715266481
576.25 0.001591823621 -0.03967472926
576.875 0.06868551829 0.002516535872
577.5 0.0818154781 0.03175683182
578.125 0.08022201867 0.05111018082
578.75 0.06361536559 0.0472635169
579.375 0.08660824675 0.008231974375
580.0 0.07889040654 -0.0379030342
580.625 0.02157465579 -0.09913276929
581.25 -0.03778598162 -0.09480817902
581.875 -0.06518916046 -0.08329074314
582.5 -0.009170132964 -0.06146161111
583.125 0.04825462574 -0.04831157013
583.75 0.07557239497 0.03637207237
584.375 -0.01081280452 0.05853985312
585.0 -0.03055926404 0.07713790282
585.625 0.07477386013 0.0392175445
586.25 0.06688082745 -0.02610424467
586.875 0.0197758503 -0.06340176938
587.5 -0.008386538919 -0.05339166563
588.125 -0.04837493166 -0.03099131635
588.75 0.04154216947 -0.07737807221
589.375 0.06994410913 -0.006425599779
590.0 0.05416210335 0.01575545298
590.625 0.04271535645 0.0077041177
591.25 0.03640246059 0.001011592238
591.875 0.03577559179 -0.003818462519
592.5 0.002675783077 -0.03801066396
593.125 -0.04640018523 0.02621121539
593.75 -0.04523731505 -0.04429249465
594.375 0.0593220667 -0.02078686803
595.0 0.05985718991 0.07912553914
595.625 -0.01984812274 0.05826607296
596.25 -0.0306393371 0.04881057602
596.875 -0.03785934823 0.05400996685
597.5 0.02456739525 0.07991967571
598.125 0.04245865344 -0.04410141276
598.75 0.02974579373 -0.06307430249
599.375 0.04596956539 -0.07575362341
600.0 0.08705416585 -0.04170404791
600.625 0.05543468557 -0.02333938436
601.25 0.007984763593 0.0245342493
601.875 -0.05610088974 0.04391290389
602.5 -0.07080533414 0.03191388897
603.125 -0.06019688102 0.03369122736
603.75 -0.08536289852 0.03348158372
604.375 -0.06083552188 0.04793970898
605.0 0.01184699815 0.06539201201
605.625 0.02705777689 0.04345149288
606.25 0.01320212007 -0.006382264944
606.875 0.01870769455 0.0347483135
607.5 0.03143666034 0.08235172725
608.125 -0.01404550495 0.07306299243
608.75 -0.04738544812 0.0329787588
609.375 -0.05291881341 0.005751061769
610.0 -0.03315868896 -0.008927900967
610.625 -0.0383968075 0.01053000535
611.25 0.01731091321 0.01926962869
611.875 -0.008962432048 0.03235051294
612.5 -0.0184236259 0.02836907911
613.125 -0.05417447399 0.01990038989
613.75 -0.03486873594 -0.01316134093
614.375 0.009198773617 -0.04849519949
615.0 0.06872820729 -0.03457213796
615.625 0.06003738477 -0.03975347948
616.25 0.002913174995 -0.05019998113
616.875 -0.05596044414 -0.01779472756
617.5 -0.03884481195 0.05567249276
618.125 -0.00614138702 0.06009541714
618.75 -0.01279103275 0.04279983509
619.375 -0.04876881207 0.01593033092
620.0 0.05269811262 -0.0569034677
620.625 0.08683862784 -0.01003350273
621.25 0.03093571755 -0.01162452256
621.875 0.04817125286 -0.05960410887
622.5 -0.06986240115 -0.07873417029
623.125 -0.1082420849 0.001411942786
623.75 -0.06913549608 0.03439594144
624.375 -0.0794224256 0.02132899161
625.0 -0.08790881273 -0.006874384246
625.625 -0.03502716888 -0.04424958955
626.25 -0.01825080716 -0.0231363584
626.875 0.04796770184 0.006706763622
627.5 0.07795329879 0.01141466973
628.125 0.07019840109 0.02068207066
628.75 0.06256819246 0.02742027125
629.375 0.06339681721 0.06177541229
630.0 0.07317494241 0.02832360118
630.625 0.08672271169 0.009312344889
631.25 0.07231106954 -0.0250901704
631.875 0.08218136702 -0.004852194541
632.5 0.07812950571 -0.02914622215
633.125 0.06688103059 -0.0170258116
633.75 0.05472941131 -0.02046706196
634.375 0.03994954879 0.02806517714
635.0 0.03596538132 0.0219569343
635.625 0.04478412201 0.0145723263
636.25 0.05284786093 0.01692203098
636.875 0.05766583079 0.03718660621
637.5 0.03204224983 0.0469929333
638.125 0.02821233651 0.01701601731
638.75 0.03534684359 0.0547496296
639.375 0.01689637855 0.08754966781
640.0 -0.03614350831 0.06590073207
640.625 -0.02735569388 0.04789873545
641.25 0.006580680715 0.06588088524
641.875 -0.02427541116 0.05274975803
642.5 -0.06750945839 -0.004425509162
643.125 -0.06008730786 -0.02492698558
643.75 -0.05238426655 -0.05141599692
644.375 -0.05835086462 0.01182455993
645.0 -0.07270327381 0.05886645865
645.625 -0.03169887723 0.07152677135
646.25 0.03548954491 0.06848150729
646.875 -0.001417438329 0.07584378769
647.5 -0.06735449429 0.002108578556
648.125 -0.04191516269 -0.05019880244
648.75 0.006785079788 -0.04293901947
649.375 0.0454224639 -0.01732199053
650.0 0.07223669144 -0.02869942325
650.625 0.03015255562 -0.0574944064
651.25 -0.04933998682 0.0001099776886
651.875 -0.04722081978 0.01603704147
652.5 -0.03410562304 0.02128544815
653.125 0.0008326382418 -0.08014144915
653.75 0.09009916434 -0.03407676547
654.375 0.09350532851 0.01307476369
655.0 0.115994794 0.04712579618
655.625 0.07563745894 0.02047184237
656.25 0.06440190636 -0.04850170079
656.875 0.00756937279 -0.08082127415
657.5 -0.02070582338 -0.08102699983
658.125 0.02329268721 -0.1295691585
658.75 0.01902564972 -0.07567667388
659.375 0.02666594902 -0.02625233421
660.0 0.0651336484 -0.01633577318
660.625 0.119165184 0.002778451994
661.25 0.1059344948 -0.0004065079074
661.875 0.08228831172 -0.04917859459
662.5 0.09537747395 -0.02299517142
663.125 0.09152630092 -0.07092349057
663.75 0.07082500435 -0.08316648534
664.375 0.063555967 -0.08586301415
665.0 0.05165577204 -0.09532475432
665.625 0.09206326303 -0.02568674224
666.25 0.06780501102 -0.0004529411119
666.875 0.006613332884 0.06187233131
667.5 -0.08561761933 0.02524225968
668.125 -0.07930596029 0.006946914186
668.75 -0.09939019758 -0.01150728841
669.375 -0.1058333915 0.01412274407
670.0 -0.07060031629 0.05606867244
670.625 -0.006300714358 0.07784406869
671.25 0.05663815073 0.05564284406
671.875 0.09169278998 0.03628971347
672.5 0.1068062007 0.01922665628
673.125 0.03712489664 0.06593342492
673.75 -0.07583683721 0.02415726151
674.375 -0.09223373286 -0.007399620987
675.0 -0.1157159736 -0.009471713803
675.625 -0.08710596251 0.01180739993
676.25 -0.03379701303 0.06289516983
676.875 -0.0006362943363 0.0680132363
677.5 0.05284942636 0.05941182886
678.125 0.03958027081 0.05150021607
678.75 -0.005207146367 0.1176716224
679.375 -0.06986259047 -0.009939441137
680.0 0.02048751133 -0.05276876308
680.625 0.1347934998 -0.05694111572
681.25 0.09486347236 -0.03662816142
681.875 0.02482318739 -0.08034142445
682.5 -0.06691081127 -0.06612110444
683.125 -0.09035751126 0.02782637159
683.75 -0.01465860676 0.0860798061
684.375 0.005128826926 0.08238832401
685.0 -0.03213937904 0.05947199945
685.625 -0.07137042677 -0.03244179694
686.25 -0.01914813279 -0.1515586739
686.875 0.1062947565 -0.05102004296
687.5 0.03350292614 0.05363762444
688.125 -0.001243741075 0.0565305192
688.75 0.001191134607 0.09307633461
689.375 0.05000822744 0.07764642527
690.0 0.06777010118 0.01389085862
690.625 0.06497503519 -0.06038913743
691.25 0.06698561807 -0.06335852056
691.875 0.05810617691 -0.0545170279
692.5 0.04045886488 -0.121788504
693.125 -0.04593547911 -0.1471576751
693.75 -0.08077511271 -0.06749744253
694.375 -0.1053701999 -0.06111408733
695.0 -0.08792568341 -0.1088317497
695.625 -0.01564947853 -0.1019053238
696.25 0.05659312482 -0.08652748704
696.875 0.08391456384 -0.07393332922
697.5 0.08613783626 -0.009431490129
698.125 -0.005784023002 0.06949162173
698.75 -0.06898466609 0.08376358358
699.375 -0.1215620163 0.06602892034
700.0 -0.05789931775 -0.06569573223
700.625 -0.02578765956 -0.08516200325
701.25 -0.06102021099 -0.07556812595
701.875 -0.129217588 0.05438550139
702.5 0.05241261029 0.1310970484
703.125 0.07042130905 0.01884776753
703.75 0.05217969099 -0.03130004379
704.375 0.09207412409 -0.04192397221
705.0 0.148543859 -0.03338385189
705.625 0.07240841903 0.0628887241
706.25 -0.1299892449 0.05323342837
706.875 -0.01081349504 -0.1008826196
707.5 0.002341770251 -0.08956028897
708.125 0.002581981032 -0.08960558796
708.75 0.0351298306 -0.06151908502
709.375 0.04657825802 -0.07486065766
710.0 0.03945259412 -0.09571624634
710.625 0.02549149146 -0.09449275297
711.25 0.01935169909 -0.08846916241
711.875 0.04926672867 -0.009021850932
712.5 0.07945713457 0.0523950021
713.125 0.1367383809 0.06369234258
713.75 0.1141818398 0.0002354481146
714.375 0.07435399905 -0.09058818018
715.0 -0.09543883641 -0.09587477443
715.625 -0.1361142665 -0.03865490838
716.25 -0.1442056477 -0.04863955648
716.875 -0.05951083814 -0.1094026148
717.5 0.02404824726 -0.08449508627
718.125 0.03987738481 -0.08883107169
718.75 0.0966371957 0.04264895692
719.375 -0.008126315592 0.06462188535
720.0 -0.08274494105 0.05071982523
720.625 -0.1036565066 -0.07370196269
721.25 -0.002788979062 -0.1257430411
721.875 0.0007705264635 -0.1208240199
722.5 0.0127776119 -0.1364304017
723.125 -0.1198572362 -0.03679339624
723.75 -0.1130048548 0.06682844445
724.375 -0.04042461776 0.108724996
725.0 -0.02299178639 0.1031019798
725.625 -0.01014961434 0.0727547239
726.25 -0.02105671073 0.03494124162
726.875 -0.09395587406 -0.01475203434
727.5 -0.111803015 0.01292365861
728.125 -0.1094771105 -0.05013574802
728.75 -0.08014987801 0.00248173321
729.375 -0.08050909455 0.01810100839
730.0 -0.08148059529 -0.08202719643
730.625 -0.05540152706 -0.06629040783
731.25 -0.07304982352 -0.0342209681
731.875 -0.06135283405 -0.05420364526
732.5 0.04165472074 -0.05612124839
733.125 0.05677354664 0.03557967756
733.75 0.0649334749 0.07202961657
734.375 0.1012150957 0.03422074094
735.0 0.1189986964 -0.03396608429
735.625 0.01800754678 -0.1096468829
736.25 -0.0264830512 -0.08411064478
736.875 -0.01047406552 -0.1193533216
737.5 0.02699276795 -0.08286390895
738.125 0.03483617509 -0.03277825567
738.75 0.04752931272 0.06465190053
739.375 0.04048358305 0.09177879432
740.0 0.07285320133 0.0369475681
740.625 0.0733492682 -0.03200912592
741.25 0.04680212619 -0.06530987488
741.875 0.0253917749 0.01473866581
742.5 0.01433298218 0.07524963356
743.125 -0.08544887402 0.02040303972
743.75 -0.04571947767 -0.09237136483
744.375 0.02946256996 -0.02150120574
745.0 0.03195651488 -0.02923858199
745.625 0.01499946278 -0.05544613448
746.25 -0.01598576271 -0.04859934952
746.875 -0.006161829137 -0.01065072075
747.5 -0.01998651923 0.01586660223
748.125 0.002982937285 0.04298804398
748.75 -0.0001861578242 0.04490890859
749.375 0.03083287153 0.05236925833
750.0 0.003183440441 0.08234374916
