!Created with skrf (http://scikit-rf.org).
# GHz S RI R 50.0 
!freq ReS11 ImS11
500.0 -0.02902015605 -0.01066749688
500.625 -0.01711502266 0.008406263064
501.25 -0.04148369465 0.003482871057
501.875 -0.09177134098 0.01139448415
502.5 -0.07239371437 0.006199275737
503.125 -0.01637894021 0.008522796588
503.75 -0.01951597021 0.02419162701
504.375 -0.01352085881 0.02536475218
505.0 0.004120473051 0.02720356348
505.625 -0.007388628541 -0.01851781679
506.25 -0.01244718091 -0.01029323271
506.875 -0.0489310294 -0.004332529074
507.5 -0.0400488304 0.01482247374
508.125 -0.04148235601 0.005521693923
508.75 -0.03776727122 0.05204963458
509.375 -0.03685708898 0.06051577418
510.0 -0.0350312835 0.02618947338
510.625 0.0003914425169 0.02220586863
511.25 0.007482111577 0.02549741217
511.875 0.002161365459 0.04392885832
512.5 0.02406843656 0.01868472368
513.125 0.06242741975 -0.01010974093
513.75 0.02985453612 -0.07605517352
514.375 0.004519458664 -0.05146231467
515.0 0.01682730699 -0.05212041443
515.625 0.03608499205 -0.03930407267
516.25 -0.02028732513 -0.04342972077
516.875 0.03548419301 0.00374838279
517.5 0.05758924135 -0.02219944643
518.125 0.136927671 0.02520832274
518.75 0.04015535748 -0.07997311866
519.375 0.02822547482 -0.04354958388
520.0 0.02915417893 -0.06832834906
520.625 0.03441668235 -0.08786811181
521.25 -0.02212612601 -0.06573125748
521.875 0.01348137528 -0.03596428593
522.5 0.00166244302 -0.07219591912
523.125 -0.0008588200597 -0.1638452286
523.75 -0.09772426679 -0.2012924726
524.375 -0.06675478262 -0.2161237329
525.0 -0.04273158274 -0.1344201869
525.625 -0.05448820259 -0.08853009305
526.25 -0.02283628534 -0.07214061256
526.875 -0.03379176792 -0.04768691014
527.5 -0.07113095415 -0.07135600428
528.125 -0.07014640021 -0.01874590519
528.75 -0.05661808585 0.009999145502
529.375 -0.07387385124 0.04792121352
530.0 -0.02734618123 0.1060983594
530.625 0.07994156399 0.06527541623
531.25 0.04385801897 0.03882240043
531.875 0.01842794361 0.04589989208
532.5 0.02162642194 0.1290752868
533.125 0.02330458427 0.1003442214
533.75 0.03739381203 0.05803301398
534.375 0.03008380289 0.05854472764
535.0 0.06056986998 0.1129055525
535.625 0.01546863392 0.09651995286
536.25 0.06418431493 0.03482507512
536.875 0.05656657269 0.04238033277
537.5 0.0200250089 0.05688829054
538.125 0.01478856792 0.04032229901
538.75 0.03811081045 0.07748340896
539.375 0.04070992647 0.1011703248
540.0 0.04695965123 0.1174153205
540.625 0.03965076509 0.04119870061
541.25 0.02970218375 0.06389888063
541.875 0.02757079196 0.08072719044
542.5 -0.0053658702 0.03295923051
543.125 -0.005463891075 0.02983236735
543.75 0.03886821914 0.06761551057
544.375 0.07529588259 0.07195017514
545.0 0.1121146165 -0.01203028864
545.625 0.06950259763 -0.06586531011
546.25 0.02437223047 -0.07294880034
546.875 0.03797427252 -0.07796418635
547.5 0.06245536393 -0.1052997043
548.125 0.05876976052 -0.08056363766
548.75 0.1081844671 -0.06777526814
549.375 0.1167184406 -0.04175476204
550.0 0.1523506399 -0.005363536806
550.625 0.1761179139 -0.01141109947
551.25 0.1107229379 0.03249394518
551.875 0.08298613227 0.008661032074
552.5 0.09078209151 -0.01273620508
553.125 0.08221847089 -0.03136675504
553.75 0.06834519161 0.002301354802
554.375 0.03576307741 -0.0002486223255
555.0 0.06138710391 -0.01034332993
555.625 0.07456266946 -0.01434985459
556.25 0.04920227147 0.005065928401
556.875 0.0362548176 0.02300555901
557.5 0.04733074388 0.03132489316
558.125 0.06801688114 0.05503085984
558.75 0.03767777549 0.07165993487
559.375 0.0622129535 0.07364112745
560.0 0.1068271691 0.06478497174
560.625 0.09787047197 0.03686324741
561.25 0.05903512668 -0.005448338972
561.875 0.05576094152 -0.00870687582
562.5 0.07128387667 -0.01899143715
563.125 0.05928221826 -0.02010572146
563.75 0.03921116262 -0.01667434194
564.375 0.05617809407 -0.03001370731
565.0 0.1116789743 -0.06615922732
565.625 0.09839489354 -0.04232585227
566.25 0.07047077812 -0.01932951696
566.875 0.08103759325 -0.01423294447
567.5 0.0955203604 0.01517712608
568.125 0.06525657757 0.05245528219
568.75 0.06902034347 0.05475632582
569.375 0.09096511803 0.06333671135
570.0 0.08626167487 0.05180869929
570.625 0.07344344245 0.03385107327
571.25 0.06322561821 0.01340985658
571.875 0.07276432743 0.01031466266
572.5 0.0522400527 -0.01760081096
573.125 0.03279033497 -0.004055427862
573.75 0.05393916088 -0.00712175999
574.375 0.07892312059 -0.02581846995
575.0 0.0595161976 -0.05304166396
575.625 0.03189050322 -0.03942665016
576.25 0.04682403818 -0.02617101734
576.875 0.06941746329 -0.02731282986
577.5 0.06789866429 -0.04281816183
578.125 0.06638562116 -0.04876085868
578.75 0.07876352185 -0.04271656208
579.375 0.09327264796 -0.04062461118
580.0 0.07959503203 -0.04960137428
580.625 0.06980006721 -0.06970343477
581.25 0.04664289701 -0.06969538473
581.875 0.04009067204 -0.05564280918
582.5 0.03718661894 -0.02053263659
583.125 0.05333766639 -0.04995527452
583.75 0.07185260855 -0.02864430224
584.375 0.06554847809 -0.01333642066
585.0 0.05574109476 0.007688796723
585.625 0.07028767422 -0.001262011322
586.25 0.06641680758 0.025427969
586.875 0.06274394519 0.00475784376
587.5 0.0648532378 -0.001762253389
588.125 0.07063305045 -0.05189866164
588.75 0.08460487194 -0.02972513485
589.375 0.06063630865 -0.06307712379
590.0 0.02441976663 -0.08823651853
590.625 -0.02936932353 -0.09366841926
591.25 0.004049938471 -0.04139037861
591.875 0.03505888792 -0.008861937861
592.5 0.04799998283 -0.04040658779
593.125 0.02704672057 -0.06941905944
593.75 0.05683332881 -0.0402516026
594.375 0.07106132032 -0.01612750646
595.0 0.09081304339 0.00702183471
595.625 0.09104051237 -0.0100113315
596.25 0.07748305435 0.01662350949
596.875 0.0457717996 0.05390973226
597.5 0.05125378536 0.06815532288
598.125 0.07632320777 0.0281278086
598.75 0.06597689192 0.04915390955
599.375 0.0754145003 0.02223427308
600.0 0.05786512006 0.02563909446
600.625 0.04022913516 0.003904860649
601.25 0.02019288274 0.004004357256
601.875 0.01401198494 0.03659456534
602.5 0.0008579575003 0.05569021105
603.125 0.01001835696 0.02945169177
603.75 0.003933446888 0.06020009562
604.375 -0.008763375856 0.08539250598
605.0 -0.01990883624 0.06774227468
605.625 -0.02504918253 0.04433988166
606.25 -0.03317645059 0.0380531043
606.875 -0.07779628295 0.0638349232
607.5 -0.04115995183 0.07020432888
608.125 -0.01028289034 0.06724857683
608.75 -0.003557095869 0.06090051066
609.375 -0.03933096364 0.05749231816
610.0 -0.03806404931 0.04451457688
610.625 -0.02636871805 0.03087250473
611.25 -0.02264053139 0.0106104865
611.875 -0.04889066835 -0.02492308317
612.5 -0.04004874845 -0.02771243745
613.125 -0.06551211785 -0.02745770672
613.75 -0.02180002982 -0.005768110182
614.375 -0.04311880103 -0.01631022205
615.0 -0.04907218721 -0.03293971693
615.625 -0.05936667477 -0.0319337921
616.25 -0.0413852917 -0.01681662503
616.875 -0.0422764432 -0.01745474726
617.5 -0.03836798463 -0.02545783107
618.125 -0.03463133784 -0.03234028939
618.75 -0.002639852122 -0.02034281604
619.375 -0.005604826284 -0.02760312658
620.0 0.009691045033 -0.03915104631
620.625 -0.003559267237 -0.06594652124
621.25 0.04250243582 -0.05793403705
621.875 0.01201547885 -0.0712232133
622.5 -0.08816410099 -0.0627425668
623.125 -0.08647028809 -0.02768402361
623.75 -0.03010144299 -0.01129239413
624.375 -0.02706273154 -0.02780584441
625.0 -0.006360079367 -0.06449519468
625.625 -0.008909986486 -0.04317741889
626.25 0.001600526848 -0.01463935984
626.875 0.03411115301 -0.01131499978
627.5 0.05720265782 -0.04060339917
628.125 0.06153999769 -0.006602941871
628.75 0.05418481648 -0.01186235518
629.375 0.07809513276 0.02467968609
630.0 0.07939730356 0.03027681011
630.625 0.07689283083 0.02746245132
631.25 0.0624579271 0.02477977716
631.875 0.07148858397 0.01937956455
632.5 0.08341801176 0.0008342706076
633.125 0.0462332123 0.0217144642
633.75 0.04233413135 0.01130372786
634.375 0.02137150271 0.05870824512
635.0 0.02657448368 0.0238943773
635.625 0.04452024118 0.01948885052
636.25 0.048008713 0.031635307
636.875 0.04973108753 0.04335463415
637.5 0.01721675154 0.05892385377
638.125 0.02226630501 0.05313352792
638.75 0.01701896851 0.07979321667
639.375 0.002321496722 0.08757658092
640.0 -0.0422198687 0.0713739497
640.625 -0.02093056578 0.05922721735
641.25 -0.01282559605 0.06672253025
641.875 -0.04460069116 0.03820029652
642.5 -0.05271731455 0.03034468776
643.125 -0.04366768529 0.03948481937
643.75 -0.06551604394 0.01467301517
644.375 -0.06445445408 0.006040041403
645.0 -0.08677240852 0.004838824975
645.625 -0.09344924098 0.02534494522
646.25 -0.07987220798 0.04213653536
646.875 -0.0593782497 0.02296596707
647.5 -0.08427218458 -0.004024228219
648.125 -0.09499677749 -0.002028156256
648.75 -0.07691426981 0.02065720293
649.375 -0.04628851844 0.0007243471184
650.0 -0.03655922874 -0.04143840212
650.625 -0.01992585781 -0.04328156476
651.25 -0.01098082367 -0.04997718718
651.875 0.0207921039 -0.04140637893
652.5 0.05223690367 -0.04301569819
653.125 0.1017590299 -0.04103755295
653.75 0.09239182665 -0.03079189027
654.375 0.0990620496 -0.01482527236
655.0 0.1402082838 -0.009388755755
655.625 0.1050124725 0.00170228446
656.25 0.0649927183 -0.02730519588
656.875 0.05215127436 -0.02966953499
657.5 0.07307885845 -0.0223792538
658.125 0.09013544332 0.01201405719
658.75 0.0443483863 0.00874458862
659.375 0.0555467777 0.008788912406
660.0 0.08486168666 -0.003255378004
660.625 0.1210382642 -0.02629242334
661.25 0.09579119466 -0.03898131249
661.875 0.05717283775 -0.06963801273
662.5 0.06420059699 -0.09122497255
663.125 0.06533826699 -0.08564489456
663.75 0.07956116531 -0.06574822219
664.375 0.1071434347 0.009341621968
665.0 0.06164758602 0.06600851225
665.625 0.03615978578 0.06519024089
666.25 0.02338347243 0.04819695719
666.875 -0.02647156624 0.07795505755
667.5 -0.08354407954 0.0671470358
668.125 -0.06769644185 0.04848222513
668.75 -0.04398317912 0.06705925329
669.375 -0.06076549684 0.08847449028
670.0 -0.08360944769 0.07512719641
670.625 -0.06033724573 0.04566107789
671.25 -0.03590685234 0.07345478288
671.875 -0.02901151982 0.1022358501
672.5 0.008955561589 0.08422026534
673.125 0.01109150741 0.05894819814
673.75 0.00144641414 0.056764418
674.375 -0.03170935014 0.07877869352
675.0 -0.06145166634 0.08846221574
675.625 -0.08123709597 0.05015966679
676.25 -0.09685220423 0.01149560339
676.875 -0.1051375655 -0.01666469819
677.5 -0.1314089004 0.00245094837
678.125 -0.1255835356 0.01620406178
678.75 -0.1057368838 0.002866140815
679.375 -0.07279035583 -0.01719698741
680.0 -0.05770868011 -0.009331749619
680.625 -0.104243133 0.004050998168
681.25 -0.112344348 -0.01016155448
681.875 -0.05345246011 -0.01719827591
682.5 -0.07213320814 -0.004555644849
683.125 -0.1122881185 0.03106871109
683.75 -0.1254466273 -0.000439275451
684.375 -0.08393142331 -0.05294662611
685.0 -0.0412780565 -0.1037053303
685.625 0.03479607633 -0.1298034661
686.25 0.07761927641 -0.1297051216
686.875 0.08182297266 -0.09020846291
687.5 0.09722718406 -0.06279377346
688.125 0.07828328104 -0.02069887178
688.75 0.08071975091 -0.003564312429
689.375 0.06691183595 0.01638762938
690.0 0.07185103869 0.04886006594
690.625 0.06635907983 0.07191432444
691.25 0.1017283809 0.03639039131
691.875 0.1227606028 -0.0236356405
692.5 0.09775643364 -0.1122993881
693.125 -0.01227641855 -0.147649402
693.75 -0.0807734951 -0.07831179959
694.375 -0.09664303304 -0.0551973377
695.0 -0.06989981262 -0.1087520598
695.625 0.04763463683 -0.09190257863
696.25 0.08505990871 0.0007862252569
696.875 0.0701173279 0.0694339396
697.5 -0.03117196256 0.08265252115
698.125 -0.06685901668 0.05973185341
698.75 -0.08250869976 0.08364830174
699.375 -0.08014326314 0.1093928655
700.0 -0.08177134837 0.06321007075
700.625 -0.09324353501 0.04342560359
701.25 -0.1138680695 0.04395125287
701.875 -0.1272181002 0.09518497112
702.5 -0.05017683125 0.05891051178
703.125 -0.0350201616 0.03391830435
703.75 -0.002733015671 0.1047073446
704.375 0.09300171625 0.1418708053
705.0 0.05093288824 0.1094360387
705.625 0.01526152019 0.09405636391
706.25 -0.05303271844 0.1121005227
706.875 -0.1536721273 0.01053560399
707.5 -0.1499846746 -0.04115750873
708.125 -0.07946552596 -0.07493718275
708.75 -0.02406091161 -0.09189668376
709.375 0.06071566201 -0.06971464851
710.0 0.08628268539 -0.052858445
710.625 0.07494104375 0.0103241067
711.25 0.05622956197 0.03341277023
711.875 0.04652259884 0.04767302362
712.5 0.07649078214 0.01739013224
713.125 0.1237407477 -0.01869004159
713.75 0.08577139402 -0.1172281555
714.375 -0.01617493757 -0.1315517502
715.0 -0.1054539512 -0.07966188466
715.625 -0.06883500624 -0.1392575569
716.25 0.02561503051 -0.1050879826
716.875 0.04259080724 -0.06983111365
717.5 0.07584535219 -0.02727159431
718.125 0.08599089778 -0.04731694821
718.75 0.09851749271 0.02240551851
719.375 0.03062515009 0.06337353402
720.0 0.0001209997988 0.07497595365
720.625 -0.05772292432 0.05840030022
721.25 -0.094560649 -0.03111927414
721.875 -0.01678868416 -0.1195297291
722.5 0.01206878018 -0.1365192392
723.125 -0.07113203799 -0.09502636889
723.75 -0.09636203441 -0.03446312262
724.375 -0.09346223092 -0.02663535857
725.0 -0.079609527 0.04035069474
725.625 -0.02037753892 0.0551799604
726.25 -0.03855021491 0.03819749967
726.875 -0.1031956902 0.004238514385
727.5 -0.1253562442 -0.03541226533
728.125 -0.09775072909 -0.06773453942
728.75 -0.06649894927 0.01043364095
729.375 -0.08092696865 -0.002985218524
730.0 -0.1010310201 -0.06477840435
730.625 -0.07126934372 -0.06263853479
731.25 -0.04214823078 -0.04053451808
731.875 0.0113865968 -0.0764625361
732.5 0.08508812119 -0.01889960126
733.125 0.05226193701 0.02067171417
733.75 0.06316600295 0.01461893117
734.375 0.06571285167 0.0008759322048
735.0 0.1178284326 -0.0271908057
735.625 0.08280249815 -0.06436210904
736.25 0.02386863694 -0.05175899996
736.875 0.02829673641 -0.0764288964
737.5 0.0524971494 -0.05003007289
738.125 0.05120058833 -0.01095700011
738.75 0.02539831628 0.03386251896
739.375 0.06682809113 0.07271832135
740.0 0.09172405014 0.05345978125
740.625 0.06728703521 0.006487702683
741.25 0.08791852402 0.02464196413
741.875 -0.02456232194 0.03435305131
742.5 -0.04428410314 0.03713387903
743.125 -0.06751375053 -0.02685526529
743.75 -0.05608491694 -0.08132336878
744.375 0.01000895169 -0.06348995137
745.0 -0.03516014902 -0.08401259451
745.625 -0.07352237771 -0.03778948244
746.25 -0.06257018776 0.0007461163079
746.875 0.00335457575 -0.02648955888
747.5 -0.0166081851 -0.02576730321
748.125 -0.06229694369 0.01072497295
748.75 -0.04935216858 0.0355789065
749.375 0.00280369982 0.06615298851
750.0 0.02762632831 0.0781856317
