!Created with skrf (http://scikit-rf.org).
# GHz S RI R 50.0 
!freq ReS11 ImS11
500.0 -0.004096620639 0.01405288204
500.625 -0.02004657262 0.009593200037
501.25 0.003428371619 0.0708355502
501.875 0.03778010187 0.04700408899
502.5 -0.01859265287 0.07714975956
503.125 -0.02254547701 0.07947761486
503.75 -0.01852978833 0.03802316326
504.375 -0.00665571542 0.007074620044
505.0 0.002935509477 -0.02364024497
505.625 -0.00698048924 -0.04648144516
506.25 -0.01960739886 -0.04915217416
506.875 -0.03559120568 -0.04782389262
507.5 -0.01231784126 0.04241913662
508.125 0.09393855236 0.0386673278
508.75 0.06766553574 -0.05105703041
509.375 0.06485030044 0.008127353796
510.0 0.06504334773 0.05272026497
510.625 0.04433571689 -0.001229829513
511.25 -0.0432229462 0.02055334309
511.875 -0.04679544981 0.03114101635
512.5 -0.02127942565 0.0392225383
513.125 0.05697819977 0.02433510544
513.75 0.04647385287 -0.04724384583
514.375 -0.02858305235 -0.0787662097
515.0 -0.07505306465 0.03599217885
515.625 -0.0829441449 -0.0005974359281
516.25 -0.06172202464 0.04899952927
516.875 0.05890667564 -0.01054547501
517.5 0.07480200721 -0.008659662025
518.125 0.1361412528 0.136765521
518.75 0.07753206758 -0.0126903808
519.375 0.0494477863 -0.0224357324
520.0 -0.02182098562 -0.0179530543
520.625 -0.02433325627 -0.009715993337
521.25 -0.02417250722 0.02759594982
521.875 -0.03396182677 -0.02556178985
522.5 -0.01964143645 -0.03927955319
523.125 -0.02551046298 -0.141613922
523.75 -0.07838958322 -0.1996361252
524.375 -0.05277962164 -0.2586183526
525.0 -0.06182738806 -0.09814310686
525.625 -0.0819382617 -0.04054404174
526.25 -0.06855420951 -0.04589506157
526.875 -0.05276170572 -0.02430786475
527.5 -0.07192862573 -0.001162854661
528.125 -0.06142869612 -0.003725623619
528.75 -0.05328905049 -0.0009547270646
529.375 -0.05881344218 0.06638110327
530.0 0.06632944564 0.0685146373
530.625 0.1345256743 0.001799466542
531.25 0.05281451311 0.06581168223
531.875 -0.02760090652 0.04538948535
532.5 -0.07241086048 0.07765945825
533.125 -0.05131186203 0.06394179069
533.75 0.007755049001 0.06184216097
534.375 0.02913803719 0.06090154846
535.0 0.07430551407 0.04079970088
535.625 0.07572638714 0.01087827154
536.25 0.05394069 -0.05947758716
536.875 0.06432845576 -0.06068924069
537.5 0.06977102627 -0.03110256795
538.125 0.004884950578 0.04211997247
538.75 -0.03186749885 0.0939945684
539.375 -0.06238879286 0.02026124808
540.0 -0.03640408377 0.03805446474
540.625 0.03174726576 0.04236958461
541.25 0.09035078888 0.01790522298
541.875 0.0879162016 -0.05940666801
542.5 0.06213123822 -0.0550621954
543.125 0.01076386557 -0.008766346442
543.75 0.0389533441 0.07687932253
544.375 0.06116692621 0.09283556869
545.0 0.0890605279 0.01116864114
545.625 0.07150628707 -0.04146914855
546.25 0.03582304877 -0.07319805482
546.875 -0.008271717082 -0.1133613156
547.5 0.02545618966 -0.07304603575
548.125 0.02880525095 -0.08181300535
548.75 0.05379113917 -0.1086137993
549.375 0.08208588284 -0.08165187116
550.0 0.09584441165 -0.05760605404
550.625 0.1085247105 -0.07659709553
551.25 0.1328578695 -0.03999155514
551.875 0.101292202 -0.04369338029
552.5 0.05835593995 -0.05007317079
553.125 0.06507731451 -0.007108078191
553.75 0.05361338406 0.01474587094
554.375 0.04172522833 -0.008024088968
555.0 0.02767302849 -0.0182231865
555.625 0.03455585885 -0.0467165686
556.25 0.05531056652 0.005143462564
556.875 0.05015495561 0.03755930779
557.5 0.04176495484 0.04856908208
558.125 0.05071698609 0.03682841546
558.75 0.04364016657 0.07488010726
559.375 0.07067380055 0.06208514171
560.0 0.07246781319 0.0518772824
560.625 0.08519546797 0.03330728863
561.25 0.0701602976 -0.02592985206
561.875 0.03118413407 -0.0814328785
562.5 -0.006887200708 -0.08987114916
563.125 -0.01382925415 -0.0703252075
563.75 0.02006947095 -0.03015737822
564.375 0.05155797485 -0.02887278856
565.0 0.09010024888 0.02508712004
565.625 0.09301712556 0.009907725913
566.25 0.07716041797 -0.0004022521409
566.875 0.08143593314 -0.04949065777
567.5 0.05344420407 -0.05936637596
568.125 0.03812189235 -0.03854047392
568.75 0.06325177572 -0.01631057331
569.375 0.09079019297 -0.02491893989
570.0 0.1051241874 0.005304616541
570.625 0.05460991523 0.03235012414
571.25 0.02417390128 0.05245127614
571.875 -0.0002608580671 0.05624951308
572.5 0.01252685118 0.03167694773
573.125 0.01793570054 0.01839230471
573.75 0.02189171332 -0.035577556
574.375 -0.08480388472 -0.006436475589
575.0 -0.09750048748 -0.009281787531
575.625 -0.0789710907 -0.00465385155
576.25 -0.03584550436 -0.03415965091
576.875 0.04926928301 -0.02869331668
577.5 0.0754112153 0.007238182808
578.125 0.08934990167 0.01155055167
578.75 0.09576631512 0.0286492775
579.375 0.1057528279 -0.04646730407
580.0 0.07405940108 -0.06017339111
580.625 0.01737908567 -0.08548226416
581.25 -0.05549647914 -0.08964670283
581.875 -0.09199337056 -0.07380410919
582.5 -0.009273382699 -0.06457469661
583.125 0.03583292944 -0.03124700736
583.75 0.06431758962 0.03190621855
584.375 0.02326859738 0.05881620793
585.0 0.03012054944 0.06452137687
585.625 0.04876805382 0.04695020925
586.25 0.06694203656 -0.02507433296
586.875 0.002615828786 -0.0743900037
587.5 0.0225381911 -0.04946249983
588.125 0.04374925001 -0.04509459185
588.75 0.07444815833 -0.04754112223
589.375 0.06760105869 -0.0523301652
590.0 0.04738501765 -0.05958446679
590.625 0.03436726421 -0.02171061533
591.25 0.02040554252 -0.02498466656
591.875 0.01406046908 -0.02451764832
592.5 -0.02370653924 -0.03069803131
593.125 0.02457601862 -0.06489173202
593.75 0.02107880131 -0.06223898841
594.375 0.02822546882 -0.04759224885
595.0 0.02875487956 -0.04616351689
595.625 0.06172241935 -0.04072447872
596.25 0.07216243587 0.02958113379
596.875 0.005922066703 0.07073889057
597.5 -0.01561393673 0.07253921064
598.125 -0.04376116703 0.005589308054
598.75 0.02972314808 0.06441066754
599.375 0.09042132673 -0.0281323128
600.0 0.03941506545 -0.09302568133
600.625 0.03596239862 -0.09026808768
601.25 0.02332027555 -0.07887277898
601.875 0.03181546175 -0.04398243474
602.5 0.01590890657 0.00720581544
603.125 -0.05311646932 0.0397917036
603.75 -0.08196967217 -0.01277957389
604.375 -0.02066096948 -0.04211297728
605.0 -0.03113499764 -0.02317476862
605.625 -0.06373908861 -0.009034089655
606.25 -0.0213389007 0.04992388895
606.875 0.03118627179 0.007704465954
607.5 0.005744980032 -0.02737660267
608.125 -0.004034971526 -0.03006350707
608.75 0.0635397194 0.02331764116
609.375 -0.0399961761 0.04617616586
610.0 0.007802498532 -0.01765467311
610.625 0.08406187035 0.005004572467
611.25 0.08104207663 0.007041621362
611.875 0.03053862332 -0.06831527586
612.5 -0.04069093472 -0.01861112886
613.125 0.006040356847 0.01436350803
613.75 0.03662788143 -0.025622754
614.375 0.02879572453 -0.02872695844
615.0 0.04833565572 0.03649971742
615.625 -0.01527106084 -0.01176060778
616.25 -0.01434408924 -0.03276200812
616.875 0.05052594589 0.02200270378
617.5 0.0391674418 0.07318166102
618.125 0.0454520173 0.007139416394
618.75 0.01453701095 -0.03156830487
619.375 -0.03555354576 0.02314734172
620.0 0.06101194926 0.05412138008
620.625 0.0669428922 0.01608431883
621.25 0.02923313953 0.02960427235
621.875 -0.04243924649 -0.02890603128
622.5 -0.05883098971 -0.07392994774
623.125 -0.02176828849 0.03594297737
623.75 -0.03374502147 0.06420934421
624.375 -0.03266067651 0.06967470764
625.0 0.01578036732 0.05147176413
625.625 0.003580186214 -0.008768860407
626.25 -0.06386071384 0.01341086104
626.875 -0.009441854241 0.1015562753
627.5 0.009827102599 0.08118102992
628.125 -0.02768698333 0.04194994434
628.75 -0.02231195223 -0.02734682861
629.375 0.08538148221 0.00758253077
630.0 0.01788297758 0.06794030619
630.625 -0.01235022472 0.01894100054
631.25 -0.008913071568 0.02564443278
631.875 0.07408917186 0.02524300776
632.5 0.01678675615 -0.07798637462
633.125 -0.02358957997 -0.06687815501
633.75 -0.01898768942 -0.07688125732
634.375 0.01649253318 -0.07736559697
635.0 0.04340507081 -0.009974490343
635.625 0.03494931324 0.02017249832
636.25 -0.05003915545 0.06856881024
636.875 -0.04247291639 0.03115482076
637.5 -0.05542661809 0.03111992154
638.125 0.003830405003 0.05033020074
638.75 0.007158532337 0.07662841253
639.375 0.02740328266 0.09365313406
640.0 0.05386382757 0.0679586658
640.625 0.05671155645 0.03401516234
641.25 0.04783263332 0.03429359933
641.875 -0.03963462491 0.04812598182
642.5 -0.05235700721 0.02650752603
643.125 -0.03806792186 0.03309914813
643.75 -0.05723482532 0.01937198951
644.375 -0.05534604267 0.02493778352
645.0 -0.06289621484 0.0351731321
645.625 -0.07409978142 0.04132434872
646.25 -0.05687004355 0.05930099925
646.875 -0.08302230198 0.02054205946
647.5 -0.05918307468 0.02974925996
648.125 -0.07362440908 0.01922927807
648.75 -0.07123133421 0.01439333563
649.375 -0.06541247652 -0.02125213154
650.0 -0.04909565245 -0.009225533012
650.625 -0.04521050993 0.01335599075
651.25 -0.02419831836 -0.03558763097
651.875 -0.0008111170065 -0.05962900155
652.5 -0.006612345518 -0.0336376727
653.125 0.01536933303 -0.05598270977
653.75 0.05271104635 -0.06186612746
654.375 0.0695412308 -0.06950415402
655.0 0.05076932385 -0.07758761011
655.625 0.09742552311 -0.03418443467
656.25 0.03570283049 0.01742303935
656.875 -0.03616143994 0.09037470548
657.5 -0.04317179679 0.05830219172
658.125 0.01861627559 0.03510649833
658.75 0.02161321637 -0.02976394344
659.375 -0.003283827158 -0.04519317824
660.0 -0.04156471093 -0.03345222517
660.625 -0.03778520673 -0.03379042636
661.25 0.01222384025 -0.06886029997
661.875 0.02303200367 -0.07458674799
662.5 0.09108395191 -0.05518113746
663.125 0.06633052693 -0.06419881945
663.75 0.07323101874 0.000503454498
664.375 0.07845007883 0.0539524956
665.0 0.1282146688 -0.03330689025
665.625 0.06479274871 -0.09060155947
666.25 0.06764037762 -0.05292984097
666.875 0.08906281992 0.01125167562
667.5 -0.0238553841 0.0818111801
668.125 -0.0832418617 0.01105196819
668.75 -0.08685872987 -0.05439376268
669.375 -0.0411403051 -0.08826031933
670.0 -0.02855344021 -0.06599071544
670.625 -0.06600916227 0.007564805757
671.25 0.00765375425 0.07875474221
671.875 0.06427636243 -0.05452958056
672.5 -0.01881188235 -0.06830174015
673.125 -0.03490181372 -0.08798886983
673.75 0.03374967578 0.04369426311
674.375 -0.1165065003 -0.02560879948
675.0 0.05148607909 -0.07515301988
675.625 0.06455107674 -0.02553035753
676.25 -0.007104409128 -0.0900398234
676.875 -0.1198569091 -0.03325574109
677.5 0.008045914829 0.07398347217
678.125 0.03545066024 -0.006791999345
678.75 0.04944082362 0.02425503726
679.375 0.07341359404 0.1259784997
680.0 -0.06153918215 0.03945072021
680.625 -0.03107374446 -0.04906492775
681.25 0.05777182696 -0.06996846239
681.875 0.0962298762 -0.06699724749
682.5 0.05160757291 -0.1712680862
683.125 -0.04891008247 -0.1370353187
683.75 -0.08490913162 0.03771035122
684.375 0.02045024061 0.05970361404
685.0 0.09267697423 0.0216325962
685.625 0.1119755473 0.0002041529606
686.25 0.03564284936 0.03776187788
686.875 -0.0666034428 -0.09037567561
687.5 0.07282718467 0.02537031278
688.125 -0.1141445286 -0.01820065984
688.75 -0.03353554164 -0.09630602589
689.375 -0.03150271668 -0.08180248454
690.0 -0.10808771 0.009546384304
690.625 0.08258094432 0.02767190875
691.25 -0.09571111453 0.05479051605
691.875 0.1181473005 0.095758173
692.5 0.1360723988 0.02342421459
693.125 0.08787710647 -0.01207192436
693.75 -0.0567709495 0.1189626161
694.375 0.04367205668 -0.06350781753
695.0 -0.04287916515 0.08216441024
695.625 -0.07345742301 -0.1093828784
696.25 0.04114990135 -0.116994364
696.875 -0.03413493476 -0.1251846364
697.5 -0.088951005 -0.001519731985
698.125 0.06220133707 -0.06553601098
698.75 -0.09238022155 0.09038353526
699.375 -0.07009320525 0.0662540038
700.0 0.05119875994 -0.05258959047
700.625 -0.09436751241 -0.02351144895
701.25 0.06755080401 0.02920972195
701.875 -0.07200668679 0.07814958523
702.5 0.008741542611 0.1049893784
703.125 0.1021984747 -0.05382441199
703.75 -0.1275859651 0.106945597
704.375 -0.05713026617 -0.06420722847
705.0 -0.0484292422 0.0726789128
705.625 0.01251933283 0.09692086142
706.25 -0.06817446841 0.1086831035
706.875 0.05288827284 0.01393081198
707.5 -0.08169148963 -0.04806002298
708.125 -0.04811485152 0.1112130689
708.75 -0.08833447931 -0.05841502386
709.375 -0.02719958613 -0.09535699982
710.0 -0.08346122083 -0.05544349119
710.625 -0.01774260199 0.05001069605
711.25 -0.1058444118 -0.003556248933
711.875 0.04201367936 0.05135703262
712.5 0.02385063323 0.1034638626
713.125 -0.03552851661 0.08831551736
713.75 0.01066356648 -0.1184787795
714.375 0.0560545429 -0.09992805039
715.0 -0.07107336706 0.04090731711
715.625 -0.1160237614 -0.07210926923
716.25 -0.1021138936 -0.114726055
716.875 -0.07343188956 0.08815572739
717.5 0.06922335141 0.03900045419
718.125 -0.01731938981 -0.08311376104
718.75 -0.02857066017 0.08733609428
719.375 0.03773730431 0.06347198876
720.0 -0.008504831495 0.06921279765
720.625 0.006056609797 -0.1084803212
721.25 0.004909643696 -0.1099968493
721.875 -0.02330822446 0.06541301641
722.5 -0.09699938134 0.01448285384
723.125 -0.04406341125 0.08489543329
723.75 0.03302281866 -0.07057670895
724.375 -0.06702598193 0.0846399392
725.0 0.04846413792 -0.05930215069
725.625 -0.008204431551 -0.0797570375
726.25 0.01540630346 -0.1189828762
726.875 0.08136918603 -0.02134854596
727.5 -0.0729959592 0.03905768355
728.125 -0.02095334197 -0.1035862401
728.75 0.07247817282 -0.07763536947
729.375 0.08535253532 -0.05612219718
730.0 0.0459397163 -0.08127383774
730.625 -0.02227723839 -0.04132157481
731.25 -0.05593279892 -0.02831801309
731.875 -0.07871829593 0.01376023647
732.5 -0.09473827656 -0.008882917091
733.125 -0.08234038057 -0.02191262126
733.75 -0.02088265908 -0.03638696895
734.375 0.07849881365 0.05789968717
735.0 0.09480986876 0.06920031537
735.625 0.05874561806 0.01863638347
736.25 0.05905691058 0.008605436234
736.875 0.04693097581 0.009734897324
737.5 0.04804926065 -0.01484463092
738.125 -0.02021316924 -0.01124955176
738.75 -0.01299680181 -0.01926271171
739.375 -0.04740840147 -0.07162324395
740.0 -0.012689948 -0.0978804986
740.625 0.01078574851 -0.0687552231
741.25 0.05225907826 -0.07011969317
741.875 0.07437295924 0.05085689262
742.5 -0.04708556869 0.05091921087
743.125 -0.05491706516 -0.06379378535
743.75 0.07306729913 -0.01994099125
744.375 0.07129337333 -0.03734414924
745.0 -0.03883552429 -0.09373964503
745.625 -0.08567844315 0.01825283974
746.25 -0.03612619767 0.07848299087
746.875 0.0449233729 0.0677350783
747.5 0.06206597533 0.007138550624
748.125 0.03759930469 0.01239315645
748.75 -0.007101782968 0.03065848064
749.375 0.01659116262 0.06812361273
750.0 -0.03146357029 0.095470509
