!Created with skrf (http://scikit-rf.org).
# GHz S RI R 50.0 
!freq ReS11 ImS11
500.0 -0.03376641385 0.04146199007
500.625 -0.01361845572 0.06280474518
501.25 -0.03110923833 0.02949240018
501.875 -0.07065571429 -0.01938137959
502.5 0.01632125819 -0.01571501308
503.125 0.01390984734 -0.005354485921
503.75 0.005148337614 -0.009609266377
504.375 -0.005976620587 0.04178546325
505.0 0.05743526016 0.03953515405
505.625 0.08209030444 0.008148735863
506.25 0.02500045998 0.004452923203
506.875 -0.008601217505 0.03569858677
507.5 -0.04916581186 -0.001809721308
508.125 -0.02127031833 -0.04342487639
508.75 -0.06650585068 -0.03734716786
509.375 -0.07460439383 0.02220213856
510.0 -0.0115256243 0.06990585225
510.625 0.03758697554 -0.005194704498
511.25 0.0246884775 -0.01738441499
511.875 0.0171179324 -0.01729639159
512.5 0.01555550721 -0.01983117066
513.125 -0.01097256138 -0.03497633155
513.75 0.02817352098 -0.0679604979
514.375 0.04366125763 -0.02555719147
515.0 0.04682163374 -0.007298305679
515.625 0.0735330638 0.04598519783
516.25 0.008469363499 -0.03215105345
516.875 -0.05518056394 -0.02179213618
517.5 -0.02604709729 0.04505846326
518.125 -0.02954267951 -0.02347820764
518.75 0.01541979168 -0.08833501934
519.375 0.05389377219 -0.02041369458
520.0 0.08585385371 0.0220544844
520.625 0.07117077367 0.05589310447
521.25 0.07737049577 -0.01004624454
521.875 0.04099497398 -0.0315469927
522.5 -0.01224593822 -0.02050397226
523.125 -0.04352089537 -0.02038310067
523.75 -0.06062039285 -0.01619911918
524.375 -0.1217809249 -0.05161513334
525.0 -0.0726546576 -0.06870527576
525.625 0.00465349522 -0.09009022618
526.25 0.01061672949 -0.05971923499
526.875 -0.01225783609 -0.05672986248
527.5 -0.06060130165 -0.03219326589
528.125 -0.08296395236 -0.02316680847
528.75 -0.06033908032 0.0245721849
529.375 -0.02792133975 0.08042546529
530.0 -0.01622719045 0.09736269208
530.625 0.01821406161 0.06067090368
531.25 -0.02029653648 0.01042852482
531.875 -0.10866891 0.01068511641
532.5 -0.03796124155 0.09046287725
533.125 0.02157911582 0.1179265571
533.75 0.06996362789 0.02180299559
534.375 0.05171214651 -0.0105789934
535.0 0.05394542067 -0.01490045266
535.625 0.08198273782 0.05790449039
536.25 0.07392324038 0.004335418859
536.875 0.03392889147 0.04720973609
537.5 -0.05648119828 0.02006627923
538.125 -0.02855207874 0.05264276699
538.75 0.009082446366 0.0897864621
539.375 0.0752041835 0.08641372578
540.0 0.1164814307 0.01295092378
540.625 0.09775963518 -0.01341097337
541.25 0.06287078945 0.01353359647
541.875 0.056359053 0.04101168537
542.5 -0.0003308910292 0.03331017253
543.125 -0.03125960909 0.05586562737
543.75 -0.0007501916589 0.09808181269
544.375 0.04370654886 0.101665832
545.0 0.07885360499 0.02691321589
545.625 0.08469357117 -0.05291285885
546.25 0.04056095408 -0.07734977897
546.875 -0.01201081528 -0.06761717215
547.5 -0.02339565824 -0.06943470411
548.125 -0.02769639058 -0.07935728405
548.75 0.02999198733 -0.07798789531
549.375 0.112083022 -0.05177130301
550.0 0.1200055928 0.01854389357
550.625 0.1421168431 0.0783373612
551.25 0.03899783434 0.06602416959
551.875 0.02483319201 0.02736301163
552.5 0.05313885289 0.007503424522
553.125 0.08023614526 -0.07831075346
553.75 0.0255535777 -0.1052183187
554.375 -0.008507426443 -0.07358511338
555.0 0.02018195585 -0.0357539627
555.625 0.07779975237 -0.003376675008
556.25 0.01926931085 0.05262483969
556.875 -0.02254862921 0.06305545143
557.5 -0.05229283197 0.08966677561
558.125 -0.02602950404 0.09762313736
558.75 0.04620666226 0.0742451892
559.375 0.07232817641 0.0171215824
560.0 0.08934778449 0.005922920495
560.625 0.1193020707 -0.0278601742
561.25 0.07327795304 -0.005947193358
561.875 0.02900458475 0.01683015554
562.5 0.02389996078 0.04254528843
563.125 0.05080822446 0.04647965312
563.75 0.05572610115 0.01002725442
564.375 0.06302361809 -0.01761636816
565.0 0.0706564395 -0.04680950705
565.625 0.07586951041 -0.07522585791
566.25 0.0505116414 -0.06437360193
566.875 0.03668742146 -0.04745046888
567.5 0.04852375192 -0.04710649718
568.125 0.07053298048 -0.03061778964
568.75 0.08556943504 0.01143332729
569.375 0.07380602431 0.0592038786
570.0 -0.01348495498 0.04754054043
570.625 -0.04679090154 0.02139036271
571.25 -0.02768988311 0.04417177857
571.875 0.0355719409 0.02490027312
572.5 0.0426440349 -0.04301361748
573.125 -0.02374139445 -0.07183894701
573.75 -0.05655977709 -0.0374578672
574.375 -0.01606230567 -0.05449040071
575.0 0.02741628093 -0.0605762586
575.625 0.04129323641 -0.03775545578
576.25 0.08748291187 0.0287655162
576.875 0.07341949099 0.043776356
577.5 0.07596218303 0.006345902062
578.125 0.08368258486 -0.03544184694
578.75 0.0900705197 -0.04061776592
579.375 0.07610282374 -0.04323391257
580.0 0.05871677748 -0.06800251739
580.625 0.04982670517 -0.08698141252
581.25 0.05805322371 -0.05578473145
581.875 0.02799417965 -0.006672169731
582.5 0.03881688196 0.01712709617
583.125 0.06526741867 0.03200320636
583.75 0.08738674044 -0.01584323553
584.375 0.06245618227 -0.01371893655
585.0 0.04333737381 0.009418908239
585.625 0.05529905186 -0.01695213326
586.25 0.0504778013 -0.05215311874
586.875 0.05495480325 -0.002867730433
587.5 0.06304374229 -0.00108778868
588.125 0.08117028158 0.02782181178
588.75 0.08328310625 0.03255445716
589.375 0.07364496077 -0.01219925708
590.0 0.04523990714 -0.05777191254
590.625 0.01626588302 -0.06924690789
591.25 -0.009494176886 -0.05100774377
591.875 0.01923039965 -0.02328325338
592.5 0.01699246611 -0.03717801764
593.125 -0.02030455691 -0.05401867798
593.75 -0.05017364053 -0.03760459557
594.375 0.03910350716 -0.03848214399
595.0 0.08892171877 0.02376168401
595.625 0.03275652575 0.07512417653
596.25 -0.01154919595 0.05633032177
596.875 -0.06348782886 0.02311131918
597.5 -0.05394980566 0.02455313033
598.125 0.0731346586 0.04437875466
598.75 0.05867499395 -0.05564417097
599.375 0.04788169602 -0.06955815501
600.0 0.0583079729 -0.07942729611
600.625 0.06537269683 -0.01731599873
601.25 0.03393103696 -0.02791916127
601.875 -0.01389879816 0.04259795762
602.5 -0.06779224095 0.03203438034
603.125 -0.07906504111 0.02627493902
603.75 -0.05566334874 0.05362342304
604.375 -0.06720577999 0.03021476498
605.0 -0.05091404573 0.0255643512
605.625 -0.02766325482 0.03918887076
606.25 -0.01571451303 0.05173055371
606.875 0.0167606803 0.0294410286
607.5 0.03985559095 0.04880504041
608.125 0.03838452912 0.07567700137
608.75 0.01099853205 0.05205409675
609.375 -0.0465787311 0.04106517332
610.0 -0.01947597307 -0.03580522533
610.625 -0.0009862504271 -0.04850786773
611.25 0.01217318772 -0.06806541618
611.875 -0.01596827632 -0.04814554557
612.5 -0.03818349276 -0.01114054551
613.125 -0.03109847531 0.03520591459
613.75 -0.02320561564 0.0597711214
614.375 -0.018654685 0.03256737251
615.0 -0.03935682223 -0.003474188114
615.625 -0.01796933054 -0.08174855219
616.25 0.01594757301 -0.05653344866
616.875 0.01340163374 -0.01644920671
617.5 0.003641447776 -0.01995195124
618.125 -0.01355796564 -0.05879330603
618.75 -0.05755710122 -0.0115045299
619.375 -0.0111465654 0.01108213013
620.0 0.002897333377 -0.01826187285
620.625 0.006163896581 -0.06490803148
621.25 0.0607913394 -0.07113333928
621.875 0.02732389234 -0.03097231786
622.5 -0.01019992499 -0.03223206746
623.125 0.0104834553 -0.03229383262
623.75 -0.02759189771 -0.03609070862
624.375 -0.01829655874 -0.01554563562
625.0 -0.05965134532 -0.04486268826
625.625 -0.08033622261 -0.0329554537
626.25 -0.04489244817 -0.003872256954
626.875 -0.02080903329 -0.007458859312
627.5 0.05575302154 -0.02034621883
628.125 0.0638095415 0.006037794104
628.75 0.05792465453 0.003222401665
629.375 0.07479803315 0.003236869123
630.0 0.04820371584 0.07128641485
630.625 0.08460233454 0.01961269391
631.25 0.08498883966 -0.01022801667
631.875 0.07736635753 0.005165725447
632.5 0.05720127846 0.01527863746
633.125 0.04350016814 0.02782084472
633.75 0.05296191512 0.009142414259
634.375 0.04583974596 0.01467413428
635.0 -0.008735857032 0.04738907467
635.625 0.0332821712 0.02429462106
636.25 0.05579232925 -0.003139635821
636.875 0.05992106612 0.01447073867
637.5 0.04770853277 0.005258209763
638.125 0.01339761154 0.06097581419
638.75 -0.002405349576 0.09439926541
639.375 -0.03603836141 0.07892074546
640.0 -0.03385400149 0.0458910258
640.625 -0.07179672754 -0.01713092774
641.25 -0.05386780495 -0.02644596322
641.875 -0.05829186257 0.02674224871
642.5 -0.02572919304 0.04242116348
643.125 -0.03223321899 0.04651484522
643.75 -0.06113012327 0.03341697967
644.375 -0.0637499902 0.01241707605
645.0 -0.06928702998 -0.01079108825
645.625 -0.03816787227 -0.09198704953
646.25 -0.03219906384 -0.05670389949
646.875 -0.05136991625 -0.02209361175
647.5 -0.05078902833 0.0195580777
648.125 -0.0703452373 0.06022083943
648.75 -0.05160151705 0.06843833633
649.375 -0.05253262357 0.0466834376
650.0 -0.02470622558 -0.01906044754
650.625 0.04354093676 -0.05428557641
651.25 0.04145180926 -0.04264664808
651.875 0.05289743399 -0.03182034937
652.5 0.09594495173 0.02748031937
653.125 0.0994176435 -0.0009539507584
653.75 0.08713496592 -0.0365224536
654.375 0.06401988416 -0.06071289276
655.0 0.07468198545 -0.06386498323
655.625 0.1248752667 -0.02331209392
656.25 0.05193732446 0.0003542730497
656.875 0.03900572593 0.03402411399
657.5 -0.002340590844 0.06502527315
658.125 -0.005335601985 0.04621633108
658.75 0.04343941311 0.04486748718
659.375 0.04304489611 -0.004427075734
660.0 0.05557447074 -0.02963203565
660.625 0.07256677081 -0.03844080612
661.25 0.06939872872 -0.08067187978
661.875 0.07010804422 -0.07910431678
662.5 0.06486213307 -0.09562316149
663.125 0.08150109278 -0.0408069964
663.75 0.106906635 0.005653576976
664.375 0.04871841106 0.05988883359
665.0 0.03054268112 0.05215751486
665.625 0.05441727097 0.06678382019
666.25 0.0772517091 0.03433902774
666.875 0.06933307954 0.006541859817
667.5 0.03588272415 0.05202709873
668.125 -0.04522047935 0.06296339731
668.75 -0.09801077424 0.04654200945
669.375 -0.08284343113 -0.01859764671
670.0 -0.02987376637 -0.04231460883
670.625 -0.05855607896 -0.06930374519
671.25 -0.0731620559 -0.05926998182
671.875 -0.06172636183 0.04573532719
672.5 0.04217310109 0.08780502677
673.125 0.09863678949 0.001765566604
673.75 0.07912393887 -0.04437425284
674.375 0.05239890107 0.01570890008
675.0 -0.06292645957 0.054206145
675.625 -0.1151562285 -0.04776308907
676.25 0.001735205832 -0.1132387875
676.875 0.01114338819 -0.07399163696
677.5 0.03019206306 -0.06850180142
678.125 -0.09226757112 -0.07023027324
678.75 -0.1401808577 0.04712483395
679.375 0.01059130348 0.1173363382
680.0 0.07261335641 0.1011009705
680.625 0.05262929274 0.07739387998
681.25 0.0546376175 0.1203203843
681.875 -0.05899202594 -0.05637605962
682.5 -0.002909620404 -0.1199597199
683.125 0.044826988 -0.09905283179
683.75 0.0664873472 -0.04704725374
684.375 0.0866598784 -0.04941861489
685.0 0.07228812484 -0.09249035154
685.625 -0.03545543028 -0.1055317932
686.25 -0.06511906174 -0.07993028846
686.875 -0.10051115 0.01308467345
687.5 -0.07934407977 -0.07029305772
688.125 0.07762811137 -0.006011671948
688.75 -0.03998165685 0.06997759741
689.375 -0.1579399201 -0.001154930265
690.0 -0.1020608568 -0.05138642053
690.625 -0.09883181788 0.01870569159
691.25 -0.01281449269 0.1182553445
691.875 0.1088577124 -0.04229349836
692.5 -0.06841728944 -0.04277469188
693.125 -0.01672988935 0.05823674042
693.75 0.06208003039 0.09257479057
694.375 -0.03198984294 0.1189502394
695.0 -0.1346714102 0.009036942032
695.625 0.0987761393 -0.04038061649
696.25 -0.08219887516 0.06661361002
696.875 -0.1158680851 -0.06182638776
697.5 -0.08779430663 -0.1015543904
698.125 -0.1084355415 -0.04047292561
698.75 -0.07278964425 0.06308218314
699.375 -0.03322907703 0.1048117273
700.0 -0.01631695456 0.1192666939
700.625 -0.07000312334 0.06508351017
701.25 -0.09683185149 0.05482243505
701.875 -0.1082354915 0.02881644588
702.5 -0.06828522829 0.04708056407
703.125 -0.0548091866 0.03824870683
703.75 -0.07645519682 0.08735207556
704.375 -0.07880186505 0.1142609282
705.0 -0.01316827665 0.1108425014
705.625 -0.001039083947 0.1088455106
706.25 -0.1049815474 0.07220929666
706.875 -0.1521427059 -0.0135204356
707.5 -0.1255429074 -0.04756029663
708.125 -0.1175522415 -0.0461202726
708.75 -0.02311567834 -0.098171995
709.375 0.07265957548 -0.03461458173
710.0 0.07712756707 0.01845197285
710.625 0.07763652603 0.02126704643
711.25 0.01374324991 0.07081696784
711.875 0.04729663116 0.03099709437
712.5 0.07273357206 0.02916495424
713.125 0.06671428906 -0.07202148716
713.75 0.02723811484 -0.1433108276
714.375 -0.01632474141 -0.1170366901
715.0 -0.07491928708 -0.1059156316
715.625 0.01994363542 -0.1413965503
716.25 0.05467719901 -0.03748750832
716.875 0.05191499768 0.000532673656
717.5 0.07502736054 0.02247738513
718.125 0.09776818439 0.04565843724
718.75 0.09473353609 0.02951837178
719.375 0.0784521714 0.01691933075
720.0 0.05357149181 0.02506050386
720.625 0.002764458961 0.07388471825
721.25 -0.09640125769 -0.03599448728
721.875 0.0735509544 -0.06410315934
722.5 0.09037882201 -0.01172233104
723.125 0.07926615884 0.01317123032
723.75 0.006389487688 -0.06336998333
724.375 -0.02099307158 -0.07278198147
725.0 -0.07294049028 0.01963640515
725.625 0.04776371362 0.07695830296
726.25 0.05092121195 0.04280585977
726.875 0.02788369107 0.03956082742
727.5 -0.09465581847 0.04948177539
728.125 -0.08048895884 -0.07499140077
728.75 -0.02866316336 -0.1012703825
729.375 0.00881716933 -0.05799818685
730.0 0.04965706737 -0.05410153361
730.625 0.05072960028 -0.04908694327
731.25 0.05435418702 -0.05837921591
731.875 -0.008446057592 -0.06694607083
732.5 0.01394047289 -0.07126181942
733.125 0.03729867967 -0.04706836042
733.75 0.01795203456 -0.07544560324
734.375 0.03653015233 -0.01015827505
735.0 0.07092727184 0.001228415484
735.625 0.05099411922 0.08496759943
736.25 0.04190420866 0.06891187999
736.875 0.02103962236 0.004214845153
737.5 0.03523438538 -0.01843138647
738.125 0.03465956445 -0.05293072034
738.75 0.01434165416 -0.07186474658
739.375 0.00794062891 -0.03943023062
740.0 0.06009775707 -0.05341025245
740.625 0.06180882758 -0.007374674605
741.25 -0.015865416 0.08563235693
741.875 -0.07542529747 0.03161346047
742.5 -0.01440991142 -0.03277962222
743.125 0.04173314777 -0.04500099348
743.75 -0.00545995083 -0.09210270458
744.375 -0.1026074115 -0.04397410303
745.0 -0.0690374341 -0.02865267127
745.625 -0.1023941563 0.01628672625
746.25 -0.07045961376 0.06120287689
746.875 -0.02970755443 0.05189787698
747.5 -0.01031379352 -0.01801081956
748.125 -0.05755789817 -0.008035528111
748.75 -0.08129820246 -0.005370565758
749.375 -0.05788873122 0.03179710118
750.0 0.01979688971 0.09136919333
