!Created with skrf (http://scikit-rf.org).
# GHz S RI R 50.0 
!freq ReS11 ImS11
500.0 -0.006694151556 0.005932384923
500.625 0.01000478047 0.0003861384512
501.25 0.001486766927 -0.01876438124
501.875 -0.02095337836 -0.02640999405
502.5 -0.013555181 -0.01249477592
503.125 -0.004245263594 0.001114578734
503.75 -0.00349307749 -0.006157213782
504.375 -0.009664138104 -0.01335589175
505.0 -0.006169657406 -0.01455349766
505.625 -0.005734197735 -0.02384492853
506.25 -0.03144734707 -0.02938335907
506.875 -0.04368143998 -0.06437129915
507.5 -0.05266137365 -0.0391768631
508.125 -0.0373348723 -0.05214831816
508.75 -0.07962138076 -0.02373129373
509.375 -0.08409356816 -0.01061754765
510.0 -0.0582916771 -0.01046276251
510.625 -0.02766046793 0.02302446846
511.25 -0.04587341352 0.03596156631
511.875 -0.0274964759 0.05875135405
512.5 0.01574196367 0.04663237102
513.125 0.06974485364 -0.0004424899844
513.75 0.0892943243 -0.02119007005
514.375 0.05968288866 -0.04157916783
515.0 0.03064633801 -0.05477012708
515.625 0.0758033012 -0.03833268179
516.25 0.06838663368 -0.05345220605
516.875 0.08653610001 0.03701487735
517.5 0.09667792458 -0.03780778045
518.125 0.1970760138 0.08036572964
518.75 0.09360741721 -0.07753485421
519.375 0.06846866531 -0.04628977942
520.0 0.03843194502 -0.06845886623
520.625 0.05367321277 -0.1063365005
521.25 0.02564717108 -0.1051688402
521.875 0.03889174537 -0.05309149241
522.5 0.002721013421 -0.08628436022
523.125 0.02017835536 -0.2284908855
523.75 -0.03339956987 -0.2951452216
524.375 -0.02871160186 -0.2894859088
525.0 -0.0338676995 -0.1421595371
525.625 -0.02641157486 -0.111685214
526.25 -0.0005703739319 -0.09207996391
526.875 -0.02491451096 -0.07749577305
527.5 -0.06400941623 -0.07908792355
528.125 -0.07491502599 -0.04103837963
528.75 -0.07658925162 -0.02576536529
529.375 -0.1147171961 0.04962195757
530.0 -0.07094423037 0.1180895959
530.625 0.02453574311 0.1074985186
531.25 0.01416186831 0.07704070911
531.875 0.004037854114 0.1096378434
532.5 0.00338910319 0.1603922915
533.125 0.00787576962 0.1286442895
533.75 0.03274950316 0.08844993739
534.375 0.04368063159 0.09654581596
535.0 0.05359342839 0.1240033521
535.625 0.009571123375 0.1055407109
536.25 0.07311716206 0.05441286484
536.875 0.06517335872 0.07596487238
537.5 0.004726347225 0.09269679042
538.125 0.003633764295 0.08192557604
538.75 0.0483910052 0.1052624712
539.375 0.0317022885 0.1538147785
540.0 0.03575711439 0.1197270739
540.625 0.03027686369 0.09199608625
541.25 0.03647501264 0.1062645223
541.875 0.0206255771 0.117881013
542.5 -0.01552528983 0.06121900801
543.125 -0.0008094701935 0.05797812457
543.75 0.06284277496 0.0834250324
544.375 0.1024999866 0.09246251875
545.0 0.1152650626 -0.006099752297
545.625 0.07717839853 -0.07042701953
546.25 0.05475627189 -0.115547339
546.875 0.05717710243 -0.108813003
547.5 0.07105847543 -0.1022808118
548.125 0.09740474831 -0.1145749637
548.75 0.1400739227 -0.08515985155
549.375 0.1515780775 -0.05011211302
550.0 0.1547331336 0.00177673188
550.625 0.1891145095 -0.004521187751
551.25 0.1332845242 0.07634562369
551.875 0.1006923516 0.02400121826
552.5 0.09037015892 -0.005251931739
553.125 0.1119510498 -0.0239915093
553.75 0.0900050477 0.02151351098
554.375 0.05421914062 0.002878824798
555.0 0.06395397743 -0.004032927244
555.625 0.0940505302 -0.01734460483
556.25 0.09230548929 0.01729493912
556.875 0.05966205229 0.02502983352
557.5 0.07170235173 0.02936985017
558.125 0.08953695613 0.06457044197
558.75 0.06016504398 0.09782678723
559.375 0.07913516884 0.08268518464
560.0 0.1041551164 0.07269930297
560.625 0.1062263997 0.04844558661
561.25 0.08545122793 0.00766702657
561.875 0.07840582278 -0.0143501763
562.5 0.08281341128 -0.01842627333
563.125 0.07076443977 -0.02046363509
563.75 0.05372910668 -0.02653639301
564.375 0.06034105901 -0.0528027501
565.0 0.1227093322 -0.05672060461
565.625 0.1055652949 -0.04403310929
566.25 0.09190126576 -0.03468536063
566.875 0.09890391494 -0.03484304132
567.5 0.1172098937 0.007459511003
568.125 0.08820260172 0.05620964487
568.75 0.09295664328 0.05842208788
569.375 0.110320459 0.0673852212
570.0 0.1085851346 0.06025091227
570.625 0.09221445808 0.03866110255
571.25 0.09295479336 0.0134262379
571.875 0.1022952147 0.006908206155
572.5 0.06783591375 -0.02018578806
573.125 0.04823008895 -0.01966022656
573.75 0.07128594121 -0.03548299101
574.375 0.08983072955 -0.05916629424
575.0 0.06482128741 -0.05726684405
575.625 0.03218065006 -0.05512124502
576.25 0.04436461754 -0.06607096061
576.875 0.07410705532 -0.05116799398
577.5 0.07165555803 -0.04419396799
578.125 0.06482074627 -0.05748487437
578.75 0.07874108294 -0.08350685356
579.375 0.1014444873 -0.07398036377
580.0 0.08161325927 -0.06452546751
580.625 0.06736242415 -0.09223267211
581.25 0.05033035597 -0.1093119663
581.875 0.04511324967 -0.07485935739
582.5 0.03958675396 -0.03939205004
583.125 0.06047672555 -0.0464184219
583.75 0.08440132811 -0.04486785092
584.375 0.07514368001 -0.03065805535
585.0 0.06290580227 -0.01339514222
585.625 0.07679635575 -0.006375152505
586.25 0.09063211732 0.001855027529
586.875 0.07124622447 -0.01031859464
587.5 0.06437224923 -0.02674174211
588.125 0.07838140907 -0.0501358777
588.75 0.08843189951 -0.05167587987
589.375 0.05470779611 -0.08022984049
590.0 -2.932594434e-05 -0.1024002476
590.625 -0.02025421325 -0.09770814533
591.25 -0.0002471580238 -0.05098691123
591.875 0.01316263736 -0.03105621545
592.5 0.01665268146 -0.05092259809
593.125 0.03164753475 -0.07577911422
593.75 0.04991463697 -0.05709440485
594.375 0.05817575112 -0.03284357376
595.0 0.07765915692 -0.02644665982
595.625 0.09417588765 -0.008663852514
596.25 0.08212689414 0.01022161733
596.875 0.06633243301 0.02162312955
597.5 0.07053755926 0.03135434509
598.125 0.07849932151 0.03366748058
598.75 0.08601044269 0.01040260473
599.375 0.08635620065 -0.007630444331
600.0 0.07550511695 -0.0103248378
600.625 0.05221852904 -0.009793669662
601.25 0.03237812251 -0.01063977138
601.875 0.02784333215 0.002309135006
602.5 0.02299835337 0.01818405581
603.125 0.01181106274 0.02781294944
603.75 0.01623295077 0.0332197034
604.375 0.02897494663 0.04100171779
605.0 0.02651195656 0.03798503752
605.625 0.00624067505 0.02651404246
606.25 -0.01185024917 0.02908992981
606.875 -0.01932050511 0.04937314135
607.5 -0.00311052208 0.06062722957
608.125 0.01963954744 0.04726218138
608.75 0.02254566762 0.03600715022
609.375 0.01645117809 0.03899142913
610.0 0.01680055972 0.03434341856
610.625 0.01992573388 0.02078513916
611.25 0.01583721472 0.007339483799
611.875 0.005784489218 -0.003496044679
612.5 -0.003046675208 -0.01276034526
613.125 -0.01459831562 -0.01149926242
613.75 -0.0183275419 -0.0008652691082
614.375 -0.007218063331 0.004055104752
615.0 -0.0006656655006 -0.003172545754
615.625 -0.001296974614 -0.01201857777
616.25 -0.008659864696 -0.005521419738
616.875 0.000196549144 0.004243323035
617.5 0.01232999087 0.0007436955336
618.125 0.02138064159 -0.007946862492
618.75 0.02104812038 -0.008026609735
619.375 0.03079841877 -0.003804187674
620.0 0.04697800877 -0.0118080108
620.625 0.05009986199 -0.03902930061
621.25 0.04453289418 -0.04920026705
621.875 0.03215700287 -0.05896769674
622.5 -0.02489075033 -0.04998261634
623.125 -0.02172341127 -0.02416418109
623.75 -0.004442289004 -0.01081768709
624.375 0.01646934446 -0.007806059365
625.0 0.02378284204 0.002842670832
625.625 0.02454498516 0.01301143575
626.25 0.03625329045 0.02124883151
626.875 0.06520685105 0.0245469039
627.5 0.07148898537 0.03712038588
628.125 0.06315453931 0.03755940038
628.75 0.06452239565 0.03809408848
629.375 0.0774453158 0.0501722758
630.0 0.07153345927 0.06822022877
630.625 0.05439644042 0.06145973085
631.25 0.05425472411 0.05308263248
631.875 0.04749411457 0.05617658964
632.5 0.03064853137 0.05228697363
633.125 0.01202093656 0.04819068234
633.75 0.0187030299 0.05464807238
634.375 0.009889554637 0.06408082065
635.0 0.007088308818 0.06241271462
635.625 0.01292881445 0.07032844895
636.25 0.02666514646 0.0903129987
636.875 0.01725148338 0.08826343508
637.5 0.006555667411 0.06362308337
638.125 -0.0005703566353 0.07811768715
638.75 -0.01637340545 0.1200017361
639.375 -0.048700219 0.1025727614
640.0 -0.0479359055 0.06539104284
640.625 -0.04840881398 0.05781737873
641.25 -0.08367202209 0.04559875081
641.875 -0.08638816866 0.00782976122
642.5 -0.0735965714 0.004146545012
643.125 -0.08121324969 0.006378904068
643.75 -0.09999016532 -0.01835490624
644.375 -0.0975153936 -0.03601657058
645.0 -0.09692457557 -0.01192701813
645.625 -0.1183161709 0.007908041332
646.25 -0.1138313876 0.008062493488
646.875 -0.09309545236 -0.01340230565
647.5 -0.08772108722 -0.01308840544
648.125 -0.1094810016 -0.01480896297
648.75 -0.08810717143 -0.03633864315
649.375 -0.05687164937 -0.03865312937
650.0 -0.03917253081 -0.05745022157
650.625 -0.007296182703 -0.0881627572
651.25 0.02730091576 -0.08145438697
651.875 0.04925544643 -0.06433372439
652.5 0.08748371802 -0.06386686874
653.125 0.1413127365 -0.0288752009
653.75 0.1287293342 -0.001132766794
654.375 0.1261028339 -0.002297804127
655.0 0.1425942143 0.004281354319
655.625 0.1284810783 0.03012683543
656.25 0.08456297658 0.01681944479
656.875 0.08839492598 -0.01805521519
657.5 0.1099976401 -0.000700606314
658.125 0.09135874123 0.02788052855
658.75 0.06139336314 0.03564938597
659.375 0.08103579318 0.01574128568
660.0 0.1249764459 -0.0035682232
660.625 0.126596826 -0.01491394708
661.25 0.1148778367 -0.04030387306
661.875 0.1068604936 -0.08685075716
662.5 0.1012067297 -0.1146463085
663.125 0.09967769551 -0.09263630688
663.75 0.1117107154 -0.05581348248
664.375 0.1348764226 0.03184150618
665.0 0.0689215708 0.08615771998
665.625 0.03520298455 0.08023422008
666.25 0.01906433621 0.08540177214
666.875 -0.04053143579 0.1168410841
667.5 -0.09523215046 0.06866333533
668.125 -0.08062937198 0.0590463487
668.75 -0.07062877572 0.09912848763
669.375 -0.09259994059 0.1271735319
670.0 -0.1033243954 0.08095720887
670.625 -0.08333631159 0.0563007154
671.25 -0.06973771656 0.1047301222
671.875 -0.05374889815 0.1322291503
672.5 -0.005310954124 0.1193249156
673.125 0.007008599542 0.09351442585
673.75 -0.002717543909 0.103583222
674.375 -0.03763084982 0.1119311211
675.0 -0.06777280326 0.0906153172
675.625 -0.1005750581 0.07522706916
676.25 -0.1426801111 0.01303168349
676.875 -0.1367113834 -0.01780752079
677.5 -0.1368718408 -0.002914590595
678.125 -0.1640452843 0.02319875737
678.75 -0.1575210871 -0.02678515203
679.375 -0.08826261438 -0.03343135674
680.0 -0.07805523512 -0.0151597173
680.625 -0.1103431406 -0.005717048059
681.25 -0.1274564071 -0.01659470571
681.875 -0.08778375316 -0.02419178705
682.5 -0.08945048791 0.01257911351
683.125 -0.1290292107 0.04360899626
683.75 -0.163459983 0.01711160213
684.375 -0.1248872398 -0.0732833891
685.0 -0.05377455845 -0.1238068482
685.625 0.03215952068 -0.1576320564
686.25 0.09041335837 -0.1352835253
686.875 0.1050564795 -0.1123240159
687.5 0.1240053929 -0.07580830289
688.125 0.1074821721 -0.02684056264
688.75 0.08440806094 0.006183546831
689.375 0.08997831146 0.01566110912
690.0 0.1223416335 0.05149932982
690.625 0.09496189904 0.08118107856
691.25 0.1018699165 0.04647979308
691.875 0.1316271441 -0.03817833784
692.5 0.1068056529 -0.1776344579
693.125 -0.02781969097 -0.1931116943
693.75 -0.101613653 -0.08959570243
694.375 -0.1237478502 -0.059108386
695.0 -0.1004550319 -0.1331453866
695.625 0.05133923538 -0.1461649739
696.25 0.1075492736 -0.01566572281
696.875 0.07649891013 0.07297991934
697.5 -0.009537062602 0.1138424195
698.125 -0.06283063906 0.1065339884
698.75 -0.07601566605 0.1151877037
699.375 -0.08904811483 0.1145731333
700.0 -0.09478253947 0.085774774
700.625 -0.101886703 0.06027975289
701.25 -0.1222621576 0.07888362478
701.875 -0.1366573413 0.08302597484
702.5 -0.06170243596 0.07748036668
703.125 -0.01946318278 0.06878404747
703.75 0.04865574048 0.1003869939
704.375 0.1123748476 0.1435457374
705.0 0.08051203789 0.1199328318
705.625 0.03897316739 0.1049419044
706.25 -0.02977104188 0.1331431828
706.875 -0.1670040347 0.06029446932
707.5 -0.1467836083 -0.05462521162
708.125 -0.09376404057 -0.07614304622
708.75 -0.052468836 -0.1050161032
709.375 0.03817070043 -0.1069252852
710.0 0.09409116347 -0.04858096612
710.625 0.09268293314 -0.01467608291
711.25 0.08407522652 0.01167616845
711.875 0.06733335314 0.02268044428
712.5 0.08535057402 0.01831476772
713.125 0.1201549057 -0.06459593448
713.75 0.04410788269 -0.1523794716
714.375 -0.05857296077 -0.1278038532
715.0 -0.1110445673 -0.07773892333
715.625 -0.1315888275 -0.1023537636
716.25 -0.04560905065 -0.1466022043
716.875 0.01801126543 -0.09861746656
717.5 0.05182750629 -0.06623362636
718.125 0.09306142926 -0.04843473647
718.75 0.1087504015 1.790878136e-05
719.375 0.07053304317 0.03223968261
720.0 0.03887851851 0.047998889
720.625 -0.03158421997 0.0679895985
721.25 -0.09784230162 -0.01379473256
721.875 -0.05571115268 -0.09798292474
722.5 -0.04405532591 -0.1131242088
723.125 -0.0963561856 -0.08559970492
723.75 -0.1109779856 0.001974649918
724.375 -0.0710061716 0.05696515654
725.0 -0.01711822214 0.07347610233
725.625 0.00700948082 0.05680811817
726.25 0.001264987895 0.03839588618
726.875 -0.03112757321 0.03473841497
727.5 -0.06700816782 0.02868867124
728.125 -0.08355207171 0.004468959805
728.75 -0.07154001339 0.01129860741
729.375 -0.0511790393 0.03009671549
730.0 -0.05194651489 0.02298991373
730.625 -0.05305304168 0.008783529842
731.25 -0.0445419197 -0.008981081192
731.875 -0.02992224674 -0.02655856284
732.5 -0.005102112067 -0.03175721938
733.125 0.006603462261 -0.01169837009
733.75 0.01598723364 0.001563738409
734.375 0.02710060911 -0.002961500611
735.0 0.02475009546 -0.02240581905
735.625 0.01387931727 -0.02307870252
736.25 0.0070037918 -0.03131306051
736.875 -0.009987330673 -0.03339153282
737.5 -0.02429009503 -0.02162286639
738.125 -0.03488786439 0.005138032891
738.75 -0.02868175591 0.02924585719
739.375 -0.009041419696 0.03864950708
740.0 0.009620168201 0.02391228672
740.625 0.0005610510189 0.02073023939
741.25 -0.008058102425 0.03287745398
741.875 -0.02680134715 0.02622140769
742.5 -0.03703679625 -0.01163347074
743.125 -0.004860779421 -0.04174199998
743.75 0.02755845507 -0.03834771722
744.375 0.02649980995 -0.03837924632
745.0 0.01607280791 -0.04403309067
745.625 0.001564238085 -0.03677996263
746.25 0.01511904841 -0.01978654635
746.875 0.02037089799 -0.03719818278
747.5 -0.007503403962 -0.05485765666
748.125 -0.03831673455 -0.04663409187
748.75 -0.06251084915 -0.0155980364
749.375 -0.05834904704 0.03727414921
750.0 0.003287473155 0.08674961016
