!Created with skrf (http://scikit-rf.org).
# GHz S RI R (50+0j) 
!freq	ReS11	ImS11	
500.0	0.4526513636	-0.8420404387	
500.625	2.395233842	-3.981597117	
501.25	-2.295880655	-1.844934349	
501.875	-1.227826664	-0.301764615	
502.5	0.01685539926	-0.4101087657	
503.125	-0.3647787671	0.2030780736	
503.75	-0.009746870464	-0.03693415275	
504.375	0.1942315207	-0.01643792026	
505.0	-0.08769409445	0.03170162408	
505.625	0.1147410868	-0.3975966064	
506.25	-0.2233919514	0.3322432956	
506.875	-0.6616562595	-0.9698737373	
507.5	-1.584158129	-0.9905669443	
508.125	0.3038937463	-0.1593280504	
508.75	3.061750569	-3.673902552	
509.375	-2.75155198	-3.419012536	
510.0	-0.2455259699	-0.7863687723	
510.625	-0.9611155654	-0.8805570839	
511.25	-0.05708169573	-0.2151987544	
511.875	-0.585499289	-0.1966673752	
512.5	-0.05472760971	0.2073570136	
513.125	-0.04007172822	-0.2466961258	
513.75	-0.08992186856	-0.3610403645	
514.375	-0.6746724468	0.02708163898	
515.0	1.480977016	-0.04573456341	
515.625	-2.197227106	-1.495401313	
516.25	1.299840223	-0.2200498908	
516.875	-1.119846734	-2.706590654	
517.5	-0.7140697499	0.2876792185	
518.125	0.007656505194	-0.4576069063	
518.75	-0.5345668209	0.1428423409	
519.375	-0.1755377625	0.01800377901	
520.0	0.4934225259	0.2247106422	
520.625	0.3398063659	-0.3196212036	
521.25	0.3412379264	-0.6349254623	
521.875	-0.5932907277	-0.004554154251	
522.5	-0.009007714904	0.02543784463	
523.125	-0.2112468273	0.1614009199	
523.75	-0.1197886578	-0.2209673899	
524.375	-0.3799787422	0.3812784037	
525.0	-0.1936185459	0.02530107534	
525.625	0.1366614575	0.3625441461	
526.25	-0.1959568494	-0.2504755849	
526.875	0.00499044863	0.3057986842	
527.5	-0.1673138522	0.1736954349	
528.125	-0.002282472039	1.184069788	
528.75	0.5419615932	0.4361678692	
529.375	-0.06569212148	0.3594826742	
530.0	0.2311789151	0.1125867725	
530.625	0.08014231959	1.43682044	
531.25	1.088657799	-0.1929304115	
531.875	0.7295604074	-0.01355582454	
532.5	-0.682577896	-0.4877467126	
533.125	0.5130895286	0.01815571559	
533.75	-0.276077584	-0.6765288929	
534.375	0.2306082211	-0.6631045955	
535.0	-1.048394142	-0.1640220364	
535.625	-0.157118094	0.1657041866	
536.25	-0.1157702178	0.2753337949	
536.875	0.3458560929	-0.009944418686	
537.5	0.06419081484	-0.01513682105	
538.125	0.4641742728	-0.2044117466	
538.75	0.1278555118	-0.2753630273	
539.375	-0.001199121347	-0.4885090057	
540.0	-0.6471129512	-0.3048010397	
540.625	-0.1457402835	-0.06000062738	
541.25	-0.308684633	-0.05964787898	
541.875	-0.1396953009	0.01858921243	
542.5	-0.03642095506	-0.0259712095	
543.125	-0.2119622843	-0.2698670131	
543.75	-0.2588153151	0.2392206646	
544.375	-0.1625360428	-0.1333999804	
545.0	0.1172752924	0.2800619467	
545.625	-0.0915130899	0.04131179907	
546.25	0.5208339617	0.1832329665	
546.875	0.01415155185	-0.1289503647	
547.5	0.4186024643	-0.2025449707	
548.125	-0.2844994531	-0.5331489726	
548.75	-0.1939253868	-0.09939337728	
549.375	-0.1821938559	-0.3315689842	
550.0	-0.2741825538	0.1351503638	
550.625	-0.04175260574	-0.1160550559	
551.25	-0.2565554312	0.2067544655	
551.875	-0.1008385299	0.04236848666	
552.5	-0.2022860498	0.2545807099	
553.125	0.01219354659	0.1350939439	
553.75	0.08316875766	0.1360784886	
554.375	0.2552030566	0.0007797149733	
555.0	0.2172057763	-0.1678217621	
555.625	0.2124057905	-0.2405618129	
556.25	0.1673547644	-0.354169192	
556.875	-0.08677781301	-0.3828489318	
557.5	-0.2110544097	-0.2522730893	
558.125	-0.2831399186	-0.1111588911	
558.75	-0.2578161052	0.01006719379	
559.375	-0.2326091117	0.01568251067	
560.0	-0.277451506	0.1760305762	
560.625	-0.07257013953	0.282803572	
561.25	-0.02943564992	0.1589180515	
561.875	0.1223076914	0.1838529684	
562.5	-0.03888342003	0.02588469844	
563.125	0.2470746413	0.2608832985	
563.75	0.191842966	-0.08784603086	
564.375	0.4098772638	-0.09096454975	
565.0	0.1332929007	-0.4982019208	
565.625	-0.09249816747	-0.211062201	
566.25	-0.1588181727	-0.3422599539	
566.875	-0.4762963149	-0.1960700347	
567.5	-0.2099811666	-0.09973966482	
568.125	-0.255662203	-0.6008881985	
568.75	-0.6540380114	-0.03536156745	
569.375	-0.4095916747	-0.0011149455	
570.0	-0.4833405892	0.6658179764	
570.625	0.1120996626	0.354032217	
571.25	-0.3352296967	0.1377870841	
571.875	0.504041765	0.2360527726	
572.5	-0.06152343696	0.118401043	
573.125	0.5401996599	-0.3262310171	
573.75	-0.1388380171	-0.4257380499	
574.375	0.1820798786	0.1216798715	
575.0	-0.006401959354	-0.4189805227	
575.625	0.1624775626	0.1438763825	
576.25	0.289664687	-0.496099836	
576.875	-0.2874601282	-0.2657489287	
577.5	0.2071522924	-0.1283602011	
578.125	-0.009128776606	-0.6296238439	
578.75	-0.391386011	-0.2006917992	
579.375	-0.002844623914	-0.02042878694	
580.0	-0.2185863041	-0.329230746	
580.625	0.01008485236	0.1534695064	
581.25	-0.4954776124	-0.01455396566	
581.875	0.2052714297	0.5409660926	
582.5	0.1307045071	-0.02498006257	
583.125	-0.1658841224	0.4547791179	
583.75	0.5357162261	-0.1673728497	
584.375	-0.3516468944	0.360020895	
585.0	0.6198629422	0.08482986319	
585.625	-0.01536574016	-0.07554082523	
586.25	0.6361201423	0.07147532612	
586.875	-0.09306695667	-0.480517712	
587.5	0.1941791093	-0.1263556425	
588.125	-0.02512645944	-0.6156606652	
588.75	-0.2010842715	-0.2707853398	
589.375	0.4346793595	-0.06145263998	
590.0	-0.2057369304	-0.6301840401	
590.625	-0.3821314028	0.02319313686	
591.25	-0.2560147154	0.06639453776	
591.875	-0.2640472939	0.3870200745	
592.5	0.1630832271	-0.0370402935	
593.125	-0.1361566657	0.2655181578	
593.75	0.1223994788	0.1122277174	
594.375	0.1522130702	0.4403534455	
595.0	0.7416088901	0.3601248827	
595.625	0.1864863625	-0.190176809	
596.25	0.2618476022	0.5351251724	
596.875	0.6936291519	-0.1625748064	
597.5	0.001661605018	0.1549727035	
598.125	0.5188414199	0.5380437317	
598.75	0.2754445366	-0.04565512783	
599.375	0.5556373241	0.271226698	
600.0	0.3808749925	-0.6004632902	
600.625	0.1684619659	-0.1988084455	
601.25	0.3733524604	-0.345730058	
601.875	-0.2916882484	-0.4472483555	
602.5	-0.2010921155	-0.02401290563	
603.125	-0.2028291547	0.04910107903	
603.75	-0.3848323666	0.09714155219	
604.375	-0.1170503485	0.3405367757	
605.0	-0.2542329225	-0.05267028283	
605.625	-0.1971620474	0.3704148083	
606.25	-0.09902299245	-0.07065160958	
606.875	-0.734706452	0.2700542616	
607.5	0.01767133017	0.3893153154	
608.125	-0.4798374506	0.3964624837	
608.75	0.8409023634	0.5289691707	
609.375	0.113622844	0.03167496917	
610.0	0.6667540109	-0.1780640574	
610.625	-0.0251395184	-0.4674446707	
611.25	0.4135919548	-0.2623465361	
611.875	-0.4638623423	-0.2515203567	
612.5	-0.1218770657	-0.2346398987	
613.125	-0.6640928672	0.0437161464	
613.75	-0.0002263168443	0.2497280291	
614.375	-0.04059967263	0.4116908436	
615.0	0.2383278894	-0.1814314008	
615.625	-0.2569093973	0.4116569896	
616.25	0.200581487	0.2965199174	
616.875	-0.451545286	0.2043418254	
617.5	-0.1419006576	0.8337339716	
618.125	0.1305592589	0.2337847329	
618.75	-0.2195567093	0.5891859929	
619.375	0.4109311763	0.3118980343	
620.0	0.2738998752	0.2384160189	
620.625	0.3091166748	-0.4770653242	
621.25	-0.08788903268	-0.3198271128	
621.875	-0.5334736744	-0.2938853435	
622.5	-0.343042917	0.1154204787	
623.125	-0.2532692967	0.3983637915	
623.75	0.4026372019	-0.01902663624	
624.375	0.100705248	0.148308913	
625.0	-0.1305615225	-0.3872379289	
625.625	0.2560001338	0.06578599939	
626.25	-0.2110277087	-0.6374079248	
626.875	-0.2681455438	0.1651339148	
627.5	-0.1960422273	-0.4249952466	
628.125	-0.4654782756	-0.06393697206	
628.75	0.04498180192	-0.1696211861	
629.375	-0.2763014912	-0.5911567854	
630.0	-0.3441511631	0.02121575924	
630.625	-0.564495168	-0.09418445842	
631.25	-0.4467219435	0.574803782	
631.875	0.08124465604	0.5101696492	
632.5	0.2334114499	0.3976736611	
633.125	0.4108608333	0.2895144353	
633.75	0.5162082375	-0.3096060518	
634.375	0.06259377524	-0.1310623032	
635.0	0.1179333414	-0.5169543969	
635.625	-0.385946681	0.1067461786	
636.25	-0.4609309712	-0.1054926634	
636.875	-0.09972082035	0.54118265	
637.5	0.0406450444	-0.0700143553	
638.125	-0.5636289336	0.3866522878	
638.75	0.3839610452	0.3256685016	
639.375	-0.4295627157	0.3209240592	
640.0	0.3557149206	0.9250951152	
640.625	0.7002143602	0.09957579814	
641.25	0.2571080209	0.1515423749	
641.875	0.7014655564	-0.7310112488	
642.5	-0.2028507885	-0.1623166887	
643.125	-0.07050553934	-0.6150406636	
643.75	-0.6919570592	0.1186000084	
644.375	0.06828349086	-0.2881327271	
645.0	-0.7031593844	0.4661335823	
645.625	0.3465996835	0.5460395963	
646.25	0.2824200054	-0.1148384409	
646.875	0.1516299048	0.4461243903	
647.5	0.2294154072	-0.4934325876	
648.125	0.2584306883	0.6237081617	
648.75	0.8940933309	-0.5693343501	
649.375	-0.02278369695	-0.2563185588	
650.0	1.150970352	-0.592850085	
650.625	-0.1461508841	-1.251228617	
651.25	0.099258623	0.149197316	
651.875	1.310019062	-0.2641274692	
652.5	0.4463668981	-0.8308767576	
653.125	0.26034676	0.2325080878	
653.75	0.8468456694	-0.7903633193	
654.375	-0.5376244504	-0.4699548757	
655.0	-0.1893284788	-0.4822592088	
655.625	-0.9055363265	0.7235408216	
656.25	0.4361879103	0.08245688729	
656.875	-0.2656771571	0.2552188623	
657.5	0.4164596072	0.2841943144	
658.125	0.08145248555	0.09114573814	
658.75	0.7338238105	0.6401291276	
659.375	0.7696455491	-0.6945519669	
660.0	0.2812785153	-0.4293423002	
660.625	0.7618986831	-0.6608893189	
661.25	0.01765506783	-1.181316723	
661.875	0.3252311666	0.03668757939	
662.5	1.16415855	-0.5377386387	
663.125	0.3173354954	-0.8789560708	
663.75	0.320932658	-0.1052895479	
664.375	0.006730158461	-1.265922523	
665.0	-0.6069082276	-0.008335743701	
665.625	-0.77062682	-0.245115695	
666.25	-0.1612202923	1.004108063	
666.875	0.1698306392	0.06095193584	
667.5	0.4257764436	0.5637618568	
668.125	0.6736028751	-0.2524125803	
668.75	0.1537158839	-0.2461145706	
669.375	0.4769234829	-0.3547861451	
670.0	-0.06561860031	-0.7852449535	
670.625	-0.04344874677	-0.1727620028	
671.25	0.3163789281	-0.4682535826	
671.875	0.1319376035	-0.5688207215	
672.5	0.3992477213	-0.01498757681	
673.125	0.6657836248	-0.6368355625	
673.75	0.01656359753	-0.5524417906	
674.375	0.3139830726	-0.2177869851	
675.0	-0.06517863511	-1.027433499	
675.625	-0.8096181945	0.2061902825	
676.25	0.04155366224	-0.5302263979	
676.875	-0.7923966845	0.2851029245	
677.5	0.1195590651	-0.0185746435	
678.125	-0.8976232672	0.4558721311	
678.75	0.5853153013	0.2445009136	
679.375	0.1429178034	0.4190536838	
680.0	0.7165116862	-0.1712098279	
680.625	-0.1343146711	-0.5443111066	
681.25	0.04522971854	0.4803171682	
681.875	0.6808226274	-0.01940205713	
682.5	0.4179257186	0.00754957257	
683.125	0.2817322757	0.1395823953	
683.75	0.8707645584	0.5089443866	
684.375	0.5109750146	-0.3942024967	
685.0	0.4129760054	0.4787660365	
685.625	1.146442239	-0.1330500298	
686.25	-0.05165242051	-0.3133502657	
686.875	1.539701759	0.1860640057	
687.5	-0.0641613439	-1.516079446	
688.125	0.4566468507	-0.2051792852	
688.75	-1.365508713	-1.113025208	
689.375	-0.1941809428	1.172157822	
690.0	-0.5610017521	0.6427993803	
690.625	1.158780308	0.5830296582	
691.25	0.3249372239	0.4052426112	
691.875	1.154849636	1.133573953	
692.5	1.383807551	0.005385087931	
693.125	1.286673254	0.07574114148	
693.75	1.439473138	-0.5639272052	
694.375	0.924898391	-0.8235847292	
695.0	1.054283352	-0.8733112968	
695.625	0.747862738	-0.2657082048	
696.25	1.504753484	0.8603625982	
696.875	1.162397199	0.2642027534	
697.5	0.25929857	1.33819405	
698.125	2.231151305	0.3258737629	
698.75	0.3230766488	-0.4967616047	
699.375	-0.7686253567	-1.7978064	
700.0	-0.3870137055	1.356813714	
700.625	-0.4108891874	0.3469066557	
701.25	1.128462456	0.5694979072	
701.875	0.2591154414	0.2781942902	
702.5	0.8502063402	0.9442017054	
703.125	0.8404524241	-0.3228632023	
703.75	0.8799187854	0.141431561	
704.375	0.7155829653	-0.7683970505	
705.0	0.1237457889	0.05315355611	
705.625	1.159092037	0.02136188319	
706.25	0.2353000668	-0.09509554694	
706.875	0.2632591491	1.171265057	
707.5	1.290550453	0.7003670258	
708.125	0.554946779	0.3454939862	
708.75	1.120874608	-1.143031177	
709.375	-0.9008087492	-0.3346032051	
710.0	-0.5704681748	0.1548386409	
710.625	0.399945935	0.6111862808	
711.25	-0.03311506069	0.1592542725	
711.875	0.6225565062	0.4177041551	
712.5	0.5979559749	-0.03459293082	
713.125	0.7540542456	-0.5225198467	
713.75	0.0003803420927	-0.3578403014	
714.375	0.3939125228	-0.6873894027	
715.0	-0.4370841674	-0.4780536556	
715.625	0.4986631663	-0.12936259	
716.25	0.4169236185	-1.332904971	
716.875	0.06338116577	0.008923804137	
717.5	2.122016745	0.570387797	
718.125	2.056471133	-1.466921779	
718.75	0.3370376483	1.247024871	
719.375	3.972987282	-2.243474394	
720.0	-0.3495177496	-1.709853005	
720.625	1.331280722	-1.591582738	
721.25	-0.2018557716	-4.033199185	
721.875	-0.9343027151	-1.154459477	
722.5	-1.106034007	-2.75110743	
723.125	-2.321407575	0.06481385384	
723.75	-0.3890890076	0.8403044278	
724.375	-0.415485804	1.179579063	
725.0	0.8722937654	1.041371292	
725.625	0.4744918759	0.6590969897	
726.25	-0.4246898338	1.447014313	
726.875	-0.2391721159	3.416374335	
727.5	1.645263603	2.100168328	
728.125	-4.053766783	5.433219313	
728.75	2.823256475	9.883854204	
729.375	1.025922727	1.798945324	
730.0	-5.83246194	19.6814822	
730.625	13.68677466	5.17293113	
731.25	-7.400390551	2.512873927	
731.875	-11.50614002	11.53742053	
732.5	-6.519574625	9.250216924	
733.125	-3.075935613	-1.795296988	
733.75	-3.614224961	5.051583263	
734.375	1.979505294	0.2834039066	
735.0	0.7169855615	-0.7087382392	
735.625	-2.199089262	0.9423327943	
736.25	-0.0125815731	0.06521457843	
736.875	0.7882269073	2.331016976	
737.5	3.502025804	0.1438269473	
738.125	3.065866052	-2.994881044	
738.75	1.266216634	1.223350908	
739.375	14.14083193	-7.59334068	
740.0	-1.239400897	-13.47061615	
740.625	0.4805274802	14.68325854	
741.25	18.20190465	17.64143104	
741.875	5.070202819	-10.50760475	
742.5	-14.03031375	-8.624102632	
743.125	-6.379767168	-1.00100497	
743.75	3.100104112	-1.155751491	
744.375	-2.367170249	-1.017279916	
745.0	0.7200015865	0.1038843548	
745.625	0.1541341391	0.2392194329	
746.25	-0.2553086878	-0.3371614516	
746.875	-0.2886352253	-0.2557773104	
747.5	-0.3714366858	1.134588085	
748.125	0.8136931035	0.9372650023	
748.75	0.8486736492	0.8741828425	
749.375	-0.4487404538	1.836816299	
750.0	-0.8101624838	0.2702272289	
