!Created with skrf (http://scikit-rf.org).
# GHz S RI R (50+0j) 
!freq	ReS11	ImS11	
500.0	0.4172402341	-1.25823937	
500.625	-0.2460049114	-0.7926498837	
501.25	0.1755002405	-0.6650632276	
501.875	-0.4023390883	-0.4791100353	
502.5	-0.01488715868	-0.07034020224	
503.125	-0.08839280966	-0.01585107583	
503.75	0.0554199788	0.06428187263	
504.375	0.02639903074	0.03187794731	
505.0	0.0254285565	-0.04749698017	
505.625	-0.01298408281	-0.0009941581511	
506.25	-0.03859094437	-0.1374786881	
506.875	0.07281707675	0.1326729015	
507.5	0.163774872	-0.4492422209	
508.125	-0.1923825601	-0.6682507331	
508.75	0.3080767311	-0.3504463969	
509.375	0.1197463207	-1.432471526	
510.0	-0.5066963072	0.009880670889	
510.625	-0.02947643321	-0.1006485736	
511.25	-0.1631470009	-0.1215511772	
511.875	-0.1150118693	0.03342012884	
512.5	-0.0326164908	0.003410793932	
513.125	-0.0006942071794	-0.08182343256	
513.75	-0.03133124475	0.01078421612	
514.375	-0.04046693561	-0.08102882518	
515.0	-0.1779188698	0.1731835178	
515.625	0.2672490964	-0.6851875261	
516.25	-0.6349235815	-0.4433587456	
516.875	0.005045121244	-0.108336067	
517.5	0.05238499307	-0.2232125072	
518.125	-0.03640725462	0.0280390869	
518.75	-0.02407058462	-0.1793332942	
519.375	-0.05512522568	0.05886959958	
520.0	0.06746545352	0.01092478237	
520.625	0.1446367054	0.001307637194	
521.25	-0.02200206826	-0.2591616661	
521.875	-0.09865760134	0.05740355179	
522.5	-0.04877232993	-0.04777062938	
523.125	-0.07446026872	0.1220356969	
523.75	0.02141924526	-0.06578392355	
524.375	-0.3089552004	0.02383736233	
525.0	0.0918737542	0.1082512835	
525.625	-0.04949226427	0.02671050797	
526.25	0.06034629558	-0.06183225002	
526.875	-0.1125997023	0.02957211109	
527.5	0.02992215903	0.2457586772	
528.125	0.06370829807	0.09555740563	
528.75	0.005353080774	0.2176533444	
529.375	0.09412613176	0.04971749753	
530.0	0.007355989172	0.0960636768	
530.625	0.1938598395	0.3585614731	
531.25	0.4692872237	-0.02578258852	
531.875	0.2644798708	-0.0357662043	
532.5	-0.1146783727	-0.1650497718	
533.125	0.1289374925	0.08173441584	
533.75	0.139786346	-0.2818543477	
534.375	-0.08561458582	-0.1394133084	
535.0	-0.1644730783	-0.1800257597	
535.625	-0.1744041166	0.1472314687	
536.25	0.01083086451	0.04674017895	
536.875	0.09590487381	0.04639712237	
537.5	0.04242721292	-0.070187125	
538.125	0.08758730784	0.00607248836	
538.75	0.1233289076	-0.1369247488	
539.375	-0.0892898389	-0.09236059987	
540.0	-0.07698946145	-0.1562828789	
540.625	-0.2088879162	-0.04592351964	
541.25	-0.1180061595	0.04612664711	
541.875	-0.01649286849	-0.07242719035	
542.5	-0.1108407186	-0.0554919136	
543.125	-0.01138665585	-0.07233546709	
543.75	-0.1753430801	-0.0872742946	
544.375	0.01024010158	0.02914744396	
545.0	-0.04330156524	0.08251945672	
545.625	0.1009456673	0.03138079351	
546.25	0.02229305242	0.04124345942	
546.875	0.165527743	-0.01998093782	
547.5	0.007199276967	-0.1114447848	
548.125	0.01261390273	-0.1287837983	
548.75	-0.1469048894	-0.1591228963	
549.375	-0.1003880904	-0.01019127453	
550.0	-0.06894229416	-0.0397673228	
550.625	-0.05095497122	0.04647144573	
551.25	-0.05538497642	-0.005259495406	
551.875	-0.09138328614	0.0810064426	
552.5	-0.01240639724	0.057689973	
553.125	-0.03094305914	0.05918629878	
553.75	0.05907176348	0.04532579075	
554.375	0.07690747827	0.004634097446	
555.0	0.09777799207	-0.06603489687	
555.625	0.07553907837	-0.1016644777	
556.25	0.06260785792	-0.1224767413	
556.875	-0.02673806831	-0.1476670798	
557.5	-0.09513969674	-0.09634216155	
558.125	-0.1049716822	-0.03250326339	
558.75	-0.09880145947	-0.008209942328	
559.375	-0.1096687446	0.02247878792	
560.0	-0.07789758301	0.06769646675	
560.625	-0.06484765434	0.09232712008	
561.25	0.02146020272	0.1127255382	
561.875	0.0118839613	0.01705399692	
562.5	0.01914135251	0.08085450703	
563.125	0.05559311616	0.03268282251	
563.75	0.1204348232	0.04579247595	
564.375	0.1370086475	-0.1234222458	
565.0	0.03717494563	-0.100618834	
565.625	0.02439866415	-0.1643795961	
566.25	-0.1745921986	-0.0814393021	
566.875	-0.0676997497	-0.07323255121	
567.5	-0.1609091428	-0.1469224481	
568.125	-0.1620921875	-0.04799400688	
568.75	-0.164022915	-0.1263266259	
569.375	-0.2862256828	0.1684923653	
570.0	-0.03241188688	0.1699621294	
570.625	-0.1214336354	0.1032961251	
571.25	0.03767845626	0.1834025182	
571.875	-0.0278201705	0.0008638528441	
572.5	0.1884476429	0.03594068272	
573.125	-0.0166337263	-0.1375467122	
573.75	0.07903179703	-0.02399869069	
574.375	0.004716538472	-0.1636256735	
575.0	-0.0208743923	0.03900893668	
575.625	0.1127670309	-0.1071801132	
576.25	-0.03274771378	-0.1483345606	
576.875	0.01990468615	-0.0465424608	
577.5	0.04823544182	-0.2136543079	
578.125	-0.1422403278	-0.1323752663	
578.75	0.009765005615	-0.04626775594	
579.375	-0.1107431635	-0.1623553988	
580.0	-0.0707307706	0.08723473357	
580.625	-0.07663121834	-0.1769530472	
581.25	-0.08651025013	0.164425368	
581.875	-0.02942581209	-0.009137157848	
582.5	-0.04952535234	0.1740593831	
583.125	0.1663913616	0.1015613646	
583.75	-0.04241866338	-0.04041330882	
584.375	0.1221070439	0.1224039727	
585.0	0.06298935586	-0.03201733858	
585.625	0.1367771166	0.09700551653	
586.25	0.1849295863	-0.1306921043	
586.875	0.03725119739	-0.03732022157	
587.5	0.06825226846	-0.1635581427	
588.125	-0.09384172298	-0.1568084096	
588.75	0.03474520189	-0.03570758816	
589.375	0.1634889965	-0.2028329448	
590.0	-0.1345044407	-0.1290173763	
590.625	-0.08595099166	-0.0720206978	
591.25	-0.2212942894	0.1219390102	
591.875	0.1065634865	0.1059750385	
592.5	-0.08054649786	0.01656377955	
593.125	0.05203993378	0.06894871181	
593.75	-0.03246727318	0.09003328282	
594.375	0.2531015252	0.123412447	
595.0	0.151722439	-0.01786303433	
595.625	0.07762952329	0.1145406425	
596.25	0.2202824989	0.03773142322	
596.875	0.08699310952	-0.029126328	
597.5	0.09043853295	0.1522344623	
598.125	0.2171508908	0.08950270656	
598.75	0.09392537477	0.03761139751	
599.375	0.210258479	-0.006358343931	
600.0	0.1517116634	-0.2019443741	
600.625	0.05981931377	-0.1025926881	
601.25	0.1385527483	-0.1731815853	
601.875	-0.1648870215	-0.1470965193	
602.5	-0.02817329761	-0.007587065079	
603.125	-0.1908481019	0.01563234387	
603.75	0.02394656158	0.1084852046	
604.375	-0.07868956295	-0.02380210058	
605.0	-0.06833419311	0.1927067664	
605.625	0.03764133635	0.0361507804	
606.25	-0.1870812847	0.01509807039	
606.875	-0.1566581347	0.181505607	
607.5	-0.1902070731	0.1292810918	
608.125	-0.1024654066	0.2630927501	
608.75	0.1886781076	0.1355373438	
609.375	0.126586901	0.01549851299	
610.0	0.1760135609	-0.091447165	
610.625	0.003126121856	-0.1903211237	
611.25	0.03863063925	-0.07019746324	
611.875	-0.1187935841	-0.2144301927	
612.5	-0.1616799669	0.07536249909	
613.125	-0.1321202957	-0.07042787222	
613.75	-0.1524997188	0.215983626	
614.375	0.1052151272	-0.01327914279	
615.0	-0.02763857619	0.1505702663	
615.625	0.1053390961	0.05288649709	
616.25	-0.10164508	0.05101960199	
616.875	-0.0419250041	0.2466256853	
617.5	-0.03532407197	0.147823202	
618.125	-0.09622379185	0.1225649882	
618.75	0.01452220225	0.2615078547	
619.375	0.1207305258	0.1791021479	
620.0	0.1083432213	-0.003468788502	
620.625	0.1590028819	-0.1967879129	
621.25	-0.09810863505	-0.07983706504	
621.875	-0.1247475818	-0.1304074466	
622.5	-0.2941649571	0.05262502316	
623.125	0.04800619029	0.1285566787	
623.75	0.06362935856	0.1158379164	
624.375	0.08160701533	-0.1271886877	
625.0	0.01474079654	0.05395435512	
625.625	0.09533597423	-0.1328411606	
626.25	-0.1042247551	-0.07575762963	
626.875	-0.05592190083	-0.1081641695	
627.5	-0.2075123829	-0.06511994542	
628.125	-0.1121299139	-0.04352349362	
628.75	-0.00884791113	-0.1494178433	
629.375	-0.1634560503	-0.1539037743	
630.0	-0.128228553	-0.05560061316	
630.625	-0.150560005	-0.02858680543	
631.25	-0.1408210099	0.2285138507	
631.875	0.03317850093	0.1719509634	
632.5	0.06917180759	0.2518652053	
633.125	0.34948567	0.05869410297	
633.75	0.08426232813	-0.05327370249	
634.375	0.136683973	-0.1240580453	
635.0	-0.100172726	-0.1777385865	
635.625	-0.03316128118	-0.0777273784	
636.25	-0.2500142371	0.0464022372	
636.875	0.008965525044	0.1539690557	
637.5	-0.07297231733	0.006018805359	
638.125	-0.07362230944	0.1768371939	
638.75	0.01633903848	0.07240325425	
639.375	-0.1028926487	0.2563814038	
640.0	0.2133980274	0.2557268198	
640.625	0.1723704175	0.05690469053	
641.25	0.2073251084	0.1012019644	
641.875	0.1961734413	-0.256463583	
642.5	-0.08304949435	-0.1268533772	
643.125	-0.04309341859	-0.2142448836	
643.75	-0.3605964023	-0.04969645935	
644.375	-0.02048445312	-0.04727739269	
645.0	-0.2624796749	0.1917418561	
645.625	0.1808180054	0.1542975433	
646.25	-0.05537287079	0.07011365738	
646.875	0.2384122731	0.03073827665	
647.5	-0.08272253482	-0.04273817228	
648.125	0.2419108532	0.183399418	
648.75	0.2315821798	-0.2032438602	
649.375	0.1103549706	-0.1050524487	
650.0	0.3206061057	-0.2732815288	
650.625	0.01703155353	-0.409342231	
651.25	0.1236263098	-0.06402912275	
651.875	0.385249833	-0.1469059657	
652.5	0.211221803	-0.2236624156	
653.125	0.1693781422	0.05093587059	
653.75	0.3284553593	-0.2571664284	
654.375	-0.160412104	-0.2392392139	
655.0	-0.1133899663	-0.1550654609	
655.625	-0.4131918513	0.1458606521	
656.25	0.1804818968	0.13431733	
656.875	-0.1499983927	0.06149652787	
657.5	0.1670698183	0.1607751406	
658.125	0.02626016067	0.05444592556	
658.75	0.3208103417	0.2287982738	
659.375	0.2315401507	-0.3354629561	
660.0	0.1401896158	-0.1437788007	
660.625	0.251266611	-0.2986833006	
661.25	0.07912414952	-0.3986181786	
661.875	0.1116234046	-0.06576291659	
662.5	0.3799930056	-0.1636332227	
663.125	0.1854715775	-0.2734260058	
663.75	0.1341434807	-0.1445348744	
664.375	0.05873153914	-0.4085452212	
665.0	-0.3091329573	-0.1107995414	
665.625	-0.2050684277	-0.01900378339	
666.25	-0.2136887418	0.2993491889	
666.875	0.1924636042	0.1460687597	
667.5	0.04739206996	0.1380892203	
668.125	0.3666590211	-0.031100302	
668.75	0.05392898241	-0.1525577496	
669.375	0.2259138621	-0.1011215749	
670.0	-0.01488064341	-0.3452623615	
670.625	-0.03392045253	0.01509288176	
671.25	0.1600348907	-0.1723702762	
671.875	0.0320290482	-0.2188889804	
672.5	0.09212135867	-0.06406829695	
673.125	0.3326208851	-0.1285585024	
673.75	0.06697979202	-0.2874915191	
674.375	0.0646336459	-0.1279931027	
675.0	-0.003350749866	-0.3028039086	
675.625	-0.2677503294	-0.06083456075	
676.25	-0.02740945138	-0.06031438439	
676.875	-0.2435578302	-0.05220836319	
677.5	-0.08311418236	0.1131085392	
678.125	-0.1413475756	-0.02847323882	
678.75	0.002802875949	0.3487664656	
679.375	0.1827524757	-0.1715411174	
680.0	0.0984602104	0.08728635693	
680.625	0.1697586953	-0.1616411368	
681.25	-0.1351872412	-0.01904740185	
681.875	0.3622852866	0.2395427435	
682.5	0.2303808881	-0.1122533111	
683.125	0.05808726488	0.1044916627	
683.75	0.3693301777	0.187994709	
684.375	0.3613173538	-0.1327713516	
685.0	0.1416903747	0.206387163	
685.625	0.4434425954	0.069309868	
686.25	0.2344090402	-0.1633807781	
686.875	0.1874643426	0.03639489392	
687.5	0.3125247777	-0.3727471349	
688.125	-0.1578690901	-0.2890221613	
688.75	-0.2057553972	-0.3086591936	
689.375	-0.4208879855	0.344570608	
690.0	0.2338020295	0.2291387163	
690.625	0.005904572855	0.3414238817	
691.25	0.4761282806	0.2500193282	
691.875	0.186992234	0.1372049408	
692.5	0.5597837489	0.4481435247	
693.125	0.6468179287	-0.2963080053	
693.75	0.301193136	-0.1613213166	
694.375	0.5633852389	-0.318782624	
695.0	0.45616903	-0.4061543949	
695.625	0.3789373044	0.0383592981	
696.25	0.4833203257	0.3897968299	
696.875	0.5217904334	0.2411644659	
697.5	0.28507991	0.4177757974	
698.125	0.4861712293	0.4022874111	
698.75	0.4642878728	-0.4885501376	
699.375	-0.1679949676	-0.1992831154	
700.0	-0.4897385807	0.2270530753	
700.625	0.2671787267	0.3649229263	
701.25	0.05637162077	0.1203731207	
701.875	0.2927728485	0.3774167679	
702.5	0.3705683703	0.04030384257	
703.125	0.2505915268	0.2110075505	
703.75	0.4635392279	-0.1238567462	
704.375	0.1577154101	-0.2834874565	
705.0	0.2340871608	0.006480015114	
705.625	0.3881343327	-0.02513714653	
706.25	0.1850262807	0.2359217944	
706.875	0.1114479008	0.3480962259	
707.5	0.3648615095	0.4141067336	
708.125	0.3024019255	0.0722680374	
708.75	0.1932735054	-0.1951142998	
709.375	-0.2569093596	-0.3529851063	
710.0	-0.07727916046	0.202001202	
710.625	-0.1024497523	0.02411858353	
711.25	0.2674694847	0.169173832	
711.875	0.05592509961	0.1147515875	
712.5	0.3786338349	0.03674855482	
713.125	0.1969453642	-0.2469570731	
713.75	0.1074858398	-0.1018827471	
714.375	0.08101184739	-0.299592512	
715.0	-0.1262526138	-0.151940302	
715.625	0.08158732933	-0.1201338719	
716.25	0.2121016793	-0.3280372399	
716.875	0.2958277073	-0.2164934919	
717.5	0.3920968986	0.1394039212	
718.125	0.8046646952	0.08172523895	
718.75	0.5975320084	-0.2369366444	
719.375	0.559812784	-0.0273920657	
720.0	1.1813188	-1.050818356	
720.625	0.04598924207	-0.5628333882	
721.25	0.4591747121	-0.7622977225	
721.875	-0.3816268008	-1.466118356	
722.5	-0.3877033983	-0.3552695061	
723.125	-0.7392226802	-0.4152640645	
723.75	-0.3681623298	0.5739614883	
724.375	0.06396748852	0.2179295995	
725.0	0.02018280375	0.4759746221	
725.625	0.3864352165	0.368481683	
726.25	-0.08350520025	0.3727546207	
726.875	-0.22457842	1.003272987	
727.5	0.2074207025	1.407926002	
728.125	-0.1721766179	1.028475143	
728.75	-0.8578696745	2.769250361	
729.375	-0.01151044474	3.266374667	
730.0	-0.02562028198	1.968331466	
730.625	-1.990083904	3.93775747	
731.25	0.7133443309	3.526098218	
731.875	-1.175597846	0.08677685623	
732.5	-3.790006772	0.6225524548	
733.125	-2.26871429	1.674413106	
733.75	-0.6952620967	0.3064876888	
734.375	1.031526971	0.9927875033	
735.0	-0.351965159	-0.4029791068	
735.625	-0.3084214632	-0.1664595061	
736.25	-0.1242874546	0.7513070073	
736.875	0.436467921	-0.004519611589	
737.5	0.6933246065	0.7254765653	
738.125	1.707966585	-0.7146263178	
738.75	0.6590886088	-1.269933579	
739.375	1.350733799	0.5234792022	
740.0	4.811153632	-2.423569229	
740.625	-0.1554141936	-2.749074983	
741.25	-2.073318911	2.810059498	
741.875	-3.110161888	3.43373313	
742.5	0.5120741236	0.09804011693	
743.125	1.387225881	-2.815629454	
743.75	-0.4180001758	-1.088836538	
744.375	-0.07484753185	-0.1203369736	
745.0	-0.05787780747	0.2333534061	
745.625	-0.1102770118	-0.08410080641	
746.25	0.07055874863	-0.1708273291	
746.875	-0.2423724659	0.04682653254	
747.5	-0.04551822045	0.1814363119	
748.125	-0.04419074644	0.4784527009	
748.75	0.3899923887	0.4162401889	
749.375	0.1135420149	0.2879353323	
750.0	-0.4155575425	0.1686962197	
