!Created with skrf (http://scikit-rf.org).
# GHz S RI R (50+0j) 
!freq	ReS11	ImS11	
500.0	0.1307956887	-0.8636931717	
500.625	0.160114763	-0.7855608799	
501.25	-0.3564253555	-0.5360260548	
501.875	-0.1923931775	-0.3252979915	
502.5	-0.02733496054	-0.1194031462	
503.125	-0.06024329732	0.004900003545	
503.75	0.005265479622	0.06787418116	
504.375	0.02323632139	-0.005963763968	
505.0	0.01680350227	-0.01665165385	
505.625	-0.0008093872677	-0.04307267845	
506.25	-0.05114243718	-0.04539851528	
506.875	-0.1057663885	0.009924218465	
507.5	-0.0971852467	-0.2867756888	
508.125	0.1352020408	-0.5511999192	
508.75	0.4820928168	-0.8646219846	
509.375	-0.1422011871	-0.8435872178	
510.0	-0.4047403138	-0.2690626121	
510.625	-0.04977971805	-0.1138836161	
511.25	-0.09199653856	-0.04350942362	
511.875	-0.1127646706	-0.02981648968	
512.5	-0.01823385734	0.03166705125	
513.125	-0.002591631359	-0.05437067304	
513.75	-0.04295325169	-0.03682786148	
514.375	-0.03684438497	-0.03115071991	
515.0	0.009171547807	-0.04205601717	
515.625	0.03092234823	-0.2789811965	
516.25	-0.2471871186	-0.4913649664	
516.875	-0.1758704251	-0.325093972	
517.5	-0.03089127123	-0.1224972083	
518.125	-0.02279258241	-0.02372832574	
518.75	-0.04081441259	-0.1065167045	
519.375	-0.04888761329	0.03632863908	
520.0	0.08886970614	0.04701254715	
520.625	0.1316160413	-0.04684032137	
521.25	-0.01239223214	-0.2203625563	
521.875	-0.1238858558	-0.01673522569	
522.5	-0.04110494242	0.01963261725	
523.125	-0.04838541767	0.02418934455	
523.75	-0.09097043746	-0.0110828849	
524.375	-0.1374460032	0.02711299833	
525.0	-0.03319269417	0.1143474676	
525.625	0.02988913634	0.04059250363	
526.25	-0.01023984676	-0.01095046722	
526.875	-0.04320739464	0.04657885485	
527.5	-0.032506991	0.1556717434	
528.125	0.05306872047	0.2089323224	
528.75	0.02797593946	0.1770367553	
529.375	0.02605904795	0.04856173733	
530.0	0.01250520926	0.1238612095	
530.625	0.09144326245	0.2400644961	
531.25	0.3401432464	0.08725896654	
531.875	0.1928602308	-0.1411706779	
532.5	-0.03783260492	-0.09537423197	
533.125	0.04904931328	-0.0419787926	
533.75	0.09189359102	-0.1463503037	
534.375	-0.06480168783	-0.2335964217	
535.0	-0.1970559099	-0.09843265696	
535.625	-0.1417756952	0.08589272721	
536.25	-0.001585588225	0.08393700217	
536.875	0.08164535797	0.012305143	
537.5	0.05687471102	-0.03762977768	
538.125	0.09844644994	-0.05640887373	
538.75	0.1055326264	-0.1086763639	
539.375	-0.06527263906	-0.1430759757	
540.0	-0.1451614995	-0.1318020772	
540.625	-0.1454517816	-0.01956792672	
541.25	-0.0720992833	0.00264843337	
541.875	-0.039965613	-0.01912534942	
542.5	-0.03800219748	-0.04407034634	
543.125	-0.0694100156	-0.04286629088	
543.75	-0.07856749078	-0.005027698566	
544.375	-0.03951974743	0.03559630795	
545.0	-0.00614894084	0.0540740672	
545.625	0.04772173761	0.05451546276	
546.25	0.08234398007	0.03517020772	
546.875	0.1086554313	-0.02340426402	
547.5	0.05676464692	-0.1096720232	
548.125	-0.03581020812	-0.1409409345	
548.75	-0.108608172	-0.1041366393	
549.375	-0.1000354878	-0.05595499255	
550.0	-0.06652310095	0.001953610231	
550.625	-0.04929064288	0.009908863797	
551.25	-0.06559914185	0.02127746883	
551.875	-0.0687217976	0.06059859157	
552.5	-0.03656768831	0.06723194387	
553.125	-0.01777018514	0.05593461121	
553.75	0.04314000353	0.04220954758	
554.375	0.0836191902	0.001961773002	
555.0	0.09164611575	-0.06447704323	
555.625	0.07765134892	-0.0965664408	
556.25	0.06214959514	-0.1265403173	
556.875	-0.03335742943	-0.1454776812	
557.5	-0.09007582257	-0.09316771647	
558.125	-0.1078970344	-0.03695286684	
558.75	-0.1014797279	0.0007097470367	
559.375	-0.1011099467	0.01828324675	
560.0	-0.09062725677	0.07184425047	
560.625	-0.04432865201	0.1016220171	
561.25	0.005017402635	0.09027703452	
561.875	0.03042488949	0.04270234798	
562.5	0.006288506456	0.0478359721	
563.125	0.06589896928	0.06949411154	
563.75	0.1272671053	0.001491951192	
564.375	0.1179985991	-0.08392008114	
565.0	0.06941454728	-0.1362574355	
565.625	-0.03098344141	-0.1421614475	
566.25	-0.1021621125	-0.09954805134	
566.875	-0.1277912652	-0.07132816224	
567.5	-0.1257387588	-0.09342016744	
568.125	-0.1280170818	-0.1384626909	
568.75	-0.2043848166	-0.06772918589	
569.375	-0.2076045006	0.08780433249	
570.0	-0.1086473108	0.1767175209	
570.625	-0.04783904628	0.158248264	
571.25	0.00690980412	0.1035561906	
571.875	0.05001379452	0.06748680225	
572.5	0.1142712492	-0.001703340758	
573.125	0.07654997402	-0.100001289	
573.75	0.04018557532	-0.09941945979	
574.375	0.01056031848	-0.06487050848	
575.0	0.0254387336	-0.03312035859	
575.625	0.03521003272	-0.066461972	
576.25	0.03842893278	-0.0996714388	
576.875	-0.002353868954	-0.1267875643	
577.5	-0.001710552916	-0.1457223868	
578.125	-0.04301964181	-0.1421188305	
578.75	-0.07491452172	-0.1092790448	
579.375	-0.07830641225	-0.06063271222	
580.0	-0.04829889889	-0.02578518048	
580.625	-0.06284786576	-0.02846214005	
581.25	-0.09416347845	0.06854510988	
581.875	0.0052984468	0.1393425411	
582.5	0.04989907627	0.1259668849	
583.125	0.07124433489	0.06834628598	
583.75	0.03481232757	0.01765435118	
584.375	0.03113808993	0.05397716831	
585.0	0.09872192864	0.05287677653	
585.625	0.1395533591	0.003779499579	
586.25	0.1377901972	-0.05576511778	
586.875	0.06827512496	-0.1187918915	
587.5	-0.006086846181	-0.1276499426	
588.125	-0.01560080979	-0.1265345979	
588.75	0.02742643099	-0.128113234	
589.375	0.05738445887	-0.1398590763	
590.0	-0.0501919499	-0.157053525	
590.625	-0.1629403654	-0.04489239968	
591.25	-0.1209203178	0.09785055721	
591.875	-0.02891462852	0.1070334735	
592.5	0.005846080122	0.04312399482	
593.125	-0.02563409422	0.04555593661	
593.75	0.0462272505	0.1071371708	
594.375	0.1368958382	0.0890214423	
595.0	0.1528197409	0.08275568885	
595.625	0.1521352782	0.06801006402	
596.25	0.1450019179	0.03390972246	
596.875	0.1393504815	0.02939182431	
597.5	0.1320505116	0.07339816037	
598.125	0.134306231	0.1002433592	
598.75	0.1562620881	0.07800836295	
599.375	0.1925078584	-0.02778325992	
600.0	0.1486054457	-0.1300448269	
600.625	0.1219891634	-0.1571301486	
601.25	0.05600227675	-0.172775287	
601.875	-0.07061065161	-0.1265204037	
602.5	-0.1146383346	-0.01941414103	
603.125	-0.1008721772	0.04235699381	
603.75	-0.09414274628	0.06241850784	
604.375	-0.09071272461	0.0666591337	
605.0	-0.06075848911	0.07190700638	
605.625	-0.06598188819	0.0527814932	
606.25	-0.1023292838	0.0597848819	
606.875	-0.1493087764	0.07726682729	
607.5	-0.1510779127	0.1590833891	
608.125	-0.02782573563	0.2243269449	
608.75	0.1567905191	0.1548183631	
609.375	0.2173616037	-0.02097563702	
610.0	0.150980193	-0.1110168779	
610.625	0.07817952124	-0.1405707807	
611.25	0.006085839488	-0.148219667	
611.875	-0.07851017672	-0.1086931262	
612.5	-0.1467119241	-0.06421209697	
613.125	-0.1764996804	0.03471644062	
613.75	-0.07808152625	0.1298959919	
614.375	0.03824615529	0.09995635753	
615.0	0.04264192191	0.03837061098	
615.625	-0.005688174187	0.0739546487	
616.25	-0.03628521945	0.136196107	
616.875	-0.06533220952	0.1708672808	
617.5	-0.06074594503	0.1948480352	
618.125	-0.01758985832	0.1993581883	
618.75	0.02541627382	0.1727636935	
619.375	0.07860158048	0.1496346873	
620.0	0.177283944	0.05132206452	
620.625	0.1021359122	-0.137599281	
621.25	-0.06975782822	-0.1717042541	
621.875	-0.188824531	-0.08421162249	
622.5	-0.1926291575	0.05326950324	
623.125	-0.04449564822	0.1674401569	
623.75	0.1230318835	0.04224659049	
624.375	0.03323328159	-0.04507439422	
625.0	0.04081908087	-0.02626245912	
625.625	0.04476697552	-0.07744236876	
626.25	-0.03904119517	-0.1290772775	
626.875	-0.1290682433	-0.07373547464	
627.5	-0.1290396935	-0.03854699719	
628.125	-0.1067066052	-0.06199642577	
628.75	-0.06588998886	-0.1055859817	
629.375	-0.08468326976	-0.143509606	
630.0	-0.1697337222	-0.08846119634	
630.625	-0.2073133716	0.05067901942	
631.25	-0.1331760139	0.1792609246	
631.875	-0.02938582064	0.2201737028	
632.5	0.1312472789	0.1875866795	
633.125	0.1863559018	0.05148690451	
633.75	0.1609169202	-0.05350316452	
634.375	0.05797504597	-0.1228378669	
635.0	-0.0007261695199	-0.1384042575	
635.625	-0.1348574152	-0.08613309957	
636.25	-0.1439850011	0.05556570437	
636.875	-0.06521745166	0.1197887464	
637.5	-0.03152227553	0.07606111179	
638.125	-0.06642714144	0.08502184771	
638.75	-0.06376633973	0.1446657669	
639.375	-0.01218468221	0.230325062	
640.0	0.1286484128	0.223564913	
640.625	0.2073705524	0.1408204378	
641.25	0.2613555703	0.009878232528	
641.875	0.1571292973	-0.1628688905	
642.5	0.01041312323	-0.1958065888	
643.125	-0.114472135	-0.1156825824	
643.75	-0.1107726611	-0.07157353933	
644.375	-0.1717833706	-0.009378962066	
645.0	-0.1306087634	0.1395015531	
645.625	0.035961331	0.1951638712	
646.25	0.1571231516	0.07913305893	
646.875	0.08575581599	-0.02246240374	
647.5	0.04979446315	0.04177140846	
648.125	0.1493993621	0.04419721531	
648.75	0.2320220596	-0.05479948983	
649.375	0.2144950203	-0.2122072092	
650.0	0.1502596765	-0.2816910886	
650.625	0.1298999798	-0.2565080107	
651.25	0.1809650151	-0.2031015331	
651.875	0.2391953324	-0.1473910794	
652.5	0.2523133401	-0.08860226628	
653.125	0.2425601711	-0.0834447408	
653.75	0.1989903157	-0.1897206009	
654.375	-0.02958872464	-0.2918402506	
655.0	-0.2520745895	-0.1046985838	
655.625	-0.1719022346	0.1484664506	
656.25	0.01485499332	0.1632330858	
656.875	0.04681671744	0.06442291258	
657.5	0.02404521335	0.09617102743	
658.125	0.1264230971	0.1547475774	
658.75	0.2654042207	0.07871960315	
659.375	0.2965638389	-0.1165174739	
660.0	0.2149586933	-0.2598435858	
660.625	0.1265020083	-0.297848486	
661.25	0.145227504	-0.2628920657	
661.875	0.2015216244	-0.2248021629	
662.5	0.2379142162	-0.1800043266	
663.125	0.2432399196	-0.1666318508	
663.75	0.1600662953	-0.2516098126	
664.375	-0.0192819851	-0.3001800716	
665.0	-0.2322463167	-0.2082324554	
665.625	-0.2919854955	0.06404197032	
666.25	-0.1092589076	0.2404742645	
666.875	0.09726396597	0.196264546	
667.5	0.1610954912	0.09512164222	
668.125	0.2019431346	-0.00322212565	
668.75	0.1785596224	-0.1212328224	
669.375	0.09727465812	-0.1994060503	
670.0	0.009243836673	-0.2008154264	
670.625	0.009895392027	-0.1719034946	
671.25	0.0540721548	-0.1615061073	
671.875	0.1233121886	-0.1506588258	
672.5	0.187799691	-0.1319752003	
673.125	0.1929159421	-0.1500999411	
673.75	0.156356472	-0.1889810277	
674.375	0.0610224337	-0.235847945	
675.0	-0.06546190354	-0.2215648656	
675.625	-0.1604043734	-0.1337382639	
676.25	-0.1645684803	-0.03440252275	
676.875	-0.1309930587	-0.002862536514	
677.5	-0.1420357971	0.01220615854	
678.125	-0.1371938715	0.1183594521	
678.75	0.009841002835	0.2053247962	
679.375	0.1859197147	0.08521759765	
680.0	0.1395413232	-0.07649019792	
680.625	0.0643682931	-0.06960557622	
681.25	0.0854589282	-0.01253027529	
681.875	0.1347269859	0.04318620704	
682.5	0.1810972345	0.08534867846	
683.125	0.2212679533	0.07626876222	
683.75	0.2349543572	0.06803818949	
684.375	0.2464550045	0.04860731627	
685.0	0.2551149949	0.0498582157	
685.625	0.2621920731	0.01504301305	
686.25	0.2675663214	-0.01897055303	
686.875	0.2858771738	-0.1091896542	
687.5	0.2525525189	-0.2440470453	
688.125	0.02007514799	-0.3935716694	
688.75	-0.3543697141	-0.2149673286	
689.375	-0.2911820605	0.25640734	
690.0	0.06218565779	0.3263448014	
690.625	0.2016743551	0.2381467614	
691.25	0.2783680947	0.2518000882	
691.875	0.4037430664	0.2842521464	
692.5	0.5438479633	0.1951956464	
693.125	0.5950652299	-0.01462774637	
693.75	0.5340593769	-0.2097202374	
694.375	0.3994133555	-0.3508715158	
695.0	0.4041644112	-0.2523003751	
695.625	0.4579439907	-0.06425575636	
696.25	0.4398360661	0.1622685844	
696.875	0.3347239681	0.3602765515	
697.5	0.3084301692	0.4363663317	
698.125	0.4858462272	0.2589128984	
698.75	0.4375015001	-0.302050878	
699.375	-0.2824046669	-0.4034528261	
700.0	-0.2913556244	0.2726892996	
700.625	0.09892853617	0.2701339809	
701.25	0.1954809455	0.1754901018	
701.875	0.2341958136	0.2039460336	
702.5	0.3036063651	0.2170233484	
703.125	0.3795211676	0.1104824855	
703.75	0.3441422905	-0.09223927333	
704.375	0.2487285775	-0.1656679079	
705.0	0.2187915408	-0.122807047	
705.625	0.2323388717	-0.001532143617	
706.25	0.2191305098	0.1663548553	
706.875	0.2036986309	0.268837839	
707.5	0.2147955606	0.3128355755	
708.125	0.3713570312	0.1638878686	
708.75	0.3087494989	-0.2691946817	
709.375	-0.1993415394	-0.2793194045	
710.0	-0.1907382562	0.1484418175	
710.625	0.04134602574	0.1489997911	
711.25	0.07304853202	0.1026633306	
711.875	0.173056275	0.1206839508	
712.5	0.2838601307	-0.0088346879	
713.125	0.2346448465	-0.1507874913	
713.75	0.1276744738	-0.2115214455	
714.375	0.02022502093	-0.2180306475	
715.0	-0.02821277741	-0.1805221637	
715.625	0.01912335556	-0.1848952877	
716.25	0.1392551928	-0.2157350419	
716.875	0.2824226337	-0.1647910221	
717.5	0.4273554727	-0.00963682887	
718.125	0.5809193223	0.08127735173	
718.75	0.6576655858	-0.0654014382	
719.375	0.6570583647	-0.282517063	
720.0	0.505301384	-0.6645051857	
720.625	0.2369553569	-0.7528752572	
721.25	0.05974384589	-0.8377265061	
721.875	-0.1356412726	-0.8930559254	
722.5	-0.4704525258	-0.667560554	
723.125	-0.6701398124	-0.1905801924	
723.75	-0.3791201872	0.3671830073	
724.375	0.006489376586	0.3901898644	
725.0	0.1507378204	0.3364776941	
725.625	0.1549862816	0.376660945	
726.25	0.03365140195	0.577798391	
726.875	-0.05169352992	0.8095949233	
727.5	-0.1392408875	1.119951853	
728.125	-0.1027697487	1.675440343	
728.75	-0.0973864053	2.222161095	
729.375	-0.9186715421	2.901314826	
730.0	-0.3767492698	3.149050898	
730.625	-0.2018675551	3.344683975	
731.25	-1.167316824	3.160575323	
731.875	-2.160831404	2.046084581	
732.5	-2.851178024	0.4420536891	
733.125	-2.074818745	0.2382935217	
733.75	-0.8592292718	0.9767306084	
734.375	0.6570025342	0.5105508254	
735.0	0.05357130562	-0.5176022766	
735.625	-0.4148647583	0.02497825802	
736.25	-0.07667729984	0.4657789981	
736.875	0.3271882822	0.4659089195	
737.5	0.8699468484	0.2256871526	
738.125	1.221924698	-0.3416380736	
738.75	1.394330126	-0.9026801186	
739.375	1.83707298	-1.070109433	
740.0	2.327194148	-1.141574337	
740.625	1.949127309	-0.03148144116	
741.25	0.3781835093	1.779902712	
741.875	-2.089815322	0.2065624923	
742.5	-0.7304314201	-1.910249816	
743.125	0.2690565184	-1.584821827	
743.75	0.01675180267	-0.8917026195	
744.375	-0.3430246958	-0.1171295194	
745.0	0.02111709302	0.1012875373	
745.625	0.05101272998	-0.001214293819	
746.25	0.01216975537	-0.1148394838	
746.875	-0.2044571384	0.003930865099	
747.5	-0.09219281592	0.2960397344	
748.125	0.07798703153	0.4466753311	
748.75	0.2085942905	0.3715999639	
749.375	0.1147381678	0.4013459431	
750.0	-0.3060645274	0.2481006275	
