!Created with skrf (http://scikit-rf.org).
# GHz S RI R (50+0j) 
!freq	ReS11	ImS11	
500.0	0.8147971766	-4.416458252	
500.625	-1.069865113	-2.23719324	
501.25	-0.4400136627	-0.852731701	
501.875	-1.425333877	-2.964696499	
502.5	-0.4668050805	-0.0484364632	
503.125	-0.2303676082	-0.1096098785	
503.75	0.3085504524	0.3289430019	
504.375	0.009728940389	0.07173417289	
505.0	0.07489219702	-0.2319221231	
505.625	0.06235388442	0.1372869133	
506.25	-0.4086876407	-0.7121687529	
506.875	0.1574764237	0.7319057161	
507.5	0.9687495	-1.323235321	
508.125	-0.4454543756	-3.20545386	
508.75	-0.2928069	-1.358533141	
509.375	0.8718626028	-5.736415016	
510.0	-1.880814465	0.4428056072	
510.625	-0.1262373642	-0.7726418479	
511.25	-0.7298752436	0.1811914162	
511.875	-0.2306879122	-0.2672997325	
512.5	-0.1020747095	0.09865894408	
513.125	-0.01184838909	-0.4376493419	
513.75	-0.4287994192	0.04773887878	
514.375	0.07182405676	-0.3458023829	
515.0	-1.324004773	0.2304707173	
515.625	2.139518026	-2.188645206	
516.25	-3.759401647	-1.375094835	
516.875	0.7671481232	-0.1495989221	
517.5	-0.1502569112	-1.340809811	
518.125	0.08934819704	0.3082400282	
518.75	-0.1056018228	-0.9339528515	
519.375	-0.07859827645	0.238637967	
520.0	0.1456838757	0.2352427724	
520.625	0.7260750763	-0.2396885268	
521.25	-0.3940835076	-0.5961968349	
521.875	-0.175521467	-0.2635486099	
522.5	-0.2139061151	0.2159425293	
523.125	-0.3161996911	-0.1603881192	
523.75	-0.1733391433	0.1995504084	
524.375	-0.5069324087	-0.2725166534	
525.0	0.225361828	0.6705721654	
525.625	-0.08766655534	-0.07944619413	
526.25	0.1631786182	0.07459470029	
526.875	-0.3513556164	0.01323353706	
527.5	0.1508769408	0.8681878721	
528.125	0.01638511817	0.3048960864	
528.75	-0.1649021685	1.120144242	
529.375	0.1670764639	-0.06024258924	
530.0	0.2464001951	0.9607350139	
530.625	0.2082191007	0.3237216195	
531.25	1.324252572	0.8955392112	
531.875	0.2055806008	-0.8949141222	
532.5	0.265898147	-0.3133379797	
533.125	-0.3458125719	-0.2047075786	
533.75	0.794577087	-0.6382293532	
534.375	-0.8663108881	-0.49888262	
535.0	-0.2412981833	-0.4632597366	
535.625	-0.7422127806	0.5083161083	
536.25	0.1085355305	0.1636744433	
536.875	0.2190220798	0.1787706118	
537.5	0.2097316113	-0.2218159075	
538.125	0.1495994106	0.01669435117	
538.75	0.5157308552	-0.4805531611	
539.375	-0.2342927168	-0.2072385303	
540.0	-0.2355778761	-0.5293500408	
540.625	-0.5931456538	-0.005133469847	
541.25	-0.1340731507	0.05475304672	
541.875	-0.02780285107	-0.05488133181	
542.5	-0.2495675377	-0.238248871	
543.125	-0.09788252704	0.08822061667	
543.75	-0.283263207	-0.2103421086	
544.375	0.04444300792	0.2701580354	
545.0	-0.2111730615	0.08747928656	
545.625	0.3743396638	0.1280933617	
546.25	-0.07479513294	0.09806384453	
546.875	0.6466372749	-0.05963442934	
547.5	-0.08469300045	-0.2631200633	
548.125	0.1212712468	-0.3591418799	
548.75	-0.4312739697	-0.4345635754	
549.375	-0.2593106728	0.02753602462	
550.0	-0.1987466308	-0.1768253653	
550.625	-0.09945525144	0.1708930885	
551.25	-0.1984007542	-0.09383458838	
551.875	-0.2292822629	0.3181621339	
552.5	-0.04097727375	0.1159256478	
553.125	-0.09175379895	0.1798485435	
553.75	0.1456786618	0.1182012062	
554.375	0.208430578	0.02256025295	
555.0	0.2793658827	-0.1659990914	
555.625	0.2061630119	-0.2716699671	
556.25	0.1808232948	-0.3403587381	
556.875	-0.0720330581	-0.4200077872	
557.5	-0.2459446863	-0.2527499239	
558.125	-0.2702621481	-0.09704277245	
558.75	-0.2728492392	-0.04295228262	
559.375	-0.2942797442	0.07109521129	
560.0	-0.193110376	0.1614012842	
560.625	-0.1879073638	0.2552146618	
561.25	0.08898513853	0.2842333597	
561.875	-0.02987404799	0.06550557349	
562.5	0.1406773062	0.1663511698	
563.125	0.02348535599	0.1782752813	
563.75	0.476927469	0.06082363086	
564.375	0.1786115215	-0.3472779871	
565.0	0.2200445392	-0.1851119939	
565.625	-0.02268136211	-0.51343325	
566.25	-0.3775106025	-0.1638104899	
566.875	-0.1646510446	-0.2168071618	
567.5	-0.4764464292	-0.3898051166	
568.125	-0.3063414508	-0.164926327	
568.75	-0.5749698768	-0.4462033897	
569.375	-0.5859267067	0.4309525906	
570.0	-0.2258765133	0.2438086636	
570.625	-0.5041363175	0.5373565551	
571.25	0.4056989463	0.3210155175	
571.875	-0.2261603567	0.274658871	
572.5	0.6282288048	-0.1273018814	
573.125	-0.082981977	-0.1244032616	
573.75	0.4628346277	-0.1883464688	
574.375	-0.2552718112	-0.3365142344	
575.0	0.2755580408	0.1649564508	
575.625	-0.02660248072	-0.4750881869	
576.25	-0.0503530889	0.06863808142	
576.875	0.2827895612	-0.5435048281	
577.5	-0.2200001621	-0.5355988861	
578.125	-0.1159784692	-0.1469299782	
578.75	0.01108933826	-0.4228677074	
579.375	-0.4634494682	-0.2310462243	
580.0	0.1052177035	0.07142472982	
580.625	-0.388091353	-0.238857717	
581.25	0.01246335719	0.2880927175	
581.875	-0.2727772963	0.1530846126	
582.5	0.1296793865	0.7676998529	
583.125	0.4392880212	-0.2090775482	
583.75	-0.2964417669	0.3291112897	
584.375	0.4781532203	-0.1788032396	
585.0	-0.1262452002	0.395645869	
585.625	0.7510443262	-0.1269799958	
586.25	0.008190051263	-0.2088018912	
586.875	0.5398499848	-0.1687207272	
587.5	-0.2524402986	-0.5593580093	
588.125	-0.02863558474	0.003116121081	
588.75	0.3962953828	-0.4181457532	
589.375	0.01670546558	-0.5744975495	
590.0	-0.00464660451	-0.2554666131	
590.625	-0.4652774552	-0.3337339567	
591.25	-0.234742051	0.388780223	
591.875	-0.1351331496	0.1283589451	
592.5	0.01452720773	0.270940439	
593.125	-0.1103963928	-0.0773162838	
593.75	0.1218043357	0.5344972481	
594.375	0.5500675369	0.02826162356	
595.0	0.0201576922	0.1232836269	
595.625	0.5388779126	0.7125882131	
596.25	0.4144081217	-0.3549348823	
596.875	0.1324601434	0.442232229	
597.5	0.7096696088	0.147871047	
598.125	-0.03793267713	0.1234539557	
598.75	0.7427943246	0.5467272478	
599.375	0.2909011052	-0.304824597	
600.0	0.441813269	-0.05816408886	
600.625	0.5655201911	-0.491094607	
601.25	-0.003478326458	-0.5546507395	
601.875	-0.05464612116	-0.3050329247	
602.5	-0.2917374695	-0.07913954651	
603.125	-0.3613763225	0.1043123326	
603.75	-0.1283963879	0.1641718007	
604.375	-0.3258815388	0.08038206055	
605.0	-0.1403574848	0.2802935278	
605.625	-0.1736072557	-0.04893078171	
606.25	-0.3900983478	0.368460895	
606.875	-0.110944832	0.05618636558	
607.5	-0.9394028165	0.3287715738	
608.125	0.4077299711	0.6742642596	
608.75	-0.03364193158	0.4799405814	
609.375	0.9634666005	-0.04790949909	
610.0	0.01837395754	-0.2605262694	
610.625	0.6051532954	-0.3509253287	
611.25	-0.2640897382	-0.3775738895	
611.875	0.1296537395	-0.2906079893	
612.5	-0.7120588819	-0.1047202427	
613.125	-0.163877879	-0.1114094299	
613.75	-0.4556129278	0.4526401399	
614.375	0.3239161671	-0.009591768259	
615.0	-0.0349370501	0.4776640988	
615.625	0.1580819046	-0.1177250622	
616.25	-0.4515736582	0.3855205427	
616.875	0.07285359726	0.7337943906	
617.5	-0.2390577935	0.09184442504	
618.125	-0.1880090932	0.8317604124	
618.75	0.2755909139	0.3099061088	
619.375	-0.03307069813	0.4892570097	
620.0	0.5737208766	0.01416182446	
620.625	0.3196063197	-0.1901832887	
621.25	-0.2665202788	-0.5488421823	
621.875	-0.3325689998	-0.1715467744	
622.5	-0.6921140669	0.04756615264	
623.125	0.0640661025	0.3629957557	
623.75	0.1612342437	0.3147677728	
624.375	0.03858411452	-0.4610714198	
625.0	0.2049435541	0.3186683903	
625.625	0.01406518639	-0.651043075	
626.25	0.1164158634	0.05502251281	
626.875	-0.440228339	-0.535212895	
627.5	-0.3983491925	0.1918428457	
628.125	0.03858421113	-0.3346880157	
628.75	-0.5274219002	-0.344305334	
629.375	0.02452296645	-0.1959675738	
630.0	-0.5006961465	-0.4814539521	
630.625	-0.6408559493	0.2900612754	
631.25	-0.18824748	0.3155513351	
631.875	-0.2453905479	0.559191114	
632.5	0.3165131606	0.5599166708	
633.125	0.563051269	0.06127406049	
633.75	0.2598704966	0.01134004938	
634.375	0.2707898568	-0.5294290778	
635.0	0.01074237596	-0.1125393805	
635.625	-0.357424636	-0.4404858541	
636.25	-0.357219017	0.3528708894	
636.875	-0.1178724021	-0.09787953374	
637.5	-0.357671088	0.6470715925	
638.125	0.2728366547	-0.01784827067	
638.75	-0.6740487501	0.2777251335	
639.375	0.1946700413	0.8905237067	
640.0	0.3449114479	0.2490628278	
640.625	0.375001445	0.7645178695	
641.25	0.8965525623	-0.2291415068	
641.875	0.2551534136	-0.07600233593	
642.5	0.3208150995	-0.9181889269	
643.125	-0.4981848197	0.1334244902	
643.75	0.06612929351	-0.4011824273	
644.375	-0.7861108583	-0.01100631044	
645.0	-0.1641457246	0.5009428882	
645.625	-0.05886125973	0.1600148256	
646.25	0.5351591617	0.6684469303	
646.875	0.1678897567	-0.4378663826	
647.5	0.04782882044	0.5179541218	
648.125	0.5412502194	-0.3823221551	
648.75	0.306295497	0.4980131526	
649.375	1.070480045	-0.9528850162	
650.0	-0.2586396278	-0.8719390085	
650.625	0.5998893182	0.1199394975	
651.25	1.12965381	-1.091518062	
651.875	-0.1192352675	-0.6533745056	
652.5	0.7270864055	0.425726272	
653.125	1.027056862	-0.6443405784	
653.75	0.0300559221	-0.2382800282	
654.375	0.5045307223	-1.053662977	
655.0	-1.039298785	-0.05430789641	
655.625	-0.001922166983	0.2581593988	
656.25	-0.4731690115	0.4399880885	
656.875	0.5512889635	0.2989459774	
657.5	-0.3756687133	0.07236671881	
658.125	0.5532588254	0.6625554237	
658.75	0.6709187491	-0.01363732144	
659.375	0.5591992057	0.05325817991	
660.0	1.009996793	-1.025694728	
660.625	-0.1388958709	-0.6511161931	
661.25	0.6984381444	-0.3004066574	
661.875	0.8950645812	-0.9431564878	
662.5	0.07781780343	-0.7829015547	
663.125	0.7521137127	0.2665600711	
663.75	0.5089110578	-1.229947708	
664.375	-0.1578175034	-0.2954432249	
665.0	-0.4835328834	-1.058438694	
665.625	-0.7012530924	0.673132113	
666.25	-0.3963553851	0.1651159196	
666.875	0.183612046	0.8470857583	
667.5	0.6514543579	0.03745950064	
668.125	0.1360093664	0.1169211713	
668.75	0.8525479554	-0.2337172135	
669.375	0.02987488789	-0.6599282638	
670.0	0.09409037839	-0.3248308352	
670.625	0.1683380431	-0.6518326444	
671.25	-0.1589936281	-0.3083416619	
671.875	0.6112059201	-0.3581443813	
672.5	0.4700204066	-0.5297325857	
673.125	0.2298177793	-0.3609467093	
673.75	0.6346742504	-0.06972443062	
674.375	0.2820790306	-1.258284257	
675.0	-0.4910077076	0.03707062328	
675.625	-0.07773182758	-0.8706492455	
676.25	-0.8956917175	0.1474162751	
676.875	0.2693601297	-0.1639885212	
677.5	-1.051639895	0.155224095	
678.125	0.1847223819	0.1286163579	
678.75	-0.4757552299	0.5588919409	
679.375	1.000037987	0.3060115698	
680.0	-0.07928415116	-0.4520940476	
680.625	0.3645749537	0.214108801	
681.25	0.3992226023	-0.2931841979	
681.875	0.1409858527	-0.03900118105	
682.5	0.3520230195	0.5101403546	
683.125	0.875634495	0.0727568423	
683.75	0.4469941486	0.08389168501	
684.375	0.5681701112	0.4474782626	
685.0	1.134311916	-0.1821325604	
685.625	-0.04634653117	0.1447830927	
686.25	1.502923153	0.298546421	
686.875	0.276073298	-1.064621939	
687.5	0.7547733316	0.265629482	
688.125	0.2392811987	-2.083968323	
688.75	-0.683987767	0.4093635447	
689.375	-1.467013692	0.03037540186	
690.0	0.8113734374	1.091296674	
690.625	-0.1422234895	0.3459447043	
691.25	1.266271192	1.16149247	
691.875	0.8381278458	0.3542946696	
692.5	1.238979754	0.7849343949	
693.125	1.759099027	0.05802962334	
693.75	1.29639983	-0.5630596391	
694.375	1.120151257	-1.015382478	
695.0	0.8623789271	-0.540937267	
695.625	1.705618557	0.01059012184	
696.25	1.032506911	-0.04207211911	
696.875	0.4335067008	1.42676077	
697.5	1.760343394	1.046329717	
698.125	0.5122057359	0.6340665109	
698.75	2.155011741	-0.9596597541	
699.375	-1.518263561	-0.5151310269	
700.0	-0.8941035516	-0.2427094905	
700.625	0.7352133992	1.242274694	
701.25	0.0292721681	0.1511124985	
701.875	0.9289826631	1.210933333	
702.5	0.6394029823	0.02129182115	
703.125	0.9323413298	0.8104630437	
703.75	1.115822899	-0.5735323503	
704.375	0.3163140872	-0.01068999387	
705.0	1.088804689	-0.7013404996	
705.625	0.1474694301	-0.2457715014	
706.25	0.5491522456	1.172429463	
706.875	1.171778987	0.2799882587	
707.5	-0.003933162586	0.9078656682	
708.125	1.618698317	0.6623028552	
708.75	0.2376204478	-0.7901323109	
709.375	-0.1952131928	-1.216976449	
710.0	-0.566858426	0.9684595545	
710.625	-0.07556801989	0.108388145	
711.25	0.3481793995	0.4887153203	
711.875	0.4006421368	0.3235779161	
712.5	0.8829344542	-0.09999299818	
713.125	0.4218845118	-0.2925663181	
713.75	0.7528689031	-0.6487909322	
714.375	-0.3876219519	-0.6637396625	
715.0	0.4633578321	-0.2300787803	
715.625	-0.4098314804	-0.9767188852	
716.25	0.1672934882	0.05294304522	
716.875	1.807812358	-0.3774289895	
717.5	0.7349348211	-1.521500156	
718.125	0.81066949	2.078221007	
718.75	3.663615271	-0.9985635737	
719.375	0.7657227263	-1.406072685	
720.0	2.980435856	-0.428534639	
720.625	0.41916818	-4.321998099	
721.25	0.3110579725	-1.219305511	
721.875	0.01540921247	-3.311967733	
722.5	-2.288738066	-2.002545921	
723.125	-0.9902644371	-0.4738965769	
723.75	-1.780619227	1.042835704	
724.375	0.4243130059	1.161789575	
725.0	0.3566050729	0.6713125557	
725.625	-0.04190041937	1.210420391	
726.25	0.8549553798	2.570953354	
726.875	0.1198853872	0.8571370455	
727.5	-2.247285895	4.597564103	
728.125	1.659949733	6.761886022	
728.75	-1.471959899	0.8277358638	
729.375	-5.994205507	14.88648062	
730.0	9.889065886	6.112438159	
730.625	-10.92778349	6.236544634	
731.25	-7.276538997	17.7213824	
731.875	3.465313007	8.092605794	
732.5	-11.01335918	-5.100883177	
733.125	-8.734770627	2.085734238	
733.75	-1.077176647	3.434438101	
734.375	0.5800452198	3.024453068	
735.0	-0.8457421651	-2.289822011	
735.625	-0.4124141306	-0.1956746544	
736.25	-0.9944018278	1.549250693	
736.875	1.771778317	1.874266923	
737.5	2.012356378	-1.048523641	
738.125	3.111659869	2.179585233	
738.75	7.918735438	-5.56501595	
739.375	-0.1231069456	-7.542408843	
740.0	10.07352442	11.74729129	
740.625	24.99167926	-24.2411934	
741.25	-15.4604428	-9.106215297	
741.875	-20.23098	5.361681402	
742.5	-1.373267336	6.761475156	
743.125	8.35994397	-0.9868777917	
743.75	-0.3880487067	-7.119333904	
744.375	-1.024164183	0.4286792452	
745.0	-0.3029788475	0.09405044137	
745.625	0.3522873909	-0.2889548029	
746.25	0.3509039137	-0.06661163005	
746.875	-1.003876719	0.6684459163	
747.5	-0.009570670659	0.8805612163	
748.125	-0.1107312028	1.403647274	
748.75	0.9559592637	1.354517564	
749.375	1.153193352	0.2021534818	
750.0	0.03005371815	0.4131354004	
