!Created with skrf (http://scikit-rf.org).
# GHz S RI R (50+0j) 
!freq	ReS11	ImS11	
500.0	-0.2133792511	-1.301760392	
500.625	0.4786613524	-0.3370309912	
501.25	-0.5528404099	-0.984900512	
501.875	-0.3298460824	-0.1246096059	
502.5	0.03608310341	-0.157305254	
503.125	-0.1006257134	0.02774424972	
503.75	-0.01911570993	0.009545911375	
504.375	0.05303024934	0.01151404864	
505.0	-0.009061704568	-0.02880244173	
505.625	0.05831628168	-0.05565805358	
506.25	-0.1639785673	-0.05131325028	
506.875	0.09102760301	-0.1118414473	
507.5	-0.3104567877	-0.6635081748	
508.125	-0.1353652026	-0.3508190887	
508.75	1.042908821	-1.048413454	
509.375	-0.5068318969	-1.499317134	
510.0	-0.4018131341	-0.09550212369	
510.625	-0.03053225901	-0.2469681997	
511.25	-0.123194699	0.008102804603	
511.875	-0.02916935535	-0.05952726152	
512.5	-0.01913902261	0.02999072335	
513.125	-0.05151811598	-0.04692361678	
513.75	0.04579972697	-0.07611797637	
514.375	-0.1574853981	-0.04239388684	
515.0	0.4081614653	0.09823307126	
515.625	-0.4497581265	-0.5716521709	
516.25	0.2421591598	-0.2182746254	
516.875	0.1109798765	-0.6313865829	
517.5	-0.1611843584	-0.2468933863	
518.125	0.0474913302	0.01381438896	
518.75	-0.1042711602	-0.2496798238	
519.375	-0.02303119168	0.05143236869	
520.0	0.07513406929	0.08931850649	
520.625	0.2031922349	-0.0585413848	
521.25	-0.1047528127	-0.2491947892	
521.875	-0.04025294188	-0.06059432534	
522.5	-0.1172467131	0.009932732458	
523.125	0.08207390431	0.0008217376576	
523.75	-0.1726963859	-0.1737970228	
524.375	-0.1461307697	0.1840322862	
525.0	-0.06980546389	-0.02074992678	
525.625	0.03017644404	0.1689645473	
526.25	-0.002441669445	-0.1142538475	
526.875	-0.07440366876	0.1310092759	
527.5	-0.005025584969	0.09923899925	
528.125	-0.04395756267	0.3144941811	
528.75	0.0731445917	0.2696521399	
529.375	0.02579322159	-0.03644594354	
530.0	-0.02414830039	0.3399561829	
530.625	0.1394795897	0.5078731696	
531.25	0.2423131481	0.2591947027	
531.875	0.4005906673	-0.263411118	
532.5	-0.1390860839	0.008508102926	
533.125	0.2180542238	-0.04965163829	
533.75	-0.03317852239	-0.1322513032	
534.375	0.08503109603	-0.2993963359	
535.0	-0.339309491	-0.1738419639	
535.625	-0.09250550348	0.1140882564	
536.25	-0.04532016577	0.09297123217	
536.875	0.1362828232	0.006354048451	
537.5	0.02666867246	-0.02195789049	
538.125	0.1534539195	-0.05259804327	
538.75	0.07456441741	-0.1617168148	
539.375	-0.003444682075	-0.1447358514	
540.0	-0.1784224308	-0.2148382449	
540.625	-0.2106896589	-0.02188515638	
541.25	-0.04212149685	-0.04547237046	
541.875	-0.1145248359	-0.03176269083	
542.5	0.02071452285	-0.01611639704	
543.125	-0.03672206127	-0.1514256058	
543.75	-0.0938322969	0.06383996985	
544.375	-0.07039609969	-0.02304531119	
545.0	0.006296412018	0.1368368955	
545.625	0.0149639649	-0.003690964393	
546.25	0.1218371288	0.1298444257	
546.875	0.1096907931	-0.08317894674	
547.5	0.0792088548	-0.05321718264	
548.125	-0.001598564815	-0.2421937848	
548.75	-0.1591071377	-0.07699425856	
549.375	-0.05205784325	-0.0906025537	
550.0	-0.1272952678	-0.006743761435	
550.625	-0.0131843727	0.01738699765	
551.25	-0.1102783377	-0.001016343585	
551.875	-0.04467319791	0.09021719501	
552.5	-0.05762230446	0.04618688875	
553.125	-0.02672377416	0.08977241089	
553.75	0.03579316854	0.04148913548	
554.375	0.107851084	0.01215756396	
555.0	0.1054131436	-0.0816352812	
555.625	0.09297980929	-0.1028795304	
556.25	0.08558589637	-0.1454235027	
556.875	-0.03091287514	-0.1715105149	
557.5	-0.09707785222	-0.110448452	
558.125	-0.1200034031	-0.0500912338	
558.75	-0.1239965611	-0.009562823257	
559.375	-0.1114567231	0.02289023802	
560.0	-0.1091853721	0.05933279373	
560.625	-0.06711449631	0.1349866878	
561.25	0.02104456949	0.08272446036	
561.875	0.002792656802	0.06849719218	
562.5	0.04312883103	0.03914123812	
563.125	0.03250420563	0.0952616226	
563.75	0.1885297645	-0.002463487757	
564.375	0.08955333999	-0.09349058075	
565.0	0.1311561484	-0.1142166831	
565.625	-0.06539281658	-0.2162647205	
566.25	-0.07731985606	-0.06803509445	
566.875	-0.1379177429	-0.1502149275	
567.5	-0.1934469918	-0.06905456177	
568.125	-0.06519731151	-0.1664140333	
568.75	-0.3330162863	-0.1485912584	
569.375	-0.1906090291	0.146323174	
570.0	-0.1753518352	0.1262359064	
570.625	-0.09514457826	0.2569834904	
571.25	0.06201168436	0.03116826562	
571.875	0.005470513231	0.1575419578	
572.5	0.15541385	-0.08318332056	
573.125	0.06600420559	-0.02045142713	
573.75	0.1507220921	-0.1893628221	
574.375	-0.08256538248	-0.07880061467	
575.0	0.1255529993	0.009148633307	
575.625	-0.02064848675	-0.1376081113	
576.25	0.04502496202	-0.01256723138	
576.875	0.05397005297	-0.2298139477	
577.5	-0.1132103032	-0.210824828	
578.125	-0.0007565669521	-0.06113906332	
578.75	0.002620972486	-0.2745195422	
579.375	-0.2084639225	-0.03292765751	
580.0	0.06295981175	-0.03229851141	
580.625	-0.1739158694	-0.03343228242	
581.25	0.05440873831	-0.007144307733	
581.875	-0.1276244875	0.1608417947	
582.5	0.1386923355	0.2183061135	
583.125	0.04324098123	-0.03869537037	
583.75	0.0331962736	0.1539941139	
584.375	0.0836334633	-0.03887170129	
585.0	0.02499522158	0.1427679736	
585.625	0.2633878461	-0.02489837346	
586.25	0.05917708046	-0.07991195856	
586.875	0.1514441822	-0.06803720706	
587.5	-0.05952024475	-0.2276310342	
588.125	-0.0230229079	-0.04241540546	
588.75	0.1423680084	-0.1790423328	
589.375	-0.005211009892	-0.2190167223	
590.0	0.01618322886	-0.103033854	
590.625	-0.284136092	-0.1767358445	
591.25	-0.04175473901	0.2115845601	
591.875	-0.09301670529	-0.01625791474	
592.5	-0.02176131862	0.1582811854	
593.125	-0.05920748665	-0.09967976651	
593.75	0.1060821216	0.2671386448	
594.375	0.1896685935	0.005093498088	
595.0	0.07468962618	0.1191637852	
595.625	0.2638747973	0.115858553	
596.25	0.1325489401	-0.04763821228	
596.875	0.1576612214	0.1450300208	
597.5	0.245338457	0.09704960313	
598.125	0.1084302113	0.0531095899	
598.75	0.1925294547	0.1342047674	
599.375	0.2855437723	-0.08985530898	
600.0	0.09426494125	-0.1047895487	
600.625	0.2232581049	-0.1363433083	
601.25	0.0545717273	-0.2890448874	
601.875	-0.07458258352	-0.05221700854	
602.5	-0.1512659452	-0.1361949003	
603.125	-0.06357413326	0.1689743463	
603.75	-0.05229805167	-0.01271630748	
604.375	-0.2261501858	0.2124276125	
605.0	0.03254551837	0.1354680792	
605.625	-0.1283693928	-0.04789426815	
606.25	-0.1436416312	0.1650310951	
606.875	-0.1753452127	-0.002052588067	
607.5	-0.2842379393	0.141124479	
608.125	0.03560071085	0.3438273179	
608.75	0.107497971	0.1015622809	
609.375	0.1992986187	-0.04296558918	
610.0	0.1755779728	-0.2165345443	
610.625	0.04413597758	-0.05460840109	
611.25	0.09977426495	-0.2656339572	
611.875	-0.1939342637	-0.09105699521	
612.5	-0.06408457156	-0.1359042044	
613.125	-0.3265691515	0.03832982626	
613.75	0.05517874393	0.1687670651	
614.375	-0.08902291279	0.08517258303	
615.0	0.1547277236	0.03399222076	
615.625	-0.051217892	-0.03214607285	
616.25	-0.09121162569	0.2391022883	
616.875	0.04606094998	0.2518945193	
617.5	-0.09594153867	0.1552845925	
618.125	-0.0822611126	0.3182391336	
618.75	0.02907471958	0.2162428083	
619.375	-0.01558139842	0.1468099708	
620.0	0.3080582504	0.09055864867	
620.625	0.02381463287	-0.1510520662	
621.25	-0.008942445944	-0.1638898926	
621.875	-0.2822933387	-0.1693753934	
622.5	-0.1539125723	0.1491382966	
623.125	-0.1214208981	0.1225284655	
623.75	0.2206566936	0.1058906344	
624.375	-0.04696198385	-0.058967094	
625.0	0.134296131	-0.01351524167	
625.625	-0.03846161665	-0.1071024875	
626.25	0.04776978539	-0.1229697443	
626.875	-0.2084747494	-0.1496759376	
627.5	-0.1526827545	0.0007515206633	
628.125	-0.03220730081	-0.1209935563	
628.75	-0.1608854287	-0.1869588368	
629.375	-0.09455363563	-0.09986165167	
630.0	-0.1485146563	-0.1419934364	
630.625	-0.2854980117	0.1042998682	
631.25	-0.08440578826	0.1888052134	
631.875	-0.1339002418	0.2714429794	
632.5	0.2334244755	0.3237452965	
633.125	0.1611724191	0.01701548359	
633.75	0.2139975718	0.02332299464	
634.375	0.05165626663	-0.2800460789	
635.0	0.03010189303	-0.0593232363	
635.625	-0.1852899796	-0.2357715799	
636.25	-0.1482904861	0.14892495	
636.875	-0.06126019739	0.02947271738	
637.5	-0.1316796968	0.1707293392	
638.125	0.04684248486	0.06006463243	
638.75	-0.1878360227	0.1494635585	
639.375	0.05403918113	0.3464499023	
640.0	0.155364642	0.1640169421	
640.625	0.1624877785	0.2367266705	
641.25	0.420136682	0.003742828031	
641.875	0.07283651719	-0.1398147765	
642.5	0.1455413326	-0.2319208555	
643.125	-0.311159888	-0.2941260352	
643.75	-0.01042621046	-0.02698712324	
644.375	-0.3044659117	-0.07925565347	
645.0	-0.05581117499	0.2834471179	
645.625	-0.04027102129	0.03134135951	
646.25	0.2511210335	0.2389894543	
646.875	0.07362928461	-0.1824763862	
647.5	0.03213038951	0.2494336561	
648.125	0.2448227696	-0.0665003486	
648.75	0.06309864898	-0.01181630677	
649.375	0.4387318738	-0.2211045806	
650.0	0.03570070663	-0.4690683843	
650.625	0.1289190396	-0.1256065619	
651.25	0.3965408805	-0.2364876078	
651.875	0.2128351265	-0.33583966	
652.5	0.1806613203	0.05461923244	
653.125	0.4540444084	-0.08666644988	
653.75	0.1042976396	-0.4075690902	
654.375	0.08918242961	-0.2063584565	
655.0	-0.4328509952	-0.3468496965	
655.625	-0.07171868782	0.2753743386	
656.25	-0.1291382305	-0.06496973853	
656.875	0.09355029413	0.2468637951	
657.5	-0.02585023517	-0.04699308142	
658.125	0.1193790052	0.4031038431	
658.75	0.4011077226	-0.08990814432	
659.375	0.2072132679	-0.08094852369	
660.0	0.3976564997	-0.2259169118	
660.625	0.05481376391	-0.525649584	
661.25	0.1073396334	-0.118191262	
661.875	0.3914024486	-0.2778855077	
662.5	0.2361951683	-0.307545616	
663.125	0.1972242211	-0.08493853264	
663.75	0.3403528274	-0.347293689	
664.375	-0.1489794736	-0.3330882381	
665.0	-0.1374194936	-0.2220269469	
665.625	-0.4439055102	0.0102973541	
666.25	-0.004990117996	0.3458587655	
666.875	-0.01354897522	0.165605537	
667.5	0.3039133455	0.2271105062	
668.125	0.1661218866	-0.09415502723	
668.75	0.2698875423	0.06436568468	
669.375	0.149719739	-0.3812325431	
670.0	-0.05374720599	-0.1011237449	
670.625	0.1223702622	-0.1959862832	
671.25	-0.04446981029	-0.2969891203	
671.875	0.04441243076	-0.05837230238	
672.5	0.3522649156	-0.1105044185	
673.125	0.1767295436	-0.2783723804	
673.75	0.1482493682	-0.1170086675	
674.375	0.1903099269	-0.2926667743	
675.0	-0.2362931268	-0.2582265789	
675.625	-0.05028918924	-0.08698825854	
676.25	-0.269486527	-0.1334210852	
676.875	-0.1591056166	0.1217829973	
677.5	-0.06304910503	-0.1011527947	
678.125	-0.2758876894	0.2369896032	
678.75	0.1855288829	0.1192103192	
679.375	0.05610513662	0.1744368935	
680.0	0.3183585386	-0.1200031187	
680.625	-0.1656044009	-0.1169457299	
681.25	0.2695171814	0.1789928234	
681.875	0.1904211948	-0.1386628116	
682.5	0.0216339736	0.0697760686	
683.125	0.3171264427	0.2941030231	
683.75	0.4093461436	-0.1072028321	
684.375	0.1853393994	0.2632171157	
685.0	0.4347354131	0.1578368601	
685.625	0.3260417283	-0.1488374085	
686.25	0.1577698679	0.1366576618	
686.875	0.4797536482	-0.2488370203	
687.5	0.07512167862	-0.3022228989	
688.125	0.1843171716	-0.3707395049	
688.75	-0.5232424877	-0.3768678726	
689.375	-0.1533406152	0.4103348987	
690.0	-0.1830176437	0.3051513187	
690.625	0.4169531373	0.3706124056	
691.25	0.1525747841	0.05846213999	
691.875	0.354750096	0.5625116722	
692.5	0.794449376	-0.09079877639	
693.125	0.4314895467	0.002275494926	
693.75	0.7189395001	-0.06625218427	
694.375	0.5304035288	-0.5761154189	
695.0	0.4076134504	-0.06788278224	
695.625	0.6507211711	0.0211811858	
696.25	0.6100733158	0.01854656693	
696.875	0.3677125669	0.4228956928	
697.5	0.2645348526	0.7068563392	
698.125	0.5943462351	0.4293560338	
698.75	0.3623226504	-0.16681146	
699.375	-0.2819145852	-0.6137129452	
700.0	-0.3661345426	0.4727113046	
700.625	0.05046486827	0.1347290685	
701.25	0.2710903691	0.4287830535	
701.875	0.340692292	0.04929815403	
702.5	0.1687109171	0.326438465	
703.125	0.5864291458	0.1766601067	
703.75	0.3429082571	-0.2566010669	
704.375	0.3090667543	-0.005334847577	
705.0	0.4047807634	-0.1980920185	
705.625	0.1822055321	0.03278222151	
706.25	0.1463843444	0.3213148245	
706.875	0.4161015664	0.3953826207	
707.5	0.2673872398	0.3993977423	
708.125	0.3945330028	0.1954815796	
708.75	0.4166518267	-0.4448806768	
709.375	-0.2743337761	-0.1551654152	
710.0	-0.13327108	-0.01448916472	
710.625	0.2046127135	0.2478585285	
711.25	-0.05099188181	0.03987096562	
711.875	0.2735233381	0.2628289247	
712.5	0.3323805201	-0.1626875261	
713.125	0.2014582952	-0.02622630947	
713.75	0.2599125634	-0.3092796429	
714.375	-0.08556634647	-0.2637395716	
715.0	0.05892479107	-0.1275692593	
715.625	0.06070218784	-0.3726419056	
716.25	0.08035914128	-0.2407033869	
716.875	0.3936527258	-0.0002666964056	
717.5	0.7621162103	-0.07899396749	
718.125	0.7158672759	-0.04446291879	
718.75	0.6867707632	0.2194673457	
719.375	1.472659055	-0.2273853815	
720.0	0.2616547952	-0.6323694152	
720.625	0.8249879858	-0.7518616951	
721.25	-0.2776199891	-1.467119626	
721.875	0.01295993692	-0.636942744	
722.5	-0.4673965139	-1.161060622	
723.125	-1.03081609	-0.06648891394	
723.75	-0.2027475137	0.2685622566	
724.375	-0.2949201721	0.6086454607	
725.0	0.3763521324	0.3327028351	
725.625	-0.02490439528	0.3409148203	
726.25	-0.08036543067	0.9008058758	
726.875	0.1732336507	1.079080144	
727.5	-0.3631430551	0.870063165	
728.125	-0.5200057911	2.596012812	
728.75	0.5279835489	3.388395463	
729.375	-1.056572915	1.901539305	
730.0	-1.961258078	5.26696977	
730.625	0.9945183964	4.505819557	
731.25	-1.507115556	1.635457542	
731.875	-4.464574712	3.379828807	
732.5	-3.092285917	3.460176327	
733.125	-1.986660698	-0.8415203973	
733.75	-1.448079978	1.806184623	
734.375	0.8957295608	0.1438149969	
735.0	0.4103287311	-0.3289936337	
735.625	-0.8705843671	0.1017121728	
736.25	0.2179797554	0.128510178	
736.875	0.1030454654	0.8405839867	
737.5	1.446465712	0.1410808935	
738.125	0.9348496772	-0.6977467748	
738.75	1.977205424	0.3339238302	
739.375	3.545360552	-2.999424837	
740.0	-0.02954244374	-2.33080612	
740.625	2.501844384	3.727510267	
741.25	5.187491001	3.393025355	
741.875	1.728233785	-2.000548127	
742.5	-0.5729620168	-5.123000436	
743.125	-1.184313725	-2.079984493	
743.75	0.3068061561	-0.336733078	
744.375	-0.6348336871	-0.6314328678	
745.0	0.3372964546	0.1033531184	
745.625	0.05334318786	0.1096626233	
746.25	-0.07805223464	-0.1861095495	
746.875	-0.07574882089	-0.0141419008	
747.5	-0.2541209429	0.3540253524	
748.125	0.248466342	0.5319846912	
748.75	0.1930729273	0.3520150669	
749.375	0.01189361726	0.567040183	
750.0	-0.4076360879	0.3787594475	
