!Created with skrf (http://scikit-rf.org).
# GHz S RI R (50+0j) 
!freq	ReS11	ImS11	
500.0	-1.58838768	-6.856689966	
500.625	1.551669618	-1.025574865	
501.25	-1.032972598	-2.798484632	
501.875	-2.391251322	-1.467234927	
502.5	-0.1469849066	-0.0389749291	
503.125	-0.3154931773	-0.07839293083	
503.75	0.3295968354	0.1992553975	
504.375	0.0572356727	0.1125984569	
505.0	-0.02538601197	-0.2057780622	
505.625	0.2084899105	-0.0004906698852	
506.25	-0.6837209367	-0.2844056033	
506.875	0.6333853695	-0.4549819088	
507.5	-0.4059610615	-2.084048472	
508.125	-1.456062893	-2.105654473	
508.75	1.401258999	-0.9286770415	
509.375	-0.1523892533	-5.381582249	
510.0	-1.438369898	0.340542089	
510.625	-0.04657385135	-0.7913317827	
511.25	-0.5172565396	0.2284185907	
511.875	-0.3091270384	-0.4898511564	
512.5	-0.08913935701	0.1998191513	
513.125	-0.1177129513	-0.3472993453	
513.75	-0.1387265631	-0.009216493374	
514.375	-0.2384848485	-0.4438850196	
515.0	-0.5188433885	1.106838719	
515.625	0.3938467466	-3.260169887	
516.25	-2.520858826	0.235736003	
516.875	0.7828317648	-1.323197918	
517.5	-0.8485777588	-1.030329557	
518.125	0.3509413255	0.04757503543	
518.75	-0.6589716086	-0.7385244669	
519.375	-0.03752729817	0.1402672392	
520.0	0.2428429546	0.2943285714	
520.625	0.5579680904	-0.3393154627	
521.25	-0.1955813558	-0.3976123423	
521.875	-0.3618323	-0.2739265547	
522.5	-0.0406063536	0.1967858817	
523.125	-0.3819736296	-0.01270779584	
523.75	-0.1412974928	0.06409100877	
524.375	-0.6252686198	-0.07934431347	
525.0	0.2833604179	0.2900903406	
525.625	-0.1266476192	0.1261228517	
526.25	0.2012221727	-0.1237413887	
526.875	-0.3503283049	0.2327067926	
527.5	0.2403894082	0.5306056183	
528.125	-0.192138031	0.5092256547	
528.75	0.2177945152	1.118100992	
529.375	-0.007826456193	-0.05756990413	
530.0	0.3864032859	0.6521490894	
530.625	0.05438545018	0.5451959617	
531.25	1.856742505	0.2612800585	
531.875	0.01692620277	-0.3498855192	
532.5	0.06128349766	-0.5811927288	
533.125	-0.1616802903	0.3289209589	
533.75	0.4254502434	-1.045197186	
534.375	-0.4531108102	-0.2527787173	
535.0	-0.5723155332	-0.5993021584	
535.625	-0.3232271551	0.6755408796	
536.25	-0.05006657041	0.1026645036	
536.875	0.3102073682	0.1380526762	
537.5	0.1133761747	-0.2123455125	
538.125	0.2846205876	0.05487040631	
538.75	0.3311868966	-0.5184335172	
539.375	-0.09776068953	-0.2223736056	
540.0	-0.3904946511	-0.5567050675	
540.625	-0.4632031569	0.1672383771	
541.25	-0.08254579119	-0.07579153186	
541.875	-0.1626954595	-0.09605656657	
542.5	-0.2018363719	-0.05801034443	
543.125	-0.01654897773	-0.09219760119	
543.75	-0.4399102699	-0.1028386611	
544.375	0.145912098	0.1118742972	
545.0	-0.1835124723	0.2411328623	
545.625	0.2757905553	-0.04844536008	
546.25	0.0341671377	0.3136194184	
546.875	0.4229195218	-0.3125552322	
547.5	0.06048243019	-0.05451041595	
548.125	0.06077013019	-0.5361669081	
548.75	-0.497687798	-0.2378629743	
549.375	-0.1133407804	-0.0260728161	
550.0	-0.3078780614	-0.09564599969	
550.625	-0.01147828377	0.1128009414	
551.25	-0.2876897257	-0.03053065298	
551.875	-0.07331624785	0.2787412343	
552.5	-0.1476179856	0.0890792098	
553.125	-0.02134474546	0.2223797669	
553.75	0.1068062145	0.08710705387	
554.375	0.2269783336	0.02268043473	
555.0	0.2436327041	-0.1879364982	
555.625	0.1814997866	-0.2528802251	
556.25	0.1636817506	-0.3349389399	
556.875	-0.09059092996	-0.392648943	
557.5	-0.2386786067	-0.2370598998	
558.125	-0.2601777731	-0.09650721371	
558.75	-0.276213001	-0.008169769733	
559.375	-0.2401314672	0.08559375635	
560.0	-0.2202734801	0.1284676363	
560.625	-0.1511902498	0.3075009521	
561.25	0.1049551428	0.2090042021	
561.875	-0.02904401306	0.1218120244	
562.5	0.1425754918	0.0912838819	
563.125	0.05224318731	0.2325577489	
563.75	0.4453740559	-0.07734135925	
564.375	0.1251120519	-0.1669146707	
565.0	0.344055426	-0.3334163967	
565.625	-0.2254888102	-0.4002144814	
566.25	-0.1858008828	-0.1365909979	
566.875	-0.2860356988	-0.3150424488	
567.5	-0.5162332989	-0.2023036493	
568.125	-0.147712889	-0.2235685304	
568.75	-0.6826939103	-0.3631268646	
569.375	-0.4050263568	0.4304240572	
570.0	-0.3881665481	0.2232545242	
570.625	-0.1685588902	0.7382196383	
571.25	0.1699079394	-0.01563423335	
571.875	0.02454621169	0.520143946	
572.5	0.2997017726	-0.3850540841	
573.125	0.1638839183	0.07951365864	
573.75	0.3459500749	-0.4928190525	
574.375	-0.26953592	-0.1010418423	
575.0	0.3880358904	-0.05667226663	
575.625	-0.2237270499	-0.253851422	
576.25	0.3225397546	0.01718698332	
576.875	-0.03238873867	-0.61736137	
577.5	-0.2691512071	-0.259208651	
578.125	0.11659765	-0.2397304111	
578.75	-0.1965761371	-0.5184172415	
579.375	-0.3943978	0.02945563829	
580.0	0.1291564377	-0.112829793	
580.625	-0.4250073798	0.001838165748	
581.25	0.01351247456	0.01625812014	
581.875	-0.287053067	0.5005284039	
582.5	0.4604591693	0.4142795213	
583.125	-0.008836840703	-0.1675145557	
583.75	0.1224330075	0.5008335471	
584.375	0.0322715964	-0.3741986629	
585.0	0.1738283381	0.5364342971	
585.625	0.5245353869	-0.2942042537	
586.25	0.0401491378	0.01637070317	
586.875	0.4547605732	-0.4956781063	
587.5	-0.3197411627	-0.1563176163	
588.125	0.2314066739	-0.2538206144	
588.75	0.08081488612	-0.6132461436	
589.375	-0.137812044	-0.2256872236	
590.0	0.1515232536	-0.4243118851	
590.625	-0.6134113221	-0.1559025314	
591.25	-0.160444806	0.3357064135	
591.875	-0.151847545	0.09833836931	
592.5	0.05919841822	0.317412354	
593.125	-0.2313251372	-0.04609411493	
593.75	0.3072723896	0.3347194371	
594.375	0.2447026329	0.05995109457	
595.0	0.1976054264	0.480409772	
595.625	0.8407057018	0.1911791589	
596.25	-0.04722606996	-0.1361259131	
596.875	0.5256066747	0.4670139952	
597.5	0.5421603184	-0.0507652256	
598.125	0.03117748384	0.326874432	
598.75	0.7294024142	0.2050704276	
599.375	0.2053143339	-0.07571133242	
600.0	0.6301122787	-0.2075551519	
600.625	0.240907006	-0.6479124882	
601.25	0.04023877256	-0.2458153043	
601.875	-0.03930134832	-0.4592793104	
602.5	-0.3767340998	-0.01425065561	
603.125	-0.2319183104	0.1694925072	
603.75	-0.1557515749	0.06262608474	
604.375	-0.4087730348	0.2025515691	
605.0	0.07683253825	0.2346183395	
605.625	-0.3973623883	0.01050087407	
606.25	-0.1084501739	0.3443283823	
606.875	-0.361053091	-0.09281144189	
607.5	-0.6244365069	0.8011469716	
608.125	0.1663789352	0.2082967968	
608.75	0.1657543191	0.749911792	
609.375	0.7430812114	-0.4235058589	
610.0	0.2117986709	0.06304465534	
610.625	0.3707454391	-0.5949531805	
611.25	-0.1615423367	-0.1892914483	
611.875	-0.03486875596	-0.5022222373	
612.5	-0.3889220315	0.1947975725	
613.125	-0.3960490984	-0.1189362223	
613.75	-0.2223348458	0.4958212597	
614.375	-0.003939476507	-0.08789517569	
615.0	0.3007462109	0.3456984343	
615.625	-0.1133535077	-0.03850836615	
616.25	-0.2552025983	0.60097164	
616.875	0.2090933269	0.3250513544	
617.5	-0.5110264525	0.4018924138	
618.125	0.1128856713	0.7357035325	
618.75	0.06742669399	0.1548332424	
619.375	0.176495672	0.634773213	
620.0	0.3971168575	-0.06581515091	
620.625	0.3670415566	-0.2417624031	
621.25	-0.3134349055	-0.4233039419	
621.875	-0.3378009503	-0.286250663	
622.5	-0.5960400294	0.2963778125	
623.125	-0.08114000039	0.2763209946	
623.75	0.3801743271	0.2572774375	
624.375	-0.1716886912	-0.224838365	
625.0	0.4169206741	-0.009974385165	
625.625	-0.3388824837	-0.1615808449	
626.25	0.2592614536	-0.3263960086	
626.875	-0.5930657175	-0.2853552021	
627.5	-0.1923601337	0.141395456	
628.125	-0.1536903204	-0.4306228346	
628.75	-0.390679801	-0.131771798	
629.375	0.02619069345	-0.3404401805	
630.0	-0.6093538263	-0.3134451459	
630.625	-0.2829713853	0.2879089971	
631.25	-0.4926294199	0.2399164914	
631.875	-0.03404481858	0.7488561314	
632.5	0.3731632978	0.3737730853	
633.125	0.4159031399	0.03468016117	
633.75	0.4195616341	0.03793162096	
634.375	0.01572076455	-0.5427784344	
635.0	0.1444705422	-0.1185998963	
635.625	-0.4946287166	-0.3685185901	
636.25	-0.09452078755	0.3144776909	
636.875	-0.5000703822	0.1312948838	
637.5	0.156507102	0.4353189047	
638.125	-0.2127699568	-0.1624871537	
638.75	-0.3935494154	0.7988774404	
639.375	0.459703665	0.3925811972	
640.0	-0.08732560928	0.4095886214	
640.625	0.7063402266	0.6212518684	
641.25	0.624705121	-0.3594969262	
641.875	0.3796166142	-0.02804486963	
642.5	-0.2258753452	-0.9374684238	
643.125	-0.04498772453	0.02311075868	
643.75	-0.3745813599	-0.567167814	
644.375	-0.4663454936	0.4090174875	
645.0	-0.1192302856	-0.01218859846	
645.625	-0.1544501698	0.742766648	
646.25	0.7069896645	0.1335758361	
646.875	-0.07335627133	-0.2123623328	
647.5	0.3971560582	0.4639961181	
648.125	0.007684541968	-0.405752542	
648.75	0.8929922866	0.4043036849	
649.375	0.4439014729	-1.101771955	
650.0	-0.05733114802	-0.2138447527	
650.625	1.14523418	-0.562944683	
651.25	0.02932027182	-1.31554909	
651.875	0.1203332835	0.2043945569	
652.5	1.239923197	-0.03990566387	
653.125	0.428148294	-0.7649036696	
653.75	0.33344199	0.0392281299	
654.375	-0.1925482864	-1.201329701	
655.0	-0.6366422811	0.2133419972	
655.625	-0.3757441716	-0.1051566897	
656.25	-0.0431568307	0.9087173693	
656.875	0.2875700867	-0.3521479814	
657.5	-0.1040769271	0.5877944914	
658.125	0.5916960671	0.2864069949	
658.75	0.4458485122	-0.0308417089	
659.375	0.9211672764	0.1370202572	
660.0	0.4004382523	-1.159498991	
660.625	0.1682235309	-0.3562211561	
661.25	0.7486712981	-0.6679492196	
661.875	0.2497953116	-1.123168468	
662.5	0.1838593886	0.07310559656	
663.125	1.223987825	-0.4754326748	
663.75	-0.09320842205	-0.8817736265	
664.375	0.224234752	-0.3780324815	
665.0	-0.8891103906	-0.829120699	
665.625	-0.3013335549	0.4218571539	
666.25	-0.6095398171	0.486027127	
666.875	0.5618346854	0.6274694073	
667.5	0.1684625051	-0.05135885834	
668.125	0.6812985755	0.3564861194	
668.75	0.4426057409	-0.6574614326	
669.375	0.04824314411	-0.3458191664	
670.0	0.2112611061	-0.4062272092	
670.625	-0.02236574244	-0.7031914846	
671.25	-0.04574536637	-0.1111316443	
671.875	0.5042292829	-0.4786072557	
672.5	0.3217636864	-0.5278041848	
673.125	0.3745211192	-0.0894429636	
673.75	0.7184596746	-0.7741538938	
674.375	-0.3900256331	-0.5865079596	
675.0	0.2674914192	-0.2387916088	
675.625	-0.6781269567	-0.7330865596	
676.25	-0.4737287159	0.5020205463	
676.875	-0.1127942155	-0.4813075248	
677.5	-0.5809407538	0.5767667456	
678.125	-0.1432930729	-0.08290816406	
678.75	-0.1930384215	0.9521043462	
679.375	0.5806140382	-0.4058675572	
680.0	0.2118390774	0.1955836508	
680.625	0.4669451516	-0.2569859369	
681.25	0.01566035773	-0.3616117856	
681.875	0.06213686396	0.4228235725	
682.5	0.7442058071	0.3791170321	
683.125	0.5827200189	-0.09167361583	
683.75	0.3019020694	0.09849874033	
684.375	0.945524107	0.4574883678	
685.0	0.5470147993	-0.5591993219	
685.625	0.6237627873	0.5718812074	
686.25	1.0658161	-0.5178650102	
686.875	-0.02729219257	-0.2062757611	
687.5	1.593971316	-0.4297293231	
688.125	-1.098024638	-1.425864275	
688.75	-0.06636814882	-0.3384864014	
689.375	-1.368977735	0.9320347833	
690.0	0.7102554256	0.5194296985	
690.625	-0.03951333226	0.8336256604	
691.25	1.253844845	0.3635265126	
691.875	0.6026322539	0.683428087	
692.5	1.542432263	0.7220814283	
693.125	1.519133686	-0.3842042029	
693.75	1.218341015	-0.3961217237	
694.375	0.9568312025	-0.9265169852	
695.0	1.093129593	-0.5163587931	
695.625	1.451835524	-0.6198294364	
696.25	0.6751340715	0.2705324458	
696.875	1.26295844	1.56588627	
697.5	1.183790253	0.2484903039	
698.125	0.9798252246	1.121469639	
698.75	1.246044123	-1.693138786	
699.375	-0.5987615461	-0.1380055908	
700.0	-1.494387673	0.6693634027	
700.625	0.8862931867	0.4355533952	
701.25	-0.02035338319	0.5807616514	
701.875	1.147314982	0.4924730605	
702.5	0.3532338086	0.4629863455	
703.125	1.286841981	0.5070723903	
703.75	0.5439903534	-0.6087694034	
704.375	0.9444513462	-0.03364442011	
705.0	0.4658210321	-0.756350043	
705.625	0.3052658103	0.2736176529	
706.25	1.365263623	0.6222081304	
706.875	0.2884896443	0.07670909053	
707.5	0.4662296748	1.209682839	
708.125	1.487937974	-0.07304139491	
708.75	0.5352421865	-0.4001283728	
709.375	-0.7569992261	-1.165799811	
710.0	-0.1303479121	0.7290636382	
710.625	-0.1355931231	0.4233024492	
711.25	0.431400893	0.2399461002	
711.875	0.3247053073	0.2723707614	
712.5	0.8339553462	-0.01687332345	
713.125	0.5768060794	-0.294446726	
713.75	0.3993587671	-0.8816111366	
714.375	-0.1985508981	-0.2081691295	
715.0	0.3299546166	-0.8539539632	
715.625	-0.5142438237	-0.3660505944	
716.25	0.7267209069	-0.08167532482	
716.875	1.269695638	-1.403620878	
717.5	-0.1023147817	-7.538064949e-05	
718.125	2.828959452	0.9810887791	
718.75	1.929674875	-2.009792156	
719.375	0.5360254458	0.6920251115	
720.0	2.830743729	-3.75858625	
720.625	-1.164180337	-1.981749127	
721.25	0.7092078433	-2.362048858	
721.875	-0.7229496801	-3.446523963	
722.5	-1.700079108	-0.8407734787	
723.125	-1.895832758	-1.157368434	
723.75	-0.9065941327	1.597688292	
724.375	0.2572759332	0.704682166	
725.0	0.1563393591	0.8514895637	
725.625	0.5297388007	1.560150315	
726.25	0.9336032913	1.118382259	
726.875	-1.097483887	1.620880112	
727.5	-0.4040862298	5.33427769	
728.125	3.15142048	3.604422581	
728.75	-4.083747929	4.590746658	
729.375	4.183780307	15.33554899	
730.0	1.264892245	1.605157445	
730.625	-7.131506024	15.17768335	
731.25	10.28507016	11.91533955	
731.875	-7.024254852	-2.277664505	
732.5	-12.28422594	3.313199603	
733.125	-6.655810715	3.82173122	
733.75	-0.5179552971	1.423770706	
734.375	3.0555118	2.625630505	
735.0	-0.8044879637	-0.8745870685	
735.625	-0.9110439665	-0.3149233928	
736.25	-0.1302110681	2.373825438	
736.875	0.9867881084	-0.1540879363	
737.5	2.170605904	2.087545754	
738.125	5.266937083	-1.454102621	
738.75	3.541045275	-6.069286519	
739.375	-1.566367237	0.2452366282	
740.0	19.61259294	4.316720811	
740.625	3.381520593	-15.98675574	
741.25	-12.24648423	9.659868691	
741.875	-6.661480928	34.13440938	
742.5	7.632817446	-6.977838532	
743.125	1.277063839	-10.44876466	
743.75	-2.89998644	-1.934829786	
744.375	0.1053517442	-0.2651648609	
745.0	-0.1818268502	0.789860692	
745.625	-0.2428874503	-0.1831811937	
746.25	0.1656675919	-0.5724844626	
746.875	-0.5273382283	0.4170003097	
747.5	-0.2258382514	0.6187697269	
748.125	-0.02922091264	1.396821742	
748.75	1.43761242	1.156589286	
749.375	0.6858271672	0.8459759233	
750.0	-1.019345798	0.4151000023	
