!Created with skrf (http://scikit-rf.org).
# GHz S RI R (50+0j) 
!freq	ReS11	ImS11	
500.0	0.2162780054	-0.6892580108	
500.625	0.1492826761	-0.7569135749	
501.25	-0.2913971935	-0.6276188452	
501.875	-0.2014704403	-0.3238912778	
502.5	-0.04052367539	-0.1061029841	
503.125	-0.05725495872	0.004082887683	
503.75	0.01122956793	0.06953484998	
504.375	0.02313248714	-0.005177866802	
505.0	0.01558238195	-0.01744670504	
505.625	-0.0009539016924	-0.04241717542	
506.25	-0.04967403781	-0.04419463322	
506.875	-0.09286802363	0.01573276791	
507.5	-0.06848655894	-0.2725067611	
508.125	0.1411840824	-0.5460820803	
508.75	0.3771167128	-0.8278590353	
509.375	-0.009417657257	-1.034341834	
510.0	-0.3253510024	-0.3266421352	
510.625	-0.1404734987	-0.09230137838	
511.25	-0.05975807073	-0.01618238872	
511.875	-0.0827163811	-0.005187724552	
512.5	-0.03037262697	0.02884318211	
513.125	-0.00612685503	-0.0568362867	
513.75	-0.04652977128	-0.03050445147	
514.375	-0.04102483031	0.000926831007	
515.0	-0.006924379548	-0.0497117459	
515.625	0.0133919077	-0.2652476306	
516.25	-0.2151925081	-0.5706552008	
516.875	-0.1567696821	-0.3051424235	
517.5	-0.03558599484	-0.1240044352	
518.125	-0.021807704	-0.02095385347	
518.75	-0.04072305329	-0.08808205368	
519.375	-0.03885659695	0.03194176288	
520.0	0.08540793003	0.04316436423	
520.625	0.1221096036	-0.05131667592	
521.25	-0.02092318009	-0.206607712	
521.875	-0.1192086607	-0.01438369952	
522.5	-0.0379782025	0.02265074931	
523.125	-0.0505437591	0.02268419652	
523.75	-0.09026089304	-0.003140561535	
524.375	-0.1299598022	0.03500608265	
525.0	-0.02939338186	0.1126645297	
525.625	0.03107469991	0.03369819358	
526.25	-0.01118327996	-0.009377278122	
526.875	-0.04030004522	0.04462076459	
527.5	-0.03168673407	0.1486218148	
528.125	0.05184740412	0.204418989	
528.75	0.03120342505	0.1637338095	
529.375	0.03941243341	0.04855099613	
530.0	0.02429430253	0.1140201183	
530.625	0.09618708073	0.2243094573	
531.25	0.3375856978	0.07453428915	
531.875	0.177019661	-0.1580729929	
532.5	-0.05025364281	-0.08773896419	
533.125	0.04489294706	-0.04451605024	
533.75	0.08081823252	-0.1484619864	
534.375	-0.07812500995	-0.2236108435	
535.0	-0.1969109524	-0.08169645843	
535.625	-0.1327724915	0.09571983885	
536.25	0.000198309768	0.08092368961	
536.875	0.07970816289	0.00804291313	
537.5	0.05476500257	-0.03894797591	
538.125	0.09186996652	-0.05514005892	
538.75	0.1022640992	-0.1071162137	
539.375	-0.06903800821	-0.138767666	
540.0	-0.1470887333	-0.1199962781	
540.625	-0.1388678985	-0.01363521651	
541.25	-0.07425695162	0.006216755577	
541.875	-0.03746366246	-0.01800725503	
542.5	-0.04177285683	-0.04449384022	
543.125	-0.06983371684	-0.03508751458	
543.75	-0.0723230297	-0.0009943151071	
544.375	-0.0390359924	0.03734261324	
545.0	-0.001971357871	0.05081585524	
545.625	0.04742015031	0.05163274264	
546.25	0.08414636756	0.02764296895	
546.875	0.1000892945	-0.02616309202	
547.5	0.05375569064	-0.1098131165	
548.125	-0.04493001624	-0.1363987862	
548.75	-0.1121506021	-0.09355349708	
549.375	-0.09694513846	-0.05414223758	
550.0	-0.0653340024	0.01005464688	
550.625	-0.04625147064	0.00957988361	
551.25	-0.06584263455	0.02858292077	
551.875	-0.05922620613	0.06281009406	
552.5	-0.03407220046	0.06773522998	
553.125	-0.01026645547	0.05393223684	
553.75	0.0423770482	0.03840080482	
554.375	0.08269877508	-0.006212650956	
555.0	0.08261555319	-0.06659598582	
555.625	0.07192547234	-0.09747307557	
556.25	0.05279252368	-0.1254369327	
556.875	-0.03836575458	-0.1421377672	
557.5	-0.09465743386	-0.08976468395	
558.125	-0.1066734889	-0.02890945569	
558.75	-0.09810363333	0.003013863229	
559.375	-0.09837721846	0.02480450113	
560.0	-0.08411851518	0.07340338151	
560.625	-0.04154511858	0.1022709316	
561.25	0.0108757402	0.08784185686	
561.875	0.02789898735	0.03893566527	
562.5	0.01168451844	0.04845273163	
563.125	0.06717767946	0.06174017686	
563.75	0.1252436909	-0.004284454906	
564.375	0.1094657702	-0.09033042752	
565.0	0.05929789131	-0.1345249521	
565.625	-0.03522100816	-0.1389501559	
566.25	-0.1082346112	-0.09089546993	
566.875	-0.1272756827	-0.0617099493	
567.5	-0.1266588583	-0.08705153452	
568.125	-0.133730669	-0.1263145606	
568.75	-0.2015367374	-0.05467275433	
569.375	-0.1978698131	0.1001945574	
570.0	-0.08988348216	0.1841213848	
570.625	-0.03424990273	0.1549924047	
571.25	0.0111881497	0.1008067453	
571.875	0.05493502265	0.06228122137	
572.5	0.1102330081	-0.008753294852	
573.125	0.07085608016	-0.1022174334	
573.75	0.0303489283	-0.09970701925	
574.375	0.006933053201	-0.06039179258	
575.0	0.02320070317	-0.03542619534	
575.625	0.02836644659	-0.06729943483	
576.25	0.03250839472	-0.09865592902	
576.875	-0.008539419361	-0.1237101105	
577.5	-0.008621480416	-0.1395120191	
578.125	-0.0466442927	-0.1378263053	
578.75	-0.08175507314	-0.1034054981	
579.375	-0.08048648819	-0.05201646863	
580.0	-0.04774991	-0.02312819007	
580.625	-0.06282332183	-0.02229529628	
581.25	-0.08791957023	0.07127386102	
581.875	0.01387463764	0.1379736279	
582.5	0.05684166298	0.1201020957	
583.125	0.07034528114	0.06281954858	
583.75	0.03598346371	0.01687390256	
584.375	0.03281639807	0.04987696297	
585.0	0.09939684894	0.046448773	
585.625	0.135443815	-0.008142519915	
586.25	0.1285978913	-0.06236562707	
586.875	0.05944498396	-0.1213308412	
587.5	-0.01729669079	-0.1240359103	
588.125	-0.02248987459	-0.1212147795	
588.75	0.01986590278	-0.1273618577	
589.375	0.04667939727	-0.1371562202	
590.0	-0.05853118799	-0.1502265837	
590.625	-0.1641601777	-0.0287509171	
591.25	-0.107187135	0.105162209	
591.875	-0.02204514689	0.1055604217	
592.5	0.009757666546	0.04211524958	
593.125	-0.02263193366	0.04576139534	
593.75	0.05281651466	0.1007896354	
594.375	0.1346933062	0.07874016271	
595.0	0.1520423232	0.07665236134	
595.625	0.1526010228	0.05725308314	
596.25	0.1417833562	0.02577391195	
596.875	0.1384638892	0.02057882124	
597.5	0.1323843855	0.06124748797	
598.125	0.1361522805	0.08769112154	
598.75	0.1605943843	0.06026494239	
599.375	0.1820067698	-0.04454241105	
600.0	0.1339050307	-0.1363231947	
600.625	0.1071041365	-0.1633430031	
601.25	0.0410494173	-0.1713030319	
601.875	-0.07912651256	-0.1191624449	
602.5	-0.1137856557	-0.005586974774	
603.125	-0.09237689961	0.04839519081	
603.75	-0.08806677822	0.06879553541	
604.375	-0.08160266873	0.07145060716	
605.0	-0.05660404621	0.07163347509	
605.625	-0.05852029162	0.05857188792	
606.25	-0.09379436275	0.06149486544	
606.875	-0.1413219872	0.08577446925	
607.5	-0.1302653152	0.167774148	
608.125	-0.008925766842	0.2176449289	
608.75	0.1701199263	0.1372468885	
609.375	0.204421528	-0.04234497017	
610.0	0.1392929985	-0.116805492	
610.625	0.06515178332	-0.1462981487	
611.25	-0.005899350398	-0.1416564669	
611.875	-0.08309982231	-0.1041844704	
612.5	-0.1467241995	-0.04862530555	
613.125	-0.1675449013	0.0412632933	
613.75	-0.07325184621	0.1342601832	
614.375	0.04643254808	0.09665085615	
615.0	0.03738887107	0.03573974845	
615.625	0.0008863357365	0.07398392243	
616.25	-0.03102240878	0.1275969795	
616.875	-0.0629694756	0.1708169725	
617.5	-0.04741873749	0.1983419116	
618.125	-0.002657702108	0.1870987855	
618.75	0.03222558269	0.1687297886	
619.375	0.09036510115	0.1396693773	
620.0	0.1732509257	0.03008474028	
620.625	0.08867218512	-0.1468879583	
621.25	-0.0898456579	-0.1585343011	
621.875	-0.1858080074	-0.0646844498	
622.5	-0.188471681	0.06505581366	
623.125	-0.02498835947	0.1692395832	
623.75	0.121115122	0.03120825348	
624.375	0.03264089667	-0.05022398481	
625.0	0.03416657583	-0.02538853442	
625.625	0.04074934021	-0.08198603029	
626.25	-0.04932189199	-0.1198565792	
626.875	-0.1263190748	-0.06970047824	
627.5	-0.1315766597	-0.03040141533	
628.125	-0.1005985915	-0.05590971147	
628.75	-0.07070719845	-0.1051905615	
629.375	-0.08988054062	-0.1284104142	
630.0	-0.172654899	-0.07721750851	
630.625	-0.1947579143	0.07004787061	
631.25	-0.1169679682	0.1821209963	
631.875	-0.008106159852	0.2213593826	
632.5	0.1408501593	0.1678095333	
633.125	0.1911666464	0.03641311702	
633.75	0.1464173899	-0.06935838919	
634.375	0.04997362875	-0.1254494246	
635.0	-0.01917997656	-0.1328154945	
635.625	-0.1346378389	-0.07444882352	
636.25	-0.1363487541	0.07115020593	
636.875	-0.05211581876	0.1159712202	
637.5	-0.02886727754	0.0820659335	
638.125	-0.05483098275	0.08069607067	
638.75	-0.05616303764	0.1508266685	
639.375	0.01049708607	0.2212584032	
640.0	0.1361222008	0.2098361145	
640.625	0.2189162219	0.1198553939	
641.25	0.2459542556	-0.01518417842	
641.875	0.1446902798	-0.1727511937	
642.5	-0.01609683283	-0.1909490955	
643.125	-0.1136981135	-0.103277247	
643.75	-0.1232072014	-0.05902975037	
644.375	-0.1580113043	0.007745985424	
645.0	-0.1255846049	0.1440286728	
645.625	0.05879007022	0.1905930902	
646.25	0.1520573921	0.06026424896	
646.875	0.08735321849	-0.02184314214	
647.5	0.049950808	0.02702559972	
648.125	0.1442839474	0.04042077032	
648.75	0.2303278313	-0.07229240436	
649.375	0.1865936956	-0.2243713674	
650.0	0.1288948609	-0.2742064946	
650.625	0.1217006244	-0.2581790476	
651.25	0.1630288764	-0.2183044783	
651.875	0.2142336243	-0.1606790698	
652.5	0.2384512221	-0.09981378903	
653.125	0.2334697445	-0.1092436394	
653.75	0.1628573035	-0.2118694332	
654.375	-0.06485820408	-0.2709625686	
655.0	-0.2593986851	-0.07432492287	
655.625	-0.1512532996	0.1714993122	
656.25	0.03577702611	0.1548308361	
656.875	0.04896699427	0.06002514099	
657.5	0.03680751056	0.0900057765	
658.125	0.1338895713	0.1347790778	
658.75	0.2633861555	0.05801017034	
659.375	0.2823028496	-0.1409283	
660.0	0.1861753784	-0.2710721304	
660.625	0.1049081348	-0.2967363711	
661.25	0.1258987754	-0.267805722	
661.875	0.1773375532	-0.2307621561	
662.5	0.2210085714	-0.1904039779	
663.125	0.2203264391	-0.1856877981	
663.75	0.1298705278	-0.2572306444	
664.375	-0.04936053544	-0.2914835335	
665.0	-0.2442314308	-0.1761860889	
665.625	-0.2768831845	0.09055494294	
666.25	-0.0784919347	0.2440982623	
666.875	0.111839976	0.179257867	
667.5	0.1680779129	0.07511136647	
668.125	0.1939888134	-0.02174269267	
668.75	0.1641860784	-0.1341342239	
669.375	0.07654215451	-0.2011193838	
670.0	-0.002955916485	-0.1968279525	
670.625	-0.002086536497	-0.1695964639	
671.25	0.04427589937	-0.158537771	
671.875	0.1125642724	-0.1555489661	
672.5	0.1720047049	-0.1395484526	
673.125	0.1768968309	-0.1612998952	
673.75	0.1316362131	-0.2007501549	
674.375	0.03549323516	-0.2325075189	
675.0	-0.08725867827	-0.2084182518	
675.625	-0.1731047046	-0.1077022907	
676.25	-0.1631651001	-0.01417798736	
676.875	-0.1316653916	0.01547540771	
677.5	-0.1349343989	0.0314820481	
678.125	-0.1167577995	0.1291669281	
678.75	0.03807376566	0.1980276837	
679.375	0.1870127351	0.05941554915	
680.0	0.1293391924	-0.08628100765	
680.625	0.05857240721	-0.07364313076	
681.25	0.07915546496	-0.01518858929	
681.875	0.1336764755	0.03595445979	
682.5	0.1818859011	0.07102730323	
683.125	0.2191519672	0.06145479471	
683.75	0.2342298643	0.05029253838	
684.375	0.2448557609	0.02644110732	
685.0	0.249876293	0.02788190473	
685.625	0.2597138867	-0.009344530909	
686.25	0.264400869	-0.04863796356	
686.875	0.2606493973	-0.1429969495	
687.5	0.2079978484	-0.2720547724	
688.125	-0.0395492377	-0.385441576	
688.75	-0.3738687767	-0.1517840582	
689.375	-0.241716682	0.2933506979	
690.0	0.1060630097	0.3071490034	
690.625	0.2192368247	0.2089680698	
691.25	0.2893473871	0.2243957442	
691.875	0.4128246994	0.2526516556	
692.5	0.5403652902	0.159452824	
693.125	0.5836582184	-0.05060966477	
693.75	0.505394379	-0.2396294759	
694.375	0.3661608972	-0.3601665769	
695.0	0.3824662888	-0.2672556133	
695.625	0.4401367052	-0.09683165779	
696.25	0.4426380979	0.1193109635	
696.875	0.3650297295	0.3119033473	
697.5	0.3513089476	0.3611572554	
698.125	0.4992731814	0.1690125509	
698.75	0.3626426111	-0.3742590693	
699.375	-0.3587699933	-0.3231304499	
700.0	-0.2305419595	0.3108124281	
700.625	0.1375725428	0.2500439312	
701.25	0.2019973921	0.1458569085	
701.875	0.2389682629	0.1915627958	
702.5	0.3133904359	0.1922123225	
703.125	0.3729268315	0.08237148217	
703.75	0.3340086572	-0.1049307049	
704.375	0.2346216002	-0.1791413243	
705.0	0.2032516046	-0.1306098489	
705.625	0.2269825935	-0.007832469033	
706.25	0.2257068089	0.1425314385	
706.875	0.2132051867	0.2439168372	
707.5	0.2434255515	0.2865066227	
708.125	0.3896942688	0.09472772583	
708.75	0.2403716595	-0.3069712533	
709.375	-0.2398456419	-0.2341601025	
710.0	-0.15381948	0.1854311738	
710.625	0.06429981256	0.1296275713	
711.25	0.08635888264	0.09584074751	
711.875	0.1839383245	0.08883645792	
712.5	0.2657246455	-0.03384334549	
713.125	0.2224285814	-0.1618387332	
713.75	0.1084094062	-0.2229649966	
714.375	0.001383858756	-0.2095547405	
715.0	-0.03055046172	-0.1760972721	
715.625	0.006729902529	-0.1873684823	
716.25	0.1208670267	-0.2084832106	
716.875	0.273350462	-0.1670875157	
717.5	0.4259105193	-0.05558944934	
718.125	0.5501256288	0.002303374455	
718.75	0.6255867202	-0.1273019169	
719.375	0.5941162657	-0.3896739391	
720.0	0.3602661353	-0.6950909447	
720.625	0.132608632	-0.7802716102	
721.25	-0.08836060928	-0.8013516462	
721.875	-0.2669149045	-0.8064475692	
722.5	-0.5553897377	-0.5956247486	
723.125	-0.6709943465	-0.06770232971	
723.75	-0.3277052257	0.3947981869	
724.375	0.04648769172	0.3905480421	
725.0	0.1627914136	0.3057122026	
725.625	0.1654252067	0.3781670962	
726.25	0.06909195214	0.5591612987	
726.875	-0.01601352469	0.7771932996	
727.5	-0.03651928445	1.102493926	
728.125	0.06944452039	1.55398541	
728.75	0.1224269005	2.130977408	
729.375	-0.4405337162	3.027590765	
730.0	0.1372463983	3.114102841	
730.625	0.1718367151	2.946159233	
731.25	-0.4149115081	3.286207264	
731.875	-1.837886722	2.246396994	
732.5	-2.56398742	0.9543992565	
733.125	-1.965810219	0.5015166446	
733.75	-0.6513991424	1.102635216	
734.375	0.7193625341	0.3439351919	
735.0	-0.02963557129	-0.5183981539	
735.625	-0.3973662015	0.1094039481	
736.25	-0.03470879877	0.4437568158	
736.875	0.3727851821	0.4438557786	
737.5	0.8591687503	0.1097769048	
738.125	1.150295097	-0.4021347438	
738.75	1.330463702	-1.02048297	
739.375	1.611241929	-1.352695248	
740.0	2.085651825	-1.332772545	
740.625	2.205685016	-0.2042333743	
741.25	0.5729136729	1.67896366	
741.875	-2.102420367	0.3921306408	
742.5	-1.20819973	-2.016127441	
743.125	0.2063577252	-1.525806013	
743.75	-0.09787934597	-0.8537395791	
744.375	-0.3610875558	-0.06208800561	
745.0	0.06297954737	0.1096702392	
745.625	0.03947255853	-2.654671121e-05	
746.25	-0.01625072948	-0.1019344238	
746.875	-0.1822924621	0.0280245371	
747.5	-0.06938684455	0.2941521527	
748.125	0.1216111466	0.4323625222	
748.75	0.2309571979	0.3507549049	
749.375	0.09754843349	0.3704407678	
750.0	-0.2500810964	0.2246384588	
