!Created with skrf (http://scikit-rf.org).
# GHz S MA R 50.0 
!freq magS11 angS11
500.0 0.0118513625213 143.33582358
500.625 0.00880880296644 64.6627540975
501.25 0.0066626606768 -138.87907548
501.875 0.0206828258681 -159.060525311
502.5 0.00731611291808 102.453918184
503.125 0.02308990399 123.328095654
503.75 0.0113847083831 98.1012020126
504.375 0.00580002268708 -44.1983211897
505.0 0.0279696127946 -74.1258793907
505.625 0.00707308101537 -68.1067696019
506.25 0.0343890995116 -109.369749694
506.875 0.0627853360217 -114.358277352
507.5 0.0573822752915 -109.238912612
508.125 0.0503632724901 -97.042690429
508.75 0.068157046214 -121.565238177
509.375 0.0500362559914 -140.707579537
510.0 0.0451086405079 -111.640378873
510.625 0.0320003399912 -165.465775708
511.25 0.0530695625287 -176.895249322
511.875 0.0508721114721 140.367962932
512.5 0.0480017261267 110.542082479
513.125 0.0452805989963 26.5536982424
513.75 0.0584083448631 41.1406711621
514.375 0.0577762491504 29.7528102726
515.0 0.0355376732569 -10.953610835
515.625 0.078159834246 46.0546233928
516.25 0.101202339179 29.5322193135
516.875 0.119194212131 69.3919841518
517.5 0.137759293754 21.9731496596
518.125 0.19745565771 68.6447266425
518.75 0.0781536628949 2.2900122201
519.375 0.0862903465478 21.5009094982
520.0 0.0722085930658 -13.3982479723
520.625 0.101197053889 -7.72638221754
521.25 0.0815574423791 -29.6106663324
521.875 0.0730878138964 0.489460790762
522.5 0.0933794210281 -35.9616979951
523.125 0.179837459676 -36.831427788
523.75 0.221732705288 -55.238054053
524.375 0.208132263397 -52.6945962588
525.0 0.0679811943299 -60.4136606492
525.625 0.0331708495732 -46.9840432166
526.25 0.0440659078629 -11.6989872795
526.875 0.0678869012879 -19.4977101891
527.5 0.0362645532909 -47.3095269515
528.125 0.0351366432856 -61.2297882495
528.75 0.0610322045801 -78.8153120273
529.375 0.110730540171 -110.079451396
530.0 0.0483388312613 -138.538650541
530.625 0.0393756367413 -143.349813633
531.25 0.117466838373 -138.149826925
531.875 0.198238106007 -150.664233494
532.5 0.129970057305 -173.785091075
533.125 0.0906806706191 173.507661831
533.75 0.103946946373 164.768141652
534.375 0.131675313075 177.591911217
535.0 0.0743699996483 156.144817026
535.625 0.0620369504892 175.828863883
536.25 0.0609007311143 161.538217497
536.875 0.0920823188253 -165.404995258
537.5 0.0955833984707 -145.568535785
538.125 0.107788410649 -174.9554373
538.75 0.105425825604 177.997111224
539.375 0.091590062117 -166.698878052
540.0 0.0697272841179 -152.905317543
540.625 0.1269885784 -157.50536659
541.25 0.129704286222 -144.120983688
541.875 0.106628819466 -147.851005296
542.5 0.108110260333 -144.814642596
543.125 0.133104565167 -167.888341602
543.75 0.133623152833 157.928881241
544.375 0.1072155153 134.367874715
545.0 0.0748841048383 87.7273752057
545.625 0.0986757707643 81.9342854396
546.25 0.0980998282511 65.0051524168
546.875 0.0955823116789 51.4751172474
547.5 0.0915832120374 56.6519439609
548.125 0.116043585715 76.7482409679
548.75 0.0925537076643 88.4563579476
549.375 0.111902189336 82.6673038376
550.0 0.0678483342179 118.79693189
550.625 0.0450587240278 151.536449519
551.25 0.0373422035393 -148.731783698
551.875 0.0699587792352 -173.267069692
552.5 0.0917564912047 -160.514358857
553.125 0.0873860267968 -167.293077362
553.75 0.0886392426656 -170.151076983
554.375 0.115508825573 160.665740633
555.0 0.108168763375 165.329438377
555.625 0.0964886926706 155.708445934
556.25 0.102695324363 159.215744701
556.875 0.122291491893 162.961454649
557.5 0.125132970187 162.858872184
558.125 0.097051979838 162.274371392
558.75 0.0867009328409 174.33842959
559.375 0.0782681728112 -178.820544261
560.0 0.0335980755371 -140.940206933
560.625 0.0557926312955 -140.27435739
561.25 0.0829609266758 -151.176115164
561.875 0.110121417167 -168.918845366
562.5 0.0917063842923 171.103634943
563.125 0.101363889473 146.085074885
563.75 0.121392151743 131.149392032
564.375 0.115216984017 116.591065209
565.0 0.074718528883 121.703635551
565.625 0.080701543201 116.154728193
566.25 0.0878255840927 150.754858436
566.875 0.0789651283672 174.33348801
567.5 0.0793676392656 175.302090661
568.125 0.0813006059101 -173.836720315
568.75 0.0670745276391 -150.04614222
569.375 0.0504767724746 -116.787533772
570.0 0.0613877488989 -119.457563729
570.625 0.0907163807775 -120.020012702
571.25 0.0911229501912 -125.100936176
571.875 0.0876156787108 -130.281355162
572.5 0.114160445326 -162.722768063
573.125 0.139900184552 -176.552736256
573.75 0.103470768524 161.466668118
574.375 0.0846737326378 144.318479766
575.0 0.104808726041 151.154051506
575.625 0.110287009661 152.217267348
576.25 0.0871921755255 146.86400359
576.875 0.0871129806382 121.896103759
577.5 0.0745901580997 138.342193054
578.125 0.0591811076718 158.541937892
578.75 0.0516771654837 153.701246087
579.375 0.0563438925046 153.130074675
580.0 0.0704095119232 169.643577829
580.625 0.0779867217334 -152.698153944
581.25 0.0891465413118 -167.867603199
581.875 0.115643200614 179.593413628
582.5 0.122899525357 177.009412259
583.125 0.0872041011642 -162.315122788
583.75 0.0808808226875 -163.891850402
584.375 0.0998220992744 -159.759032734
585.0 0.100858894023 -152.540424397
585.625 0.0699406903726 -142.540126254
586.25 0.0710124913855 -139.360784586
586.875 0.08299793028 -140.935347488
587.5 0.0774257692609 -152.977252823
588.125 0.0576960899687 -164.615552354
588.75 0.0672344379016 -159.403902601
589.375 0.0819055161868 -154.214875873
590.0 0.0893831714537 -176.965285974
590.625 0.107358552636 171.852413668
591.25 0.123207834416 155.821796008
591.875 0.0968070153277 156.188220889
592.5 0.0688036829416 136.037259786
593.125 0.062279500558 164.829969177
593.75 0.0720788429541 179.122232765
594.375 0.0590173494872 -148.918554772
595.0 0.0404838585384 -138.069010049
595.625 0.067686109015 -89.2816965683
596.25 0.0738395565134 -84.1710862554
596.875 0.0642239344856 -77.2958777041
597.5 0.0544601427953 -74.7646917858
598.125 0.0760986104748 -49.7865270388
598.75 0.0768408432056 -69.7649341239
599.375 0.0871383061481 -67.8292782827
600.0 0.094799218381 -75.7485169969
600.625 0.101752305415 -64.133620177
601.25 0.0865366439723 -69.623669592
601.875 0.0703309076793 -86.5667602912
602.5 0.0618005520517 -104.917241134
603.125 0.0507540995053 -35.0929057099
603.75 0.0317852831884 -41.560230883
604.375 0.0365266917973 -36.6928774516
605.0 0.0593893085156 -24.992950781
605.625 0.0465330106846 -30.9931167053
606.25 0.0292300598097 13.1532178597
606.875 0.0369510983679 43.3643679127
607.5 0.060987124006 44.2795584299
608.125 0.054722446062 17.7371577453
608.75 0.0645598498364 20.6801497595
609.375 0.0548308961826 22.4088831466
610.0 0.0683086986365 38.0992798183
610.625 0.0558041451431 22.9136602201
611.25 0.0510167009 36.2301002646
611.875 0.04073582889 44.0075377916
612.5 0.0241091521883 85.0557630378
613.125 0.00666710477879 153.490422513
613.75 0.0706968456563 124.220095216
614.375 0.0506177798294 121.893523666
615.0 0.0317735910717 119.794126776
615.625 0.0140960649628 149.236994932
616.25 0.0405963745656 136.872059812
616.875 0.0448250581487 130.729826421
617.5 0.0447538113218 127.710019847
618.125 0.0045864630576 144.573985207
618.75 0.0413482445426 147.521990841
619.375 0.0270042029885 140.621688934
620.0 0.0136337188035 144.78811666
620.625 0.0370126580548 -67.1103260116
621.25 0.046502630463 -138.285979045
621.875 0.0633768337317 -115.595600584
622.5 0.0817337282845 -170.965306308
623.125 0.0695429218313 179.744069043
623.75 0.0738998496876 168.273341878
624.375 0.0488462975173 -179.787506963
625.0 0.030852937696 -133.444406759
625.625 0.0339323838706 -154.06707137
626.25 0.00530824161332 168.76830637
626.875 0.000263212605504 -167.593824993
627.5 0.0234562198837 -23.4594135225
628.125 0.0365650862817 -28.4137882333
628.75 0.0503260924726 -2.18428903438
629.375 0.0378008985829 -29.0364216416
630.0 0.0557360455233 -12.6169729107
630.625 0.0707951110773 8.94416191638
631.25 0.0711000954071 4.73221740973
631.875 0.0679020577791 -8.19148489057
632.5 0.0592834470794 -7.51563994158
633.125 0.0496583067209 0.798874370297
633.75 0.0515851502211 23.8348950296
634.375 0.0503837142593 -25.166236063
635.0 0.0334802801685 11.0386601494
635.625 0.0452072853264 44.5716488673
636.25 0.0553934650979 43.2757495541
636.875 0.0764644891781 46.5328677028
637.5 0.0370273099978 6.56035526432
638.125 0.0287238601142 54.3878814165
638.75 0.0744475627096 76.4094657687
639.375 0.110985817035 96.4768429952
640.0 0.0649485784492 82.8474236306
640.625 0.0492246860033 91.2396245292
641.25 0.0658206936641 111.000823066
641.875 0.0838142117811 154.382671401
642.5 0.0547912600742 155.72349993
643.125 0.0580153001866 159.956320727
643.75 0.0676494352671 171.89586097
644.375 0.0920513846791 -172.405243601
645.0 0.0686715816184 173.886551154
645.625 0.0791150084546 161.388101971
646.25 0.0845471596043 155.89345635
646.875 0.0869725601021 179.442776702
647.5 0.0509112017884 168.590631825
648.125 0.0798600522765 -179.101685661
648.75 0.0833180579667 -164.015865653
649.375 0.0570105119892 -149.850924312
650.0 0.0412378072718 -131.178729581
650.625 0.0672290761144 -92.8640814903
651.25 0.0767753942 -67.1140909831
651.875 0.0675246044894 -44.5756341174
652.5 0.102123852887 -27.989660739
653.125 0.118297284188 -5.76197157532
653.75 0.117942322093 3.26627178703
654.375 0.122374059906 5.2998290065
655.0 0.0945409993728 1.28988677219
655.625 0.0932943396934 21.8740454469
656.25 0.0706301811423 20.5879896533
656.875 0.0748825507489 5.04084457317
657.5 0.0963317555201 20.2396452746
658.125 0.050039055796 39.9371971502
658.75 0.0502367245991 62.8400710604
659.375 0.0820245016609 38.3257037698
660.0 0.131338843845 19.9806186718
660.625 0.0918872862383 15.2970132108
661.25 0.100034470972 3.02455401999
661.875 0.118324799183 -17.604830795
662.5 0.141618975661 -24.0547471361
663.125 0.105615946972 -17.697527636
663.75 0.0925739588595 1.72451534217
664.375 0.102347868533 51.3985099254
665.0 0.0819423241768 86.9501658109
665.625 0.0629274518057 110.668239888
666.25 0.0717217780533 124.272039351
666.875 0.130910164169 162.317145937
667.5 0.0933497275316 -171.409523788
668.125 0.10036849105 179.206934343
668.75 0.122339732446 161.542338645
669.375 0.133894350619 174.262546306
670.0 0.0916744651595 -173.653569195
670.625 0.0893820204761 -175.612328686
671.25 0.116855571733 171.989839116
671.875 0.107754988957 164.899858797
672.5 0.0914506573346 148.745282538
673.125 0.0841898777361 150.988028081
673.75 0.104390134824 155.844571372
674.375 0.12362722106 162.691415529
675.0 0.0990455918465 -173.221713673
675.625 0.130849705678 -153.751737381
676.25 0.115253801668 -128.384104134
676.875 0.122138479193 -124.473690012
677.5 0.116283637402 -129.376890235
678.125 0.131382609685 -119.84317611
678.75 0.0710498182767 -96.9084689197
679.375 0.055025467254 -80.1667553226
680.0 0.0850072756857 -89.4524790821
680.625 0.101191409807 -75.0843714787
681.25 0.102721784692 -74.891221885
681.875 0.0931224599609 -93.0239208838
682.5 0.139680402646 -125.973664906
683.125 0.17205358095 -128.656171886
683.75 0.141940676395 -108.426716158
684.375 0.117333871859 -80.3631857375
685.0 0.130355688938 -43.5448390726
685.625 0.142239931503 -7.51110461327
686.25 0.100552338746 21.2567064478
686.875 0.0856615572835 44.6571343226
687.5 0.0811594291057 76.1425958133
688.125 0.0862347315295 98.8023583832
688.75 0.095313525758 119.779129337
689.375 0.135916565045 120.7631735
690.0 0.127518877874 132.225901052
690.625 0.127169038103 118.784043059
691.25 0.129604252707 102.843645996
691.875 0.187945964345 66.4302994303
692.5 0.140772828433 34.5694766487
693.125 0.0959589098838 -20.7621762387
693.75 0.103805416427 -49.9084823827
694.375 0.133972415197 -33.2150201485
695.0 0.125832010982 12.4179930626
695.625 0.0952208155457 55.7815087874
696.25 0.120068461803 101.501640807
696.875 0.131088597282 173.273281976
697.5 0.145846130912 -148.97729045
698.125 0.144526721505 -139.352750044
698.75 0.142615016001 -140.678612528
699.375 0.101444425423 -122.175626549
700.0 0.0929652165841 -113.059098514
700.625 0.115190483186 -96.58409415
701.25 0.11285792339 -77.6929036314
701.875 0.0772066229637 -50.8095511707
702.5 0.0990902554638 -82.4244690245
703.125 0.157938149324 -122.918658075
703.75 0.193128367023 -161.174431528
704.375 0.1326763224 168.914444633
705.0 0.108446867644 157.057989127
705.625 0.14287723893 -169.92030527
706.25 0.148878258948 -117.406508209
706.875 0.102418894352 -73.3924330042
707.5 0.0704332794967 -24.1779493506
708.125 0.0912177096252 20.640690212
708.75 0.110622673675 64.2173568488
709.375 0.106799527896 92.2323004349
710.0 0.102823633936 139.415937367
710.625 0.106766633839 150.019056471
711.25 0.118635901114 174.493871804
711.875 0.142297900716 156.529846405
712.5 0.150724980139 149.685277413
713.125 0.125892334197 101.614169538
713.75 0.100121992177 49.8810650321
714.375 0.11761922864 7.46507205284
715.0 0.110790378242 31.8894244193
715.625 0.0847119098819 44.0347713509
716.25 0.0806971652994 74.7374952267
716.875 0.114674194867 97.5148950469
717.5 0.139905980885 129.890184151
718.125 0.122349661452 176.826623074
718.75 0.102694731344 171.986701706
719.375 0.106547343135 -175.976496018
720.0 0.130591732146 -133.561055908
720.625 0.116136748307 -81.7646861913
721.25 0.0974826567034 -22.9403603155
721.875 0.0888143688833 27.2652932405
722.5 0.0712310550893 44.9747663811
723.125 0.0919950115289 75.5115208703
723.75 0.12237218987 43.5828227468
724.375 0.0986483088312 -0.756051469339
725.0 0.0818889138941 -57.6682044944
725.625 0.0984013421143 -71.2853498998
726.25 0.114636881015 -69.2575948123
726.875 0.10494577732 -54.8455064585
727.5 0.0820219458214 -39.7151384869
728.125 0.0666517002398 -28.4208247028
728.75 0.122743315905 36.9402322593
729.375 0.0956259593499 21.9395106147
730.0 0.0652990518836 2.9598349712
730.625 0.0599528797978 7.55482525849
731.25 0.0683678374953 56.133947671
731.875 0.0653736410753 106.60545257
732.5 0.0723222320383 146.962777963
733.125 0.0853616113299 168.961780638
733.75 0.0643172187939 160.996082317
734.375 0.0652863115738 171.952238025
735.0 0.06439885447 163.140763281
735.625 0.0185071740965 99.8001193759
736.25 0.049907188025 149.777774399
736.875 0.0549221375537 166.042981012
737.5 0.0792383808541 -178.997560381
738.125 0.0842701839907 -179.876248885
738.75 0.0675429427987 -178.961946264
739.375 0.0423434906831 -172.781745193
740.0 0.0387949016487 -151.489127028
740.625 0.0537359939342 -156.494473999
741.25 0.0196558962838 -140.483671668
741.875 0.0806608783332 -111.725495056
742.5 0.0413987439128 -23.2790431007
743.125 0.0457681119921 58.2766912879
743.75 0.0285081433776 154.012796381
744.375 0.0577057460523 92.2212336107
745.0 0.0577273964877 112.102799589
745.625 0.0569429997779 119.397938701
746.25 0.0725314959868 108.060224996
746.875 0.0872233120836 28.635543104
747.5 0.0442624160666 3.07193440685
748.125 0.0122231884928 25.8524542443
748.75 0.019362700993 5.80726368392
749.375 0.0368809934117 6.59857540557
750.0 0.0397172994509 -123.845270545
