!Created with skrf (http://scikit-rf.org).
# GHz S RI R (50+0j) 
!freq	ReS11	ImS11	
500.0	0.4753269535	-1.408770775	
500.625	-0.1854810935	-0.7363263808	
501.25	-0.03319766824	-0.9772034172	
501.875	-0.540580337	-0.4626338138	
502.5	-0.001057626434	-0.06756663025	
503.125	-0.1223714436	-0.0239100143	
503.75	0.07106758606	0.05775077742	
504.375	0.02293902608	0.02831172074	
505.0	0.02234233858	-0.06018487146	
505.625	0.03157185385	0.009542115708	
506.25	-0.07984461584	-0.1651032977	
506.875	0.1439195603	0.07728716835	
507.5	0.09590919368	-0.6369685187	
508.125	-0.2814284735	-0.7592194572	
508.75	0.7527468194	-0.326206231	
509.375	0.3036893786	-1.605807731	
510.0	-0.8253157253	-0.3297633717	
510.625	-0.002829551112	-0.2018285476	
511.25	-0.1187123247	-0.06282548673	
511.875	-0.1133731469	0.04022177622	
512.5	-0.02809170681	0.0305648499	
513.125	-0.03080050381	-0.08484836124	
513.75	-5.924840956e-05	0.00829882337	
514.375	-0.07342280484	-0.09578993719	
515.0	-0.1133056514	0.29984461	
515.625	0.3746561642	-0.7379321651	
516.25	-0.6243974938	-0.2238069737	
516.875	0.02448895496	-0.107299794	
517.5	0.08381722108	-0.2859446863	
518.125	-0.05222344138	0.05200794462	
518.75	-0.1016598954	-0.2254582096	
519.375	-0.04481382055	0.06703980994	
520.0	0.0754029765	0.06748630041	
520.625	0.2041088478	0.01473631167	
521.25	-0.01149176852	-0.2215317303	
521.875	-0.09275670399	0.05386994579	
522.5	-0.06213384898	-0.06023925514	
523.125	-0.04652025388	0.1719716653	
523.75	0.01126177843	-0.07232893383	
524.375	-0.3184363558	0.07780870375	
525.0	0.0840461202	0.06942990186	
525.625	-0.0591551311	0.06997168178	
526.25	0.07278601883	-0.060806461	
526.875	-0.1408173623	0.0563294005	
527.5	0.0614791054	0.2191777284	
528.125	0.04097282021	0.1068677334	
528.75	0.1068921303	0.2954669952	
529.375	0.1171674998	0.02918246781	
530.0	-0.0319042284	0.1750364939	
530.625	0.1194050798	0.3046346812	
531.25	0.2140714109	0.05145885219	
531.875	0.353926014	-0.09221675839	
532.5	-0.05281535845	-0.2427015247	
533.125	0.1968696804	0.05955540462	
533.75	0.144794525	-0.3757455585	
534.375	-0.05961686907	-0.1649763386	
535.0	-0.221914884	-0.2134626436	
535.625	-0.1582127697	0.1819407193	
536.25	-0.009179466998	0.05269189678	
536.875	0.1242716021	0.05125785553	
537.5	0.0441791401	-0.07765750244	
538.125	0.1163696364	0.01239845991	
538.75	0.1595248844	-0.1863161998	
539.375	-0.0844695219	-0.1020789807	
540.0	-0.1223134234	-0.1773369592	
540.625	-0.2096608999	-0.03551554416	
541.25	-0.02813719862	0.03992221325	
541.875	-0.07736705711	-0.09974048759	
542.5	-0.07718238398	-0.01308720135	
543.125	-0.02040456067	-0.0678261307	
543.75	-0.1663423427	0.004703517071	
544.375	0.009472402378	0.02758205711	
545.0	-0.05532164982	0.09248894047	
545.625	0.09533126291	0.02153141866	
546.25	0.006056245075	0.05471868994	
546.875	0.1856565686	-0.0343499602	
547.5	0.004171098977	-0.1056353041	
548.125	0.02547714933	-0.1718495972	
548.75	-0.1835921829	-0.1332690982	
549.375	-0.08651695656	-0.01639438871	
550.0	-0.09502371362	-0.05048828294	
550.625	-0.04607785931	0.0534123689	
551.25	-0.06392123893	-0.007706995107	
551.875	-0.1003534757	0.09653521273	
552.5	-0.01691124951	0.07845733499	
553.125	-0.03580130398	0.07099703735	
553.75	0.05985744933	0.04065593844	
554.375	0.09333833969	0.007614401709	
555.0	0.1115605433	-0.07797651387	
555.625	0.08644767584	-0.1094717592	
556.25	0.07336186579	-0.1407264672	
556.875	-0.03304997067	-0.1717737729	
557.5	-0.1043259638	-0.1107759474	
558.125	-0.1176995158	-0.03844750701	
558.75	-0.1128459042	-0.01306729598	
559.375	-0.1242286376	0.0246454258	
560.0	-0.08927032502	0.07229466807	
560.625	-0.07278851281	0.1149912241	
561.25	0.03546466067	0.1226714887	
561.875	0.002134594719	0.02678197874	
562.5	0.03749772143	0.08138518622	
563.125	0.04526296444	0.04513526989	
563.75	0.1566666002	0.05140165855	
564.375	0.1425905015	-0.1431298921	
565.0	0.03791277241	-0.1144528842	
565.625	0.002358844769	-0.2083182192	
566.25	-0.1945518343	-0.07301594412	
566.875	-0.08315027498	-0.09188644702	
567.5	-0.1952177205	-0.1434857363	
568.125	-0.1506380378	-0.07239518308	
568.75	-0.19620634	-0.1834540953	
569.375	-0.2841583983	0.1736983022	
570.0	-0.05467207299	0.1627713231	
570.625	-0.1512681121	0.1541268575	
571.25	0.08841739781	0.1958911847	
571.875	-0.02546818109	0.04458542338	
572.5	0.2170519408	0.01362064313	
573.125	-0.01403836388	-0.1306708756	
573.75	0.126401832	-0.02893649282	
574.375	-0.002204647406	-0.181667595	
575.0	0.004225388254	0.05165423155	
575.625	0.0991737669	-0.1505966506	
576.25	-0.04663169546	-0.1077079594	
576.875	0.07112135928	-0.088480475	
577.5	0.0003579733457	-0.2571350557	
578.125	-0.1183293955	-0.1080121893	
578.75	0.04039194332	-0.0837601776	
579.375	-0.1411755182	-0.1702208841	
580.0	-0.04703745565	0.08327966447	
580.625	-0.1008429412	-0.1833698782	
581.25	-0.05226506189	0.230220892	
581.875	-0.01721094818	0.02611816035	
582.5	-0.03182803304	0.2382097868	
583.125	0.2216240777	0.01331330055	
583.75	-0.07653365184	0.01583503088	
584.375	0.167812933	0.05209415247	
585.0	0.01379084679	9.282160275e-05	
585.625	0.2412159084	0.1075706792	
586.25	0.1592121433	-0.1751037662	
586.875	0.03053491974	-0.05690468382	
587.5	0.06646102626	-0.1980000513	
588.125	-0.1075193763	-0.1598358202	
588.75	0.06414079251	-0.04657250125	
589.375	0.1260880705	-0.2444943505	
590.0	-0.1310260423	-0.1086487017	
590.625	-0.1148104185	-0.1320220581	
591.25	-0.2098453389	0.1892755773	
591.875	0.1021732467	0.03563545067	
592.5	-0.1133675365	0.05593947206	
593.125	0.08617116761	0.03163065267	
593.75	-0.05334229854	0.1132628425	
594.375	0.3123334775	0.09603831337	
595.0	0.1421462047	-0.02305778627	
595.625	0.1139230077	0.1656424074	
596.25	0.2630196206	0.02317175231	
596.875	0.06774560781	0.02989750145	
597.5	0.1740177817	0.1830982005	
598.125	0.1894611508	0.04113539288	
598.75	0.1107266779	0.1050176957	
599.375	0.2694483722	-0.008884424106	
600.0	0.1375735663	-0.2306247468	
600.625	0.08736255277	-0.1239598431	
601.25	0.1484978926	-0.2213684357	
601.875	-0.1770980484	-0.1498712773	
602.5	-0.02893815262	-0.02688388309	
603.125	-0.233472583	0.06442029417	
603.75	-0.007969295323	0.1141199118	
604.375	-0.1708539993	-0.0303843998	
605.0	-0.1078344113	0.1873719466	
605.625	0.03618384697	-0.01257853381	
606.25	-0.2183628291	0.1635330914	
606.875	-0.07269368812	0.1401170866	
607.5	-0.2554139998	0.1464525073	
608.125	-0.1024354738	0.3360480088	
608.75	0.2806648051	0.09882136785	
609.375	0.222838159	-0.003041017137	
610.0	0.2661210953	-0.1514813604	
610.625	-0.01161650496	-0.1910741315	
611.25	0.02659159638	-0.1009152259	
611.875	-0.1373692254	-0.2031497575	
612.5	-0.1471871109	0.06311285682	
613.125	-0.2090799601	-0.07530433337	
613.75	-0.123580747	0.2669532486	
614.375	0.08621654418	-0.01082217127	
615.0	0.03338164728	0.2045805417	
615.625	0.1104048342	0.01612082059	
616.25	-0.1323157998	0.0652175443	
616.875	-0.1122981754	0.3229927773	
617.5	-0.1299782695	0.1355992336	
618.125	-0.1359985551	0.1986741674	
618.75	0.06360781654	0.3068767852	
619.375	0.1190411928	0.0612116238	
620.0	0.1001088175	-0.03501787696	
620.625	0.112452324	-0.2278433779	
621.25	-0.1518473402	-0.1566346222	
621.875	-0.2048770372	-0.1800666301	
622.5	-0.384606597	0.06336002457	
623.125	0.0294715689	0.1387711818	
623.75	0.1009895932	0.147791478	
624.375	0.03999854541	-0.149835783	
625.0	0.02384451464	0.06707678464	
625.625	0.07805954691	-0.1750111841	
626.25	-0.09094480884	-0.05578770567	
626.875	-0.08342046979	-0.1522664407	
627.5	-0.2294616445	-0.02910201093	
628.125	-0.08323105284	-0.01499121811	
628.75	-0.0326561828	-0.2061582644	
629.375	-0.1298183146	-0.1540449463	
630.0	-0.1078077896	-0.09245661964	
630.625	-0.2434322989	0.008871622889	
631.25	-0.1181243058	0.2733098825	
631.875	0.07015205531	0.217577738	
632.5	0.0502716849	0.2729802507	
633.125	0.3499161038	0.008508731583	
633.75	0.1061902896	-0.05311672208	
634.375	0.1719895101	-0.1708898583	
635.0	-0.1089432034	-0.1263931037	
635.625	-0.002462056791	-0.1290501609	
636.25	-0.2587814356	0.1037571584	
636.875	0.02435481687	0.140123701	
637.5	-0.09923469012	0.008719536551	
638.125	-0.04759356799	0.2055172435	
638.75	-0.02787046011	0.04687140641	
639.375	-0.1021995522	0.3230973487	
640.0	0.2536590578	0.2613404786	
640.625	0.1438770817	0.08523666453	
641.25	0.2889640746	0.1254450869	
641.875	0.1597650129	-0.2880034923	
642.5	-0.07003484687	-0.1066369615	
643.125	-0.03816466035	-0.2449211984	
643.75	-0.3024123762	0.07415869118	
644.375	-0.07057944801	-0.1014956198	
645.0	-0.3676677047	0.2463085954	
645.625	0.1594561509	0.1519770169	
646.25	-0.1064290263	0.1471614337	
646.875	0.3099562029	0.01580719572	
647.5	-0.1117464941	-0.002533779475	
648.125	0.2921019054	0.1414558789	
648.75	0.1705102755	-0.2325708231	
649.375	0.1847574275	-0.07576327323	
650.0	0.3180452945	-0.4262376859	
650.625	-0.04108150639	-0.370781822	
651.25	0.2185269832	-0.02493238822	
651.875	0.4277602248	-0.240891264	
652.5	0.1632532958	-0.2280137913	
653.125	0.2347117913	0.0756761986	
653.75	0.3452655523	-0.344253245	
654.375	-0.1737296291	-0.2363115008	
655.0	-0.1309906028	-0.2010376449	
655.625	-0.3102808182	0.2962186843	
656.25	0.2302808468	0.07357813434	
656.875	-0.0931671952	0.1168743199	
657.5	0.1977723364	0.1063863311	
658.125	-0.1084095993	0.07184757507	
658.75	0.4461674431	0.2307643353	
659.375	0.217677184	-0.3320242965	
660.0	0.1882642623	-0.1274490417	
660.625	0.2915253424	-0.397471219	
661.25	0.04915568617	-0.4224922633	
661.875	0.2127805924	-0.03166382486	
662.5	0.4236579945	-0.2575063346	
663.125	0.1567196051	-0.2798857297	
663.75	0.2092331759	-0.1539943481	
664.375	-0.05032548265	-0.498294574	
665.0	-0.2842376054	-0.09921296584	
665.625	-0.2975177168	-0.03389882925	
666.25	-0.1937919664	0.3788604335	
666.875	0.2040120074	0.1341716898	
667.5	0.1097594596	0.1937473187	
668.125	0.3318793674	-0.05936737492	
668.75	0.03193481051	-0.1347259269	
669.375	0.2300726352	-0.1651689276	
670.0	-0.06555329332	-0.3436419943	
670.625	0.0126282967	-0.01737506336	
671.25	0.1833391049	-0.2776788488	
671.875	0.05571954687	-0.2495708292	
672.5	0.1391764782	-0.01184238478	
673.125	0.3805280924	-0.2391118302	
673.75	0.01581866324	-0.2393392558	
674.375	0.1256275696	-0.1615968486	
675.0	-0.04592666166	-0.3642991123	
675.625	-0.287219435	-0.03116700913	
676.25	-0.0831044077	-0.1688451393	
676.875	-0.3016448177	0.002661869209	
677.5	-0.05533041083	0.09690040865	
678.125	-0.2299480746	0.01342086505	
678.75	0.08472562287	0.3962821785	
679.375	0.1404074526	-0.06776229534	
680.0	0.1860886195	0.08189292746	
680.625	0.1575067154	-0.3121858473	
681.25	-0.1068425041	0.03616541733	
681.875	0.5479633449	0.1778199315	
682.5	0.2338051476	-0.1494140763	
683.125	0.07407020307	0.1300153274	
683.75	0.4682762476	0.2279142328	
684.375	0.2281480981	-0.2190923865	
685.0	0.3169410602	0.3402260177	
685.625	0.4998480989	-0.01928429554	
686.25	0.2010144624	-0.08575320294	
686.875	0.3376687748	0.07927947857	
687.5	0.3150755076	-0.4408782171	
688.125	-0.0913943322	-0.245889318	
688.75	-0.3653380809	-0.3484362344	
689.375	-0.4227617155	0.4506785262	
690.0	0.2159444785	0.2558979407	
690.625	0.06179260871	0.4485388576	
691.25	0.5447553417	0.2213471457	
691.875	0.2856476772	0.2122971791	
692.5	0.7795456469	0.5418531863	
693.125	0.7926954734	-0.2550335965	
693.75	0.3983072845	-0.07183049859	
694.375	0.700368101	-0.5454331792	
695.0	0.4268183391	-0.4950113517	
695.625	0.6204462943	0.2474383668	
696.25	0.7368080647	0.363435241	
696.875	0.5683297297	0.1929071897	
697.5	0.3073652651	0.505957845	
698.125	0.5742147927	0.3058772648	
698.75	0.4012391778	-0.5654336734	
699.375	-0.3115763103	-0.3603448556	
700.0	-0.493874034	0.3974425243	
700.625	0.2972372212	0.3539378415	
701.25	0.06083656981	0.2087034902	
701.875	0.3935903279	0.3907620627	
702.5	0.3315528147	0.04802929064	
703.125	0.3270437595	0.3009535486	
703.75	0.5544798125	-0.1124951112	
704.375	0.1562188441	-0.2991370136	
705.0	0.3657108894	-0.005813989377	
705.625	0.4129210514	-0.1038272714	
706.25	0.1841779307	0.1880979198	
706.875	0.1844914645	0.4633139296	
707.5	0.3791677479	0.3328309061	
708.125	0.2385541978	0.09932878606	
708.75	0.09652948299	-0.2469210675	
709.375	-0.3218070727	-0.3208534992	
710.0	-0.06320214451	0.1779293264	
710.625	-0.08336638583	0.1973939658	
711.25	0.4497473726	0.1769280376	
711.875	0.08569063026	0.1841143052	
712.5	0.4724666285	0.07480849673	
713.125	0.1973491894	-0.2665700043	
713.75	0.1852246033	-0.08019092121	
714.375	0.0683238542	-0.3627890199	
715.0	-0.1232142961	-0.1401018086	
715.625	0.1378933482	-0.1514479585	
716.25	0.1986559118	-0.3866273178	
716.875	0.168086466	-0.1929621448	
717.5	0.5749627737	0.1761883197	
718.125	0.9168252451	-0.07378643973	
718.75	0.3610498407	-0.1375822305	
719.375	0.7310214527	-0.1172924489	
720.0	0.3002553212	-1.146030527	
720.625	0.2792676072	-0.5380013955	
721.25	0.327201844	-1.273841169	
721.875	-0.6828084434	-1.594328123	
722.5	-0.395181179	-0.4691598772	
723.125	-0.899269466	-0.6799490573	
723.75	-0.3628652105	0.5716682659	
724.375	-0.002889638746	0.1284667839	
725.0	0.06906965127	0.6432470982	
725.625	0.3381897774	0.2797236679	
726.25	-0.24077805	0.5219517431	
726.875	-0.2187112781	1.235706432	
727.5	0.3068105529	1.362536604	
728.125	-0.4518163733	1.256038494	
728.75	-0.7305711192	3.395351025	
729.375	0.4332645379	3.781529098	
730.0	-0.6705500326	2.291688684	
730.625	-0.5256516801	6.100597263	
731.25	0.8605305172	2.540182694	
731.875	-3.141888088	1.223849593	
732.5	-4.809677203	0.6942825228	
733.125	-1.752787224	1.833009868	
733.75	-1.35887817	0.708740555	
734.375	1.193971599	0.6544944426	
735.0	-0.4550581163	-0.2472098924	
735.625	-0.3452584917	-0.2491582448	
736.25	-0.03864852776	0.8551037081	
736.875	0.2909220936	0.09229971357	
737.5	1.198280689	1.057217326	
738.125	1.853928054	-0.9729464043	
738.75	0.683356162	-1.080408262	
739.375	3.102745713	0.4736758397	
740.0	4.774922043	-4.130720244	
740.625	-1.496608854	-1.51805448	
741.25	-2.023993853	5.42686694	
741.875	-1.978229047	3.840247477	
742.5	1.79238632	-1.269174397	
743.125	1.076430655	-3.636524318	
743.75	-0.4644625367	-1.105287119	
744.375	0.03837365922	-0.09883101476	
745.0	-0.003578834518	0.3289185967	
745.625	-0.115638137	-0.008543637774	
746.25	0.06555401255	-0.1962983794	
746.875	-0.2687335741	0.07652761372	
747.5	-0.08672593068	0.2289131639	
748.125	-0.09644028974	0.7087524452	
748.75	0.3891255303	0.4723601563	
749.375	0.03434146425	0.3283704832	
750.0	-0.4951724657	0.27633765	
