!Created with skrf (http://scikit-rf.org).
# GHz S RI R (50+0j) 
!freq	ReS11	ImS11	
500.0	0.5492479359	-1.798121357	
500.625	-0.7048650252	-1.543448548	
501.25	-0.106975519	-0.8506524377	
501.875	-0.747331683	-0.7613539457	
502.5	-0.09580803175	-0.04892379881	
503.125	-0.1105542327	-0.02339351568	
503.75	0.116981781	0.1400590272	
504.375	-0.0042433966	0.02068881841	
505.0	0.04677410807	-0.0817093245	
505.625	-0.04652317752	-0.005483585873	
506.25	-0.04114798932	-0.2118834524	
506.875	-0.07544814121	0.3211061304	
507.5	0.3034178578	-0.5060319717	
508.125	0.04249349052	-1.368441505	
508.75	-0.00281785194	-0.9548767193	
509.375	0.5178673255	-1.824819684	
510.0	-0.9917530894	-0.3285654133	
510.625	-0.1290844822	-0.02436922598	
511.25	-0.1462576772	-0.1120667367	
511.875	-0.2054696587	0.0398809211	
512.5	-0.03559368226	0.01329145626	
513.125	0.007047266492	-0.1667071523	
513.75	-0.09764323317	0.04301521116	
514.375	0.01649202217	-0.1621554833	
515.0	-0.4037835927	0.05476725199	
515.625	0.6178727061	-0.8468046411	
516.25	-0.9771439842	-1.212266033	
516.875	0.1433197022	-0.1267789713	
517.5	0.1577905431	-0.2599619703	
518.125	-0.1361206573	0.02832072715	
518.75	0.08782935599	-0.2131315106	
519.375	-0.08075532714	0.09316066604	
520.0	0.1493224285	-0.005711937327	
520.625	0.1854100077	-0.03716997007	
521.25	0.02096906609	-0.5082751757	
521.875	-0.2129859712	-0.04402105313	
522.5	-0.02093949098	-0.05800876588	
523.125	-0.1386387343	0.1829479294	
523.75	0.04703891503	-0.01711387828	
524.375	-0.3356820597	-0.08202882637	
525.0	0.1389309717	0.2561457117	
525.625	-0.04959034206	-0.02137184766	
526.25	0.07374017969	0.04572629796	
526.875	-0.1252469955	-0.01008201601	
527.5	-0.04908862839	0.4212124791	
528.125	0.1183291112	0.1774191467	
528.75	-0.1380300477	0.2288720605	
529.375	0.1214376331	0.08102375176	
530.0	-0.10271371	0.01951867943	
530.625	0.2217248867	0.5395387059	
531.25	0.6440576041	0.05199312785	
531.875	0.263483149	-0.03530190371	
532.5	-0.1663749303	-0.3086097517	
533.125	-0.09354444555	0.06887710796	
533.75	0.1905318069	-0.4225234514	
534.375	-0.2782521488	-0.1989414627	
535.0	-0.2273829924	-0.202450734	
535.625	-0.2883792722	0.2193998867	
536.25	0.04868479222	0.08696000641	
536.875	0.1164888555	0.07064101866	
537.5	0.08878602827	-0.1126603141	
538.125	0.06818219004	-0.03351650757	
538.75	0.2508489027	-0.17512711	
539.375	-0.1846605571	-0.1588998834	
540.0	-0.1102761344	-0.1626259486	
540.625	-0.2668894152	-0.06883042644	
541.25	-0.1325341935	0.04758455344	
541.875	-0.004662877531	-0.09856310905	
542.5	-0.1510963179	-0.01776768474	
543.125	-0.04313617135	0.01063979723	
543.75	-0.1459118357	-0.09195163251	
544.375	0.02524058442	0.1346003387	
545.0	-0.06558929683	0.06041283587	
545.625	0.1646697157	0.1007593515	
546.25	0.04102311978	0.02408420857	
546.875	0.237908501	0.0445074922	
547.5	0.01012686542	-0.2016998136	
548.125	-0.01004748399	-0.1411082471	
548.75	-0.1758750775	-0.2196658726	
549.375	-0.1859897526	-0.008046998254	
550.0	-0.05411689933	-0.03507725396	
550.625	-0.1131632889	0.06130028515	
551.25	-0.05367604534	0.005897115828	
551.875	-0.1315438167	0.0997221162	
552.5	-0.008606768891	0.1091162834	
553.125	-0.03023180845	0.0639995401	
553.75	0.08250608267	0.05953141024	
554.375	0.105463257	-0.01503691083	
555.0	0.1316835496	-0.09669525099	
555.625	0.1010755629	-0.1536795638	
556.25	0.07535363684	-0.1844189158	
556.875	-0.04803226301	-0.2072750768	
557.5	-0.1358936397	-0.1321988622	
558.125	-0.1554939426	-0.04088712597	
558.75	-0.1389010416	-0.0005618266415	
559.375	-0.1571828098	0.03587138151	
560.0	-0.1063095574	0.1137016414	
560.625	-0.07254282865	0.1251759315	
561.25	0.01833810179	0.1593251633	
561.875	0.0509062443	0.004221963648	
562.5	0.000165794818	0.1122621492	
563.125	0.113957031	0.03418682458	
563.75	0.1574517948	0.04532886564	
564.375	0.2009789197	-0.1731190577	
565.0	0.02663640325	-0.173086771	
565.625	0.02037540075	-0.1956451671	
566.25	-0.2266639552	-0.127703071	
566.875	-0.1078935251	-0.007230924533	
567.5	-0.1899075507	-0.2067866092	
568.125	-0.259281928	-0.1305386451	
568.75	-0.1591514691	-0.09488019317	
569.375	-0.4391474772	0.1460818379	
570.0	-0.03977849395	0.3033365526	
570.625	-0.1023415242	0.1415761825	
571.25	0.01862850068	0.2576247175	
571.875	0.02271574068	-0.0432019719	
572.5	0.233108114	0.08009762185	
573.125	0.03873609815	-0.241105794	
573.75	0.0250658627	0.0002085877864	
574.375	0.1157492518	-0.2188416274	
575.0	-0.09133342756	-0.00914542303	
575.625	0.1593133606	-0.09839519047	
576.25	-0.02053934697	-0.2329197723	
576.875	-0.01368395295	-0.06250951094	
577.5	0.09240647371	-0.2601091679	
578.125	-0.1945527943	-0.2418320747	
578.75	-0.05947988063	-0.04735045112	
579.375	-0.04861859642	-0.2484390203	
580.0	-0.1727453679	0.05843094014	
580.625	-0.01073771191	-0.1383559474	
581.25	-0.1947800209	0.2407143988	
581.875	0.1429681123	0.06281006598	
582.5	-0.05452999181	0.1598643393	
583.125	0.213363179	0.2064801755	
583.75	-0.0738873922	-0.1113171823	
584.375	0.1064463284	0.2019957291	
585.0	0.1027652363	-0.08802677641	
585.625	0.1240241091	0.08786515262	
586.25	0.3081691089	-0.1755800306	
586.875	-0.04444587585	-0.1337246382	
587.5	0.08595198856	-0.1635113534	
588.125	-0.1054141779	-0.2729536401	
588.75	-0.02741927599	-0.07873905239	
589.375	0.2006463745	-0.2184510635	
590.0	-0.2289055827	-0.2374525287	
590.625	-0.1152011569	-0.01470039293	
591.25	-0.303695212	0.1029343418	
591.875	0.06789627219	0.2441194272	
592.5	-0.1596907086	-0.09581766871	
593.125	0.05407448566	0.1733636502	
593.75	-0.08325154091	0.04514491189	
594.375	0.2498555607	0.2615218115	
595.0	0.2826275354	-0.04514268568	
595.625	0.08180536706	0.0981904391	
596.25	0.3284759654	0.07222069564	
596.875	0.1992055497	-0.09056163043	
597.5	0.1610803471	0.1982111545	
598.125	0.3212652256	0.1751773215	
598.75	0.1779995316	-0.003021948163	
599.375	0.2925547987	0.01341706431	
600.0	0.2372013356	-0.3001678033	
600.625	0.03755248829	-0.2160065198	
601.25	0.1436686104	-0.1904464152	
601.875	-0.1985493708	-0.2474237115	
602.5	-0.07335934741	0.09628231646	
603.125	-0.2094870941	-0.03481987967	
603.75	-0.1080241824	0.2426611812	
604.375	-0.03512214172	-0.00988584116	
605.0	-0.2231688614	0.1996786751	
605.625	0.03619421978	0.1563795304	
606.25	-0.1781415984	-0.05298228314	
606.875	-0.2088133574	0.2622402357	
607.5	-0.09738137747	0.1690120401	
608.125	-0.1408695607	0.3214479131	
608.75	0.3762524229	0.2082252534	
609.375	0.1742953056	-0.1010821003	
610.0	0.2127981564	-0.1587231535	
610.625	0.04188297541	-0.341079523	
611.25	-0.01696656445	-0.05477285497	
611.875	-0.08426600862	-0.2686918243	
612.5	-0.2932373273	0.05970898649	
613.125	-0.06254134704	-0.005440739279	
613.75	-0.2368830033	0.2548582931	
614.375	0.2162816389	0.08792150686	
615.0	-0.1125691692	0.07313902595	
615.625	0.1855008435	0.09190849742	
616.25	-0.03275755669	0.03444410304	
616.875	-0.2432055161	0.2785400891	
617.5	0.05922173382	0.4180395379	
618.125	-0.04229131911	0.3355221783	
618.75	-0.000237663691	0.3697324879	
619.375	0.2468538359	0.1338829374	
620.0	0.1487349684	0.05683859748	
620.625	0.1982340127	-0.1634419298	
621.25	-0.2234336366	-0.1375706426	
621.875	-0.1782040935	-0.07614441093	
622.5	-0.3832959928	0.1121921515	
623.125	0.09596764129	0.3785780877	
623.75	0.05285727799	0.05621295716	
624.375	0.1516050752	-0.1504670787	
625.0	-0.04379432218	0.03802154365	
625.625	0.1623286699	-0.1434931205	
626.25	-0.1829651428	-0.1498513454	
626.875	-0.06008084	-0.07701538499	
627.5	-0.2629247113	-0.1302788858	
628.125	-0.1842365935	0.006515301958	
628.75	-0.008651890199	-0.1412419113	
629.375	-0.2090338559	-0.2756753097	
630.0	-0.2520881152	-0.04125390532	
630.625	-0.2444569493	0.05291663068	
631.25	-0.1825886898	0.3438772621	
631.875	0.09045564906	0.2597802913	
632.5	0.1102076765	0.2039073187	
633.125	0.3926214333	0.08029219222	
633.75	0.06247278301	-0.2693306548	
634.375	0.137234631	-0.1309969216	
635.0	-0.1271046757	-0.2680735022	
635.625	-0.08788273347	-0.003245042071	
636.25	-0.3184007235	-0.01917223675	
636.875	0.006124987118	0.2670289717	
637.5	-0.02417446997	-0.001611574721	
638.125	-0.1860179492	0.19768751	
638.75	0.07968202728	0.1867364549	
639.375	-0.126508125	0.2416211549	
640.0	0.2975477072	0.4063507544	
640.625	0.3359661672	0.01600814992	
641.25	0.2752444528	0.1131620908	
641.875	0.319871279	-0.361881445	
642.5	-0.1536309735	-0.1512483141	
643.125	-0.01263544208	-0.1891923496	
643.75	-0.3543278768	-0.1128513123	
644.375	-0.01629598488	0.05768901504	
645.0	-0.3514834309	0.1899507356	
645.625	0.3114192112	0.3983909689	
646.25	0.07015203722	-0.03023720657	
646.875	0.2976175415	0.2897349081	
647.5	0.02976970563	-0.197074834	
648.125	0.2140360475	0.3120696556	
648.75	0.4128509372	-0.2783250657	
649.375	0.06675641358	-0.1981081531	
650.0	0.3807140487	-0.2806107698	
650.625	0.1121010331	-0.6009649855	
651.25	0.038478576	-0.163772872	
651.875	0.5330521853	-0.09678989701	
652.5	0.3639481924	-0.3755207345	
653.125	0.1351038397	-0.0667120919	
653.75	0.4072409981	-0.3604363937	
654.375	-0.3453982854	-0.4615363921	
655.0	-0.1992355711	-0.01888667005	
655.625	-0.4008921776	0.2082436946	
656.25	0.2842040726	0.2792763161	
656.875	-0.1573581063	-0.08143242922	
657.5	0.1913404632	0.240601129	
658.125	0.161933316	-0.01166843314	
658.75	0.2819090917	0.4114408663	
659.375	0.5488505046	-0.4405455334	
660.0	0.002130060665	-0.2249553873	
660.625	0.3060918294	-0.3279319466	
661.25	0.1967254071	-0.5935942149	
661.875	0.0577298707	-0.2873202017	
662.5	0.4903058916	-0.1695372672	
663.125	0.294329483	-0.4407850167	
663.75	0.06830651188	-0.2264097517	
664.375	0.04657997241	-0.5079364019	
665.0	-0.5165985067	-0.1583685011	
665.625	-0.2420740279	0.09507379061	
666.25	-0.2338987206	0.3775048027	
666.875	0.3276220393	0.2925760729	
667.5	0.09850984657	0.03886945658	
668.125	0.4202323486	0.02501316482	
668.75	0.1419721581	-0.2859246138	
669.375	0.1491860795	-0.08062199194	
670.0	0.08578644427	-0.4328718356	
670.625	-0.1549998115	-0.1734138843	
671.25	0.2723402551	-0.1660665454	
671.875	0.1186116239	-0.4270587461	
672.5	0.1000736426	-0.1596795239	
673.125	0.3290158062	-0.1100571446	
673.75	0.1906215816	-0.4746087435	
674.375	0.01371320821	-0.1465742892	
675.0	-0.01198856361	-0.3575918893	
675.625	-0.4029656067	-0.1580163997	
676.25	-0.08933587004	0.09181420623	
676.875	-0.342689099	-0.08019495012	
677.5	-0.1663752043	0.2327902973	
678.125	-0.1230251561	0.03824674705	
678.75	-0.01231734574	0.4473505275	
679.375	0.404973286	-0.1230619521	
680.0	0.05071673576	0.01872449797	
680.625	0.2902084089	-0.1385820155	
681.25	-0.0856128688	-0.241555544	
681.875	0.0910149716	0.2882290296	
682.5	0.6430239522	-0.1974787392	
683.125	0.09565948319	-0.07527039748	
683.75	0.2886832635	0.2643985503	
684.375	0.5633994906	-0.2035409791	
685.0	0.08041346053	-0.06951073382	
685.625	0.571393701	0.2165022034	
686.25	0.3681710546	-0.334655089	
686.875	0.2879040563	-0.1174734737	
687.5	0.514179281	-0.5029748907	
688.125	-0.4134571695	-0.5714952613	
688.75	-0.2936389655	-0.1900526528	
689.375	-0.4675980561	0.4749489292	
690.0	0.4058178415	0.4261612687	
690.625	0.09233381842	0.1605419586	
691.25	0.648618435	0.5248484522	
691.875	0.5679265635	0.1022908717	
692.5	0.5932575411	0.3939115901	
693.125	1.210744471	-0.1765155567	
693.75	0.4792708978	-0.5435684211	
694.375	0.6355142922	-0.2493975112	
695.0	0.571908338	-0.7120038729	
695.625	0.4613151096	-0.3430126188	
696.25	0.9910002315	0.2540744882	
696.875	0.9450793933	0.4440503652	
697.5	0.4329523427	0.1960484123	
698.125	0.7505202265	0.2912658349	
698.75	0.5582483723	-0.4827246795	
699.375	-0.5664669644	-0.119280086	
700.0	-0.2926104624	0.34889094	
700.625	0.3789629114	0.4898460542	
701.25	0.284702016	-0.04572861102	
701.875	0.292316359	0.4917739336	
702.5	0.6985062597	0.2039758834	
703.125	0.3005840294	0.07572496524	
703.75	0.654301714	-0.02808701067	
704.375	0.3555386131	-0.4606290829	
705.0	0.09646932682	-0.08763645668	
705.625	0.5324258925	-0.0349482025	
706.25	0.3392081784	0.02520156856	
706.875	0.2128884072	0.3744995579	
707.5	0.5328431177	0.5787840151	
708.125	0.629091384	0.02854000631	
708.75	0.3743447538	-0.3016333988	
709.375	-0.2630848819	-0.3784921004	
710.0	-0.06694731972	0.3806118686	
710.625	-0.09588262593	0.1144678428	
711.25	0.3724497478	0.1974017003	
711.875	0.09573739779	0.03964922928	
712.5	0.4733729762	0.08474180289	
713.125	0.4329602286	-0.4164282866	
713.75	0.01576455564	-0.2379050711	
714.375	0.1883469919	-0.3203213377	
715.0	-0.1855753486	-0.3381886307	
715.625	0.03803083996	-0.106049277	
716.25	0.3729581923	-0.3560498764	
716.875	0.3079963826	-0.4590721974	
717.5	0.4436044141	0.02620548702	
718.125	1.192022908	0.09711776085	
718.75	0.8922596602	-0.6033331034	
719.375	0.7245360979	-0.04201271109	
720.0	1.021775991	-1.08833379	
720.625	-0.3501642995	-0.9528355138	
721.25	0.1740748273	-1.01969391	
721.875	-0.5269654547	-1.777203828	
722.5	-1.174918128	-0.2087853464	
723.125	-0.9046587511	-0.3905179812	
723.75	-0.720037419	0.9859852115	
724.375	0.2214640452	0.4045540603	
725.0	-0.2011925513	0.5292361579	
725.625	0.4941941818	0.7865741723	
726.25	0.1220542968	0.470043591	
726.875	-0.4796935385	1.299489573	
727.5	0.2551905537	2.342672851	
728.125	0.7597290426	1.734282238	
728.75	-1.013939641	3.484601653	
729.375	0.6364846565	6.606753626	
730.0	1.476867429	2.647217795	
730.625	-2.147810116	5.415791243	
731.25	2.013460885	6.813105894	
731.875	-2.031352105	1.528390677	
732.5	-4.748978325	1.004581701	
733.125	-3.418600074	2.477614668	
733.75	-0.2441802749	1.160003286	
734.375	1.23274986	1.088152508	
735.0	-0.6026237679	-0.7533845983	
735.625	-0.0568711178	-0.2190723848	
736.25	-0.3239766533	0.9700520953	
736.875	0.9910085538	0.3320819484	
737.5	0.6893881989	0.5244020962	
738.125	3.351325025	-0.7024714142	
738.75	1.366160951	-2.860100921	
739.375	1.473976315	-0.4119463404	
740.0	7.964616611	-0.7668402342	
740.625	5.406852896	-5.989606821	
741.25	-4.906597932	2.50047626	
741.875	-8.691706962	4.834865363	
742.5	-0.8854033136	-0.1206514371	
743.125	2.120119685	-3.392902643	
743.75	-1.178844322	-2.050018582	
744.375	-0.3153504411	0.2717123658	
745.0	-0.2463641299	0.1616493252	
745.625	-0.003619605362	-0.1877651437	
746.25	0.1686024338	-0.1540140335	
746.875	-0.4166137568	0.09502054868	
747.5	0.02331344065	0.4345050421	
748.125	0.01503928798	0.5863893262	
748.75	0.5643383795	0.8179130406	
749.375	0.2833526582	0.3948493268	
750.0	-0.6611578023	0.1741462258	
