!Created with skrf (http://scikit-rf.org).
# GHz S RI R (50+0j) 
!freq	ReS11	ImS11	
500.0	0.1596744807	-0.7037534288	
500.625	0.9830359419	-1.770933117	
501.25	-1.093981457	-0.5749209216	
501.875	-0.09157588953	-0.6232726335	
502.5	-0.1534998586	-0.2506120036	
503.125	-0.04260889432	0.02796022372	
503.75	-0.03741524209	0.1564262615	
504.375	0.04085962288	-0.04378310936	
505.0	0.05092776757	0.02154618653	
505.625	-0.02382771137	-0.1330087147	
506.25	0.04504725898	0.0354736371	
506.875	-0.4237672295	-0.1829219779	
507.5	-0.2398311834	0.05383622201	
508.125	0.6787590575	-0.9086846532	
508.75	0.7525322392	-2.131527138	
509.375	-0.5857536756	-0.975537049	
510.0	-0.5407229202	-0.9588993551	
510.625	-0.2975208232	-0.2152664476	
511.25	0.0527361033	-0.07609482608	
511.875	-0.2113704041	-0.1165237242	
512.5	0.04222703374	0.1211805327	
513.125	0.02864633893	-0.06350912987	
513.75	-0.1345034734	-0.1361651161	
514.375	-0.04079991738	0.1122431246	
515.0	0.1170270997	-0.429938256	
515.625	0.1363636103	0.5115769393	
516.25	0.387665551	-1.138644149	
516.875	-0.7941669459	-0.7674517288	
517.5	-0.06340181574	0.01548350303	
518.125	-0.1142377569	-0.08991909614	
518.75	-0.1615033975	-0.003247098191	
519.375	-0.1078778536	0.02918329194	
520.0	0.2137622568	0.1011844231	
520.625	0.1981213396	-0.04305896321	
521.25	0.0497754504	-0.1911811946	
521.875	-0.3043501139	-0.1369889278	
522.5	0.02315151308	0.1287437367	
523.125	-0.0804308167	-0.09012116461	
523.75	-0.1939743422	0.1553275926	
524.375	-0.01253340354	-0.06144265169	
525.0	-0.207718529	0.2983402687	
525.625	0.1722437714	-0.034007581	
526.25	-0.1121738203	0.04441421894	
526.875	0.01789078535	0.01852370666	
527.5	-0.180217167	0.1566110489	
528.125	0.2221160324	0.321441931	
528.75	0.2003318848	0.1035068563	
529.375	0.04236962743	0.1239933912	
530.0	0.1078114205	0.1535071566	
530.625	-0.06974300839	0.3141288579	
531.25	0.8366055266	0.1448261656	
531.875	0.2665127046	-0.42140925	
532.5	0.07069182238	-0.06240813049	
533.125	0.008189804079	-0.3545900077	
533.75	0.2543135304	-0.1168783367	
534.375	-0.2119820316	-0.5373484643	
535.0	-0.237705419	0.01439105219	
535.625	-0.2007910047	0.05514173743	
536.25	0.02633330124	0.1708561834	
536.875	0.07383394455	-0.02786823564	
537.5	0.1339542744	-0.02558521037	
538.125	0.1080012858	-0.1647701588	
538.75	0.141119622	-0.06427001124	
539.375	-0.1051971821	-0.2658394029	
540.0	-0.2771102347	-0.0750764733	
540.625	-0.1287055011	-0.07797688285	
541.25	-0.199055701	-0.002616633825	
541.875	-0.03383028788	0.04224689724	
542.5	0.003679862659	-0.1078822609	
543.125	-0.18423107	0.01890165387	
543.75	-0.03848175365	-0.05778914953	
544.375	-0.1523541107	0.08678736652	
545.0	0.0237716748	0.00662580974	
545.625	-0.01020990849	0.1900356202	
546.25	0.1721486413	-0.02609684217	
546.875	0.09703942565	0.02280574826	
547.5	0.1277532577	-0.2226876133	
548.125	-0.135597715	-0.1491685409	
548.75	-0.08941843601	-0.1501104464	
549.375	-0.1962341156	-0.1371637213	
550.0	-0.05744437822	0.06436354974	
550.625	-0.08845196563	-0.04340143018	
551.25	-0.07524712074	0.0957291327	
551.875	-0.07407321288	0.05326781341	
552.5	-0.06841233289	0.1403456463	
553.125	0.01290051845	0.07142056466	
553.75	0.06325614635	0.0709225854	
554.375	0.1271368415	-0.02430202457	
555.0	0.1201589758	-0.08918068002	
555.625	0.1181315961	-0.1457700486	
556.25	0.07187868834	-0.1906295599	
556.875	-0.05821244902	-0.2050039946	
557.5	-0.1354534473	-0.1309313171	
558.125	-0.1609063337	-0.0447782399	
558.75	-0.1397763796	0.0113279695	
559.375	-0.1392829943	0.025296243	
560.0	-0.1308931649	0.1153342383	
560.625	-0.02622727482	0.1397847463	
561.25	-0.01729982883	0.1254252197	
561.875	0.08073615151	0.06226934964	
562.5	-0.02712003167	0.05202465036	
563.125	0.1483090816	0.117548175	
563.75	0.1358602937	-0.0422862431	
564.375	0.1848185579	-0.07444551684	
565.0	0.07379515072	-0.2540991508	
565.625	-0.09356108427	-0.1177658983	
566.25	-0.1245657742	-0.1949385594	
566.875	-0.2300416759	-0.03078115484	
567.5	-0.08997406434	-0.1121579134	
568.125	-0.2514607999	-0.3106606983	
568.75	-0.2716339517	0.0294629031	
569.375	-0.281521282	0.04496933183	
570.0	-0.182935617	0.4219616338	
570.625	0.07366723561	0.1601004819	
571.25	-0.09770683254	0.1411518713	
571.875	0.185364814	0.06884516793	
572.5	0.04067202056	0.04583706316	
573.125	0.2382435564	-0.2170684697	
573.75	-0.08172018501	-0.1796529162	
574.375	0.08331306979	0.005352028407	
575.0	0.002542608627	-0.1783316344	
575.625	0.05263615809	0.03187737595	
576.25	0.140743229	-0.216424533	
576.875	-0.1294560207	-0.1866962463	
577.5	0.04483817087	-0.1090850146	
578.125	0.03032294205	-0.3489945722	
578.75	-0.2416090102	-0.1004384558	
579.375	5.257866768e-05	-0.041498895	
580.0	-0.1746370572	-0.1714199748	
580.625	0.02489131106	0.1251841936	
581.25	-0.2374991611	0.006725989867	
581.875	0.1247700646	0.3004342794	
582.5	0.04722580047	-0.02356579557	
583.125	0.005253998993	0.1905252382	
583.75	0.1811376064	-0.1069215117	
584.375	-0.09032069266	0.1314088402	
585.0	0.2741152431	0.05165472816	
585.625	0.08369409037	-0.07868405318	
586.25	0.2418895597	0.017429996	
586.875	0.07551854842	-0.3077451636	
587.5	-0.03130918662	-0.0616754793	
588.125	0.06513626628	-0.2383119471	
588.75	-0.06691157619	-0.2447418631	
589.375	0.06767788239	-0.06831397028	
590.0	-0.09287057251	-0.3607141509	
590.625	-0.2225289044	0.0809280597	
591.25	-0.1406859144	-0.03446593805	
591.875	-0.115977119	0.2628812203	
592.5	0.1291711151	-0.01895564993	
593.125	-0.1316872679	0.158355729	
593.75	0.1094384032	-0.03746741163	
594.375	0.06909584266	0.1508231742	
595.0	0.350180034	0.1662526377	
595.625	0.239887935	-0.05806619854	
596.25	0.2367327208	0.175640072	
596.875	0.319602913	-0.006038499176	
597.5	0.1236316723	0.002209771839	
598.125	0.1644258318	0.2397016727	
598.75	0.3342779188	0.0160460504	
599.375	0.1578243782	-0.04743428805	
600.0	0.2564577002	-0.1919675516	
600.625	0.1351480021	-0.3383844409	
601.25	-0.031578938	-0.1676651163	
601.875	-0.03633214981	-0.2697957282	
602.5	-0.2266915663	0.0995536408	
603.125	-0.05495102463	-0.01170528805	
603.75	-0.3052152709	0.1858333993	
604.375	0.00895488614	0.1797293249	
605.0	-0.1325412504	-0.01287790694	
605.625	-0.0287830211	0.2502204382	
606.25	-0.04146637568	-0.02517351075	
606.875	-0.33862401	0.1162659232	
607.5	-0.08777124308	0.3720355616	
608.125	-0.06277735809	0.2511211969	
608.75	0.2609873958	0.1902223957	
609.375	0.3163054542	-0.1997704994	
610.0	0.1101120102	-0.05265633445	
610.625	0.1441943962	-0.2226278278	
611.25	-0.1187920671	-0.1966047379	
611.875	0.01564908056	-0.1601050945	
612.5	-0.3601855583	-0.09483543095	
613.125	-0.1099732079	0.1656017013	
613.75	-0.2063824536	0.08128196218	
614.375	0.1687030106	0.2585058435	
615.0	0.01067163863	-0.1040050772	
615.625	-0.05907630967	0.2724437747	
616.25	0.1044267093	0.1339341343	
616.875	-0.1866537466	0.2310290164	
617.5	-0.1353147616	0.4293022738	
618.125	0.1163744991	0.2330260143	
618.75	-0.09353318668	0.1776785753	
619.375	0.1038814944	0.1841926115	
620.0	0.1735315515	-0.04367778717	
620.625	0.09746089382	-0.1586351825	
621.25	-0.243678293	-0.2959809199	
621.875	-0.3592044204	0.1225862323	
622.5	-0.297090652	-0.003384836561	
623.125	0.005402086828	0.3495178363	
623.75	0.1239678555	-0.0646167984	
624.375	0.1221363379	0.04924261375	
625.0	-0.05983870426	-0.1024535945	
625.625	0.1379683854	-0.04827438245	
626.25	-0.112472087	-0.2631621801	
626.875	-0.1761549733	0.01388766609	
627.5	-0.1281956772	-0.1520285394	
628.125	-0.2559669582	-0.07443564998	
628.75	-0.08181780252	-0.0927178864	
629.375	-0.07947082629	-0.2582629659	
630.0	-0.3003668695	-0.1848722093	
630.625	-0.183042197	0.07279432339	
631.25	-0.2305617379	0.2349268559	
631.875	0.04656910058	0.3962195102	
632.5	0.1654574997	0.1289241544	
633.125	0.2947678663	0.1387249301	
633.75	0.2135659682	-0.2383505612	
634.375	0.07875696606	-0.07949556821	
635.0	0.03635460064	-0.3455887511	
635.625	-0.233284882	0.01617220432	
636.25	-0.1576427502	-0.0211419974	
636.875	-0.181633089	0.2818361268	
637.5	0.08295492233	0.07506810085	
638.125	-0.1935726707	0.062137701	
638.75	0.003884377682	0.3315865983	
639.375	0.03116141166	0.1641048425	
640.0	0.1473921698	0.4281036628	
640.625	0.460302377	0.1241049572	
641.25	0.2105288957	-0.04461503906	
641.875	0.3352385717	-0.1628259697	
642.5	-0.1582660425	-0.3692439792	
643.125	-0.03282002518	-0.05994197298	
643.75	-0.2438371673	-0.2145967543	
644.375	-0.2733386871	0.2799069114	
645.0	-0.1753464848	-0.01918354242	
645.625	0.09188166155	0.6652195605	
646.25	0.257537845	-0.09793284938	
646.875	0.04755866805	0.125814128	
647.5	0.2216119688	-0.09837478349	
648.125	-0.100727189	0.2048351651	
648.75	0.5487873458	-0.1033951558	
649.375	0.09564144574	-0.4152563046	
650.0	0.2026746566	-0.1967563846	
650.625	0.4168686169	-0.4942578049	
651.25	0.007832692345	-0.4115566393	
651.875	0.3071902841	-0.01768218696	
652.5	0.5539468712	-0.2444394276	
653.125	0.1618386342	-0.3046721597	
653.75	0.3099850115	-0.1455442069	
654.375	-0.2103309972	-0.564580381	
655.0	-0.2946786602	0.09766849544	
655.625	-0.1919741409	-0.02480898837	
656.25	0.09353402229	0.4231682589	
656.875	0.03727953971	-0.1121051058	
657.5	0.01320431463	0.4157455047	
658.125	0.3110320878	0.04846661433	
658.75	0.09783217069	0.180171948	
659.375	0.6394995827	-0.1569107344	
660.0	0.04682555884	-0.5221992495	
660.625	0.169632771	-0.2545320763	
661.25	0.3105053631	-0.5147965857	
661.875	0.1149222725	-0.4720260628	
662.5	0.2699020213	-0.05079547683	
663.125	0.4654990448	-0.3975062508	
663.75	-0.01278370898	-0.3461909323	
664.375	0.04853293149	-0.3568867846	
665.0	-0.5023514552	-0.3160070233	
665.625	-0.2581145515	0.2597336335	
666.25	-0.1891637567	0.2434281334	
666.875	0.2444800783	0.3709087419	
667.5	0.1991837199	-0.04379893727	
668.125	0.2693630906	0.2278031631	
668.75	0.2732795051	-0.3598547835	
669.375	0.02768938498	-0.1908905909	
670.0	0.1658753951	-0.3200361591	
670.625	-0.2469966533	-0.3643721505	
671.25	0.1231932846	-0.04205915017	
671.875	0.2843952375	-0.3279378357	
672.5	0.08483518143	-0.2617561876	
673.125	0.2335904909	-0.08931823217	
673.75	0.3285856949	-0.3803094672	
674.375	-0.1494659379	-0.3359443346	
675.0	-0.0002976308221	-0.2233469096	
675.625	-0.3622558461	-0.2401615071	
676.25	-0.2328193055	0.1549576887	
676.875	-0.1156003147	-0.1366086828	
677.5	-0.3130574598	0.1941666035	
678.125	-0.003142181879	0.125730418	
678.75	-0.1015942051	0.3278014715	
679.375	0.4849514323	0.04403401711	
680.0	-0.1312979058	-0.1405415421	
680.625	0.2562802912	0.005830090158	
681.25	0.0194303073	-0.3980057938	
681.875	-0.07147681748	0.1343828371	
682.5	0.4675989065	0.2766537371	
683.125	0.1778360913	-0.2052081441	
683.75	0.253970946	0.3336869977	
684.375	0.5775536777	0.03257240626	
685.0	0.2806763841	-0.2672082055	
685.625	0.439566123	0.2407791024	
686.25	0.5606947673	-0.2957964459	
686.875	0.2384798112	-0.2006267101	
687.5	0.4544689202	-0.2740513206	
688.125	-0.3015876418	-0.6785134633	
688.75	-0.3587611617	0.04351997246	
689.375	-0.4086097744	0.3421587511	
690.0	0.3548900492	0.5750354054	
690.625	0.2032908142	0.06286785031	
691.25	0.4168116502	0.6186969953	
691.875	0.8193225913	0.02500699279	
692.5	0.506361026	0.2462492549	
693.125	1.011577146	0.1069825109	
693.75	0.4673150302	-0.6871540351	
694.375	0.5058957981	-0.1797109228	
695.0	0.6419244101	-0.7121418546	
695.625	0.5394505912	-0.3813938309	
696.25	0.4464803427	0.2372269165	
696.875	0.755048664	0.7008667416	
697.5	0.518509835	0.3827748872	
698.125	0.6087066371	0.3268470058	
698.75	0.6182398527	-0.7450615211	
699.375	-0.7667008778	-0.2193267914	
700.0	-0.1299933559	0.3636538862	
700.625	0.329848872	0.6001257453	
701.25	0.2966492908	0.001195611189	
701.875	0.1976556443	0.4219979664	
702.5	0.7546051583	0.3663143404	
703.125	0.3905586262	-0.07565618272	
703.75	0.5214633696	0.05149150742	
704.375	0.4391257413	-0.4233514901	
705.0	0.09404705097	-0.1699142975	
705.625	0.4716959554	0.002632678603	
706.25	0.5248639037	0.05394131758	
706.875	0.276582612	0.3823842343	
707.5	0.3725643782	0.6034186276	
708.125	0.6670045993	0.3223542801	
708.75	0.2313303195	-0.3012692463	
709.375	-0.3082553274	-0.3803054356	
710.0	-0.08773288248	0.4678520177	
710.625	0.1767775915	-0.06706087417	
711.25	0.2440503283	0.3115326863	
711.875	0.3336059102	-0.1812742647	
712.5	0.3912894695	0.1271080341	
713.125	0.4775770095	-0.3811518267	
713.75	0.003470794793	-0.3410356361	
714.375	0.1530017941	-0.210633261	
715.0	-0.1287889947	-0.413031655	
715.625	-0.0641920112	-0.1483185021	
716.25	0.3653772162	-0.2568766751	
716.875	0.4230021694	-0.5194365536	
717.5	0.4404263469	-0.0623890518	
718.125	1.109351229	0.254941439	
718.75	1.247570078	-0.2877167414	
719.375	0.5335161811	-0.3302986463	
720.0	1.135644596	-1.488338444	
720.625	-0.4105497912	-1.581278939	
721.25	-0.09386294138	-0.1277428883	
721.875	-0.374650236	-1.67869069	
722.5	-1.578777484	-0.6588920658	
723.125	-0.6532493503	-0.2915137096	
723.75	-1.008948896	0.9564952618	
724.375	0.3137688738	0.494683705	
725.0	-0.004788950177	0.4399448239	
725.625	0.3870551683	0.8749521148	
726.25	0.3536431317	0.5442562999	
726.875	-0.4484827504	1.093032736	
727.5	0.04997683282	2.337905539	
728.125	1.268292372	2.12032443	
728.75	-0.9705786809	2.647035489	
729.375	-0.8186558682	6.667806208	
730.0	1.703009316	3.689441368	
730.625	-1.470832275	4.84455785	
731.25	0.8972429008	7.623804332	
731.875	0.2887006791	3.35092454	
732.5	-5.36099612	0.7291011226	
733.125	-3.408231395	2.079008597	
733.75	0.2860827951	1.425345039	
734.375	0.5213151274	1.429466462	
735.0	-0.5383542103	-1.140438731	
735.625	-0.1969435566	0.1208120644	
736.25	-0.3521557357	0.885235528	
736.875	1.19332199	0.5090296116	
737.5	0.5051765755	0.1186980457	
738.125	2.859926995	-0.3126569257	
738.75	1.541800288	-3.059004611	
739.375	0.8468631072	-0.9332749007	
740.0	6.895290519	-0.3490092784	
740.625	4.524661468	-3.605291767	
741.25	-3.852643747	-0.4220916191	
741.875	-7.874100941	1.66408404	
742.5	-3.083616962	-0.2574016001	
743.125	1.368122357	-1.922745538	
743.75	-0.518748084	-2.135795362	
744.375	-0.3992880577	0.3270163403	
745.0	-0.1995066573	0.1087854729	
745.625	0.04319728364	-0.1700692867	
746.25	0.1027977463	-0.1456050658	
746.875	-0.3790992762	0.09991207053	
747.5	0.1185143545	0.4086072907	
748.125	0.07667583326	0.5557772392	
748.75	0.4486210443	0.7766229382	
749.375	0.3885404501	0.4641208715	
750.0	-0.5088084567	0.3564070519	
