!Created with skrf (http://scikit-rf.org).
# GHz S MA R 50.0 
!freq magS11 angS11
600.0 0.0928498156651 -105.500732337
600.125 0.0579011296579 169.843792291
600.25 0.0307188554025 97.1253822596
600.375 0.0860160415655 -16.0756812067
600.5 0.0980882271141 -55.2467036586
600.625 0.0997429312896 -97.9712819758
600.75 0.0643305600785 157.820867986
600.875 0.0310491013735 109.184994702
601.0 0.0810053247334 -35.630253201
601.125 0.0715770217682 -65.5823227577
601.25 0.0947365506135 -129.729095297
601.375 0.0876498639869 143.260143479
601.5 0.0345763480674 105.439174928
601.625 0.034533284724 2.11578005241
601.75 0.100336259939 -114.902404004
601.875 0.0869070129276 -154.554218985
602.0 0.0937184423847 118.470159567
602.125 0.0468369864127 43.8165582892
602.25 0.0285004188314 -40.277381081
602.375 0.0775652917052 -131.649409608
602.5 0.0770765267862 -159.696884747
602.625 0.0801379826161 103.872268446
602.75 0.0413999131367 66.9863784309
602.875 0.0253032164642 35.3808333502
603.0 0.0982084929804 -158.850900917
603.125 0.090965309074 142.291370495
603.25 0.0567214168365 95.5793337054
603.375 0.0434707170296 8.95151820908
603.5 0.0308905173388 44.1927925188
603.625 0.0825048638465 -169.144271577
603.75 0.0912705067938 125.119811824
603.875 0.0733819748293 46.1364396236
604.0 0.0448685763119 -13.4239849264
604.125 0.0377346225559 33.0368714456
604.25 0.0821558436609 174.113501892
604.375 0.0641979819044 112.995278275
604.5 0.0499453549813 32.7866520129
604.625 0.0516316007656 -46.9990190083
604.75 0.0178171382929 -14.8587076855
604.875 0.0140061611454 -89.2183820312
605.0 0.0741806092952 88.4059196181
605.125 0.0314388055804 22.5882862584
605.25 0.072511240408 -79.6005341225
605.375 0.0178597082568 -3.32155030548
605.5 0.0161718755712 176.40217476
605.625 0.0569773203455 83.2444803068
605.75 0.039505747806 -10.0767365214
605.875 0.0902442484569 -96.190184319
606.0 0.00429894615518 125.672238308
606.125 0.0513522240036 138.005058879
606.25 0.0462746806509 69.4242740006
606.375 0.00801012294268 -118.061194908
606.5 0.0352186757321 -124.98450609
606.625 0.0889062582861 179.260281013
606.75 0.0448451492463 124.745771044
606.875 0.0622563017391 36.4095995584
607.0 0.00780297713437 -81.712794942
607.125 0.0466117877964 -155.003767968
607.25 0.0736683066184 144.940803296
607.375 0.0460728574677 89.2993910718
607.5 0.0965336991776 15.0298580781
607.625 0.0224486813995 -98.2626521927
607.75 0.038313486064 149.532451968
607.875 0.0815919659815 117.49998874
608.0 0.112637711235 58.8341513792
608.125 0.0842008347849 -9.0157504986
608.25 0.0581525777778 -100.784898335
608.375 0.0514558671997 163.708931098
608.5 0.103616537988 85.3430498493
608.625 0.101073637637 33.2584334252
608.75 0.074144947884 -26.886666761
608.875 0.0345438163307 -114.890511507
609.0 0.0932944615892 154.527351145
609.125 0.0924636796632 72.9436079427
609.25 0.108313724433 12.5091047683
609.375 0.0646732470031 -38.2432938611
609.5 0.054063376859 -118.767516457
609.625 0.0949571189445 152.655023167
609.75 0.118068334783 85.1695476693
609.875 0.0948909710473 20.4509086617
610.0 0.109821700598 -52.9225966532
610.125 0.0708785398471 -127.88492135
610.25 0.0908879888633 139.79754373
610.375 0.107817278065 66.1554419562
610.5 0.104831795262 6.50256440213
610.625 0.126282909574 -58.3945720282
610.75 0.0821208230903 -135.338780958
610.875 0.0899503471129 135.212343785
611.0 0.104001843914 56.7398046297
611.125 0.115733946161 -7.74759911118
611.25 0.116449623894 -67.4601395386
611.375 0.100587029091 -132.353297628
611.5 0.0850674159998 136.764521642
611.625 0.111288017297 51.073931614
611.75 0.104961825026 -14.342344349
611.875 0.11515466215 -74.3644293778
612.0 0.098018934273 -135.433747778
612.125 0.0860342080211 149.864361697
612.25 0.101362237929 62.0856993974
612.375 0.101459323774 -7.27147554189
612.5 0.139663019135 -82.5939233899
612.625 0.111330651645 -148.713905656
612.75 0.085510742083 141.837055197
612.875 0.0805015661106 65.7190783633
613.0 0.0843114189575 -10.2371528507
613.125 0.138014773826 -87.2960250685
613.25 0.141337553163 -164.223537211
613.375 0.101606689502 123.002881868
613.5 0.0801028915349 47.4915916583
613.625 0.0701612495838 -20.3769762761
613.75 0.0917325542853 -92.7973080621
613.875 0.129670027891 -166.556512117
614.0 0.128264666682 118.55030831
614.125 0.107939595152 30.7730197782
614.25 0.0719967319926 -27.2012924392
614.375 0.0779201388048 -106.621103492
614.5 0.104003057451 -178.647417575
614.625 0.117963265233 109.847483554
614.75 0.138095793805 21.4487629884
614.875 0.0969977562229 -41.2245157445
615.0 0.0825361396694 -122.061610269
615.125 0.0881983135929 160.541221388
615.25 0.0872312457859 96.155007724
615.375 0.0953142819025 25.5761995055
615.5 0.123691411148 -56.6364506546
615.625 0.109012755618 -129.013635082
615.75 0.101213598679 134.97202773
615.875 0.0746276180424 84.6260781686
616.0 0.0780613565302 3.20372323857
616.125 0.0822327048627 -66.9332424379
616.25 0.0939121008794 -136.240130329
616.375 0.134991054619 118.484007742
616.5 0.090451721944 61.6277187882
616.625 0.0712370443309 -26.5195091511
616.75 0.0681370486434 -96.5300053196
616.875 0.0754412421019 -159.348973932
617.0 0.143798920599 109.787395336
617.125 0.128139716975 32.5067285204
617.25 0.0864814073889 3.80864027603
617.375 0.0599126815159 -95.7680901927
617.5 0.07415951182 162.452868712
617.625 0.0908231920478 105.169561229
617.75 0.10460381215 32.5486376128
617.875 0.0745859112583 -24.3570938248
618.0 0.0675246625879 -82.1682650917
618.125 0.0729016473401 140.710330188
618.25 0.0656313571966 99.7811540821
618.375 0.0900179737782 14.7668396063
618.5 0.0700494780006 -13.0239348812
618.625 0.054361753717 -107.783173811
618.75 0.0894387208489 124.716990984
618.875 0.063768559449 66.46040582
619.0 0.067980895415 8.67420630454
619.125 0.0609112852252 -41.5308389478
619.25 0.0501267412253 -121.615712097
619.375 0.112068312104 106.277961697
619.5 0.0966018933491 39.8434283198
619.625 0.0737896006619 25.4179802725
619.75 0.064556865834 -85.734901278
619.875 0.057157574949 169.415051196
620.0 0.0814490739903 90.5812577188
620.125 0.045690637292 88.694359594
620.25 0.108833390953 -47.1160364105
620.375 0.0705551441686 -91.9953993735
620.5 0.0477773166179 128.220987642
620.625 0.0578162255254 44.8494893962
620.75 0.0999476519969 -16.2593145727
620.875 0.10274693882 -70.5607563375
621.0 0.0658206214751 -81.5017253934
621.125 0.0162960802607 -153.397056737
621.25 0.00997768386737 2.82284833986
621.375 0.00980524079082 -8.91269107067
621.5 0.105998917598 -84.2582525385
621.625 0.0590469816558 -88.0151593971
621.75 0.030636068932 155.484982981
621.875 0.0335244640293 -131.036627171
622.0 0.0357766324035 -105.051370924
622.125 0.108334023313 -111.518320063
622.25 0.0734453703509 -132.635764774
622.375 0.0380343841449 156.10289524
622.5 0.0428292250787 -52.9596176668
622.625 0.0595505035596 -135.037905419
622.75 0.135832132766 175.932451141
622.875 0.0919409743565 143.946960122
623.0 0.0480147843782 154.384483034
623.125 0.0197557257486 -74.100876118
623.25 0.0354447905843 171.251598417
623.375 0.118159832373 159.025660306
623.5 0.0798183724993 119.306591985
623.625 0.0534048821306 160.105412806
623.75 0.0417327627199 -74.5746755873
623.875 0.0683443469953 -162.95427663
624.0 0.0804639619478 148.404001762
624.125 0.104714855693 103.802174584
624.25 0.0358210622204 167.294489178
624.375 0.0263392984094 -75.6122993869
624.5 0.0838156692423 -145.698825757
624.625 0.101441001607 149.317947838
624.75 0.0913736970777 109.113306364
624.875 0.0257046649451 -175.936830667
625.0 0.0642132160024 -46.9599911786
625.125 0.0840130986858 -137.052752777
625.25 0.0864360663908 149.224443275
625.375 0.0978086088534 98.7809723821
625.5 0.0211692586225 67.68600913
625.625 0.0292192497241 160.797842229
625.75 0.0937464157478 -155.071918231
625.875 0.0790634373133 132.577401166
626.0 0.12132311767 74.8093784602
626.125 0.025589315707 84.2846777191
626.25 0.0158622820599 152.098020926
626.375 0.0708008790043 178.980745226
626.5 0.0960795837274 111.570833838
626.625 0.144441911105 64.4260019816
626.75 0.0232651295763 51.3979671202
626.875 0.0143362271088 99.2551218182
627.0 0.0672277013821 163.980394602
627.125 0.0898538463782 107.213780733
627.25 0.0763484389955 52.8670286399
627.375 0.106198743706 6.57714043075
627.5 0.0353629234686 -59.8280007765
627.625 0.090191044109 175.055458063
627.75 0.0747635203899 101.326903492
627.875 0.0828155721958 45.118905266
628.0 0.0812448069342 4.5142217906
628.125 0.030829775553 -73.8388181919
628.25 0.103328852662 -170.871158293
628.375 0.0732585416976 95.7023052465
628.5 0.0966303450143 43.1663367596
628.625 0.0896297166694 -9.96254403843
628.75 0.0443348716064 -71.6935589027
628.875 0.0894736123094 -166.011687864
629.0 0.133146255825 111.759714902
629.125 0.0605645173102 31.9239330902
629.25 0.104390584641 -25.7223094493
629.375 0.0583212793249 -87.9495766382
629.5 0.0702242966192 -177.176482597
629.625 0.0999139689282 113.266351194
629.75 0.0840236158535 36.8188217776
629.875 0.133221189646 -21.6502288147
630.0 0.0641789143004 -83.282146184
630.125 0.0707425301638 175.108643591
630.25 0.0858102000097 100.980721381
630.375 0.0705279064658 33.3754348924
630.5 0.104846027293 -12.8062075304
630.625 0.124761432828 -82.601594691
630.75 0.0799719736094 -169.651580306
630.875 0.0692762126618 96.8165644561
631.0 0.107230031194 34.134055034
631.125 0.106762388879 -19.2103461016
631.25 0.0777445291206 -70.8389096068
631.375 0.0899476749633 -157.995157831
631.5 0.0673525937341 102.165154312
631.625 0.127340861306 27.3455585532
631.75 0.117406608002 -33.4475651432
631.875 0.0855876160496 -85.494781713
632.0 0.0837360456878 -154.197601879
632.125 0.0869446692039 106.566236566
632.25 0.125433195619 22.190953858
632.375 0.140015221142 -44.8666429287
632.5 0.0754259484205 -105.702392177
632.625 0.0741523609772 -174.075406248
632.75 0.0866765773478 105.923004013
632.875 0.109104717117 16.6577872541
633.0 0.130800703584 -48.5487506452
633.125 0.0871612684275 -108.187946326
633.25 0.111271784532 176.411855505
633.375 0.085059230803 91.2892871749
633.5 0.105074707176 13.0538368923
633.625 0.136838850104 -59.3204278591
633.75 0.0856883493051 -125.083734023
633.875 0.0952827389145 165.292783612
634.0 0.106392532355 84.2943868605
634.125 0.0845628277206 -4.69950301627
634.25 0.118923431836 -69.4046417154
634.375 0.10377714155 -133.961796454
634.5 0.0815621389398 155.526735835
634.625 0.0871422896789 75.4365275912
634.75 0.0885531352538 -8.90846046126
634.875 0.14207877234 -91.3328212661
635.0 0.0992662493733 -155.06690934
635.125 0.102792369101 138.406585231
635.25 0.0981868981566 53.2287896203
635.375 0.0758188690595 -28.3568094611
635.5 0.117786315997 -102.40544844
635.625 0.107920268647 -173.165159495
635.75 0.126750237139 115.400135933
635.875 0.111610932265 42.9225289778
636.0 0.0778787553033 -34.9917157158
636.125 0.0999739190322 -117.334371193
636.25 0.10905400605 -179.49216788
636.375 0.116135814933 113.02558651
636.5 0.131903332791 36.026047917
636.625 0.103044236081 -38.7572524871
636.75 0.102423744326 -113.450011459
636.875 0.0947465929009 175.616439616
637.0 0.0824915897947 110.077310782
637.125 0.117563824226 34.8429854043
637.25 0.116400684363 -42.2318921723
637.375 0.1451517163 -121.967513048
637.5 0.105343746642 168.783768951
637.625 0.0828592790061 102.609260352
637.75 0.0851431324664 18.6506422594
637.875 0.0955528190058 -59.0498105256
638.0 0.111903820444 -131.716657815
638.125 0.164572985058 159.456997361
638.25 0.134042153586 86.6842506626
638.375 0.0812330872052 15.6378239752
638.5 0.0721336808923 -72.6436058325
638.625 0.0931757785867 -145.16274184
638.75 0.120203391322 155.700992087
638.875 0.170132431356 96.5428605261
639.0 0.124471143681 23.4272674813
639.125 0.0815420506482 -62.7402741312
639.25 0.066515722528 -139.134524405
639.375 0.09766096851 158.273163633
639.5 0.142516167328 103.41659071
639.625 0.141157485558 48.3660055564
639.75 0.13180028448 -35.1701281201
639.875 0.0853200082163 -119.836865908
640.0 0.0770472882884 163.837850127
640.125 0.120914270547 101.851460529
640.25 0.12786316573 43.6337791965
640.375 0.117440395552 -19.3426491089
640.5 0.129202690999 -112.89120926
640.625 0.0982335586164 161.284566437
640.75 0.106530744479 81.3268281205
640.875 0.108949758801 22.1308693447
641.0 0.104625727925 -44.1551219215
641.125 0.114545021243 -114.307944115
641.25 0.100443921001 168.333924668
641.375 0.126851621271 66.3278806011
641.5 0.102892803959 -6.19609534963
641.625 0.0872489494791 -52.5579155246
641.75 0.08241210277 -120.735428048
641.875 0.114464453071 146.15419889
642.0 0.105524747782 79.0953195612
642.125 0.0881541320256 17.0724212183
642.25 0.086300245931 -94.125816154
642.375 0.0818236896463 -162.683416641
642.5 0.0946445629518 115.957817713
642.625 0.0965267014454 45.8636057275
642.75 0.0767547555946 22.1946029657
642.875 0.0605908269877 -98.6175714364
643.0 0.0639272828388 156.191159364
643.125 0.0518493163308 123.062339825
643.25 0.0636654372705 13.1087752787
643.375 0.0520195537225 -11.6340158441
643.5 0.0451587925057 -71.4863611823
643.625 0.0528856934122 110.93031747
643.75 0.0171042223225 69.252698817
643.875 0.0590512861915 -52.2221499487
644.0 0.045074694321 -17.2977943799
644.125 0.0103709992328 -153.757323614
644.25 0.0462264272801 38.9200624746
644.375 0.0144679315035 -103.244985223
644.5 0.0490590491938 -115.533573625
644.625 0.0203082670014 -140.56179803
644.75 0.0172142664121 143.815624396
644.875 0.0735520266965 -3.08238610915
645.0 0.0568146986755 -92.9958956785
645.125 0.0508293140006 -176.511356709
645.25 0.0544898136153 138.098661535
645.375 0.0118973299482 112.69432797
645.5 0.0648569837237 -23.1153461852
645.625 0.0488143050849 -127.327338244
645.75 0.0888985343833 169.061990567
645.875 0.105001979772 100.724029726
646.0 0.0530420316671 44.7814198454
646.125 0.0713493966346 -42.7944180641
646.25 0.0851704017065 -130.358284265
646.375 0.0433621200861 111.658638458
646.5 0.119176722574 83.0453685094
646.625 0.100803590107 14.5712491756
646.75 0.0962630080859 -60.6590809654
646.875 0.0870748054924 -136.889422003
647.0 0.0388136461947 109.88612503
647.125 0.109046072988 69.4533961999
647.25 0.0947972828428 1.03576872988
647.375 0.123061370795 -80.9504640367
647.5 0.0990888880994 -156.866522797
647.625 0.0415132199679 115.220217899
647.75 0.0943240334902 52.3518987067
647.875 0.0898846856534 -17.7503766243
648.0 0.0716954110861 -92.8459039649
648.125 0.118695556269 -165.347007296
648.25 0.0613822072223 115.937318839
648.375 0.0870898252526 56.9094565201
648.5 0.0924105618532 -14.8932002609
648.625 0.0655833055238 -101.891780882
648.75 0.0943859149353 -167.538894926
648.875 0.0738236783357 116.757811157
649.0 0.117006927215 61.6681963947
649.125 0.110588380735 -3.48500089681
649.25 0.0514312701041 -81.6389602136
649.375 0.0859187300306 -173.84990651
649.5 0.0915049421306 116.754355705
649.625 0.0937776375984 58.9457773824
649.75 0.129543058016 0.655449242813
649.875 0.0736401103691 -66.7014625127
650.0 0.0717894405922 -163.922790822
