!Created with skrf (http://scikit-rf.org).
# GHz S RI R (50+0j) 
!freq	ReS11	ImS11	
500.0	0.6477666492	-1.335371216	
500.625	-0.2838262285	-1.14490878	
501.25	0.03403520473	-0.8006859545	
501.875	-0.5488655489	-0.6292550026	
502.5	-0.003342095061	-0.03043634637	
503.125	-0.0950949884	-0.03117201635	
503.75	0.0826028691	0.08483977045	
504.375	0.008406384533	0.01978506203	
505.0	0.02945775414	-0.06229764319	
505.625	-0.01603958051	-0.000237117463	
506.25	-0.04098106883	-0.1736514512	
506.875	-0.02855393632	0.2218729677	
507.5	0.2738215462	-0.5019249953	
508.125	-0.01999024949	-1.128475192	
508.75	0.2478777333	-0.6238089907	
509.375	0.3333366542	-1.37399233	
510.0	-0.9316153968	-0.3286339187	
510.625	-0.03718326168	-0.09783225073	
511.25	-0.1519591828	-0.07006578196	
511.875	-0.1007319048	0.03005701557	
512.5	-0.051779957	0.009399028385	
513.125	0.00319803317	-0.106943359	
513.75	-0.05066679704	-0.001183549633	
514.375	-0.0576919021	-0.2093263928	
515.0	-0.2557213979	0.07019729994	
515.625	0.4580248878	-0.629210279	
516.25	-0.7954569686	-1.155943065	
516.875	0.126279261	-0.2808483695	
517.5	0.09774647181	-0.2607551194	
518.125	-0.097090367	0.03279110487	
518.75	0.09851201374	-0.1876377426	
519.375	-0.05644205634	0.05458751	
520.0	0.1057924767	0.01710624862	
520.625	0.156394381	0.01109762553	
521.25	0.01523097581	-0.4242117179	
521.875	-0.192483281	0.01741415793	
522.5	-0.0385330002	-0.0599653571	
523.125	-0.08462516693	0.169940006	
523.75	0.03960446483	-0.07255555669	
524.375	-0.3630602386	-0.01624141023	
525.0	0.1058836898	0.1677572223	
525.625	-0.06497484157	0.02697081262	
526.25	0.07437202436	0.004672826949	
526.875	-0.122158925	0.02275604006	
527.5	-0.006827440755	0.3254565176	
528.125	0.03099732466	0.1773854175	
528.75	-0.1485088442	0.2287773611	
529.375	0.03961606664	0.0714035305	
530.0	-0.1566107712	0.07287188703	
530.625	0.1316509542	0.461492339	
531.25	0.4971027946	0.02998452617	
531.875	0.2387043028	-0.003926694159	
532.5	-0.125232798	-0.2602097835	
533.125	-0.001979929967	0.123501501	
533.75	0.1559062765	-0.3407761701	
534.375	-0.1398135586	-0.1776798032	
535.0	-0.1799243112	-0.2241477971	
535.625	-0.232593408	0.1765351413	
536.25	0.009622159647	0.05843692878	
536.875	0.1076552144	0.06860547598	
537.5	0.06568228297	-0.08712666846	
538.125	0.08472874365	-0.003317915429	
538.75	0.1998626591	-0.1577445577	
539.375	-0.1207218657	-0.1369975046	
540.0	-0.08203668438	-0.1719390689	
540.625	-0.2099951597	-0.07351072933	
541.25	-0.1175487102	0.03695643544	
541.875	-0.01959762982	-0.1024024498	
542.5	-0.1043789622	-0.00462146285	
543.125	0.00387136633	-0.005629612199	
543.75	-0.1568724665	-0.06582333546	
544.375	0.04182334419	0.07626249275	
545.0	-0.06629019627	0.06744461954	
545.625	0.1219946633	0.06160738215	
546.25	0.02632818968	0.05168487702	
546.875	0.2045874201	0.02471474135	
547.5	0.01752761381	-0.1449280916	
548.125	0.02548815713	-0.1367612315	
548.75	-0.1537906684	-0.1911317102	
549.375	-0.130832877	-0.02086080574	
550.0	-0.06054031085	-0.04947376336	
550.625	-0.08038046753	0.04214815227	
551.25	-0.05780140857	-0.01521390218	
551.875	-0.1240288362	0.06704102679	
552.5	-0.02093420242	0.07833602097	
553.125	-0.03937388211	0.0473320591	
553.75	0.06182446096	0.05347203247	
554.375	0.08175940853	0.003712132039	
555.0	0.1212764052	-0.06977405582	
555.625	0.09759449834	-0.1143695583	
556.25	0.07917304545	-0.1432132971	
556.875	-0.02358892686	-0.1803379327	
557.5	-0.1030110672	-0.1205044096	
558.125	-0.1226138557	-0.04628123914	
558.75	-0.1173997309	-0.0151200676	
559.375	-0.1348888952	0.01960807241	
560.0	-0.09743591981	0.07870371097	
560.625	-0.07688203679	0.1043609197	
561.25	0.01136451273	0.1325778908	
561.875	0.02606545796	0.01342207761	
562.5	0.003962580057	0.0976846198	
563.125	0.07601886387	0.04147180578	
563.75	0.1476847287	0.06012091524	
564.375	0.1809449694	-0.1399539997	
565.0	0.04862349381	-0.1229295234	
565.625	0.03774477519	-0.1948375134	
566.25	-0.1733797052	-0.1018156309	
566.875	-0.05818270522	-0.04463539845	
567.5	-0.1627956554	-0.1894837137	
568.125	-0.1871089333	-0.1153131412	
568.75	-0.1328963018	-0.1558325457	
569.375	-0.3559758253	0.119230171	
570.0	-0.06101319668	0.2076604801	
570.625	-0.132244338	0.1293790502	
571.25	0.03085063867	0.2064583743	
571.875	-0.02033309783	-0.002290046628	
572.5	0.2135717777	0.06032635199	
573.125	0.03129885679	-0.1745156567	
573.75	0.07212126907	-0.0007066375352	
574.375	0.07991908724	-0.1697116716	
575.0	-0.05362636608	0.00987610735	
575.625	0.1376152127	-0.1016748135	
576.25	-0.02433124161	-0.1651507022	
576.875	0.03104244033	-0.02554182782	
577.5	0.07907858714	-0.2461174436	
578.125	-0.1468404017	-0.1718982213	
578.75	-0.007478342904	-0.06479336504	
579.375	-0.07585140061	-0.2490783584	
580.0	-0.1209429676	0.06200777623	
580.625	-0.0237145292	-0.1415927167	
581.25	-0.1468176207	0.1955731187	
581.875	0.04387912139	0.04221694509	
582.5	-0.06179222091	0.1833703137	
583.125	0.1898373568	0.1494825267	
583.75	-0.072386912	-0.05335087613	
584.375	0.09886019325	0.1571956227	
585.0	0.04228305196	-0.04831970166	
585.625	0.1249779361	0.1130172478	
586.25	0.2439314729	-0.1395909688	
586.875	0.003293898569	-0.09630228834	
587.5	0.09383829146	-0.1601225192	
588.125	-0.08152690958	-0.2172997835	
588.75	-0.002952207559	-0.02949823446	
589.375	0.1925264642	-0.2076460349	
590.0	-0.2021665017	-0.1639076798	
590.625	-0.0821429761	-0.07152625546	
591.25	-0.2977638755	0.1116381245	
591.875	0.05358574485	0.1777173097	
592.5	-0.1763164359	0.0114989922	
593.125	0.05210704754	0.1169038525	
593.75	-0.08315353993	0.1134006957	
594.375	0.2173174687	0.2126361331	
595.0	0.1573330537	0.0002672345378	
595.625	0.07834659895	0.1328435603	
596.25	0.261363722	0.08085134915	
596.875	0.1414930333	-0.04723081844	
597.5	0.1306721174	0.1813884251	
598.125	0.2543482533	0.1559801351	
598.75	0.1319751477	0.04468293705	
599.375	0.2485706422	0.05630485819	
600.0	0.2130428319	-0.2268560543	
600.625	0.07039670322	-0.1306283642	
601.25	0.1887501654	-0.1784333105	
601.875	-0.1615693857	-0.2005689241	
602.5	0.02768234822	0.01391694131	
603.125	-0.216331672	-0.03551098726	
603.75	-0.08314016707	0.1745679849	
604.375	-0.07993258426	-0.02906907495	
605.0	-0.1436999464	0.18488236	
605.625	0.0221552233	0.06659959117	
606.25	-0.1949041388	-0.04196856648	
606.875	-0.1492066783	0.1567458944	
607.5	-0.1111554301	0.1085785681	
608.125	-0.1603427447	0.285611026	
608.75	0.2983043566	0.198637811	
609.375	0.1552657892	-0.01964663609	
610.0	0.2201652054	-0.06900083957	
610.625	0.05082781679	-0.2661548092	
611.25	0.03335499177	-0.05123212936	
611.875	-0.06728147114	-0.2581775007	
612.5	-0.1921851266	0.05258318633	
613.125	-0.1533954842	-0.1238244059	
613.75	-0.2061528148	0.2373750264	
614.375	0.1489264923	0.03868404969	
615.0	-0.08893740284	0.1139896901	
615.625	0.04414365518	-0.02148223919	
616.25	-0.07582778583	0.03432414499	
616.875	-0.2177282862	0.2561857484	
617.5	0.04398431692	0.3131523262	
618.125	0.04002277592	0.3286899862	
618.75	-0.01599859514	0.3080468171	
619.375	0.1728663888	0.1176118595	
620.0	0.1037457426	0.1237162879	
620.625	0.2887188214	-0.1302975937	
621.25	-0.1383082042	-0.1234928505	
621.875	-0.1236012834	-0.1598874848	
622.5	-0.3358306679	0.06466864792	
623.125	0.05401580037	0.2216120639	
623.75	0.03743315646	0.1007814484	
624.375	0.1118520865	-0.1401052778	
625.0	-0.00622635422	0.05305530272	
625.625	0.1313578857	-0.1445692798	
626.25	-0.1224207041	-0.1009142138	
626.875	-0.0433365115	-0.1211721698	
627.5	-0.2116980029	-0.08312858046	
628.125	-0.1276554264	-0.006579388004	
628.75	-0.02492751307	-0.1234582912	
629.375	-0.1635498249	-0.2247073981	
630.0	-0.2044674885	-0.05925702226	
630.625	-0.2324340292	-0.02312216863	
631.25	-0.1923887746	0.2670584337	
631.875	0.00852225468	0.1997357133	
632.5	0.006466042305	0.2309982175	
633.125	0.3269669421	0.06746019387	
633.75	0.02977661489	-0.1131860134	
634.375	0.1675958575	-0.1097568675	
635.0	-0.08394383592	-0.2161446966	
635.625	-0.04322630637	-0.05653919725	
636.25	-0.2812853231	-0.008900883721	
636.875	-0.008248118021	0.1955622152	
637.5	-0.05853782361	-0.005274594814	
638.125	-0.1435688296	0.1847217343	
638.75	0.005876149414	0.1032576147	
639.375	-0.130501622	0.2377609867	
640.0	0.2159077682	0.343014142	
640.625	0.2644162642	0.08511756423	
641.25	0.2611561873	0.1688109035	
641.875	0.3850511866	-0.2643826757	
642.5	-0.0687792215	-0.1265859598	
643.125	0.04612105644	-0.2117219861	
643.75	-0.3070151629	-0.08030539703	
644.375	0.03098221543	-0.04779691445	
645.0	-0.3281070801	0.1696067187	
645.625	0.2481327534	0.2526712705	
646.25	0.02773842176	0.05146675447	
646.875	0.2739234546	0.1450174453	
647.5	-0.04116854228	-0.1203352995	
648.125	0.2185336503	0.2432253885	
648.75	0.3226508884	-0.2055575397	
649.375	0.1062665232	-0.1490460053	
650.0	0.3928344444	-0.2690543	
650.625	0.07859906866	-0.4527924156	
651.25	0.1213645705	-0.07693308934	
651.875	0.4508687785	-0.09059479627	
652.5	0.3081225475	-0.2437121572	
653.125	0.1653033891	0.02860394088	
653.75	0.4274610655	-0.2369453898	
654.375	-0.2694993721	-0.4382712776	
655.0	-0.1246204288	-0.1180888329	
655.625	-0.3981618976	0.1740189874	
656.25	0.2213633682	0.1942455172	
656.875	-0.1972163292	0.008842764617	
657.5	0.1671900098	0.1869603145	
658.125	0.05303569657	0.02943286401	
658.75	0.3229901282	0.3817303817	
659.375	0.4266589688	-0.2980074478	
660.0	0.1501308231	-0.1418266747	
660.625	0.3115386049	-0.2884412721	
661.25	0.198320235	-0.4804471518	
661.875	0.1217274091	-0.1485744174	
662.5	0.487204098	-0.1543091773	
663.125	0.2697392773	-0.3026448614	
663.75	0.1596733053	-0.1644065375	
664.375	0.1138935837	-0.4441213178	
665.0	-0.3764875649	-0.19382794	
665.625	-0.2328378527	-0.002316062312	
666.25	-0.2571289069	0.3101936229	
666.875	0.3075804698	0.2516442481	
667.5	0.03858563875	0.1121860399	
668.125	0.3563672635	0.02180175849	
668.75	0.1306076252	-0.1789437312	
669.375	0.2356634438	-0.07949266948	
670.0	0.05242276758	-0.3863126631	
670.625	-0.07900522929	-0.1114402262	
671.25	0.2339241784	-0.2063162157	
671.875	0.1247837789	-0.2814333034	
672.5	0.1184878751	-0.09937861336	
673.125	0.3431897337	-0.06710412647	
673.75	0.1694994115	-0.352914412	
674.375	0.09918714703	-0.1390747888	
675.0	0.03917363237	-0.3400442936	
675.625	-0.3124596186	-0.1574279861	
676.25	-0.05381999176	0.002597984523	
676.875	-0.2545869432	-0.1337375589	
677.5	-0.1600889392	0.143403804	
678.125	-0.1466017525	-0.01541848911	
678.75	-0.1239591598	0.4614151594	
679.375	0.2845835421	-0.1109626852	
680.0	0.09236169725	0.0826815408	
680.625	0.2525667333	-0.1600916124	
681.25	-0.1190562901	-0.08281937971	
681.875	0.171595379	0.2843643535	
682.5	0.2598121092	-0.2090240781	
683.125	0.08171042364	0.055423014	
683.75	0.2586795782	0.2790197183	
684.375	0.4056645751	-0.1141979335	
685.0	0.03368382039	0.02305978457	
685.625	0.4843338382	0.2040581545	
686.25	0.3289934562	-0.175974544	
686.875	0.2323095835	0.03009852129	
687.5	0.5519841273	-0.3384120094	
688.125	-0.169963789	-0.4342982692	
688.75	-0.1895130609	-0.3313620076	
689.375	-0.5721094359	0.2865385982	
690.0	0.2396321064	0.361089028	
690.625	-0.2041731161	0.3938778727	
691.25	0.554393546	0.4410106654	
691.875	0.3824311228	0.1776918076	
692.5	0.5048307235	0.4547375616	
693.125	0.8958687681	-0.2218037767	
693.75	0.419582892	-0.2230951149	
694.375	0.6526174739	-0.213144167	
695.0	0.4508749689	-0.3986263045	
695.625	0.3658730035	-0.1681438693	
696.25	0.6425410403	0.126383626	
696.875	0.6390868249	0.4461761552	
697.5	0.203622187	0.3527285019	
698.125	0.492806838	0.5040196234	
698.75	0.7393935109	-0.3520432819	
699.375	-0.2712790995	-0.2464239254	
700.0	-0.4968885556	0.1121171488	
700.625	0.2672741185	0.4181925442	
701.25	0.0410577912	0.07413266564	
701.875	0.2437219366	0.4836750614	
702.5	0.4735502514	0.09800448682	
703.125	0.2388726443	0.1882680163	
703.75	0.5737669761	-0.07570441318	
704.375	0.2621685721	-0.3456687597	
705.0	0.145462492	0.02685855639	
705.625	0.337123203	-0.04401639954	
706.25	0.2379744464	0.1010246002	
706.875	0.1864044538	0.2991898735	
707.5	0.3355315729	0.5394840521	
708.125	0.5276396467	0.1193532757	
708.75	0.4559363114	-0.102085404	
709.375	-0.02042752489	-0.6115728588	
710.0	-0.1517707475	0.2737355492	
710.625	-0.1534692201	0.1138106952	
711.25	0.2807161939	0.1436449998	
711.875	0.02343908489	0.1295648495	
712.5	0.4269433658	0.1249651938	
713.125	0.3097720894	-0.2817041171	
713.75	0.08590413655	-0.1305635502	
714.375	0.1247278249	-0.275543352	
715.0	-0.1410026994	-0.2438888426	
715.625	0.08917349488	-0.09498962324	
716.25	0.2595805665	-0.2993159467	
716.875	0.2906902573	-0.2591754435	
717.5	0.3777989082	0.02026158585	
718.125	0.9556715493	0.1897109316	
718.75	0.7734235942	-0.330304824	
719.375	0.8454636076	0.2037866229	
720.0	1.33138702	-0.9481350348	
720.625	0.08015361573	-0.6740978364	
721.25	0.6122659399	-0.9474498624	
721.875	-0.2650262132	-1.516596941	
722.5	-0.5813265277	-0.2606351274	
723.125	-0.6994196242	-0.6477298792	
723.75	-0.5805691228	0.6574548694	
724.375	0.05373743983	0.3093662127	
725.0	-0.0478788788	0.5209680069	
725.625	0.4175872953	0.5211601398	
726.25	-0.09449828019	0.4330248467	
726.875	-0.4587283294	1.111832355	
727.5	-0.01539484603	1.769474739	
728.125	-0.007241200312	1.355097067	
728.75	-1.533743158	2.97470919	
729.375	-0.7502192396	4.792790161	
730.0	-0.3558407476	2.147306833	
730.625	-2.679444064	3.882105695	
731.25	0.3707869883	5.199884677	
731.875	-2.756474816	0.4992483378	
732.5	-5.241008644	-1.170150287	
733.125	-2.778123359	1.116083383	
733.75	-0.8971837344	0.4195158361	
734.375	0.859248619	1.261747465	
735.0	-0.1707307504	-0.6288627761	
735.625	-0.2855428406	-0.3623231953	
736.25	-0.332886715	0.8268393286	
736.875	0.5804904077	0.2650963815	
737.5	0.6658589233	0.8147346947	
738.125	2.44660348	-0.4372741929	
738.75	1.152822336	-1.731247624	
739.375	1.757739196	0.4537939544	
740.0	6.237064752	-0.7287859297	
740.625	1.504540842	-3.932534233	
741.25	-3.567440755	2.906853683	
741.875	-3.334934097	2.33730717	
742.5	0.496785854	-0.4793487261	
743.125	1.458727558	-2.81574827	
743.75	-0.6703851302	-1.707155309	
744.375	-0.1906584948	0.06764905409	
745.0	-0.3413559986	0.2652773886	
745.625	-0.03115916334	-0.09835171132	
746.25	0.1875053987	-0.1987449703	
746.875	-0.3095233306	0.0165458388	
747.5	-0.07322834459	0.2720945204	
748.125	-0.1406290556	0.5370475504	
748.75	0.3969840128	0.6535287239	
749.375	0.1106695486	0.3355002753	
750.0	-0.3920218278	0.1260076286	
