!Created with skrf (http://scikit-rf.org).
# GHz S RI R (50+0j) 
!freq	ReS11	ImS11	
500.0	-0.324553663	-0.9798983218	
500.625	0.2700490397	-0.3591757592	
501.25	-0.4068172879	-0.9787063403	
501.875	-0.3127200066	-0.09925578896	
502.5	0.05350797365	-0.1287453894	
503.125	-0.09218321772	0.02990409171	
503.75	0.01194253028	0.01444037745	
504.375	0.04279961088	0.01022294857	
505.0	-0.02030666577	-0.0131902123	
505.625	0.04749506505	-0.0453900775	
506.25	-0.1369001337	-0.05101312543	
506.875	0.07234402016	-0.08361805865	
507.5	-0.3913770526	-0.4615474846	
508.125	-0.126759961	-0.24450832	
508.75	0.7749614097	-0.779821475	
509.375	-0.394736594	-1.225708543	
510.0	-0.2308527473	0.002551106058	
510.625	-0.01567352559	-0.2030473283	
511.25	-0.1162929085	0.0292455943	
511.875	-0.04215080394	-0.02728034396	
512.5	-0.04115217609	0.0473833165	
513.125	-0.04038467317	-0.02934037847	
513.75	0.02178511484	-0.04624538611	
514.375	-0.164248954	-0.01052515351	
515.0	0.173891821	0.1407923728	
515.625	-0.1339461366	-0.5855945281	
516.25	0.08952734165	-0.06689189155	
516.875	-0.02897996749	-0.5220429101	
517.5	-0.1528803856	-0.1077082265	
518.125	0.0436221752	0.003271560016	
518.75	-0.1159254937	-0.2052096146	
519.375	-0.03395745659	0.02380970009	
520.0	0.06134827257	0.06696098398	
520.625	0.191016039	-0.05485630068	
521.25	-0.09633111627	-0.2012913436	
521.875	-0.06249089167	-0.0228234767	
522.5	-0.1125032504	0.0304021715	
523.125	0.06978826721	0.001771805883	
523.75	-0.142076807	-0.1053234781	
524.375	-0.1155962126	0.1679919533	
525.0	-0.03883191435	-0.004582811547	
525.625	0.007943916203	0.1265211541	
526.25	0.001863222111	-0.09458072119	
526.875	0.008049853376	0.08673992802	
527.5	0.03799595725	0.08034452229	
528.125	-0.06015099017	0.1859969407	
528.75	0.07746494888	0.2267575716	
529.375	0.02840687494	0.06744327132	
530.0	0.03576421854	0.2028071031	
530.625	0.1262774134	0.2652321566	
531.25	0.2179359922	0.1547882191	
531.875	0.2836729277	0.04333162146	
532.5	-0.1113530895	-0.03272470412	
533.125	0.1722090705	-0.1155876727	
533.75	-0.02866851205	-0.1235528858	
534.375	0.04216345572	-0.147982344	
535.0	-0.2788845625	-0.1018161477	
535.625	-0.0755753022	0.09334364766	
536.25	-0.02843049286	0.08095349405	
536.875	0.1155212352	0.001773847543	
537.5	0.0199929625	-0.02644345694	
538.125	0.1378308111	-0.05150956899	
538.75	0.05187243643	-0.1513381039	
539.375	-0.07939262244	-0.1261785252	
540.0	-0.1695221695	-0.170240713	
540.625	-0.1754351003	0.008921996732	
541.25	-0.0374271624	-0.02927638291	
541.875	-0.07074175423	-0.07569435098	
542.5	-0.01923641768	-0.0135363025	
543.125	-0.06642075487	-0.1027077567	
543.75	-0.07879829286	0.05572871373	
544.375	-0.01318975304	-0.04883491839	
545.0	0.006626628912	0.09630024797	
545.625	0.01834203653	0.0115624152	
546.25	0.08848249128	0.1078581305	
546.875	0.1047965575	-0.08834124248	
547.5	0.05294839786	-0.05775659918	
548.125	-0.02789824585	-0.1961323055	
548.75	-0.1412029138	-0.05215681005	
549.375	-0.04380675895	-0.05906776924	
550.0	-0.1087734047	0.005653635552	
550.625	-0.008529338455	0.01479252521	
551.25	-0.08987101213	0.006863508826	
551.875	-0.05614983285	0.09400256687	
552.5	-0.03875265111	0.04719698723	
553.125	-0.005856635861	0.07225485527	
553.75	0.0346683758	0.03305708837	
554.375	0.08786190069	0.01035209683	
555.0	0.08652317345	-0.07346968544	
555.625	0.07348930861	-0.09440754562	
556.25	0.06211079578	-0.1261334866	
556.875	-0.03896095365	-0.1438022782	
557.5	-0.0922534639	-0.08581226703	
558.125	-0.1031550984	-0.03247249367	
558.75	-0.10618812	0.0001665517789	
559.375	-0.09458228195	0.0315361948	
560.0	-0.08685250688	0.06171478329	
560.625	-0.0491733716	0.1171534344	
561.25	0.02955225294	0.07513555444	
561.875	0.001553688367	0.05697485505	
562.5	0.04134815647	0.03616896906	
563.125	0.03432107723	0.07632196119	
563.75	0.1636188911	-0.006016988667	
564.375	0.07033842757	-0.110267956	
565.0	0.09537568194	-0.101749493	
565.625	-0.06716008612	-0.1692536266	
566.25	-0.08389157497	-0.04341922388	
566.875	-0.1173415514	-0.1304077364	
567.5	-0.2067821674	-0.04002216327	
568.125	-0.05466725427	-0.09771755016	
568.75	-0.2666623548	-0.1033957918	
569.375	-0.1636697662	0.152084744	
570.0	-0.1478197239	0.09206935873	
570.625	-0.07005764157	0.2375338435	
571.25	0.07031358024	0.02310062099	
571.875	0.01523446246	0.1306781351	
572.5	0.129176986	-0.1057581136	
573.125	0.03816255427	-0.01011368705	
573.75	0.1152779863	-0.155237319	
574.375	-0.08317877531	-0.06924530479	
575.0	0.09347690823	0.01318897347	
575.625	-0.01588391211	-0.1323972682	
576.25	0.0132350562	-0.01841066588	
576.875	0.07134596427	-0.1899184992	
577.5	-0.08617645258	-0.1669234189	
578.125	-0.01325351645	-0.06348890174	
578.75	-0.01030977887	-0.2195856826	
579.375	-0.2185512119	-0.006435451118	
580.0	0.1098623505	-0.04073362325	
580.625	-0.1930064631	-0.03374494109	
581.25	0.05165392284	0.03441002615	
581.875	-0.09424210149	0.1208494724	
582.5	0.1977120493	0.1865608529	
583.125	0.05087113078	-0.05318021642	
583.75	0.005294024928	0.1136697197	
584.375	0.08331713792	-0.03748567512	
585.0	0.02850568599	0.148711179	
585.625	0.2381784557	-0.03375398987	
586.25	0.04961497734	-0.09413459171	
586.875	0.1196065235	-0.05738513132	
587.5	-0.05653545679	-0.1808630629	
588.125	-0.03814901788	-0.03049759208	
588.75	0.102677946	-0.1568015454	
589.375	-0.02053227079	-0.1942190258	
590.0	0.009676578531	-0.05459157007	
590.625	-0.2294994721	-0.1282318204	
591.25	-0.05948288432	0.1812280357	
591.875	-0.05760542026	-0.01407357214	
592.5	0.009215180128	0.1757473598	
593.125	-0.01515651386	-0.06185707311	
593.75	0.0378328277	0.2061132061	
594.375	0.1815126812	-0.0148345446	
595.0	0.07698819232	0.1499837959	
595.625	0.2306587132	0.1124793808	
596.25	0.1348372068	-0.06576723661	
596.875	0.1294692373	0.1137310287	
597.5	0.2085366498	0.04198829635	
598.125	0.0948007035	0.02483765213	
598.75	0.1565430634	0.1168382268	
599.375	0.24544426	-0.09778225734	
600.0	0.09027662491	-0.1257643	
600.625	0.1774539074	-0.1331769323	
601.25	0.01801097382	-0.2467330503	
601.875	-0.07690491427	-0.03794572798	
602.5	-0.1602167372	-0.1382275545	
603.125	-0.08528960372	0.1459990698	
603.75	-0.03415822011	-0.01372682529	
604.375	-0.19523287	0.1398098126	
605.0	0.04257893715	0.1183902214	
605.625	-0.2032179464	0.08308333961	
606.25	-0.08617572227	0.1625069394	
606.875	-0.09599598338	0.01419692893	
607.5	-0.2379037718	0.138757233	
608.125	0.01495385216	0.1799479969	
608.75	0.09242529517	0.08408895686	
609.375	0.2302519025	-0.03026339345	
610.0	0.1468075813	-0.1805942302	
610.625	0.0030626117	-0.1660089314	
611.25	0.05772790316	-0.2042299055	
611.875	-0.1644355987	-0.07018974019	
612.5	-0.05918699537	-0.1012539747	
613.125	-0.2859931624	0.02575298977	
613.75	0.03510949866	0.1617709475	
614.375	-0.06828453521	0.07359706182	
615.0	0.149125265	0.04882689326	
615.625	-0.08266834515	0.01011223718	
616.25	-0.04902802974	0.2005010666	
616.875	0.04892619267	0.1938588109	
617.5	-0.08829303534	0.1457664549	
618.125	0.02559815308	0.1840698935	
618.75	0.1048950572	0.1588936362	
619.375	0.01101072122	0.1231014186	
620.0	0.2577770935	0.05401012947	
620.625	0.08022978183	-0.2293044699	
621.25	-0.04297228273	-0.1480604425	
621.875	-0.2568428139	-0.09504324408	
622.5	-0.1543729987	0.1464845897	
623.125	-0.07947518351	0.08864451916	
623.75	0.1942221834	0.07210416075	
624.375	-0.03827010227	-0.06408693032	
625.0	0.1167460769	-0.004763208485	
625.625	-0.03516687039	-0.1030532178	
626.25	0.005753526903	-0.09664422896	
626.875	-0.1792972847	-0.1225776796	
627.5	-0.1294301437	0.02347478507	
628.125	-0.03171496202	-0.09659977826	
628.75	-0.04511841748	-0.1270546273	
629.375	-0.07778084693	-0.09634095325	
630.0	-0.1479746614	-0.1477345448	
630.625	-0.2379242866	0.1103673073	
631.25	-0.0345534378	0.2082946742	
631.875	-0.05896098565	0.1901688725	
632.5	0.2005468772	0.2470328688	
633.125	0.1518058149	0.006997070957	
633.75	0.157535714	0.05850455384	
634.375	0.04859526033	-0.2184821106	
635.0	-0.003245844464	-0.05033663246	
635.625	-0.1468495667	-0.1946407998	
636.25	-0.132013485	0.1448355131	
636.875	-0.009746379103	0.04364999668	
637.5	-0.1191117503	0.1385828927	
638.125	0.03031074487	0.05078592345	
638.75	-0.1490355409	0.1287098397	
639.375	0.0481922111	0.3036566375	
640.0	0.1379815221	0.1259484832	
640.625	0.1637686855	0.2196215841	
641.25	0.3462091228	-0.001983250187	
641.875	0.03510830683	-0.2329049099	
642.5	0.07422133893	-0.1306944862	
643.125	-0.2395004297	-0.2227834113	
643.75	-0.02580132665	-0.01542373807	
644.375	-0.2893231781	-0.2048977421	
645.0	-0.08059070811	0.2954398409	
645.625	-0.009682376981	0.08675877403	
646.25	0.2050915083	0.2213995135	
646.875	0.05739068693	-0.227354464	
647.5	0.005210797131	0.1694591756	
648.125	0.2377813732	-0.0449998274	
648.75	0.05808144098	-0.05501920058	
649.375	0.3846640763	-0.1692619382	
650.0	0.04126463167	-0.4112850355	
650.625	0.05673201493	-0.104927728	
651.25	0.3353426908	-0.2123306399	
651.875	0.1754175646	-0.3108657749	
652.5	0.09969370587	0.01294737888	
653.125	0.3819798886	-0.05672322988	
653.75	0.09175208469	-0.3575133101	
654.375	0.01262245742	-0.0818292296	
655.0	-0.336032462	-0.2526019038	
655.625	-0.08298726506	0.2792216796	
656.25	-0.0537796301	-0.04836435692	
656.875	0.08066371435	0.2389710655	
657.5	-0.03712789998	-0.1902576277	
658.125	0.07712951337	0.3645856764	
658.75	0.361161717	-0.02896270325	
659.375	0.1588552279	-0.1066129863	
660.0	0.349849709	-0.2089682263	
660.625	0.05534469181	-0.4644888701	
661.25	0.05316512996	-0.1438118142	
661.875	0.3405557176	-0.2309458143	
662.5	0.1861450093	-0.3075783836	
663.125	0.1354774292	-0.08633333847	
663.75	0.2720495082	-0.2903702994	
664.375	-0.1561938659	-0.292622137	
665.0	-0.1280323845	-0.1721509371	
665.625	-0.3781506515	0.03220380278	
666.25	-0.001272403555	0.3313200268	
666.875	-0.02164991174	0.08600106413	
667.5	0.2502934986	0.1627365163	
668.125	0.1544277552	-0.1202411458	
668.75	0.2018454988	0.05172255439	
669.375	0.1296690932	-0.3488477158	
670.0	-0.07179234238	-0.05000984661	
670.625	0.1391034884	-0.1720150608	
671.25	-0.007798177928	-0.2710445368	
671.875	0.01233566833	-0.07222451885	
672.5	0.3434405506	-0.1392225126	
673.125	0.1247215006	-0.2688381819	
673.75	0.1135432696	-0.1030918103	
674.375	0.1562885502	-0.2678623465	
675.0	-0.206348017	-0.2428215023	
675.625	-0.03298650868	-0.0626825961	
676.25	-0.2455098573	-0.1134975406	
676.875	-0.134860478	0.1085571208	
677.5	-0.05458959624	-0.0689103253	
678.125	-0.2635266799	0.2035331064	
678.75	0.1616921212	0.1284332475	
679.375	0.05328155298	0.1212919247	
680.0	0.3932343701	-0.1611098784	
680.625	-0.165125177	-0.139666125	
681.25	0.1708703286	0.16332791	
681.875	0.1941692697	-0.159070632	
682.5	-0.01297409223	0.1048931809	
683.125	0.4000233085	0.2045135794	
683.75	0.3309030059	-0.1767531261	
684.375	0.06211987039	0.1342496408	
685.0	0.4075455886	0.139374585	
685.625	0.2311048581	-0.09949468271	
686.25	0.117848916	0.09146221156	
686.875	0.4996310125	-0.1776235769	
687.5	0.02910534513	-0.2790070483	
688.125	0.04302607459	-0.3770161031	
688.75	-0.4855796805	-0.2707793008	
689.375	-0.1019938504	0.3742164972	
690.0	-0.1146391451	0.245934141	
690.625	0.4165354828	0.3418593045	
691.25	0.2195401627	0.0557192479	
691.875	0.2950941047	0.4655389563	
692.5	0.780739718	-0.05862776106	
693.125	0.3526675027	-0.04002657987	
693.75	0.8110808518	-0.2326762452	
694.375	0.3548572396	-0.5681068425	
695.0	0.1594811832	-0.2199552431	
695.625	0.6500572631	-0.0186639865	
696.25	0.3478957215	0.0719318617	
696.875	0.2594971119	0.2811026968	
697.5	0.3121254741	0.5072463199	
698.125	0.5378465125	0.2023053746	
698.75	0.3214932738	-0.3196551336	
699.375	-0.3024126985	-0.4709601298	
700.0	-0.2271824291	0.415541967	
700.625	0.07232304033	0.1153979392	
701.25	0.1981023193	0.3538379726	
701.875	0.3144050873	0.05140350202	
702.5	0.1662384094	0.2410789377	
703.125	0.5136744986	0.1625063733	
703.75	0.27783829	-0.2426330212	
704.375	0.2643062267	-0.06654072289	
705.0	0.323554908	-0.2249584722	
705.625	0.14456338	-0.1072199249	
706.25	0.1209548449	0.2698094711	
706.875	0.06894359191	0.2225946162	
707.5	0.1717850137	0.2230937681	
708.125	0.3636473113	0.2676938082	
708.75	0.3305042502	-0.3527410423	
709.375	-0.4001712846	-0.2361455274	
710.0	-0.2117307639	0.04210822165	
710.625	0.1076279635	0.2257193391	
711.25	-0.0007923782234	0.008291292324	
711.875	0.2268599149	0.3056858364	
712.5	0.3122390598	-0.1396197108	
713.125	0.1672000305	-0.04513548621	
713.75	0.2168421604	-0.2652461446	
714.375	-0.08212195972	-0.2349423581	
715.0	0.03307703931	-0.09444809608	
715.625	0.03951718046	-0.302837895	
716.25	0.008718063045	-0.2054135188	
716.875	0.3074064385	-0.01278400659	
717.5	0.4831400996	0.008245216901	
718.125	0.4252219098	-0.1117207473	
718.75	0.6775918287	0.2127580493	
719.375	1.03445713	-0.1563463717	
720.0	0.2154494422	-0.5610486048	
720.625	0.7388938819	-0.3353403641	
721.25	-0.2525703333	-1.088363344	
721.875	-0.142408965	-0.5613768353	
722.5	-0.142975553	-1.151180961	
723.125	-0.9180558881	-0.05631250386	
723.75	-0.1876856171	0.3119818883	
724.375	-0.2473650078	0.4793216712	
725.0	0.402558674	0.2930615512	
725.625	0.01064825196	0.2595981203	
726.25	-0.06607994071	0.7613585777	
726.875	0.210780131	0.8882180788	
727.5	-0.1702253031	0.713639592	
728.125	-0.5248518129	1.977498294	
728.75	0.5116413017	2.423475934	
729.375	-0.5938373611	1.613682614	
730.0	-1.394829286	3.512164007	
730.625	1.742276453	3.905516985	
731.25	-0.8690994914	1.009262922	
731.875	-3.287039685	1.776977257	
732.5	-2.602676035	2.397451501	
733.125	-1.536975134	-0.3228253649	
733.75	-1.419313414	1.820953045	
734.375	0.8124116622	0.134944496	
735.0	0.2106615167	-0.1922374529	
735.625	-0.8569394582	0.104728006	
736.25	0.225121839	0.1895172782	
736.875	0.02748438073	0.6740427387	
737.5	1.278865875	-0.0302374925	
738.125	0.6973486023	-0.7503916785	
738.75	1.366315302	0.3990931544	
739.375	3.155249051	-2.415775769	
740.0	0.09154012288	-2.107900418	
740.625	1.183613654	2.529148944	
741.25	3.457322835	5.049266426	
741.875	0.9185490573	-0.8201972747	
742.5	-0.3624559117	-3.487801288	
743.125	-0.7336332556	-2.108851438	
743.75	-0.1310385606	0.04255430162	
744.375	-0.4532026218	-0.5099422794	
745.0	0.1929439713	0.08132478397	
745.625	0.03132351957	0.08312758972	
746.25	-0.09848801936	-0.1677586708	
746.875	-0.09100427592	0.02647269193	
747.5	-0.2076303431	0.2845052494	
748.125	0.2551687073	0.4666960302	
748.75	0.2241289841	0.2544719317	
749.375	0.005706214317	0.4668419209	
750.0	-0.2714067352	0.2672241067	
