!Created with skrf (http://scikit-rf.org).
# GHz S RI R (50+0j) 
!freq	ReS11	ImS11	
500.0	1.624828184	-2.000492201	
500.625	-1.848954244	-5.011933216	
501.25	-0.8701548374	-0.3492778917	
501.875	-1.076639533	-2.010332171	
502.5	-0.4059395604	-0.2201245956	
503.125	-0.1131408057	-0.04330869233	
503.75	0.1007319226	0.4333097966	
504.375	-0.05643834087	-0.06638691734	
505.0	0.2293851276	-0.08197191036	
505.625	-0.2283412431	-0.03797936062	
506.25	0.2445313744	-0.3816485254	
506.875	-0.3930266149	0.955814272	
507.5	0.8870563766	-0.8657152173	
508.125	0.2055421621	-3.04440615	
508.75	-0.8457208035	-2.323869552	
509.375	1.73741437	-4.088170345	
510.0	-2.655211032	-0.01669483063	
510.625	-0.2746739119	-0.1237468907	
511.25	-0.4541923291	-0.2148027313	
511.875	-0.443308494	0.1635187912	
512.5	-0.0841509822	0.1237975772	
513.125	0.01313809082	-0.2914003778	
513.75	-0.3840667861	-0.1029168822	
514.375	0.1532841184	-0.04048787981	
515.0	-0.9947574761	-0.6154705379	
515.625	1.932645716	0.1424928341	
516.25	-2.569908676	-4.69323834	
516.875	-0.8257481956	0.7101256418	
517.5	0.4971986465	-0.766319248	
518.125	-0.3632744033	0.2816218859	
518.75	0.3183856825	-0.7112763307	
519.375	-0.1748263977	0.2910333795	
520.0	0.1942850865	0.01243068973	
520.625	0.5503218443	-0.007512136458	
521.25	-0.3878790358	-0.7662779351	
521.875	-0.1396347373	-0.03405015261	
522.5	-0.2311275649	0.1151232925	
523.125	-0.04491395972	-0.1221355477	
523.75	-0.4184205714	0.2100337881	
524.375	-0.1585410198	-0.09681099351	
525.0	-0.1929888275	0.6191324134	
525.625	0.1497123565	-0.1610068621	
526.25	0.01226395373	0.1675704085	
526.875	-0.1340964387	-0.07679333529	
527.5	-0.2159355016	0.8605422198	
528.125	0.4595289811	0.3556772428	
528.75	-0.2752835208	0.6892803086	
529.375	0.3280386693	0.08720595172	
530.0	-0.255975337	0.6249276267	
530.625	0.7143429206	0.4802680257	
531.25	0.8197407854	0.5043618096	
531.875	0.5610664219	-1.102381158	
532.5	0.1573240445	0.05754739351	
533.125	-0.2540950593	-0.6212747087	
533.75	0.6963647324	-0.0275928534	
534.375	-0.9676373539	-0.9917446878	
535.0	-0.2437388211	-0.01453999021	
535.625	-0.6482615532	0.212556354	
536.25	0.1704254398	0.2480737822	
536.875	0.1073339213	0.1337308462	
537.5	0.2500659623	-0.1734171848	
538.125	0.0885207279	-0.1819621959	
538.75	0.4676811304	-0.1625394973	
539.375	-0.3649314775	-0.3827526154	
540.0	-0.2297868997	-0.2350638435	
540.625	-0.4349101095	-0.1341272294	
541.25	-0.2103872758	0.107756335	
541.875	-0.04563145523	-0.03711782046	
542.5	-0.1669958153	-0.1903948478	
543.125	-0.1989997064	0.04193244413	
543.75	-0.1241866523	-0.157183501	
544.375	-0.140216335	0.2902732602	
545.0	-0.04238034656	-0.08282353176	
545.625	0.2626837121	0.3571704153	
546.25	0.07530066395	-0.1900386899	
546.875	0.3696003568	0.2070850495	
547.5	-0.02154438111	-0.5095581174	
548.125	0.02724201247	-0.1709894279	
548.75	-0.3001554535	-0.440622902	
549.375	-0.3928618397	-0.02134323186	
550.0	-0.03290317512	-0.07035751279	
550.625	-0.2544654538	0.1022977352	
551.25	-0.0458645079	0.01043074403	
551.875	-0.2769404471	0.1824017757	
552.5	0.003338317738	0.2210989369	
553.125	-0.07622463766	0.1266696803	
553.75	0.1482189312	0.1076467865	
554.375	0.1916423953	-0.01787698769	
555.0	0.2364312808	-0.1604655501	
555.625	0.1752220802	-0.2693106551	
556.25	0.1230806373	-0.3283328479	
556.875	-0.08711203525	-0.368650885	
557.5	-0.2513024338	-0.2389806344	
558.125	-0.2733435165	-0.0601486713	
558.75	-0.2292068834	-0.01188395483	
559.375	-0.2841503538	0.05569057762	
560.0	-0.1634358707	0.1992844239	
560.625	-0.1493364879	0.2044414737	
561.25	0.05338603341	0.2982333187	
561.875	0.05886168086	0.0001160494642	
562.5	0.02092899486	0.2349063513	
563.125	0.1661266771	0.01895875041	
563.75	0.2948732087	0.1359213588	
564.375	0.3307381014	-0.3696228782	
565.0	0.03056485848	-0.2271788479	
565.625	0.03949838281	-0.4130729499	
566.25	-0.3934247858	-0.1924953821	
566.875	-0.1848181279	-0.109034626	
567.5	-0.3577952083	-0.3851951765	
568.125	-0.4875030745	-0.2218698549	
568.75	-0.2932054832	-0.2439517823	
569.375	-0.7722184199	0.2990485534	
570.0	0.02363683607	0.5106553384	
570.625	-0.3011217964	0.1385291678	
571.25	0.1339954228	0.6533381506	
571.875	-0.1487368928	-0.08082695917	
572.5	0.6031464205	0.1137237709	
573.125	-0.1334627663	-0.4087994469	
573.75	0.2360533644	0.05077779046	
574.375	0.07977713211	-0.494851827	
575.0	-0.09898991925	0.1630368012	
575.625	0.3135988759	-0.3423349973	
576.25	-0.2088084577	-0.3087419464	
576.875	0.2603910826	-0.1244683349	
577.5	-0.02472312417	-0.6456348748	
578.125	-0.2958492885	-0.199870407	
578.75	0.02110404655	-0.2162546812	
579.375	-0.2783667455	-0.3512877287	
580.0	-0.1848538032	0.1916301336	
580.625	-0.09486934761	-0.3295256934	
581.25	-0.2848587767	0.45096099	
581.875	0.1294406548	0.0270144701	
582.5	-0.2294536482	0.4655193588	
583.125	0.6341182505	0.21694813	
583.75	-0.3320538554	-0.04911597951	
584.375	0.5003490898	0.2937720206	
585.0	-0.1734488408	-0.1021454758	
585.625	0.5842479931	0.295534466	
586.25	0.28869296	-0.4716295247	
586.875	0.06934706899	-0.03239257905	
587.5	0.1072903096	-0.5477692917	
588.125	-0.3486838365	-0.2430153591	
588.75	0.3098413069	-0.111361213	
589.375	0.185088024	-0.6107670078	
590.0	-0.1646975261	-0.1163384516	
590.625	-0.3842277487	-0.2913165055	
591.25	-0.3453840293	0.4357282293	
591.875	0.04674245637	0.1666400447	
592.5	-0.143022824	0.08606916056	
593.125	0.1399809447	0.168050838	
593.75	-0.1767466496	0.2341002931	
594.375	0.6698338332	0.3781459933	
595.0	0.2787382764	-0.1504763874	
595.625	0.1749030848	0.5026978819	
596.25	0.8035598517	-0.1066709291	
596.875	-0.1218947646	0.1397162615	
597.5	0.635655532	0.4583423322	
598.125	0.3741179641	-0.09073797982	
598.75	0.1889818031	0.4268010676	
599.375	0.6683529644	-0.2222656759	
600.0	0.1486250685	-0.2937008149	
600.625	0.424095621	-0.2556863711	
601.25	0.1554390961	-0.6156918008	
601.875	-0.149410495	-0.1343336708	
602.5	-0.3510686614	-0.135685897	
603.125	-0.2127112134	0.1578315081	
603.75	-0.2257577627	0.1974130993	
604.375	-0.1806645319	0.07288345369	
605.0	-0.2797709513	0.2849087294	
605.625	0.1062981985	0.05860935068	
606.25	-0.6038196762	0.1015471322	
606.875	-0.0741750737	0.443240201	
607.5	-0.4888785487	-0.001271721834	
608.125	0.1003936683	1.057049152	
608.75	0.1561800101	-0.0053057633	
609.375	0.7596499369	0.2150262766	
610.0	0.2329500515	-0.6213251005	
610.625	0.3468133559	0.02394736438	
611.25	-0.1192345575	-0.6344280258	
611.875	-0.05603756664	-0.07019706429	
612.5	-0.4885606625	-0.3369989517	
613.125	-0.1437825908	0.3168508683	
613.75	-0.4270216826	0.2197292351	
614.375	0.3540512177	0.2945693853	
615.0	-0.2913995892	0.06039180577	
615.625	0.3757582662	0.2736321227	
616.25	-0.2803367076	0.03289374412	
616.875	-0.3014682329	0.7005809104	
617.5	0.205479191	0.3549142574	
618.125	-0.3500674185	0.4838938705	
618.75	0.2972964423	0.5091732869	
619.375	0.07666768479	0.2129236933	
620.0	0.5845240681	0.1590550584	
620.625	0.1064716683	-0.294801761	
621.25	-0.1621210071	-0.5021938282	
621.875	-0.4531841827	-0.0515844316	
622.5	-0.4872374205	-0.03096150011	
623.125	0.08274582612	0.6147350918	
623.75	-0.0127870455	0.03152273231	
624.375	0.3783060747	-0.3173845097	
625.0	-0.1189269689	0.2135770312	
625.625	0.364454826	-0.4496854237	
626.25	-0.3845502804	0.09533754616	
626.875	-0.05158267676	-0.5053733525	
627.5	-0.6109647665	0.02523571325	
628.125	-0.04057622881	0.02417345895	
628.75	-0.08604964358	-0.5214481701	
629.375	-0.4274150598	-0.1734681714	
630.0	-0.2240111196	-0.2679487566	
630.625	-0.6369982855	0.1326279608	
631.25	-0.1230191945	0.5473364013	
631.875	-0.1223027587	0.3853068379	
632.5	0.4243077383	0.5485792534	
633.125	0.4618061422	0.004758703054	
633.75	0.2761039958	-0.1452295228	
634.375	0.2810739494	-0.3040330117	
635.0	-0.3256681794	-0.3081813764	
635.625	-0.03699729532	-0.2976853123	
636.25	-0.6104437296	0.286196512	
636.875	0.2100297264	0.2913027091	
637.5	-0.4810947177	-0.08324536314	
638.125	0.2581000053	0.5463866902	
638.75	-0.3323833609	-0.05104711254	
639.375	-0.02054813824	1.0046554	
640.0	0.5928551587	0.1962235011	
640.625	0.1407993381	0.4020701184	
641.25	0.9851592828	-0.04617618293	
641.875	0.01767387359	-0.5666338973	
642.5	0.2413079302	-0.2428391542	
643.125	-0.6182449259	-0.5610778387	
643.75	0.01339087828	0.2400346431	
644.375	-0.6080804247	-0.2713046418	
645.0	-0.2027066657	0.6094694889	
645.625	0.1711536013	0.1932785562	
646.25	0.1795605487	0.480615963	
646.875	0.4867539378	-0.3703235123	
647.5	-0.2293105089	0.2278716785	
648.125	0.7867902527	0.1384666522	
648.75	0.06596911355	-0.5144981151	
649.375	0.9293629941	0.08654483068	
650.0	0.2963236924	-1.426773413	
650.625	-0.2656926024	-0.1953537313	
651.25	1.098691274	-0.2681417368	
651.875	0.4261856229	-1.17598791	
652.5	0.08812909403	0.1941857094	
653.125	1.101269978	-0.2435823533	
653.75	-0.02873978185	-0.8419587925	
654.375	0.09224113834	-0.2432486418	
655.0	-0.9997069435	-0.5857224722	
655.625	-0.01665673538	0.7378370286	
656.25	-0.1250546365	0.01594610559	
656.875	0.2471484138	0.5328141628	
657.5	0.04390097926	-0.1994365661	
658.125	0.2337151923	0.7447916431	
658.75	0.8634309991	-0.0995136596	
659.375	0.4193597438	-0.385999517	
660.0	0.6757193808	-0.298758355	
660.625	0.2449900875	-1.341087559	
661.25	-0.1236084533	-0.2551522834	
661.875	0.9395720208	-0.4375697347	
662.5	0.4996882799	-0.9818092707	
663.125	0.06007549762	-0.1134892046	
663.75	0.8605520709	-0.9227931306	
664.375	-0.6383882836	-0.5272236599	
665.0	-0.171540367	-0.4848903175	
665.625	-1.052766842	0.2638126872	
666.25	0.2160401607	0.6183090852	
666.875	-0.0528272149	0.4472548687	
667.5	0.6814131438	0.2784105064	
668.125	0.2484225595	-0.2946553687	
668.75	0.5673864043	-0.009710882114	
669.375	0.0935651471	-0.8518836194	
670.0	-0.06762448118	-0.2312624258	
670.625	0.1793930678	-0.4433111932	
671.25	0.03378172611	-0.6079724025	
671.875	0.01393105394	-0.1749475821	
672.5	0.7521708812	-0.2692469802	
673.125	0.291087967	-0.7259639818	
673.75	0.1019900793	-0.2018585036	
674.375	0.5130227777	-0.7399367364	
675.0	-0.8698795766	-0.4533656633	
675.625	0.2331622119	-0.2365053068	
676.25	-0.9291371702	-0.1650404742	
676.875	-0.01313363208	0.4785849974	
677.5	-0.4860513108	-0.4339991343	
678.125	-0.1274268129	0.8697158574	
678.75	0.03568242344	0.1250436737	
679.375	0.4179937383	0.4584402506	
680.0	0.4971637268	-0.6222979327	
680.625	-0.2323648833	0.150149101	
681.25	0.5927685478	-0.06550848772	
681.875	0.234923303	-0.165258594	
682.5	0.2055911242	0.291722762	
683.125	0.7669931895	0.2972466151	
683.75	0.627156363	-0.2034778979	
684.375	0.2694514932	0.1107333529	
685.0	0.947763787	0.4371853344	
685.625	0.6369271145	-0.8230982902	
686.25	0.3124941939	0.757665899	
686.875	1.149812216	-1.256635562	
687.5	-0.1852894951	-0.1165709284	
688.125	0.5288336114	-1.417532907	
688.75	-1.721719875	0.3014975502	
689.375	-0.2433899024	-0.06698965782	
690.0	0.370438748	1.535124475	
690.625	0.6002634101	0.001520590765	
691.25	0.4220411129	0.8422679401	
691.875	1.444170964	0.5723441863	
692.5	1.04633963	0.2976195595	
693.125	1.522682015	-0.007607699914	
693.75	1.236142885	-0.7479041715	
694.375	0.9240081203	-0.8377683966	
695.0	0.8679244713	-0.776432417	
695.625	1.050887735	0.04142697274	
696.25	1.632823303	-0.04462553139	
696.875	0.4749709347	0.4692870742	
697.5	1.377362103	1.669205678	
698.125	1.173111314	-0.6442976238	
698.75	1.368095279	-0.4173064511	
699.375	-1.713316855	-0.8636287353	
700.0	0.1486462517	0.5013258082	
700.625	0.1323932098	1.379235172	
701.25	0.587073249	-0.2039070908	
701.875	0.2445553861	0.8210294091	
702.5	1.317706725	0.3294277303	
703.125	0.4087124942	0.3389824818	
703.75	1.25390101	-0.2642004084	
704.375	0.1440361898	-0.6813718356	
705.0	0.9114976645	0.1881277733	
705.625	0.6385698944	-0.5921212186	
706.25	0.1105709127	0.4924512766	
706.875	1.203354285	1.059890996	
707.5	0.4899283489	0.03431332459	
708.125	1.259302192	0.6107416558	
708.75	0.3227317127	-1.372445167	
709.375	-0.3630048299	-0.3566311654	
710.0	-0.6598985655	0.6044260482	
710.625	0.4449941783	0.1612808337	
711.25	0.1410261752	0.3804417554	
711.875	0.5375076239	0.1037607168	
712.5	0.7974024722	-0.0474401548	
713.125	0.4593125454	-0.4949158925	
713.75	0.3878663216	-0.3840547599	
714.375	-0.09320692945	-0.8336291707	
715.0	-0.2045737249	-0.02780215989	
715.625	0.5416404721	-0.9129852694	
716.25	-0.4298093049	-0.7455096028	
716.875	0.8849001141	0.3687688979	
717.5	2.34537847	-0.6287856965	
718.125	-0.01016528009	-1.007144075	
718.75	3.326689894	0.9346960475	
719.375	0.8178581231	-2.887038815	
720.0	0.6134633975	-0.8232066408	
720.625	1.426137091	-3.687595315	
721.25	-1.975413791	-1.850326958	
721.875	0.1682058529	-2.078793672	
722.5	-2.150395463	-2.129249283	
723.125	-2.038970047	0.6550973342	
723.75	-0.707156375	0.5687390129	
724.375	0.06988300115	1.571357002	
725.0	0.628513518	0.4768431028	
725.625	0.1762832475	0.8627623747	
726.25	-0.1468208882	2.063898226	
726.875	1.417716919	2.347630748	
727.5	-1.546331006	1.595936938	
728.125	-0.3337198241	7.235462906	
728.75	7.277525562	3.035260138	
729.375	-6.874214984	2.771923757	
730.0	7.548143545	19.88115131	
730.625	5.074376498	-0.05008434904	
731.25	-7.068813912	7.921849103	
731.875	-3.314491005	15.22182965	
732.5	-1.655578469	-0.8110944061	
733.125	-9.085905404	1.650482686	
733.75	-0.1975032347	4.168734773	
734.375	1.386124742	-0.1705691972	
735.0	0.8396190969	-1.943473606	
735.625	-0.9026323855	1.559199756	
736.25	-0.6535614987	0.4737483813	
736.875	1.311296331	1.862695253	
737.5	3.220633971	-0.6550136855	
738.125	0.9478929892	-0.6833829281	
738.75	8.004190219	-2.490297692	
739.375	5.820236019	-10.90582761	
740.0	-3.847860373	0.1997220923	
740.625	26.20003454	0.0373652949	
741.25	13.17367524	-6.660052393	
741.875	-10.20369745	-7.78610251	
742.5	-14.31399231	-9.874806036	
743.125	-1.15294822	2.429361659	
743.75	0.9064105461	-4.725755747	
744.375	-2.135781912	1.136271145	
745.0	-0.0112277074	-0.2072804668	
745.625	0.3551713224	-0.1196978718	
746.25	-0.1304393918	0.01624889235	
746.875	-0.6169832045	-0.09688418456	
747.5	0.03313865027	0.9922763455	
748.125	0.7452684267	0.9201825248	
748.75	-0.09594931655	1.059557134	
749.375	-0.5457577839	1.97214522	
750.0	-1.541046317	1.108049753	
