!Created with skrf (http://scikit-rf.org).
# GHz S RI R (50+0j) 
!freq	ReS11	ImS11	
500.0	0.2675879945	-2.006130072	
500.625	1.829996535	-2.619807093	
501.25	-2.550579749	-2.809455859	
501.875	-1.626347249	-0.3797491809	
502.5	0.08180818879	-0.391298025	
503.125	-0.3236214046	0.2224784859	
503.75	-0.05473963226	0.03972674922	
504.375	0.1604344339	-0.04913912566	
505.0	-0.04985041369	0.05196263402	
505.625	0.1029453888	-0.4088203266	
506.25	-0.2692522537	0.3259649281	
506.875	-0.2352718072	-0.8783804869	
507.5	-1.559782018	-1.592667969	
508.125	0.1077726231	-0.1218278302	
508.75	3.183922911	-3.946785544	
509.375	-2.931387986	-3.269429896	
510.0	-0.3541300982	-1.052815031	
510.625	-1.171893553	-0.3932742192	
511.25	-0.1424910113	-0.2006129158	
511.875	-0.5562601889	-0.07498850746	
512.5	-0.03844017596	0.1925044441	
513.125	-0.08148487318	-0.1379284559	
513.75	-0.01148667187	-0.2601255933	
514.375	-0.6412534755	-0.007372743166	
515.0	1.322416748	0.1992011757	
515.625	-2.114141635	-1.141440365	
516.25	1.02888095	-0.5423591351	
516.875	-1.415173477	-2.826343643	
517.5	-0.72953261	0.2864806537	
518.125	0.0127070457	-0.481730784	
518.75	-0.5425799583	0.1282409453	
519.375	-0.2046274395	-0.04502908525	
520.0	0.5468395949	0.1874402235	
520.625	0.2452882615	-0.2730654867	
521.25	0.3536045261	-0.6199315463	
521.875	-0.6260292035	0.08542544049	
522.5	0.0003354002571	-0.06318921274	
523.125	-0.1707638404	0.2776065464	
523.75	-0.1474251126	-0.2474982043	
524.375	-0.468908463	0.4996959183	
525.0	-0.1458009928	-0.02344718867	
525.625	0.06921208209	0.3504186081	
526.25	-0.1554038367	-0.2838769569	
526.875	-0.02807076718	0.3307113176	
527.5	-0.158785826	0.1520722578	
528.125	-0.04475972309	1.186432235	
528.75	0.5717075121	0.436151947	
529.375	-0.0076910958	0.404064126	
530.0	0.2128497045	-0.002506863798	
530.625	0.04042805093	1.439270862	
531.25	1.033694492	-0.4548150057	
531.875	0.6771028781	-0.04275421709	
532.5	-0.5232892913	-0.4838931961	
533.125	0.609304274	0.03664101016	
533.75	-0.2397794708	-0.6790863647	
534.375	0.3373359161	-0.6126523149	
535.0	-1.22697592	-0.1356142552	
535.625	-0.1044909456	0.193121653	
536.25	-0.1164918585	0.2485863143	
536.875	0.3574962424	-0.0193005294	
537.5	0.0595890635	0.01731932974	
538.125	0.4588686326	-0.2762239262	
538.75	0.1172902491	-0.2139240259	
539.375	-0.005833010912	-0.5240157237	
540.0	-0.6481696568	-0.2857391437	
540.625	-0.1653558037	-0.03398014227	
541.25	-0.2200485201	-0.0502335879	
541.875	-0.1887913994	-0.0588515642	
542.5	-0.03986609546	0.02029400006	
543.125	-0.2108479024	-0.2907198926	
543.75	-0.2229673076	0.2378586302	
544.375	-0.1827171724	-0.09307305424	
545.0	0.1315617212	0.2513718136	
545.625	-0.1189886253	0.06232829351	
546.25	0.5148092556	0.1718920502	
546.875	-0.01093447797	-0.1430770684	
547.5	0.4057887737	-0.177501141	
548.125	-0.272619956	-0.5495524271	
548.75	-0.1782097172	-0.0892863054	
549.375	-0.2135818123	-0.3514927143	
550.0	-0.2449660153	0.1553658663	
550.625	-0.06751063108	-0.1398239606	
551.25	-0.2310503506	0.2170302843	
551.875	-0.09554615202	0.04319380682	
552.5	-0.1963634114	0.23684219	
553.125	0.01221697068	0.1546319017	
553.75	0.07991147983	0.1228536994	
554.375	0.2552991388	0.001007562719	
555.0	0.2115665786	-0.1677534416	
555.625	0.2152097094	-0.2440449497	
556.25	0.160844647	-0.3544060513	
556.875	-0.08802669735	-0.3730313503	
557.5	-0.2202238395	-0.2510650461	
558.125	-0.2817589987	-0.1114443943	
558.75	-0.2604940724	0.01051134646	
559.375	-0.2262462296	0.02381957344	
560.0	-0.2742711238	0.1702284367	
560.625	-0.06402856564	0.2806368622	
561.25	-0.04686118576	0.1682328208	
561.875	0.1513193912	0.1611737635	
562.5	-0.0705900483	0.05252566806	
563.125	0.2728225022	0.2367154085	
563.75	0.192785428	-0.08853168316	
564.375	0.3871534789	-0.07123090897	
565.0	0.1692734629	-0.4893928318	
565.625	-0.1310250019	-0.2394466687	
566.25	-0.1376109357	-0.3101717459	
566.875	-0.4777830399	-0.2046932895	
567.5	-0.1873772299	-0.1180064469	
568.125	-0.3156730259	-0.5873690633	
568.75	-0.58198379	-0.02366926287	
569.375	-0.4688378509	-0.01730418009	
570.0	-0.4628948881	0.6753348801	
570.625	0.1426231758	0.3803197693	
571.25	-0.3240553507	0.08503337993	
571.875	0.5140681094	0.2519075676	
572.5	-0.05997150882	0.08929832246	
573.125	0.5463633104	-0.3397653312	
573.75	-0.1794255573	-0.3930580666	
574.375	0.2664788217	0.1011068927	
575.0	-0.07620221048	-0.4076254449	
575.625	0.179185015	0.1488540874	
576.25	0.3091207136	-0.4755891216	
576.875	-0.2930488028	-0.293880994	
577.5	0.1887788059	-0.1281720275	
578.125	-0.009670592239	-0.6238332406	
578.75	-0.3815832269	-0.1757049257	
579.375	0.02039301822	-0.07094405922	
580.0	-0.2673084125	-0.2727101176	
580.625	0.03635754435	0.1126617273	
581.25	-0.4897684398	-0.005039204078	
581.875	0.1875087261	0.567279579	
582.5	0.1980598807	-0.03720831251	
583.125	-0.2356148225	0.4116315886	
583.75	0.5688223338	-0.1539889576	
584.375	-0.3422199732	0.3598557418	
585.0	0.6282190939	0.03484974544	
585.625	-0.07874880013	0.002976990006	
586.25	0.7316536154	0.01689160498	
586.875	-0.1503729743	-0.44558861	
587.5	0.1851528574	-0.1061101294	
588.125	0.04722684011	-0.6040171891	
588.75	-0.214100914	-0.3451215041	
589.375	0.3412870014	-0.05345391769	
590.0	-0.1502108165	-0.626763775	
590.625	-0.3557043326	0.01583824137	
591.25	-0.3523203097	0.08597049239	
591.875	-0.120120663	0.4387809909	
592.5	-0.01350502203	-0.07025936208	
593.125	-0.06377760464	0.2342945609	
593.75	0.1352802019	0.1314895705	
594.375	0.07909254114	0.3969118562	
595.0	0.7288875778	0.5107996462	
595.625	0.2502670497	-0.2992907629	
596.25	0.2349206112	0.5457103485	
596.875	0.6964054538	-0.138092226	
597.5	-0.07450258796	0.215684339	
598.125	0.6832502295	0.4916342851	
598.75	0.2009740517	-0.06222398612	
599.375	0.5936575181	0.3119435226	
600.0	0.4043575886	-0.6183903132	
600.625	0.1297699237	-0.2680483585	
601.25	0.3601937056	-0.3226985217	
601.875	-0.2249407925	-0.4385789621	
602.5	-0.2433324383	-0.03479483663	
603.125	-0.2135329775	0.08438649998	
603.75	-0.3104634346	0.1082655156	
604.375	-0.1850451325	0.2582542943	
605.0	-0.1889381556	0.02596428953	
605.625	-0.2096857258	0.2798843268	
606.25	-0.1201955373	-0.02973709251	
606.875	-0.7605766242	0.2424019668	
607.5	0.02461834937	0.4187743058	
608.125	-0.4991606498	0.3670960505	
608.75	0.8789777258	0.5073802654	
609.375	0.0926062522	0.01504212963	
610.0	0.7454483214	-0.2424188738	
610.625	-0.1104212487	-0.4657265749	
611.25	0.4591067653	-0.2352443878	
611.875	-0.5234683578	-0.225143263	
612.5	-0.08112015222	-0.2447281162	
613.125	-0.7312320778	0.07933144571	
613.75	0.121237371	0.1621868319	
614.375	-0.1010207595	0.4940820115	
615.0	0.2452621181	-0.1600416997	
615.625	-0.3033106362	0.4219448982	
616.25	0.2922696125	0.2891176188	
616.875	-0.440483209	0.1533858306	
617.5	-0.2074024422	0.8459106582	
618.125	0.2092646044	0.2379006266	
618.75	-0.2207909302	0.5911944652	
619.375	0.4192511703	0.3071578018	
620.0	0.2547432197	0.2436600112	
620.625	0.2945268681	-0.4924884837	
621.25	-0.08898965447	-0.3241729634	
621.875	-0.5586208116	-0.2743827731	
622.5	-0.3830967934	0.1479968283	
623.125	-0.2746072451	0.4177102333	
623.75	0.4443859179	-0.09397199391	
624.375	0.062533625	0.2727774581	
625.0	-0.1207111033	-0.4665992418	
625.625	0.2775795139	0.1439188456	
626.25	-0.1958974516	-0.6576139816	
626.875	-0.2638036301	0.1794950991	
627.5	-0.2455075	-0.5028469077	
628.125	-0.468476244	0.02331123374	
628.75	0.1480600654	-0.1857078058	
629.375	-0.3735850812	-0.5989665636	
630.0	-0.304221514	0.04717345442	
630.625	-0.5058618256	-0.1081275801	
631.25	-0.4721138461	0.5337026321	
631.875	0.02249143905	0.5489263144	
632.5	0.3067100106	0.3598353353	
633.125	0.3928765854	0.2871492524	
633.75	0.4548683591	-0.3089133907	
634.375	0.1263824922	-0.1486753661	
635.0	0.03672651114	-0.5052397544	
635.625	-0.2654422581	0.03210039501	
636.25	-0.5054227143	-0.06979924425	
636.875	-0.09638195382	0.5472818192	
637.5	0.09913306129	-0.08457750611	
638.125	-0.6470908733	0.3382139951	
638.75	0.3336037115	0.4671499003	
639.375	-0.3296522668	0.2444248159	
640.0	0.3369063546	0.9182703204	
640.625	0.6274711152	0.03875205805	
641.25	0.3373334304	0.3033160421	
641.875	0.4941339397	-0.8422624806	
642.5	-0.1197591816	-0.0931423416	
643.125	-0.0709561736	-0.6125026159	
643.75	-0.7179992027	0.03139004049	
644.375	0.09876244075	-0.09700074406	
645.0	-0.6876518983	0.3211433656	
645.625	0.3175669068	0.6284518003	
646.25	0.2846195087	-0.1169078778	
646.875	0.2124930241	0.4467580164	
647.5	0.06403920661	-0.4731410003	
648.125	0.3864884539	0.577513358	
648.75	0.8005697697	-0.5533734355	
649.375	-0.0318382289	-0.236792519	
650.0	1.190717146	-0.5156715328	
650.625	-0.08335916499	-1.343025798	
651.25	0.01232614439	0.1000729197	
651.875	1.30236419	-0.2485983883	
652.5	0.4325847964	-0.8510591643	
653.125	0.3225503878	0.294680578	
653.75	0.7736957262	-0.910094072	
654.375	-0.5166391421	-0.3830378772	
655.0	-0.1820268126	-0.4666408654	
655.625	-0.9216701134	0.6933863376	
656.25	0.4948509441	0.1280637447	
656.875	-0.2597695934	0.2209401006	
657.5	0.3986226452	0.3126709282	
658.125	0.08253809446	0.08832625345	
658.75	0.8297507026	0.6051770677	
659.375	0.6479446324	-0.6538523955	
660.0	0.3494755406	-0.4115956654	
660.625	0.7489636671	-0.6922998806	
661.25	0.03154180112	-1.218529784	
661.875	0.2192651769	0.02015966291	
662.5	1.189173161	-0.4543099439	
663.125	0.3299908211	-0.8940628688	
663.75	0.3179770059	-0.09083753483	
664.375	-0.07346790721	-1.310845631	
665.0	-0.477765044	0.02825123876	
665.625	-0.8549186751	-0.2573683116	
666.25	-0.1477306406	1.013776945	
666.875	0.2497114438	0.05641357493	
667.5	0.318778877	0.5718237211	
668.125	0.7184702822	-0.2202267687	
668.75	0.1711138949	-0.3102443752	
669.375	0.4487750874	-0.3467836427	
670.0	-0.1469334592	-0.7551536551	
670.625	0.09770301915	-0.1769051418	
671.25	0.2360604376	-0.5469240915	
671.875	0.07435836252	-0.4607608079	
672.5	0.5053583908	-0.04006539333	
673.125	0.7004798815	-0.6222049901	
673.75	-0.02125481071	-0.6618576182	
674.375	0.2578806244	-0.1452475091	
675.0	-0.03300523193	-1.008364109	
675.625	-0.8257364429	0.2045113392	
676.25	-0.0278519209	-0.6137141546	
676.875	-0.7264307879	0.4313019864	
677.5	0.1896159222	-0.1635314701	
678.125	-0.9313590691	0.5916110108	
678.75	0.619658672	0.1747514281	
679.375	0.1251054156	0.3858860986	
680.0	0.6809985463	-0.09560487852	
680.625	-0.01668386802	-0.5969052557	
681.25	-0.01801253974	0.4253971245	
681.875	0.6858261118	0.05257476892	
682.5	0.3756685035	0.03808264434	
683.125	0.3455091578	0.2216093716	
683.75	0.9074961129	0.2487416341	
684.375	0.3971547287	-0.1250299578	
685.0	0.5440845127	0.363100105	
685.625	1.119767133	-0.08609907455	
686.25	-0.06238821945	-0.434341259	
686.875	1.472919475	0.4073941912	
687.5	0.03464339279	-1.726199527	
688.125	0.4195748829	-0.167968477	
688.75	-1.436366699	-1.093547951	
689.375	0.05869341068	1.174978223	
690.0	-0.6873578433	0.7240867365	
690.625	1.298619943	0.4354424161	
691.25	0.1944971891	0.4535350884	
691.875	1.273412186	1.184743546	
692.5	1.441748479	0.04449681678	
693.125	1.320065558	0.1503858979	
693.75	1.391480853	-0.6262260453	
694.375	0.9108443752	-0.7865815405	
695.0	1.150934939	-0.8823062591	
695.625	0.843158464	-0.2596978337	
696.25	1.373549024	0.7671289255	
696.875	1.217916984	0.2521274284	
697.5	0.3342107317	1.250766061	
698.125	2.168289959	0.3652747645	
698.75	0.2104938265	-0.5696132589	
699.375	-0.8187442352	-1.791615471	
700.0	-0.3088387534	1.391454186	
700.625	-0.4000783328	0.2911938739	
701.25	1.227579228	0.5791658627	
701.875	0.1255192188	0.2865354736	
702.5	0.9813784975	1.049711893	
703.125	0.8788117621	-0.3468601636	
703.75	0.9557033466	0.3021985379	
704.375	0.699329536	-0.9047536503	
705.0	0.09334163448	0.0594241937	
705.625	1.375297831	0.0236345521	
706.25	0.2616940241	-0.1565175384	
706.875	0.2371482936	1.155895528	
707.5	1.375284936	0.6019258919	
708.125	0.4434843156	0.3749798705	
708.75	1.139049029	-1.214697295	
709.375	-0.9642594089	-0.2054022578	
710.0	-0.66489426	0.1747250862	
710.625	0.4950797065	0.6475606915	
711.25	-0.05040382758	0.1415406652	
711.875	0.6204762278	0.346604123	
712.5	0.5882107398	0.04361307365	
713.125	0.8020164018	-0.6254852852	
713.75	0.01246453053	-0.3780437472	
714.375	0.3900083323	-0.7540115775	
715.0	-0.4652255195	-0.4135599211	
715.625	0.4890183741	-0.1756904564	
716.25	0.3089139931	-1.377221656	
716.875	-0.01106343294	0.09266648481	
717.5	2.137404039	0.5847559503	
718.125	2.23722073	-1.599008011	
718.75	0.119702246	1.134940075	
719.375	3.993343394	-1.830275092	
720.0	-0.3845211935	-1.647185014	
720.625	1.357483352	-1.672500466	
721.25	-0.7205698652	-3.795939747	
721.875	-0.5272581329	-1.0098093	
722.5	-1.438060634	-2.847036269	
723.125	-2.322129882	0.05782649182	
723.75	-0.393487278	0.9404990246	
724.375	-0.3069333112	0.9522322287	
725.0	0.7361336827	1.247081016	
725.625	0.6561043383	0.5475105952	
726.25	-0.4575609739	1.39636763	
726.875	-0.1496797095	3.342730907	
727.5	1.315955216	1.642657652	
728.125	-4.04586143	5.102830501	
728.75	4.847182684	7.513005048	
729.375	0.7306110379	1.275147171	
730.0	-10.59024787	15.08590356	
730.625	13.44438447	5.351168071	
731.25	-6.615491097	1.200739329	
731.875	-11.5649959	9.328752888	
732.5	-6.68504213	8.494282108	
733.125	-3.284700304	-1.805206153	
733.75	-2.684872908	5.465494836	
734.375	1.784721997	0.2100775494	
735.0	0.8137728469	-0.953135422	
735.625	-2.119312781	0.9620452375	
736.25	0.2291915278	0.07279239056	
736.875	0.5243857098	2.17117159	
737.5	3.569067945	0.4777771595	
738.125	3.32394126	-3.425106332	
738.75	1.066318833	1.218350466	
739.375	15.41170769	-7.655996115	
740.0	-1.347398559	-12.58979034	
740.625	4.892103099	13.83327013	
741.25	24.10919007	1.184596855	
741.875	-0.5198103352	-18.55633624	
742.5	-8.997514788	-14.02998809	
743.125	-6.563370673	-2.398720807	
743.75	2.115015302	-0.5530424891	
744.375	-2.128224386	-0.8352175443	
745.0	0.7262180021	0.02103165283	
745.625	0.2963151282	0.218508073	
746.25	-0.2336829833	-0.4037319933	
746.875	-0.1913521263	-0.02045344092	
747.5	-0.6950507639	1.112245619	
748.125	0.6774025716	0.9887928763	
748.75	0.4301630829	0.7492669641	
749.375	-0.02834739413	1.079074054	
750.0	-0.1009310005	1.395810675	
