!Created with skrf (http://scikit-rf.org).
# GHz S MA R 50.0 
!freq magS11 angS11
500.0 0.0163872851662 169.896158044
500.625 0.00780037448973 100.020988734
501.25 0.00963634130431 -137.205096806
501.875 0.0120690947641 -125.335272441
502.5 0.03329664113 163.788738582
503.125 0.0201115951578 117.915456405
503.75 0.0170871770099 -33.208765011
504.375 0.012268068191 133.227028531
505.0 0.00845821832 -52.786337245
505.625 0.0197940275977 -81.0634951456
506.25 0.0472190852055 -101.356444125
506.875 0.051947330039 -137.978468161
507.5 0.0385478614223 -127.966948202
508.125 0.0477419643674 -88.3725369202
508.75 0.0780352175208 -115.264291003
509.375 0.0493253011672 -146.170841907
510.0 0.0350182579489 -113.350904567
510.625 0.0344083412453 -157.934726768
511.25 0.0718135283023 -167.918306157
511.875 0.0448902996773 126.138951614
512.5 0.034448231104 95.5882542744
513.125 0.0483612448071 33.7183857419
513.75 0.0651058479494 46.3243058251
514.375 0.0424163682935 23.1352847779
515.0 0.0605953126187 4.61208499928
515.625 0.100064476796 52.1466056134
516.25 0.100254175919 31.9349987941
516.875 0.109027015225 69.750173902
517.5 0.112642497931 22.1941163849
518.125 0.196559381457 72.1075697604
518.75 0.0729803415085 -4.56874511343
519.375 0.0627434564689 19.6026581366
520.0 0.0843481126095 -7.16449758104
520.625 0.112218432368 -1.54755207672
521.25 0.076455287655 -30.0826804513
521.875 0.0667033083925 1.86770899284
522.5 0.102829308595 -30.2409383087
523.125 0.18272149901 -33.6409163569
523.75 0.223841334968 -53.579650207
524.375 0.203295902357 -53.2284119356
525.0 0.0719389006094 -44.795050469
525.625 0.0477846469847 -22.5132745092
526.25 0.0315379814409 -32.4712333797
526.875 0.0442458946283 -26.7784748155
527.5 0.0440362617932 -36.5603000114
528.125 0.0517567199002 -56.0035807485
528.75 0.0590091034586 -74.3225370502
529.375 0.0774595831985 -111.72288841
530.0 0.0464119811049 -128.76738378
530.625 0.0475809667501 -145.300989552
531.25 0.113832405963 -132.554897061
531.875 0.152250712606 -145.689577417
532.5 0.133473377011 -170.660924409
533.125 0.114405623313 175.264654235
533.75 0.0853673143071 166.216151449
534.375 0.101591089822 178.777021798
535.0 0.0875212970435 161.031718433
535.625 0.0729593899971 178.462500047
536.25 0.0411598992978 161.566703342
536.875 0.0739941451781 -156.865028935
537.5 0.0983361877333 -143.225773896
538.125 0.113850333787 -173.874138215
538.75 0.0843438573356 176.494148756
539.375 0.0672283214407 -162.680901958
540.0 0.0832768898423 -155.50063953
540.625 0.144721845328 -157.916085092
541.25 0.121239470736 -140.264670737
541.875 0.0973100024367 -141.598438493
542.5 0.110083807464 -141.251730912
543.125 0.151089176965 -168.136372179
543.75 0.11595139097 157.906942896
544.375 0.0898074443594 135.132074568
545.0 0.0887533755376 88.4519605446
545.625 0.10837010467 82.8286056475
546.25 0.0953848305641 67.54124803
546.875 0.0885404310946 55.5028036975
547.5 0.102589507932 57.2975281242
548.125 0.128051982847 78.4282858794
548.75 0.0792183777252 90.1309831367
549.375 0.0861654503702 88.5502144058
550.0 0.0813572998665 121.640595692
550.625 0.0584171498361 153.959874931
551.25 0.039926303148 -139.372545383
551.875 0.0647697400811 -155.092177879
552.5 0.0969173586798 -160.399577484
553.125 0.0990116332099 -172.489506338
553.75 0.0805205922296 -161.459599272
554.375 0.107025657419 169.386943959
555.0 0.117647020365 164.557696038
555.625 0.100233323928 157.825333646
556.25 0.104488782593 160.855099116
556.875 0.117257737689 166.803364201
557.5 0.108395727196 168.47166192
558.125 0.0962523294816 165.167490686
558.75 0.0832900101006 178.303849066
559.375 0.0602664808178 -170.683588023
560.0 0.0385458497182 -143.473758348
560.625 0.0606693947613 -141.119554173
561.25 0.0836398976459 -145.859950341
561.875 0.102204761491 -159.869056508
562.5 0.0968124479203 172.601704811
563.125 0.110751842092 142.364100276
563.75 0.110719163775 136.782729287
564.375 0.0990202800198 123.281613065
565.0 0.0780839985999 121.154692192
565.625 0.0877347806374 115.979449645
566.25 0.0814431233919 159.019691427
566.875 0.0738877603502 -179.933310965
567.5 0.0733833409276 -175.776983146
568.125 0.0797070385107 -168.440567599
568.75 0.0775781801427 -151.743834296
569.375 0.0445481612158 -100.413772946
570.0 0.0611918883363 -103.059380936
570.625 0.0913647616883 -114.936245269
571.25 0.0921535164428 -121.335158061
571.875 0.0884183448922 -125.598219777
572.5 0.113816861935 -155.180597836
573.125 0.139352207944 -172.936866628
573.75 0.111236671009 159.158605732
574.375 0.0835293842826 150.398882592
575.0 0.110379236667 150.705578641
575.625 0.109099877267 155.277755441
576.25 0.0851548082506 151.046626275
576.875 0.075519220631 130.342323046
577.5 0.0818904462509 133.272083896
578.125 0.0627119467754 158.196561146
578.75 0.0500128716703 159.533768727
579.375 0.0544387047783 162.723332973
580.0 0.0695654757973 -173.810808964
580.625 0.0788881875815 -148.850181622
581.25 0.0893156573521 -167.857486921
581.875 0.112581041298 -169.181069139
582.5 0.112729948037 -170.791242685
583.125 0.0873800756997 -164.378428217
583.75 0.084447217297 -174.41333552
584.375 0.0966286145299 -145.371208946
585.0 0.0933567827981 -139.823446555
585.625 0.0680028260802 -143.551090712
586.25 0.0732861674322 -147.133804938
586.875 0.082637602409 -126.287956424
587.5 0.0717856797501 -137.35903615
588.125 0.0562303888399 -164.390705516
588.75 0.0676723927789 -177.809754756
589.375 0.0861401338632 -139.573451454
590.0 0.0945705565092 -164.537052762
590.625 0.103993162527 167.945399388
591.25 0.123080954893 146.582927009
591.875 0.0928433175495 159.801194468
592.5 0.0628878317291 148.609294486
593.125 0.0619810479613 156.991140116
593.75 0.0747063110344 158.165969779
594.375 0.0577732886358 -128.364129532
595.0 0.0465723380231 -108.539525131
595.625 0.0556294372191 -96.1305439446
596.25 0.0701388453187 -95.1063327453
596.875 0.0660712468686 -72.2099100292
597.5 0.0603204097657 -61.7416552419
598.125 0.0716525752704 -49.5414512483
598.75 0.0750126854339 -69.3530975529
599.375 0.0984323519454 -56.4147128618
600.0 0.108759576989 -60.1256324892
600.625 0.10237164798 -62.9607285659
601.25 0.0834145903561 -86.2901638966
601.875 0.0698483093504 -69.9444252149
602.5 0.0629797870481 -76.4316298006
603.125 0.0375154416696 -51.4381347284
603.75 0.0305120661287 -39.0454975098
604.375 0.0338792484136 -35.9413893443
605.0 0.0602284277317 -15.7995110465
605.625 0.0577671484225 4.82190078183
606.25 0.0286207834416 19.109773963
606.875 0.0222154503806 44.3108586201
607.5 0.0872337498053 52.7709176264
608.125 0.0757669364599 31.0443449331
608.75 0.0580576496547 18.6191828205
609.375 0.0537511031696 22.5679903068
610.0 0.0730049677711 43.478361543
610.625 0.0725786329036 43.9259314653
611.25 0.0546856247396 34.5037711424
611.875 0.032516129682 25.4861997612
612.5 0.043356025043 113.952339806
613.125 0.0341726072143 126.149815073
613.75 0.0523793415327 130.595783228
614.375 0.0388577296868 120.695116443
615.0 0.0388655411085 119.803312609
615.625 0.0350713386914 135.20578319
616.25 0.0401740037088 136.235708072
616.875 0.0496941025608 130.268010989
617.5 0.0524181621653 132.688028152
618.125 0.0348308586781 131.796739192
618.75 0.0175889690435 147.26374622
619.375 0.0139556169717 134.779376746
620.0 0.0309486462092 162.272372433
620.625 0.0183562236163 -137.816444874
621.25 0.0449438039257 -124.186289126
621.875 0.0635096562675 -95.8643286226
622.5 0.0848618897129 -176.456931925
623.125 0.0755878802464 172.467828312
623.75 0.0493972330019 172.452371633
624.375 0.0392399336651 -169.889648653
625.0 0.0280961107339 -126.446293777
625.625 0.0399158889555 -153.227569457
626.25 0.0350067932834 172.458578685
626.875 0.0034789185145 66.077682156
627.5 0.0432381496878 -9.67681501436
628.125 0.0405544252223 -68.884570182
628.75 0.0302995046833 -43.1675917228
629.375 0.0407566990016 -16.605630444
630.0 0.0848912963121 9.62430391743
630.625 0.0735942447874 -10.333983979
631.25 0.0680774472586 6.79197478217
631.875 0.0644201977295 -6.15348103861
632.5 0.0648792861732 10.5443068257
633.125 0.060389478486 -21.9578602506
633.75 0.0367344113738 -3.19740162109
634.375 0.0484086492644 5.24403410207
635.0 0.0390932276689 32.8913167232
635.625 0.0479079571734 51.009430306
636.25 0.052115150299 39.3560266185
636.875 0.0547311117597 29.0485917459
637.5 0.0399579598103 21.2214677045
638.125 0.0584716855011 71.1022743916
638.75 0.0519342489427 61.53139139
639.375 0.0882172786559 89.6832168906
640.0 0.0741573155785 94.3956779491
640.625 0.0683206893466 112.576403999
641.25 0.058691250946 113.463212956
641.875 0.0521391412243 144.202200819
642.5 0.055722484147 160.560077771
643.125 0.0680048297865 164.994933644
643.75 0.0490749517036 153.584090037
644.375 0.0606819710691 -177.175773498
645.0 0.0731428704365 177.886389608
645.625 0.108693485534 170.766961832
646.25 0.0740622232649 147.286391426
646.875 0.0657077479277 176.594955703
647.5 0.0703300268601 178.480220713
648.125 0.0963049559932 -172.686667185
648.75 0.0787545287386 -160.549217251
649.375 0.0490777368369 -149.710612722
650.0 0.056840073426 -115.879870731
650.625 0.0655904816848 -85.9945834944
651.25 0.0791689590665 -63.2367023998
651.875 0.064770508769 -41.9886790225
652.5 0.078875593686 -19.8924367993
653.125 0.117722480171 -0.457414444623
653.75 0.115058768002 6.59519640725
654.375 0.10341360907 7.69412267696
655.0 0.111547790349 8.75000323772
655.625 0.100003317098 29.3738499246
656.25 0.0691222325891 24.9616567944
656.875 0.0672165187194 7.2293585831
657.5 0.071380169263 23.1432453587
658.125 0.0556564441723 44.5052930285
658.75 0.070126893463 59.1086745739
659.375 0.0621099929766 47.056154242
660.0 0.111584423289 27.987013972
660.625 0.104647431634 17.5568479492
661.25 0.120874887947 3.19205901758
661.875 0.11444487218 -13.4405798653
662.5 0.112248143744 -19.9851310267
663.125 0.105889927984 -14.9029641527
663.75 0.114806601614 4.66418583921
664.375 0.0740499537118 50.1584293125
665.0 0.075747308546 94.2475407727
665.625 0.0702749230516 110.105017363
666.25 0.0627744932136 133.471725498
666.875 0.109136871531 173.620555935
667.5 0.107654607462 -170.63791369
668.125 0.108390128053 -178.853089686
668.75 0.123901765478 168.732006554
669.375 0.124595132982 179.104202505
670.0 0.0901462898385 -168.209855621
670.625 0.0882397629922 -169.770148289
671.25 0.123902928679 173.8656362
671.875 0.0965677636206 169.732265376
672.5 0.0675230269876 159.097007376
673.125 0.0830555321735 154.981298169
673.75 0.105685284374 162.869659842
674.375 0.112555082431 170.884645308
675.0 0.112286411583 -176.833288189
675.625 0.127992317843 -148.484330025
676.25 0.105638302701 -121.767926341
676.875 0.115618614051 -120.101547269
677.5 0.131448679448 -130.477528132
678.125 0.125499798669 -113.979052138
678.75 0.0795907971637 -94.4242188702
679.375 0.0458785320988 -69.2758094322
680.0 0.0761147287789 -72.1790661712
680.625 0.105754212764 -72.9696908225
681.25 0.113629044743 -76.4753077848
681.875 0.0921514789685 -84.1552442206
682.5 0.139327623836 -119.460233882
683.125 0.168624704897 -121.898066716
683.75 0.138518398582 -104.464074614
684.375 0.126324099501 -81.7016153214
685.0 0.111095553061 -34.4935219267
685.625 0.125898271898 -0.234793284583
686.25 0.101927230184 24.9168419468
686.875 0.103327512724 41.496756357
687.5 0.069818120236 95.3649269501
688.125 0.0784757793403 113.665777664
688.75 0.0966133930956 119.627523844
689.375 0.153159939613 113.873415939
690.0 0.120349742317 138.9578765
690.625 0.119712068607 128.038613429
691.25 0.134579568561 100.534783393
691.875 0.196297805445 67.0670253168
692.5 0.13413067181 40.8611620292
693.125 0.0890560933495 -14.7308648615
693.75 0.0926076833683 -34.2248105908
694.375 0.138113673223 -28.6051487549
695.0 0.140751212923 5.79191139067
695.625 0.0920776458577 64.2391191197
696.25 0.11689632277 115.206973859
696.875 0.141562116721 169.18899259
697.5 0.144853112533 -144.142504024
698.125 0.146072584431 -136.300507073
698.75 0.128876890474 -130.362146802
699.375 0.102570576327 -120.991624853
700.0 0.103101214823 -120.161744794
700.625 0.100368494063 -77.7459262239
701.25 0.0981532789355 -60.9432104982
701.875 0.0762268945043 -55.000762703
702.5 0.0987753083012 -91.5161704419
703.125 0.157615254286 -116.108065739
703.75 0.18655703724 -154.185044576
704.375 0.133837561468 168.21179979
705.0 0.111962412039 158.444020864
705.625 0.151603235717 -179.858960888
706.25 0.128962973659 -101.557129253
706.875 0.0875259170842 -57.0611759643
707.5 0.0699646133207 -29.2194987253
708.125 0.0940451008481 4.67214855016
708.75 0.112294539962 80.1559313033
709.375 0.106437943078 110.159737075
710.0 0.101911677762 132.322123557
710.625 0.109677212848 153.479095965
711.25 0.12199113455 -175.689020583
711.875 0.147894682397 170.147664006
712.5 0.150255731048 150.342142761
713.125 0.1326132642 92.4505542718
713.75 0.0933535851025 60.2360862383
714.375 0.110525305495 21.6494564204
715.0 0.113448824314 20.7445427217
715.625 0.0860592459897 51.7201460938
716.25 0.0755196680073 67.1968460048
716.875 0.12313902739 110.58613216
717.5 0.149443432882 154.280199954
718.125 0.114752415039 170.542998667
718.75 0.0965892554165 162.077484042
719.375 0.112444758331 -170.81367585
720.0 0.127569154122 -127.685491769
720.625 0.118151176044 -79.2270160586
721.25 0.0953801307262 -31.4956410344
721.875 0.0862900860932 54.1527190255
722.5 0.0802697966182 86.5762855771
723.125 0.0873739163147 77.992125017
723.75 0.0904680309576 27.9768950063
724.375 0.114762599223 3.14332064139
725.0 0.0960508590016 -39.185186558
725.625 0.0965137851073 -71.4397904441
726.25 0.116431174575 -67.9697092573
726.875 0.0994810828746 -60.7888400053
727.5 0.0805720336846 -30.8953275391
728.125 0.0964808580783 9.57233777226
728.75 0.08860315906 35.0584817384
729.375 0.0666413129866 -0.970061469481
730.0 0.0731999327712 10.0821562731
730.625 0.0657527046517 20.3664858594
731.25 0.0603672423007 59.1018116529
731.875 0.0726694311874 112.941858408
732.5 0.0606267782601 141.393740795
733.125 0.113546335321 -171.662403158
733.75 0.0780468211477 167.81911323
734.375 0.0457013955101 144.633032058
735.0 0.0839706767796 169.591253322
735.625 0.0629524181106 147.354381079
736.25 0.0189099560473 138.581325055
736.875 0.0410523078072 172.471036014
737.5 0.0841702821751 -178.899866244
738.125 0.0963951299719 -176.349811093
738.75 0.0740276175528 178.472960914
739.375 0.0524911489409 -170.189846274
740.0 0.0153504377778 -131.794605094
740.625 0.0952650984137 -146.647484846
741.25 0.0722377989698 -156.666663423
741.875 0.0522021989697 -99.4545521561
742.5 0.0230413478103 -7.74853249957
743.125 0.0717341012715 50.0053423837
743.75 0.0494226956091 83.7561390276
744.375 0.0493174092583 104.253317965
745.0 0.053150663687 175.210942834
745.625 0.089670219851 96.899002154
746.25 0.0777392866062 76.2209517373
746.875 0.0659756596457 56.5685233846
747.5 0.0349544342446 22.5438058803
748.125 0.0110203809247 22.5456463176
748.75 0.028901252999 -14.6573874644
749.375 0.0410811676648 -59.5475708977
750.0 0.0380108302499 -100.11254674
