!Created with skrf (http://scikit-rf.org).
# GHz S RI R (50+0j) 
!freq	ReS11	ImS11	
500.0	-0.82135768	-4.046956628	
500.625	1.614637572	-1.455666594	
501.25	-3.430703949	-1.50050643	
501.875	-0.658496354	-1.082583534	
502.5	-0.4383514022	-0.3806881332	
503.125	-0.1168532404	0.09274424707	
503.75	-0.1535144721	0.2478160124	
504.375	0.1596475653	-0.1256277529	
505.0	-0.01022740099	0.1141565591	
505.625	0.08183470609	-0.3527492278	
506.25	-0.286415851	0.1696805993	
506.875	-0.7594617257	-0.7727276668	
507.5	-0.6617154829	0.5599251164	
508.125	1.678228611	-2.419334387	
508.75	0.1604648054	-4.472231588	
509.375	-1.507511464	-1.410445525	
510.0	-1.728338953	-2.36114238	
510.625	-0.9774652442	0.0008437436848	
511.25	-0.4180815899	-0.2273338103	
511.875	-0.4830331242	-0.1712040497	
512.5	-0.03750319165	0.1618620941	
513.125	-0.009218039821	-0.2273859427	
513.75	-0.2624779083	-0.372618294	
514.375	-0.4744099658	0.3607443554	
515.0	0.8241947003	-1.292964126	
515.625	-1.881892178	0.3086580872	
516.25	1.608600358	-3.365292313	
516.875	-2.562666161	-1.754904479	
517.5	0.0813277195	0.4356417015	
518.125	-0.3687283397	-0.4719366956	
518.75	0.1479610924	0.2881444513	
519.375	-0.3378489957	0.1157291794	
520.0	0.5437841338	0.02419290616	
520.625	0.2567532941	-0.1485606847	
521.25	0.209917842	-0.9805475639	
521.875	-0.3545825712	0.1152352628	
522.5	-0.1728237868	-0.064057465	
523.125	0.02730623676	0.2337672683	
523.75	-0.38248547	-0.3007409848	
524.375	-0.2692839651	0.4108119782	
525.0	-0.2805650114	0.1308937332	
525.625	0.3082714215	0.2839580541	
526.25	-0.318889719	-0.02225734906	
526.875	0.08402591621	0.1197163839	
527.5	-0.4987373264	0.3697341565	
528.125	0.5212640782	1.097734114	
528.75	0.03880970622	0.1769591286	
529.375	0.171703024	0.4317362655	
530.0	0.03368567717	0.004056643435	
530.625	0.2647540386	1.416975854	
531.25	0.8743485034	-0.1023846713	
531.875	0.9697150705	-0.3050836613	
532.5	-0.6357674802	0.03650567164	
533.125	0.7297895513	-0.5460684814	
533.75	-0.3744429486	-0.1540625987	
534.375	0.292310754	-1.312879856	
535.0	-0.9358527579	0.1580328778	
535.625	-0.3238788688	0.01140384032	
536.25	-0.04607656022	0.4090698273	
536.875	0.1020202998	-0.1226710481	
537.5	0.3172006873	-0.000296337885	
538.125	0.2610185492	-0.3332048717	
538.75	0.2144176778	-0.1130070353	
539.375	-0.1304108818	-0.5722897991	
540.0	-0.5005737931	-0.2462038814	
540.625	-0.3209804418	-0.0854058795	
541.25	-0.262655547	-0.02067832897	
541.875	-0.0749903705	0.0117805324	
542.5	-0.07083202814	-0.1757011284	
543.125	-0.3054524388	-0.07520821436	
543.75	-0.04691670771	0.06177320854	
544.375	-0.3137652039	0.06718142143	
545.0	0.2273021312	0.1101564104	
545.625	-0.1604594519	0.2950695342	
546.25	0.516424669	-0.06972298825	
546.875	0.02955051244	0.07685832537	
547.5	0.4376405697	-0.4514194992	
548.125	-0.3186627233	-0.1876847258	
548.75	-0.05198689424	-0.3735530668	
549.375	-0.4087552026	-0.2824110012	
550.0	-0.1053947822	0.1569692345	
550.625	-0.1781182958	-0.1531593696	
551.25	-0.1529746818	0.203290421	
551.875	-0.1759311602	0.05874442155	
552.5	-0.1459837151	0.2774763324	
553.125	-0.02670568559	0.09801542352	
553.75	0.13511569	0.1594577341	
554.375	0.216726042	-0.01425037055	
555.0	0.2499064995	-0.1448074089	
555.625	0.226047602	-0.2628665498	
556.25	0.1558366826	-0.3501139187	
556.875	-0.07800994493	-0.3831494018	
557.5	-0.2207066613	-0.261337652	
558.125	-0.2951081513	-0.1108689707	
558.75	-0.250152465	0.008285885112	
559.375	-0.2707716981	0.002635722323	
560.0	-0.2389599423	0.2319513977	
560.625	-0.09782797925	0.1876565606	
561.25	-0.04939427628	0.3177353632	
561.875	0.1540345166	0.0415535424	
562.5	-0.09991301974	0.1479254668	
563.125	0.3005362137	0.1999892671	
563.75	0.1796805342	-0.02948760237	
564.375	0.4296565484	-0.1522881785	
565.0	0.08106900863	-0.4534128709	
565.625	0.02785332649	-0.2535837945	
566.25	-0.3532622511	-0.3880267697	
566.875	-0.2764009133	-0.03912923647	
567.5	-0.2301745441	-0.3900001824	
568.125	-0.5088289625	-0.4476858	
568.75	-0.4024945491	-0.045808203	
569.375	-0.6632740168	-0.07989534241	
570.0	-0.3128174176	0.7977947589	
570.625	0.07910581502	0.1638999529	
571.25	-0.3990628157	0.4420166064	
571.875	0.3762761693	-0.1385652013	
572.5	0.2484590688	0.4160945982	
573.125	0.281753472	-0.612892891	
573.75	-0.172357061	-0.02353778916	
574.375	0.3912469703	-0.1766413255	
575.0	-0.2598506407	-0.2094085315	
575.625	0.360110071	-0.01154318183	
576.25	0.05117471196	-0.557508944	
576.875	-0.08833745129	-0.005458410494	
577.5	0.3282892342	-0.5112040301	
578.125	-0.3574090494	-0.4905421016	
578.75	-0.1725377018	-0.0743734315	
579.375	0.02930340519	-0.2665157217	
580.0	-0.3842839155	-0.1798776715	
580.625	0.1425538014	0.05544775188	
581.25	-0.6083226929	0.1265445787	
581.875	0.3385480098	0.4027685177	
582.5	-0.1844558687	0.09097076893	
583.125	0.3402312094	0.5900385355	
583.75	-0.09867723157	-0.3490345032	
584.375	0.196507014	0.5437587723	
585.0	0.2873533379	-0.3438766295	
585.625	0.09713366135	0.3417216532	
586.25	0.6813503169	-0.09202181122	
586.875	-0.07582465101	-0.4586537946	
587.5	0.1999298969	-0.1310892484	
588.125	-0.09719300967	-0.6259793602	
588.75	-0.06439633805	-0.0179451228	
589.375	0.4503402522	-0.5422226328	
590.0	-0.3218929153	-0.2521365884	
590.625	-0.202597793	-0.3632762234	
591.25	-0.5399603174	0.3971131091	
591.875	0.09501608607	0.2827537314	
592.5	-0.02464063341	-0.09038565518	
593.125	-0.1655164401	0.3958384714	
593.75	0.1819225588	-0.08230344325	
594.375	0.1287124274	0.6506828231	
595.0	0.8257952322	0.009347307326	
595.625	-0.03065180611	0.2418578976	
596.25	0.7268830955	0.3244893025	
596.875	0.05276828095	-0.2774912619	
597.5	0.3165760553	0.7033291069	
598.125	0.6951887554	0.0836497095	
598.75	0.148292971	0.1058249181	
599.375	0.6176208046	0.1682672186	
600.0	0.4074942234	-0.5250129679	
600.625	0.2266995853	-0.2351991241	
601.25	0.360043665	-0.4728016975	
601.875	-0.3204947509	-0.2573547104	
602.5	-0.2186658355	-0.2241562743	
603.125	-0.3047142463	0.2340632484	
603.75	-0.2049666255	0.06664419843	
604.375	-0.2291130678	0.1880351859	
605.0	-0.2837970081	0.1191809021	
605.625	0.0082571188	0.3041117713	
606.25	-0.3947607355	-0.2511134581	
606.875	-0.5188241775	0.673431678	
607.5	-0.1004672062	0.04824301299	
608.125	-0.5638369398	0.875665492	
608.75	0.683776666	0.001828797609	
609.375	0.403457768	0.3922127362	
610.0	0.6398500495	-0.547114068	
610.625	-0.08616034448	-0.04475756139	
611.25	0.2864170547	-0.7016385458	
611.875	-0.2412483885	-0.01223303953	
612.5	-0.2861336245	-0.4280172632	
613.125	-0.5330878959	0.4033297405	
613.75	-0.2873405116	-0.01201104994	
614.375	0.2155893023	0.525590778	
615.0	-0.07754230304	-0.2039662116	
615.625	0.08691840541	0.6081928214	
616.25	0.08118524574	-0.01480962629	
616.875	-0.555177678	0.5028193933	
617.5	0.123164004	0.7234914692	
618.125	-0.2413202372	0.1777648997	
618.75	0.1095736383	0.7630342744	
619.375	0.185390973	0.1228031892	
620.0	0.4539155529	0.3840704154	
620.625	0.1722211301	-0.4544900401	
621.25	-0.03115390656	-0.4427339516	
621.875	-0.5756462016	-0.1162099514	
622.5	-0.3356204253	-0.0855122557	
623.125	-0.2483393488	0.7270468625	
623.75	0.2239799551	-0.2697770689	
624.375	0.5122730153	0.1214344028	
625.0	-0.2997341318	-0.009461452989	
625.625	0.4815977058	-0.2135479918	
626.25	-0.5452148365	-0.2470115282	
626.875	0.15811343	-0.3392676401	
627.5	-0.7404960165	-0.2145352463	
628.125	-0.1662566648	0.1525664233	
628.75	0.06354864201	-0.3814078491	
629.375	-0.3348102836	-0.560630981	
630.0	-0.3291154171	-0.04997531625	
630.625	-0.5690179682	-0.03783030059	
631.25	-0.3443966785	0.581206368	
631.875	-0.05775390958	0.3761410899	
632.5	0.3051951692	0.735922987	
633.125	0.4685104377	-0.03694186068	
633.75	0.3528347439	-0.005818541178	
634.375	0.2548051913	-0.3162693394	
635.0	-0.1562569492	-0.4884457541	
635.625	-0.01551648973	-0.01576690435	
636.25	-0.7045678268	-0.1264112302	
636.875	0.04241818476	0.6402411375	
637.5	-0.09497151578	-0.2815662879	
638.125	-0.2984379215	0.6996545045	
638.75	-8.750824942e-05	-0.1131356335	
639.375	-0.3924095684	0.9323405085	
640.0	0.7546009717	0.4003941522	
640.625	-0.002733695606	0.308094752	
641.25	1.091943165	0.2479176956	
641.875	0.2211375659	-0.7023071175	
642.5	0.02015034582	-0.09727099518	
643.125	-0.1898733683	-0.7234100185	
643.75	-0.5102823811	0.2136734499	
644.375	-0.2754467688	-0.427583263	
645.0	-0.4685648545	0.5909343545	
645.625	0.2596859167	0.308756709	
646.25	0.05661452817	0.3415212878	
646.875	0.6535143678	-0.1448624226	
647.5	-0.2867142618	0.04756753007	
648.125	0.7077781958	0.4057207253	
648.75	0.4285949454	-0.6768316078	
649.375	0.4304069176	0.2494065002	
650.0	0.9062614964	-1.371496681	
650.625	-0.4123841966	-0.5979022831	
651.25	0.9176347807	0.1247580232	
651.875	0.9872773375	-1.098994832	
652.5	-0.09189430351	-0.2089832833	
653.125	0.9919514231	0.2191145403	
653.75	0.5032678501	-1.004106324	
654.375	-0.2013442096	-0.2029693423	
655.0	-0.5496023119	-0.8600390554	
655.625	-0.3096116645	0.8958363426	
656.25	-0.003322899569	-0.03309202206	
656.875	0.06901906472	0.6365216241	
657.5	0.1553327128	-0.2295704405	
658.125	0.01890018942	0.7865805545	
658.75	1.035695998	0.136910871	
659.375	0.5365894835	-0.5188910877	
660.0	0.4330418706	-0.2456860356	
660.625	0.920206336	-1.051238633	
661.25	-0.3242419633	-0.8149032917	
661.875	0.8599020715	-0.04771142118	
662.5	0.7645305851	-0.9345087197	
663.125	0.06362652228	-0.2251663781	
663.75	1.077940489	-0.7350868689	
664.375	-0.6535770062	-0.7535874155	
665.0	-0.1322476	-0.3243481636	
665.625	-0.9639939013	-0.1204931317	
666.25	-0.1859968643	0.9527447198	
666.875	0.07655246195	0.1240594971	
667.5	0.5506011393	0.5261322912	
668.125	0.4167506113	-0.3164435669	
668.75	0.5425466085	0.08236041867	
669.375	0.1822511895	-0.9367179795	
670.0	-0.03571111803	-0.1912994076	
670.625	0.2462687309	-0.4794460434	
671.25	0.1144723344	-0.6250545658	
671.875	-0.01903958768	-0.4221878598	
672.5	0.6256483746	0.1129360661	
673.125	0.7041623132	-0.8170569955	
673.75	0.008450041616	-0.3096946521	
674.375	0.6356474411	-0.5411909346	
675.0	-0.7966324628	-0.7585888876	
675.625	0.2269249432	-0.113869385	
676.25	-0.9077460597	-0.4546916281	
676.875	-0.2343133107	0.5468030593	
677.5	-0.1882259753	-0.5234273186	
678.125	-0.6168200049	0.7957028944	
678.75	0.2538330477	0.1999172239	
679.375	0.2169252601	0.4282057228	
680.0	0.7506743045	-0.4058161628	
680.625	-0.3467852514	-0.03258464812	
681.25	0.6513849997	0.06055996339	
681.875	0.2657777077	-0.1914334502	
682.5	0.1630705513	0.3421069296	
683.125	0.7830969263	0.4080367999	
683.75	0.7989621635	-0.1008330694	
684.375	0.233853866	-0.004245977399	
685.0	0.7658515801	0.6762034912	
685.625	1.083198361	-0.659639632	
686.25	-0.1026802301	0.5668225888	
686.875	1.610333253	-0.913447331	
687.5	-0.2078447085	-0.3403197203	
688.125	0.9082414421	-1.236582208	
688.75	-1.958701899	-0.2444030021	
689.375	-0.03510026157	-0.04076740604	
690.0	-0.1618232811	1.611112133	
690.625	0.77917532	0.2452537883	
691.25	0.3617191571	0.7183421739	
691.875	1.336173909	0.9470853125	
692.5	1.158903507	0.2979096584	
693.125	1.624878705	0.1598312127	
693.75	1.398755786	-0.7238634354	
694.375	0.9332979182	-0.6893108326	
695.0	1.139465837	-0.8169327546	
695.625	1.017409052	-0.008446467826	
696.25	1.743004741	0.2680578862	
696.875	0.5059945222	0.4002992668	
697.5	0.7938286135	2.143253777	
698.125	1.682369078	-0.3984803361	
698.75	1.304105996	0.1016026455	
699.375	-1.501587442	-1.61532936	
700.0	0.0909549522	0.6559653667	
700.625	-0.2871747036	1.4575494	
701.25	0.7315963447	-0.1369992341	
701.875	0.1039642093	0.8810826662	
702.5	1.413485577	0.5451308772	
703.125	0.387479276	0.2832086061	
703.75	1.380030349	-0.1073701588	
704.375	0.2621328639	-0.7541525786	
705.0	0.8447704296	0.3603937599	
705.625	0.8241079052	-0.6487762924	
706.25	0.01470383525	0.5092762036	
706.875	1.158243702	1.317129923	
707.5	0.4950052379	-0.01080463765	
708.125	1.18936395	1.086204862	
708.75	0.7087447603	-1.429170298	
709.375	-0.2983676689	-0.4160224895	
710.0	-0.8457831093	0.4252548492	
710.625	0.4093828477	0.3193688721	
711.25	0.06785866584	0.4204209394	
711.875	0.5520781069	0.1972921116	
712.5	0.8272990828	0.06777521572	
713.125	0.5739708324	-0.4500699146	
713.75	0.4087534101	-0.4105699912	
714.375	-0.008899047488	-0.851638676	
715.0	-0.2346928947	-0.04994081676	
715.625	0.6615678155	-0.8994096066	
716.25	-0.4578537898	-0.8993525466	
716.875	0.8542836378	0.5082796216	
717.5	2.587749597	-0.356711427	
718.125	0.01683494016	-1.108895723	
718.75	3.556413086	1.593113232	
719.375	1.327859899	-2.894396871	
720.0	1.028140606	-0.2665627305	
720.625	1.995546443	-4.008001346	
721.25	-1.535109569	-2.413014406	
721.875	0.4663712529	-1.754806654	
722.5	-1.663389866	-2.808151491	
723.125	-2.223155085	0.1608158982	
723.75	-0.8571802777	0.4544412736	
724.375	0.06934191924	1.688914063	
725.0	0.4284428699	0.4183795973	
725.625	0.1186171007	1.212481562	
726.25	0.2496723065	2.166507582	
726.875	1.111714241	2.004209933	
727.5	-1.858126188	1.503038135	
728.125	-0.7426213066	7.829189761	
728.75	2.631319327	7.34365043	
729.375	-5.023354448	0.540973003	
730.0	0.514105418	21.5299926	
730.625	4.566923958	1.495737064	
731.25	-12.68295286	10.15820848	
731.875	-1.356002449	16.95360472	
732.5	-4.672380603	-7.111683765	
733.125	-11.08656043	2.196782799	
733.75	-1.101782911	3.805565119	
734.375	1.449457303	0.2535141447	
735.0	1.362157827	-1.376485832	
735.625	-1.789139241	1.096380937	
736.25	-0.3850072288	0.3202764617	
736.875	1.092463087	2.041670696	
737.5	3.274344235	-0.6513446748	
738.125	2.215196752	1.144581427	
738.75	6.810677936	-5.217051597	
739.375	2.900960742	-7.599404323	
740.0	-0.06966428696	4.434187978	
740.625	22.86539741	7.170283287	
741.25	22.82219062	-25.23799112	
741.875	-16.96240813	-8.587493314	
742.5	-15.48970754	-3.219504871	
743.125	-1.745073622	1.346141055	
743.75	3.717962966	-4.788352324	
744.375	-1.730827465	1.046275181	
745.0	-0.3007432753	-0.1238971738	
745.625	0.4453674501	-0.2022529009	
746.25	0.03937129382	-0.01257675993	
746.875	-1.051658317	-0.1898553717	
747.5	-0.2683886364	1.251840631	
748.125	0.2886556752	1.26972959	
748.75	0.3865564082	1.332181796	
749.375	0.3576750055	2.36307855	
750.0	-0.4225453708	-0.6470691481	
