!Created with skrf (http://scikit-rf.org).
# GHz S RI R (50+0j) 
!freq	ReS11	ImS11	
500.0	-0.3247319142	-0.5345573513	
500.625	0.5103183475	-0.8083859433	
501.25	-0.6850675575	-0.4323340065	
501.875	-0.05276584371	-0.234986585	
502.5	-0.02972009034	-0.1731649891	
503.125	-0.04066083414	0.04536797012	
503.75	-0.03253467748	0.04564069488	
504.375	0.04466620506	-0.01744302111	
505.0	0.001345868033	0.01986543235	
505.625	0.007962291993	-0.08374806648	
506.25	-0.02302498841	0.05992350701	
506.875	-0.1750853518	-0.1659248108	
507.5	-0.3399379465	-0.04708030153	
508.125	0.3957230963	-0.3438709449	
508.75	0.7090951711	-1.017693029	
509.375	-0.4533172701	-0.9167893262	
510.0	-0.2359132998	-0.1810657266	
510.625	-0.1479644835	-0.262524244	
511.25	-0.04576299955	0.01836356149	
511.875	-0.10845907	-0.07272083446	
512.5	-0.0148196785	0.04110910986	
513.125	0.000719201204	-0.0177031116	
513.75	-0.04351929707	-0.08396889714	
514.375	-0.0975829345	0.0723842266	
515.0	0.2059161789	-0.09886622158	
515.625	-0.4522926144	0.1524341129	
516.25	0.222221868	-0.232687562	
516.875	-0.2539753823	-0.6186085086	
517.5	-0.119468148	-0.01407900224	
518.125	-0.05394410193	-0.09035097331	
518.75	-0.1219222324	-0.03060292243	
519.375	-0.05570772449	0.01341047376	
520.0	0.1010234047	0.06984393019	
520.625	0.09018676879	-0.04409925009	
521.25	-0.05650539153	-0.1256364164	
521.875	-0.09232233933	-0.1067216113	
522.5	-0.06284017373	0.1000415402	
523.125	0.01974668272	-0.008023964686	
523.75	-0.1796372319	0.03699401127	
524.375	0.002537548364	0.04727425503	
525.0	-0.1626835302	0.09971810612	
525.625	0.123314201	0.07406678283	
526.25	-0.09095516982	-0.03852128862	
526.875	0.022765513	0.06036628263	
527.5	-0.04403006293	0.05028105852	
528.125	0.08788018183	0.2780175463	
528.75	0.1533027661	0.144200612	
529.375	0.02530933573	0.07361350936	
530.0	0.0547513687	0.0799587011	
530.625	0.007059288631	0.1407947496	
531.25	0.4261950604	0.2264079711	
531.875	0.2727174096	-0.1720484159	
532.5	-0.07637573273	0.01888220313	
533.125	0.1505551912	-0.1639972492	
533.75	0.03926561626	-0.04462470022	
534.375	0.03397433124	-0.3097810139	
535.0	-0.2249522041	0.007188571587	
535.625	-0.08621916262	0.03920412645	
536.25	-0.007449599072	0.1117616484	
536.875	0.07690326495	-0.03271450152	
537.5	0.05729664637	0.00334511329	
538.125	0.1231615673	-0.1100325411	
538.75	0.04208171552	-0.07818132173	
539.375	-0.0408810158	-0.1610037098	
540.0	-0.2190950232	-0.1105949245	
540.625	-0.07160348886	-0.0009726411432	
541.25	-0.1167679166	-0.0390071153	
541.875	-0.0474599834	0.02727992976	
542.5	0.006776850678	-0.03427180902	
543.125	-0.1267681732	-0.02583305176	
543.75	-0.01844208209	0.01540886234	
544.375	-0.09765019304	-0.02106422581	
545.0	0.04744798046	0.04940437795	
545.625	-0.05552327866	0.03850778612	
546.25	0.1479552479	0.03472659793	
546.875	0.04456935512	-0.02891085397	
547.5	0.1081486265	-0.1104771844	
548.125	-0.1004588012	-0.1413735328	
548.75	-0.06568924642	-0.06501773382	
549.375	-0.09123187941	-0.1126879732	
550.0	-0.07819002061	0.05201743602	
550.625	-0.01928707409	-0.02170981329	
551.25	-0.08890609324	0.05528270129	
551.875	-0.0318709669	0.05654362626	
552.5	-0.05783428438	0.06986828853	
553.125	0.008070690098	0.05706624621	
553.75	0.03403616456	0.04542674108	
554.375	0.09145847473	-0.009598551987	
555.0	0.07728548707	-0.06394415049	
555.625	0.07613577816	-0.09171680684	
556.25	0.05389500679	-0.1311785027	
556.875	-0.04084699465	-0.1375231052	
557.5	-0.08886888043	-0.08555798676	
558.125	-0.1087548584	-0.03515709504	
558.75	-0.1017836326	0.008514388556	
559.375	-0.08922759481	0.02104065111	
560.0	-0.09546990665	0.07408474407	
560.625	-0.02064146397	0.1120985269	
561.25	-0.003386600059	0.06904208531	
561.875	0.04372527781	0.06644178644	
562.5	0.001775842976	0.01651364141	
563.125	0.07091831694	0.1021281909	
563.75	0.1269254538	-0.04201281926	
564.375	0.08970647684	-0.0530946059	
565.0	0.08676051687	-0.1688651591	
565.625	-0.09071871387	-0.1154829243	
566.25	-0.0631406972	-0.1072401257	
566.875	-0.1773892137	-0.06022860663	
567.5	-0.09517843702	-0.02786193665	
568.125	-0.09343690072	-0.2136337532	
568.75	-0.2502966399	-0.005524295795	
569.375	-0.1322070537	0.06531029652	
570.0	-0.1999528503	0.2055607877	
570.625	0.07177334638	0.1932387498	
571.25	-0.04408751096	0.03674285585	
571.875	0.1189414713	0.09917173054	
572.5	0.02507519157	-0.03107525972	
573.125	0.1772861563	-0.0634813381	
573.75	-0.007235261116	-0.1780946387	
574.375	-0.01804488086	0.01784350925	
575.0	0.08484709146	-0.09863626763	
575.625	-0.04066455558	-0.006827829321	
576.25	0.1117008858	-0.08873417003	
576.875	-0.06635716027	-0.182016298	
577.5	-0.02622062905	-0.06799123241	
578.125	0.05800628429	-0.1576349826	
578.75	-0.1645440433	-0.1576525533	
579.375	-0.04968227366	0.02699860145	
580.0	-0.005505024004	-0.135262546	
580.625	-0.1043040234	0.1159237434	
581.25	-0.05926839721	-0.04173061165	
581.875	-0.01350711352	0.2511581127	
582.5	0.148425433	0.0146092335	
583.125	-0.04469072571	0.06949198001	
583.75	0.1580855556	0.01410458119	
584.375	-0.06897857436	0.01545037832	
585.0	0.1840227174	0.1041986768	
585.625	0.1153836097	-0.09879837702	
586.25	0.07606479198	0.008568008268	
586.875	0.1339234718	-0.1673670491	
587.5	-0.08839129916	-0.07979757888	
588.125	0.05369642684	-0.09855109181	
588.75	0.001640861707	-0.2017879517	
589.375	-0.009994151751	-0.08156263612	
590.0	0.01874565766	-0.2112174915	
590.625	-0.2198281841	0.03457824679	
591.25	-0.01724155125	0.03753647105	
591.875	-0.1242623767	0.1040303461	
592.5	0.106408798	0.08022654376	
593.125	-0.1163637384	0.001517400195	
593.75	0.1729948056	0.05848123511	
594.375	0.04743304692	0.02580289924	
595.0	0.2097649333	0.1847177038	
595.625	0.2261909465	-0.0001609964831	
596.25	0.07768892271	0.1263831914	
596.875	0.2165880856	0.04938282355	
597.5	0.1303731559	-0.01213423498	
598.125	0.07046947469	0.1165744188	
598.75	0.230046044	0.100341216	
599.375	0.1315974584	-0.09768639432	
600.0	0.1575993504	-0.09583971461	
600.625	0.1441576257	-0.2064565618	
601.25	-0.01576050597	-0.1808521785	
601.875	0.009635523527	-0.1095475331	
602.5	-0.2047108602	0.005681514259	
603.125	-0.009885634817	0.05329383619	
603.75	-0.1970301318	-0.0005456770902	
604.375	-0.08120667658	0.1823688759	
605.0	0.002760371372	-0.01357526187	
605.625	-0.1256737752	0.1639646256	
606.25	0.0176251821	0.05357959724	
606.875	-0.1736098229	-0.01343598149	
607.5	-0.1524639818	0.2697665166	
608.125	0.00664357254	0.1460267809	
608.75	0.2219743526	0.1688906653	
609.375	0.2674688747	-0.07965958809	
610.0	0.04660401129	-0.1258245601	
610.625	0.09452238078	-0.1122594403	
611.25	-0.0325965354	-0.1882029837	
611.875	-0.02410881647	-0.03250799704	
612.5	-0.1783272993	-0.1366433211	
613.125	-0.2015513202	0.1428429583	
613.75	-0.04954721144	0.02598928774	
614.375	0.01245308718	0.2115815135	
615.0	0.1035781933	-0.05806869872	
615.625	-0.1164713058	0.1056716352	
616.25	0.05938280992	0.2116408906	
616.875	-0.1169301733	0.09861768622	
617.5	-0.1479292994	0.2304262168	
618.125	0.05282075721	0.1973644471	
618.75	0.009428806148	0.05639057245	
619.375	0.1061557735	0.07998135745	
620.0	0.1664967945	-0.0291979294	
620.625	0.04312481345	-0.1559359566	
621.25	-0.07430474319	-0.2131378861	
621.875	-0.3527923918	-0.0770987512	
622.5	-0.1210663107	0.0186304434	
623.125	-0.084870948	0.2276659693	
623.75	0.1607055593	-0.03583315825	
624.375	-0.02804684455	0.04404140222	
625.0	0.04497705358	-0.1166781201	
625.625	0.03566027734	0.0004440944667	
626.25	-0.01660044934	-0.1886115891	
626.875	-0.185544551	-0.02394709765	
627.5	-0.04212040534	-0.03464013633	
628.125	-0.1556768713	-0.1268349555	
628.75	-0.08959074526	-0.07023053036	
629.375	-0.0401678792	-0.1305697353	
630.0	-0.1568394084	-0.1265458066	
630.625	-0.1428394768	0.1049153351	
631.25	-0.1383043143	0.1296887849	
631.875	-0.05046144237	0.2641533622	
632.5	0.161779113	0.1130225588	
633.125	0.1345462606	0.07146730167	
633.75	0.2511711671	-0.07378564753	
634.375	-0.01458457291	-0.08226701638	
635.0	0.119492855	-0.1367271968	
635.625	-0.2231698072	-0.05866843243	
636.25	-0.04909046765	0.0538903771	
636.875	-0.1569437942	0.07910798725	
637.5	0.04534028843	0.1465723407	
638.125	-0.08031439551	-0.01817164018	
638.75	-0.08379657768	0.2355690938	
639.375	0.1151528776	0.1681288666	
640.0	0.02339459054	0.2271189227	
640.625	0.2991250391	0.1846928166	
641.25	0.1922859772	-0.09683608725	
641.875	0.1246837323	-0.07406987782	
642.5	0.03273320293	-0.3014630384	
643.125	-0.1098737351	-0.0007643259832	
643.75	-0.06163775843	-0.1409258866	
644.375	-0.3405440865	0.07745637381	
645.0	0.04000831211	0.07553747097	
645.625	-0.1767540703	0.3170833676	
646.25	0.3073792251	0.01079094369	
646.875	-0.06431287962	-0.007131954063	
647.5	0.1860317136	0.06981264871	
648.125	-0.02400754956	-0.0909913495	
648.75	0.3152185819	0.08825638559	
649.375	0.1759418232	-0.3753082953	
650.0	0.02863106505	-0.1689529316	
650.625	0.274086577	-0.1824439747	
651.25	0.1506764758	-0.3908257907	
651.875	0.07828065827	-0.07124898276	
652.5	0.3815089242	0.01254772877	
653.125	0.2393393899	-0.2563774404	
653.75	0.0817172729	-0.1079147131	
654.375	0.05493602279	-0.3844968135	
655.0	-0.3248007589	0.02848579274	
655.625	0.01725103095	0.07821026232	
656.25	-0.09191371476	0.2213775448	
656.875	0.1695037741	-0.02089442694	
657.5	-0.1761284223	0.1646476444	
658.125	0.2875732516	0.1440120965	
658.75	0.1396222432	-0.0661500134	
659.375	0.3223655621	0.03092025153	
660.0	0.2206759461	-0.4766371267	
660.625	-0.01499360557	-0.2025869845	
661.25	0.2912543305	-0.253173514	
661.875	0.176945422	-0.3454682814	
662.5	0.07181356033	-0.143184731	
663.125	0.3702421757	-0.1121864356	
663.75	0.04387053824	-0.3579305419	
664.375	-0.02435150484	-0.1783666369	
665.0	-0.2416057295	-0.2843970128	
665.625	-0.3121600158	0.2039960931	
666.25	-0.04143918447	0.1508147081	
666.875	0.06320583074	0.2708028748	
667.5	0.222985855	0.003996947243	
668.125	0.04194615485	0.05596385338	
668.75	0.2980447327	-0.1736687713	
669.375	-0.02228185195	-0.2042511197	
670.0	0.08898227887	-0.1204456489	
670.625	0.003634028495	-0.3420698741	
671.25	-0.07803278596	-0.09880512566	
671.875	0.2357552447	-0.08928760886	
672.5	0.1138756363	-0.2822634151	
673.125	0.09998647748	-0.08584639273	
673.75	0.2247969101	-0.1551001733	
674.375	-0.03041096542	-0.3410604996	
675.0	-0.0708992409	-0.08809331071	
675.625	-0.1722537167	-0.2270821336	
676.25	-0.2503044285	0.0518200198	
676.875	-0.01077254354	0.01553560636	
677.5	-0.2534804784	-0.0199897819	
678.125	-0.0209130633	0.1911451221	
678.75	-0.03933102828	0.1105212284	
679.375	0.2615799593	0.1737147482	
680.0	0.06277671397	-0.2721150452	
680.625	0.05317863673	0.1000427672	
681.25	0.2764681846	-0.2024226068	
681.875	-0.02969806517	-0.07649966129	
682.5	0.1306836518	0.2547936845	
683.125	0.4129232021	-0.1174915658	
683.75	-0.05890960337	0.1125339043	
684.375	0.3401351609	0.1637911685	
685.0	0.3494925286	-0.0965962683	
685.625	0.0957958956	0.09180769091	
686.25	0.445552913	-0.008493285813	
686.875	0.1583338649	-0.2029968595	
687.5	0.2019809363	-0.1395525058	
688.125	-0.01789572021	-0.5140359794	
688.75	-0.4532162403	0.0266922976	
689.375	-0.2206292215	0.1808572661	
690.0	0.08924234422	0.4624078812	
690.625	0.3072912594	0.08094617482	
691.25	0.1123177951	0.2958761536	
691.875	0.6963976445	0.3085623179	
692.5	0.4013353203	-0.01967985676	
693.125	0.5492800915	0.1228033045	
693.75	0.6480078834	-0.4732442175	
694.375	0.0949632086	-0.250196616	
695.0	0.6502335924	-0.2228825544	
695.625	0.5021454485	-0.292863078	
696.25	0.3126384502	0.1372176273	
696.875	0.2346462441	0.4664244387	
697.5	0.3692609882	0.2823872373	
698.125	0.3362102392	0.1257088774	
698.75	0.4556831321	-0.343099692	
699.375	-0.4379635255	-0.3587295212	
700.0	-0.09610863555	0.3452112613	
700.625	-0.007887217236	0.3655366262	
701.25	0.3600632678	0.1168793817	
701.875	0.09576090881	0.1541231538	
702.5	0.3208435607	0.3740791343	
703.125	0.464624852	-0.04758198438	
703.75	0.1945491487	-0.01823012008	
704.375	0.3912167003	-0.1762398406	
705.0	0.1086584229	-0.2185375543	
705.625	0.1946078658	0.1183402164	
706.25	0.3902417035	0.2078880993	
706.875	0.1365790368	0.2231392507	
707.5	0.1244445252	0.3478825359	
708.125	0.2667772966	0.1140573956	
708.75	0.1479268265	-0.3043270182	
709.375	-0.2323710858	-0.1393744411	
710.0	-0.2129891585	0.3012558344	
710.625	0.2500302803	0.1275927581	
711.25	0.001013718646	0.1661622612	
711.875	0.3954609982	0.06442408236	
712.5	0.1303199458	-0.003427074553	
713.125	0.3687324603	-0.09717855016	
713.75	0.06625871922	-0.3184311311	
714.375	-0.01274790171	-0.09407464841	
715.0	0.05651837755	-0.2764723897	
715.625	-0.09194310869	-0.1977958262	
716.25	0.148157896	-0.08807934787	
716.875	0.4306288904	-0.2299521077	
717.5	0.3294405448	-0.1816500644	
718.125	0.4652321063	0.2843645834	
718.75	0.7463443542	-0.04314279486	
719.375	0.3714821277	-0.435094009	
720.0	0.6912186335	-0.3849921518	
720.625	0.2218448769	-1.128312788	
721.25	-0.8942539709	-0.5521667534	
721.875	-0.01818253739	-0.8176674541	
722.5	-0.8484300723	-0.9341376521	
723.125	-0.4996539051	0.2044134647	
723.75	-0.6857208437	0.01402124325	
724.375	0.2081172728	0.5504003385	
725.0	0.08113024767	0.1483593034	
725.625	0.04489374312	0.567693127	
726.25	0.3263039889	0.643760263	
726.875	-0.07549821551	0.4630400806	
727.5	-0.3735731945	1.342200353	
728.125	0.4030861297	1.961426576	
728.75	0.149501792	1.309923669	
729.375	-1.931596099	3.138706656	
730.0	1.455832135	3.158195998	
730.625	-0.374825329	1.82555967	
731.25	-1.696643552	4.171306267	
731.875	-0.9978230159	3.960278882	
732.5	-2.254136306	-0.1807456548	
733.125	-2.519993976	0.299276041	
733.75	-0.2871885451	1.579550376	
734.375	0.05959060757	0.006558244364	
735.0	0.2702139024	-0.8305728096	
735.625	-0.2058523161	0.4360894894	
736.25	-0.2901068827	0.3201970251	
736.875	0.7376144325	0.7206715481	
737.5	0.6410741369	-0.3929641405	
738.125	1.117700499	0.3380729129	
738.75	2.131773349	-1.750997817	
739.375	0.2474720485	-1.933635332	
740.0	1.779781444	0.7689965683	
740.625	5.980905532	0.3302277448	
741.25	1.298474582	-2.877628613	
741.875	-5.81997031	-2.473458698	
742.5	-3.231946001	-1.87520387	
743.125	0.2714704217	-0.550967781	
743.75	0.3864035991	-1.165895211	
744.375	-0.5144316257	0.1364796216	
745.0	0.03339458935	-0.04649756373	
745.625	0.143199808	-0.01007448011	
746.25	-0.03875119682	0.01554024611	
746.875	-0.2312928487	-0.06940569432	
747.5	0.02366266453	0.4092194419	
748.125	0.1524156592	0.2963236278	
748.75	0.1352601625	0.4095812075	
749.375	0.2748360719	0.4495403618	
750.0	-0.1962648574	0.1347129073	
