!Created with skrf (http://scikit-rf.org).
# GHz S RI R (50+0j) 
!freq	ReS11	ImS11	
500.0	0.3971669141	-0.9193533953	
500.625	-0.2381649388	-0.924433221	
501.25	0.2342875058	-0.5726476702	
501.875	-0.4684503884	-0.4721942485	
502.5	-0.02210108863	-0.04480579061	
503.125	-0.08711532212	-0.03188746746	
503.75	0.06757278196	0.05944717798	
504.375	0.0100290034	0.02217544349	
505.0	0.01414342919	-0.05357333959	
505.625	-0.00872569433	0.003554331851	
506.25	-0.06566961524	-0.1521396059	
506.875	0.01291250997	0.1705404288	
507.5	0.1507552154	-0.4796213748	
508.125	-0.1899106303	-0.6793061257	
508.75	0.2592704597	-0.385855934	
509.375	0.1168877391	-1.24017789	
510.0	-0.5005616138	-0.1523855525	
510.625	-0.06951702326	-0.06491743902	
511.25	-0.08286477358	-0.07598635947	
511.875	-0.1029221653	0.03151972744	
512.5	-0.03652022249	-0.001039884427	
513.125	-0.01786901983	-0.08857980809	
513.75	-0.03982844538	0.01980829443	
514.375	-0.02382801479	-0.07851168813	
515.0	-0.1327945325	0.1370482464	
515.625	0.1778447492	-0.8763536438	
516.25	-0.6969457319	-0.3576074053	
516.875	-0.04903180037	-0.1062597561	
517.5	-0.0166528654	-0.2432985026	
518.125	0.005535242607	0.03755189611	
518.75	-0.0008435830667	-0.158807836	
519.375	-0.03245325328	0.04665693818	
520.0	0.07720495629	0.02100520757	
520.625	0.130878411	-0.07703544912	
521.25	-0.02865002339	-0.2602099471	
521.875	-0.1080671228	0.05628292896	
522.5	-0.03450896736	-0.03695577737	
523.125	-0.1243849145	0.08671310355	
523.75	0.01740761124	-0.04772072655	
524.375	-0.2641733129	0.004026487193	
525.0	0.09416483107	0.1278263949	
525.625	-0.04691572908	0.0285550199	
526.25	0.06056986557	0.003378664009	
526.875	-0.1042339421	0.06940427163	
527.5	0.006923313367	0.2243126853	
528.125	-0.04663909778	0.1823563829	
528.75	-0.01332520217	0.2193652468	
529.375	0.002352868402	0.03446728115	
530.0	0.07517209673	0.1551644916	
530.625	0.1299153321	0.3235513718	
531.25	0.3045367973	-0.04779787991	
531.875	0.003032897686	-0.08836904294	
532.5	-0.01899118228	-0.2070300359	
533.125	-0.09629584973	0.1400279848	
533.75	0.1317533085	-0.2535634446	
534.375	-0.1690054729	-0.1242811242	
535.0	-0.1568242262	-0.1387181564	
535.625	-0.1848307178	0.1585360453	
536.25	0.01684946156	0.04656579048	
536.875	0.08413141356	0.04747192817	
537.5	0.05210216811	-0.06837926241	
538.125	0.06763499395	-0.004311404623	
538.75	0.1466730964	-0.1319987927	
539.375	-0.07272709293	-0.1406379284	
540.0	-0.09115925576	-0.1172657071	
540.625	-0.1687728916	-0.04764198409	
541.25	-0.07162097074	0.04868624828	
541.875	0.01848776497	-0.03536333604	
542.5	-0.1267311595	-0.07638895318	
543.125	0.004589232021	-0.02034170945	
543.75	-0.1300172997	-0.03565547866	
544.375	0.05032894917	0.08035189092	
545.0	-0.05253798151	0.05404583881	
545.625	0.1287963593	0.04390600556	
546.25	0.02008656323	0.01111489454	
546.875	0.1562001122	-0.01027326002	
547.5	0.00210038287	-0.1280122813	
548.125	0.01160432395	-0.1096037735	
548.75	-0.1352230324	-0.1431791292	
549.375	-0.1111200543	0.003211221218	
550.0	-0.05660927189	-0.03420122264	
550.625	-0.05990368489	0.04194547133	
551.25	-0.04733885892	0.0009722496265	
551.875	-0.09013242872	0.06437559617	
552.5	-0.01163748231	0.07380816261	
553.125	-0.02508747853	0.04142028264	
553.75	0.05577099787	0.03664325084	
554.375	0.06961146337	-0.005348811702	
555.0	0.08952279463	-0.0656454779	
555.625	0.06451542734	-0.1063264828	
556.25	0.04848354161	-0.1230652343	
556.875	-0.03762419587	-0.1377255372	
557.5	-0.09651483594	-0.08666736088	
558.125	-0.1028232062	-0.02557173068	
558.75	-0.09507590629	-0.001658782421	
559.375	-0.1064936213	0.02475100921	
560.0	-0.07342684909	0.07494849314	
560.625	-0.05615116874	0.0831953577	
561.25	0.01633411437	0.1122124098	
561.875	0.02337373442	0.0117346864	
562.5	0.01384685914	0.07996806795	
563.125	0.06759544243	0.02350840935	
563.75	0.1134348764	0.03268540977	
564.375	0.1412259232	-0.1231415877	
565.0	0.01419667931	-0.1179820254	
565.625	0.0340354696	-0.1329931811	
566.25	-0.1754941074	-0.09547591438	
566.875	-0.06956988499	-0.04011021531	
567.5	-0.1390080499	-0.1714672243	
568.125	-0.2028058548	-0.0537749879	
568.75	-0.1201067608	-0.110957239	
569.375	-0.2817452208	0.1335944841	
570.0	0.004996838526	0.1692627683	
570.625	-0.1222752393	0.08981875752	
571.25	0.03485131522	0.1884780028	
571.875	-0.003407594839	-0.006004326058	
572.5	0.1915124681	0.04018480539	
573.125	-0.01347322514	-0.1668685165	
573.75	0.05395830563	-9.366342566e-05	
574.375	0.05458304911	-0.1442587124	
575.0	-0.04340773208	0.02279821724	
575.625	0.1125660093	-0.08864817752	
576.25	-0.02756430116	-0.1483578473	
576.875	0.005808521367	-0.03183193692	
577.5	0.06341412679	-0.2066952451	
578.125	-0.1719238257	-0.1468737935	
578.75	-0.002685581939	-0.01699235518	
579.375	-0.07170327564	-0.1588433368	
580.0	-0.1314966013	0.1081409749	
580.625	-0.008306921196	-0.1903033987	
581.25	-0.1072297878	0.1848756683	
581.875	0.05113577446	0.02687090444	
582.5	-0.06915188003	0.1840183289	
583.125	0.1763060282	0.1165518963	
583.75	-0.07855716398	-0.02892283963	
584.375	0.1178233066	0.1147190988	
585.0	0.05040318064	-0.04290826539	
585.625	0.1295363547	0.1014826003	
586.25	0.1900478136	-0.1329432859	
586.875	-0.01036963249	-0.07832329828	
587.5	0.05214332844	-0.1426411224	
588.125	-0.06884542634	-0.1810009456	
588.75	-0.01328422382	-0.03458379382	
589.375	0.160518405	-0.1705657049	
590.0	-0.1579087939	-0.1267685407	
590.625	-0.06710217158	-0.05935735668	
591.25	-0.2670585829	0.1268865836	
591.875	0.1102169126	0.1287173017	
592.5	-0.09386113669	-0.002254704614	
593.125	0.06495640029	0.08321814886	
593.75	-0.08362626836	0.1146602229	
594.375	0.2070496471	0.1593624349	
595.0	0.1328384984	-0.03292741292	
595.625	0.0716114237	0.1071821987	
596.25	0.21992678	0.0003780494678	
596.875	0.08566214449	-0.02694572614	
597.5	0.09007443967	0.1412522051	
598.125	0.2020698143	0.0767187416	
598.75	0.1024219721	0.02861911009	
599.375	0.2053669846	0.01460386521	
600.0	0.1717677772	-0.1610581549	
600.625	0.03961067458	-0.1395862635	
601.25	0.1474571671	-0.1209362985	
601.875	-0.154452268	-0.1585641155	
602.5	-0.01808052811	0.02476737617	
603.125	-0.1938238023	0.003895624693	
603.75	0.0377220052	0.1450914752	
604.375	-0.08144392357	-0.02981988893	
605.0	-0.1260219542	0.130765453	
605.625	0.02291269147	-0.08138148894	
606.25	-0.1919234833	0.07768049203	
606.875	-0.1237384149	0.1467126978	
607.5	-0.1287502846	0.1084704824	
608.125	-0.008083644169	0.2494980051	
608.75	0.1297741808	0.1231318083	
609.375	0.142850548	-0.02356477636	
610.0	0.2101664537	-0.07765012972	
610.625	0.116603898	-0.174267817	
611.25	-0.03478766503	-0.07499575583	
611.875	-0.08466438043	-0.1934518339	
612.5	-0.1697273934	0.04343476155	
613.125	-0.1041389155	-0.06609380283	
613.75	-0.1539464213	0.2010064215	
614.375	0.1169027192	-0.02468369211	
615.0	-0.04520552212	0.1299302296	
615.625	0.1005640273	0.06411997258	
616.25	-0.09424620311	0.08566029191	
616.875	-0.02101222663	0.2331705081	
617.5	0.004059141889	0.1603256482	
618.125	-0.0207782462	0.181190096	
618.75	0.009082452817	0.2116797453	
619.375	0.08425236847	0.2645108921	
620.0	0.1302436862	0.007308525758	
620.625	0.1868148248	-0.09178675479	
621.25	-0.1464040796	-0.114703275	
621.875	-0.02080075621	-0.03076109729	
622.5	-0.2709207817	0.03875347867	
623.125	0.05451383178	0.1600372019	
623.75	0.03796097972	0.06197174072	
624.375	0.1049660226	-0.1110102464	
625.0	-0.01126069792	0.03584606882	
625.625	0.09772258252	-0.1286346774	
626.25	-0.1096426021	-0.08834158893	
626.875	-0.06199203419	-0.08643566488	
627.5	-0.1906746803	-0.06004970648	
628.125	-0.09954291068	-0.01571960353	
628.75	-0.05164276058	-0.08762682682	
629.375	-0.09951668277	-0.1632063861	
630.0	-0.2634560122	-0.02486319553	
630.625	-0.161992466	0.02301678484	
631.25	-0.1787545714	0.2188337828	
631.875	0.09898684931	0.2210128343	
632.5	0.04478579081	0.1808917377	
633.125	0.2977633523	0.04513207602	
633.75	0.03992437823	-0.09018709481	
634.375	0.1265575362	-0.1109467934	
635.0	-0.1388705547	-0.1773228696	
635.625	-0.0404658556	-0.02324920877	
636.25	-0.2213116437	0.03527134485	
636.875	0.01251555211	0.2025115805	
637.5	-0.02842748416	-0.003404227602	
638.125	-0.1131950867	0.1618528307	
638.75	0.04152687612	0.09530801857	
639.375	-0.0858434833	0.2198224605	
640.0	0.2158215997	0.2495378534	
640.625	0.2185574485	0.03506122225	
641.25	0.199431369	0.06484760966	
641.875	0.2453070192	-0.270063372	
642.5	-0.1598165106	-0.140420704	
643.125	0.00440087976	-0.1541916009	
643.75	-0.2956301663	-0.08489999742	
644.375	0.1074102771	0.06620154644	
645.0	-0.3311953916	0.1516206455	
645.625	0.3169969235	0.1816847367	
646.25	-0.02858703177	0.008836421174	
646.875	0.2418123211	0.06482552497	
647.5	-0.08453748346	-0.09968384083	
648.125	0.2609310647	0.2128001561	
648.75	0.2406688603	-0.2403219036	
649.375	0.07497739154	-0.1388369816	
650.0	0.291604399	-0.2138460133	
650.625	0.03345606641	-0.4568493881	
651.25	0.05314581499	-0.08188553406	
651.875	0.3528798939	-0.1298548634	
652.5	0.2386235317	-0.2508018557	
653.125	0.1000201376	-0.00984702534	
653.75	0.292241201	-0.2654023471	
654.375	-0.2472667664	-0.255625979	
655.0	-0.1050015967	-0.05033059128	
655.625	-0.4142648907	0.127009038	
656.25	0.2576401184	0.1614263562	
656.875	-0.1049481143	0.0249289742	
657.5	0.2464669449	0.178568166	
658.125	0.03814737327	-0.02608336424	
658.75	0.3412172875	0.2776040412	
659.375	0.2736853062	-0.3641766817	
660.0	0.09302738965	-0.1368401266	
660.625	0.2140050329	-0.2877243751	
661.25	0.07359410181	-0.4346947077	
661.875	0.03341906544	-0.10134693	
662.5	0.3753529041	-0.1787853649	
663.125	0.1500894894	-0.3116643818	
663.75	0.09459736208	-0.147340249	
664.375	0.0140052214	-0.3763214752	
665.0	-0.3432641996	-0.07426512737	
665.625	-0.1591298593	0.0378492412	
666.25	-0.1755177457	0.2868669329	
666.875	0.2439259127	0.1464468171	
667.5	0.01729719033	0.07801487958	
668.125	0.3701773463	-0.03349934406	
668.75	0.01617363412	-0.1858380103	
669.375	0.1409751589	-0.1078400745	
670.0	-0.04841514436	-0.3760792569	
670.625	-0.08990371668	0.03532554861	
671.25	0.1669054354	-0.1936255364	
671.875	0.05915425113	-0.2442747725	
672.5	0.07111163586	-0.07473739313	
673.125	0.2994154101	-0.1146298624	
673.75	0.03841800761	-0.3266520405	
674.375	0.02178532203	-0.1235139484	
675.0	-0.0412780649	-0.2753200235	
675.625	-0.2760171884	-0.01948355116	
676.25	-0.02630698137	-0.01682743955	
676.875	-0.2412690405	-0.0370044135	
677.5	-0.08202165815	0.1448856703	
678.125	-0.09151861493	0.007509280444	
678.75	0.009734380508	0.3564737094	
679.375	0.2320369254	-0.1550518615	
680.0	0.04099095668	0.1468828152	
680.625	0.1936049343	-0.19239269	
681.25	-0.2375642253	-0.01280297454	
681.875	0.2951757088	0.2730546943	
682.5	0.2689857168	-0.1272523057	
683.125	0.04954513733	0.1640761352	
683.75	0.4049727489	0.1509135212	
684.375	0.3012392019	-0.1680464893	
685.0	0.07008860635	0.1237523394	
685.625	0.4045893405	-0.06597508814	
686.25	0.2324487262	-0.1766729159	
686.875	0.2040254663	-0.04545741235	
687.5	0.329636192	-0.394545772	
688.125	-0.1238920595	-0.2841668411	
688.75	-0.2595266928	-0.2022821574	
689.375	-0.3168405034	0.3404995981	
690.0	0.2789065008	0.2006416824	
690.625	0.005108020917	0.2783727985	
691.25	0.533746887	0.2239940199	
691.875	0.1994457014	-0.005784239715	
692.5	0.517482597	0.3747580562	
693.125	0.7585496887	-0.1956788239	
693.75	0.2299161839	0.0008826787673	
694.375	0.5686239483	-0.4349999583	
695.0	0.1810876287	-0.3984838635	
695.625	0.3133256767	-0.04201129456	
696.25	0.5426221967	0.1866421636	
696.875	0.4667044731	0.1946073954	
697.5	0.4356693725	0.3968649147	
698.125	0.5011259679	0.2070705065	
698.75	0.3444826515	-0.5626449077	
699.375	-0.312360804	-0.1173877175	
700.0	-0.2222071114	0.1440509965	
700.625	0.2845275585	0.2911546069	
701.25	0.074608859	0.0442024783	
701.875	0.2892397901	0.3362038897	
702.5	0.4003229955	-0.07078057687	
703.125	0.2321395525	0.1414760358	
703.75	0.4613264834	-0.09197524416	
704.375	0.1208854423	-0.2585310183	
705.0	0.2596362757	-0.02565001497	
705.625	0.2122191013	-0.09179008326	
706.25	0.1802773017	0.09215670647	
706.875	0.3449240024	0.2154373405	
707.5	0.3295627683	0.3057833192	
708.125	0.6202416667	0.09348468453	
708.75	0.1501745577	-0.2781920736	
709.375	-0.1898459978	-0.3690203133	
710.0	-0.02781532638	0.2667586633	
710.625	-0.06596913152	-0.04617994655	
711.25	0.2416993131	0.1382470863	
711.875	-0.01297804307	-0.02458005501	
712.5	0.3554817952	0.01679468556	
713.125	0.1731333879	-0.3136373285	
713.75	0.04234889861	-0.1326462243	
714.375	0.07048939956	-0.2772457013	
715.0	-0.1371131689	-0.1779733087	
715.625	0.02657502902	-0.1059532318	
716.25	0.1932322617	-0.2765476918	
716.875	0.185560402	-0.2428453989	
717.5	0.3214846715	-0.06650509599	
718.125	0.7085039033	0.004435585865	
718.75	0.859251	-0.4235046036	
719.375	0.3905552769	-0.2779260885	
720.0	0.5239469923	-1.005816268	
720.625	-0.4896340443	-0.6897582867	
721.25	0.4713084691	-0.5486511954	
721.875	-0.5148877291	-1.153388534	
722.5	-0.6899896415	0.09879420252	
723.125	-0.6294131671	-0.3535496263	
723.75	-0.2730698585	0.7880468347	
724.375	0.1584706083	0.1962794559	
725.0	0.0467233571	0.4054809745	
725.625	0.4000557496	0.4239755798	
726.25	0.03055770077	0.3020180972	
726.875	-0.1906511567	0.933638506	
727.5	0.2978753881	1.33503394	
728.125	0.3281316837	0.9331429224	
728.75	-0.676894057	2.447479219	
729.375	0.4244023123	3.979667017	
730.0	0.927978072	2.06439368	
730.625	-1.022322852	3.668192193	
731.25	0.8193875376	4.766713329	
731.875	-0.1390091949	0.4021742468	
732.5	-3.769345123	0.7258476388	
733.125	-1.902900049	1.951020091	
733.75	-0.2118581432	0.1786351232	
734.375	1.358985586	0.9911954301	
735.0	-0.5511116449	-0.4048110753	
735.625	-0.2586836118	-0.1224999949	
736.25	-0.06442995635	0.7308959045	
736.875	0.611163209	-0.003547967504	
737.5	0.5097958053	0.5600055765	
738.125	1.733775653	-0.7223388643	
738.75	0.5507534571	-1.459103598	
739.375	0.9083509588	0.1973961954	
740.0	4.815926696	-1.934529921	
740.625	0.5174319167	-3.357935201	
741.25	-2.929473997	2.694910186	
741.875	-3.911431246	2.471877023	
742.5	-0.233484738	0.5054841236	
743.125	1.22178945	-1.906607135	
743.75	-0.6522436311	-1.182462807	
744.375	-0.0983189772	0.1824650281	
745.0	-0.1511731211	0.3054716319	
745.625	-0.08110774927	-0.09823610032	
746.25	0.06213708285	-0.1527308299	
746.875	-0.2479898816	0.1102155174	
747.5	0.03895831141	0.1817771964	
748.125	0.003264953953	0.4018513709	
748.75	0.3637260834	0.4028758303	
749.375	0.1211534468	0.3070519898	
750.0	-0.3558517715	0.2423945983	
