!Created with skrf (http://scikit-rf.org).
# GHz S RI R (50+0j) 
!freq	ReS11	ImS11	
500.0	-2.186817487	-3.442581051	
500.625	0.8612977519	-1.653846205	
501.25	-2.42694938	-2.518338113	
501.875	-1.851427799	-1.10070176	
502.5	-0.195813518	-0.01652157085	
503.125	-0.3024422098	-0.07398876858	
503.75	0.3512187129	0.1833367487	
504.375	0.05336457972	0.1081707939	
505.0	-0.01946281616	-0.2083486032	
505.625	0.2237401486	0.002523076644	
506.25	-0.6773657649	-0.2556765117	
506.875	0.5893794985	-0.4974535804	
507.5	-0.3632925844	-2.058542571	
508.125	-1.459144344	-1.996524351	
508.75	1.49114315	-0.8062502959	
509.375	-1.18859003	-5.485645588	
510.0	-1.273622365	0.4060608874	
510.625	-0.07043682697	-0.9426930751	
511.25	-0.4045663118	0.1646326049	
511.875	-0.3521441418	-0.4516377189	
512.5	-0.03983180278	0.1896940474	
513.125	-0.1399366518	-0.2719710177	
513.75	-0.09996323998	0.02431057701	
514.375	-0.2719200303	-0.4581365652	
515.0	-0.5265892899	1.085067892	
515.625	0.4921531139	-3.019219049	
516.25	-2.731725691	0.4754390884	
516.875	0.8518331165	-1.208712482	
517.5	-0.786756332	-0.9653078086	
518.125	0.3193776726	0.06241647723	
518.75	-0.743248716	-0.8091015837	
519.375	-0.02152229358	0.1351641102	
520.0	0.2784077998	0.3216986115	
520.625	0.5516117285	-0.3038105561	
521.25	-0.1841039879	-0.3734964089	
521.875	-0.3713515548	-0.2760544082	
522.5	-0.07712674449	0.1902743104	
523.125	-0.2889726217	-0.0008083912666	
523.75	-0.08177206763	0.1274056675	
524.375	-0.5999975074	-0.001685871092	
525.0	0.3034965135	0.2674648931	
525.625	-0.1304366238	0.135395143	
526.25	0.1888884379	-0.1227048741	
526.875	-0.3492045542	0.2413626934	
527.5	0.2548467763	0.4984766461	
528.125	-0.1972301513	0.5272965304	
528.75	0.2265224174	1.07232484	
529.375	-0.003025483069	-0.07654986074	
530.0	0.4640589322	0.5886190101	
530.625	-0.0498960955	0.5565267302	
531.25	1.62675001	0.2622137167	
531.875	0.007087459568	-0.3392200939	
532.5	0.1461411353	-0.6907695425	
533.125	-0.1568122244	0.2911703181	
533.75	0.4288755707	-1.063749225	
534.375	-0.4579407006	-0.2349145966	
535.0	-0.5665981672	-0.5843893937	
535.625	-0.32663206	0.6538898232	
536.25	-0.04056023755	0.1003134529	
536.875	0.3011066726	0.1270263418	
537.5	0.1204948415	-0.2146874746	
538.125	0.2658258535	0.05172529615	
538.75	0.333970596	-0.5076078622	
539.375	-0.1117772642	-0.2191215076	
540.0	-0.3765994694	-0.5438232718	
540.625	-0.465530474	0.1824049333	
541.25	-0.07133550831	-0.07733579862	
541.875	-0.1694368259	-0.0867963213	
542.5	-0.207677793	-0.05526878735	
543.125	-0.004152701566	-0.08420693678	
543.75	-0.4026385868	-0.08723270491	
544.375	0.1557250083	0.1140397152	
545.0	-0.1867183035	0.2374521073	
545.625	0.2737950216	-0.04167448894	
546.25	0.02088260047	0.3258469682	
546.875	0.4270647872	-0.3278604989	
547.5	0.06455035815	-0.04290405857	
548.125	0.04811889045	-0.5434148148	
548.75	-0.4817457099	-0.2239093993	
549.375	-0.1203749789	-0.03272654693	
550.0	-0.2974968638	-0.09471449438	
550.625	-0.01458808302	0.1166927291	
551.25	-0.2866792562	-0.03247589893	
551.875	-0.07437238691	0.2883904159	
552.5	-0.1437952197	0.08503394333	
553.125	-0.02035772594	0.2243818488	
553.75	0.1044445106	0.08227060586	
554.375	0.2237409652	0.02305558722	
555.0	0.2382020965	-0.1942669452	
555.625	0.1745869844	-0.2595461147	
556.25	0.1567291745	-0.3332684035	
556.875	-0.09553438992	-0.3965696065	
557.5	-0.2442202903	-0.2258579866	
558.125	-0.2579064814	-0.09227769835	
558.75	-0.278536201	-0.006387395432	
559.375	-0.2339038641	0.08837082159	
560.0	-0.2155615793	0.1324006039	
560.625	-0.1484742372	0.3031685715	
561.25	0.1056841155	0.2078474407	
561.875	-0.02780873836	0.1160924957	
562.5	0.1392634609	0.09272826674	
563.125	0.05846009691	0.2282076777	
563.75	0.4390031678	-0.08396011518	
564.375	0.118855627	-0.1668738545	
565.0	0.3429575492	-0.338755507	
565.625	-0.2252252321	-0.3989521685	
566.25	-0.1901699693	-0.1313622213	
566.875	-0.2744976002	-0.3073128001	
567.5	-0.5162833591	-0.2059799493	
568.125	-0.158913614	-0.2002714691	
568.75	-0.6814573776	-0.3602115108	
569.375	-0.4014467707	0.4280596485	
570.0	-0.3806767675	0.2347332481	
570.625	-0.1439611641	0.7222337554	
571.25	0.1606437778	-0.02265264462	
571.875	0.03460283799	0.5005685077	
572.5	0.2967886832	-0.3837924963	
573.125	0.1583947326	0.07044183576	
573.75	0.3518560633	-0.4800420346	
574.375	-0.2630706332	-0.1172838295	
575.0	0.3652937684	-0.03803924119	
575.625	-0.2131458578	-0.2707491426	
576.25	0.3228687705	0.01215374113	
576.875	-0.04769317135	-0.6148849413	
577.5	-0.2710619971	-0.2412497997	
578.125	0.1206471618	-0.2435634739	
578.75	-0.213170488	-0.5123966043	
579.375	-0.3926300755	0.02637629309	
580.0	0.1296162042	-0.1036345579	
580.625	-0.4356635506	-0.007132799059	
581.25	0.02896555497	0.03106079586	
581.875	-0.2909747775	0.4810722892	
582.5	0.4636225311	0.4194909791	
583.125	-0.00806433007	-0.1812106624	
583.75	0.1253968589	0.5015748307	
584.375	0.02049753004	-0.3812186708	
585.0	0.2121939451	0.5563612657	
585.625	0.5030556285	-0.3208714941	
586.25	0.04284067883	0.03358911081	
586.875	0.4460857031	-0.4774059304	
587.5	-0.3197327475	-0.1686747887	
588.125	0.2225486671	-0.2445602142	
588.75	0.08996392977	-0.6110508916	
589.375	-0.1408857544	-0.2355194773	
590.0	0.1428299645	-0.4311381524	
590.625	-0.6055315916	-0.1367297234	
591.25	-0.1527825715	0.3282844987	
591.875	-0.1543338234	0.1116647654	
592.5	0.06578694039	0.3036468848	
593.125	-0.2306109013	-0.0326531172	
593.75	0.3044403659	0.3255932217	
594.375	0.2498117287	0.05350170491	
595.0	0.1886198936	0.4724829612	
595.625	0.851767747	0.1937770243	
596.25	-0.03577825495	-0.154187072	
596.875	0.5326488858	0.4606620532	
597.5	0.5314839023	-0.07506970374	
598.125	0.03334532467	0.3608636438	
598.75	0.7394193371	0.1564215465	
599.375	0.2051024463	-0.07769299365	
600.0	0.6313809323	-0.2269873933	
600.625	0.1968123505	-0.6497084967	
601.25	0.02779212061	-0.2511068829	
601.875	-0.048755693	-0.4609590828	
602.5	-0.3523230908	0.02194817994	
603.125	-0.2473440937	0.1814143996	
603.75	-0.1526961996	0.04229359307	
604.375	-0.4181797717	0.1813660623	
605.0	0.0861212334	0.2110250482	
605.625	-0.3967073847	0.007159798764	
606.25	-0.1115643277	0.3595167803	
606.875	-0.3472070356	-0.09635609855	
607.5	-0.6080935346	0.8035577372	
608.125	0.1728908563	0.1984822549	
608.75	0.1742355142	0.7104677012	
609.375	0.7076137571	-0.490364215	
610.0	0.203228535	-0.006104623032	
610.625	0.3458077651	-0.5892526632	
611.25	-0.1677512609	-0.1455369569	
611.875	-0.04011989167	-0.5385796389	
612.5	-0.3933430871	0.2017701384	
613.125	-0.4013743195	-0.1651308383	
613.75	-0.2290625315	0.5161881315	
614.375	0.0294954184	-0.00658642741	
615.0	0.3240239762	0.3627089363	
615.625	-0.131975335	-0.09731305773	
616.25	-0.2258759526	0.5872982422	
616.875	0.1933648998	0.3327451264	
617.5	-0.4936301656	0.3985072898	
618.125	0.1523154316	0.723705069	
618.75	0.06297142345	0.1829049068	
619.375	0.1784732814	0.6085643116	
620.0	0.3924044491	-0.06759991945	
620.625	0.3585223455	-0.2629678052	
621.25	-0.3200704085	-0.392558295	
621.875	-0.3501586537	-0.2354515112	
622.5	-0.5904895434	0.3106284278	
623.125	-0.07019518583	0.269509472	
623.75	0.3622904683	0.2372534972	
624.375	-0.1379701172	-0.2139435481	
625.0	0.4741601491	0.002361881114	
625.625	-0.2806958186	-0.190010705	
626.25	0.2611711088	-0.3268976084	
626.875	-0.6228740163	-0.2642219552	
627.5	-0.158676573	0.1408007341	
628.125	-0.1642520762	-0.4345832837	
628.75	-0.3861035138	-0.1093210487	
629.375	0.01676332882	-0.3577616486	
630.0	-0.6104264893	-0.2908906128	
630.625	-0.2861066705	0.2931192364	
631.25	-0.4622915839	0.2426047306	
631.875	-0.03463608619	0.7495146382	
632.5	0.3808671244	0.3762924378	
633.125	0.4151865185	0.02094406035	
633.75	0.3989707782	0.06150688105	
634.375	0.004594776707	-0.5554223235	
635.0	0.1294308814	-0.1328548335	
635.625	-0.5132387646	-0.369164207	
636.25	-0.1132826231	0.2964874482	
636.875	-0.4944377174	0.1402546665	
637.5	0.1843357203	0.4406985493	
638.125	-0.2162441375	-0.1604471903	
638.75	-0.3854825103	0.787415867	
639.375	0.4712114326	0.3680120507	
640.0	-0.07083118988	0.4086579018	
640.625	0.700089035	0.6064620747	
641.25	0.6338627228	-0.3733629336	
641.875	0.3543235662	-0.03533912866	
642.5	-0.2278520475	-0.9410341401	
643.125	-0.05345128417	0.03078618583	
643.75	-0.3800232863	-0.5573965605	
644.375	-0.4580321261	0.4264370312	
645.0	-0.1222735421	-0.03772845253	
645.625	-0.1304731622	0.7502231404	
646.25	0.7081400445	0.1182189955	
646.875	-0.08664116565	-0.2338924597	
647.5	0.392871995	0.4653274089	
648.125	0.04113696971	-0.412978646	
648.75	0.8739239326	0.4261786301	
649.375	0.4492663423	-1.111352757	
650.0	-0.06214664381	-0.2289449887	
650.625	1.135253095	-0.5665612395	
651.25	-0.03100928054	-1.325978041	
651.875	0.1218631123	0.1911399007	
652.5	1.25944591	-0.07255089952	
653.125	0.378703328	-0.7567802068	
653.75	0.324079526	0.03140396545	
654.375	-0.1896587984	-1.194366766	
655.0	-0.6621211746	0.2275269679	
655.625	-0.3375743812	-0.0800076784	
656.25	-0.04344274142	0.9107780503	
656.875	0.2998672692	-0.3400340513	
657.5	-0.08824870763	0.5953522053	
658.125	0.5872180079	0.2634566105	
658.75	0.4337071923	-0.02200946125	
659.375	0.9361390787	0.1085554946	
660.0	0.3742141066	-1.163192613	
660.625	0.1569342174	-0.3588951278	
661.25	0.736920848	-0.6663904846	
661.875	0.250431708	-1.13588806	
662.5	0.1491268116	0.0576737921	
663.125	1.227803494	-0.4889366922	
663.75	-0.1092975169	-0.8839766343	
664.375	0.2112140905	-0.3749569709	
665.0	-0.897070662	-0.805775955	
665.625	-0.2957688412	0.4221503989	
666.25	-0.6074189922	0.4975751042	
666.875	0.5791980456	0.6046243032	
667.5	0.1816287178	-0.05797063342	
668.125	0.6563607018	0.3493709319	
668.75	0.4356145935	-0.6642337284	
669.375	0.03578368322	-0.3544241167	
670.0	0.2042754215	-0.4009209448	
670.625	-0.02077179229	-0.7032234739	
671.25	-0.04637762026	-0.1140595984	
671.875	0.5064845758	-0.4841913251	
672.5	0.3175025355	-0.5306082438	
673.125	0.3660168689	-0.1005941187	
673.75	0.7057873972	-0.7680994135	
674.375	-0.4116795451	-0.5756262489	
675.0	0.2571130841	-0.2363756873	
675.625	-0.6811764071	-0.7062353908	
676.25	-0.4587876151	0.5131733005	
676.875	-0.1214018781	-0.4726669436	
677.5	-0.5822158392	0.5557657238	
678.125	-0.1402244223	-0.0747423643	
678.75	-0.1737576924	0.9506787689	
679.375	0.6120389122	-0.3892172728	
680.0	0.2235741429	0.1907626125	
680.625	0.4612846466	-0.2684578703	
681.25	0.02601400662	-0.3831798831	
681.875	0.07706378764	0.4481845588	
682.5	0.7696472735	0.3336828661	
683.125	0.5784899568	-0.1031727371	
683.75	0.3008695072	0.07880620745	
684.375	0.935125327	0.4775580221	
685.0	0.5659492165	-0.598827586	
685.625	0.5841188517	0.5894397855	
686.25	1.104360165	-0.5167477542	
686.875	-0.06051540906	-0.2144502103	
687.5	1.545998908	-0.4699461406	
688.125	-1.148859916	-1.374375475	
688.75	0.007671507713	-0.4099107673	
689.375	-1.337135769	0.9844865905	
690.0	0.7255029291	0.4706226209	
690.625	-0.01615979276	0.9283624849	
691.25	1.231223024	0.3540312844	
691.875	0.6755106831	0.6285330728	
692.5	1.547725436	0.71290023	
693.125	1.634984968	-0.3009593775	
693.75	1.181946052	-0.4056224913	
694.375	0.9404728795	-1.056398384	
695.0	1.060039489	-0.5106068965	
695.625	1.443160681	-0.6179564107	
696.25	0.6539102096	0.2224137235	
696.875	1.301535453	1.494681242	
697.5	1.209641131	0.1872237738	
698.125	0.9982082759	1.141774648	
698.75	1.212110805	-1.78447044	
699.375	-0.4768600924	-0.09409577505	
700.0	-1.488744415	0.7638593225	
700.625	0.8943115725	0.4130450124	
701.25	-0.04475011044	0.6738824557	
701.875	1.162656119	0.4400709704	
702.5	0.4029021988	0.4400707048	
703.125	1.313633956	0.5080451101	
703.75	0.6306866253	-0.5209288357	
704.375	0.8649758012	-0.08649628152	
705.0	0.4392314902	-0.8446466011	
705.625	0.2635014452	0.2614901354	
706.25	1.364975301	0.6516365406	
706.875	0.2795345211	0.03924676108	
707.5	0.4853449047	1.248344795	
708.125	1.457034325	-0.09542176599	
708.75	0.5385773262	-0.4207846864	
709.375	-0.7999504149	-1.106750716	
710.0	-0.1373974133	0.6963648133	
710.625	-0.1146423903	0.4104447356	
711.25	0.4218115665	0.2422802431	
711.875	0.3441299277	0.2438742193	
712.5	0.8050219531	-0.02432034419	
713.125	0.562977896	-0.3107310952	
713.75	0.3833382798	-0.8937627646	
714.375	-0.2315153723	-0.2021278078	
715.0	0.306163325	-0.8097755001	
715.625	-0.5365285128	-0.3458434429	
716.25	0.745203442	-0.04902871476	
716.875	1.246226855	-1.32144101	
717.5	-0.1677545396	-0.01018342963	
718.125	2.762420423	0.9728318737	
718.75	2.095093223	-1.950823648	
719.375	0.537324712	0.8883806241	
720.0	2.965616855	-4.070933299	
720.625	-1.115264096	-1.91999799	
721.25	0.6113488018	-2.312813205	
721.875	-0.6431081898	-3.356362015	
722.5	-1.890193321	-0.7397941343	
723.125	-1.752001348	-1.129105008	
723.75	-0.9064671638	1.588695133	
724.375	0.2689343505	0.682895623	
725.0	0.1571637676	0.8817338921	
725.625	0.6545554656	1.540346019	
726.25	1.005137839	1.031280298	
726.875	-1.110667448	1.634203566	
727.5	0.04708072235	5.223405841	
728.125	3.143835989	2.8938271	
728.75	-6.759518489	7.949429636	
729.375	3.798424286	15.70131263	
730.0	1.507189533	1.391160404	
730.625	-8.597220457	19.72081048	
731.25	10.51230762	11.00027882	
731.875	-6.263168983	-3.150072523	
732.5	-12.89956189	4.161008322	
733.125	-6.203797893	3.874437767	
733.75	-0.4325093917	1.451115199	
734.375	3.020727641	2.351764813	
735.0	-0.7847966251	-0.8653940523	
735.625	-0.8797008993	-0.2834955656	
736.25	-0.1593210014	2.361341345	
736.875	1.110111773	-0.1510209643	
737.5	2.056156028	1.952833035	
738.125	5.237264562	-1.477843737	
738.75	3.392673448	-6.740128706	
739.375	-1.344717515	0.2784471394	
740.0	22.85209084	7.155169071	
740.625	3.439431543	-19.15180994	
741.25	-9.755293458	11.42937752	
741.875	-22.37827489	16.2851931	
742.5	17.99565849	-11.54806303	
743.125	0.2843368212	-15.7972308	
743.75	-2.64013311	-2.071144055	
744.375	0.2187842933	-0.3548163716	
745.0	-0.1537496447	0.7902664684	
745.625	-0.2103262621	-0.1746068464	
746.25	0.1436347671	-0.5509080066	
746.875	-0.6742523441	0.1805530998	
747.5	-0.01921146373	0.6015238829	
748.125	-0.2962312925	2.038508054	
748.75	1.257084685	0.6779785261	
749.375	0.27520419	0.7735271401	
750.0	-1.137248387	-1.266636691	
