!Created with skrf (http://scikit-rf.org).
# GHz S RI R (50+0j) 
!freq	ReS11	ImS11	
500.0	0.174141072	-1.870739361	
500.625	2.087099371	-2.510930702	
501.25	-1.818322057	-2.316396738	
501.875	-0.7547147483	0.1728662054	
502.5	-0.069091879	-0.735206858	
503.125	-0.1151134688	0.2261083547	
503.75	-0.1105844883	0.233737051	
504.375	0.09442766831	-0.1099715993	
505.0	0.07611407132	0.09577349776	
505.625	-0.1244568384	-0.3890992262	
506.25	0.026662739	0.2438746127	
506.875	-0.7856743367	-0.6773634282	
507.5	-1.677768823	-0.2961230696	
508.125	1.345346373	-0.8437314841	
508.75	1.113233847	-4.48299489	
509.375	-1.979499548	-1.219148701	
510.0	-1.242207652	-1.996231145	
510.625	-1.000397423	0.2643782341	
511.25	-0.1466505344	-0.2967585563	
511.875	-0.6291025599	-0.1143765897	
512.5	0.07406763901	0.2337684222	
513.125	-0.03100262921	-0.1625972242	
513.75	-0.1441574063	-0.3775153245	
514.375	-0.438757746	0.4017537448	
515.0	0.8317256562	-1.223789871	
515.625	-1.396863385	0.2715278612	
516.25	1.67260584	-2.563402991	
516.875	-2.485400619	-1.646316684	
517.5	0.04656301649	0.3590265267	
518.125	-0.2999932178	-0.4293652875	
518.75	0.04970139766	0.1489166145	
519.375	-0.3202408664	0.09605562442	
520.0	0.4791929481	0.01533883757	
520.625	0.2657573186	-0.1531459758	
521.25	0.2001079184	-1.046436435	
521.875	-0.4163783177	0.1690637034	
522.5	-0.1078204864	-0.01927120553	
523.125	-0.014706579	0.1191047939	
523.75	-0.4547497706	-0.2191536561	
524.375	-0.1056209196	0.3426879986	
525.0	-0.3379085755	0.1801430613	
525.625	0.2899081133	0.2519156861	
526.25	-0.2610137403	-0.02563561998	
526.875	0.06156062223	0.1497255144	
527.5	-0.4028288616	0.3098190389	
528.125	0.445753611	1.083697299	
528.75	0.09716413869	0.2093816073	
529.375	0.1821723111	0.3596737209	
530.0	-0.09281748234	0.1190490087	
530.625	0.6096598999	1.297996723	
531.25	0.7859892869	-0.05488781393	
531.875	0.807876872	-0.3411655156	
532.5	-0.4951034339	-0.1287340568	
533.125	0.4501358176	-0.2890823012	
533.75	-0.2203384102	-0.2254422995	
534.375	0.1626397969	-1.217100333	
535.0	-0.88008615	0.2155264179	
535.625	-0.2780783873	0.0980937439	
536.25	-0.05574160301	0.321852332	
536.875	0.2298753061	-0.1015238803	
537.5	0.234039896	0.01612163764	
538.125	0.2337141069	-0.3388559226	
538.75	0.2537194097	-0.09989968738	
539.375	-0.2005522247	-0.5842930898	
540.0	-0.4941973062	-0.08574778292	
540.625	-0.2711578411	-0.1458828601	
541.25	-0.245545352	-0.02410250963	
541.875	-0.1715289249	0.005530875082	
542.5	0.02270022178	-0.1014015183	
543.125	-0.3464982663	-0.1693065183	
543.75	-0.05200011649	0.08788414535	
544.375	-0.2645980679	0.08784534656	
545.0	0.1453003386	0.0823033185	
545.625	-0.04861732686	0.2775841301	
546.25	0.465433125	-0.105665735	
546.875	0.02961420521	0.07673660575	
547.5	0.397732926	-0.3898431962	
548.125	-0.3337388623	-0.3171206521	
548.75	-0.095464342	-0.246852705	
549.375	-0.3760823854	-0.2785043554	
550.0	-0.08609114073	0.1500451239	
550.625	-0.2259678171	-0.1051459593	
551.25	-0.07850440372	0.1944049145	
551.875	-0.2113580713	0.04639952613	
552.5	-0.1203893174	0.2810821789	
553.125	-0.001964104388	0.116762003	
553.75	0.1021084411	0.1422167281	
554.375	0.2408880309	-0.02875663106	
555.0	0.2166761639	-0.1544485113	
555.625	0.2123271632	-0.2644197167	
556.25	0.1356229816	-0.3461046419	
556.875	-0.08966854395	-0.3732694896	
557.5	-0.2356420233	-0.2514939568	
558.125	-0.2918929162	-0.08768718374	
558.75	-0.2391677006	0.01845698432	
559.375	-0.2524655684	0.01826798885	
560.0	-0.243396458	0.218408335	
560.625	-0.05649622323	0.2265074593	
561.25	-0.05238836393	0.2581969998	
561.875	0.1600317008	0.05862962589	
562.5	-0.08558979601	0.1581088041	
563.125	0.2862180139	0.114336656	
563.75	0.1625424651	0.02890500011	
564.375	0.4419498499	-0.2104893793	
565.0	0.05132716553	-0.4434245086	
565.625	-0.03267573554	-0.2341078058	
566.25	-0.2501551893	-0.3792911153	
566.875	-0.3964677364	-0.02318130812	
567.5	-0.1727408016	-0.2987156866	
568.125	-0.5098917525	-0.4451570946	
568.75	-0.3910030933	-0.02319294536	
569.375	-0.6867429988	0.04210007314	
570.0	-0.1995298932	0.7215563806	
570.625	0.06312988487	0.1697880518	
571.25	-0.3553138555	0.4284486609	
571.875	0.3851058823	-0.1019286585	
572.5	0.1937509659	0.3413188348	
573.125	0.2692783971	-0.5779732013	
573.75	-0.1731005293	-0.03809786565	
574.375	0.3710764872	-0.2485064904	
575.0	-0.2720608639	-0.1214410093	
575.625	0.3483967647	-0.04192173716	
576.25	0.07300982286	-0.5524471312	
576.875	-0.1765942239	-0.06041334172	
577.5	0.2754663742	-0.3710685486	
578.125	-0.2996350961	-0.5352571938	
578.75	-0.2020250976	-0.06437801091	
579.375	-0.04048982512	-0.3146749243	
580.0	-0.3623698606	-0.0001934974798	
580.625	0.1033706532	-0.1622531461	
581.25	-0.4807192997	0.2715744146	
581.875	0.3249370791	0.3456945039	
582.5	-0.1010217071	0.005436134141	
583.125	0.1473100287	0.6652150639	
583.75	0.1414162766	-0.4574691578	
584.375	0.05148765579	0.5619861263	
585.0	0.3590612232	-0.2954903414	
585.625	0.1684216303	0.4067299431	
586.25	0.6277544408	-0.4441153556	
586.875	-0.1090228129	-0.1478034519	
587.5	0.2494548497	-0.3145925774	
588.125	-0.2052417581	-0.5593431408	
588.75	-0.1448964533	-0.08195198585	
589.375	0.4393700087	-0.3288465251	
590.0	-0.2990215963	-0.4535846584	
590.625	-0.2437605062	-0.08593982717	
591.25	-0.4625486256	0.2273876175	
591.875	0.1171681335	0.293168132	
592.5	-0.1308084558	0.07868713353	
593.125	0.04976766742	0.1769228093	
593.75	0.004626931619	0.09759278555	
594.375	0.3121878512	0.5756229347	
595.0	0.8316570994	0.04063722224	
595.625	-0.05987809992	0.06527766281	
596.25	0.6278188601	0.4285227468	
596.875	0.2206707683	-0.3428026107	
597.5	0.1849873947	0.5532415317	
598.125	0.6702358382	0.03181660285	
598.75	0.04076545237	0.1943880607	
599.375	0.8357229225	0.0003094116394	
600.0	0.1779660399	-0.4750176149	
600.625	0.2569352422	-0.2048421178	
601.25	0.3180363733	-0.4679141584	
601.875	-0.2825616	-0.2963850586	
602.5	-0.2581510807	-0.04834903493	
603.125	-0.2551581218	0.07482653861	
603.75	-0.2806708252	0.2269587122	
604.375	-0.1147483561	0.1641775092	
605.0	-0.2632790504	0.1657608813	
605.625	-0.02061433927	0.2321380553	
606.25	-0.3487921598	-0.09523060161	
606.875	-0.4607822388	0.5775360014	
607.5	-0.1314010071	0.07096416355	
608.125	-0.45357755	0.8287482791	
608.75	0.6559988616	0.02085881974	
609.375	0.3967049843	0.317795003	
610.0	0.5674875513	-0.5128623697	
610.625	-0.06964484858	-0.1355958537	
611.25	0.2526563325	-0.6552001992	
611.875	-0.284266319	-0.01027983971	
612.5	-0.2842757571	-0.3470266024	
613.125	-0.5458432694	0.3401450112	
613.75	-0.2330083885	0.03932943037	
614.375	0.200989195	0.4323152882	
615.0	-0.08500726183	-0.1973881402	
615.625	0.1250622231	0.5428377696	
616.25	0.004909430703	0.03545810788	
616.875	-0.4718598675	0.5221536766	
617.5	0.1518699201	0.7071534719	
618.125	-0.1650671035	0.169869414	
618.75	0.08215070838	0.6906351167	
619.375	0.2485475703	0.1638190235	
620.0	0.4491430224	0.2771412905	
620.625	0.1348613769	-0.4330874226	
621.25	-0.0754129869	-0.4054914473	
621.875	-0.5504173015	-0.1781694144	
622.5	-0.3755836863	0.06899015933	
623.125	-0.1610304044	0.5738793946	
623.75	0.1989318053	-0.1142846358	
624.375	0.3854371674	0.05343746353	
625.0	-0.3144595388	-0.06483845294	
625.625	0.43183854	-0.1338118828	
626.25	-0.4493833863	-0.3938038211	
626.875	0.1022355665	-0.1097979751	
627.5	-0.6581306617	-0.2498481609	
628.125	-0.1783824038	0.1343310427	
628.75	0.0617911021	-0.5235772523	
629.375	-0.5468853169	-0.2502726372	
630.0	-0.1614886659	-0.2077521287	
630.625	-0.614179313	0.02741440544	
631.25	-0.3275797734	0.5871297394	
631.875	0.02203606405	0.5121010955	
632.5	0.2274614229	0.3913296322	
633.125	0.5841299505	0.1841558722	
633.75	0.2862894466	-0.2364347242	
634.375	0.2353218211	-0.2425172911	
635.0	-0.1881646703	-0.3914236916	
635.625	-0.105906249	-0.2183129057	
636.25	-0.5552157274	0.1732551954	
636.875	0.08813600123	0.3999791208	
637.5	-0.1667699259	-0.2019738589	
638.125	-0.2692056137	0.7183514182	
638.75	0.1412943797	0.009538297141	
639.375	-0.373919195	0.6492643739	
640.0	0.6610210407	0.6246235602	
640.625	0.3072887337	0.08252681455	
641.25	0.9254042813	0.3183363528	
641.875	0.08596852469	-0.6510789919	
642.5	0.2403606814	-0.2136664234	
643.125	-0.4081733212	-0.677662486	
643.75	-0.3289901141	0.3492056655	
644.375	-0.2940501022	-0.4274020616	
645.0	-0.4973759287	0.5408143364	
645.625	0.3618607162	0.4224401751	
646.25	-0.01455000499	0.08653029102	
646.875	0.7076521846	0.06377143433	
647.5	-0.3000615396	0.0002713285661	
648.125	0.6940291249	0.3071382053	
648.75	0.336051965	-0.6113406995	
649.375	0.5367002099	0.1677499876	
650.0	0.7846161595	-1.320362148	
650.625	-0.4138428067	-0.6451538904	
651.25	0.7666687501	0.1373416687	
651.875	1.005423672	-0.9782984896	
652.5	-0.04754358327	-0.3405948406	
653.125	0.9745908943	0.1422008221	
653.75	0.2755596655	-1.015504035	
654.375	-0.1005901738	-0.1827392501	
655.0	-0.6140174086	-0.7863183521	
655.625	-0.3369896331	0.933477834	
656.25	0.1029587189	-0.03202256332	
656.875	-0.05295430661	0.5061813363	
657.5	0.3206955694	-0.07127929674	
658.125	-0.05413969753	0.5908676661	
658.75	1.010258	0.06394220957	
659.375	0.4768107256	-0.3922530463	
660.0	0.5605241918	-0.321341994	
660.625	0.5882374695	-1.235810304	
661.25	-0.2878659052	-0.5928656243	
661.875	0.8150761088	-0.08279214811	
662.5	0.8761550831	-0.9200121549	
663.125	0.02907388085	-0.5107460332	
663.75	0.9130425106	-0.4144784305	
664.375	-0.6527278862	-0.8560923961	
665.0	-0.1274107816	-0.3648530088	
665.625	-1.160987155	0.1114599939	
666.25	0.1939943225	0.7468439967	
666.875	-0.0626344286	0.2704576696	
667.5	0.5668574205	0.4653613723	
668.125	0.5123171498	-0.3363061896	
668.75	0.281041262	-0.05746432087	
669.375	0.4548001379	-0.7049761718	
670.0	-0.2344550847	-0.3329448129	
670.625	0.2114300419	-0.4232553703	
671.25	0.01346472189	-0.6063121527	
671.875	0.1129364878	-0.1362741451	
672.5	0.7235962342	-0.3336806762	
673.125	0.4324305747	-0.7168476665	
673.75	-0.02475369823	-0.3335437131	
674.375	0.5356004771	-0.4201959695	
675.0	-0.5915052989	-0.9867456562	
675.625	0.007382014921	0.2373119953	
676.25	-0.8479880099	-0.473118326	
676.875	-0.1881515971	0.5437018234	
677.5	-0.3746194491	-0.5904597365	
678.125	-0.2530998537	0.9773713631	
678.75	-0.005677313983	-0.01259116839	
679.375	0.3504341789	0.488921269	
680.0	0.7014101305	-0.3913969643	
680.625	-0.3396706392	-0.2423082711	
681.25	0.4967489823	0.3020642691	
681.875	0.3880786099	-0.1323620944	
682.5	0.2704585015	0.1142289069	
683.125	0.63376933	0.4671481692	
683.75	0.6415807803	-0.1835875914	
684.375	0.4534703406	0.1710455996	
685.0	0.8185673416	0.3803711233	
685.625	0.810877387	-0.6218207752	
686.25	0.02501985334	0.5688006831	
686.875	1.668836083	-0.8065554937	
687.5	-0.434843753	-0.5549352743	
688.125	0.7393411636	-1.03783824	
688.75	-1.855672622	-0.3244128529	
689.375	0.02247949703	0.1173991381	
690.0	0.02478268846	1.699637356	
690.625	0.7059406754	-0.05938246598	
691.25	0.2828307451	0.9522305589	
691.875	1.502408684	0.7277837583	
692.5	1.064713548	0.2544274466	
693.125	1.472870037	0.0572928255	
693.75	1.344581067	-0.6041236939	
694.375	1.056333412	-0.850080766	
695.0	0.8569068617	-0.7979908105	
695.625	0.9353952514	0.09990158621	
696.25	1.670372117	0.1714389343	
696.875	0.5722220655	0.5662765807	
697.5	1.030662995	1.714123249	
698.125	1.49011892	-0.390943799	
698.75	1.198763615	-0.1330502391	
699.375	-1.599669897	-1.397610763	
700.0	0.1012006179	0.7857183689	
700.625	-0.2171655651	1.233993548	
701.25	0.7712642772	-0.09076587567	
701.875	0.1559007062	0.7485122805	
702.5	1.296731942	0.5735856732	
703.125	0.3889856764	0.2267129595	
703.75	1.234652506	-0.1338940531	
704.375	0.3627043275	-0.6626344852	
705.0	0.7944865544	0.2480755287	
705.625	0.794179222	-0.5801217573	
706.25	0.1138938193	0.4100874202	
706.875	0.9230929107	1.202509194	
707.5	0.6905955077	0.08234608591	
708.125	1.081586276	0.8199414895	
708.75	0.5693989089	-1.39252774	
709.375	-0.2741225074	-0.3122736401	
710.0	-0.8664887179	0.5256234488	
710.625	0.4777266838	0.2043593471	
711.25	0.07311169759	0.3987079957	
711.875	0.579972184	0.1872343516	
712.5	0.8502611131	0.09630949238	
713.125	0.4893284735	-0.565352552	
713.75	0.4092058058	-0.2955951423	
714.375	-0.02092848302	-0.8373676273	
715.0	-0.1933267261	-0.1365943331	
715.625	0.453338749	-0.8724026756	
716.25	-0.3432622816	-0.7246422262	
716.875	0.8708135643	0.2909913542	
717.5	2.395653117	-0.4465455451	
718.125	0.2993712506	-1.23959343	
718.75	2.679252878	1.555037778	
719.375	1.621686539	-2.892620563	
720.0	0.5636221209	-1.071697732	
720.625	1.969387082	-3.236586747	
721.25	-1.767577341	-1.874756935	
721.875	0.4186856301	-2.566678423	
722.5	-1.953398539	-2.128049752	
723.125	-1.981206431	0.4114832875	
723.75	-0.7846993241	0.4919710407	
724.375	-0.1490425788	1.488293965	
725.0	0.7676908304	0.6759464753	
725.625	0.2022255131	0.7586748022	
726.25	-0.2876906813	1.987985961	
726.875	1.305278454	2.466991822	
727.5	-1.446018073	2.109345546	
728.125	1.664198869	7.647123224	
728.75	4.000383459	3.23752224	
729.375	-7.984024088	5.096579945	
730.0	8.319917722	19.46429695	
730.625	4.443191291	1.116349565	
731.25	-9.984660504	12.03754773	
731.875	-8.94838572	15.0692507	
732.5	-1.38711369	2.007148244	
733.125	-9.244609532	-0.5494743848	
733.75	-0.8099752798	3.977343574	
734.375	1.005451938	0.4555551416	
735.0	0.7659835369	-2.501423369	
735.625	-0.5393787409	1.326432653	
736.25	-0.8221618082	0.6898556614	
736.875	1.24680016	1.97305814	
737.5	3.667145083	-0.1954522237	
738.125	0.8051213046	-1.752953341	
738.75	9.143962629	-0.2517375656	
739.375	4.351261899	-9.996003229	
740.0	-2.433508563	2.339382364	
740.625	22.8370183	9.186401887	
741.25	9.665997017	-15.03504869	
741.875	-25.15297602	-1.888084191	
742.5	-11.57526504	-5.584598693	
743.125	-0.3579800541	3.62779483	
743.75	3.180828991	-5.49150419	
744.375	-2.335187497	0.7300940691	
745.0	0.005181989417	-0.2328184795	
745.625	0.3863068944	-0.08501915111	
746.25	-0.04038585397	-0.08528257446	
746.875	-1.081803601	0.218698787	
747.5	0.05870648464	1.127712683	
748.125	0.3633416637	1.005467748	
748.75	0.8784347639	1.604165471	
749.375	1.080866145	0.8360242857	
750.0	0.2281157773	-0.2634027639	
