!Created with skrf (http://scikit-rf.org).
# GHz S RI R (50+0j) 
!freq	ReS11	ImS11	
500.0	-0.390762952	-0.5837833697	
500.625	0.6468713251	-0.5239285611	
501.25	-0.5975713711	-0.7428367308	
501.875	-0.167420101	-0.1196544936	
502.5	0.0264267737	-0.2031598362	
503.125	-0.05899708772	0.04267095215	
503.75	-0.05997029222	0.04421192087	
504.375	0.05054396488	-0.02515594619	
505.0	0.001167976999	0.0156800829	
505.625	0.02439319437	-0.08794245377	
506.25	-0.1002400967	0.02751154964	
506.875	-0.05815951191	-0.1932535422	
507.5	-0.3890129067	-0.3659740764	
508.125	0.1156938127	-0.1790014336	
508.75	0.7494500288	-1.101997049	
509.375	-0.4613729098	-0.7215273612	
510.0	-0.1183861805	-0.2486847404	
510.625	-0.2247887669	-0.1910682872	
511.25	-0.06407581349	0.00116749435	
511.875	-0.06264010522	-0.07412990996	
512.5	-0.0269863158	0.0619588514	
513.125	-0.02393101372	-0.02378141325	
513.75	-0.007545955843	-0.09484565053	
514.375	-0.1338760292	0.1151703519	
515.0	0.2785984745	-0.1634916758	
515.625	-0.4847841931	-0.1322999062	
516.25	0.2837893726	-0.2080269955	
516.875	-0.4552592729	-0.5638412462	
517.5	-0.1557018789	-0.05776318648	
518.125	0.03420161507	-0.05265934262	
518.75	-0.127509456	-0.1295964881	
519.375	-0.03794264327	0.01100081703	
520.0	0.09212678833	0.07545789919	
520.625	0.1418562354	-0.07084183164	
521.25	-0.05778794135	-0.1329104516	
521.875	-0.08230901895	-0.009220265909	
522.5	-0.06498535422	0.06428092649	
523.125	0.002144436195	-0.06826634202	
523.75	-0.1997185968	-0.02153097656	
524.375	-0.02086132601	0.125371224	
525.0	-0.1318631814	0.02392106103	
525.625	0.1198349942	0.1009408999	
526.25	-0.08555445261	-0.04564811466	
526.875	0.004958510052	0.08445640895	
527.5	-0.06258226794	0.06543019185	
528.125	0.09185104044	0.2818670151	
528.75	0.1385176433	0.1929541475	
529.375	0.02766187496	0.05976505692	
530.0	0.08679307792	0.201141987	
530.625	0.1182045609	0.2239114591	
531.25	0.1992760673	0.09115947327	
531.875	0.2459472416	-0.2346522823	
532.5	-0.02949764575	-0.006397811636	
533.125	0.1811580476	-0.1191273503	
533.75	0.01734868415	-0.06849698629	
534.375	0.05611245614	-0.3121809982	
535.0	-0.2770773429	-0.07120425967	
535.625	-0.08386065218	0.06214855683	
536.25	-0.02994426945	0.09535697786	
536.875	0.09932734206	-0.01949450161	
537.5	0.04388246311	-0.0005129285525	
538.125	0.1323999527	-0.09144333384	
538.75	0.06773261033	-0.09267333197	
539.375	-0.02556536804	-0.1668648902	
540.0	-0.1837851224	-0.1315855183	
540.625	-0.1509577249	0.0009816524865	
541.25	-0.02214257687	-0.004837946894	
541.875	-0.08385939081	-0.01664993296	
542.5	0.006271309156	-0.04297085639	
543.125	-0.09871715197	-0.1404442283	
543.75	-0.05053160703	0.08516353081	
544.375	-0.09832620338	-0.02459009149	
545.0	0.04236858375	0.08697455221	
545.625	-0.02560884543	0.04017287054	
546.25	0.1360810824	0.05544226375	
546.875	0.05062261379	-0.07207042736	
547.5	0.09776633775	-0.06294778045	
548.125	-0.06435298865	-0.2056433989	
548.75	-0.1050539523	-0.03508376753	
549.375	-0.06646430621	-0.0972417085	
550.0	-0.101258837	0.031901634	
550.625	-0.01574168792	-0.01362476892	
551.25	-0.09584206172	0.04476356497	
551.875	-0.03360713501	0.06519989471	
552.5	-0.05835216189	0.05606644051	
553.125	-0.002078535689	0.07731763104	
553.75	0.02795469458	0.0364540957	
554.375	0.0999190106	0.008595461078	
555.0	0.08316260943	-0.07065087478	
555.625	0.08091742558	-0.09048212109	
556.25	0.06396530123	-0.12923947	
556.875	-0.03546943317	-0.1429347599	
557.5	-0.08810087369	-0.09137877666	
558.125	-0.1059178423	-0.03980322285	
558.75	-0.1060230349	0.0008483151543	
559.375	-0.09161692259	0.02110777764	
560.0	-0.09841036383	0.06060982196	
560.625	-0.04120464414	0.1197743451	
561.25	0.009460444871	0.06655992335	
561.875	0.02455113661	0.07536978161	
562.5	0.01879483014	0.01580265132	
563.125	0.05058601262	0.1009820225	
563.75	0.1500115629	-0.02845347399	
564.375	0.07409414974	-0.06644262284	
565.0	0.1196879324	-0.1329691666	
565.625	-0.08584725229	-0.1514607112	
566.25	-0.05604504506	-0.07869033003	
566.875	-0.1805829345	-0.1449770467	
567.5	-0.1352159983	-0.01557624507	
568.125	-0.07291799673	-0.1794505558	
568.75	-0.3025076853	-0.02723192963	
569.375	-0.1096580021	0.06943314825	
570.0	-0.1903853251	0.1529736281	
570.625	-0.005028425813	0.2329067222	
571.25	0.004115962941	0.02115882749	
571.875	0.08130206077	0.1586096153	
572.5	0.06368009034	-0.0834660099	
573.125	0.1236536828	-0.01646283215	
573.75	0.03273544698	-0.2091625619	
574.375	-0.04584819766	0.02452442705	
575.0	0.1111213717	-0.08370673282	
575.625	-0.05239633954	-0.05904637027	
576.25	0.1002380671	-0.03508458007	
576.875	-0.0009783407776	-0.2308972817	
577.5	-0.09892493939	-0.106892093	
578.125	0.04825381274	-0.09020760995	
578.75	-0.1013743934	-0.2213173089	
579.375	-0.1137085542	0.09889026351	
580.0	0.04051755399	-0.1179134769	
580.625	-0.1366874847	0.06295368561	
581.25	-0.03793857861	-0.06510114056	
581.875	-0.054197875	0.2774149708	
582.5	0.1632437935	0.09287843775	
583.125	-0.04518803027	0.01613138055	
583.75	0.122945249	0.1017824729	
584.375	-0.01698201882	-0.05600920333	
585.0	0.1450612166	0.1775642291	
585.625	0.18109274	-0.08943202828	
586.25	0.06295393609	0.01177731474	
586.875	0.1494278965	-0.1514563163	
587.5	-0.0986966692	-0.1260066319	
588.125	0.05348646485	-0.06954066738	
588.75	0.06168908554	-0.2137818301	
589.375	-0.04590186488	-0.1267091771	
590.0	0.09422266023	-0.1414340349	
590.625	-0.3014125242	-0.03322093015	
591.25	0.01419480386	0.08692577814	
591.875	-0.1200656792	0.05033460944	
592.5	0.1564116263	0.1293849497	
593.125	-0.1487675169	-0.02940872511	
593.75	0.2006288035	0.1079513963	
594.375	0.05860238088	0.01188571156	
595.0	0.1479979113	0.1749118765	
595.625	0.2393057976	0.02770954884	
596.25	0.04598958647	0.01404624617	
596.875	0.1809035892	0.1134986433	
597.5	0.1251595929	-0.007600731662	
598.125	0.05971328284	0.1031555812	
598.75	0.205650551	0.1202118405	
599.375	0.1621746717	-0.08418268184	
600.0	0.1322096278	-0.06176514793	
600.625	0.1892027452	-0.1877021064	
601.25	-0.02030887351	-0.2264459723	
601.875	0.016782881	-0.0616080355	
602.5	-0.2664105683	-0.03349395266	
603.125	3.880112141e-05	0.08765689573	
603.75	-0.132135224	-0.03036918115	
604.375	-0.106236693	0.1998262395	
605.0	-0.02326708544	-0.07282736495	
605.625	-0.1676958878	0.08478462253	
606.25	-0.01270700157	0.111442124	
606.875	-0.2195246169	0.0314199411	
607.5	-0.1874149287	0.2240822184	
608.125	0.04061811294	0.1924660492	
608.75	0.08596300658	0.1746266114	
609.375	0.2602623429	-0.02534138268	
610.0	0.1528428287	-0.1320738126	
610.625	0.1308161895	-0.07781397296	
611.25	-0.02508515583	-0.2237976212	
611.875	-0.09361231716	-0.03797527066	
612.5	-0.1207827544	-0.1505064623	
613.125	-0.2762156651	0.1424022664	
613.75	0.01202947695	0.04652584942	
614.375	-0.04449253382	0.1708534012	
615.0	0.1392258615	-0.01096127849	
615.625	-0.08349458569	0.1642139359	
616.25	0.03906852681	0.2149880362	
616.875	0.002262073918	0.07696820688	
617.5	-0.1583224775	0.1988167314	
618.125	-0.03961695889	0.08583015416	
618.75	0.003530213242	0.1577861042	
619.375	0.04313607595	0.1973380471	
620.0	0.2056398991	0.03145401472	
620.625	-0.002600097188	-0.1712022898	
621.25	-0.01785843685	-0.172465383	
621.875	-0.2705452023	-0.08266245207	
622.5	-0.1208177432	0.04301953435	
623.125	-0.160260624	0.1492103373	
623.75	0.1948028322	0.02803355463	
624.375	-0.02053941731	0.002497967929	
625.0	0.09661018814	-0.08742233187	
625.625	-0.007233818378	-0.03077878771	
626.25	0.01787829241	-0.1664054569	
626.875	-0.1959095814	-0.06554497465	
627.5	-0.08906337062	-0.01244386174	
628.125	-0.1063619595	-0.112929292	
628.75	-0.09718073601	-0.1067763322	
629.375	-0.05921057581	-0.1207412094	
630.0	-0.1389390078	-0.1404282113	
630.625	-0.2573525401	0.1047359616	
631.25	-0.08048374409	0.1472436606	
631.875	-0.07334686535	0.2475402952	
632.5	0.2356573699	0.1928415058	
633.125	0.09990507172	0.02062076956	
633.75	0.302408209	0.02400663647	
634.375	-0.04302773289	-0.176715229	
635.0	0.06880895823	-0.1008723244	
635.625	-0.2182696337	-0.122217454	
636.25	-0.072387937	0.09947284605	
636.875	-0.1208124596	0.0353016843	
637.5	-0.0267420996	0.1893844376	
638.125	-0.01345298608	-0.01847211418	
638.75	-0.1459869287	0.2003828184	
639.375	0.07862027211	0.250744265	
640.0	0.0599917374	0.1630403946	
640.625	0.2100995112	0.2295683305	
641.25	0.2677699411	-0.07911651971	
641.875	0.05958389746	-0.09113422043	
642.5	0.09026576342	-0.2581076057	
643.125	-0.2768549814	-0.04694480691	
643.75	0.04669908124	-0.07647995887	
644.375	-0.3266973335	-0.01380317276	
645.0	0.03522063074	0.1842183587	
645.625	-0.2056014809	0.1547065287	
646.25	0.332864919	0.1144882953	
646.875	-0.1264715828	-0.0828663885	
647.5	0.1809455727	0.1637326597	
648.125	0.1001915528	-0.1047552585	
648.75	0.2031194478	0.1269125333	
649.375	0.3439238175	-0.3847390032	
650.0	-0.03245536518	-0.2661436264	
650.625	0.2110222505	-0.1218754966	
651.25	0.29345937	-0.3318147334	
651.875	0.05650905177	-0.2065489007	
652.5	0.272955493	0.07020710928	
653.125	0.3477467318	-0.188960682	
653.75	0.04724250227	-0.1699139243	
654.375	0.2206046756	-0.2434245724	
655.0	-0.4509484064	-0.1091757444	
655.625	-0.01808240519	0.1680831511	
656.25	-0.1695822923	0.1156836649	
656.875	0.2875382546	0.1509916557	
657.5	-0.1581201952	0.01087278292	
658.125	0.2925598895	0.2815044606	
658.75	0.1736166751	-0.09562867661	
659.375	0.2630481133	0.05094415209	
660.0	0.356450927	-0.4276540187	
660.625	-0.07086687147	-0.2626417492	
661.25	0.2605576583	-0.144752997	
661.875	0.2668537084	-0.3254854835	
662.5	0.1007806985	-0.2249208833	
663.125	0.2754985665	-0.02940282048	
663.75	0.1635585801	-0.3942602217	
664.375	-0.07250907756	-0.1885466238	
665.0	-0.1564944736	-0.2761512593	
665.625	-0.3899117466	0.1268037144	
666.25	0.0046116065	0.1843450304	
666.875	-0.06383553206	0.2608749319	
667.5	0.3037372298	0.07375596362	
668.125	0.07023767792	-0.0310298346	
668.75	0.3186707044	-0.0537712593	
669.375	-0.08121018118	-0.2975275954	
670.0	0.07290825544	-0.06727173828	
670.625	0.08642402658	-0.2725307045	
671.25	-0.1186839104	-0.1259087529	
671.875	0.253367272	-0.02295321834	
672.5	0.2384229325	-0.2657522813	
673.125	0.08625409736	-0.1580359938	
673.75	0.1864900498	-0.09883825214	
674.375	0.0688172376	-0.3942974037	
675.0	-0.1360160874	-0.0853179426	
675.625	-0.06347581324	-0.2074704319	
676.25	-0.2722026698	-0.01818413834	
676.875	-0.04787578393	0.05271829136	
677.5	-0.2043695698	-0.1142521368	
678.125	-0.1022212162	0.2582224243	
678.75	0.0153850193	0.02664842045	
679.375	0.1589090848	0.27223075	
680.0	0.2156880609	-0.2635566435	
680.625	-0.09495704679	0.133349082	
681.25	0.3225734318	-0.05714127003	
681.875	0.04402959569	-0.1216321128	
682.5	0.1169725534	0.3563331438	
683.125	0.4848446928	0.02090938841	
683.75	0.04533149396	-0.09140486748	
684.375	0.3836870694	0.1598004947	
685.0	0.3845835652	-0.02716465409	
685.625	0.1029836291	-0.08907215339	
686.25	0.3753252776	0.1622509151	
686.875	0.2182401073	-0.2333130236	
687.5	0.2163292192	-0.128610486	
688.125	0.1406323658	-0.4462901753	
688.75	-0.515725654	-0.1418313028	
689.375	-0.1561750757	0.1672868215	
690.0	-0.04179268669	0.4754310357	
690.625	0.4251428144	0.1259952438	
691.25	0.03588557105	0.2308577115	
691.875	0.5771607478	0.4768780353	
692.5	0.5126528482	-0.06069637828	
693.125	0.5786893002	0.2609089784	
693.75	0.7238344623	-0.2623581818	
694.375	0.1713926935	-0.443922402	
695.0	0.6656399627	-0.15575654	
695.625	0.6148939337	-0.2067510471	
696.25	0.3518402762	0.339948983	
696.875	0.3138018704	0.4347857193	
697.5	0.474426346	0.5188063396	
698.125	0.4399568824	0.1792299185	
698.75	0.2891269231	-0.3135803357	
699.375	-0.3272645421	-0.4750078259	
700.0	-0.2109138194	0.3991818507	
700.625	-0.04591375597	0.2168139886	
701.25	0.4317540867	0.2669835863	
701.875	0.1454207315	0.08942995677	
702.5	0.2793812574	0.3829979835	
703.125	0.5172657416	0.03775869932	
703.75	0.2015372328	0.009008868542	
704.375	0.4015737071	-0.1283254598	
705.0	0.1881299324	-0.2575863538	
705.625	0.2761077625	0.1141113264	
706.25	0.2933650245	0.1662639521	
706.875	0.2072924647	0.2207011124	
707.5	0.2286756423	0.3562464409	
708.125	0.2641848319	0.1782241952	
708.75	0.2686017491	-0.3185315639	
709.375	-0.2689083594	-0.06094130937	
710.0	-0.2474649305	0.06062631416	
710.625	0.1237608089	0.1161405027	
711.25	-0.02546502469	0.1077627506	
711.875	0.3056475637	0.1462437693	
712.5	0.16573158	-0.1154022173	
713.125	0.3031316824	-0.0256716183	
713.75	0.1356016203	-0.314860675	
714.375	-0.04168549449	-0.1316742627	
715.0	0.0822748107	-0.2149354324	
715.625	-0.09039796222	-0.2536364549	
716.25	0.09213964098	-0.1508080189	
716.875	0.3809033464	-0.1207832133	
717.5	0.5165147149	-0.08717573104	
718.125	0.4967801106	0.0443463298	
718.75	0.7097352168	0.1207358838	
719.375	0.639831388	-0.4423575528	
720.0	-0.03720564977	-0.3994164142	
720.625	0.6824148716	-0.8182229926	
721.25	-0.4247891229	-0.8120839307	
721.875	0.1949029904	-0.5968433248	
722.5	-0.6389914775	-1.008127594	
723.125	-0.7523273974	0.1617914207	
723.75	-0.3612868976	0.03251938444	
724.375	-0.008267388645	0.6335625821	
725.0	0.1924219448	0.09282150093	
725.625	-0.03884400916	0.4465782039	
726.25	0.1610549354	0.7739660929	
726.875	0.1864878757	0.5923198653	
727.5	-0.5488603954	1.050745244	
728.125	0.1734522441	2.157215553	
728.75	0.4668399821	1.687213376	
729.375	-1.63712389	2.198226063	
730.0	0.4681666502	4.127238075	
730.625	1.503825791	2.592561143	
731.25	-2.068370989	2.018837781	
731.875	-2.759140565	3.602455143	
732.5	-0.2220031065	1.40893787	
733.125	-2.519393501	-0.9873669103	
733.75	-0.7424795533	1.706436475	
734.375	0.4063690056	0.04145137174	
735.0	0.4860769494	-0.5683169328	
735.625	-0.4260127843	0.6459191329	
736.25	-0.2670992115	0.04786466158	
736.875	0.3608025058	0.8197227872	
737.5	1.050551682	-0.2328773575	
738.125	0.4213879979	-0.03765574748	
738.75	2.656603479	-0.7074744907	
739.375	1.190219154	-2.6383757	
740.0	0.2588128607	0.4707430513	
740.625	4.938699866	2.552196237	
741.25	3.728632157	-0.8305221522	
741.875	-2.341083657	-2.811015547	
742.5	-2.074541811	-2.610032271	
743.125	-0.6383371691	-0.9270930259	
743.75	1.144878224	-0.4813711791	
744.375	-0.797786002	-0.1782519187	
745.0	0.1056842741	-0.1194893142	
745.625	0.1574883774	0.05508654815	
746.25	-0.122100396	0.02175426294	
746.875	-0.1681726832	-0.1323808926	
747.5	-0.1171611744	0.4021483419	
748.125	0.1767224153	0.3083036145	
748.75	0.08515264207	0.3851868038	
749.375	0.136730293	0.5387739862	
750.0	-0.1461840714	0.2248069177	
