!Created with skrf (http://scikit-rf.org).
# GHz S RI R (50+0j) 
!freq	ReS11	ImS11	
500.0	0.07251176099	-1.472710656	
500.625	0.2945087742	-1.217560186	
501.25	-0.6756158704	-0.802679464	
501.875	-0.4651471692	-0.5551986399	
502.5	-0.08879487121	-0.171127207	
503.125	-0.09477107734	0.01874288396	
503.75	0.0284172572	0.1063736252	
504.375	0.03409851845	-0.01194557173	
505.0	0.02319353429	-0.02681549546	
505.625	0.001764936007	-0.06205619381	
506.25	-0.08424035166	-0.07932345554	
506.875	-0.169317925	0.01935046126	
507.5	-0.1337330488	-0.4334523066	
508.125	0.1241183875	-0.841465091	
508.75	0.7080761725	-1.308667028	
509.375	-0.3324350249	-1.436190305	
510.0	-0.6547291708	-0.2713459477	
510.625	-0.2834810152	-0.2497911545	
511.25	-0.1010092273	-0.04104607062	
511.875	-0.169209568	-0.02333820482	
512.5	-0.02570204869	0.03053889777	
513.125	-0.008039078798	-0.1029693506	
513.75	-0.06278350929	-0.05944414771	
514.375	-0.06096214906	-0.01315217562	
515.0	0.012182615	-0.09228801923	
515.625	-0.1180867554	-0.489132175	
516.25	-0.2955108127	-0.8963869685	
516.875	-0.3568955279	-0.5247531049	
517.5	-0.06773528826	-0.1837940829	
518.125	-0.02587510238	-0.03411405603	
518.75	-0.06609259161	-0.1925238115	
519.375	-0.07959662479	0.04423350569	
520.0	0.1456908498	0.07061988798	
520.625	0.2035165147	-0.07782982988	
521.25	-0.03372701084	-0.3266009587	
521.875	-0.1826866201	-0.03119728987	
522.5	-0.06438441027	0.02816541505	
523.125	-0.08299246748	0.03983474222	
523.75	-0.1449633452	0.004618715117	
524.375	-0.1999346723	0.06277227771	
525.0	-0.0530361533	0.1818379677	
525.625	0.04002895603	0.06012095608	
526.25	-0.01969373829	-0.009089657386	
526.875	-0.06334748397	0.07423500464	
527.5	-0.05044430016	0.2475798789	
528.125	0.08196408883	0.3381284404	
528.75	0.05035125273	0.2868672205	
529.375	0.06741340638	0.09227333443	
530.0	0.05102308437	0.1925499295	
530.625	0.1771293323	0.3609543481	
531.25	0.5230031789	0.06143174419	
531.875	0.2617644328	-0.2689155068	
532.5	-0.08535959317	-0.1369373936	
533.125	0.05611913607	-0.08813286331	
533.75	0.08914024907	-0.2451520212	
534.375	-0.17114219	-0.3433569557	
535.0	-0.3293849082	-0.09530735046	
535.625	-0.1961587451	0.1632996542	
536.25	0.002774934606	0.1269067465	
536.875	0.1201991113	0.02062686768	
537.5	0.08640962392	-0.05132809066	
538.125	0.1449290541	-0.07208854781	
538.75	0.1632630771	-0.1484569363	
539.375	-0.08667657562	-0.2080155236	
540.0	-0.2020552108	-0.1857609817	
540.625	-0.1994329421	-0.02538296792	
541.25	-0.1021901624	0.008895996508	
541.875	-0.05092903672	-0.02458903271	
542.5	-0.05507282381	-0.06408561848	
543.125	-0.1013148142	-0.05498993172	
543.75	-0.1099946494	-0.002642008534	
544.375	-0.05833518462	0.05547852271	
545.0	-0.003083431554	0.07559430549	
545.625	0.07152161931	0.0780389258	
546.25	0.1281637918	0.04074408124	
546.875	0.1530618731	-0.04376644188	
547.5	0.0854826901	-0.1646968988	
548.125	-0.05415357754	-0.206314997	
548.75	-0.1516785412	-0.1454757271	
549.375	-0.1388403139	-0.08698198799	
550.0	-0.09594404909	0.00444278574	
550.625	-0.06823830799	0.003626802913	
551.25	-0.1013996403	0.03699854516	
551.875	-0.08947730321	0.08533107457	
552.5	-0.04943654037	0.09359458827	
553.125	-0.01159560586	0.07690658397	
553.75	0.05981688925	0.05167192144	
554.375	0.113683253	-0.007750148184	
555.0	0.115251734	-0.09495751432	
555.625	0.09461541779	-0.1400135834	
556.25	0.07122571541	-0.1833817812	
556.875	-0.05877109444	-0.2009895664	
557.5	-0.139444298	-0.1253188994	
558.125	-0.1592236872	-0.04436565973	
558.75	-0.1477058526	-0.0009580290708	
559.375	-0.1427964706	0.02805673671	
560.0	-0.119160465	0.09684418468	
560.625	-0.06582862766	0.1407242859	
561.25	0.01437404627	0.1276219509	
561.875	0.04334339858	0.05876912014	
562.5	0.02075739626	0.07102308918	
563.125	0.09004614841	0.09372284564	
563.75	0.1728919013	-0.002239747804	
564.375	0.1530956273	-0.1319217925	
565.0	0.08111078006	-0.1954414258	
565.625	-0.05310513909	-0.1992708678	
566.25	-0.1550298302	-0.1335953818	
566.875	-0.1833638171	-0.09007037888	
567.5	-0.185451331	-0.1289054666	
568.125	-0.1946618498	-0.1906631552	
568.75	-0.2922102833	-0.07933134803	
569.375	-0.2832630513	0.1454473252	
570.0	-0.1329343739	0.2619777467	
570.625	-0.06019249924	0.2218072614	
571.25	0.00577971172	0.1498729073	
571.875	0.08181830819	0.09490850207	
572.5	0.1608869098	-0.01477287364	
573.125	0.1004217685	-0.1435923779	
573.75	0.05197000623	-0.1412021819	
574.375	0.008424505118	-0.09595321282	
575.0	0.03400942971	-0.04305422962	
575.625	0.04911937283	-0.09873615591	
576.25	0.04940674112	-0.1402830549	
576.875	-0.005415748759	-0.1783464848	
577.5	-0.007527260951	-0.2069011067	
578.125	-0.06652071675	-0.1970780194	
578.75	-0.1128123794	-0.1496546376	
579.375	-0.1134249348	-0.07709991943	
580.0	-0.06792301518	-0.03589390281	
580.625	-0.08907066467	-0.03152099771	
581.25	-0.1250802644	0.1044838357	
581.875	0.01858330413	0.1903560266	
582.5	0.07914567509	0.1787281324	
583.125	0.09622031896	0.08620754257	
583.75	0.05931396967	0.02808670098	
584.375	0.03884589076	0.0753847805	
585.0	0.145746074	0.05918074931	
585.625	0.1976008538	-0.007426728998	
586.25	0.1772667061	-0.09706458836	
586.875	0.08661726818	-0.1753916078	
587.5	-0.02768762831	-0.1718855979	
588.125	-0.02909999216	-0.1773811096	
588.75	0.03505327347	-0.1829865541	
589.375	0.07362126085	-0.1970741568	
590.0	-0.0870166276	-0.2144363071	
590.625	-0.2340913329	-0.03879664325	
591.25	-0.1456030483	0.1510402795	
591.875	-0.04097932455	0.1566447389	
592.5	0.01020800912	0.05545608743	
593.125	-0.02716450831	0.06234373295	
593.75	0.0764227183	0.1564772531	
594.375	0.1888235928	0.1144585024	
595.0	0.2246415379	0.1296311279	
595.625	0.2165189532	0.08730652189	
596.25	0.2098376648	0.05471939701	
596.875	0.2006196891	0.03075415446	
597.5	0.1930001633	0.09754077677	
598.125	0.1999019964	0.1237212903	
598.75	0.2296805627	0.09102970938	
599.375	0.2664875104	-0.06957500776	
600.0	0.1890502457	-0.1987458269	
600.625	0.1618717311	-0.2289226262	
601.25	0.07556504367	-0.2454015742	
601.875	-0.1128022492	-0.1760887033	
602.5	-0.1606760351	-0.006303527893	
603.125	-0.1325253104	0.06511760651	
603.75	-0.1322092625	0.09941178784	
604.375	-0.1179937583	0.1062409155	
605.0	-0.07686349238	0.1006542861	
605.625	-0.08666610303	0.07532180321	
606.25	-0.1472374945	0.0809588629	
606.875	-0.2183993562	0.1247769217	
607.5	-0.192284532	0.252371047	
608.125	-0.004801135358	0.3234800582	
608.75	0.2593364817	0.1882541447	
609.375	0.2881978774	-0.08137520279	
610.0	0.1847948247	-0.1711913274	
610.625	0.08887052968	-0.1959674519	
611.25	0.006150267006	-0.1961661212	
611.875	-0.117275044	-0.1624623109	
612.5	-0.2243485093	-0.06753266853	
613.125	-0.232520813	0.06990526835	
613.75	-0.09539606438	0.1813036646	
614.375	0.05095999134	0.1305988305	
615.0	0.05320508468	0.06809810647	
615.625	0.01421532154	0.1082222021	
616.25	-0.04417493975	0.1696695493	
616.875	-0.1032793646	0.231814698	
617.5	-0.07858867024	0.289457105	
618.125	0.01167552023	0.2800823171	
618.75	0.06063288724	0.2254157947	
619.375	0.1282874888	0.193357809	
620.0	0.2590124557	0.03508290514	
620.625	0.1071691667	-0.2205953666	
621.25	-0.1317515591	-0.2102670899	
621.875	-0.2616838775	-0.09363485726	
622.5	-0.2745925269	0.09735960688	
623.125	-0.0203749582	0.241586292	
623.75	0.162013648	0.03206698307	
624.375	0.05162113779	-0.06560687511	
625.0	0.04123930845	-0.04798468657	
625.625	0.05392353641	-0.108266284	
626.25	-0.06473174526	-0.1759301913	
626.875	-0.1904066322	-0.09946140296	
627.5	-0.1796938095	-0.04232164095	
628.125	-0.1366606291	-0.091114749	
628.75	-0.1082077317	-0.1534515418	
629.375	-0.1257295414	-0.175708157	
630.0	-0.2431995158	-0.1113728523	
630.625	-0.2736066503	0.1230851672	
631.25	-0.1466525344	0.2589966752	
631.875	0.002156476439	0.3213265581	
632.5	0.2229470795	0.2175689891	
633.125	0.2634281528	0.03449962075	
633.75	0.208025886	-0.1169146374	
634.375	0.04624750506	-0.1784800875	
635.0	-0.03350691388	-0.1878550491	
635.625	-0.2057426161	-0.08342582329	
636.25	-0.1767026259	0.1063262405	
636.875	-0.07622664348	0.1714365181	
637.5	-0.02385512251	0.1205273322	
638.125	-0.07980053273	0.10973384	
638.75	-0.0677185203	0.2308485906	
639.375	0.04349532522	0.3050605247	
640.0	0.1991343936	0.2814979514	
640.625	0.3242608221	0.1603813544	
641.25	0.3577471701	-0.0580947468	
641.875	0.1721284459	-0.2659582647	
642.5	-0.04655197591	-0.2526827155	
643.125	-0.1579521855	-0.1402550315	
643.75	-0.1877169318	-0.08558268591	
644.375	-0.2342176728	0.03207158231	
645.0	-0.1560021581	0.2196888439	
645.625	0.09780092668	0.250628925	
646.25	0.2039706849	0.07213277047	
646.875	0.1148419147	-0.02044057931	
647.5	0.08118993782	0.04910555791	
648.125	0.2191922476	0.05260339317	
648.75	0.3282419492	-0.1229368223	
649.375	0.2520861439	-0.3357028378	
650.0	0.1642145811	-0.3975954702	
650.625	0.1505359424	-0.3641260685	
651.25	0.2054651682	-0.3038724339	
651.875	0.2805511207	-0.225525454	
652.5	0.3274370669	-0.1485851361	
653.125	0.3209320279	-0.1780927397	
653.75	0.2021471247	-0.3284396142	
654.375	-0.1369280341	-0.3792935992	
655.0	-0.3887442804	-0.06034645223	
655.625	-0.1936185254	0.2808155837	
656.25	0.08706364575	0.2222937438	
656.875	0.08958098343	0.06504814577	
657.5	0.04844395096	0.1143124475	
658.125	0.1861328768	0.1909818412	
658.75	0.3787535525	0.07607009052	
659.375	0.404406256	-0.210983448	
660.0	0.2625138625	-0.407064815	
660.625	0.1381374029	-0.4474706123	
661.25	0.1610017405	-0.4061197501	
661.875	0.2232216562	-0.3525303476	
662.5	0.2765095216	-0.2971347929	
663.125	0.2734045931	-0.2880814448	
663.75	0.1405202645	-0.3645062077	
664.375	-0.09629352318	-0.3876447263	
665.0	-0.3491149736	-0.2168792975	
665.625	-0.3719472626	0.1398189645	
666.25	-0.09766620192	0.3408751073	
666.875	0.1603413951	0.2518725664	
667.5	0.2509925923	0.1067829072	
668.125	0.2880570516	-0.04440822581	
668.75	0.2316050602	-0.2147302752	
669.375	0.08809186664	-0.301505723	
670.0	-0.02695639721	-0.2812855494	
670.625	-0.02326621007	-0.2335035106	
671.25	0.05151490249	-0.209809886	
671.875	0.1503095806	-0.207136017	
672.5	0.2372657014	-0.1935688977	
673.125	0.2388073519	-0.2295413504	
673.75	0.1676469554	-0.2846066845	
674.375	0.03492238218	-0.325793006	
675.0	-0.1340864363	-0.2886630128	
675.625	-0.2577630248	-0.1511640451	
676.25	-0.2389925773	-0.02070602069	
676.875	-0.203620102	0.03238935359	
677.5	-0.2068514774	0.07092653106	
678.125	-0.1470889636	0.2262145706	
678.75	0.1083715445	0.2852574421	
679.375	0.2963937629	0.05009496457	
680.0	0.1874337185	-0.1529486743	
680.625	0.07821881877	-0.1330261417	
681.25	0.1008503284	-0.04576914434	
681.875	0.182155048	0.02472539798	
682.5	0.2492991138	0.07162962741	
683.125	0.2927882958	0.05928601014	
683.75	0.3129827423	0.03688192891	
684.375	0.3235156839	0.001684787801	
685.0	0.3332297828	-0.002702257326	
685.625	0.3561049649	-0.07106781594	
686.25	0.3524330571	-0.1376572944	
686.875	0.3413370419	-0.2803942432	
687.5	0.2552914082	-0.4596835872	
688.125	-0.1382983708	-0.5691827112	
688.75	-0.5839678201	-0.1523833851	
689.375	-0.3106362608	0.4536977867	
690.0	0.1739228943	0.4463397532	
690.625	0.3208985703	0.3097965615	
691.25	0.4183781409	0.3374754653	
691.875	0.5905680869	0.3811155666	
692.5	0.7665072715	0.2502882356	
693.125	0.8303203237	-0.04954505412	
693.75	0.7260937644	-0.3265869448	
694.375	0.5258109269	-0.5003582354	
695.0	0.552536681	-0.3755232278	
695.625	0.6361443793	-0.1460468331	
696.25	0.6511292411	0.151311737	
696.875	0.5934057345	0.4142797248	
697.5	0.6187408341	0.4478802872	
698.125	0.7901154807	0.06456373057	
698.75	0.3718423886	-0.6849403844	
699.375	-0.6335923344	-0.3273267467	
700.0	-0.2440090998	0.5275440242	
700.625	0.2547578011	0.349799393	
701.25	0.3097716298	0.180794937	
701.875	0.3469945242	0.2552187624	
702.5	0.4454267212	0.2571435973	
703.125	0.5185470254	0.1047889013	
703.75	0.4665866852	-0.1422654615	
704.375	0.3373499914	-0.2426732123	
705.0	0.3049542527	-0.1719289506	
705.625	0.3500686782	-0.006188063312	
706.25	0.3531516292	0.1944296142	
706.875	0.3599897917	0.3312345859	
707.5	0.4381376601	0.3474445344	
708.125	0.5865687691	-0.006969269849	
708.75	0.223436639	-0.5249172826	
709.375	-0.4214530119	-0.2473213013	
710.0	-0.1753696337	0.3149626527	
710.625	0.1291738674	0.19199099	
711.25	0.1635410945	0.1236058011	
711.875	0.283360649	0.09419326072	
712.5	0.3808498579	-0.06306162014	
713.125	0.3271121671	-0.2412261875	
713.75	0.1538411326	-0.3424756338	
714.375	-0.01609944905	-0.3058348589	
715.0	-0.03628907703	-0.244131028	
715.625	0.03201457563	-0.2837229278	
716.25	0.1869839527	-0.3272379058	
716.875	0.3921642953	-0.2487029534	
717.5	0.6534432217	-0.0835636698	
718.125	0.8819879172	-0.07768106395	
718.75	0.9155514149	-0.3439450957	
719.375	0.8523773817	-0.6928057261	
720.0	0.4264057322	-1.223255147	
720.625	0.004300429574	-1.228157512	
721.25	-0.24523766	-1.278410119	
721.875	-0.5555226421	-1.270548111	
722.5	-0.9631366828	-0.7841560616	
723.125	-1.010826603	0.0462205257	
723.75	-0.4054147144	0.6227967817	
724.375	0.08356508435	0.5700368674	
725.0	0.2183755451	0.4710849418	
725.625	0.2225428853	0.6002337039	
726.25	0.105159173	0.871869951	
726.875	0.005941164594	1.217178554	
727.5	0.07248361283	1.757764265	
728.125	0.3501480027	2.351429092	
728.75	0.3911427128	3.363060261	
729.375	-0.189733597	4.446072896	
730.0	0.8115038158	5.138791645	
730.625	0.4184597222	5.28711978	
731.25	-0.494951117	4.856814031	
731.875	-2.274097799	4.407751414	
732.5	-4.031621023	2.294355776	
733.125	-2.735145007	1.59722765	
733.75	-0.3551394572	2.064019601	
734.375	1.265226601	0.1224924945	
735.0	-0.3053418218	-0.7911235182	
735.625	-0.5855996797	0.3118329682	
736.25	0.0836703159	0.698728476	
736.875	0.6770488712	0.6072362408	
737.5	1.432901536	-0.01242673592	
738.125	1.805041748	-0.8939551302	
738.75	2.073436562	-1.933128105	
739.375	2.777465574	-2.531222014	
740.0	3.793167981	-2.892986283	
740.625	3.964654642	-1.426292073	
741.25	1.53406576	2.172212274	
741.875	-2.941909176	2.047582434	
742.5	-2.133601371	-1.405159831	
743.125	-0.6570664348	-1.884168786	
743.75	-0.4883374345	-1.039887073	
744.375	-0.6107443798	0.1254253009	
745.0	0.08424752956	0.1505690985	
745.625	0.04165230788	-0.01037882328	
746.25	-0.02687877436	-0.1593272837	
746.875	-0.2726824693	0.05714412909	
747.5	-0.1095909534	0.4656189285	
748.125	0.250021005	0.6930939865	
748.75	0.4900632188	0.6053998836	
749.375	0.2617048185	0.6265466274	
750.0	-0.4723035792	0.3382106587	
