!Created with skrf (http://scikit-rf.org).
# GHz S RI R (50+0j) 
!freq	ReS11	ImS11	
500.0	-0.04923606157	-1.231069482	
500.625	-0.1472055614	-0.3783614131	
501.25	-0.134980378	-0.87809148	
501.875	-0.4222436024	-0.258576351	
502.5	-0.007482250268	-0.0644798576	
503.125	-0.09175471058	-0.006837955629	
503.75	0.04827703325	-0.001857297848	
504.375	0.03117697918	0.02519842949	
505.0	0.006856737312	-0.04675715861	
505.625	0.02538311078	-0.002064322105	
506.25	-0.1345523268	-0.1010146657	
506.875	0.1100997088	0.05513452413	
507.5	-0.07213156466	-0.6290897581	
508.125	-0.2361413185	-0.5959630136	
508.75	0.6852090836	-0.5461586825	
509.375	0.0002413972973	-1.424413972	
510.0	-0.3667994522	-0.1359773385	
510.625	-0.001883814796	-0.1309611325	
511.25	-0.119047493	-0.06482059267	
511.875	-0.05671965971	0.009472291277	
512.5	-0.05854787314	0.03414972348	
513.125	-0.05139974958	-0.07059451854	
513.75	0.004071560917	-0.0001639106084	
514.375	-0.08171915899	-0.08098049879	
515.0	-0.01660970352	0.2552613986	
515.625	-0.1170966282	-0.8239165416	
516.25	-0.4488002318	-0.1506463941	
516.875	0.1101433147	-0.2637605556	
517.5	-0.12527367	-0.2008530807	
518.125	0.01365493407	0.01621972057	
518.75	-0.02104969072	-0.1991557711	
519.375	-0.04034845505	0.06126131092	
520.0	0.04737912174	0.02830246956	
520.625	0.1474476626	-0.03917743995	
521.25	-0.08810784549	-0.2739715593	
521.875	-0.05549981855	0.02219808463	
522.5	-0.05049235301	-0.01985736897	
523.125	-0.001577781575	0.1014817911	
523.75	-0.0368617837	-0.1237005815	
524.375	-0.2321934554	0.1198882213	
525.0	0.06068244478	0.02336937812	
525.625	-0.03732243889	0.1097321828	
526.25	0.05739579586	-0.05862985662	
526.875	-0.1044095822	0.0785995198	
527.5	0.06494952512	0.1668430796	
528.125	-0.0192014882	0.2396509536	
528.75	-0.02459720431	0.2680747533	
529.375	0.07626128275	-0.01236780588	
530.0	-0.08064875441	0.1795483771	
530.625	0.001004053639	0.3185596308	
531.25	0.2638469823	0.05453652284	
531.875	0.2626557246	-0.06954737445	
532.5	-0.1559890561	-0.1073503256	
533.125	0.08680031553	0.1328590065	
533.75	0.04936224619	-0.2267739522	
534.375	-0.004136092096	-0.1468647801	
535.0	-0.2119581967	-0.1808815706	
535.625	-0.1247469584	0.1612828863	
536.25	-0.01333534744	0.05289536398	
536.875	0.1073091574	0.03109433841	
537.5	0.02625037304	-0.0589683348	
538.125	0.1124642774	-0.0234326979	
538.75	0.1036405119	-0.162655761	
539.375	-0.06042956015	-0.09957448289	
540.0	-0.1172082149	-0.1756173288	
540.625	-0.1664719655	-0.07538403733	
541.25	-0.05630428265	0.02213992968	
541.875	0.004514557071	-0.07541393659	
542.5	-0.05880054786	-0.003187273725	
543.125	0.05549340752	-0.05716155903	
543.75	-0.1368280322	-0.007301616574	
544.375	-0.005390865095	0.001383268719	
545.0	-0.04572191546	0.09079686348	
545.625	0.09276833992	-0.0009045035252	
546.25	0.0443356869	0.07843187979	
546.875	0.1501830693	-0.0550510685	
547.5	0.01475543221	-0.08125866345	
548.125	0.0278781313	-0.1525389824	
548.75	-0.1634517248	-0.1170986685	
549.375	-0.0703764584	-0.02037994081	
550.0	-0.08626459198	-0.03103202048	
550.625	-0.03904420762	0.03879918588	
551.25	-0.07566911516	-0.007313633875	
551.875	-0.06638685108	0.09189561062	
552.5	-0.02636078115	0.04526895506	
553.125	-0.0376704585	0.05860313896	
553.75	0.04868592768	0.03473486294	
554.375	0.08252784639	0.006837527489	
555.0	0.09630262062	-0.06890041361	
555.625	0.07129050835	-0.09792561204	
556.25	0.06205001256	-0.1225673475	
556.875	-0.03139265479	-0.1474693554	
557.5	-0.09393104803	-0.09222843208	
558.125	-0.1056364107	-0.03503166504	
558.75	-0.1033463715	-0.006737368996	
559.375	-0.104161185	0.02780820176	
560.0	-0.07984946207	0.06435580666	
560.625	-0.06829762656	0.1050759876	
561.25	0.02895913067	0.1004813338	
561.875	0.004863387894	0.02585850584	
562.5	0.03399599996	0.07385572459	
563.125	0.03945320212	0.03998004463	
563.75	0.1492046068	0.03337634966	
564.375	0.09969776985	-0.12280719	
565.0	0.06539555213	-0.09124587536	
565.625	0.00436935612	-0.2031425389	
566.25	-0.134471702	-0.05172600268	
566.875	-0.07095734873	-0.09190979882	
567.5	-0.2051908845	-0.1398369747	
568.125	-0.1222525257	-0.0556038885	
568.75	-0.2027792623	-0.1899442492	
569.375	-0.240505627	0.1746186876	
570.0	-0.04969304455	0.1128651178	
570.625	-0.1342086623	0.1727123733	
571.25	0.09098687318	0.1189253525	
571.875	-0.03768958157	0.07175177311	
572.5	0.2084283502	-0.03471637428	
573.125	-0.01317847932	-0.08462986702	
573.75	0.1456828867	-0.06118449634	
574.375	-0.02969755162	-0.153404534	
575.0	0.02099691631	0.05516688683	
575.625	0.06822333761	-0.1466223001	
576.25	-0.0407107715	-0.07662552098	
576.875	0.07478910545	-0.1008588786	
577.5	-0.0176563127	-0.2480429362	
578.125	-0.1233137383	-0.05423776756	
578.75	0.02744663332	-0.1192257153	
579.375	-0.158371921	-0.1459392774	
580.0	0.03243743087	0.1188649773	
580.625	-0.1163738929	-0.1314621622	
581.25	0.01982530127	0.1584982035	
581.875	-0.06510838736	0.03051451728	
582.5	0.016135509	0.2418532874	
583.125	0.1684551674	0.004914182862	
583.75	-0.07344469152	0.07167473631	
584.375	0.1424846804	0.04662717354	
585.0	0.009425823143	0.008754707308	
585.625	0.1965801431	0.08560180142	
586.25	0.08845810128	-0.1420695281	
586.875	0.05750136323	-0.03066286903	
587.5	0.02204602583	-0.1990946174	
588.125	-0.1018021601	-0.09592871554	
588.75	0.09654530304	-0.0555671133	
589.375	0.07487140862	-0.2377920273	
590.0	-0.09339568391	-0.0765082999	
590.625	-0.1038278823	-0.1343702754	
591.25	-0.195065108	0.2403514128	
591.875	0.0623060338	0.04428144197	
592.5	-0.09312460347	0.07380183786	
593.125	0.08649019183	-0.01598111549	
593.75	-0.0334433515	0.2276446769	
594.375	0.2532081688	0.04449059161	
595.0	0.08465163893	0.006109244538	
595.625	0.1626595026	0.152002023	
596.25	0.1841465258	-0.03226854499	
596.875	0.05611397329	0.0169203841	
597.5	0.1603185188	0.1561401744	
598.125	0.1870519078	0.03242105754	
598.75	0.1298807123	0.09921969233	
599.375	0.2547442944	-0.02264353934	
600.0	0.09044764052	-0.1773489286	
600.625	0.1242444662	-0.07888178443	
601.25	0.1117961398	-0.2294864084	
601.875	-0.1463707406	-0.08256216258	
602.5	-0.03192085642	-0.06298926673	
603.125	-0.1983553641	0.1181598275	
603.75	0.02191227765	0.0494194106	
604.375	-0.2065960723	0.01219634661	
605.0	-0.03817596781	0.182001354	
605.625	-0.0220385199	-0.04676904968	
606.25	-0.2091892374	0.09122840328	
606.875	-0.08803876167	-0.01248412642	
607.5	-0.2025221911	0.1076852331	
608.125	-0.007364692452	0.2482693841	
608.75	0.1706022145	0.1114532033	
609.375	0.2050319086	-0.02381508889	
610.0	0.2019886825	-0.1461857641	
610.625	0.01459432035	-0.1592835383	
611.25	0.0976175613	-0.1100771385	
611.875	-0.1300955712	-0.2244658355	
612.5	-0.07934798247	-0.0006746425021	
613.125	-0.2239991401	-0.06003157494	
613.75	-0.05537155893	0.2420911096	
614.375	-0.0041754149	-0.02614055102	
615.0	0.04380769932	0.1551608632	
615.625	0.06338333529	-0.01423638823	
616.25	-0.1033703808	0.1948721557	
616.875	-0.02052935214	0.2177223735	
617.5	-0.008408212725	0.107934621	
618.125	-0.1224667967	0.1987687994	
618.75	-0.03470015567	0.143887953	
619.375	0.1102588835	0.1407140585	
620.0	0.1588853598	0.07687312087	
620.625	0.06917167504	-0.2156820859	
621.25	-0.04571717176	-0.1123789798	
621.875	-0.1163501282	-0.1717745754	
622.5	-0.2392179861	0.1110027466	
623.125	0.006292033301	0.1055527886	
623.75	0.08993209158	0.1373332353	
624.375	0.0203775978	-0.1284445511	
625.0	0.06208420152	0.0458817165	
625.625	0.04353212815	-0.158784927	
626.25	-0.03981087	-0.04823699088	
626.875	-0.1006234883	-0.1517355226	
627.5	-0.1505965117	-0.0387625771	
628.125	-0.05919137778	-0.03724575958	
628.75	-0.0517345659	-0.1815784015	
629.375	-0.1365180867	-0.09617281566	
630.0	-0.1515873886	-0.0258661556	
630.625	-0.2148734353	0.02673221051	
631.25	-0.1560421693	0.2686019793	
631.875	-0.03897421195	0.1684573365	
632.5	0.02233509525	0.3338910776	
633.125	0.2579429606	-0.0008932314474	
633.75	0.1090907341	-0.02215088939	
634.375	0.1466084451	-0.1644018486	
635.0	-0.1086598822	-0.1023131918	
635.625	-0.03229103402	-0.1459947615	
636.25	-0.2284104106	0.1023335809	
636.875	0.0178517611	0.1005571175	
637.5	-0.1103224753	0.03477444931	
638.125	-0.008252436178	0.1835755754	
638.75	-0.07338724915	0.0493614052	
639.375	-0.05117889537	0.3076202114	
640.0	0.2075285719	0.1992317552	
640.625	0.1585976846	0.07102722489	
641.25	0.316436537	0.07629017721	
641.875	0.1135289647	-0.2400048988	
642.5	0.01500193564	-0.1076554136	
643.125	-0.02632823547	-0.3231818377	
643.75	-0.2314814623	0.06290613686	
644.375	-0.1035239402	-0.1164288436	
645.0	-0.213894439	0.2237595763	
645.625	0.1757057512	0.0228815507	
646.25	-0.01862134398	0.1700932454	
646.875	0.2539733177	-0.07135651512	
647.5	-0.1424589892	0.06511882652	
648.125	0.3197129471	0.07623143078	
648.75	0.1521020075	-0.1623351746	
649.375	0.2059302031	-0.04597500022	
650.0	0.2947614221	-0.4548169801	
650.625	-0.02956996288	-0.2664705009	
651.25	0.2543575955	-0.05371237329	
651.875	0.3497052403	-0.233049744	
652.5	0.1292449458	-0.1755258306	
653.125	0.2692335327	0.04859653456	
653.75	0.2567796547	-0.349122916	
654.375	-0.09964897345	-0.1715186042	
655.0	-0.1244092426	-0.232451217	
655.625	-0.3051717873	0.3416713633	
656.25	0.1366508614	-0.008833063824	
656.875	-0.121563487	0.1626016488	
657.5	0.2130872167	0.02028529152	
658.125	-0.05909074291	0.1274222816	
658.75	0.5090414288	0.1319466121	
659.375	0.1624351475	-0.2490882883	
660.0	0.1999793999	-0.1209549862	
660.625	0.2477231667	-0.3910332452	
661.25	-0.04900332639	-0.3020236836	
661.875	0.246349447	-0.07584304455	
662.5	0.3264670046	-0.2633850007	
663.125	0.1347084406	-0.2106412607	
663.75	0.2308234817	-0.1493134445	
664.375	-0.05840052872	-0.4306541937	
665.0	-0.2306545365	-0.07157917568	
665.625	-0.2701848942	-0.05386028334	
666.25	-0.137397811	0.3442887889	
666.875	0.1377497127	0.08459412101	
667.5	0.09730181746	0.263473248	
668.125	0.2889144781	-0.1312048059	
668.75	0.07416017434	-0.06246007592	
669.375	0.2657329455	-0.2030507099	
670.0	-0.198584129	-0.2519975407	
670.625	0.076182389	-0.03094158385	
671.25	0.07994488198	-0.2966245715	
671.875	0.009284148609	-0.1899559319	
672.5	0.1541749573	-0.0004147261533	
673.125	0.3104148689	-0.2307431136	
673.75	0.03494796573	-0.1979897004	
674.375	0.1317191644	-0.1635990466	
675.0	-0.09936630453	-0.3388314067	
675.625	-0.1857988342	0.01050376155	
676.25	-0.08624883266	-0.1497918976	
676.875	-0.2432552623	0.04758798452	
677.5	-0.03131468267	0.05942754622	
678.125	-0.2400879259	0.0224595462	
678.75	0.1692131174	0.3752505448	
679.375	0.05487117348	-0.05649661675	
680.0	0.2376619416	0.0905714886	
680.625	0.08725230764	-0.2570396967	
681.25	-0.07558636091	0.2476193401	
681.875	0.3700328349	0.05795234423	
682.5	0.0862949451	-0.1013310142	
683.125	0.1698296644	0.2518287913	
683.75	0.4430404382	0.1130407604	
684.375	-0.01856905085	0.007598287306	
685.0	0.2804559962	0.2597429907	
685.625	0.3526215797	-0.06643013566	
686.25	0.1394285498	-0.1055019873	
686.875	0.4170154353	-0.02001937642	
687.5	0.2157851036	-0.4530522036	
688.125	-0.01148171048	-0.2355700507	
688.75	-0.3261746129	-0.3495545813	
689.375	-0.3494955031	0.4030697264	
690.0	0.08626564465	0.1231870903	
690.625	0.1722947485	0.4497489924	
691.25	0.4089929297	0.06936416759	
691.875	0.1464990856	0.3055634344	
692.5	0.706419772	0.3743675016	
693.125	0.501997998	-0.2896195707	
693.75	0.4790015646	0.02562582415	
694.375	0.5762276767	-0.4040582852	
695.0	0.21805796	-0.2067121646	
695.625	0.3453480227	0.0852229013	
696.25	0.663265523	0.2392631699	
696.875	0.2383308102	0.4251012923	
697.5	0.2145374972	0.4622517307	
698.125	0.4509751881	0.3043798511	
698.75	0.2657247331	-0.3934553645	
699.375	-0.1105984719	-0.4110700053	
700.0	-0.4397725015	0.2265885154	
700.625	0.2023884721	0.214318968	
701.25	0.05110449305	0.2241193346	
701.875	0.4125761159	0.2738462901	
702.5	0.17006229	0.07105227103	
703.125	0.3391875351	0.2509915492	
703.75	0.4558155807	-0.190418485	
704.375	0.149388264	-0.04991481893	
705.0	0.3394828038	0.0003885020822	
705.625	0.1507113932	-0.03431566797	
706.25	0.1217036999	0.1997898083	
706.875	0.2062159899	0.3952118649	
707.5	0.2566276872	0.2658097814	
708.125	0.463130269	0.04260651666	
708.75	0.3088271724	-0.2501780648	
709.375	-0.2918720546	-0.2595645766	
710.0	-0.04333306835	0.2188895012	
710.625	-0.1012633273	0.2087615761	
711.25	0.1553699359	0.01752915115	
711.875	0.0790178128	0.1876936899	
712.5	0.375243756	-0.02246807278	
713.125	0.09671058975	-0.1876363505	
713.75	0.1933953233	-0.1187295618	
714.375	0.00878520909	-0.316380804	
715.0	-0.07264707831	-0.1174877731	
715.625	0.1286958148	-0.1931289856	
716.25	0.1448182712	-0.2556725289	
716.875	0.2067075161	-0.08748958798	
717.5	0.5464527838	0.1254975778	
718.125	0.652728903	0.0392391497	
718.75	0.5698580287	-0.2842366806	
719.375	0.7877137075	-0.06035758487	
720.0	0.5897487138	-0.9615032804	
720.625	-0.1262745441	-0.2919728712	
721.25	0.5447551631	-1.089245251	
721.875	-0.6218895794	-1.029264828	
722.5	-0.2219310997	-0.610660724	
723.125	-0.8213356677	-0.297391356	
723.75	-0.1796880361	0.5380259612	
724.375	-0.0777523163	0.2266335776	
725.0	0.1672827193	0.5466698211	
725.625	0.2921981577	0.1890840536	
726.25	-0.1651307536	0.5167387871	
726.875	-0.1296970155	1.046015304	
727.5	0.2397009857	1.015821161	
728.125	-0.6113587139	1.307632231	
728.75	-0.306114676	3.009489905	
729.375	0.4493021341	2.823885366	
730.0	-1.244363372	2.342775197	
730.625	-0.667857254	4.853444617	
731.25	1.636499385	3.157339753	
731.875	-2.66484269	0.8545682931	
732.5	-4.840499735	1.254835133	
733.125	-1.213795457	1.372401786	
733.75	-1.657111117	0.1462085752	
734.375	1.351364553	0.4574754284	
735.0	-0.1271144947	-0.2910667406	
735.625	-0.4546519171	-0.2408117162	
736.25	0.2944676125	0.7478338587	
736.875	-0.04975747954	0.1539804297	
737.5	1.11760905	0.602289308	
738.125	1.33312925	-0.9083617569	
738.75	0.4772097611	-0.8593140558	
739.375	2.945158136	0.01626737245	
740.0	3.394744182	-4.361687573	
740.625	-0.8001112426	0.03506019001	
741.25	-1.261957741	5.182415622	
741.875	0.3667882408	3.302736962	
742.5	1.475580541	-1.975457531	
743.125	0.1632609256	-2.600171726	
743.75	-0.3540069841	-0.6841497051	
744.375	-0.05689313177	-0.2366695261	
745.0	0.1039494057	0.4073908906	
745.625	-0.08979734194	0.05266075396	
746.25	0.01946669549	-0.1882481365	
746.875	-0.1608093396	0.1180631724	
747.5	-0.1449867989	0.1455838469	
748.125	0.07313597056	0.5920585758	
748.75	0.3406353297	0.2865406058	
749.375	0.01235346568	0.3101592575	
750.0	-0.3499021101	0.2774990394	
