!Created with skrf (http://scikit-rf.org).
# GHz S RI R (50+0j) 
!freq	ReS11	ImS11	
500.0	0.5531153232	-1.42415248	
500.625	-0.2914958628	-1.06600811	
501.25	0.1043113831	-0.5447505868	
501.875	-0.4644081357	-0.6014917312	
502.5	-0.04864129547	-0.04491009389	
503.125	-0.08891700756	-0.04201067326	
503.75	0.0682650281	0.1124714748	
504.375	0.004166524767	0.007495471174	
505.0	0.03992487081	-0.05836342206	
505.625	-0.01785174677	0.01425955711	
506.25	-0.02890809435	-0.1649031908	
506.875	-0.097496153	0.2431567247	
507.5	0.2174334724	-0.3944008317	
508.125	-0.223412389	-1.009501694	
508.75	0.02483558326	-0.7297187202	
509.375	0.3213837272	-1.140604687	
510.0	-0.8542407301	-0.3019572391	
510.625	-0.05965094425	-0.09905873907	
511.25	-0.1606793376	-0.1076879344	
511.875	-0.1587197115	0.03459149366	
512.5	-0.05295642432	0.01552011878	
513.125	-0.01017237436	-0.1138910423	
513.75	-0.07351337002	0.00797086939	
514.375	0.01285074439	-0.119792512	
515.0	-0.3246207643	0.02231254246	
515.625	0.7247906694	-0.5113343857	
516.25	-0.8019329342	-0.9791996294	
516.875	-0.005657431009	-0.06889522612	
517.5	0.1258516442	-0.1822811197	
518.125	-0.03964321644	0.05277412654	
518.75	0.07873185726	-0.1410514726	
519.375	-0.069408332	0.06210712121	
520.0	0.08937065181	0.03633928174	
520.625	0.141543364	-0.01513995427	
521.25	0.02738288449	-0.3781928673	
521.875	-0.1596766722	0.01759971533	
522.5	-0.01828150351	-0.04656866247	
523.125	-0.1536350427	0.07782276763	
523.75	0.03046842796	-0.01484991367	
524.375	-0.2996774599	-0.05821667673	
525.0	0.1007663493	0.2108268419	
525.625	-0.03630840678	-0.02430118093	
526.25	0.05341601622	0.04460542325	
526.875	-0.1012937856	-0.007979426673	
527.5	-0.008276008612	0.3002022359	
528.125	0.1442663489	0.1257246916	
528.75	-0.1236738817	0.201016303	
529.375	0.105996919	0.0616976147	
530.0	0.05636026585	0.2104757773	
530.625	0.1604913381	0.4396009823	
531.25	0.390623045	-0.07821871558	
531.875	0.1714510218	-0.04619957621	
532.5	0.04666951475	-0.2017406864	
533.125	0.04184113547	0.1248794022	
533.75	0.1503779836	-0.3301506417	
534.375	-0.1751154925	-0.1820990737	
535.0	-0.1468213947	-0.1622252838	
535.625	-0.2264105845	0.1635353541	
536.25	0.02316208098	0.06089951135	
536.875	0.08856351155	0.06299014782	
537.5	0.08431675136	-0.07868832527	
538.125	0.05647835528	-0.01996725807	
538.75	0.2120643711	-0.1365916323	
539.375	-0.1348437678	-0.1305068564	
540.0	-0.1189392693	-0.1366393857	
540.625	-0.2197090389	-0.06115437641	
541.25	-0.07837958946	0.0688349889	
541.875	-0.0001506436882	-0.09063213899	
542.5	-0.1044044886	-0.1426214003	
543.125	-0.02548049532	-0.02509127859	
543.75	-0.1539304693	-0.03806657496	
544.375	0.001860396408	0.101260724	
545.0	-0.06570181716	0.03051223993	
545.625	0.1317492476	0.07115919107	
546.25	0.03571953146	0.006954323318	
546.875	0.1830837109	0.02876295683	
547.5	0.01390823834	-0.1694755999	
548.125	-0.002708907624	-0.1182958672	
548.75	-0.1455491333	-0.1733033817	
549.375	-0.1495922113	-0.01603023311	
550.0	-0.03641344515	-0.034699098	
550.625	-0.08610029453	0.04653055125	
551.25	-0.04557549576	0.001784179015	
551.875	-0.107068104	0.07236450538	
552.5	-0.02203148229	0.09684431169	
553.125	-0.0326957522	0.05808502976	
553.75	0.06192114896	0.04412182607	
554.375	0.08631451141	-0.008264561192	
555.0	0.1086799361	-0.06891705627	
555.625	0.08506562679	-0.1222345758	
556.25	0.06621681018	-0.1426056833	
556.875	-0.03291292854	-0.16680354	
557.5	-0.1053913112	-0.1095360517	
558.125	-0.123126448	-0.0346964832	
558.75	-0.1098213484	-0.005913199202	
559.375	-0.1270187289	0.0193931572	
560.0	-0.09117168814	0.08885618796	
560.625	-0.06296708675	0.09581419457	
561.25	0.006492940523	0.1304264224	
561.875	0.03684751207	0.007435925324	
562.5	0.0007065127601	0.09244211443	
563.125	0.08343196213	0.03359508892	
563.75	0.1303705895	0.04478495004	
564.375	0.1691253539	-0.1330971764	
565.0	0.02260888222	-0.1472494353	
565.625	0.02674900576	-0.1614230282	
566.25	-0.1758971047	-0.1231101569	
566.875	-0.09092304307	-0.02210235572	
567.5	-0.1461522229	-0.1719894721	
568.125	-0.2677052465	-0.1099317487	
568.75	-0.1396805514	-0.08512640463	
569.375	-0.3194662625	0.1054529888	
570.0	-0.04793155261	0.2320771199	
570.625	-0.1390033891	0.06502375755	
571.25	0.003267318493	0.2178456793	
571.875	0.02643866954	-0.006639090844	
572.5	0.1821806655	0.07011345474	
573.125	0.02223941213	-0.228447785	
573.75	0.01272292622	-0.01118691687	
574.375	0.09843515026	-0.1500684087	
575.0	-0.0665180068	-0.009294887543	
575.625	0.1403364412	-0.08241410578	
576.25	-0.009511422178	-0.1837090261	
576.875	-0.006621990149	-0.05158952513	
577.5	0.08367240002	-0.2092326395	
578.125	-0.1553679615	-0.1958296211	
578.75	-0.05314609224	-0.02194449209	
579.375	-0.03393063259	-0.1839258711	
580.0	-0.1370040492	0.03204090307	
580.625	0.08013642991	-0.1806445672	
581.25	-0.1922377596	0.1822286231	
581.875	0.08662972948	0.09139282425	
582.5	-0.05940637271	0.139351541	
583.125	0.2040668284	0.1632838893	
583.75	-0.02467775257	-0.0791452613	
584.375	0.07330975875	0.1582903132	
585.0	0.08590286774	-0.0626228887	
585.625	0.1086669914	0.1124222526	
586.25	0.2598300338	-0.1091263903	
586.875	-0.02106726061	-0.1307141806	
587.5	0.07567818698	-0.1231121545	
588.125	-0.07344907166	-0.2116886591	
588.75	-0.02816193598	-0.06448731963	
589.375	0.1705612767	-0.1679876596	
590.0	-0.1730175095	-0.2044994482	
590.625	-0.07403101291	-0.02276477954	
591.25	-0.2363327234	0.08336378393	
591.875	0.05834780271	0.215320553	
592.5	-0.1043852183	-0.07146456168	
593.125	0.06000918314	0.140760225	
593.75	-0.01230402414	0.03739778859	
594.375	0.1708746258	0.2074257078	
595.0	0.232981608	-0.01154549673	
595.625	0.0636193687	0.1081762296	
596.25	0.2456287718	0.08023466395	
596.875	0.1504038047	-0.05485304434	
597.5	0.09186518841	0.1492813342	
598.125	0.246833447	0.1185229994	
598.75	0.1370986559	0.007809813241	
599.375	0.2181370467	0.04842040096	
600.0	0.2023309642	-0.2142858454	
600.625	0.06760798468	-0.1828171915	
601.25	0.1358033295	-0.1434930291	
601.875	-0.1455716605	-0.2109857744	
602.5	-0.05677769655	0.06766173973	
603.125	-0.179565259	-0.05487059606	
603.75	-0.02808563255	0.2396845205	
604.375	-0.02421757568	-0.0141217187	
605.0	-0.1797491316	0.1007665325	
605.625	0.04545913205	0.1038810089	
606.25	-0.2538066059	0.02055864217	
606.875	-0.2068658786	0.2181016595	
607.5	-0.05410381161	0.14005879	
608.125	-0.135258233	0.2428464478	
608.75	0.1802400011	0.1393672307	
609.375	0.1420708228	-0.06950384241	
610.0	0.2332431491	-0.06355655983	
610.625	0.05872265286	-0.2680041863	
611.25	-0.04532811982	-0.1230009545	
611.875	-0.06396137101	-0.2286547006	
612.5	-0.2199878882	0.06176126312	
613.125	-0.07273178038	-0.01307028182	
613.75	-0.2054847405	0.19517081	
614.375	0.1820171313	0.06155740635	
615.0	-0.1078516406	0.05439931099	
615.625	0.144044346	0.1051596069	
616.25	-0.0245003006	0.02811632176	
616.875	-0.08017400494	0.2948411487	
617.5	0.04879024394	0.3159663531	
618.125	-0.07133851425	0.22736932	
618.75	-0.02459951385	0.297298875	
619.375	0.07217632359	0.2373681872	
620.0	0.1046086574	0.07037468207	
620.625	0.1571193597	-0.1401695119	
621.25	-0.1733120594	-0.2246429002	
621.875	-0.1128235501	-0.05590149767	
622.5	-0.3053418846	0.05298521315	
623.125	0.05394737784	0.2633990482	
623.75	0.03327154053	0.05574002404	
624.375	0.1635366489	-0.1055126046	
625.0	-0.03225967639	0.02360691025	
625.625	0.1309859482	-0.1238638277	
626.25	-0.1414083001	-0.1317632473	
626.875	-0.05695007525	-0.05725677499	
627.5	-0.215728623	-0.1108773003	
628.125	-0.1502106064	0.01250273498	
628.75	-0.006572384416	-0.1241968395	
629.375	-0.1143647015	-0.1891926138	
630.0	-0.1746965887	-0.03077508117	
630.625	-0.2396378717	-0.01055362832	
631.25	-0.1750612035	0.2736531765	
631.875	0.05845958891	0.3048882348	
632.5	0.080752038	0.1930287999	
633.125	0.3114277944	0.05335420267	
633.75	0.0928848553	-0.1976753134	
634.375	0.1417282875	-0.06315749021	
635.0	-0.1058851188	-0.2791957833	
635.625	-0.08016462108	-0.005542892528	
636.25	-0.2491551939	-0.0004763453031	
636.875	-0.01165387216	0.2182621312	
637.5	-0.01074833648	-0.01198536266	
638.125	-0.1416359431	0.165692272	
638.75	0.04252573292	0.1349522298	
639.375	-0.1152609264	0.1917150966	
640.0	0.2082072395	0.3522585352	
640.625	0.2512627162	0.03499804037	
641.25	0.2222613713	0.09270453543	
641.875	0.2825622799	-0.247925971	
642.5	-0.1482617754	-0.2192089875	
643.125	-0.01849596506	-0.1430667052	
643.75	-0.2804538213	-0.06215760852	
644.375	-0.008583042806	0.06994308041	
645.0	-0.3639748573	0.02448555352	
645.625	0.2041969078	0.2712819664	
646.25	0.05433658273	-0.01754977285	
646.875	0.2065730414	0.2132822339	
647.5	0.01576932398	-0.1688085359	
648.125	0.1782071813	0.2691987269	
648.75	0.3703373512	-0.2298804146	
649.375	0.07338512629	-0.1769900867	
650.0	0.3153018031	-0.2251018973	
650.625	0.1446736452	-0.5693060067	
651.25	0.02818540253	-0.1428466763	
651.875	0.4138607218	-0.07003296596	
652.5	0.3179797592	-0.2769450625	
653.125	0.09396461046	-0.06643516091	
653.75	0.3565257179	-0.2240297854	
654.375	-0.2207661551	-0.4115545624	
655.0	-0.1454532601	-0.01748764437	
655.625	-0.391433999	0.04441499487	
656.25	0.1894545607	0.2897119063	
656.875	-0.08004189963	-0.03537202055	
657.5	0.1294104088	0.2261067227	
658.125	0.1274095304	-0.08400055658	
658.75	0.2311979141	0.2669149421	
659.375	0.4456133698	-0.2791491128	
660.0	0.01666356384	-0.179059865	
660.625	0.2892249816	-0.2736547289	
661.25	0.1836051509	-0.4511778152	
661.875	0.04789528467	-0.21966277	
662.5	0.4112600341	-0.09253732479	
663.125	0.2690712314	-0.3677708627	
663.75	0.07826444581	-0.1989987466	
664.375	0.07564949254	-0.3990234479	
665.0	-0.3988356811	-0.1739903863	
665.625	-0.200947219	0.05276491511	
666.25	-0.2225854142	0.2837650193	
666.875	0.2457104824	0.2548446772	
667.5	0.07415367825	0.06091572869	
668.125	0.3963358216	0.09013585171	
668.75	0.1233702205	-0.257172068	
669.375	0.1128118835	-0.1039465253	
670.0	0.07939250292	-0.3351975007	
670.625	-0.2329756799	-0.05148892014	
671.25	0.2131848422	-0.09884633052	
671.875	0.155620066	-0.2846197045	
672.5	0.07966328867	-0.1315125462	
673.125	0.3577229839	-0.08159860146	
673.75	0.1702379394	-0.3835249099	
674.375	0.009692232938	-0.1310652705	
675.0	0.01805621931	-0.2962390608	
675.625	-0.3339023177	-0.1261566654	
676.25	-0.07409725404	0.06773381207	
676.875	-0.2397128175	-0.1173828389	
677.5	-0.1653870476	0.1603910019	
678.125	-0.09521104833	0.02640191367	
678.75	-0.07421381732	0.3514192395	
679.375	0.3117969704	-0.05071143906	
680.0	0.02200931442	0.01947383443	
680.625	0.3024192868	-0.1251154121	
681.25	-0.09371289028	-0.1651613242	
681.875	0.06949834842	0.2906913488	
682.5	0.4842400155	-0.07475950446	
683.125	0.09587312468	-0.04586547705	
683.75	0.4009142921	0.311815263	
684.375	0.4919723445	-0.04170610545	
685.0	0.05432787655	-0.07671086003	
685.625	0.4178736775	0.2302689782	
686.25	0.2523998059	-0.1501741865	
686.875	0.1713349433	-0.0583840066	
687.5	0.4897005988	-0.2740599136	
688.125	-0.25640211	-0.4779038956	
688.75	-0.2683542207	-0.2347939731	
689.375	-0.4824543881	0.3295349575	
690.0	0.2785331019	0.3769592787	
690.625	0.02867802122	0.16054461	
691.25	0.4995676271	0.4775976353	
691.875	0.4407782139	0.0007220995631	
692.5	0.4281410414	0.3723530426	
693.125	0.9368903655	0.007150117993	
693.75	0.3862130606	-0.3961000936	
694.375	0.7204135797	-0.2397962329	
695.0	0.6013932952	-0.4393972267	
695.625	0.3485997024	-0.1988836962	
696.25	0.6561523138	0.3253454323	
696.875	0.6928634502	0.4652624812	
697.5	0.3261547607	0.6557563029	
698.125	0.5657056294	0.351644158	
698.75	0.5419121118	-0.4234806546	
699.375	-0.4506666411	-0.3129847777	
700.0	-0.4366526429	0.1550573048	
700.625	0.3050191884	0.4159632598	
701.25	0.1995795646	0.01742213805	
701.875	0.1889506996	0.4025684324	
702.5	0.5500029144	0.163503817	
703.125	0.2389854898	0.07635897864	
703.75	0.5140121462	0.01760590606	
704.375	0.3036971634	-0.3536668787	
705.0	0.1646074283	0.01789219936	
705.625	0.4384987552	0.1035545785	
706.25	0.3194317733	0.01569151315	
706.875	0.1266769132	0.3284109352	
707.5	0.3436426334	0.3967035148	
708.125	0.4897377596	-0.02006231487	
708.75	0.3397583625	-0.1694480428	
709.375	-0.1824755261	-0.3147723524	
710.0	-0.1571043826	0.3106666189	
710.625	0.08225715721	-0.1368471907	
711.25	0.2491580646	0.1962785041	
711.875	0.05835780239	0.009907888193	
712.5	0.317574188	0.1656615958	
713.125	0.3232934737	-0.2800195139	
713.75	0.02449507909	-0.191189182	
714.375	0.1602852024	-0.2492414663	
715.0	-0.1374570397	-0.2744971085	
715.625	3.802409424e-05	-0.1150952596	
716.25	0.3231652693	-0.2780704415	
716.875	0.2442374044	-0.3714406753	
717.5	0.3674848508	0.07183119572	
718.125	0.8743577693	0.1696412309	
718.75	0.8038731802	-0.3541211852	
719.375	0.6916677662	-0.0819519697	
720.0	0.8158544612	-1.232182555	
720.625	-0.1364617613	-0.708355732	
721.25	0.3280844903	-0.535695371	
721.875	-0.3406355589	-1.370687972	
722.5	-0.9307491518	-0.4293428912	
723.125	-0.3139464357	-0.4950570211	
723.75	-0.5735544347	0.6742630808	
724.375	0.1893811537	0.3474778448	
725.0	-0.1310786713	0.4120557399	
725.625	0.3904084722	0.6083706501	
726.25	0.1214010835	0.3271176244	
726.875	-0.4180949614	0.9721979366	
727.5	0.064980641	1.706382305	
728.125	0.4062473832	1.364097295	
728.75	-1.360739703	2.40280564	
729.375	-0.2383935684	5.135929145	
730.0	0.6127639702	2.45701522	
730.625	-2.046122313	4.452624873	
731.25	0.6062182605	4.722513277	
731.875	0.02978707504	1.822918306	
732.5	-3.909001706	0.08833263174	
733.125	-2.705061948	1.262071476	
733.75	-0.4547455679	0.7584673638	
734.375	0.7570311106	1.338669649	
735.0	-0.3618232095	-0.8428399378	
735.625	-0.05528931687	-0.1390516227	
736.25	-0.304263838	0.7238330146	
736.875	0.9005554489	0.2490915186	
737.5	0.3062589434	0.4654514421	
738.125	2.281743796	-0.2188002424	
738.75	1.215011508	-1.983371845	
739.375	0.9318120065	-0.2590820298	
740.0	5.656620324	0.1207477494	
740.625	2.561910007	-3.398158031	
741.25	-3.72034843	0.9436817787	
741.875	-4.593755197	3.098585326	
742.5	-0.9714689725	0.663987731	
743.125	1.429199451	-2.435818637	
743.75	-0.3005009919	-1.586646273	
744.375	-0.3774199098	0.2655499343	
745.0	-0.1404033823	0.1735448474	
745.625	0.01519480419	-0.09498394783	
746.25	0.1744776298	-0.0974716119	
746.875	-0.3152044412	0.01442827484	
747.5	0.06002340543	0.3032370071	
748.125	-0.06725555206	0.4402169907	
748.75	0.2789101968	0.5895665548	
749.375	0.1738387628	0.3404567608	
750.0	-0.5169089975	0.09963869624	
