!Created with skrf (http://scikit-rf.org).
# GHz S RI R (50+0j) 
!freq	ReS11	ImS11	
500.0	-0.6637043652	-1.906783704	
500.625	2.076458107	-2.04973615	
501.25	-2.197343069	-2.647996509	
501.875	-1.652086478	-0.9171891196	
502.5	-0.03847691288	-0.2336787948	
503.125	-0.4353880799	0.02667162339	
503.75	0.2520573508	0.03999320947	
504.375	0.1453930096	0.09771382247	
505.0	-0.1051839783	-0.1433556119	
505.625	0.3202253891	-0.2047442754	
506.25	-0.6129809419	0.1181968907	
506.875	-0.05929902348	-1.11185747	
507.5	-1.656056854	-1.624107634	
508.125	-0.8123012565	-0.5636144219	
508.75	3.658566201	-2.490073384	
509.375	-1.220613762	-5.044452219	
510.0	-1.707037398	-0.5157678166	
510.625	-0.4124141935	-1.023932814	
511.25	-0.3390997431	0.09014683877	
511.875	-0.5592074194	-0.3146142768	
512.5	-0.07906800537	0.217789917	
513.125	-0.05562598014	-0.1949538314	
513.75	-0.03030052081	-0.2149870552	
514.375	-0.57747252	-0.3134731031	
515.0	0.7942890808	1.476083821	
515.625	-1.521898661	-3.864318279	
516.25	-0.4878450755	1.042915168	
516.875	0.2848506719	-2.686096028	
517.5	-1.13038767	-0.4314947248	
518.125	0.2710363357	-0.2642110284	
518.75	-0.8613949442	-0.24890043	
519.375	-0.1100053288	0.03689102472	
520.0	0.4618526115	0.3612739511	
520.625	0.5335409251	-0.3477014794	
521.25	0.1416412229	-0.4177937836	
521.875	-0.5547569153	-0.2259883374	
522.5	-0.05568020498	0.1128204392	
523.125	-0.2442192919	0.07874117002	
523.75	-0.03287488535	-0.05911464538	
524.375	-0.6375240548	0.2270598781	
525.0	0.06260011055	0.03510240248	
525.625	-0.0421972875	0.3273752717	
526.25	0.01900924158	-0.3102684471	
526.875	-0.1647911285	0.3917196229	
527.5	0.07123877043	0.2480536039	
528.125	-0.2922878303	0.9773991881	
528.75	0.5738707793	0.9499062909	
529.375	-0.1549153517	0.1452152144	
530.0	0.4506479869	0.4110945038	
530.625	-0.2526643557	1.022378612	
531.25	1.511987913	-0.008833140736	
531.875	0.3982698208	-0.02112680641	
532.5	-0.3629285787	-0.9446984907	
533.125	0.3615754328	0.3696492661	
533.75	0.0125406344	-1.051797729	
534.375	0.0168125589	-0.3139738132	
535.0	-0.9831853395	-0.6089069265	
535.625	-0.1613488413	0.4126655175	
536.25	-0.131361308	0.2098712112	
536.875	0.3707318304	0.08167338855	
537.5	0.04972916203	-0.1377804477	
538.125	0.4569619772	-0.02902076724	
538.75	0.2225489321	-0.433141733	
539.375	-0.0179126893	-0.3545682068	
540.0	-0.5487367815	-0.5475802439	
540.625	-0.2621631516	0.140019041	
541.25	-0.2365280769	-0.1533483773	
541.875	-0.1883020938	0.005535581218	
542.5	-0.09912746936	-0.04310188774	
543.125	-0.08922413957	-0.2530747402	
543.75	-0.4262190469	0.09708023937	
544.375	0.07795804579	-0.1150497781	
545.0	-0.07247438937	0.3701370407	
545.625	0.0999376028	-0.1075394459	
546.25	0.3152803089	0.4600203536	
546.875	0.1837868222	-0.3368179181	
547.5	0.3144925585	-0.04977520659	
548.125	-0.123309592	-0.674919214	
548.75	-0.3726069205	-0.1110426953	
549.375	-0.07265995044	-0.2357787731	
550.0	-0.3626695437	0.01117929094	
550.625	0.02373112356	0.01062106778	
551.25	-0.3623827616	0.05968961153	
551.875	-0.04269784398	0.1754830149	
552.5	-0.2368262649	0.159853843	
553.125	0.005163676978	0.1921807596	
553.75	0.07715947241	0.1237559973	
554.375	0.2631597937	0.03174441593	
555.0	0.2512075375	-0.1835115554	
555.625	0.2230497061	-0.2411765835	
556.25	0.200484295	-0.3545917254	
556.875	-0.07854860004	-0.417709501	
557.5	-0.2296359556	-0.2628202292	
558.125	-0.2749628242	-0.1325170623	
558.75	-0.2900651044	-0.006557434947	
559.375	-0.2331448617	0.03956181389	
560.0	-0.2881893331	0.141934966	
560.625	-0.1184461855	0.330274066	
561.25	0.04098629565	0.1609106314	
561.875	0.01475991662	0.2049704376	
562.5	0.07994682579	0.02316097915	
563.125	0.1115768447	0.3127591062	
563.75	0.3753569908	-0.1345402605	
564.375	0.263737925	-0.03273127839	
565.0	0.2925743742	-0.5013749012	
565.625	-0.1877475029	-0.2868484689	
566.25	-0.120098322	-0.2846166175	
566.875	-0.4271396643	-0.3254637479	
567.5	-0.4049437636	-0.08640857822	
568.125	-0.08319596524	-0.4743906789	
568.75	-0.8068811359	-0.2747802923	
569.375	-0.3367455501	0.2589099599	
570.0	-0.645162237	0.3543513327	
570.625	0.05719243218	0.6512897706	
571.25	-0.1478643898	-0.03726757166	
571.875	0.3265075767	0.5228649858	
572.5	-0.02934543802	-0.1948950372	
573.125	0.5140578199	-0.01237911542	
573.75	0.09811189592	-0.5964505353	
574.375	-0.1525505967	0.08900451459	
575.0	0.363561471	-0.2755597279	
575.625	-0.1987723316	0.01414254278	
576.25	0.4643376227	-0.2668151286	
576.875	-0.2292490279	-0.5338881044	
577.5	-0.04755307826	-0.07856975005	
578.125	0.1689301132	-0.5028039931	
578.75	-0.4099133287	-0.4479141969	
579.375	-0.194407085	0.07649567239	
580.0	0.06414026652	-0.3164970688	
580.625	-0.3151676005	0.1823904888	
581.25	-0.1745136769	-0.1826992465	
581.875	-0.104050362	0.7150317488	
582.5	0.4208680886	0.1493975693	
583.125	-0.265104218	0.1171444361	
583.75	0.55074697	0.3035296823	
584.375	-0.3874415771	-0.09540878558	
585.0	0.5511430208	0.4401604412	
585.625	0.2874844478	-0.3133145992	
586.25	0.2991738763	0.2140583039	
586.875	0.3146605999	-0.6047931229	
587.5	-0.07638234459	-0.04732045245	
588.125	0.2339196776	-0.4897533358	
588.75	-0.1277826888	-0.5364714302	
589.375	0.1270906568	-0.0007399827393	
590.0	0.05013976654	-0.7167071057	
590.625	-0.5386312176	-0.02265451791	
591.25	-0.1531567939	0.2023515389	
591.875	-0.3184817105	0.1692369671	
592.5	0.2279470653	0.2939803627	
593.125	-0.3534129162	0.09772210027	
593.75	0.2972072919	0.2238486185	
594.375	0.09015754224	0.2306429571	
595.0	0.5433530038	0.6224865239	
595.625	0.5948163093	-0.1967514947	
596.25	-0.01766109218	0.3795172213	
596.875	0.8101148306	0.2196852463	
597.5	0.2459860189	-0.09142884958	
598.125	0.1947713503	0.5547005652	
598.75	0.6093616942	0.0764472132	
599.375	0.3030296894	0.1036770662	
600.0	0.6775122445	-0.4053364916	
600.625	0.1159242456	-0.437875868	
601.25	0.3061684529	-0.2341813523	
601.875	-0.154437534	-0.5509142668	
602.5	-0.2720073348	0.05288586242	
603.125	-0.2154018416	0.09262068286	
603.75	-0.324408709	-0.004617526527	
604.375	-0.3973292328	0.3917031722	
605.0	0.02847267495	-0.07422960352	
605.625	-0.4803308608	0.2819473753	
606.25	0.04821276899	0.1444748675	
606.875	-0.720793626	-0.1124611625	
607.5	-0.1761618108	0.7937273288	
608.125	-0.2688068864	0.2048632705	
608.75	0.4978226229	0.9039447829	
609.375	0.2427046413	-0.3695994393	
610.0	0.5374171826	0.05139531467	
610.625	0.220901794	-0.585786849	
611.25	0.1165251882	-0.07001950384	
611.875	-0.3546156953	-0.5524046037	
612.5	-0.176493472	-0.06163069652	
613.125	-0.6015135602	-0.1093289051	
613.75	-0.08164105017	0.4710542965	
614.375	-0.1199044888	0.2418123833	
615.0	0.4337825009	0.05881791121	
615.625	-0.3257033673	0.1450611035	
616.25	0.04078023206	0.5922810887	
616.875	-0.1626659527	0.08746017785	
617.5	-0.4471802393	0.7652449928	
618.125	0.2153817817	0.5095153451	
618.75	-0.2362786586	0.2984459929	
619.375	0.374674381	0.5742204187	
620.0	0.2606530316	0.1027066439	
620.625	0.4595602534	-0.3758088035	
621.25	-0.1881751547	-0.3079795092	
621.875	-0.4469330459	-0.3879072045	
622.5	-0.3840033378	0.2761187897	
623.125	-0.2520645167	0.2983005301	
623.75	0.4733856744	0.1712992679	
624.375	-0.1087296535	0.01558210175	
625.0	0.323688957	-0.4611552365	
625.625	0.009748893659	0.1155882751	
626.25	0.1055074957	-0.6290167105	
626.875	-0.5624387978	-0.008943540296	
627.5	-0.01924817245	-0.1234905907	
628.125	-0.4216543575	-0.3932124769	
628.75	-0.1829083202	-0.09410434958	
629.375	-0.02834071443	-0.5107048417	
630.0	-0.6455269487	-0.2119082685	
630.625	-0.3182781732	-0.05550387311	
631.25	-0.5914979765	0.4636802226	
631.875	0.03664566929	0.6689014975	
632.5	0.2611949109	0.4112895926	
633.125	0.3577454836	0.2050963829	
633.75	0.6620902734	-0.034323195	
634.375	-0.09510705843	-0.3249227907	
635.0	0.273571406	-0.297514476	
635.625	-0.6473778605	-0.2583581055	
636.25	-0.04222207673	-0.02818563703	
636.875	-0.4978451318	0.489739531	
637.5	0.2450749298	0.1427351151	
638.125	-0.5313748706	0.002620527371	
638.75	0.09706860495	0.8496459415	
639.375	-0.1080310924	0.02064071026	
640.0	0.003855452288	0.9137072773	
640.625	0.8695864617	0.4500216425	
641.25	0.3963470546	-0.1938073524	
641.875	0.7924295158	-0.03151951109	
642.5	-0.3813328339	-0.6233620596	
643.125	0.1522508166	-0.2104465664	
643.75	-0.6824218037	-0.4241225935	
644.375	-0.0005687920667	0.2742455919	
645.0	-0.7683401736	0.01372659685	
645.625	0.2391784943	0.7766598911	
646.25	0.5063418218	-0.0381648356	
646.875	-0.1748511258	0.1246644892	
647.5	0.7200370531	0.07986739895	
648.125	-0.3097663069	0.1758541234	
648.75	1.277178051	0.02380582888	
649.375	0.07070129494	-0.9134867734	
650.0	0.5807668292	0.04803588264	
650.625	0.8298916088	-1.463047125	
651.25	-0.3516294751	-0.4262627976	
651.875	0.9173289192	0.3458136575	
652.5	1.14455614	-0.6986171713	
653.125	0.1199315122	-0.3537101096	
653.75	0.9841609597	-0.1074246747	
654.375	-0.3697640068	-1.087099573	
655.0	-0.2703142053	0.05461344818	
655.625	-0.9038164012	-0.01138213472	
656.25	0.5016780498	0.7814350426	
656.875	-0.2392780914	-0.1290063663	
657.5	0.2103629972	0.5602925442	
658.125	0.4276700717	0.1374236188	
658.75	0.2508129567	0.3801220107	
659.375	1.337876412	-0.2905446993	
660.0	0.1491357066	-0.8071223902	
660.625	0.5428682637	-0.371785839	
661.25	0.8014679488	-1.093771041	
661.875	-0.1785253606	-0.5511754903	
662.5	1.02874853	0.1219140286	
663.125	0.8808196304	-0.9614032769	
663.75	-0.01615923587	-0.4002413996	
664.375	0.4812832602	-0.8555167038	
665.0	-1.041963958	-0.5247489269	
665.625	-0.3775054484	-0.02706359056	
666.25	-0.6309785628	0.7898539904	
666.875	0.557237253	0.3724251341	
667.5	0.01424653011	0.3969530603	
668.125	0.8729936411	-0.009203105454	
668.75	0.2389834528	-0.4632563826	
669.375	0.2897440342	-0.2336869137	
670.0	0.2763804894	-0.675950064	
670.625	-0.2856433032	-0.5646461648	
671.25	0.3089029142	-0.1266360416	
671.875	0.4834278895	-0.6075644744	
672.5	0.1624543759	-0.416130104	
673.125	0.8488166643	-0.093209995	
673.75	0.2860315427	-0.8933682895	
674.375	0.00271155031	-0.190423236	
675.0	0.3002214196	-0.8222445921	
675.625	-0.9917630814	-0.46299072	
676.25	0.1065152507	0.1964562914	
676.875	-0.7180541582	-0.4680502637	
677.5	-0.1874826476	0.4098968613	
678.125	-0.4864814287	-0.1277628503	
678.75	0.2045148088	1.033017655	
679.375	0.1690265593	-0.08747138003	
680.0	0.5418781778	0.1358907865	
680.625	0.3346870953	-0.5672231032	
681.25	-0.3102637425	0.0537345179	
681.875	0.7014134417	0.4659271904	
682.5	0.6598655091	0.0008490946953	
683.125	0.4526745338	0.02082209077	
683.75	0.2815420677	0.5466733005	
684.375	1.346522908	0.02031567135	
685.0	-0.09787885915	-0.07562166093	
685.625	1.185524535	0.4870372157	
686.25	0.683515679	-0.7807830156	
686.875	0.4927773493	0.6599958208	
687.5	1.308597317	-1.56747767	
688.125	-0.5804343959	-0.182626351	
688.75	-0.5211217593	-1.420707683	
689.375	-0.9952283022	1.249500121	
690.0	0.1418615513	0.2376604361	
690.625	0.5441832523	1.237131298	
691.25	0.769210334	0.3189749408	
691.875	0.7465825589	0.9588336336	
692.5	1.79102496	0.5664387963	
693.125	1.377184834	-0.1636031731	
693.75	1.512784952	-0.3639643523	
694.375	0.9808465875	-0.8827203642	
695.0	1.349439114	-0.662738992	
695.625	1.005025001	-0.5611369343	
696.25	0.7996559462	1.069406304	
696.875	1.740849114	1.00001906	
697.5	0.2118882699	0.6396099118	
698.125	1.784960898	1.592792254	
698.75	0.597973954	-1.482440603	
699.375	0.216969837	-1.315287639	
700.0	-1.206863605	1.332816337	
700.625	0.3697900519	0.1087076651	
701.25	0.5722545968	1.217427723	
701.875	0.6380493732	0.1207287534	
702.5	0.5225773251	0.8675541527	
703.125	1.480837526	0.05643022074	
703.75	0.5734539275	0.01370591334	
704.375	1.040625815	-0.5044025501	
705.0	0.1080140056	-0.4488806178	
705.625	0.831717757	0.5852378067	
706.25	0.9569936145	-0.136711305	
706.875	-0.03120230821	0.8021798291	
707.5	0.9562378388	1.419582676	
708.125	0.9128943494	-0.07540996316	
708.75	1.221376102	-0.4417277771	
709.375	-0.958673124	-0.9688437659	
710.0	-0.2524876898	0.3184576316	
710.625	-0.03272439785	0.6438805823	
711.25	0.2699063587	0.09979868227	
711.875	0.4013820616	0.5219371603	
712.5	0.7767501427	-0.09686434656	
713.125	0.8493944982	-0.2547348115	
713.75	0.04614625961	-0.8130397773	
714.375	0.3709562689	-0.1891900073	
715.0	-0.220706828	-0.9241596578	
715.625	-0.0893314817	0.03353017544	
716.25	1.185936038	-0.7439135475	
716.875	0.2155905399	-1.184931102	
717.5	1.044239074	1.262972964	
718.125	3.155705606	-0.03789167891	
718.75	0.2739302742	-1.289750536	
719.375	4.004592509	1.075238638	
720.0	0.5607120962	-3.854450716	
720.625	0.6486588076	-1.25904347	
721.25	1.037216109	-2.690188111	
721.875	-1.617759066	-3.312173269	
722.5	-0.3961026176	-1.4783991	
723.125	-2.586343317	-0.849077648	
723.75	-0.7719241079	1.313739046	
724.375	-0.2646717015	0.7682448643	
725.0	0.2889480016	1.383471616	
725.625	0.8181830095	0.906904764	
726.25	-0.2292146514	0.8612158457	
726.875	-1.28154457	2.974453794	
727.5	1.025256678	4.962807506	
728.125	-0.5662683285	0.6053781919	
728.75	-3.642724823	14.2483357	
729.375	3.196812507	11.20407436	
730.0	-8.873074487	6.724760796	
730.625	6.702731981	20.97266484	
731.25	1.861813288	-0.7418579734	
731.875	-14.53679484	6.266250944	
732.5	-12.05805133	5.628778465	
733.125	-3.345649169	2.983599342	
733.75	-4.619180411	0.5694085922	
734.375	3.423932837	1.512532162	
735.0	-0.05038739865	-0.8954066226	
735.625	-1.527515501	-0.9058186931	
736.25	0.9365830533	1.694923153	
736.875	-0.3807103384	1.332813422	
737.5	3.753955904	1.283906262	
738.125	4.932727685	-2.405137284	
738.75	0.328691897	-3.658770401	
739.375	10.31155068	5.870547138	
740.0	16.43288342	-20.21098603	
740.625	-10.38731547	-7.946580363	
741.25	-9.568017216	20.00331083	
741.875	7.539879251	13.37629674	
742.5	1.169128697	-14.11806799	
743.125	-6.018359948	-10.46489664	
743.75	-0.9000607809	0.5973102002	
744.375	-0.4943925186	-2.01474916	
745.0	0.7532884075	0.8523925194	
745.625	-0.05583362375	0.277372251	
746.25	-0.0798976494	-0.5831733194	
746.875	-0.5616976635	0.3913354758	
747.5	-0.427543561	0.389451697	
748.125	0.4260543325	1.729820962	
748.75	1.014215711	0.7251243991	
749.375	-0.7655563329	1.550957901	
750.0	-0.04330646444	1.552104393	
