!Created with skrf (http://scikit-rf.org).
# GHz S RI R (50+0j) 
!freq	ReS11	ImS11	
500.0	0.7198880938	-1.227234755	
500.625	-0.02793736248	-1.469144883	
501.25	0.01806728038	-0.4688725497	
501.875	-0.3936550607	-0.7928636872	
502.5	-0.09426260403	-0.08866657551	
503.125	-0.07704148795	-0.05088439825	
503.75	0.05494750076	0.1402055644	
504.375	0.0006728262809	-0.0004036552585	
505.0	0.05825421997	-0.03505234906	
505.625	-0.03589127312	-0.002213555556	
506.25	0.03140361211	-0.1269895523	
506.875	-0.1409659886	0.2736286066	
507.5	0.2806793154	-0.2911905464	
508.125	0.1756581035	-1.083146671	
508.75	0.1661837656	-0.7161755622	
509.375	0.6423795432	-1.196118449	
510.0	-0.7057803331	-0.3547757239	
510.625	-0.1141018916	-0.07419716063	
511.25	-0.09673773356	-0.1296421126	
511.875	-0.203631798	0.03958977539	
512.5	-0.04467506467	0.002926473044	
513.125	0.04468678917	-0.1357777264	
513.75	-0.1085177017	0.003578120261	
514.375	0.06658998365	-0.07280350587	
515.0	-0.3517935596	-0.04735317235	
515.625	0.535713653	-0.1574797845	
516.25	-0.695114643	-1.168868341	
516.875	-0.3336945454	-0.1096377845	
517.5	0.1297651488	-0.141454791	
518.125	-0.129019486	-0.0381800128	
518.75	0.03601737294	-0.1837498923	
519.375	-0.0931045353	0.05164364037	
520.0	0.1032677137	0.04331741232	
520.625	0.1059315031	0.00337232682	
521.25	0.01690935271	-0.2596027061	
521.875	-0.2146151328	0.05974769074	
522.5	0.009387996086	-0.03932245598	
523.125	-0.1695767349	0.1193970589	
523.75	0.00945865132	0.05828903084	
524.375	-0.2706646944	-0.1351164876	
525.0	0.0710523872	0.2658367934	
525.625	-0.02651662399	-0.04056873331	
526.25	0.04412284539	0.05637286847	
526.875	-0.07792358602	-0.03022119268	
527.5	-0.03658276966	0.3001048257	
528.125	0.1792339416	0.1733435806	
528.75	0.03830691566	0.3411522522	
529.375	0.1075991909	0.140408037	
530.0	-0.02078478345	0.04091302583	
530.625	0.017596784	0.3093082987	
531.25	0.4943212493	-0.05463720561	
531.875	0.1593971394	0.0007436193436	
532.5	0.04490698651	-0.2171000459	
533.125	-0.04324004238	0.1040613263	
533.75	0.2997400073	-0.2700736541	
534.375	-0.1686944307	-0.217491304	
535.0	-0.132056917	-0.1538316167	
535.625	-0.2586922992	0.1331356325	
536.25	0.03269013914	0.07898869219	
536.875	0.07526578581	0.06601622719	
537.5	0.09432041365	-0.08016375237	
538.125	0.06572424543	-0.04220043959	
538.75	0.2166686198	-0.1082389885	
539.375	-0.1537543836	-0.1658927588	
540.0	-0.1408821176	-0.1311618139	
540.625	-0.167588578	-0.07407714049	
541.25	-0.1065347948	0.06640377634	
541.875	0.03000963316	-0.07336919475	
542.5	-0.1104934443	-0.08359000786	
543.125	-0.04669265313	0.02389599344	
543.75	-0.1385312283	-0.07772865121	
544.375	-0.01134853588	0.09294214065	
545.0	-0.06010636856	0.01280712114	
545.625	0.1147286837	0.09539045461	
546.25	0.0520184453	-0.03069262755	
546.875	0.167657569	0.03584990346	
547.5	0.04402322841	-0.1978489258	
548.125	-0.01665648766	-0.1026657336	
548.75	-0.1233704397	-0.1937110425	
549.375	-0.1637728916	-0.0416893266	
550.0	-0.03264215777	-0.01814085467	
550.625	-0.1045278323	0.02670301502	
551.25	-0.04748053304	0.03628744428	
551.875	-0.121448524	0.05987410271	
552.5	-0.04177829514	0.1095622757	
553.125	-0.0286680671	0.04662963698	
553.75	0.0615845936	0.06221189504	
554.375	0.09274794109	0.0008045024897	
555.0	0.1194217871	-0.06181193188	
555.625	0.09938204095	-0.1196410801	
556.25	0.07445105607	-0.1471228037	
556.875	-0.02703403943	-0.1758965146	
557.5	-0.1054531511	-0.1230546357	
558.125	-0.1285218037	-0.04485175122	
558.75	-0.1122110325	-0.009881407491	
559.375	-0.1300102564	0.01471387489	
560.0	-0.1004410275	0.09246092577	
560.625	-0.0619917026	0.09934075492	
561.25	-0.0086456441	0.1426740091	
561.875	0.04400932481	0.02221731463	
562.5	-0.01447125073	0.09077043124	
563.125	0.09857365016	0.04961857821	
563.75	0.1096745688	0.04052874517	
564.375	0.1907109805	-0.1121905263	
565.0	0.03550165464	-0.1821518349	
565.625	0.02914269034	-0.1554016591	
566.25	-0.1861396298	-0.2046235677	
566.875	-0.117134465	-0.03203416609	
567.5	-0.1304979103	-0.185928773	
568.125	-0.2320073925	-0.1499606187	
568.75	-0.133182973	-0.07537069308	
569.375	-0.3400993262	0.06784705533	
570.0	-0.07465689577	0.2605443465	
570.625	-0.07591996496	0.1017539467	
571.25	-0.03982994135	0.2310897237	
571.875	0.07159620317	-0.01056100589	
572.5	0.1584790504	0.09602652856	
573.125	0.0917031817	-0.2204409717	
573.75	-0.01668662562	-0.02311727083	
574.375	0.1206260091	-0.1043288969	
575.0	-0.07235553418	-0.04528416104	
575.625	0.133438157	-0.04935156852	
576.25	0.02891212927	-0.2248759337	
576.875	-0.03520229577	-0.06729819169	
577.5	0.1086760925	-0.1732548674	
578.125	-0.1223896852	-0.2342695221	
578.75	-0.1002259533	0.0283619134	
579.375	-0.0006422322048	-0.1511881415	
580.0	-0.1589084454	-0.006059055827	
580.625	0.06940159598	-0.0822251915	
581.25	-0.2487410517	0.1896294255	
581.875	0.1000315531	0.1206547044	
582.5	-0.04740022905	0.1014455737	
583.125	0.158660585	0.2088100938	
583.75	0.01587784281	-0.1036924859	
584.375	0.04757931928	0.1886164479	
585.0	0.1662187305	-0.02802877885	
585.625	0.07128319366	0.08613403079	
586.25	0.2822401704	-0.05825200039	
586.875	-0.007107285286	-0.1772513079	
587.5	0.06865977628	-0.09188593339	
588.125	-0.01781770034	-0.2410812348	
588.75	-0.05936322594	-0.100415741	
589.375	0.1910759945	-0.121160922	
590.0	-0.1460300016	-0.2484736955	
590.625	-0.07847493346	0.004827726103	
591.25	-0.2277156645	0.04000001876	
591.875	0.07749651589	0.295609358	
592.5	-0.01739419686	-0.07994866019	
593.125	0.036616047	0.1583771597	
593.75	0.01658442287	0.02008342065	
594.375	0.1812823863	0.2141692538	
595.0	0.2929757579	0.06848201954	
595.625	0.07267668594	0.0660102581	
596.25	0.2097835534	0.1421386892	
596.875	0.1527522296	-0.04415026657	
597.5	0.05539906703	0.09884127649	
598.125	0.233303689	0.1725575148	
598.75	0.1594929669	0.02935094719	
599.375	0.194248483	0.04812913179	
600.0	0.2584127054	-0.189889113	
600.625	0.06755700411	-0.2342701462	
601.25	0.1221034782	-0.1096199642	
601.875	-0.1229121164	-0.2628691813	
602.5	-0.103058235	0.07257882601	
603.125	-0.154605781	-0.09011589281	
603.75	-0.1680761538	0.1775904988	
604.375	-0.02537375332	-0.04010102031	
605.0	-0.1868584127	0.05577112461	
605.625	-0.006882260073	0.1562041694	
606.25	-0.1806327365	-0.0227416783	
606.875	-0.2182340948	0.1732033477	
607.5	-0.1258671907	0.1468876703	
608.125	-0.1406930351	0.1987042918	
608.75	0.2630746791	0.2791581413	
609.375	0.2324770364	-0.04991783633	
610.0	0.2179267402	-0.006796796807	
610.625	0.1213539124	-0.2830316422	
611.25	-0.0529047817	-0.09896010837	
611.875	-0.0007423258895	-0.2018168829	
612.5	-0.2910292656	-0.0003062244573	
613.125	-0.07734905295	-0.01013758861	
613.75	-0.2406984284	0.1587103991	
614.375	0.1725878648	0.139826156	
615.0	-0.1145111882	0.1076566469	
615.625	0.09275051223	0.210843588	
616.25	0.01719896458	0.04738496613	
616.875	-0.2159160957	0.1617159002	
617.5	-0.047965109	0.1404031357	
618.125	0.01705192805	0.1088003949	
618.75	-0.09541529063	0.2701299844	
619.375	0.203521798	0.1865159912	
620.0	0.1989965338	-0.04598912547	
620.625	0.2313262813	-0.1506976894	
621.25	-0.1629620828	-0.2792353751	
621.875	-0.1023360817	-0.1064377011	
622.5	-0.3058446756	-0.1004630012	
623.125	0.01204320768	0.2589032714	
623.75	0.03862965924	0.01929434778	
624.375	0.162142317	-0.06473718286	
625.0	-0.05226037136	-0.01894884231	
625.625	0.1522480372	-0.08741775899	
626.25	-0.1344141474	-0.1785462232	
626.875	-0.06910880053	-0.04386509907	
627.5	-0.1820013716	-0.1222638215	
628.125	-0.167291394	-0.043320071	
628.75	0.002928812614	-0.09525413231	
629.375	-0.05881014624	-0.2014768698	
630.0	-0.2150110091	-0.02400037756	
630.625	-0.1987933661	-0.00962430408	
631.25	-0.2378502372	0.2506266868	
631.875	0.02597206662	0.3181462972	
632.5	0.06969808458	0.1249914084	
633.125	0.3138697538	0.1902891855	
633.75	0.1394731705	-0.1343177672	
634.375	0.1243147116	-0.02702607627	
635.0	-0.02638057745	-0.2521037808	
635.625	-0.133715237	0.005033242269	
636.25	-0.2136700645	-0.04496608307	
636.875	-0.07108911748	0.2362716383	
637.5	0.02908416589	0.008072035482	
638.125	-0.1836337167	0.1217489922	
638.75	0.0334232107	0.2059143045	
639.375	-0.1059408413	0.1786103692	
640.0	0.12355003	0.3839039151	
640.625	0.3026657299	0.08714836147	
641.25	0.1653108161	-0.03045070244	
641.875	0.3369244728	-0.2033347422	
642.5	-0.1227722343	-0.265192531	
643.125	0.02928464031	-0.03939392804	
643.75	-0.2900516267	-0.2020777568	
644.375	-0.06753027211	0.0890532742	
645.0	-0.3344916282	-0.08250131812	
645.625	0.1531055159	0.3427352961	
646.25	0.04944931708	-0.105693521	
646.875	0.1072243686	0.1606016205	
647.5	0.1098886597	-0.1557282673	
648.125	0.08507540771	0.2279467998	
648.75	0.4787692016	-0.1584938466	
649.375	0.09286421554	-0.2612275123	
650.0	0.2965831298	-0.1641888048	
650.625	0.273548079	-0.4912265194	
651.25	-0.0007218551747	-0.2200677012	
651.875	0.3756460375	0.005143710234	
652.5	0.4194534396	-0.2071491387	
653.125	0.1381445646	-0.1512172209	
653.75	0.3552562462	-0.03229136289	
654.375	-0.1066230553	-0.4682113674	
655.0	-0.1928476725	0.0468096106	
655.625	-0.3282564312	0.04025435163	
656.25	0.1264985984	0.4721647122	
656.875	-0.02187904323	-0.08614371503	
657.5	0.06630234481	0.2612652102	
658.125	0.2046477842	-0.0393667286	
658.75	0.1508687854	0.2640514502	
659.375	0.5641011262	-0.2223582861	
660.0	0.09145121098	-0.3261814554	
660.625	0.2859333974	-0.2164117644	
661.25	0.2869426775	-0.4135177721	
661.875	0.03077640347	-0.3192437097	
662.5	0.3429725402	-0.02314158495	
663.125	0.3909334322	-0.3083948456	
663.75	0.08762480509	-0.2366953867	
664.375	0.1289124337	-0.3542849198	
665.0	-0.3944117404	-0.2939335693	
665.625	-0.2309993984	0.08977641208	
666.25	-0.2861085953	0.1702244572	
666.875	0.1852396353	0.3239601067	
667.5	0.1038900911	0.03531949726	
668.125	0.3106866995	0.124476132	
668.75	0.160647521	-0.3339768643	
669.375	0.08406649691	-0.1094612494	
670.0	0.1330766306	-0.3038756727	
670.625	-0.1340210643	-0.2348653099	
671.25	0.2066571926	-0.0448308753	
671.875	0.2294523478	-0.2737962955	
672.5	0.1343482964	-0.1891762585	
673.125	0.240686691	-0.02953411153	
673.75	0.2790423282	-0.3873283579	
674.375	-0.04786747636	-0.2168865864	
675.0	0.06675165912	-0.2642384281	
675.625	-0.2756727749	-0.2493474346	
676.25	-0.1291164069	0.0633054143	
676.875	-0.1191958248	-0.1733885747	
677.5	-0.2619471583	0.1160467779	
678.125	-0.04691918923	0.05444159481	
678.75	-0.197209754	0.287505479	
679.375	0.3939668086	0.06669222884	
680.0	-0.008233466518	-0.04703215776	
680.625	0.3522859088	-0.02521088439	
681.25	0.05952408482	-0.1774428827	
681.875	0.02888823915	0.4451228352	
682.5	0.4806358137	0.1707594031	
683.125	0.1749808894	-0.08150503493	
683.75	0.2029013381	0.2544154535	
684.375	0.4762506294	0.05581304515	
685.0	0.09985767297	-0.04607686989	
685.625	0.256968606	0.3035298865	
686.25	0.3825631414	-0.1326384353	
686.875	0.188655668	-0.09789571877	
687.5	0.4701597759	-0.1472217759	
688.125	-0.09683605187	-0.6625481675	
688.75	-0.2579037352	-0.1799750117	
689.375	-0.5397339936	0.1714739296	
690.0	0.1923844032	0.5725828292	
690.625	0.07035252748	0.1065287671	
691.25	0.4111509223	0.6334594859	
691.875	0.5748499043	0.1689766457	
692.5	0.3631932316	0.5434230078	
693.125	0.9105884747	0.1771633128	
693.75	0.5886428129	-0.4554843749	
694.375	0.5992953123	-0.1359151443	
695.0	0.6656401912	-0.3728455422	
695.625	0.3646838114	0.1153973613	
696.25	0.2962809487	0.3254326414	
696.875	0.5384758459	0.7257794622	
697.5	0.3904361762	0.3670713536	
698.125	0.5063222029	0.3244058542	
698.75	0.7451891066	-0.3634162527	
699.375	-0.4649753988	-0.4563987343	
700.0	-0.3208093016	0.06393245833	
700.625	0.1244713357	0.5728001666	
701.25	0.1944510378	0.04586167983	
701.875	0.1102527131	0.4058179595	
702.5	0.5572740278	0.3260681015	
703.125	0.21418307	0.1105109156	
703.75	0.4665962748	0.1066865672	
704.375	0.4010043769	-0.3158427476	
705.0	0.1236524739	-0.07468089831	
705.625	0.3874818596	0.1452610798	
706.25	0.3301107641	0.1469882184	
706.875	0.09029536576	0.2563044094	
707.5	0.214396777	0.3918315983	
708.125	0.5905879674	0.09953238512	
708.75	0.2259710878	-0.4187449183	
709.375	-0.1621150288	-0.5127715088	
710.0	-0.2776600608	0.2975294331	
710.625	-0.01710956073	0.01579910516	
711.25	0.05631633515	0.4544586943	
711.875	0.1357782691	-0.02200573631	
712.5	0.2652873859	0.2009985131	
713.125	0.4090838031	-0.2278383774	
713.75	0.03864739305	-0.2338555915	
714.375	0.1634244023	-0.1756485821	
715.0	-0.08308405316	-0.3465358701	
715.625	-0.02942339521	-0.1103497266	
716.25	0.3157118081	-0.2033976567	
716.875	0.3873442846	-0.3711677945	
717.5	0.3021794871	0.0640862183	
718.125	0.7712362536	0.3329321689	
718.75	1.004551354	-0.3153293152	
719.375	0.5561088402	-0.7118500075	
720.0	1.203813968	-0.8152437872	
720.625	-0.1489913498	-1.028565676	
721.25	0.4430087619	-0.7313981321	
721.875	0.18797296	-1.57990953	
722.5	-0.8350516088	-0.736721583	
723.125	-0.201200788	-0.3278809836	
723.75	-0.7348520925	0.495127307	
724.375	0.265514151	0.3871731142	
725.0	-0.05691581771	0.3341630348	
725.625	0.2667711615	0.7293385531	
726.25	0.2569994249	0.5169933023	
726.875	-0.4800976457	0.7825406	
727.5	-0.295056895	1.854915787	
728.125	0.4513564316	1.731463381	
728.75	-1.175489869	2.141591308	
729.375	-1.379927429	5.025277726	
730.0	1.210431604	4.241295403	
730.625	-2.205880058	3.462812673	
731.25	-1.411692828	6.119625261	
731.875	-1.094832611	2.026476602	
732.5	-3.551462588	-1.859827341	
733.125	-3.73417686	0.5972317274	
733.75	-0.531182018	0.9420782457	
734.375	0.3789127794	1.093658012	
735.0	-0.2102049847	-1.365219261	
735.625	-0.1587196942	0.06312711665	
736.25	-0.4348404682	0.6055372188	
736.875	0.7328105027	0.6622196965	
737.5	0.3126655627	0.0319733854	
738.125	2.184083949	0.4179997499	
738.75	1.866784935	-2.158128503	
739.375	0.7684762383	-0.8757592819	
740.0	4.592061129	1.725279887	
740.625	4.998671246	-3.960178937	
741.25	-2.564379595	-0.8774691057	
741.875	-6.707310654	0.2982152912	
742.5	-1.827653172	-0.4751117497	
743.125	1.71414359	-0.0487665025	
743.75	0.2103605998	-1.731708836	
744.375	-0.5656809208	0.2524546127	
745.0	-0.1341078521	0.02235041641	
745.625	0.1073586129	-0.1345864083	
746.25	0.08964157648	-0.04362579227	
746.875	-0.3317998702	-0.04626514986	
747.5	-0.09021691207	0.3432852262	
748.125	-0.1007436349	0.3670656095	
748.75	0.2264894039	0.6386908816	
749.375	0.2411074842	0.4805994792	
750.0	-0.4228208823	0.1390115306	
