!Created with skrf (http://scikit-rf.org).
# GHz S RI R (50+0j) 
!freq	ReS11	ImS11	
500.0	0.0389921611	-1.060649679	
500.625	0.3517203426	-1.031280964	
501.25	-0.4680405808	-0.7874268648	
501.875	-0.3001819653	-0.4586567387	
502.5	-0.05726980297	-0.1335139203	
503.125	-0.07869054108	0.004980518456	
503.75	0.01358385466	0.0859759294	
504.375	0.02711083881	-0.006315096177	
505.0	0.02299140538	-0.02013075306	
505.625	0.001454702411	-0.05575225046	
506.25	-0.05828473899	-0.06454340036	
506.875	-0.1311699508	-0.002450308761	
507.5	-0.09404635269	-0.3556803354	
508.125	0.126608901	-0.6651624143	
508.75	0.5511831486	-1.084891817	
509.375	-0.1635393577	-1.440434211	
510.0	-0.4493501377	-0.3015342809	
510.625	-0.07097248398	-0.1590802056	
511.25	-0.1512688433	-0.01093655413	
511.875	-0.1207328774	-0.01036746915	
512.5	-0.005101486394	0.04172982061	
513.125	-0.01431087203	-0.07231814226	
513.75	-0.05799581824	-0.06367137223	
514.375	-0.0635027352	-0.01363396842	
515.0	0.03441641351	-0.02207534577	
515.625	-0.03312148231	-0.4252599812	
516.25	-0.1724671165	-0.7555132336	
516.875	-0.2158613719	-0.4576582584	
517.5	-0.03835037433	-0.1498088962	
518.125	-0.02852739847	-0.03389415642	
518.75	-0.05776775929	-0.1374159597	
519.375	-0.0621647698	0.04043620489	
520.0	0.1127953566	0.06493449892	
520.625	0.1736185806	-0.04975304236	
521.25	-0.007586261125	-0.2805207914	
521.875	-0.1534038083	-0.02267358015	
522.5	-0.0463141553	0.02482719692	
523.125	-0.06903151457	0.02655002976	
523.75	-0.1138397019	-0.006766384498	
524.375	-0.1559279955	0.02051038209	
525.0	-0.05478448698	0.1388204364	
525.625	0.03979904128	0.05123919767	
526.25	-0.01632152606	-0.01767913094	
526.875	-0.05461120946	0.05902622475	
527.5	-0.04273403836	0.1887826437	
528.125	0.0494466652	0.2651019873	
528.75	0.02246896158	0.2403025942	
529.375	0.04136707124	0.07267435464	
530.0	0.008424882497	0.1609298832	
530.625	0.0979847797	0.3160611537	
531.25	0.4268671521	0.1237010923	
531.875	0.2351143862	-0.1677731109	
532.5	-0.04184337818	-0.1177688251	
533.125	0.05464630783	-0.05909169981	
533.75	0.1230120235	-0.1722278193	
534.375	-0.05847011331	-0.3007850463	
535.0	-0.2448365824	-0.123080689	
535.625	-0.1742344577	0.1069426704	
536.25	-0.006097112016	0.09889817151	
536.875	0.0994091286	0.02014251417	
537.5	0.07345550572	-0.0464749915	
538.125	0.1170949677	-0.06456759339	
538.75	0.1360982763	-0.1223493609	
539.375	-0.07562888906	-0.1781030406	
540.0	-0.1723827178	-0.1643758124	
540.625	-0.173439042	-0.02505071348	
541.25	-0.08688905414	0.003384903876	
541.875	-0.04293528573	-0.02833764411	
542.5	-0.04792687087	-0.06186314095	
543.125	-0.08321835637	-0.04886699976	
543.75	-0.08540419939	-0.008362279642	
544.375	-0.05370374633	0.03726098383	
545.0	-0.006769542293	0.06636698324	
545.625	0.05598794048	0.06753694478	
546.25	0.09749816151	0.04030297911	
546.875	0.1246321346	-0.01824347601	
547.5	0.08262681296	-0.1274697361	
548.125	-0.03839209612	-0.1795228248	
548.75	-0.1315388334	-0.1322135992	
549.375	-0.1202707144	-0.07395784191	
550.0	-0.07934872494	0.00891463619	
550.625	-0.05292997419	0.001747122628	
551.25	-0.08656670931	0.02226879327	
551.875	-0.08772175705	0.07222460349	
552.5	-0.05065240452	0.08590158226	
553.125	-0.0128358078	0.06599812042	
553.75	0.04428610526	0.05132839342	
554.375	0.1009724936	0.005938858967	
555.0	0.1129991544	-0.07072127141	
555.625	0.1017138321	-0.11527349	
556.25	0.0750666937	-0.1530970264	
556.875	-0.03456308907	-0.1735158899	
557.5	-0.1045182127	-0.1145552154	
558.125	-0.1222733267	-0.04550508396	
558.75	-0.1186843308	-0.009130846973	
559.375	-0.1231396166	0.01739945222	
560.0	-0.1126578931	0.08016119957	
560.625	-0.0577572713	0.1218578166	
561.25	0.009116231344	0.1071754938	
561.875	0.02845420664	0.04753448611	
562.5	0.006701282302	0.06197660939	
563.125	0.07578757129	0.08510247439	
563.75	0.1529614083	0.007625135002	
564.375	0.1403505567	-0.09865322695	
565.0	0.0861371261	-0.1530693326	
565.625	-0.02367045177	-0.1730808229	
566.25	-0.120309114	-0.1254261587	
566.875	-0.1496906837	-0.08798223303	
567.5	-0.1460517164	-0.1177550983	
568.125	-0.1480752494	-0.1698633406	
568.75	-0.2405630412	-0.0943169026	
569.375	-0.2588084068	0.09529782656	
570.0	-0.1371921311	0.2138577119	
570.625	-0.05914003226	0.1853479286	
571.25	0.0005272855913	0.1225128825	
571.875	0.05796530611	0.08569065705	
572.5	0.1390675602	0.003012852022	
573.125	0.09741259346	-0.1189633084	
573.75	0.04860450745	-0.1182279762	
574.375	0.01667974917	-0.07307184924	
575.0	0.03432403142	-0.04297012623	
575.625	0.04133019935	-0.08079556242	
576.25	0.05008529251	-0.1166906053	
576.875	-0.001431595511	-0.1527770052	
577.5	0.0006389903833	-0.172043893	
578.125	-0.04576983611	-0.1718524064	
578.75	-0.09073706817	-0.1333574504	
579.375	-0.09108828208	-0.07042695189	
580.0	-0.05483008369	-0.03501483521	
580.625	-0.07410183702	-0.03540074306	
581.25	-0.1151304877	0.07480048606	
581.875	-0.001087418848	0.1671782558	
582.5	0.05714424707	0.1503726443	
583.125	0.08068886759	0.08255451882	
583.75	0.04309557324	0.02459679835	
584.375	0.03493340876	0.06414556813	
585.0	0.1156538905	0.07018793077	
585.625	0.1669609723	0.00636504222	
586.25	0.1627057206	-0.06224085651	
586.875	0.08564067867	-0.1403705463	
587.5	-0.006038466635	-0.1529862865	
588.125	-0.01668105788	-0.1500706472	
588.75	0.03609215277	-0.1522178203	
589.375	0.07038765783	-0.1651692769	
590.0	-0.05504502901	-0.191325389	
590.625	-0.1942462897	-0.05560544946	
591.25	-0.143973371	0.1093973334	
591.875	-0.04207247616	0.1245783314	
592.5	0.007914389636	0.05546246852	
593.125	-0.03259131365	0.05087913817	
593.75	0.04988129682	0.1315438991	
594.375	0.160939483	0.1124310723	
595.0	0.1850890608	0.1032247467	
595.625	0.1803089046	0.08070115835	
596.25	0.1677385885	0.04929819744	
596.875	0.1716864761	0.04507790298	
597.5	0.1613447839	0.08776169259	
598.125	0.1545025789	0.1213798593	
598.75	0.1842994047	0.09967982032	
599.375	0.2335424632	-0.02267040862	
600.0	0.1860273265	-0.1532600662	
600.625	0.1443777889	-0.1904066817	
601.25	0.0659803904	-0.1986754052	
601.875	-0.0752226414	-0.1565604036	
602.5	-0.1437359721	-0.02557209985	
603.125	-0.1175521234	0.0509976185	
603.75	-0.1130911439	0.06741444814	
604.375	-0.1124236538	0.07535389654	
605.0	-0.07776503354	0.08830244603	
605.625	-0.06965069519	0.06587682123	
606.25	-0.1250331086	0.05846227443	
606.875	-0.1950652476	0.09447588621	
607.5	-0.1730521157	0.1962640803	
608.125	-0.04151429394	0.2571973364	
608.75	0.1775336736	0.1997798891	
609.375	0.263358582	-0.02080965648	
610.0	0.1797011457	-0.1261488818	
610.625	0.09703477605	-0.1581834492	
611.25	0.02124986269	-0.1777209245	
611.875	-0.09743161812	-0.1370807035	
612.5	-0.1636689616	-0.07242073687	
613.125	-0.2095784508	0.02097916824	
613.75	-0.106223987	0.1622121849	
614.375	0.05157926935	0.1133237144	
615.0	0.03101618304	0.05068646499	
615.625	0.005320068711	0.09923808631	
616.25	-0.03944737873	0.1469248037	
616.875	-0.09769602923	0.1981338536	
617.5	-0.07764079567	0.2460001604	
618.125	-0.01738320888	0.2240310048	
618.75	0.005449028767	0.2046472656	
619.375	0.09586762718	0.1913440288	
620.0	0.1992024001	0.05568088793	
620.625	0.1363716274	-0.1522428417	
621.25	-0.08455303311	-0.2124627514	
621.875	-0.2149839827	-0.09716562835	
622.5	-0.2329546804	0.04637551941	
623.125	-0.05845446324	0.2048120889	
623.75	0.14123048	0.04910479614	
624.375	0.04506724543	-0.04654974526	
625.0	0.04778061781	-0.03304745729	
625.625	0.05640469215	-0.08814305672	
626.25	-0.03950878045	-0.153657978	
626.875	-0.1532204968	-0.09714196987	
627.5	-0.1504102656	-0.04350248412	
628.125	-0.1121595041	-0.08060385106	
628.75	-0.08175883708	-0.1391158307	
629.375	-0.09701348262	-0.1641494271	
630.0	-0.1903421489	-0.1207922073	
630.625	-0.250428506	0.0497899493	
631.25	-0.1704429639	0.2078598931	
631.875	-0.03758929023	0.2625468877	
632.5	0.1336768549	0.2220390997	
633.125	0.2237263339	0.08399620968	
633.75	0.1940729646	-0.06273868442	
634.375	0.07499610409	-0.1415398263	
635.0	0.005586691058	-0.1584912277	
635.625	-0.1498111715	-0.1201208373	
636.25	-0.1805441803	0.06917916134	
636.875	-0.0728020494	0.1310863783	
637.5	-0.05015892167	0.08657972428	
638.125	-0.08593222245	0.09608105168	
638.75	-0.0837621145	0.1818274422	
639.375	-0.01001642772	0.2628550152	
640.0	0.1252411627	0.2679270296	
640.625	0.2392970738	0.1861011704	
641.25	0.3091788087	0.02912626432	
641.875	0.2106026581	-0.1909392163	
642.5	0.003366775377	-0.2330581942	
643.125	-0.1134360381	-0.1331110801	
643.75	-0.1268532685	-0.1008916829	
644.375	-0.202836314	-0.0236201154	
645.0	-0.1737251758	0.166533665	
645.625	0.0521783607	0.229395199	
646.25	0.1625734781	0.08718347019	
646.875	0.1034923061	0.0009178143586	
647.5	0.06941615679	0.04268014982	
648.125	0.1660167276	0.05753957674	
648.75	0.2749818406	-0.04842039316	
649.375	0.2635095885	-0.2318227598	
650.0	0.205933805	-0.3193753956	
650.625	0.1800819625	-0.3087029871	
651.25	0.2140150621	-0.2409276922	
651.875	0.2752566782	-0.144790918	
652.5	0.3163259834	-0.06764189957	
653.125	0.3121294197	-0.09477940339	
653.75	0.2337881665	-0.2222435311	
654.375	-0.006580170854	-0.3249213292	
655.0	-0.2863975233	-0.1606888822	
655.625	-0.2281285962	0.1773835387	
656.25	0.02305608375	0.1884490286	
656.875	0.03683479193	0.07397788906	
657.5	0.03012605324	0.1272304718	
658.125	0.1403501382	0.1802846962	
658.75	0.2958274329	0.1202357295	
659.375	0.3740709453	-0.1088303907	
660.0	0.2732714265	-0.3070546208	
660.625	0.1652316895	-0.3411296964	
661.25	0.1975944338	-0.2931721509	
661.875	0.2655850629	-0.2579027124	
662.5	0.2976456312	-0.2051168081	
663.125	0.2930614416	-0.1778081775	
663.75	0.2170014459	-0.2786545616	
664.375	-0.003175489207	-0.3721647031	
665.0	-0.2655234928	-0.2491882703	
665.625	-0.3444176521	0.04617147076	
666.25	-0.1544250055	0.2805573413	
666.875	0.1060208866	0.2432159012	
667.5	0.1832363772	0.1190170962	
668.125	0.2382834913	0.02219159038	
668.75	0.2303877064	-0.1351384824	
669.375	0.1208199649	-0.2305684624	
670.0	0.03068315693	-0.2306114354	
670.625	0.03022167393	-0.2090661368	
671.25	0.07279998807	-0.193791926	
671.875	0.1511904558	-0.1689202084	
672.5	0.2324004535	-0.1348584797	
673.125	0.2502581635	-0.1654004794	
673.75	0.1962593556	-0.2228301138	
674.375	0.08630065994	-0.2685020159	
675.0	-0.05133572806	-0.2685451142	
675.625	-0.1843253114	-0.175760598	
676.25	-0.1997701892	-0.05193106967	
676.875	-0.1554715257	-0.01189878887	
677.5	-0.165731248	-0.007072472163	
678.125	-0.1852235257	0.1256428722	
678.75	-0.001964044052	0.2530147207	
679.375	0.2087520856	0.1099652952	
680.0	0.168812386	-0.07143547197	
680.625	0.0888231055	-0.07590659076	
681.25	0.09979886171	-0.01405785225	
681.875	0.1519840316	0.05927502986	
682.5	0.2047035808	0.1156791417	
683.125	0.2585142229	0.1138833308	
683.75	0.2831668413	0.09875359975	
684.375	0.2904524907	0.06471583195	
685.0	0.2900502792	0.07508857055	
685.625	0.309078065	0.04632827112	
686.25	0.3356984796	0.0001293842446	
686.875	0.3490160021	-0.1146163587	
687.5	0.321347621	-0.265078915	
688.125	0.06305083196	-0.4632300196	
688.75	-0.3933742245	-0.2971845184	
689.375	-0.3800935347	0.2721783081	
690.0	0.04394918578	0.3987958555	
690.625	0.2158786937	0.2976099792	
691.25	0.3032849537	0.3265973512	
691.875	0.4564559691	0.3815733189	
692.5	0.6327427581	0.2838590664	
693.125	0.713680853	0.03443401804	
693.75	0.6483586415	-0.2084911245	
694.375	0.5015756736	-0.3724539234	
695.0	0.5127758333	-0.2631467558	
695.625	0.5590829095	-0.04273565422	
696.25	0.5181014679	0.230653672	
696.875	0.3707539408	0.4687779316	
697.5	0.3267258865	0.5566828769	
698.125	0.5639335209	0.377407088	
698.75	0.5754478522	-0.3220785807	
699.375	-0.3032721197	-0.5093533654	
700.0	-0.3748258026	0.2872651556	
700.625	0.08700855395	0.3438545367	
701.25	0.218613715	0.2269706393	
701.875	0.2593761791	0.2736300185	
702.5	0.3446919805	0.2845079578	
703.125	0.4337701771	0.1687678855	
703.75	0.4256184189	-0.07029420811	
704.375	0.3103246696	-0.182854876	
705.0	0.2642960419	-0.1286578193	
705.625	0.2803196033	0.02291965449	
706.25	0.2643135497	0.2124259265	
706.875	0.2225722009	0.3372828706	
707.5	0.2329036281	0.4056178836	
708.125	0.4462500888	0.2340732548	
708.75	0.4009826457	-0.286447642	
709.375	-0.2063421957	-0.3722891813	
710.0	-0.2558929881	0.1693270755	
710.625	0.03256222268	0.1763663175	
711.25	0.07413406365	0.1434681969	
711.875	0.1988262988	0.1615496916	
712.5	0.3320495686	0.02726356694	
713.125	0.3062809438	-0.1436819061	
713.75	0.1774199915	-0.2462915448	
714.375	0.04176446167	-0.2519622969	
715.0	-0.007778370306	-0.2174516957	
715.625	0.03634416122	-0.2289988377	
716.25	0.1796763466	-0.2403274094	
716.875	0.3683231739	-0.1634271717	
717.5	0.5457943952	0.02365016394	
718.125	0.7009549545	0.1482458745	
718.75	0.8257592768	0.01602454315	
719.375	0.8500414754	-0.2770519373	
720.0	0.6794994542	-0.7319325716	
720.625	0.4248478209	-0.9256627128	
721.25	0.1660400346	-1.015608926	
721.875	-0.03052628007	-1.094377704	
722.5	-0.4850832347	-0.9384368421	
723.125	-0.782973819	-0.3250400029	
723.75	-0.5140621578	0.3678655605	
724.375	-0.04759770365	0.4757778495	
725.0	0.1351010636	0.4089350336	
725.625	0.1557894605	0.4916597758	
726.25	0.009955976546	0.7028565947	
726.875	-0.1695916586	0.9702448703	
727.5	-0.284883031	1.410051525	
728.125	-0.2669802828	2.008598713	
728.75	-0.5095057617	2.754830274	
729.375	-1.242652591	3.344599859	
730.0	-0.9490774227	4.008255713	
730.625	-0.7087048837	4.199416801	
731.25	-1.797786959	3.598744523	
731.875	-3.070543787	2.547803769	
732.5	-3.672964761	0.1900599155	
733.125	-2.556225224	-0.05283276039	
733.75	-1.209225758	1.158937947	
734.375	0.7158450237	0.6753896652	
735.0	0.1695381984	-0.6126127255	
735.625	-0.5188724035	-0.0009817019203	
736.25	-0.1537078569	0.544124806	
736.875	0.3535890707	0.6400370901	
737.5	1.051063272	0.3635621169	
738.125	1.550799903	-0.2043560647	
738.75	1.984546889	-0.9321027979	
739.375	2.526711884	-1.306472762	
740.0	3.024195973	-1.226721137	
740.625	2.894916211	0.1680065912	
741.25	0.4836131658	2.04239587	
741.875	-2.597262424	-0.4426772778	
742.5	-0.6045184211	-2.738557918	
743.125	0.2350035895	-2.270147481	
743.75	0.1819300916	-1.037957377	
744.375	-0.3991807636	-0.2035161858	
745.0	0.03581752965	0.146938993	
745.625	0.05483314407	0.01159834134	
746.25	0.01858468739	-0.1381395117	
746.875	-0.2451219263	-0.02073857481	
747.5	-0.1821741856	0.3233480979	
748.125	0.03767331255	0.5558622423	
748.75	0.2300316845	0.5173060884	
749.375	0.09605158873	0.505250787	
750.0	-0.4385819788	0.2447399352	
