!Created with skrf (http://scikit-rf.org).
# GHz S MA R 50.0 
!freq magS11 angS11
500.0 0.0170427893496 169.042595808
500.625 0.00763025840441 116.942593789
501.25 0.00639273280682 -153.081366739
501.875 0.0310396618005 -174.329701306
502.5 0.0386910060065 173.888779582
503.125 0.0236508713743 124.622233836
503.75 0.00643377299065 82.9259378469
504.375 0.0206985290892 -59.6285456882
505.0 0.00623521764293 93.7227213456
505.625 0.0171023701203 -71.7633416758
506.25 0.0433998817497 -120.202912517
506.875 0.0792782598895 -90.9262624576
507.5 0.0443322846062 -125.994940399
508.125 0.047663715002 -92.072038381
508.75 0.0584921147842 -129.689774921
509.375 0.0601722671927 -129.968576562
510.0 0.0313921183336 -126.587967077
510.625 0.0258810187159 -168.077039024
511.25 0.0556685577292 -172.831800645
511.875 0.0621469366128 152.81728002
512.5 0.034766275592 79.9123863618
513.125 0.0452509221917 28.582016112
513.75 0.0516257756148 34.9402617027
514.375 0.0398110019971 6.19968805976
515.0 0.0450186396386 4.41790316844
515.625 0.0840087942083 38.6198517478
516.25 0.091761748976 29.8404963726
516.875 0.112852174407 67.9165513765
517.5 0.118418602329 19.0994278273
518.125 0.209448102535 72.5491800888
518.75 0.0975097545002 15.5237364641
519.375 0.0523700553503 5.4553096935
520.0 0.0806201263739 -7.7119989999
520.625 0.0990846893632 -11.4051000722
521.25 0.0943113455894 -21.9117467294
521.875 0.0678866578499 -2.13601494347
522.5 0.0963086087853 -33.4979526944
523.125 0.188735787984 -34.8619439576
523.75 0.209774974576 -58.1271794242
524.375 0.221775518628 -47.9838527262
525.0 0.0681205862047 -50.1909735403
525.625 0.0363227022704 -42.8432159255
526.25 0.0565544805222 -5.64660528281
526.875 0.0424939569674 -34.2130489414
527.5 0.0418564883219 -34.1379044115
528.125 0.0349066316093 -65.8317286869
528.75 0.071751595772 -71.9805657913
529.375 0.0666919470866 -125.925348302
530.0 0.0425707997781 -134.047692965
530.625 0.0373157972074 -138.665167947
531.25 0.136073594145 -140.141651965
531.875 0.144583221861 -149.263838573
532.5 0.12479717997 -172.431335153
533.125 0.0908628771491 172.143034039
533.75 0.135140784922 165.788354685
534.375 0.0870726197159 173.111400886
535.0 0.0837376965692 161.624995538
535.625 0.0601547829515 173.131896276
536.25 0.0717576043958 162.49621512
536.875 0.0767126449151 -158.114708537
537.5 0.0960656968112 -143.055474961
538.125 0.102440804615 -172.997726818
538.75 0.115708283776 -179.702480912
539.375 0.0631980607365 -165.755270364
540.0 0.0816394857494 -153.657861055
540.625 0.129851602309 -155.438486891
541.25 0.139452167215 -142.598651639
541.875 0.096144422084 -143.841780668
542.5 0.110701628937 -142.153993446
543.125 0.136500902621 -165.639870715
543.75 0.14024581975 160.184699412
544.375 0.0818548133605 132.363878758
545.0 0.0842382581334 91.6344648547
545.625 0.0930270637995 80.9244841354
546.25 0.0952637737256 68.1687317366
546.875 0.0871785768246 53.6926915331
547.5 0.102887430275 58.9212854335
548.125 0.116241238933 78.1889743686
548.75 0.0986516463087 89.7601413488
549.375 0.0746792264244 84.3650415567
550.0 0.0832626660068 124.746419764
550.625 0.0402476348012 153.3589075
551.25 0.042809816345 -145.645653132
551.875 0.0531403542872 -146.404398515
552.5 0.097201447791 -159.060536931
553.125 0.0865263425178 -167.916464424
553.75 0.0956784836345 -175.088704957
554.375 0.0945649275528 172.270633285
555.0 0.119702087919 164.485126727
555.625 0.0971897828554 157.130699373
556.25 0.0987822804441 162.768688576
556.875 0.124974605336 163.749584265
557.5 0.109396106767 166.994708354
558.125 0.0933279717158 165.225347977
558.75 0.0858230772501 177.135616438
559.375 0.0481910349631 -171.948472924
560.0 0.0389761475383 -143.288551609
560.625 0.0532517568238 -140.023009053
561.25 0.0915267014934 -154.618062706
561.875 0.0951220609889 -158.651509752
562.5 0.093444900809 172.466794209
563.125 0.0994199327206 147.092609976
563.75 0.140337657163 127.319207334
564.375 0.0896169660586 123.591410694
565.0 0.0788772587553 121.465264077
565.625 0.0758945242886 117.015517677
566.25 0.102926878651 148.288209922
566.875 0.074152308896 -179.913029829
567.5 0.0719252047834 -177.052047471
568.125 0.0822505543753 -170.877925581
568.75 0.0685583064386 -147.405063554
569.375 0.0528800042178 -118.489586949
570.0 0.0588772045717 -104.199662628
570.625 0.0931134720977 -119.353573895
571.25 0.0912930587713 -121.57088051
571.875 0.0901363009939 -131.986529303
572.5 0.110942011689 -156.474052349
573.125 0.141916108328 -174.392825506
573.75 0.10445183519 161.985793009
574.375 0.0864935756301 146.449211923
575.0 0.106088260313 153.417864649
575.625 0.111895404483 153.07591205
576.25 0.0928732807005 142.209007157
576.875 0.0709337510313 136.573606347
577.5 0.0817973485324 138.469592935
578.125 0.0545620650922 159.30495271
578.75 0.0492940765169 161.441095447
579.375 0.0539566292171 159.230542728
580.0 0.0684289225621 -176.27161642
580.625 0.0786168096621 -150.163126571
581.25 0.0904224027013 -164.194627734
581.875 0.116523034943 176.729909549
582.5 0.111372824839 -171.58615598
583.125 0.0894715488835 -164.164159545
583.75 0.0787210524039 -162.085700462
584.375 0.106381765988 -166.833751812
585.0 0.0869071401902 -136.183299889
585.625 0.0688160025544 -139.97630786
586.25 0.0704075631489 -138.81700943
586.875 0.0844940450559 -144.043167132
587.5 0.0711987785778 -141.161731326
588.125 0.0587154958814 -165.17711796
588.75 0.0645429504629 -159.329067023
589.375 0.0811846764723 -163.609399994
590.0 0.0960593837967 -157.461920324
590.625 0.105282332482 167.620741243
591.25 0.116764776921 157.971797341
591.875 0.099382305464 152.869192363
592.5 0.0605805191832 152.828420414
593.125 0.0644813860087 155.207383612
593.75 0.0710460631469 -177.35738661
594.375 0.0599553699356 -167.191053725
595.0 0.0488953210042 -99.718228571
595.625 0.0613838118623 -98.0631784674
596.25 0.0726571074161 -80.7212068258
596.875 0.0668145885165 -76.4718171604
597.5 0.0622935498145 -55.7106275288
598.125 0.0756482149076 -51.8671630816
598.75 0.0808634019867 -61.6252093096
599.375 0.081784770528 -72.8393526043
600.0 0.109719075913 -60.3229346341
600.625 0.104297150294 -59.776470201
601.25 0.0827775089184 -68.1675874821
601.875 0.0685563381912 -100.674164471
602.5 0.0636857131954 -65.0874328613
603.125 0.0467716116308 -50.3604862652
603.75 0.0275129587639 -50.4043562167
604.375 0.0418323548822 -23.9441522434
605.0 0.0523823814896 -32.5343920474
605.625 0.0576699605098 4.90876168406
606.25 0.0342638502167 24.6933666314
606.875 0.0361173703911 47.1385613528
607.5 0.0406965160582 36.9604399339
608.125 0.0692619153084 31.0084332607
608.75 0.0574483044029 19.4614831534
609.375 0.0665438335085 29.0311590407
610.0 0.0625256191793 34.86217504
610.625 0.0719421677926 41.6529077923
611.25 0.0607714484774 39.5613774273
611.875 0.0379806442695 48.3058114622
612.5 0.011511632544 21.2908271577
613.125 0.0519807044004 128.978475675
613.75 0.0550894180935 122.981101743
614.375 0.0394079942852 124.97364197
615.0 0.0250379454115 114.921359312
615.625 0.0438576383475 131.8238281
616.25 0.0484370571393 136.041153735
616.875 0.0382873445052 128.471660037
617.5 0.0186114954187 104.484932518
618.125 0.0552614441934 137.909830765
618.75 0.0301076806671 144.432499364
619.375 0.0141276279025 152.647520036
620.0 0.0173799999963 -31.0334871295
620.625 0.0284836694499 -172.380377436
621.25 0.0438562359989 -128.309446617
621.875 0.0712665195976 -115.905494121
622.5 0.0707283185958 -151.570006175
623.125 0.0771702514219 170.552086353
623.75 0.0601319141796 165.977955184
624.375 0.0412917876246 -166.071995161
625.0 0.0430432747117 -152.394755342
625.625 0.0240155066171 -143.531661117
626.25 0.0330271740151 178.550307264
626.875 0.00955294826811 155.272078877
627.5 0.0229360313391 -22.5999403414
628.125 0.0539145564789 -4.56887223134
628.75 0.0329401481894 -56.4689034061
629.375 0.0355282908759 -29.5913896947
630.0 0.0627796821638 -14.7231407096
630.625 0.0806056787651 19.7522177453
631.25 0.0656469452605 -0.113308652677
631.875 0.0646364758105 -15.5790400536
632.5 0.0589253188519 -6.10362741856
633.125 0.0530020119888 28.1337554971
633.75 0.050198226924 -29.0176385378
634.375 0.0403964375643 -0.766258525483
635.0 0.041933712236 25.6495284367
635.625 0.0326275311884 39.2900837759
636.25 0.0629778490856 47.7770719573
636.875 0.0611442331664 25.9279492477
637.5 0.0356394644453 17.2452821394
638.125 0.0336770332702 56.4951187761
638.75 0.0953504737007 78.1448666248
639.375 0.0789856209779 72.9789775358
640.0 0.0671574299121 93.8596016642
640.625 0.0523931081356 90.2276032839
641.25 0.0760484226576 128.34721188
641.875 0.0523719272301 122.581050849
642.5 0.049334564985 157.536062856
643.125 0.0550289783459 159.081523684
643.75 0.0865712633965 176.638961688
644.375 0.0585172155556 174.965412728
645.0 0.0656121426816 173.857692171
645.625 0.0823109853564 158.622775179
646.25 0.108561947425 168.704933557
646.875 0.0626319225304 163.397240391
647.5 0.0616154529581 -179.810307195
648.125 0.0815153133009 176.534383295
648.75 0.0791893494016 -161.305820619
649.375 0.0484423407955 -153.944854411
650.0 0.048358024581 -121.049070907
650.625 0.0687185890821 -87.7436672176
651.25 0.0677131218041 -64.040504847
651.875 0.0738943408098 -43.6500878921
652.5 0.079246910434 -24.6946287064
653.125 0.10840342852 -2.26489303174
653.75 0.113639000989 6.41448964116
654.375 0.0901014903033 -0.504056588868
655.0 0.105695055085 9.61679374932
655.625 0.0981023056087 22.7479472412
656.25 0.0609298865466 20.2838757763
656.875 0.075776516801 6.13444202978
657.5 0.0725424609972 19.5690246293
658.125 0.0516539157337 47.3607423618
658.75 0.0530806779386 62.0450356321
659.375 0.0945785716435 35.2353271943
660.0 0.088091849248 25.7993982216
660.625 0.103696566889 17.1896159103
661.25 0.0973189964708 3.84319142492
661.875 0.129927911912 -13.7663963412
662.5 0.0991060904283 -25.6121765973
663.125 0.102676533185 -15.4454801902
663.75 0.0961705854528 2.51022626858
664.375 0.113746850958 53.8231002835
665.0 0.0729855289381 88.960580432
665.625 0.0596942852137 107.079220158
666.25 0.0941384574413 126.975736445
666.875 0.084861191009 171.865036061
667.5 0.0993347580842 -170.796368902
668.125 0.103128738965 178.602294422
668.75 0.134937073454 166.013570326
669.375 0.139549316864 176.003010918
670.0 0.0867938878485 -172.242617508
670.625 0.0935915049975 -173.066160639
671.25 0.113538596223 174.846843499
671.875 0.114716766005 166.614000656
672.5 0.0595136544441 156.337332732
673.125 0.0851831268429 153.68790059
673.75 0.117416172501 155.582075671
674.375 0.102463802841 170.555987417
675.0 0.111088607496 -173.751059481
675.625 0.137008174172 -152.445889644
676.25 0.133348097576 -128.178552069
676.875 0.110538375432 -121.615524354
677.5 0.123115102276 -129.109735431
678.125 0.131150284725 -116.984302961
678.75 0.0709910496415 -94.0997107328
679.375 0.0601330997901 -80.8348573919
680.0 0.0756222712387 -77.5514860767
680.625 0.105537030961 -72.0622465881
681.25 0.0958571341488 -74.8104397712
681.875 0.10515266129 -97.4993224299
682.5 0.129926594527 -120.808087219
683.125 0.163356748434 -123.203989855
683.75 0.142549760283 -106.25331982
684.375 0.118873103529 -79.9495946052
685.0 0.145806700542 -44.6927572244
685.625 0.129279590366 -1.80439248916
686.25 0.0978874900274 23.5869369701
686.875 0.0862803943835 45.9065801144
687.5 0.0864880712748 75.7303122007
688.125 0.0757542719829 109.927138887
688.75 0.0987829473658 120.241914855
689.375 0.136048104944 121.266033703
690.0 0.141914369108 129.08353817
690.625 0.107890635657 132.964679328
691.25 0.135976853791 100.424369036
691.875 0.186682053988 65.5668459776
692.5 0.151267524574 38.0513413131
693.125 0.0942683821103 -18.6561002844
693.75 0.0904425544095 -37.3484234042
694.375 0.13238803123 -27.5807609658
695.0 0.123821957723 12.5933674675
695.625 0.106935237229 47.6726936001
696.25 0.105568996965 123.432404808
696.875 0.138035515458 171.401768031
697.5 0.146179563664 -148.242953365
698.125 0.13862561391 -132.93293403
698.75 0.121267674837 -126.422307656
699.375 0.100126088483 -119.711783604
700.0 0.0931947281638 -113.651553821
700.625 0.121529672743 -99.5631589438
701.25 0.0856283020344 -53.1310765984
701.875 0.0790338987684 -54.9843644925
702.5 0.0977530472965 -78.7508857803
703.125 0.169540162938 -128.192982161
703.75 0.191168873318 -156.311088485
704.375 0.128030966763 170.422749724
705.0 0.111184364139 159.299812145
705.625 0.138469677627 -170.279863871
706.25 0.156434064404 -120.831775017
706.875 0.0825022602473 -57.7138417125
707.5 0.0735001550231 -28.9257208876
708.125 0.0842684543753 24.348253811
708.75 0.112051746226 53.0607640798
709.375 0.104663397123 116.199284557
710.0 0.101864597974 132.465389165
710.625 0.107108866378 148.883244633
711.25 0.117504985655 163.104632609
711.875 0.149536677217 167.874189701
712.5 0.148748838538 151.259515143
713.125 0.123031558737 101.548920858
713.75 0.107516505566 37.3069262751
714.375 0.107672665313 25.4776511635
715.0 0.112994433257 29.3465251917
715.625 0.0861720865096 46.5304631937
716.25 0.080834589885 74.6969428099
716.875 0.10878964084 92.7940774817
717.5 0.150774065485 160.158473945
718.125 0.119554363343 170.393592686
718.75 0.0982725694925 175.258266727
719.375 0.112976120774 -176.554724447
720.0 0.128333669497 -138.291506358
720.625 0.114277451197 -75.9152284514
721.25 0.0916198066279 -19.405500482
721.875 0.0871148375943 13.0594365248
722.5 0.0796716104517 89.1814629986
723.125 0.0976063700165 82.0063137714
723.75 0.115097177329 49.4663430869
724.375 0.102410224785 -8.81700781937
725.0 0.100815955981 -32.6216788215
725.625 0.103901599955 -66.6500097568
726.25 0.122211218137 -63.7545561855
726.875 0.104909441022 -49.5137943
727.5 0.0769623815252 -48.5625487067
728.125 0.0978005324718 13.6388960517
728.75 0.10266416302 31.6833331837
729.375 0.0937265135426 26.8176265662
730.0 0.0576928531906 -6.28610435752
730.625 0.0551989839307 13.1714429657
731.25 0.0714729188953 62.20857035
731.875 0.0602817353571 105.602969873
732.5 0.0768896529928 151.303259012
733.125 0.0633843197176 158.189330817
733.75 0.075770234846 173.064621325
734.375 0.0611392741281 -167.807343933
735.0 0.0313825139245 120.37538045
735.625 0.0939347244609 158.419958663
736.25 0.0408301058758 143.92653963
736.875 0.0479244975657 177.108157359
737.5 0.06240570788 178.772181146
738.125 0.0729128751221 -177.424533539
738.75 0.0769331672982 -176.660435066
739.375 0.0347995280162 -178.95562509
740.0 0.0461424915466 -145.397969145
740.625 0.0207976613744 -126.995348416
741.25 0.0802543407589 -152.923894347
741.875 0.0537822898596 -110.873096949
742.5 0.0326669706466 -2.64608815804
743.125 0.0213121988028 122.56267691
743.75 0.0691412887548 79.5754948178
744.375 0.0600874487869 97.9235128456
745.0 0.053016581567 122.17907572
745.625 0.0643723226586 143.63120064
746.25 0.104351889866 66.7955930348
746.875 0.0731974672888 38.0673448254
747.5 0.0463555405367 14.1799735081
748.125 0.0219067067785 -10.4312124894
748.75 0.022256551343 51.8768377347
749.375 0.0523491077521 -64.7183614499
750.0 0.0415829451685 -125.612737438
