!Created with skrf (http://scikit-rf.org).
# GHz S RI R (50+0j) 
!freq	ReS11	ImS11	
500.0	1.272933081	-3.665817408	
500.625	-0.9382560062	-3.123696676	
501.25	-2.497389811	-3.075053698	
501.875	-1.347537232	-0.6777365695	
502.5	-0.08243980612	-0.3659023921	
503.125	-0.3096826999	0.07314267027	
503.75	0.2959281877	0.0918617418	
504.375	0.03679126899	0.110483672	
505.0	0.06020633279	-0.2164206192	
505.625	0.03532561828	0.0898327805	
506.25	-0.3030029371	-0.5259562515	
506.875	0.5756255526	0.1620327409	
507.5	-0.8014821668	-2.19888551	
508.125	-0.9612870894	-0.6004549914	
508.75	3.141489484	-2.138346956	
509.375	-2.203581717	-6.797685996	
510.0	-1.38487012	0.3623243237	
510.625	-0.2766629327	-0.549234028	
511.25	-0.7127482201	-0.088286408	
511.875	-0.2737489442	-0.1063044368	
512.5	-0.112423492	0.180733795	
513.125	-0.1036006406	-0.277519125	
513.75	-0.09423292132	-0.09602974365	
514.375	-0.2868243306	-0.2798560131	
515.0	-0.3392907348	1.260308417	
515.625	0.0524094568	-3.708661065	
516.25	-2.551082957	0.4039177347	
516.875	1.105023973	-1.3535868	
517.5	-0.703110605	-1.085951038	
518.125	0.3193786511	0.1673686073	
518.75	-0.8179139344	-0.9383575774	
519.375	0.03620225855	0.1189633301	
520.0	0.2880901266	0.3991711454	
520.625	0.6005111185	-0.3192888501	
521.25	-0.2005137245	-0.4760665322	
521.875	-0.4501814944	-0.274977271	
522.5	-0.01351274439	0.1497475057	
523.125	-0.3096220319	-0.01029041387	
523.75	-0.1164144775	0.1350954883	
524.375	-0.5402762415	-0.1762491178	
525.0	0.2470144238	0.4420698002	
525.625	-0.1064788524	0.0852559929	
526.25	0.2015357696	-0.08689165531	
526.875	-0.3676992666	0.2379430169	
527.5	0.2337871124	0.4518677177	
528.125	-0.2528235331	0.6015554516	
528.75	0.2240739027	1.07145952	
529.375	0.01710326382	-0.1084710411	
530.0	0.3377892366	0.8346629199	
530.625	0.2446999554	0.3933202057	
531.25	1.459546523	0.6222910533	
531.875	0.1212756054	-0.5477340174	
532.5	0.1546399907	-0.7446415169	
533.125	-0.2708423706	0.5260366205	
533.75	0.5656694221	-1.090764327	
534.375	-0.5784298152	-0.2336226902	
535.0	-0.4542732649	-0.6701970662	
535.625	-0.3928679163	0.659565286	
536.25	-0.08378820117	0.08922444059	
536.875	0.3942185587	0.1196403464	
537.5	0.02166664253	-0.1656414042	
538.125	0.3679875483	0.08115105126	
538.75	0.3172980445	-0.5253499707	
539.375	-0.1386971125	-0.2527429537	
540.0	-0.3333188738	-0.4319190508	
540.625	-0.4643495359	0.01129146942	
541.25	-0.131742385	0.006896070667	
541.875	-0.1833254123	-0.07858444149	
542.5	-0.07863642138	-0.04650336704	
543.125	-0.1525311614	-0.1609526491	
543.75	-0.335205993	0.0248605028	
544.375	0.083396559	0.06617659295	
545.0	-0.1944151199	0.2690499872	
545.625	0.318187701	-0.05022703834	
546.25	-0.03151701303	0.2954735885	
546.875	0.4842248875	-0.3079538298	
547.5	0.05284761078	-0.04753344508	
548.125	0.06258292644	-0.5992184395	
548.75	-0.5068703415	-0.1309718952	
549.375	-0.04439877957	-0.1231761643	
550.0	-0.3340098403	-0.06596502024	
550.625	-0.01663109655	0.1169428383	
551.25	-0.2621327934	-0.04800236449	
551.875	-0.1395646753	0.2808174361	
552.5	-0.111345691	0.09453104677	
553.125	-0.03017747654	0.2160245743	
553.75	0.08700968775	0.09185341252	
554.375	0.2496565185	0.01786903115	
555.0	0.2322073432	-0.1846522038	
555.625	0.194080184	-0.2449795686	
556.25	0.1676088801	-0.3411436099	
556.875	-0.08554742502	-0.4035697169	
557.5	-0.2481081196	-0.2416587644	
558.125	-0.2573811197	-0.09940025897	
558.75	-0.278581768	-0.02458924529	
559.375	-0.2405225022	0.08330621691	
560.0	-0.2421632979	0.1225030362	
560.625	-0.1298927277	0.3348883636	
561.25	0.07648803297	0.1436604725	
561.875	-0.008663847312	0.1797654771	
562.5	0.1330446784	0.07373127822	
563.125	0.02636013037	0.1913446139	
563.75	0.4633820699	0.01399460819	
564.375	0.1349875349	-0.2461970359	
565.0	0.3282357947	-0.2898223126	
565.625	-0.2216257869	-0.4032168218	
566.25	-0.110261084	-0.1913632027	
566.875	-0.4106966227	-0.2962081948	
567.5	-0.400789939	-0.1004652461	
568.125	-0.1235593472	-0.3675704432	
568.75	-0.6967441434	-0.3482686541	
569.375	-0.4499481047	0.4661963223	
570.0	-0.2938878687	0.1389332414	
570.625	-0.3390737858	0.7552785411	
571.25	0.2172365302	-0.01008034982	
571.875	0.01391501233	0.5269732194	
572.5	0.2405469345	-0.4092308741	
573.125	0.3296175696	0.1629518376	
573.75	0.244848706	-0.6269323956	
574.375	-0.2627305921	-0.05845664188	
575.0	0.3785678226	0.002722101965	
575.625	-0.1745770609	-0.3666810185	
576.25	0.2479245536	0.07616228085	
576.875	-0.02186426666	-0.6279977674	
577.5	-0.2554346213	-0.2126678198	
578.125	0.198486588	-0.3015532115	
578.75	-0.3304671347	-0.5356967735	
579.375	-0.3060408785	0.06391807477	
580.0	0.1177667867	-0.1262250425	
580.625	-0.4549496465	-0.08571371448	
581.25	0.08584266704	0.1246706555	
581.875	-0.3800255394	0.365212297	
582.5	0.4689170398	0.4941619013	
583.125	-0.04368924718	-0.1680290026	
583.75	0.2457676331	0.4637643207	
584.375	-0.1157508081	-0.3287621538	
585.0	0.3625849377	0.5951863785	
585.625	0.5041326983	-0.3445857564	
586.25	0.0253029537	-0.06569589712	
586.875	0.4677031641	-0.2373662897	
587.5	-0.3031854608	-0.4569317614	
588.125	0.1682498661	-0.0863319472	
588.75	0.1481278391	-0.6204948941	
589.375	-0.07611382072	-0.1554972099	
590.0	0.1819733454	-0.6511071431	
590.625	-0.5554218951	0.1300546129	
591.25	-0.148207562	0.07740802018	
591.875	-0.2499551535	0.2373158133	
592.5	0.01393027814	0.3263545059	
593.125	-0.03862308391	-0.2171889307	
593.75	0.168668047	0.6734166004	
594.375	0.3681066933	-0.114797966	
595.0	0.110424653	0.4863942111	
595.625	0.8593814097	0.1399372966	
596.25	-0.05051085371	0.07756145387	
596.875	0.6570115019	0.347721131	
597.5	0.440328773	-0.2268113862	
598.125	-0.05605257396	0.4829664239	
598.75	0.6451804115	0.3259963137	
599.375	0.3583066647	-0.2363002251	
600.0	0.4225278992	-0.1154111528	
600.625	0.4291854952	-0.592362229	
601.25	0.006877153639	-0.2877272867	
601.875	-0.02845903777	-0.4852379702	
602.5	-0.3631506487	0.110371173	
603.125	-0.2181276523	-0.07248366062	
603.75	-0.3207824278	0.2170128871	
604.375	-0.2386359681	0.147319237	
605.0	0.004539351812	0.2303666259	
605.625	-0.3950596233	-0.0351375245	
606.25	-0.09133320157	0.4705734879	
606.875	-0.2407196893	-0.2165539157	
607.5	-0.7434911393	0.7984890857	
608.125	0.1857657566	0.2246262456	
608.75	0.1252490982	0.7199739091	
609.375	0.7602390173	-0.4944781568	
610.0	0.196460066	0.1527364827	
610.625	0.4682503569	-0.6314643839	
611.25	-0.1804678174	-0.1270720211	
611.875	-0.01445434108	-0.586656287	
612.5	-0.4003738006	0.1443890999	
613.125	-0.4184397875	-0.2112261885	
613.75	-0.2241104394	0.5898780279	
614.375	0.01638146126	-0.03335312369	
615.0	0.2742390386	0.3711728819	
615.625	-0.1088578477	-0.1419552352	
616.25	-0.3259187003	0.5742960287	
616.875	0.2135135312	0.4512608485	
617.5	-0.4756897237	0.2913914635	
618.125	0.09559418773	0.7617164131	
618.75	0.04087840059	0.156297025	
619.375	0.1592880424	0.6864805976	
620.0	0.4014834578	-0.1292323985	
620.625	0.3867315503	-0.1867490189	
621.25	-0.3142323841	-0.4218136254	
621.875	-0.3041233185	-0.2704716505	
622.5	-0.6847530281	0.2974560748	
623.125	-0.0142749688	0.08698983582	
623.75	0.4167277734	0.4263274023	
624.375	-0.1738981335	-0.3109501388	
625.0	0.5092095849	0.03366616818	
625.625	-0.3010998333	-0.08479935542	
626.25	0.2374008581	-0.403420452	
626.875	-0.6945108449	-0.1616698135	
627.5	0.02448436238	0.140755766	
628.125	-0.2526834089	-0.5646602796	
628.75	-0.4304780446	-0.1784503184	
629.375	-0.06989340161	-0.2313099147	
630.0	-0.4483118561	-0.4137075683	
630.625	-0.4787039364	0.3218828794	
631.25	-0.4248816146	0.2147535539	
631.875	-0.02542095666	0.7494562673	
632.5	0.3045260129	0.264468165	
633.125	0.4214141195	0.3265072841	
633.75	0.4761297537	-0.3023168852	
634.375	0.02793851043	-0.2853972498	
635.0	0.1151720254	-0.216073469	
635.625	-0.4821516342	-0.4563138584	
636.25	-0.2085694164	0.4907650266	
636.875	-0.2966444717	-0.2393379412	
637.5	-0.02084443266	0.7004880013	
638.125	-0.07235980022	-0.2709764202	
638.75	-0.3958751689	0.8093870498	
639.375	0.4244120432	0.1532115896	
640.0	-0.1693675775	0.8576861644	
640.625	1.01775452	0.3988551776	
641.25	0.259636827	-0.246562013	
641.875	0.4382731334	-0.013656632	
642.5	0.13487885	-0.9645125479	
643.125	-0.3343870786	0.1395523604	
643.75	-0.1345003782	-0.4837388232	
644.375	-0.5715621092	0.2648240892	
645.0	-0.1296886773	-0.02305358503	
645.625	0.0221504666	0.8785546054	
646.25	0.4814469708	-0.09308045578	
646.875	-0.001790578595	0.04909976308	
647.5	0.4783572153	0.2960650009	
648.125	-0.01765031811	-0.3293846969	
648.75	0.8179145338	0.5005558938	
649.375	0.6506709082	-1.211183313	
650.0	-0.2362513387	-0.2872652952	
650.625	1.143040797	-0.4233989348	
651.25	0.03623634773	-1.344262983	
651.875	0.2047476928	0.2839671809	
652.5	1.348998541	-0.1675323974	
653.125	0.2450819523	-0.7280872057	
653.75	0.4108864381	0.07111158322	
654.375	-0.07668619666	-1.245125891	
655.0	-0.7334275603	0.2056000435	
655.625	-0.3296873164	-0.09144833231	
656.25	-0.03948754482	0.9278451847	
656.875	0.1533253674	-0.400842461	
657.5	0.01855253332	0.6480064787	
658.125	0.5475718881	0.1801564559	
658.75	0.3930661826	0.05362492465	
659.375	0.8929559148	0.1598910423	
660.0	0.6193081455	-1.257173085	
660.625	-0.08095423499	-0.3831117081	
661.25	0.8034002956	-0.5237011591	
661.875	0.4132666342	-1.172374192	
662.5	0.2949212972	0.1364173811	
663.125	1.079089365	-0.7541183378	
663.75	-0.1260618965	-0.6286919507	
664.375	0.3939203518	-0.4784680092	
665.0	-0.9326989609	-0.8296523743	
665.625	-0.5632376382	0.5703623168	
666.25	-0.326702168	0.2789896263	
666.875	0.3049606811	0.7921368582	
667.5	0.3779934844	-0.1353832821	
668.125	0.686383141	0.3698121997	
668.75	0.2824791898	-0.5816569962	
669.375	0.1844045727	-0.2101482116	
670.0	0.2876220483	-0.7421233518	
670.625	-0.3172546047	-0.5178477394	
671.25	0.138290908	-0.09732089241	
671.875	0.6092246199	-0.3657487305	
672.5	0.4426330212	-0.6794064653	
673.125	0.09474232355	-0.2210653841	
673.75	0.9100980426	-0.5054288533	
674.375	-0.402784537	-0.5709910798	
675.0	0.2612263751	-0.4699887299	
675.625	-0.8254597151	-0.6095186938	
676.25	-0.1764575455	0.5482530745	
676.875	-0.4183782358	-0.7166905268	
677.5	-0.5933566017	0.6081166695	
678.125	-0.05734088476	0.04443427784	
678.75	-0.3096069232	0.6138894605	
679.375	0.9218449218	0.08585720312	
680.0	-0.05949412051	-0.0148166468	
680.625	0.5119951423	-0.1936812009	
681.25	-0.04664867182	-0.3375533001	
681.875	0.2827339303	0.6525966348	
682.5	0.8031159111	-0.1418930202	
683.125	0.2720939596	0.112607591	
683.75	0.4725587352	0.2224118084	
684.375	0.9173964401	0.4081939585	
685.0	0.7218902063	-0.6092429112	
685.625	0.1728853945	0.7348434151	
686.25	1.447500479	-0.5027666695	
686.875	-0.1350154289	-0.2742168527	
687.5	1.590892433	-0.4188964168	
688.125	-1.140144032	-1.151687093	
688.75	0.02103047218	-0.7810654947	
689.375	-1.401223552	1.130288807	
690.0	0.8103471254	0.4105173204	
690.625	-0.08722912231	0.9163805835	
691.25	1.185354548	0.5439437675	
691.875	0.7230070558	0.5138248857	
692.5	1.449613616	0.7300408949	
693.125	1.583909506	-0.3269102307	
693.75	1.216852867	-0.3352491422	
694.375	1.003778568	-1.091265886	
695.0	0.953886386	-0.5735446611	
695.625	1.342196302	-0.385651941	
696.25	0.7928334633	0.2265938837	
696.875	1.223944338	1.62605126	
697.5	1.298136795	0.1776247955	
698.125	0.8004718081	1.230033558	
698.75	1.409039703	-1.763041487	
699.375	-0.414976596	-0.08509794355	
700.0	-1.57689203	0.7477937442	
700.625	0.9251393391	0.4806172904	
701.25	-0.1518583874	0.7535393462	
701.875	1.282578411	0.3406729787	
702.5	0.2737583857	0.4269238561	
703.125	1.339370184	0.5740218325	
703.75	0.4940099056	-0.660260163	
704.375	0.951708224	0.07682631597	
705.0	0.4831203179	-0.900854887	
705.625	0.1236416815	0.3025276817	
706.25	1.299923895	0.7004572993	
706.875	0.2474078793	0.02487587822	
707.5	0.5267103106	1.478537711	
708.125	1.537257008	-0.3224261647	
708.75	0.4939047503	-0.2056105706	
709.375	-0.7298609113	-1.236289012	
710.0	-0.2078402803	0.7124836063	
710.625	-0.1134982907	0.3625506308	
711.25	0.3791334937	0.1853740513	
711.875	0.3562026648	0.3217997618	
712.5	0.8281163442	-0.003318436576	
713.125	0.5269084179	-0.3698749649	
713.75	0.3528721834	-0.7210654022	
714.375	-0.05299192308	-0.2715556474	
715.0	0.2304768454	-0.8459361954	
715.625	-0.5380514703	-0.3656278279	
716.25	0.7317686225	0.07061477561	
716.875	1.590426911	-1.186749908	
717.5	-0.2935518641	-0.5213594024	
718.125	2.717622274	1.272358728	
718.75	2.272093492	-2.026548086	
719.375	0.7904302545	1.186322262	
720.0	2.371354483	-4.909483396	
720.625	-0.723960882	-0.6132801447	
721.25	0.9644220492	-2.760536074	
721.875	-0.5818742387	-3.327620997	
722.5	-2.026934912	-1.060747019	
723.125	-1.294108666	-0.9116763256	
723.75	-1.194018225	1.540620251	
724.375	0.2909469495	0.7903110726	
725.0	0.1292631678	0.9135093019	
725.625	0.9131225191	1.292399449	
726.25	0.2369797241	1.007127851	
726.875	-0.9784804565	2.245085575	
727.5	0.1055796287	5.223070796	
728.125	3.590449507	3.346798241	
728.75	-6.10439079	4.373041379	
729.375	0.8833857541	21.92356366	
730.0	5.310685472	3.6517153	
730.625	-11.5677188	13.95386925	
731.25	8.029135988	13.84395012	
731.875	-9.461358815	-2.131893565	
732.5	-13.24417315	5.250401588	
733.125	-3.858223927	4.567660952	
733.75	-2.330940052	0.5738019178	
734.375	2.935245249	2.685557462	
735.0	-1.087965676	-1.37726653	
735.625	-0.6697973564	-0.2409879146	
736.25	-0.5923059445	1.824806334	
736.875	1.742385024	0.3286988071	
737.5	2.208520937	2.197125288	
738.125	4.695629094	-2.512045352	
738.75	2.375733238	-4.32671921	
739.375	4.199840439	2.867538927	
740.0	19.0879755	-10.69465954	
740.625	3.910057924	-16.9479951	
741.25	-17.60121236	7.0774801	
741.875	-32.91438427	26.3873887	
742.5	3.218843148	3.217234457	
743.125	8.426350843	-11.04727633	
743.75	-2.59062646	-2.603172704	
744.375	0.5203517543	-0.8755655654	
745.0	0.1803335774	1.112747728	
745.625	-0.21677935	0.1994855444	
746.25	-0.03610192005	-0.5740499526	
746.875	-0.8270407778	0.6632806639	
747.5	-0.0286305476	0.4340268178	
748.125	-0.3823783999	1.263440725	
748.75	0.8964038292	1.492336141	
749.375	0.6635160219	0.619964269	
750.0	-1.37222401	0.4594582531	
