!Created with skrf (http://scikit-rf.org).
# GHz S RI R (50+0j) 
!freq	ReS11	ImS11	
500.0	0.01054137073	-0.3826599043	
500.625	0.4462108768	-1.041198602	
501.25	-0.6392817539	-0.2847697914	
501.875	0.08676266395	-0.2281930467	
502.5	-0.0881004409	-0.1711258463	
503.125	-0.01071911328	0.01957431333	
503.75	-0.04741271013	0.09941653812	
504.375	0.02260439513	-0.04017420057	
505.0	0.03171138011	0.01581043927	
505.625	-0.03567960723	-0.08200697956	
506.25	-0.008219094898	0.04315333488	
506.875	-0.2971740734	-0.1254527022	
507.5	-0.1205393374	0.1332972332	
508.125	0.4651441547	-0.5745969461	
508.75	0.2414749452	-1.176686231	
509.375	-0.2520357002	-0.6843742662	
510.0	-0.3175593106	-0.3906574357	
510.625	-0.1628901911	-0.05733101889	
511.25	-0.03301664167	-0.01888424571	
511.875	-0.1209600588	-0.08888483597	
512.5	0.00526894252	0.04103783096	
513.125	0.004547211695	-0.01012910707	
513.75	-0.0912248727	-0.1052133521	
514.375	0.008356605536	0.1211611329	
515.0	0.0216729687	-0.334376053	
515.625	-0.1621060684	0.2154344265	
516.25	0.1249978228	-1.161479904	
516.875	-0.5131079607	-0.34157495	
517.5	0.04363489167	-0.003543822529	
518.125	-0.05612065796	-0.07738263914	
518.75	-0.03440663714	-0.01318629043	
519.375	-0.06024752207	0.03168689738	
520.0	0.1093419335	0.02662769383	
520.625	0.09634917789	-0.06502526113	
521.25	-0.03476494607	-0.2169923911	
521.875	-0.1153056465	-0.0427988416	
522.5	-0.03758102077	0.05750879224	
523.125	-0.03837950245	-0.05656862762	
523.75	-0.1934258084	0.05675156409	
524.375	0.01251659916	0.0111919503	
525.0	-0.1770843093	0.1552679879	
525.625	0.1399650748	-0.0003126738882	
526.25	-0.08066463653	0.04714055951	
526.875	-0.002300571322	-0.008869940301	
527.5	-0.1291236738	0.1736380317	
528.125	0.1529584167	0.2622901954	
528.75	-0.0348520003	0.1253314591	
529.375	0.07722952658	0.05425498717	
530.0	-0.05758914656	0.1242515646	
530.625	0.2391540601	0.1899260902	
531.25	0.2500926189	0.1203641632	
531.875	0.3493934566	-0.3330842964	
532.5	-0.0496491167	0.05100861826	
533.125	0.04790787276	-0.1597650502	
533.75	0.04257944731	-0.02325401368	
534.375	-0.06425331715	-0.3688182455	
535.0	-0.2144990875	0.02340141174	
535.625	-0.1192583377	0.03684859409	
536.25	-0.0005612992453	0.1151945533	
536.875	0.05592933053	-0.02894113871	
537.5	0.08329464484	-0.01490937207	
538.125	0.08206004301	-0.09159667764	
538.75	0.09534752699	-0.06314858284	
539.375	-0.06426919997	-0.1461699861	
540.0	-0.154460333	-0.1169185263	
540.625	-0.1270570172	0.01615998854	
541.25	-0.05870407633	-0.02133678247	
541.875	-0.1087804615	0.03067258495	
542.5	0.04565481095	-0.04334504765	
543.125	-0.1679529563	-0.05572220374	
543.75	0.01586409411	0.03310728302	
544.375	-0.1257793423	0.04500868545	
545.0	0.06871401644	0.01900129441	
545.625	-0.009985802789	0.1031786865	
546.25	0.1528745355	-0.01773437707	
546.875	0.03472443486	-0.008859412875	
547.5	0.1188031431	-0.1189138844	
548.125	-0.1171553909	-0.1404080007	
548.75	-0.04616587597	-0.0716063511	
549.375	-0.1205097286	-0.1036259825	
550.0	-0.05624332336	0.05019079861	
550.625	-0.05156293891	-0.02367099585	
551.25	-0.07409018204	0.05633186767	
551.875	-0.03898082447	0.04000402919	
552.5	-0.06022395564	0.07205968515	
553.125	0.008085607483	0.05516273304	
553.75	0.0326184132	0.0431732157	
554.375	0.0934153514	-0.01536319223	
555.0	0.07318188557	-0.06285999401	
555.625	0.07778132672	-0.09696816696	
556.25	0.04685869564	-0.1331222084	
556.875	-0.04514736401	-0.1336627868	
557.5	-0.08633897001	-0.08422374078	
558.125	-0.1089328638	-0.03168721429	
558.75	-0.09784922073	0.01003386332	
559.375	-0.09189881444	0.01659856611	
560.0	-0.09746903843	0.07712765594	
560.625	-0.02117588394	0.1025235213	
561.25	-0.01601527915	0.075726624	
561.875	0.05788816742	0.05402482113	
562.5	-0.01330607447	0.02515764314	
563.125	0.09040920557	0.08587904412	
563.75	0.1106368501	-0.03967745322	
564.375	0.1084247138	-0.04150981329	
565.0	0.08325121331	-0.1854643	
565.625	-0.07780367883	-0.09520836473	
566.25	-0.04726801683	-0.1275773759	
566.875	-0.2108403527	-0.05045119136	
567.5	-0.03240941195	-0.03540528811	
568.125	-0.1486028983	-0.2367250995	
568.75	-0.2142427008	0.05315087684	
569.375	-0.1611941376	-0.009693390968	
570.0	-0.1666334556	0.2746242993	
570.625	0.05453030724	0.1376298164	
571.25	-0.09053060092	0.06319424855	
571.875	0.1513680313	0.07582131499	
572.5	-0.007232991835	0.01598219723	
573.125	0.1854205829	-0.1270991949	
573.75	-0.06204818721	-0.1501190828	
574.375	0.06754859316	0.03482388832	
575.0	0.00758951092	-0.1302526594	
575.625	0.009580273505	0.01552380714	
576.25	0.1202647626	-0.1187303837	
576.875	-0.08997631074	-0.1723925801	
577.5	-0.01575727594	-0.03974893031	
578.125	0.06006914814	-0.1948142319	
578.75	-0.2406118922	-0.1170795928	
579.375	0.03386325145	0.0495720394	
580.0	-0.116807535	-0.1779997159	
580.625	0.02336165224	0.1203165865	
581.25	-0.2265401553	-0.05306769131	
581.875	0.115533331	0.2451622101	
582.5	0.04709747759	-0.02946032173	
583.125	-0.02034311686	0.1610601765	
583.75	0.1537246453	-0.02156421863	
584.375	-0.09595536103	0.06955015881	
585.0	0.2138121771	0.06080276816	
585.625	0.04478793613	-0.07374094239	
586.25	0.1636565758	0.03804035506	
586.875	0.05080388378	-0.2133702847	
587.5	-0.01680196041	-0.04691159458	
588.125	0.04983689847	-0.1545380002	
588.75	-0.02212251705	-0.191101848	
589.375	0.008962937182	-0.03645743441	
590.0	8.806920846e-05	-0.2709494853	
590.625	-0.204775002	0.09001154594	
591.25	-0.04692736676	-0.01176993952	
591.875	-0.1621814046	0.1966270315	
592.5	0.1546461305	-0.02760949821	
593.125	-0.1344834408	0.1717026837	
593.75	0.122455556	-0.01218622704	
594.375	0.0282792066	0.1502457114	
595.0	0.2432810481	0.1306941748	
595.625	0.1315386441	-0.04431552228	
596.25	0.09496135444	0.1217109177	
596.875	0.2143098318	-0.02727729576	
597.5	0.06556384975	0.02082865144	
598.125	0.1334139518	0.1660855778	
598.75	0.1835393052	0.01552289243	
599.375	0.1306622966	-0.02149995398	
600.0	0.1635334827	-0.1166466498	
600.625	0.143345602	-0.2013039024	
601.25	-0.02804599879	-0.1260146476	
601.875	0.02369178924	-0.1797763351	
602.5	-0.1846954697	0.07834137615	
603.125	0.003344389512	-0.02539080777	
603.75	-0.2514218659	0.08016521578	
604.375	0.09011964947	0.1067279986	
605.0	-0.1599191708	-0.02858041172	
605.625	0.01599433965	0.1885133079	
606.25	-0.07408024701	-0.07170438738	
606.875	-0.2426528244	0.1303214863	
607.5	-0.05752118405	0.1801383565	
608.125	-0.09269836234	0.224395577	
608.75	0.200385232	0.1535840768	
609.375	0.1836262214	-0.003285961082	
610.0	0.1375158972	-0.1071155327	
610.625	0.04912156127	-0.0809496858	
611.25	-0.01324638659	-0.194941748	
611.875	-0.04093500845	-0.03622804207	
612.5	-0.1942031741	-0.1346274435	
613.125	-0.1196236824	0.167356471	
613.75	-0.1298491336	0.004624476693	
614.375	0.1056082119	0.2066994	
615.0	-0.03464161771	-0.07030086805	
615.625	0.01712039471	0.2084293604	
616.25	0.0377704816	0.03014791436	
616.875	-0.1599892502	0.1749861271	
617.5	0.02775153879	0.2423530925	
618.125	-0.05527041809	0.1497564546	
618.75	0.04155789845	0.2087823195	
619.375	0.04568491852	0.09766298222	
620.0	0.2365801021	0.04472738369	
620.625	-0.0007130738558	-0.09281432785	
621.25	0.004178582813	-0.2426189062	
621.875	-0.2522974993	0.01256514101	
622.5	-0.09148837329	-0.03268521417	
623.125	-0.08402857068	0.254767747	
623.75	0.1360108393	-0.07115482718	
624.375	0.06283825713	0.05399880041	
625.0	-0.01111956873	-0.1050176306	
625.625	0.069935497	-0.00806941342	
626.25	-0.05252998234	-0.1836239699	
626.875	-0.1392810693	-0.005411442151	
627.5	-0.09608998756	-0.07135703312	
628.125	-0.1406012549	-0.05062942621	
628.75	-0.09808913384	-0.1103416616	
629.375	-0.07116670284	-0.1004748614	
630.0	-0.1794260838	-0.1062615972	
630.625	-0.1871864686	0.1262801363	
631.25	-0.1166043266	0.07268715771	
631.875	-0.05330367353	0.3275457495	
632.5	0.2136416869	0.06048459216	
633.125	0.08478586112	0.1233678511	
633.75	0.2640969201	-0.1736862664	
634.375	-0.04407252767	-0.02051352287	
635.0	0.07310762969	-0.2224865344	
635.625	-0.1907982443	0.0195904182	
636.25	-0.05544223787	0.00933054444	
636.875	-0.1684675095	0.1634782786	
637.5	0.08785126855	0.09841953961	
638.125	-0.1348993323	0.02087925006	
638.75	-0.02074456538	0.2468086286	
639.375	0.05706871809	0.1234661977	
640.0	0.06122266647	0.2445197443	
640.625	0.2877548249	0.1367430423	
641.25	0.20280732	-0.1165877899	
641.875	0.170468667	-0.04394525745	
642.5	-0.03679352773	-0.3639526537	
643.125	-0.102202588	0.078757789	
643.75	-0.05549442016	-0.2400495438	
644.375	-0.2520352204	0.2467049992	
645.0	0.00215534985	-0.09337086868	
645.625	-0.02372492064	0.4291087281	
646.25	0.2500815589	-0.1551011131	
646.875	-0.0459056192	0.1445576313	
647.5	0.2120271357	-0.0589759446	
648.125	-0.05978463991	0.04970272536	
648.75	0.4378745251	-0.01661481946	
649.375	0.05405423799	-0.3777718494	
650.0	0.08050854966	-0.09985425825	
650.625	0.3059121908	-0.3030531574	
651.25	0.001804330635	-0.3757744674	
651.875	0.1343800979	-0.001342229335	
652.5	0.39688774	-0.09217394789	
653.125	0.1791143811	-0.2559557391	
653.75	0.1089299986	-0.0159283083	
654.375	-0.03815383481	-0.4647306996	
655.0	-0.318053573	0.1270177196	
655.625	-0.0657849136	-0.03902280841	
656.25	-0.06353547943	0.4053951019	
656.875	0.1768431881	-0.1941837224	
657.5	-0.06051655211	0.3464181247	
658.125	0.3141262755	-0.004605976577	
658.75	0.04912433403	0.05260214541	
659.375	0.4784173807	-0.06539242059	
660.0	0.009706870936	-0.435098031	
660.625	0.1185226406	-0.112622956	
661.25	0.2319460432	-0.3309784983	
661.875	0.06586399538	-0.3666133374	
662.5	0.1369611875	-0.02067900129	
663.125	0.3664905663	-0.2548656599	
663.75	-0.0131825556	-0.2889432106	
664.375	0.03128173187	-0.2221258305	
665.0	-0.2976161812	-0.2630565093	
665.625	-0.2252238737	0.2166721524	
666.25	-0.1125975213	0.1142864141	
666.875	0.1502024562	0.3049849318	
667.5	0.178852984	-0.08102529881	
668.125	0.1478120929	0.1648737561	
668.75	0.2208942402	-0.3366612648	
669.375	-0.05905679267	-0.076926502	
670.0	0.1573179454	-0.2111512045	
670.625	-0.1666612072	-0.2937596418	
671.25	0.05136983403	0.04893263281	
671.875	0.2323381441	-0.2776283231	
672.5	0.05310710331	-0.1931888329	
673.125	0.1452730454	-0.06639678638	
673.75	0.2629767787	-0.2732421396	
674.375	-0.1365639751	-0.2217384688	
675.0	0.03530224789	-0.1566220296	
675.625	-0.2461628603	-0.1810653211	
676.25	-0.1557535973	0.09002383195	
676.875	-0.05287995421	-0.07570738639	
677.5	-0.2409757631	0.08552777745	
678.125	0.02234559295	0.1335761942	
678.75	-0.1051009783	0.1591937775	
679.375	0.3919991691	0.1078399125	
680.0	-0.1484955596	-0.1544158986	
680.625	0.2625050824	0.09325862996	
681.25	0.07389922341	-0.2663336985	
681.875	-0.1203801474	0.1787293489	
682.5	0.523346442	0.2007146193	
683.125	0.04195398747	-0.2517257936	
683.75	0.1868697377	0.2826409863	
684.375	0.3971760354	-0.00285356841	
685.0	0.1571399764	-0.1519009723	
685.625	0.315400791	0.2137224771	
686.25	0.3222530076	-0.2191292687	
686.875	0.135994593	-0.1242780363	
687.5	0.2955853854	-0.2039081588	
688.125	-0.1320499514	-0.4253399427	
688.75	-0.3134017178	-0.04782511866	
689.375	-0.2954084654	0.2010470154	
690.0	0.1748223415	0.4451147313	
690.625	0.1916681674	-0.02658721274	
691.25	0.2396427156	0.503172873	
691.875	0.6418986885	-0.02847071745	
692.5	0.2230209409	0.2391892114	
693.125	0.8384650367	0.0619018373	
693.75	0.2212074706	-0.5407085289	
694.375	0.4374629349	-0.02937309927	
695.0	0.5528610934	-0.4746822746	
695.625	0.2196171268	-0.1167830894	
696.25	0.4840980318	0.2387897573	
696.875	0.4917858728	0.2581324706	
697.5	0.2555623893	0.347883337	
698.125	0.6150905156	0.07637622569	
698.75	0.3364212392	-0.3172396776	
699.375	-0.4300687499	-0.3571869754	
700.0	-0.1319449377	0.2594607211	
700.625	0.0452622052	0.3431563164	
701.25	0.3210862438	-0.01506360724	
701.875	0.07434889569	0.2103655558	
702.5	0.4807317249	0.2873740135	
703.125	0.2141076924	-0.1031013739	
703.75	0.393973641	0.04989555431	
704.375	0.2424371642	-0.3321471484	
705.0	0.07605768645	-0.03343135794	
705.625	0.3735824285	0.05680241582	
706.25	0.2071829947	0.007834504948	
706.875	0.2703964875	0.3604985797	
707.5	0.3265845344	0.1662386937	
708.125	0.3351980988	0.1369051388	
708.75	0.2058450341	-0.4741805615	
709.375	-0.07397029014	-0.107645472	
710.0	-0.3087076005	0.2363410951	
710.625	0.2121039529	-0.04868754197	
711.25	-0.01331630103	0.2896084889	
711.875	0.2871486313	-0.1934172003	
712.5	0.1413461022	0.1092278886	
713.125	0.3359571528	-0.2230372909	
713.75	-0.02693290168	-0.2658708533	
714.375	0.07166813032	-0.1467670197	
715.0	-0.06336236296	-0.2658714347	
715.625	-0.06418465312	-0.1358023743	
716.25	0.1948893223	-0.158727607	
716.875	0.2743910028	-0.2834443336	
717.5	0.3836137817	-0.1144142345	
718.125	0.5272683704	0.007239616015	
718.75	0.7295937963	-0.05996397634	
719.375	0.3235327052	-0.8165763461	
720.0	0.4368796449	-0.1623530455	
720.625	-0.004202434752	-1.719032006	
721.25	-0.29508391	-0.1255572343	
721.875	0.1026459	-1.1164878	
722.5	-1.179997003	-0.4931470869	
723.125	-0.07452107553	0.0188334733	
723.75	-0.6689494257	0.4832971861	
724.375	0.3745893181	0.313568816	
725.0	-0.01259618835	0.2236833027	
725.625	0.2256323025	0.5787346326	
726.25	0.3633174077	0.4799901456	
726.875	-0.2110583671	0.5304818393	
727.5	-0.1526814247	1.479434559	
728.125	0.8113472033	1.514316588	
728.75	-0.4983900955	1.483351055	
729.375	-1.016581027	3.611193189	
730.0	1.677176989	2.848303734	
730.625	-0.2382735064	1.64239213	
731.25	-1.703932701	4.572130162	
731.875	0.6414597308	3.687706136	
732.5	-2.145130108	-1.082745241	
733.125	-3.13233791	1.153211912	
733.75	0.4721744068	1.212414325	
734.375	0.07588467799	0.7586410748	
735.0	-0.4115478758	-1.111537527	
735.625	0.08758540728	0.07728912968	
736.25	-0.3438045047	0.635608645	
736.875	0.7806968097	0.343889946	
737.5	0.2556445281	-0.174755404	
738.125	1.720738436	0.2592529263	
738.75	1.322136771	-2.240758364	
739.375	0.08560993138	-1.141057342	
740.0	3.355597916	1.35696188	
740.625	4.521863606	-2.719821164	
741.25	-2.005314239	-1.394979892	
741.875	-4.334967987	0.1097269176	
742.5	-2.596278326	-0.3276827306	
743.125	1.033372062	-0.403782514	
743.75	0.06701943522	-1.613669908	
744.375	-0.3952814812	0.3579316212	
745.0	-0.1317183819	-0.02134077329	
745.625	0.1305236692	-0.1669239421	
746.25	0.1136939679	-0.02679685325	
746.875	-0.3212761385	-0.005551838749	
747.5	0.07766528911	0.3254794241	
748.125	-0.0154639377	0.2894307178	
748.75	0.2404229717	0.5250244716	
749.375	0.3110490459	0.3297300754	
750.0	-0.6470092727	0.3065979458	
