!Created with skrf (http://scikit-rf.org).
# GHz S RI R (50+0j) 
!freq	ReS11	ImS11	
500.0	0.1556881111	-1.299768699	
500.625	-0.08905727278	-0.4579237822	
501.25	-0.2879216975	-0.9695765037	
501.875	-0.3400580623	-0.2464963101	
502.5	0.01152495926	-0.09146096154	
503.125	-0.1022774301	0.004640003746	
503.75	0.04313636406	0.03085282969	
504.375	0.02402627101	0.02117288527	
505.0	-0.001682925498	-0.04880643431	
505.625	0.0221304829	-0.002088112944	
506.25	-0.1425092463	-0.08813648505	
506.875	0.1144189894	0.0125551789	
507.5	-0.1237665655	-0.5986267997	
508.125	-0.2203296232	-0.339123664	
508.75	0.6240876218	-0.3701545737	
509.375	0.2409843038	-1.415157541	
510.0	-0.4449675262	0.03733147976	
510.625	0.01407246052	-0.1294888646	
511.25	-0.1370658941	-0.01680913924	
511.875	-0.02817292249	0.03444096445	
512.5	-0.03858783613	0.02688475476	
513.125	-0.03704627112	-0.05365500331	
513.75	0.003368620896	-0.006933459073	
514.375	-0.1073973866	-0.08343943712	
515.0	-0.001745693371	0.2206690777	
515.625	-0.2087832317	-0.8327700068	
516.25	-0.602768698	-0.2947111461	
516.875	0.109777829	-0.211069324	
517.5	-0.08898863264	-0.2454485908	
518.125	0.03918209915	-0.02223255789	
518.75	-0.06933878649	-0.2138187407	
519.375	-0.02879098605	0.03735005342	
520.0	0.05008433171	0.03271504244	
520.625	0.1276828514	-0.05774751612	
521.25	-0.08453582379	-0.2730999232	
521.875	-0.05146119074	0.0444570815	
522.5	-0.08893391601	-0.03006825314	
523.125	-0.02384277222	0.1106878269	
523.75	-0.101459043	-0.1242846466	
524.375	-0.1825570497	0.1562350231	
525.0	0.01783679649	0.0108537533	
525.625	-0.03363986858	0.09786202286	
526.25	0.056202613	-0.05588364666	
526.875	-0.07219413086	0.09742850933	
527.5	0.06295613498	0.2022308769	
528.125	-0.001024946961	0.2560723461	
528.75	0.000734293944	0.2786804155	
529.375	0.02466052748	0.03714281767	
530.0	0.02097028285	0.1559217576	
530.625	0.2108214286	0.18158093	
531.25	0.1719231426	0.1149172111	
531.875	0.1642909265	-0.02871494757	
532.5	-0.1278493107	-0.1444146704	
533.125	0.1026343187	0.1499251299	
533.75	0.04831036495	-0.2327517859	
534.375	-0.06189696545	-0.1225109061	
535.0	-0.2374141341	-0.1683573773	
535.625	-0.1135163144	0.1692727363	
536.25	-0.02244057986	0.06158000288	
536.875	0.1147819023	0.02425369159	
537.5	0.0211302535	-0.05069392053	
538.125	0.1235322622	0.001019136626	
538.75	0.1110520759	-0.1694035105	
539.375	-0.0724764546	-0.1346634705	
540.0	-0.1043351586	-0.1805744596	
540.625	-0.1938231682	0.0043061639	
541.25	-0.01700790216	0.007234615382	
541.875	-0.05462775872	-0.05887409377	
542.5	-0.07850809569	-0.003120388856	
543.125	-0.03530354538	-0.09530381819	
543.75	-0.1209086404	0.02744865914	
544.375	0.03111555593	0.0005442564542	
545.0	-0.0250791409	0.0911116272	
545.625	0.1025349841	-0.001012471646	
546.25	0.03624327099	0.06723422993	
546.875	0.1408543087	-0.06184172558	
547.5	0.02729949733	-0.07036923232	
548.125	0.0009266436224	-0.1775495241	
548.75	-0.1590843831	-0.09189774314	
549.375	-0.05510351601	-0.02018171583	
550.0	-0.09576453057	-0.0281158729	
550.625	-0.04100102855	0.0405975555	
551.25	-0.07003930727	-0.005575563887	
551.875	-0.08239088912	0.08400331542	
552.5	-0.02504531722	0.04524835969	
553.125	-0.03089019328	0.06512108438	
553.75	0.04217952775	0.03257408635	
554.375	0.08181344686	0.009191319562	
555.0	0.0905001803	-0.06891506104	
555.625	0.06914329087	-0.09608866364	
556.25	0.06076712382	-0.1230862905	
556.875	-0.02928742665	-0.1474914547	
557.5	-0.09464224734	-0.09106005117	
558.125	-0.1035443071	-0.03375563241	
558.75	-0.1031381399	-0.007017724033	
559.375	-0.1030779629	0.02924139967	
560.0	-0.08269359813	0.06008878174	
560.625	-0.06690578699	0.1122033136	
561.25	0.03191564425	0.0943750207	
561.875	0.001414260676	0.03170923603	
562.5	0.03610203616	0.0672248332	
563.125	0.04315121616	0.03446334512	
563.75	0.1453127976	0.03511931186	
564.375	0.1076374317	-0.1327230618	
565.0	0.06818315349	-0.09019472357	
565.625	-0.009119833173	-0.2101503079	
566.25	-0.1192163959	-0.04790895247	
566.875	-0.100263301	-0.1086620353	
567.5	-0.1976284484	-0.1114866344	
568.125	-0.08949897439	-0.03726417687	
568.75	-0.2065128138	-0.1502607688	
569.375	-0.2364393356	0.1586483663	
570.0	-0.04332208722	0.0984618398	
570.625	-0.1391206965	0.1738548116	
571.25	0.09530758264	0.1192357214	
571.875	-0.0227587523	0.0827722714	
572.5	0.188755132	-0.05444342476	
573.125	-0.01322381023	-0.04404964125	
573.75	0.1347342692	-0.08107320249	
574.375	-0.03350276037	-0.1387803326	
575.0	0.02211528352	0.04963353252	
575.625	0.07032135791	-0.1441898438	
576.25	-0.03898484213	-0.07643586759	
576.875	0.08685145968	-0.09734513672	
577.5	-0.03564592104	-0.2140336198	
578.125	-0.09728190222	-0.0312367536	
578.75	0.02175744392	-0.1352271881	
579.375	-0.1570095089	-0.1030326999	
580.0	0.03996337484	0.09760333771	
580.625	-0.1576204791	-0.1397497207	
581.25	-0.0332047362	0.1561895363	
581.875	-0.04852192204	0.03693801111	
582.5	0.04160400994	0.2681048246	
583.125	0.1587513077	-0.0003981396466	
583.75	-0.0593673709	0.09717009533	
584.375	0.1343737234	0.01061265457	
585.0	-0.006115378373	0.0446912384	
585.625	0.225402892	0.05948882498	
586.25	0.1132430766	-0.1381776625	
586.875	0.04672583771	-0.03552943727	
587.5	0.02185511154	-0.1924737748	
588.125	-0.1020250265	-0.1027701228	
588.75	0.09908082189	-0.06674645711	
589.375	0.0575925774	-0.2304752903	
590.0	-0.068173704	-0.06347153644	
590.625	-0.1458960277	-0.1310264185	
591.25	-0.139700689	0.2636087506	
591.875	0.04325791063	0.01104235988	
592.5	-0.08321963292	0.07300915078	
593.125	0.0657791182	0.0202802345	
593.75	-0.01302290395	0.2082830451	
594.375	0.2535575509	0.06592904765	
595.0	0.04541172036	0.05196767574	
595.625	0.142059337	0.1643441309	
596.25	0.1398257563	-0.0494004184	
596.875	0.05073240043	0.061955868	
597.5	0.1845079598	0.1425218978	
598.125	0.1689488461	0.02730435821	
598.75	0.08361141468	0.08737515342	
599.375	0.2558764736	-0.004955917342	
600.0	0.111793902	-0.1846218855	
600.625	0.1150822926	-0.08041795743	
601.25	0.1171956518	-0.2236170952	
601.875	-0.1292637057	-0.07405542516	
602.5	-0.05015971025	-0.09070384261	
603.125	-0.1632400732	0.1129766019	
603.75	0.02002703962	0.001619973776	
604.375	-0.1575367034	-0.000814312011	
605.0	-0.06810892051	0.1669394975	
605.625	-0.1067920568	-0.06980956696	
606.25	-0.1635385058	0.1230357687	
606.875	-0.08366348373	0.1156609932	
607.5	-0.1956029899	0.08949084854	
608.125	0.004304795923	0.2566735709	
608.75	0.1327112322	0.160820675	
609.375	0.2043694183	0.05717465533	
610.0	0.2123530355	-0.1775656247	
610.625	0.05032978714	-0.1628938736	
611.25	0.06910618835	-0.1014544717	
611.875	-0.1720681948	-0.1519065917	
612.5	-0.07197005925	-0.007782321272	
613.125	-0.2210390548	-0.06579127454	
613.75	-0.05520206004	0.2322985967	
614.375	-0.03872478207	-0.02456621913	
615.0	0.0683200965	0.1522768406	
615.625	0.05462495505	-0.01672870718	
616.25	-0.1364434554	0.1428050299	
616.875	0.007685011512	0.1876287908	
617.5	-0.02859875942	0.09825775947	
618.125	-0.07510813378	0.2176525936	
618.75	0.08691207247	0.2301207824	
619.375	0.158051201	0.1804213542	
620.0	0.1821332074	0.07897086274	
620.625	0.1514399441	-0.1898576427	
621.25	-0.03488264415	-0.1204769798	
621.875	-0.09811155077	-0.1899944972	
622.5	-0.2338547648	0.1051158641	
623.125	-0.01335627026	0.08516137228	
623.75	0.1258727746	0.1235386453	
624.375	0.01747183272	-0.1364406612	
625.0	0.07054979574	0.04373044155	
625.625	0.0195309613	-0.1512511626	
626.25	-0.02960206597	-0.05039134171	
626.875	-0.119616274	-0.1465228997	
627.5	-0.1854833902	0.007986588603	
628.125	-0.0407861161	-0.03740768864	
628.75	-0.0538260459	-0.1289888953	
629.375	-0.1283931355	-0.1138031817	
630.0	-0.1492691868	0.01707995413	
630.625	-0.2286969845	0.03908519638	
631.25	-0.1176687442	0.2277105862	
631.875	-0.005741041353	0.1324814315	
632.5	0.1452728056	0.255520649	
633.125	0.2228033019	-0.001485952356	
633.75	0.1050501316	0.003848990869	
634.375	0.1066340503	-0.1777992654	
635.0	-0.1193209781	-0.06634216818	
635.625	-0.05989896641	-0.1460637889	
636.25	-0.2030234453	0.1093478022	
636.875	0.02863843372	0.103578571	
637.5	-0.1085488028	0.03469916131	
638.125	-0.003172499324	0.1782416135	
638.75	-0.0896971274	0.05304602219	
639.375	-0.03299093145	0.3197244715	
640.0	0.2015578471	0.1613110474	
640.625	0.1291303099	0.09666905976	
641.25	0.3218162005	0.0508810575	
641.875	0.1356551017	-0.2849193029	
642.5	-0.03436456271	-0.07003345082	
643.125	-0.1168513798	-0.2273253747	
643.75	-0.2036337228	0.05843439687	
644.375	-0.04252083637	-0.2000968963	
645.0	-0.2125627417	0.2667159653	
645.625	0.1577376203	-0.03085103166	
646.25	0.006922855378	0.2059541084	
646.875	0.2053451547	-0.1136620415	
647.5	-0.08097732118	0.0744855274	
648.125	0.3313782993	0.02330678091	
648.75	0.126956011	-0.1640896317	
649.375	0.2257651962	-0.06471784126	
650.0	0.2437350586	-0.4219872428	
650.625	-0.05624757938	-0.245262244	
651.25	0.253491078	-0.07954834113	
651.875	0.3237571481	-0.266637953	
652.5	0.0882785434	-0.1568245581	
653.125	0.2963822169	0.0530253536	
653.75	0.2097825322	-0.3402547845	
654.375	-0.1075062727	-0.1417849466	
655.0	-0.1950416403	-0.2223681629	
655.625	-0.2900937391	0.3981636096	
656.25	0.09918921184	0.02895093533	
656.875	-0.04724300802	0.144991431	
657.5	0.2311312711	-0.05731539728	
658.125	-0.05362061118	0.1699220873	
658.75	0.4950434477	0.06504856993	
659.375	0.1494811458	-0.2298594823	
660.0	0.2345559877	-0.1237508873	
660.625	0.2290177684	-0.401080759	
661.25	-0.07426993567	-0.267549593	
661.875	0.2731794303	-0.07925072821	
662.5	0.2999741593	-0.2993957233	
663.125	0.111761041	-0.185078481	
663.75	0.2545900057	-0.1691596864	
664.375	-0.1010222602	-0.4137775841	
665.0	-0.1989354719	-0.07955252245	
665.625	-0.2875050036	-0.051660655	
666.25	-0.1265313651	0.3516288773	
666.875	0.1329082963	0.07288866051	
667.5	0.1318922388	0.2015415519	
668.125	0.2738226807	-0.1502062572	
668.75	0.06412592648	-0.04051773521	
669.375	0.2103441673	-0.2230951107	
670.0	-0.1728640545	-0.2268285348	
670.625	0.1404628651	-0.06486430943	
671.25	0.1089368708	-0.2609691512	
671.875	0.009372276574	-0.1911247631	
672.5	0.2091021872	0.01273270187	
673.125	0.276885254	-0.2743930056	
673.75	0.02693550493	-0.1699304524	
674.375	0.1325365887	-0.1733950019	
675.0	-0.1078112745	-0.3274429678	
675.625	-0.1232063876	0.01967254289	
676.25	-0.1289316368	-0.1628676821	
676.875	-0.2324679855	0.06977242139	
677.5	-0.02190542082	0.03519486594	
678.125	-0.2525755061	0.03204568554	
678.75	0.1572416603	0.3079710695	
679.375	0.05799688571	-0.02943516195	
680.0	0.2993124774	0.0870910651	
680.625	0.04985890783	-0.2501319163	
681.25	-0.01825732097	0.3233062927	
681.875	0.3856516081	-0.002176460093	
682.5	0.11923025	-0.07299101242	
683.125	0.1606215066	0.2665134545	
683.75	0.4726808622	-0.01834939873	
684.375	0.04330720941	-0.08439090702	
685.0	0.3011568486	0.2563823312	
685.625	0.3044801794	-0.08501251771	
686.25	0.1296346212	-0.09281616721	
686.875	0.412528249	-0.02405067019	
687.5	0.1643380371	-0.4507987393	
688.125	0.04457536325	-0.3004505598	
688.75	-0.3650692116	-0.3414446369	
689.375	-0.305339586	0.4074607693	
690.0	0.04557240647	0.1252996053	
690.625	0.2079666162	0.4496202459	
691.25	0.387163372	0.09146468787	
691.875	0.119084905	0.3597989097	
692.5	0.7489979819	0.3506882645	
693.125	0.5539554292	-0.2556261584	
693.75	0.6336761484	0.04542559907	
694.375	0.4747353596	-0.5219216151	
695.0	0.2141293336	-0.1512906957	
695.625	0.4261110674	0.1605460344	
696.25	0.6316931706	0.1260326612	
696.875	0.3032078145	0.178947178	
697.5	0.3252969446	0.3907829652	
698.125	0.6177599603	0.2993684232	
698.75	0.2230562431	-0.4216955341	
699.375	-0.1464604956	-0.434338221	
700.0	-0.4301781439	0.2596017973	
700.625	0.1873755517	0.1826665812	
701.25	0.06137823363	0.2428339345	
701.875	0.4143572552	0.2169248971	
702.5	0.1214869748	0.09379672094	
703.125	0.3570459729	0.2462586612	
703.75	0.4469059051	-0.1809986768	
704.375	0.1066986787	-0.1173898711	
705.0	0.346478575	-0.1082349601	
705.625	0.186011358	-0.02938070499	
706.25	0.09700587363	0.1896149697	
706.875	0.2532888926	0.2109886067	
707.5	0.3528812077	0.1814572197	
708.125	0.5163554674	-0.05101414768	
708.75	0.2956631193	-0.2947811071	
709.375	-0.2999138258	-0.3560610864	
710.0	-0.0909524684	0.08552864205	
710.625	-0.1609906151	0.2243305218	
711.25	0.1457770878	0.01880176835	
711.875	0.03296785848	0.2162251807	
712.5	0.367875454	-0.05309776074	
713.125	0.07674718711	-0.1589639748	
713.75	0.1990339697	-0.130391406	
714.375	-0.03036903029	-0.3069055671	
715.0	-0.06400117838	-0.08823696082	
715.625	0.1083677784	-0.2128967157	
716.25	0.1010006373	-0.3228948431	
716.875	0.1808663066	-0.06969817443	
717.5	0.4695866266	0.0538047224	
718.125	0.648482256	-0.1913397947	
718.75	0.5164039455	-0.3691578608	
719.375	0.8128808028	-0.2820469666	
720.0	0.1935628289	-0.7715395505	
720.625	0.09020435522	-0.4329172292	
721.25	0.5740833165	-1.184425612	
721.875	-0.5965118735	-0.9084492893	
722.5	0.04119603624	-0.4804090444	
723.125	-0.8781270453	-0.2376446351	
723.75	-0.09917431316	0.5243038079	
724.375	-0.09702460815	0.189866582	
725.0	0.2405325802	0.4999955996	
725.625	0.2217808204	0.1603410841	
726.25	-0.1729392136	0.5659744017	
726.875	0.000893138698	1.043639648	
727.5	0.231613873	0.9282519969	
728.125	-0.5889554666	1.280662586	
728.75	0.1717405279	3.022963765	
729.375	0.5695048727	2.701545056	
730.0	-1.206781116	2.443657312	
730.625	0.4718742003	4.590550919	
731.25	0.416162721	2.152892448	
731.875	-2.966269463	0.5252238924	
732.5	-3.606925968	1.469428214	
733.125	-1.037501395	1.081757805	
733.75	-1.604751951	0.4811436871	
734.375	1.429301195	0.2395867251	
735.0	-0.1640754496	-0.2148442421	
735.625	-0.5121718841	-0.2033638067	
736.25	0.2497490372	0.6904066108	
736.875	-0.1486554986	0.2422002345	
737.5	1.253405255	0.5537793068	
738.125	1.265115981	-0.9399369074	
738.75	0.5299748598	-0.4883520552	
739.375	3.569925874	0.0118559819	
740.0	2.084090368	-3.81452691	
740.625	-0.7250978121	0.471083184	
741.25	-0.2113970481	5.542894869	
741.875	1.145935378	2.639953617	
742.5	1.618672517	-2.612055829	
743.125	-0.01023724562	-2.683054612	
743.75	-0.5656070621	-0.6428006984	
744.375	-0.1119253274	-0.3133853886	
745.0	0.1837799655	0.3289455819	
745.625	-0.07619849808	0.05978069254	
746.25	0.008200523574	-0.2068971603	
746.875	-0.1826114557	0.08551426637	
747.5	-0.1668813312	0.1734253232	
748.125	0.1104060645	0.5776998627	
748.75	0.3181185127	0.2747655292	
749.375	-0.02308721642	0.365267592	
750.0	-0.3681580862	0.2867656909	
