!Created with skrf (http://scikit-rf.org).
# GHz S RI R (50+0j) 
!freq	ReS11	ImS11	
500.0	0.1503274393	-1.339225073	
500.625	-0.1174830681	-0.3967132873	
501.25	-0.05577510318	-0.7778652431	
501.875	-0.5289097622	-0.256471412	
502.5	0.02656306372	-0.0631457397	
503.125	-0.09913506732	-0.001108067543	
503.75	0.04547435963	0.036640908	
504.375	0.02811280203	0.01957867306	
505.0	-0.01277087008	-0.04237794015	
505.625	0.03723405471	-0.007340152824	
506.25	-0.1038146603	-0.1116631925	
506.875	0.07829185387	0.06312779201	
507.5	-0.1221307936	-0.6187874166	
508.125	-0.2358644465	-0.5352140144	
508.75	0.7294239496	-0.4603665353	
509.375	0.1832748706	-1.446949155	
510.0	-0.2707283148	-0.113761191	
510.625	0.002583493844	-0.1368824061	
511.25	-0.1176297026	-0.05885207862	
511.875	-0.0409388724	0.008490630707	
512.5	-0.03093065871	0.02742491365	
513.125	-0.03157683137	-0.0681806583	
513.75	-0.0005045231414	-0.01632292136	
514.375	-0.09663278177	-0.08639371682	
515.0	-0.0525391424	0.2165956745	
515.625	0.06800410447	-0.6966216196	
516.25	-0.2643648481	0.08157836542	
516.875	0.1092501661	-0.3754613091	
517.5	-0.1747914503	-0.1739946529	
518.125	-0.00299818198	0.04088353086	
518.75	-0.0506874293	-0.1858752946	
519.375	-0.02704505165	0.03213336795	
520.0	0.05007886112	0.03739432895	
520.625	0.1738922853	-0.005030541787	
521.25	-0.06160508931	-0.2478572195	
521.875	-0.07635682193	0.01759559077	
522.5	-0.07311304942	-0.02591838415	
523.125	0.02213072019	0.09716558455	
523.75	-0.03978266897	-0.1144339696	
524.375	-0.2395728998	0.1249696405	
525.0	0.05540040983	0.02652822134	
525.625	-0.04897435466	0.0740359988	
526.25	0.06072938089	-0.05474412443	
526.875	-0.06325794664	0.1070452101	
527.5	0.0745575269	0.1536802621	
528.125	-0.02680207913	0.1055621819	
528.75	0.06828568256	0.2195168969	
529.375	0.01961230278	0.06157913009	
530.0	-0.04935822303	0.1820136921	
530.625	0.1119627451	0.2615056315	
531.25	0.1769272418	0.07530617113	
531.875	0.140257163	-0.005237867408	
532.5	-0.1344230502	-0.1089791354	
533.125	0.1879575137	-0.001063818176	
533.75	0.007965250139	-0.2313300804	
534.375	-0.0393245799	-0.1121844074	
535.0	-0.2323125155	-0.1733490628	
535.625	-0.1073395167	0.1498973558	
536.25	-0.01974457024	0.05427646456	
536.875	0.1065455434	0.03373456418	
537.5	0.02164159351	-0.05563338924	
538.125	0.1275308535	-0.004184508642	
538.75	0.09797124422	-0.1795932301	
539.375	-0.06940201515	-0.1318187949	
540.0	-0.1269638279	-0.1850028659	
540.625	-0.1835586067	-0.002582541031	
541.25	-0.01943923717	0.009406224008	
541.875	0.02872206774	-0.09114352371	
542.5	-0.061178901	-0.01310159135	
543.125	-0.03797726442	-0.08565135723	
543.75	-0.1195179648	0.0311573961	
544.375	0.03841188858	-0.003960822734	
545.0	-0.02274033838	0.09498082513	
545.625	0.06074680842	0.003286378776	
546.25	0.02663755228	0.09444754179	
546.875	0.1529737465	-0.06612454212	
547.5	0.0159407563	-0.07511579236	
548.125	0.01179535027	-0.1644278946	
548.75	-0.163080318	-0.1011581767	
549.375	-0.0595320808	-0.01314232505	
550.0	-0.0981894447	-0.0289863518	
550.625	-0.01969048115	0.03850800551	
551.25	-0.07257839038	-0.006336467844	
551.875	-0.07577670939	0.08531728535	
552.5	-0.02713800788	0.0494564919	
553.125	-0.0209431914	0.07114327161	
553.75	0.04257879144	0.03223231564	
554.375	0.07575700971	0.009406266643	
555.0	0.09344572541	-0.06843728975	
555.625	0.07380981124	-0.09676882417	
556.25	0.06292166572	-0.1221074691	
556.875	-0.03103606356	-0.1475192859	
557.5	-0.09344326439	-0.0887641898	
558.125	-0.1023825739	-0.03345296644	
558.75	-0.1028955941	-0.007115916249	
559.375	-0.104577813	0.03040606096	
560.0	-0.07742366355	0.06009698284	
560.625	-0.06285992395	0.1066906296	
561.25	0.03457422659	0.09657108023	
561.875	-0.003488817969	0.03125593392	
562.5	0.04221964613	0.06317255038	
563.125	0.03221113401	0.05298852661	
563.75	0.1559840548	0.02645514162	
564.375	0.1036216634	-0.1312697647	
565.0	0.0586557613	-0.09202175314	
565.625	-0.02138708408	-0.1867061043	
566.25	-0.1394492534	-0.04545804003	
566.875	-0.07104808784	-0.09949839898	
567.5	-0.2198079888	-0.1308965497	
568.125	-0.1051984945	-0.05024572715	
568.75	-0.2072067304	-0.1401382408	
569.375	-0.2198482661	0.1571405405	
570.0	-0.06523096584	0.0734506918	
570.625	-0.1288843478	0.1800127873	
571.25	0.1076455112	0.1138254184	
571.875	-0.02343229833	0.07326882328	
572.5	0.2104666121	-0.04787717895	
573.125	-0.01537405899	-0.07159819483	
573.75	0.1251105852	-0.06793711287	
574.375	-0.04745556691	-0.1344557808	
575.0	0.04760508431	0.05075292353	
575.625	0.04690983747	-0.1464185533	
576.25	-0.03482720783	-0.06820039292	
576.875	0.08984530591	-0.09441254438	
577.5	-0.03044889631	-0.2195730614	
578.125	-0.09347991591	-0.07121499338	
578.75	0.0492903373	-0.120893443	
579.375	-0.1697497687	-0.131054202	
580.0	0.07669174793	0.1242377814	
580.625	-0.1439500509	-0.1292128532	
581.25	0.01810975546	0.1558007252	
581.875	-0.05423170485	0.0512318615	
582.5	0.06778559711	0.2725304778	
583.125	0.1536002779	-0.01774793975	
583.75	-0.05792841667	0.05116747595	
584.375	0.1314540982	0.03552397056	
585.0	-0.01311404165	0.036864052	
585.625	0.2213519926	0.06687904498	
586.25	0.1107689481	-0.1423173184	
586.875	0.06037634464	-0.03644241207	
587.5	-0.007173410295	-0.195947759	
588.125	-0.09326133338	-0.08791342005	
588.75	0.09534368491	-0.08065249741	
589.375	0.06403007853	-0.2236280474	
590.0	-0.09267162374	-0.05092237414	
590.625	-0.1230110774	-0.1279172093	
591.25	-0.1636556158	0.187633741	
591.875	0.05667612183	-0.0210166339	
592.5	-0.09261801243	0.1220544697	
593.125	0.05791294267	-0.01206268114	
593.75	-0.03661791919	0.1573295505	
594.375	0.2372145461	0.04600538384	
595.0	0.04166092021	0.05534428368	
595.625	0.147516685	0.1544626014	
596.25	0.2033684328	-0.02103168756	
596.875	0.05588387642	0.06107299323	
597.5	0.1941271854	0.1205512384	
598.125	0.1607019646	0.02236491783	
598.75	0.110740865	0.108148022	
599.375	0.2606755018	-0.02635719181	
600.0	0.1103512776	-0.1654813196	
600.625	0.1200993603	-0.08359713689	
601.25	0.1025773305	-0.2277674665	
601.875	-0.1432222176	-0.08223739748	
602.5	-0.01829293908	-0.09404163873	
603.125	-0.1820469238	0.1036659637	
603.75	0.01391487356	0.05322683241	
604.375	-0.1858023477	0.007486576909	
605.0	-0.05368288718	0.1753222002	
605.625	-0.1618843626	-0.07281542497	
606.25	-0.1802726093	0.1374789003	
606.875	-0.05887941745	0.1110399299	
607.5	-0.1857229532	0.09883647379	
608.125	0.02852185167	0.1963851875	
608.75	0.1847810224	0.0661348182	
609.375	0.2101972676	-0.002756224137	
610.0	0.2111504268	-0.1639579873	
610.625	0.06001644685	-0.2055678762	
611.25	0.08430972967	-0.1258237461	
611.875	-0.1666059949	-0.1417618799	
612.5	-0.0595624554	-0.01172035849	
613.125	-0.2235807737	-0.06492068342	
613.75	-0.05653331772	0.2389617686	
614.375	0.01826875036	-0.03169037701	
615.0	0.1194024149	0.1461352358	
615.625	0.02742066544	-0.02774883483	
616.25	-0.08585280848	0.1807982498	
616.875	-0.008218870313	0.2825482061	
617.5	-0.06972264958	0.1283522952	
618.125	-0.009276467697	0.2276290032	
618.75	0.02395066612	0.1940020121	
619.375	0.06112588985	0.09959384836	
620.0	0.1464845441	0.09282634322	
620.625	0.1718561173	-0.1932044955	
621.25	-0.06398960286	-0.1132361217	
621.875	-0.1907814852	-0.1467915689	
622.5	-0.2654704351	0.1355446382	
623.125	0.00726415077	0.08349542127	
623.75	0.1277090535	0.13448069	
624.375	0.005137040898	-0.1196796001	
625.0	0.07061135748	0.05046121762	
625.625	0.02543648948	-0.1623817112	
626.25	-0.03675948019	-0.05712566879	
626.875	-0.1179743893	-0.1598040707	
627.5	-0.1891895705	0.008889839827	
628.125	-0.03580455818	-0.02724378482	
628.75	-0.05748715869	-0.1303083604	
629.375	-0.1068635647	-0.09644352885	
630.0	-0.1100953798	-0.1146648933	
630.625	-0.2563621856	0.06011703195	
631.25	-0.1420761642	0.2842192344	
631.875	-0.009292910331	0.1668652579	
632.5	0.1246743247	0.2575888753	
633.125	0.2147411637	-0.02031846167	
633.75	0.06079822097	0.00578536572	
634.375	0.123982772	-0.1834871503	
635.0	-0.0912734089	-0.0751344205	
635.625	-0.05063678211	-0.1664265136	
636.25	-0.1993063673	0.1227397745	
636.875	0.02481330885	0.08427679	
637.5	-0.1213536232	0.04555084809	
638.125	0.01834423295	0.1511189389	
638.75	-0.09578679149	0.05254983709	
639.375	-0.05039979676	0.3111543867	
640.0	0.203031369	0.1693960118	
640.625	0.1053917661	0.1408797053	
641.25	0.2934124743	0.08986348953	
641.875	0.1373941185	-0.2847376301	
642.5	0.003307174293	-0.1030107185	
643.125	-0.1126970841	-0.2377781279	
643.75	-0.1341702216	0.05449049983	
644.375	-0.05905787606	-0.2003734588	
645.0	-0.2429916768	0.2675704556	
645.625	0.1229973852	0.08707463164	
646.25	0.02031876544	0.2072224987	
646.875	0.2600840484	-0.1356913393	
647.5	-0.09599869829	0.0911104547	
648.125	0.2952111613	0.04514674681	
648.75	0.1099299521	-0.1396643102	
649.375	0.2518115054	-0.05420503359	
650.0	0.2233730302	-0.4600590363	
650.625	-0.0410414437	-0.2343048316	
651.25	0.2672634712	-0.06847077353	
651.875	0.3179973637	-0.26837794	
652.5	0.1035478143	-0.1907869419	
653.125	0.2768195692	0.03600008685	
653.75	0.2493072807	-0.3532187242	
654.375	-0.1323876932	-0.1285007118	
655.0	-0.1916770063	-0.2375758868	
655.625	-0.2363573854	0.3095824824	
656.25	0.1146370878	-0.01193297245	
656.875	-0.06384852682	0.1582032749	
657.5	0.2369535483	-0.0786995981	
658.125	-0.08462014213	0.1796771572	
658.75	0.420309404	0.1155366938	
659.375	0.1678421483	-0.2181108977	
660.0	0.2603019454	-0.1246167385	
660.625	0.2103594005	-0.4126124404	
661.25	-0.01320866282	-0.2713587199	
661.875	0.3046058624	-0.08106042105	
662.5	0.3012963796	-0.3028210624	
663.125	0.1189084172	-0.1916802572	
663.75	0.2347869171	-0.1713171669	
664.375	-0.09204075865	-0.399679464	
665.0	-0.1960184523	-0.07683521359	
665.625	-0.3026903546	-0.02609349113	
666.25	-0.1198370235	0.3573222067	
666.875	0.1373334517	0.04369030291	
667.5	0.1395279233	0.2250347952	
668.125	0.2671489464	-0.1149507313	
668.75	0.04355748259	-0.01265025739	
669.375	0.2196926382	-0.2136667074	
670.0	-0.2160534178	-0.2001929247	
670.625	0.1059942133	-0.04612239208	
671.25	0.0971079456	-0.2589396462	
671.875	0.01288057419	-0.1825024117	
672.5	0.2325520881	0.0162837609	
673.125	0.2756726299	-0.2666460861	
673.75	0.037623017	-0.146162315	
674.375	0.1355803077	-0.1844186017	
675.0	-0.1079083378	-0.3237087222	
675.625	-0.1685861413	0.01803142439	
676.25	-0.1393905138	-0.1546603512	
676.875	-0.2190578022	0.07337848916	
677.5	-0.03380358056	0.02503314623	
678.125	-0.2473890787	0.05571036725	
678.75	0.138421806	0.2806640093	
679.375	0.0760441989	-0.01854037012	
680.0	0.315326385	0.09515568498	
680.625	0.04022629837	-0.274839656	
681.25	-0.0615917135	0.1520217928	
681.875	0.4019767743	-0.03760832655	
682.5	0.05217247743	-0.06601874715	
683.125	0.2353648698	0.3213712011	
683.75	0.4647614797	0.03798115258	
684.375	0.0739186763	-0.1286543152	
685.0	0.3292428185	0.2362667109	
685.625	0.2576154201	-0.08345065147	
686.25	0.1350368805	-0.0852297289	
686.875	0.3703401887	0.05794215057	
687.5	0.2017333541	-0.4774199848	
688.125	0.02158805957	-0.3273643271	
688.75	-0.3552216518	-0.3265117036	
689.375	-0.2798084194	0.4295530511	
690.0	0.08165237364	0.123426429	
690.625	0.2034321574	0.464038736	
691.25	0.384491841	0.08344397512	
691.875	0.1851602763	0.2854007868	
692.5	0.8672286983	0.2996819734	
693.125	0.5446637155	-0.2775983284	
693.75	0.7002998604	0.04342631579	
694.375	0.5380722832	-0.4872979862	
695.0	0.2804088789	-0.4229793572	
695.625	0.5339742163	0.0996801554	
696.25	0.5245212534	0.02777346533	
696.875	0.2697404833	0.2998390759	
697.5	0.2714639593	0.4466430207	
698.125	0.5403077485	0.2697717998	
698.75	0.314208746	-0.4165287583	
699.375	-0.1782668402	-0.40867534	
700.0	-0.3622774848	0.4090853093	
700.625	0.2048994705	0.17289492	
701.25	0.04454111531	0.222214581	
701.875	0.4160022411	0.2311332249	
702.5	0.1969100757	0.07678186369	
703.125	0.4073767545	0.2643316602	
703.75	0.4544709607	-0.1952514931	
704.375	0.1803413381	-0.05827803455	
705.0	0.3865011756	-0.05423834049	
705.625	0.2819326934	-0.1511995341	
706.25	0.08731392008	0.142812936	
706.875	0.2172999848	0.1987757836	
707.5	0.308795402	0.1980762817	
708.125	0.252083517	0.2009897106	
708.75	0.2889790504	-0.2518678612	
709.375	-0.2865252527	-0.409980661	
710.0	-0.05779055167	0.1081856188	
710.625	-0.03725891885	0.2223235767	
711.25	0.1768017303	-0.0247137004	
711.875	0.0220873898	0.2390949797	
712.5	0.3923327106	-0.044155311	
713.125	0.1090928459	-0.1811247601	
713.75	0.2117425451	-0.1420366316	
714.375	-0.02262694955	-0.3111311935	
715.0	-0.06666167769	-0.09317631424	
715.625	0.137249247	-0.2280977735	
716.25	0.04329980545	-0.3445016388	
716.875	0.1595579841	-0.02909584308	
717.5	0.4612028616	0.05544413186	
718.125	0.6252219935	-0.1518115724	
718.75	0.4312192236	0.05520221118	
719.375	0.6377577307	0.04971198963	
720.0	0.1847611844	-0.763270222	
720.625	-0.06118563553	-0.122037118	
721.25	0.1853193649	-1.065814506	
721.875	-0.5701578436	-0.7485057031	
722.5	0.08694038366	-0.5208448883	
723.125	-0.9084959825	-0.3017602814	
723.75	-0.2156669565	0.4876094967	
724.375	-0.1723518822	0.1979947008	
725.0	0.2539389588	0.5385198591	
725.625	0.238055397	0.1491846944	
726.25	-0.1713254992	0.5729181982	
726.875	0.01194156665	1.053421269	
727.5	0.2304475145	0.8610335532	
728.125	-0.6073109475	1.258442871	
728.75	0.00765481598	2.835800686	
729.375	0.3449220155	2.125608585	
730.0	-1.196994966	2.25250006	
730.625	0.9396387995	4.371022865	
731.25	1.156782874	2.494072115	
731.875	-2.521430139	0.8712139601	
732.5	-3.767397123	1.434258158	
733.125	-1.037078718	0.7929661038	
733.75	-2.074238057	0.3877230915	
734.375	1.104605684	0.3570633194	
735.0	-0.08807904017	-0.1279423027	
735.625	-0.5951900445	-0.2542454248	
736.25	0.3323642905	0.6467958686	
736.875	-0.05712714683	0.2401534476	
737.5	1.312538507	0.5152229551	
738.125	1.22235816	-0.9221397548	
738.75	0.4214030799	-0.6700590521	
739.375	3.283833851	-0.2533424781	
740.0	1.83659765	-3.600797808	
740.625	-0.5481995167	0.6949507942	
741.25	0.4703209719	5.490164752	
741.875	0.5550656214	1.658861521	
742.5	0.6925577837	-2.714068387	
743.125	0.1821853669	-2.379790431	
743.75	-0.6571233158	-0.5724219631	
744.375	0.009708105652	-0.2899227788	
745.0	0.1218414073	0.2403204666	
745.625	-0.03606422906	0.06272253534	
746.25	-0.01939431781	-0.226427574	
746.875	-0.1566195845	0.1124069852	
747.5	-0.1529091578	0.1794441487	
748.125	0.1109858851	0.5989649828	
748.75	0.3078481228	0.2930361951	
749.375	-0.02526245567	0.375771692	
750.0	-0.3658892101	0.2629172595	
