!Created with skrf (http://scikit-rf.org).
# GHz S RI R (50+0j) 
!freq	ReS11	ImS11	
500.0	-0.3532983549	-0.9946479437	
500.625	0.3506493749	-0.2962114249	
501.25	-0.4483241073	-0.8170132822	
501.875	-0.3487702324	-0.1968308146	
502.5	0.02878679533	-0.1151830798	
503.125	-0.08693594358	0.01874968175	
503.75	0.002554585895	0.01795936295	
504.375	0.05521497037	-0.000608756459	
505.0	-0.01517910155	-0.01979655109	
505.625	0.04725957621	-0.04673878612	
506.25	-0.1362634964	-0.004500591524	
506.875	0.0388681467	-0.1474830494	
507.5	-0.2681696759	-0.5790773001	
508.125	-0.1185420085	-0.2974159924	
508.75	0.8051212769	-0.5299947197	
509.375	-0.4525495171	-1.100255145	
510.0	-0.2367429217	0.02278283733	
510.625	-0.0230161727	-0.2302498025	
511.25	-0.1184497752	0.01817029738	
511.875	-0.03598515108	-0.07047098615	
512.5	-0.0512649674	0.0382282493	
513.125	-0.02575848075	-0.045495171	
513.75	0.006133568969	-0.04398348927	
514.375	-0.1546149739	-0.01184735058	
515.0	0.211570336	0.1689522809	
515.625	-0.4858510001	-0.4987842192	
516.25	-0.2323862175	-0.08441751658	
516.875	-0.1519725918	-0.6646971042	
517.5	-0.1632430198	-0.169934986	
518.125	0.0330469533	-0.04015713355	
518.75	-0.1152713215	-0.1314976976	
519.375	-0.01936736727	0.03585776879	
520.0	0.05414399159	0.06747602565	
520.625	0.1348864866	-0.05863332686	
521.25	-0.07318347024	-0.20863277	
521.875	-0.09378988776	0.01129510998	
522.5	-0.09948517794	0.02302535768	
523.125	0.04117425126	0.04706985532	
523.75	-0.1671906551	-0.1015286794	
524.375	-0.1199450533	0.1946682547	
525.0	-0.03854272883	-0.01439488435	
525.625	0.01255303779	0.1329646039	
526.25	-0.04744402416	-0.09083153316	
526.875	-0.04779353596	0.121364212	
527.5	0.04007821883	0.08231332228	
528.125	-0.02605354226	0.2622208259	
528.75	0.08440255373	0.2419432817	
529.375	0.02344480261	-0.02372265868	
530.0	0.003180956112	0.2432635591	
530.625	0.1831510067	0.1397192164	
531.25	0.2519421817	-0.1068882652	
531.875	0.2832514349	-0.1773022651	
532.5	-0.1054516816	0.009379248773	
533.125	0.1788292117	-0.03981281675	
533.75	-0.0314305024	-0.1840332213	
534.375	0.04621058363	-0.2272470066	
535.0	-0.2799396472	-0.1187327685	
535.625	-0.07272000859	0.1173207538	
536.25	-0.03276579908	0.07223978336	
536.875	0.1192228493	0.003646229779	
537.5	0.01909719843	-0.02202071713	
538.125	0.1653544061	-0.04287543884	
538.75	0.07125066091	-0.1229967433	
539.375	-0.01477435833	-0.1319365284	
540.0	-0.1807863506	-0.1852168509	
540.625	-0.137250548	0.04837588119	
541.25	-0.0289833198	0.05089024851	
541.875	-0.07029837192	-0.02998516506	
542.5	-0.01002876996	-0.008726977353	
543.125	-0.0747800329	-0.09841755354	
543.75	-0.1337892894	0.07818496684	
544.375	-0.04538427078	-0.01690796752	
545.0	0.009012957964	0.09932070981	
545.625	0.0208745557	-0.02544479601	
546.25	0.1072763098	0.08690577169	
546.875	0.1020021216	-0.09284640451	
547.5	0.06431048727	-0.05687640788	
548.125	-0.03049834822	-0.1947727174	
548.75	-0.1563454201	-0.05427818144	
549.375	-0.04539361019	-0.06828359591	
550.0	-0.1111440396	0.007632430722	
550.625	-0.01484077812	0.01748917937	
551.25	-0.102884303	0.01526084921	
551.875	-0.03885099615	0.0794324539	
552.5	-0.05301774655	0.04490500054	
553.125	-0.01467375902	0.0734016228	
553.75	0.03797088361	0.02752689122	
554.375	0.09002098878	0.006554907346	
555.0	0.08721159904	-0.0706416774	
555.625	0.07293043844	-0.09039536524	
556.25	0.0622237387	-0.1262466153	
556.875	-0.0354717867	-0.1476273078	
557.5	-0.09001624961	-0.0900614045	
558.125	-0.1035271416	-0.034987341	
558.75	-0.1052703844	-0.003272719399	
559.375	-0.09636254551	0.02560334206	
560.0	-0.08908889114	0.05837884217	
560.625	-0.05606531379	0.1211707079	
561.25	0.02492430159	0.07219863468	
561.875	0.00367683985	0.06087156099	
562.5	0.03972048571	0.03128145859	
563.125	0.03040242136	0.07872739245	
563.75	0.1664246792	0.000977325643	
564.375	0.07685180377	-0.09393119939	
565.0	0.1016838345	-0.1110588201	
565.625	-0.0612644263	-0.2024183174	
566.25	-0.0821660904	-0.04417271973	
566.875	-0.1156813715	-0.1493351043	
567.5	-0.1898112047	-0.05695497985	
568.125	-0.05392202134	-0.1251380505	
568.75	-0.2660090761	-0.1042735877	
569.375	-0.1261039342	0.1563937462	
570.0	-0.1397847587	0.09458535437	
570.625	-0.07482942889	0.2457082463	
571.25	0.0608487984	0.04941907206	
571.875	0.003655522645	0.1545642806	
572.5	0.1375949569	-0.08920427092	
573.125	0.05087614145	-0.0116771479	
573.75	0.1145265587	-0.1590107544	
574.375	-0.09308413147	-0.04226862777	
575.0	0.1077498506	0.004424832392	
575.625	-0.028235471	-0.1223460766	
576.25	0.02529352375	-0.01423850938	
576.875	0.04419606387	-0.1792458734	
577.5	-0.08427149997	-0.1781477878	
578.125	-0.006563779062	-0.02816198705	
578.75	-0.03330778853	-0.1848212529	
579.375	-0.2405074009	0.01500811654	
580.0	0.08442039041	-0.01863883279	
580.625	-0.172708614	-0.02732688854	
581.25	0.01559469369	0.05742923755	
581.875	-0.1356031553	0.170528574	
582.5	0.149737847	0.2057574275	
583.125	0.05688292623	-0.03780306577	
583.75	0.02660014262	0.1317390244	
584.375	0.06710395401	-0.05606945169	
585.0	0.03243995724	0.1387367741	
585.625	0.2264635382	-0.02721522189	
586.25	0.04669957248	-0.08631589059	
586.875	0.1442390456	-0.08707659168	
587.5	-0.05903406871	-0.1915847587	
588.125	-0.02715984692	-0.04010082393	
588.75	0.1089307336	-0.1497386874	
589.375	-0.0202645592	-0.2095103806	
590.0	0.0004088941045	-0.07458118888	
590.625	-0.2219044824	-0.1262129778	
591.25	-0.01291026434	0.197579361	
591.875	-0.05178379793	0.004183505648	
592.5	0.01857650416	0.1745362963	
593.125	-0.01630220249	-0.07003898034	
593.75	0.1019976661	0.2199556162	
594.375	0.1250006295	-0.0301899337	
595.0	0.06334160117	0.1048186842	
595.625	0.2223045455	0.115784708	
596.25	0.09554199815	-0.04163683146	
596.875	0.08919393228	0.1082663016	
597.5	0.1969668235	0.03065805296	
598.125	0.09093736338	0.03205579499	
598.75	0.1397183448	0.1437434596	
599.375	0.2117605424	-0.0775225876	
600.0	0.08008332633	-0.101243615	
600.625	0.1806344718	-0.1221791766	
601.25	0.04228718986	-0.2482253708	
601.875	-0.08285321529	-0.01958303407	
602.5	-0.1513853597	-0.1252192594	
603.125	-0.08729704723	0.1465714261	
603.75	-0.05958853282	-0.05128382627	
604.375	-0.1857003279	0.07962464593	
605.0	0.09950007476	-0.00429085016	
605.625	-0.1598759223	-0.02719714969	
606.25	-0.1196016574	0.1617438857	
606.875	-0.0688369069	0.02418176692	
607.5	-0.1873040705	0.1997605309	
608.125	0.04669124617	0.2599826937	
608.75	0.1298943492	0.153119933	
609.375	0.2684624131	0.04081581868	
610.0	0.1849447581	-0.09233550601	
610.625	0.04492513724	-0.07310055181	
611.25	0.07111278728	-0.2291461984	
611.875	-0.1429278374	-0.03853466596	
612.5	-0.05260501078	-0.07819455638	
613.125	-0.2828068894	0.03023492848	
613.75	0.03501425532	0.1730830604	
614.375	-0.09302692172	0.09710509738	
615.0	0.1472250027	0.08599664079	
615.625	-0.09559258774	0.02416227463	
616.25	-0.09253331939	0.2415190009	
616.875	-0.006024293216	0.1424129095	
617.5	-0.1237403827	0.1543694016	
618.125	-0.03097836274	0.237748422	
618.75	0.06170168854	0.1367957048	
619.375	0.1218728591	0.1160998654	
620.0	0.1645406724	0.09684130031	
620.625	0.03949006516	-0.1323922938	
621.25	-0.01671350326	-0.1725865796	
621.875	-0.2275710644	-0.1861509528	
622.5	-0.1544559073	0.1391314639	
623.125	-0.1032927775	0.0533764355	
623.75	0.1844353638	0.07904240795	
624.375	-0.04677754324	-0.0749121233	
625.0	0.1186141783	-0.01130905496	
625.625	-0.0243288022	-0.105178519	
626.25	0.03580791644	-0.09421075789	
626.875	-0.1848788989	-0.1322221979	
627.5	-0.1227166788	0.04852161849	
628.125	-0.06497346451	-0.09104955445	
628.75	-0.139162048	-0.1274616274	
629.375	-0.05485494547	-0.06866815193	
630.0	-0.1224513907	-0.0795940316	
630.625	-0.2674997628	0.03913639822	
631.25	-0.08848092567	0.189052946	
631.875	-0.08961428973	0.2283609117	
632.5	0.1835944798	0.2030631183	
633.125	0.1630947022	-0.06013780025	
633.75	0.1754465879	0.0357167826	
634.375	0.03192509746	-0.2158993922	
635.0	0.02247646278	-0.01210254856	
635.625	-0.1665027645	-0.156937345	
636.25	-0.1003718452	0.1550254396	
636.875	-0.03992886208	0.02813695021	
637.5	-0.1011100176	0.1576408084	
638.125	0.04474742429	0.0554390071	
638.75	-0.1596184865	0.1109093701	
639.375	0.05296271334	0.3071603254	
640.0	0.122770628	0.1193476109	
640.625	0.1485169825	0.1850548618	
641.25	0.3275879623	-0.03884536155	
641.875	0.06928098215	-0.1362708445	
642.5	0.09927782665	-0.21213513	
643.125	-0.2158098039	-0.1152792541	
643.75	0.01892428701	0.08011694851	
644.375	-0.2285762976	-0.113734201	
645.0	-0.07184405337	0.2362883582	
645.625	-0.04769229968	-0.01284837344	
646.25	0.2315660266	0.2803466407	
646.875	0.02676080036	-0.2042777401	
647.5	0.01417847426	0.1990149144	
648.125	0.2057981815	-0.09610041343	
648.75	0.09547174064	0.001177684605	
649.375	0.4317505219	-0.1845879903	
650.0	0.03001939313	-0.4149341112	
650.625	0.08693741975	-0.1044515864	
651.25	0.3279360624	-0.2267459749	
651.875	0.1726156325	-0.3254369968	
652.5	0.1478068279	0.02205926372	
653.125	0.3794280087	-0.1068149795	
653.75	0.07759969921	-0.2649675587	
654.375	0.05215116771	-0.1576410464	
655.0	-0.3452203154	-0.2257786964	
655.625	-0.04577812232	0.321574573	
656.25	-0.02937081211	0.04247953466	
656.875	0.1288886448	0.3169967377	
657.5	0.001798081708	-0.1201597447	
658.125	0.1047838464	0.3149142928	
658.75	0.350525292	-0.09293636896	
659.375	0.1510377962	-0.02429325402	
660.0	0.352377355	-0.2324865409	
660.625	0.03796864957	-0.4393542966	
661.25	0.0772368163	-0.08449879649	
661.875	0.3261771194	-0.2287484644	
662.5	0.1995949826	-0.2897792921	
663.125	0.1557431579	-0.08649230278	
663.75	0.273985775	-0.3144630017	
664.375	-0.1559151451	-0.2622484215	
665.0	-0.1299475176	-0.1955416365	
665.625	-0.3867042728	0.03809450685	
666.25	0.007493850345	0.3027496545	
666.875	-0.003940007814	0.1232792152	
667.5	0.2494090252	0.1906564157	
668.125	0.1321303726	-0.1433293351	
668.75	0.1727556927	0.005720997411	
669.375	0.09558529319	-0.434635644	
670.0	-0.0839818959	-0.06258071749	
670.625	0.1272099415	-0.1964046531	
671.25	-0.01421898074	-0.263252845	
671.875	0.06958252211	0.0127055736	
672.5	0.3252878554	-0.1324995379	
673.125	0.1279060739	-0.2532225377	
673.75	0.1085197769	-0.1111948246	
674.375	0.1601104401	-0.2721407017	
675.0	-0.2103141838	-0.2443833509	
675.625	-0.03782308494	-0.08030612837	
676.25	-0.2505015578	-0.09742004651	
676.875	-0.1040893422	0.09102561928	
677.5	-0.07949437895	-0.0836848144	
678.125	-0.2194025649	0.2220908573	
678.75	0.1322636745	0.1159090588	
679.375	0.02561296086	0.1764968573	
680.0	0.325026777	-0.1124650098	
680.625	-0.1155525673	-0.1426126059	
681.25	0.3154437617	0.1959572389	
681.875	0.197058849	-0.1846251426	
682.5	-0.05550602891	0.166237924	
683.125	0.34807864	0.264993816	
683.75	0.3192812354	-0.1664618917	
684.375	0.09693944761	0.1802464799	
685.0	0.3910949396	0.0230883295	
685.625	0.2465886212	-0.1236242956	
686.25	0.1188763756	0.098238888	
686.875	0.4409178011	-0.228741264	
687.5	0.1168517842	-0.2197161919	
688.125	0.1211273319	-0.3449658	
688.75	-0.4855726747	-0.2792284468	
689.375	-0.122143261	0.3460559467	
690.0	-0.1078248761	0.2719422142	
690.625	0.3908795284	0.3043014735	
691.25	0.205110993	0.06491962584	
691.875	0.3347754596	0.5739330408	
692.5	0.7771026457	0.06075820724	
693.125	0.3043321601	0.1875721735	
693.75	0.6984470417	-0.09550840907	
694.375	0.4285806765	-0.551363599	
695.0	0.2902971102	-0.06636837164	
695.625	0.6520131227	-0.06190710703	
696.25	0.4237597157	0.02518806261	
696.875	0.252946476	0.3586310831	
697.5	0.2954100609	0.5505548646	
698.125	0.6473436514	0.07106030377	
698.75	0.3558324359	-0.3259230024	
699.375	-0.3044895625	-0.5219086828	
700.0	-0.2826424832	0.4161501829	
700.625	0.1032375755	0.1167539527	
701.25	0.2438069179	0.3613132575	
701.875	0.2836071227	0.04346760849	
702.5	0.1484879909	0.2796965946	
703.125	0.4992304794	0.1776002958	
703.75	0.1702014487	-0.164189416	
704.375	0.2486402432	0.02293373682	
705.0	0.3588382222	-0.1971054652	
705.625	0.1321740275	-0.04039050707	
706.25	0.2846952325	0.2135629938	
706.875	0.3332544813	0.2571857508	
707.5	0.1442198782	0.2178501966	
708.125	0.3485803441	0.01734650111	
708.75	0.3531356958	-0.2502747302	
709.375	-0.2187113117	-0.1551875193	
710.0	-0.1932599839	0.07828730498	
710.625	0.1193990701	0.2704748047	
711.25	-0.01005062521	-0.01558008993	
711.875	0.2054725105	0.2264620908	
712.5	0.2836550321	-0.1552706468	
713.125	0.1563475544	-0.03050135084	
713.75	0.2176740123	-0.2741118952	
714.375	-0.0799262091	-0.2291407418	
715.0	0.06229482692	-0.0945526685	
715.625	0.019387721	-0.3260752886	
716.25	-0.0004887117961	-0.1757500761	
716.875	0.2880903084	-0.07520384453	
717.5	0.6125239047	-0.1215265702	
718.125	0.3956662276	-0.0323893805	
718.75	0.4207147468	-0.04016484531	
719.375	0.705220841	-0.5783515208	
720.0	-0.08677074461	-0.9827676869	
720.625	0.3932779161	-0.5311656539	
721.25	-0.1267719255	-1.569116927	
721.875	-0.2769455877	-0.2133201796	
722.5	-0.3864728461	-0.8964315267	
723.125	-0.8300117578	-0.01494826805	
723.75	-0.04311772222	0.2213641816	
724.375	-0.18884402	0.5073473123	
725.0	0.4112361801	0.2392279628	
725.625	-0.01509613469	0.2638995879	
726.25	-0.02671509304	0.7701686009	
726.875	0.243398443	0.8254448794	
727.5	-0.1390646218	0.6504050369	
728.125	-0.2814877684	2.128604659	
728.75	0.6629479071	2.250563508	
729.375	-0.4832913496	1.631907475	
730.0	-0.6906189314	4.428933985	
730.625	1.886600646	4.208123623	
731.25	-0.6599100878	1.861726968	
731.875	-3.60638035	2.694199319	
732.5	-2.314556646	1.922211297	
733.125	-0.8835436579	-0.9286676677	
733.75	-1.338646438	1.534656974	
734.375	0.7888995703	-0.1260495364	
735.0	0.2591280408	-0.2139124294	
735.625	-0.8092847679	0.2220327377	
736.25	0.2385306848	0.1051860649	
736.875	0.0882200763	0.8050333739	
737.5	1.265575806	0.03131281263	
738.125	0.7304532312	-0.6960982229	
738.75	1.582901254	0.1820625715	
739.375	2.690231214	-2.628297983	
740.0	-0.07670391769	-1.576431332	
740.625	1.650621289	3.17842547	
741.25	3.6944953	3.451201661	
741.875	0.3286613	-1.981429988	
742.5	-1.165396086	-3.46661433	
743.125	-0.8530128218	-2.045041293	
743.75	0.1196618635	-0.3207748061	
744.375	-0.4332817975	-0.4477273465	
745.0	0.2236212673	0.1038899221	
745.625	0.07629900603	0.1361836853	
746.25	-0.09429934496	-0.151100846	
746.875	-0.07847303353	-0.0161421019	
747.5	-0.205524344	0.3403169647	
748.125	0.1987342614	0.4702832303	
748.75	0.1324544675	0.2571848752	
749.375	0.02473887245	0.4357649276	
750.0	-0.2570196155	0.2832642373	
