!Created with skrf (http://scikit-rf.org).
# GHz S RI R (50+0j) 
!freq	ReS11	ImS11	
500.0	-0.2776985664	-1.03594998	
500.625	0.4830898871	-0.3096223349	
501.25	-0.488594522	-0.8858206808	
501.875	-0.2474111557	-0.1230340392	
502.5	0.02507416547	-0.1499472622	
503.125	-0.08464163018	0.02787594891	
503.75	0.003969114073	0.02461027056	
504.375	0.04263514286	0.007856752638	
505.0	-0.01976296693	-0.009211672862	
505.625	0.0465848482	-0.05105008248	
506.25	-0.1299261587	-0.03579705553	
506.875	0.03387899152	-0.1356422263	
507.5	-0.4806164001	-0.3432781283	
508.125	-0.05369992263	-0.2336782709	
508.75	0.7965662392	-0.810347765	
509.375	-0.4815667052	-1.117921677	
510.0	-0.2850537414	-0.08745404636	
510.625	-0.01833223316	-0.2236627118	
511.25	-0.07451617789	0.001267079608	
511.875	-0.05168526545	-0.06522596644	
512.5	-0.03585523701	0.06256621321	
513.125	-0.03642148861	-0.03808568708	
513.75	0.0213128135	-0.07353383968	
514.375	-0.1506674822	-0.00206872102	
515.0	0.1887607255	0.1468669987	
515.625	-0.1707391101	-0.5918663162	
516.25	0.0880114595	-0.1362723693	
516.875	0.006250967218	-0.6046303917	
517.5	-0.1450247281	-0.04627938253	
518.125	0.0480058742	-0.02156492389	
518.75	-0.1177045561	-0.1329323087	
519.375	-0.04100180121	0.01648709592	
520.0	0.05665448398	0.07553480569	
520.625	0.1936254291	-0.04775713701	
521.25	-0.0911249188	-0.2220719892	
521.875	-0.04533833709	-0.02304263822	
522.5	-0.1125540964	0.01980292618	
523.125	0.06555346138	-0.02049625387	
523.75	-0.1703016687	-0.08207858321	
524.375	-0.06463343838	0.1383510957	
525.0	-0.1015400834	0.005592365445	
525.625	0.03586579434	0.1289257585	
526.25	-0.01399544195	-0.09602623719	
526.875	8.560872038e-05	0.08425030026	
527.5	0.04339761852	0.1008508937	
528.125	-0.06800665915	0.1837390889	
528.75	0.06025916473	0.2038098447	
529.375	0.01718777314	0.05806163848	
530.0	0.05228870156	0.2326761711	
530.625	0.1025612489	0.1990111862	
531.25	0.2423924181	0.2727479083	
531.875	0.3297402746	-0.003222903369	
532.5	-0.1047499726	-0.004134342312	
533.125	0.1772523127	-0.1195105699	
533.75	-0.02463679401	-0.1351095646	
534.375	0.06424959579	-0.1784562982	
535.0	-0.290280171	-0.09987423686	
535.625	-0.08069743647	0.06932024495	
536.25	-0.0329445716	0.09175589825	
536.875	0.1165187804	-0.003563534211	
537.5	0.0265014334	-0.01298877719	
538.125	0.1499783351	-0.05626192644	
538.75	0.05127533979	-0.1428577942	
539.375	-0.06598224052	-0.1298761859	
540.0	-0.1718089633	-0.1871527375	
540.625	-0.1527833501	0.03132087082	
541.25	-0.04365389189	-0.05448834203	
541.875	-0.09027671929	-0.08416070932	
542.5	0.00824989305	-0.02864535883	
543.125	-0.1053017052	-0.09029070151	
543.75	-0.05533252087	0.05831091007	
544.375	-0.03278263897	-0.04780523205	
545.0	0.02161757269	0.09384643501	
545.625	0.007398514881	0.01477732637	
546.25	0.1006775061	0.1079306181	
546.875	0.08944637992	-0.08048770213	
547.5	0.08219210769	-0.06118801036	
548.125	-0.04846778526	-0.1970984112	
548.75	-0.1210207431	-0.04874179671	
549.375	-0.0434148116	-0.07981008908	
550.0	-0.1120606692	0.01124593827	
550.625	-0.006601316469	0.008866400031	
551.25	-0.09228574452	0.002685796828	
551.875	-0.05382494508	0.08535691769	
552.5	-0.05456172962	0.04557068326	
553.125	-0.002417849143	0.06910513307	
553.75	0.02873829842	0.04009041851	
554.375	0.0925556036	0.01140284025	
555.0	0.08582008062	-0.0678543842	
555.625	0.08168035806	-0.0898905001	
556.25	0.06866237856	-0.126855135	
556.875	-0.03424815323	-0.1483725969	
557.5	-0.08931338105	-0.09097962644	
558.125	-0.1027648423	-0.04016514694	
558.75	-0.1088041159	-0.003386947498	
559.375	-0.09399869801	0.02400374463	
560.0	-0.09603302379	0.05960757548	
560.625	-0.04763091058	0.1196660894	
561.25	0.01971226918	0.06765187449	
561.875	0.003939168536	0.06466371701	
562.5	0.03741711743	0.02953311646	
563.125	0.03296320289	0.08386306162	
563.75	0.1662808878	-0.003044597925	
564.375	0.07384524271	-0.09757415174	
565.0	0.1144288825	-0.1184419744	
565.625	-0.0718420084	-0.1565533225	
566.25	-0.05984128191	-0.06418074364	
566.875	-0.144794138	-0.1299365765	
567.5	-0.1896625343	-0.01376501521	
568.125	-0.05015827328	-0.1352567719	
568.75	-0.2626191678	-0.09730197749	
569.375	-0.1616292666	0.1266634412	
570.0	-0.1666070325	0.09421671226	
570.625	-0.061789946	0.2384705557	
571.25	0.03698240774	0.01435391084	
571.875	0.04175725428	0.1394142875	
572.5	0.09078623057	-0.1064970786	
573.125	0.07997902009	-0.003796086644	
573.75	0.09709131575	-0.1700103527	
574.375	-0.0752585718	-0.05480015477	
575.0	0.1061961648	0.002510103624	
575.625	-0.02015314162	-0.1249260298	
576.25	0.03557188803	-0.01148480285	
576.875	0.04362959305	-0.2061094843	
577.5	-0.08188505101	-0.1290127202	
578.125	0.02469455162	-0.08781440759	
578.75	-0.05799254221	-0.2357043252	
579.375	-0.1665350342	0.02494332856	
580.0	0.1174965918	-0.07944664693	
580.625	-0.1742083975	-0.01869215669	
581.25	0.02564209171	0.02554701107	
581.875	-0.09462542478	0.1380521889	
582.5	0.1963767809	0.1640732233	
583.125	0.0322892635	-0.03039440463	
583.75	0.04404038378	0.1140267956	
584.375	0.03602627711	-0.04798491764	
585.0	0.071029439	0.1706281104	
585.625	0.221712084	-0.04939435868	
586.25	0.05399699263	-0.07604570552	
586.875	0.1316911384	-0.06465092207	
587.5	-0.0493212738	-0.1863781852	
588.125	-0.02373158132	-0.03388872331	
588.75	0.09996452432	-0.1736083688	
589.375	-0.02534454441	-0.1688194613	
590.0	0.04316782281	-0.08812452236	
590.625	-0.2575065479	-0.08937771058	
591.25	-0.04004871041	0.1358307708	
591.875	-0.1045477769	0.0009809622934	
592.5	0.02935552588	0.1567049047	
593.125	-0.02606403778	-0.05147476816	
593.75	0.04874679405	0.2047753321	
594.375	0.1509811591	-0.006852566629	
595.0	0.08701204729	0.1606448913	
595.625	0.2310747921	0.1071609419	
596.25	0.104642915	-0.05122185599	
596.875	0.1647973991	0.1168966912	
597.5	0.1997770215	0.03486296114	
598.125	0.07974036178	0.0426668513	
598.75	0.1561946187	0.1348714721	
599.375	0.2401299229	-0.09530492339	
600.0	0.09732143533	-0.1039048942	
600.625	0.1920497145	-0.1372402434	
601.25	0.0131571131	-0.2393765853	
601.875	-0.04452849428	-0.04033685294	
602.5	-0.184211733	-0.1138675503	
603.125	-0.06598153086	0.1204879233	
603.75	-0.06789254131	-0.02675418138	
604.375	-0.1795915527	0.1418875261	
605.0	0.03197076253	0.106687923	
605.625	-0.1888172867	0.09085063384	
606.25	-0.09513343128	0.148857242	
606.875	-0.08254917505	0.02360744596	
607.5	-0.2369432203	0.1584007915	
608.125	-0.03735579939	0.1592793335	
608.75	0.07469299801	0.1124743441	
609.375	0.2418586864	-0.002237892408	
610.0	0.1294522413	-0.1930125157	
610.625	0.02278997658	-0.1366741221	
611.25	0.0605313704	-0.2301121757	
611.875	-0.1375867839	-0.04288226332	
612.5	-0.07110979714	-0.1321243259	
613.125	-0.281957315	0.04615903678	
613.75	0.03247354569	0.1166013119	
614.375	-0.06775300278	0.1157782809	
615.0	0.1477383821	0.009315968487	
615.625	-0.08736899261	0.02235909852	
616.25	0.006121403164	0.1967531268	
616.875	0.04382226846	0.1774629684	
617.5	-0.09846539598	0.1626181275	
618.125	0.0005657359121	0.2104263107	
618.75	0.06657067055	0.1849142402	
619.375	-0.01150983701	0.1540013598	
620.0	0.2452626464	0.06141754839	
620.625	0.07395933273	-0.1965568933	
621.25	-0.009723448831	-0.190206709	
621.875	-0.2682876925	-0.08726393833	
622.5	-0.1335523644	0.1269104766	
623.125	-0.11222322	0.1048630653	
623.75	0.2003400976	0.07498200421	
624.375	-0.04043071755	-0.05072447324	
625.0	0.1220975382	-0.02338578519	
625.625	-0.03682771809	-0.07305982501	
626.25	0.02426978244	-0.1183471023	
626.875	-0.1953132582	-0.1058448053	
627.5	-0.09867944238	0.02917466738	
628.125	-0.05224227881	-0.1276614576	
628.75	-0.07518746352	-0.129239016	
629.375	-0.06025881022	-0.08593316473	
630.0	-0.1505326601	-0.1634714066	
630.625	-0.2492069412	0.1102720323	
631.25	-0.03019947486	0.2113932523	
631.875	-0.09264859562	0.227823387	
632.5	0.2046246594	0.2000280477	
633.125	0.1242456688	0.02746028161	
633.75	0.1939894127	0.05248100496	
634.375	0.001168077292	-0.1832604702	
635.0	0.04511217452	-0.06740128561	
635.625	-0.1833673556	-0.1797444222	
636.25	-0.1149078499	0.1258687382	
636.875	-0.03098016637	0.02937804191	
637.5	-0.1018211002	0.1590659	
638.125	0.01687553483	0.0255430229	
638.75	-0.1614585175	0.1489928134	
639.375	0.05532576798	0.2939440706	
640.0	0.08992495813	0.1245206311	
640.625	0.1942077549	0.2502841614	
641.25	0.3440452199	-0.02085321833	
641.875	0.04978244856	-0.1695495918	
642.5	0.1112537266	-0.1964284534	
643.125	-0.2433841092	-0.1374574814	
643.75	0.003038182295	-0.06167514717	
644.375	-0.3142391407	-0.1761854106	
645.0	-0.05098279623	0.2394254352	
645.625	-0.06532005045	0.1132394829	
646.25	0.2633019004	0.2218487881	
646.875	0.01617470082	-0.1828941469	
647.5	0.06140972903	0.1684352122	
648.125	0.193985998	-0.06755246047	
648.75	0.0736183381	0.03374366029	
649.375	0.3857215978	-0.2464740376	
650.0	-0.00493152497	-0.359122688	
650.625	0.1322392542	-0.09979413608	
651.25	0.3398909918	-0.256839716	
651.875	0.1261807404	-0.273106249	
652.5	0.144286477	0.05930422136	
653.125	0.394835539	-0.08748166074	
653.75	0.08634414861	-0.3150783295	
654.375	0.08830224354	-0.116120817	
655.0	-0.3772721807	-0.1963165698	
655.625	-0.05627104368	0.2242208454	
656.25	-0.1193943173	0.0195489852	
656.875	0.1361150266	0.1780913023	
657.5	-0.1397688199	-0.1470011898	
658.125	0.1537437821	0.3259369753	
658.75	0.3034226366	-0.02794818263	
659.375	0.1900998776	-0.0530460745	
660.0	0.3770148229	-0.2300580208	
660.625	0.04037733704	-0.4260561864	
661.25	0.1092235966	-0.1264941463	
661.875	0.3386676366	-0.2615826459	
662.5	0.169548686	-0.2835766897	
663.125	0.1879485377	-0.04140269108	
663.75	0.2509571918	-0.3351441178	
664.375	-0.115890175	-0.2464191037	
665.0	-0.1216211273	-0.2312656118	
665.625	-0.3973208813	0.04040073473	
666.25	0.008249303265	0.3049803735	
666.875	-0.0438230487	0.1299696834	
667.5	0.2744516605	0.1619194521	
668.125	0.1277714144	-0.08494620023	
668.75	0.266598143	0.05439340891	
669.375	0.08101245464	-0.3178396204	
670.0	0.01832054054	-0.0199837674	
670.625	0.1192715648	-0.2087912374	
671.25	-0.017917073	-0.2532373741	
671.875	0.06499595581	-0.04035901838	
672.5	0.3331978326	-0.1838446931	
673.125	0.1261470645	-0.2354259279	
673.75	0.1409536632	-0.09926383186	
674.375	0.167590746	-0.2836888993	
675.0	-0.1953461166	-0.206778042	
675.625	-0.02152070218	-0.1158427904	
676.25	-0.2608831836	-0.08820669384	
676.875	-0.1008135594	0.09818606187	
677.5	-0.1000029431	-0.1064196502	
678.125	-0.221057297	0.237626247	
678.75	0.09309577034	0.102962419	
679.375	0.08233513046	0.174681832	
680.0	0.3704812789	-0.2106806464	
680.625	-0.1342924946	-0.07938840097	
681.25	0.2112450722	0.1154769153	
681.875	0.1351226031	-0.1613512915	
682.5	0.01242141841	0.1222379089	
683.125	0.5017076537	0.1624385083	
683.75	0.2615430184	-0.166599336	
684.375	0.09027842389	0.1663684709	
685.0	0.4040953705	0.07033898423	
685.625	0.1722356351	-0.07297513568	
686.25	0.1610183656	0.1663557322	
686.875	0.4776514259	-0.2336579319	
687.5	0.06925392262	-0.2142991667	
688.125	0.09803361004	-0.3786400408	
688.75	-0.4947043953	-0.3026254308	
689.375	-0.106489472	0.3132241918	
690.0	-0.1524473387	0.305246703	
690.625	0.4014788594	0.2858642366	
691.25	0.1607702204	0.1124347055	
691.875	0.3814099731	0.5169332193	
692.5	0.6475205357	-0.108718569	
693.125	0.4089500991	0.03706432728	
693.75	0.8101472992	-0.2598473177	
694.375	0.3550636166	-0.5445097089	
695.0	0.2053198388	-0.1439900613	
695.625	0.6281576818	-0.08594933931	
696.25	0.3765610732	0.08277451199	
696.875	0.2964933287	0.3489250595	
697.5	0.2627584218	0.5930104005	
698.125	0.5504062536	0.2080603565	
698.75	0.3826019206	-0.2129280107	
699.375	-0.2951400953	-0.5405015855	
700.0	-0.218506194	0.392992478	
700.625	-0.01007845437	0.1361351426	
701.25	0.2631370031	0.3284636546	
701.875	0.2402745179	0.0400903817	
702.5	0.1784886922	0.294305094	
703.125	0.53481601	0.1321246776	
703.75	0.2647671885	-0.2157822771	
704.375	0.3489439665	-0.09575974087	
705.0	0.3073894578	-0.2262757559	
705.625	0.128637903	-0.08401728968	
706.25	0.1525496001	0.3003357086	
706.875	0.1222632422	0.2372064063	
707.5	0.1249189182	0.2150499859	
708.125	0.3700501308	0.2958494685	
708.75	0.3626457603	-0.3127741582	
709.375	-0.3328708151	-0.2245553231	
710.0	-0.2855883047	0.02588503304	
710.625	0.1420551103	0.1988283153	
711.25	-0.03452080427	0.0290878455	
711.875	0.2567310168	0.3056359891	
712.5	0.2395238881	-0.134789779	
713.125	0.2294722365	-0.00870682463	
713.75	0.2041666096	-0.2924038768	
714.375	-0.0821669492	-0.1994674496	
715.0	0.06420434599	-0.1278933074	
715.625	-0.0006715565616	-0.3121179834	
716.25	0.01061623926	-0.1469244739	
716.875	0.3643622607	-0.01661571305	
717.5	0.5350888854	-0.04008861492	
718.125	0.3257349178	-0.04700870332	
718.75	0.7637925036	0.2507019877	
719.375	0.9612937948	-0.2735176831	
720.0	0.2138937698	-0.3674616146	
720.625	0.8085095802	-0.2676770319	
721.25	-0.3152610172	-0.9966066025	
721.875	0.06500270102	-0.5292287723	
722.5	-0.2997012549	-1.183997447	
723.125	-0.8249321248	-0.03707608784	
723.75	-0.2493177154	0.1788389665	
724.375	-0.2221930053	0.6112800347	
725.0	0.3394330392	0.1879548752	
725.625	-0.03979678359	0.337098224	
726.25	-0.005425573607	0.7843390241	
726.875	0.2101871339	0.7788903134	
727.5	-0.403550153	0.7935454805	
728.125	-0.4547695707	2.118212494	
728.75	0.526055656	2.278039811	
729.375	-1.339714228	1.615945544	
730.0	-1.442623694	4.112593744	
730.625	1.176088249	2.39774961	
731.25	-1.346471172	0.9062792813	
731.875	-3.376206615	2.56737286	
732.5	-1.754747371	1.632064282	
733.125	-1.864221468	-0.8252890687	
733.75	-1.424520097	1.973146289	
734.375	0.6679610221	0.1787496858	
735.0	0.4110550442	-0.2362110533	
735.625	-0.8337784783	0.2413902223	
736.25	0.0207036049	0.020638135	
736.875	0.1604931965	0.7757821098	
737.5	1.189793616	-0.07199122587	
738.125	0.6005865411	-0.4386163455	
738.75	2.038122331	0.424042668	
739.375	2.689415336	-2.774064567	
740.0	0.1267083248	-1.289000126	
740.625	2.431966721	2.993390514	
741.25	4.283805173	2.500198951	
741.875	-0.01938529706	-2.213305441	
742.5	-1.864297042	-3.427952743	
743.125	-0.7463348699	-1.458015694	
743.75	0.3114641925	-0.01657795365	
744.375	-0.5843926637	-0.4571400028	
745.0	0.1450347617	0.04446719637	
745.625	0.06798234558	0.08075575122	
746.25	-0.1139787148	-0.151716144	
746.875	-0.09151983746	-0.03530576117	
747.5	-0.198763875	0.3459249191	
748.125	0.2291426035	0.4317128344	
748.75	0.1607654965	0.2904171671	
749.375	0.03416040757	0.547398556	
750.0	-0.2343176324	0.2959153646	
