!Created with skrf (http://scikit-rf.org).
# GHz S RI R (50+0j) 
!freq	ReS11	ImS11	
500.0	2.543624989	-2.852788198	
500.625	0.3071651935	-3.946569005	
501.25	-0.8293674858	-0.6642323371	
501.875	-0.8561029041	-1.700792373	
502.5	-0.499935149	-0.1790055749	
503.125	-0.1263167413	-0.05099573117	
503.75	0.09060604653	0.440751426	
504.375	-0.05887678189	-0.05641914042	
505.0	0.2396668607	-0.09520448608	
505.625	-0.2210908156	-0.0302230627	
506.25	0.2581904252	-0.4015017802	
506.875	-0.3856970549	1.026794651	
507.5	0.9653495714	-0.8531106253	
508.125	0.2652565123	-3.000107229	
508.75	-0.8705785002	-2.374689547	
509.375	1.255646738	-3.448984493	
510.0	-2.382580217	-0.4770055452	
510.625	-0.182375788	-0.2214075146	
511.25	-0.522998063	-0.2795428569	
511.875	-0.45154065	0.1147829717	
512.5	-0.1163918701	0.1566448549	
513.125	-0.01199420536	-0.3007794179	
513.75	-0.4182942074	-0.133558657	
514.375	0.1206352448	-0.1008737857	
515.0	-1.1235006	-0.6134880299	
515.625	1.807871185	0.1042388932	
516.25	-3.16914606	-4.560406468	
516.875	-0.7791680523	0.744823892	
517.5	0.5870884753	-0.7506375388	
518.125	-0.4009114732	0.284907713	
518.75	0.363069026	-0.9031847677	
519.375	-0.1624747326	0.2698424416	
520.0	0.1860254649	0.04066061473	
520.625	0.6286651015	-0.01474061779	
521.25	-0.3920903474	-0.7818513431	
521.875	-0.1374465584	-0.05072778392	
522.5	-0.2573728974	0.120571708	
523.125	-0.01138320051	-0.125120518	
523.75	-0.4447513558	0.1992623495	
524.375	-0.1289638828	-0.08257669902	
525.0	-0.2666770137	0.6039832638	
525.625	0.1765325224	-0.1629858742	
526.25	-0.01612432665	0.1775085779	
526.875	-0.1317265341	-0.08187770391	
527.5	-0.2616777835	0.8838408136	
528.125	0.4731545913	0.3617757187	
528.75	-0.3022241896	0.6869972987	
529.375	0.3585115307	0.07970950582	
530.0	-0.3382115161	0.6805362257	
530.625	0.6918677319	0.5169803801	
531.25	0.7892306293	0.5932455585	
531.875	0.6134566629	-1.060040192	
532.5	0.1729109434	0.0741924159	
533.125	-0.298384259	-0.6851928085	
533.75	0.7528828333	-0.009226741161	
534.375	-0.9822336372	-1.010986862	
535.0	-0.2232755517	-0.02091384931	
535.625	-0.6787118257	0.1749615714	
536.25	0.1774327275	0.2666938588	
536.875	0.09514545777	0.1420328586	
537.5	0.2612910606	-0.1784686533	
538.125	0.08425540473	-0.1604104476	
538.75	0.5270376086	-0.1681418361	
539.375	-0.3662836927	-0.3814084296	
540.0	-0.208297407	-0.2616072549	
540.625	-0.4460889481	-0.1404773296	
541.25	-0.2146570934	0.1075630937	
541.875	-0.05204296359	-0.04581466323	
542.5	-0.1620773991	-0.2009374825	
543.125	-0.2053038257	0.05278905913	
543.75	-0.1213250838	-0.1677212784	
544.375	-0.1322316842	0.2951420022	
545.0	-0.06023423464	-0.08753888264	
545.625	0.2831552455	0.3567945925	
546.25	0.0634174371	-0.1746101682	
546.875	0.3988692145	0.2153007196	
547.5	-0.02574042004	-0.5140671491	
548.125	0.05051289335	-0.1765861568	
548.75	-0.2951768565	-0.4691953234	
549.375	-0.3941040629	-0.03166160271	
550.0	-0.02739906718	-0.07831463597	
550.625	-0.2588345262	0.1086842293	
551.25	-0.05359160939	-8.769006798e-05	
551.875	-0.2869352649	0.1906060475	
552.5	-0.002317587923	0.211258687	
553.125	-0.09090081474	0.1356154624	
553.75	0.1475679765	0.1074851676	
554.375	0.1976596812	-0.005863695791	
555.0	0.2439883295	-0.1582852417	
555.625	0.1909351431	-0.2741008238	
556.25	0.1366762421	-0.3293133279	
556.875	-0.0836559473	-0.378287538	
557.5	-0.2439218452	-0.2496280214	
558.125	-0.2725695063	-0.07302921969	
558.75	-0.2296211424	-0.02044533563	
559.375	-0.2897151003	0.04946286763	
560.0	-0.1694153227	0.1885206461	
560.625	-0.1658384234	0.204223138	
561.25	0.05346849631	0.303779243	
561.875	0.05142923753	0.0006397605491	
562.5	0.02084093743	0.23885955	
563.125	0.1615006536	0.02422595869	
563.75	0.2951669337	0.1451741632	
564.375	0.3408980354	-0.3633133464	
565.0	0.04103115217	-0.2271658922	
565.625	0.04723689646	-0.4326360172	
566.25	-0.3889944108	-0.179960646	
566.875	-0.1780030666	-0.1413171765	
567.5	-0.3736674421	-0.3919273227	
568.125	-0.4648152374	-0.2330432876	
568.75	-0.2994266796	-0.288501489	
569.375	-0.7873352208	0.2772294718	
570.0	-0.007885150622	0.51039203	
570.625	-0.3192319149	0.1179509772	
571.25	0.09543098111	0.6668547745	
571.875	-0.1573462907	-0.08140911647	
572.5	0.6087245974	0.1335454113	
573.125	-0.143858147	-0.3946070729	
573.75	0.2908431945	0.05136797932	
574.375	0.04178108775	-0.510853761	
575.0	-0.07005947558	0.1847089916	
575.625	0.3187585711	-0.3564984182	
576.25	-0.2013264213	-0.3044441355	
576.875	0.2712944465	-0.1219105984	
577.5	-0.004287107726	-0.6542976111	
578.125	-0.2851498818	-0.2142560519	
578.75	0.03486436406	-0.224591471	
579.375	-0.2797261006	-0.3649678231	
580.0	-0.1607225039	0.1869644849	
580.625	-0.1204481961	-0.3333947462	
581.25	-0.2698113504	0.4389048636	
581.875	0.08743260989	0.02909116355	
582.5	-0.2300677933	0.4932373544	
583.125	0.6303588605	0.2055735839	
583.75	-0.3392269551	-0.04125212559	
584.375	0.5012835853	0.2984121501	
585.0	-0.1744528615	-0.09133609017	
585.625	0.5896962051	0.319615503	
586.25	0.2885028042	-0.468040061	
586.875	0.09624511115	-0.007884704035	
587.5	0.1106218962	-0.5722110532	
588.125	-0.3338618091	-0.2168033538	
588.75	0.3512626447	-0.1322395665	
589.375	0.2032072554	-0.6147640705	
590.0	-0.1395011979	-0.1221443806	
590.625	-0.3920159447	-0.3251987218	
591.25	-0.3534118628	0.4302109593	
591.875	0.0306330536	0.1612161111	
592.5	-0.1553577341	0.07928319603	
593.125	0.127354069	0.1618576818	
593.75	-0.1833957634	0.2472836019	
594.375	0.6598918388	0.376791396	
595.0	0.2650319679	-0.1171754199	
595.625	0.1722684992	0.5326170731	
596.25	0.7995240114	-0.08368031818	
596.875	-0.1284104709	0.1534831438	
597.5	0.6372582612	0.4850208423	
598.125	0.375531567	-0.07827519657	
598.75	0.1769034913	0.4581483949	
599.375	0.6956784969	-0.2189799668	
600.0	0.1639160021	-0.2759376865	
600.625	0.4665152837	-0.2447472776	
601.25	0.1634236257	-0.6153890438	
601.875	-0.1166283472	-0.1396005659	
602.5	-0.3610531308	-0.1631310331	
603.125	-0.1920792132	0.1575664551	
603.75	-0.247731137	0.1594766923	
604.375	-0.1892031795	0.07580542298	
605.0	-0.2918242617	0.2586846481	
605.625	0.09191297135	0.05549635201	
606.25	-0.603729925	0.08560043674	
606.875	-0.08810661829	0.4365727438	
607.5	-0.4870566675	-0.02433520328	
608.125	0.02514087725	1.055686762	
608.75	0.1647142079	-0.007629722713	
609.375	0.7795524012	0.2428618582	
610.0	0.2305222913	-0.634866952	
610.625	0.3643508002	0.05413420009	
611.25	-0.1242004588	-0.6623023446	
611.875	-0.02015932324	-0.06390236703	
612.5	-0.548615272	-0.3883824761	
613.125	-0.1411593011	0.2986924601	
613.75	-0.4773997003	0.191929679	
614.375	0.363632109	0.3143379513	
615.0	-0.284481453	0.06184104237	
615.625	0.3808971418	0.2655431262	
616.25	-0.2575320097	0.01532945516	
616.875	-0.3560611323	0.7129906665	
617.5	0.2353110303	0.3716231826	
618.125	-0.3806677484	0.4991743031	
618.75	0.2971109129	0.5621812222	
619.375	0.02586984472	0.1874640732	
620.0	0.612382376	0.2093625312	
620.625	0.1256790474	-0.2866716223	
621.25	-0.1415505542	-0.5259246189	
621.875	-0.4500775261	-0.05548074892	
622.5	-0.4911561798	-0.06154066349	
623.125	0.06666389703	0.6184625406	
623.75	-0.03556092189	0.03349595514	
624.375	0.3885417976	-0.3206423653	
625.0	-0.1128681305	0.2246340419	
625.625	0.3862333862	-0.4728075019	
626.25	-0.3669979057	0.09976381524	
626.875	-0.05272479825	-0.5350242417	
627.5	-0.6208723236	0.03293093486	
628.125	-0.0106204237	0.03538737664	
628.75	-0.08659554077	-0.5421698189	
629.375	-0.4226121246	-0.1648993684	
630.0	-0.2138908457	-0.3051792681	
630.625	-0.6662764856	0.1317597994	
631.25	-0.1429138259	0.5174637677	
631.875	-0.1684536334	0.3903572719	
632.5	0.4269710112	0.5699039271	
633.125	0.4556054045	0.02702849632	
633.75	0.2960985072	-0.1204886773	
634.375	0.2956071172	-0.3129094991	
635.0	-0.2987087741	-0.3027469859	
635.625	-0.03538452225	-0.3229641323	
636.25	-0.6293376626	0.2849438264	
636.875	0.1989849948	0.2899091788	
637.5	-0.5160525095	-0.08256339061	
638.125	0.2792209283	0.5298051921	
638.75	-0.3686682941	-0.05822364647	
639.375	-0.01996403099	1.021409674	
640.0	0.5771834266	0.174217376	
640.625	0.1152836706	0.4918036622	
641.25	1.010382707	-0.05078930723	
641.875	0.02701459257	-0.5393540267	
642.5	0.2813625578	-0.2652055536	
643.125	-0.6377119603	-0.5697568491	
643.75	0.03479606663	0.2113850312	
644.375	-0.6175215273	-0.2859988859	
645.0	-0.2124543032	0.6041550315	
645.625	0.1471480165	0.191915996	
646.25	0.2109223132	0.5104673246	
646.875	0.456682908	-0.3748406824	
647.5	-0.2068364358	0.2568622752	
648.125	0.778518799	0.124710958	
648.75	0.04526473904	-0.4683936305	
649.375	1.00877455	0.03896540146	
650.0	0.2610499003	-1.424409943	
650.625	-0.2245946893	-0.158758867	
651.25	1.14354157	-0.2863492786	
651.875	0.400351467	-1.201092137	
652.5	0.1153786963	0.2300219077	
653.125	1.140753724	-0.2306660788	
653.75	-0.01683747564	-0.8292133907	
654.375	0.1546945245	-0.2656655504	
655.0	-1.066659275	-0.5846795411	
655.625	-0.03271788624	0.679492774	
656.25	-0.1698521991	0.02850039324	
656.875	0.282331142	0.5508686227	
657.5	-0.006463241749	-0.2066773555	
658.125	0.2666828268	0.7780539977	
658.75	0.859780747	-0.08387635189	
659.375	0.4471343049	-0.3547410812	
660.0	0.7191759568	-0.2895133815	
660.625	0.2442733204	-1.356871178	
661.25	-0.0715819514	-0.2299827328	
661.875	0.965209439	-0.4671084023	
662.5	0.4996929399	-0.9712604898	
663.125	0.1022594422	-0.05389482367	
663.75	0.8707912037	-0.9841897978	
664.375	-0.6123231554	-0.5004350898	
665.0	-0.1601241715	-0.5307879268	
665.625	-1.090344257	0.2424147211	
666.25	0.199297056	0.6262915376	
666.875	-0.07091154696	0.4593159726	
667.5	0.6928330883	0.2873570055	
668.125	0.2406914945	-0.2630881663	
668.75	0.6238013047	-0.01111419803	
669.375	0.03936095242	-0.84970263	
670.0	-0.01398706701	-0.2243760145	
670.625	0.1893469499	-0.4897689056	
671.25	-0.001952771439	-0.5977718134	
671.875	0.06470497006	-0.1423529997	
672.5	0.7702264767	-0.2877560357	
673.125	0.3035583511	-0.7265047896	
673.75	0.115860355	-0.1993687579	
674.375	0.5514994502	-0.7530836811	
675.0	-0.8607649387	-0.4377632173	
675.625	0.2212602295	-0.2997994258	
676.25	-0.9429189199	-0.1425149145	
676.875	0.0333534442	0.4690269969	
677.5	-0.568198795	-0.485252316	
678.125	-0.08464667878	0.8903193861	
678.75	-0.03332865948	0.1259360003	
679.375	0.4501059166	0.5018727175	
680.0	0.5181367501	-0.6213938889	
680.625	-0.2282604114	0.1622598642	
681.25	0.5882677311	-0.07973779601	
681.875	0.2370457708	-0.1496840534	
682.5	0.215251114	0.3271679746	
683.125	0.8202877648	0.2915701589	
683.75	0.5266431787	-0.1522766664	
684.375	0.3716449152	0.131763331	
685.0	0.9352509064	0.4064820092	
685.625	0.594212082	-0.7592909456	
686.25	0.4005637185	0.7719658291	
686.875	1.170906478	-1.253457819	
687.5	-0.1615625265	-0.1138189936	
688.125	0.6006959493	-1.420425017	
688.75	-1.748799103	0.250204314	
689.375	-0.2725439138	-0.1296914697	
690.0	0.3259639744	1.598600968	
690.625	0.5682102534	-0.003319347867	
691.25	0.4051442165	1.018630153	
691.875	1.510269101	0.4576905964	
692.5	1.007285784	0.3912123119	
693.125	1.608116729	0.02337374593	
693.75	1.260148375	-0.7401933895	
694.375	0.9804300301	-0.8021643053	
695.0	0.8972775474	-0.8125363512	
695.625	1.045472934	0.04932846491	
696.25	1.634532762	-0.046450659	
696.875	0.4999435292	0.4778876593	
697.5	1.34504866	1.723841471	
698.125	1.168256322	-0.5685504451	
698.75	1.438615878	-0.3823371243	
699.375	-1.759669941	-0.9632230894	
700.0	0.179126921	0.4445528382	
700.625	0.03819427659	1.469623417	
701.25	0.567317113	-0.1808186554	
701.875	0.1993418649	0.9213342321	
702.5	1.403438236	0.2995165458	
703.125	0.388847738	0.3646307997	
703.75	1.336390204	-0.2686164567	
704.375	0.1301802324	-0.6606678378	
705.0	0.9660780261	0.208836416	
705.625	0.6178017754	-0.6686575956	
706.25	0.05085864452	0.5548613959	
706.875	1.268242023	1.069861533	
707.5	0.4072660781	0.007119880111	
708.125	1.289634253	0.7241559755	
708.75	0.3578908124	-1.435364223	
709.375	-0.325148384	-0.4103349275	
710.0	-0.7577817321	0.6131362208	
710.625	0.4599488432	0.1231189804	
711.25	0.1267098898	0.4565370235	
711.875	0.5367846131	0.1077057579	
712.5	0.8208203929	-0.02545375912	
713.125	0.4731767494	-0.4948391347	
713.75	0.3958675868	-0.401544237	
714.375	-0.08735652919	-0.8205035532	
715.0	-0.1713856475	-0.03404731783	
715.625	0.502780833	-0.9562011661	
716.25	-0.4676671539	-0.6748477552	
716.875	0.9702512237	0.4071248827	
717.5	2.365844712	-0.69189794	
718.125	-0.1820839643	-0.9191877535	
718.75	3.3142719	1.161333298	
719.375	0.9423812269	-2.918662456	
720.0	0.7100134587	-0.6636741884	
720.625	1.337537747	-3.981502246	
721.25	-1.87719973	-1.6943038	
721.875	0.5192504152	-2.392983184	
722.5	-1.934221205	-2.095219462	
723.125	-1.879307136	0.5581010313	
723.75	-0.7933799314	0.5556397237	
724.375	0.1215331093	1.55790448	
725.0	0.5833131132	0.503350371	
725.625	0.1450872176	0.8715274862	
726.25	-0.1705099664	2.085686035	
726.875	1.411514622	2.367723563	
727.5	-1.562980209	1.67621462	
728.125	-0.4067856635	6.998784734	
728.75	7.079431996	4.282601705	
729.375	-8.225198825	3.367270094	
730.0	8.702203862	23.55298595	
730.625	2.640979251	0.3581685428	
731.25	-8.461275458	10.57742643	
731.875	-1.396928872	15.9193356	
732.5	-2.054056752	-1.952236184	
733.125	-9.840266921	1.401055786	
733.75	-0.4253880413	4.175203098	
734.375	1.316215451	-0.01853750148	
735.0	0.940992276	-2.025523802	
735.625	-0.8073200709	1.503138325	
736.25	-0.7761897053	0.6542990365	
736.875	1.404259476	1.922934058	
737.5	3.161506253	-0.7992703478	
738.125	1.230604477	-0.03300950809	
738.75	7.825538436	-2.620873963	
739.375	4.984159645	-10.85536887	
740.0	-3.620822911	2.091609042	
740.625	19.31702813	10.52254912	
741.25	18.91943099	-7.815133881	
741.875	-5.898308126	-16.60319442	
742.5	-16.33883987	-9.20402784	
743.125	-0.7341437343	2.380913106	
743.75	1.209168645	-5.861299638	
744.375	-1.643483191	1.311166632	
745.0	-0.2483845166	-0.1281428518	
745.625	0.4417626578	-0.04486306188	
746.25	-0.06187435163	-0.09390289582	
746.875	-0.6241642641	-0.07249540451	
747.5	0.07320750885	1.266109735	
748.125	0.6428496212	0.9336353988	
748.75	0.3420361279	1.329167822	
749.375	0.7705682148	1.041961245	
750.0	-0.1020374184	0.3175674546	
