!Created with skrf (http://scikit-rf.org).
# GHz S RI R (50+0j) 
!freq	ReS11	ImS11	
500.0	-3.173680922	-3.025887246	
500.625	1.6245041	-1.741266572	
501.25	-1.213222898	-3.0681585	
501.875	-2.50826176	-1.790608845	
502.5	-0.1948589821	-0.04265812246	
503.125	-0.3178899107	-0.1090386	
503.75	0.3476136554	0.2186481007	
504.375	0.05697155214	0.1146834264	
505.0	-0.02980191288	-0.2252210722	
505.625	0.261878545	0.005530731108	
506.25	-0.72005753	-0.2872569387	
506.875	0.6453712424	-0.477299003	
507.5	-0.3149136049	-2.369267315	
508.125	-1.343074349	-2.307410713	
508.75	1.551429349	-1.025894099	
509.375	-1.168388741	-6.67620223	
510.0	-1.706689711	-0.4327235829	
510.625	-0.2469698547	-0.8454108125	
511.25	-0.4622446914	0.2144280888	
511.875	-0.4757811799	-0.3344019642	
512.5	-0.1352316444	0.1839702616	
513.125	-0.1243431471	-0.3002363386	
513.75	-0.1075518603	0.002097697609	
514.375	-0.2674714194	-0.5063565843	
515.0	-0.8047150889	1.327144162	
515.625	1.23109905	-4.018476084	
516.25	-2.781837658	0.3810193702	
516.875	1.161486732	-1.40539206	
517.5	-0.8224411873	-1.062466903	
518.125	0.3692391175	0.05631970041	
518.75	-0.7732579638	-0.8636075463	
519.375	-0.05311930274	0.1219272029	
520.0	0.280206581	0.3790306899	
520.625	0.6278446634	-0.368742166	
521.25	-0.1588600595	-0.4146512069	
521.875	-0.4092600462	-0.3692998097	
522.5	-0.02826152978	0.2183750027	
523.125	-0.3664784826	-0.03361117683	
523.75	-0.06671016558	0.1046421861	
524.375	-0.6735161448	-0.1226713254	
525.0	0.3375731819	0.301986576	
525.625	-0.1712288563	0.1503521261	
526.25	0.2196695501	-0.1028214762	
526.875	-0.3891024984	0.2492329004	
527.5	0.2608350349	0.5104022731	
528.125	-0.2947767036	0.5535258525	
528.75	0.2698142059	1.158165089	
529.375	-0.0486043585	-0.05645533641	
530.0	0.4210107192	0.6475966701	
530.625	-0.2145422369	0.6136738036	
531.25	1.965072824	0.3704542538	
531.875	-0.01670759456	-0.3073411941	
532.5	0.1968467546	-0.7780165682	
533.125	-0.2520901318	0.4953581951	
533.75	0.5051523746	-1.102807742	
534.375	-0.4564619357	-0.2136411435	
535.0	-0.5419356602	-0.8036181614	
535.625	-0.3736468828	0.7002914395	
536.25	-0.03841937576	0.09637748516	
536.875	0.3243111481	0.1702491172	
537.5	0.1231844164	-0.2215002645	
538.125	0.2966632065	0.0635918184	
538.75	0.3515020819	-0.530219858	
539.375	-0.08599808709	-0.2452227862	
540.0	-0.3812223279	-0.6056296123	
540.625	-0.4829973774	0.1761112399	
541.25	-0.08757378206	-0.08815062351	
541.875	-0.1590871353	-0.09617841444	
542.5	-0.2418925019	-0.0761634503	
543.125	0.03895649169	-0.08575238772	
543.75	-0.4631894608	-0.146882208	
544.375	0.1926981917	0.1200475936	
545.0	-0.2373578882	0.2692769557	
545.625	0.3036120082	-0.05722929497	
546.25	0.01295356358	0.3684137039	
546.875	0.461494466	-0.3468310109	
547.5	0.09421917244	-0.02298533897	
548.125	0.0812883227	-0.5856389019	
548.75	-0.522181634	-0.2716226214	
549.375	-0.1125245698	-0.03596233686	
550.0	-0.3139046596	-0.1329445706	
550.625	-0.01830058825	0.1217963066	
551.25	-0.2955515838	-0.0558683393	
551.875	-0.09984342544	0.2914296709	
552.5	-0.1641543355	0.0795033758	
553.125	-0.03199495331	0.2316054784	
553.75	0.1025476452	0.09890296496	
554.375	0.2367670309	0.04487095673	
555.0	0.2693947237	-0.1838652923	
555.625	0.1999199547	-0.2581641285	
556.25	0.1917200423	-0.3420219062	
556.875	-0.08081823215	-0.4234277402	
557.5	-0.247543071	-0.2567872728	
558.125	-0.2666440284	-0.1137481191	
558.75	-0.2950282481	-0.02609057526	
559.375	-0.2507166904	0.07829719961	
560.0	-0.2423640106	0.1242860604	
560.625	-0.1757079084	0.3176455474	
561.25	0.1015410661	0.2239471084	
561.875	-0.04036682662	0.1295246396	
562.5	0.1442001866	0.09595534131	
563.125	0.03891366896	0.2510039777	
563.75	0.4723650908	-0.05556830351	
564.375	0.135422983	-0.1641748547	
565.0	0.3859880632	-0.3383760729	
565.625	-0.2055874001	-0.4367550079	
566.25	-0.1948286481	-0.147170686	
566.875	-0.2706863363	-0.3453571708	
567.5	-0.5365286259	-0.2387545737	
568.125	-0.136920429	-0.2272423228	
568.75	-0.7070042912	-0.4338951819	
569.375	-0.4445913972	0.4218924885	
570.0	-0.4341716018	0.2005017076	
570.625	-0.2121199185	0.7742300741	
571.25	0.1714354039	-0.02635570428	
571.875	-0.005898150882	0.5486759519	
572.5	0.3384272591	-0.3773607781	
573.125	0.1574665037	0.08561567719	
573.75	0.4054036778	-0.4892724085	
574.375	-0.2834157463	-0.1287574854	
575.0	0.4091461773	-0.03374488477	
575.625	-0.227174443	-0.2761671859	
576.25	0.3561929142	0.02785127228	
576.875	-0.02026212097	-0.6536522815	
577.5	-0.2659334058	-0.2679177362	
578.125	0.1288426957	-0.2490032295	
578.75	-0.159688886	-0.5547939933	
579.375	-0.4363173483	-0.008354205865	
580.0	0.1559121826	-0.09353712263	
580.625	-0.4663830435	-0.0421401438	
581.25	0.03464183173	0.02405577327	
581.875	-0.3520238304	0.5027748997	
582.5	0.4739254742	0.4639202165	
583.125	-0.02374464967	-0.1955521169	
583.75	0.1290881835	0.5633874118	
584.375	0.03511366444	-0.3760196333	
585.0	0.1853478583	0.5968126205	
585.625	0.5567500089	-0.2766226834	
586.25	0.04892298949	0.0333489498	
586.875	0.5172848072	-0.4543658262	
587.5	-0.327766259	-0.2114007084	
588.125	0.2577504435	-0.2367131627	
588.75	0.1266663712	-0.6510511719	
589.375	-0.1136235852	-0.2474912674	
590.0	0.1795687771	-0.4528440181	
590.625	-0.6178710316	-0.1986936713	
591.25	-0.1932500143	0.3314149535	
591.875	-0.1735801667	0.0847801221	
592.5	0.03911905451	0.3425622007	
593.125	-0.2425230803	-0.07190804701	
593.75	0.2959521446	0.3796008955	
594.375	0.2498092834	0.05362789198	
595.0	0.1596186504	0.5329905386	
595.625	0.9294645569	0.2499295155	
596.25	-0.04283624324	-0.1393357344	
596.875	0.5430898098	0.5188453404	
597.5	0.5627726232	-0.04477493734	
598.125	0.008046628085	0.4147785982	
598.75	0.7424951136	0.2278635418	
599.375	0.2213904421	-0.06701046508	
600.0	0.6878735347	-0.1787149227	
600.625	0.2832648655	-0.6582102696	
601.25	0.06670370236	-0.2349728442	
601.875	-0.01356689209	-0.4728150351	
602.5	-0.3525696527	-0.02145722948	
603.125	-0.3025429877	0.1790799073	
603.75	-0.1662503496	0.03404312603	
604.375	-0.4805877037	0.166973297	
605.0	0.0774834651	0.229327772	
605.625	-0.4217828423	-0.009303263446	
606.25	-0.1221333834	0.3678551285	
606.875	-0.3664381412	-0.1610134678	
607.5	-0.6831237276	0.789865107	
608.125	0.1523626184	0.2338826796	
608.75	0.09588667835	0.7809074862	
609.375	0.7446107634	-0.4405868173	
610.0	0.2407595258	0.08722933174	
610.625	0.4252257323	-0.6113430808	
611.25	-0.1481250307	-0.1482212102	
611.875	-0.02947214084	-0.6277161943	
612.5	-0.3962061705	0.1623488412	
613.125	-0.4368614409	-0.2428515224	
613.75	-0.2709244133	0.6079716409	
614.375	-0.01572364178	-0.04429228396	
615.0	0.3608992147	0.3904036891	
615.625	-0.1502321414	-0.1201576657	
616.25	-0.3164592309	0.6286545362	
616.875	0.1972682309	0.3698988933	
617.5	-0.5627355977	0.4227651661	
618.125	0.1035238733	0.7794924853	
618.75	0.03850214199	0.139795238	
619.375	0.1223482688	0.7059043499	
620.0	0.4122041646	-0.03464634311	
620.625	0.4435242967	-0.2441654027	
621.25	-0.3023032486	-0.3961798844	
621.875	-0.3186951731	-0.3522787553	
622.5	-0.6393378556	0.3051356872	
623.125	-0.1187811108	0.199582829	
623.75	0.4178050735	0.3522594866	
624.375	-0.1737796545	-0.2532818263	
625.0	0.5480606857	0.02702886643	
625.625	-0.3488920229	-0.1707411562	
626.25	0.3047736083	-0.3388566034	
626.875	-0.6290269782	-0.3166629449	
627.5	-0.1610187572	0.1228197169	
628.125	-0.150539915	-0.4932947303	
628.75	-0.3886642139	-0.1319200397	
629.375	0.04261558375	-0.3858011855	
630.0	-0.6265136382	-0.3778298871	
630.625	-0.3069730784	0.2738268984	
631.25	-0.5293657966	0.2075222694	
631.875	-0.1190525325	0.7591600147	
632.5	0.3516668549	0.4850476223	
633.125	0.4352282469	0.05263147642	
633.75	0.4176543671	0.1530428265	
634.375	0.04636937972	-0.6138500903	
635.0	0.1660898654	-0.1169844666	
635.625	-0.5221152257	-0.4420585363	
636.25	-0.103062179	0.3008797164	
636.875	-0.5620338714	0.1223631758	
637.5	0.1835660476	0.4795034579	
638.125	-0.2334042609	-0.2335628616	
638.75	-0.4652284229	0.8067547784	
639.375	0.4214370572	0.4350883199	
640.0	-0.0813729029	0.3966702343	
640.625	0.6545029898	0.7370974237	
641.25	0.7258924544	-0.3204748385	
641.875	0.3998430222	0.02426122228	
642.5	-0.1913877677	-1.000820819	
643.125	-0.03593446742	0.01190562949	
643.75	-0.3903474959	-0.623528446	
644.375	-0.4908855976	0.3893657697	
645.0	-0.1323257603	-0.02540296606	
645.625	-0.2482299911	0.7206717224	
646.25	0.7684341336	0.2431171687	
646.875	-0.09632493223	-0.302725002	
647.5	0.386490762	0.5699392593	
648.125	0.05265508837	-0.4674626177	
648.75	0.9304075806	0.5321001867	
649.375	0.5208028886	-1.157879667	
650.0	-0.03158305718	-0.1828325649	
650.625	1.272715968	-0.6034339181	
651.25	-0.005264724209	-1.345079884	
651.875	0.1523370667	0.2467645264	
652.5	1.309205702	0.04497981527	
653.125	0.5554850262	-0.740468881	
653.75	0.2878151143	0.06171356791	
654.375	0.01613701267	-1.277494964	
655.0	-0.7345222656	0.1525857358	
655.625	-0.3820819471	-0.148304795	
656.25	-0.1235295231	0.9573132577	
656.875	0.3019931398	-0.3439608822	
657.5	-0.1342353092	0.6156653888	
658.125	0.581419413	0.3398016713	
658.75	0.4549122271	0.0004875061024	
659.375	0.9769849845	0.2315873343	
660.0	0.5026781085	-1.219464569	
660.625	0.1707231928	-0.3349707447	
661.25	0.8705622525	-0.634842251	
661.875	0.3524348726	-1.201511244	
662.5	0.1641108063	0.1111589585	
663.125	1.347264768	-0.4197925817	
663.75	-0.02740953446	-0.9161014389	
664.375	0.2848935217	-0.3996357718	
665.0	-0.8572626295	-0.9440483681	
665.625	-0.3547967377	0.3922655227	
666.25	-0.6778565464	0.4605822022	
666.875	0.5184362446	0.7140478841	
667.5	0.2005328089	-0.05366466276	
668.125	0.6524794492	0.4457224307	
668.75	0.5288969816	-0.6452171559	
669.375	0.0847629508	-0.3876487364	
670.0	0.2388164211	-0.3943139768	
670.625	0.03453741775	-0.7543455232	
671.25	-0.0375962081	-0.1147506313	
671.875	0.5652191325	-0.481027898	
672.5	0.3661976748	-0.5333569693	
673.125	0.4107169849	-0.04509081383	
673.75	0.8525056383	-0.756812349	
674.375	-0.3885889994	-0.6579024871	
675.0	0.347335667	-0.2126631856	
675.625	-0.6139068744	-0.83009072	
676.25	-0.5173837481	0.4456176301	
676.875	-0.07554951299	-0.4994366174	
677.5	-0.6542334115	0.5101535657	
678.125	-0.1521026485	-0.09291700768	
678.75	-0.2824780416	1.006497492	
679.375	0.6412035019	-0.3428806157	
680.0	0.2239287398	0.2378348375	
680.625	0.5242834252	-0.2546843253	
681.25	0.03007706225	-0.3547791108	
681.875	0.07647576944	0.4181548424	
682.5	0.7195020547	0.452033916	
683.125	0.6784056372	-0.05825118344	
683.75	0.2447297025	0.1100576721	
684.375	0.9845876325	0.6420183695	
685.0	0.5926939467	-0.5848681042	
685.625	0.6011361351	0.7002008139	
686.25	1.242761209	-0.4726754718	
686.875	-0.06545348583	-0.1590989365	
687.5	1.681507008	-0.2866421045	
688.125	-0.9872784349	-1.562281299	
688.75	0.07600341696	-0.5240631993	
689.375	-1.535201338	0.8756208786	
690.0	0.6181255204	0.6394639394	
690.625	-0.07034805629	0.9740530866	
691.25	1.213281805	0.4393958596	
691.875	0.6100241474	0.7389571229	
692.5	1.587935513	0.863125452	
693.125	1.600294301	-0.2808634814	
693.75	1.355127298	-0.3130994494	
694.375	1.039708931	-1.022403452	
695.0	1.134240646	-0.3622154764	
695.625	1.558100522	-0.5876773487	
696.25	0.5799777177	0.3104469351	
696.875	1.200971043	1.849229964	
697.5	1.177478226	0.3666333701	
698.125	0.8500868787	1.507411916	
698.75	1.588069003	-1.628339151	
699.375	-0.2843719341	-0.2078950964	
700.0	-1.746778843	0.647622597	
700.625	0.8798673184	0.5844125583	
701.25	-0.1395768283	0.8203939666	
701.875	1.259623332	0.372494423	
702.5	0.2482449921	0.5609611659	
703.125	1.393794678	0.5995550293	
703.75	0.5249677814	-0.5803381577	
704.375	1.064036805	0.0374537256	
705.0	0.4664417136	-0.8534375508	
705.625	0.1732675632	0.4432949597	
706.25	1.366471213	0.688898802	
706.875	0.2235368128	0.10349004	
707.5	0.3915310114	1.422125616	
708.125	1.590900336	0.1178326286	
708.75	0.6464575184	-0.3196779561	
709.375	-0.6177157539	-1.338003211	
710.0	-0.2302252882	0.6921307972	
710.625	-0.2850770876	0.4294754839	
711.25	0.4177138499	0.299644265	
711.875	0.3242227041	0.3704739988	
712.5	0.8058905264	0.005204382196	
713.125	0.6714560394	-0.1308087856	
713.75	0.4726086774	-0.9596052118	
714.375	-0.2548804478	-0.1339387359	
715.0	0.4372915751	-0.9492895429	
715.625	-0.5495155886	-0.3422592638	
716.25	0.8989547313	0.01116770906	
716.875	1.374511026	-1.38102313	
717.5	-0.2448348257	0.1963441035	
718.125	2.980858245	1.278616476	
718.75	2.294241048	-1.909345232	
719.375	0.6679048289	1.10672369	
720.0	3.554828402	-3.039908071	
720.625	-0.9307169395	-2.156107245	
721.25	1.030607456	-2.364156792	
721.875	-0.4792281988	-3.608035971	
722.5	-1.718794027	-1.109607193	
723.125	-1.755349534	-1.506357522	
723.75	-1.102603864	1.463289209	
724.375	0.1706978307	0.7436803924	
725.0	0.0810456622	0.871488832	
725.625	0.5390091696	1.736643175	
726.25	1.056266107	1.078282906	
726.875	-1.517780716	1.60651356	
727.5	-1.020740059	5.666262299	
728.125	3.532760017	3.953101863	
728.75	-8.788506397	7.724283952	
729.375	2.713617802	15.84210112	
730.0	0.5976803959	1.174814346	
730.625	-12.50822403	17.94145475	
731.25	10.65564906	15.10768593	
731.875	-7.431901881	-3.158101963	
732.5	-14.43675348	1.957676126	
733.125	-7.857801139	2.87383886	
733.75	-0.8714472535	1.429124761	
734.375	2.465660181	3.410052864	
735.0	-0.6743055929	-1.093182556	
735.625	-0.8468603664	-0.4913388946	
736.25	-0.453674592	2.369175378	
736.875	1.187615501	0.05535095557	
737.5	1.859263497	2.187954416	
738.125	5.645913109	-0.8928986512	
738.75	3.996073168	-6.830678469	
739.375	-1.479142186	0.7318335077	
740.0	23.97741172	4.464773847	
740.625	-0.5833420092	-23.61061477	
741.25	-9.167644722	17.94431424	
741.875	0.8283202665	21.50508486	
742.5	10.48502348	0.06644127536	
743.125	4.438006645	-12.52987449	
743.75	-3.118970744	-2.263893225	
744.375	0.1763084708	-0.3723834234	
745.0	-0.4630630947	0.7168253671	
745.625	-0.1779049872	-0.2469329721	
746.25	0.280266793	-0.4967799214	
746.875	-0.5983239606	0.169031623	
747.5	-0.04489397469	0.807710428	
748.125	0.0626997229	1.510827577	
748.75	0.8738060915	0.9136580116	
749.375	-0.363229736	1.250712099	
750.0	2.993936048	-4.17780148	
