!Created with skrf (http://scikit-rf.org).
# GHz S MA R 50.0 
!freq magS11 angS11
500.0 0.0144884818135 175.264174068
500.625 0.0139934583614 35.8806128345
501.25 0.0226991008087 -172.483936712
501.875 0.042896173933 179.48019323
502.5 0.0238409162872 158.360998716
503.125 0.0252110962957 137.29357446
503.75 0.00676507203339 92.6187684418
504.375 0.00448591377047 -178.837105161
505.0 0.0199264107565 -64.1391100806
505.625 0.0179848619782 -79.5950793679
506.25 0.0386500286563 -109.345749809
506.875 0.060281697091 -107.998669869
507.5 0.0613312763739 -105.629797236
508.125 0.0385215390444 -125.254412149
508.75 0.0536238447202 -147.086135222
509.375 0.0484920604082 -147.390819965
510.0 0.0516982294696 -104.32584332
510.625 0.0205037436072 169.006144012
511.25 0.0472619984466 -179.885352282
511.875 0.0542829985644 140.955093426
512.5 0.0477121460428 112.726757662
513.125 0.0461087837991 25.0006250637
513.75 0.0460477202652 22.3804249625
514.375 0.0404789925275 23.7605350984
515.0 0.0622425672805 10.3274278439
515.625 0.0856884691568 51.332428609
516.25 0.0849482106398 30.0849164628
516.875 0.108755240081 71.0524540854
517.5 0.141461828752 23.8566198116
518.125 0.189663010119 68.1977470898
518.75 0.0864821270637 10.3639389842
519.375 0.0789253362708 23.5769174223
520.0 0.0832222023674 -6.22675081869
520.625 0.101721650105 -4.55735259384
521.25 0.0895632920879 -18.7462986103
521.875 0.066210268316 1.98008531418
522.5 0.106498476347 -29.6552011257
523.125 0.174965398752 -36.9343239568
523.75 0.19891632435 -63.0262525946
524.375 0.198174572241 -52.6373421449
525.0 0.0733531798048 -40.3534565684
525.625 0.0337526383148 -38.7664087154
526.25 0.0413832780926 -19.809979586
526.875 0.0689458130176 -15.2350459719
527.5 0.044241890719 -32.0680062201
528.125 0.0394995494809 -56.4073205224
528.75 0.0673300361409 -69.5973899538
529.375 0.101816993772 -106.775531244
530.0 0.0317986248559 -152.104991881
530.625 0.0279731037992 -125.9558072
531.25 0.112343855791 -132.803628246
531.875 0.203253382983 -147.782365763
532.5 0.112943492119 -174.65317035
533.125 0.0975529272986 176.451822925
533.75 0.113265749685 166.855127505
534.375 0.124599583399 -178.85089016
535.0 0.0902840200925 162.83680704
535.625 0.0645910165604 178.040836571
536.25 0.0537810366183 159.553780948
536.875 0.0942119375115 -162.652629129
537.5 0.0784796230608 -142.128020438
538.125 0.0908499905161 -171.499530217
538.75 0.0943196872597 177.699008474
539.375 0.0921630813835 -163.736074744
540.0 0.0834827660948 -154.054197112
540.625 0.11356426796 -152.00672938
541.25 0.11975521029 -140.858297137
541.875 0.107603042872 -145.431973373
542.5 0.0963269539741 -138.300927029
543.125 0.129640267963 -166.092427973
543.75 0.121117252859 157.677925045
544.375 0.10198453598 136.67124529
545.0 0.0923575396324 90.9460038455
545.625 0.098953340255 84.585733758
546.25 0.0901379034329 69.8364509928
546.875 0.0881543048958 56.0128626287
547.5 0.104536120761 58.9005466004
548.125 0.103107295228 77.9329496275
548.75 0.0780685726674 89.5906477935
549.375 0.108922201767 86.7892127223
550.0 0.0875558703579 124.979251905
550.625 0.0476030523188 156.217154337
551.25 0.0423461410382 -139.791554602
551.875 0.0695140213343 -165.021465549
552.5 0.0947049560219 -158.669261248
553.125 0.0909826705622 -166.031457701
553.75 0.0850588761058 -168.37375961
554.375 0.112783458729 166.58526076
555.0 0.120127744584 164.772436576
555.625 0.0951477087366 159.277137922
556.25 0.0940422320969 166.099753714
556.875 0.11982684982 166.384531986
557.5 0.125218162555 165.063850882
558.125 0.0804111374735 165.727557606
558.75 0.0813682490472 179.745093732
559.375 0.0699250936759 -172.078362679
560.0 0.0386229214059 -142.774193054
560.625 0.0573758575264 -137.098428443
561.25 0.092046738503 -151.844940989
561.875 0.104626670237 -160.986920323
562.5 0.0978800313898 171.377237696
563.125 0.105796471954 146.081164709
563.75 0.128600568069 131.11913293
564.375 0.109967233785 120.170536763
565.0 0.0764905194454 122.490368389
565.625 0.0807425664733 118.877557036
566.25 0.101218443782 152.269556054
566.875 0.0742920393813 -178.674340131
567.5 0.0795074275504 178.181518159
568.125 0.068203263366 -165.008468338
568.75 0.0632493146688 -143.354918532
569.375 0.0448283100358 -103.099798843
570.0 0.0630369028925 -117.692181178
570.625 0.0900034122326 -113.024220551
571.25 0.090103749349 -118.185168495
571.875 0.0874845672622 -125.193110414
572.5 0.116017996334 -160.71691686
573.125 0.12861674992 -168.369802377
573.75 0.0985282520724 164.624469989
574.375 0.0833722923999 149.55006038
575.0 0.111715917424 149.695294049
575.625 0.105820755049 157.281141046
576.25 0.0909444028975 144.375916627
576.875 0.0870641983154 128.460362854
577.5 0.088022745773 133.435835716
578.125 0.0577124752629 161.556283271
578.75 0.0471725756159 168.629445969
579.375 0.055664243548 163.803871787
580.0 0.0717251375 173.058618546
580.625 0.0775880978529 -139.941818935
581.25 0.0922548054333 -158.540157695
581.875 0.111397049863 -172.905917419
582.5 0.122788742695 178.679786743
583.125 0.0884213313073 -163.248460275
583.75 0.0815115491407 -164.314167744
584.375 0.0978193751342 -155.574519971
585.0 0.0954848238154 -143.391080458
585.625 0.0652870487214 -133.465764813
586.25 0.0684740257234 -131.655449883
586.875 0.078622544299 -127.858681636
587.5 0.0766892387371 -151.74661372
588.125 0.0564428427664 -162.616944114
588.75 0.0691069605939 -158.876373613
589.375 0.0823646539939 -147.462282109
590.0 0.0931419739474 -169.32531119
590.625 0.104537765858 166.886559152
591.25 0.121205367888 155.445505371
591.875 0.0975459560129 156.94543394
592.5 0.0626810887047 148.761215491
593.125 0.0633737454464 152.9384737
593.75 0.0760400960408 176.871443481
594.375 0.0502959347478 -147.952888312
595.0 0.0410889537663 -129.989781084
595.625 0.0589986264516 -102.306533034
596.25 0.0751174888978 -84.9538788302
596.875 0.0703763390937 -71.4920294446
597.5 0.0607600476115 -59.5948842822
598.125 0.0742389070075 -49.5941629993
598.75 0.087798194088 -54.2607540585
599.375 0.091874069833 -59.2645438413
600.0 0.0934928588281 -75.569146542
600.625 0.102792758536 -52.0225883917
601.25 0.0836766689413 -71.299615156
601.875 0.0658717999929 -84.8770887441
602.5 0.0627851493454 -84.8468906136
603.125 0.0463403586413 -57.9292330579
603.75 0.0321340786235 -29.2784444842
604.375 0.0501134560211 -13.5629712144
605.0 0.0628961356078 -15.9557007563
605.625 0.0435275719224 -32.2319709736
606.25 0.0409557978059 39.8681101896
606.875 0.0482029612724 51.7613828163
607.5 0.0644075739527 46.8560584059
608.125 0.053240351167 17.6033286596
608.75 0.0661975966749 23.3648801894
609.375 0.0771772711042 35.1730865601
610.0 0.0725655866262 43.2263554896
610.625 0.0507638280516 20.8080197802
611.25 0.0681483906925 55.5404267452
611.875 0.048442447563 69.3361856781
612.5 0.0224283954295 114.595377473
613.125 0.0215661661443 128.749396407
613.75 0.0492936258826 125.467480329
614.375 0.0504224559086 127.498790147
615.0 0.0326653123737 112.304295974
615.625 0.0349089232463 132.412511274
616.25 0.0296901263303 141.207448173
616.875 0.0513091857496 135.001016473
617.5 0.0242028983211 108.631901496
618.125 0.0207950128164 128.391851697
618.75 0.0126664803374 144.874886424
619.375 0.0272577594304 147.703800477
620.0 0.00792360577065 -138.351132534
620.625 0.0301402338488 -67.3861719202
621.25 0.0516158362638 -126.665495784
621.875 0.0633618745851 -110.800528221
622.5 0.0691173173611 -155.258892632
623.125 0.0751095644079 169.549766128
623.75 0.0481995899759 176.705124514
624.375 0.0501280350838 -176.98028139
625.0 0.0559819312315 -157.754377819
625.625 0.0375696110375 -157.061233539
626.25 0.00204682224059 -37.1818646714
626.875 0.0254154150464 -170.563902745
627.5 0.0180506220902 -83.1037479133
628.125 0.0426731649422 -37.1022772993
628.75 0.0517502379597 -0.418529187703
629.375 0.0391533555251 -45.1428710721
630.0 0.0672078061102 -3.63701768282
630.625 0.0742197727193 -2.63772961039
631.25 0.0719128944588 13.0882260588
631.875 0.0761232454833 -27.5063332125
632.5 0.0638454194425 -24.2578331892
633.125 0.0530730141404 -1.29897897664
633.75 0.0406893838675 15.3720060356
634.375 0.0471340415856 8.59335182311
635.0 0.0357720998219 14.8262752259
635.625 0.0265204523768 18.8084406012
636.25 0.0514651252979 44.3315650261
636.875 0.0819248358436 51.063221843
637.5 0.0415619330365 15.9362003786
638.125 0.0339400866985 68.9676629225
638.75 0.0674358072211 71.7934630214
639.375 0.0995627179772 96.1837799295
640.0 0.0691053612235 96.7833725432
640.625 0.0517432693252 101.312143745
641.25 0.0675605725795 128.919185249
641.875 0.0774475805927 156.606993436
642.5 0.0435933823602 137.956131216
643.125 0.0448706402909 149.946926127
643.75 0.0652965790492 164.628774088
644.375 0.0937752827412 -168.393130218
645.0 0.0598078532579 166.21908214
645.625 0.087665937941 166.131010897
646.25 0.0936864913115 161.270769873
646.875 0.0671648432262 178.778746534
647.5 0.0702311669267 -173.813018411
648.125 0.0843978646302 -176.174880306
648.75 0.0728505739884 -161.196100878
649.375 0.0468615517622 -147.92251756
650.0 0.058837664903 -116.523956494
650.625 0.0491268947183 -91.4611138326
651.25 0.057390127068 -63.7299702822
651.875 0.0664009707116 -40.4318874671
652.5 0.107671815232 -25.765208292
653.125 0.0917135326588 -6.98273001155
653.75 0.108474861475 8.43331494596
654.375 0.113967267498 8.15951060165
655.0 0.111045568878 9.15731333502
655.625 0.0897378759144 25.8554886465
656.25 0.0535373260355 18.6035511614
656.875 0.0691288259042 8.91801253255
657.5 0.0986426941973 24.7970729956
658.125 0.0469787712645 43.7660456953
658.75 0.0543134761945 66.8971207045
659.375 0.0754743843097 40.6703874444
660.0 0.12373808118 26.6259061151
660.625 0.106129065369 19.6111066977
661.25 0.105738468851 5.13626856942
661.875 0.126741332741 -11.1301183307
662.5 0.136882649409 -19.8005386716
663.125 0.0861032058787 -18.8295050249
663.75 0.093012029121 4.21397372271
664.375 0.0889437386034 49.1322374825
665.0 0.0842354954148 91.1999239528
665.625 0.0636116668131 113.713019861
666.25 0.0904161093059 130.822039653
666.875 0.121134616748 170.683691069
667.5 0.107327185934 -170.720958498
668.125 0.100361404934 -177.940111046
668.75 0.133346073609 168.694597823
669.375 0.128374687133 178.275501613
670.0 0.095356917376 -170.129005275
670.625 0.0813434999376 -169.492129244
671.25 0.0982008753892 177.412872
671.875 0.0962607505753 168.95217324
672.5 0.0899867709413 153.521509473
673.125 0.0699013444422 158.6301988
673.75 0.116677129918 158.044480429
674.375 0.114104066577 169.420373751
675.0 0.119203722387 -174.687179384
675.625 0.122510268939 -149.661445821
676.25 0.126488631084 -125.469136546
676.875 0.114643908943 -120.130932912
677.5 0.135018905423 -129.941791792
678.125 0.109221250842 -118.495771128
678.75 0.0601011094634 -91.5190426821
679.375 0.0454673468967 -74.0318283674
680.0 0.0881331956387 -85.9040389598
680.625 0.100305955209 -67.4230859424
681.25 0.105807747995 -71.873927741
681.875 0.103725872082 -92.6531189998
682.5 0.138480742484 -119.178631178
683.125 0.177128300861 -124.519765349
683.75 0.125696933943 -103.765038471
684.375 0.110168908325 -75.9454984967
685.0 0.124545541493 -39.0357993235
685.625 0.14164363207 -5.0611666541
686.25 0.0866245495621 26.1159436564
686.875 0.0829664648988 47.5483293106
687.5 0.0672550042184 88.1446552992
688.125 0.0882786436275 102.110254872
688.75 0.0939831298851 123.26916027
689.375 0.140610879932 122.706482999
690.0 0.13769294219 131.405629941
690.625 0.123896683535 125.063303619
691.25 0.137111928894 100.372987427
691.875 0.184688620835 69.8737358243
692.5 0.145108842949 40.0232921813
693.125 0.0908373980044 -15.0807427421
693.75 0.104444061183 -46.7865165569
694.375 0.116144114637 -16.9789057824
695.0 0.127367633584 14.6955414649
695.625 0.104623410398 51.8834918222
696.25 0.120525457446 109.385318772
696.875 0.144283744175 168.036904206
697.5 0.136870410691 -139.433497343
698.125 0.135326500279 -128.366616967
698.75 0.133553512959 -132.086883464
699.375 0.0934262275452 -115.329941265
700.0 0.0924572754186 -110.266178035
700.625 0.105475303261 -87.1844711408
701.25 0.104962599744 -68.095392542
701.875 0.0795652971217 -53.0965855129
702.5 0.0993002241032 -81.3842936031
703.125 0.173170967773 -123.537852361
703.75 0.186129130754 -154.025348483
704.375 0.134550000759 167.503731412
705.0 0.104376017448 169.844421561
705.625 0.141842013909 -166.73864402
706.25 0.132509014732 -109.313678983
706.875 0.100433845059 -71.2645800127
707.5 0.0747052569046 -27.5337148
708.125 0.0911979951774 21.0071241762
708.75 0.106398709524 67.8969151005
709.375 0.105630866917 98.0254623977
710.0 0.104121322655 129.958207966
710.625 0.105309217517 156.584837707
711.25 0.114335320618 171.778428499
711.875 0.14248838041 158.387802742
712.5 0.142810834242 154.857588713
713.125 0.123648518159 103.11161082
713.75 0.101429755511 43.4538551226
714.375 0.11291267021 23.1317459117
715.0 0.118193806143 17.9286633481
715.625 0.0857847998427 60.6450926967
716.25 0.0866477181366 85.4460532423
716.875 0.123296355127 110.151575814
717.5 0.140075160389 135.635305396
718.125 0.114035554025 168.079293141
718.75 0.0991763818776 171.847458389
719.375 0.118791501605 -170.543803333
720.0 0.131846004688 -127.013494373
720.625 0.114428551853 -83.7062523646
721.25 0.0975669968569 -22.418605602
721.875 0.0728176679246 40.6314183313
722.5 0.0676221829649 48.0543047338
723.125 0.107516409932 93.443446168
723.75 0.109509885436 44.9440394236
724.375 0.110522406995 -4.52258427082
725.0 0.0974396381788 -40.447357798
725.625 0.0911174799469 -74.9831830971
726.25 0.13066765236 -49.9868084795
726.875 0.109323018682 -37.6048280752
727.5 0.0771140420333 -28.4423159714
728.125 0.0636677975672 -26.5619543066
728.75 0.0987298319454 28.2162360708
729.375 0.0860262050532 21.2612167063
730.0 0.0659383673034 0.488171427245
730.625 0.0650229135399 20.9688189308
731.25 0.0545946876078 52.0022761066
731.875 0.0719497618534 118.526305631
732.5 0.0918359478572 159.08802338
733.125 0.086424126578 -176.297075441
733.75 0.0604684610799 155.830821215
734.375 0.0597471262525 170.19297146
735.0 0.0440396867928 136.936754436
735.625 0.041231048175 135.413710346
736.25 0.0183422713745 133.674314927
736.875 0.0552757892124 168.623365954
737.5 0.0691092293142 178.465574209
738.125 0.0916842392819 -175.457300946
738.75 0.0562374112563 174.130997585
739.375 0.0648411127779 -161.761675783
740.0 0.0804851159551 -140.5924956
740.625 0.0648747647743 -135.163591423
741.25 0.0177117804803 -134.115774287
741.875 0.0431186070331 -104.486845607
742.5 0.0407175145689 -14.8643051836
743.125 0.033835418672 65.4096595765
743.75 0.0247927057586 152.735307379
744.375 0.078157876584 92.3788685488
745.0 0.0561987051656 125.153821706
745.625 0.0762519484061 113.510761449
746.25 0.06905506871 95.1184219394
746.875 0.0536741322164 52.4539717515
747.5 0.0417706136643 10.9848635365
748.125 0.028068713849 -15.6436255872
748.75 0.0280877519116 -6.16482929996
749.375 0.0378989062873 10.7361820337
750.0 0.0555307825726 -125.945770986
