!Created with skrf (http://scikit-rf.org).
# GHz S RI R (50+0j) 
!freq	ReS11	ImS11	
500.0	-0.1154903387	-1.787371742	
500.625	1.235073925	-5.087754449	
501.25	-1.425957683	-0.5892511215	
501.875	-0.5707985719	-1.245223804	
502.5	-0.3542789186	-0.5034119399	
503.125	-0.1515273269	0.2514645341	
503.75	-0.1147275182	0.04937278895	
504.375	0.170525316	-0.0508444271	
505.0	-0.05991182132	0.04212034661	
505.625	0.04254206014	-0.3593573469	
506.25	-0.09300299262	0.2740601088	
506.875	-1.432563898	-0.3964776247	
507.5	0.1015667594	0.9518224655	
508.125	1.547305172	-2.142100852	
508.75	1.227135248	-4.981209031	
509.375	-1.83273426	-1.614103829	
510.0	-1.07705986	-0.9641421893	
510.625	-0.7554705856	-0.6439983182	
511.25	-0.3191952306	-0.06913084222	
511.875	-0.5276222564	-0.1969532182	
512.5	0.03702441413	0.1638972783	
513.125	0.04741771408	-0.2582641721	
513.75	-0.2428492086	-0.1869153603	
514.375	-0.3435796414	0.2957291661	
515.0	0.9919162379	-1.195781778	
515.625	-2.072912925	0.2145846346	
516.25	1.913031865	-2.069413745	
516.875	-2.140942467	-2.117834846	
517.5	-0.147801306	0.4541776857	
518.125	-0.2819230297	-0.4882930438	
518.75	0.0311367411	0.3329048165	
519.375	-0.3168611724	0.08455649885	
520.0	0.4854842092	0.005424225586	
520.625	0.2134466276	-0.1553834841	
521.25	0.1800617655	-0.8857468398	
521.875	-0.3899533668	0.1916477134	
522.5	-0.1371209752	-0.08166935072	
523.125	-0.01782286452	0.2638831564	
523.75	-0.2681381353	-0.2685782693	
524.375	-0.2786909907	0.4536427054	
525.0	-0.2521914305	0.07844451939	
525.625	0.2945624763	0.2954083902	
526.25	-0.297942102	-0.04278065665	
526.875	0.08284311297	0.1554137018	
527.5	-0.3959751135	0.2929436978	
528.125	0.4103943186	1.091603374	
528.75	0.2342120342	0.1551516028	
529.375	0.1296042983	0.4308903731	
530.0	0.123100937	0.007640983859	
530.625	0.4092142601	1.275818592	
531.25	0.5578382149	-0.2353053737	
531.875	1.04543008	-0.3032641651	
532.5	-0.7249732761	0.0887023809	
533.125	0.7341298693	-0.50896632	
533.75	-0.4506421123	-0.1921774582	
534.375	0.2414600274	-1.148987729	
535.0	-0.914291973	0.3203074655	
535.625	-0.2816835758	0.004511210386	
536.25	-0.03591625361	0.3928488506	
536.875	0.1694383709	-0.1446659604	
537.5	0.1919205438	0.03872690262	
538.125	0.3374599703	-0.2967583678	
538.75	0.1653578823	-0.1969094713	
539.375	-0.1134678947	-0.4711166235	
540.0	-0.4917743029	-0.2378390962	
540.625	-0.2476491064	-0.1261784904	
541.25	-0.3213252867	0.02359817087	
541.875	0.004478968845	0.02864164215	
542.5	-0.09754061396	-0.1714469598	
543.125	-0.3073157657	-0.0868364814	
543.75	-0.0306602443	0.1663082168	
544.375	-0.3048734888	-0.02151864964	
545.0	0.2489117846	0.1704088953	
545.625	-0.1835157615	0.2006901201	
546.25	0.5218534979	-0.01607078295	
546.875	0.001229713366	0.02452458317	
547.5	0.403200383	-0.4189826682	
548.125	-0.3564019172	-0.1953283364	
548.75	-0.06072307728	-0.2909873614	
549.375	-0.3685565591	-0.2767367927	
550.0	-0.1392528257	0.181121198	
550.625	-0.1309855578	-0.1360723371	
551.25	-0.1649945212	0.2106028737	
551.875	-0.148822128	0.05610776971	
552.5	-0.1172893677	0.2812027918	
553.125	-0.007651418972	0.08668984288	
553.75	0.1327704463	0.1398400911	
554.375	0.2103493539	-0.03818477978	
555.0	0.2079527573	-0.1525153275	
555.625	0.1962349343	-0.2581717463	
556.25	0.131978453	-0.3508861731	
556.875	-0.1064166994	-0.3509564657	
557.5	-0.2267909987	-0.2324775408	
558.125	-0.2805977141	-0.08452124425	
558.75	-0.2349146066	0.02630536295	
559.375	-0.2499682576	0.01991032661	
560.0	-0.218993458	0.2307396601	
560.625	-0.05920219999	0.1911754699	
561.25	-0.05577313791	0.2585204623	
561.875	0.1663175308	0.09926179049	
562.5	-0.07640518375	0.07113520328	
563.125	0.2784258605	0.2157667501	
563.75	0.1673431033	-0.06641691285	
564.375	0.4145984876	-0.1736320722	
565.0	0.01330008048	-0.4266869316	
565.625	0.04346226539	-0.2334733438	
566.25	-0.3617227356	-0.3478550637	
566.875	-0.2971274638	-0.009199774723	
567.5	-0.1855031843	-0.3056465415	
568.125	-0.4644372941	-0.4970350809	
568.75	-0.4885492149	0.07242831849	
569.375	-0.4726222777	-0.06106181183	
570.0	-0.3349148786	0.7863984945	
570.625	0.1312073577	0.1987965567	
571.25	-0.3319308736	0.3816170415	
571.875	0.3940333074	-0.1480541584	
572.5	0.2293226962	0.3792212645	
573.125	0.2614621042	-0.5956227013	
573.75	-0.2060972758	-0.07393805172	
574.375	0.3385318977	-0.08020255573	
575.0	-0.2064278674	-0.3069599197	
575.625	0.2884760026	0.05968643722	
576.25	0.1103592381	-0.532652002	
576.875	-0.1821663763	-0.0541090178	
577.5	0.3145845995	-0.3789673118	
578.125	-0.3302366761	-0.5295235398	
578.75	-0.2089221061	-0.05372740462	
579.375	0.01461380527	-0.2206033625	
580.0	-0.3588757441	-0.1451659594	
580.625	0.1241179695	0.02593815978	
581.25	-0.5285607218	0.1708536415	
581.875	0.3355230134	0.3722177769	
582.5	-0.1211245554	0.04517181133	
583.125	0.2157001491	0.5980943452	
583.75	0.07741508621	-0.4379027552	
584.375	0.02914051385	0.5509862264	
585.0	0.4516573508	-0.2486330735	
585.625	0.01992214125	0.1618125192	
586.25	0.6256855863	-0.09198334642	
586.875	-0.1296688214	-0.3687650587	
587.5	0.213511659	-0.2170327439	
588.125	-0.2217100258	-0.5282915607	
588.75	-0.00616221619	0.00466966523	
589.375	0.4253064929	-0.510198217	
590.0	-0.3755708837	-0.3084150437	
590.625	-0.1799692598	-0.1562470814	
591.25	-0.3946511426	0.1766920517	
591.875	-0.09244460645	0.4691038978	
592.5	0.1623534875	-0.1383343082	
593.125	-0.1622441161	0.3629580872	
593.75	0.1097709365	-0.02288860253	
594.375	0.3018005316	0.5407151716	
595.0	0.5678755648	-0.01639461544	
595.625	0.06770784111	0.2191064114	
596.25	0.6410261424	0.3220981774	
596.875	0.2209608976	-0.3901229763	
597.5	0.0836930949	0.5159924268	
598.125	0.6226515887	0.3115973004	
598.75	0.2801052677	-0.01939724965	
599.375	0.5409690703	0.1273002093	
600.0	0.2988439888	-0.5308577718	
600.625	0.2682845599	-0.1792324414	
601.25	0.2993537864	-0.5547865306	
601.875	-0.3168049236	-0.1578579896	
602.5	-0.1851662226	-0.2230626414	
603.125	-0.2937035866	0.228982064	
603.75	-0.2288062187	0.1325465027	
604.375	-0.06165490719	0.2001536793	
605.0	-0.3788358912	0.01185926644	
605.625	0.00129112669	0.4354360104	
606.25	-0.2482959166	-0.2905564422	
606.875	-0.5736795972	0.6215879806	
607.5	-0.05621056185	0.106608181	
608.125	-0.4424543524	0.7712889317	
608.75	0.7038685888	-0.03890169604	
609.375	0.3232336401	0.309704285	
610.0	0.5958203932	-0.5455561825	
610.625	-0.1446393242	-0.1325169107	
611.25	0.2734997263	-0.5884393983	
611.875	-0.2998607108	-0.02165031264	
612.5	-0.2587040841	-0.3651804684	
613.125	-0.56849168	0.3569148296	
613.75	-0.1848649605	-0.04492704364	
614.375	0.1560118192	0.5384071889	
615.0	0.0253077766	-0.2233617731	
615.625	-0.03446694152	0.5922774433	
616.25	0.1417550516	0.001749967927	
616.875	-0.5176338022	0.4143827543	
617.5	0.1220582205	0.7346480618	
618.125	-0.1321316402	0.1287108816	
618.75	0.1189966358	0.6815962643	
619.375	0.2628458631	0.1265707711	
620.0	0.4230621785	0.2670037908	
620.625	0.1064048491	-0.4442280211	
621.25	-0.06959087493	-0.4304424603	
621.875	-0.5879501425	-0.04506270367	
622.5	-0.3037412818	0.01769617199	
623.125	-0.1997496289	0.6261168483	
623.75	0.1974155852	-0.222102202	
624.375	0.3945612073	0.04241283616	
625.0	-0.2546363916	-0.04502931312	
625.625	0.4321535025	-0.1688809765	
626.25	-0.5310268804	-0.3629518288	
626.875	0.1454133864	-0.04870713167	
627.5	-0.5442139612	-0.3527650007	
628.125	-0.3319203585	0.04664256957	
628.75	0.02236968232	-0.2219799738	
629.375	-0.3083539002	-0.5309352926	
630.0	-0.2890340032	0.007224931405	
630.625	-0.5906411396	0.03880480671	
631.25	-0.2097460698	0.6034408059	
631.875	-0.02620713636	0.3008512469	
632.5	0.3037473045	0.6448438906	
633.125	0.53432718	-0.04211912351	
633.75	0.2762220121	-0.2206679062	
634.375	0.1732539813	-0.1105960027	
635.0	-0.05172648981	-0.6263448065	
635.625	-0.2231265946	0.2714135621	
636.25	-0.6231837148	-0.162097445	
636.875	0.08442401624	0.5958484772	
637.5	-0.09889582039	-0.2189678622	
638.125	-0.09499042153	0.7449102266	
638.75	-0.08726284676	-0.1146866666	
639.375	-0.2916359402	0.9176834445	
640.0	0.8019502002	0.395879145	
640.625	0.240781143	0.04889888739	
641.25	0.6310055262	0.3668041385	
641.875	0.4258383404	-0.8108004707	
642.5	-0.2228110832	-0.1309819803	
643.125	-0.1813612935	-0.6201872538	
643.75	-0.4688354961	0.3101075044	
644.375	-0.4090346599	-0.4231084277	
645.0	-0.2822934998	0.7229101136	
645.625	0.1960715772	0.1397081752	
646.25	0.1153337894	0.3406373346	
646.875	0.6326046579	-0.04628965938	
647.5	-0.298344083	-0.2197320192	
648.125	0.5550054216	0.5766843582	
648.75	0.6314866869	-0.7728662003	
649.375	0.04802760496	0.07181985429	
650.0	1.036508023	-1.157488367	
650.625	-0.4443802996	-0.7226109225	
651.25	0.7486201539	0.1130208816	
651.875	0.9424472083	-1.112226928	
652.5	-0.2056260965	-0.2221448627	
653.125	0.9692346403	0.0982914638	
653.75	0.3268962722	-1.033245414	
654.375	-0.3759492888	-0.1721200775	
655.0	-0.4446082207	-0.6291899167	
655.625	-0.3961232803	0.9857134861	
656.25	0.1469747646	-0.03891576373	
656.875	-0.02010363614	0.4973761757	
657.5	0.3136523487	-0.1081567244	
658.125	-0.04292713201	0.5192398108	
658.75	1.034250139	0.1276554782	
659.375	0.4630914727	-0.5623820559	
660.0	0.3516666278	-0.3385947818	
660.625	0.7151216028	-1.037452999	
661.25	-0.350138171	-0.7248796687	
661.875	0.7473817514	-0.1262721508	
662.5	0.7166785823	-0.9329838695	
663.125	-0.01233572498	-0.475174366	
663.75	0.8591420698	-0.4251875924	
664.375	-0.6390119297	-0.9580967883	
665.0	-0.3072964272	-0.08526023801	
665.625	-0.8766039231	-0.01658375195	
666.25	0.03153273002	0.883757325	
666.875	-0.01256469511	0.1943472012	
667.5	0.6421073507	0.3406605871	
668.125	0.3254958691	-0.3267539585	
668.75	0.421644383	0.01340798978	
669.375	0.2891728035	-0.8839490195	
670.0	-0.2721246146	-0.3036292238	
670.625	0.130431298	-0.2833111308	
671.25	0.2664986815	-0.538311308	
671.875	-0.01765609165	-0.5904068041	
672.5	0.4161427258	0.08863825356	
673.125	0.5096128506	-0.7838679862	
673.75	0.04362374699	-0.3306214641	
674.375	0.4429185003	-0.5880692359	
675.0	-0.8173144879	-0.6714680155	
675.625	0.1212861115	0.1170895273	
676.25	-0.7360510565	-0.5260227328	
676.875	-0.3526609476	0.5453589098	
677.5	-0.05505215689	-0.2038060468	
678.125	-0.6024465683	0.6159672125	
678.75	0.4271429132	0.2089497239	
679.375	0.2634181746	0.3433293495	
680.0	0.604501013	-0.5180007787	
680.625	-0.3131433274	0.06084280914	
681.25	0.6309810732	-0.02582670352	
681.875	0.268544658	-0.2253852804	
682.5	0.17191168	0.2174294837	
683.125	0.6109347219	0.3782091524	
683.75	0.9708614956	0.003456789875	
684.375	0.1694669754	-0.3112438865	
685.0	0.639161502	0.6560983126	
685.625	1.088956118	-0.6353516244	
686.25	-0.1594090539	0.3545685741	
686.875	1.438838405	-0.9532954672	
687.5	-0.375281408	-0.4376562303	
688.125	0.5990290462	-1.103163199	
688.75	-1.918984671	-0.05461211604	
689.375	0.2207727455	0.2362033804	
690.0	-0.1401580007	1.384489392	
690.625	0.8968617025	0.1377462525	
691.25	0.3795157859	0.5781847172	
691.875	1.359824735	0.8124757384	
692.5	1.07567533	0.1165030308	
693.125	1.541421631	0.05089835155	
693.75	1.278930975	-0.7944813765	
694.375	0.7855845815	-0.75507607	
695.0	1.00646689	-0.8332373967	
695.625	0.8387111444	-0.1113196352	
696.25	1.741090565	0.2723920215	
696.875	0.6284414457	0.1073446751	
697.5	0.8506923726	1.693408508	
698.125	1.724964693	-0.7280449311	
698.75	0.8739871392	-0.2225497488	
699.375	-1.74925731	-1.022244099	
700.0	0.3067736339	0.7587841548	
700.625	-0.1891128885	1.288201723	
701.25	0.8745636888	-0.1892092919	
701.875	0.1284777323	0.6978010392	
702.5	1.420296289	0.576401527	
703.125	0.3440455048	0.01927429145	
703.75	1.30500793	-0.05971886179	
704.375	0.2539592908	-0.8463995958	
705.0	0.5770229049	0.3562930536	
705.625	0.9291997947	-0.6563468294	
706.25	0.00794413899	0.3254482495	
706.875	1.030818305	1.250490991	
707.5	0.6965386267	-0.1891015097	
708.125	1.08704663	0.7184171981	
708.75	0.3982652493	-1.433444714	
709.375	-0.5494076774	-0.166752024	
710.0	-0.5045113985	0.5368656866	
710.625	0.4695644502	0.264340974	
711.25	0.111585052	0.3520374801	
711.875	0.6306391652	0.1040292119	
712.5	0.7036986394	-0.08337104866	
713.125	0.5039548306	-0.4781521373	
713.75	0.2883927256	-0.4165143635	
714.375	-0.006807061737	-0.8401671333	
715.0	-0.3653066965	-0.06600346988	
715.625	0.7201639522	-0.601388087	
716.25	-0.3556945233	-1.176774707	
716.875	0.5664507968	0.4762387278	
717.5	2.336122391	-0.2947472205	
718.125	0.1904233955	-1.500838946	
718.75	3.128382717	1.319721386	
719.375	0.9518172654	-3.221246686	
720.0	0.5248916927	-0.6486495837	
720.625	1.360700786	-3.529492802	
721.25	-1.906896165	-2.435255924	
721.875	-0.1516618375	-1.35593641	
722.5	-2.135168108	-2.08736066	
723.125	-2.047846569	0.5306803584	
723.75	-0.5646628975	0.6217054714	
724.375	0.06004714269	1.541834099	
725.0	0.6041519082	0.4121492614	
725.625	0.1570326986	0.9113843915	
726.25	-0.1207731213	1.887574979	
726.875	1.25967651	2.735961244	
727.5	-0.6569474932	0.8126971257	
728.125	-1.91145689	7.129468813	
728.75	7.98601853	5.925733833	
729.375	-4.155650473	1.126052184	
730.0	6.061916778	22.3245392	
730.625	6.138030437	-0.1865210569	
731.25	-6.474866231	11.24068416	
731.875	-1.242602539	16.77578234	
732.5	-1.321572566	-1.699489871	
733.125	-9.336132431	1.329361707	
733.75	-0.1276856105	4.644479772	
734.375	1.798124489	-0.3891145574	
735.0	0.7343392591	-1.241894374	
735.625	-1.335199871	1.529257378	
736.25	-0.6059486786	0.4056369324	
736.875	1.47093497	1.864926632	
737.5	2.68741241	-1.197968912	
738.125	1.81216648	0.501144512	
738.75	7.813334317	-2.775945456	
739.375	5.668045579	-9.785695537	
740.0	-5.101897271	-2.541971688	
740.625	9.609740091	22.65162499	
741.25	25.75536267	18.66385657	
741.875	-5.874863437	-27.25116901	
742.5	-13.80263663	-7.86861178	
743.125	-0.9721647389	2.408883954	
743.75	1.282746942	-5.517835466	
744.375	-1.345033867	1.579084315	
745.0	-0.1085242731	-0.1829061519	
745.625	0.3860755044	-0.1264124088	
746.25	-0.2302822494	-0.09032088733	
746.875	-0.335800937	-0.1205612922	
747.5	-0.1972151038	1.223575949	
748.125	0.7203590692	0.9986340598	
748.75	0.1504085881	1.113720316	
749.375	-1.0827753	1.682267376	
750.0	-1.901517821	1.575510794	
