!Created with skrf (http://scikit-rf.org).
# GHz S RI R (50+0j) 
!freq	ReS11	ImS11	
500.0	0.1225085058	-0.3672444472	
500.625	0.713988657	-1.242996964	
501.25	-0.7958495981	-0.4563437164	
501.875	-0.06167573778	-0.4604812602	
502.5	-0.08539423099	-0.1964071713	
503.125	-0.04331072479	0.02048923833	
503.75	-0.04139631475	0.09410592402	
504.375	0.02456169384	-0.04401441846	
505.0	0.0223587339	0.01421898858	
505.625	-0.01212797827	-0.1000939151	
506.25	0.00372160947	0.04248049222	
506.875	-0.3739805657	-0.08170189582	
507.5	-0.2535458946	0.04046029947	
508.125	0.5115330513	-0.6099820127	
508.75	0.6195767094	-1.472112541	
509.375	-0.08448099063	-0.7372555504	
510.0	-0.2763177611	-0.5067879837	
510.625	-0.2196367234	-0.2409761092	
511.25	-0.02366152297	-0.01499244083	
511.875	-0.151792193	-0.1321063014	
512.5	0.002840826774	0.07955115532	
513.125	0.04320855669	-0.05074020464	
513.75	-0.09725576788	-0.1135604697	
514.375	-0.002547185864	0.09320585632	
515.0	0.1256035858	-0.2924076275	
515.625	-0.1118871795	0.243577726	
516.25	0.337228503	-0.8298116984	
516.875	-0.5796290281	-0.4569155133	
517.5	-0.07988734122	0.005024899867	
518.125	-0.06845320427	-0.08237125463	
518.75	-0.01875019957	-0.03246974338	
519.375	-0.0679505722	-0.002428206186	
520.0	0.1513002311	0.08670568072	
520.625	0.1334637175	-0.0694758702	
521.25	0.01233965731	-0.1917746022	
521.875	-0.1546920818	-0.07972668862	
522.5	-0.003746087983	0.09787329225	
523.125	-0.06663363257	-0.08067426475	
523.75	-0.169559071	0.1054329787	
524.375	0.007389710611	-0.02243250861	
525.0	-0.1840975014	0.2128014139	
525.625	0.1408568713	0.007910084576	
526.25	-0.07005144011	0.05874780659	
526.875	0.02223698234	0.03704368456	
527.5	-0.1397966875	0.1084130381	
528.125	0.1263097138	0.355787179	
528.75	0.04316415065	0.1342995029	
529.375	-0.02167147279	0.1164319576	
530.0	0.1280091411	0.1313202917	
530.625	-0.07652468663	0.2338517227	
531.25	0.1786378446	0.2643521139	
531.875	0.1116456073	-0.2536478247	
532.5	0.09516898169	-0.09211763784	
533.125	-0.03622430387	-0.1846334716	
533.75	0.08793405285	-0.01266091915	
534.375	-0.14662313	-0.3933926188	
535.0	-0.2070716298	-0.003877217104	
535.625	-0.1646788303	0.03561206376	
536.25	-0.002608159291	0.139399679	
536.875	0.05953786253	-0.0164795652	
537.5	0.1050654554	-0.01783559063	
538.125	0.09502505187	-0.1263473569	
538.75	0.117511639	-0.0743822702	
539.375	-0.07481667097	-0.2273991558	
540.0	-0.2208838104	-0.08022706737	
540.625	-0.09088189886	-0.05907164425	
541.25	-0.06356753684	-0.07059650181	
541.875	-0.02368519249	0.02592241915	
542.5	-0.007608532957	-0.1039610888	
543.125	-0.1174897748	0.01961825879	
543.75	0.04387547708	0.01256950548	
544.375	-0.09691244095	0.07586006347	
545.0	0.02997822037	0.01606618766	
545.625	-0.004247081994	0.1278594583	
546.25	0.1467091276	-0.01207442224	
546.875	0.05355041569	0.006322249121	
547.5	0.115350994	-0.1652341786	
548.125	-0.1028139663	-0.1339178835	
548.75	-0.04601087985	-0.09833856945	
549.375	-0.1490017315	-0.1112351442	
550.0	-0.05424383342	0.05369963271	
550.625	-0.06729368138	-0.03533872398	
551.25	-0.06818398957	0.06968055651	
551.875	-0.06483435682	0.03548327551	
552.5	-0.05806285266	0.1065652849	
553.125	0.004695680081	0.05262083118	
553.75	0.03697605159	0.05938039385	
554.375	0.10009356	-0.01393621745	
555.0	0.09779753633	-0.06840396069	
555.625	0.09726776374	-0.1142134159	
556.25	0.06408989401	-0.1522948194	
556.875	-0.03978466184	-0.1600439513	
557.5	-0.1027318511	-0.1120375272	
558.125	-0.1261688405	-0.04068833388	
558.75	-0.1138439145	0.004071798334	
559.375	-0.1122263929	0.0155673838	
560.0	-0.1097897187	0.08909156328	
560.625	-0.02876813606	0.1115213932	
561.25	-0.01767909373	0.09770713939	
561.875	0.06141978369	0.05761701873	
562.5	-0.01901541285	0.03428250476	
563.125	0.1068352322	0.1019156476	
563.75	0.1209346006	-0.03841420209	
564.375	0.1524684651	-0.05741705354	
565.0	0.06841759558	-0.2042458578	
565.625	-0.06526352323	-0.1027097401	
566.25	-0.08045689841	-0.165030314	
566.875	-0.2228687737	-0.02806487897	
567.5	-0.07123863832	-0.08579282761	
568.125	-0.1832597937	-0.2420364757	
568.75	-0.2324570551	-0.003472449955	
569.375	-0.2118648954	-0.02639837124	
570.0	-0.1816912724	0.2913964789	
570.625	0.05104352558	0.1452815398	
571.25	-0.0841415016	0.1014471304	
571.875	0.1775430767	0.05943274713	
572.5	0.02928186351	0.03679187656	
573.125	0.1878200493	-0.164480621	
573.75	-0.04722237284	-0.1519420972	
574.375	0.09270667031	0.02749392815	
575.0	0.02539529782	-0.146554795	
575.625	0.01474022186	0.0213934777	
576.25	0.1333017197	-0.1536340519	
576.875	-0.09457638256	-0.1626239141	
577.5	0.02214959174	-0.07274545152	
578.125	0.04101743497	-0.2747907624	
578.75	-0.1941360225	-0.086248731	
579.375	0.05259166991	-0.002991180319	
580.0	-0.1211769347	-0.1412410118	
580.625	0.00193027332	0.08316753835	
581.25	-0.1789158791	-0.01478851862	
581.875	0.1542699931	0.2599062624	
582.5	0.08389250305	0.01356171584	
583.125	-0.01121372003	0.1407583312	
583.75	0.1604905764	-0.03500706613	
584.375	-0.08885847971	0.126945206	
585.0	0.2230920609	0.05658030172	
585.625	0.08028976184	-0.06637212474	
586.25	0.1741679134	0.02818072778	
586.875	0.03055042959	-0.2434680218	
587.5	-0.04402448645	-0.04870657493	
588.125	0.06255754098	-0.1839331636	
588.75	-0.0452764016	-0.2143465971	
589.375	0.02825733389	-0.03385777441	
590.0	-0.04464989607	-0.2914325136	
590.625	-0.1957026389	0.06309540966	
591.25	-0.1041186431	-0.005023320237	
591.875	-0.1114036058	0.2256359548	
592.5	0.126542683	-0.03914027234	
593.125	-0.1279733903	0.1290809234	
593.75	0.1156366221	0.0245258962	
594.375	0.05437555572	0.1851561536	
595.0	0.2531196493	0.1727731603	
595.625	0.187524483	-0.04674956176	
596.25	0.1430797715	0.1365954995	
596.875	0.2517728114	0.00865013984	
597.5	0.09099900455	0.02659719221	
598.125	0.1138887289	0.1942261545	
598.75	0.2744037941	0.03567125691	
599.375	0.1621023756	-0.02153779425	
600.0	0.2339315746	-0.1235532884	
600.625	0.1182057163	-0.2770615085	
601.25	-0.01545879635	-0.1195780523	
601.875	-0.006726242017	-0.2368806318	
602.5	-0.1880472538	0.07535562091	
603.125	-0.03640775999	-0.01634874908	
603.75	-0.2578663482	0.1402675606	
604.375	-0.003640280562	0.1579616158	
605.0	-0.2344586036	0.0299063927	
605.625	-0.09512681627	0.1829883548	
606.25	-0.004861192889	0.02942692628	
606.875	-0.2784914477	0.02636792007	
607.5	-0.06816661647	0.181833051	
608.125	-0.04284957278	0.1648336676	
608.75	0.2227009282	0.172478133	
609.375	0.2669779963	-0.1524077652	
610.0	0.1623797803	-0.1741673091	
610.625	0.1693863728	-0.2120535308	
611.25	-0.1112844256	-0.160889862	
611.875	0.02207305709	-0.1151081165	
612.5	-0.2615870827	-0.1444818172	
613.125	-0.09632706794	0.13602605	
613.75	-0.158821109	0.05004962956	
614.375	0.1317390759	0.2158298855	
615.0	-0.006601330573	-0.08180836382	
615.625	-0.0008943383853	0.2149166076	
616.25	0.08577900688	0.1028584721	
616.875	-0.1525225852	0.1845983649	
617.5	-0.054913447	0.3128116661	
618.125	0.1122474692	0.1983759392	
618.75	-0.05085284717	0.1639095025	
619.375	0.05272897501	0.1501082232	
620.0	0.2686680237	0.004728688061	
620.625	0.1573620687	-0.1079517317	
621.25	-0.1809363063	-0.2541452318	
621.875	-0.2481087601	0.05111511405	
622.5	-0.1909146119	-0.01938538604	
623.125	-0.05915578005	0.3197691275	
623.75	0.1191064425	-0.04424868023	
624.375	0.08871296246	0.04176958749	
625.0	-0.04101462113	-0.0925149312	
625.625	0.08496854636	-0.02484678766	
626.25	-0.08654323226	-0.2198118538	
626.875	-0.1440210795	0.01076090884	
627.5	-0.0925321213	-0.122538532	
628.125	-0.1643768415	-0.06765445547	
628.75	-0.05548539816	-0.05553379587	
629.375	-0.04932299063	-0.2262998024	
630.0	-0.2485911895	-0.1075590029	
630.625	-0.182383752	0.153108681	
631.25	-0.189304084	0.1883226072	
631.875	0.04059734986	0.3035194535	
632.5	0.1230540313	0.1264222369	
633.125	0.1422631772	0.18338829	
633.75	0.1831848082	-0.1776723048	
634.375	0.04595365749	-0.0585878089	
635.0	0.05571893309	-0.2689102495	
635.625	-0.1946997205	-0.005312897023	
636.25	-0.0700225584	-0.008860869757	
636.875	-0.1494056096	0.2053297896	
637.5	0.06361266984	0.06830410508	
638.125	-0.1586800297	0.0513683365	
638.75	-0.02197217295	0.2833099729	
639.375	0.007165843314	0.135394782	
640.0	0.09598902104	0.3509280046	
640.625	0.3529886807	0.1150222652	
641.25	0.1938892799	-0.05523781735	
641.875	0.2820198335	-0.1263819732	
642.5	-0.1198941084	-0.2993563175	
643.125	-0.03577718141	-0.04039901964	
643.75	-0.1151355262	-0.290159251	
644.375	-0.2042857186	0.1572512669	
645.0	-0.1791109837	0.01082402848	
645.625	0.06827409369	0.4469787507	
646.25	0.2225709694	-0.1626479077	
646.875	0.03432055432	0.1465737341	
647.5	0.2105994458	-0.06649763886	
648.125	-0.07545368481	0.1201516054	
648.75	0.4484454235	-0.05147495683	
649.375	0.06859027646	-0.3892322235	
650.0	0.1359593904	-0.146748067	
650.625	0.3321594735	-0.3680607489	
651.25	0.03288238076	-0.3442746931	
651.875	0.2254799682	0.04706780012	
652.5	0.4456107655	-0.155505238	
653.125	0.139218587	-0.2198028576	
653.75	0.2582072799	-0.08928888896	
654.375	-0.1162432365	-0.4719022069	
655.0	-0.2737674368	0.06914638178	
655.625	-0.1311843752	-0.05005823269	
656.25	0.02805103452	0.3423857624	
656.875	0.1203561348	-0.2608493465	
657.5	-0.02676019963	0.2882381641	
658.125	0.2475379831	0.06475983204	
658.75	0.1115003048	0.1087372883	
659.375	0.599401255	-0.1182004007	
660.0	0.0817978602	-0.4301638825	
660.625	0.1457903638	-0.1848970344	
661.25	0.2797019512	-0.3767824952	
661.875	0.1136841319	-0.3862252765	
662.5	0.2028873956	-0.05297583751	
663.125	0.3997775135	-0.2730521871	
663.75	0.02605869622	-0.3042421551	
664.375	0.07355670676	-0.2946621087	
665.0	-0.3735936758	-0.3048262004	
665.625	-0.2361380973	0.2138958874	
666.25	-0.1639085789	0.1596708902	
666.875	0.1753688108	0.3204961206	
667.5	0.1863492025	-0.04345361538	
668.125	0.2153825229	0.20010708	
668.75	0.2275844373	-0.2959573883	
669.375	-0.01457106977	-0.04783126759	
670.0	0.1507442327	-0.2450279276	
670.625	-0.1598204432	-0.2995075906	
671.25	0.05420876508	-0.03091661912	
671.875	0.234611861	-0.3527549287	
672.5	0.1146089884	-0.2310875011	
673.125	0.1713425252	-0.07801665152	
673.75	0.2916853085	-0.293206498	
674.375	-0.11957701	-0.2543268205	
675.0	0.0281134824	-0.1940756027	
675.625	-0.2802507315	-0.2187335833	
676.25	-0.1719209598	0.1048124443	
676.875	-0.1051829576	-0.1210831564	
677.5	-0.2815054037	0.1226369718	
678.125	-0.00214122172	0.1091380927	
678.75	-0.1079054876	0.2333176968	
679.375	0.4790418215	0.1127750167	
680.0	-0.06623478233	-0.1435844642	
680.625	0.2003192966	0.02300122585	
681.25	0.05273901332	-0.2928111823	
681.875	-0.07910999807	0.2055801725	
682.5	0.5680264007	0.1571381629	
683.125	0.1769936314	-0.1840709727	
683.75	0.1633085918	0.2401890909	
684.375	0.4484865165	0.122560351	
685.0	0.1358444722	-0.1351802633	
685.625	0.2070604949	0.2486681436	
686.25	0.5106608278	-0.1578189124	
686.875	0.1470674838	-0.1631717055	
687.5	0.3927157559	-0.2297404814	
688.125	-0.1555597051	-0.6453002487	
688.75	-0.2880516196	0.0001761034317	
689.375	-0.4316872087	0.223027455	
690.0	0.2358824344	0.4909509214	
690.625	0.1500751146	0.05685463317	
691.25	0.3162227914	0.5317804297	
691.875	0.651089552	0.01496761101	
692.5	0.3765119406	0.2365540525	
693.125	1.067551236	0.02688688513	
693.75	0.5527522024	-0.5363291886	
694.375	0.3122161375	-0.1672096393	
695.0	0.6479921869	-0.4090048293	
695.625	0.3831262354	-0.2006192	
696.25	0.3303747793	0.1985662113	
696.875	0.5745403705	0.5629560196	
697.5	0.4469344929	0.2865602219	
698.125	0.436143053	0.3370410163	
698.75	0.5525825613	-0.4352031052	
699.375	-0.5765006292	-0.254885505	
700.0	-0.2090762764	0.1668007649	
700.625	0.06725134838	0.4724066024	
701.25	0.2228121697	0.006206850071	
701.875	0.1352888516	0.3346196678	
702.5	0.5584527271	0.3036898976	
703.125	0.3017595275	-0.05298148168	
703.75	0.5230946821	0.02436598832	
704.375	0.3754703836	-0.3348089819	
705.0	0.07640052898	-0.1653129468	
705.625	0.3274535402	0.1255684256	
706.25	0.2252365399	0.08664322207	
706.875	0.1309682206	0.2410928142	
707.5	0.258400763	0.4779513933	
708.125	0.5125484002	0.1156216986	
708.75	0.2216160715	-0.4502411538	
709.375	-0.2600421016	-0.4192873891	
710.0	-0.1731869924	0.3300656054	
710.625	0.1289331321	-0.03443582923	
711.25	0.07271745048	0.3114519092	
711.875	0.2060496961	-0.04247612058	
712.5	0.3034134285	0.1269388758	
713.125	0.3791239113	-0.2571675374	
713.75	0.005044340693	-0.2721072904	
714.375	0.1202847018	-0.2000626604	
715.0	-0.0794731764	-0.3298528226	
715.625	-0.04751060481	-0.112757755	
716.25	0.3115883958	-0.1955431461	
716.875	0.374081631	-0.2806732585	
717.5	0.2940616425	-0.0237639583	
718.125	0.8076513602	0.2406070476	
718.75	0.9722282707	-0.1183142498	
719.375	0.4256519519	-0.2595940004	
720.0	0.9045032966	-0.009715565743	
720.625	-0.1194242084	-1.135925728	
721.25	-0.03436396131	-0.2454581122	
721.875	0.108332844	-1.489015456	
722.5	-0.9600253101	-0.5979578598	
723.125	-0.5218729603	-0.3048752304	
723.75	-0.7812714951	0.581581576	
724.375	0.2512849992	0.3981880706	
725.0	-0.05500828407	0.3140748294	
725.625	0.2342369254	0.7067021228	
726.25	0.2466401215	0.4517641528	
726.875	-0.3963282516	0.8341847919	
727.5	-0.2513044794	1.800396455	
728.125	0.6597066042	1.609238118	
728.75	-1.012600151	2.019702498	
729.375	-0.7695209203	5.079908859	
730.0	1.402798448	2.815406143	
730.625	-0.9821090938	1.937373667	
731.25	-1.182919047	5.238277239	
731.875	0.08332989568	2.664665837	
732.5	-3.945194247	0.07434777341	
733.125	-3.631537341	1.308752274	
733.75	-0.0433109071	1.262440603	
734.375	0.2564177428	1.157166388	
735.0	-0.40240992	-1.09330018	
735.625	-0.1276450672	0.02484081791	
736.25	-0.3902767284	0.6623625379	
736.875	0.8803909063	0.4929560359	
737.5	0.3843772379	0.1078107176	
738.125	2.452979654	0.2335839296	
738.75	1.594363297	-2.318383333	
739.375	0.6060418891	-0.7642777136	
740.0	5.025083131	0.4383156308	
740.625	5.028527176	-3.860485763	
741.25	-2.854820585	-0.3868671645	
741.875	-5.680258005	1.015877101	
742.5	-2.54944329	0.2514957563	
743.125	1.575398964	-1.068509418	
743.75	-0.3225211271	-1.785681692	
744.375	-0.3167909205	0.1901413335	
745.0	-0.1559906507	0.03869056287	
745.625	0.1006496046	-0.2122291255	
746.25	0.08347888077	-0.0875076862	
746.875	-0.3352071887	0.002027254811	
747.5	0.04728719595	0.3593787494	
748.125	-0.0180240903	0.3886307346	
748.75	0.3275330718	0.7342288269	
749.375	0.2572590207	0.4597351381	
750.0	-0.4043792671	0.192340896	
