!Created with skrf (http://scikit-rf.org).
# GHz S RI R (50+0j) 
!freq	ReS11	ImS11	
500.0	0.2824002127	-1.481260124	
500.625	-0.0525313262	-0.4390722446	
501.25	-0.07479569979	-0.8573430052	
501.875	-0.3712803043	-0.3418531476	
502.5	0.04010284534	-0.063293145	
503.125	-0.09510958991	-0.009558160775	
503.75	0.05022256418	0.01649438104	
504.375	0.03460246941	0.02443415138	
505.0	-0.005177563269	-0.04290083385	
505.625	0.03663787757	-0.006545310263	
506.25	-0.1208429184	-0.1067552087	
506.875	0.08740843939	0.02606914794	
507.5	0.03562794715	-0.5880595841	
508.125	-0.1805187005	-0.6242451889	
508.75	0.5723551432	-0.3623019564	
509.375	-0.3700167028	-1.208568693	
510.0	-0.4238795126	-0.1039538695	
510.625	0.04813959603	-0.1495321257	
511.25	-0.1269631774	-0.009352928067	
511.875	-0.03307275166	-0.0380576592	
512.5	-0.03427334706	0.01822652323	
513.125	-0.03717576725	-0.07615208207	
513.75	0.0003490311392	-0.00013134111	
514.375	-0.132301979	-0.1274008173	
515.0	-0.02751066805	0.2720357128	
515.625	-0.01072937627	-0.7197009638	
516.25	-0.5956223684	-0.2419140527	
516.875	0.1748985004	-0.5522628929	
517.5	-0.06613440448	-0.2583546106	
518.125	-0.005233997566	0.0348615934	
518.75	-0.01667837928	-0.2019638209	
519.375	-0.0321598973	0.04254845993	
520.0	0.05150832649	0.03205505045	
520.625	0.1581440998	-0.02172862773	
521.25	-0.0878012621	-0.293596345	
521.875	-0.1468007597	0.01890027958	
522.5	-0.07609744537	-0.0250000874	
523.125	0.01915955083	0.1037807705	
523.75	-0.05475030546	-0.1286999874	
524.375	-0.2620575426	0.1280327608	
525.0	0.0667359917	0.02842032481	
525.625	-0.04679578151	0.1021663341	
526.25	0.05242187901	-0.07050627919	
526.875	-0.1099996799	0.07348548927	
527.5	0.07363444203	0.1509942017	
528.125	-0.03740664352	0.2228061403	
528.75	-0.03940603584	0.2845745772	
529.375	0.03119190074	0.03686459552	
530.0	-0.1065488201	0.1857134571	
530.625	0.1325628323	0.2734077013	
531.25	0.3578834174	-0.0397965621	
531.875	0.28914098	-0.06370404369	
532.5	-0.1501220279	-0.1152495404	
533.125	0.09954055163	0.117386247	
533.75	0.03164159763	-0.2462818846	
534.375	-0.0216949297	-0.1245795962	
535.0	-0.2128047802	-0.1821943826	
535.625	-0.1211517999	0.1548183084	
536.25	-0.01871225986	0.05065029337	
536.875	0.1114151662	0.03568632701	
537.5	0.0257436508	-0.05955336	
538.125	0.1251645847	0.002267961912	
538.75	0.1063100924	-0.1503549851	
539.375	-0.04902664952	-0.09283729605	
540.0	-0.1234230093	-0.175875279	
540.625	-0.1725647648	-0.01443783761	
541.25	-0.07057835523	0.04606324062	
541.875	-0.05350103022	-0.05454570557	
542.5	-0.03368978209	0.007038336363	
543.125	0.01407075768	-0.06030043605	
543.75	-0.1690851194	-0.005163497691	
544.375	0.02506575227	-0.003858942768	
545.0	-0.04296708512	0.08960749004	
545.625	0.08344383698	0.002770372642	
546.25	0.04928857126	0.08092289857	
546.875	0.1733258436	-0.0586389766	
547.5	0.01444212652	-0.07656779492	
548.125	0.02050284369	-0.161047879	
548.75	-0.1695621189	-0.1152686911	
549.375	-0.06148494586	-0.02009977903	
550.0	-0.09553083039	-0.03227198345	
550.625	-0.03508128627	0.03793832115	
551.25	-0.08358117712	-0.01099605047	
551.875	-0.08046566011	0.08581088252	
552.5	-0.02734925136	0.05054863559	
553.125	-0.035248931	0.05750361916	
553.75	0.05039481919	0.03445106304	
554.375	0.07510873966	0.01356266234	
555.0	0.09830676557	-0.06731587016	
555.625	0.07429006257	-0.09516117592	
556.25	0.0642961935	-0.1226012391	
556.875	-0.02723197659	-0.1487818528	
557.5	-0.09037751413	-0.09338407601	
558.125	-0.1008815313	-0.03743714353	
558.75	-0.1031846898	-0.008076706829	
559.375	-0.1052259236	0.02712709503	
560.0	-0.07927486888	0.06239912785	
560.625	-0.06692710639	0.1026876881	
561.25	0.02849803574	0.09735650429	
561.875	-0.003907239175	0.02708349424	
562.5	0.03662189102	0.06629187005	
563.125	0.03412648683	0.04621852289	
563.75	0.1549869825	0.02894491167	
564.375	0.1033212029	-0.12854973	
565.0	0.05950718265	-0.09052060343	
565.625	-0.002979221698	-0.1964228236	
566.25	-0.1249875731	-0.05999981561	
566.875	-0.04032499968	-0.1055373908	
567.5	-0.1856317793	-0.1330795547	
568.125	-0.1125181476	-0.07360703226	
568.75	-0.201437565	-0.1798670289	
569.375	-0.2260500902	0.1778232049	
570.0	-0.06564753931	0.1117415814	
570.625	-0.1225514029	0.1742246162	
571.25	0.0814004367	0.117121637	
571.875	-0.04294375644	0.07993135761	
572.5	0.1968346232	-0.0227495837	
573.125	-0.003996247229	-0.08518669418	
573.75	0.1356738626	-0.05781470956	
574.375	-0.04260327553	-0.1473637188	
575.0	0.02724421984	0.04880262017	
575.625	0.05398831309	-0.1436478781	
576.25	-0.02736743751	-0.06501837057	
576.875	0.09798360105	-0.1025220101	
577.5	-0.01350439145	-0.2345122506	
578.125	-0.1050002255	-0.06256904049	
578.75	0.01091626805	-0.1123442746	
579.375	-0.1953240159	-0.1654420735	
580.0	-0.001512651533	0.09322355681	
580.625	-0.1090670043	-0.1189120025	
581.25	-0.006577729179	0.1617398025	
581.875	-0.07597935427	0.04296102004	
582.5	0.02445312162	0.2334281196	
583.125	0.1579572936	-0.0135727866	
583.75	-0.06915867519	0.07888009143	
584.375	0.135475865	0.03812322463	
585.0	-0.02792342981	0.05025260134	
585.625	0.2104508297	0.07538010073	
586.25	0.09917792511	-0.1448736643	
586.875	0.06756040346	-0.03581862545	
587.5	0.02561320926	-0.1974951142	
588.125	-0.09405993077	-0.1031556923	
588.75	0.09613506429	-0.0534095733	
589.375	0.07522042236	-0.2380502194	
590.0	-0.1019461064	-0.04514592534	
590.625	-0.107831888	-0.1392873628	
591.25	-0.1820083841	0.2389863859	
591.875	0.05395124202	0.04343791913	
592.5	-0.1092533422	0.1581393672	
593.125	0.07171715033	-0.02781501629	
593.75	-0.0228503774	0.2252539599	
594.375	0.2458129976	0.05217964546	
595.0	0.0625677798	0.03825960624	
595.625	0.1533428145	0.1507702148	
596.25	0.1976176291	-0.03125514766	
596.875	0.05464625551	0.006668240848	
597.5	0.2074967235	0.1031070843	
598.125	0.1671074156	0.02419634125	
598.75	0.1033432309	0.1020611022	
599.375	0.2379528172	-0.02973061744	
600.0	0.09187517727	-0.1763442598	
600.625	0.1157245872	-0.08344786211	
601.25	0.1180651837	-0.2292058392	
601.875	-0.1516941395	-0.08888168884	
602.5	0.01414059628	-0.1261975753	
603.125	-0.2080775534	0.1061143699	
603.75	0.003816150874	0.07901515063	
604.375	-0.1657917143	-0.003032435397	
605.0	0.02828001	0.1792054273	
605.625	-0.01577516337	-0.04812178155	
606.25	-0.1974011996	0.1114568183	
606.875	-0.06928192798	0.05048417541	
607.5	-0.1919422919	0.1071480595	
608.125	-0.04647443778	0.2942486688	
608.75	0.1980739984	0.07220136927	
609.375	0.1748817777	0.0325932017	
610.0	0.1750464953	-0.09502265598	
610.625	-0.008394746047	-0.1396393377	
611.25	0.09670444874	-0.1155337472	
611.875	-0.1530482005	-0.1628990677	
612.5	-0.06818782527	0.008999211844	
613.125	-0.2384212706	-0.07825153014	
613.75	-0.06384859949	0.249935839	
614.375	0.02489367886	-0.02926077636	
615.0	0.031172134	0.1709628104	
615.625	-0.05621477774	-0.01948530253	
616.25	-0.1495937996	0.1281258504	
616.875	-0.06412093584	0.299620169	
617.5	0.02922366251	0.09676580263	
618.125	0.07060915843	0.1999466222	
618.75	0.06768728999	0.1790353675	
619.375	0.06310482539	0.08882430969	
620.0	0.1631279744	0.1014220921	
620.625	0.1711520875	-0.2185240652	
621.25	-0.07220743006	-0.1116176561	
621.875	-0.1480074106	-0.1499371895	
622.5	-0.2295153679	0.1256294942	
623.125	0.04736304818	0.07385031936	
623.75	0.1057657646	0.1283278435	
624.375	0.005625812441	-0.1228977834	
625.0	0.06847061034	0.05007310193	
625.625	0.03656737949	-0.1582088208	
626.25	-0.03718439531	-0.03542870958	
626.875	-0.1040668366	-0.1617133001	
627.5	-0.178830624	-0.001392021025	
628.125	-0.0560863414	-0.03466141023	
628.75	-0.04885358611	-0.1626027948	
629.375	-0.1211687453	-0.09670789591	
630.0	-0.139985954	-0.04457306144	
630.625	-0.2327922755	-0.007740398806	
631.25	-0.1263618748	0.2174891296	
631.875	-0.03588291509	0.1622378453	
632.5	0.0700291852	0.2845374584	
633.125	0.2492226529	-0.0252497736	
633.75	0.03707522989	0.02662069299	
634.375	0.152885001	-0.1723799201	
635.0	-0.08994534862	-0.08388316785	
635.625	-0.05297164508	-0.1546576225	
636.25	-0.2259077564	0.1250261167	
636.875	0.01508538395	0.08619407474	
637.5	-0.1210358833	0.04103898588	
638.125	-0.003260764177	0.1802948111	
638.75	-0.08049923247	0.04580058125	
639.375	-0.06929237918	0.300351983	
640.0	0.1957437146	0.1932662668	
640.625	0.1550399554	0.08017804842	
641.25	0.3357227258	0.05562597022	
641.875	0.1507199493	-0.2817100188	
642.5	0.03900175848	-0.1114901711	
643.125	-0.08246629617	-0.2561512551	
643.75	-0.1974148458	0.07983332103	
644.375	-0.1111809429	-0.1564676638	
645.0	-0.2336265692	0.2462575592	
645.625	0.1797568351	0.03202607328	
646.25	0.005304083364	0.1678412031	
646.875	0.3108803688	-0.1198684899	
647.5	-0.1324626505	0.05861513056	
648.125	0.3041639991	0.06592712624	
648.75	0.1292730628	-0.1440454276	
649.375	0.2206536853	-0.007164281627	
650.0	0.2497603133	-0.4361137709	
650.625	-0.01959736471	-0.2352011952	
651.25	0.262778932	-0.06569892159	
651.875	0.3441748015	-0.2351672605	
652.5	0.1167008085	-0.1447074609	
653.125	0.2777086722	0.03726104423	
653.75	0.2248956139	-0.3133590107	
654.375	-0.1744888382	-0.127903044	
655.0	-0.1184184299	-0.2395906762	
655.625	-0.2419345676	0.2939795532	
656.25	0.1125229819	0.03213685479	
656.875	-0.1191791168	0.2128937246	
657.5	0.1821524393	0.02792473984	
658.125	-0.0884608947	0.1589390707	
658.75	0.5139611568	0.1248706333	
659.375	0.1604217691	-0.2232325213	
660.0	0.2572354856	-0.1241774412	
660.625	0.2313261801	-0.3918255683	
661.25	-0.04361586576	-0.2886584334	
661.875	0.2543654926	-0.09085437286	
662.5	0.3174626315	-0.2894915735	
663.125	0.1329428408	-0.1975863518	
663.75	0.2376739722	-0.1541032915	
664.375	-0.06272600509	-0.4200886864	
665.0	-0.2228894458	-0.09279892187	
665.625	-0.2909669221	-0.04037453832	
666.25	-0.1244427072	0.329613552	
666.875	0.1619938571	0.01501687189	
667.5	0.1002855199	0.2261909658	
668.125	0.2680647281	-0.08641579119	
668.75	0.07664603094	-0.07279151977	
669.375	0.2864804053	-0.227168621	
670.0	-0.149432946	-0.2731211016	
670.625	0.05022584713	-0.05040635559	
671.25	0.1002105804	-0.279642852	
671.875	0.007671895918	-0.1662615249	
672.5	0.2005058386	0.008054235613	
673.125	0.2889095239	-0.234212385	
673.75	0.04276717417	-0.190340551	
674.375	0.1503037389	-0.1844281571	
675.0	-0.08495012945	-0.3374860744	
675.625	-0.1994981555	-0.003666944395	
676.25	-0.08345132462	-0.1381538471	
676.875	-0.2298446014	0.04139858087	
677.5	-0.0376821023	0.05181869776	
678.125	-0.2325022212	0.0459882462	
678.75	0.1582581336	0.337467121	
679.375	0.03541020243	-0.04358590955	
680.0	0.2255527214	0.06404774066	
680.625	0.04827597614	-0.2810008742	
681.25	-0.06547455636	0.2032315722	
681.875	0.3560462056	0.09382746686	
682.5	-0.02510795928	-0.06633022406	
683.125	0.1118376878	0.2170270968	
683.75	0.4230237386	0.1412120961	
684.375	0.03007898353	-0.06478463037	
685.0	0.2598431314	0.2547128247	
685.625	0.3693700827	-0.0709027014	
686.25	0.1451263886	-0.09555358687	
686.875	0.4288118387	-0.01700340413	
687.5	0.170810128	-0.4071461133	
688.125	0.001700482033	-0.2197408537	
688.75	-0.3254800179	-0.330350178	
689.375	-0.3608013267	0.401966817	
690.0	0.1135104292	0.1389006884	
690.625	0.147365864	0.5506453729	
691.25	0.4388570618	0.08338861216	
691.875	0.1991314257	0.2546416604	
692.5	0.6836559364	0.3965401052	
693.125	0.3652724167	-0.2607273665	
693.75	0.4477260854	0.001253662072	
694.375	0.5655404925	-0.4237932958	
695.0	0.2025270842	-0.1914771982	
695.625	0.3074981921	0.1204577115	
696.25	0.3872563478	-0.02862042381	
696.875	0.2766364222	0.2637165207	
697.5	0.1885011745	0.4481273813	
698.125	0.5444963134	0.3513232828	
698.75	0.5131917381	-0.399626322	
699.375	-0.1437507629	-0.3959309782	
700.0	-0.4287125702	0.2379066515	
700.625	0.2314633444	0.2001925049	
701.25	-0.01115320705	0.2129832375	
701.875	0.4110241877	0.2869273238	
702.5	0.1762068457	0.07054388127	
703.125	0.3256419504	0.2547392605	
703.75	0.3998946637	-0.234082502	
704.375	0.05891229941	-0.1283164807	
705.0	0.3498051042	0.008108763497	
705.625	0.1455347375	-0.04289992835	
706.25	0.1548394456	0.1917264422	
706.875	0.1698642218	0.3133028644	
707.5	0.241657076	0.2504494952	
708.125	0.4458513585	0.08778427654	
708.75	0.3581585527	-0.264797927	
709.375	-0.318136023	-0.4513558274	
710.0	-0.07632886136	0.1700275435	
710.625	-0.02146316015	0.2750638213	
711.25	0.1134768606	-0.004204821895	
711.875	0.09969481854	0.1873441953	
712.5	0.4038685242	-0.01981524499	
713.125	0.1024573403	-0.1928619704	
713.75	0.2012459353	-0.1133988251	
714.375	0.01768456547	-0.2948140767	
715.0	-0.07715008066	-0.08526621168	
715.625	0.1525636094	-0.1910942992	
716.25	0.1011975957	-0.2816170379	
716.875	0.213417975	-0.1007458386	
717.5	0.4548356479	0.1037598804	
718.125	0.5827879735	-0.06061615985	
718.75	0.5076426198	-0.08302881218	
719.375	0.9534307848	-0.3009814027	
720.0	0.604503887	-1.238521423	
720.625	0.07154542653	-0.5071384068	
721.25	0.3804643799	-1.085884374	
721.875	-0.6357611978	-0.9187927406	
722.5	0.009053225989	-0.547082287	
723.125	-0.8900504945	-0.3466929887	
723.75	-0.1922147429	0.5237583981	
724.375	-0.1085610735	0.2226522649	
725.0	0.2125660904	0.557062092	
725.625	0.2364648033	0.1733028925	
726.25	-0.1696209923	0.5562991648	
726.875	-0.08189027897	1.046625765	
727.5	0.269305955	1.051353871	
728.125	-0.5997816752	1.194723047	
728.75	-0.07606852672	2.812199155	
729.375	0.3968541305	2.601654171	
730.0	-1.332963164	2.898662296	
730.625	-0.8361315601	5.361502376	
731.25	0.4593191943	2.658239309	
731.875	-2.978106418	1.536257995	
732.5	-4.497488566	1.046968919	
733.125	-1.019570236	1.034916668	
733.75	-1.393630773	0.3504031941	
734.375	1.183751947	0.5142557065	
735.0	-0.1262926859	-0.2967872477	
735.625	-0.5942305836	-0.2950078927	
736.25	0.2273272502	0.7299661533	
736.875	0.01522872802	0.2215651745	
737.5	1.155180065	0.5674466526	
738.125	1.26944174	-0.8814021666	
738.75	0.5886090569	-0.6176110976	
739.375	3.13624259	-0.3093497261	
740.0	2.924766689	-4.273116067	
740.625	-0.7323311823	0.3253773887	
741.25	-0.2495497856	5.047961814	
741.875	-0.2831439071	2.55128247	
742.5	0.4280380689	-2.787493941	
743.125	0.2004620432	-2.404958243	
743.75	-0.5957136215	-0.6382690433	
744.375	0.02661645002	-0.2183665664	
745.0	0.1182637683	0.3983192206	
745.625	-0.08521802542	0.0561131489	
746.25	0.002951223856	-0.2500335827	
746.875	-0.1786921793	0.1100586213	
747.5	-0.1339395963	0.1927113298	
748.125	0.08012039266	0.5805734736	
748.75	0.3113575101	0.2434922472	
749.375	0.006665964711	0.3566007307	
750.0	-0.425563205	0.2300965811	
