!Created with skrf (http://scikit-rf.org).
# GHz S RI R (50+0j) 
!freq	ReS11	ImS11	
500.0	-0.2193984942	-1.01307216	
500.625	0.7530615885	-0.5155707608	
501.25	-0.6162197918	-0.9705401743	
501.875	-0.2399519659	-0.1535988982	
502.5	0.01273625961	-0.1769707492	
503.125	-0.08624203508	0.03594816479	
503.75	-0.03909315104	0.01427204929	
504.375	0.05904386599	0.001643062272	
505.0	-0.01330377048	-0.01654310002	
505.625	0.05596481325	-0.08084055747	
506.25	-0.1471253106	-0.005897576941	
506.875	0.0226537256	-0.1927301256	
507.5	-0.4269744522	-0.5370870659	
508.125	0.04326163325	-0.2441872303	
508.75	1.09617818	-1.228435236	
509.375	-0.4448485118	-1.489570849	
510.0	-0.3496498293	-0.1767743857	
510.625	-0.07476497412	-0.3386594583	
511.25	-0.1209585038	-0.04236538069	
511.875	-0.05504195957	-0.1325689804	
512.5	-0.03230428129	0.08888415905	
513.125	-0.02923405946	-0.02222393591	
513.75	0.008184315257	-0.1019622441	
514.375	-0.1722572438	0.009243635398	
515.0	0.4171697481	-0.03913610404	
515.625	-0.4847033675	-0.4263505192	
516.25	0.4316234608	-0.3319297801	
516.875	0.05368120708	-0.796897569	
517.5	-0.1788610083	-0.1632657962	
518.125	0.05139967652	-0.03389091602	
518.75	-0.1734140452	-0.2175256803	
519.375	-0.01649395626	0.03121269303	
520.0	0.09125220206	0.09940823171	
520.625	0.1943462007	-0.08540139998	
521.25	-0.1009306356	-0.2033138596	
521.875	-0.06506190612	-0.09345108949	
522.5	-0.09261232898	0.0301908281	
523.125	0.04200203855	-0.04817715276	
523.75	-0.1611499215	-0.1385173889	
524.375	-0.07904509771	0.1521695588	
525.0	-0.108219176	0.00506511396	
525.625	0.05783460415	0.1606889394	
526.25	-0.04686495077	-0.1066211662	
526.875	-0.04537310317	0.1277620476	
527.5	-0.0196530999	0.08110299626	
528.125	-0.0312964203	0.3604242171	
528.75	0.1175886146	0.2670523274	
529.375	-0.03629551176	-0.02280482254	
530.0	0.08701486295	0.3462060709	
530.625	0.1134282958	0.5230602053	
531.25	0.3486043692	0.2786693186	
531.875	0.33907525	-0.3349481818	
532.5	-0.07396045183	0.03146372322	
533.125	0.2161550044	-0.07588293577	
533.75	-0.008537978726	-0.09837581313	
534.375	0.05722834877	-0.3577282452	
535.0	-0.3627420095	-0.119526775	
535.625	-0.09458652009	0.08890778837	
536.25	-0.03948204655	0.1065453921	
536.875	0.1244593364	-0.009306758742	
537.5	0.03970315066	-0.00437608771	
538.125	0.1785313694	-0.06716495466	
538.75	0.06694980945	-0.1370323596	
539.375	0.001849094968	-0.1631346237	
540.0	-0.2047460318	-0.2012122989	
540.625	-0.1956943185	-0.01141670966	
541.25	-0.06877380516	-0.05236006978	
541.875	-0.09622906013	-0.0007478036876	
542.5	0.02798753876	-0.05274850545	
543.125	-0.07832328969	-0.129387248	
543.75	-0.06898655417	0.05624745964	
544.375	-0.09219974464	-0.004571153265	
545.0	0.03096841823	0.13559265	
545.625	-0.004500233822	0.01085714898	
546.25	0.1577746527	0.1166186653	
546.875	0.09169404362	-0.08038473966	
547.5	0.102486957	-0.06056593945	
548.125	-0.03765585612	-0.2484720027	
548.75	-0.1355558388	-0.05940359859	
549.375	-0.06567750665	-0.1139993895	
550.0	-0.1320582058	0.02291725312	
550.625	-0.007634698084	-0.006921015282	
551.25	-0.1224217132	0.02607911248	
551.875	-0.03649492406	0.07641838199	
552.5	-0.06881861201	0.05612887597	
553.125	-0.01419716333	0.08407276018	
553.75	0.03475301042	0.04442756204	
554.375	0.108042064	0.004157519272	
555.0	0.09755984701	-0.08071325169	
555.625	0.09222772357	-0.1034111138	
556.25	0.08039754188	-0.1494853769	
556.875	-0.03733755577	-0.1689927206	
557.5	-0.09921254546	-0.1086566819	
558.125	-0.1198171907	-0.05056826482	
558.75	-0.1226495563	-0.004733081431	
559.375	-0.1100393137	0.02001501456	
560.0	-0.1129944361	0.06135611715	
560.625	-0.05733977875	0.136493259	
561.25	0.01282100308	0.07486356795	
561.875	0.01306412417	0.0773116357	
562.5	0.03558658775	0.02153519238	
563.125	0.04262171749	0.1118034365	
563.75	0.1815702028	-0.02187087949	
564.375	0.09057348463	-0.07467754461	
565.0	0.1370796501	-0.1457874633	
565.625	-0.08225422913	-0.1832063441	
566.25	-0.06263636537	-0.09040783015	
566.875	-0.1658093392	-0.1433371668	
567.5	-0.171938082	-0.04430825899	
568.125	-0.06955271278	-0.1934212321	
568.75	-0.3454847582	-0.1166876996	
569.375	-0.1638311423	0.1317916386	
570.0	-0.1956753569	0.1406956298	
570.625	-0.06330890137	0.267735258	
571.25	0.01088986331	0.00806348612	
571.875	0.05077152935	0.1798794232	
572.5	0.1035010246	-0.09186690145	
573.125	0.1126570671	-0.01078124653	
573.75	0.1010646845	-0.2351290236	
574.375	-0.08430043551	-0.03365130119	
575.0	0.1491129993	-0.03578915081	
575.625	-0.04823362485	-0.1147303615	
576.25	0.09139372469	-0.01821322466	
576.875	0.01234894531	-0.2404263122	
577.5	-0.106434457	-0.1469677295	
578.125	0.04177127164	-0.09361265478	
578.75	-0.08194896998	-0.2761896483	
579.375	-0.1689567494	0.03345941347	
580.0	0.05559733726	-0.08682530643	
580.625	-0.1693692253	0.01281031747	
581.25	0.04370712024	-0.06022028915	
581.875	-0.1321743207	0.2194335466	
582.5	0.1630212958	0.1822366933	
583.125	-0.008331251856	-0.02681186716	
583.75	0.1105098089	0.1463476686	
584.375	0.02198112745	-0.0621093436	
585.0	0.08676144421	0.1806633187	
585.625	0.2361844861	-0.07611495382	
586.25	0.0414672356	-0.01678081299	
586.875	0.1813990521	-0.1140209572	
587.5	-0.09922652736	-0.194919937	
588.125	0.0303077303	-0.05272653276	
588.75	0.09859538722	-0.2179916402	
589.375	-0.0289523493	-0.1759657023	
590.0	0.04691346422	-0.1389205022	
590.625	-0.3202029772	-0.09508459491	
591.25	-0.01592735861	0.1532861651	
591.875	-0.1296203662	0.02414282021	
592.5	0.03270868441	0.1639816729	
593.125	-0.1161642745	-0.1001380245	
593.75	0.185519725	0.2303144277	
594.375	0.1369180143	-0.0080276582	
595.0	0.08558080803	0.1597026533	
595.625	0.2879243506	0.05505540852	
596.25	0.07776826225	-0.02182819353	
596.875	0.207690992	0.1352396869	
597.5	0.2296739214	0.04171611765	
598.125	0.07069537617	0.08372912003	
598.75	0.2400068709	0.1272662566	
599.375	0.2290276989	-0.1247885268	
600.0	0.1187488732	-0.07502237996	
600.625	0.2331132262	-0.1811586082	
601.25	0.02876734543	-0.2524946304	
601.875	-0.02405878047	-0.06286940495	
602.5	-0.2102492225	-0.09607962167	
603.125	-0.02979636858	0.1415813938	
603.75	-0.1018617561	-0.03478352063	
604.375	-0.2036480503	0.2375907366	
605.0	0.06151791891	0.06636131669	
605.625	-0.1750801233	-0.005047828186	
606.25	-0.09497007293	0.1720477786	
606.875	-0.2571129182	-0.03302111387	
607.5	-0.283984636	0.2196198289	
608.125	0.07439277359	0.2742017087	
608.75	0.09387593016	0.1667238644	
609.375	0.1952240179	-0.0768734477	
610.0	0.1205288617	-0.1904151493	
610.625	0.1031656237	-0.04381213381	
611.25	0.02908880967	-0.2894177083	
611.875	-0.1846813983	-0.1052837646	
612.5	-0.1116835672	-0.1649157889	
613.125	-0.3009872554	0.1009335269	
613.75	0.0392629698	0.124838087	
614.375	-0.07426074071	0.1518092582	
615.0	0.162884246	0.004182919534	
615.625	-0.1098104706	0.01344796139	
616.25	-0.02774782259	0.2725177894	
616.875	0.05186150476	0.1597389963	
617.5	-0.13891832	0.164580424	
618.125	-0.02086648867	0.3317298344	
618.75	0.002159288462	0.1827905999	
619.375	0.01369097268	0.1963584315	
620.0	0.2881983466	0.01014795786	
620.625	0.04257259276	-0.107451249	
621.25	-0.01720022771	-0.1906127395	
621.875	-0.2911942689	-0.1177566957	
622.5	-0.1132598358	0.1032487358	
623.125	-0.1257208554	0.1685903453	
623.75	0.2391375445	0.06995581009	
624.375	-0.04249115443	-0.02402032639	
625.0	0.1519895634	-0.06695722321	
625.625	-0.03369842267	-0.06496857153	
626.25	0.03704596167	-0.1672240307	
626.875	-0.2280356551	-0.1072230524	
627.5	-0.120650712	0.02226575755	
628.125	-0.07012179708	-0.1531843547	
628.75	-0.1695513081	-0.1252403173	
629.375	-0.05270686338	-0.1098337179	
630.0	-0.1801196807	-0.1407092641	
630.625	-0.2488245412	0.1245431113	
631.25	-0.08800587663	0.1620431685	
631.875	-0.09214618835	0.3115377351	
632.5	0.2591085793	0.288585521	
633.125	0.1533077097	0.03044381874	
633.75	0.2480968185	-0.01229323269	
634.375	-0.02973856612	-0.2654335999	
635.0	0.06110335621	-0.08332235105	
635.625	-0.2677923883	-0.2170340981	
636.25	-0.1103355664	0.1472317421	
636.875	-0.1065437525	0.03439054582	
637.5	-0.0730177722	0.2090559157	
638.125	0.02349308534	0.0006840939699	
638.75	-0.176547146	0.202946769	
639.375	0.1000479799	0.3025146574	
640.0	0.08076811683	0.1398223807	
640.625	0.2375215541	0.2708584264	
641.25	0.3668927076	-0.09724859514	
641.875	0.098769736	-0.0979274125	
642.5	0.1079555764	-0.2969406461	
643.125	-0.3520796974	-0.1688705008	
643.75	-0.009553076294	-0.07631437268	
644.375	-0.3178094588	-0.0008383665014	
645.0	-0.01419834603	0.2210284996	
645.625	-0.142902266	0.07943211034	
646.25	0.3293445414	0.1621940705	
646.875	-0.01188903539	-0.1504130364	
647.5	0.1491271231	0.2722553715	
648.125	0.1797396952	-0.1250765694	
648.75	0.1252156508	0.1213903544	
649.375	0.4268473907	-0.3349046356	
650.0	-0.03714763295	-0.3850671998	
650.625	0.1921654506	-0.1289514495	
651.25	0.4066905491	-0.3559746188	
651.875	0.08881023767	-0.2916609612	
652.5	0.2758174107	0.07587542746	
653.125	0.4151631415	-0.2107645351	
653.75	0.02778128258	-0.2695569107	
654.375	0.1193135754	-0.288796835	
655.0	-0.4978213034	-0.1746228979	
655.625	-0.02999564538	0.2303343744	
656.25	-0.1836490797	0.01834541628	
656.875	0.1866433581	0.2168289328	
657.5	-0.09926767158	-0.001779260788	
658.125	0.2477871576	0.3633244535	
658.75	0.3077446229	-0.1408269883	
659.375	0.2192384437	-0.01794535458	
660.0	0.4216715871	-0.3384570592	
660.625	-0.09103724368	-0.4091995035	
661.25	0.2283261964	-0.1101119071	
661.875	0.3325825474	-0.3596427577	
662.5	0.1694425681	-0.2949272651	
663.125	0.2478219578	-0.05407985079	
663.75	0.243461963	-0.4552052106	
664.375	-0.1432340815	-0.2480595361	
665.0	-0.1628402812	-0.281855517	
665.625	-0.4499995099	0.1181240592	
666.25	0.02095075927	0.2491839962	
666.875	-0.006610069248	0.2360631491	
667.5	0.3323585486	0.1338407214	
668.125	0.1146499703	-0.06769066001	
668.75	0.3506947924	-0.01366853984	
669.375	0.03274705471	-0.3832358089	
670.0	-0.01107036605	-0.07364732521	
670.625	0.1102259161	-0.2477681751	
671.25	-0.1414179309	-0.2581534007	
671.875	0.1297122793	0.0123661941	
672.5	0.3403444346	-0.2077954101	
673.125	0.1097685987	-0.2423967118	
673.75	0.196892084	-0.1171596126	
674.375	0.1395428902	-0.3793407101	
675.0	-0.2136341026	-0.1161183726	
675.625	-0.04731878081	-0.1751083511	
676.25	-0.3130558254	-0.05210863667	
676.875	-0.07795044491	0.1169248621	
677.5	-0.1739577365	-0.121892524	
678.125	-0.1754917575	0.3027215928	
678.75	0.09762690749	0.08904623409	
679.375	0.1299333774	0.232167738	
680.0	0.2751852248	-0.2224706651	
680.625	-0.1595132194	0.01870801881	
681.25	0.3506599581	0.0467865521	
681.875	0.1281439524	-0.149279529	
682.5	-0.008566402279	0.1894176908	
683.125	0.4753618726	0.1818470773	
683.75	0.2444755454	-0.181512241	
684.375	0.3408263233	0.3394036574	
685.0	0.4725014303	0.05210644947	
685.625	0.2169409585	-0.1774362628	
686.25	0.2983357929	0.1907659185	
686.875	0.3184519155	-0.3395587654	
687.5	0.1211541891	-0.1815224292	
688.125	0.157192129	-0.4738549775	
688.75	-0.5993590892	-0.200626218	
689.375	-0.1531772974	0.2493254352	
690.0	-0.09408509156	0.4461123716	
690.625	0.4310938911	0.2243574555	
691.25	0.1253323131	0.139737736	
691.875	0.5102084369	0.5833455513	
692.5	0.6994253971	-0.1115183123	
693.125	0.4685169981	0.1088183231	
693.75	0.7752079931	-0.1517469095	
694.375	0.3815333404	-0.6199549496	
695.0	0.5204648654	0.04193535923	
695.625	0.7486541797	-0.1232476146	
696.25	0.4749414475	-0.02291771296	
696.875	0.3843581838	0.5169351536	
697.5	0.4804094282	0.6968046749	
698.125	0.5705687099	0.3834869022	
698.75	0.5000140317	-0.2384093153	
699.375	-0.4193309922	-0.5138220082	
700.0	-0.2785786278	0.4733047559	
700.625	-0.03489218126	0.2039603255	
701.25	0.4095532667	0.3104151966	
701.875	0.260723178	0.0585941195	
702.5	0.2233751115	0.3697009511	
703.125	0.6166946859	0.1196157646	
703.75	0.2449493379	-0.1920256527	
704.375	0.3937537986	-0.04221730103	
705.0	0.3352109608	-0.2702298473	
705.625	0.1512467122	0.05048621531	
706.25	0.2638171363	0.3564685573	
706.875	0.4365083022	0.2351139919	
707.5	0.2296342821	0.3739966865	
708.125	0.4551815068	0.1172412322	
708.75	0.2638427018	-0.4983012428	
709.375	-0.1584418223	-0.1448990469	
710.0	-0.1572592549	0.02419207187	
710.625	0.2058812375	0.1275777585	
711.25	-0.04049403018	0.111257318	
711.875	0.344829349	0.186191492	
712.5	0.2396188825	-0.1897811974	
713.125	0.252904687	0.02007970348	
713.75	0.2006224224	-0.3698581794	
714.375	-0.08890519593	-0.204957423	
715.0	0.1044873764	-0.1761811389	
715.625	-0.0475511331	-0.3553401536	
716.25	0.06576914575	-0.175730194	
716.875	0.4656899087	-0.06138308296	
717.5	0.6593980145	-0.2412792584	
718.125	0.5444127765	-0.02377074962	
718.75	0.8758787377	0.1303242644	
719.375	1.035488517	-0.564531839	
720.0	0.355288188	-0.538744918	
720.625	0.6672725702	-1.028005232	
721.25	-0.5836976677	-1.214259324	
721.875	0.02695098967	-0.784173515	
722.5	-0.722231065	-1.04553317	
723.125	-0.9417584159	0.1110640177	
723.75	-0.1860248435	0.1208183157	
724.375	-0.1311766507	0.803054143	
725.0	0.33302933	0.2166939134	
725.625	-0.08071930918	0.4478963597	
726.25	0.07009761086	0.9278411743	
726.875	0.2519484078	0.8532066447	
727.5	-0.5775538203	1.03831242	
728.125	-0.007327673799	2.543041626	
728.75	0.8998109165	2.555300864	
729.375	-1.85063414	2.086827978	
730.0	-0.6786630473	5.656157822	
730.625	1.463287965	2.856943468	
731.25	-1.987912368	2.641030151	
731.875	-3.122241628	4.160009218	
732.5	-1.2247971	3.061076498	
733.125	-2.702634369	-0.5285972347	
733.75	-0.8903608048	1.976703459	
734.375	0.7425417958	-0.04645001803	
735.0	0.4853576289	-0.5414015099	
735.625	-0.766478387	0.4348840141	
736.25	-0.06024287579	-0.04671363433	
736.875	0.30237443	0.9267689026	
737.5	1.34317958	-0.2793554041	
738.125	0.5540238428	-0.345151775	
738.75	3.018543857	-0.2301703849	
739.375	2.2940684	-3.414114787	
740.0	-0.1306291347	-0.527903185	
740.625	4.015552631	3.470893492	
741.25	4.598027211	0.936324194	
741.875	-0.2957633123	-4.998060356	
742.5	-2.249482363	-3.883341936	
743.125	-0.7868640542	-1.090632958	
743.75	0.6049100631	-0.7433097485	
744.375	-0.8175614863	-0.2881301195	
745.0	0.2393123203	-0.044344049	
745.625	0.1214608654	0.0714067167	
746.25	-0.1086134411	-0.1338684872	
746.875	-0.0977661515	-0.1008328568	
747.5	-0.1995455757	0.4452931051	
748.125	0.2841675978	0.4479367738	
748.75	0.1207477423	0.3786453794	
749.375	0.003826331824	0.6302730462	
750.0	-0.2215041208	0.3382889251	
