!Created with skrf (http://scikit-rf.org).
# GHz S RI R (50+0j) 
!freq	ReS11	ImS11	
500.0	-1.016528031	-1.568046552	
500.625	2.29892263	-3.467985743	
501.25	-2.441544715	-2.711124741	
501.875	-1.631168584	-0.4487098568	
502.5	0.05154295015	-0.1194490295	
503.125	-0.4311069081	0.04626991918	
503.75	0.219206177	-0.01543152269	
504.375	0.1708628019	0.07191066514	
505.0	-0.1156634757	-0.08480529874	
505.625	0.2737795781	-0.2548637443	
506.25	-0.5988823746	0.1860948041	
506.875	-0.009384042547	-1.022728063	
507.5	-1.276122471	-1.86901532	
508.125	-1.14563067	-0.7055542392	
508.75	3.213627906	-2.391816284	
509.375	-2.841467724	-5.680574009	
510.0	-0.3573694306	-0.1627978832	
510.625	-0.6083451518	-0.881634263	
511.25	-0.1625271251	0.1709971552	
511.875	-0.5265320512	-0.3009183955	
512.5	0.006618973869	0.1191366622	
513.125	-0.0509698172	-0.2544239385	
513.75	-0.004136396271	-0.1865114076	
514.375	-0.5563265797	-0.3272373523	
515.0	0.5971556883	1.287713998	
515.625	-1.604727024	-3.856495765	
516.25	-0.5606143611	0.9212716669	
516.875	0.2718963554	-2.572194814	
517.5	-1.056897412	-0.3859020393	
518.125	0.2593734894	-0.3757611084	
518.75	-0.8347046635	-0.2644539035	
519.375	-0.08133856833	-0.007626168568	
520.0	0.4572636445	0.338076163	
520.625	0.4279639599	-0.3871999691	
521.25	0.08552057836	-0.3930842563	
521.875	-0.6165900877	-0.216069013	
522.5	0.04393039896	0.1028364705	
523.125	-0.3564398602	0.2171552551	
523.75	-0.03771731362	-0.04895698122	
524.375	-0.7060584102	0.2217546469	
525.0	0.1176494638	0.02170729518	
525.625	-0.05807485786	0.2979377894	
526.25	0.04725329497	-0.3086456977	
526.875	-0.1662150506	0.3918894601	
527.5	0.09603639188	0.2356382193	
528.125	-0.2753882819	0.9562511051	
528.75	0.578484316	0.8637392095	
529.375	-0.1843854054	0.1897237541	
530.0	0.4226388019	0.2619321253	
530.625	-0.2288579111	0.9968899306	
531.25	1.650455139	-0.155330215	
531.875	0.3074291665	0.03917145809	
532.5	-0.3153548818	-0.7948555086	
533.125	0.3224618368	0.407806912	
533.75	0.0690439019	-0.995672061	
534.375	0.05040720277	-0.2315620456	
535.0	-1.029796666	-0.6457091377	
535.625	-0.0467879149	0.4405473794	
536.25	-0.1287701273	0.1927312478	
536.875	0.3648923285	0.07619644308	
537.5	0.03823924304	-0.133769353	
538.125	0.4746850856	-0.03675910896	
538.75	0.1617028953	-0.4295793455	
539.375	0.007870617888	-0.358079696	
540.0	-0.5910734223	-0.5220841594	
540.625	-0.2337931284	0.1510543073	
541.25	-0.2254875773	-0.1337895235	
541.875	-0.1736750814	-0.03674960367	
542.5	-0.1390237905	0.01429673428	
543.125	-0.06219135775	-0.2403978737	
543.75	-0.4453903163	0.1146750403	
544.375	0.0552043153	-0.1287257991	
545.0	-0.0384729038	0.3582518002	
545.625	0.0493249626	-0.1182417499	
546.25	0.3385457335	0.4001777055	
546.875	0.1437022796	-0.3292090244	
547.5	0.311720402	-0.05324102098	
548.125	-0.1231653152	-0.6510368401	
548.75	-0.3719168342	-0.08760067993	
549.375	-0.07735554488	-0.2339332153	
550.0	-0.3490960248	0.03963735571	
550.625	0.02874384723	-0.01657698543	
551.25	-0.3454886834	0.09290630422	
551.875	-0.03016912237	0.1518719306	
552.5	-0.2287931533	0.1675353041	
553.125	0.01766321585	0.1911177142	
553.75	0.08182647446	0.1156314061	
554.375	0.2560191632	0.02869221788	
555.0	0.2380294785	-0.186527593	
555.625	0.2096809789	-0.2410086891	
556.25	0.1843829414	-0.3537893668	
556.875	-0.08703065945	-0.409065069	
557.5	-0.2259673561	-0.247321918	
558.125	-0.2760989952	-0.1191233594	
558.75	-0.2853652129	-0.003019135728	
559.375	-0.2259436313	0.04813872746	
560.0	-0.2755017829	0.1440989227	
560.625	-0.1097299473	0.3270260168	
561.25	0.03940602882	0.1568534185	
561.875	0.03760982236	0.2058316965	
562.5	0.05339692921	0.01111282892	
563.125	0.1513121652	0.3080874889	
563.75	0.3357546724	-0.144979401	
564.375	0.2672892906	-0.03633784886	
565.0	0.2794765964	-0.4887957586	
565.625	-0.1922890893	-0.2836026363	
566.25	-0.1249384205	-0.250643568	
566.875	-0.4129290056	-0.3157766973	
567.5	-0.3919037967	-0.07073940605	
568.125	-0.1197581285	-0.4929904538	
568.75	-0.7685013399	-0.2007344867	
569.375	-0.3274359629	0.1999517541	
570.0	-0.6117170995	0.4314565381	
570.625	0.08805359231	0.6103049774	
571.25	-0.1349845306	-0.03489091736	
571.875	0.342430813	0.5203085806	
572.5	-0.03373816171	-0.1946657033	
573.125	0.5082585513	-0.03138235224	
573.75	0.04889704505	-0.5766775278	
574.375	-0.09000088557	0.1357096688	
575.0	0.2874644554	-0.3511481406	
575.625	-0.1483239075	0.08204503626	
576.25	0.4386835798	-0.2899240196	
576.875	-0.2447478496	-0.5092418097	
577.5	-0.0483278399	-0.06873174533	
578.125	0.1446060759	-0.5035993729	
578.75	-0.420391106	-0.4141679955	
579.375	-0.1484554244	0.06682280328	
580.0	-0.005830093008	-0.3237526009	
580.625	-0.2319082768	0.192713869	
581.25	-0.2439065942	-0.1540008208	
581.875	-0.03186619851	0.6824077056	
582.5	0.4105602712	0.1317859968	
583.125	-0.2503511545	0.10502123	
583.75	0.551911695	0.3000390122	
584.375	-0.3837177984	-0.09013842507	
585.0	0.5840335449	0.3987513485	
585.625	0.1970529467	-0.3202862868	
586.25	0.3930815992	0.2545554994	
586.875	0.1658050081	-0.6615600607	
587.5	-0.009489278488	-0.01831449104	
588.125	0.2056932214	-0.5007650671	
588.75	-0.1383179843	-0.5309234789	
589.375	0.09568546239	-0.01186714327	
590.0	0.04114238141	-0.6691933673	
590.625	-0.5258907805	-0.004532910783	
591.25	-0.1791020981	0.1675896968	
591.875	-0.2838571729	0.2472657821	
592.5	0.2179508089	0.1508116881	
593.125	-0.2414089358	0.2043648274	
593.75	0.2233979306	0.1879675961	
594.375	0.1145594236	0.2297207921	
595.0	0.5089889009	0.6249672708	
595.625	0.6656843682	-0.218752608	
596.25	-0.06068144115	0.3640091339	
596.875	0.7739433003	0.2041417327	
597.5	0.1867140849	-0.1136468694	
598.125	0.2720754328	0.6312280145	
598.75	0.5398919813	-0.06923335086	
599.375	0.3116227777	0.2099812856	
600.0	0.6617432921	-0.5195483121	
600.625	0.0811417878	-0.4272548423	
601.25	0.2910527763	-0.227013551	
601.875	-0.1494969118	-0.5310948051	
602.5	-0.2646723389	0.0205271056	
603.125	-0.2191833255	0.1213110626	
603.75	-0.2742691519	0.01208455332	
604.375	-0.3397714785	0.3466860605	
605.0	-0.01216967507	-0.006288361879	
605.625	-0.4010453703	0.2514076052	
606.25	-0.02013526083	0.1301411095	
606.875	-0.6595414396	-0.03953180421	
607.5	-0.1858913391	0.7668487087	
608.125	-0.2558336047	0.173428122	
608.75	0.5966176624	0.8902371465	
609.375	0.2450536502	-0.377448303	
610.0	0.5787301301	0.05531576153	
610.625	0.1354608477	-0.6309222433	
611.25	0.1334026407	-0.02958952581	
611.875	-0.3731230301	-0.5691622154	
612.5	-0.1391599514	0.001601981964	
613.125	-0.6500005066	-0.1394283545	
613.75	-0.03098310703	0.5242833864	
614.375	-0.3017088741	0.2428866029	
615.0	0.4135702444	0.07166578444	
615.625	-0.3515586314	0.1232493326	
616.25	0.09001918297	0.6647683405	
616.875	-0.1654342694	0.01958980796	
617.5	-0.4477010034	0.7510799791	
618.125	0.2526336369	0.487005273	
618.75	-0.2513376802	0.2885117934	
619.375	0.396237904	0.5123564879	
620.0	0.2470491853	0.07397661449	
620.625	0.4251431656	-0.3989291735	
621.25	-0.2105382163	-0.2987255217	
621.875	-0.4920907511	-0.3919222924	
622.5	-0.4324064497	0.2444064566	
623.125	-0.2228242361	0.2978714319	
623.75	0.5121319542	0.1562564215	
624.375	-0.1867485002	0.08240161387	
625.0	0.3423823219	-0.4363461419	
625.625	-0.04690722396	0.170505827	
626.25	0.1087728597	-0.6464038713	
626.875	-0.5640144126	0.00646333698	
627.5	0.01900442961	-0.1615411931	
628.125	-0.5183493692	-0.3325487567	
628.75	-0.1027362235	-0.04578238208	
629.375	-0.09261687585	-0.5863194303	
630.0	-0.6165455593	-0.07696538357	
630.625	-0.3177233314	-0.07824191004	
631.25	-0.5690038435	0.4508906693	
631.875	0.03915312815	0.6651121261	
632.5	0.3132376086	0.4135260308	
633.125	0.3301485371	0.1467370212	
633.75	0.667896988	-0.05827640915	
634.375	-0.07957501115	-0.2769908075	
635.0	0.2448665592	-0.3656631043	
635.625	-0.5833243897	-0.1639612104	
636.25	-0.1438562797	-0.1024673702	
636.875	-0.3850050388	0.5258178157	
637.5	0.2198027474	0.1067518952	
638.125	-0.5362838544	-0.006948485192	
638.75	0.08946539618	0.8496594211	
639.375	-0.02536338693	0.03970026202	
640.0	0.005147975057	0.8409217131	
640.625	0.8711087749	0.3888646276	
641.25	0.3561790814	-0.1633405156	
641.875	0.8825731615	-0.1920250792	
642.5	-0.3740443269	-0.4327030583	
643.125	0.139201294	-0.3410477885	
643.75	-0.7024181178	-0.330328351	
644.375	0.0237335018	0.2773941022	
645.0	-0.7012441221	0.0003577768018	
645.625	0.2192978844	0.7766171711	
646.25	0.5296185364	-0.04866525655	
646.875	-0.181870859	0.1289480312	
647.5	0.7142966643	-0.0082161152	
648.125	-0.2645991217	0.3337089775	
648.75	1.18366939	-0.1209268034	
649.375	0.01705616544	-0.8031053091	
650.0	0.6549387083	0.02274584745	
650.625	0.7002469438	-1.475945913	
651.25	-0.3581877168	-0.4157847349	
651.875	0.9391856679	0.3251786709	
652.5	1.081449257	-0.7632249242	
653.125	0.07771049145	-0.3070117494	
653.75	1.005629628	-0.243308855	
654.375	-0.4639853372	-0.9711194857	
655.0	-0.2197136271	0.01617326627	
655.625	-0.9355250279	0.06188549446	
656.25	0.537196187	0.7276100628	
656.875	-0.2659006278	-0.1119270469	
657.5	0.2523254799	0.5376101453	
658.125	0.3861785652	0.09477343778	
658.75	0.313243348	0.4471148806	
659.375	1.208515922	-0.4627248708	
660.0	0.1536222356	-0.6779473091	
660.625	0.5392403926	-0.4329051819	
661.25	0.71692736	-1.119500051	
661.875	-0.1904298606	-0.5287939135	
662.5	0.9888740512	0.1171444658	
663.125	0.8563205332	-0.9755693168	
663.75	-0.04777429178	-0.3866044019	
664.375	0.4670840081	-0.924139444	
665.0	-1.056512411	-0.2858415178	
665.625	-0.4006933885	-0.1759209968	
666.25	-0.5632729695	0.9032204691	
666.875	0.5480351011	0.2653350176	
667.5	0.0235659748	0.4072916914	
668.125	0.8654004716	-0.0151917028	
668.75	0.2434873629	-0.487731608	
669.375	0.248961566	-0.2528542575	
670.0	0.2393537741	-0.6694282785	
670.625	-0.2900543225	-0.430670039	
671.25	0.3524111018	-0.2786111136	
671.875	0.3275882145	-0.5836044786	
672.5	0.1978011694	-0.2730956609	
673.125	0.8354535003	-0.270344093	
673.75	0.2403681296	-0.8749891903	
674.375	-0.06584797176	-0.1715325697	
675.0	0.3078295976	-0.7874279838	
675.625	-0.9888088187	-0.4222305569	
676.25	0.1309201795	0.1956651911	
676.875	-0.8226531353	-0.3948271148	
677.5	-0.004882624651	0.4028611576	
678.125	-0.6899194417	-0.1284753892	
678.75	0.4903822632	0.9830921695	
679.375	-0.03043849009	-0.006505769283	
680.0	0.6042068869	0.07401158216	
680.625	0.3108464631	-0.5583726428	
681.25	-0.3014616553	0.07289977902	
681.875	0.6336763002	0.4794746313	
682.5	0.6288040921	-0.01242918867	
683.125	0.4775625047	0.05180067388	
683.75	0.361115292	0.5042502642	
684.375	1.147086913	-0.1125584836	
685.0	0.07794387473	0.0864293667	
685.625	1.054021898	0.3309719801	
686.25	0.6292642835	-0.7178241272	
686.875	0.4828192044	0.6019149651	
687.5	1.287648875	-1.618135915	
688.125	-0.6363497132	-0.07924005478	
688.75	-0.576181648	-1.370379515	
689.375	-0.8863943946	1.406178396	
690.0	0.08106767604	0.1369041772	
690.625	0.8152670826	1.305062341	
691.25	0.6171707864	0.151998481	
691.875	0.7936027587	1.12072864	
692.5	1.784629192	0.4903082079	
693.125	1.207667211	-0.1574939313	
693.75	1.548033179	-0.4136245818	
694.375	0.9256332974	-0.9066113899	
695.0	1.285363629	-0.5605879314	
695.625	1.037958269	-0.5212479786	
696.25	0.8174040676	0.9187139401	
696.875	1.719488814	0.9962177045	
697.5	0.2792299571	0.6387548716	
698.125	1.799928997	1.367234809	
698.75	0.4337150437	-1.513381499	
699.375	0.1513122033	-1.242293947	
700.0	-1.195205421	1.432154096	
700.625	0.3700432444	0.0394906241	
701.25	0.7024487329	1.23670529	
701.875	0.6402113846	-0.007027880627	
702.5	0.4850411224	0.9805280729	
703.125	1.448927634	0.06139727227	
703.75	0.3939328773	0.02214965866	
704.375	1.16156251	-0.5611545528	
705.0	0.07952783406	-0.4672516955	
705.625	0.8113181912	0.6630394353	
706.25	1.024232152	-0.2307010804	
706.875	-0.0654483312	0.7670607634	
707.5	1.03541917	1.408116144	
708.125	0.7714268909	-0.1954623444	
708.75	1.238744111	-0.4680421886	
709.375	-1.060798247	-0.8037771635	
710.0	-0.1978382301	0.1759710847	
710.625	0.05597065093	0.6704297057	
711.25	0.2386372388	0.02557965004	
711.875	0.4238465233	0.4914982302	
712.5	0.7561193238	-0.1244301405	
713.125	0.8489615305	-0.262855148	
713.75	0.0504190827	-0.8127729705	
714.375	0.3760396071	-0.1635214924	
715.0	-0.3100138979	-0.9387051463	
715.625	-0.04362457113	0.05039884545	
716.25	1.152115366	-0.8005477524	
716.875	-0.007191745343	-1.126602275	
717.5	1.169338179	1.240692497	
718.125	3.218561817	-0.2658598332	
718.75	-0.1711893772	-1.300771381	
719.375	3.94002692	0.8421136823	
720.0	0.0869011379	-3.816036931	
720.625	0.8691305863	-1.205255306	
721.25	1.153344229	-2.980203959	
721.875	-1.895482617	-2.916873404	
722.5	-0.1632900782	-1.763415544	
723.125	-2.535215683	-0.6573461219	
723.75	-0.7188646352	1.308662164	
724.375	-0.2308819235	0.7452099323	
725.0	0.2383964907	1.294684811	
725.625	0.9291372617	0.9735643667	
726.25	-0.1241518692	0.8979709953	
726.875	-1.148478722	2.930613386	
727.5	1.412345727	4.916901548	
728.125	-1.627199785	0.9201208855	
728.75	-2.654554778	11.67456826	
729.375	5.612825785	7.123920672	
730.0	-10.43984169	7.18086039	
730.625	-0.3027909457	23.18208137	
731.25	2.29150993	-1.1838101	
731.875	-13.59817587	4.720440912	
732.5	-12.49027972	4.969890552	
733.125	-3.366054065	3.075474974	
733.75	-4.93581645	1.503014972	
734.375	3.09401651	0.5019948278	
735.0	0.003666056289	-0.8782393739	
735.625	-1.831518044	-0.716021262	
736.25	1.145353819	1.370969686	
736.875	-0.3699485318	1.355325224	
737.5	3.747798589	1.263326208	
738.125	4.799678895	-2.260915766	
738.75	-0.01317456143	-4.254909304	
739.375	9.266666497	4.942514972	
740.0	12.06156795	-18.01089795	
740.625	-8.759255962	1.925508997	
741.25	0.1133078614	17.24097619	
741.875	11.17582677	7.070517571	
742.5	1.0976682	-15.1683884	
743.125	-5.936640377	-8.314354003	
743.75	-0.6881183954	0.5509232509	
744.375	-0.6089057456	-1.968298534	
745.0	0.7232606137	0.889321263	
745.625	-0.1185860848	0.2683804219	
746.25	-0.1209325953	-0.4537902122	
746.875	-0.4321176065	-0.07233548224	
747.5	-0.567512505	0.4839969496	
748.125	0.5588257694	1.690763265	
748.75	1.064480535	1.012245715	
749.375	0.1471059044	1.579614953	
750.0	0.01108730811	2.687113887	
