!Created with skrf (http://scikit-rf.org).
# GHz S RI R (50+0j) 
!freq	ReS11	ImS11	
500.0	0.2443555649	-1.030218137	
500.625	-0.3754013457	-0.5605863578	
501.25	0.1498639231	-0.5375503596	
501.875	-0.3570282727	-0.5102206401	
502.5	-0.02952215925	-0.02908251885	
503.125	-0.07648009305	-0.03072196841	
503.75	0.05906970069	0.07983555727	
504.375	0.008387415507	0.01806063181	
505.0	0.008656091754	-0.05531991279	
505.625	0.01177469536	0.01150584586	
506.25	-0.07531991776	-0.132111067	
506.875	0.04861816621	0.1629153825	
507.5	0.1250044081	-0.5740627775	
508.125	-0.08633322738	-0.7740887626	
508.75	0.1881452716	-0.4212221248	
509.375	0.3770763729	-1.137145134	
510.0	-0.3827331253	-0.1371202244	
510.625	-0.04287409595	-0.1212066708	
511.25	-0.09094099787	-0.05863404118	
511.875	-0.07728017964	0.02812328857	
512.5	-0.0356952715	0.02425758929	
513.125	-0.01611103337	-0.09176414486	
513.75	-0.04072542806	0.02846404723	
514.375	-0.008131549632	-0.1050750173	
515.0	-0.2240749669	0.1319180189	
515.625	0.4382060308	-0.6193241577	
516.25	-0.6497708011	-0.1459523065	
516.875	0.06156748621	-0.1014259372	
517.5	-0.1213033154	-0.2772538678	
518.125	-0.02930008122	0.03729994787	
518.75	0.00065837162	-0.1713278656	
519.375	-0.03489794413	0.04270589925	
520.0	0.0794582318	0.01014747332	
520.625	0.1213138303	-0.004626708069	
521.25	-0.03215568901	-0.2082498698	
521.875	-0.1012554961	0.0360851536	
522.5	-0.01947532895	-0.008688113356	
523.125	-0.0489283027	0.09882215401	
523.75	0.01415589696	-0.04718993559	
524.375	-0.2704805414	0.0122979087	
525.0	0.1108346499	0.1315354347	
525.625	-0.04448948919	-0.01230514748	
526.25	0.06663826909	0.01815747256	
526.875	-0.104471073	0.05909612836	
527.5	0.03311993386	0.2409979071	
528.125	0.04531127118	0.07132657761	
528.75	0.06312405612	0.2698324331	
529.375	0.01460161026	0.01970438244	
530.0	-0.01935617911	0.1472215982	
530.625	0.1184431008	0.3113621096	
531.25	0.2882675754	-0.05438038924	
531.875	0.03762836726	-0.08724892245	
532.5	-0.03526992967	-0.1699627974	
533.125	0.06347908204	0.07971233847	
533.75	0.1261727552	-0.2539923352	
534.375	-0.152230305	-0.1176482456	
535.0	-0.1653195505	-0.1509755731	
535.625	-0.1526956706	0.1600610942	
536.25	0.01378952162	0.04590713979	
536.875	0.08100402656	0.04397016436	
537.5	0.05099960552	-0.07145197605	
538.125	0.06472206996	-0.004675044872	
538.75	0.1584688091	-0.1463455325	
539.375	-0.07155106265	-0.1306319888	
540.0	-0.09667337313	-0.1466600869	
540.625	-0.1926066623	-0.01925205724	
541.25	-0.04187105343	0.03854896759	
541.875	0.05503746049	-0.007964211623	
542.5	-0.0847174672	-0.05916608233	
543.125	-0.02316564868	-0.03702552989	
543.75	-0.1168891634	-0.02611179378	
544.375	0.04171285011	0.08436873837	
545.0	-0.0572263855	0.05434967676	
545.625	0.1035672332	0.04009496892	
546.25	0.005241443381	0.02054065237	
546.875	0.1623542601	-0.01814272649	
547.5	-0.0002666320455	-0.1173310678	
548.125	0.009820725135	-0.1126874627	
548.75	-0.1319777056	-0.1451445469	
549.375	-0.1165252196	-0.003725065122	
550.0	-0.05227081024	-0.03601510261	
550.625	-0.05326877645	0.04727197154	
551.25	-0.04414415711	0.003694139279	
551.875	-0.08811102018	0.0694685117	
552.5	-0.01513198192	0.0651907415	
553.125	-0.0239284238	0.05946319622	
553.75	0.05336699009	0.03553418241	
554.375	0.06968307278	-0.006845348035	
555.0	0.09150183103	-0.06417920805	
555.625	0.06886670966	-0.1033929279	
556.25	0.05006941858	-0.1209795986	
556.875	-0.03556731152	-0.1403212879	
557.5	-0.0957224106	-0.0881756577	
558.125	-0.1043132312	-0.02886483987	
558.75	-0.09512018782	-0.006616856595	
559.375	-0.1074426324	0.02523400656	
560.0	-0.07272452709	0.07373182635	
560.625	-0.05384740882	0.0865227205	
561.25	0.01536783446	0.1152820774	
561.875	0.02550886767	0.009270505984	
562.5	0.01196386862	0.08203083129	
563.125	0.05848457671	0.02786150434	
563.75	0.1255844987	0.03448473133	
564.375	0.1289530837	-0.1282761777	
565.0	0.02590968133	-0.1086424421	
565.625	0.00753064677	-0.1519412796	
566.25	-0.18599935	-0.0951031053	
566.875	-0.07433493419	-0.0300354153	
567.5	-0.1330293565	-0.1942211545	
568.125	-0.202642324	-0.07267681059	
568.75	-0.1264340916	-0.08936761231	
569.375	-0.2774991087	0.1163401109	
570.0	0.005087854399	0.1527154367	
570.625	-0.1347327155	0.1013481117	
571.25	0.05989143467	0.1819412436	
571.875	-0.007947324196	0.009292648138	
572.5	0.2065054556	0.03924056129	
573.125	-0.0005308182227	-0.16733683	
573.75	0.03971687118	-0.005963192247	
574.375	0.05598250198	-0.1397601573	
575.0	-0.04189380919	0.02470367471	
575.625	0.1057256172	-0.09170709041	
576.25	-0.03641791686	-0.1352807754	
576.875	0.02576452575	-0.03793869599	
577.5	0.04723315673	-0.2126021007	
578.125	-0.1388414275	-0.1377678368	
578.75	0.007538072807	-0.01032346165	
579.375	-0.05633810213	-0.1631418371	
580.0	-0.1386720298	0.1340985022	
580.625	-0.0005963056016	-0.1681602389	
581.25	-0.1109037657	0.1951514938	
581.875	0.05062147782	0.02393783836	
582.5	-0.06561178473	0.1939748867	
583.125	0.181582937	0.09955432902	
583.75	-0.05366068628	-0.03685410986	
584.375	0.1165492932	0.1177431889	
585.0	0.04637263493	-0.04277948765	
585.625	0.1224506968	0.1035849922	
586.25	0.198201388	-0.1224742437	
586.875	-0.009810250063	-0.07099230783	
587.5	0.05085150585	-0.1619861689	
588.125	-0.07790499602	-0.162378419	
588.75	0.01206356892	-0.04341911974	
589.375	0.1488534634	-0.1669413464	
590.0	-0.1602357055	-0.130983639	
590.625	-0.06410691075	-0.04375897532	
591.25	-0.2197604251	0.08990615819	
591.875	0.1375467631	0.1362100503	
592.5	-0.1132739426	-0.009838496777	
593.125	0.08152228463	0.09261091629	
593.75	-0.05305659007	0.07432557484	
594.375	0.23512289	0.1401956812	
595.0	0.1083016314	-0.02840561896	
595.625	0.07447231249	0.123704781	
596.25	0.2171798511	0.04982723605	
596.875	0.07515780415	-0.02430822466	
597.5	0.08864670262	0.1356108726	
598.125	0.2067529534	0.08092013476	
598.75	0.09050968727	0.04165952634	
599.375	0.2232640154	0.01269438288	
600.0	0.1421087335	-0.1590501752	
600.625	0.06046247817	-0.1180138798	
601.25	0.1330135921	-0.1452749402	
601.875	-0.1501087512	-0.1598398349	
602.5	-0.005717404793	0.0324654566	
603.125	-0.1920473593	-0.01712990826	
603.75	-0.01153792505	0.1729557448	
604.375	-0.06632147021	-0.04521483198	
605.0	-0.1481431716	0.1358409579	
605.625	0.02534135902	-0.07962430342	
606.25	-0.2199228357	0.05099085452	
606.875	-0.1197666947	0.1853752717	
607.5	-0.158197098	0.08324608648	
608.125	0.03709233645	0.2532556103	
608.75	0.2150969107	0.1219506275	
609.375	0.1591142052	-0.02077385707	
610.0	0.2210599444	-0.07583619521	
610.625	0.1210734215	-0.1743021378	
611.25	-0.003622692259	-0.08326801564	
611.875	-0.09557819378	-0.1898593527	
612.5	-0.1656546927	0.04749652656	
613.125	-0.1079178425	-0.06971377217	
613.75	-0.1498170694	0.205864951	
614.375	0.1408832397	0.004693841991	
615.0	-0.01549978581	0.1710466473	
615.625	0.1085497076	0.03218001408	
616.25	-0.1256575346	0.1549829289	
616.875	-0.0929814369	0.2669540743	
617.5	-0.05891776797	0.108584389	
618.125	-0.03305242956	0.2205547353	
618.75	0.050189582	0.125836389	
619.375	0.0839827601	0.1305639286	
620.0	0.1477781921	-0.003978152514	
620.625	0.1715914857	-0.09163484384	
621.25	-0.1333933813	-0.1256517484	
621.875	-0.1149095108	-0.0948927218	
622.5	-0.3062888234	0.01272095801	
623.125	0.05297568427	0.1714313621	
623.75	0.01934923102	0.08253807488	
624.375	0.09591004645	-0.1161666919	
625.0	-0.009545148704	0.03959716331	
625.625	0.102830994	-0.1318881217	
626.25	-0.1077278612	-0.08462421728	
626.875	-0.05381828725	-0.1032668254	
627.5	-0.2097161523	-0.05826865454	
628.125	-0.09514996178	-0.006714566639	
628.75	-0.04657271104	-0.09639107576	
629.375	-0.1225776137	-0.1323785222	
630.0	-0.1312773397	-0.05557290379	
630.625	-0.2005994956	0.03758660477	
631.25	-0.2313590049	0.2219415402	
631.875	0.06377656744	0.2287146037	
632.5	0.07398411667	0.1837851976	
633.125	0.2952385745	0.05467918267	
633.75	0.03391435932	-0.1129841751	
634.375	0.1337996168	-0.09281765348	
635.0	-0.1182619391	-0.1818428069	
635.625	-0.03108947775	-0.03658632469	
636.25	-0.2251623558	0.05089202945	
636.875	0.03312483605	0.1804622085	
637.5	-0.05197211351	-0.00282656642	
638.125	-0.08056760453	0.1785429826	
638.75	0.02716632239	0.079277182	
639.375	-0.08499966813	0.215509164	
640.0	0.2140403274	0.2513489389	
640.625	0.1823976692	0.04306091052	
641.25	0.1536939525	0.04815517717	
641.875	0.2389685427	-0.2509498935	
642.5	-0.1164363092	-0.1469717754	
643.125	-0.03670456279	-0.1552007263	
643.75	-0.2703490812	-0.03561715698	
644.375	0.09150445182	0.01659658115	
645.0	-0.3173893249	0.125995839	
645.625	0.2158720648	0.2079446794	
646.25	-0.04789821997	0.006176469068	
646.875	0.2475018933	0.08277598577	
647.5	-0.08192347576	-0.1097281871	
648.125	0.227254863	0.1890894191	
648.75	0.2136353787	-0.2468825575	
649.375	0.09349572252	-0.116485771	
650.0	0.3358384059	-0.2580349773	
650.625	0.003279118068	-0.4203843003	
651.25	0.07423024108	-0.06019559181	
651.875	0.3603725792	-0.1511270304	
652.5	0.2428728997	-0.2475801243	
653.125	0.1098783475	-0.03554587853	
653.75	0.3084866109	-0.23494065	
654.375	-0.2450917044	-0.2675473784	
655.0	-0.1130270172	-0.06556747211	
655.625	-0.3560660902	0.1449221649	
656.25	0.2458151621	0.152766292	
656.875	-0.09559447369	0.004127305198	
657.5	0.2557735084	0.1711941563	
658.125	0.0189873815	-0.03475680203	
658.75	0.2925171298	0.2344905134	
659.375	0.278220861	-0.351927078	
660.0	0.09338771178	-0.1190194574	
660.625	0.2249030892	-0.302856651	
661.25	0.06578675593	-0.3976851079	
661.875	0.0532490416	-0.06638071241	
662.5	0.3778173275	-0.190118899	
663.125	0.1542451127	-0.3081362192	
663.75	0.09306572303	-0.150997654	
664.375	0.006422695115	-0.3778369563	
665.0	-0.3361007995	-0.0687637597	
665.625	-0.1863433405	0.03213588184	
666.25	-0.1762300973	0.2987272286	
666.875	0.2373032103	0.145075192	
667.5	-0.001232393033	0.1028410425	
668.125	0.3471204591	-0.02108281261	
668.75	-0.004695169999	-0.189539748	
669.375	0.1323218271	-0.09084262035	
670.0	-0.0689954161	-0.4124685675	
670.625	-0.1030901851	0.003191703226	
671.25	0.1725332252	-0.1727695395	
671.875	0.04545774195	-0.2567789424	
672.5	0.08508203606	-0.04712024251	
673.125	0.3038473776	-0.1408752122	
673.75	0.00675230214	-0.2994273952	
674.375	0.037898953	-0.1188178945	
675.0	-0.03401572639	-0.2865627421	
675.625	-0.2803467673	-0.05255859465	
676.25	-0.03448876904	-0.02605979	
676.875	-0.2368752648	-0.03536214054	
677.5	-0.08201522698	0.1235484617	
678.125	-0.116070455	0.01486070145	
678.75	0.03280845823	0.3228136941	
679.375	0.2204070035	-0.1123431122	
680.0	0.06674203924	0.1347534988	
680.625	0.2081434105	-0.1977193965	
681.25	-0.1415650357	-0.06906007086	
681.875	0.3519451586	0.3130314985	
682.5	0.3123587925	-0.1534251797	
683.125	0.03197927708	0.2294847995	
683.75	0.3617378802	0.1711133104	
684.375	0.3400642344	-0.1681215526	
685.0	0.09494634174	0.1832632736	
685.625	0.3956526945	-0.1177429294	
686.25	0.1982606799	-0.1567922679	
686.875	0.1689394115	-0.02421100462	
687.5	0.3420010472	-0.3743814929	
688.125	-0.1271942031	-0.3017074093	
688.75	-0.2586892578	-0.2092468546	
689.375	-0.3337006245	0.3721382059	
690.0	0.2904331571	0.2525712756	
690.625	-0.005000364188	0.2727749016	
691.25	0.5213602801	0.2383376603	
691.875	0.2644434735	0.03082241079	
692.5	0.5752029773	0.4471391678	
693.125	0.7991969509	-0.2113473266	
693.75	0.239642243	0.01555485616	
694.375	0.6068108437	-0.3508547144	
695.0	0.3839068047	-0.4696830159	
695.625	0.4118468657	0.08724887303	
696.25	0.5855989778	0.1149949167	
696.875	0.2791120183	0.1753176685	
697.5	0.3217949425	0.3831346233	
698.125	0.5120587908	0.1744044514	
698.75	0.3802126428	-0.4804779062	
699.375	-0.3050809444	-0.1694892189	
700.0	-0.3787605043	0.2714840639	
700.625	0.2677862579	0.3100125064	
701.25	0.08688057068	0.03383756058	
701.875	0.2562955437	0.3444504785	
702.5	0.4325306704	0.02305914532	
703.125	0.2328413607	0.1927755569	
703.75	0.4773760543	-0.0787795005	
704.375	0.06851715542	-0.1817638252	
705.0	0.22612203	0.0564734142	
705.625	0.4134418743	-0.05695709658	
706.25	0.1495129241	0.07082447026	
706.875	0.3241790295	0.2360392269	
707.5	0.3461353827	0.2844600981	
708.125	0.3112696756	0.007337771613	
708.75	0.101695559	-0.2993831058	
709.375	-0.1485722174	-0.3494490943	
710.0	-0.07576563145	0.3218728611	
710.625	-0.0314472099	0.02600728043	
711.25	0.3122373046	0.2039380737	
711.875	0.002278871443	-0.01852899152	
712.5	0.34684884	0.04073612884	
713.125	0.2016754159	-0.2865756514	
713.75	0.06446911421	-0.1074462811	
714.375	0.08635706536	-0.2851803911	
715.0	-0.1255126685	-0.1906707933	
715.625	0.06718131803	-0.1056632233	
716.25	0.2106059994	-0.3423892357	
716.875	0.09624249758	-0.2238364703	
717.5	0.3605047908	-0.0326972194	
718.125	0.6848196785	-0.02802162539	
718.75	0.5283771222	-0.2389046103	
719.375	0.2028520837	-0.2834473919	
720.0	0.3580065777	-0.8765768656	
720.625	-0.8318963256	-0.702523419	
721.25	0.1664519719	-0.5832622646	
721.875	-0.4826618977	-1.222818049	
722.5	-0.626204621	0.1464633127	
723.125	-0.6208529664	-0.4050517274	
723.75	-0.2951542456	0.648003049	
724.375	0.1356292813	0.1462838892	
725.0	0.005949774075	0.4377801428	
725.625	0.4003591386	0.4359054253	
726.25	0.02922959568	0.3227995434	
726.875	-0.1701973059	0.9510494177	
727.5	0.3423472619	1.288288393	
728.125	0.1910437545	0.930272444	
728.75	-0.6191981511	2.560310221	
729.375	0.4871972164	3.290229119	
730.0	0.5873131074	1.906266307	
730.625	-0.5931964929	4.215815625	
731.25	1.240218793	5.246223741	
731.875	-0.38560535	1.110473215	
732.5	-3.147582791	0.7199058761	
733.125	-2.134514966	1.814161829	
733.75	-0.1643254	-0.1146670455	
734.375	1.13995167	0.8172912378	
735.0	-0.5781181782	-0.283632532	
735.625	-0.2489315507	-0.2011185244	
736.25	-0.002980686792	0.8259450963	
736.875	0.5462863766	-0.01597245709	
737.5	0.5173533846	0.6164576892	
738.125	1.744248989	-0.7092534307	
738.75	0.6006072317	-1.563311655	
739.375	0.9894716611	0.01953237686	
740.0	4.602404395	-1.778455742	
740.625	0.1370868	-2.851667043	
741.25	-2.679307786	3.060132951	
741.875	-1.936458793	3.128148453	
742.5	0.3096334344	-0.2452699117	
743.125	1.101586547	-2.291361148	
743.75	-0.6538766414	-1.237143505	
744.375	-0.1349536978	0.1760772619	
745.0	-0.1029498399	0.163968274	
745.625	-0.07690759308	-0.1126945853	
746.25	0.08092729144	-0.1693370891	
746.875	-0.2809951427	0.1359188308	
747.5	0.03817122128	0.1847279014	
748.125	-0.03596021181	0.4737124632	
748.75	0.3528316429	0.3806871078	
749.375	0.1415100949	0.1808477372	
750.0	-0.2171920612	0.1116761145	
