!Created with skrf (http://scikit-rf.org).
# GHz S RI R (50+0j) 
!freq	ReS11	ImS11	
500.0	0.1784342054	-0.8350514256	
500.625	0.3182541062	-0.7586999195	
501.25	-0.233627965	-0.5381447902	
501.875	-0.2657098092	-0.3925659063	
502.5	-0.03148567202	-0.09092846859	
503.125	-0.05792143904	0.004830848156	
503.75	0.008380564884	0.06574970258	
504.375	0.02361304949	-0.006899645673	
505.0	0.01604614571	-0.01723364963	
505.625	0.0002737454003	-0.04025122174	
506.25	-0.05000743969	-0.04499370416	
506.875	-0.08708179899	0.0082330143	
507.5	-0.05566987737	-0.2748571567	
508.125	0.1461381193	-0.541621349	
508.75	0.4188970302	-0.7771436541	
509.375	-0.1505673375	-0.9391817341	
510.0	-0.3335817521	-0.1765595642	
510.625	-0.1047108128	-0.1502419009	
511.25	-0.07165607131	-0.06001598847	
511.875	-0.1322477958	-0.03803921691	
512.5	-0.01566024593	0.02646273533	
513.125	0.00125852571	-0.04570928331	
513.75	-0.04307927297	-0.03455923835	
514.375	-0.04746245165	-0.009744992432	
515.0	0.0005674064604	-0.02767078437	
515.625	0.02727482339	-0.3059406949	
516.25	-0.1944064514	-0.5548584006	
516.875	-0.1527458856	-0.2943035934	
517.5	-0.03566643053	-0.1287127815	
518.125	-0.01973061858	-0.02222933225	
518.75	-0.04024023876	-0.1020979465	
519.375	-0.04604927279	0.02857957162	
520.0	0.08831325912	0.03917408278	
520.625	0.1205572398	-0.05786277016	
521.25	-0.02516795611	-0.2067029928	
521.875	-0.1173930162	-0.01779682407	
522.5	-0.04133901596	0.01978219452	
523.125	-0.04997150421	0.01858216671	
523.75	-0.08824494372	-0.009493146572	
524.375	-0.1289250461	0.02825997723	
525.0	-0.0347162042	0.1128096778	
525.625	0.02686741595	0.036388673	
526.25	-0.01104847733	-0.009861530132	
526.875	-0.04197262135	0.0447607708	
527.5	-0.0353456154	0.1486971869	
528.125	0.04745833734	0.2077111739	
528.75	0.03501158816	0.1735874078	
529.375	0.03441151371	0.05691875537	
530.0	0.02617061023	0.138089393	
530.625	0.09528697965	0.2437675565	
531.25	0.3411922121	0.07766870716	
531.875	0.1812680233	-0.1517884545	
532.5	-0.04795771835	-0.09054433131	
533.125	0.04270404523	-0.04459436841	
533.75	0.07798087992	-0.15127087	
534.375	-0.07879494731	-0.2242894776	
535.0	-0.1998101731	-0.07253381043	
535.625	-0.1297505113	0.09604259561	
536.25	0.0003922033125	0.07975137341	
536.875	0.07864070697	0.01313818891	
537.5	0.05657635394	-0.03552339947	
538.125	0.09478253495	-0.05130040346	
538.75	0.1039086559	-0.1042618016	
539.375	-0.06406981743	-0.1377401772	
540.0	-0.1423555094	-0.1227753612	
540.625	-0.139299131	-0.01731174267	
541.25	-0.07330248006	0.005639088372	
541.875	-0.03903640456	-0.01714241338	
542.5	-0.04256454524	-0.0435177291	
543.125	-0.06936772634	-0.03474139651	
543.75	-0.07356928523	0.0006623579973	
544.375	-0.03764689497	0.03734076763	
545.0	-0.001430380995	0.05012946461	
545.625	0.04679453762	0.05168957426	
546.25	0.08494097431	0.0287199563	
546.875	0.1000183362	-0.02760872929	
547.5	0.05556764989	-0.1058058706	
548.125	-0.03647564601	-0.1381455726	
548.75	-0.105308817	-0.09815848961	
549.375	-0.09750116643	-0.05757864094	
550.0	-0.06562538193	0.008069853494	
550.625	-0.04567392656	0.008945665175	
551.25	-0.06658566023	0.02396156401	
551.875	-0.06242340375	0.06033252973	
552.5	-0.03726374044	0.06714801615	
553.125	-0.009342429695	0.0550056547	
553.75	0.0432216906	0.03891815317	
554.375	0.08227072783	-0.005007302285	
555.0	0.08573492679	-0.06426759613	
555.625	0.07222603257	-0.09729313613	
556.25	0.05122788019	-0.1249185817	
556.875	-0.03904526294	-0.1378400813	
557.5	-0.09227014541	-0.0879199261	
558.125	-0.1060933402	-0.0308204238	
558.75	-0.09848765662	0.0007200806387	
559.375	-0.09778064563	0.02113355206	
560.0	-0.08475608501	0.06930506324	
560.625	-0.04435642497	0.09974267516	
561.25	0.008321768717	0.08868259163	
561.875	0.02845301284	0.03957054151	
562.5	0.01211654914	0.04677604313	
563.125	0.06504969752	0.06219835705	
563.75	0.1246283469	-0.001739659876	
564.375	0.1102729689	-0.08868480402	
565.0	0.05902409467	-0.1343156915	
565.625	-0.03518329136	-0.1374823812	
566.25	-0.1047562153	-0.09217916581	
566.875	-0.1228997247	-0.06531240032	
567.5	-0.1225459008	-0.09331869507	
568.125	-0.1263069456	-0.1342263355	
568.75	-0.1968162385	-0.06255107612	
569.375	-0.1999153963	0.08771370992	
570.0	-0.1044005036	0.1736432072	
570.625	-0.05181026213	0.1489809517	
571.25	0.002470964198	0.1009479489	
571.875	0.05267381264	0.06278597289	
572.5	0.1090250398	-0.004943648225	
573.125	0.07521222369	-0.09834040117	
573.75	0.03592604211	-0.09647514022	
574.375	0.00989879846	-0.06064107067	
575.0	0.02560895273	-0.03442866795	
575.625	0.03312184949	-0.06588021856	
576.25	0.03803771327	-0.09701713272	
576.875	-0.005646362582	-0.1249580525	
577.5	-0.005226269244	-0.1384917105	
578.125	-0.0424689794	-0.1374952517	
578.75	-0.07582183579	-0.1053860885	
579.375	-0.07558058108	-0.05703577	
580.0	-0.04715593768	-0.02614091468	
580.625	-0.06247146301	-0.02235543098	
581.25	-0.08748879019	0.06764566843	
581.875	0.005552112631	0.1357273461	
582.5	0.04620355275	0.1231242817	
583.125	0.06666084556	0.06745312302	
583.75	0.0365060809	0.01668476624	
584.375	0.0323239153	0.0481143304	
585.0	0.09810010252	0.04915239873	
585.625	0.135017748	-0.001780863644	
586.25	0.1311738632	-0.05515527155	
586.875	0.06008476412	-0.1186143154	
587.5	-0.01560791266	-0.1224110038	
588.125	-0.01530737963	-0.1209730754	
588.75	0.0301242101	-0.125483422	
589.375	0.05626382807	-0.1337460222	
590.0	-0.0543530187	-0.1502531631	
590.625	-0.1608575383	-0.03355839652	
591.25	-0.1130654104	0.09661472813	
591.875	-0.03409308528	0.1019359099	
592.5	0.005807863628	0.043295267	
593.125	-0.02403607362	0.04444911823	
593.75	0.05034835406	0.1011937006	
594.375	0.1308295681	0.08471784879	
595.0	0.1452763075	0.08721878353	
595.625	0.1469631347	0.0667361501	
596.25	0.1382802977	0.03344049272	
596.875	0.1366345251	0.02749169025	
597.5	0.1277146627	0.06764056953	
598.125	0.1292007804	0.09558072026	
598.75	0.1555667053	0.06629576097	
599.375	0.1829089978	-0.03507646844	
600.0	0.1420491738	-0.1271519636	
600.625	0.1205975761	-0.151803481	
601.25	0.05685338589	-0.1642395929	
601.875	-0.07117145619	-0.1212975732	
602.5	-0.1117669792	-0.00975819157	
603.125	-0.09342223971	0.04265438668	
603.75	-0.09226112595	0.06174994892	
604.375	-0.08451912115	0.06484507297	
605.0	-0.05867039783	0.06856662849	
605.625	-0.06044047017	0.05566164421	
606.25	-0.09734963384	0.05610002943	
606.875	-0.1477889085	0.07479670481	
607.5	-0.1406488912	0.1607019017	
608.125	-0.01907426717	0.2181514398	
608.75	0.1625991146	0.1433081635	
609.375	0.2066825532	-0.03277445531	
610.0	0.145927042	-0.1085648511	
610.625	0.0699324134	-0.1413560327	
611.25	-0.001333507227	-0.1394665719	
611.875	-0.0809227977	-0.1061552033	
612.5	-0.1434143248	-0.05453996918	
613.125	-0.1677774534	0.02992163104	
613.75	-0.07674741058	0.1298751189	
614.375	0.04576718191	0.09481442505	
615.0	0.0367653221	0.03735585472	
615.625	0.0004688252815	0.07578494412	
616.25	-0.03087341828	0.125723558	
616.875	-0.06494023301	0.1686752748	
617.5	-0.04749234907	0.1972197066	
618.125	-0.005696891155	0.1887478925	
618.75	0.02959532121	0.1662934147	
619.375	0.08747080498	0.1406661755	
620.0	0.1700446276	0.03225718262	
620.625	0.0902733974	-0.1418620795	
621.25	-0.08403801082	-0.1597257108	
621.875	-0.181344791	-0.07276975892	
622.5	-0.1891644359	0.05713606617	
623.125	-0.02609933996	0.166602339	
623.75	0.1173314993	0.030074643	
624.375	0.03242885602	-0.04778057538	
625.0	0.03570790229	-0.02471400904	
625.625	0.0428324674	-0.08034381295	
626.25	-0.04946035284	-0.1189851162	
626.875	-0.127049189	-0.0684891976	
627.5	-0.1304775188	-0.03095726808	
628.125	-0.1001344768	-0.05650347078	
628.75	-0.06844350741	-0.1039571118	
629.375	-0.08778475626	-0.1301915019	
630.0	-0.1686183388	-0.07914631947	
630.625	-0.1937800288	0.06707763618	
631.25	-0.119051575	0.1772152597	
631.875	-0.0101953838	0.2181779513	
632.5	0.1389364168	0.1651167187	
633.125	0.1889157159	0.03545970656	
633.75	0.1458046211	-0.06919260175	
634.375	0.04896615707	-0.1236325122	
635.0	-0.02132681986	-0.1313049887	
635.625	-0.1341133264	-0.07153100089	
636.25	-0.1346069383	0.07136649028	
636.875	-0.05144889833	0.1156599763	
637.5	-0.02641801655	0.08090878886	
638.125	-0.05281313976	0.08073288462	
638.75	-0.0523760787	0.1505201888	
639.375	0.01315190985	0.219354108	
640.0	0.1332770431	0.2080208219	
640.625	0.2184833126	0.1180237956	
641.25	0.2430694619	-0.02088268627	
641.875	0.1396300101	-0.1750915219	
642.5	-0.02187238886	-0.1885392226	
643.125	-0.1131249944	-0.1012211171	
643.75	-0.1223686861	-0.0584362124	
644.375	-0.1573596284	0.008985174568	
645.0	-0.1206010576	0.1465505001	
645.625	0.06251222695	0.1873499543	
646.25	0.1503083659	0.05611061607	
646.875	0.08624394322	-0.02234125451	
647.5	0.0513343911	0.02635177714	
648.125	0.1438770305	0.0366249144	
648.75	0.2259784737	-0.07536111813	
649.375	0.1820627247	-0.2266598452	
650.0	0.1207965904	-0.274614153	
650.625	0.1148606745	-0.2573396652	
651.25	0.1556097731	-0.2178829902	
651.875	0.2093179422	-0.1632173566	
652.5	0.2326443109	-0.1053207314	
653.125	0.2284028557	-0.1157340727	
653.75	0.1541403747	-0.2166885555	
654.375	-0.07299312274	-0.2649639247	
655.0	-0.2575364148	-0.06548436509	
655.625	-0.1476831827	0.171904851	
656.25	0.04104002817	0.151555868	
656.875	0.04962349523	0.05560166528	
657.5	0.03886811322	0.08925073746	
658.125	0.136738894	0.1309644688	
658.75	0.2623916087	0.04937108355	
659.375	0.2743740607	-0.1470821602	
660.0	0.1739603304	-0.2740481365	
660.625	0.09358276462	-0.2954731527	
661.25	0.1163386254	-0.2653615448	
661.875	0.1666748128	-0.2336097063	
662.5	0.2091690384	-0.1946247212	
663.125	0.2114885269	-0.1923290042	
663.75	0.1199456092	-0.2595921381	
664.375	-0.05860893903	-0.2862842038	
665.0	-0.2481798433	-0.1644531271	
665.625	-0.2720613692	0.09600001771	
666.25	-0.07091333303	0.2432944252	
666.875	0.1151042231	0.1739665387	
667.5	0.1681684794	0.07047049051	
668.125	0.1911377701	-0.02782055388	
668.75	0.1570652568	-0.1389669721	
669.375	0.06784868121	-0.2018808487	
670.0	-0.0101610706	-0.1948861728	
670.625	-0.008949407621	-0.1675989982	
671.25	0.03794693193	-0.1581738769	
671.875	0.1043252236	-0.1588978047	
672.5	0.1638507925	-0.1477962722	
673.125	0.1667886399	-0.1674129975	
673.75	0.1224938073	-0.2034249065	
674.375	0.02669076787	-0.2318158685	
675.0	-0.09368788983	-0.203329801	
675.625	-0.1738133177	-0.1021616137	
676.25	-0.1613187344	-0.009270409799	
676.875	-0.1279403667	0.01868270434	
677.5	-0.132868615	0.0361416141	
678.125	-0.1113591117	0.135134979	
678.75	0.04821219532	0.1953469541	
679.375	0.1887856209	0.04978798962	
680.0	0.1234813841	-0.09060036516	
680.625	0.05248740364	-0.07520004552	
681.25	0.07849554954	-0.01841070606	
681.875	0.135033914	0.0314470093	
682.5	0.1852956293	0.06142541827	
683.125	0.2187930308	0.04800420323	
683.75	0.2328188797	0.04223586325	
684.375	0.2442918103	0.0194704266	
685.0	0.2527925408	0.01424394083	
685.625	0.2512841622	-0.01879120306	
686.25	0.2583194714	-0.05780956165	
686.875	0.2520532095	-0.1540979845	
687.5	0.1949510479	-0.2788513396	
688.125	-0.06211899633	-0.3780150039	
688.75	-0.3769523806	-0.12946299	
689.375	-0.2253295198	0.2994686826	
690.0	0.1173457482	0.3013797018	
690.625	0.2271803003	0.1976894242	
691.25	0.2984192756	0.207434692	
691.875	0.4221078184	0.2283375558	
692.5	0.5419144975	0.1301077695	
693.125	0.5741135755	-0.07581650843	
693.75	0.4927519748	-0.2585738023	
694.375	0.3497445451	-0.3737997537	
695.0	0.3662556633	-0.28372425	
695.625	0.4252576005	-0.1168334904	
696.25	0.4376085027	0.09983484971	
696.875	0.3751136839	0.2920874926	
697.5	0.3723891466	0.3415667789	
698.125	0.502802299	0.1369576061	
698.75	0.3345048678	-0.3890737321	
699.375	-0.3661731436	-0.2997485182	
700.0	-0.2109306732	0.3154426021	
700.625	0.143032562	0.2398964334	
701.25	0.2045070495	0.1381834394	
701.875	0.244438028	0.1786260121	
702.5	0.3186760406	0.1782825331	
703.125	0.3748807122	0.06119321037	
703.75	0.3244560902	-0.1180642715	
704.375	0.2257653413	-0.1842066734	
705.0	0.1982787261	-0.1318177272	
705.625	0.2257797924	-0.01807980814	
706.25	0.2299421407	0.1336500616	
706.875	0.2203115761	0.2293640501	
707.5	0.2623967478	0.2630759268	
708.125	0.3862012762	0.06182291712	
708.75	0.2105781776	-0.3226517355	
709.375	-0.2543902152	-0.2143978386	
710.0	-0.1407609417	0.195133534	
710.625	0.07141788882	0.1239143471	
711.25	0.09173873291	0.0897155129	
711.875	0.1902402154	0.07538894147	
712.5	0.262287847	-0.05245138979	
713.125	0.2083065644	-0.1759664694	
713.75	0.0922453479	-0.2284478968	
714.375	-0.01260867037	-0.2066029252	
715.0	-0.03998380804	-0.1722544179	
715.625	-0.001802722669	-0.1872143495	
716.25	0.1125661113	-0.2139674552	
716.875	0.2649092793	-0.1770215242	
717.5	0.4189761586	-0.07227410014	
718.125	0.5474029832	-0.0257898574	
718.75	0.6200880587	-0.163290876	
719.375	0.5694188137	-0.4104905373	
720.0	0.3256668132	-0.7191661345	
720.625	0.08422517074	-0.7935727282	
721.25	-0.138084935	-0.8069198524	
721.875	-0.3062887085	-0.7937130543	
722.5	-0.5987768665	-0.5432609841	
723.125	-0.6664263954	-0.01122823838	
723.75	-0.2830578293	0.4150447574	
724.375	0.07546432204	0.3855360106	
725.0	0.1794487464	0.2937413215	
725.625	0.1775765971	0.3631513271	
726.25	0.09576803354	0.5519902165	
726.875	0.01788668875	0.7696838917	
727.5	0.008384153334	1.119389457	
728.125	0.1072963342	1.555789605	
728.75	0.07791039494	2.103099704	
729.375	-0.2430660443	2.734677502	
730.0	0.305821476	3.030610649	
730.625	0.3618899537	3.209691311	
731.25	-0.4284821651	3.072809754	
731.875	-1.835494621	2.292259284	
732.5	-2.469649005	1.188400774	
733.125	-1.864447544	0.6792669439	
733.75	-0.5310161545	1.169043154	
734.375	0.7404614294	0.2745945941	
735.0	-0.06376266712	-0.5137803125	
735.625	-0.3881193516	0.1292756897	
736.25	-0.009977829739	0.4429132767	
736.875	0.4009497227	0.4171077023	
737.5	0.8668843278	0.05313247518	
738.125	1.132179173	-0.4501663047	
738.75	1.312947469	-1.03217964	
739.375	1.642647466	-1.412421657	
740.0	2.222254186	-1.171077342	
740.625	2.024222352	0.04806155027	
741.25	0.6353384498	1.679390892	
741.875	-2.361364681	0.4913328589	
742.5	-1.019963739	-1.595424978	
743.125	0.07439302174	-1.535232189	
743.75	-0.08240981576	-0.8738000639	
744.375	-0.3628972307	-0.09405217217	
745.0	0.03236268108	0.103657656	
745.625	0.03908048394	-0.008299622937	
746.25	-0.0409832141	-0.1110977814	
746.875	-0.1566638061	0.04874477881	
747.5	-0.06095615914	0.2804688126	
748.125	0.1529239307	0.3588972371	
748.75	0.249527494	0.3355552048	
749.375	-0.05725385846	0.3007194491	
750.0	-0.2705305905	0.2766070307	
