!Created with skrf (http://scikit-rf.org).
# GHz S RI R (50+0j) 
!freq	ReS11	ImS11	
500.0	-0.2911268136	-0.8445204049	
500.625	0.4239761294	-0.4004292437	
501.25	-0.6474071174	-0.9900251101	
501.875	-0.2321450988	-0.2072173358	
502.5	0.01347864258	-0.135326018	
503.125	-0.08240142862	0.0237672353	
503.75	0.009706444935	0.02586257545	
504.375	0.05650660025	-0.003961044434	
505.0	-0.0142146005	-0.02056576197	
505.625	0.04419930363	-0.04761494475	
506.25	-0.1326917755	-0.003461695422	
506.875	0.004943568692	-0.1808744828	
507.5	-0.2955792235	-0.486314147	
508.125	0.01540411028	-0.2216723185	
508.75	0.8399320282	-0.6103995146	
509.375	-0.2838633776	-1.091377284	
510.0	-0.2196776597	-0.07290011623	
510.625	-0.03078305836	-0.2322034757	
511.25	-0.135559004	0.03329443856	
511.875	-0.05991234264	-0.05986451256	
512.5	-0.03312524463	0.05171698082	
513.125	-0.03689632496	-0.02951615366	
513.75	0.001081809598	-0.05618980976	
514.375	-0.1352461996	-0.006102845428	
515.0	0.1868151308	0.1150043036	
515.625	-0.4168611928	-0.4196427934	
516.25	-0.1793075541	-0.113810487	
516.875	-0.06472937954	-0.6080236656	
517.5	-0.1452336317	-0.1865892746	
518.125	0.02736372495	-0.04905741803	
518.75	-0.1063951414	-0.1245017575	
519.375	-0.01597213529	0.03496860819	
520.0	0.05494999347	0.07742161988	
520.625	0.1597676009	-0.05773623043	
521.25	-0.06912977777	-0.2086853339	
521.875	-0.06602145773	-0.01519425832	
522.5	-0.1136075999	0.0340221247	
523.125	0.05249012542	0.0306715436	
523.75	-0.1874089344	-0.08933655588	
524.375	-0.08448269719	0.1888852523	
525.0	-0.05854791118	-0.01429707349	
525.625	0.02135017496	0.1295871775	
526.25	-0.05924850265	-0.0855267148	
526.875	-0.04363519738	0.1188955284	
527.5	0.03974218032	0.08622682975	
528.125	-0.04579057748	0.2455193736	
528.75	0.08656052443	0.2450579231	
529.375	0.01166036595	-0.01377641539	
530.0	0.006286535339	0.2206794866	
530.625	0.1787506524	0.1170785691	
531.25	0.2117196978	-0.07782458655	
531.875	0.3082935334	-0.1982579485	
532.5	-0.1156957786	0.01887819416	
533.125	0.1738040284	-0.08220225206	
533.75	-0.02160203832	-0.1783425718	
534.375	0.05843270039	-0.2426314903	
535.0	-0.2859615756	-0.09396578868	
535.625	-0.0722188749	0.09517189383	
536.25	-0.03407057298	0.08045875951	
536.875	0.1167549874	-0.004596644556	
537.5	0.02246193576	-0.01687230244	
538.125	0.1650140796	-0.04748393404	
538.75	0.08729058616	-0.120037529	
539.375	-0.01622856664	-0.1295226031	
540.0	-0.1849979792	-0.1933815718	
540.625	-0.1362971576	0.04925324561	
541.25	-0.01949989536	0.04002476713	
541.875	-0.08948644366	-0.0107387331	
542.5	-0.002566061376	0.001034474885	
543.125	-0.1052385774	-0.0951664173	
543.75	-0.1339337583	0.1024884776	
544.375	-0.05240930931	-0.01962449397	
545.0	0.01814940904	0.09643683363	
545.625	0.0198911216	-0.01104666745	
546.25	0.1106412792	0.09453397017	
546.875	0.09657341358	-0.08439001818	
547.5	0.08060569029	-0.06123402173	
548.125	-0.04561475568	-0.1989064584	
548.75	-0.1494856783	-0.04116097408	
549.375	-0.04778961702	-0.0788856672	
550.0	-0.1129953288	0.01262019936	
550.625	-0.01219255586	0.01188405488	
551.25	-0.1017389572	0.01223302442	
551.875	-0.03849911263	0.078581609	
552.5	-0.05821293828	0.04314809782	
553.125	-0.01168434156	0.07200353875	
553.75	0.03527832401	0.02854165378	
554.375	0.09420851886	0.006504102958	
555.0	0.0867211952	-0.0686269202	
555.625	0.0768558055	-0.08838543438	
556.25	0.06434552036	-0.1280483989	
556.875	-0.03210391465	-0.1483190698	
557.5	-0.09217310991	-0.09497417182	
558.125	-0.1062125005	-0.03739637771	
558.75	-0.107345076	-0.003470105179	
559.375	-0.09631320253	0.025504867	
560.0	-0.09376681206	0.05894362224	
560.625	-0.05388379703	0.1220076886	
561.25	0.02291362663	0.07001332525	
561.875	0.006933935754	0.0628598462	
562.5	0.03520345004	0.03122174163	
563.125	0.03225616326	0.0828366075	
563.75	0.1687588299	0.0005176291749	
564.375	0.07744088599	-0.08729779385	
565.0	0.115602371	-0.1208618668	
565.625	-0.06774944134	-0.1925592573	
566.25	-0.07104814014	-0.04610662197	
566.875	-0.12762731	-0.1461678434	
567.5	-0.177113003	-0.05469664382	
568.125	-0.04237008081	-0.1313045391	
568.75	-0.2606284719	-0.09644926065	
569.375	-0.1211285739	0.1466662679	
570.0	-0.1467450756	0.1084046428	
570.625	-0.05993232327	0.2530061998	
571.25	0.04269097029	0.03682396998	
571.875	0.02276742685	0.1659350131	
572.5	0.1229598914	-0.08387647773	
573.125	0.06832037579	-0.003855043323	
573.75	0.1065204246	-0.1582786724	
574.375	-0.0834553212	-0.05162479287	
575.0	0.100484473	0.004576352933	
575.625	-0.02050513761	-0.1259916278	
576.25	0.03292343406	-0.008324971872	
576.875	0.03671798137	-0.1939072151	
577.5	-0.08514822179	-0.1515829712	
578.125	0.01389434016	-0.04283584412	
578.75	-0.0498804224	-0.1990773523	
579.375	-0.2106271766	0.03443458667	
580.0	0.06971203414	-0.03129258532	
580.625	-0.1761360785	-0.01218525841	
581.25	0.0004519501949	0.05138694909	
581.875	-0.1277649862	0.1761064341	
582.5	0.1453557171	0.1935825312	
583.125	0.04693354981	-0.02531215495	
583.75	0.03762449418	0.1228303719	
584.375	0.04990745729	-0.06214823252	
585.0	0.03893532257	0.1398822813	
585.625	0.2231174973	-0.03042834213	
586.25	0.0589906273	-0.0832712446	
586.875	0.1413571494	-0.08721590358	
587.5	-0.05281944148	-0.1970785896	
588.125	-0.01706314197	-0.03833439247	
588.75	0.1054779912	-0.1650235925	
589.375	-0.03269715021	-0.2020747089	
590.0	0.01427355115	-0.09292904995	
590.625	-0.2355506916	-0.1117773772	
591.25	-0.02968918421	0.1754870357	
591.875	-0.07184070736	0.003265854919	
592.5	0.0174429104	0.1550134451	
593.125	-0.0190571868	-0.05164134939	
593.75	0.08943658081	0.2014664712	
594.375	0.1119105608	-0.01627713198	
595.0	0.07080064881	0.1159562158	
595.625	0.2236925041	0.1147607503	
596.25	0.09870977816	-0.04023350633	
596.875	0.1059918929	0.1152131783	
597.5	0.2032236961	0.04593658453	
598.125	0.09570423177	0.03325179166	
598.75	0.1349114726	0.1492815179	
599.375	0.2263458651	-0.06874862522	
600.0	0.08120683935	-0.09577836918	
600.625	0.192166025	-0.1319456737	
601.25	0.02806025463	-0.2486432192	
601.875	-0.05520009242	-0.01489079433	
602.5	-0.1524192472	-0.1159824842	
603.125	-0.0868362361	0.1309404118	
603.75	-0.07600722277	-0.05772992098	
604.375	-0.1804109314	0.07734574111	
605.0	0.06597428064	-0.04153403785	
605.625	-0.1428838715	-0.02379981299	
606.25	-0.1192437033	0.1513132643	
606.875	-0.06211687399	0.03697556336	
607.5	-0.1868972478	0.193864923	
608.125	0.04699515221	0.2757629306	
608.75	0.1328152986	0.1488572653	
609.375	0.2743849092	0.05249254315	
610.0	0.2041058682	-0.1080225632	
610.625	0.04017292284	-0.05953217409	
611.25	0.07964441212	-0.2286899028	
611.875	-0.1469102334	-0.03613960147	
612.5	-0.05003284508	-0.1040133121	
613.125	-0.2861160557	0.04386786026	
613.75	0.03433742665	0.1478810596	
614.375	-0.08789722369	0.1304691698	
615.0	0.1472847699	0.05606175591	
615.625	-0.07008104164	0.01915828575	
616.25	-0.09368832394	0.2341836767	
616.875	-0.01993665197	0.1341864322	
617.5	-0.1087044722	0.1795638537	
618.125	-0.06496674947	0.2777200894	
618.75	0.09208720564	0.147483205	
619.375	0.09780779902	0.102281756	
620.0	0.1757250719	0.1096775136	
620.625	0.03419370958	-0.1353533357	
621.25	0.00666337365	-0.1832280293	
621.875	-0.2514931567	-0.1689514436	
622.5	-0.1454017809	0.1372688278	
623.125	-0.1223247586	0.08584203284	
623.75	0.1954231749	0.07299520148	
624.375	-0.04620254527	-0.06547181942	
625.0	0.1259788179	-0.02645749956	
625.625	-0.02035328817	-0.09189283969	
626.25	0.04040799313	-0.1115710858	
626.875	-0.1917424472	-0.1248008925	
627.5	-0.1216003122	0.04414771251	
628.125	-0.07193608384	-0.08407833325	
628.75	-0.1376847239	-0.136978148	
629.375	-0.05897867839	-0.06838776484	
630.0	-0.1289231835	-0.1186200249	
630.625	-0.2924815741	0.04023686865	
631.25	-0.08269528686	0.1511172286	
631.875	-0.1081549371	0.2410567305	
632.5	0.1976981771	0.1909243047	
633.125	0.1368479816	-0.04588172563	
633.75	0.194017186	0.0211260926	
634.375	0.01996086327	-0.2058638457	
635.0	0.01747558511	-0.02208809003	
635.625	-0.1672489363	-0.1661196	
636.25	-0.1238013797	0.1422283482	
636.875	-0.04847233063	0.02894135271	
637.5	-0.09031713098	0.1693278924	
638.125	0.0282797358	0.03052087504	
638.75	-0.1684696807	0.1324344857	
639.375	0.06073548562	0.2957265039	
640.0	0.10158197	0.1185999545	
640.625	0.1584433771	0.2111755455	
641.25	0.3494029375	-0.01791987269	
641.875	0.07141397853	-0.1408880318	
642.5	0.114759869	-0.1917598276	
643.125	-0.2338963197	-0.1125505701	
643.75	0.03799155107	0.06516071217	
644.375	-0.2531940468	-0.09893310867	
645.0	-0.04342329004	0.2108448428	
645.625	-0.06768513846	0.04394099002	
646.25	0.2581727272	0.2767940236	
646.875	0.0288642395	-0.1689817328	
647.5	0.03454996921	0.1778056564	
648.125	0.2144065994	-0.06683183452	
648.75	0.1000941681	0.007495517749	
649.375	0.4267993324	-0.198238623	
650.0	0.03561212596	-0.3922259407	
650.625	0.1107404786	-0.09899731224	
651.25	0.3311436172	-0.2403096859	
651.875	0.1793391709	-0.320150561	
652.5	0.1632830544	0.03948014078	
653.125	0.396633036	-0.09701516003	
653.75	0.08286999869	-0.2616276555	
654.375	0.08146820483	-0.1780804488	
655.0	-0.3638715198	-0.2154385736	
655.625	-0.03834364502	0.3191894113	
656.25	-0.06305352422	0.0613033749	
656.875	0.1522347079	0.312612842	
657.5	-0.01615399564	-0.08881063435	
658.125	0.1269231684	0.3034284686	
658.75	0.3284158984	-0.0559631602	
659.375	0.1722342308	-0.02622133481	
660.0	0.3503385688	-0.2238246008	
660.625	0.04572532633	-0.4233951385	
661.25	0.1007289989	-0.1037381034	
661.875	0.333439083	-0.2427085571	
662.5	0.1983270334	-0.2777106769	
663.125	0.1745879321	-0.06936524281	
663.75	0.2791199918	-0.3083973593	
664.375	-0.1418389873	-0.2836734356	
665.0	-0.1261327312	-0.1940144663	
665.625	-0.3947391895	-0.0006689791663	
666.25	-0.005184810096	0.3137220431	
666.875	-0.01214054974	0.1526420809	
667.5	0.2522053627	0.1724815192	
668.125	0.1064286843	-0.1277967836	
668.75	0.2235901371	0.008477713468	
669.375	0.06405344891	-0.435102309	
670.0	-0.05925089826	-0.08278858477	
670.625	0.1239074786	-0.2070674332	
671.25	0.01448993123	-0.2515758513	
671.875	0.06804936241	0.00284563901	
672.5	0.321638026	-0.1084070539	
673.125	0.1352045907	-0.2338533556	
673.75	0.1278952494	-0.1074170917	
674.375	0.1653015049	-0.2860886411	
675.0	-0.1955757391	-0.2360263348	
675.625	-0.03140898303	-0.1102161963	
676.25	-0.2399314013	-0.1191567166	
676.875	-0.1352538453	0.09411787236	
677.5	-0.05606149168	-0.08029979045	
678.125	-0.2653628683	0.2086049031	
678.75	0.1179465077	0.1315162843	
679.375	0.001991683341	0.2018959963	
680.0	0.3173635907	-0.1191132096	
680.625	-0.09919383454	-0.09893799003	
681.25	0.3258335889	0.1390346451	
681.875	0.1559336708	-0.1550574063	
682.5	0.03123473595	0.1834095755	
683.125	0.3166269844	0.2526653333	
683.75	0.2786178693	-0.1251583783	
684.375	0.05749453892	0.1216599394	
685.0	0.3589814673	0.0614624367	
685.625	0.2885322816	-0.1254864831	
686.25	0.1110358836	0.1033126668	
686.875	0.4758146729	-0.1930740771	
687.5	0.1440626398	-0.2017045425	
688.125	0.1583574512	-0.3327739051	
688.75	-0.4792310095	-0.3173367152	
689.375	-0.1213093222	0.349319575	
690.0	-0.1594253847	0.2678943807	
690.625	0.3789845636	0.3113062499	
691.25	0.1969610283	0.09020210838	
691.875	0.3914694814	0.5967741061	
692.5	0.74315013	0.0325080611	
693.125	0.3886262927	0.277452584	
693.75	0.6844340823	-0.09894078669	
694.375	0.4373957601	-0.5253311102	
695.0	0.2776325729	-0.1435986341	
695.625	0.6013242528	-0.06331630731	
696.25	0.5068285854	0.02426853937	
696.875	0.2395883961	0.3044072694	
697.5	0.2456620531	0.5508216294	
698.125	0.6659801291	0.1257986829	
698.75	0.3203573024	-0.2155439073	
699.375	-0.2730533977	-0.5768831015	
700.0	-0.2749745259	0.4106754999	
700.625	0.06815017296	0.115064707	
701.25	0.2531698158	0.3638450847	
701.875	0.2933809745	0.03483527109	
702.5	0.1519109139	0.2879149942	
703.125	0.5114252379	0.1780274797	
703.75	0.1802121636	-0.09740203165	
704.375	0.2525597703	0.01023596644	
705.0	0.3347245836	-0.2042161554	
705.625	0.1322885547	-0.0581426137	
706.25	0.2867805499	0.1653227312	
706.875	0.3356253794	0.2779629002	
707.5	0.1587013473	0.1807675274	
708.125	0.3270382929	0.1721681291	
708.75	0.418855838	-0.2438067968	
709.375	-0.2370030263	-0.1570129289	
710.0	-0.2553437143	0.009301685514	
710.625	0.1149222845	0.3259350166	
711.25	-0.03004514753	-0.00952109412	
711.875	0.2395647974	0.2288805439	
712.5	0.257525426	-0.1534671947	
713.125	0.1916000881	-0.01550753878	
713.75	0.2177923266	-0.2792480321	
714.375	-0.07188553792	-0.2266360601	
715.0	0.06404008944	-0.09935941869	
715.625	0.02851795938	-0.3050239972	
716.25	-0.01262444208	-0.1743833021	
716.875	0.2756546922	-0.08949343499	
717.5	0.6146284516	-0.08618617612	
718.125	0.3837103749	-0.08346763973	
718.75	0.4269786271	0.02806795639	
719.375	0.8144289982	-0.5276047651	
720.0	-0.1951912231	-0.8859417419	
720.625	0.5903070671	-0.6395729085	
721.25	-0.1624128205	-1.584228386	
721.875	-0.1923806634	-0.1975851444	
722.5	-0.3609204279	-0.9832283188	
723.125	-0.8189177837	-0.03240488078	
723.75	-0.1488209996	0.2089550378	
724.375	-0.2002309694	0.5335114504	
725.0	0.3613615765	0.255818645	
725.625	-0.009647355514	0.2967550647	
726.25	-0.02223564827	0.7837077087	
726.875	0.222523019	0.8280782957	
727.5	-0.1534396057	0.6668722905	
728.125	-0.3663656971	2.082304033	
728.75	0.6659882187	2.253539666	
729.375	-0.7020233711	1.738324598	
730.0	-0.8845248399	4.211303982	
730.625	1.664520067	4.916376411	
731.25	-1.347325869	1.903056955	
731.875	-4.133851094	2.372977354	
732.5	-1.993006324	1.543223924	
733.125	-0.8897986676	-1.244668172	
733.75	-1.398993009	1.456035142	
734.375	0.7614489057	-0.02652582629	
735.0	0.309766106	-0.2417253083	
735.625	-0.7597755597	0.1550078307	
736.25	0.1497326404	0.1466026435	
736.875	0.09512482117	0.8401309463	
737.5	1.217792119	0.04166032394	
738.125	0.7615226524	-0.7473266523	
738.75	1.619600475	0.1239238942	
739.375	3.042506934	-2.709493448	
740.0	0.3480104741	-1.611133783	
740.625	1.283964937	2.932120234	
741.25	4.01509005	3.271673413	
741.875	0.5006590102	-1.715481174	
742.5	-1.076813531	-4.367758398	
743.125	-1.174056452	-2.021772773	
743.75	0.2562900268	-0.3643645701	
744.375	-0.52487147	-0.3619769342	
745.0	0.2076595395	0.03240737401	
745.625	0.07373516467	0.1414714713	
746.25	-0.08386777659	-0.167591749	
746.875	-0.09934136136	-0.004060521207	
747.5	-0.2282402988	0.3475590612	
748.125	0.1923800665	0.4681527386	
748.75	0.1527853167	0.2915267432	
749.375	0.02058569271	0.4641557012	
750.0	-0.2505382499	0.2916447006	
