!Created with skrf (http://scikit-rf.org).
# GHz S RI R (50+0j) 
!freq	ReS11	ImS11	
500.0	0.151885447	-0.8558685724	
500.625	0.1941493442	-0.8767638106	
501.25	-0.3155498257	-0.5575188702	
501.875	-0.2402288449	-0.3602180136	
502.5	-0.04873949132	-0.1098674549	
503.125	-0.06177319594	0.005025429808	
503.75	0.01321708037	0.0723366201	
504.375	0.02286487366	-0.004713905436	
505.0	0.01791448367	-0.01955375537	
505.625	-0.00190936541	-0.04204033357	
506.25	-0.05394165959	-0.05201664919	
506.875	-0.08753493416	0.0154733443	
507.5	-0.0796177017	-0.2909309611	
508.125	0.09886431502	-0.5443971342	
508.75	0.3858830534	-0.7903765262	
509.375	0.1098822799	-1.096157066	
510.0	-0.3260524357	-0.3511726813	
510.625	-0.09287363432	-0.09743738012	
511.25	-0.09138218469	-0.09656480635	
511.875	-0.07782654422	-0.0456963089	
512.5	-0.02123646157	0.01382022673	
513.125	-0.001394847708	-0.04837317583	
513.75	-0.03916349736	-0.03909620134	
514.375	-0.04510022281	-0.01952134211	
515.0	0.00565187089	-0.04138830759	
515.625	0.01163207382	-0.3571145018	
516.25	-0.1669015887	-0.4785984203	
516.875	-0.1371958623	-0.3362668548	
517.5	-0.0467209076	-0.1225616075	
518.125	-0.02238610566	-0.01792907611	
518.75	-0.03586744227	-0.1117549298	
519.375	-0.0501101279	0.03336568869	
520.0	0.08868267425	0.04487026702	
520.625	0.1332891896	-0.04616038431	
521.25	-0.01555893891	-0.2196494664	
521.875	-0.1246500165	-0.01668420152	
522.5	-0.04084048567	0.02187155534	
523.125	-0.05113418373	0.02466515068	
523.75	-0.08885938709	-0.007018124482	
524.375	-0.1374759655	0.02616925696	
525.0	-0.03556460272	0.1207811036	
525.625	0.03299852031	0.03757405493	
526.25	-0.0140224945	-0.009647736344	
526.875	-0.04130374569	0.04630389845	
527.5	-0.03116333184	0.1549919212	
528.125	0.05782709332	0.215202005	
528.75	0.03393796273	0.1749633573	
529.375	0.03505112917	0.04990499706	
530.0	0.02776131286	0.1302487922	
530.625	0.08792799388	0.2332051148	
531.25	0.3431919718	0.1005601433	
531.875	0.1915290596	-0.1540293004	
532.5	-0.03721325312	-0.09212584135	
533.125	0.04682245851	-0.04355229419	
533.75	0.09408771752	-0.1463992571	
534.375	-0.05962573377	-0.2403312354	
535.0	-0.1991450466	-0.09723390029	
535.625	-0.1430134713	0.08942392117	
536.25	-0.0002476090545	0.08358602788	
536.875	0.08116146917	0.01141353583	
537.5	0.05748619713	-0.03816207259	
538.125	0.09779723775	-0.05788806878	
538.75	0.1040083913	-0.1100530102	
539.375	-0.06821471327	-0.1441784027	
540.0	-0.1512411696	-0.1281293313	
540.625	-0.1451846378	-0.01659312401	
541.25	-0.07756828722	0.003282402316	
541.875	-0.04109679553	-0.01828884487	
542.5	-0.03933106677	-0.04855988015	
543.125	-0.07097421451	-0.04170704166	
543.75	-0.07574298533	-0.002641701672	
544.375	-0.0426522551	0.03482526826	
545.0	-0.00419051616	0.05395685959	
545.625	0.04543668426	0.05580764201	
546.25	0.08513018887	0.03472631787	
546.875	0.1067684298	-0.02402454419	
547.5	0.05727447428	-0.1096465533	
548.125	-0.03972280831	-0.1429665188	
548.75	-0.1117611684	-0.09970505482	
549.375	-0.09941353492	-0.05762781338	
550.0	-0.0678090842	0.005022263349	
550.625	-0.04914088488	0.007398527772	
551.25	-0.0655712706	0.0249366333	
551.875	-0.06716351636	0.06012270247	
552.5	-0.03855104138	0.06873737393	
553.125	-0.01172452415	0.05376399847	
553.75	0.04121000581	0.04373718435	
554.375	0.08570645835	-0.001559264759	
555.0	0.08992309831	-0.0645070672	
555.625	0.0806361028	-0.09714990096	
556.25	0.05842702649	-0.1271673745	
556.875	-0.03196547822	-0.1445628313	
557.5	-0.08938650627	-0.09631936651	
558.125	-0.1065253936	-0.0356385134	
558.75	-0.1016426336	-0.001570233122	
559.375	-0.1030073959	0.02022062746	
560.0	-0.08727686391	0.07074709776	
560.625	-0.04594177402	0.1023761	
561.25	0.008688976212	0.09297532019	
561.875	0.02715922462	0.04004490715	
562.5	0.009994438538	0.05045347382	
563.125	0.06481316072	0.06589231004	
563.75	0.1281942245	0.0045864065	
564.375	0.1176938795	-0.08937586496	
565.0	0.06610104126	-0.1334650926	
565.625	-0.02748881889	-0.1445170959	
566.25	-0.1068239764	-0.09833124146	
566.875	-0.1238562557	-0.06967924863	
567.5	-0.1280445436	-0.09711206731	
568.125	-0.1331433192	-0.1334460128	
568.75	-0.2011035565	-0.06741580002	
569.375	-0.2101550601	0.08977205753	
570.0	-0.1032399233	0.1811341021	
570.625	-0.04653603904	0.1560932722	
571.25	0.008494867855	0.1064385922	
571.875	0.05040527378	0.06497270448	
572.5	0.1163013431	-0.0008892150712	
573.125	0.07543013277	-0.1020172104	
573.75	0.03964386257	-0.09876831593	
574.375	0.01007665293	-0.06618958806	
575.0	0.02369406852	-0.03253932526	
575.625	0.0379532049	-0.0701307885	
576.25	0.03526010963	-0.1002597992	
576.875	-0.0022237151	-0.1272948933	
577.5	-0.003764146198	-0.1474166692	
578.125	-0.04630405124	-0.1409614282	
578.75	-0.07563019337	-0.1083293386	
579.375	-0.08120425821	-0.06095154074	
580.0	-0.04826181705	-0.02385075476	
580.625	-0.06327307101	-0.02980692475	
581.25	-0.09346207381	0.07163701789	
581.875	0.006906068374	0.1377361253	
582.5	0.04984865957	0.1274695405	
583.125	0.07400590476	0.06833083919	
583.75	0.03283779807	0.01687853637	
584.375	0.03408230905	0.05502826916	
585.0	0.09753198119	0.05159556941	
585.625	0.1406139584	0.003848099524	
586.25	0.1391367799	-0.05837222909	
586.875	0.06464276819	-0.1188659423	
587.5	-0.006907471458	-0.1279193817	
588.125	-0.01934790511	-0.1272166457	
588.75	0.02506075333	-0.1269048687	
589.375	0.05453589259	-0.1427392443	
590.0	-0.05514673926	-0.1541767355	
590.625	-0.1629898187	-0.04362606594	
591.25	-0.1201302417	0.1008350943	
591.875	-0.02465455544	0.1064753502	
592.5	0.00570862311	0.04506163868	
593.125	-0.02343116873	0.04374370209	
593.75	0.04772278547	0.1093210648	
594.375	0.1404206699	0.08255522931	
595.0	0.1511449889	0.0815086675	
595.625	0.1583639686	0.06382786565	
596.25	0.1429505649	0.02792567936	
596.875	0.1413432281	0.03055509101	
597.5	0.136756401	0.06673687834	
598.125	0.1315429198	0.09877662506	
598.75	0.1634545377	0.07646126415	
599.375	0.188439584	-0.03373991426	
600.0	0.1499142197	-0.1289252788	
600.625	0.1173862905	-0.1670251133	
601.25	0.04972368398	-0.170579618	
601.875	-0.07157980223	-0.1299060524	
602.5	-0.1161726101	-0.01152865548	
603.125	-0.09932147318	0.03824468917	
603.75	-0.09631391849	0.06931424584	
604.375	-0.08416853919	0.06769851515	
605.0	-0.06476547219	0.0714929843	
605.625	-0.06007226411	0.05817334509	
606.25	-0.1056783225	0.05524144639	
606.875	-0.1514900756	0.08463529659	
607.5	-0.1429716962	0.1569174396	
608.125	-0.02786429971	0.2252999192	
608.75	0.1618429133	0.1525273919	
609.375	0.2138132852	-0.01967284649	
610.0	0.1530463377	-0.1144245847	
610.625	0.07413675211	-0.142345371	
611.25	0.006863911972	-0.1492374103	
611.875	-0.07961638881	-0.1095122738	
612.5	-0.149094211	-0.06304954271	
613.125	-0.1762121184	0.03697773865	
613.75	-0.07946795235	0.1280932903	
614.375	0.0399480503	0.1046392217	
615.0	0.0382257184	0.0341759756	
615.625	-0.004003555235	0.08071060808	
616.25	-0.03091867106	0.1314475606	
616.875	-0.0725014323	0.1683167431	
617.5	-0.05763438511	0.2059547762	
618.125	-0.01007349204	0.1921155083	
618.75	0.01938428828	0.1754462674	
619.375	0.08716127639	0.150710031	
620.0	0.1696355219	0.04695258736	
620.625	0.1093236264	-0.1417418683	
621.25	-0.07849279961	-0.1688246659	
621.875	-0.1835318417	-0.08331607582	
622.5	-0.2006010904	0.05503540168	
623.125	-0.03645924034	0.1681309997	
623.75	0.1184667436	0.04559040236	
624.375	0.03741107731	-0.050508105	
625.0	0.03872399178	-0.02148654073	
625.625	0.04669241801	-0.08302228958	
626.25	-0.04144464978	-0.1232601557	
626.875	-0.127597915	-0.07921808447	
627.5	-0.1343590075	-0.03361636415	
628.125	-0.100824588	-0.06130113554	
628.75	-0.07126148492	-0.1117779171	
629.375	-0.08280678907	-0.1367672505	
630.0	-0.1707940876	-0.09478099775	
630.625	-0.2046944171	0.05864276534	
631.25	-0.1359855375	0.1748919781	
631.875	-0.02634989384	0.2290678939	
632.5	0.1313841562	0.1809799444	
633.125	0.1914059065	0.05563161762	
633.75	0.1582073254	-0.05805609599	
634.375	0.0614998563	-0.1224283198	
635.0	-0.006658044492	-0.1397446312	
635.625	-0.1309734349	-0.08795811981	
636.25	-0.1457585422	0.05892231599	
636.875	-0.06248840519	0.116183383	
637.5	-0.03370351885	0.08099321329	
638.125	-0.06261550874	0.08050983559	
638.75	-0.06803131033	0.1506015809	
639.375	-0.006642123042	0.2277952628	
640.0	0.1247948546	0.2269761374	
640.625	0.2151065603	0.1404516853	
641.25	0.2541720937	0.007807626	
641.875	0.1648205146	-0.1628012992	
642.5	0.003909131989	-0.1964049084	
643.125	-0.1077418925	-0.1165221237	
643.75	-0.118788575	-0.07262833403	
644.375	-0.1650946146	-0.007040773519	
645.0	-0.137182786	0.1375181067	
645.625	0.04334015771	0.200469232	
646.25	0.1526451888	0.07256793522	
646.875	0.08934066383	-0.01380023263	
647.5	0.05226039288	0.03034272346	
648.125	0.1417417795	0.05249817024	
648.75	0.2434841848	-0.05854626716	
649.375	0.2037188381	-0.2188280404	
650.0	0.1494234203	-0.2714968831	
650.625	0.140823462	-0.2604624812	
651.25	0.1779409059	-0.2115334784	
651.875	0.2346522491	-0.1447170824	
652.5	0.2560024347	-0.08300272339	
653.125	0.2490979004	-0.08404279496	
653.75	0.1961848088	-0.1963612299	
654.375	-0.02877708591	-0.2832211457	
655.0	-0.2512155686	-0.1122529793	
655.625	-0.1815647633	0.1546242819	
656.25	0.02223423359	0.1589436633	
656.875	0.03966130937	0.06560908708	
657.5	0.03076356778	0.09783595387	
658.125	0.1213131192	0.1511332601	
658.75	0.2662462801	0.08686331518	
659.375	0.3033711948	-0.1221100386	
660.0	0.2092247711	-0.2599497989	
660.625	0.1364427041	-0.2960595814	
661.25	0.1484080127	-0.2698146851	
661.875	0.1964508093	-0.2221581953	
662.5	0.2441410301	-0.1739131917	
663.125	0.246930918	-0.1707046667	
663.75	0.1584541929	-0.2471404621	
664.375	-0.01457604243	-0.3054933349	
665.0	-0.2353769058	-0.2064616671	
665.625	-0.2911459588	0.06162926943	
666.25	-0.1109646436	0.2404405122	
666.875	0.09817572983	0.1977555999	
667.5	0.1617279846	0.09257022884	
668.125	0.2024691486	-6.442890208e-07	
668.75	0.1798196937	-0.1240617878	
669.375	0.09595207359	-0.1965507912	
670.0	0.01320079992	-0.2056279286	
670.625	0.005866134317	-0.1730741749	
671.25	0.05876134635	-0.1572188741	
671.875	0.1267903114	-0.1546826408	
672.5	0.1840938728	-0.1296813331	
673.125	0.1994821763	-0.1460431431	
673.75	0.1544174622	-0.1947260201	
674.375	0.06290247911	-0.2309668438	
675.0	-0.0637675336	-0.227817092	
675.625	-0.162336386	-0.1281559044	
676.25	-0.1644258444	-0.03931048061	
676.875	-0.1377566323	-0.0006877403416	
677.5	-0.1373235345	0.01018138652	
678.125	-0.1444420736	0.1162335261	
678.75	0.01406744039	0.2070214962	
679.375	0.1796834305	0.08872071202	
680.0	0.1455421407	-0.07659672275	
680.625	0.06122275927	-0.06951296662	
681.25	0.08676578987	-0.009038215825	
681.875	0.1365899791	0.03930717319	
682.5	0.1772784901	0.08750709146	
683.125	0.2261782082	0.08101346236	
683.75	0.2358611321	0.06426302658	
684.375	0.2440702763	0.05321081815	
685.0	0.2639436256	0.04733304976	
685.625	0.2606874004	0.007933516896	
686.25	0.2695824406	-0.009138402319	
686.875	0.2917753826	-0.1129624783	
687.5	0.2484525269	-0.2448777503	
688.125	0.02592174548	-0.3929161157	
688.75	-0.3573917789	-0.2237068822	
689.375	-0.2899755726	0.2632583399	
690.0	0.05891596128	0.320341569	
690.625	0.1971942159	0.2477448793	
691.25	0.2868851993	0.253233591	
691.875	0.4001588089	0.2804922811	
692.5	0.5379801975	0.2083236339	
693.125	0.6094801142	-0.00896150838	
693.75	0.5325179034	-0.2186981543	
694.375	0.3946194958	-0.3402830652	
695.0	0.4208753698	-0.2474542533	
695.625	0.4630276913	-0.07308254819	
696.25	0.4312111895	0.1628099745	
696.875	0.3280918264	0.3780960562	
697.5	0.3186494294	0.4373218357	
698.125	0.4796909064	0.2529405978	
698.75	0.4387789835	-0.2921857388	
699.375	-0.2783101028	-0.4094103555	
700.0	-0.3012330729	0.2751549891	
700.625	0.1047686373	0.271356822	
701.25	0.1856896436	0.1771862548	
701.875	0.2407485508	0.2175309678	
702.5	0.3082505956	0.2077735437	
703.125	0.3674185776	0.1148189918	
703.75	0.3565059298	-0.08308695092	
704.375	0.2477842573	-0.1783518721	
705.0	0.2093269999	-0.1165307718	
705.625	0.2436211573	0.00703151524	
706.25	0.2255663438	0.1547717686	
706.875	0.1878232349	0.265470122	
707.5	0.21267127	0.3321998064	
708.125	0.3844406385	0.1586625956	
708.75	0.3017148965	-0.254621683	
709.375	-0.1845357119	-0.2950394814	
710.0	-0.1989893921	0.1648185026	
710.625	0.03821504502	0.1339380442	
711.25	0.07165415859	0.1201160988	
711.875	0.1797555428	0.1107275185	
712.5	0.2714293324	-0.002185932944	
713.125	0.2466869041	-0.1448150423	
713.75	0.1231472349	-0.2222850517	
714.375	0.01810069637	-0.2071610269	
715.0	-0.01705395325	-0.1861658148	
715.625	0.009062894459	-0.1923057778	
716.25	0.1347077301	-0.2047242339	
716.875	0.2967786043	-0.1573589357	
717.5	0.4402246548	-0.02624274655	
718.125	0.5548978916	0.0837173435	
718.75	0.6730460371	-0.02613292352	
719.375	0.6631245926	-0.3083921176	
720.0	0.4951716347	-0.6235517431	
720.625	0.2856460923	-0.7889553539	
721.25	0.01575904572	-0.8534164357	
721.875	-0.1084295303	-0.8520267755	
722.5	-0.4734440478	-0.7141032357	
723.125	-0.6773878847	-0.178362095	
723.75	-0.3794758814	0.3480228255	
724.375	-0.003964228724	0.4046234351	
725.0	0.1502270577	0.3275756517	
725.625	0.1542382513	0.3877635235	
726.25	0.03715799616	0.5799712499	
726.875	-0.06910983486	0.8137745249	
727.5	-0.1208563549	1.142017093	
728.125	-0.1059535622	1.614985096	
728.75	-0.3574499389	2.243188277	
729.375	-0.792856801	2.976813175	
730.0	-0.3716747791	3.232221013	
730.625	-0.316721264	3.511891104	
731.25	-1.063605435	3.039705709	
731.875	-2.267410328	1.870968593	
732.5	-2.733465461	0.4047383949	
733.125	-2.100696039	0.2129188146	
733.75	-0.8427902359	1.011670239	
734.375	0.6205574705	0.5042916709	
735.0	0.09695258838	-0.5297108325	
735.625	-0.4200033207	0.05546781396	
736.25	-0.08960707075	0.4396769782	
736.875	0.3331648896	0.5002389602	
737.5	0.8752307109	0.1712056466	
738.125	1.190628146	-0.2971217293	
738.75	1.440111298	-0.8791445718	
739.375	1.809075098	-1.192231167	
740.0	2.259343631	-1.092379721	
740.625	2.123656906	0.1236500572	
741.25	0.6579712532	1.770346556	
741.875	-1.998485251	0.0537465691	
742.5	-0.8043135593	-2.398363322	
743.125	0.2472871298	-1.443292553	
743.75	0.09679328212	-0.8241961964	
744.375	-0.3379134619	-0.162124367	
745.0	0.03597210119	0.1175861254	
745.625	0.05446413708	0.008330979201	
746.25	-0.01706272641	-0.1207521497	
746.875	-0.1998813193	-0.01526675749	
747.5	-0.09183567065	0.2793559981	
748.125	0.09147640136	0.4253002383	
748.75	0.1980938084	0.3746927469	
749.375	0.1056605327	0.4102108603	
750.0	-0.2540710356	0.2136399922	
