!Created with skrf (http://scikit-rf.org).
# GHz S RI R (50+0j) 
!freq	ReS11	ImS11	
500.0	0.3447449654	-1.154905893	
500.625	-0.1511062609	-1.083157992	
501.25	0.0452206202	-0.3651029169	
501.875	-0.2436916907	-0.5690196102	
502.5	-0.07776785001	-0.04459755637	
503.125	-0.06067418049	-0.03275411872	
503.75	0.03996756971	0.103387398	
504.375	-0.0006286367022	-0.0006497678657	
505.0	0.03877984177	-0.04545976492	
505.625	-0.03174082152	-0.007883977481	
506.25	-0.01682753244	-0.1492565942	
506.875	-0.1350560774	0.2094163908	
507.5	0.2229139039	-0.2797081882	
508.125	0.02958619337	-0.850516406	
508.75	0.01410702601	-0.7745222251	
509.375	0.3014994941	-0.8193808096	
510.0	-0.5550004392	-0.39804441	
510.625	-0.1086749378	-0.02908413495	
511.25	-0.04494443614	-0.1024586584	
511.875	-0.1383182318	0.02064616479	
512.5	-0.007420117868	-0.006875080031	
513.125	0.006149926843	-0.09958042685	
513.75	-0.08092292534	0.003732407526	
514.375	0.02737103743	-0.06814580559	
515.0	-0.2084665769	-0.06712200742	
515.625	0.5632974249	-0.5011301087	
516.25	-0.4534542256	-1.115803656	
516.875	-0.2608555511	-0.1073299008	
517.5	0.08135093464	-0.1284842099	
518.125	-0.03642044871	0.03646745537	
518.75	0.05668448183	-0.08279747037	
519.375	-0.04837708639	0.0446509146	
520.0	0.1045549286	0.01921080594	
520.625	0.1368441498	-0.05475619655	
521.25	0.06089216883	-0.2968312988	
521.875	-0.1774333011	0.06054873699	
522.5	0.009159332869	-0.02983461052	
523.125	-0.1616100351	0.05614988352	
523.75	0.02053997816	0.04392027732	
524.375	-0.2318880556	-0.1009900402	
525.0	0.06176810162	0.2199355869	
525.625	-0.0221764891	-0.0293322385	
526.25	0.0342420326	0.04998325371	
526.875	-0.09717797167	0.001459455103	
527.5	-0.04912183738	0.2641841067	
528.125	0.05822994073	0.1134887281	
528.75	-0.06644333153	0.1400554041	
529.375	0.03211346703	0.0339279337	
530.0	0.04904814294	0.113242778	
530.625	0.04892220344	0.3642546864	
531.25	0.3955485206	-0.08182411524	
531.875	0.07413486036	-0.1195201412	
532.5	0.01833955668	-0.1777534303	
533.125	-0.09799318292	0.04075596194	
533.75	0.182652669	-0.2411848919	
534.375	-0.1799557315	-0.2103659038	
535.0	-0.1161759251	-0.1367078897	
535.625	-0.2176199669	0.09616205508	
536.25	0.03425629324	0.06671662867	
536.875	0.06200126272	0.04860810649	
537.5	0.07310622882	-0.06421729599	
538.125	0.04169437404	-0.03634799038	
538.75	0.1778931372	-0.09729227491	
539.375	-0.09919206382	-0.1388011221	
540.0	-0.08968645737	-0.104553136	
540.625	-0.1783966984	-0.07412142312	
541.25	-0.08840055598	0.06246011118	
541.875	0.01266824697	-0.03364152993	
542.5	-0.07746109979	-0.1201049351	
543.125	-0.01635833156	-0.002543572764	
543.75	-0.10840938	-0.0653899024	
544.375	-0.02029461238	0.1212848753	
545.0	-0.04943317728	0.02483468795	
545.625	0.1067942183	0.1060683576	
546.25	0.04357840462	-0.006996346971	
546.875	0.1473396696	0.02506626422	
547.5	0.0228716817	-0.1549003578	
548.125	-0.01098796371	-0.09466344538	
548.75	-0.1085376094	-0.1550780331	
549.375	-0.1447770798	-0.03211771573	
550.0	-0.02736772558	-0.0166209187	
550.625	-0.08197679116	0.01027074968	
551.25	-0.03484496042	0.01656181129	
551.875	-0.08728186028	0.0391331581	
552.5	-0.02411266811	0.08860852408	
553.125	-0.0239892105	0.03893909103	
553.75	0.05166956762	0.04705302184	
554.375	0.07602299228	-0.008230322736	
555.0	0.09631964891	-0.05893023334	
555.625	0.08238345362	-0.1056511366	
556.25	0.05819641208	-0.1244770307	
556.875	-0.02836962456	-0.1453187188	
557.5	-0.0911526011	-0.0973172132	
558.125	-0.1102426426	-0.03174784996	
558.75	-0.09651452778	-0.003446531173	
559.375	-0.1100963812	0.01526060253	
560.0	-0.08128976959	0.07749093679	
560.625	-0.05275345721	0.07926079886	
561.25	0.000388079258	0.1146129109	
561.875	0.03912366149	0.01457474757	
562.5	-0.008644343714	0.07713844452	
563.125	0.09025083591	0.04319252863	
563.75	0.1003084673	0.02744829559	
564.375	0.1667223751	-0.08682547317	
565.0	0.02519886338	-0.1470059156	
565.625	0.02505593374	-0.0957960733	
566.25	-0.1461288643	-0.1389259297	
566.875	-0.09550659627	-0.0258277462	
567.5	-0.1011819908	-0.1606690679	
568.125	-0.2274687986	-0.1147584674	
568.75	-0.1299690575	-0.06366573175	
569.375	-0.2827170723	0.06419241687	
570.0	-0.03701647272	0.2301349244	
570.625	-0.06524123783	0.06033382303	
571.25	-0.02465190506	0.1769922398	
571.875	0.05790398142	-0.00910605978	
572.5	0.1357883175	0.0855941328	
573.125	0.06553710182	-0.2022760354	
573.75	-0.009722262675	-0.02701556896	
574.375	0.09377248349	-0.09492728061	
575.0	-0.06075036175	-0.03581999862	
575.625	0.11378517	-0.02977949252	
576.25	0.02008638411	-0.1765488573	
576.875	-0.05186647976	-0.04962932316	
577.5	0.07871395152	-0.154086732	
578.125	-0.1464211984	-0.250609454	
578.75	-0.08441959991	-0.007867231843	
579.375	-0.01631685204	-0.1258371995	
580.0	-0.1632506607	0.004533101035	
580.625	0.08795504968	-0.09912333324	
581.25	-0.1914185039	0.1330704723	
581.875	0.09521835641	0.1012391518	
582.5	-0.06053144529	0.1023010737	
583.125	0.1185654121	0.1677850738	
583.75	0.001801304143	-0.09572575861	
584.375	0.02652378998	0.151650207	
585.0	0.1310437808	-0.04195175239	
585.625	0.06562296377	0.06219169028	
586.25	0.2298298032	-0.04527532516	
586.875	-0.01144332952	-0.1473170656	
587.5	0.05475264209	-0.08444949273	
588.125	-0.02374309132	-0.2048358242	
588.75	-0.05233198074	-0.08430820081	
589.375	0.1488664812	-0.1024290964	
590.0	-0.1482979354	-0.218038385	
590.625	-0.08845797528	0.003153159989	
591.25	-0.2313528503	0.02168642184	
591.875	0.01478371105	0.2161422863	
592.5	-0.03643589722	-0.06244475936	
593.125	0.0007081934073	0.1325599195	
593.75	-0.0268551696	0.04772038564	
594.375	0.1248750836	0.1794727657	
595.0	0.2213915863	0.000891450563	
595.625	0.06575558661	0.02926711989	
596.25	0.2216344735	0.07119185451	
596.875	0.1627074554	-0.04408220383	
597.5	0.0549543657	0.0833386205	
598.125	0.1924590097	0.1572965429	
598.75	0.1549512421	0.00170566398	
599.375	0.1613495375	0.03872913723	
600.0	0.2001964217	-0.150340809	
600.625	0.04614251393	-0.2009296123	
601.25	0.105495289	-0.08581686256	
601.875	-0.1017012378	-0.2116169578	
602.5	-0.07182884425	0.07578517914	
603.125	-0.1154130835	-0.05063266797	
603.75	-0.04496243443	0.228648684	
604.375	-0.002135516562	0.01228065326	
605.0	-0.1518766799	0.04288758336	
605.625	0.04036213995	0.07304262964	
606.25	-0.1527672592	-0.01337078932	
606.875	-0.2375233672	0.1450386806	
607.5	-0.06023701003	0.1528114857	
608.125	-0.09016260789	0.2107543202	
608.75	0.1388363624	0.1389520798	
609.375	0.1492288484	-0.09287677586	
610.0	0.1892648536	-0.009697171504	
610.625	0.1032146023	-0.205348071	
611.25	-0.05837697483	-0.09698316631	
611.875	-0.0114930351	-0.1893636654	
612.5	-0.2419581408	0.007394004666	
613.125	-0.05075875576	-0.005380858381	
613.75	-0.1941191778	0.1261108378	
614.375	0.161274292	0.05789200046	
615.0	-0.09441967319	0.002385275532	
615.625	0.09293746818	0.1532797114	
616.25	0.003587329231	0.04089701895	
616.875	-0.08582629583	0.2281120993	
617.5	-0.0002325138565	0.2868982639	
618.125	-0.0211347308	0.1817731094	
618.75	-0.07455861166	0.229150587	
619.375	0.003300777307	0.2521272012	
620.0	0.1108370163	0.02169204101	
620.625	0.1426532704	-0.05713041701	
621.25	-0.1508633079	-0.1852577135	
621.875	-0.08629657782	0.04041395501	
622.5	-0.2668889039	0.005814019552	
623.125	0.02766591335	0.2166928396	
623.75	0.02963068158	0.01907440694	
624.375	0.1328478454	-0.03741471581	
625.0	-0.04590056336	-0.00776576618	
625.625	0.1281128346	-0.07681303501	
626.25	-0.113868588	-0.1512737544	
626.875	-0.07066437117	-0.03922885483	
627.5	-0.1599780435	-0.1196108446	
628.125	-0.1484572942	-0.01128362051	
628.75	-0.05957040432	-0.08842417271	
629.375	-0.0840389337	-0.1896701243	
630.0	-0.246436133	-0.09246208108	
630.625	-0.1858905792	-0.005509253252	
631.25	-0.1978661014	0.2059117901	
631.875	0.03522224119	0.2826333303	
632.5	0.05441791438	0.1504126917	
633.125	0.255296875	0.1213242687	
633.75	0.1112490732	-0.1626783386	
634.375	0.1067171821	-0.05494667018	
635.0	-0.04664448056	-0.2509011804	
635.625	-0.103777462	-0.002515690622	
636.25	-0.1929464834	-0.02770333703	
636.875	-0.06458756693	0.2134359438	
637.5	0.01350638924	0.004743518896	
638.125	-0.1549727172	0.1085011606	
638.75	0.03361825826	0.1675597166	
639.375	-0.06955661518	0.1482921447	
640.0	0.1390086689	0.326763864	
640.625	0.2823224736	0.09265135089	
641.25	0.1704917422	0.03867069777	
641.875	0.297151408	-0.09840384196	
642.5	-0.1343450713	-0.2578510263	
643.125	0.004952775049	-0.09804369672	
643.75	-0.2232014514	-0.147767738	
644.375	-0.03804901252	0.1894549528	
645.0	-0.2675681856	-0.01420363308	
645.625	0.2005336899	0.3456598576	
646.25	0.07832496619	-0.06274826674	
646.875	0.1181229724	0.1442100039	
647.5	0.07744359276	-0.1226219533	
648.125	0.03382130654	0.2453341666	
648.75	0.3777293752	-0.134759865	
649.375	0.06947116113	-0.22017759	
650.0	0.2351246024	-0.147704628	
650.625	0.2403848884	-0.4421796759	
651.25	0.01786855358	-0.1844529629	
651.875	0.3242039851	-0.01553910449	
652.5	0.3503828548	-0.1750216567	
653.125	0.1014891688	-0.1349102135	
653.75	0.3098271708	-0.09473891722	
654.375	-0.1121531468	-0.4438961256	
655.0	-0.1685281397	-0.009321440681	
655.625	-0.2917824951	-0.1006551836	
656.25	0.08841339627	0.3311123992	
656.875	-0.02570657534	-0.05486669359	
657.5	0.08399074342	0.2778934818	
658.125	0.1655848291	-0.008203972356	
658.75	0.1519619917	0.2353776086	
659.375	0.4600928207	-0.1956183584	
660.0	0.03684334854	-0.232174114	
660.625	0.216498139	-0.2002294597	
661.25	0.2292035584	-0.3728075627	
661.875	0.06224973007	-0.2684861836	
662.5	0.3046778683	-0.006312072869	
663.125	0.3246585255	-0.2829647772	
663.75	0.06441554052	-0.2035232708	
664.375	0.09099500661	-0.2958699144	
665.0	-0.3448398505	-0.2381926703	
665.625	-0.1704698443	0.1171886833	
666.25	-0.2067143196	0.1889204998	
666.875	0.1899705036	0.2728754389	
667.5	0.09070293505	0.01962147388	
668.125	0.3233535372	0.1744524082	
668.75	0.1579611477	-0.2450475433	
669.375	0.06786221629	-0.1051779996	
670.0	0.1188719757	-0.2750793601	
670.625	-0.180181938	-0.1642554242	
671.25	0.1335529365	-0.0499323577	
671.875	0.1785071455	-0.2419456964	
672.5	0.09506040928	-0.1350703236	
673.125	0.2209469479	-0.02856597543	
673.75	0.243122565	-0.295630936	
674.375	-0.04055297991	-0.173678726	
675.0	0.04265846767	-0.2149201698	
675.625	-0.2550658117	-0.1848001669	
676.25	-0.1300559958	0.07625522944	
676.875	-0.1113115097	-0.1338398428	
677.5	-0.2130499508	0.1072040705	
678.125	-0.01612194134	0.04253747586	
678.75	-0.1224851113	0.2554146922	
679.375	0.3349758598	0.0394448576	
680.0	-0.06737036718	0.001092585857	
680.625	0.2502672502	-0.03266249341	
681.25	-0.1156861494	-0.2232088103	
681.875	-0.006339656514	0.2186620904	
682.5	0.3914933319	0.125426496	
683.125	0.07080791107	-0.0413224651	
683.75	0.2526620189	0.2275886315	
684.375	0.4044080181	0.07668157796	
685.0	0.1551620741	-0.123363455	
685.625	0.2815373899	0.2024084879	
686.25	0.3519295951	-0.1284931313	
686.875	0.1617997736	-0.08438179799	
687.5	0.4054449158	-0.1302982723	
688.125	-0.1048910162	-0.4932506485	
688.75	-0.1986978391	-0.1211002957	
689.375	-0.4228962802	0.1663048107	
690.0	0.1953492096	0.421264482	
690.625	0.0232976787	0.07208466805	
691.25	0.3253277021	0.4804199325	
691.875	0.4017979515	-0.05824213461	
692.5	0.3378219982	0.2780796375	
693.125	0.7513028452	0.1156567516	
693.75	0.34627665	-0.3376414131	
694.375	0.5458209637	-0.141980754	
695.0	0.4631735712	-0.3797246905	
695.625	0.375131416	-0.1708199253	
696.25	0.4046030149	0.2481994136	
696.875	0.4949449063	0.5600778662	
697.5	0.2856443255	0.43386945	
698.125	0.3751151238	0.3531106939	
698.75	0.5926668107	-0.3066252804	
699.375	-0.4228356141	-0.3160755598	
700.0	-0.2264779542	0.07966277753	
700.625	0.1596997749	0.4534835225	
701.25	0.1866575634	0.009876865322	
701.875	0.120461872	0.3276135835	
702.5	0.5203449001	0.1699229895	
703.125	0.2280345226	-0.003084320132	
703.75	0.3985833271	0.0653413442	
704.375	0.3120778926	-0.2947196452	
705.0	0.1350146967	-0.02751119471	
705.625	0.3135560079	0.06901143801	
706.25	0.3017483915	0.05005168422	
706.875	0.2311608214	0.327358803	
707.5	0.1761296313	0.449386331	
708.125	0.4755712983	0.2839545037	
708.75	0.2394879079	-0.1641857766	
709.375	-0.02350942262	-0.2949055313	
710.0	-0.1760267722	0.2649948888	
710.625	0.07227912147	-0.0349666141	
711.25	0.1314651165	0.257216647	
711.875	0.1420659027	-0.06927908265	
712.5	0.2620048434	0.1353662691	
713.125	0.3194513734	-0.2276272981	
713.75	0.02061453134	-0.210607402	
714.375	0.135803609	-0.1552375153	
715.0	-0.08709246454	-0.2880040622	
715.625	-0.02567203905	-0.1168932428	
716.25	0.27248052	-0.1869610307	
716.875	0.2931421638	-0.329845576	
717.5	0.371827391	-0.04223573661	
718.125	0.7100233475	0.2805235225	
718.75	1.037830276	0.07663290808	
719.375	0.4561317319	-0.2038657856	
720.0	0.9431099874	-0.7736431471	
720.625	-0.1033631989	-0.9834613212	
721.25	0.2174014462	-0.04146981483	
721.875	0.01155224679	-1.156939436	
722.5	-0.9738549633	-0.5379743956	
723.125	-0.3002648896	-0.3089054025	
723.75	-0.7144078361	0.4828458509	
724.375	0.1825194816	0.3553737319	
725.0	-0.03955534841	0.2869942026	
725.625	0.2559098615	0.5780297046	
726.25	0.2349707201	0.416303165	
726.875	-0.3550929873	0.7284551865	
727.5	-0.08590694127	1.533926366	
728.125	0.4163970579	1.470992428	
728.75	-1.212220133	1.86299182	
729.375	-1.390039867	4.227003146	
730.0	0.5125694056	2.788827281	
730.625	-1.942144816	2.74650599	
731.25	-1.09348857	4.213956605	
731.875	0.2722409721	2.777359478	
732.5	-3.325773089	-0.5988564227	
733.125	-2.852637429	0.5129154166	
733.75	-0.197292572	0.8473861958	
734.375	-0.02637185492	1.212632714	
735.0	-0.1011461461	-0.9006713115	
735.625	-0.07185780555	0.01845122213	
736.25	-0.331276638	0.5450630027	
736.875	0.6759364687	0.4947678627	
737.5	0.3681907791	0.05954812521	
738.125	1.73281282	0.1495591276	
738.75	1.396284325	-1.800762042	
739.375	0.3963936738	-0.8850308876	
740.0	4.26663768	0.7300422706	
740.625	4.052694278	-2.75302123	
741.25	-2.81365241	-0.8574466946	
741.875	-4.848710844	0.7356358449	
742.5	-2.446234315	-0.161174172	
743.125	1.116741092	-0.7606084032	
743.75	0.2535777237	-1.688919043	
744.375	-0.4166583479	0.2059726874	
745.0	-0.1394529951	0.006969123696	
745.625	0.0994178725	-0.09865229707	
746.25	0.1191525841	-0.03261163396	
746.875	-0.2822984794	-0.02551755753	
747.5	0.02106065573	0.2592867159	
748.125	0.01749370335	0.3281029053	
748.75	0.2090024029	0.5038436401	
749.375	0.1886716747	0.3576711055	
750.0	-0.3187971261	0.1174792144	
