!Created with skrf (http://scikit-rf.org).
# GHz S RI R (50+0j) 
!freq	ReS11	ImS11	
500.0	0.09091665875	-0.3976141316	
500.625	0.684527424	-0.8192359296	
501.25	-0.6441822777	-0.3857590332	
501.875	-0.001623189028	-0.3290276285	
502.5	-0.07587109917	-0.1282174268	
503.125	-0.02979462702	0.01235397855	
503.75	-0.04313080518	0.1153226779	
504.375	0.0244632588	-0.0356650065	
505.0	0.01852476319	0.009304193009	
505.625	-0.0174990911	-0.08484760246	
506.25	0.00142051356	0.03455772533	
506.875	-0.2789538916	-0.1182516941	
507.5	-0.05998339407	0.08515035984	
508.125	0.4367147284	-0.4842306659	
508.75	0.08506958832	-1.200561556	
509.375	-0.1755464733	-0.4676143981	
510.0	-0.3340507786	-0.4740936219	
510.625	-0.2290469624	-0.1067116646	
511.25	-0.03672194499	-0.001744047833	
511.875	-0.1177386601	-0.08178595131	
512.5	0.001651083491	0.0008604822403	
513.125	0.02771828623	-0.03405292211	
513.75	-0.09581846803	-0.08004169066	
514.375	0.001232135744	0.05368231944	
515.0	0.0006300389926	-0.2843221403	
515.625	-0.009326521814	0.2536490885	
516.25	0.1992740382	-0.8962670751	
516.875	-0.5068851101	-0.5051038496	
517.5	0.02975284917	0.006502672049	
518.125	-0.05105761692	-0.07515527233	
518.75	-0.06392721463	0.009015467108	
519.375	-0.05320710612	0.00270503978	
520.0	0.1293901899	0.05098055419	
520.625	0.09277736695	-0.043188374	
521.25	0.04376797052	-0.1458471639	
521.875	-0.2010743	-0.05575951259	
522.5	-0.04368146503	0.04330659418	
523.125	-0.05608061706	-0.04674724939	
523.75	-0.1695788807	0.06494761698	
524.375	-0.01697999244	-0.01633762444	
525.0	-0.1411079857	0.1748473647	
525.625	0.1324611705	-0.01115940252	
526.25	-0.06803104401	0.0362441915	
526.875	0.01712897357	0.02216740388	
527.5	-0.1242373693	0.1189348733	
528.125	0.1529865497	0.2264519497	
528.75	0.1114405578	0.06212011814	
529.375	-0.02138120975	0.09673261449	
530.0	0.1590696887	0.05846909171	
530.625	0.2327341179	0.2111962448	
531.25	0.4435374056	0.03321390113	
531.875	0.06113470952	-0.1971222802	
532.5	0.05795577555	-0.1163464062	
533.125	0.03150688929	-0.2092738915	
533.75	0.1177892371	-0.08517310156	
534.375	-0.1771154851	-0.3078055027	
535.0	-0.1862243938	0.02343388998	
535.625	-0.1272272896	0.0435619398	
536.25	0.01036709539	0.1100363572	
536.875	0.04933803332	-0.01777295338	
537.5	0.08986599758	-0.02506934139	
538.125	0.07446273167	-0.1039723916	
538.75	0.09712201516	-0.04363896456	
539.375	-0.07306826436	-0.1912752466	
540.0	-0.1851847886	-0.06172400438	
540.625	-0.130876684	0.03194297621	
541.25	-0.1074181107	-2.780350002e-05	
541.875	-0.06491810886	0.0322802347	
542.5	-0.04829976048	-0.09209132057	
543.125	-0.1719921461	-0.03372451345	
543.75	-0.0377598049	-0.01468471261	
544.375	-0.05277277407	0.08729022838	
545.0	0.04172652948	0.005533783958	
545.625	-0.003045291834	0.1215737622	
546.25	0.1209262474	-0.03121173302	
546.875	0.05401667706	-0.003195609639	
547.5	0.09779750806	-0.1347508959	
548.125	-0.1192553725	-0.1220096317	
548.75	-0.05414371604	-0.0906291121	
549.375	-0.1376500709	-0.07855500652	
550.0	-0.03605438045	0.04950024883	
550.625	-0.07406466645	-0.03021993937	
551.25	-0.04437583921	0.06194664825	
551.875	-0.06141930417	0.03305732126	
552.5	-0.04288815736	0.09307201402	
553.125	0.0118666679	0.05191204905	
553.75	0.04053166203	0.04310705198	
554.375	0.08130519291	-0.01800867887	
555.0	0.07675170539	-0.064192518	
555.625	0.07167692955	-0.101725207	
556.25	0.04508512146	-0.1337389849	
556.875	-0.04233651252	-0.136502277	
557.5	-0.09646058982	-0.0856700516	
558.125	-0.1109562924	-0.02558308396	
558.75	-0.09644692371	0.01008432557	
559.375	-0.09575185293	0.02059989989	
560.0	-0.08924897122	0.08006709036	
560.625	-0.01858345561	0.09693619699	
561.25	-0.01099903125	0.08490961075	
561.875	0.05505732804	0.04214035206	
562.5	-0.02477385792	0.03133866496	
563.125	0.1079598775	0.07612673659	
563.75	0.09150978458	-0.03314911242	
564.375	0.1326128714	-0.06361159129	
565.0	0.04625897265	-0.1762762465	
565.625	-0.0570796325	-0.0868104823	
566.25	-0.09268336842	-0.1333400378	
566.875	-0.1682092935	-0.02430945265	
567.5	-0.04830646705	-0.07487486645	
568.125	-0.1613808978	-0.1841439426	
568.75	-0.1954928356	0.06260489074	
569.375	-0.1699019088	0.01128904246	
570.0	-0.1297526797	0.2663741745	
570.625	0.0486073554	0.1301903534	
571.25	-0.07758291125	0.09304314452	
571.875	0.1444189302	0.04648858757	
572.5	0.02364044297	0.05053591401	
573.125	0.1436687041	-0.148955494	
573.75	-0.08832813457	-0.1098003087	
574.375	0.07170448855	0.01727234225	
575.0	-0.02522863986	-0.1396154779	
575.625	0.02881195123	0.02214465554	
576.25	0.102025601	-0.1396631035	
576.875	-0.08476701106	-0.131299925	
577.5	0.01437158148	-0.05483156536	
578.125	0.009829979474	-0.2285546293	
578.75	-0.1722113155	-0.05833616212	
579.375	0.01377727356	-0.02102352552	
580.0	-0.1341003257	-0.1126196294	
580.625	0.001866341936	0.05320596972	
581.25	-0.237420912	-0.0118316344	
581.875	0.1116726088	0.2298864348	
582.5	0.06652448028	0.00926096063	
583.125	-0.0156602179	0.1311743991	
583.75	0.1439472257	-0.05994258016	
584.375	-0.07496078103	0.0930757479	
585.0	0.1919185051	0.0432026491	
585.625	0.05553581622	-0.05644580049	
586.25	0.2184165349	0.01559703972	
586.875	0.01698912649	-0.2223959145	
587.5	-0.01295957131	-0.03630662063	
588.125	0.04318875279	-0.1712766073	
588.75	-0.04175519081	-0.1637859213	
589.375	0.0352347214	-0.04231373137	
590.0	-0.04821732788	-0.2406384159	
590.625	-0.1672564609	0.07448774452	
591.25	-0.08626988686	-0.004544245668	
591.875	-0.08448197279	0.1792770474	
592.5	0.09781279651	-0.01535803911	
593.125	-0.1076857244	0.1487086591	
593.75	0.1059849938	-0.03109695554	
594.375	0.02931553177	0.1285635756	
595.0	0.2084754076	0.1558535143	
595.625	0.1226708241	-0.04535367121	
596.25	0.1373304119	0.1306836732	
596.875	0.2113532925	-0.01208178403	
597.5	0.07743342059	0.003598767236	
598.125	0.1105859649	0.1708036438	
598.75	0.170386862	-0.008877403287	
599.375	0.1130897611	-0.01749144422	
600.0	0.1931469723	-0.1221039648	
600.625	0.09023350168	-0.2350630147	
601.25	0.003222510718	-0.1261966638	
601.875	-0.02488000482	-0.1875583542	
602.5	-0.1535789782	0.06867659216	
603.125	-0.02996097547	-0.01764536507	
603.75	-0.2081601407	0.1028900684	
604.375	0.0784746859	0.09218601466	
605.0	-0.1180172409	-0.02905995329	
605.625	-0.07706483038	0.161120175	
606.25	0.002050700402	0.01299372419	
606.875	-0.2140674083	0.2260070276	
607.5	-0.03519424246	0.2289527229	
608.125	-0.05818050265	0.2022475332	
608.75	0.2227347973	0.1311287921	
609.375	0.1830163704	-0.03699045812	
610.0	0.1136423507	-0.05249837506	
610.625	0.1076411116	-0.1845507779	
611.25	-0.1070845717	-0.1158362779	
611.875	-0.0551783209	-0.007391864866	
612.5	-0.2228218874	-0.07213269066	
613.125	-0.07597744931	0.1125795366	
613.75	-0.1301971204	0.04345225123	
614.375	0.1108686228	0.1854149047	
615.0	-0.004838425042	-0.06752324973	
615.625	-0.02665358482	0.1968798983	
616.25	0.05004622799	0.0449301919	
616.875	-0.1307259395	0.1213618837	
617.5	-0.07804299384	0.3043927537	
618.125	0.1242371832	0.1568234603	
618.75	0.08448656763	0.2011399193	
619.375	0.09662848203	0.1214102393	
620.0	0.1329473535	-0.007772804089	
620.625	0.1459877421	-0.1056632413	
621.25	-0.1600249673	-0.1899556609	
621.875	-0.2344483943	0.0378208628	
622.5	-0.2072246512	0.01253326011	
623.125	-0.004663824747	0.229194226	
623.75	0.1236152602	-0.1014833431	
624.375	0.09055802628	0.0379840283	
625.0	-0.04295014607	-0.09169928662	
625.625	0.07575923548	-0.0253295098	
626.25	-0.08464424896	-0.1822633424	
626.875	-0.1267438171	0.01228960529	
627.5	-0.08179901601	-0.08097497992	
628.125	-0.1774051945	-0.05005164302	
628.75	-0.04253564421	-0.03554220878	
629.375	-0.06252787546	-0.1940186324	
630.0	-0.204663113	-0.07983351532	
630.625	-0.1552852687	0.06394716771	
631.25	-0.126051278	0.1258698707	
631.875	0.06096318006	0.243063671	
632.5	0.2075043383	0.02227827881	
633.125	0.1633691356	0.0770239384	
633.75	0.1263715215	-0.1550703825	
634.375	0.007436530169	-0.04177403649	
635.0	0.02148194794	-0.2270775998	
635.625	-0.1755254829	0.06946590407	
636.25	-0.07697249559	-0.006617411584	
636.875	-0.09486908739	0.2046766082	
637.5	0.058717181	0.05318778918	
638.125	-0.1419369079	0.05206600487	
638.75	0.01409954023	0.2392397202	
639.375	0.01493545196	0.1144373662	
640.0	0.1075900529	0.2919481872	
640.625	0.3261204502	0.05575814773	
641.25	0.1396441033	-0.04341509421	
641.875	0.240738883	-0.1719055739	
642.5	-0.1458897622	-0.2116019396	
643.125	-0.06789070068	0.07152371969	
643.75	-0.1370863368	-0.1573377071	
644.375	-0.1170197379	0.1323873066	
645.0	-0.1461469302	0.04145287542	
645.625	0.08523569298	0.4238156403	
646.25	0.1982010812	-0.09719092077	
646.875	0.01710242458	0.08653499776	
647.5	0.2132271691	-0.1187625292	
648.125	-0.06309601675	0.1241133826	
648.75	0.4021220694	-0.09791232445	
649.375	0.04001111984	-0.337453153	
650.0	0.1169940391	-0.1166492988	
650.625	0.2397838303	-0.3486795411	
651.25	-0.0604334507	-0.3181103696	
651.875	0.1973281965	0.003901291116	
652.5	0.3644880442	-0.2064350909	
653.125	0.07856533656	-0.1997450175	
653.75	0.2168555602	-0.1046212881	
654.375	-0.1880380442	-0.3587504924	
655.0	-0.2448091841	0.1138357041	
655.625	-0.1290795663	0.008557168296	
656.25	0.05956855314	0.3736985985	
656.875	0.08688200207	-0.1355350567	
657.5	0.02707828961	0.2404769305	
658.125	0.2348360411	0.02116417447	
658.75	0.02501755715	0.125511045	
659.375	0.4884871648	-0.1436558534	
660.0	0.03040850795	-0.3739630449	
660.625	0.123749433	-0.1436396451	
661.25	0.199844671	-0.3793951059	
661.875	0.05083716558	-0.3265952995	
662.5	0.1680676192	-0.07911747465	
663.125	0.2998982616	-0.2840152691	
663.75	-0.04690829588	-0.2324818349	
664.375	0.03170548018	-0.2485516831	
665.0	-0.3813203814	-0.1878532582	
665.625	-0.1581558924	0.1868510855	
666.25	-0.1208928197	0.1836839851	
666.875	0.1925148141	0.2348277526	
667.5	0.1474583111	-0.0814600765	
668.125	0.2006893303	0.1001455425	
668.75	0.1472048864	-0.2701057484	
669.375	-0.02435299855	-0.1011652211	
670.0	0.1388760178	-0.2458071903	
670.625	-0.1410872376	-0.2472663432	
671.25	0.1402897147	0.06150424569	
671.875	0.2130842173	-0.2768167826	
672.5	0.08006932804	-0.2241046364	
673.125	0.124980439	-0.07548393294	
673.75	0.2057160827	-0.2924135541	
674.375	-0.1397208717	-0.1993271456	
675.0	0.004833565279	-0.2042967312	
675.625	-0.2711714575	-0.1387681928	
676.25	-0.12883138	0.1245999264	
676.875	-0.09859506487	-0.09862012784	
677.5	-0.1659295318	0.1642532053	
678.125	0.01271349061	0.08777796155	
678.75	-0.04603364018	0.2100340367	
679.375	0.3546619271	0.01174852694	
680.0	-0.05948792595	-0.09878348201	
680.625	0.1827473069	-0.002132443061	
681.25	0.03330620279	-0.2595541757	
681.875	-0.04141735519	0.1260671533	
682.5	0.4188791621	0.1697410685	
683.125	0.0327754804	-0.1977270447	
683.75	0.1119994695	0.1732944885	
684.375	0.452081229	-0.1394315637	
685.0	0.1391743907	-0.2000227836	
685.625	0.2655777788	0.182624241	
686.25	0.4012520335	-0.2377718852	
686.875	0.173780092	-0.118490636	
687.5	0.2925038363	-0.2495934719	
688.125	-0.2643531276	-0.4628290913	
688.75	-0.2321981296	0.01988047539	
689.375	-0.2440548538	0.3387684066	
690.0	0.2942882938	0.3407941361	
690.625	0.1347357374	0.03495357496	
691.25	0.3096577616	0.4146576637	
691.875	0.5875980444	0.00788730593	
692.5	0.3453302681	0.1417054676	
693.125	0.7575224274	0.03838897067	
693.75	0.409249753	-0.5171734791	
694.375	0.2486692887	-0.1506128783	
695.0	0.4855473777	-0.5729319862	
695.625	0.3168045755	-0.3012629462	
696.25	0.2532827107	0.148835663	
696.875	0.5445595666	0.06513992166	
697.5	0.4216312469	0.03117377202	
698.125	0.6126206949	-0.04778326054	
698.75	0.3042462609	-0.550269702	
699.375	-0.5072338769	-0.06206403886	
700.0	-0.02967137846	0.344079216	
700.625	0.2429564964	0.3163551881	
701.25	0.1687480386	-0.01410101405	
701.875	0.1368703573	0.2526704842	
702.5	0.4884669973	0.2517656466	
703.125	0.2654026033	-0.08194937094	
703.75	0.3447926281	0.01641949807	
704.375	0.2541587824	-0.323223457	
705.0	0.04466178586	-0.1597312116	
705.625	0.3605042083	-0.01107998401	
706.25	0.30638084	-0.02475589287	
706.875	0.1098990241	0.1565799707	
707.5	0.3461774617	0.2794781246	
708.125	0.3838578434	0.06951357247	
708.75	0.1504469336	-0.2641853826	
709.375	-0.3553118097	-0.2887986327	
710.0	-0.2026861067	0.2860958159	
710.625	0.07990389072	-0.003820112109	
711.25	0.1465348258	0.1716507187	
711.875	0.184451812	-0.06830704732	
712.5	0.273384834	0.04971671213	
713.125	0.3334235491	-0.2916016829	
713.75	-0.01822957243	-0.2256504617	
714.375	0.08680189232	-0.1528314241	
715.0	-0.09420617448	-0.2632811068	
715.625	-0.05291173615	-0.08874809094	
716.25	0.1863256465	-0.1469561878	
716.875	0.2747584149	-0.3511678623	
717.5	0.1922956817	-0.06249631426	
718.125	0.6192230912	0.03995401635	
718.75	0.6517940029	-0.3535132745	
719.375	0.273060419	-0.358761936	
720.0	0.31639243	-0.8682682922	
720.625	-0.3834271092	-1.132588896	
721.25	-0.1809588043	-0.35978992	
721.875	-0.2672209882	-0.9172715944	
722.5	-0.8027817252	-0.2299578026	
723.125	-0.4794034007	-0.04396184592	
723.75	-0.6062752082	0.6392276886	
724.375	0.2799648319	0.2990083484	
725.0	0.02219951473	0.2319280416	
725.625	0.3301992697	0.6326480643	
726.25	0.232734221	0.3483580835	
726.875	-0.2867915322	0.7411554661	
727.5	0.1655968367	1.512686303	
728.125	0.6797245633	1.163421671	
728.75	-0.4863314423	1.681249753	
729.375	0.02298442833	4.301640968	
730.0	1.700056189	1.821388301	
730.625	-0.2154845027	2.65442451	
731.25	0.02511980678	4.538603396	
731.875	-0.2301045303	1.672561815	
732.5	-2.789028318	-0.09680653072	
733.125	-2.202976666	1.479716473	
733.75	0.457049034	0.856984796	
734.375	0.5007057709	0.7230087775	
735.0	-0.4541975659	-0.6628318876	
735.625	-0.1270693066	0.1264800207	
736.25	-0.311820647	0.6929816572	
736.875	0.8289690646	0.2911821932	
737.5	0.2837606301	0.08223578859	
738.125	1.980546124	-0.1925198719	
738.75	0.6955652295	-2.148404381	
739.375	0.4304425265	-0.5180399988	
740.0	4.182465292	0.5553201127	
740.625	2.96073614	-4.489334681	
741.25	-2.160094697	0.5319754975	
741.875	-4.407768197	0.9102290939	
742.5	-1.676031099	0.301241934	
743.125	0.7511157441	-1.325745339	
743.75	-0.6753216189	-0.9785895101	
744.375	-0.2154410167	0.2183765797	
745.0	-0.1463986392	0.09583044677	
745.625	0.03068530451	-0.1396498786	
746.25	0.03483203151	-0.08279392053	
746.875	-0.3043697062	0.07032257127	
747.5	0.07031524431	0.2769566197	
748.125	0.01904845236	0.289550865	
748.75	0.2950311775	0.5206064893	
749.375	0.2554304529	0.3519947884	
750.0	-0.3171249822	0.09501400153	
