!Created with skrf (http://scikit-rf.org).
# GHz S RI R (50+0j) 
!freq	ReS11	ImS11	
500.0	0.8217341749	-1.405150657	
500.625	-0.2531064443	-1.283165432	
501.25	-0.01520897671	-0.6001821298	
501.875	-0.4482852964	-0.8009613709	
502.5	-0.07579485478	-0.0401989289	
503.125	-0.06880619201	-0.03740496183	
503.75	0.06363707134	0.1203045339	
504.375	0.0005016222854	0.002606810355	
505.0	0.042609521	-0.06446069232	
505.625	-0.03907161837	-0.007410238077	
506.25	0.01547922505	-0.1376537856	
506.875	-0.1568936587	0.2408892188	
507.5	0.2954111282	-0.4907384687	
508.125	0.1346318336	-1.047286528	
508.75	0.1341699882	-0.572773074	
509.375	0.4073555896	-1.112806072	
510.0	-0.7783761742	-0.4208402625	
510.625	-0.09717424033	-0.02663368699	
511.25	-0.09540002939	-0.2009522149	
511.875	-0.161935047	-0.01908113082	
512.5	-0.0114997027	0.007265290086	
513.125	0.008470412072	-0.09266743841	
513.75	-0.07545320348	0.02504425314	
514.375	0.03977049152	-0.1110817222	
515.0	-0.2760549396	-0.0421690988	
515.625	0.5889260325	-0.2941409063	
516.25	-0.9837540673	-0.7930917225	
516.875	-0.110738555	-0.04823926393	
517.5	0.06804558061	-0.2691652715	
518.125	-0.1129635954	-0.01115920221	
518.75	0.09744885081	-0.1047912175	
519.375	-0.05160977171	0.05779694542	
520.0	0.1216375777	0.007447453879	
520.625	0.1125008398	0.008142496571	
521.25	0.05767849773	-0.3687134273	
521.875	-0.1811357387	0.02638037224	
522.5	-0.004658373908	-0.04589674023	
523.125	-0.1413234532	0.1354993799	
523.75	0.007001884646	0.03874553019	
524.375	-0.2863968131	-0.104642524	
525.0	0.07998047343	0.235155373	
525.625	-0.03132592886	-0.03127235603	
526.25	0.04332362303	0.0544305354	
526.875	-0.1386424634	0.03293027064	
527.5	-0.06171066007	0.331575929	
528.125	0.1748099973	0.1498574064	
528.75	-0.07557843523	0.1995995518	
529.375	0.0160219763	0.001651664579	
530.0	-0.06669216141	0.03639028361	
530.625	0.06363830734	0.30068598	
531.25	0.4421733562	-0.02810319545	
531.875	0.00427680886	-0.2364531351	
532.5	-0.05209111138	-0.2533807133	
533.125	0.0117882919	0.1346372677	
533.75	0.1931430932	-0.3169144312	
534.375	-0.2330933818	-0.2368131818	
535.0	-0.1491340324	-0.1725927737	
535.625	-0.2354864597	0.1541493282	
536.25	0.02810060103	0.06894867021	
536.875	0.0778824009	0.06040565344	
537.5	0.08552586203	-0.08305679127	
538.125	0.0604228393	-0.03152911753	
538.75	0.2168634716	-0.1192573461	
539.375	-0.08666384488	-0.1731571342	
540.0	-0.0885276242	-0.1368570922	
540.625	-0.1734923746	-0.07185886804	
541.25	-0.09704464206	0.0616268066	
541.875	0.01886205234	-0.02184171626	
542.5	-0.1065855252	-0.04847513794	
543.125	-0.03292678995	0.01413602575	
543.75	-0.1430694065	-0.05716860112	
544.375	-0.007645606791	0.1601248868	
545.0	-0.05816270706	0.03572332133	
545.625	0.1148786495	0.07602704323	
546.25	0.03959463277	-0.01093404952	
546.875	0.17151779	0.04078169592	
547.5	0.02860545798	-0.1712910852	
548.125	-0.008938267656	-0.1050512825	
548.75	-0.1322699601	-0.182620769	
549.375	-0.1703500999	-0.02807452317	
550.0	-0.03548046658	-0.03099195844	
550.625	-0.0948103283	0.03822558035	
551.25	-0.04406586603	0.01232912965	
551.875	-0.10789407	0.05110969297	
552.5	-0.02248916309	0.09240186242	
553.125	-0.03316226639	0.05170569966	
553.75	0.06040382723	0.05082884153	
554.375	0.08736753932	-0.006810533144	
555.0	0.1122616633	-0.06743652354	
555.625	0.09212659317	-0.1152894041	
556.25	0.06808591229	-0.1422312973	
556.875	-0.029938476	-0.169057176	
557.5	-0.1043329717	-0.1172911666	
558.125	-0.1255061687	-0.03995815143	
558.75	-0.1100811111	-0.008276359046	
559.375	-0.1280548587	0.01561446442	
560.0	-0.09712228309	0.08790558863	
560.625	-0.06299469631	0.09810646634	
561.25	-0.0002652539816	0.1327546804	
561.875	0.04153684485	0.01236951092	
562.5	-0.007253515383	0.09253588067	
563.125	0.08934389087	0.04077570555	
563.75	0.1230428671	0.04720690167	
564.375	0.1924914586	-0.1114310123	
565.0	0.03523400308	-0.151488277	
565.625	0.02731322815	-0.1637141688	
566.25	-0.1741874499	-0.1439391624	
566.875	-0.1011171563	-0.01581006036	
567.5	-0.1186079856	-0.2029748534	
568.125	-0.2210967543	-0.1423803225	
568.75	-0.1266328623	-0.08981025457	
569.375	-0.3259774915	0.08060635901	
570.0	-0.01923138969	0.2551604296	
570.625	-0.0878678271	0.09516138503	
571.25	-0.01156387306	0.2275476969	
571.875	0.04756562596	-0.01503567825	
572.5	0.1857953809	0.1016064653	
573.125	0.07174192015	-0.2110460509	
573.75	-0.002762990946	-0.01089217618	
574.375	0.1119187965	-0.1292104368	
575.0	-0.071453228	-0.02508544569	
575.625	0.1325702071	-0.05839604425	
576.25	0.006647762432	-0.1951893161	
576.875	-0.03096469533	-0.05407740358	
577.5	0.09114064265	-0.1979454201	
578.125	-0.131197444	-0.2009754114	
578.75	-0.06632599722	0.01041736703	
579.375	-0.01133758271	-0.1774841229	
580.0	-0.2033167574	0.03437813767	
580.625	0.05662483023	-0.09001402359	
581.25	-0.2215727338	0.2066763606	
581.875	0.09595548973	0.113377579	
582.5	-0.109265833	0.1627851578	
583.125	0.1543834295	0.1882832882	
583.75	-0.001884076124	-0.08731514671	
584.375	0.04992022489	0.168203037	
585.0	0.1152878734	-0.06128017856	
585.625	0.08014592929	0.07866887638	
586.25	0.2665078398	-0.09209505639	
586.875	-0.01507780879	-0.1538789572	
587.5	0.08036430504	-0.1286027386	
588.125	-0.04077058943	-0.23428974	
588.75	-0.03909885337	-0.07877535135	
589.375	0.1762907947	-0.1479050476	
590.0	-0.171935458	-0.2259180457	
590.625	-0.09101238857	-0.01277661685	
591.25	-0.2249590638	0.06279234842	
591.875	0.04947654846	0.2364742125	
592.5	-0.09066216638	-0.0873589677	
593.125	0.02254476323	0.1557849839	
593.75	0.01340545324	0.03327369361	
594.375	0.1411842678	0.2108133484	
595.0	0.2243739519	-0.04169538883	
595.625	0.06332191557	0.06616227687	
596.25	0.2233090596	0.1231172082	
596.875	0.1485106255	-0.04614099774	
597.5	0.07943368937	0.1424528412	
598.125	0.2401884041	0.1779992473	
598.75	0.140845677	0.03287984203	
599.375	0.2029163057	0.05668932618	
600.0	0.1986901072	-0.1592940259	
600.625	0.05156674609	-0.1981335788	
601.25	0.1319905849	-0.130569033	
601.875	-0.1268051711	-0.2283111013	
602.5	-0.06627395764	0.07386308888	
603.125	-0.1529341793	-0.06311148392	
603.75	-0.1337867071	0.1897269733	
604.375	-0.03013915169	-0.0497391868	
605.0	-0.1876568588	0.09041835458	
605.625	0.1085380127	-0.00928397091	
606.25	-0.1500888784	-0.05832439154	
606.875	-0.1846991466	0.1947564628	
607.5	-0.04966450993	0.1624378684	
608.125	-0.06115797507	0.3124137903	
608.75	0.2836321784	0.2365535182	
609.375	0.2159059382	-0.03697055847	
610.0	0.2113615207	-0.04392277333	
610.625	0.1575928825	-0.1571186698	
611.25	-0.02509256458	-0.06720628505	
611.875	-0.01715449975	-0.1987153319	
612.5	-0.2466600314	0.0360511538	
613.125	-0.07004365966	-0.01149407746	
613.75	-0.2176097416	0.1707487475	
614.375	0.172018411	0.1079961063	
615.0	-0.1109437355	0.04657317593	
615.625	0.1364890943	0.1285551821	
616.25	-0.04690138862	0.06168945785	
616.875	-0.214431007	0.196858479	
617.5	-0.00300905425	0.3177727731	
618.125	-0.06094965079	0.2197998217	
618.75	-0.06499011289	0.289547027	
619.375	0.192732378	0.1484248819	
620.0	0.08830893173	0.0658370186	
620.625	0.1457722996	-0.03200665885	
621.25	-0.1652397241	-0.1678142046	
621.875	-0.1095193564	-0.1265647473	
622.5	-0.3175897385	0.006462639799	
623.125	0.02145309266	0.2676668745	
623.75	0.03325712741	0.03728972611	
624.375	0.1467882064	-0.08763253151	
625.0	-0.05188346191	-0.002169118507	
625.625	0.1436106768	-0.1022613407	
626.25	-0.124488253	-0.1654751064	
626.875	-0.0450707609	-0.0479468498	
627.5	-0.1965055605	-0.1099668263	
628.125	-0.165074344	0.001969745693	
628.75	-0.06118606952	-0.1070558904	
629.375	-0.1346065676	-0.233537069	
630.0	-0.1872623921	-0.008374025785	
630.625	-0.2226659536	-0.02377511703	
631.25	-0.233418361	0.2259676088	
631.875	0.02525020364	0.2564970188	
632.5	0.05901757236	0.132942878	
633.125	0.3135100651	0.08558960251	
633.75	0.1187160435	-0.193367067	
634.375	0.1280873897	-0.07148387407	
635.0	-0.05099792432	-0.2383105673	
635.625	-0.09753898994	0.01619096276	
636.25	-0.2269646544	-0.03733233247	
636.875	-0.06463347278	0.257946468	
637.5	0.004940056385	0.001706309015	
638.125	-0.166081823	0.1417046639	
638.75	0.04052479913	0.1671183249	
639.375	-0.1068329467	0.1759566375	
640.0	0.1814685955	0.3708087487	
640.625	0.2691594467	0.05343105441	
641.25	0.1992880711	0.08078611589	
641.875	0.3502173031	-0.1526062435	
642.5	-0.0970590858	-0.2035483514	
643.125	0.03302696869	-0.07367962108	
643.75	-0.2704958948	-0.110753959	
644.375	0.002546790381	0.2250667229	
645.0	-0.2880683939	0.0485480521	
645.625	0.1715230968	0.2860380317	
646.25	0.07446621696	-0.01572520164	
646.875	0.1680622718	0.2128562575	
647.5	0.05553614477	-0.1514241013	
648.125	0.1325941806	0.2279340171	
648.75	0.4238202096	-0.2117713175	
649.375	0.07101031542	-0.2171709377	
650.0	0.3110669007	-0.1825665989	
650.625	0.211293576	-0.4917694969	
651.25	-0.005440880304	-0.1639975636	
651.875	0.4014475224	-0.01948307489	
652.5	0.3864400749	-0.2342626577	
653.125	0.1250629021	-0.07664889741	
653.75	0.3838718833	-0.1046225251	
654.375	-0.1558072851	-0.4767993502	
655.0	-0.1766352214	-0.02429462533	
655.625	-0.3380776255	0.07595983447	
656.25	0.1903925397	0.4180877726	
656.875	-0.08379207856	-0.08006933085	
657.5	0.152066952	0.345191136	
658.125	0.1713894998	-0.004939212206	
658.75	0.1967710171	0.2607038347	
659.375	0.4958405955	-0.2288493645	
660.0	0.03137235005	-0.2259456687	
660.625	0.2729320678	-0.2289603323	
661.25	0.2401058414	-0.4280780887	
661.875	0.04869774101	-0.2657722831	
662.5	0.4233108743	-0.02660993716	
663.125	0.3389215008	-0.3255388566	
663.75	0.0859278062	-0.2094890874	
664.375	0.1126449305	-0.3773224946	
665.0	-0.4067697484	-0.2280369371	
665.625	-0.2162144226	0.06773972141	
666.25	-0.2472158412	0.2391608328	
666.875	0.2217223518	0.3136673004	
667.5	0.08228188214	0.03926438273	
668.125	0.3270797766	0.09716102292	
668.75	0.143093779	-0.2792227403	
669.375	0.1086047871	-0.08644156115	
670.0	0.1280093243	-0.3744063049	
670.625	-0.1519423175	-0.1858896524	
671.25	0.2406469116	-0.09171579716	
671.875	0.1939714515	-0.2840080537	
672.5	0.08833587072	-0.1184936531	
673.125	0.2604805538	-0.03477224633	
673.75	0.244890969	-0.3675220266	
674.375	-0.01852012686	-0.1484741026	
675.0	0.05178614772	-0.2793001771	
675.625	-0.295103016	-0.210888909	
676.25	-0.09723394192	0.06739921949	
676.875	-0.193905642	-0.1638932125	
677.5	-0.2089252775	0.1411059322	
678.125	-0.06866475036	0.02966561607	
678.75	-0.1430022903	0.3161286132	
679.375	0.3556669234	0.02026740534	
680.0	-0.09350972948	0.04664050104	
680.625	0.2738853336	-0.04533945251	
681.25	0.02176714647	-0.1649613094	
681.875	0.04334905049	0.2817393669	
682.5	0.5131325706	0.008834610174	
683.125	-0.00533628426	0.01450044122	
683.75	0.2202836116	0.2669144336	
684.375	0.4607230388	-0.0007012931317	
685.0	0.11392442	-0.1302192449	
685.625	0.494001387	0.1308160602	
686.25	0.3865704973	-0.1871518201	
686.875	0.1688205878	-0.07255888781	
687.5	0.4998516482	-0.1770912764	
688.125	-0.07940581317	-0.4369273811	
688.75	-0.195845668	-0.187014321	
689.375	-0.5285344872	0.2461595562	
690.0	0.2320540051	0.4434487224	
690.625	0.008321435074	0.1251464206	
691.25	0.4370971544	0.5344283683	
691.875	0.5022837129	0.125773473	
692.5	0.3993312183	0.4157688961	
693.125	0.9519279795	0.07634993602	
693.75	0.1791673627	-0.2600405432	
694.375	0.5367819915	-0.09807601991	
695.0	0.6588076921	-0.3790981287	
695.625	0.3953775751	-0.1551820482	
696.25	0.5685131107	0.3585077338	
696.875	0.6248041243	0.597526467	
697.5	0.3038364985	0.2964106129	
698.125	0.5500243292	0.2956933675	
698.75	0.626163898	-0.3515167408	
699.375	-0.4417638453	-0.2816582253	
700.0	-0.403102961	0.06957217999	
700.625	0.2432365676	0.4866193708	
701.25	0.2046534466	0.02466302447	
701.875	0.1614388938	0.4057572505	
702.5	0.5463606023	0.2399984737	
703.125	0.2414607315	0.05238860087	
703.75	0.5037511754	0.05734073164	
704.375	0.3045458652	-0.3166893908	
705.0	0.06807297946	-0.06826669534	
705.625	0.4004272429	0.1553595759	
706.25	0.3637131604	0.03864526793	
706.875	0.3038995354	0.4198295229	
707.5	0.2835451859	0.5271399086	
708.125	0.5363375828	-0.004426757522	
708.75	0.3194617585	-0.09638844047	
709.375	0.009844244559	-0.3074685205	
710.0	-0.1946996452	0.293014751	
710.625	-0.03281181754	0.03917263403	
711.25	0.1887452041	0.293987566	
711.875	0.1676075423	-0.1700020765	
712.5	0.3290432639	0.1510272173	
713.125	0.3559030845	-0.2538271004	
713.75	0.02718638148	-0.208401391	
714.375	0.1644876392	-0.2153650921	
715.0	-0.1169178024	-0.3015289601	
715.625	6.894825365e-05	-0.08654494613	
716.25	0.3226563316	-0.2350154369	
716.875	0.3240108631	-0.3872301778	
717.5	0.4275782118	-0.01021751126	
718.125	0.8691339924	0.2947776953	
718.75	0.8594209985	-0.3862449032	
719.375	0.5724077121	-0.3961578836	
720.0	1.052624239	-0.9623972255	
720.625	-0.1437607754	-1.281094293	
721.25	0.4414722723	-0.8316152361	
721.875	-0.1494706227	-1.403745844	
722.5	-1.242255941	-0.6061472547	
723.125	-0.4591993982	-0.4015342695	
723.75	-0.6343556754	0.5495361224	
724.375	0.2129829095	0.3589915777	
725.0	-0.1035594818	0.3502643849	
725.625	0.3315432577	0.6655112879	
726.25	0.1574303142	0.4034646763	
726.875	-0.4794366751	0.8856783812	
727.5	-0.1175327602	1.799261829	
728.125	0.5675311472	1.555837598	
728.75	-1.523770472	2.477767135	
729.375	-0.4964708343	4.872794342	
730.0	0.7398756698	2.872500742	
730.625	-2.154512619	2.920805848	
731.25	-0.592031593	6.566870363	
731.875	-1.337670984	1.566465472	
732.5	-3.927563945	-1.329678756	
733.125	-2.953300299	0.8242887751	
733.75	-0.06565346785	0.7876085884	
734.375	0.6064399024	1.115702466	
735.0	-0.2696038084	-0.9507964779	
735.625	-0.02164175105	-0.07715616871	
736.25	-0.4001019853	0.6901104964	
736.875	0.7638936184	0.5151938669	
737.5	0.2379478738	0.3273948202	
738.125	2.311467265	0.1165512757	
738.75	1.390025509	-2.110518556	
739.375	0.8860686321	-0.4504406828	
740.0	5.617717433	0.3906852251	
740.625	2.72822805	-3.853811521	
741.25	-3.426207969	-0.4055088229	
741.875	-6.259565216	0.6970672828	
742.5	-1.237506362	0.02852204925	
743.125	1.889254781	-1.58097003	
743.75	0.06776452455	-1.996047725	
744.375	-0.4180233545	0.1504958936	
745.0	-0.1509657059	0.08352452212	
745.625	0.05718480956	-0.1077525503	
746.25	0.1597760503	-0.06520084419	
746.875	-0.3313625342	-0.02382861396	
747.5	-0.04018001168	0.3585045614	
748.125	-0.120742235	0.3901460075	
748.75	0.2546545645	0.6235215952	
749.375	0.2446116873	0.405926085	
750.0	-0.4477393338	0.08868646051	
