!Created with skrf (http://scikit-rf.org).
# GHz S RI R (50+0j) 
!freq	ReS11	ImS11	
500.0	-3.500919175	-2.821679234	
500.625	1.023261756	-1.731097103	
501.25	-1.405271896	-2.792850099	
501.875	-2.389273505	-1.119011467	
502.5	-0.2203789191	0.01442605233	
503.125	-0.3130643203	-0.08064917498	
503.75	0.343341516	0.2033149923	
504.375	0.05587602575	0.1089044986	
505.0	-0.02419860753	-0.2091921564	
505.625	0.2246240265	-0.001969263354	
506.25	-0.7193669795	-0.2677959048	
506.875	0.6318208653	-0.4937960653	
507.5	-0.3577999546	-2.081095882	
508.125	-1.47266443	-1.949313395	
508.75	1.488151864	-0.6872096434	
509.375	-0.9453953269	-5.795718627	
510.0	-1.083657773	0.3238836151	
510.625	-0.2437919327	-0.697731062	
511.25	-0.3909002823	0.3116621762	
511.875	-0.2543531474	-0.345792673	
512.5	-0.0746907323	0.2077265666	
513.125	-0.1075364487	-0.2819348236	
513.75	-0.08654833583	0.02692058181	
514.375	-0.2569332263	-0.43460179	
515.0	-0.7859937474	1.311043486	
515.625	0.5509036145	-4.117232834	
516.25	-2.879775132	0.1844667662	
516.875	0.9727625817	-1.409075062	
517.5	-0.7914651311	-1.067156896	
518.125	0.3847221702	0.02551879566	
518.75	-0.7286983286	-0.7690397845	
519.375	-0.01831074162	0.1218639981	
520.0	0.2808729442	0.371801173	
520.625	0.5473437774	-0.3644364498	
521.25	-0.1896424216	-0.4050172483	
521.875	-0.4125776275	-0.3560648497	
522.5	-0.007356837602	0.2278633962	
523.125	-0.4069970027	-0.02490759947	
523.75	-0.1241010957	0.1533146595	
524.375	-0.6353642985	-0.15124723	
525.0	0.3162706702	0.3478030349	
525.625	-0.1468902234	0.1040855129	
526.25	0.2053674118	-0.1163643425	
526.875	-0.3701618183	0.2305475457	
527.5	0.2513282044	0.5590032567	
528.125	-0.226416773	0.4938213754	
528.75	0.178358479	1.100583293	
529.375	-0.01987906175	-0.07765274344	
530.0	0.4527020921	0.6692000578	
530.625	-0.1139484641	0.5310106646	
531.25	1.974718002	0.2438525221	
531.875	-0.06425355375	-0.327024827	
532.5	0.1665647466	-0.7114337734	
533.125	-0.2827079166	0.495265521	
533.75	0.44934782	-1.062725445	
534.375	-0.4886123776	-0.2128454995	
535.0	-0.5331129344	-0.7071222585	
535.625	-0.302531625	0.7249471191	
536.25	-0.05697482579	0.09906034199	
536.875	0.3151363942	0.1504322283	
537.5	0.115428464	-0.2159905448	
538.125	0.2803023473	0.06667912555	
538.75	0.3514140167	-0.5100139343	
539.375	-0.102455206	-0.2238318587	
540.0	-0.3707646331	-0.5749020079	
540.625	-0.4652142771	0.1756381106	
541.25	-0.07744373534	-0.08803703634	
541.875	-0.1726288962	-0.09037409909	
542.5	-0.2021773388	-0.0649835442	
543.125	0.007784037543	-0.09030683246	
543.75	-0.4403701767	-0.1055716742	
544.375	0.167081875	0.1108683483	
545.0	-0.2137492797	0.2594495228	
545.625	0.2916521533	-0.06784801546	
546.25	0.01892336045	0.3266563399	
546.875	0.4458116671	-0.3423071056	
547.5	0.06606231885	-0.02824201004	
548.125	0.07816105229	-0.5589971536	
548.75	-0.4963034274	-0.2412475027	
549.375	-0.1025658074	-0.03941812187	
550.0	-0.3138755244	-0.1076677609	
550.625	-0.008491955679	0.11273047	
551.25	-0.2906486226	-0.0361369464	
551.875	-0.07780251278	0.2810691639	
552.5	-0.1550104557	0.07655393087	
553.125	-0.02157674115	0.2243835727	
553.75	0.1052125093	0.08856073771	
554.375	0.2290934966	0.03108956938	
555.0	0.2534547689	-0.1866475893	
555.625	0.1859195227	-0.2558089491	
556.25	0.1651964033	-0.3370294452	
556.875	-0.07951608746	-0.3990350406	
557.5	-0.2396030942	-0.2322830874	
558.125	-0.2660685463	-0.1010159553	
558.75	-0.2797852853	-0.01157935892	
559.375	-0.2420098183	0.07978558378	
560.0	-0.2246069264	0.1225003612	
560.625	-0.1596519073	0.3051914237	
561.25	0.1015906787	0.2133360996	
561.875	-0.03250090475	0.1180397257	
562.5	0.1439317956	0.09378197873	
563.125	0.05104837262	0.237806814	
563.75	0.4432830014	-0.07483799284	
564.375	0.129341148	-0.1479782951	
565.0	0.3569530806	-0.3478002421	
565.625	-0.2234614504	-0.399856835	
566.25	-0.1810097438	-0.1450577711	
566.875	-0.2702777806	-0.3245848157	
567.5	-0.5217282974	-0.2297293196	
568.125	-0.1502757079	-0.2060306409	
568.75	-0.6807167129	-0.4102337361	
569.375	-0.4225579209	0.4226824012	
570.0	-0.4046823461	0.2128486439	
570.625	-0.1703705351	0.7298255483	
571.25	0.1432059	-0.01602632586	
571.875	0.02399998998	0.5318393748	
572.5	0.2943931738	-0.3927940811	
573.125	0.1667068993	0.08802493698	
573.75	0.3731041586	-0.4903029908	
574.375	-0.2756070931	-0.1254901385	
575.0	0.3901210711	-0.02836605671	
575.625	-0.2164949215	-0.2729743784	
576.25	0.3375342446	0.01644354809	
576.875	-0.04686245687	-0.6261257252	
577.5	-0.2607588725	-0.2330170911	
578.125	0.148989669	-0.2586138295	
578.75	-0.2103160253	-0.5306479108	
579.375	-0.3906522352	0.02063054871	
580.0	0.1365144743	-0.1050213294	
580.625	-0.4414207606	-0.02490278303	
581.25	0.02550719589	0.02743050375	
581.875	-0.3156134623	0.4860545279	
582.5	0.4547526179	0.4322662094	
583.125	-0.01334975573	-0.1768350504	
583.75	0.1340611574	0.5239074986	
584.375	0.02035106057	-0.3794215879	
585.0	0.2002437891	0.5772790059	
585.625	0.5277752263	-0.3061693724	
586.25	0.03286955003	0.04742584966	
586.875	0.4706547028	-0.4798699536	
587.5	-0.3213734382	-0.1665685651	
588.125	0.2538092389	-0.2565130125	
588.75	0.09760050246	-0.6285399035	
589.375	-0.1259093084	-0.2375485703	
590.0	0.1746951837	-0.4393102949	
590.625	-0.612978638	-0.1484821472	
591.25	-0.1724388055	0.3121519219	
591.875	-0.1671414304	0.1045831599	
592.5	0.05801774082	0.3030383312	
593.125	-0.2360787306	-0.02874104854	
593.75	0.2830089595	0.3235620593	
594.375	0.2400164154	0.07377389921	
595.0	0.1901125074	0.4924677023	
595.625	0.8638901951	0.2308399585	
596.25	-0.06882560308	-0.149055447	
596.875	0.516095683	0.4985987114	
597.5	0.5532268946	-0.0612557121	
598.125	-0.004985765047	0.3663807447	
598.75	0.7602892703	0.2008631456	
599.375	0.2005278032	-0.05443245576	
600.0	0.6781829473	-0.1948584314	
600.625	0.2196361203	-0.6588093517	
601.25	0.07362434451	-0.2015327826	
601.875	-0.02357017048	-0.4632083537	
602.5	-0.3578390525	0.01465403136	
603.125	-0.2719255659	0.1481669339	
603.75	-0.1511234213	0.05272816542	
604.375	-0.4210556618	0.1608118877	
605.0	0.08089607702	0.2469425456	
605.625	-0.3880764925	-0.003834865149	
606.25	-0.146782106	0.3407577783	
606.875	-0.3487452435	-0.08232203591	
607.5	-0.6284509779	0.7763532116	
608.125	0.1566217415	0.211833406	
608.75	0.145553262	0.7673908755	
609.375	0.758631073	-0.4623269053	
610.0	0.230671894	0.09150397264	
610.625	0.3908373517	-0.6162854409	
611.25	-0.1744293822	-0.1416900755	
611.875	-0.02140370727	-0.6159343333	
612.5	-0.3904984029	0.1891204629	
613.125	-0.3877631726	-0.224639021	
613.75	-0.2587035201	0.6064003248	
614.375	-0.005378095691	-0.113131833	
615.0	0.3005159382	0.3795982138	
615.625	-0.09564370159	-0.1349272103	
616.25	-0.3096127267	0.6118178079	
616.875	0.2114062771	0.3370188303	
617.5	-0.5201676351	0.3905783507	
618.125	0.1005745508	0.788280988	
618.75	0.05330414721	0.1367323767	
619.375	0.1678964642	0.6441079235	
620.0	0.4003217058	-0.0604702382	
620.625	0.3918839915	-0.2359445304	
621.25	-0.3223989235	-0.3958903253	
621.875	-0.3195015253	-0.3276199383	
622.5	-0.6101679916	0.2914340459	
623.125	-0.08446641327	0.2058351193	
623.75	0.4063020167	0.3082851489	
624.375	-0.1776112117	-0.2331360499	
625.0	0.4924900638	0.01590792219	
625.625	-0.3655091619	-0.1505617553	
626.25	0.2966125534	-0.3335951561	
626.875	-0.6260871758	-0.3032122573	
627.5	-0.1515759699	0.1644587969	
628.125	-0.1581014495	-0.4445186549	
628.75	-0.3967556382	-0.1264788741	
629.375	0.05743570275	-0.3504650933	
630.0	-0.6161722192	-0.3346890813	
630.625	-0.2904245729	0.2807080917	
631.25	-0.5031292297	0.2324229574	
631.875	-0.05703934063	0.7475088219	
632.5	0.3675737122	0.3922090706	
633.125	0.4156008432	0.04461605394	
633.75	0.4096211715	0.08321167598	
634.375	0.01680308969	-0.5817715159	
635.0	0.1512239066	-0.114257917	
635.625	-0.5099559324	-0.3961450857	
636.25	-0.08475617614	0.3118291835	
636.875	-0.5235970615	0.1288186695	
637.5	0.180322373	0.4503023301	
638.125	-0.2364122592	-0.1958860196	
638.75	-0.4061628186	0.7973239605	
639.375	0.4716271551	0.3742804173	
640.0	-0.1118324901	0.4209781233	
640.625	0.6983797914	0.6489706145	
641.25	0.6452071816	-0.3505107729	
641.875	0.3876052698	-0.0119278674	
642.5	-0.2462769097	-0.9430319953	
643.125	-0.01617939275	0.008846908656	
643.75	-0.3921350762	-0.572936166	
644.375	-0.4558956121	0.4187850255	
645.0	-0.1273567833	-0.04045456809	
645.625	-0.1695016482	0.7475554645	
646.25	0.7184087903	0.1626893708	
646.875	-0.0898536234	-0.2499790762	
647.5	0.3911041491	0.5100934289	
648.125	0.01480802932	-0.4325426847	
648.75	0.9101546841	0.4306405721	
649.375	0.4347085277	-1.11511661	
650.0	-0.03178911139	-0.1844942877	
650.625	1.171255921	-0.6148652211	
651.25	-0.03115918293	-1.3107858	
651.875	0.1365234795	0.2321965652	
652.5	1.264249365	-0.0360470607	
653.125	0.4405697732	-0.759058472	
653.75	0.3057605696	0.04091160585	
654.375	-0.1661858918	-1.218291424	
655.0	-0.622283334	0.2069562659	
655.625	-0.4006023128	-0.1133559408	
656.25	-0.01712735866	0.9356188775	
656.875	0.2385729731	-0.3823063037	
657.5	-0.08238042596	0.6125629039	
658.125	0.5818153466	0.2727095735	
658.75	0.4450722388	-0.01989914546	
659.375	0.9215006923	0.1594537478	
660.0	0.4380481058	-1.187164622	
660.625	0.1530460289	-0.3445031129	
661.25	0.7737531305	-0.6513244267	
661.875	0.2444095098	-1.1399025	
662.5	0.2076624408	0.1077243172	
663.125	1.239504983	-0.5021740424	
663.75	-0.1164029658	-0.8665413236	
664.375	0.2435412294	-0.3849940773	
665.0	-0.8860668415	-0.8512085121	
665.625	-0.3155753993	0.4222563056	
666.25	-0.6226424788	0.4733949153	
666.875	0.5697186891	0.6314864809	
667.5	0.1566809642	-0.04598193831	
668.125	0.6971608271	0.3595365686	
668.75	0.4350540513	-0.6567464072	
669.375	0.06430604257	-0.3391389131	
670.0	0.2257260861	-0.4189634361	
670.625	-0.02286508753	-0.7078750687	
671.25	-0.03819729641	-0.1076070847	
671.875	0.5126011789	-0.4697368781	
672.5	0.3281754357	-0.5282765808	
673.125	0.3834056479	-0.08279755223	
673.75	0.7216164703	-0.7788401505	
674.375	-0.3881983805	-0.5686883392	
675.0	0.2981160663	-0.2481849568	
675.625	-0.6815879995	-0.7542939965	
676.25	-0.4768842052	0.4932972868	
676.875	-0.125784567	-0.5219410384	
677.5	-0.59248464	0.5831077372	
678.125	-0.1365249562	-0.09038968187	
678.75	-0.1985110313	0.9935748153	
679.375	0.5697916586	-0.3927590867	
680.0	0.2446204157	0.2298294688	
680.625	0.4693286926	-0.3034781295	
681.25	-0.01572882561	-0.357342658	
681.875	0.07523281466	0.4475564253	
682.5	0.7654064257	0.3302072688	
683.125	0.583896985	-0.0738695444	
683.75	0.3061546439	0.09599136811	
684.375	0.9136107391	0.4926735088	
685.0	0.5586790634	-0.5814282434	
685.625	0.6165181179	0.5762737933	
686.25	1.100189188	-0.4761396037	
686.875	-0.04765803269	-0.2077846186	
687.5	1.620218156	-0.4371156356	
688.125	-1.136810416	-1.420610986	
688.75	0.04211865552	-0.4248152917	
689.375	-1.433005394	0.9869044556	
690.0	0.7067343453	0.5269664823	
690.625	-0.08691422369	0.9581990816	
691.25	1.279324283	0.2835052417	
691.875	0.5908477698	0.6992877035	
692.5	1.608686889	0.7530134934	
693.125	1.507091119	-0.4128788473	
693.75	1.253547783	-0.3058138563	
694.375	0.9827114447	-1.012870566	
695.0	1.007645302	-0.4335821044	
695.625	1.461234943	-0.5760010252	
696.25	0.6727606187	0.1832365651	
696.875	1.246066316	1.68634179	
697.5	1.242835961	0.2742738032	
698.125	0.9084367529	1.170964719	
698.75	1.373599846	-1.679182189	
699.375	-0.5025802999	-0.09263696065	
700.0	-1.612323343	0.694447856	
700.625	0.8931431552	0.4502272625	
701.25	-0.1326491818	0.6856548003	
701.875	1.308709111	0.3969223875	
702.5	0.2329674958	0.5010976551	
703.125	1.346204664	0.5577961835	
703.75	0.4802263478	-0.6452824424	
704.375	1.01809305	0.03737411133	
705.0	0.451601899	-0.857870415	
705.625	0.1360687217	0.3746136259	
706.25	1.408145391	0.606226821	
706.875	0.2691113872	0.01697844006	
707.5	0.4208078919	1.368097201	
708.125	1.499468143	-0.1209877478	
708.75	0.5516656162	-0.4023185895	
709.375	-0.7519243744	-1.229111937	
710.0	-0.1098290372	0.7110449555	
710.625	-0.1590112315	0.4335533756	
711.25	0.4336881361	0.239578034	
711.875	0.3168808176	0.2891338766	
712.5	0.8275289381	-0.03997137016	
713.125	0.5962272866	-0.2337982163	
713.75	0.4072705357	-0.8879022838	
714.375	-0.268173526	-0.1455474708	
715.0	0.4153696565	-0.913119915	
715.625	-0.5609997737	-0.3586796956	
716.25	0.8047732667	0.009732852379	
716.875	1.293422025	-1.388680005	
717.5	-0.231291738	0.06727164339	
718.125	2.974707964	1.020378704	
718.75	1.989639756	-2.23180971	
719.375	0.651744399	1.057405306	
720.0	2.802976632	-4.133017013	
720.625	-1.129753779	-1.80312519	
721.25	0.7342581007	-2.357328742	
721.875	-0.6019985923	-3.586246464	
722.5	-1.850639814	-0.8439847835	
723.125	-1.812775229	-1.250962607	
723.75	-0.9337730425	1.564073632	
724.375	0.2322057819	0.7113476206	
725.0	0.127231302	0.9190691893	
725.625	0.6151032169	1.627335984	
726.25	0.8740475178	1.067144632	
726.875	-1.228724558	1.730616997	
727.5	-0.1257801839	5.575313667	
728.125	3.670200762	3.566176295	
728.75	-6.87909208	4.42314544	
729.375	2.943616165	15.20046533	
730.0	1.293041016	0.9488589299	
730.625	-19.64710221	20.0034646	
731.25	10.38842836	11.72425682	
731.875	-8.700755413	-2.312789526	
732.5	-12.65186076	4.377229694	
733.125	-6.311879625	3.752520385	
733.75	-0.6850040036	1.322375474	
734.375	2.974927686	2.62999414	
735.0	-0.7491152904	-0.8907099272	
735.625	-0.9178877591	-0.3462688179	
736.25	-0.1979994016	2.354052968	
736.875	1.037957897	-0.09972497376	
737.5	2.202835759	2.024256658	
738.125	5.388530174	-1.645302413	
738.75	3.38154702	-6.682516265	
739.375	-1.477100261	0.4070712555	
740.0	19.81715765	4.064212903	
740.625	-1.947722211	-22.84619723	
741.25	-20.06492629	25.75683088	
741.875	-12.07798198	21.70901624	
742.5	7.465354272	-2.631749842	
743.125	0.7226781826	-11.64265857	
743.75	-3.926958862	-0.9319562059	
744.375	0.3917728449	-0.4672484987	
745.0	-0.2053519014	0.8318849764	
745.625	-0.2442539534	-0.2002736142	
746.25	0.1017562333	-0.4312226033	
746.875	-1.321647942	0.7573087135	
747.5	0.1055221551	0.5566013073	
748.125	0.002007943619	2.048510715	
748.75	0.9910303322	0.8534070709	
749.375	-0.204925676	0.9679370838	
750.0	-3.032568467	1.298769526	
