!Created with skrf (http://scikit-rf.org).
# GHz S RI R (50+0j) 
!freq	ReS11	ImS11	
500.0	0.5669907095	-3.569771956	
500.625	-0.3772227445	-2.192477454	
501.25	-1.4621328	-2.598665628	
501.875	-0.5682866231	-0.6202302711	
502.5	-0.1790935272	-0.4751453935	
503.125	-0.2632905073	0.1424188343	
503.75	0.1522265324	-0.02611160778	
504.375	0.1192633495	0.08454532545	
505.0	-0.01403034095	-0.1772656658	
505.625	0.1074748887	0.02180374307	
506.25	-0.4176458616	-0.3510710324	
506.875	0.3668194317	-0.3393764377	
507.5	-1.767846579	-1.481299822	
508.125	0.8478011484	0.02230884611	
508.75	2.760343427	-4.372510791	
509.375	-2.981676275	-3.896092944	
510.0	-0.8106717895	-0.1387806083	
510.625	-0.2188068802	-0.6742500339	
511.25	-0.5360979612	-0.01148916779	
511.875	-0.2899925922	-0.02711208439	
512.5	-0.1096736613	0.1380015626	
513.125	-0.1282910919	-0.2615819307	
513.75	-0.1613061555	-0.2127995564	
514.375	-0.39611914	-0.07179686564	
515.0	0.5193225206	0.7307134476	
515.625	-1.402707595	-3.131928488	
516.25	-0.5827608635	1.11032208	
516.875	0.3886502785	-2.501822948	
517.5	-1.054332226	-0.5147849705	
518.125	0.3131141063	-0.1489365446	
518.75	-0.83002709	-0.3430852855	
519.375	-0.08262714919	-0.04631428089	
520.0	0.4867090826	0.3252994064	
520.625	0.362984832	-0.3910003393	
521.25	0.05992814044	-0.346684402	
521.875	-0.5984875559	-0.1271502236	
522.5	0.04168665259	0.03987533527	
523.125	-0.3046002611	0.2351817172	
523.75	-0.005428857333	-0.03212282649	
524.375	-0.7228290125	0.1007844385	
525.0	0.2427625524	0.1424146895	
525.625	-0.09376169437	0.206028231	
526.25	0.1102006321	-0.2526802219	
526.875	-0.1898686599	0.3717915447	
527.5	0.1005817667	0.2318734007	
528.125	-0.2090765103	0.8636612023	
528.75	0.5272549507	0.7576177941	
529.375	-0.1255797157	0.1201014678	
530.0	0.4931038722	0.4458679555	
530.625	-0.01735360778	0.5978274075	
531.25	1.5591927	-0.05437095095	
531.875	0.2116890612	-0.1139675143	
532.5	-0.3032346808	-0.8307042332	
533.125	0.4053254152	0.6262588713	
533.75	-0.08648469914	-1.13580497	
534.375	-0.1348713455	-0.08930012864	
535.0	-0.8890100813	-0.6261268459	
535.625	-0.03751109713	0.5250097834	
536.25	-0.1470932274	0.1918347836	
536.875	0.4064163626	-0.02056530613	
537.5	0.005229655564	-0.04911294232	
538.125	0.4680294568	-0.04066083791	
538.75	0.1708800099	-0.4476486144	
539.375	-0.1025341587	-0.3065641197	
540.0	-0.3630501275	-0.3914465335	
540.625	-0.4030855437	0.0137383471	
541.25	-0.1505894301	-0.002734022273	
541.875	-0.1878939067	-0.01343087738	
542.5	-0.031041653	-0.1115674709	
543.125	-0.2327379478	-0.1415479185	
543.75	-0.2338488396	0.1226761269	
544.375	-0.01033806405	-0.05929202556	
545.0	-0.04298698285	0.3399940518	
545.625	0.1405582778	-0.1570071002	
546.25	0.1782496651	0.3984759119	
546.875	0.2725423605	-0.3411507469	
547.5	0.1801154098	-0.05482098701	
548.125	-0.1288522818	-0.6269401601	
548.75	-0.292099667	0.02337745333	
549.375	-0.1262187251	-0.3085285864	
550.0	-0.306299865	0.09940262135	
550.625	0.02595316239	-0.001433670169	
551.25	-0.3130726966	0.06068723364	
551.875	-0.05830095246	0.2285139658	
552.5	-0.1391166864	0.1248788056	
553.125	0.001905433646	0.1980093435	
553.75	0.08713674371	0.0955495493	
554.375	0.2429524614	-0.009172799358	
555.0	0.1983124859	-0.1808827198	
555.625	0.1820016931	-0.2456173188	
556.25	0.1436749351	-0.3432466142	
556.875	-0.1109590454	-0.3774300245	
557.5	-0.2316297898	-0.2183257921	
558.125	-0.2550207136	-0.08720772969	
558.75	-0.271937259	0.004978184062	
559.375	-0.210760917	0.06936221926	
560.0	-0.2556944183	0.1496603958	
560.625	-0.06412458715	0.3143313254	
561.25	0.0007843759972	0.1267978513	
561.875	0.08121643475	0.201206758	
562.5	0.05989029825	0.009377037259	
563.125	0.0855497295	0.2553310205	
563.75	0.4097884377	-0.1032353975	
564.375	0.1454620952	-0.1434996809	
565.0	0.2810989658	-0.397673314	
565.625	-0.2182170209	-0.2937963405	
566.25	-0.1226951102	-0.2739064482	
566.875	-0.4508284198	-0.192127072	
567.5	-0.259832525	-0.07544043236	
568.125	-0.2027832789	-0.4867057812	
568.75	-0.72130359	-0.1367163468	
569.375	-0.2774421373	0.3288582178	
570.0	-0.4926587844	0.2298123418	
570.625	0.0004473792476	0.7663174615	
571.25	-0.005811095009	-0.07327610745	
571.875	0.2834065306	0.5058678576	
572.5	-0.07056286909	-0.2395314497	
573.125	0.5674933215	-0.09480618139	
573.75	-0.08680261935	-0.5679611328	
574.375	-0.1052241424	0.1334595952	
575.0	0.3423355146	-0.2368772225	
575.625	-0.2498474051	-0.1050758908	
576.25	0.3881945015	-0.1158108062	
576.875	-0.1785224191	-0.5321028701	
577.5	-0.1041902301	-0.07778003196	
578.125	0.1477679193	-0.5073398008	
578.75	-0.4780921402	-0.3061726471	
579.375	-0.08755568702	0.03958696338	
580.0	-0.02433588871	-0.274200716	
580.625	-0.3184461107	0.1579148832	
581.25	-0.03200265679	-0.09346580176	
581.875	-0.233988573	0.6282935717	
582.5	0.5095570357	0.217520117	
583.125	-0.2196435775	-0.004038526036	
583.75	0.518626636	0.2772545712	
584.375	-0.388672746	-0.0504929744	
585.0	0.6111516965	0.33146952	
585.625	0.1899121415	-0.3658761742	
586.25	0.2135941842	0.1779960938	
586.875	0.359539327	-0.5049915256	
587.5	-0.2917640643	-0.1479728654	
588.125	0.2305529913	-0.2839391823	
588.75	-0.07369811849	-0.5720389036	
589.375	0.08440057636	-0.01236844698	
590.0	-0.1196792388	-0.7214999601	
590.625	-0.3505714049	0.1639926238	
591.25	-0.2767505134	0.05090507866	
591.875	-0.1937550008	0.3368539988	
592.5	0.1826109215	0.246308068	
593.125	-0.3035701821	-0.1135111623	
593.75	0.4179487793	0.4383776457	
594.375	0.112205393	-0.05113986442	
595.0	0.3404975549	0.6267276895	
595.625	0.6405878734	-0.2004487042	
596.25	0.06503374406	0.366880312	
596.875	0.7313339081	0.08142716849	
597.5	0.0410107219	-0.2021930252	
598.125	0.2547626359	0.6489507359	
598.75	0.6267741127	0.09072425968	
599.375	0.2593668339	-0.1150187048	
600.0	0.522055125	-0.2063754757	
600.625	0.2152785911	-0.5869143863	
601.25	0.1624183289	-0.2176264602	
601.875	-0.1956205553	-0.484163728	
602.5	-0.1738753116	0.1368562904	
603.125	-0.364914036	-0.01093760415	
603.75	-0.1795975854	0.2703828476	
604.375	-0.2467747121	0.1474313357	
605.0	0.01905402643	0.08414376585	
605.625	-0.4675525426	0.1875095571	
606.25	0.1004443488	0.2773702503	
606.875	-0.599929882	-0.2619912065	
607.5	-0.1922920568	0.9237597156	
608.125	-0.1364917411	0.1375442041	
608.75	0.5412658811	0.7868912791	
609.375	0.1928977794	-0.4901909313	
610.0	0.578123395	0.09297942692	
610.625	0.08379886874	-0.6907322141	
611.25	0.04470555184	0.007197407847	
611.875	-0.372332487	-0.5550558302	
612.5	-0.1254623265	0.04070109506	
613.125	-0.6093997837	-0.1005804593	
613.75	0.04334150737	0.5356395541	
614.375	-0.2610410339	0.1666084276	
615.0	0.431143442	0.1060163669	
615.625	-0.3142303619	0.03604062294	
616.25	-0.02029946958	0.6993776136	
616.875	0.02784366297	0.04379290981	
617.5	-0.4510399822	0.6415894925	
618.125	0.26925768	0.511201729	
618.75	-0.1475509454	0.2568195369	
619.375	0.4294398093	0.4630546651	
620.0	0.2392778882	0.01100941035	
620.625	0.3618545245	-0.3957972082	
621.25	-0.268450711	-0.269299902	
621.875	-0.4473637921	-0.3336903622	
622.5	-0.3930990288	0.3816526966	
623.125	-0.2290950561	0.1975865992	
623.75	0.5945992319	0.1524171885	
624.375	-0.2586466546	-0.008725313808	
625.0	0.4060962288	-0.4186030088	
625.625	-0.03586193909	0.1727052853	
626.25	0.05458718166	-0.6146557789	
626.875	-0.5641760632	0.1155643474	
627.5	0.1132149839	-0.2139251327	
628.125	-0.5463049559	-0.3399079635	
628.75	-0.2181719714	-0.04455121849	
629.375	-0.03974196143	-0.3315391177	
630.0	-0.5822030036	-0.2929612155	
630.625	-0.2788511506	0.2517832221	
631.25	-0.4808677134	0.4090137341	
631.875	0.1352395605	0.6259574574	
632.5	0.2014901825	0.2777138871	
633.125	0.5924400544	0.2538674316	
633.75	0.2962272094	-0.3122343962	
634.375	0.03742855683	-0.215255051	
635.0	0.139575958	-0.3269590781	
635.625	-0.6210162892	-0.2096856503	
636.25	0.09674978687	0.3018673721	
636.875	-0.6383310279	0.1652189586	
637.5	0.3129352279	0.4339221101	
638.125	-0.4451321253	-0.1430174817	
638.75	0.1047383503	0.828270166	
639.375	-0.1305170212	-0.02056428405	
640.0	0.3027928817	1.01373564	
640.625	0.84143692	-0.1086433381	
641.25	0.2115850855	0.0660804979	
641.875	0.7071569599	-0.1789460526	
642.5	-0.3403576087	-0.8190082843	
643.125	-0.09729372513	0.04848369699	
643.75	-0.3691131136	-0.4293040196	
644.375	-0.34030343	0.3455640949	
645.0	-0.5367032704	-0.01609633576	
645.625	0.408498551	0.6570099132	
646.25	0.1876862902	-0.06183558545	
646.875	0.1603980971	0.2121271465	
647.5	0.4762156424	-0.2200294821	
648.125	-0.2178705948	0.221880216	
648.75	1.123430744	0.06048591968	
649.375	0.1567103973	-1.136932758	
650.0	0.1102758927	0.0313524174	
650.625	1.011322991	-1.001914338	
651.25	-0.3885284691	-0.7092884187	
651.875	0.7869874734	0.2665885347	
652.5	0.9684961584	-0.8943177675	
653.125	-0.09184325876	-0.137429438	
653.75	0.9445462053	-0.4635804824	
654.375	-0.5871120791	-0.8808790281	
655.0	-0.359912717	0.2539666052	
655.625	-0.6328503277	0.02695552765	
656.25	0.3745744767	0.798738339	
656.875	-0.1507886473	-0.2095270313	
657.5	0.2460482646	0.5039643989	
658.125	0.4041472041	0.04080739029	
658.75	0.3330656814	0.3245074966	
659.375	1.127395746	-0.4549093963	
660.0	0.03849216208	-0.8266008297	
660.625	0.3336800526	-0.3519182276	
661.25	0.7305674358	-0.9001183823	
661.875	-0.18866401	-0.8506734546	
662.5	0.8047553063	0.08509057298	
663.125	0.6415395819	-1.018541115	
663.75	-0.09992025162	-0.3366849284	
664.375	0.3449635894	-0.9246355754	
665.0	-1.085036649	-0.2652671151	
665.625	-0.2775019789	0.2078308415	
666.25	-0.4753172854	0.5531442381	
666.875	0.5870902435	0.5262279904	
667.5	0.05654524283	0.04213411467	
668.125	0.8233596716	-0.07005509333	
668.75	0.1344488167	-0.4369688932	
669.375	0.3580144362	-0.2353325742	
670.0	-0.04652024312	-0.8499446942	
670.625	-0.2644806368	-0.214367581	
671.25	0.2966194402	-0.2501339051	
671.875	0.4646338128	-0.5601447167	
672.5	0.1656622108	-0.6027398093	
673.125	0.3183390697	0.04480446903	
673.75	0.4574144176	-1.021914799	
674.375	-0.1628270633	-0.1889054616	
675.0	0.07301159663	-0.7793645808	
675.625	-0.9786474191	-0.04036873625	
676.25	0.3056087464	-0.005985677202	
676.875	-0.9426927658	-0.1566461829	
677.5	-0.01816180758	0.5083526889	
678.125	-0.2657533882	-0.0007864423393	
678.75	-0.008261352857	0.8388128245	
679.375	0.6345381909	-0.2992833765	
680.0	0.214669342	0.1140883139	
680.625	0.3795299353	-0.4413559041	
681.25	-0.2641183688	0.01882330592	
681.875	0.8436584189	0.2660712071	
682.5	0.3110623083	-0.1817710404	
683.125	0.3699004605	0.2696785978	
683.75	0.6025394858	0.3172600559	
684.375	1.022376328	-0.09451509049	
685.0	0.008946525975	-0.3744595887	
685.625	0.9403086751	0.7535164291	
686.25	0.8354490025	-1.020328526	
686.875	0.1039967319	0.3430809252	
687.5	1.164675409	-1.601940231	
688.125	-0.6632957063	0.004578315861	
688.75	-0.8584682468	-1.122995511	
689.375	-0.5035975936	1.647651788	
690.0	0.07850475411	-0.108706528	
690.625	0.7880189067	1.245558861	
691.25	0.8531154619	0.1347228337	
691.875	0.771438921	0.7077220746	
692.5	1.528088239	0.5018829889	
693.125	1.273318502	-0.3341086244	
693.75	1.371750648	-0.5166479586	
694.375	0.7672970278	-0.9991565119	
695.0	1.040257712	-0.5722390591	
695.625	1.06774924	-0.520155565	
696.25	0.7895803191	0.4957609321	
696.875	1.726029693	0.8031280166	
697.5	0.499527346	0.2581066104	
698.125	1.74826019	0.9665360659	
698.75	0.09431953372	-1.801580773	
699.375	-0.1212786496	-0.8830809499	
700.0	-0.7793229867	1.565971065	
700.625	0.4522885763	-0.05854651898	
701.25	0.6620424824	1.158801612	
701.875	0.6846942542	-0.1413312508	
702.5	0.4460036695	0.8589761513	
703.125	1.414094413	0.01242255856	
703.75	0.2263749287	-0.09041838954	
704.375	1.17357356	-0.5143025261	
705.0	0.08078492842	-0.6276884931	
705.625	0.58689283	0.6686034747	
706.25	1.171913032	-0.2107361285	
706.875	-0.04316514796	0.6095618382	
707.5	1.231824905	1.217369462	
708.125	0.6203318722	-0.5642360931	
708.75	0.9976741105	-0.6572578634	
709.375	-1.219416242	-0.5267710813	
710.0	-0.09889706504	0.4283309873	
710.625	0.2051848923	0.4701806687	
711.25	0.2498183586	0.1399992063	
711.875	0.4728790376	0.2988807705	
712.5	0.7496768293	-0.2149073852	
713.125	0.6276267946	-0.3644297379	
713.75	0.1100955769	-0.6387103928	
714.375	0.193695399	-0.3481235659	
715.0	-0.2785514027	-0.8331094007	
715.625	-0.1995688496	0.01763142125	
716.25	1.116985836	-0.4683913747	
716.875	0.4636572192	-1.600474432	
717.5	0.3506095683	0.9354668098	
718.125	2.890268663	-0.2170610432	
718.75	0.3961944028	-1.85798923	
719.375	3.472422012	0.3744440192	
720.0	-1.213864451	-3.896354798	
720.625	1.055781955	-1.052464449	
721.25	0.1154175696	-3.349106044	
721.875	-2.157205732	-2.625484188	
722.5	-1.199707922	-0.6609266533	
723.125	-2.166801981	-0.6326618291	
723.75	-0.61570305	1.515724985	
724.375	0.2260383303	0.7709339878	
725.0	0.1033782752	1.09210044	
725.625	0.8675814802	0.7977792077	
726.25	-0.07957389842	1.174723773	
726.875	-0.4674935804	2.708869114	
727.5	1.771222218	4.067383934	
728.125	-0.2269536887	0.6986447195	
728.75	-3.146530316	10.58676375	
729.375	6.262687048	10.08719637	
730.0	-2.697840334	1.605173964	
730.625	0.1014207954	20.10109065	
731.25	7.888804594	2.045525737	
731.875	-11.4320598	4.935454979	
732.5	-9.186751819	9.071639825	
733.125	-1.036797053	1.63396358	
733.75	-3.757303449	3.74890391	
734.375	3.415404366	-0.3207416135	
735.0	-0.5426753218	-0.6810196532	
735.625	-1.022172193	-0.3166356626	
736.25	0.3756419356	2.079883555	
736.875	0.3308052305	0.1311502644	
737.5	3.532594731	1.073800723	
738.125	3.753669415	-2.744540015	
738.75	0.8870176129	-2.46880797	
739.375	10.00684275	1.327022841	
740.0	9.916615504	-16.80237113	
740.625	-7.529267632	-0.8541953592	
741.25	-4.242810822	16.81555511	
741.875	13.08790025	23.12643463	
742.5	5.887648528	-12.36342973	
743.125	-0.9955403752	-10.38205978	
743.75	-1.644992646	0.3895416937	
744.375	-1.198228829	-1.525743498	
745.0	0.9918247053	0.09264342412	
745.625	0.1996434989	0.2864257136	
746.25	-0.4059773357	-0.4538115961	
746.875	-0.2434603261	0.4920944232	
747.5	-0.1904212579	0.5101033743	
748.125	0.9284447416	2.044984822	
748.75	1.344343468	0.585876532	
749.375	0.2152401766	0.9435941144	
750.0	-1.295778905	0.1890612547	
