!Created with skrf (http://scikit-rf.org).
# GHz S RI R (50+0j) 
!freq	ReS11	ImS11	
500.0	-0.1822012335	-0.5709167052	
500.625	0.6485312133	-1.032284611	
501.25	-0.7820570783	-0.6033664549	
501.875	-0.05977354283	-0.338663891	
502.5	-0.05450390594	-0.1963551245	
503.125	-0.05146061058	0.03802930611	
503.75	-0.04387437411	0.06646619411	
504.375	0.05019664282	-0.03731635068	
505.0	0.004407145291	0.01403893797	
505.625	-0.005096629092	-0.1080832355	
506.25	-0.07819901564	0.05046580977	
506.875	-0.3037137547	-0.2340144449	
507.5	-0.3708522993	0.01530953444	
508.125	0.4454158568	-0.3436879121	
508.75	0.9821285706	-1.261235237	
509.375	-0.2451990023	-1.003151699	
510.0	-0.2083241297	-0.3822659011	
510.625	-0.2052862207	-0.2974727242	
511.25	-0.02035793532	0.01654159386	
511.875	-0.1152123657	-0.1246299301	
512.5	0.0007082642256	0.07432202567	
513.125	0.0157891493	-0.02906787312	
513.75	-0.06005316582	-0.1183976657	
514.375	-0.09502046375	0.07854951861	
515.0	0.221944438	-0.4333021862	
515.625	-0.4163730173	-0.07744221685	
516.25	0.2027949907	-0.4670377255	
516.875	-0.3019645918	-0.7733419463	
517.5	-0.06922823264	0.02211506135	
518.125	0.01975897654	-0.107026772	
518.75	-0.08735253043	-0.01853231972	
519.375	-0.05355608761	0.004173104243	
520.0	0.1339920987	0.07805929099	
520.625	0.1543614732	-0.1112712268	
521.25	-0.01103580534	-0.1901886369	
521.875	-0.1549181207	-0.1532220838	
522.5	-0.08560141594	0.02968386453	
523.125	-0.07318404028	-0.0917065588	
523.75	-0.2160699519	0.05978825732	
524.375	-0.003079857911	0.05517496797	
525.0	-0.1981517386	0.08251553041	
525.625	0.1365504483	0.09386388175	
526.25	-0.1116208305	-0.009394761433	
526.875	0.01999581818	0.0730773325	
527.5	-0.1423240552	0.1293906775	
528.125	0.02299623707	0.4243915961	
528.75	0.1529597949	0.1566493483	
529.375	-0.04403791309	0.09180906596	
530.0	0.1750444896	0.1767108627	
530.625	-0.02759696683	0.144484333	
531.25	0.4470548028	0.2421905243	
531.875	0.2399849862	-0.2682710701	
532.5	0.03980539759	-0.01204098849	
533.125	0.02161028892	-0.1762805614	
533.75	0.002280857929	-0.06787653268	
534.375	-0.03991457466	-0.4172624078	
535.0	-0.3260112713	0.01039945625	
535.625	-0.1470573376	0.04565571188	
536.25	-0.02770822919	0.1289355295	
536.875	0.09344873738	-0.03055411973	
537.5	0.08374595541	0.004584202408	
538.125	0.1380441743	-0.1243812074	
538.75	0.08601926028	-0.08072146701	
539.375	-0.03809032788	-0.2107083799	
540.0	-0.2096717289	-0.1548869609	
540.625	-0.08215895675	-0.01867574181	
541.25	-0.1155925245	-0.03547999737	
541.875	-0.08187515539	0.003457110316	
542.5	-0.013742101	-0.09694953169	
543.125	-0.1376442672	-0.01954648315	
543.75	-0.02466345987	0.05234342298	
544.375	-0.1100022498	0.03439619288	
545.0	0.1031455427	0.08000419213	
545.625	-0.01022339893	0.07690351612	
546.25	0.1599403732	0.02296853864	
546.875	0.0614635432	-0.01982537477	
547.5	0.1493433047	-0.1062511131	
548.125	-0.09957012163	-0.1813576107	
548.75	-0.06968593528	-0.0705864617	
549.375	-0.1109687005	-0.1367302218	
550.0	-0.09420840509	0.06406878714	
550.625	-0.0416033269	-0.04250713798	
551.25	-0.09642195961	0.06925812907	
551.875	-0.05065393781	0.04085737299	
552.5	-0.07743889543	0.08179313894	
553.125	0.002183617392	0.06122502038	
553.75	0.0310648735	0.04937623995	
554.375	0.1055987538	-0.005214937912	
555.0	0.09178640312	-0.07342733839	
555.625	0.09715102974	-0.1076042777	
556.25	0.06925692055	-0.1505605732	
556.875	-0.03469876477	-0.1666852685	
557.5	-0.09689278293	-0.1099981566	
558.125	-0.1225127936	-0.04811369427	
558.75	-0.1153653507	-0.0004051105626	
559.375	-0.1088347032	0.01311677472	
560.0	-0.1203028215	0.075724988	
560.625	-0.04068984842	0.1260687927	
561.25	-0.0116548738	0.08111151566	
561.875	0.04513828037	0.074959524	
562.5	-0.009862883926	0.01331267125	
563.125	0.08499517642	0.1193198551	
563.75	0.1381443374	-0.04214675131	
564.375	0.1311884516	-0.04715526098	
565.0	0.1142192467	-0.1981358512	
565.625	-0.06873639447	-0.1334450597	
566.25	-0.05734392613	-0.1389147887	
566.875	-0.198549904	-0.08360612042	
567.5	-0.08983266012	-0.02756681756	
568.125	-0.1105279837	-0.2420599971	
568.75	-0.2817643355	-0.03683000946	
569.375	-0.1457912839	0.01891806202	
570.0	-0.2544625257	0.2392922569	
570.625	0.02930670143	0.2192943754	
571.25	-0.05966132609	0.0562631868	
571.875	0.1434795165	0.1296160274	
572.5	0.01234919292	-0.02081488835	
573.125	0.2022954068	-0.07758480435	
573.75	-0.004407130945	-0.2022329949	
574.375	-0.006306534392	0.03243822126	
575.0	0.08473487468	-0.1506809256	
575.625	-0.03460084986	-0.009522897717	
576.25	0.1474509079	-0.1013958426	
576.875	-0.0625984211	-0.2104097698	
577.5	-0.03930554283	-0.06145166731	
578.125	0.05961769105	-0.1951792852	
578.75	-0.1820002082	-0.1596130746	
579.375	-0.04119264322	0.0190797845	
580.0	-0.03574941003	-0.1925118645	
580.625	-0.08871012595	0.0879806152	
581.25	-0.1087018038	-0.04063966758	
581.875	0.0291697777	0.3462237074	
582.5	0.147856234	0.03391269234	
583.125	-0.06879768465	0.1195309403	
583.75	0.1699596255	0.06065274585	
584.375	-0.1120297834	0.02792726313	
585.0	0.1909494155	0.141639352	
585.625	0.1266934782	-0.1019749887	
586.25	0.1156082654	0.03624225076	
586.875	0.1347480777	-0.2421457017	
587.5	-0.07580926362	-0.06431766152	
588.125	0.07666684039	-0.1469422622	
588.75	0.01124054194	-0.2422869954	
589.375	-0.006447511793	-0.08728029772	
590.0	0.04421808133	-0.2455867642	
590.625	-0.2901527115	0.03576439044	
591.25	-0.04196308876	0.04855758848	
591.875	-0.1520775091	0.1250881998	
592.5	0.1081710989	0.08965731051	
593.125	-0.238371544	0.1004659064	
593.75	0.1808281579	0.0964187536	
594.375	-0.003254960238	0.09840532709	
595.0	0.2008247872	0.2300925914	
595.625	0.1807484696	-0.05721002817	
596.25	0.04772418726	0.08920047697	
596.875	0.2473623956	0.1010045891	
597.5	0.1618338776	-0.005015930889	
598.125	0.08944316695	0.1846907527	
598.75	0.2722136278	0.1273197137	
599.375	0.1539369123	-0.04042825359	
600.0	0.2162393538	-0.09285147353	
600.625	0.1838861169	-0.2528136872	
601.25	-0.01201149291	-0.1704215481	
601.875	0.03318649727	-0.1492353498	
602.5	-0.2266906498	-0.002223146714	
603.125	0.01815618114	0.02729277485	
603.75	-0.2054862741	-0.003755279057	
604.375	-0.1028814655	0.1882427963	
605.0	-0.04126630092	-0.05438866295	
605.625	-0.1536991963	0.1655372764	
606.25	-0.004706080495	0.08927385819	
606.875	-0.2328368754	-0.02920100241	
607.5	-0.08732219639	0.2558768463	
608.125	-0.06494386792	0.1792304725	
608.75	0.1400531032	0.271129684	
609.375	0.3342910748	-0.09343304786	
610.0	0.09079609691	-0.1121615573	
610.625	0.1444543663	-0.1401654819	
611.25	-0.07723475334	-0.2319757395	
611.875	-0.002695369389	-0.05375540887	
612.5	-0.1644971569	-0.1622348831	
613.125	-0.1878904856	0.1602992841	
613.75	-0.05622629436	-0.01462629243	
614.375	0.01306261528	0.2303054619	
615.0	0.09569474235	-0.07025952907	
615.625	-0.1293843965	0.1480412202	
616.25	0.09154695835	0.1569525708	
616.875	-0.08774550255	0.05935467247	
617.5	-0.1505367551	0.3095409608	
618.125	0.09544092028	0.2936021494	
618.75	0.03072317193	0.2790594403	
619.375	0.1158182641	0.2565023102	
620.0	0.2214007069	0.07894916108	
620.625	0.1228198707	-0.0963832131	
621.25	0.009883451701	-0.265736102	
621.875	-0.2337858327	-0.03222851014	
622.5	-0.1424911373	0.001628850651	
623.125	-0.08476780391	0.2685811249	
623.75	0.2380849151	-0.0437228556	
624.375	0.02251161785	0.03248541221	
625.0	0.02371588884	-0.1285763792	
625.625	0.04867386215	-0.0008485672723	
626.25	-0.01126883654	-0.2206802311	
626.875	-0.2045854361	-0.02621303688	
627.5	-0.05072588875	-0.0537972811	
628.125	-0.1651071085	-0.1210464144	
628.75	-0.09870602954	-0.06752738737	
629.375	-0.027876347	-0.1648999332	
630.0	-0.2541108927	-0.115878068	
630.625	-0.2437747046	0.110546823	
631.25	-0.1230068706	0.1293318238	
631.875	-0.02142715685	0.3154419329	
632.5	0.1618452688	0.1445571993	
633.125	0.08049199091	0.0753239989	
633.75	0.2487524164	-0.1163438771	
634.375	-0.1132351432	-0.09582961579	
635.0	0.08370728556	-0.16375867	
635.625	-0.2233815556	-0.06709449281	
636.25	-0.06314566981	0.04495737349	
636.875	-0.1998314619	0.1177457173	
637.5	0.06536770202	0.1534500676	
638.125	-0.1178417111	-0.006890140774	
638.75	-0.1116228652	0.2845812983	
639.375	0.08295900854	0.1725461172	
640.0	0.005074000012	0.2722739631	
640.625	0.3432082888	0.2049221042	
641.25	0.2245216996	-0.09003442443	
641.875	0.2137919591	-0.06633753125	
642.5	-0.02291098287	-0.3527265316	
643.125	-0.09718103318	-0.008887485424	
643.75	0.01389424303	-0.2002766867	
644.375	-0.3094359388	0.09696279492	
645.0	-0.03257590894	0.02767073548	
645.625	-0.104931813	0.334366275	
646.25	0.3751909549	-0.0458137299	
646.875	-0.03047377978	0.01547871765	
647.5	0.3215669377	0.04312917644	
648.125	-0.006029358804	-0.06707342686	
648.75	0.3777955542	0.0783175127	
649.375	0.2280764119	-0.4160149238	
650.0	0.03402953992	-0.1544759537	
650.625	0.3336727524	-0.2300364726	
651.25	0.1611545021	-0.4258083662	
651.875	0.103182709	-0.04247794471	
652.5	0.4670630569	-0.004113945122	
653.125	0.2461726274	-0.2694266536	
653.75	0.1569753055	-0.0676441234	
654.375	0.0227371432	-0.4662483097	
655.0	-0.4557342101	0.0230976883	
655.625	-0.06284990868	0.08405524697	
656.25	-0.08496234845	0.27982507	
656.875	0.2325046618	-0.007498701711	
657.5	-0.1967936224	0.2075484434	
658.125	0.3470164353	0.1526761915	
658.75	0.1656180025	-0.03257971991	
659.375	0.4909787169	0.1011300636	
660.0	0.2542374029	-0.4907654305	
660.625	0.05169008678	-0.107596961	
661.25	0.3420843292	-0.2806458776	
661.875	0.217663301	-0.4000393646	
662.5	0.1196633243	-0.1384624626	
663.125	0.4213597704	-0.1241984865	
663.75	0.0889147138	-0.4056740409	
664.375	0.03151288087	-0.2054969411	
665.0	-0.2792140157	-0.3573459462	
665.625	-0.3462423263	0.2090480054	
666.25	-0.1013777013	0.1503890449	
666.875	0.08365139731	0.3301615093	
667.5	0.2784648544	-0.01199807516	
668.125	0.104433625	0.08684968566	
668.75	0.3237224014	-0.2031346385	
669.375	-0.03538455123	-0.2097824125	
670.0	0.1670163176	-0.1406025323	
670.625	0.01712158709	-0.3583615826	
671.25	-0.07338129157	-0.09196636072	
671.875	0.3556898062	-0.1429822623	
672.5	0.1733510871	-0.2924017158	
673.125	0.1194562415	-0.1065683744	
673.75	0.2950600825	-0.1730496163	
674.375	-0.03223098713	-0.3944861101	
675.0	0.03857861949	-0.1334522153	
675.625	-0.1841808603	-0.2803866908	
676.25	-0.2702669055	0.064375457	
676.875	-0.009323069317	-0.01406312011	
677.5	-0.3097826415	0.008137668173	
678.125	-0.02527560084	0.212747995	
678.75	-0.08153682071	0.1313297976	
679.375	0.3195034494	0.2536456721	
680.0	0.05050111904	-0.2947241381	
680.625	0.1245458865	0.1552420625	
681.25	0.2463657927	-0.1593536676	
681.875	-0.08473310983	-0.0179474373	
682.5	0.1980305087	0.3405232901	
683.125	0.3865911881	-0.2586482877	
683.75	0.01160404808	0.088153955	
684.375	0.384715232	0.2208846065	
685.0	0.3265014822	-0.1763884129	
685.625	0.09958404225	0.1570845151	
686.25	0.4892468309	-0.01548759842	
686.875	0.1677716866	-0.2622184173	
687.5	0.319885819	-0.1741760245	
688.125	0.03968006618	-0.6139646554	
688.75	-0.419397083	-0.09034124342	
689.375	-0.3537875751	0.09156518386	
690.0	0.09300064023	0.5381642347	
690.625	0.2845556582	0.0858952506	
691.25	0.05543650436	0.4360259479	
691.875	0.7342800069	0.3408125988	
692.5	0.448149313	0.06972506406	
693.125	0.7031961135	0.2204766209	
693.75	0.7604409821	-0.4910235164	
694.375	0.1746117254	-0.3567845654	
695.0	0.721177459	-0.111909	
695.625	0.5155981258	-0.2825728401	
696.25	0.3217730757	0.07452748674	
696.875	0.6127433418	0.4092342103	
697.5	0.609399248	0.35702386	
698.125	0.3106779485	0.2335292362	
698.75	0.6684203083	-0.3690106001	
699.375	-0.4330459549	-0.5430470815	
700.0	-0.1457657231	0.2486084992	
700.625	-0.01266681174	0.3217379208	
701.25	0.3605431556	0.06126477406	
701.875	0.07402421647	0.1390778938	
702.5	0.3972290743	0.4085130277	
703.125	0.4950738217	-0.03972477703	
703.75	0.2709747328	0.05249739478	
704.375	0.434841417	-0.2609717467	
705.0	0.148704735	-0.2599607399	
705.625	0.1805521498	0.1890640502	
706.25	0.3555219084	0.08141326401	
706.875	0.1689952607	0.202545452	
707.5	0.367273936	0.330811024	
708.125	0.5541607625	0.1043352495	
708.75	0.3445614498	-0.4022862367	
709.375	-0.1243882612	-0.3839602673	
710.0	-0.4502797335	0.008580477441	
710.625	0.1044109647	0.1075321744	
711.25	-0.07138414631	0.2173352974	
711.875	0.3779196529	0.07297364728	
712.5	0.08907619798	0.07265734654	
713.125	0.3964002696	-0.1283568496	
713.75	0.08646344653	-0.3496224611	
714.375	0.02997200588	-0.1176779557	
715.0	0.03625983839	-0.3097222289	
715.625	-0.1110726145	-0.1977927538	
716.25	0.2219960019	-0.09166346971	
716.875	0.4978639613	-0.2307585355	
717.5	0.3420974291	-0.1957103727	
718.125	0.5186018168	0.1279869938	
718.75	0.9850966201	-0.2085023186	
719.375	0.3607393706	-0.4765370546	
720.0	0.6956919852	-0.5156004336	
720.625	0.6460127212	-1.433415873	
721.25	-0.1222325025	-0.7732355805	
721.875	0.4072154031	-0.980293585	
722.5	-0.8777979963	-0.9963322627	
723.125	-0.5066969569	0.1208106154	
723.75	-0.643836431	0.1747982048	
724.375	0.176880916	0.5791747469	
725.0	0.0788876266	0.2192373976	
725.625	0.01488764973	0.7261630156	
726.25	0.3254584741	0.7155295579	
726.875	-0.2163434341	0.5871690374	
727.5	-0.5766167326	1.681075531	
728.125	0.5357212565	2.21118021	
728.75	-0.06763918504	1.409098667	
729.375	-2.155750673	4.154093253	
730.0	1.406838669	4.084390477	
730.625	-0.3176867158	2.745702859	
731.25	-2.871295232	3.903433543	
731.875	-1.344225739	3.617556958	
732.5	-2.740075529	-0.4679268488	
733.125	-3.756593675	-0.1682861416	
733.75	-0.3086829936	2.014085611	
734.375	0.2614697514	0.3343095965	
735.0	0.2345179411	-1.08372984	
735.625	-0.2709208388	0.2919205227	
736.25	-0.5752082626	0.3795160557	
736.875	0.7160543918	0.9171511424	
737.5	0.7811263431	-0.2571720392	
738.125	1.390557648	0.7845805256	
738.75	2.708122181	-2.187358425	
739.375	0.4654814448	-2.097222613	
740.0	2.434112093	1.380588059	
740.625	6.629915891	-0.1340171114	
741.25	-0.111011607	-3.79300063	
741.875	-5.76371248	-0.926555588	
742.5	-2.571630873	-1.657959139	
743.125	0.6709410964	-0.3046863518	
743.75	0.4877869359	-1.579654908	
744.375	-0.689995757	0.1370445997	
745.0	-0.005800444418	-0.04783901433	
745.625	0.2558407463	-0.02170535438	
746.25	-0.01935653826	-0.03217503537	
746.875	-0.3101170567	-0.1570611575	
747.5	-0.07772376674	0.4638220007	
748.125	0.1093590783	0.3825741197	
748.75	0.1022843858	0.6635606713	
749.375	0.2496905935	0.5557560463	
750.0	-0.3431795067	0.1641319558	
