!Created with skrf (http://scikit-rf.org).
# GHz S RI R (50+0j) 
!freq	ReS11	ImS11	
500.0	-0.9418288224	-3.324928283	
500.625	1.068094261	-1.680414764	
501.25	0.1363401525	-4.217736302	
501.875	-2.105134606	-0.8098819337	
502.5	0.02290431849	-0.1428973514	
503.125	-0.4096104797	0.09821711036	
503.75	0.09526796735	-0.01862569141	
504.375	0.172187556	0.02415824561	
505.0	-0.09333820312	-0.06249748531	
505.625	0.281110421	-0.2550980985	
506.25	-0.6274645763	0.1168860572	
506.875	0.3226584517	-0.4819643221	
507.5	-0.6291549802	-2.313307889	
508.125	-1.321984212	-1.009663437	
508.75	3.257340495	-2.634231682	
509.375	-4.118129537	-5.03849246	
510.0	-0.2386684248	-0.2975521665	
510.625	-0.88865009	-0.6682173547	
511.25	-0.07752179521	0.04953509156	
511.875	-0.5840095542	-0.1374340862	
512.5	-0.09982061037	0.1844513381	
513.125	-0.1285760258	-0.2440260386	
513.75	0.08877082891	-0.06824439469	
514.375	-0.5796643686	-0.3168196263	
515.0	0.7508137069	1.206371267	
515.625	-1.128816233	-3.178187565	
516.25	-0.3385745441	0.7407843484	
516.875	-0.02912719385	-2.763945978	
517.5	-1.118350741	-0.2930522744	
518.125	0.2712319148	-0.3311457573	
518.75	-0.8595700877	-0.3772717928	
519.375	-0.1008055337	-0.01127874686	
520.0	0.4738741713	0.3349286401	
520.625	0.4111251753	-0.386235465	
521.25	0.1417317077	-0.3782430487	
521.875	-0.6563414885	-0.2119430011	
522.5	0.04325667882	0.05357535285	
523.125	-0.3102838454	0.2582328174	
523.75	-0.01239148929	-0.1680863308	
524.375	-0.7692948421	0.3212796684	
525.0	0.1133545456	0.006353726936	
525.625	-0.06002017885	0.2915589073	
526.25	0.06435666611	-0.2888503135	
526.875	-0.1799382558	0.4009965584	
527.5	0.09587861851	0.2364348766	
528.125	-0.274034763	1.026927242	
528.75	0.5917460634	0.7978780839	
529.375	-0.146382098	0.2922334677	
530.0	0.4326059226	0.2072532226	
530.625	-0.2954174643	1.061809886	
531.25	1.659198678	-0.1485197084	
531.875	0.372027321	-0.03252912603	
532.5	-0.2317265003	-0.6999673468	
533.125	0.3265300979	0.3840627367	
533.75	0.01862369282	-1.023918264	
534.375	0.08222785213	-0.1746011335	
535.0	-1.037422188	-0.7314134945	
535.625	-0.1591110686	0.4845656257	
536.25	-0.09833086469	0.1721209939	
536.875	0.3686182768	0.08449696089	
537.5	0.02799024762	-0.1106789978	
538.125	0.5274170639	-0.1005506164	
538.75	0.1247514393	-0.383806292	
539.375	0.01853917408	-0.3899376512	
540.0	-0.605647753	-0.5334959559	
540.625	-0.3061396262	0.1154015248	
541.25	-0.1666578256	-0.02100310161	
541.875	-0.1281572516	-0.1612813273	
542.5	-0.2128046984	0.04098233986	
543.125	-0.04014824265	-0.2566037719	
543.75	-0.4091409609	0.1293936369	
544.375	4.274426452e-05	-0.1104291851	
545.0	-0.00204756654	0.3385863516	
545.625	0.02811349141	-0.09219972337	
546.25	0.35684487	0.4157756729	
546.875	0.1580686619	-0.3509582915	
547.5	0.2533448349	-0.05787916258	
548.125	-0.05700317859	-0.6336028673	
548.75	-0.4035956589	-0.1052898818	
549.375	-0.08133237333	-0.2445591023	
550.0	-0.3525624547	0.05364851418	
550.625	0.02569234963	-0.03734408123	
551.25	-0.3508289905	0.1017884084	
551.875	-0.03174760144	0.1612567283	
552.5	-0.2136769065	0.150574657	
553.125	-0.01210764166	0.2077006204	
553.75	0.09062958597	0.1038659966	
554.375	0.2544443046	0.03897901204	
555.0	0.2401133879	-0.1833661132	
555.625	0.2214826747	-0.2441688001	
556.25	0.189185901	-0.3535399248	
556.875	-0.08049663003	-0.4037264834	
557.5	-0.225199644	-0.2513019213	
558.125	-0.2708503697	-0.1202612798	
558.75	-0.2933760499	-0.005328651025	
559.375	-0.2344109653	0.05412207172	
560.0	-0.2735742182	0.137825947	
560.625	-0.1148662768	0.3317503368	
561.25	0.02552599039	0.1530906796	
561.875	0.07285479233	0.2168966865	
562.5	0.01529360436	0.006198480181	
563.125	0.1608758929	0.3170819081	
563.75	0.3629246217	-0.1413290333	
564.375	0.226867386	-0.05085572067	
565.0	0.3160775578	-0.4337983441	
565.625	-0.192985822	-0.3626948337	
566.25	-0.1272499019	-0.2123587109	
566.875	-0.4121899615	-0.3342038478	
567.5	-0.361675767	-0.06984407995	
568.125	-0.1813919623	-0.5476663463	
568.75	-0.735955828	-0.1414963617	
569.375	-0.3536148812	0.1639200061	
570.0	-0.6302643339	0.412430534	
570.625	0.06119966658	0.7124588021	
571.25	-0.07438536207	-0.0737931634	
571.875	0.2816548645	0.5556188921	
572.5	0.02986149427	-0.2169715988	
573.125	0.5171518324	-0.02824339536	
573.75	0.0001091252687	-0.5782062122	
574.375	-0.02192047161	0.1746656186	
575.0	0.2564509943	-0.3951668292	
575.625	-0.1534675463	0.07234133665	
576.25	0.4611544865	-0.2332563796	
576.875	-0.1916721815	-0.5584798177	
577.5	-0.09544272705	-0.1213228989	
578.125	0.1458660213	-0.4447571388	
578.75	-0.4095190343	-0.442618017	
579.375	-0.1293562421	0.05254358484	
580.0	-0.0470570387	-0.3352485593	
580.625	-0.2047839901	0.192011495	
581.25	-0.2385179385	-0.161804943	
581.875	-0.09948817581	0.7059732763	
582.5	0.4811423912	0.1870439245	
583.125	-0.2636566242	0.01006735901	
583.75	0.5500348001	0.349555009	
584.375	-0.3696873114	-0.09115536623	
585.0	0.5987839052	0.3893094757	
585.625	0.1417593028	-0.3154088854	
586.25	0.4505998164	0.2846575482	
586.875	0.1757970537	-0.6766947862	
587.5	-0.07811586762	-0.03478062787	
588.125	0.2568057828	-0.42103868	
588.75	-0.06143666539	-0.608065335	
589.375	0.06514454633	-0.08755843054	
590.0	0.0814133581	-0.5996576489	
590.625	-0.518652041	-0.008856189749	
591.25	-0.2369951482	0.1154320685	
591.875	-0.245187482	0.3400807145	
592.5	0.1804177647	0.04297827346	
593.125	-0.2279760438	0.2144717063	
593.75	0.2860028842	0.2409702757	
594.375	0.06932456027	0.1107047418	
595.0	0.3674958514	0.7308695983	
595.625	0.7788315119	-0.1967635234	
596.25	-0.05617598564	0.3260044136	
596.875	0.7882089637	0.1943226451	
597.5	0.09091600577	-0.1095620802	
598.125	0.381263503	0.7344235246	
598.75	0.5067854638	-0.1107072899	
599.375	0.3101037126	0.2114670785	
600.0	0.678545217	-0.4174053941	
600.625	0.1825608801	-0.548034956	
601.25	0.2176990653	-0.2297096755	
601.875	-0.1296266507	-0.4624784699	
602.5	-0.2943277293	-0.05680071962	
603.125	-0.229062113	0.1243313651	
603.75	-0.2708963088	0.06453139839	
604.375	-0.3149168834	0.2716573568	
605.0	-0.06322031827	0.05069318109	
605.625	-0.3704213321	0.2265059379	
606.25	-0.01560453513	0.1339447272	
606.875	-0.7195082402	-0.1279769738	
607.5	-0.1528585039	0.8522362167	
608.125	-0.2594807453	0.1509663025	
608.75	0.5830117227	0.90068043	
609.375	0.2388329742	-0.3522779099	
610.0	0.6334734077	0.06578487567	
610.625	0.116482802	-0.6486145871	
611.25	0.1400029929	-0.0033412984	
611.875	-0.412887011	-0.5853554338	
612.5	-0.110152045	-0.01449140542	
613.125	-0.6626947488	-0.1359873953	
613.75	0.02394895724	0.5149028825	
614.375	-0.3035311328	0.2802615929	
615.0	0.4314914072	0.02010322098	
615.625	-0.3713494926	0.1481354079	
616.25	0.1253850846	0.6626037098	
616.875	-0.1656300726	0.01624599353	
617.5	-0.4526474023	0.7461323155	
618.125	0.238061011	0.5170599404	
618.75	-0.2262887466	0.2929303089	
619.375	0.3802286378	0.5114229502	
620.0	0.2561922704	0.1109670177	
620.625	0.4312215947	-0.410045656	
621.25	-0.1983177756	-0.3146719672	
621.875	-0.486060387	-0.3910180825	
622.5	-0.4317068543	0.2310552739	
623.125	-0.2554894671	0.30478327	
623.75	0.568527545	0.1480876175	
624.375	-0.2523491093	0.05105808847	
625.0	0.4464790023	-0.4665438662	
625.625	-0.06757434086	0.1695210362	
626.25	0.1173741333	-0.6347678865	
626.875	-0.5627300142	0.01684594989	
627.5	0.04796532223	-0.2547651245	
628.125	-0.6004240887	-0.2440909667	
628.75	-0.02864636034	-0.02675204352	
629.375	-0.1088948021	-0.6261584465	
630.0	-0.6342347534	-0.1204574401	
630.625	-0.2628617963	0.04994953228	
631.25	-0.5517119166	0.3562025514	
631.875	-0.07341704628	0.6455126761	
632.5	0.3918060989	0.4672867502	
633.125	0.3096456155	0.1467448809	
633.75	0.6448957695	-0.121289158	
634.375	0.03273018464	-0.2085870604	
635.0	0.1531171007	-0.4123765264	
635.625	-0.5189878632	-0.1119888318	
636.25	-0.1870007058	-0.1241780051	
636.875	-0.4535867379	0.5228693492	
637.5	0.2976809162	0.2039271788	
638.125	-0.5343403585	-0.1272013027	
638.75	-0.09139058836	0.8048650722	
639.375	0.1418607316	0.2038319328	
640.0	-0.02779794394	0.8000532874	
640.625	0.8769860915	0.3218964133	
641.25	0.3049243448	-0.01964193206	
641.875	0.9613042419	-0.4425709828	
642.5	-0.3537782046	-0.3884549672	
643.125	0.151465154	-0.2640481599	
643.75	-0.6410640484	-0.4636740819	
644.375	-0.2494989876	0.3357960829	
645.0	-0.3585963621	-0.05419682481	
645.625	-0.009244831492	0.8552552679	
646.25	0.5980574438	-0.05217326727	
646.875	-0.1736971821	0.16261801	
647.5	0.6648982425	-0.1492843766	
648.125	-0.1234793903	0.4772185683	
648.75	1.138414868	-0.202164791	
649.375	0.03781719754	-0.7992002722	
650.0	0.5719703208	0.07974273587	
650.625	0.9479064226	-1.408510727	
651.25	-0.3549382003	-0.5992105987	
651.875	0.7899506669	0.3300305537	
652.5	1.128045925	-0.6265796718	
653.125	0.1051052649	-0.3384786007	
653.75	1.051277311	-0.2639632454	
654.375	-0.4514568419	-0.979854211	
655.0	-0.2344675658	0.02491337903	
655.625	-0.8904467352	-0.01218390044	
656.25	0.4542784201	0.820167728	
656.875	-0.2134150765	-0.1612498373	
657.5	0.1941059751	0.5549755412	
658.125	0.4153419307	0.1203117817	
658.75	0.2976914458	0.4736533726	
659.375	1.224192997	-0.4755557987	
660.0	0.1627396754	-0.6820208152	
660.625	0.5408550875	-0.3923982028	
661.25	0.8361243329	-1.069910438	
661.875	-0.191403714	-0.7453563376	
662.5	0.8620257653	0.2545732033	
663.125	0.921493948	-0.9536665038	
663.75	-0.02761757427	-0.3701914524	
664.375	0.4904851235	-1.018248275	
665.0	-1.01286013	-0.1743757507	
665.625	-0.4112623028	-0.2114684443	
666.25	-0.6063869683	0.8269845982	
666.875	0.5711548408	0.4738599804	
667.5	0.007453086446	0.1473526413	
668.125	0.8603609175	0.1918106707	
668.75	0.3235852456	-0.5083679429	
669.375	0.2243441528	-0.2648196897	
670.0	0.2035292268	-0.7480419788	
670.625	-0.2162069612	-0.2280927057	
671.25	0.3754376243	-0.4439859873	
671.875	0.2691676057	-0.5701668308	
672.5	0.2151559251	-0.2522887881	
673.125	0.7914790613	-0.03514811793	
673.75	0.546331093	-1.043855146	
674.375	-0.3062103717	-0.2172385725	
675.0	0.3630781236	-0.728579882	
675.625	-0.9609919086	-0.471326286	
676.25	0.2535636351	0.07861653593	
676.875	-0.9930156411	-0.2280928478	
677.5	0.101462041	0.3357788975	
678.125	-0.8345871108	-0.13974593	
678.75	0.5092322746	0.9875562423	
679.375	0.1204136305	-0.08638791152	
680.0	0.3990508297	0.1692392948	
680.625	0.4579116178	-0.4277546847	
681.25	-0.1743170482	-0.1589981671	
681.875	0.4007321588	0.4649412225	
682.5	0.6783971444	0.06321053505	
683.125	0.465556306	0.07434140974	
683.75	0.5326055409	0.5072382954	
684.375	0.912035151	-0.1959558584	
685.0	0.2469222052	0.2269368694	
685.625	1.079226976	0.3834222281	
686.25	0.6921335161	-0.7926065367	
686.875	0.2915781531	0.6268274923	
687.5	1.596429191	-1.434741508	
688.125	-0.717135113	-0.2135941673	
688.75	-0.518780114	-1.371617669	
689.375	-0.8717394784	1.391115192	
690.0	-0.03040367518	0.1006644736	
690.625	0.9405885023	1.343259171	
691.25	0.5594781652	0.1570028296	
691.875	0.7778918885	1.143428866	
692.5	1.762599563	0.5744467318	
693.125	1.313099009	-0.1411784022	
693.75	1.557042827	-0.4455126795	
694.375	0.9163004524	-0.8457846406	
695.0	1.443514346	-0.5773839166	
695.625	0.9951265437	-0.5542006538	
696.25	0.8216448868	0.9660129753	
696.875	1.73212866	0.9457256329	
697.5	0.2475733724	0.6744893048	
698.125	1.8946513	1.519821113	
698.75	0.511531509	-1.529260914	
699.375	0.2374314745	-1.220117323	
700.0	-1.181608769	1.373261125	
700.625	0.3306514545	0.06590845781	
701.25	0.7059649225	1.266788008	
701.875	0.5742821948	-0.004267864568	
702.5	0.5142935204	1.054762673	
703.125	1.468447164	0.03021104842	
703.75	0.4306988766	0.1265128218	
704.375	1.177112265	-0.6299786004	
705.0	0.06970854952	-0.4868150638	
705.625	0.8659836709	0.735513608	
706.25	1.058238901	-0.2154586782	
706.875	-0.06367332104	0.7695420848	
707.5	1.004383011	1.403358386	
708.125	0.7405963373	-0.1540385269	
708.75	1.390552639	-0.4580888848	
709.375	-1.074526485	-0.8154163382	
710.0	-0.2529112713	0.1794931424	
710.625	0.03366882336	0.6431060868	
711.25	0.2733838707	0.1399147758	
711.875	0.4944583973	0.3862408392	
712.5	0.6205989131	-0.05700005566	
713.125	0.9624829812	-0.2580828639	
713.75	0.03369606243	-0.8064613946	
714.375	0.4171648976	-0.2477749732	
715.0	-0.3324808786	-0.8270713463	
715.625	0.02197254051	0.007127596922	
716.25	1.110523704	-0.9075588104	
716.875	-0.02946696862	-1.143382544	
717.5	1.044007987	1.337940835	
718.125	3.147420345	0.03507820371	
718.75	0.6591803817	-1.468944041	
719.375	2.905229442	1.002607245	
720.0	1.205919807	-3.881309188	
720.625	0.8193915804	-1.307011847	
721.25	1.088386624	-3.275132661	
721.875	-1.629372798	-2.343742477	
722.5	-0.1827390749	-2.100955442	
723.125	-2.614555815	-0.7315355848	
723.75	-0.7838297359	1.356195232	
724.375	-0.02628865592	0.8357079319	
725.0	-0.07723030536	1.089942489	
725.625	1.115302546	1.364568688	
726.25	-0.06136324453	0.6659529478	
726.875	-1.129513717	3.033477821	
727.5	1.64067014	4.616873918	
728.125	-2.27453844	1.090236134	
728.75	1.539301983	13.71926257	
729.375	5.002917452	7.339115911	
730.0	-10.94614075	3.112162741	
730.625	0.2833311176	25.4970619	
731.25	4.192372254	0.8015176429	
731.875	-11.10289168	2.351699285	
732.5	-13.01532223	3.350509316	
733.125	-3.818178083	3.341540295	
733.75	-5.415104687	1.721480708	
734.375	2.895042108	0.5757102963	
735.0	0.05312709092	-0.8474865327	
735.625	-1.701751905	-0.7908877475	
736.25	0.912550921	1.780228419	
736.875	-0.1652330305	0.7356538112	
737.5	3.150985193	1.840761707	
738.125	5.40456234	-2.218940653	
738.75	0.343591454	-4.60849374	
739.375	10.32223865	5.261437266	
740.0	8.003879318	-17.22539095	
740.625	-6.645334781	4.598539079	
741.25	-6.582222054	25.29434118	
741.875	24.39096599	4.191494517	
742.5	5.985041914	-14.96775397	
743.125	-2.519763107	-9.611240292	
743.75	-1.809254889	-0.4632713678	
744.375	-0.1597144686	-1.500928284	
745.0	0.6611037153	0.8176992143	
745.625	-0.08627900657	0.322616865	
746.25	-0.07758301493	-0.4501987268	
746.875	-0.3276028238	0.1882440463	
747.5	-0.5934464026	0.7121612012	
748.125	0.9949552694	1.711066871	
748.75	0.4259631617	0.7497907494	
749.375	-0.2338773987	0.8951380274	
750.0	-0.7260014371	0.917735697	
