!Created with skrf (http://scikit-rf.org).
# GHz S RI R (50+0j) 
!freq	ReS11	ImS11	
500.0	-0.8462606582	-1.309509198	
500.625	1.516454344	-2.946575215	
501.25	-2.126715343	-2.193384053	
501.875	-1.491306238	0.1067150835	
502.5	0.0657035266	-0.2536268079	
503.125	-0.3425015036	0.1417708002	
503.75	0.07343662616	-0.0566264739	
504.375	0.1801185586	0.006555776398	
505.0	-0.1096669422	-0.0009652507056	
505.625	0.1518490181	-0.3272773972	
506.25	-0.3288870693	0.2998764355	
506.875	-0.3037729221	-0.7896836725	
507.5	-1.413377749	-1.357332395	
508.125	-0.3191192925	-0.1976288629	
508.75	2.349014277	-3.142713376	
509.375	-2.695441444	-2.47535267	
510.0	-1.004990714	-0.3752090842	
510.625	-0.8458707831	-0.7576096979	
511.25	-0.1113104305	0.03144026472	
511.875	-0.4154302287	-0.1644133543	
512.5	-0.06701797925	0.1613461738	
513.125	-0.09894985699	-0.1331029815	
513.75	0.03171590075	-0.2649086794	
514.375	-0.7111138722	-0.1657885211	
515.0	1.629673293	0.536609053	
515.625	-2.160702688	-1.430371054	
516.25	0.796825073	0.2731535407	
516.875	-0.07408587623	-2.68256567	
517.5	-0.8045003344	0.2377017731	
518.125	0.05219578039	-0.412754145	
518.75	-0.5988336242	-0.006674439426	
519.375	-0.1409611363	-0.006406294432	
520.0	0.4440922911	0.2190356322	
520.625	0.2873203846	-0.3016835566	
521.25	0.2114380208	-0.5008562085	
521.875	-0.5679914719	0.0350496794	
522.5	0.0107289969	-0.04097171011	
523.125	-0.1649182431	0.2913112661	
523.75	-0.1036237051	-0.2134573997	
524.375	-0.4840063981	0.4761749964	
525.0	-0.1091622447	-0.07001608523	
525.625	0.0901568724	0.3744586867	
526.25	-0.1697685763	-0.2680624404	
526.875	-0.002858281337	0.3105758809	
527.5	-0.09320221825	0.1364317928	
528.125	-0.06079778782	1.043574873	
528.75	0.5134376971	0.3724683252	
529.375	-0.05678809583	0.3143382507	
530.0	0.2232851489	0.008431654083	
530.625	0.1503642724	1.219971901	
531.25	0.8932036913	-0.6437812707	
531.875	0.6380849736	0.1163766756	
532.5	-0.7213323028	-0.5135971565	
533.125	0.7345653046	0.1416117014	
533.75	-0.3641933756	-0.716358441	
534.375	0.3066424536	-0.4228188667	
535.0	-1.157394915	-0.2222212901	
535.625	-0.04707605498	0.2053845381	
536.25	-0.09494938176	0.2298706166	
536.875	0.3299129906	-0.0007851923431	
537.5	0.04024147831	-0.05643375923	
538.125	0.4041313444	-0.1520170878	
538.75	0.1202068735	-0.3114029662	
539.375	-0.01683100001	-0.3849313812	
540.0	-0.5604432512	-0.3480961562	
540.625	-0.2072889162	0.03507626664	
541.25	-0.1967869793	-0.03589125753	
541.875	-0.1735240369	-0.08061343481	
542.5	-0.07592977174	0.07060411091	
543.125	-0.1020613061	-0.3076386906	
543.75	-0.3507324821	0.2823161372	
544.375	-0.0843933883	-0.1801153806	
545.0	0.08693914955	0.3363057897	
545.625	-0.09945403658	-0.06567064096	
546.25	0.4734315032	0.2520017642	
546.875	0.01639571592	-0.2129913679	
547.5	0.3132726174	-0.1358862459	
548.125	-0.1999859694	-0.522686183	
548.75	-0.3133237398	-0.04490105857	
549.375	-0.1136607334	-0.2418983225	
550.0	-0.2897360182	0.1054757844	
550.625	-0.00348947432	-0.06768327296	
551.25	-0.2645716507	0.1717404895	
551.875	-0.04915749652	0.08197507716	
552.5	-0.1653364295	0.2152609043	
553.125	0.02831600884	0.1538248504	
553.75	0.0812285438	0.09064463205	
554.375	0.2363727853	0.003779546244	
555.0	0.1941930746	-0.1917177831	
555.625	0.1713685533	-0.225051145	
556.25	0.1415722578	-0.3288329466	
556.875	-0.1027609439	-0.3548575692	
557.5	-0.2150694759	-0.2047272413	
558.125	-0.2672483343	-0.08429114049	
558.75	-0.2453412244	0.03709104971	
559.375	-0.206700107	0.04530752015	
560.0	-0.2408981747	0.1702352051	
560.625	-0.06649299772	0.2925913475	
561.25	0.03014091642	0.1401024957	
561.875	0.07023656644	0.1909662265	
562.5	0.02754043044	0.0009511290342	
563.125	0.1887545865	0.2673904595	
563.75	0.2358036597	-0.1478495181	
564.375	0.3171787163	-0.06322674003	
565.0	0.1550626953	-0.4675668945	
565.625	-0.1493753171	-0.2224279114	
566.25	-0.1312668889	-0.2435517522	
566.875	-0.4392870443	-0.2382486447	
567.5	-0.3087208512	0.007019014595	
568.125	-0.1661882014	-0.4863735071	
568.75	-0.7268395039	-0.01076218054	
569.375	-0.2305826222	0.150586729	
570.0	-0.4919360265	0.5954387881	
570.625	0.2442329248	0.4182634172	
571.25	-0.2348999883	0.0721932646	
571.875	0.4940930435	0.2526606044	
572.5	-0.04811322741	-0.02687178027	
573.125	0.466423829	-0.1990828686	
573.75	-0.09432807038	-0.4846582186	
574.375	0.01170661284	0.1467456226	
575.0	0.1609480356	-0.3931242318	
575.625	-0.03954816196	0.1374672646	
576.25	0.3267808469	-0.3812874	
576.875	-0.2803999948	-0.3599718241	
577.5	0.05020934014	-0.1041981826	
578.125	0.05597306445	-0.4753255548	
578.75	-0.420867935	-0.3046824433	
579.375	-0.0865229125	0.08009510789	
580.0	-0.1128094134	-0.3437691613	
580.625	-0.1086705764	0.2277764931	
581.25	-0.3387214485	-0.1411141764	
581.875	0.1513965031	0.6386114181	
582.5	0.3098418273	-0.03917787427	
583.125	-0.2620895408	0.2796782866	
583.75	0.5611054413	-0.00127055288	
584.375	-0.3332152446	0.1135882367	
585.0	0.5430835863	0.2027450781	
585.625	0.09823363962	-0.2248789679	
586.25	0.4511775383	0.09151015151	
586.875	-0.01249655724	-0.5469454469	
587.5	0.063217531	-0.06531056323	
588.125	0.0592200498	-0.5361111477	
588.75	-0.2380925276	-0.3540061104	
589.375	0.2273811817	-0.07574984985	
590.0	-0.1109368061	-0.5533610689	
590.625	-0.4991561219	0.05377150521	
591.25	-0.06901167229	0.1560855941	
591.875	-0.288757325	0.2963483999	
592.5	0.2967638842	0.06514522508	
593.125	-0.2164714451	0.2484102462	
593.75	0.2364431004	0.08985560404	
594.375	0.08172772456	0.3210899304	
595.0	0.6982359382	0.4228482566	
595.625	0.2868329546	-0.3237731764	
596.25	0.1688100641	0.4438277816	
596.875	0.6578880852	-0.04015926483	
597.5	0.1338695754	-0.0005620615726	
598.125	0.347217963	0.44343459	
598.75	0.3987165605	-0.07254999805	
599.375	0.4137941436	0.1458944208	
600.0	0.4015775811	-0.5500288326	
600.625	0.06775154924	-0.3139718621	
601.25	0.285207232	-0.3254979847	
601.875	-0.2634451325	-0.3972211774	
602.5	-0.2603006731	-0.01354380978	
603.125	-0.1004983317	0.1379754916	
603.75	-0.3691765304	0.005817012362	
604.375	-0.1159370323	0.473501291	
605.0	-0.13967435	-0.1548760573	
605.625	-0.2759934208	0.4315206781	
606.25	0.02751909972	-0.05783750762	
606.875	-0.7697108131	0.2319361858	
607.5	0.1200440514	0.4615580266	
608.125	-0.3919765359	0.3179006695	
608.75	0.8524636832	0.4538549365	
609.375	0.1258922608	-0.09748012764	
610.0	0.5918855873	-0.229695556	
610.625	-0.0531404444	-0.4610172816	
611.25	0.2744391034	-0.2134017396	
611.875	-0.4601116996	-0.2340788384	
612.5	-0.1138505216	-0.1951210821	
613.125	-0.6524483714	0.1142729206	
613.75	0.1332597458	0.221424871	
614.375	-0.1109257862	0.4766094196	
615.0	0.2771255141	-0.1577164423	
615.625	-0.3175387587	0.3468470479	
616.25	0.2829405806	0.3625660786	
616.875	-0.3816222237	0.1331825384	
617.5	-0.1598365331	0.750708166	
618.125	0.1703749767	0.2523422175	
618.75	-0.1435941821	0.5337613589	
619.375	0.3875202291	0.24300016	
620.0	0.3021260704	0.1853147548	
620.625	0.1642348185	-0.5054802775	
621.25	-0.05358858802	-0.2702086302	
621.875	-0.6889997713	-0.208100639	
622.5	-0.2020426557	0.1632172109	
623.125	-0.311169182	0.4211529016	
623.75	0.4816128085	-0.1272186212	
624.375	0.007172393605	0.2744703698	
625.0	-0.09896741895	-0.4844143504	
625.625	0.2205202784	0.1429758365	
626.25	-0.1569394929	-0.5995366336	
626.875	-0.3624754037	0.07338016112	
627.5	-0.1039320696	-0.234302529	
628.125	-0.4310511114	-0.2007837222	
628.75	-0.09302306684	-0.1031314051	
629.375	-0.1368890661	-0.4900749952	
630.0	-0.5052010642	0.01697992896	
630.625	-0.4088007689	-0.04302546391	
631.25	-0.395046038	0.5376966498	
631.875	0.09624738898	0.5195046714	
632.5	0.3694629628	0.3135484038	
633.125	0.2540592076	0.1869874986	
633.75	0.6392061681	-0.3032298256	
634.375	-0.1243792613	-0.1222469865	
635.0	0.2023423408	-0.4827085323	
635.625	-0.5668340625	0.0828253734	
636.25	-0.2461857097	-0.2513515548	
636.875	-0.1850181406	0.6265527903	
637.5	0.1828527067	-0.05726817616	
638.125	-0.5857281021	0.2831180858	
638.75	0.3439921441	0.4819672317	
639.375	-0.2271136091	0.1955429946	
640.0	0.2222939598	0.7831742384	
640.625	0.7996747214	0.1634186939	
641.25	0.2457387266	-0.1067318948	
641.875	0.774317694	-0.4599591877	
642.5	-0.3588316117	-0.3045035092	
643.125	0.06283882255	-0.4140561288	
643.75	-0.6918613083	-0.06109347798	
644.375	0.07534598948	0.0400882988	
645.0	-0.6017595593	0.2170952266	
645.625	0.2624794282	0.6694244176	
646.25	0.446783463	-0.2073022636	
646.875	-0.1055541398	0.3374555255	
647.5	0.6062060676	-0.3593159179	
648.125	-0.1015053498	0.570569393	
648.75	1.065634455	-0.4355345778	
649.375	-0.1644690312	-0.4877842958	
650.0	0.9750363248	-0.1788433961	
650.625	0.1332149657	-1.408065629	
651.25	-0.1502808044	-0.06868027802	
651.875	1.057189017	-0.0190495253	
652.5	0.6983879888	-0.712425299	
653.125	0.04865740659	-0.2010037757	
653.75	0.8350256855	-0.5035178342	
654.375	-0.6401726763	-0.6610481216	
655.0	-0.1310867129	-0.1466803758	
655.625	-0.8490329446	0.4806852644	
656.25	0.5805800015	0.2785491759	
656.875	-0.2016905384	0.09291337541	
657.5	0.2728558947	0.3952049802	
658.125	0.3974908528	-0.001002013015	
658.75	0.2740149807	0.4907001858	
659.375	1.088314791	-0.6587573819	
660.0	0.01727572276	-0.5514052187	
660.625	0.5961342156	-0.4325595154	
661.25	0.3169408355	-1.253861384	
661.875	-0.05367510777	-0.08806621949	
662.5	1.12045703	-0.3003958099	
663.125	0.3935633276	-0.9234035326	
663.75	0.1169381643	-0.2181977316	
664.375	0.1275455801	-0.932371064	
665.0	-0.8647614334	-0.1316054513	
665.625	-0.4711292892	-0.05294000091	
666.25	-0.3211278064	0.8369269347	
666.875	0.4448116821	0.124009623	
667.5	0.2251001792	0.4787377277	
668.125	0.6839460279	-0.2284354916	
668.75	0.1491503485	-0.3488593477	
669.375	0.2854402429	-0.2759975565	
670.0	0.1627095183	-0.6861752322	
670.625	-0.3297586218	-0.3304077045	
671.25	0.3686458417	-0.2092224762	
671.875	0.313484824	-0.6489179476	
672.5	0.05074384906	-0.1856137179	
673.125	0.8526720234	-0.390020886	
673.75	-0.04932969019	-0.7262160357	
674.375	0.1606508354	-0.1168308393	
675.0	-0.03779037525	-0.9000920751	
675.625	-0.8592761623	0.09076664666	
676.25	0.06987781183	-0.1173375086	
676.875	-0.7563452233	0.0546020892	
677.5	-0.001653582713	0.1942278651	
678.125	-0.5982086689	0.1749178761	
678.75	0.5249561792	0.5814779743	
679.375	0.1324755345	0.07736880968	
680.0	0.5506065097	-0.01754846602	
680.625	0.08530136261	-0.5750076525	
681.25	-0.1209268524	0.2767148256	
681.875	0.5546519264	0.2393308754	
682.5	0.5695387917	0.0394391128	
683.125	0.270156321	-0.1221664228	
683.75	0.5306870597	0.6902859482	
684.375	0.9586605944	-0.5830829282	
685.0	-0.003363987051	0.4422600239	
685.625	1.264626428	-0.008743573233	
686.25	-0.004841957451	-0.652157766	
686.875	1.189049103	0.4652161647	
687.5	0.05986759847	-1.767698689	
688.125	0.0989471288	-0.04821036345	
688.75	-1.23815292	-0.8616164131	
689.375	-0.2413359206	1.122655732	
690.0	-0.04087589523	0.4119244436	
690.625	0.9132165336	0.7127263357	
691.25	0.5065858092	0.2915372679	
691.875	0.9370455328	0.9392020287	
692.5	1.488706646	0.2005422602	
693.125	1.201067645	0.03814093426	
693.75	1.292934926	-0.6251597714	
694.375	0.8447910303	-0.6251928687	
695.0	1.269704209	-0.9811426038	
695.625	0.4782688567	-0.4039558237	
696.25	1.369865432	1.095146612	
696.875	1.455460621	-0.01724394888	
697.5	0.1589950443	1.047656472	
698.125	2.218559422	0.209436196	
698.75	-0.06762869712	-0.6004917515	
699.375	-0.9212514195	-1.496894165	
700.0	-0.1289608434	1.356747966	
700.625	-0.2382011465	0.2408379012	
701.25	1.132792808	0.4909772369	
701.875	0.2099348703	0.2104338882	
702.5	0.8728165734	0.9538740073	
703.125	0.9034661275	-0.3586376723	
703.75	0.8042795382	0.314024415	
704.375	0.7504994135	-0.8662338066	
705.0	0.01169565961	-0.0495320146	
705.625	1.264568579	0.1943071851	
706.25	0.3067530665	-0.2186911165	
706.875	0.209588996	1.001770977	
707.5	1.254652632	0.6506485285	
708.125	0.6046229563	0.1185085504	
708.75	0.825096101	-0.9842746275	
709.375	-0.8990431996	-0.2886768264	
710.0	-0.4062289905	0.3693399395	
710.625	0.2861043058	0.423484826	
711.25	0.1271723778	0.1285083082	
711.875	0.5570909459	0.2514406581	
712.5	0.5196245438	-0.004923652658	
713.125	0.8399200851	-0.6018794066	
713.75	-0.1956884642	-0.4459623189	
714.375	0.6188974902	-0.5447806416	
715.0	-0.5823107582	-0.6027697719	
715.625	0.3120449811	0.09840416475	
716.25	0.8269028497	-1.247642683	
716.875	-0.3538954578	-0.3057995835	
717.5	1.81252589	0.7190068984	
718.125	2.341069889	-1.227016822	
718.75	-0.01246409354	0.3733655215	
719.375	3.43415287	-1.46433201	
720.0	-0.5152956308	-2.169398143	
720.625	0.3266380854	-1.560260575	
721.25	0.1499300835	-3.11281245	
721.875	-1.826949104	-1.664844766	
722.5	-0.7971452809	-1.910537952	
723.125	-2.308298464	0.02259791019	
723.75	-0.4363313059	1.119791625	
724.375	-0.03078796666	0.7225944698	
725.0	0.2677508323	1.325082081	
725.625	1.061330896	0.6562507564	
726.25	-0.6107589948	0.8554925098	
726.875	-0.7977644992	3.22716213	
727.5	2.417789888	3.083184394	
728.125	-3.472390082	2.754945678	
728.75	2.16376764	9.360500128	
729.375	4.012942677	3.068511805	
730.0	-7.162798537	10.78251646	
730.625	14.57982199	10.26603434	
731.25	-4.172075242	0.9103443557	
731.875	-8.142843252	6.07414089	
732.5	-8.985323441	7.019373947	
733.125	-1.385005926	2.313121793	
733.75	-3.848810078	3.07914746	
734.375	2.565184911	-0.375893331	
735.0	-0.1027852858	-0.5859038676	
735.625	-2.052092153	0.2250632256	
736.25	0.8471896956	0.4662239834	
736.875	0.2278980843	1.847579836	
737.5	3.276001652	0.6715941024	
738.125	3.91799779	-3.526232195	
738.75	-1.231709498	-1.258556075	
739.375	14.44827341	-0.4260584861	
740.0	4.187693545	-16.34290217	
740.625	-7.86574971	8.112564707	
741.25	8.555377921	19.22979457	
741.875	13.66983355	-8.81477002	
742.5	-8.076759399	-14.93481794	
743.125	-6.963818033	-3.356072758	
743.75	1.344338384	-0.0499750587	
744.375	-1.809771022	-0.8265459185	
745.0	0.7541298108	0.2890592651	
745.625	0.06601454414	0.2516963998	
746.25	-0.1597556259	-0.4543624123	
746.875	-0.2922018417	0.2594322964	
747.5	-0.5548823386	0.7610499141	
748.125	0.6907278082	1.359248011	
748.75	0.541778484	0.7942594606	
749.375	-0.07485713811	1.316512287	
750.0	-0.7868214556	0.7414556953	
