!Created with skrf (http://scikit-rf.org).
# GHz S RI R (50+0j) 
!freq	ReS11	ImS11	
500.0	-0.4960460928	-3.43949284	
500.625	2.000779197	-2.588729576	
501.25	-2.146990803	-1.019200853	
501.875	-0.2019307518	-0.9494880272	
502.5	-0.3103211691	-0.5175160808	
503.125	-0.2312394723	0.2119279308	
503.75	-0.008173792814	-0.05271391307	
504.375	0.1607376857	0.02755560748	
505.0	-0.08371830405	-0.1032121824	
505.625	0.189842688	-0.1658395794	
506.25	-0.4738368815	0.02494844604	
506.875	-0.3732596138	-0.8680509721	
507.5	-1.61770722	0.5536180324	
508.125	1.87711138	-1.262215489	
508.75	1.95971191	-4.532513124	
509.375	-2.928647561	-2.740336307	
510.0	-0.97179814	-0.4272621879	
510.625	-0.5100384058	-1.370123295	
511.25	-0.4072860934	0.1217723964	
511.875	-0.3589938242	-0.09230456985	
512.5	-0.0633786219	0.1835284248	
513.125	-0.04630005091	-0.1792740746	
513.75	-0.2079845304	-0.2452963192	
514.375	-0.4011472349	0.06992923796	
515.0	1.392345502	0.04232957741	
515.625	-2.240097975	-1.391925231	
516.25	1.371546082	0.0872111702	
516.875	-0.7872415112	-2.887703682	
517.5	-0.7945442939	0.1438345614	
518.125	0.07710199101	-0.4571993711	
518.75	-0.5573149309	0.2490681219	
519.375	-0.2215808815	-0.02917357623	
520.0	0.5259978068	0.1728145663	
520.625	0.2360826104	-0.3064844968	
521.25	0.2376011796	-0.5849003657	
521.875	-0.5403926062	0.09729793954	
522.5	-0.03690265751	-0.07156559481	
523.125	-0.1322530349	0.2949086568	
523.75	-0.0644173512	-0.2106159013	
524.375	-0.5965981648	0.3763756529	
525.0	-0.0005812739897	0.007679597397	
525.625	0.07306939327	0.3455173726	
526.25	-0.1812795265	-0.2754313425	
526.875	0.02305661243	0.3002339539	
527.5	-0.1700875492	0.1602331416	
528.125	0.08465695118	1.110388956	
528.75	0.510790048	0.3787891276	
529.375	-0.0771198456	0.3244766144	
530.0	0.4509731699	0.177080495	
530.625	-0.03880587543	0.9501249476	
531.25	1.131081832	-0.4284909	
531.875	0.6573768562	-0.03175739341	
532.5	-0.7710469035	-0.47052018	
533.125	0.8795451774	0.05353888013	
533.75	-0.4386021948	-0.7372040151	
534.375	0.3228352467	-0.4382356302	
535.0	-1.20128661	-0.1825551541	
535.625	-0.05923154317	0.1440832544	
536.25	-0.1213975269	0.3175801474	
536.875	0.3068060362	-0.1573894798	
537.5	0.1051985247	0.05204371585	
538.125	0.4474232877	-0.223570154	
538.75	0.1284800312	-0.3067240346	
539.375	-0.08629201616	-0.3761950945	
540.0	-0.4466385935	-0.3616668722	
540.625	-0.3081694513	0.01015965331	
541.25	-0.2334378444	-0.04930454994	
541.875	-0.1013097129	0.07747790139	
542.5	-0.07452499745	-0.182729185	
543.125	-0.2698649688	-0.09966307867	
543.75	-0.1417382102	0.1514322433	
544.375	-0.1713666543	-0.09741624149	
545.0	0.1372851332	0.3153017858	
545.625	-0.1148937427	-0.0615106248	
546.25	0.4697620545	0.2710026969	
546.875	0.03825839957	-0.2187451926	
547.5	0.3763298324	-0.169084227	
548.125	-0.3832959247	-0.476255944	
548.75	-0.06605891935	-0.1141782762	
549.375	-0.2828307606	-0.3323467732	
550.0	-0.2288435609	0.159390643	
550.625	-0.02384305405	-0.101027344	
551.25	-0.2715875934	0.1698707461	
551.875	-0.06116662872	0.1120411649	
552.5	-0.1705867267	0.2098806323	
553.125	0.02809569214	0.1394240502	
553.75	0.0956371885	0.1360353981	
554.375	0.2306379385	-0.03172226858	
555.0	0.204120513	-0.16067505	
555.625	0.1955935165	-0.2478428978	
556.25	0.1442377232	-0.347963634	
556.875	-0.1115256658	-0.3693793835	
557.5	-0.2208666988	-0.2250513269	
558.125	-0.269405217	-0.09799364611	
558.75	-0.2568362418	0.02306130919	
559.375	-0.222039131	0.03054064626	
560.0	-0.2581907099	0.19987	
560.625	-0.03099646782	0.2494646173	
561.25	-0.06378926866	0.1892248809	
561.875	0.1406826414	0.1616159381	
562.5	-0.01114593147	0.01103601913	
563.125	0.1760530324	0.2820546145	
563.75	0.2911027302	-0.1478237774	
564.375	0.2942295019	-0.06844498426	
565.0	0.1413396304	-0.4873010306	
565.625	-0.0884782405	-0.1803923066	
566.25	-0.2456743205	-0.389627413	
566.875	-0.4058083272	-0.03555572838	
567.5	-0.1617895438	-0.2066428591	
568.125	-0.3323680948	-0.5458593444	
568.75	-0.6645418382	-0.001963503706	
569.375	-0.2564025974	0.1218416592	
570.0	-0.6192377422	0.5322415571	
570.625	0.2121251329	0.4854419347	
571.25	-0.2859019244	0.08042583304	
571.875	0.5254242918	0.2024817324	
572.5	-0.07894710248	0.225370931	
573.125	0.4964413506	-0.4836650878	
573.75	-0.2527421883	-0.3159221904	
574.375	0.1644028849	0.1310856533	
575.0	0.1389181553	-0.4154534972	
575.625	-0.03629737813	0.1429648163	
576.25	0.3488936501	-0.3961493998	
576.875	-0.3058059533	-0.301350754	
577.5	0.2044554208	-0.1163968441	
578.125	-0.1276218953	-0.674490377	
578.75	-0.3437657428	-0.0581297554	
579.375	0.01083472348	-0.09822472385	
580.0	-0.2311714713	-0.2772232718	
580.625	-0.06823800145	0.2005534599	
581.25	-0.3532033782	-0.1539509802	
581.875	0.1415415674	0.6705930518	
582.5	0.2529272236	-0.05253639935	
583.125	-0.1917208765	0.4194338235	
583.75	0.4918223383	-0.2425522061	
584.375	-0.2799314539	0.4213434281	
585.0	0.6393501219	-0.01018827851	
585.625	-0.04467304681	-0.1238850547	
586.25	0.5039148043	0.1168215855	
586.875	0.09595226471	-0.594898518	
587.5	-0.00173405594	-0.0420534192	
588.125	0.1054600104	-0.5456769561	
588.75	-0.2293457009	-0.2834203476	
589.375	0.4765709619	-0.145849972	
590.0	-0.3610938801	-0.5278945602	
590.625	-0.1755781278	0.03311082308	
591.25	-0.3964378956	0.1294114764	
591.875	-0.1705199231	0.3990714068	
592.5	0.2768140318	0.06997542645	
593.125	-0.3786046707	0.1932713167	
593.75	0.3899499912	0.1215425885	
594.375	0.005152618158	0.3060624753	
595.0	0.736632593	0.3641603758	
595.625	0.1472513357	-0.09668364949	
596.25	0.4122424124	0.4423009851	
596.875	0.6111002614	-0.2494464517	
597.5	-0.1528602259	0.233032211	
598.125	0.5198108373	0.5367338496	
598.75	0.4924456672	-0.01963629858	
599.375	0.3140198492	0.06779789861	
600.0	0.5417789274	-0.4338247187	
600.625	0.09031227792	-0.3612694144	
601.25	0.3424155494	-0.3642241314	
601.875	-0.3601265479	-0.3725695517	
602.5	-0.06199196139	-0.06644690593	
603.125	-0.4064699582	0.144967207	
603.75	-0.1427494479	0.1623944884	
604.375	-0.2132625022	0.2481348412	
605.0	-0.1605928863	-0.09387654429	
605.625	-0.2940057058	0.458903615	
606.25	0.1038035026	-0.08193788824	
606.875	-0.92038299	0.2238619384	
607.5	0.1189627159	0.459716687	
608.125	-0.4447507736	0.3876605733	
608.75	0.9018447116	0.4343246405	
609.375	0.0416268056	0.01124207802	
610.0	0.7497070329	-0.2545861694	
610.625	-0.1333974013	-0.4760506348	
611.25	0.361471159	-0.2089605416	
611.875	-0.4766890382	-0.2282080213	
612.5	-0.1134211698	-0.2253709996	
613.125	-0.6889377079	0.1124633259	
613.75	0.1258487289	0.1825129049	
614.375	-0.1055378608	0.5002941876	
615.0	0.2804571765	-0.1660445289	
615.625	-0.3365539862	0.3648838775	
616.25	0.3200330667	0.3794761905	
616.875	-0.4084685734	0.1089280345	
617.5	-0.1595559184	0.8164783285	
618.125	0.1706290384	0.2320486566	
618.75	-0.1582767505	0.5896702996	
619.375	0.4081067382	0.2462368182	
620.0	0.2738006852	0.1974033885	
620.625	0.2657961019	-0.4912073779	
621.25	-0.1348929758	-0.2825106504	
621.875	-0.6150572485	-0.2378341025	
622.5	-0.245361796	0.1795638798	
623.125	-0.3356208002	0.4171948018	
623.75	0.5090566812	-0.1361129204	
624.375	0.04122324289	0.279313639	
625.0	-0.143321404	-0.4112047629	
625.625	0.3053451134	0.06447039196	
626.25	-0.2947384826	-0.6184797609	
626.875	-0.1548828504	0.2562133776	
627.5	-0.2534707676	-0.5339883183	
628.125	-0.4896159377	-0.02675631952	
628.75	-0.06383107346	-0.1151343502	
629.375	-0.0964132904	-0.4678451661	
630.0	-0.6017357518	-0.07329470072	
630.625	-0.362590407	-0.02142002454	
631.25	-0.3944242782	0.580343336	
631.875	0.1437963736	0.4462148832	
632.5	0.1125321971	0.5150245658	
633.125	0.6752292859	0.007416935262	
633.75	0.2478061526	-0.1914681445	
634.375	0.09691922977	-0.1771605595	
635.0	0.1195860811	-0.4972520976	
635.625	-0.6050459571	0.05934719099	
636.25	-0.03521988404	-0.2502356711	
636.875	-0.3613836799	0.6668609953	
637.5	0.2965566791	-0.03718410563	
638.125	-0.6085429	0.3547303027	
638.75	0.4025096947	0.2015623502	
639.375	-0.4839049716	0.5024412492	
640.0	0.7511871761	0.7978345783	
640.625	0.3982344575	-0.1476420621	
641.25	0.3891519091	0.305934439	
641.875	0.7757859772	-0.6184047434	
642.5	-0.41409473	-0.4136085416	
643.125	0.08108859793	-0.2714994266	
643.75	-0.6380003789	-0.1722060939	
644.375	0.08742318808	-0.02867926776	
645.0	-0.6321448659	0.5641877202	
645.625	0.4114183713	0.2969584203	
646.25	0.08377900012	0.159789678	
646.875	0.4599372486	0.2170345704	
647.5	0.05968376613	-0.4230343763	
648.125	0.144407416	0.6040296255	
648.75	1.071613569	-0.4656232397	
649.375	-0.2047728483	-0.5811374116	
650.0	0.9658856134	-0.1593610992	
650.625	0.05355981895	-1.442444055	
651.25	0.009034343992	0.1043745558	
651.875	1.307696217	-0.4062220906	
652.5	0.1684760979	-0.9164349768	
653.125	0.4452749948	0.3598983612	
653.75	0.7193433536	-0.8855680296	
654.375	-0.6630736312	-0.5540886079	
655.0	-0.140409472	-0.1993685423	
655.625	-0.8931471204	0.5487586393	
656.25	0.5520847805	0.1563824947	
656.875	-0.2372203029	0.2619294492	
657.5	0.453222704	0.2040692494	
658.125	0.01823272142	0.1265564269	
658.75	0.8165735011	0.5316557988	
659.375	0.7555345839	-0.7376088332	
660.0	0.1298464314	-0.4885090741	
660.625	0.616843991	-0.4996062955	
661.25	0.2527541003	-1.294300026	
661.875	0.04712076751	-0.04263644683	
662.5	1.064333651	-0.5900113235	
663.125	0.1859631335	-0.8006632724	
663.75	0.4120232868	-0.07781696291	
664.375	-0.2234151933	-1.304763443	
665.0	-0.680877276	0.05296421264	
665.625	-0.5043238574	-0.06787808426	
666.25	-0.3902591036	0.8176575262	
666.875	0.5207466845	0.1757118795	
667.5	0.2616066866	0.5156883428	
668.125	0.5998527025	-0.3127840836	
668.75	0.1599851821	-0.1341807402	
669.375	0.5559523689	-0.6270751099	
670.0	-0.4006468531	-0.5374890139	
670.625	0.08400913333	-0.1604462329	
671.25	0.2903378011	-0.4319697904	
671.875	0.2784464229	-0.6809162538	
672.5	0.004105011926	-0.2791471482	
673.125	0.9160174174	-0.2430189638	
673.75	-0.07236597602	-0.7052486689	
674.375	0.2687720254	-0.2771301484	
675.0	-0.3436425234	-0.9874204354	
675.625	-0.4098228212	0.386664135	
676.25	-0.1791666942	-0.665454369	
676.875	-0.7470230913	0.4435596572	
677.5	0.09760580103	0.09952684548	
678.125	-0.6099598166	0.1579562728	
678.75	0.4391851729	0.7681523618	
679.375	0.1715343348	-0.079079922	
680.0	0.5793309446	-0.01453586775	
680.625	-0.09234635122	-0.5556472842	
681.25	0.2788452241	0.4960970145	
681.875	0.556563815	-0.2612997044	
682.5	0.1810781324	0.06803245176	
683.125	0.4864280706	0.3903719488	
683.75	0.8572896213	0.2588325407	
684.375	0.6608308336	-0.4659794264	
685.0	0.05518463012	0.4480647857	
685.625	1.39166659	0.003113637681	
686.25	0.004047283879	-0.7153489426	
686.875	1.367313214	0.3972395357	
687.5	-0.2617962948	-1.502283097	
688.125	0.4603193311	-0.3413061718	
688.75	-1.589529145	-0.8799403292	
689.375	0.3214278429	1.169591742	
690.0	-0.5630881833	0.6504372035	
690.625	1.155654355	0.5872934801	
691.25	0.5199742784	0.2836743073	
691.875	0.9631091557	0.9110833727	
692.5	1.57230976	0.1540914007	
693.125	1.242430379	0.0452857557	
693.75	1.385431188	-0.6973546856	
694.375	0.7552045777	-0.9170927791	
695.0	1.105682268	-0.7085595303	
695.625	0.8907908712	-0.4135148273	
696.25	1.357511327	0.7596356672	
696.875	1.382301496	0.06516547932	
697.5	0.236682765	1.076839708	
698.125	2.373852859	0.1778110663	
698.75	-0.07483617875	-0.6286319019	
699.375	-0.9730348205	-1.560390904	
700.0	-0.04966104137	1.370367738	
700.625	-0.3748937163	0.2901549861	
701.25	1.280728698	0.4209150046	
701.875	0.146545458	0.2073216501	
702.5	0.9535882593	0.9953390515	
703.125	0.9227945802	-0.39454758	
703.75	0.8479890188	0.3003469577	
704.375	0.7502951425	-0.9414798914	
705.0	0.0006029063278	-0.05443999441	
705.625	1.366531351	0.1074792035	
706.25	0.2474293611	-0.2290906143	
706.875	0.2929102481	1.198045257	
707.5	1.533798907	0.3412537737	
708.125	0.3790411686	0.4195839339	
708.75	0.9180681303	-1.323023558	
709.375	-0.9396433446	-0.2024201685	
710.0	-0.4231576895	0.3711565299	
710.625	0.2996836207	0.4329042889	
711.25	0.14414592	0.1602193342	
711.875	0.608571314	0.3118703583	
712.5	0.5962837128	-0.1485753932	
713.125	0.5843861005	-0.5030169439	
713.75	0.2043966753	-0.4977581734	
714.375	0.2098618736	-0.6528570146	
715.0	-0.4839794152	-0.4596624679	
715.625	0.4015565034	-0.008917557627	
716.25	0.7202971322	-1.394321081	
716.875	-0.3963376646	-0.3487381011	
717.5	1.888482219	0.6945138832	
718.125	2.335307547	-1.442920197	
718.75	0.07055364172	1.119043802	
719.375	3.368282451	-2.887910267	
720.0	-0.7173407849	-0.9724540609	
720.625	1.645218455	-1.932338338	
721.25	-1.146014362	-3.616522564	
721.875	-1.680027458	-1.169801306	
722.5	-0.9072806158	-2.108763259	
723.125	-2.390232878	0.1195799495	
723.75	-0.3520479122	1.140032641	
724.375	-0.1567984149	0.876968262	
725.0	0.9195018578	0.9841249462	
725.625	0.2675700795	0.6957973578	
726.25	-0.2158122561	1.587466417	
726.875	0.1599529951	3.017715551	
727.5	1.728456778	1.723738898	
728.125	-3.344649248	4.473826947	
728.75	4.345149714	14.76143242	
729.375	4.355597759	3.262284936	
730.0	-8.571228573	9.978984502	
730.625	12.99393327	9.418559448	
731.25	-7.032366659	2.332877304	
731.875	-10.82017813	13.72721694	
732.5	-0.1378408471	8.11801004	
733.125	-6.643259427	-2.438412034	
733.75	-1.86890057	5.800863483	
734.375	2.154918881	-0.3570136973	
735.0	-0.08394983822	-0.599522665	
735.625	-1.98657427	0.07401206493	
736.25	1.007506688	0.6967240547	
736.875	0.4545311096	2.066651694	
737.5	3.400755504	-0.350667489	
738.125	1.863711769	-2.355846787	
738.75	5.287060855	0.5370015023	
739.375	9.906764721	-10.58784817	
740.0	-3.463545667	-12.16101352	
740.625	-2.512444484	9.803622915	
741.25	23.48780835	33.87663661	
741.875	10.96841775	-8.856688218	
742.5	-5.670945625	-15.43802099	
743.125	-4.964059009	-4.415772405	
743.75	2.476320429	-0.4893117272	
744.375	-2.818425804	-0.1639438589	
745.0	0.1777973029	-0.1952379707	
745.625	0.4257601037	0.1452454698	
746.25	-0.3301981876	-0.2200764052	
746.875	-0.2004733727	-0.1880972581	
747.5	-0.4156620905	0.912638202	
748.125	0.9926505784	1.35062554	
748.75	0.5104545596	0.7490453849	
749.375	-0.6624711025	1.769702017	
750.0	-3.574451326	0.8028811467	
