!Created with skrf (http://scikit-rf.org).
# GHz S MA R 50.0 
!freq magS11 angS11
500.0 0.0153017257327 -169.171636047
500.625 0.0102763457593 64.749114908
501.25 0.0093987962755 -78.0532395768
501.875 0.0149490991232 -149.636779058
502.5 0.0467366355175 173.739011606
503.125 0.0177802744015 94.6514647138
503.75 0.00735268426368 8.77725003264
504.375 0.0189010016052 -54.6085138074
505.0 0.00471667005875 -2.87578138154
505.625 0.0195172514634 -67.1004701256
506.25 0.0315819286445 -118.905741758
506.875 0.0774036583327 -91.0662244858
507.5 0.0489430986543 -115.333567664
508.125 0.0661376007471 -83.1914337753
508.75 0.0691839583312 -117.915445173
509.375 0.0523569147635 -140.157100858
510.0 0.0412580118014 -114.120270553
510.625 0.0403263759692 -155.332344127
511.25 0.0597482434109 -171.027094336
511.875 0.0622354542182 154.056013192
512.5 0.0371417970188 99.1412736473
513.125 0.0485799083487 41.2191310542
513.75 0.0629345269567 41.9754456959
514.375 0.0306265246679 -9.27406094641
515.0 0.0466198955016 1.0630374725
515.625 0.0720634397405 43.1042582222
516.25 0.10689103009 32.1382635295
516.875 0.0972101510164 67.1245560473
517.5 0.12660427208 22.0996467946
518.125 0.189606447109 67.7657629704
518.75 0.0969752421038 16.5557871571
519.375 0.0576013038444 16.9808813788
520.0 0.0845133928678 -3.9157660803
520.625 0.0961875538379 -10.353763851
521.25 0.0991481937215 -18.4874507343
521.875 0.058972550891 -4.18872846395
522.5 0.0948727252124 -33.4750935784
523.125 0.17986594015 -39.2574801739
523.75 0.218761209072 -55.3076690324
524.375 0.204313549382 -52.731975999
525.0 0.066951701217 -50.6665259436
525.625 0.0394848319473 -27.9874616878
526.25 0.0550984167619 -4.85420369105
526.875 0.0554323005666 -19.3498085371
527.5 0.0407418475544 -31.3901039893
528.125 0.0407299317463 -57.099113346
528.75 0.0792062106517 -72.3062204678
529.375 0.0760376756954 -116.022428586
530.0 0.0535590500654 -128.090792595
530.625 0.0414440806536 -141.87747229
531.25 0.126379141184 -137.460644836
531.875 0.178225040919 -146.884965607
532.5 0.143956621792 -169.369528613
533.125 0.0991527263985 176.206626452
533.75 0.134784989992 166.837493834
534.375 0.101761043159 178.186681989
535.0 0.0812608412987 161.974720235
535.625 0.0584246744976 172.484616739
536.25 0.0716484315864 163.187071162
536.875 0.0835670908487 -162.129763675
537.5 0.105113128524 -145.202014917
538.125 0.10805636767 -172.929504686
538.75 0.114547908387 -179.439766532
539.375 0.078521366807 -162.522409183
540.0 0.0843665191981 -151.052556684
540.625 0.132965348088 -156.415168995
541.25 0.133028859512 -141.439742736
541.875 0.10105995291 -144.372270197
542.5 0.11739523304 -145.440965631
543.125 0.141436509549 -166.920767707
543.75 0.139794852777 159.376613835
544.375 0.0886999192318 134.123626971
545.0 0.0818582475831 92.1684021804
545.625 0.0896193129166 82.6316613087
546.25 0.102727233072 67.1229263462
546.875 0.0779629360049 54.8405637939
547.5 0.102520411905 59.82101201
548.125 0.119017279267 78.7212832685
548.75 0.0978783659409 90.9619556443
549.375 0.0896398455671 88.5763290041
550.0 0.0779081112438 126.316358825
550.625 0.0434292656196 155.04927162
551.25 0.0459307462265 -150.597816863
551.875 0.0589713283979 -153.173372385
552.5 0.105903105592 -160.723248353
553.125 0.0957543074838 -168.679682352
553.75 0.0954418633093 -172.253076954
554.375 0.0978644695899 173.336788215
555.0 0.117541016338 166.057227945
555.625 0.0937186376318 159.091882905
556.25 0.103173349973 160.753884672
556.875 0.115750512982 165.996435011
557.5 0.116605444407 165.803493646
558.125 0.101501997953 164.10560437
558.75 0.0910118267418 175.262098264
559.375 0.053696460754 -168.924503318
560.0 0.0405645123006 -141.696092489
560.625 0.0535625943461 -134.211250017
561.25 0.0936427831494 -156.386427348
561.875 0.0934625406332 -156.263290659
562.5 0.0924926991788 173.909688958
563.125 0.101348637338 145.45671274
563.75 0.14006713546 127.77625477
564.375 0.0979771588891 123.482628567
565.0 0.0812282698731 122.310160194
565.625 0.0751640441018 120.427554461
566.25 0.105405585731 147.391799181
566.875 0.0692853891702 -175.279924084
567.5 0.0751909697445 -179.286167929
568.125 0.0871920729593 -174.865009836
568.75 0.0726805350824 -148.092428081
569.375 0.0531513868037 -117.644919492
570.0 0.0606388392045 -110.142004214
570.625 0.0886704179517 -116.556074515
571.25 0.0944937907195 -124.749799329
571.875 0.0888451383 -129.38628422
572.5 0.114315731211 -157.944645571
573.125 0.146633046216 -177.956215624
573.75 0.105645657173 161.655502805
574.375 0.0812030224405 151.860173008
575.0 0.106655150274 154.615686673
575.625 0.104557591632 156.979117593
576.25 0.0947782364868 142.442970374
576.875 0.0770161430515 135.147146034
577.5 0.0778307227082 137.484777215
578.125 0.0552000786647 164.393873791
578.75 0.0515952285094 156.967015854
579.375 0.0523028951188 169.903534573
580.0 0.0674752755976 179.096083211
580.625 0.0791191318807 -155.456823466
581.25 0.0891912972152 -166.887467745
581.875 0.116616040281 177.307407154
582.5 0.117844760417 -176.055103248
583.125 0.0910617495261 -164.588682352
583.75 0.0821713682633 -168.174105897
584.375 0.106618969429 -164.59012264
585.0 0.087257401095 -133.67858523
585.625 0.0714729565055 -145.394828057
586.25 0.0708090026459 -140.602064392
586.875 0.0843424852654 -143.961668759
587.5 0.0736382059506 -144.515586779
588.125 0.0580140591437 -170.296313778
588.75 0.0679777076276 -168.348118271
589.375 0.0823219300574 -162.362462631
590.0 0.0969091819056 -158.938154938
590.625 0.107685209757 168.158299257
591.25 0.122765618904 154.389668395
591.875 0.103533157163 147.484452555
592.5 0.0594802866636 159.912663712
593.125 0.0629064796111 159.309729279
593.75 0.0748012218779 168.28504218
594.375 0.0598574737792 -165.212251698
595.0 0.0467472229447 -111.953705203
595.625 0.062624737489 -94.8665401484
596.25 0.0754524980098 -80.5914750788
596.875 0.0643404017329 -85.1685721741
597.5 0.0674155776586 -48.6913951973
598.125 0.0695216220099 -54.9307218259
598.75 0.0776753542611 -68.593245237
599.375 0.0823928031144 -72.5172875932
600.0 0.100208211936 -66.8284033683
600.625 0.100307173141 -67.7082450881
601.25 0.0842866481112 -76.769654362
601.875 0.0686244465761 -98.8122671888
602.5 0.0673433717403 -62.1922661843
603.125 0.0476768529694 -44.7579756064
603.75 0.0276194843433 -29.106682094
604.375 0.0355091378126 -31.2083074655
605.0 0.0583375059772 -20.5898768297
605.625 0.0479806439742 -9.52841621446
606.25 0.0262629373209 3.79745392527
606.875 0.0327285450254 45.1047426501
607.5 0.0441331165864 36.1504395196
608.125 0.0659180513356 23.7327280258
608.75 0.0634247290318 26.1545550542
609.375 0.0546004122462 23.4585214157
610.0 0.0731985322927 43.2498542196
610.625 0.0618624685684 35.8394844478
611.25 0.0509762667757 24.9195041034
611.875 0.03701058991 44.8416352023
612.5 0.0125483724694 34.7306449451
613.125 0.048756222069 127.062691096
613.75 0.0589225474701 123.023773745
614.375 0.0501157391915 129.26235006
615.0 0.0116120863791 101.562349776
615.625 0.0567827080636 134.078911406
616.25 0.045463568821 134.511901912
616.875 0.0505807263137 132.973193973
617.5 0.0139268332877 107.604265561
618.125 0.052539639493 135.231270264
618.75 0.0317296207594 148.626128727
619.375 0.0258127453594 154.767345716
620.0 0.0160212843806 -25.5609032295
620.625 0.0159358384751 -143.462109065
621.25 0.0391789330253 -117.610318936
621.875 0.0655702628626 -120.891328115
622.5 0.0725704870737 -148.3980086
623.125 0.0905448590837 161.377674614
623.75 0.0620873697394 164.196031629
624.375 0.0523570420831 -175.521071626
625.0 0.0304780216301 -132.44919448
625.625 0.0418542471717 -151.037821249
626.25 0.0190657551939 173.192114638
626.875 0.0114216925299 17.4239719015
627.5 0.0274939854781 -19.5870512815
628.125 0.0516307669938 -4.0024294536
628.75 0.0344905248255 -19.0921066401
629.375 0.0433327416528 -6.91687844786
630.0 0.0685684844992 -4.49487016506
630.625 0.0801394925635 19.5068338239
631.25 0.0681960173275 2.4208973507
631.875 0.0672673408033 1.67647076607
632.5 0.0596543650152 -3.50272133198
633.125 0.05122706784 27.5624886286
633.75 0.0461182262872 -26.6324032697
634.375 0.0407625046083 -8.10611565464
635.0 0.036305339705 7.5994779272
635.625 0.0459159499693 46.5232587251
636.25 0.051983544983 36.0167974698
636.875 0.0647251345811 38.9533054682
637.5 0.0371312180852 31.9906153043
638.125 0.0439342536969 70.4731569764
638.75 0.0944042167871 78.4163055742
639.375 0.0793264137447 80.12807256
640.0 0.0644621339094 95.5434020023
640.625 0.0551800242895 102.876462272
641.25 0.0871990449295 128.533779401
641.875 0.0581490959892 139.784316635
642.5 0.0619081074638 163.579798913
643.125 0.0600150841283 160.787901514
643.75 0.0852550865278 176.374912409
644.375 0.076826589216 -172.667337541
645.0 0.0798846548574 -178.32288111
645.625 0.0895643130422 165.960575841
646.25 0.107543878906 168.537171677
646.875 0.0538022861566 159.871987883
647.5 0.0598396186297 179.644754449
648.125 0.0747823843191 178.154519225
648.75 0.090010480141 -158.983829295
649.375 0.0376328401708 -163.45385498
650.0 0.0451078107967 -118.126045786
650.625 0.0782524507381 -89.7775363676
651.25 0.0773251753548 -64.8777985823
651.875 0.0632014412902 -43.1048083333
652.5 0.0908146646533 -24.2054468117
653.125 0.126039292285 -1.85392683573
653.75 0.122451800848 5.87661361744
654.375 0.0933138422016 2.34663584955
655.0 0.10430066422 9.51691479776
655.625 0.0926450917641 21.0167018693
656.25 0.0685839823771 23.4953499597
656.875 0.0619232352484 3.78783031538
657.5 0.0835892665398 22.7873103136
658.125 0.0631943313886 48.7170168698
658.75 0.0620870788751 61.9028812337
659.375 0.0940815411118 35.0751461357
660.0 0.09546658265 25.9511301716
660.625 0.103777590394 17.849350812
661.25 0.106549393336 3.43440340478
661.875 0.138020366329 -15.0821266621
662.5 0.114772081772 -22.4751147518
663.125 0.113332880078 -15.5431241029
663.75 0.102635868682 4.75096693709
664.375 0.113516495591 54.0551643217
665.0 0.077959547338 90.2908501754
665.625 0.0565236490236 110.129188664
666.25 0.0961766647355 126.754004574
666.875 0.0883498725094 174.038675321
667.5 0.100009621889 -168.811084088
668.125 0.0974024702207 -179.201834857
668.75 0.141981211978 163.292253466
669.375 0.124535643461 174.844405443
670.0 0.0883053530586 -169.7157356
670.625 0.0881561358838 -174.331926028
671.25 0.114843919585 173.105436271
671.875 0.112080743227 165.268865313
672.5 0.0765404440057 155.834991478
673.125 0.0886645785342 149.83033902
673.75 0.12348046114 153.627912534
674.375 0.0979764685936 173.169767031
675.0 0.111235309318 -171.905795913
675.625 0.125660386297 -152.636713948
676.25 0.134888699601 -128.662865741
676.875 0.101112137424 -118.734458171
677.5 0.123475989868 -128.177642814
678.125 0.134468601197 -119.439488795
678.75 0.0730316321913 -93.9902339681
679.375 0.0602500936846 -79.6905891676
680.0 0.0791808174637 -82.5252899101
680.625 0.11657316146 -76.6796707502
681.25 0.100097164232 -73.5403768081
681.875 0.105106198496 -98.1561910419
682.5 0.124318919443 -114.089924988
683.125 0.166666664703 -123.952783562
683.75 0.143564924228 -105.883353014
684.375 0.120099700151 -80.2916098426
685.0 0.144514213556 -43.4824283823
685.625 0.133184441423 -3.7289134447
686.25 0.109294013504 22.0775481232
686.875 0.0933884201632 44.9718205426
687.5 0.0880083276072 76.8669563648
688.125 0.0834634164489 107.405113043
688.75 0.102220696151 115.646161901
689.375 0.146481618464 116.963342693
690.0 0.143498999794 127.931699015
690.625 0.112448369634 131.075411328
691.25 0.13681313915 100.165285201
691.875 0.177260188398 67.6923511943
692.5 0.159590943539 35.4266701787
693.125 0.0839406165706 -15.4079047453
693.75 0.0973009512469 -41.2922714215
694.375 0.144055608628 -33.3985176862
695.0 0.134765764051 9.80746947955
695.625 0.107224118591 48.3666776571
696.25 0.110853602565 121.756810568
696.875 0.141129574526 172.885624756
697.5 0.146637320482 -148.931803956
698.125 0.144673156169 -137.038069007
698.75 0.118182584751 -124.874638979
699.375 0.10857903953 -123.340078818
700.0 0.0978877401533 -115.254077796
700.625 0.121344384544 -98.6850117125
701.25 0.092962442249 -56.5676673845
701.875 0.0807391617577 -55.3683572782
702.5 0.0988407860404 -85.7552291427
703.125 0.170227190289 -132.363222
703.75 0.178741039914 -153.280051
704.375 0.129850346878 170.839448295
705.0 0.114405147511 153.719878429
705.625 0.14671821426 -174.062443955
706.25 0.156623279657 -120.012038237
706.875 0.0928459888888 -64.7737007032
707.5 0.0743572857218 -28.7736334168
708.125 0.0921317072096 14.9141451662
708.75 0.113033995253 54.4562517598
709.375 0.104115132898 108.310005862
710.0 0.102521693749 134.781211814
710.625 0.10449583906 155.666780179
711.25 0.118839799162 163.681970111
711.875 0.144250620216 163.839779015
712.5 0.15443965171 146.098824858
713.125 0.130755995707 97.7136370395
713.75 0.108098223982 36.6828745094
714.375 0.109784417368 38.6870440462
715.0 0.113792705445 29.7601568301
715.625 0.0846995430966 45.3201121828
716.25 0.0797541169778 73.8921928286
716.875 0.108872954798 93.0124339686
717.5 0.14359934968 147.525675553
718.125 0.12288819731 172.491822181
718.75 0.100979670069 173.292115877
719.375 0.107541902461 175.044792963
720.0 0.131195941531 -129.322531541
720.625 0.113523670921 -77.4289648981
721.25 0.0960459707073 -16.3727913373
721.875 0.0869111189065 15.3923301713
722.5 0.06873161948 64.8517806166
723.125 0.0828646035195 67.9111689933
723.75 0.109027554142 40.8392835735
724.375 0.0933978560845 -18.1432258896
725.0 0.111063560107 -29.9400437355
725.625 0.10117717322 -66.804246035
726.25 0.108164255602 -74.8145448104
726.875 0.101885610671 -54.5104901157
727.5 0.0775872315979 -40.9713321881
728.125 0.0752461633662 -6.44389282101
728.75 0.103802308965 30.3837526499
729.375 0.0871881074857 16.7076139528
730.0 0.0516073478115 -19.1342773383
730.625 0.0664523113482 23.1048608664
731.25 0.0735653697257 64.3091844409
731.875 0.0670291923303 114.578714439
732.5 0.0706026018646 147.430696427
733.125 0.0655900659404 159.090648432
733.75 0.0686793933322 167.912603954
734.375 0.0762837317562 177.85261779
735.0 0.0247138648856 112.782797966
735.625 0.0917062996975 154.402369736
736.25 0.0429878262532 143.342970947
736.875 0.0605862485938 171.418130043
737.5 0.0458296635953 -168.48874789
738.125 0.0954291201139 -172.870668967
738.75 0.074515816788 -177.253276164
739.375 0.0341651712954 -150.53219606
740.0 0.0411474105136 -144.075307782
740.625 0.0244468270637 -138.243046228
741.25 0.0479520555898 -156.51899146
741.875 0.0621822125869 -110.50228905
742.5 0.0417109708246 -15.2576184024
743.125 0.0197709692879 117.565384756
743.75 0.0383419789103 80.5250581468
744.375 0.0338309760768 103.520760034
745.0 0.0470656458577 139.298727863
745.625 0.0621685312464 142.241292449
746.25 0.0932138821513 70.0136262968
746.875 0.0727470122576 35.7953343267
747.5 0.0520595775921 5.13465031181
748.125 0.0173270014377 34.5925689307
748.75 0.02234641418 36.8462081537
749.375 0.0335908344894 -37.174179123
750.0 0.0271544583062 -92.0345470351
