!Created with skrf (http://scikit-rf.org).
# GHz S MA R 50.0 
!freq magS11 angS11
500.0 0.01006913249 149.342278985
500.625 0.0103044301832 93.555187491
501.25 0.00463913029182 -81.0299662831
501.875 0.0298870056444 -171.594373726
502.5 0.028982511382 174.956499871
503.125 0.0135373010576 43.7631489956
503.75 0.0116611116633 113.316662875
504.375 0.00318558735735 122.314396213
505.0 0.00544217914874 -32.274347299
505.625 0.0435397097098 -82.7612148841
506.25 0.0260627221354 -137.978689389
506.875 0.0496689865038 -123.050266632
507.5 0.040568172414 -118.985773274
508.125 0.0618710328473 -81.4664515612
508.75 0.0606558785221 -130.81702915
509.375 0.051538259107 -134.010314166
510.0 0.0318131231061 -117.568297573
510.625 0.0508899644526 -155.297201702
511.25 0.0572184517919 -174.997824206
511.875 0.0449378739902 138.093721566
512.5 0.0383676085402 98.6365073017
513.125 0.0616607539682 55.3692377379
513.75 0.0552640359826 34.4835349979
514.375 0.043431753747 9.53101388825
515.0 0.0715122023598 10.7320247556
515.625 0.0563282236979 30.5206370656
516.25 0.0908041075549 30.6391458756
516.875 0.119069705498 68.9167919069
517.5 0.12010571333 21.491767323
518.125 0.176101237616 65.8140259984
518.75 0.0745127579848 2.1764008505
519.375 0.0631200259956 17.1839998717
520.0 0.112572437186 -1.12787579735
520.625 0.0854802193106 -18.5902073301
521.25 0.0784452784126 -27.0324050035
521.875 0.0716361336947 -0.70132810585
522.5 0.103362687315 -31.6411659038
523.125 0.172352901791 -39.7844972802
523.75 0.209987990407 -58.2176011245
524.375 0.212102214425 -48.6743479341
525.0 0.079078284683 -35.5152571454
525.625 0.0311150345711 -53.964702842
526.25 0.0355493760795 -15.1443541606
526.875 0.0536957776106 -18.0772899836
527.5 0.0588619839516 -23.7320349072
528.125 0.0266739853987 -69.5627580054
528.75 0.058890720516 -70.4528813626
529.375 0.0834123167829 -113.703747822
530.0 0.0560302951643 -126.176099775
530.625 0.0354099502898 -139.228078546
531.25 0.129634424367 -135.142052192
531.875 0.175785482085 -145.736113573
532.5 0.152740882371 -169.673097441
533.125 0.0787034029869 172.359960802
533.75 0.0974670897206 168.978716181
534.375 0.106184028983 178.905431003
535.0 0.0982422968937 164.267727465
535.625 0.0480456191957 170.106599022
536.25 0.0511510638351 165.528012857
536.875 0.0805678754171 -158.846930723
537.5 0.105771075896 -144.818803399
538.125 0.101023077207 -172.257810903
538.75 0.093458621412 -179.511941197
539.375 0.0793684383886 -161.576868919
540.0 0.106404329201 -157.824464378
540.625 0.125911497932 -155.331731215
541.25 0.131778231108 -139.632843002
541.875 0.099760552234 -141.583753735
542.5 0.116088825655 -142.566731711
543.125 0.130461261736 -164.866340187
543.75 0.123899272097 160.548678135
544.375 0.0910704403464 135.021082831
545.0 0.0991058531032 91.460293458
545.625 0.0766020762469 82.8087635865
546.25 0.0908285517831 68.7330238729
546.875 0.0896240629036 54.3195244691
547.5 0.125188400073 57.7485595395
548.125 0.111046093838 80.2293695406
548.75 0.0872948119038 92.2611568609
549.375 0.093062621326 87.3142472456
550.0 0.101453113381 126.612962075
550.625 0.0271098379988 162.380663794
551.25 0.039917785266 -135.252589042
551.875 0.0584056810463 -157.427911927
552.5 0.12027306435 -166.587715515
553.125 0.0843125797312 -162.440556285
553.75 0.0863701115751 -165.770998886
554.375 0.100864078956 169.680954165
555.0 0.136598029048 161.645568017
555.625 0.0889522784799 160.804384797
556.25 0.0988190533084 163.438079057
556.875 0.125803627273 164.335527383
557.5 0.114768832571 167.536745482
558.125 0.102352482112 164.489227997
558.75 0.0804293142264 179.961992219
559.375 0.0553156725254 -170.962745848
560.0 0.0512614371065 -151.482080301
560.625 0.0517097026833 -126.651291456
561.25 0.0885486773997 -146.496657302
561.875 0.0964496311795 -160.746733001
562.5 0.0963490069265 172.121812141
563.125 0.0939355877545 152.883657861
563.75 0.11927941181 135.192886711
564.375 0.0992590512887 121.707000634
565.0 0.0930650298096 118.587331982
565.625 0.0660051965877 125.568723418
566.25 0.0871743960643 158.053418022
566.875 0.0742490786542 179.50323394
567.5 0.0735202062601 -176.875054395
568.125 0.0847292266019 -171.070890886
568.75 0.0630837716379 -143.941113345
569.375 0.0487318274498 -105.494620037
570.0 0.0630879855339 -108.702909493
570.625 0.0883823253023 -114.270403536
571.25 0.0903996537575 -118.664749301
571.875 0.0901018496154 -128.50149255
572.5 0.113533693427 -155.885694741
573.125 0.143718194684 -175.519065627
573.75 0.09911192444 163.677875631
574.375 0.0860418050217 146.601882307
575.0 0.109889506129 151.400231382
575.625 0.102044430366 158.329846435
576.25 0.0879701751745 149.998193088
576.875 0.0788294757546 134.333073783
577.5 0.0913371335454 130.733103486
578.125 0.0499766311494 172.124642086
578.75 0.0479090433205 164.148162607
579.375 0.0553002727947 160.299762764
580.0 0.0689512581784 -175.872398901
580.625 0.0787978388123 -154.274683691
581.25 0.0902494501181 -163.134252783
581.875 0.11608137953 -174.072606387
582.5 0.117185832752 -175.324238295
583.125 0.0980005199358 -174.061781778
583.75 0.0788580876627 -156.563018057
584.375 0.100482213735 -150.173757127
585.0 0.0878654542813 -139.42823744
585.625 0.0751570566806 -150.867355123
586.25 0.0688267926476 -135.578682563
586.875 0.0826527296071 -133.795323422
587.5 0.0728744003027 -142.909579164
588.125 0.0608091141421 178.185390066
588.75 0.0679138787671 -148.516806103
589.375 0.0851418980406 -145.351648801
590.0 0.0939277309375 -161.652640619
590.625 0.102787019477 158.511745553
591.25 0.118300992169 166.135409338
591.875 0.0921984501829 161.414742562
592.5 0.0593816003365 149.779052871
593.125 0.0632428299431 138.676158656
593.75 0.0716373582677 -168.483101314
594.375 0.0581169264482 -136.883236481
595.0 0.0443166016047 -112.551030649
595.625 0.0529023827467 -114.323564626
596.25 0.0822881190783 -69.1095715792
596.875 0.0690036286901 -68.5599668193
597.5 0.0570513387498 -56.6231038433
598.125 0.0593199817358 -70.1651497996
598.75 0.0819126106659 -60.6598562935
599.375 0.0952797797081 -61.5292296976
600.0 0.102207766572 -66.7589490641
600.625 0.0984810257994 -72.0092102557
601.25 0.0833953771289 -62.4104980482
601.875 0.070207194612 -76.6814903849
602.5 0.0581380192821 -72.676419721
603.125 0.0447044113217 -80.6809730674
603.75 0.0313672217271 -21.849553318
604.375 0.0413006630152 -20.2129328224
605.0 0.0578305030572 -24.7449913965
605.625 0.051821555437 -8.30555163912
606.25 0.0213005553193 -7.25923629471
606.875 0.0385613593003 47.7563409842
607.5 0.0779400919861 48.1081511861
608.125 0.0713866747502 27.8931249194
608.75 0.0724389445412 27.1367635385
609.375 0.0656157862459 30.6368892874
610.0 0.0646908828729 36.4053937028
610.625 0.0648801034543 37.4237593455
611.25 0.0461261372363 20.5078691733
611.875 0.0364768767759 55.118786052
612.5 0.0342213192907 103.171189572
613.125 0.0402353656952 130.709228733
613.75 0.0222127113051 131.851156933
614.375 0.0617429542233 132.347019458
615.0 0.0419636653573 121.531542601
615.625 0.0386401034672 134.123769846
616.25 0.0406904784266 137.124129559
616.875 0.056708626519 131.89992213
617.5 0.0459168436169 131.821193525
618.125 0.0411553004187 139.049206743
618.75 0.0140032812369 146.432797297
619.375 0.0374986770777 159.856491679
620.0 0.0228985459138 150.681315342
620.625 0.0130536257217 -118.91220881
621.25 0.0521884442892 -81.0202336833
621.875 0.0768124325165 -131.708896752
622.5 0.079284538974 -174.600224205
623.125 0.0751310612892 176.576992499
623.75 0.0480257205924 172.028007604
624.375 0.0587906322314 179.562735426
625.0 0.0430026158806 -147.149123783
625.625 0.0255058774522 -147.15821573
626.25 0.0217474303059 170.651787848
626.875 0.0180290745066 0.853307354826
627.5 0.025693557122 -33.2793597276
628.125 0.033281309932 -49.7030981951
628.75 0.0334515877376 -17.9684997917
629.375 0.0590170427119 0.388399166943
630.0 0.0617729356265 -31.9769116032
630.625 0.0707378089092 0.967440680401
631.25 0.0669958380628 5.20643574829
631.875 0.0704790579717 7.87076509905
632.5 0.0627274318876 -9.75204837401
633.125 0.0506744423929 -11.2780246888
633.75 0.0433254206415 -12.369382894
634.375 0.05650591321 36.5506420065
635.0 0.0355176116445 -4.81822205557
635.625 0.034781614969 40.6823348176
636.25 0.0617723452813 47.6823815067
636.875 0.06042191378 40.4906105458
637.5 0.0545436166454 55.3303479803
638.125 0.0254832220122 48.4802535443
638.75 0.062991830629 74.3248534561
639.375 0.0834613322042 83.6596960975
640.0 0.0821302312765 111.246598493
640.625 0.0501711385889 78.6491332262
641.25 0.0585467037598 118.735119198
641.875 0.0613051618157 145.579489523
642.5 0.0648337180436 165.243559609
643.125 0.0565076114889 157.763958375
643.75 0.0567226573673 169.153891121
644.375 0.0745984043384 -169.067126854
645.0 0.0878110012631 -177.840217721
645.625 0.0718704086538 153.986456041
646.25 0.0765301146783 156.14730053
646.875 0.0660368533222 169.452799909
647.5 0.08107040956 -173.538416458
648.125 0.0639986067654 169.323379696
648.75 0.0730580556762 -162.705212172
649.375 0.0506648823293 -149.573142964
650.0 0.0561740361116 -117.556095481
650.625 0.0736826057345 -86.3499030208
651.25 0.0680611882084 -61.6739421304
651.875 0.0731680264609 -41.045784993
652.5 0.0913860607078 -21.9200316948
653.125 0.132653741866 -0.244079399001
653.75 0.109466778137 5.61400701483
654.375 0.102053303165 2.57563826535
655.0 0.132643430067 14.3865259529
655.625 0.0790767053212 17.1847408349
656.25 0.0594452119359 21.4810896847
656.875 0.077480606927 9.15993166001
657.5 0.0801522087484 25.8108650578
658.125 0.0812348051593 50.6510734232
658.75 0.0468440647243 69.3213196971
659.375 0.0756131217998 44.8206322724
660.0 0.102021962549 26.2986500139
660.625 0.125822139383 17.6942811925
661.25 0.0858692200786 4.93665761661
661.875 0.115427458356 -11.1434729636
662.5 0.119143277057 -19.8524426674
663.125 0.11444994548 -14.5828367466
663.75 0.0873744354397 4.84387516539
664.375 0.0864714107328 57.8736174964
665.0 0.0771947298743 94.565435267
665.625 0.0453675510909 112.400536839
666.25 0.0729205328319 135.42827904
666.875 0.0990648043847 172.072768205
667.5 0.106603150017 -169.706913849
668.125 0.0910318940082 -178.033830668
668.75 0.1220853228 169.523362761
669.375 0.138863818324 178.743343096
670.0 0.0897663669172 -168.322132455
670.625 0.0853531159446 -173.489753138
671.25 0.108136627106 176.245619081
671.875 0.104477649622 170.682080891
672.5 0.077839013545 157.637340225
673.125 0.0883077319766 154.014836416
673.75 0.106927985295 161.802681887
674.375 0.106040383021 169.182723108
675.0 0.125530953974 -177.430398647
675.625 0.123731910476 -148.116948754
676.25 0.114068420047 -122.914187526
676.875 0.11328105982 -122.160444812
677.5 0.134702237262 -129.536911306
678.125 0.128919012306 -117.713397079
678.75 0.0669696504926 -92.6098964991
679.375 0.0547660189617 -72.4479782138
680.0 0.0817274193315 -76.7590136445
680.625 0.132510821073 -78.5294317501
681.25 0.0885794791839 -64.6489652966
681.875 0.0963435416906 -87.6760638384
682.5 0.135040298304 -119.047056474
683.125 0.168456259741 -120.673852213
683.75 0.140206187689 -105.221144158
684.375 0.114689582567 -78.4382805273
685.0 0.121232624057 -37.4607644697
685.625 0.129833300485 -1.59264376871
686.25 0.117854469599 19.9287106503
686.875 0.0783009362078 50.2530862386
687.5 0.0778034458672 89.883100794
688.125 0.0839891271881 110.929866635
688.75 0.107566134043 109.214922502
689.375 0.131650540741 127.517051179
690.0 0.126338514412 137.509337806
690.625 0.112771281445 130.057863702
691.25 0.148563589531 94.3199833896
691.875 0.168889879856 74.17875451
692.5 0.133970856797 42.5294526136
693.125 0.0948141711935 -16.9395219971
693.75 0.0976637665062 -37.1567013292
694.375 0.145529942358 -33.0394393994
695.0 0.118509158574 20.0696477775
695.625 0.099721551683 61.1289913133
696.25 0.107503025356 117.649466053
696.875 0.144430886814 168.154762547
697.5 0.144767872838 -146.269504435
698.125 0.139353236562 -132.09321429
698.75 0.124066653097 -129.167741391
699.375 0.114463688442 -127.613095422
700.0 0.089610434179 -105.315313042
700.625 0.11031233286 -83.813854276
701.25 0.0897537418183 -58.1972648212
701.875 0.0851569836077 -66.0476038599
702.5 0.101825463798 -71.6428317112
703.125 0.173778139514 -117.424961716
703.75 0.189327474455 -155.624739582
704.375 0.131693939658 169.28329706
705.0 0.114409056184 154.688620579
705.625 0.13716496228 -163.110293129
706.25 0.141734779433 -105.93873822
706.875 0.0923696295413 -63.1135827721
707.5 0.0809563131374 -45.1078498282
708.125 0.0903157822838 37.0818891042
708.75 0.113703183904 74.9573501393
709.375 0.10597632194 107.939743238
710.0 0.102966700427 122.798759898
710.625 0.106080188873 159.292500616
711.25 0.121508524741 -179.924304472
711.875 0.143383858225 167.366627709
712.5 0.156421287898 138.912629299
713.125 0.118309406261 108.574370541
713.75 0.0981372854324 55.0653099506
714.375 0.100829935512 25.6126909879
715.0 0.120103684366 17.8638409592
715.625 0.0831172094728 50.0783407147
716.25 0.0820864389678 78.7825966826
716.875 0.120831682751 102.4001424
717.5 0.145198748183 150.083356123
718.125 0.115801599949 157.859161962
718.75 0.109232535751 -173.705487423
719.375 0.120558497533 -166.298217226
720.0 0.130361980315 -132.703892121
720.625 0.113794007568 -77.3989514702
721.25 0.0968626842915 -4.68572588481
721.875 0.0883315176495 44.6387190813
722.5 0.0722970928249 73.4788445376
723.125 0.0744941188468 60.7988793215
723.75 0.133944769509 58.5123396173
724.375 0.118272894771 2.44508990629
725.0 0.0953965646597 -37.4278681256
725.625 0.0964820064556 -68.930346957
726.25 0.106738825268 -76.4350317423
726.875 0.102021834172 -46.0847865025
727.5 0.077849198066 -38.1891105016
728.125 0.0801612462497 -2.32694969498
728.75 0.0679587411203 -0.0935164717158
729.375 0.107387009086 38.1035127125
730.0 0.0738781121262 9.45675618564
730.625 0.0553252844292 13.4261716112
731.25 0.0620998701266 60.064060821
731.875 0.073465975326 114.819991366
732.5 0.0774656722993 153.678627559
733.125 0.0987302244753 -178.173468034
733.75 0.0742429803918 168.953106733
734.375 0.0950336977875 -166.038415339
735.0 0.0735820853523 165.661298751
735.625 0.0713185992469 158.669644393
736.25 0.0207289798217 141.757089969
736.875 0.0746972240224 173.003033827
737.5 0.0903857040694 178.246431918
738.125 0.0723248020113 -179.077274839
738.75 0.0703075633406 178.865950625
739.375 0.0479068344522 -159.318967215
740.0 0.0531551167621 -134.554748104
740.625 0.0762280529664 -148.799917442
741.25 0.049978348079 -158.993392586
741.875 0.011575082765 -48.969664341
742.5 0.0613255926029 -13.7780167502
743.125 0.0566584892954 48.5327639147
743.75 0.0404001604913 92.1488995205
744.375 0.033090805665 167.257497048
745.0 0.0656253093204 116.815061966
745.625 0.0706561728595 106.625429082
746.25 0.0890217065724 78.5250418266
746.875 0.053964249429 63.1222475279
747.5 0.068715503432 6.93680004056
748.125 0.0218183200959 3.72161385809
748.75 0.0180977906046 11.9331692552
749.375 0.0290945346158 -36.4500279573
750.0 0.035018630115 -46.084625903
