!Created with skrf (http://scikit-rf.org).
# GHz S RI R (50+0j) 
!freq	ReS11	ImS11	
500.0	-1.795174791	-1.545961812	
500.625	1.613126706	-1.728927631	
501.25	-1.102831892	-2.575688856	
501.875	-2.073409033	-0.4715512561	
502.5	-0.00383307712	-0.1618255042	
503.125	-0.4081149675	0.04828312296	
503.75	0.1960304225	-0.03004327251	
504.375	0.1579276633	0.05390568651	
505.0	-0.09896307732	-0.08502652926	
505.625	0.2557713385	-0.2274350833	
506.25	-0.6017841777	0.1786639939	
506.875	0.1140520201	-0.7189141388	
507.5	-0.9865379456	-2.026644337	
508.125	-1.231154431	-0.8226555763	
508.75	3.14913749	-2.358867602	
509.375	-2.451772847	-4.820310948	
510.0	-0.6622820448	-0.1920957546	
510.625	-0.6191194762	-1.016170288	
511.25	-0.1445772593	0.06953975642	
511.875	-0.6421868686	-0.2809905012	
512.5	-0.09061524436	0.2355974387	
513.125	-0.1507780859	-0.2141830281	
513.75	-0.01850350535	-0.117959342	
514.375	-0.505869474	-0.3778288547	
515.0	0.6748353492	1.326139415	
515.625	-1.439443906	-2.895260335	
516.25	-0.724875203	0.8140626829	
516.875	0.1753997447	-2.350700308	
517.5	-1.140224143	-0.380838964	
518.125	0.2744970951	-0.3002521996	
518.75	-0.8941085014	-0.310976551	
519.375	-0.08649487682	0.007911751602	
520.0	0.421160997	0.2827961523	
520.625	0.3946352659	-0.3961482292	
521.25	0.07854138884	-0.3436870645	
521.875	-0.6371783976	-0.1966131299	
522.5	0.08184909004	0.06823219538	
523.125	-0.3408256377	0.2156842733	
523.75	-0.02479175668	-0.06705363679	
524.375	-0.7390965925	0.2583240498	
525.0	0.1563840269	-0.006909482645	
525.625	-0.06261034157	0.2775127479	
526.25	0.07289582307	-0.2782753319	
526.875	-0.1902681263	0.3774541279	
527.5	0.1371609915	0.2420764074	
528.125	-0.2424680887	0.8677278908	
528.75	0.5435486832	0.8156104342	
529.375	-0.1243958626	0.153237625	
530.0	0.4618643904	0.259429986	
530.625	-0.1750690862	0.9175136013	
531.25	1.612936674	-0.3523556193	
531.875	0.2671197533	-0.03497339626	
532.5	-0.278579474	-0.7312092488	
533.125	0.3205501075	0.4190996669	
533.75	-0.01662825596	-0.9708745821	
534.375	-0.04099640053	-0.1990876845	
535.0	-1.014056005	-0.6312788744	
535.625	-0.03537668713	0.4757757424	
536.25	-0.09762305417	0.1736208592	
536.875	0.3500627757	0.06946041838	
537.5	0.03188823883	-0.1408881901	
538.125	0.4597610056	-0.04096499971	
538.75	0.1265093823	-0.4296934301	
539.375	-0.009843585406	-0.3296927704	
540.0	-0.5708414597	-0.501678596	
540.625	-0.2596759434	0.1677119303	
541.25	-0.1882916868	-0.08475978095	
541.875	-0.1680640929	-0.08504898621	
542.5	-0.1701391564	0.02651305748	
543.125	-0.04672168417	-0.2219245144	
543.75	-0.4248986146	0.1143134611	
544.375	0.05233898192	-0.09503338348	
545.0	-0.02588839358	0.3372158997	
545.625	0.06311132165	-0.1071536662	
546.25	0.3181235943	0.3795706841	
546.875	0.1476820025	-0.3513145375	
547.5	0.2573680974	-0.05561729312	
548.125	-0.1045907809	-0.6102516313	
548.75	-0.3990073216	-0.07527686861	
549.375	-0.08548398628	-0.1985982891	
550.0	-0.3371841802	0.04833371044	
550.625	0.02555908445	-0.01038574177	
551.25	-0.327318051	0.09992784708	
551.875	-0.01274066141	0.1637645534	
552.5	-0.2046226107	0.1649410953	
553.125	0.02313855857	0.1912421724	
553.75	0.0911866823	0.09400331164	
554.375	0.2449380136	0.01437942958	
555.0	0.2173147199	-0.1915668026	
555.625	0.1909103669	-0.2447033856	
556.25	0.1595952258	-0.3460123767	
556.875	-0.1035230472	-0.3822868982	
557.5	-0.2326798454	-0.23057858	
558.125	-0.2709415537	-0.0977464926	
558.75	-0.2761872656	0.009366752101	
559.375	-0.215548651	0.06568103555	
560.0	-0.2521209125	0.1458123936	
560.625	-0.09784488601	0.3209680968	
561.25	0.05540484554	0.1495129638	
561.875	0.04519814266	0.1979872087	
562.5	0.05282156351	0.00675485003	
563.125	0.1575144477	0.2887090753	
563.75	0.3302379376	-0.1531459092	
564.375	0.2213330619	-0.05736724511	
565.0	0.269829583	-0.4653584107	
565.625	-0.211900137	-0.2958160591	
566.25	-0.1354085525	-0.2070654314	
566.875	-0.3965471093	-0.2967101236	
567.5	-0.3982814654	-0.05024026378	
568.125	-0.1522672536	-0.456013483	
568.75	-0.742986936	-0.1430905578	
569.375	-0.3090890095	0.2243780842	
570.0	-0.5436654632	0.4347049234	
570.625	0.1041358666	0.6288023207	
571.25	-0.08301019355	-0.04968259659	
571.875	0.3146741536	0.509932952	
572.5	-0.004985856921	-0.2335300424	
573.125	0.4569517037	-0.02302520245	
573.75	0.03257254337	-0.5667172505	
574.375	-0.09209612189	0.1302849665	
575.0	0.2724467045	-0.347553281	
575.625	-0.1621207464	0.05407126784	
576.25	0.417932254	-0.2564295493	
576.875	-0.2302535299	-0.5152966986	
577.5	-0.09093746511	-0.07628151098	
578.125	0.1246734686	-0.4567028842	
578.75	-0.4153526388	-0.3990983833	
579.375	-0.1529529028	0.07231269898	
580.0	-0.01929673536	-0.2989759369	
580.625	-0.2307874298	0.1950143176	
581.25	-0.2093480966	-0.126296544	
581.875	-0.03194383719	0.6618841116	
582.5	0.4419441635	0.1456507217	
583.125	-0.2208591035	0.04348105398	
583.75	0.5212600717	0.3273324011	
584.375	-0.3512521366	-0.1149165452	
585.0	0.5727803159	0.3788787468	
585.625	0.1794878315	-0.3379195558	
586.25	0.3738525826	0.2342044633	
586.875	0.1418159841	-0.661577097	
587.5	-0.0628839992	-0.01279012439	
588.125	0.1963093143	-0.443181427	
588.75	-0.1295011643	-0.5497206992	
589.375	0.04485372794	-0.04405927605	
590.0	0.01843228725	-0.6102504458	
590.625	-0.5098371996	0.040157884	
591.25	-0.1694093901	0.1752552163	
591.875	-0.2302189195	0.2816839357	
592.5	0.2034672955	0.1078803077	
593.125	-0.2065749018	0.2062332728	
593.75	0.2509919091	0.1935063003	
594.375	0.1210901667	0.1466526779	
595.0	0.4300950432	0.6053063701	
595.625	0.728283378	-0.2180069436	
596.25	-0.06891463134	0.2841525068	
596.875	0.7535340666	0.1825678648	
597.5	0.1786842129	-0.1518429284	
598.125	0.3096994565	0.6191888424	
598.75	0.5266798083	-0.1357428203	
599.375	0.2916208533	0.1580890439	
600.0	0.6186764421	-0.5042973382	
600.625	0.07213151559	-0.4903474751	
601.25	0.2158926405	-0.2307894136	
601.875	-0.1786245643	-0.4734738656	
602.5	-0.2659361801	0.03160147858	
603.125	-0.2131342965	0.1524563755	
603.75	-0.2413054854	0.05759760581	
604.375	-0.3109882687	0.3176635018	
605.0	-0.001680373599	0.04531667552	
605.625	-0.3599231902	0.2297317927	
606.25	-0.01585733955	0.1658684316	
606.875	-0.6125620566	-0.04326168726	
607.5	-0.1381284974	0.8173504138	
608.125	-0.1874349299	0.1697883724	
608.75	0.5733691637	0.8199620952	
609.375	0.2362555927	-0.4241922692	
610.0	0.5609002534	0.02456086388	
610.625	0.08869253118	-0.6372740272	
611.25	0.07716881901	-0.01474967382	
611.875	-0.3936098506	-0.5631419501	
612.5	-0.1093317124	0.04116924638	
613.125	-0.6092149012	-0.1142062357	
613.75	0.02155244276	0.5445430647	
614.375	-0.2640514207	0.1920025054	
615.0	0.4284323525	0.05557357269	
615.625	-0.3341686819	0.1058350185	
616.25	0.1033213468	0.6822262066	
616.875	-0.08842258393	0.02443417997	
617.5	-0.4057072206	0.7217800903	
618.125	0.2753285552	0.4947244053	
618.75	-0.168865078	0.274869268	
619.375	0.4130543518	0.4985980951	
620.0	0.2608471341	0.02823284756	
620.625	0.3744943543	-0.4049351219	
621.25	-0.2578806133	-0.2818310691	
621.875	-0.4716805374	-0.3239965225	
622.5	-0.4046258479	0.2829476917	
623.125	-0.1780647889	0.3043805858	
623.75	0.5362156768	0.1035959051	
624.375	-0.2076643123	0.03770616018	
625.0	0.3823158299	-0.428997442	
625.625	-0.07960878888	0.169140057	
626.25	0.1003149629	-0.599166848	
626.875	-0.5666183735	0.01544361773	
627.5	0.02654679148	-0.1396832676	
628.125	-0.5407825266	-0.3049406002	
628.75	-0.1007775361	-0.01495599659	
629.375	-0.1154160114	-0.5707795615	
630.0	-0.6219489886	-0.04937998969	
630.625	-0.2535196552	0.01759901545	
631.25	-0.5101433838	0.426073942	
631.875	0.07339040774	0.6497401813	
632.5	0.3727622389	0.384043758	
633.125	0.3275383217	0.08399830889	
633.75	0.6145020512	-0.1064847593	
634.375	-0.08107781908	-0.2520170278	
635.0	0.1563865446	-0.3683503964	
635.625	-0.5542842872	-0.1073033545	
636.25	-0.1371575322	-0.06963583834	
636.875	-0.3575150222	0.5162349491	
637.5	0.2517167302	0.1473395142	
638.125	-0.493905087	-0.03589104505	
638.75	0.03246529398	0.8392837926	
639.375	0.1254237176	0.08012323531	
640.0	0.03885881954	0.7579495929	
640.625	0.8818603456	0.3040276303	
641.25	0.3226697918	-0.1724405004	
641.875	0.8267437871	-0.3010412484	
642.5	-0.4159450278	-0.3780413689	
643.125	0.1040500281	-0.276790736	
643.75	-0.6736752771	-0.3308706448	
644.375	-0.07967421363	0.3604248636	
645.0	-0.5138421008	-0.02663473915	
645.625	0.1737204329	0.7885664001	
646.25	0.5492771905	-0.07830952734	
646.875	-0.1621100861	0.09565812417	
647.5	0.6836022546	-0.04356215103	
648.125	-0.2120444155	0.3173773047	
648.75	1.108369909	-0.1787632203	
649.375	0.004393820425	-0.8211584847	
650.0	0.5069757084	0.02001268759	
650.625	0.7930857374	-1.383709346	
651.25	-0.4078169754	-0.5456379785	
651.875	0.781921365	0.2782441952	
652.5	1.055031587	-0.7423122976	
653.125	0.05024622831	-0.3636194483	
653.75	0.9273739319	-0.3271719739	
654.375	-0.5581205204	-0.8803543648	
655.0	-0.2518128021	0.08745400556	
655.625	-0.8134378413	0.09886396799	
656.25	0.5296722671	0.7519902579	
656.875	-0.2188913376	-0.1617669967	
657.5	0.2442826364	0.5211186082	
658.125	0.4164028384	0.07425109007	
658.75	0.3236024911	0.3551606189	
659.375	1.135932049	-0.5152144682	
660.0	0.09544878347	-0.6898507252	
660.625	0.4524431995	-0.4505402794	
661.25	0.6843850472	-1.055355735	
661.875	-0.230001237	-0.6647707531	
662.5	0.8186295528	0.1364157387	
663.125	0.8285177259	-0.9846111107	
663.75	-0.1163805479	-0.4249894767	
664.375	0.3764390527	-0.8777219031	
665.0	-1.069396092	-0.1716483102	
665.625	-0.3578978221	-0.10606395	
666.25	-0.4861534719	0.8996757451	
666.875	0.5907878851	0.2709937683	
667.5	0.02332159979	0.2585064926	
668.125	0.846279942	0.01662441937	
668.75	0.2302558878	-0.5295108419	
669.375	0.1704555374	-0.2771026213	
670.0	0.1949108835	-0.6499197499	
670.625	-0.3060294661	-0.3777713932	
671.25	0.3288008511	-0.3221675043	
671.875	0.2671588027	-0.5733593603	
672.5	0.1869499994	-0.2950564949	
673.125	0.7485517483	-0.2260753298	
673.75	0.2717749879	-0.9627440704	
674.375	-0.2238345619	-0.192957489	
675.0	0.2626854254	-0.7145414918	
675.625	-0.9686078589	-0.3913824905	
676.25	0.162250226	0.2356201701	
676.875	-0.8672770765	-0.2806677695	
677.5	0.07981727711	0.4078916023	
678.125	-0.6818229902	-0.07144745854	
678.75	0.5737148566	0.9272266495	
679.375	0.009043588723	-0.1042616448	
680.0	0.498004232	0.0706584161	
680.625	0.3571484551	-0.4885967738	
681.25	-0.2570295399	-0.08505531445	
681.875	0.5208949011	0.4559608735	
682.5	0.6448993937	-0.01458602567	
683.125	0.4744024775	0.02884652254	
683.75	0.4097715404	0.3967196522	
684.375	1.024990736	-0.1625818442	
685.0	0.1686591403	0.05980974293	
685.625	1.001772253	0.2491516216	
686.25	0.6390305667	-0.7936921316	
686.875	0.3363855941	0.4894389653	
687.5	1.254253961	-1.584720878	
688.125	-0.8337437456	-0.1123615565	
688.75	-0.623469128	-1.173778228	
689.375	-0.6916734022	1.481515395	
690.0	0.1392957055	0.05651390501	
690.625	0.8882332403	1.26544346	
691.25	0.617800005	0.05150797255	
691.875	0.7767669543	1.012502176	
692.5	1.736328734	0.4142170934	
693.125	1.191169557	-0.2579299653	
693.75	1.438948624	-0.4873383169	
694.375	0.8091090089	-0.9438576262	
695.0	1.255141989	-0.5950640848	
695.625	0.9770430251	-0.6258027575	
696.25	0.7972824716	0.723247653	
696.875	1.772303808	0.8345932175	
697.5	0.4463208838	0.4661941765	
698.125	1.857042596	1.08287251	
698.75	0.2072701586	-1.617393202	
699.375	-0.0460263058	-1.052018096	
700.0	-0.9334208148	1.515292261	
700.625	0.4260125701	0.01306690057	
701.25	0.6312062285	1.143967151	
701.875	0.6697664308	-0.07074931567	
702.5	0.4985096537	0.8961144938	
703.125	1.421208247	0.005239435354	
703.75	0.3422676645	-0.03566735981	
704.375	1.136908943	-0.5982395859	
705.0	0.07782662596	-0.5364691982	
705.625	0.7480971392	0.6301832368	
706.25	1.10531739	-0.2697204771	
706.875	-0.0009873890256	0.6317149401	
707.5	1.05413916	1.21111896	
708.125	0.7863238093	-0.3502993154	
708.75	1.071679343	-0.6104785604	
709.375	-1.204203522	-0.6075791229	
710.0	-0.134798122	0.2429770519	
710.625	0.1313962411	0.6368019649	
711.25	0.311592303	0.03004867207	
711.875	0.4405993803	0.3687199116	
712.5	0.7132668781	-0.1639074351	
713.125	0.8142348085	-0.302643723	
713.75	0.003123201972	-0.8389702633	
714.375	0.298504992	-0.1514633153	
715.0	-0.3341002622	-0.9051606624	
715.625	-0.09983832569	0.01393766691	
716.25	1.079340504	-0.7627831072	
716.875	0.01112021408	-1.182801985	
717.5	0.9845563948	1.109182823	
718.125	3.045780807	-0.4234754799	
718.75	0.1551632023	-1.60974011	
719.375	3.346283409	0.6817283042	
720.0	0.03459176238	-4.024993058	
720.625	0.3539796178	-1.145109096	
721.25	0.4820506947	-2.766179171	
721.875	-2.080174026	-2.609138841	
722.5	-0.4559679189	-1.596792819	
723.125	-2.65470396	-0.2708916962	
723.75	-0.5488754415	1.400050938	
724.375	-0.05778251895	0.7353192678	
725.0	0.1392233683	1.126658621	
725.625	1.066815801	1.113815187	
726.25	0.06689713074	0.7094063364	
726.875	-0.966502554	2.75889379	
727.5	1.325805691	4.416570119	
728.125	-1.000372434	0.9205451939	
728.75	-4.020043049	11.46284872	
729.375	5.217565552	7.757482826	
730.0	-6.399879754	5.042100074	
730.625	9.348866212	21.33011603	
731.25	5.80416504	-0.9512143574	
731.875	-12.06419112	3.969829676	
732.5	-12.04208805	5.835315511	
733.125	-3.076120776	4.164473999	
733.75	-4.242691394	2.021060707	
734.375	3.09507968	-0.1910155006	
735.0	-0.1861857323	-0.8558057972	
735.625	-1.678144294	-0.4552451099	
736.25	1.218036175	1.511083367	
736.875	-0.2317479608	0.8619402132	
737.5	3.418108571	1.256889273	
738.125	4.661586568	-2.231187375	
738.75	0.6959030868	-4.950010986	
739.375	8.65743194	4.694304354	
740.0	8.459987217	-14.69738656	
740.625	-6.43927091	0.3874285142	
741.25	10.31150608	44.62950507	
741.875	16.48552571	22.72575263	
742.5	7.120392549	-12.3051264	
743.125	-4.941781373	-8.395652395	
743.75	-1.311903274	0.1772689669	
744.375	-0.3656233966	-1.412923098	
745.0	0.5815958292	0.7836574106	
745.625	-0.09437985197	0.1992575539	
746.25	-0.06793901201	-0.538444105	
746.875	-0.3797413493	0.3850848605	
747.5	-0.5623671562	0.6366916331	
748.125	0.7229228535	1.496302731	
748.75	0.8869380159	0.7558681442	
749.375	0.1587915479	0.7913725539	
750.0	-1.121720859	0.5127384498	
