!Created with skrf (http://scikit-rf.org).
# GHz S RI R (50+0j) 
!freq	ReS11	ImS11	
500.0	-1.952819602	-4.549750744	
500.625	-0.9319260279	-1.406711882	
501.25	-0.008148583968	-2.127984294	
501.875	-1.873228859	-2.460243106	
502.5	-0.4912232293	-0.005483351813	
503.125	-0.1717158185	-0.1130920669	
503.75	0.2673661012	0.3712839546	
504.375	-0.01747349853	0.0582524747	
505.0	0.09563272776	-0.2139627281	
505.625	0.02989917167	0.1053308222	
506.25	-0.357519563	-0.6820924791	
506.875	0.4499652835	0.5571964973	
507.5	0.7859306403	-1.418889467	
508.125	-0.2990784161	-3.001209444	
508.75	-0.4065252594	-2.008295825	
509.375	-0.3021251573	-4.456871563	
510.0	-1.996962685	0.4485111555	
510.625	0.01968648866	-0.7374017004	
511.25	-0.7379903592	0.1544040696	
511.875	-0.1512259407	-0.1578199526	
512.5	-0.100067457	0.1322060967	
513.125	-0.0145817231	-0.3338530024	
513.75	-0.3491912751	0.07989778969	
514.375	0.09502168179	-0.3052240092	
515.0	-1.445318948	0.1052194888	
515.625	1.978559244	-1.775774216	
516.25	-3.348402828	-1.83607393	
516.875	0.4502721674	-0.0583314031	
517.5	-0.1690013398	-1.328793747	
518.125	0.06247452176	0.3556905845	
518.75	-0.1235453156	-0.8097873881	
519.375	-0.1164263811	0.2426140139	
520.0	0.182369004	0.1277693546	
520.625	0.6403734073	-0.2414601357	
521.25	-0.3809973839	-0.6066473542	
521.875	-0.1737362729	-0.1603522525	
522.5	-0.2109061423	0.192859093	
523.125	-0.2165402102	-0.1993196736	
523.75	-0.2153061486	0.1066176023	
524.375	-0.4438978055	-0.1488765134	
525.0	0.1919668884	0.5970734026	
525.625	-0.1144022379	-0.07993630891	
526.25	0.1495564806	0.07830009691	
526.875	-0.3121428626	-0.004483987271	
527.5	0.08164741483	0.7936162978	
528.125	0.07370917969	0.2620072084	
528.75	-0.1922078898	0.9576251114	
529.375	0.2271696634	-0.06293470295	
530.0	0.1456570637	0.8730752837	
530.625	0.3243072351	0.4608781568	
531.25	1.353606394	0.6990163846	
531.875	0.0277127217	-0.8918578433	
532.5	0.2155648214	-0.2585003209	
533.125	-0.5662145904	-0.1485787781	
533.75	0.6958999571	-0.5940774861	
534.375	-0.7480302655	-0.5329237003	
535.0	-0.3273018088	-0.3646888229	
535.625	-0.7091991885	0.5762423682	
536.25	0.1017924788	0.1396835358	
536.875	0.1944731425	0.158775299	
537.5	0.2142622312	-0.1946379267	
538.125	0.121066192	-0.04376675573	
538.75	0.5203933349	-0.3816802599	
539.375	-0.258825645	-0.205477934	
540.0	-0.2168003359	-0.4534923391	
540.625	-0.5818090807	-0.006637585329	
541.25	-0.08090989745	0.07133808339	
541.875	-0.05443019132	-0.08424907698	
542.5	-0.2183543226	-0.1823755196	
543.125	-0.09628374799	0.08950536673	
543.75	-0.2556129088	-0.2027030683	
544.375	0.0177754741	0.2783524395	
545.0	-0.1810606566	0.05593714023	
545.625	0.3658183236	0.13157974	
546.25	-0.03301814678	0.06916601242	
546.875	0.5659674494	-0.03828493022	
547.5	-0.09675072335	-0.2575409624	
548.125	0.1073931164	-0.3282270776	
548.75	-0.3937999264	-0.4211108343	
549.375	-0.2917785978	0.02499664694	
550.0	-0.1452711375	-0.153807338	
550.625	-0.1182928521	0.1693955454	
551.25	-0.1699720149	-0.07830263069	
551.875	-0.2048666641	0.3016109837	
552.5	-0.03051648931	0.09982417964	
553.125	-0.0858359747	0.1892573808	
553.75	0.1406446906	0.09618997698	
554.375	0.1964140227	0.007302183937	
555.0	0.2545296511	-0.1660750925	
555.625	0.1826827241	-0.2673914226	
556.25	0.1498992568	-0.3261579164	
556.875	-0.078873374	-0.3945403906	
557.5	-0.2482650613	-0.2368706928	
558.125	-0.259402877	-0.08812425614	
558.75	-0.2593013911	-0.02865148862	
559.375	-0.2766877756	0.07612808473	
560.0	-0.1775374352	0.155814468	
560.625	-0.170876599	0.238960174	
561.25	0.07309737365	0.2832625121	
561.875	0.001395450608	0.03013584201	
562.5	0.1171127942	0.1953401167	
563.125	0.03220451261	0.1372887198	
563.75	0.4483635889	0.04145344941	
564.375	0.1573277708	-0.3210818496	
565.0	0.2277857583	-0.170743708	
565.625	-0.083337784	-0.5039956888	
566.25	-0.3396533167	-0.1369297658	
566.875	-0.1632923408	-0.1914278851	
567.5	-0.4425264764	-0.3930565017	
568.125	-0.373431073	-0.1461182035	
568.75	-0.4582652715	-0.4294693709	
569.375	-0.5954998712	0.4320153148	
570.0	-0.1778369494	0.2494272512	
570.625	-0.4405327679	0.507413892	
571.25	0.3545277711	0.3092220063	
571.875	-0.209054145	0.2660673579	
572.5	0.6059117946	-0.1404743702	
573.125	-0.09657798105	-0.1423279454	
573.75	0.4062099256	-0.1252445144	
574.375	-0.1957360107	-0.3803449912	
575.0	0.207205317	0.1760949358	
575.625	-0.005886959917	-0.4524166611	
576.25	-0.05706688088	0.04653266005	
576.875	0.2780804634	-0.5003787397	
577.5	-0.2117000497	-0.5206779091	
578.125	-0.1173061192	-0.1251714426	
578.75	0.0121772938	-0.3744590486	
579.375	-0.4254145224	-0.2605155941	
580.0	0.07482539334	0.1139664004	
580.625	-0.3493375991	-0.2362836178	
581.25	0.01123943435	0.2855682025	
581.875	-0.2488151014	0.1668994317	
582.5	0.154293699	0.6910210272	
583.125	0.4065435566	-0.1616758796	
583.75	-0.291391801	0.2940222276	
584.375	0.4954077819	-0.1078147695	
585.0	-0.1335852391	0.2616319794	
585.625	0.7113990872	-0.02714642051	
586.25	0.03585346021	-0.2555759301	
586.875	0.4862962437	-0.1476003349	
587.5	-0.2957118066	-0.4997823528	
588.125	0.01914631516	-0.01185110865	
588.75	0.3531714169	-0.445037813	
589.375	0.0007081593311	-0.5586677441	
590.0	0.001689104217	-0.2081247638	
590.625	-0.4052530737	-0.2998701954	
591.25	-0.297604806	0.4149422549	
591.875	-0.02185270082	0.1168249661	
592.5	-0.08422260453	0.2580360832	
593.125	-0.04952103537	-0.07927640441	
593.75	0.1568026665	0.4696736785	
594.375	0.4427269685	0.03505227795	
595.0	0.06572460754	0.158213778	
595.625	0.4924960556	0.6232781367	
596.25	0.4420323904	-0.3775440955	
596.875	0.08719258634	0.3535619592	
597.5	0.6416940776	0.2467882596	
598.125	0.1037587578	0.04630674051	
598.75	0.5978438623	0.5127372305	
599.375	0.3008035307	-0.3192053131	
600.0	0.4243796505	-0.05649811948	
600.625	0.5123342827	-0.5139496366	
601.25	-0.04246545463	-0.4761767138	
601.875	-0.01336457417	-0.251749768	
602.5	-0.3222342597	-0.1084185052	
603.125	-0.3331167177	0.1315416726	
603.75	-0.08780560479	0.1880301264	
604.375	-0.3507411325	0.0405204916	
605.0	-0.1091173297	0.3367566139	
605.625	-0.1358138465	-0.09093933774	
606.25	-0.3674280593	0.3383781964	
606.875	-0.1170777815	0.06783027581	
607.5	-0.8134244861	0.3212397767	
608.125	0.415732135	0.6296809402	
608.75	-0.02260592529	0.3908349851	
609.375	0.8571985783	-0.008732425641	
610.0	0.04491135166	-0.3234384236	
610.625	0.5497474754	-0.3266685467	
611.25	-0.2191252389	-0.4091460087	
611.875	0.06396186637	-0.2324618324	
612.5	-0.6762305239	-0.1166498256	
613.125	-0.1951385729	0.0184186891	
613.75	-0.3766637028	0.3715639675	
614.375	0.3303600586	0.05380061748	
615.0	-0.05935979522	0.3793598652	
615.625	0.150555563	-0.02542867535	
616.25	-0.4040108117	0.3484750551	
616.875	0.0363695391	0.7187774441	
617.5	-0.1843708438	0.1140097216	
618.125	-0.1677568852	0.7498363674	
618.75	0.258033277	0.3029109774	
619.375	-0.02422294931	0.4168848372	
620.0	0.5734043413	0.01093349366	
620.625	0.2268004083	-0.2073721945	
621.25	-0.2405693165	-0.5167660639	
621.875	-0.314225481	-0.1328162292	
622.5	-0.6328119337	0.0619953488	
623.125	0.04058069308	0.3843831908	
623.75	0.1947018132	0.2450354336	
624.375	0.05549831145	-0.4004560324	
625.0	0.1587219023	0.2049032115	
625.625	0.03188567336	-0.5886669467	
626.25	0.09433354273	0.07905355721	
626.875	-0.3679113074	-0.5077845283	
627.5	-0.428334753	0.1267922149	
628.125	0.00871075832	-0.2012222885	
628.75	-0.4223379558	-0.4376366342	
629.375	-0.04388640684	-0.1478227067	
630.0	-0.4807984642	-0.4281433377	
630.625	-0.5582856761	0.3241662971	
631.25	-0.1346907487	0.2695143414	
631.875	-0.2516994852	0.595520371	
632.5	0.396248779	0.4753241023	
633.125	0.5279557238	0.02538384602	
633.75	0.2351110448	-0.05910565876	
634.375	0.2998780189	-0.4857366273	
635.0	-0.1135451069	-0.05752469901	
635.625	-0.3237830816	-0.4015508745	
636.25	-0.3338179936	0.3663587892	
636.875	-0.107483277	-0.06983431066	
637.5	-0.2530493297	0.5580157399	
638.125	0.2074137914	-0.06931385723	
638.75	-0.6259566974	0.3145815475	
639.375	0.2644956085	0.8630036532	
640.0	0.3776934846	0.2143889421	
640.625	0.2930478408	0.6283333652	
641.25	0.9056736587	-0.1893215628	
641.875	0.1244848161	-0.1707741345	
642.5	0.2684181737	-0.8189606727	
643.125	-0.4534606091	0.1675942648	
643.75	-0.001113434686	-0.4004171524	
644.375	-0.7784823159	0.08887405617	
645.0	-0.0571620635	0.4343929277	
645.625	-0.06244393594	0.1784190294	
646.25	0.4679782357	0.6104958886	
646.875	0.2199966753	-0.4462865049	
647.5	-0.02367056202	0.4659401734	
648.125	0.6090793684	-0.3347588005	
648.75	0.2021156508	0.3630251372	
649.375	0.9481528461	-0.9035712526	
650.0	-0.2485250181	-0.7865498254	
650.625	0.5412851801	0.03855709307	
651.25	1.026602348	-1.060740062	
651.875	-0.171690017	-0.6938188823	
652.5	0.627586861	0.3520323162	
653.125	0.9791990403	-0.6162287342	
653.75	-0.05411026282	-0.3772529085	
654.375	0.3751914384	-0.9505780591	
655.0	-0.9907377435	0.09364937133	
655.625	0.008340791986	0.2304733859	
656.25	-0.4029858278	0.4729685344	
656.875	0.5835764305	0.2142711633	
657.5	-0.3652909499	0.1034480314	
658.125	0.5646332728	0.6079241922	
658.75	0.6805523919	-0.08638046683	
659.375	0.4416139314	-0.07979358787	
660.0	0.98554704	-0.8793960271	
660.625	-0.207627996	-0.6995293607	
661.25	0.6092539639	-0.3229629825	
661.875	0.7492007262	-0.9145336768	
662.5	0.02776679028	-0.7277944319	
663.125	0.6920481614	0.1915264021	
663.75	0.3818298773	-1.219411094	
664.375	-0.2767058439	-0.2809507714	
665.0	-0.438374983	-0.8702273998	
665.625	-0.7439659246	0.689774954	
666.25	-0.291350132	0.175437522	
666.875	0.2700324801	0.7864597098	
667.5	0.5707250644	-0.05673060688	
668.125	0.1398004927	0.1340030689	
668.75	0.8105021174	-0.3236139437	
669.375	-0.04944747151	-0.630121959	
670.0	0.03711297935	-0.304848681	
670.625	0.1690372239	-0.5674112768	
671.25	-0.1843064509	-0.4353234401	
671.875	0.529053842	-0.2500539187	
672.5	0.4378189099	-0.5546796333	
673.125	0.2077840302	-0.3652812431	
673.75	0.5899730908	-0.1742929174	
674.375	0.08532498675	-1.160388451	
675.0	-0.4874590921	0.05908752721	
675.625	-0.09236684254	-0.7752044216	
676.25	-0.8481448985	0.1715083968	
676.875	0.2028269046	-0.00118488142	
677.5	-0.9554259879	0.1051174864	
678.125	0.2384262711	0.2056453624	
678.75	-0.3550749185	0.5502112977	
679.375	1.014320562	0.1329695713	
680.0	-0.1631884611	-0.3300927444	
680.625	0.3702939721	0.1537759981	
681.25	0.3645599028	-0.3088499253	
681.875	0.1270442044	-0.07607795066	
682.5	0.2829675206	0.4417827751	
683.125	0.8842939572	0.1486782739	
683.75	0.4205881151	-0.03709921129	
684.375	0.4941049997	0.3979214865	
685.0	1.095307351	-0.1929288796	
685.625	0.05496802287	0.1045802108	
686.25	1.331810404	0.05490608827	
686.875	0.1635483283	-0.9979406733	
687.5	0.6726613812	0.1412373663	
688.125	0.007137434942	-1.947619414	
688.75	-0.8748838246	0.4724710484	
689.375	-1.240729596	0.1237522336	
690.0	0.8025217266	1.044330309	
690.625	0.09851228134	0.2087569073	
691.25	1.147470036	1.093296068	
691.875	0.7806399022	0.193719585	
692.5	1.216289284	0.6908564625	
693.125	1.685395556	-0.04876509708	
693.75	1.111232096	-0.6661950329	
694.375	0.959809444	-0.9390160337	
695.0	0.7078630253	-0.6001467508	
695.625	1.584576545	-0.08576669087	
696.25	1.006272819	-0.1778973806	
696.875	0.50591447	1.272546243	
697.5	1.816411034	0.8704064778	
698.125	0.6925859455	0.3881045944	
698.75	1.621534104	-1.207376927	
699.375	-1.525028851	-0.3613894172	
700.0	-0.9057481311	-0.06586395392	
700.625	0.8007085903	1.129228668	
701.25	0.219226161	0.06131980122	
701.875	0.7084125409	1.020666705	
702.5	0.6395336234	-0.08099329892	
703.125	0.8320715575	0.6283362307	
703.75	1.050971966	-0.5243339692	
704.375	0.2697783716	-0.06022455838	
705.0	0.9983473156	-0.5643389635	
705.625	0.1059457915	-0.2579681787	
706.25	0.543255303	1.00970738	
706.875	1.18865656	0.2172830151	
707.5	0.178333779	0.7179389439	
708.125	1.570701816	0.3388540038	
708.75	0.1360557292	-0.93973936	
709.375	-0.363708547	-0.9003573707	
710.0	-0.475801325	0.9544025472	
710.625	0.006059417787	0.07021391337	
711.25	0.3862126675	0.4440698764	
711.875	0.4626444042	0.1776410263	
712.5	0.7308795948	-0.05016540605	
713.125	0.4139631643	-0.3212924117	
713.75	0.6012535604	-0.6009368107	
714.375	-0.3230666743	-0.6641013141	
715.0	0.3493911312	-0.1498998554	
715.625	-0.305390911	-1.052064352	
716.25	0.07010810997	0.02727078571	
716.875	1.629547305	-0.3352093281	
717.5	0.8736653244	-1.446183036	
718.125	0.7624659536	1.597468203	
718.75	3.338432121	-1.385322223	
719.375	0.2770335675	-1.583199525	
720.0	2.531804206	-0.7321075347	
720.625	-0.08800601937	-4.134029872	
721.25	-0.2253140547	-1.042019436	
721.875	-0.436732995	-2.949043956	
722.5	-2.554784034	-1.567707244	
723.125	-1.000323205	-0.1916062937	
723.75	-1.590740384	1.241236698	
724.375	0.5746407374	1.008608983	
725.0	0.2680755145	0.6275820385	
725.625	0.03021610611	1.128180028	
726.25	0.5910646412	2.367062028	
726.875	0.5430469865	0.8451970621	
727.5	-1.72678579	3.91519711	
728.125	2.372266258	5.899068451	
728.75	-0.1386339415	1.457735939	
729.375	-6.719353305	17.5412443	
730.0	8.17917937	4.850773173	
730.625	-6.904545939	4.54590896	
731.25	-5.181028203	19.63753992	
731.875	3.984225057	8.134897204	
732.5	-9.07549148	-3.265447566	
733.125	-7.666426997	3.275640008	
733.75	-0.3967437797	3.932322849	
734.375	0.7768198555	2.027686843	
735.0	-1.140312857	-2.227056653	
735.625	-0.4098090093	-0.1090540109	
736.25	-0.7706147475	1.552910095	
736.875	2.07131044	1.320565151	
737.5	1.368612741	-0.8954815234	
738.125	3.446446621	1.66211039	
738.75	7.079174264	-5.80417684	
739.375	0.04479959937	-8.425725418	
740.0	5.435983352	8.060614094	
740.625	24.10396659	-7.158947252	
741.25	-13.54829064	-2.288037783	
741.875	-21.05125411	9.355787668	
742.5	-2.058422916	7.851495241	
743.125	10.28229561	-6.502618374	
743.75	-2.191691911	-5.714799571	
744.375	-0.5175909493	0.7620070634	
745.0	-0.2728646211	0.093987477	
745.625	0.3950873256	-0.2953424084	
746.25	0.194324146	-0.05537621058	
746.875	-0.6948299368	0.4211077961	
747.5	0.1039800765	0.7359181338	
748.125	0.1065171179	1.100721077	
748.75	0.7886523581	2.079413969	
749.375	0.4406891463	0.4676146098	
750.0	-0.8558998246	0.05683680063	
