!Created with skrf (http://scikit-rf.org).
# GHz S RI R (50+0j) 
!freq	ReS11	ImS11	
500.0	-2.863694229	-4.124694341	
500.625	1.099987109	-1.723872334	
501.25	-1.423577748	-3.030550738	
501.875	-1.847464785	-1.140260474	
502.5	-0.1620465258	-0.04818734747	
503.125	-0.2938191527	-0.08023727108	
503.75	0.3383249426	0.1950635109	
504.375	0.04628015296	0.1123608058	
505.0	-0.02268239054	-0.2230659483	
505.625	0.2067394206	0.0258597104	
506.25	-0.7039028451	-0.3021195557	
506.875	0.6848641428	-0.453017845	
507.5	-0.264159685	-2.043663616	
508.125	-1.278592874	-2.238375087	
508.75	1.429732297	-0.7404641002	
509.375	-0.8933727193	-6.140667525	
510.0	-1.224003207	0.344671038	
510.625	-0.4297169982	-0.605049041	
511.25	-0.4005325717	0.09688347223	
511.875	-0.2973375841	-0.2067942013	
512.5	-0.06803679542	0.2030998791	
513.125	-0.06844260716	-0.2984303834	
513.75	-0.1059935931	0.07461071905	
514.375	-0.185664854	-0.417663716	
515.0	-0.7465715745	1.524309484	
515.625	0.7595317573	-3.149172845	
516.25	-2.611149436	0.0277298598	
516.875	0.9897570871	-1.234762882	
517.5	-0.8312189836	-1.103894838	
518.125	0.362340543	0.08236275913	
518.75	-0.6261217444	-0.9149961168	
519.375	-0.03213632805	0.1151195573	
520.0	0.2262906673	0.3140297775	
520.625	0.5557979245	-0.3670348202	
521.25	-0.2019729903	-0.3994043473	
521.875	-0.3812570957	-0.3341894734	
522.5	-0.00298379605	0.2486284787	
523.125	-0.3960016264	-0.03865441632	
523.75	-0.09036018584	0.1713349839	
524.375	-0.6132290983	-0.1354233328	
525.0	0.3562009435	0.3018236524	
525.625	-0.1635845579	0.1271552498	
526.25	0.2105779742	-0.1055910393	
526.875	-0.3687530257	0.226102414	
527.5	0.2606671594	0.5237383654	
528.125	-0.2337520055	0.4901299223	
528.75	0.1889752999	1.123469994	
529.375	0.0182907903	-0.1199943825	
530.0	0.4916521167	0.6666854652	
530.625	-0.0966628948	0.5419064854	
531.25	1.864114196	0.2773643254	
531.875	-0.1134607368	-0.3280049024	
532.5	0.1802090006	-0.7152542163	
533.125	-0.3143703906	0.485944823	
533.75	0.4637309826	-1.087048003	
534.375	-0.5167576132	-0.1802597299	
535.0	-0.5153079641	-0.6436274789	
535.625	-0.3030786193	0.7363998691	
536.25	-0.05571963336	0.09094823987	
536.875	0.3013706844	0.1361967154	
537.5	0.125224139	-0.2159297795	
538.125	0.2493170188	0.05467541485	
538.75	0.3605815252	-0.4867497027	
539.375	-0.1243789322	-0.21590121	
540.0	-0.3375884673	-0.5399294879	
540.625	-0.4779603313	0.1667793669	
541.25	-0.06548418021	-0.07765979833	
541.875	-0.1658264338	-0.0832719981	
542.5	-0.1974776741	-0.04738590062	
543.125	0.002276907613	-0.0810175642	
543.75	-0.4207436015	-0.09596046564	
544.375	0.1675067403	0.1227600716	
545.0	-0.2096177799	0.2414527633	
545.625	0.3009295542	-0.05724310424	
546.25	0.00595026928	0.3026624227	
546.875	0.4551799968	-0.332532341	
547.5	0.04460881272	-0.03454211795	
548.125	0.07738317043	-0.5294130606	
548.75	-0.4834824886	-0.2421066574	
549.375	-0.1187009533	-0.03056401564	
550.0	-0.2954229469	-0.1073577296	
550.625	-0.01219192711	0.1153891697	
551.25	-0.280630579	-0.03261181332	
551.875	-0.07370468821	0.2814506682	
552.5	-0.1406708362	0.07733263891	
553.125	-0.02355534759	0.2177984372	
553.75	0.1081713971	0.08199135936	
554.375	0.217197066	0.02186326382	
555.0	0.245119626	-0.1855192234	
555.625	0.1747125572	-0.2527522821	
556.25	0.1604306993	-0.3296835776	
556.875	-0.09500296242	-0.3969535222	
557.5	-0.2392916393	-0.2279690841	
558.125	-0.2581025131	-0.09698030924	
558.75	-0.2726620109	-0.0120403357	
559.375	-0.2348936838	0.08219849263	
560.0	-0.2147013953	0.1246570507	
560.625	-0.1539332106	0.2973392495	
561.25	0.1001632925	0.2175087912	
561.875	-0.03107175918	0.09963796573	
562.5	0.1466715187	0.1092419381	
563.125	0.04682857632	0.2192787956	
563.75	0.4366160717	-0.0755268766	
564.375	0.1205595873	-0.1548151088	
565.0	0.3470336849	-0.3379602556	
565.625	-0.2315908369	-0.3919522587	
566.25	-0.1844207315	-0.13212928	
566.875	-0.2596755193	-0.3066977617	
567.5	-0.5125105355	-0.2421380567	
568.125	-0.1743347337	-0.1639425239	
568.75	-0.6435096772	-0.415715845	
569.375	-0.4298449192	0.4462042925	
570.0	-0.3607408675	0.2044750345	
570.625	-0.1870182181	0.7101854274	
571.25	0.1572838263	-0.003282464065	
571.875	0.0129654061	0.507835087	
572.5	0.3042312224	-0.3931830831	
573.125	0.1465594515	0.08180188945	
573.75	0.3744203107	-0.4521612656	
574.375	-0.274319618	-0.1568782122	
575.0	0.3612780716	0.0113091849	
575.625	-0.1920877906	-0.30862006	
576.25	0.2907399744	0.04885491556	
576.875	-0.01854673261	-0.6174933581	
577.5	-0.2668706848	-0.2495666974	
578.125	0.1419072425	-0.2356150339	
578.75	-0.19936704	-0.5145549696	
579.375	-0.3875075053	0.008333339735	
580.0	0.12866786	-0.08821584492	
580.625	-0.4341981625	-0.03907219687	
581.25	0.04039434577	0.05272565005	
581.875	-0.3128535109	0.4427172969	
582.5	0.4403585054	0.4639371011	
583.125	0.02619401646	-0.1981661771	
583.75	0.07309963199	0.5161268296	
584.375	0.0701826081	-0.3798790183	
585.0	0.1661010711	0.554594317	
585.625	0.5275566393	-0.2939952468	
586.25	0.02678636234	0.02062575126	
586.875	0.4627612747	-0.4636662739	
587.5	-0.3254257182	-0.1721072484	
588.125	0.2359207315	-0.2347697293	
588.75	0.1191155054	-0.6127903039	
589.375	-0.1303514289	-0.2567996707	
590.0	0.1632473591	-0.4161848421	
590.625	-0.5889820903	-0.1642622657	
591.25	-0.174570545	0.3405765347	
591.875	-0.1328348212	0.08464589757	
592.5	0.01491898735	0.310658011	
593.125	-0.2089563828	-0.04794953984	
593.75	0.2721134761	0.3241095256	
594.375	0.2486278371	0.07459808767	
595.0	0.1638707832	0.4627922096	
595.625	0.8432957161	0.258454442	
596.25	-0.0398765318	-0.1876172433	
596.875	0.4742576202	0.4950284639	
597.5	0.5542969467	-0.03349386327	
598.125	0.01502360334	0.3172588745	
598.75	0.7178028007	0.2122468975	
599.375	0.197810562	-0.08592276509	
600.0	0.644774497	-0.1942525345	
600.625	0.2159764936	-0.6464145022	
601.25	0.05689117496	-0.2086288384	
601.875	-0.01789812214	-0.4598230539	
602.5	-0.3531397745	0.03135832604	
603.125	-0.2785354368	0.1493709503	
603.75	-0.125927043	0.05879498368	
604.375	-0.4376281991	0.1349420387	
605.0	0.08307973633	0.2731329378	
605.625	-0.3948674843	-0.05081820473	
606.25	-0.1359550353	0.3758954689	
606.875	-0.3117687809	-0.1074152077	
607.5	-0.6491791838	0.7534081338	
608.125	0.1903048702	0.1981507201	
608.75	0.137770362	0.7205520244	
609.375	0.7328049448	-0.4803783964	
610.0	0.1830838678	0.06053130864	
610.625	0.3852954626	-0.5954317736	
611.25	-0.1778192687	-0.1566351617	
611.875	-0.01122686491	-0.5678802932	
612.5	-0.4065237792	0.207427812	
613.125	-0.3748914458	-0.2229561844	
613.75	-0.2694195602	0.575964053	
614.375	0.03452722693	-0.1202905599	
615.0	0.2962920581	0.3992537956	
615.625	-0.1112055341	-0.145987062	
616.25	-0.3008601181	0.6032146623	
616.875	0.225619313	0.3485974024	
617.5	-0.4946142761	0.3717427738	
618.125	0.1494340993	0.7269712191	
618.75	0.0643364641	0.1633556755	
619.375	0.156975936	0.6079257649	
620.0	0.4010636875	-0.06756250423	
620.625	0.3652007555	-0.260367567	
621.25	-0.3330657082	-0.3740495594	
621.875	-0.3131257705	-0.2870607497	
622.5	-0.610056515	0.2906573249	
623.125	-0.05922606181	0.2143027243	
623.75	0.3779459391	0.2864893788	
624.375	-0.1652998285	-0.2385791221	
625.0	0.4736677454	0.01649746368	
625.625	-0.3586760265	-0.1892917313	
626.25	0.2887443763	-0.314199806	
626.875	-0.6112752936	-0.2920869181	
627.5	-0.1830681699	0.1420246969	
628.125	-0.1148427109	-0.3997219763	
628.75	-0.3984855674	-0.1615174746	
629.375	0.0127048969	-0.3251310287	
630.0	-0.5821411096	-0.3234212451	
630.625	-0.2815978686	0.2954905077	
631.25	-0.4732486631	0.2296875636	
631.875	-0.03605957722	0.7452819642	
632.5	0.3774941139	0.3526021013	
633.125	0.4152918089	0.02513181254	
633.75	0.3748329872	0.07117088167	
634.375	0.03033714152	-0.6085219607	
635.0	0.1177575982	-0.0740452357	
635.625	-0.5080629781	-0.397260606	
636.25	-0.1056725762	0.3537038788	
636.875	-0.4988436943	0.08800516624	
637.5	0.1815881043	0.4602641963	
638.125	-0.2160286077	-0.1735330766	
638.75	-0.3909201825	0.7794902256	
639.375	0.4893748826	0.3556012345	
640.0	-0.08588320744	0.3985147186	
640.625	0.6839426967	0.6122987529	
641.25	0.662874216	-0.3723466325	
641.875	0.3064131433	-0.04487937073	
642.5	-0.1766035149	-0.9605370709	
643.125	-0.07557085684	0.05701897975	
643.75	-0.3560506458	-0.5532655651	
644.375	-0.4655958231	0.422854834	
645.0	-0.1043848726	-0.0297275335	
645.625	-0.1401180893	0.7376997136	
646.25	0.6987205954	0.1242692503	
646.875	-0.07650565735	-0.2447707514	
647.5	0.3712764878	0.4853600766	
648.125	0.06641620753	-0.4474510809	
648.75	0.8385306106	0.4452729207	
649.375	0.4725375791	-1.122098746	
650.0	-0.09793982233	-0.2270631001	
650.625	1.114735636	-0.5008355633	
651.25	0.03620282042	-1.353895858	
651.875	0.06806506558	0.1722350952	
652.5	1.214772418	-0.04071823513	
653.125	0.4203688518	-0.7769866799	
653.75	0.2796986733	0.005617806178	
654.375	-0.2370365915	-1.180531204	
655.0	-0.6269679381	0.2541126833	
655.625	-0.3606152703	-0.07504345223	
656.25	-0.01437069516	0.9093797281	
656.875	0.3115460658	-0.3534213305	
657.5	-0.1112365554	0.5784969323	
658.125	0.5936182379	0.2865644071	
658.75	0.4822862522	-0.08211554435	
659.375	0.8226452524	0.1364283694	
660.0	0.4382872449	-1.201338571	
660.625	0.1117928133	-0.3549601249	
661.25	0.7118854002	-0.6614338807	
661.875	0.220405395	-1.10760035	
662.5	0.1925456206	0.08572220548	
663.125	1.196398506	-0.4976850452	
663.75	-0.1358293165	-0.8967725432	
664.375	0.1585407203	-0.3498707284	
665.0	-0.8200153827	-0.8010772502	
665.625	-0.337069892	0.5026262861	
666.25	-0.5639329086	0.4600560128	
666.875	0.5820572399	0.5953493406	
667.5	0.1472146718	-0.04975282588	
668.125	0.7061557276	0.3044746773	
668.75	0.3879894454	-0.6629440552	
669.375	0.03653962037	-0.3267011642	
670.0	0.1905130503	-0.4031555465	
670.625	0.01293958438	-0.6877027548	
671.25	-0.1354520454	-0.1563452268	
671.875	0.5372960022	-0.4250681237	
672.5	0.3311865904	-0.5676260973	
673.125	0.3145334013	-0.1193634754	
673.75	0.6648387878	-0.7637483106	
674.375	-0.410370795	-0.5436104486	
675.0	0.2492531245	-0.2418972967	
675.625	-0.6948474227	-0.7019436403	
676.25	-0.479500484	0.5150992121	
676.875	-0.09220813672	-0.4613498147	
677.5	-0.6029074764	0.5609707296	
678.125	-0.1001266126	-0.03949352495	
678.75	-0.1627544809	0.8942061604	
679.375	0.6470016523	-0.392115857	
680.0	0.1904472432	0.1846068572	
680.625	0.4574044641	-0.2688911983	
681.25	-0.003910113067	-0.3702902131	
681.875	0.05691061952	0.4454910405	
682.5	0.7779196071	0.2893045156	
683.125	0.551009654	-0.07602531286	
683.75	0.3292520237	0.05320415546	
684.375	0.8688636799	0.489239359	
685.0	0.6142659017	-0.5927032585	
685.625	0.5252858119	0.5656633618	
686.25	1.135279117	-0.5289696151	
686.875	-0.1208937104	-0.2733742295	
687.5	1.505190419	-0.4475152826	
688.125	-1.204256414	-1.411284961	
688.75	0.01307772229	-0.3391796938	
689.375	-1.325181434	1.040638821	
690.0	0.7571575575	0.4811211858	
690.625	-0.04633301042	0.929698384	
691.25	1.278653055	0.2407061006	
691.875	0.587279547	0.6308608129	
692.5	1.565310582	0.6894871319	
693.125	1.512645748	-0.4293415383	
693.75	1.17961337	-0.3574907372	
694.375	0.9263050268	-1.064540707	
695.0	0.9558841233	-0.4213594974	
695.625	1.466701002	-0.6392981184	
696.25	0.5842772734	0.09620724593	
696.875	1.242474399	1.596160439	
697.5	1.276263385	0.09610050929	
698.125	0.9993878843	1.077479667	
698.75	1.094393997	-1.843496082	
699.375	-0.4881202575	-0.01371983151	
700.0	-1.48158256	0.8563719466	
700.625	0.9179788775	0.3788199043	
701.25	-0.07035404197	0.660843695	
701.875	1.267664708	0.4047934515	
702.5	0.2790985653	0.4153697196	
703.125	1.30831893	0.5150517497	
703.75	0.5334303463	-0.6703872369	
704.375	0.9313795561	0.04448110645	
705.0	0.4628509069	-0.8557752298	
705.625	0.1491003337	0.3023420669	
706.25	1.384751956	0.6616133131	
706.875	0.2597163785	-0.05302534398	
707.5	0.5250572301	1.267816118	
708.125	1.480151552	-0.2154020273	
708.75	0.4522990051	-0.5010764854	
709.375	-0.8066326559	-0.9971519615	
710.0	-0.08049388598	0.7212374761	
710.625	-0.07952745294	0.3994201458	
711.25	0.4332926001	0.2203715651	
711.875	0.3262126733	0.2226968982	
712.5	0.8047709674	-0.03520550246	
713.125	0.5425138439	-0.3062739482	
713.75	0.3826016486	-0.8605768109	
714.375	-0.2951183821	-0.1813139943	
715.0	0.4374339086	-0.8420794876	
715.625	-0.6025842114	-0.3988351756	
716.25	0.7286846546	0.046675942	
716.875	1.376291091	-1.332210879	
717.5	-0.2865035381	-0.1100947207	
718.125	2.925272031	0.9774238667	
718.75	1.942329151	-2.167286311	
719.375	0.5295279703	0.9059098325	
720.0	2.519879102	-4.273978528	
720.625	-1.216260083	-1.777194427	
721.25	0.4658216642	-2.133883578	
721.875	-0.8358603986	-3.284196764	
722.5	-1.908874602	-0.6780929188	
723.125	-1.717826594	-1.051354573	
723.75	-0.8375356452	1.641316432	
724.375	0.329852344	0.6795741259	
725.0	0.1859881114	0.8234267988	
725.625	0.5491797217	1.562610072	
726.25	1.044415455	1.080757077	
726.875	-1.042019492	1.520386	
727.5	-0.3965010179	5.19794385	
728.125	3.392869135	3.682791579	
728.75	-7.168920329	4.461072939	
729.375	5.868523093	17.33697928	
730.0	2.899337676	1.026754598	
730.625	-5.587896384	15.02556368	
731.25	12.3950218	13.94407929	
731.875	-6.922710965	-2.28078188	
732.5	-12.12771332	4.265145811	
733.125	-6.197485785	4.125691476	
733.75	-0.1088346363	1.671050324	
734.375	3.1394437	2.352229193	
735.0	-0.9459169362	-0.8177751765	
735.625	-0.8615607732	-0.2525494598	
736.25	-0.1009080647	2.390494618	
736.875	1.105610788	-0.2060788437	
737.5	1.95418813	1.943721582	
738.125	5.343653956	-1.24219356	
738.75	3.851987234	-6.686295455	
739.375	-1.687358795	-0.5307083411	
740.0	27.42747464	5.745262063	
740.625	8.776605857	-15.80204612	
741.25	-13.74451192	14.58592855	
741.875	4.436717434	30.50334532	
742.5	11.34959007	1.926328525	
743.125	0.03512937644	-13.58914786	
743.75	-2.855764586	-1.260086563	
744.375	0.1448375753	-0.3807461382	
745.0	-0.1465167858	0.7946925128	
745.625	-0.2284431659	-0.2507915271	
746.25	0.2264650733	-0.4686263593	
746.875	-0.4744005109	0.1683230353	
747.5	-0.1734168764	0.6664235817	
748.125	-0.05572864161	1.795627373	
748.75	0.817600535	0.816373705	
749.375	0.24866947	1.100521099	
750.0	0.04661117264	-1.551073288	
