!Created with skrf (http://scikit-rf.org).
# GHz S MA R 50.0 
!freq magS11 angS11
500.0 0.0173218077924 173.155255264
500.625 0.00438978168542 83.2339859809
501.25 0.00848905967016 -110.43562547
501.875 0.0437677813219 -171.843410356
502.5 0.0399725567132 170.298624643
503.125 0.0177717698732 94.3904177161
503.75 0.0135936860903 -21.8755627323
504.375 0.00360372055357 -47.0188185844
505.0 0.00746661308864 -20.2780808144
505.625 0.0267279995521 -70.8419056337
506.25 0.0560914199789 -102.518737034
506.875 0.0583179070515 -112.133052986
507.5 0.0493624603233 -111.949527927
508.125 0.058569864719 -83.9754798536
508.75 0.0629618587037 -136.160311728
509.375 0.0472102434472 -146.947371229
510.0 0.0442938064831 -127.156625217
510.625 0.0350000520176 -156.585842176
511.25 0.0636908038924 -170.218778951
511.875 0.0517757056768 140.867149762
512.5 0.0364225138695 103.748471343
513.125 0.0494720147053 45.4637830816
513.75 0.0472556147622 32.1554111377
514.375 0.0355440104504 9.05817379098
515.0 0.0397147398387 -4.39209077122
515.625 0.111718803694 52.3144505197
516.25 0.0678869655069 21.578738954
516.875 0.10344254722 68.1629900088
517.5 0.130043503726 21.4931922437
518.125 0.224707968446 73.6936835033
518.75 0.0775783773715 4.02560741871
519.375 0.0625193135602 19.6499535604
520.0 0.0944752501701 -1.50322061262
520.625 0.118151596825 -1.12828216955
521.25 0.0739180689705 -34.4557616227
521.875 0.0631780387271 -0.641405110796
522.5 0.0905654624187 -36.9085711276
523.125 0.199968917474 -32.0901819363
523.75 0.202473259227 -62.5461094026
524.375 0.19918980702 -54.1525020019
525.0 0.0677910229356 -53.767387952
525.625 0.0438966241554 -24.1194498902
526.25 0.0421498058933 -11.9415789552
526.875 0.0549770698077 -16.7889627591
527.5 0.046609298673 -28.5412952636
528.125 0.0497718422981 -55.5676819546
528.75 0.0443614971855 -83.0631139041
529.375 0.0819095085501 -112.02312036
530.0 0.0508314909547 -128.498312649
530.625 0.0361767108126 -138.601931635
531.25 0.12067039169 -136.21742404
531.875 0.179439360658 -146.551272346
532.5 0.139382508768 -170.060113913
533.125 0.112239891908 175.525801697
533.75 0.104425028593 164.823298465
534.375 0.106028069206 179.302135466
535.0 0.0821978228425 159.780537654
535.625 0.0756492727618 177.933644384
536.25 0.0566165698632 163.45258102
536.875 0.0896684247857 -160.97785012
537.5 0.101587960921 -144.410737847
538.125 0.0995696472892 -174.146519269
538.75 0.101034347776 178.901659304
539.375 0.0838363797366 -163.257424457
540.0 0.092907195914 -154.540109369
540.625 0.133205528436 -156.63135559
541.25 0.126360800986 -142.013823393
541.875 0.10040624964 -145.120409539
542.5 0.114456980264 -143.724956953
543.125 0.147840832542 -167.83733054
543.75 0.12875464585 159.35239393
544.375 0.0922360713279 135.437712228
545.0 0.0812577311504 90.5498369341
545.625 0.112408466136 82.0972856495
546.25 0.0739751001901 66.4886319283
546.875 0.0834584800075 54.9394646136
547.5 0.111290086471 59.0923329062
548.125 0.121362414024 77.2688325958
548.75 0.0900586845617 89.6966722208
549.375 0.0959358774489 88.3700566783
550.0 0.082145437536 126.290697002
550.625 0.0593329182042 152.797919296
551.25 0.0304447815487 -118.301198593
551.875 0.0621101449265 -156.031604402
552.5 0.10852999748 -162.909563586
553.125 0.0979363365238 -171.472933264
553.75 0.0893011036237 -168.613802669
554.375 0.102597000801 171.425087574
555.0 0.123429749485 164.820843399
555.625 0.10411425516 155.614653712
556.25 0.0920103508367 165.379768
556.875 0.115998824771 166.571454007
557.5 0.120075781306 165.59176676
558.125 0.0984198956578 164.124523667
558.75 0.0661135951906 179.687931497
559.375 0.0583232588842 -169.557860569
560.0 0.0444604649023 -146.772882954
560.625 0.0616982489505 -146.289636221
561.25 0.0784613430499 -140.712163438
561.875 0.0967503833466 -157.863118722
562.5 0.0883166179749 173.731729272
563.125 0.110893078892 142.218394631
563.75 0.120366180602 132.345906017
564.375 0.101159282796 122.112471595
565.0 0.0866593224642 120.453626232
565.625 0.0902606993367 114.045827187
566.25 0.0764015833372 161.948663774
566.875 0.0723124277257 -177.959072143
567.5 0.0744140985341 179.357447677
568.125 0.0842811462723 -173.150486878
568.75 0.0752410123563 -151.408963074
569.375 0.0497132685105 -110.710725428
570.0 0.0624222272166 -114.544436012
570.625 0.0949744450761 -122.122990236
571.25 0.0835016307505 -111.547995103
571.875 0.0879815390707 -128.009201943
572.5 0.112743367979 -158.153510928
573.125 0.143226215098 -176.122340822
573.75 0.109411456852 159.724499714
574.375 0.0811982874147 150.307535415
575.0 0.0963331867103 155.369740473
575.625 0.11456191994 150.571906573
576.25 0.0780490560999 152.22057986
576.875 0.0790100837489 132.874193332
577.5 0.0761207202723 140.835967165
578.125 0.0648096604299 153.857067284
578.75 0.0430452717146 175.71135788
579.375 0.0538022553107 165.527049447
580.0 0.0697616301115 176.120384709
580.625 0.0783687165089 -153.707042224
581.25 0.0917009184631 -161.33058792
581.875 0.114961625438 -176.802932911
582.5 0.120599239339 -177.087448674
583.125 0.0936533019253 -168.758437535
583.75 0.084314850344 -172.772442544
584.375 0.101999212783 -156.821886747
585.0 0.0897774157392 -137.283194907
585.625 0.0724404840074 -145.648533011
586.25 0.0721157255751 -144.01484604
586.875 0.0827432410125 -136.396703024
587.5 0.0751568875942 -147.735041815
588.125 0.0589421920592 -172.858906532
588.75 0.0683289796677 -174.719435973
589.375 0.0831722158864 -152.388168672
590.0 0.0939695733919 -161.633046578
590.625 0.106516760993 165.432108429
591.25 0.123341127126 147.455663412
591.875 0.0855263519119 169.582800356
592.5 0.0611687999267 154.752847724
593.125 0.0600453750342 151.905388843
593.75 0.0730956088712 161.471229589
594.375 0.0567680668795 -145.266489966
595.0 0.0455818061634 -115.738782666
595.625 0.059824254055 -97.3106089608
596.25 0.0699247701712 -97.4708785979
596.875 0.0733849137147 -56.6885170584
597.5 0.0624850451522 -53.9780836692
598.125 0.0687786416584 -59.9343511789
598.75 0.0798302361976 -57.8700569132
599.375 0.0887820437497 -64.4766861852
600.0 0.0996858833811 -70.8846631737
600.625 0.102245325593 -64.6865450262
601.25 0.0850412799787 -83.2200365695
601.875 0.0671267258494 -84.1636970211
602.5 0.0671263420405 -68.4325273316
603.125 0.0449469817932 -50.4711218873
603.75 0.0259439378539 -62.5223259852
604.375 0.0433406173884 -17.3802778532
605.0 0.0624748755836 -16.7331933308
605.625 0.0499899575686 -19.5214258159
606.25 0.0286143786154 14.4677077907
606.875 0.0306897369551 46.5021161042
607.5 0.0668477643573 44.0961758012
608.125 0.0639910526277 24.6384816468
608.75 0.0472427337507 11.1754409749
609.375 0.0743622383114 36.3043917799
610.0 0.0760177362913 44.5246007807
610.625 0.0577829959773 27.2657458702
611.25 0.0516459865254 31.8455530581
611.875 0.0366692965605 48.4071143631
612.5 0.0235665469374 96.0302900925
613.125 0.0425234221644 124.07381083
613.75 0.0491565724169 124.697739294
614.375 0.0236569966176 115.525893584
615.0 0.0597812865636 128.210960701
615.625 0.0477883267718 132.070563826
616.25 0.0517438439162 142.461097706
616.875 0.0266914019243 129.995513026
617.5 0.0583691746564 130.167516443
618.125 0.0451147607652 132.961950176
618.75 0.0454466600954 151.085198866
619.375 0.0020760157313 7.13845175272
620.0 0.0142196047581 140.488436399
620.625 0.012544033141 -122.593349673
621.25 0.0400833683184 -104.295064471
621.875 0.0659099052369 -92.2357440919
622.5 0.0887352289136 179.628541418
623.125 0.079115801456 163.474340024
623.75 0.0741534334741 165.895849892
624.375 0.0312234906154 -149.764939177
625.0 0.0554716810367 -152.763719804
625.625 0.0435993774405 -158.785064841
626.25 0.00900771082895 155.019718096
626.875 0.00712267340761 38.4742653936
627.5 0.0283092088046 -26.3413887715
628.125 0.0387447074086 -30.5617781482
628.75 0.0314095931498 -10.6264205352
629.375 0.0425242519235 -9.69743479823
630.0 0.0804652848237 8.2472360088
630.625 0.0703492181212 6.8935071617
631.25 0.0738501468208 -1.13654384752
631.875 0.0652381601559 -2.63748937247
632.5 0.0633729164879 -5.03874927473
633.125 0.0477563720667 0.566638300112
633.75 0.040276132137 -18.3419916467
634.375 0.0430759331575 8.65947865988
635.0 0.0502735203406 41.0234490958
635.625 0.0307676288409 13.7938277425
636.25 0.0478119974742 37.268200091
636.875 0.0728005240771 46.6130331467
637.5 0.0412387962698 41.6789138482
638.125 0.0520558977143 72.3569031744
638.75 0.0723990036504 74.8200594497
639.375 0.0819387688858 85.1447805386
640.0 0.0692589819277 103.037841614
640.625 0.064052546173 111.699482295
641.25 0.0507648677607 91.9263366977
641.875 0.0597812852627 147.987485708
642.5 0.0588337381529 162.942265125
643.125 0.0577687783841 153.346062405
643.75 0.0642975107655 171.980156154
644.375 0.0771904762504 -169.65438628
645.0 0.0755599656151 179.934109126
645.625 0.104315144054 170.127720337
646.25 0.0857936849562 157.273005843
646.875 0.0572725978473 168.162892362
647.5 0.0598775537142 178.712003713
648.125 0.100493950854 -173.801018244
648.75 0.062013477007 178.21562739
649.375 0.0431814404486 -154.904761375
650.0 0.0399893065573 -127.336664089
650.625 0.0738009421021 -88.8279474934
651.25 0.0587373085835 -66.9305461002
651.875 0.0618572335851 -41.7198478896
652.5 0.100881141982 -24.261706025
653.125 0.121180101667 -0.909059499553
653.75 0.0918794875455 1.43462523858
654.375 0.0984566184294 4.74278453613
655.0 0.111944920232 12.9659401182
655.625 0.111106064137 29.1074391944
656.25 0.0511637438236 12.7328911032
656.875 0.0639191912713 6.81134308079
657.5 0.0927225814739 23.871631403
658.125 0.0668021413656 48.5618701341
658.75 0.067426674588 60.3316551795
659.375 0.0799486942459 41.2985799469
660.0 0.10163763019 27.5246745345
660.625 0.111930681208 18.9196072303
661.25 0.118715557242 3.2574881422
661.875 0.0957316873244 -15.2846523492
662.5 0.121301268963 -20.3212962046
663.125 0.11098679542 -15.2943140279
663.75 0.111566647683 4.56526540546
664.375 0.0950644346378 52.9528814113
665.0 0.0723280058564 86.9032472008
665.625 0.0752414758084 109.505357317
666.25 0.060785325246 138.312017414
666.875 0.0993523465901 173.177829595
667.5 0.0905398786194 -170.878017149
668.125 0.111826999915 177.40302848
668.75 0.101496504328 169.247368331
669.375 0.123511601541 176.548164798
670.0 0.0818456381147 -173.681475176
670.625 0.0971150064876 -174.237644609
671.25 0.112040266917 172.967550015
671.875 0.103622149055 166.859621116
672.5 0.0830170130623 157.131836583
673.125 0.0878503016315 151.120428592
673.75 0.0884939621259 164.69327747
674.375 0.104894459646 172.7312789
675.0 0.108434772315 -174.220736999
675.625 0.140397294747 -153.653455279
676.25 0.108437575294 -123.351884372
676.875 0.108468545535 -118.962841075
677.5 0.116056853482 -129.507848876
678.125 0.138397972862 -118.048782351
678.75 0.073626456168 -94.0319876742
679.375 0.0531722273593 -76.9335038651
680.0 0.0843146245145 -83.5713209473
680.625 0.120461186926 -75.0001550725
681.25 0.114039756166 -77.3904358439
681.875 0.0927599143794 -86.5729570951
682.5 0.130867165307 -116.373301391
683.125 0.161392811968 -125.415930712
683.75 0.146715678012 -107.739383154
684.375 0.120049236534 -80.0911169545
685.0 0.130287674441 -39.8247113675
685.625 0.135894707281 -4.32275833696
686.25 0.108474789131 21.6739120715
686.875 0.101074586662 41.6807767225
687.5 0.0755211237583 80.3058368682
688.125 0.0852201447379 103.090848056
688.75 0.102722498767 113.700684121
689.375 0.150377577442 114.793452814
690.0 0.12117777722 138.675981493
690.625 0.117430235669 130.68533652
691.25 0.14248082653 98.657666989
691.875 0.203580948545 63.3416993917
692.5 0.114977322326 43.743829271
693.125 0.0869422650024 -14.1789307787
693.75 0.102881403244 -45.1982585151
694.375 0.140264716301 -32.0214809007
695.0 0.139181554617 6.64310242437
695.625 0.0943247420473 63.1471036894
696.25 0.113697106961 118.413061849
696.875 0.130309694214 176.614060299
697.5 0.148627269947 -149.073074239
698.125 0.129500917873 -127.576031119
698.75 0.123198362435 -127.238315748
699.375 0.108274415959 -124.571053462
700.0 0.101606380121 -118.92769362
700.625 0.111083818777 -90.3949622628
701.25 0.0948373038808 -59.2369185209
701.875 0.0823761027656 -59.7193283082
702.5 0.0990995185886 -90.5337676244
703.125 0.16362149695 -109.321873417
703.75 0.183349663753 -153.000500893
704.375 0.121248824712 171.19915618
705.0 0.111944402791 155.338514867
705.625 0.150247790957 -177.392744904
706.25 0.14296198505 -111.355830597
706.875 0.095916530175 -65.7517621336
707.5 0.0779315350305 -36.0873154091
708.125 0.0937133389844 6.96855216919
708.75 0.109953526529 68.2208894828
709.375 0.106370464246 105.398829239
710.0 0.100764975807 132.85545706
710.625 0.107058579951 145.228074156
711.25 0.121273363448 178.351207183
711.875 0.145354592317 161.192881255
712.5 0.15120509725 145.086240902
713.125 0.132193074176 94.1747422174
713.75 0.0970384545986 56.385740635
714.375 0.105557814778 30.2952239785
715.0 0.109466996775 37.4992229781
715.625 0.0850676885959 39.7365058007
716.25 0.078669044166 73.1743519571
716.875 0.11365136427 101.701048442
717.5 0.148400858755 147.151810452
718.125 0.118720882361 170.140601475
718.75 0.0980044709494 161.778449863
719.375 0.128103389355 -154.996247047
720.0 0.131209712482 -127.007995777
720.625 0.108064556493 -74.2076698773
721.25 0.0988187980749 -35.3711891437
721.875 0.082966425593 32.4741110339
722.5 0.0739498819134 67.8119489546
723.125 0.0844797703404 72.5378705948
723.75 0.0964645456355 30.7522316014
724.375 0.130544077327 13.9418636575
725.0 0.105400432649 -32.9164394092
725.625 0.100092345176 -60.8113807419
726.25 0.111530542461 -71.8612447763
726.875 0.103315921419 -49.1724315703
727.5 0.0803139994598 -36.6843051141
728.125 0.0792185731396 -7.51065467786
728.75 0.0951611778098 19.6785946334
729.375 0.0731511818458 3.27465339661
730.0 0.0903835421287 21.2695175798
730.625 0.0700309889413 23.5434148347
731.25 0.071633091112 73.6949260872
731.875 0.0491116352687 98.4609570916
732.5 0.0735483845935 153.883460686
733.125 0.0854984358636 177.458903666
733.75 0.0711931303938 177.476131552
734.375 0.0424884276448 140.815429568
735.0 0.0903776234782 166.31049282
735.625 0.0785258811739 149.829462724
736.25 0.0535456022661 157.993983703
736.875 0.025854632428 -161.937109585
737.5 0.119468253804 178.874659033
738.125 0.0989149448411 -172.65331262
738.75 0.0787947347336 -170.283207603
739.375 0.0224658722259 162.95428097
740.0 0.0435422153055 -146.939764837
740.625 0.0568268067155 -145.600932414
741.25 0.0444201147864 -157.878558164
741.875 0.0443396350693 -113.938912564
742.5 0.0175859108536 54.372359241
743.125 0.0470616468514 55.7876163789
743.75 0.0364608852421 79.316610091
744.375 0.0336862567407 108.494457143
745.0 0.0484658122116 165.470394607
745.625 0.066512696461 115.345297286
746.25 0.0846331852786 73.0183834148
746.875 0.0831155099755 35.4560245334
747.5 0.0250762355664 43.8143911729
748.125 0.0449581156347 -10.6108486218
748.75 0.023355837775 12.5565084506
749.375 0.0275389175857 -34.9955201252
750.0 0.0274346791516 -91.857453584
