!Created with skrf (http://scikit-rf.org).
# GHz S RI R (50+0j) 
!freq	ReS11	ImS11	
500.0	-0.4124016191	-5.64593787	
500.625	-0.4321696713	-1.676543486	
501.25	-0.7903153881	-2.302332672	
501.875	-1.435406284	-2.519597036	
502.5	-0.4835854918	-0.1038554162	
503.125	-0.1917002969	-0.1369428709	
503.75	0.2954171005	0.4141808441	
504.375	-0.02486163895	0.07306258388	
505.0	0.1021072817	-0.2395525221	
505.625	0.06303422484	0.1204947159	
506.25	-0.4733140049	-0.6829897508	
506.875	0.6193032166	0.5019835357	
507.5	0.8708418853	-1.58631929	
508.125	-0.450014409	-3.172209828	
508.75	-0.3954731972	-1.703161182	
509.375	1.23358341	-5.098057196	
510.0	-2.167714337	0.007875222983	
510.625	-0.4190189737	-0.7280699797	
511.25	-0.7883692052	0.01754772991	
511.875	-0.1793135239	-0.1376787822	
512.5	-0.1552425445	0.1318479722	
513.125	-0.01837352745	-0.4556179703	
513.75	-0.3701300541	0.04628407866	
514.375	0.0929808637	-0.4416468521	
515.0	-1.512579438	0.2475957144	
515.625	2.206178461	-2.658603115	
516.25	-3.801725837	-1.9159353	
516.875	0.5855499282	-0.06046741656	
517.5	-0.1769049462	-1.357295053	
518.125	0.1335324316	0.3455008858	
518.75	-0.2571665356	-1.052785147	
519.375	-0.1006024437	0.2507180056	
520.0	0.2006354801	0.1756950089	
520.625	0.7224822624	-0.2578578771	
521.25	-0.3575075493	-0.632771657	
521.875	-0.1691267042	-0.2263242203	
522.5	-0.219628643	0.2144974294	
523.125	-0.272585085	-0.1957651534	
523.75	-0.2489830297	0.1803711186	
524.375	-0.4412789967	-0.2303664203	
525.0	0.2014403671	0.6551635846	
525.625	-0.1159209134	-0.0740344138	
526.25	0.1712347124	0.07372575598	
526.875	-0.3564299776	0.01438209757	
527.5	0.1330925232	0.8600595655	
528.125	0.02826898901	0.3095501539	
528.75	-0.2206533013	1.109963705	
529.375	0.2401089143	-0.0887763856	
530.0	0.1995148118	0.9546070045	
530.625	0.2871777079	0.4028710903	
531.25	1.420310349	0.9224739701	
531.875	0.007449191658	-0.8896832771	
532.5	0.3375913819	-0.3024299079	
533.125	-0.5470552877	-0.1517518702	
533.75	0.8223188713	-0.6284071519	
534.375	-0.8035650956	-0.5356286044	
535.0	-0.25342687	-0.4334359854	
535.625	-0.7406314306	0.5943229846	
536.25	0.09508825989	0.1373072263	
536.875	0.2085086026	0.17685494	
537.5	0.2226847584	-0.2067979161	
538.125	0.1306766744	-0.02168164497	
538.75	0.5367496773	-0.4145130766	
539.375	-0.2544079859	-0.2124986465	
540.0	-0.2176778659	-0.5080733961	
540.625	-0.6118271921	0.01656234434	
541.25	-0.06579755867	0.05136826736	
541.875	-0.06961826799	-0.09315139386	
542.5	-0.2431600271	-0.1996593532	
543.125	-0.1006482156	0.103627937	
543.75	-0.2664332664	-0.2625932592	
544.375	0.04492345682	0.3231542274	
545.0	-0.2280563982	0.04703704903	
545.625	0.3922746983	0.1332191561	
546.25	-0.07314734383	0.09099814124	
546.875	0.626078984	-0.06148387917	
547.5	-0.1006579235	-0.2178606268	
548.125	0.14122646	-0.3783061085	
548.75	-0.4203903908	-0.4388707125	
549.375	-0.2864199129	0.02034464962	
550.0	-0.15832677	-0.1771861016	
550.625	-0.1280575436	0.1707089066	
551.25	-0.1828267618	-0.08943212714	
551.875	-0.2204658261	0.3104631914	
552.5	-0.05060434168	0.0865735763	
553.125	-0.09285668322	0.1984493192	
553.75	0.1381025303	0.1081376145	
554.375	0.2085869286	0.02177126839	
555.0	0.2742793895	-0.1634685772	
555.625	0.2051099333	-0.2743149789	
556.25	0.1748337267	-0.3321472312	
556.875	-0.0692156246	-0.4072798083	
557.5	-0.2450811564	-0.2600106921	
558.125	-0.2645410157	-0.1009830386	
558.75	-0.2704933682	-0.03966322513	
559.375	-0.2856555561	0.07560152355	
560.0	-0.1909462735	0.1526989101	
560.625	-0.1918445471	0.2509566268	
561.25	0.07654214994	0.2936227918	
561.875	-0.00897956162	0.03794094989	
562.5	0.1202758193	0.2042633344	
563.125	0.02595190135	0.1521262606	
563.75	0.4733116063	0.06083298966	
564.375	0.1661950218	-0.3192717396	
565.0	0.271630811	-0.1764753545	
565.625	-0.08570023658	-0.5256516166	
566.25	-0.3380456482	-0.1477140625	
566.875	-0.1675685746	-0.2183688729	
567.5	-0.4591635315	-0.4207049617	
568.125	-0.3732210894	-0.152825159	
568.75	-0.4705057783	-0.4786383987	
569.375	-0.6419106118	0.4346950717	
570.0	-0.2165738305	0.2353097847	
570.625	-0.4673295177	0.5551378667	
571.25	0.371915937	0.268802565	
571.875	-0.2248368512	0.3123430723	
572.5	0.6276483918	-0.1545447377	
573.125	-0.08488470499	-0.1338003274	
573.75	0.435215391	-0.1263943812	
574.375	-0.1955628955	-0.401474328	
575.0	0.2215434449	0.1890889418	
575.625	-0.008957823652	-0.4698959678	
576.25	-0.01211440012	0.07345587158	
576.875	0.2648411244	-0.5717070267	
577.5	-0.2405700377	-0.5142051361	
578.125	-0.07260757086	-0.126749673	
578.75	0.01438898988	-0.4231913437	
579.375	-0.4416837978	-0.2765296941	
580.0	0.07637911567	0.1344569984	
580.625	-0.357897226	-0.2843203171	
581.25	0.004995074392	0.3080275393	
581.875	-0.2827396802	0.1599961532	
582.5	0.1750626686	0.7309621728	
583.125	0.3831137453	-0.1922561407	
583.75	-0.2773564442	0.346707858	
584.375	0.4923587813	-0.1711606601	
585.0	-0.1392679779	0.3509084122	
585.625	0.7419190502	-0.04051256418	
586.25	0.04837104143	-0.251373338	
586.875	0.5125359501	-0.1448322979	
587.5	-0.2714581106	-0.5325603204	
588.125	0.03552427599	-0.01068104441	
588.75	0.3794889152	-0.4650951842	
589.375	-0.02360317362	-0.559081562	
590.0	0.05719651084	-0.2385787476	
590.625	-0.4481967969	-0.3358760056	
591.25	-0.3051248824	0.4128428299	
591.875	-0.04720975982	0.1128266175	
592.5	-0.0838577843	0.2643620061	
593.125	-0.05382975776	-0.08842206871	
593.75	0.1492500542	0.5139988609	
594.375	0.4492986512	0.04609970709	
595.0	0.04954271892	0.194601978	
595.625	0.5486659573	0.6762920751	
596.25	0.3922629541	-0.3895812079	
596.875	0.1042849339	0.4320847128	
597.5	0.6799171454	0.2367297413	
598.125	0.0561438812	0.0795463642	
598.75	0.6483087514	0.5564111802	
599.375	0.3081298791	-0.2955200155	
600.0	0.475285784	-0.03455513101	
600.625	0.5383678516	-0.5548679623	
601.25	-0.03504363028	-0.4837297808	
601.875	0.01625919417	-0.2886711982	
602.5	-0.3423184083	-0.09787606773	
603.125	-0.358033763	0.09827738113	
603.75	-0.07878378819	0.1748887772	
604.375	-0.3570268396	0.01469569202	
605.0	-0.1259661757	0.3644981369	
605.625	-0.1695209272	-0.1207630069	
606.25	-0.3877152798	0.359787998	
606.875	-0.1421599448	0.06219603779	
607.5	-0.8851704957	0.3391058134	
608.125	0.4084667016	0.6375379102	
608.75	-0.04815953941	0.4609541096	
609.375	0.9563080256	-0.01439851497	
610.0	0.04745633183	-0.2780405792	
610.625	0.582804746	-0.3486985191	
611.25	-0.2315927639	-0.3890534812	
611.875	0.1057530635	-0.2720332107	
612.5	-0.7164377538	-0.09346088451	
613.125	-0.1583912918	-0.0769498439	
613.75	-0.466446646	0.4089277603	
614.375	0.3299109793	0.01915394656	
615.0	-0.06638250521	0.4527156258	
615.625	0.1909561542	-0.09452397976	
616.25	-0.4575339477	0.3692219869	
616.875	0.05233899269	0.7281441527	
617.5	-0.2453040998	0.09829234922	
618.125	-0.18764392	0.8206274653	
618.75	0.268943397	0.2948056833	
619.375	-0.04755259361	0.4711862294	
620.0	0.5841252633	0.02768001781	
620.625	0.292054461	-0.1793468907	
621.25	-0.2543840057	-0.5577413986	
621.875	-0.2969368891	-0.1864470182	
622.5	-0.7017272378	0.03791614192	
623.125	0.06798492384	0.3732853867	
623.75	0.1645529553	0.305157542	
624.375	0.03909150786	-0.4256204625	
625.0	0.1985487175	0.2879962072	
625.625	-0.006086886629	-0.6433593694	
626.25	0.1515780528	0.05738156473	
626.875	-0.4196085721	-0.5394176824	
627.5	-0.4285881933	0.1609260514	
628.125	0.02210671125	-0.2518252511	
628.75	-0.4495323601	-0.434293011	
629.375	-0.009937561608	-0.1797997304	
630.0	-0.4835936155	-0.4637877136	
630.625	-0.5837424373	0.3109419746	
631.25	-0.1884331708	0.2418349285	
631.875	-0.3026601011	0.6273225842	
632.5	0.3620991279	0.5110463184	
633.125	0.5438905904	0.0654703909	
633.75	0.226872003	-0.01031609699	
634.375	0.3686127798	-0.5139266132	
635.0	-0.08617973201	-0.04578659272	
635.625	-0.309840469	-0.4883839254	
636.25	-0.3627062059	0.3721985221	
636.875	-0.1464046371	-0.1062512111	
637.5	-0.2676417358	0.6172040712	
638.125	0.187959734	-0.09268099978	
638.75	-0.7009370267	0.3514404071	
639.375	0.2681732639	0.8795616258	
640.0	0.3335314476	0.2392389991	
640.625	0.281384632	0.6993802492	
641.25	0.9557542864	-0.1197136825	
641.875	0.1534347967	-0.1568083944	
642.5	0.3478921195	-0.8637889385	
643.125	-0.4232393823	0.1506549814	
643.75	0.0121451749	-0.4610988487	
644.375	-0.8122859912	0.09590616336	
645.0	-0.06553916592	0.3991654939	
645.625	-0.1395492927	0.2137913576	
646.25	0.5031981784	0.6630809662	
646.875	0.2288796554	-0.4706427553	
647.5	-0.05263140819	0.5297559015	
648.125	0.6510760912	-0.3532340854	
648.75	0.1849483161	0.4598203544	
649.375	1.04517312	-0.9425309761	
650.0	-0.2422345617	-0.7731127267	
650.625	0.6742563254	0.05773729489	
651.25	1.080655126	-1.201929815	
651.875	-0.2018604972	-0.5838377003	
652.5	0.739182523	0.4263908882	
653.125	1.049917165	-0.5833521762	
653.75	-0.002294248125	-0.3572347605	
654.375	0.5095706996	-0.9744189679	
655.0	-1.021058519	-0.02402471876	
655.625	-0.02062734208	0.2048283632	
656.25	-0.4738748234	0.5180742544	
656.875	0.6075068653	0.2148961409	
657.5	-0.415843481	0.1553610883	
658.125	0.5655067814	0.6319559543	
658.75	0.6900288584	-0.02514004459	
659.375	0.4833968566	-0.000763793978	
660.0	1.082877572	-0.9265383518	
660.625	-0.1740226757	-0.6972307766	
661.25	0.6991016816	-0.3051191605	
661.875	0.8523217027	-0.950188948	
662.5	0.03003863698	-0.7018363894	
663.125	0.8269664012	0.2592700873	
663.75	0.4579784541	-1.235079275	
664.375	-0.2020393655	-0.2989200087	
665.0	-0.4211956385	-0.9827770228	
665.625	-0.7898286346	0.6312739098	
666.25	-0.376390181	0.1660031739	
666.875	0.2416068294	0.8498037596	
667.5	0.5718121414	-0.01963635855	
668.125	0.153297648	0.2075195941	
668.75	0.874852766	-0.3349445877	
669.375	-0.006792614901	-0.6182454589	
670.0	0.0675729769	-0.3198197376	
670.625	0.2188223622	-0.5875943924	
671.25	-0.1757563897	-0.451359263	
671.875	0.5773990276	-0.2401027849	
672.5	0.4953879152	-0.5456457227	
673.125	0.2424402515	-0.334757889	
673.75	0.6981884023	-0.155464087	
674.375	0.1150511772	-1.220513901	
675.0	-0.4121895794	0.06204804774	
675.625	-0.08051897996	-0.860397482	
676.25	-0.8896911522	0.1099124389	
676.875	0.2148853705	-0.04309202615	
677.5	-0.9962093702	0.01806208674	
678.125	0.1740245025	0.1865168054	
678.75	-0.4521756363	0.5518652206	
679.375	1.034393621	0.1915749499	
680.0	-0.1423951863	-0.2589623389	
680.625	0.4473363505	0.1265802924	
681.25	0.3615490164	-0.3220784388	
681.875	0.09910678408	-0.02761617085	
682.5	0.326044468	0.4848363151	
683.125	0.9360696685	0.1833127825	
683.75	0.4395026162	-0.04227888804	
684.375	0.480577241	0.4888486559	
685.0	1.208052512	-0.159853812	
685.625	0.008001719192	0.1909225806	
686.25	1.412737079	0.1591034178	
686.875	0.2413754399	-0.9291999662	
687.5	0.7865350433	0.2466973079	
688.125	0.1742051319	-2.089081788	
688.75	-0.7740851295	0.4050572816	
689.375	-1.359928103	0.02177063379	
690.0	0.718149697	1.125091515	
690.625	-0.01562504771	0.3032897099	
691.25	1.222172378	1.163772045	
691.875	0.7770925323	0.3311770886	
692.5	1.275186937	0.8292674422	
693.125	1.784326709	0.007332124824	
693.75	1.176061711	-0.5717305999	
694.375	1.123579356	-0.957275234	
695.0	0.8072463392	-0.5422363597	
695.625	1.715630285	0.004695735789	
696.25	1.046557653	-0.14871879	
696.875	0.3255759096	1.465769966	
697.5	1.807072035	1.10046762	
698.125	0.5343221063	0.561865904	
698.75	2.016517093	-0.9906953775	
699.375	-1.489782475	-0.4738129084	
700.0	-0.9885003631	-0.2177043774	
700.625	0.7913118788	1.221196018	
701.25	0.06894898234	0.1174385632	
701.875	0.8422404841	1.190864688	
702.5	0.5693570175	0.008214101556	
703.125	0.9169651288	0.7988362735	
703.75	1.112633023	-0.5732260306	
704.375	0.3029805181	0.01566387875	
705.0	1.050715052	-0.6787480547	
705.625	0.1097790367	-0.2133421554	
706.25	0.6016104361	1.152252223	
706.875	1.155495815	0.1974472156	
707.5	-0.01843479584	0.8920027679	
708.125	1.573926351	0.5607383123	
708.75	0.2784598051	-0.8438999255	
709.375	-0.2341627225	-1.074189734	
710.0	-0.5995194935	0.9308505926	
710.625	-0.04234264891	0.109578773	
711.25	0.3778997906	0.4869168798	
711.875	0.4462562759	0.2550242324	
712.5	0.7972210046	0.005574447746	
713.125	0.4749594437	-0.2999019551	
713.75	0.7026093706	-0.6237479953	
714.375	-0.3754251162	-0.6857108828	
715.0	0.459291275	-0.1603027448	
715.625	-0.3955182667	-1.06117435	
716.25	0.1102799912	0.07783254751	
716.875	1.786517429	-0.3847256364	
717.5	0.7193149499	-1.513086097	
718.125	0.8942018956	2.036979011	
718.75	3.59004954	-1.035076791	
719.375	0.4005882837	-1.405247738	
720.0	3.075626321	-0.4556677417	
720.625	0.3571020337	-4.295442234	
721.25	-0.02046738072	-1.16736559	
721.875	0.0646274224	-3.143937553	
722.5	-2.284468274	-2.105822288	
723.125	-0.9762812666	-0.5531630702	
723.75	-1.749430329	1.196141263	
724.375	0.5016903643	1.036025947	
725.0	0.2694350622	0.6986187033	
725.625	-0.01157319607	1.234463909	
726.25	0.7823198798	2.538461311	
726.875	0.3755140892	0.773221432	
727.5	-2.483300215	4.519424311	
728.125	1.538484307	6.95048436	
728.75	-1.000416152	1.016285587	
729.375	-8.16112088	18.66221632	
730.0	7.486036057	5.765481055	
730.625	-8.803779638	5.357311132	
731.25	-4.570918157	22.89822527	
731.875	4.302844399	5.670638533	
732.5	-10.52683806	-4.190395415	
733.125	-8.846809755	2.082525923	
733.75	-1.375173115	3.941196513	
734.375	0.2637950131	2.471119448	
735.0	-0.8071072061	-2.43042155	
735.625	-0.4751919711	-0.236561939	
736.25	-0.9818860036	1.614764693	
736.875	2.095367995	1.387580359	
737.5	1.172653122	-0.4408835018	
738.125	4.181669443	1.69831491	
738.75	8.343972734	-6.025534129	
739.375	-0.6928755863	-7.87490854	
740.0	8.179350209	10.90897876	
740.625	23.85696991	-15.30318085	
741.25	-11.73790016	-3.797620849	
741.875	-26.55922466	16.99610086	
742.5	-4.597274287	9.054212424	
743.125	9.699031063	-6.729075137	
743.75	-1.763877196	-6.565768059	
744.375	-0.6781773721	0.7583084465	
745.0	-0.3217330259	0.1360583147	
745.625	0.3481516859	-0.2855707087	
746.25	0.3054226769	-0.18519126	
746.875	-0.5951919423	0.3680236648	
747.5	-0.04189580969	0.808559946	
748.125	-0.01850354137	1.221453378	
748.75	1.599334355	1.316834746	
749.375	1.075864914	0.2145321216	
750.0	-0.6265424571	0.5749170862	
