!Created with skrf (http://scikit-rf.org).
# GHz S RI R (50+0j) 
!freq	ReS11	ImS11	
500.0	-2.676528865	-3.307174608	
500.625	1.375986137	-2.032859681	
501.25	-0.8068750236	-2.481454284	
501.875	-2.604999793	-0.9305826954	
502.5	0.05187646463	-0.1424013943	
503.125	-0.4247785021	0.05665684417	
503.75	0.1533513975	-0.03531799563	
504.375	0.1682846804	0.04597955938	
505.0	-0.10304056	-0.06527008399	
505.625	0.2763393242	-0.2596835193	
506.25	-0.6095338099	0.1238325841	
506.875	0.2370988041	-0.6702111815	
507.5	-0.7650822744	-2.225941893	
508.125	-1.273373632	-1.000033512	
508.75	3.175688835	-2.301725768	
509.375	-2.817193155	-5.259126045	
510.0	-0.7411942101	-0.2327975979	
510.625	-0.9215870606	-0.7868925718	
511.25	-0.06986906223	0.169662522	
511.875	-0.456163455	-0.3098849672	
512.5	-0.1120788626	0.1710243782	
513.125	-0.1269907903	-0.2467122084	
513.75	0.04106228001	-0.155920578	
514.375	-0.5340053292	-0.3740587204	
515.0	0.8378194479	1.363749477	
515.625	-1.427397376	-3.085051604	
516.25	-0.3871146604	0.8202581343	
516.875	0.09389296958	-2.748312656	
517.5	-1.174142681	-0.3201896511	
518.125	0.2729541716	-0.3194049791	
518.75	-0.9668031088	-0.4403218832	
519.375	-0.08128564713	0.01561212976	
520.0	0.411114704	0.3469691933	
520.625	0.473446164	-0.3924408904	
521.25	0.06733974298	-0.3909414631	
521.875	-0.6475960307	-0.2188877084	
522.5	0.03122235247	0.1104784194	
523.125	-0.3255896902	0.1686708126	
523.75	-0.02726865084	-0.1310125185	
524.375	-0.7324500472	0.287473418	
525.0	0.127025554	0.01833654981	
525.625	-0.06594804045	0.2969939129	
526.25	0.05838996866	-0.2878810882	
526.875	-0.1812892035	0.3986052231	
527.5	0.1048921829	0.2485785397	
528.125	-0.3090578374	0.9771664738	
528.75	0.531708045	0.8387486975	
529.375	-0.1698861893	0.2300679766	
530.0	0.4560436207	0.3175395327	
530.625	-0.2805191936	1.065751266	
531.25	1.733451719	-0.1413537126	
531.875	0.3606176648	0.02660676349	
532.5	-0.2231645755	-0.7164444273	
533.125	0.245249542	0.3574767397	
533.75	0.1455415135	-0.9788780259	
534.375	0.06378392708	-0.2083991638	
535.0	-1.00762974	-0.6913679193	
535.625	-0.1373938066	0.4759779378	
536.25	-0.1067826393	0.1755208374	
536.875	0.3620196409	0.08556954503	
537.5	0.03700200624	-0.1234271265	
538.125	0.5136471603	-0.06292731244	
538.75	0.1368453217	-0.4003700322	
539.375	0.01909949937	-0.3810282272	
540.0	-0.6008240485	-0.5149680263	
540.625	-0.2715792243	0.1410102187	
541.25	-0.1936125459	-0.06711791781	
541.875	-0.1446989557	-0.1143765777	
542.5	-0.1987722643	0.02238191978	
543.125	-0.03740087017	-0.2516649072	
543.75	-0.42509675	0.1023201567	
544.375	0.02344467965	-0.1144255165	
545.0	-0.01733682303	0.3350961762	
545.625	0.04894248222	-0.08353937172	
546.25	0.3541018505	0.4095105076	
546.875	0.1466845482	-0.3382335909	
547.5	0.2789150658	-0.04923371456	
548.125	-0.07254794055	-0.6370045573	
548.75	-0.4032129251	-0.1075861455	
549.375	-0.0709748447	-0.230597209	
550.0	-0.3528321153	0.03435133225	
550.625	0.02676306848	-0.0276869749	
551.25	-0.3500017866	0.1006416182	
551.875	-0.03120023561	0.1481236997	
552.5	-0.227976019	0.1578998164	
553.125	-0.001448501323	0.1965503548	
553.75	0.08635331519	0.1094844139	
554.375	0.2553598893	0.03530178819	
555.0	0.2420208311	-0.1848691009	
555.625	0.2179408321	-0.2432225041	
556.25	0.1880646241	-0.3595617904	
556.875	-0.08523904897	-0.4056540545	
557.5	-0.2256391442	-0.248621176	
558.125	-0.2774721055	-0.1229593664	
558.75	-0.2870584436	-0.005291981307	
559.375	-0.2336441687	0.04976893582	
560.0	-0.2720312034	0.1370254275	
560.625	-0.1189544223	0.3256698914	
561.25	0.03645877056	0.1570966391	
561.875	0.05233923657	0.2123935441	
562.5	0.03427611386	0.009568883488	
563.125	0.158734167	0.3129122042	
563.75	0.3488506213	-0.1386077018	
564.375	0.2453720712	-0.03960350557	
565.0	0.304583717	-0.4610448141	
565.625	-0.1915755545	-0.3360484571	
566.25	-0.1304929205	-0.2190036965	
566.875	-0.4028037018	-0.334815749	
567.5	-0.390571362	-0.07125683659	
568.125	-0.1475491498	-0.5227736108	
568.75	-0.7557061116	-0.175740044	
569.375	-0.3527547108	0.1679747223	
570.0	-0.6231502278	0.4301428719	
570.625	0.06131410316	0.6639897491	
571.25	-0.1016717079	-0.06591924176	
571.875	0.2990814259	0.5521720048	
572.5	0.02339904212	-0.2155559521	
573.125	0.4916844912	-0.01693261475	
573.75	0.04068587827	-0.5806692012	
574.375	-0.05655840916	0.1570055448	
575.0	0.2681169588	-0.3745533595	
575.625	-0.1459317415	0.0755273162	
576.25	0.4565004156	-0.2578517377	
576.875	-0.2086652867	-0.5454093969	
577.5	-0.08087398437	-0.1012362166	
578.125	0.1491095833	-0.449170647	
578.75	-0.3958769356	-0.4549286196	
579.375	-0.1533880665	0.06562766065	
580.0	-0.01589130889	-0.3304291041	
580.625	-0.2182672845	0.1919613515	
581.25	-0.2490703669	-0.1593489541	
581.875	-0.06845239084	0.6897345742	
582.5	0.4482535583	0.1627846084	
583.125	-0.2559494443	0.04374452721	
583.75	0.541058467	0.3459223665	
584.375	-0.3556623807	-0.1090326108	
585.0	0.5820465955	0.4064633963	
585.625	0.1798118276	-0.3205893162	
586.25	0.4256027346	0.2702685496	
586.875	0.1790896991	-0.6701797782	
587.5	-0.04291498911	-0.02265966349	
588.125	0.2364983503	-0.4523231349	
588.75	-0.08743116557	-0.5846101788	
589.375	0.0643105507	-0.05813809263	
590.0	0.07653861383	-0.6117597984	
590.625	-0.538444248	-0.02086093581	
591.25	-0.2029905881	0.1430208751	
591.875	-0.2703423786	0.2965780896	
592.5	0.1997277096	0.08688993947	
593.125	-0.229677963	0.2157472991	
593.75	0.250729056	0.2125387308	
594.375	0.09281723062	0.1654968194	
595.0	0.4209136126	0.6946975179	
595.625	0.7637998816	-0.1905905729	
596.25	-0.06563093999	0.3008073086	
596.875	0.7736879557	0.2180519354	
597.5	0.1493254837	-0.1062069869	
598.125	0.3175948781	0.698543317	
598.75	0.5112640156	-0.1033237464	
599.375	0.3063065308	0.2168956006	
600.0	0.6732927676	-0.4728516805	
600.625	0.1536153633	-0.5136618977	
601.25	0.2207548586	-0.2156811664	
601.875	-0.1145337329	-0.4936227333	
602.5	-0.2944462383	-0.042787644	
603.125	-0.2102554583	0.1302364495	
603.75	-0.2820855664	0.03853086626	
604.375	-0.3307679206	0.3101647563	
605.0	-0.05059801179	0.03105298157	
605.625	-0.3756613267	0.2303742117	
606.25	-0.0372649884	0.1366120134	
606.875	-0.6882337012	-0.08885777546	
607.5	-0.1977711563	0.8243375312	
608.125	-0.2576607137	0.1518513518	
608.75	0.5352812191	0.9144684588	
609.375	0.2476156955	-0.3546854394	
610.0	0.6030296145	0.05997818254	
610.625	0.1203774584	-0.6409689794	
611.25	0.1133760793	-0.01628269385	
611.875	-0.4096224747	-0.5893354283	
612.5	-0.1673441029	0.01140240539	
613.125	-0.6467878109	-0.1357452982	
613.75	-0.03345458709	0.5130588325	
614.375	-0.2397196193	0.212176091	
615.0	0.4271144117	0.04820163646	
615.625	-0.3591712739	0.1375792897	
616.25	0.09725580741	0.6738167012	
616.875	-0.1317511431	0.03214707375	
617.5	-0.4657720139	0.7460409948	
618.125	0.2470925534	0.5074045619	
618.75	-0.2454471277	0.2713021264	
619.375	0.3964331875	0.5546832084	
620.0	0.2366935438	0.07027721459	
620.625	0.4330525846	-0.405137613	
621.25	-0.2127453954	-0.3101565947	
621.875	-0.4454702388	-0.3928412414	
622.5	-0.4557734283	0.2330367522	
623.125	-0.2444510641	0.2985821554	
623.75	0.5198722706	0.1758669168	
624.375	-0.2125071499	0.0265154124	
625.0	0.4125675809	-0.4685442471	
625.625	-0.0673390388	0.1732658165	
626.25	0.1183815408	-0.6475431503	
626.875	-0.5697059824	0.00447628946	
627.5	0.0309275209	-0.2100001988	
628.125	-0.5602815007	-0.3107698917	
628.75	-0.05671161976	-0.03556171062	
629.375	-0.09950750565	-0.6207568792	
630.0	-0.6243706916	-0.09774596082	
630.625	-0.2837657636	-0.01033906581	
631.25	-0.5797375548	0.3877740054	
631.875	-0.02314656175	0.6594324686	
632.5	0.3624285677	0.4559750022	
633.125	0.3303470581	0.1398138605	
633.75	0.6655417437	-0.08340150333	
634.375	-0.02306235797	-0.2397046299	
635.0	0.1909043735	-0.3847939671	
635.625	-0.5553250848	-0.129097818	
636.25	-0.1739022063	-0.1158503648	
636.875	-0.4205746216	0.5252297685	
637.5	0.2651856813	0.1640563196	
638.125	-0.5356543834	-0.09001644293	
638.75	-0.04077491307	0.8428134719	
639.375	0.1003023323	0.1411098076	
640.0	-0.0258125194	0.7960771463	
640.625	0.8706477793	0.3698763246	
641.25	0.3288828518	-0.08833158096	
641.875	0.9359392327	-0.3324455965	
642.5	-0.3599152302	-0.3986466705	
643.125	0.1496957973	-0.3015077024	
643.75	-0.6655672966	-0.4158644978	
644.375	-0.1401681844	0.3408160493	
645.0	-0.48468734	-0.05725108746	
645.625	0.06500011698	0.8233953549	
646.25	0.5886039395	-0.03426488641	
646.875	-0.18601614	0.1442973088	
647.5	0.6869369209	-0.08232474439	
648.125	-0.1701393895	0.4052982329	
648.75	1.159904848	-0.1762364609	
649.375	0.03250169045	-0.7941148852	
650.0	0.5864306891	0.04891050068	
650.625	0.8798653606	-1.418112997	
651.25	-0.3686633975	-0.5419852094	
651.875	0.8279656147	0.3438878424	
652.5	1.122620107	-0.6537759885	
653.125	0.107746575	-0.3376446751	
653.75	1.046719666	-0.2645751448	
654.375	-0.4661767511	-0.9538827415	
655.0	-0.2364473389	0.005762114572	
655.625	-0.9040310907	0.02640132081	
656.25	0.4883808971	0.7935642681	
656.875	-0.2256015826	-0.1566104926	
657.5	0.1928934574	0.550920123	
658.125	0.4205945757	0.1310900944	
658.75	0.2940600895	0.4334255334	
659.375	1.227058385	-0.4528602739	
660.0	0.1616522837	-0.6763580045	
660.625	0.5467527418	-0.420229021	
661.25	0.7700336049	-1.087317968	
661.875	-0.1952783396	-0.649699574	
662.5	0.9146294191	0.2010159762	
663.125	0.9279875777	-0.9478007413	
663.75	-0.0399311472	-0.4009878373	
664.375	0.4884871883	-0.9337767974	
665.0	-1.044306385	-0.2372714217	
665.625	-0.4059543017	-0.1937954896	
666.25	-0.5903265857	0.8714496734	
666.875	0.5633793286	0.3632103576	
667.5	-0.0008291745007	0.2583302439	
668.125	0.8801734695	0.1195288099	
668.75	0.2976967577	-0.504565368	
669.375	0.2191017417	-0.2695057598	
670.0	0.2351579935	-0.6876835077	
670.625	-0.268931594	-0.3441116255	
671.25	0.3664393336	-0.3601346311	
671.875	0.2942189877	-0.5759811886	
672.5	0.2079668807	-0.2595302693	
673.125	0.830453707	-0.1489046782	
673.75	0.3924205027	-0.999788384	
674.375	-0.2053989018	-0.1857317661	
675.0	0.344885127	-0.7443667106	
675.625	-0.9627344768	-0.4695068926	
676.25	0.18122844	0.1549608978	
676.875	-0.9244645735	-0.3132388451	
677.5	0.05157048285	0.3752242688	
678.125	-0.7695043245	-0.1387122715	
678.75	0.503238141	0.9851046149	
679.375	0.05364746463	-0.07300547922	
680.0	0.4896044738	0.1488596465	
680.625	0.4286391428	-0.4829413364	
681.25	-0.2475934398	-0.1032147537	
681.875	0.4805552292	0.4842793757	
682.5	0.6705514806	0.04465176689	
683.125	0.4698970005	0.05085139155	
683.75	0.4480899044	0.5017092442	
684.375	1.016955	-0.1613460319	
685.0	0.1776485087	0.1882801839	
685.625	1.060761754	0.347356347	
686.25	0.6807546422	-0.7328790808	
686.875	0.3453187341	0.6068984142	
687.5	1.523107196	-1.444859591	
688.125	-0.687507066	-0.1512901055	
688.75	-0.5163544196	-1.359073448	
689.375	-0.9068640532	1.392826381	
690.0	0.03709351329	0.1236071342	
690.625	0.8879437257	1.347825843	
691.25	0.5906065461	0.1584937268	
691.875	0.7677914355	1.094147785	
692.5	1.769672001	0.5524371713	
693.125	1.281859625	-0.1667321385	
693.75	1.5465121	-0.4432047782	
694.375	0.9245586128	-0.8759577265	
695.0	1.375543656	-0.5721448323	
695.625	1.038777227	-0.5560265072	
696.25	0.8280624986	0.9762585399	
696.875	1.67825787	1.041749269	
697.5	0.2937689995	0.6555041577	
698.125	1.839821982	1.407860877	
698.75	0.4737169919	-1.501227854	
699.375	0.2421295787	-1.184945035	
700.0	-1.229973399	1.37287813	
700.625	0.4124742847	0.07466738328	
701.25	0.6658603171	1.25484907	
701.875	0.6396670317	0.02419015708	
702.5	0.4693464709	0.9816955291	
703.125	1.441903223	0.07708264624	
703.75	0.4164503808	0.07664617997	
704.375	1.172019125	-0.5759062283	
705.0	0.09444936179	-0.4979031003	
705.625	0.8212896144	0.6864935146	
706.25	1.083764507	-0.1399683518	
706.875	-0.04791397887	0.7695258751	
707.5	0.9844587628	1.44687592	
708.125	0.7716419822	-0.193024172	
708.75	1.327420967	-0.4299034074	
709.375	-1.078830811	-0.8097965826	
710.0	-0.1949256063	0.1514446321	
710.625	0.04460553046	0.7107312205	
711.25	0.2542879047	0.06334260032	
711.875	0.4524406662	0.4209571357	
712.5	0.686593664	-0.0959980622	
713.125	0.9180695049	-0.2243151239	
713.75	0.05552489151	-0.8293535067	
714.375	0.4133488934	-0.1952139081	
715.0	-0.2839415376	-0.8866176689	
715.625	-0.02318457763	0.0267834437	
716.25	1.125037279	-0.871527032	
716.875	0.02364849415	-1.124155298	
717.5	1.122805463	1.291522959	
718.125	3.184910364	-0.07355781427	
718.75	0.3306031617	-1.525989995	
719.375	3.349582974	1.080902079	
720.0	0.5935807524	-4.375207667	
720.625	0.8387921845	-1.254786706	
721.25	0.8731231359	-3.161075822	
721.875	-1.757100098	-2.538114275	
722.5	-0.1801174786	-1.945920175	
723.125	-2.61472782	-0.7534161581	
723.75	-0.7288592545	1.330228738	
724.375	-0.09554932906	0.7931346138	
725.0	0.03595367827	1.196734742	
725.625	1.115825376	1.200854347	
726.25	-0.01706268137	0.7046055259	
726.875	-1.244094262	2.804498941	
727.5	1.28050397	4.554388358	
728.125	-1.985311399	1.050829047	
728.75	-3.425760353	11.66196524	
729.375	4.900064791	6.788170216	
730.0	-10.751109	2.770337063	
730.625	4.660344634	23.84377759	
731.25	3.877407093	-0.4196200286	
731.875	-13.16256725	4.511811527	
732.5	-11.44299063	3.949227564	
733.125	-3.758818158	3.557604364	
733.75	-5.14693533	1.638497033	
734.375	2.93835563	0.5661732531	
735.0	0.07392816811	-0.8724523335	
735.625	-1.780496256	-0.7278235079	
736.25	1.061046469	1.592422072	
736.875	-0.2833205024	1.022212025	
737.5	3.270347609	1.626306607	
738.125	5.086789745	-2.172888471	
738.75	0.1714683003	-4.665641299	
739.375	9.285177174	6.138506228	
740.0	11.97415178	-17.18341189	
740.625	-9.020814119	2.018596076	
741.25	7.080356366	14.17036101	
741.875	11.72748533	11.90369735	
742.5	1.634905782	-13.14240425	
743.125	-4.238720168	-8.069789244	
743.75	-0.9617723412	0.02097297575	
744.375	-0.1454525409	-1.490056482	
745.0	0.4465347988	0.7009085849	
745.625	-0.1435964468	0.2559381119	
746.25	0.04985018581	-0.4455376767	
746.875	-0.3833941705	0.3925227686	
747.5	-0.5712839531	0.4909486405	
748.125	0.4366642231	1.744015866	
748.75	0.5685919139	0.8828688457	
749.375	0.467754976	1.066166257	
750.0	-0.8078295897	0.4197855775	
