!Created with skrf (http://scikit-rf.org).
# GHz S RI R (50+0j) 
!freq	ReS11	ImS11	
500.0	-0.2800713577	-0.8886007315	
500.625	0.9842506331	-1.11079539	
501.25	-1.29203526	-1.013726498	
501.875	-0.1881023433	-0.3105530995	
502.5	-0.0664090339	-0.2957746833	
503.125	-0.06697173721	0.07461692963	
503.75	-0.04335104748	0.081210532	
504.375	0.06213189796	-0.02710213089	
505.0	0.0101592101	0.0333991324	
505.625	0.01703363527	-0.1401169217	
506.25	-0.08847162961	0.0828064575	
506.875	-0.1524004658	-0.2993314629	
507.5	-0.6593912158	-0.3816662204	
508.125	0.6418414093	-0.492748459	
508.75	1.206677647	-1.736561884	
509.375	-0.7208720312	-1.618601699	
510.0	-0.2359105653	-0.3164358312	
510.625	-0.3445662512	-0.3336001681	
511.25	-0.1050621409	0.06757680897	
511.875	-0.217923584	-0.150411132	
512.5	-0.04998971403	0.06608149401	
513.125	-0.02619014979	-0.03536232225	
513.75	-0.03540101778	-0.1506977064	
514.375	-0.1644163435	0.164682361	
515.0	0.3706337615	-0.2190528796	
515.625	-0.766868257	0.2772443796	
516.25	0.3780818506	-0.6226788837	
516.875	-0.3602165841	-1.045270338	
517.5	-0.2476847645	-0.08192410651	
518.125	-0.07476364136	-0.1534994264	
518.75	-0.2519883754	-0.1438844748	
519.375	-0.08524825607	0.02527417853	
520.0	0.1567834704	0.1194598718	
520.625	0.1661054171	-0.09328835555	
521.25	-0.07529237648	-0.1812762196	
521.875	-0.1688634164	-0.1554908419	
522.5	-0.07889890123	0.1562032119	
523.125	0.0498703445	-0.01067441184	
523.75	-0.2857021367	0.0523396499	
524.375	-0.001482810455	0.1116598213	
525.0	-0.2210351748	0.09794533726	
525.625	0.1674266768	0.1344790229	
526.25	-0.1313637918	-0.06118709727	
526.875	0.02429070106	0.1055460143	
527.5	-0.1112503421	0.09183550183	
528.125	0.07044404632	0.4851104494	
528.75	0.2649500177	0.2952986059	
529.375	0.0445497949	0.123288523	
530.0	0.02956702296	0.1542379866	
530.625	0.06658652457	0.2024322118	
531.25	0.6775811351	0.3765840628	
531.875	0.321434904	-0.3711493855	
532.5	-0.1122076221	0.01098667271	
533.125	0.08778878079	-0.2964846709	
533.75	0.1059701546	-0.06397241235	
534.375	0.01893401622	-0.4905018493	
535.0	-0.3588691048	0.02416144903	
535.625	-0.1346175101	0.07762780841	
536.25	-0.02376805366	0.16307569	
536.875	0.128781664	-0.03959730336	
537.5	0.08325460768	0.007706366245	
538.125	0.1960614808	-0.1502540481	
538.75	0.08208709643	-0.1000529967	
539.375	-0.03713725365	-0.2571830947	
540.0	-0.2937975478	-0.1784023398	
540.625	-0.1138436762	0.002558213799	
541.25	-0.1499798565	-0.07461121507	
541.875	-0.09043516113	0.04648055767	
542.5	0.01906414445	-0.01855043281	
543.125	-0.1903223888	-0.04777104937	
543.75	-0.01399367183	0.01429660724	
544.375	-0.1459772785	-0.02106075969	
545.0	0.06243340705	0.05510152691	
545.625	-0.06519197923	0.08997008736	
546.25	0.2052742057	0.04052332493	
546.875	0.06689857141	-0.04682615723	
547.5	0.1609530817	-0.1297761952	
548.125	-0.1210444969	-0.2460189203	
548.75	-0.108372792	-0.0836826257	
549.375	-0.112064561	-0.1635920953	
550.0	-0.1229847996	0.0683483537	
550.625	-0.03560100203	-0.03870639489	
551.25	-0.1282664675	0.08691876409	
551.875	-0.04953514814	0.07566041759	
552.5	-0.08947226554	0.09601210465	
553.125	0.01161844614	0.08453113752	
553.75	0.05040356101	0.06564990852	
554.375	0.139044135	-0.0057855367	
555.0	0.1140975906	-0.09434029695	
555.625	0.1129870092	-0.1321104221	
556.25	0.08322747413	-0.1925801973	
556.875	-0.05251368903	-0.2073611927	
557.5	-0.1268082439	-0.130372784	
558.125	-0.1542835482	-0.05881432247	
558.75	-0.147981212	0.004258733253	
559.375	-0.1302002918	0.02417075575	
560.0	-0.1397078547	0.09535188232	
560.625	-0.04599095471	0.1698240614	
561.25	-0.002309580308	0.09787831805	
561.875	0.0532882068	0.1034855434	
562.5	0.006466034023	0.0252045928	
563.125	0.09698187045	0.1447416825	
563.75	0.1841587527	-0.05580429311	
564.375	0.121795117	-0.07722292231	
565.0	0.1457941344	-0.2290232709	
565.625	-0.1297347403	-0.183845482	
566.25	-0.08197397282	-0.1425406766	
566.875	-0.2545607732	-0.1212391265	
567.5	-0.1396534027	-0.05715885112	
568.125	-0.1080056827	-0.3245171722	
568.75	-0.361394665	-0.03193840442	
569.375	-0.2159155839	0.08712511713	
570.0	-0.2834493307	0.2771963511	
570.625	0.07400822638	0.3046714743	
571.25	-0.0386003957	0.04132505993	
571.875	0.1391010058	0.1761228272	
572.5	0.06568349773	-0.0776231037	
573.125	0.248519155	-0.05343272514	
573.75	0.02038959499	-0.2651951158	
574.375	-0.02746771212	0.02294776616	
575.0	0.1244495304	-0.1380112665	
575.625	-0.05156579967	-0.01067004711	
576.25	0.1720808866	-0.1010050872	
576.875	-0.05265383507	-0.2982554424	
577.5	-0.06408315078	-0.1143219153	
578.125	0.106560028	-0.1779645741	
578.75	-0.1990471267	-0.2682939901	
579.375	-0.09352218067	0.04812293593	
580.0	-0.006090559524	-0.1741237283	
580.625	-0.1423910284	0.1647699827	
581.25	-0.09662505132	-0.06295937849	
581.875	-0.01688437965	0.3409171023	
582.5	0.207289144	0.06859237929	
583.125	-0.0723497141	0.07714720449	
583.75	0.1783318847	0.09039075651	
584.375	-0.05798184014	-0.03512044246	
585.0	0.2342735565	0.2039732192	
585.625	0.1918858392	-0.1458658094	
586.25	0.1027358333	0.005597617358	
586.875	0.1921689172	-0.2391141217	
587.5	-0.130130215	-0.1139539911	
588.125	0.08690419176	-0.1510535359	
588.75	0.02936212553	-0.2994291345	
589.375	-0.01944625877	-0.1313716023	
590.0	0.08282717511	-0.2661163696	
590.625	-0.3541876731	0.02208571182	
591.25	-0.01447541413	0.08479280636	
591.875	-0.1830318499	0.1102450959	
592.5	0.150849002	0.1551577194	
593.125	-0.1716990594	0.007289002604	
593.75	0.2053679856	0.1023217322	
594.375	0.0837532905	0.03927986704	
595.0	0.2744102002	0.2810725581	
595.625	0.3471080016	0.05233983498	
596.25	0.08130564179	0.1159723064	
596.875	0.2930215014	0.1377809414	
597.5	0.2108541366	0.003055312219	
598.125	0.0960666572	0.1743643525	
598.75	0.3294262062	0.1623999745	
599.375	0.1940551256	-0.1405777557	
600.0	0.2293019451	-0.1109896428	
600.625	0.2297537064	-0.2814235467	
601.25	-0.02089062248	-0.2661846681	
601.875	0.02207173337	-0.1453314866	
602.5	-0.3148896341	-0.01685066399	
603.125	-0.02189594579	0.09694461649	
603.75	-0.2954994003	-0.02451176655	
604.375	-0.1533807724	0.2466268737	
605.0	0.009176115174	-0.005303010288	
605.625	-0.20963143	0.1741983348	
606.25	0.0230458331	0.06035207183	
606.875	-0.2361325068	-0.03448535105	
607.5	-0.2824348827	0.3751220027	
608.125	0.06211028605	0.2208577084	
608.75	0.3212450125	0.2205178808	
609.375	0.4010838505	-0.1041554434	
610.0	0.07125653146	-0.1889190462	
610.625	0.1873969549	-0.1381125973	
611.25	-0.009232057987	-0.278369037	
611.875	-0.03390731035	-0.04738434236	
612.5	-0.2575176255	-0.2106666402	
613.125	-0.3146968812	0.190886623	
613.75	-0.04492909297	0.0427009304	
614.375	0.01147433488	0.3137279787	
615.0	0.1725600299	-0.05161663525	
615.625	-0.167938796	0.1416303764	
616.25	0.02793300388	0.3384203172	
616.875	-0.2023329174	0.1660840358	
617.5	-0.22473979	0.3166805471	
618.125	0.07615105062	0.2523293252	
618.75	0.03962747999	0.07440016403	
619.375	0.1111697406	0.05873570582	
620.0	0.277431916	-0.06220350556	
620.625	0.03351972506	-0.2328550853	
621.25	-0.06560250383	-0.2860777993	
621.875	-0.4743250212	-0.08551046043	
622.5	-0.1779247925	0.02200842541	
623.125	-0.1231192834	0.3121033084	
623.75	0.2161505605	-0.05304530479	
624.375	-0.03036362662	0.0745267154	
625.0	0.07226107583	-0.1550063346	
625.625	0.03523176641	-0.00380821677	
626.25	-0.006119071333	-0.2559601283	
626.875	-0.2689823215	-0.06599732286	
627.5	-0.0705677055	-0.0188024829	
628.125	-0.1792742518	-0.2044363126	
628.75	-0.1285559161	-0.1184293244	
629.375	-0.06812313254	-0.1742665807	
630.0	-0.2533468116	-0.1835449323	
630.625	-0.1926128456	0.1699747739	
631.25	-0.2281146406	0.1726043119	
631.875	-0.1023942747	0.377186916	
632.5	0.2535056055	0.1649700731	
633.125	0.1890001442	0.08919005277	
633.75	0.3838666178	-0.08097481737	
634.375	-0.04845689159	-0.1387349408	
635.0	0.1684933124	-0.1906324854	
635.625	-0.3074842567	-0.09028109041	
636.25	-0.07398026562	0.08839694358	
636.875	-0.2096135465	0.1251653919	
637.5	0.06603810305	0.2187318312	
638.125	-0.1115562667	-0.01161321803	
638.75	-0.1254891813	0.334252636	
639.375	0.1721661443	0.2663082036	
640.0	0.04731377105	0.2799012624	
640.625	0.4108630117	0.2655380183	
641.25	0.2954419351	-0.1621917001	
641.875	0.1319564957	-0.1261733917	
642.5	0.06997688821	-0.4248216575	
643.125	-0.1761863123	0.009534189943	
643.75	-0.1075061472	-0.2113002032	
644.375	-0.4579499556	0.1117308024	
645.0	0.07798693361	0.1349413239	
645.625	-0.2067038615	0.3940809459	
646.25	0.4144073642	0.03587451712	
646.875	-0.1125443823	-0.04217795932	
647.5	0.234166979	0.1148329137	
648.125	0.01099685093	-0.135251132	
648.75	0.4114915958	0.1389655556	
649.375	0.2936392056	-0.5337129546	
650.0	0.02449354142	-0.2785239312	
650.625	0.3779229413	-0.2304771617	
651.25	0.2643209974	-0.5575738399	
651.875	0.09274465971	-0.1422206487	
652.5	0.4999511348	0.006223476655	
653.125	0.3511288373	-0.3829149612	
653.75	0.08422310516	-0.170772192	
654.375	0.06212311269	-0.5312795967	
655.0	-0.4902237458	0.0826841921	
655.625	0.07036665746	0.1181525334	
656.25	-0.130777455	0.2888730032	
656.875	0.2501346914	-0.007697763239	
657.5	-0.2036859443	0.1836732821	
658.125	0.4309123733	0.2268218444	
658.75	0.2419476829	-0.07900507661	
659.375	0.4355718315	0.006384063314	
660.0	0.3256278796	-0.6994582565	
660.625	-0.0370086127	-0.2967698316	
661.25	0.3831018478	-0.3406978338	
661.875	0.2678952929	-0.509125484	
662.5	0.08349991219	-0.2487001527	
663.125	0.4986564807	-0.1474369765	
663.75	0.08147862029	-0.5264049136	
664.375	-0.07718841455	-0.2531055969	
665.0	-0.3343999637	-0.3749347377	
665.625	-0.4469717277	0.3012849122	
666.25	-0.04382161028	0.2134584317	
666.875	0.07473896066	0.3919389989	
667.5	0.3251143313	0.0009004464525	
668.125	0.03198642329	0.06668714102	
668.75	0.4230627739	-0.2210589275	
669.375	-0.02702532322	-0.3093395279	
670.0	0.08250743245	-0.1722539799	
670.625	0.02277740142	-0.4833177192	
671.25	-0.1180199748	-0.1566371815	
671.875	0.3020355399	-0.1181268529	
672.5	0.1692837892	-0.4084019312	
673.125	0.1420990947	-0.1469734429	
673.75	0.2934025227	-0.2155351551	
674.375	-0.05543537553	-0.5095455396	
675.0	-0.1483310259	-0.1049437786	
675.625	-0.2503499791	-0.3044672322	
676.25	-0.3585474984	0.086239315	
676.875	-0.01786195723	0.03270791856	
677.5	-0.3656429342	-0.01614204802	
678.125	-0.007841881103	0.3006112375	
678.75	-0.03810986657	0.1542823587	
679.375	0.3753819	0.2261423032	
680.0	0.1009827505	-0.3925036995	
680.625	0.04152753551	0.1809413221	
681.25	0.40930078	-0.2733320222	
681.875	-0.004786354317	-0.1293572214	
682.5	0.1580359583	0.3681417803	
683.125	0.6307371893	-0.07888072583	
683.75	-0.05337740004	0.1619911299	
684.375	0.4342161942	0.247957266	
685.0	0.53163727	-0.1508550532	
685.625	0.09361326747	0.02455856322	
686.25	0.6535217093	-0.05911567197	
686.875	0.2261916111	-0.4215324252	
687.5	0.2479101563	-0.2083418251	
688.125	-0.03523885362	-0.7379923874	
688.75	-0.6730857269	0.05907998375	
689.375	-0.2551845098	0.2314038614	
690.0	0.1611060539	0.6691038662	
690.625	0.4677572103	0.09884441858	
691.25	0.1601848161	0.4243523244	
691.875	1.057989043	0.4628851648	
692.5	0.6104584867	-0.02716291408	
693.125	0.7714440268	0.1565729581	
693.75	0.9737144969	-0.5621020526	
694.375	0.1669936319	-0.340322115	
695.0	0.7866859696	-0.2162592297	
695.625	0.7736143394	-0.4215900186	
696.25	0.4802166849	0.2252762108	
696.875	0.376292835	0.6349248167	
697.5	0.5751016598	0.3651006417	
698.125	0.5078367573	0.06814461588	
698.75	0.5195549135	-0.5498118158	
699.375	-0.7254941924	-0.4370275541	
700.0	-0.0501992697	0.4815780852	
700.625	-0.009299896649	0.5213295113	
701.25	0.5367815954	0.1996517023	
701.875	0.1431558439	0.2023785952	
702.5	0.4707216778	0.525813965	
703.125	0.6796464923	-0.04456026825	
703.75	0.2754444163	-0.04912403741	
704.375	0.5488358478	-0.2102606448	
705.0	0.1704304654	-0.2970558177	
705.625	0.2172153258	0.1066182962	
706.25	0.5454280887	0.3453157827	
706.875	0.2637464253	0.2942974118	
707.5	0.2760944593	0.4599259365	
708.125	0.5503672778	0.1171508467	
708.75	0.08151414952	-0.5190390516	
709.375	-0.4032726696	-0.1041734224	
710.0	-0.2607147817	0.5211669947	
710.625	0.4874503051	0.1444255918	
711.25	0.02917200569	0.2337600874	
711.875	0.5135485108	0.06956902899	
712.5	0.1629619046	-0.07314742582	
713.125	0.5109899258	-0.1748153749	
713.75	0.1044304096	-0.4601344808	
714.375	-0.02972814926	-0.1516670505	
715.0	0.085870595	-0.389922102	
715.625	-0.1230080787	-0.3048088118	
716.25	0.2288907837	-0.1185469874	
716.875	0.6650139814	-0.3112322247	
717.5	0.5768874541	-0.2852527041	
718.125	0.6422947503	0.3337569058	
718.75	1.140482797	-0.03836312359	
719.375	0.5100343225	-0.8516061274	
720.0	0.9243972322	-0.5764975641	
720.625	-0.02780085332	-1.947940251	
721.25	-1.544205202	-0.6579056099	
721.875	-0.1623249552	-1.388013503	
722.5	-1.424919172	-1.297725385	
723.125	-0.7488282852	0.4645191101	
723.75	-0.8924425197	0.2043394969	
724.375	0.2688351244	0.8406559341	
725.0	0.1760841871	0.1851163852	
725.625	0.01669566625	0.7511672471	
726.25	0.4005566854	1.049410068	
726.875	-0.02804509682	0.7290428483	
727.5	-0.5661793741	2.071667255	
728.125	0.8910390813	3.204077012	
728.75	0.4087309478	1.99350469	
729.375	-2.20015565	5.282082098	
730.0	3.05871278	5.787905326	
730.625	-0.1044163735	2.4572456	
731.25	-2.081310543	6.139302201	
731.875	-1.827556012	7.3517649	
732.5	-2.969871978	0.3455471516	
733.125	-4.001248455	1.191332117	
733.75	0.04815535576	2.218470648	
734.375	0.07383665452	0.008297492785	
735.0	0.1307789453	-1.240723254	
735.625	-0.2279325971	0.8236970158	
736.25	-0.3320472789	0.4957522903	
736.875	1.134366714	1.064400971	
737.5	1.216582038	-0.665244767	
738.125	1.532111043	0.4005596027	
738.75	3.604910975	-2.597852054	
739.375	0.6459981706	-3.697072262	
740.0	2.405260881	1.200743727	
740.625	7.948720512	-0.4668781257	
741.25	3.296822744	-5.011100485	
741.875	-7.246878385	-1.77659076	
742.5	-4.758411035	-3.271604725	
743.125	-0.1498701595	-0.6221575075	
743.75	0.6033408811	-1.76133135	
744.375	-0.8521228434	0.4057361746	
745.0	0.01306041703	-0.05581047701	
745.625	0.2028334116	-0.05196393246	
746.25	-0.06698878405	0.05111102014	
746.875	-0.3293465668	-0.05482598583	
747.5	0.04692586792	0.6336913533	
748.125	0.2730138119	0.4633474521	
748.75	0.2003338606	0.6318585086	
749.375	0.3570023844	0.7394519203	
750.0	-0.3628189845	0.1424103594	
