!Created with skrf (http://scikit-rf.org).
# GHz S RI R (50+0j) 
!freq	ReS11	ImS11	
500.0	-0.37843485	-4.677975879	
500.625	-0.780192338	-1.946543226	
501.25	-1.647937798	-1.862618863	
501.875	-1.172862616	-0.2170738782	
502.5	-0.1201973637	-0.311733806	
503.125	-0.2939347329	0.00468734626	
503.75	0.327290019	0.1741176044	
504.375	0.0002361001133	0.07415716366	
505.0	0.1003282432	-0.1823335086	
505.625	-0.0288728468	0.07146720947	
506.25	-0.3455864741	-0.4723393533	
506.875	0.6285489975	-0.09999767989	
507.5	-1.105197969	-2.184141047	
508.125	-0.9063650719	-0.2204475163	
508.75	3.070840295	-1.721656076	
509.375	-2.384735248	-6.124353101	
510.0	-1.359073348	-0.2913244143	
510.625	-0.2686184727	-0.3970629642	
511.25	-0.4339976836	-0.1101532299	
511.875	-0.3253021235	0.08935903029	
512.5	-0.09817336715	0.1312900979	
513.125	-0.1195614407	-0.3043826727	
513.75	-0.1402630416	-0.1266424135	
514.375	-0.3067377668	-0.1898655671	
515.0	-0.3229769163	0.9312296029	
515.625	0.3322112088	-3.848292499	
516.25	-2.74825442	0.3096377065	
516.875	0.9659762264	-0.8744079071	
517.5	-0.6542039954	-1.097494165	
518.125	0.2724768513	0.1853150097	
518.75	-0.6730247258	-0.9529668385	
519.375	0.02615579141	0.1031718484	
520.0	0.2789398012	0.320948667	
520.625	0.5165184903	-0.3875281214	
521.25	-0.2156598166	-0.3742581477	
521.875	-0.3951990883	-0.2561198989	
522.5	7.415187225e-05	0.1761067339	
523.125	-0.3663050533	0.02780262044	
523.75	-0.07082131686	0.1518564793	
524.375	-0.4975862708	-0.125939703	
525.0	0.282400154	0.4418213186	
525.625	-0.1328752587	0.08056894493	
526.25	0.1950053663	-0.08637748929	
526.875	-0.3434391747	0.2408091346	
527.5	0.2468721777	0.4681662659	
528.125	-0.1923881894	0.5108463831	
528.75	0.2554847237	0.9964104837	
529.375	0.02630131925	-0.0622367722	
530.0	0.3214254566	0.7211720952	
530.625	0.243359878	0.406630014	
531.25	1.45871563	0.3912633422	
531.875	-0.08125740459	-0.4158261532	
532.5	0.1551620632	-0.6830525718	
533.125	-0.3586887485	0.5079035329	
533.75	0.4905104635	-1.149228612	
534.375	-0.5790273089	-0.09354594243	
535.0	-0.4417113829	-0.5886320088	
535.625	-0.3284554753	0.7289433152	
536.25	-0.07215541853	0.07256998342	
536.875	0.3743691517	0.100814384	
537.5	0.05355590682	-0.1929331	
538.125	0.2479197815	0.05337822189	
538.75	0.3639735401	-0.4689749949	
539.375	-0.1742897228	-0.2665292997	
540.0	-0.3247826433	-0.3628019077	
540.625	-0.4530314578	0.0277947605	
541.25	-0.1018542791	-0.001793531213	
541.875	-0.1972214825	-0.06401800595	
542.5	-0.07415119358	-0.03325008323	
543.125	-0.1490187962	-0.1444961355	
543.75	-0.334658643	0.01134521711	
544.375	0.1252222404	0.1021978581	
545.0	-0.2145158792	0.2212237667	
545.625	0.348484215	-0.03333597787	
546.25	-0.05304635158	0.218260245	
546.875	0.5003989619	-0.2634813104	
547.5	-0.001634876485	-0.06928247945	
548.125	0.04593265168	-0.5568820464	
548.75	-0.4997415583	-0.1196087593	
549.375	-0.06481982065	-0.09038013155	
550.0	-0.3054889483	-0.06621449334	
550.625	-0.029407686	0.1367799748	
551.25	-0.2307882602	-0.04250302835	
551.875	-0.1329274699	0.2836715177	
552.5	-0.08126650329	0.1011675444	
553.125	-0.02013605185	0.2080606375	
553.75	0.09508495654	0.07481779079	
554.375	0.2318203748	0.003892747815	
555.0	0.2118295951	-0.1916811719	
555.625	0.1653463546	-0.2524341972	
556.25	0.1410827278	-0.3293977524	
556.875	-0.09888673518	-0.3785799523	
557.5	-0.2461168711	-0.2139228571	
558.125	-0.2492458056	-0.07197388629	
558.75	-0.2654646692	-0.009569421989	
559.375	-0.2310371313	0.09480603433	
560.0	-0.2180182414	0.1252659382	
560.625	-0.1184264965	0.3260153883	
561.25	0.09238811995	0.1492312817	
561.875	-0.0163343654	0.1458135891	
562.5	0.1467613884	0.1006335681	
563.125	0.03401831647	0.1402477316	
563.75	0.4377169918	0.01671562932	
564.375	0.126069381	-0.276948702	
565.0	0.289983362	-0.2635801354	
565.625	-0.2303633249	-0.3941670962	
566.25	-0.125633159	-0.1556828467	
566.875	-0.3871834769	-0.2744470162	
567.5	-0.4225315253	-0.09769777434	
568.125	-0.1417026707	-0.2854185267	
568.75	-0.6586412762	-0.3184651461	
569.375	-0.4471900925	0.5090658222	
570.0	-0.1807433935	0.1543776777	
570.625	-0.3596251529	0.6975657429	
571.25	0.2868437048	0.02358108231	
571.875	-0.01372517521	0.4707568761	
572.5	0.2796216969	-0.4211987031	
573.125	0.2510985487	0.1549655375	
573.75	0.2514751352	-0.6019623676	
574.375	-0.271507687	-0.08615273922	
575.0	0.3374484994	0.04156403205	
575.625	-0.1425409631	-0.3954718653	
576.25	0.1526842698	0.08978203668	
576.875	0.03495479939	-0.5980577691	
577.5	-0.2790188255	-0.2836845165	
578.125	0.1420525133	-0.2230113056	
578.75	-0.2651251992	-0.5091677665	
579.375	-0.3371852538	0.05853229843	
580.0	0.1054919071	-0.09889428901	
580.625	-0.4293154061	-0.0690018937	
581.25	0.08844809814	0.1399151512	
581.875	-0.3327083557	0.3276798077	
582.5	0.4526477639	0.5297478797	
583.125	0.03716402129	-0.2123820487	
583.75	0.1316319619	0.4851526804	
584.375	0.01585348531	-0.3814546695	
585.0	0.2315885999	0.5772841346	
585.625	0.5437110659	-0.3069214365	
586.25	0.01844942023	-0.1262979523	
586.875	0.4180625924	-0.2447581926	
587.5	-0.3230982331	-0.4093321892	
588.125	0.1449050311	-0.09882044277	
588.75	0.1194566402	-0.5960183915	
589.375	-0.1172446425	-0.1887957948	
590.0	0.1765722095	-0.5511649459	
590.625	-0.6174404696	0.1038825773	
591.25	-0.1173138536	0.1972861805	
591.875	-0.1466643284	0.1397620092	
592.5	-0.06271512216	0.3333477908	
593.125	0.02001649048	-0.1953670156	
593.75	0.1775050284	0.6229724517	
594.375	0.3615191301	-0.09912235471	
595.0	0.1299983912	0.4326171934	
595.625	0.7858740657	0.1318271347	
596.25	-0.04138283197	0.003168661223	
596.875	0.6137935186	0.3645659744	
597.5	0.5049853796	-0.2055786165	
598.125	-0.008175166722	0.2819035806	
598.75	0.5434817185	0.3327237358	
599.375	0.3992522823	-0.2921157877	
600.0	0.3686510576	-0.1350767147	
600.625	0.3736367599	-0.5934543096	
601.25	-0.02095849526	-0.2699807826	
601.875	-0.07245241945	-0.4738321839	
602.5	-0.3540834176	0.1412585997	
603.125	-0.1756013397	-0.0485767982	
603.75	-0.2647503412	0.2189817706	
604.375	-0.2686134958	0.148541184	
605.0	0.06546541334	0.2888272713	
605.625	-0.4074143524	-0.1448959012	
606.25	-0.1468492553	0.5263487789	
606.875	-0.1569793892	-0.1744373393	
607.5	-0.7214817825	0.8119594137	
608.125	0.2330004852	0.1894037239	
608.75	0.1767071464	0.6775105151	
609.375	0.7176385606	-0.5216300358	
610.0	0.1358072542	0.101395197	
610.625	0.38592368	-0.651091581	
611.25	-0.2040138934	-0.164830956	
611.875	-0.02792846859	-0.4801870251	
612.5	-0.4117586023	0.1696505303	
613.125	-0.3881713364	-0.1842421162	
613.75	-0.227576712	0.563738549	
614.375	0.04468322177	-0.1127903757	
615.0	0.2844978833	0.414234463	
615.625	-0.05896636777	-0.1505381348	
616.25	-0.3333568655	0.5671052056	
616.875	0.2456107513	0.4335978007	
617.5	-0.4632249757	0.3126082643	
618.125	0.1402025072	0.7194989911	
618.75	0.08426540185	0.1756692078	
619.375	0.2120098071	0.573076159	
620.0	0.3878266832	-0.09536353614	
620.625	0.3259985288	-0.2633564078	
621.25	-0.339312043	-0.3807301917	
621.875	-0.3062964699	-0.2365837224	
622.5	-0.6493383333	0.3303110027	
623.125	0.02648755772	0.1488889723	
623.75	0.3942470935	0.3558754072	
624.375	-0.1805569604	-0.2798760616	
625.0	0.4561286279	0.03342621633	
625.625	-0.3257765819	-0.1639182234	
626.25	0.2552476954	-0.3563637575	
626.875	-0.6681374123	-0.2355936844	
627.5	-0.1071173107	0.1847712086	
628.125	-0.1274067509	-0.4332668313	
628.75	-0.4147276629	-0.25596866	
629.375	-0.09502929524	-0.2012457737	
630.0	-0.4289286943	-0.3612655226	
630.625	-0.4442535786	0.3876871968	
631.25	-0.3886188669	0.2279407171	
631.875	0.04477968482	0.725281639	
632.5	0.3712541583	0.218028864	
633.125	0.3794115503	0.2084307389	
633.75	0.4666546048	-0.1958151139	
634.375	-0.0304534334	-0.4485901705	
635.0	0.07163880094	-0.0720258077	
635.625	-0.4586766834	-0.4707973499	
636.25	-0.2188461125	0.5161736731	
636.875	-0.2277548517	-0.2259639977	
637.5	-0.002500095421	0.6886860868	
638.125	-0.08145337197	-0.2354333275	
638.75	-0.3300561089	0.7798570312	
639.375	0.4843307246	0.1491752144	
640.0	-0.1635604716	0.7307158926	
640.625	0.965067533	0.4095586112	
641.25	0.3918227455	-0.3681000308	
641.875	0.2085534533	-0.09437563363	
642.5	0.2019842871	-0.8171661607	
643.125	-0.4439538472	0.1602935751	
643.75	-0.118121756	-0.4293827288	
644.375	-0.5429547162	0.3350940118	
645.0	-0.118435024	-0.05157505701	
645.625	0.1114453469	0.8872455708	
646.25	0.4668408529	-0.1437431208	
646.875	-0.003425047808	0.02094381912	
647.5	0.3967313369	0.3530963485	
648.125	0.1768213165	-0.4748468159	
648.75	0.5060604818	0.563713638	
649.375	0.8177898241	-1.160237808	
650.0	-0.3632989398	-0.4352567586	
650.625	0.9680554552	-0.2763405261	
651.25	0.1226054011	-1.370215295	
651.875	0.1152672192	0.2265277038	
652.5	1.298425887	-0.2327314101	
653.125	0.1348802001	-0.7812319082	
653.75	0.336552156	0.0004197798892	
654.375	-0.11920119	-1.172912474	
655.0	-0.8093308495	0.2582014825	
655.625	-0.1271134274	0.01039704465	
656.25	-0.1155662959	0.7899963032	
656.875	0.3754893496	-0.2995269196	
657.5	-0.0624008445	0.583180176	
658.125	0.5892281662	0.1857018618	
658.75	0.4158382833	-0.02725372928	
659.375	0.8140534501	0.05938785231	
660.0	0.4993729424	-1.216663223	
660.625	-0.1013643894	-0.3957600454	
661.25	0.7070283638	-0.5299895301	
661.875	0.4031339268	-1.140828795	
662.5	0.07322931168	-0.003077972094	
663.125	1.113392501	-0.6227778141	
663.75	-0.2209647663	-0.7688525428	
664.375	0.205884724	-0.3688061302	
665.0	-0.8582590786	-0.7538624771	
665.625	-0.5120447669	0.6312725528	
666.25	-0.2875809425	0.3117538223	
666.875	0.3880857815	0.7075308048	
667.5	0.3556339541	-0.1609605495	
668.125	0.6288424339	0.3110019582	
668.75	0.2740665526	-0.6348484344	
669.375	0.07224935505	-0.247161485	
670.0	0.2596155906	-0.5862796713	
670.625	-0.172089585	-0.6242269848	
671.25	-0.1081180091	-0.1491852104	
671.875	0.5830898976	-0.2387132602	
672.5	0.4408898511	-0.7090294756	
673.125	0.06482221753	-0.2616853247	
673.75	0.79001527	-0.5651826724	
674.375	-0.436082042	-0.5351118446	
675.0	0.1779293975	-0.3990925587	
675.625	-0.803573643	-0.5579347594	
676.25	-0.3031111549	0.61196046	
676.875	-0.1899555866	-0.575252377	
677.5	-0.6658237496	0.5232571394	
678.125	0.03028101186	0.1800234995	
678.75	-0.1981595918	0.4962148852	
679.375	0.9024809272	0.05293975366	
680.0	-0.0765672022	-0.04615889464	
680.625	0.4588455983	-0.2012318237	
681.25	-0.0422383955	-0.3606148835	
681.875	0.2318985136	0.6099271895	
682.5	0.8669038068	-0.1033253584	
683.125	0.2778767181	0.03090475187	
683.75	0.4474142974	0.1056358358	
684.375	0.7902803843	0.4671589984	
685.0	0.9318098587	-0.6827313636	
685.625	-0.05905194522	0.6153300928	
686.25	1.46274237	-0.50398476	
686.875	-0.2123356592	-0.3804983172	
687.5	1.398012924	-0.5130973323	
688.125	-1.31257805	-1.068652963	
688.75	-0.0133343018	-0.5229722321	
689.375	-1.23209496	1.227920698	
690.0	0.8560267778	0.3389932334	
690.625	0.009156635073	0.7232073667	
691.25	1.167887839	0.5719863433	
691.875	0.8171436631	0.4017619555	
692.5	1.364150677	0.5914979466	
693.125	1.581259174	-0.3352220562	
693.75	1.120662621	-0.3907998785	
694.375	0.9483163866	-1.088867433	
695.0	0.8615685681	-0.5970325964	
695.625	1.336929559	-0.4858017279	
696.25	0.7382120262	0.06317906005	
696.875	1.226259322	1.485288585	
697.5	1.42889197	-0.02276912436	
698.125	0.9059960268	0.9309548462	
698.75	0.9820620686	-1.945282793	
699.375	-0.613651681	0.1488352415	
700.0	-1.341763582	0.9189784427	
700.625	0.9671670407	0.3122128569	
701.25	-0.07225580383	0.636075523	
701.875	1.299666276	0.4137868803	
702.5	0.3057503006	0.3530592725	
703.125	1.290734968	0.5046935555	
703.75	0.5774899722	-0.7100566304	
704.375	0.8686793789	0.1367300611	
705.0	0.5514602937	-0.8883409117	
705.625	0.09306666827	0.1848937647	
706.25	1.25595184	0.7380672223	
706.875	0.2608260424	-0.1150409286	
707.5	0.5620709587	1.261885058	
708.125	1.461166507	-0.4886365464	
708.75	0.359044044	-0.4076804709	
709.375	-0.8574848862	-0.8655755953	
710.0	-0.09047387991	0.75316821	
710.625	0.05317229378	0.3289553726	
711.25	0.3365702417	0.1893654433	
711.875	0.438972304	0.1791007595	
712.5	0.7696044406	-0.06983309001	
713.125	0.4873801632	-0.4448603325	
713.75	0.2997126493	-0.7412104213	
714.375	-0.1658385774	-0.274383052	
715.0	0.3221014765	-0.784529359	
715.625	-0.5846132806	-0.4609125661	
716.25	0.5729070242	0.1059501001	
716.875	1.562153632	-1.007303469	
717.5	-0.2581789424	-0.8126990005	
718.125	2.523844066	1.208882834	
718.75	1.996265629	-2.14194769	
719.375	0.3851939107	0.62150777	
720.0	2.198527194	-4.571585665	
720.625	-1.269573518	-0.7946984391	
721.25	0.421900193	-2.582140789	
721.875	-0.7501429455	-2.956707955	
722.5	-2.349300948	-0.7150959219	
723.125	-1.201757392	-0.5085330165	
723.75	-1.053099256	1.590151755	
724.375	0.4375981045	0.7615014104	
725.0	0.2119232958	0.8112480486	
725.625	0.6669522996	1.475800151	
726.25	0.6000766615	0.9999440768	
726.875	-0.9452617314	1.845817991	
727.5	0.0778549302	5.045203851	
728.125	4.064296767	3.523422361	
728.75	-5.09133918	3.152046648	
729.375	4.872516092	16.66942175	
730.0	3.741174643	2.449707685	
730.625	-9.011356888	15.17500607	
731.25	10.66776666	15.54934801	
731.875	-6.993994216	-1.871341148	
732.5	-12.33930918	6.73480085	
733.125	-4.110258822	5.243000703	
733.75	-0.5504350045	1.3144428	
734.375	2.753998523	2.26291189	
735.0	-1.483243532	-1.383403419	
735.625	-0.5718603305	-0.07792206792	
736.25	-0.4546100194	1.8078203	
736.875	1.847374065	0.1698824611	
737.5	2.102085239	1.943501218	
738.125	4.638126128	-2.693893657	
738.75	2.403155388	-5.163781702	
739.375	0.9518636739	0.941007706	
740.0	20.87821805	-1.165142347	
740.625	6.480046472	-20.6161554	
741.25	-16.47923011	3.368337886	
741.875	-11.82405368	21.99540631	
742.5	1.345644094	6.082971851	
743.125	4.35845836	-8.388044393	
743.75	-3.8314147	-1.742221913	
744.375	0.3351554872	-0.479331911	
745.0	0.3952261868	0.9122617701	
745.625	-0.2639275261	0.1268974074	
746.25	0.02651844064	-0.5301312335	
746.875	-0.6777764403	-0.01204692441	
747.5	-0.08661561619	0.5884314364	
748.125	-0.1890141546	1.474006838	
748.75	1.302196255	1.173257939	
749.375	0.4529465002	0.9553013063	
750.0	-0.4996795775	0.7855482355	
