!Created with skrf (http://scikit-rf.org).
# GHz S RI R (50+0j) 
!freq	ReS11	ImS11	
500.0	0.8883607721	-3.686489831	
500.625	-0.9452881179	-3.20206687	
501.25	-0.5740406652	-2.528575948	
501.875	-1.194199309	-0.2408419423	
502.5	-0.1377291976	-0.4392955423	
503.125	-0.1948352636	0.1529712287	
503.75	0.0553092763	0.03208778563	
504.375	0.1506304779	0.06131608037	
505.0	-0.07952764858	-0.1553251829	
505.625	0.1303001212	0.004185703596	
506.25	-0.3530578094	-0.4245033029	
506.875	0.4817008566	0.1165461688	
507.5	-1.12120107	-1.856073557	
508.125	0.1031109803	-0.09660910852	
508.75	2.550862978	-3.869605572	
509.375	-2.998467909	-2.847159041	
510.0	-0.315767508	-0.2990487299	
510.625	-0.6111663655	-0.6349349967	
511.25	-0.4124107778	0.04812741448	
511.875	-0.2950636618	0.0158853494	
512.5	-0.1102801496	0.08628835192	
513.125	-0.1937795543	-0.2864840668	
513.75	-0.08855557453	-0.1323552026	
514.375	-0.3904219492	-0.128097091	
515.0	0.6538160497	0.5528683542	
515.625	-1.531436608	-2.512965743	
516.25	-0.3111661287	0.8064047195	
516.875	0.4071718883	-2.546267986	
517.5	-0.9953949001	-0.4041358903	
518.125	0.2849128983	-0.1620906762	
518.75	-0.888903885	-0.4895374404	
519.375	-0.09257149856	0.01015897929	
520.0	0.4479762349	0.3106178681	
520.625	0.3698859367	-0.3895510809	
521.25	0.02928535561	-0.3604969834	
521.875	-0.5913029776	-0.1282423761	
522.5	0.02821865856	0.04089362622	
523.125	-0.2676447826	0.2532135217	
523.75	-0.0003767786173	-0.08332424356	
524.375	-0.6814201056	0.1795008868	
525.0	0.2087845102	0.1222319672	
525.625	-0.06735142467	0.2084846187	
526.25	0.09746004727	-0.2345606159	
526.875	-0.1827134075	0.3707357253	
527.5	0.1160229518	0.2349542721	
528.125	-0.1565705544	0.8731033793	
528.75	0.5381294575	0.7038691301	
529.375	-0.1165219873	0.1868152945	
530.0	0.4783327636	0.3832825079	
530.625	0.01930421767	0.5656348507	
531.25	1.574288612	0.09631237057	
531.875	0.2162849828	-0.2284367434	
532.5	-0.2554902155	-0.6647478636	
533.125	0.3307274583	0.4830828395	
533.75	-0.0946631551	-1.101470475	
534.375	-0.1347217228	-0.1099536074	
535.0	-0.804937933	-0.5915871979	
535.625	-0.1284466062	0.5294462221	
536.25	-0.1175718533	0.1798034397	
536.875	0.399184367	-0.02238202274	
537.5	-0.000354821928	-0.01290821267	
538.125	0.5046450661	-0.1399496967	
538.75	0.114468351	-0.4062760729	
539.375	-0.05453777959	-0.2867213595	
540.0	-0.4127031772	-0.4211143142	
540.625	-0.4149317584	-0.0134965872	
541.25	-0.1522819336	0.07575724634	
541.875	-0.1449968288	-0.1105585352	
542.5	-0.07765077993	-0.05059826676	
543.125	-0.2084561967	-0.1562678554	
543.75	-0.2012395181	0.1108980222	
544.375	-0.06743929414	-0.02659762017	
545.0	0.006146669391	0.2866426975	
545.625	0.09654040857	-0.1321864421	
546.25	0.2309255542	0.4099400327	
546.875	0.2624695937	-0.3383055162	
547.5	0.1407267023	-0.07231509251	
548.125	-0.0943277534	-0.5937595609	
548.75	-0.3387889985	-0.004564426067	
549.375	-0.1229406358	-0.2802130818	
550.0	-0.2958357435	0.1107048739	
550.625	0.01630720255	-0.02052319147	
551.25	-0.3177078581	0.09115738046	
551.875	-0.03635644999	0.2131360564	
552.5	-0.1330848245	0.1268204986	
553.125	-0.0006690610722	0.2013578062	
553.75	0.09330603425	0.08689750526	
554.375	0.2391015009	-0.004623643791	
555.0	0.1987974085	-0.179985861	
555.625	0.1873925203	-0.244331558	
556.25	0.1381833536	-0.3432147772	
556.875	-0.1122119431	-0.3647594414	
557.5	-0.2432083823	-0.2146877898	
558.125	-0.2524774092	-0.08675836047	
558.75	-0.2702193502	0.01135007029	
559.375	-0.2116106888	0.0729443753	
560.0	-0.2430490698	0.148476864	
560.625	-0.06724710351	0.316008547	
561.25	-0.003011486407	0.1272026208	
561.875	0.1075774377	0.2012624832	
562.5	0.02804448363	0.0036658663	
563.125	0.1055962555	0.2639764108	
563.75	0.4083738046	-0.1123062489	
564.375	0.1426509125	-0.1701138084	
565.0	0.273935877	-0.349511182	
565.625	-0.2119122073	-0.3354122189	
566.25	-0.1330116976	-0.2318291703	
566.875	-0.4469484073	-0.1988019975	
567.5	-0.247204431	-0.07586986937	
568.125	-0.2620155559	-0.5013191718	
568.75	-0.6838490421	-0.06303319775	
569.375	-0.2828671314	0.2805331742	
570.0	-0.4996941683	0.2702198038	
570.625	-0.003570354599	0.7715381446	
571.25	0.03760909593	-0.07009309527	
571.875	0.2374824303	0.5061887003	
572.5	-0.03218647453	-0.2549587996	
573.125	0.5472371527	-0.08785554852	
573.75	-0.116692834	-0.5543379949	
574.375	-0.02964988575	0.180670587	
575.0	0.2839703203	-0.3121130231	
575.625	-0.2448291564	-0.07282099535	
576.25	0.3829501687	-0.1104976098	
576.875	-0.1500673173	-0.5392067951	
577.5	-0.1416538669	-0.1225149022	
578.125	0.1263199961	-0.4484514159	
578.75	-0.4579609816	-0.332025914	
579.375	-0.0782098631	0.03792748629	
580.0	-0.07167724127	-0.2817391765	
580.625	-0.2556515845	0.1794618893	
581.25	-0.08415781161	-0.1024346931	
581.875	-0.188444502	0.6349776909	
582.5	0.5223175835	0.2184784558	
583.125	-0.2088990168	-0.0338176549	
583.75	0.5041131817	0.3143259422	
584.375	-0.382763416	-0.06931923654	
585.0	0.6171978086	0.3194611246	
585.625	0.1409237232	-0.3608370231	
586.25	0.2720780073	0.2100648757	
586.875	0.3123180506	-0.5469174532	
587.5	-0.2892509932	-0.1327940779	
588.125	0.2218783697	-0.2640405448	
588.75	-0.03524224046	-0.5895279788	
589.375	0.03022508159	-0.04760171493	
590.0	-0.0786901323	-0.6975959731	
590.625	-0.3597032603	0.1620639813	
591.25	-0.3036974891	0.03875929055	
591.875	-0.1506533052	0.3998761371	
592.5	0.1954891011	0.1317485319	
593.125	-0.3203978161	-0.01646981893	
593.75	0.4159012476	0.4176114381	
594.375	0.1258601631	-0.09060352775	
595.0	0.2576437358	0.6459335418	
595.625	0.7392734273	-0.1946532827	
596.25	0.01109753502	0.3515218186	
596.875	0.7535940582	0.07442192183	
597.5	0.01992842829	-0.18465898	
598.125	0.3424885577	0.7087818778	
598.75	0.6064211793	-0.03466015762	
599.375	0.2561201445	-0.07811543732	
600.0	0.5211486961	-0.2141278841	
600.625	0.2439510741	-0.5956379188	
601.25	0.1140639113	-0.2618214928	
601.875	-0.1601727044	-0.4528499121	
602.5	-0.2090138013	0.1164811558	
603.125	-0.3340841942	0.002269948051	
603.75	-0.1704096957	0.2813199205	
604.375	-0.2268181955	0.1033382221	
605.0	-0.06412965711	0.1301160936	
605.625	-0.3894158237	0.1962297689	
606.25	0.07879579046	0.249550848	
606.875	-0.6030524087	-0.2384891154	
607.5	-0.1817142259	0.9299432309	
608.125	-0.1356187372	0.1341811665	
608.75	0.5523792904	0.7859069925	
609.375	0.1845553093	-0.4748239842	
610.0	0.5711344032	0.07185167407	
610.625	0.04877595276	-0.685661415	
611.25	0.05104030757	0.02045724225	
611.875	-0.3750327373	-0.567654334	
612.5	-0.1553985213	0.04860823447	
613.125	-0.6030001324	-0.09105629279	
613.75	0.02907272904	0.505488148	
614.375	-0.2415636521	0.1864792494	
615.0	0.4337105769	0.07514677738	
615.625	-0.3102808072	0.05388434461	
616.25	0.02090040705	0.6835034263	
616.875	0.01691247074	0.04623625226	
617.5	-0.4277370024	0.6598574765	
618.125	0.2710510237	0.5119971083	
618.75	-0.1282004356	0.2648393492	
619.375	0.4140805436	0.4564367163	
620.0	0.255370672	0.01097055442	
620.625	0.3506666411	-0.4072557314	
621.25	-0.2750162054	-0.2716242563	
621.875	-0.4536680627	-0.3026910378	
622.5	-0.3791779251	0.3544847049	
623.125	-0.2084013021	0.2217345707	
623.75	0.5754475408	0.1513673871	
624.375	-0.2601076599	-0.03048871501	
625.0	0.4471771286	-0.4012098495	
625.625	-0.07193311922	0.1575663077	
626.25	0.05744411349	-0.6207501984	
626.875	-0.5623753001	0.1168658175	
627.5	0.1109826588	-0.2585175123	
628.125	-0.6051680059	-0.2776989	
628.75	-0.152800732	-0.01342621834	
629.375	-0.04762280598	-0.3814084487	
630.0	-0.5937994586	-0.2869969974	
630.625	-0.3028499347	0.2785686133	
631.25	-0.4294173837	0.3587402886	
631.875	0.09822804705	0.6372284569	
632.5	0.2604978336	0.2842439886	
633.125	0.5626458406	0.2369423334	
633.75	0.26722238	-0.3164255678	
634.375	0.1286960428	-0.2085471587	
635.0	0.03918707197	-0.3744491033	
635.625	-0.5727748241	-0.1374374391	
636.25	0.08205047167	0.2167356781	
636.875	-0.6519801676	0.2103245245	
637.5	0.29720944	0.4603147099	
638.125	-0.3681779025	-0.1748746837	
638.75	-0.01667405704	0.7934385119	
639.375	0.02313363091	0.004960635147	
640.0	0.2530782105	0.9725985709	
640.625	0.8171055166	-0.1276857436	
641.25	0.2020643837	0.1762536816	
641.875	0.8106772918	-0.4313580048	
642.5	-0.4550117147	-0.6699601285	
643.125	-0.06135582894	0.04303194291	
643.75	-0.3567754997	-0.4276497371	
644.375	-0.4581377194	0.2952575001	
645.0	-0.2839607978	-0.006926651185	
645.625	0.2718634499	0.7389845978	
646.25	0.2725942775	-0.08364056784	
646.875	0.1379057608	0.2050875736	
647.5	0.3662815414	-0.2814718652	
648.125	-0.06524451058	0.3640622153	
648.75	1.088743806	-0.1119925352	
649.375	0.09324803638	-1.060003418	
650.0	0.1198261576	0.02361173438	
650.625	1.012822747	-0.9625033687	
651.25	-0.3379311265	-0.8087053324	
651.875	0.6789055467	0.2578112089	
652.5	0.9887274203	-0.8224804197	
653.125	-0.07367627408	-0.1758349468	
653.75	0.9490206717	-0.5319474067	
654.375	-0.6184035873	-0.8318632129	
655.0	-0.3242500574	0.2188569123	
655.625	-0.6578802771	0.0368967344	
656.25	0.3807084535	0.8070520214	
656.875	-0.1268562777	-0.225254526	
657.5	0.2285978865	0.5030299655	
658.125	0.4198477297	0.04778793279	
658.75	0.3435457322	0.3336426743	
659.375	1.10760127	-0.5050349374	
660.0	0.03924784504	-0.7836501723	
660.625	0.3478846571	-0.3649710954	
661.25	0.7298314956	-0.9029468131	
661.875	-0.1664565408	-0.9066773426	
662.5	0.7320536497	0.1383389984	
663.125	0.6718455336	-1.013458771	
663.75	-0.09523848612	-0.3379089189	
664.375	0.3311295451	-0.9938971364	
665.0	-1.068721792	-0.1082412699	
665.625	-0.2737386066	0.1219747616	
666.25	-0.4684646647	0.574833197	
666.875	0.5759902309	0.5645146057	
667.5	0.1093735505	-0.05259107934	
668.125	0.8167650888	0.06446286719	
668.75	0.1550197552	-0.4902328332	
669.375	0.3178116618	-0.224612235	
670.0	-0.07549480626	-0.8549297672	
670.625	-0.1766036429	-0.09754098844	
671.25	0.3360597762	-0.4031879823	
671.875	0.342580229	-0.5654894856	
672.5	0.1482906784	-0.5445700271	
673.125	0.3079680779	0.0452162658	
673.75	0.6273945555	-0.9950726698	
674.375	-0.3325253088	-0.1979671465	
675.0	0.1366511242	-0.7465873628	
675.625	-0.9841904984	-0.1089811682	
676.25	0.2875565633	-0.09443179029	
676.875	-0.9889513084	-0.01410892027	
677.5	0.09497714017	0.4380873257	
678.125	-0.4451910555	-0.0534837977	
678.75	0.123861224	0.8950777254	
679.375	0.627500333	-0.3002709349	
680.0	0.1361807228	0.101200144	
680.625	0.4184322451	-0.3570082146	
681.25	-0.2109834923	-0.1513957328	
681.875	0.7369824458	0.4018772561	
682.5	0.3780218407	-0.1871184594	
683.125	0.3731453114	0.2683169033	
683.75	0.7271383362	0.2886882287	
684.375	0.8122925385	-0.2365638333	
685.0	0.09091846512	-0.1065028533	
685.625	0.9964918134	0.6296172552	
686.25	0.8117051654	-0.9972670785	
686.875	0.08484472016	0.2913079792	
687.5	1.273554302	-1.468743324	
688.125	-0.774710199	0.01698173461	
688.75	-0.8257487424	-1.119898806	
689.375	-0.4851694769	1.627213528	
690.0	-0.01236735899	-0.1032053949	
690.625	0.9178297924	1.273394334	
691.25	0.7821526509	0.0766981641	
691.875	0.7778049055	0.7236431952	
692.5	1.539803127	0.5010078077	
693.125	1.342146322	-0.3450849372	
693.75	1.375801301	-0.5449140954	
694.375	0.771958932	-0.9655505987	
695.0	1.04705176	-0.6169257016	
695.625	1.039014777	-0.5191729733	
696.25	0.8097854473	0.4837077311	
696.875	1.694722472	0.7621399855	
697.5	0.5308886188	0.325505264	
698.125	1.809708809	0.9630694577	
698.75	0.071704259	-1.818809264	
699.375	-0.1190851724	-0.8262486936	
700.0	-0.7779341957	1.543297647	
700.625	0.454788665	-0.009617717399	
701.25	0.6710381962	1.132356248	
701.875	0.6850688671	-0.1238947081	
702.5	0.4861286398	0.8133167782	
703.125	1.41077508	0.002423479832	
703.75	0.29199315	-0.1143801328	
704.375	1.149604949	-0.51949033	
705.0	0.09951512852	-0.6310436057	
705.625	0.5508666306	0.5887213479	
706.25	1.160988399	-0.1559956072	
706.875	-0.02521045741	0.5913583679	
707.5	1.165805792	1.176951006	
708.125	0.6128307693	-0.5349956674	
708.75	1.093980804	-0.7058463126	
709.375	-1.248603334	-0.450437149	
710.0	-0.08822647982	0.379681094	
710.625	0.18832445	0.4762122183	
711.25	0.2506947647	0.1648073459	
711.875	0.5257265069	0.2215583353	
712.5	0.6801487466	-0.1941824896	
713.125	0.6535157556	-0.3575930606	
713.75	0.09033392479	-0.6637547	
714.375	0.1758746884	-0.3728838472	
715.0	-0.2551742365	-0.732644988	
715.625	-0.1345113578	-0.03130755909	
716.25	1.070979502	-0.5819995047	
716.875	0.3637966695	-1.525746652	
717.5	0.3878857906	0.9669326427	
718.125	2.853562413	-0.1250284932	
718.75	0.7584628378	-1.784807996	
719.375	2.831450544	0.5368966536	
720.0	-0.8609624638	-4.114356973	
720.625	0.9196585729	-1.194731613	
721.25	0.02164647175	-3.575317224	
721.875	-2.218196577	-2.218812195	
722.5	-0.8516424467	-0.8367411945	
723.125	-2.286701728	-0.6326389711	
723.75	-0.5723366235	1.530154632	
724.375	0.2401860753	0.8093302166	
725.0	0.09753025929	0.9408835431	
725.625	0.9900283736	1.01732764	
726.25	-0.05281964161	1.023027256	
726.875	-0.4453221514	2.752595184	
727.5	1.748998168	3.778384864	
728.125	-0.7658042442	1.113667235	
728.75	-0.905513794	11.02419176	
729.375	7.502318648	8.411759834	
730.0	-2.325844195	1.638237937	
730.625	-0.515879366	24.1866932	
731.25	6.906089782	2.727686394	
731.875	-12.18441249	4.439377841	
732.5	-9.801790272	8.221887862	
733.125	-1.121975779	1.705694912	
733.75	-3.936168852	4.159369023	
734.375	3.120693838	-0.5647639966	
735.0	-0.4768661736	-0.7229735504	
735.625	-1.059600154	-0.3150257388	
736.25	0.2476002234	2.060836759	
736.875	0.7788481386	-0.02203862179	
737.5	3.061527855	1.403816931	
738.125	4.173110249	-2.646435328	
738.75	0.6661114528	-2.79330398	
739.375	10.93593224	0.2434396303	
740.0	6.991095929	-12.72878124	
740.625	-5.250168498	0.01599323421	
741.25	-4.535761296	23.76962484	
741.875	3.720913313	29.38808267	
742.5	4.351853174	-7.270533218	
743.125	-2.593483473	-11.5949702	
743.75	-2.479114628	-0.3602149835	
744.375	-0.8399331741	-1.430391126	
745.0	0.8423987201	0.3079842261	
745.625	0.1563972923	0.3805277523	
746.25	-0.2859641963	-0.4136051668	
746.875	-0.3688260513	0.2503035518	
747.5	-0.3647662984	0.6110440867	
748.125	0.1875551146	1.914277323	
748.75	1.007885823	0.8678305963	
749.375	-0.4218354038	1.552318628	
750.0	-0.9971980936	0.5033876022	
