!Created with skrf (http://scikit-rf.org).
# GHz S RI R (50+0j) 
!freq	ReS11	ImS11	
500.0	-0.1584110391	-0.6975508296	
500.625	0.8767685853	-0.9755156085	
501.25	-0.8883501616	-0.8021933311	
501.875	-0.1288643086	-0.2548109918	
502.5	-0.03583914969	-0.2470745331	
503.125	-0.05291830158	0.05232928704	
503.75	-0.0444378809	0.05449493568	
504.375	0.05255038669	-0.01415812472	
505.0	0.004996185639	0.01922551143	
505.625	0.01915782891	-0.1081881039	
506.25	-0.08648439414	0.03875051689	
506.875	-0.1152795355	-0.241165073	
507.5	-0.4274332865	-0.309491981	
508.125	0.6091761566	-0.4246776698	
508.75	0.9734214776	-1.172815574	
509.375	-0.6801142778	-1.650340881	
510.0	-0.1860142561	-0.3481071234	
510.625	-0.1982704759	-0.2931469592	
511.25	-0.1011163607	-0.01606000507	
511.875	-0.1078401168	-0.1325875489	
512.5	-0.02089677981	0.07798778933	
513.125	-0.004294499432	-0.03710425565	
513.75	-0.02777828146	-0.1066701247	
514.375	-0.1226398852	0.1001524637	
515.0	0.2818050367	-0.2182788544	
515.625	-0.4817020201	-0.04920515044	
516.25	0.3253257819	-0.3688390925	
516.875	-0.364298917	-0.7876924525	
517.5	-0.2014174054	-0.1082463649	
518.125	-0.02992932593	-0.1127210824	
518.75	-0.1763133389	-0.1269192028	
519.375	-0.05169946617	0.01259081903	
520.0	0.1198601742	0.08997773692	
520.625	0.161473651	-0.08562829019	
521.25	-0.0457218958	-0.1480114543	
521.875	-0.1147530729	-0.1041710204	
522.5	-0.08027006939	0.1156402747	
523.125	0.03805249727	-0.05406681623	
523.75	-0.2427804252	0.006279212357	
524.375	-0.01438578709	0.09964473778	
525.0	-0.1937702432	0.05884630179	
525.625	0.1255558501	0.1214163528	
526.25	-0.1032248746	-0.05395051094	
526.875	0.01125807099	0.08752266183	
527.5	-0.1032654308	0.08117651319	
528.125	-0.03722960632	0.3997438629	
528.75	0.181107959	0.2217114131	
529.375	0.0001250218388	0.08164097041	
530.0	-0.01115034984	0.1401399266	
530.625	0.0337681573	0.1509268758	
531.25	0.4588527053	0.373414987	
531.875	0.2743012778	-0.3140833935	
532.5	-0.1014573145	0.0195137514	
533.125	0.04342966161	-0.2250253544	
533.75	0.09133719968	-0.01579729427	
534.375	0.0345566789	-0.413058545	
535.0	-0.2852060681	-0.03295928678	
535.625	-0.1309142842	0.03363205283	
536.25	-0.02801921951	0.1313445645	
536.875	0.09587038537	-0.02601218415	
537.5	0.07089821653	0.005654861928	
538.125	0.1603124358	-0.1182023032	
538.75	0.06451994001	-0.0833091742	
539.375	-0.02149736635	-0.2087241792	
540.0	-0.2147001828	-0.1596212784	
540.625	-0.0954873602	-0.009153641844	
541.25	-0.1204649701	-0.06550741037	
541.875	-0.06504378329	0.05159223075	
542.5	0.04421415219	0.0003678842779	
543.125	-0.1449286817	-0.05334883783	
543.75	-0.01044350889	0.01063594461	
544.375	-0.1214834113	-0.008769601398	
545.0	0.05650690427	0.06603037085	
545.625	-0.03936829913	0.07828163788	
546.25	0.1652259839	0.04989242051	
546.875	0.05497783029	-0.04377274574	
547.5	0.1408915898	-0.09397040397	
548.125	-0.09034939498	-0.204105636	
548.75	-0.0748421006	-0.07592232218	
549.375	-0.09587729739	-0.1381836354	
550.0	-0.1037152813	0.04937211966	
550.625	-0.02887509081	-0.03680138903	
551.25	-0.1085793322	0.0573507365	
551.875	-0.04950203424	0.06138868648	
552.5	-0.07628669009	0.06466775106	
553.125	0.002479117008	0.06568210594	
553.75	0.03336185047	0.05860431322	
554.375	0.1142370487	0.007898176723	
555.0	0.0968060824	-0.07147697605	
555.625	0.1028970909	-0.1013265129	
556.25	0.07679726511	-0.150176848	
556.875	-0.0305944297	-0.1711851206	
557.5	-0.09326672191	-0.1155573235	
558.125	-0.1250173012	-0.05263310325	
558.75	-0.1196191088	-0.004439469651	
559.375	-0.1067490017	0.01224592442	
560.0	-0.1233771724	0.06814627508	
560.625	-0.0428511278	0.129492801	
561.25	-0.008844511254	0.08078902952	
561.875	0.04158154746	0.08640709209	
562.5	-0.0002405430382	0.02060348516	
563.125	0.07519898793	0.1224634214	
563.75	0.1484549833	-0.03367833636	
564.375	0.1091796261	-0.0513404841	
565.0	0.1368383226	-0.1766883344	
565.625	-0.08507035051	-0.1458386325	
566.25	-0.05938096796	-0.1306440207	
566.875	-0.2094982027	-0.1254301065	
567.5	-0.10569059	-0.06339724133	
568.125	-0.07197597909	-0.2866683008	
568.75	-0.2966789042	-0.04810538181	
569.375	-0.1828953763	0.04796889841	
570.0	-0.2369975755	0.2086371575	
570.625	0.0469214567	0.2346658791	
571.25	-0.04708899873	0.03993511984	
571.875	0.1108504485	0.1441049908	
572.5	0.05613434959	-0.04178740392	
573.125	0.2228287781	-0.03962786609	
573.75	0.02654457416	-0.215062804	
574.375	-0.02313423178	0.02609097134	
575.0	0.1070930542	-0.105300426	
575.625	-0.04518006988	-0.0297935795	
576.25	0.138037046	-0.07833990083	
576.875	-0.04351441605	-0.2404631345	
577.5	-0.04653689802	-0.0887262985	
578.125	0.08227738549	-0.1704023814	
578.75	-0.1654332266	-0.2143690861	
579.375	-0.06406673159	0.05907382301	
580.0	-0.01565816987	-0.1337783439	
580.625	-0.1204590136	0.1390067941	
581.25	-0.0777001139	-0.06018586292	
581.875	-0.03442698046	0.272535606	
582.5	0.1536865873	0.07867870957	
583.125	-0.05838338437	0.07369087748	
583.75	0.1365014356	0.08343766327	
584.375	-0.05026547596	-0.01753095579	
585.0	0.1981128295	0.1689695768	
585.625	0.1477090523	-0.1118259579	
586.25	0.0916613497	0.0182644818	
586.875	0.1713530955	-0.1877366292	
587.5	-0.0952008719	-0.1092023756	
588.125	0.07468884957	-0.1117689613	
588.75	0.04003227511	-0.2437437336	
589.375	-0.00991755021	-0.1030450614	
590.0	0.09754829748	-0.2262780886	
590.625	-0.3013781582	0.007469748874	
591.25	-0.03770913042	0.06355082387	
591.875	-0.158138162	0.09421833669	
592.5	0.1504476854	0.114199618	
593.125	-0.1764879252	0.02890018366	
593.75	0.1557953846	0.1402881658	
594.375	0.07232832191	0.0445351088	
595.0	0.1947125921	0.2083889091	
595.625	0.2659766195	0.02982863541	
596.25	0.06428057971	0.06753039462	
596.875	0.2319859755	0.118000678	
597.5	0.1540558904	0.00913350949	
598.125	0.0712859308	0.1515815295	
598.75	0.2566486179	0.1513613244	
599.375	0.1651885884	-0.09846433739	
600.0	0.1923322985	-0.06885705991	
600.625	0.1975076839	-0.2188091343	
601.25	-0.02088587912	-0.1997622596	
601.875	0.03003822656	-0.1297001281	
602.5	-0.2641459312	-0.01610732456	
603.125	-0.01050338041	0.06452969742	
603.75	-0.2703845989	-0.02535970279	
604.375	-0.1254452865	0.2028285893	
605.0	0.004093435202	-0.01109057899	
605.625	-0.1723325381	0.1110126249	
606.25	-0.009093436842	0.02113592976	
606.875	-0.2030032342	-0.02666156825	
607.5	-0.2517989426	0.2871819375	
608.125	0.05247039909	0.1818410882	
608.75	0.2249585008	0.2172306623	
609.375	0.3389107886	-0.04617569825	
610.0	0.08205395615	-0.1441545376	
610.625	0.1812756244	-0.08586404096	
611.25	0.02030699251	-0.2503855348	
611.875	-0.03308102693	-0.03839088092	
612.5	-0.2001688114	-0.1939705546	
613.125	-0.2642672894	0.1607690543	
613.75	-0.04527266922	0.01402598694	
614.375	0.02089771192	0.2583741709	
615.0	0.1289849182	-0.05356775528	
615.625	-0.123990598	0.1584176489	
616.25	0.03557591465	0.2677598476	
616.875	-0.1890905983	0.1606345143	
617.5	-0.1919180952	0.2376947391	
618.125	-0.003731184044	0.1908946197	
618.75	0.02484428416	0.07120073142	
619.375	0.0371224473	0.073459659	
620.0	0.2414200548	-0.02610014795	
620.625	0.0615153207	-0.1468380553	
621.25	-0.006590969199	-0.2394564027	
621.875	-0.3393640322	-0.03657890704	
622.5	-0.1458416869	-0.01744297544	
623.125	-0.1480479902	0.2361284807	
623.75	0.1840871026	-0.02486449435	
624.375	-0.01088581095	0.05196787804	
625.0	0.0746981687	-0.1260878435	
625.625	0.02758230488	-0.0004784965951	
626.25	0.003826525074	-0.218948106	
626.875	-0.2113911621	-0.05876848935	
627.5	-0.04897856821	-0.03284499119	
628.125	-0.1595598093	-0.1693952398	
628.75	-0.1089236543	-0.08038218982	
629.375	-0.06105469107	-0.1486225484	
630.0	-0.2332324614	-0.1687725844	
630.625	-0.1700038062	0.1212474236	
631.25	-0.2063432865	0.115614393	
631.875	-0.1384274985	0.3140325164	
632.5	0.189533816	0.165907539	
633.125	0.1406617204	0.1213333037	
633.75	0.3358536644	-0.01812210839	
634.375	-0.04785402456	-0.1224673928	
635.0	0.1531893631	-0.1578798707	
635.625	-0.243241602	-0.09841535905	
636.25	-0.06856622012	0.0595054042	
636.875	-0.1862750981	0.09734802333	
637.5	0.02892410968	0.1908213619	
638.125	-0.1041804227	-0.0136949408	
638.75	-0.1243471666	0.267220061	
639.375	0.1032175336	0.228228341	
640.0	0.01279849431	0.2427787435	
640.625	0.3255130439	0.2551250799	
641.25	0.262145575	-0.08444612484	
641.875	0.1321746599	-0.07323555912	
642.5	0.1365797189	-0.3344088862	
643.125	-0.1545622157	-0.02336083756	
643.75	-0.07292465022	-0.2059572839	
644.375	-0.3361578032	0.06262074778	
645.0	0.07101655443	0.09502261058	
645.625	-0.1279312288	0.3470096548	
646.25	0.3235955316	0.02797233659	
646.875	-0.1209378397	-0.02356913485	
647.5	0.2057901325	0.1111777222	
648.125	0.04565553695	-0.08586629228	
648.75	0.3251605273	0.1315938363	
649.375	0.2858023875	-0.4345429856	
650.0	0.04501281664	-0.21639044	
650.625	0.3446689656	-0.1643818734	
651.25	0.2405494202	-0.4353392975	
651.875	0.09631900731	-0.08057820704	
652.5	0.4266186692	0.04470806466	
653.125	0.3468813709	-0.2476145871	
653.75	0.1049072716	-0.1258669035	
654.375	0.1957632165	-0.3868275107	
655.0	-0.4443519925	-0.05358007797	
655.625	0.03531615243	0.09933110083	
656.25	-0.1595620161	0.2207575312	
656.875	0.2325224006	0.02967304304	
657.5	-0.1616255037	0.1548667496	
658.125	0.3560007724	0.2222780668	
658.75	0.2034354788	-0.01104524525	
659.375	0.3825089667	0.03868180044	
660.0	0.3131739835	-0.5398056531	
660.625	0.0006319057349	-0.2228097918	
661.25	0.3186060096	-0.2339057693	
661.875	0.2789690741	-0.3771215224	
662.5	0.1090237936	-0.1929802171	
663.125	0.4305567717	-0.05635617147	
663.75	0.1489413113	-0.4149431613	
664.375	-0.009629350693	-0.2250531371	
665.0	-0.2318766264	-0.3597827647	
665.625	-0.4005430137	0.1855333449	
666.25	-0.07027185637	0.1735733276	
666.875	-0.009645965836	0.3448350942	
667.5	0.2686582599	0.04694082961	
668.125	0.0174919955	0.07300735984	
668.75	0.3765958482	-0.1347271054	
669.375	-0.005086032835	-0.2599396267	
670.0	0.08608724071	-0.1410159	
670.625	0.02301312842	-0.4154217516	
671.25	-0.08595305608	-0.1252095584	
671.875	0.2638021286	-0.08772294312	
672.5	0.1996577113	-0.2812338452	
673.125	0.1425875002	-0.1056272927	
673.75	0.2626210261	-0.1314221437	
674.375	0.02266394824	-0.4295714846	
675.0	-0.09182821308	-0.1092816301	
675.625	-0.1680697461	-0.2868621133	
676.25	-0.30493651	0.001577590484	
676.875	-0.02962986731	0.02324519545	
677.5	-0.2808773957	-0.08795803741	
678.125	-0.07932271814	0.2609150307	
678.75	-0.05509100083	0.1051706264	
679.375	0.2687752494	0.2476398059	
680.0	0.1201713243	-0.2848873221	
680.625	0.0413037729	0.1813018597	
681.25	0.2888324272	-0.1685108517	
681.875	0.005436556306	-0.07552517709	
682.5	0.1812101942	0.3597503029	
683.125	0.4812027721	0.03541001851	
683.75	-0.03921774586	0.1875871589	
684.375	0.3342302558	0.2285137127	
685.0	0.4509322793	-0.01982752569	
685.625	0.07936303278	-0.0281722743	
686.25	0.5278719233	0.06635662301	
686.875	0.2510399746	-0.319164997	
687.5	0.2457216993	-0.1050042797	
688.125	0.1533331876	-0.5994194378	
688.75	-0.5175109938	-0.1126448025	
689.375	-0.253596985	0.07460154762	
690.0	-0.008311054827	0.5653232115	
690.625	0.3894302944	0.1199082807	
691.25	0.04572363595	0.3708531621	
691.875	0.8730721176	0.4075094497	
692.5	0.4844883132	0.0154657444	
693.125	0.6263163557	0.2147111052	
693.75	0.8045802655	-0.3488968328	
694.375	0.1904779183	-0.1964324052	
695.0	0.6036593909	-0.02268822815	
695.625	0.6475054903	-0.2388075209	
696.25	0.3974413162	0.2862533809	
696.875	0.1892497801	0.5701553085	
697.5	0.2674697484	0.4535279882	
698.125	0.3827270561	0.1809750329	
698.75	0.5086950061	-0.2727774311	
699.375	-0.4011596924	-0.5859157407	
700.0	-0.1296897796	0.319797925	
700.625	-0.1238270958	0.4173578257	
701.25	0.4319125304	0.211711216	
701.875	0.09621972882	0.1744479229	
702.5	0.3729608136	0.4507257141	
703.125	0.5553013452	-0.004562928051	
703.75	0.2322983612	0.005519899844	
704.375	0.4648318302	-0.1399698752	
705.0	0.1413016534	-0.202007307	
705.625	0.1215887797	0.112404385	
706.25	0.3967320596	0.3383158868	
706.875	0.2179111741	0.2007126881	
707.5	0.1908975868	0.3960525569	
708.125	0.5007270054	0.257598399	
708.75	0.2093692817	-0.4005742086	
709.375	-0.2006200917	-0.1851557188	
710.0	-0.354307078	0.2649139616	
710.625	0.3646943083	0.1845153783	
711.25	-0.04228945576	0.2274058383	
711.875	0.4042463883	0.07150545802	
712.5	0.1350695483	-0.01295541346	
713.125	0.4135209327	-0.09664371841	
713.75	0.1226451388	-0.3582374896	
714.375	-0.00502359855	-0.1194929977	
715.0	0.1005162348	-0.3080179954	
715.625	-0.06344778761	-0.258518793	
716.25	0.1862648272	-0.08192336783	
716.875	0.5546761369	-0.2006636303	
717.5	0.47305866	-0.1512150858	
718.125	0.5004667076	0.331231996	
718.75	1.023152941	0.1394227908	
719.375	0.5967085148	-0.5333237899	
720.0	0.8841189771	-0.2631955136	
720.625	0.2863492507	-1.499162863	
721.25	-0.6996147674	-0.6602905716	
721.875	0.2289218183	-1.139585582	
722.5	-0.7942323134	-1.175148494	
723.125	-0.6847385173	0.1957490796	
723.75	-0.7129885803	0.1037341295	
724.375	0.1257045762	0.6775712121	
725.0	0.08365520688	0.1455837358	
725.625	0.002244735809	0.6389485742	
726.25	0.2504139717	0.8264101885	
726.875	-0.114981953	0.5772025766	
727.5	-0.6469528266	1.580934736	
728.125	0.2550892398	2.415057281	
728.75	-0.007114125426	1.706125749	
729.375	-2.727986041	3.28395893	
730.0	1.121016723	4.521596075	
730.625	-0.3506209982	2.16585026	
731.25	-2.858125482	4.258694671	
731.875	-2.957448227	5.453473062	
732.5	-2.144922301	-0.2714079128	
733.125	-3.374581799	-0.1076848709	
733.75	-0.6358850669	1.607743782	
734.375	-0.009849798121	0.2978785402	
735.0	0.4657718057	-0.9056350006	
735.625	-0.2736682223	0.5878854728	
736.25	-0.375626703	0.3327033163	
736.875	0.6872212014	0.9206464847	
737.5	1.004086927	-0.2461851238	
738.125	1.098656425	0.5043828708	
738.75	2.891056748	-1.534080478	
739.375	0.7867805406	-2.539209205	
740.0	1.851256135	1.145518539	
740.625	7.325870556	1.052493906	
741.25	2.777217384	-2.773206552	
741.875	-3.832520992	-5.469594423	
742.5	-2.425746394	-3.268937662	
743.125	0.1856988486	-0.5189706032	
743.75	1.080686154	-0.9567653455	
744.375	-0.8895320042	-0.0204338605	
745.0	0.0008549297494	-0.05899644703	
745.625	0.1666919812	-0.004236757628	
746.25	-0.05808406358	0.03156010599	
746.875	-0.261100698	-0.1052825381	
747.5	-0.0931440022	0.4815076493	
748.125	0.08726495334	0.3826112184	
748.75	0.09100492827	0.5355885618	
749.375	0.2563014828	0.6362476317	
750.0	-0.2610890593	0.1381247008	
