!Created with skrf (http://scikit-rf.org).
# GHz S RI R (50+0j) 
!freq	ReS11	ImS11	
500.0	0.3301749396	-0.439540539	
500.625	0.6330659653	-1.287891839	
501.25	-0.7597215124	-0.3471632355	
501.875	-0.03027737618	-0.6114873323	
502.5	-0.1113086044	-0.1776317858	
503.125	-0.03390460658	0.01129798596	
503.75	-0.02926642504	0.113212063	
504.375	0.008527893345	-0.05024714371	
505.0	0.03887966287	0.0151778823	
505.625	-0.02826410464	-0.09537147268	
506.25	0.01974392633	0.01942097028	
506.875	-0.4083004556	0.02132794261	
507.5	-0.1173878712	0.04353192811	
508.125	0.5276848817	-0.8162185495	
508.75	0.5258678729	-1.440912006	
509.375	0.01761499136	-0.7106711001	
510.0	-0.3815555487	-0.6351887061	
510.625	-0.2305666167	-0.123508431	
511.25	0.01676406812	-0.02755479055	
511.875	-0.1566649326	-0.08247230575	
512.5	-0.01511534298	-0.0003708323496	
513.125	0.03811687364	-0.04700740037	
513.75	-0.1070902906	-0.09738322476	
514.375	-0.002236999721	0.07168467545	
515.0	0.02576461081	-0.3103957898	
515.625	-0.08223782233	0.1873779946	
516.25	0.07443937107	-1.265747702	
516.875	-0.5029594774	-0.4344394057	
517.5	-0.00914115064	0.01613030189	
518.125	-0.0972629408	-0.07229200948	
518.75	0.02761443995	-0.04796831985	
519.375	-0.07461276599	0.01826624578	
520.0	0.1585327673	0.0793914486	
520.625	0.1187865122	-0.08067345164	
521.25	0.01236233693	-0.2337162111	
521.875	-0.2228741881	-0.0827799202	
522.5	0.02339037103	0.06950256126	
523.125	-0.09417047432	-0.04814632267	
523.75	-0.13497426	0.1103174993	
524.375	-0.01802057426	-0.05528150996	
525.0	-0.1530636331	0.2569699352	
525.625	0.122099088	-0.01694099859	
526.25	-0.05729980135	0.06592476855	
526.875	0.01350807696	0.01742904713	
527.5	-0.1571122471	0.1415052882	
528.125	0.152936719	0.3636049655	
528.75	0.007368118127	0.09653834962	
529.375	0.01640239007	0.1282645081	
530.0	0.03099493821	0.1124429627	
530.625	-0.06632882144	0.3012066269	
531.25	0.3296425727	0.2161473426	
531.875	0.1087827575	-0.2245679404	
532.5	0.06716317247	-0.09848282768	
533.125	-0.09356880058	-0.11064223	
533.75	0.1210723948	0.009561602504	
534.375	-0.1605082486	-0.3697992781	
535.0	-0.1680947017	-0.02378030207	
535.625	-0.1931822647	0.04485034409	
536.25	0.007837580116	0.1414768682	
536.875	0.05230263056	-0.005598719974	
537.5	0.1103981941	-0.02774282702	
538.125	0.07476680641	-0.1176656375	
538.75	0.1263560865	-0.06364898855	
539.375	-0.09573342619	-0.2271848278	
540.0	-0.1950975749	-0.06309471875	
540.625	-0.1089657592	-0.07945022707	
541.25	-0.1004924447	-0.03292444142	
541.875	-0.01012834907	0.01740831964	
542.5	-0.004328350115	-0.09931255343	
543.125	-0.09900489372	0.02356559029	
543.75	0.05729909333	-0.008788758633	
544.375	-0.08932489064	0.08407851477	
545.0	0.009335392967	0.006176643704	
545.625	0.02632799018	0.1373595611	
546.25	0.1396462355	-0.03619366305	
546.875	0.07830227205	0.03009743929	
547.5	0.1005962819	-0.1796223895	
548.125	-0.09185312845	-0.1183041603	
548.75	-0.04044387064	-0.1203443629	
549.375	-0.1618086757	-0.1041254581	
550.0	-0.04014731273	0.04312176449	
550.625	-0.08481618466	-0.03055533429	
551.25	-0.05364286856	0.06831806546	
551.875	-0.07838572289	0.03364168704	
552.5	-0.05022356134	0.1106372904	
553.125	-0.005652541949	0.04518589801	
553.75	0.03943500154	0.06269084335	
554.375	0.09799639749	-0.01446476114	
555.0	0.1010224044	-0.06722052713	
555.625	0.09675963362	-0.1146473365	
556.25	0.06111552071	-0.1501961361	
556.875	-0.03762683889	-0.158822766	
557.5	-0.1041672885	-0.108650924	
558.125	-0.1296702776	-0.04014056777	
558.75	-0.1102389104	0.004756729502	
559.375	-0.1144636817	0.012999949	
560.0	-0.1043623266	0.09400059114	
560.625	-0.0325442989	0.1021065945	
561.25	-0.0258190102	0.1065741129	
561.875	0.06361163557	0.04535431152	
562.5	-0.02738590905	0.04794062651	
563.125	0.1172354972	0.08596450536	
563.75	0.09986235414	-0.01911935088	
564.375	0.169863812	-0.06538514671	
565.0	0.05248860861	-0.2008032526	
565.625	-0.0336507621	-0.104808734	
566.25	-0.09640014725	-0.1792666134	
566.875	-0.1839957382	-0.01771739251	
567.5	-0.06757347262	-0.1142733139	
568.125	-0.2143451409	-0.2400925796	
568.75	-0.2036790777	-0.005645607286	
569.375	-0.2636252008	-0.05122901779	
570.0	-0.1437722779	0.3135425686	
570.625	0.04102274696	0.09985193711	
571.25	-0.1028735121	0.1427925654	
571.875	0.1582937775	0.01940915228	
572.5	0.04708132359	0.07315962972	
573.125	0.1768688234	-0.198564804	
573.75	-0.05777943167	-0.1216278345	
574.375	0.116995388	-0.001354122641	
575.0	-0.02398853506	-0.1385526242	
575.625	0.08068237952	0.02327824635	
576.25	0.102998064	-0.1941332169	
576.875	-0.09794896862	-0.1233361105	
577.5	0.05687481388	-0.09084404504	
578.125	-0.01567894893	-0.2810102929	
578.75	-0.1906176805	-0.05565877197	
579.375	0.03839997051	-0.05474354337	
580.0	-0.1537063508	-0.1165187784	
580.625	0.06064996603	0.07223719616	
581.25	-0.2277367576	0.02134216514	
581.875	0.1915986822	0.2139147258	
582.5	0.02480905774	0.008701292788	
583.125	0.0241863977	0.1784395052	
583.75	0.1308427474	-0.07390836404	
584.375	-0.04662004913	0.1761243632	
585.0	0.2195204115	0.024162339	
585.625	0.0603547893	-0.03945044433	
586.25	0.2069492273	0.02003730593	
586.875	-0.01564920254	-0.2303104754	
587.5	0.0006732191243	-0.04709222422	
588.125	0.04008870318	-0.216667484	
588.75	-0.06955530792	-0.1724345257	
589.375	0.09813367317	-0.05822959722	
590.0	-0.09556376355	-0.2859727271	
590.625	-0.1575831875	0.05284041517	
591.25	-0.141619509	0.003641262068	
591.875	-0.08479158612	0.250896662	
592.5	0.0940761914	-0.04467187863	
593.125	-0.08980072497	0.1515515161	
593.75	0.09135861937	0.02994096691	
594.375	0.0668829924	0.2358582989	
595.0	0.2936756673	0.1299266466	
595.625	0.1349264582	-0.0400730651	
596.25	0.1709756267	0.1359038258	
596.875	0.216532482	-0.04439011543	
597.5	0.07793339697	0.03404619438	
598.125	0.1487707259	0.2108908783	
598.75	0.2447248781	0.007481440939	
599.375	0.2006030574	0.01689953358	
600.0	0.2412206258	-0.1516264553	
600.625	0.09442409639	-0.2606301126	
601.25	0.02889450114	-0.1034097876	
601.875	-0.04065074119	-0.2326520855	
602.5	-0.157468958	0.0811314435	
603.125	-0.0648554498	-0.03624408934	
603.75	-0.2374673181	0.1780170082	
604.375	0.02114842895	0.1051286257	
605.0	-0.219066504	0.03191366466	
605.625	-0.05076813405	0.185804979	
606.25	-0.0555849217	-0.0379003496	
606.875	-0.3000012324	0.08339662668	
607.5	-0.05896231597	0.1464966051	
608.125	-0.07468351408	0.1844758313	
608.75	0.2324808968	0.1578361246	
609.375	0.22903871	-0.1331479033	
610.0	0.1543493252	-0.1185312998	
610.625	0.1416258519	-0.2340067217	
611.25	-0.07086703208	-0.1378268953	
611.875	0.01474621503	-0.1666045765	
612.5	-0.2556060243	-0.1163798677	
613.125	-0.0772915874	0.08033422321	
613.75	-0.1899412276	0.0852015102	
614.375	0.1448315897	0.1967761947	
615.0	-0.03484834894	-0.06738562695	
615.625	-4.711679599e-06	0.2333636832	
616.25	0.06274097864	0.07677579595	
616.875	-0.1703669564	0.2037502067	
617.5	-0.01313801479	0.2994292435	
618.125	0.08292054444	0.140689881	
618.75	-0.0690231779	0.2026048162	
619.375	0.07618987381	0.1487583027	
620.0	0.2435526742	0.04170038569	
620.625	0.1581015668	-0.1328307958	
621.25	-0.1949484007	-0.2264653371	
621.875	-0.1890370718	0.008562202533	
622.5	-0.1907325882	-0.04313323343	
623.125	-0.01682999545	0.2947153641	
623.75	0.08507908251	-0.03352129438	
624.375	0.1292192685	0.03445485071	
625.0	-0.05358431855	-0.05581545104	
625.625	0.1250246555	-0.04532080578	
626.25	-0.1084791812	-0.2016785396	
626.875	-0.113513446	0.004713495981	
627.5	-0.1254705371	-0.1350260606	
628.125	-0.17738405	-0.05050987771	
628.75	-0.03825793494	-0.06825725708	
629.375	-0.07422905807	-0.2356298456	
630.0	-0.2531217161	-0.06309377684	
630.625	-0.1713349428	0.1385536777	
631.25	-0.196593182	0.2073302408	
631.875	0.02637316393	0.3061164273	
632.5	0.09713405678	0.1450464616	
633.125	0.1884192278	0.2026627559	
633.75	0.1619997292	-0.167190957	
634.375	0.08226892264	-0.05984587772	
635.0	0.03576386645	-0.2917301532	
635.625	-0.1732673798	0.008853576272	
636.25	-0.1333115426	-0.05821681002	
636.875	-0.1180062104	0.2350325032	
637.5	0.04589496605	0.03474738026	
638.125	-0.1649936678	0.08991088791	
638.75	0.01147491994	0.2785189413	
639.375	-0.02737460853	0.1363127878	
640.0	0.1245358838	0.3645335102	
640.625	0.3396681678	0.07905826564	
641.25	0.1786622491	-0.01649112007	
641.875	0.3012579198	-0.1655632214	
642.5	-0.1178419712	-0.2697460801	
643.125	-0.007905179454	-0.08371447627	
643.75	-0.1876242694	-0.2707802408	
644.375	-0.1419168999	0.1572579714	
645.0	-0.2252988205	0.01267922044	
645.625	0.1489462565	0.3955829414	
646.25	0.178688377	-0.168608095	
646.875	0.0552991121	0.1307215708	
647.5	0.1767851245	-0.105733274	
648.125	-0.0237848069	0.2012910006	
648.75	0.4709023366	-0.1237574261	
649.375	0.0486002333	-0.3010228765	
650.0	0.2092549706	-0.1430209233	
650.625	0.3170919457	-0.4666825025	
651.25	-0.000565451871	-0.2730294461	
651.875	0.3163168547	0.04597648312	
652.5	0.4346173441	-0.2100382507	
653.125	0.1166743756	-0.1806561034	
653.75	0.3096126511	-0.09799055032	
654.375	-0.1546809784	-0.4544017381	
655.0	-0.2123910492	0.03663164025	
655.625	-0.2211881695	-0.03319244457	
656.25	0.08987855544	0.3632369868	
656.875	-0.01048187959	-0.1713119578	
657.5	0.03528523018	0.2893283631	
658.125	0.2136258632	0.03361850289	
658.75	0.145131828	0.1576760032	
659.375	0.6336851399	-0.2126533764	
660.0	0.04196461023	-0.3775096196	
660.625	0.1970861125	-0.200028777	
661.25	0.2607274459	-0.411134455	
661.875	0.05809262585	-0.3416514665	
662.5	0.2854448393	-0.02567093108	
663.125	0.3744506523	-0.3303476378	
663.75	0.04162921234	-0.2608542616	
664.375	0.1108467388	-0.3444259742	
665.0	-0.4162369179	-0.2597333491	
665.625	-0.1984119293	0.1396187728	
666.25	-0.2124017358	0.2079761134	
666.875	0.2078177625	0.2958948346	
667.5	0.1236946995	-0.02121155215	
668.125	0.2904544642	0.1847143872	
668.75	0.1825163232	-0.3110270395	
669.375	0.03115044678	-0.062042909	
670.0	0.1530620925	-0.289420694	
670.625	-0.2250412939	-0.255679163	
671.25	0.1195919033	-0.03633357966	
671.875	0.1776808554	-0.3908314361	
672.5	0.08591777017	-0.1946672559	
673.125	0.2522793377	-0.03529634187	
673.75	0.2397204973	-0.3814797442	
674.375	-0.07943634078	-0.2050467447	
675.0	0.03583498087	-0.2407842467	
675.625	-0.3061085231	-0.1945559134	
676.25	-0.12342925	0.1047173149	
676.875	-0.1394304682	-0.1454770335	
677.5	-0.2415934184	0.1533525466	
678.125	-0.04247788072	0.06319247751	
678.75	-0.1116579561	0.2948579826	
679.375	0.4103839293	0.02239294012	
680.0	-0.04024298037	-0.03899429404	
680.625	0.231722671	-0.04184512143	
681.25	0.008371596526	-0.2372241335	
681.875	-0.04116037687	0.3051872761	
682.5	0.4910774158	0.1037455194	
683.125	0.09747950142	-0.1382963366	
683.75	0.2562714164	0.2970879552	
684.375	0.4724551159	0.08608374371	
685.0	0.04678121343	-0.06217203441	
685.625	0.3615629799	0.2640919583	
686.25	0.4234189711	-0.2193322297	
686.875	0.1512925001	-0.1039382298	
687.5	0.4269668432	-0.3436091624	
688.125	-0.2279593791	-0.5575851929	
688.75	-0.2194776211	-0.09799134442	
689.375	-0.482586859	0.2620278013	
690.0	0.2296225369	0.4491853872	
690.625	0.08697206756	0.09564885026	
691.25	0.3954087545	0.5250866546	
691.875	0.5809770522	0.024123273	
692.5	0.3842622536	0.3129999336	
693.125	1.008073271	0.006456653993	
693.75	0.437981132	-0.4873789141	
694.375	0.5197318583	-0.1302720192	
695.0	0.6413785063	-0.4123935577	
695.625	0.2755682385	-0.1094874773	
696.25	0.3414664851	0.3274410498	
696.875	0.6403821681	0.4981664252	
697.5	0.2939866981	0.409144916	
698.125	0.5011869377	0.3616011219	
698.75	0.5791455154	-0.516815863	
699.375	-0.5303359668	-0.2161891228	
700.0	-0.3495126396	0.1130466067	
700.625	0.0749972032	0.4561005263	
701.25	0.1713466225	0.03784905403	
701.875	0.1769009937	0.3884736401	
702.5	0.5554017388	0.2341634001	
703.125	0.2656214653	0.01233093876	
703.75	0.5173187619	0.02420785764	
704.375	0.3270217068	-0.3473049992	
705.0	0.09327967822	-0.07142847042	
705.625	0.3796132342	0.1591270485	
706.25	0.2036311455	0.08440844946	
706.875	0.1187852877	0.283924694	
707.5	0.2888351719	0.5125470756	
708.125	0.5133741681	0.06075479659	
708.75	0.2476764506	-0.4138708963	
709.375	-0.2889574638	-0.3892096619	
710.0	-0.1326591531	0.3144510046	
710.625	0.1231278407	-0.03061713543	
711.25	0.08736727631	0.3317172133	
711.875	0.1577589488	-0.01814986619	
712.5	0.3458120756	0.1244369329	
713.125	0.3421098081	-0.2709360517	
713.75	-0.007021191228	-0.246402869	
714.375	0.1540263393	-0.2174754927	
715.0	-0.1127937881	-0.3035916628	
715.625	-0.01531330831	-0.1042741814	
716.25	0.3177139236	-0.2560551603	
716.875	0.331002213	-0.3173602373	
717.5	0.328905156	0.07687200742	
718.125	0.8814176986	0.2032560556	
718.75	0.8203452044	-0.3192304828	
719.375	0.5343757912	-0.2483515063	
720.0	0.9775819547	-0.3955638766	
720.625	-0.1071730028	-1.053445257	
721.25	0.0765440623	-0.4929201516	
721.875	0.07903520274	-1.476828375	
722.5	-0.9286110173	-0.5481047241	
723.125	-0.586657411	-0.4177075504	
723.75	-0.6572298772	0.6614569781	
724.375	0.2382029893	0.3349347278	
725.0	-0.05930732359	0.4042524558	
725.625	0.3572571689	0.6743973647	
726.25	0.143068847	0.3551501065	
726.875	-0.4079773685	0.9470072727	
727.5	-0.0798304355	1.84656566	
728.125	0.5163356013	1.495350776	
728.75	-1.162584832	2.454528439	
729.375	-0.4823535367	5.019607991	
730.0	1.244145957	2.518685378	
730.625	-2.042085527	3.134865476	
731.25	-0.2602187844	5.137382556	
731.875	-0.5369869192	1.853037474	
732.5	-4.143769805	0.1905949544	
733.125	-3.410415098	1.383366545	
733.75	-0.1234607847	0.9300267083	
734.375	0.5960535448	1.330601933	
735.0	-0.5144068751	-0.9724478462	
735.625	-0.1863281373	-0.02403149366	
736.25	-0.3600125573	0.7369094123	
736.875	0.933409195	0.3024941149	
737.5	0.2383707058	0.4667660483	
738.125	2.576923109	-0.3122256593	
738.75	1.231066353	-2.198292407	
739.375	1.011589995	-0.2180239388	
740.0	5.397268621	-0.07789698516	
740.625	2.106047442	-5.378681901	
741.25	-3.634214521	0.2865363583	
741.875	-4.305162033	2.247929033	
742.5	-1.136526842	0.8048354199	
743.125	1.463086887	-2.074913109	
743.75	-0.4314124705	-1.477681076	
744.375	-0.2805569282	0.1521490437	
745.0	-0.1307793353	0.1545477781	
745.625	0.0144997689	-0.2080301917	
746.25	0.1015624996	-0.1145615265	
746.875	-0.3329243296	0.03279404187	
747.5	0.04657519864	0.3008366996	
748.125	-0.04518898334	0.4360273	
748.75	0.4088184058	0.6531986288	
749.375	0.2222195019	0.3244974565	
750.0	-0.476227962	0.1834594685	
