!Created with skrf (http://scikit-rf.org).
# GHz S MA R 50.0 
!freq magS11 angS11
500.0 0.0140693432697 154.892286438
500.625 0.00705645818695 86.4008448213
501.25 0.00708152086368 -132.418351216
501.875 0.0280208025557 -179.038057584
502.5 0.0360200727477 173.721461835
503.125 0.0231071002969 120.752449289
503.75 0.00418639974866 73.3203268347
504.375 0.0220433629592 -63.4830480409
505.0 0.00621052008708 81.4345070047
505.625 0.0224300756864 -70.5778435244
506.25 0.0450326527354 -112.934610288
506.875 0.0814035346034 -92.5510090558
507.5 0.0456083380764 -130.436215563
508.125 0.0433553851218 -95.9676305673
508.75 0.0612534161371 -129.058773499
509.375 0.0624175077135 -130.099784412
510.0 0.0349959227864 -126.378623333
510.625 0.0266074993812 -166.551801625
511.25 0.0573163355528 -173.68966426
511.875 0.0662963031026 149.84545333
512.5 0.0348130776447 81.8084776701
513.125 0.0446650675121 30.3928797834
513.75 0.0558966266545 34.0997428118
514.375 0.0422373655094 11.7585836683
515.0 0.0514039922613 0.626901869366
515.625 0.0927441079467 39.0346239415
516.25 0.0898728748743 27.1733362759
516.875 0.116645335697 68.8620528328
517.5 0.11801007273 19.0628383836
518.125 0.209620272822 70.1085167101
518.75 0.0990270721763 15.1544175653
519.375 0.0532315974318 7.80494329424
520.0 0.0832390262234 -6.65671820288
520.625 0.104981744047 -9.12830737822
521.25 0.0960484992881 -22.8320612605
521.875 0.0721368721588 -1.57400805819
522.5 0.0989085652419 -34.8426242129
523.125 0.192849676911 -34.0101035872
523.75 0.212505715004 -58.6178334613
524.375 0.227435650029 -48.7086391434
525.0 0.070448511059 -47.5979229665
525.625 0.0354055628681 -45.4936086637
526.25 0.0584015237167 -8.37843217785
526.875 0.041599948978 -36.934000705
527.5 0.0464811650777 -33.4112755559
528.125 0.0374950696492 -64.6346604881
528.75 0.0719007130742 -74.5982073021
529.375 0.0682003812261 -125.204568759
530.0 0.0447529407925 -136.175012714
530.625 0.039686128663 -144.032633944
531.25 0.134948319786 -142.605178774
531.875 0.140472374141 -150.273772525
532.5 0.128602256314 -173.562378223
533.125 0.0930892840903 170.707559332
533.75 0.13485766098 162.994748111
534.375 0.0896450655319 172.72979852
535.0 0.085177382169 160.049187083
535.625 0.0637107912391 172.529615621
536.25 0.0733267915988 159.865179432
536.875 0.0738091960767 -159.99380573
537.5 0.0933491274185 -143.735152195
538.125 0.104856305172 -174.700489709
538.75 0.118414124412 178.172956195
539.375 0.0633630203917 -166.971841838
540.0 0.0870186622006 -153.87685601
540.625 0.130530078083 -157.697189907
541.25 0.141171862075 -144.655930253
541.875 0.0964168503162 -145.11549369
542.5 0.109620851617 -142.527585962
543.125 0.136393598055 -168.209577099
543.75 0.143030379682 158.320221275
544.375 0.0840318647601 132.040534492
545.0 0.0871049940059 89.169760582
545.625 0.0972578397803 79.2366339168
546.25 0.0949741043144 65.7904918532
546.875 0.0916294852437 51.3875862167
547.5 0.108146607855 56.8604665859
548.125 0.118848658907 76.7623785161
548.75 0.100559715791 88.2781770605
549.375 0.0772194647295 83.6837830488
550.0 0.0859576960604 122.906178482
550.625 0.0437154398863 146.128276742
551.25 0.0418413477106 -148.978036964
551.875 0.0532773289739 -149.634430923
552.5 0.100579431663 -163.814168368
553.125 0.0861453926114 -168.850120959
553.75 0.0952997269543 -176.481020655
554.375 0.0975812707065 170.090357358
555.0 0.123179249757 162.248440811
555.625 0.101086058766 155.017866439
556.25 0.100022383318 161.260719829
556.875 0.127259356092 161.544913
557.5 0.109105503322 165.378594002
558.125 0.0940747155884 163.43893238
558.75 0.0863534627439 175.050512771
559.375 0.0515461985012 -174.027316544
560.0 0.041551466841 -148.446165207
560.625 0.0549511371631 -145.294048827
561.25 0.0909213356281 -155.783141489
561.875 0.0979108134267 -161.776493865
562.5 0.0941804495162 170.843237364
563.125 0.0998140929324 143.997580237
563.75 0.141121065447 124.914009892
564.375 0.0930237472402 122.40582585
565.0 0.0823620244112 120.285345686
565.625 0.0800520479778 113.238803829
566.25 0.103270661752 145.326952389
566.875 0.0766682364922 175.777281697
567.5 0.0730888774127 -179.809715293
568.125 0.0817055881747 -172.264274782
568.75 0.0688612007414 -150.653737805
569.375 0.053481458604 -122.643708264
570.0 0.0595727319822 -105.948242703
570.625 0.0926565682074 -122.698786957
571.25 0.0913846232519 -122.797581366
571.875 0.0894699346537 -133.890330197
572.5 0.112133794165 -158.011104301
573.125 0.14108630052 -175.708619275
573.75 0.10444599038 160.904799926
574.375 0.0879692475718 142.817378471
575.0 0.106417767334 149.704492063
575.625 0.113902884551 149.459104043
576.25 0.0926610910907 140.640431994
576.875 0.07280315945 134.092858447
577.5 0.083962547457 131.975687711
578.125 0.0592767094127 155.611609782
578.75 0.0491004913975 160.111749868
579.375 0.0560171790153 154.68901889
580.0 0.0677119149416 179.875809634
580.625 0.0781567406781 -152.644121621
581.25 0.0889344555598 -165.865028295
581.875 0.115265701197 174.331838585
582.5 0.111186008064 -172.534002601
583.125 0.0907383503588 -168.320227968
583.75 0.0792948551248 -165.341386604
584.375 0.105965396534 -169.983876751
585.0 0.0900018271608 -140.077019165
585.625 0.0693456123374 -142.677597826
586.25 0.070710563805 -141.127928871
586.875 0.0853096022592 -147.278865025
587.5 0.0713440471172 -140.885701681
588.125 0.0583355776113 -170.792105196
588.75 0.0652722207266 -160.947597471
589.375 0.0803662601365 -167.399665729
590.0 0.0948900461937 -161.202451856
590.625 0.106541155945 164.416882801
591.25 0.115205591379 154.885179308
591.875 0.100684078831 151.514886982
592.5 0.0616266984936 148.169238776
593.125 0.0657295068142 148.612771547
593.75 0.0690649401811 178.99365023
594.375 0.0610900194845 -170.830122203
595.0 0.0485697975702 -103.765973381
595.625 0.0594360345073 -101.921286419
596.25 0.0705028794203 -85.5848008268
596.875 0.0667719711468 -78.5791812546
597.5 0.0586161845714 -60.6629774215
598.125 0.0722314920562 -56.6393536814
598.75 0.0784962397333 -64.5415366606
599.375 0.0796256841567 -74.9826162922
600.0 0.108020538164 -61.3766552958
600.625 0.104451068529 -61.2083370993
601.25 0.0807507972952 -71.6788586124
601.875 0.0692028136398 -103.860848998
602.5 0.0622755451037 -73.3864661357
603.125 0.0459196536816 -57.0652681748
603.75 0.0291183467759 -55.2716765241
604.375 0.0397863231452 -27.4737184418
605.0 0.0501333897681 -36.485743714
605.625 0.0589406108382 2.77137126397
606.25 0.0334817582372 22.1736215226
606.875 0.0338439828984 43.8478774524
607.5 0.0365013398416 34.5118834412
608.125 0.0684358722172 30.2451873275
608.75 0.0554810017131 14.9193327083
609.375 0.064696468799 26.9364955026
610.0 0.058359724473 31.0521568804
610.625 0.0691528060519 44.3401536462
611.25 0.0602934496392 37.3570847495
611.875 0.0377515377588 42.4015277738
612.5 0.0110301228464 5.84075754512
613.125 0.0458032893655 126.298912944
613.75 0.0480114018373 120.227719635
614.375 0.0353258074212 118.197321327
615.0 0.0243014725387 109.552358239
615.625 0.0383711817598 131.848100178
616.25 0.0464688113307 135.04663813
616.875 0.035419196638 125.988636149
617.5 0.0171258138554 102.094933686
618.125 0.0482511099264 134.589232496
618.75 0.0247465676876 146.285640603
619.375 0.012370427462 142.324972636
620.0 0.0189666186575 -31.8521488694
620.625 0.0249000020753 -176.670751532
621.25 0.0409593669109 -121.412878607
621.875 0.0716621976447 -110.921995705
622.5 0.0697197464969 -150.52009328
623.125 0.0737216058287 172.768741372
623.75 0.0604718099243 170.79993783
624.375 0.0368818290887 -166.707868242
625.0 0.0398314908583 -149.729709491
625.625 0.0221574270233 -131.917343604
626.25 0.034705969207 175.389763929
626.875 0.0100196271154 146.434250572
627.5 0.0273891514539 -25.514086734
628.125 0.056564998917 -5.71229042021
628.75 0.0331467217782 -59.2116757823
629.375 0.0338568108735 -29.4734419829
630.0 0.0697345977009 -13.3519106008
630.625 0.0830209806962 20.213038382
631.25 0.066972644404 0.781857684864
631.875 0.0676479496967 -17.0769992654
632.5 0.0614165427774 -4.89575696324
633.125 0.0563525305839 27.4637210229
633.75 0.0449360488211 -23.7376306277
634.375 0.0399242895067 7.34973425813
635.0 0.0428932635331 28.9134028078
635.625 0.0365208461817 36.237894091
636.25 0.0680156011186 46.6632368345
636.875 0.0612839796172 23.7251982523
637.5 0.0369450292839 24.9921735935
638.125 0.0353277253543 51.8877574715
638.75 0.0981347954139 76.3859233139
639.375 0.0785931952698 74.4858732718
640.0 0.0692287523163 97.2657452602
640.625 0.0533781417659 93.271734631
641.25 0.0747997323886 124.675975007
641.875 0.0519590973795 123.453589229
642.5 0.050575912297 156.042618554
643.125 0.0594769254457 158.223507094
643.75 0.089485103639 174.141016828
644.375 0.0565515894917 173.349445792
645.0 0.0663833706074 175.442465438
645.625 0.0881318597166 159.585821982
646.25 0.111070330286 166.56607804
646.875 0.0620359612087 169.634085332
647.5 0.0632648336918 -179.853557992
648.125 0.0865269785398 175.104435495
648.75 0.0792799640661 -163.526434484
649.375 0.0517689667874 -152.581560699
650.0 0.0496263622277 -121.475723807
650.625 0.066876819231 -88.3491083757
651.25 0.0695937373761 -67.2954695768
651.875 0.0755692398509 -46.0820914048
652.5 0.0776487262035 -24.2576520378
653.125 0.110386222839 -4.10505784754
653.75 0.113204570937 5.91371462859
654.375 0.0923089707401 0.414718836962
655.0 0.111216582089 8.74195993315
655.625 0.102949819037 22.7188540405
656.25 0.0631933319855 19.6467117214
656.875 0.0803952582297 5.12482209283
657.5 0.0742604048036 16.533078187
658.125 0.055919296192 44.5851032746
658.75 0.0517350756319 60.8252505887
659.375 0.0936581729141 31.5030279809
660.0 0.0914520695699 24.6764300872
660.625 0.110369479445 15.915303848
661.25 0.101390549292 0.992254648542
661.875 0.130989390935 -15.8022683567
662.5 0.101473488271 -26.3075007663
663.125 0.104302766299 -16.9891551717
663.75 0.097142565417 1.83206885852
664.375 0.117716468604 51.4144738256
665.0 0.0752039794881 88.1306111564
665.625 0.0655979290603 105.332532487
666.25 0.0937792983912 124.533539222
666.875 0.0924414955733 169.684173416
667.5 0.100785552877 -172.852841387
668.125 0.107719368444 176.296640615
668.75 0.134617054726 163.818037378
669.375 0.144160821676 173.571980623
670.0 0.0879954981484 -172.223314805
670.625 0.0918666789719 -174.890753818
671.25 0.115755808139 170.820088831
671.875 0.117659057335 163.006438578
672.5 0.0608817859407 155.181516089
673.125 0.0846854362448 149.461586481
673.75 0.116556301548 153.02914358
674.375 0.108557985023 169.166831604
675.0 0.112750035607 -176.540728966
675.625 0.135289548299 -153.709449836
676.25 0.134815604692 -129.919643712
676.875 0.113577741439 -122.911408545
677.5 0.128253054431 -131.200784467
678.125 0.135815021689 -120.499005963
678.75 0.0739957919209 -95.8726058109
679.375 0.0606448878659 -84.2508651796
680.0 0.0708647210505 -79.0944218733
680.625 0.109289427243 -74.4696074689
681.25 0.0998784829129 -76.9252405788
681.875 0.103981288347 -99.4727766061
682.5 0.134100067168 -122.600981698
683.125 0.163285813593 -126.366504364
683.75 0.146509415174 -107.710680198
684.375 0.119745598062 -81.3610296398
685.0 0.146652949307 -46.6349083542
685.625 0.128219182711 -3.89870705093
686.25 0.100756216884 22.1740718774
686.875 0.090892503234 43.9337390636
687.5 0.0882890394 71.8708262415
688.125 0.0749487164305 108.457979204
688.75 0.096618611851 115.826291779
689.375 0.132333201221 119.250093987
690.0 0.143363715887 126.515513556
690.625 0.11192824911 130.032902611
691.25 0.138470731799 96.6576034218
691.875 0.191597358861 62.3660678774
692.5 0.155569007435 34.5983238999
693.125 0.0998190853384 -22.004840136
693.75 0.0907078327093 -39.1711014322
694.375 0.13206022091 -30.463200339
695.0 0.125475061043 12.2957838679
695.625 0.107028924872 46.2776644097
696.25 0.107354135272 120.630677836
696.875 0.139363826673 168.249996099
697.5 0.146439228402 -148.541206037
698.125 0.141568309388 -135.617065917
698.75 0.124361672156 -130.204260623
699.375 0.103338557884 -121.922041522
700.0 0.0901073187898 -116.874714426
700.625 0.122049144147 -103.278940608
701.25 0.0885464526801 -56.7951957528
701.875 0.0822703764746 -59.9667916101
702.5 0.0948588701397 -83.082712731
703.125 0.16743498692 -130.092041204
703.75 0.193685436678 -161.452003086
704.375 0.131902282 167.357431946
705.0 0.111329578946 157.325722621
705.625 0.140529907168 -173.613821595
706.25 0.159140749269 -124.860625875
706.875 0.0856147948538 -57.9136030106
707.5 0.0758009707636 -35.5568554468
708.125 0.0864125993857 18.6794854614
708.75 0.111937451455 49.748607181
709.375 0.10601378946 113.583070641
710.0 0.102630113751 129.849422546
710.625 0.108511050675 145.11387923
711.25 0.116727240554 160.813744543
711.875 0.147130857856 167.043662551
712.5 0.150747060767 147.8596961
713.125 0.125556022506 100.139869342
713.75 0.110053436 34.9174277662
714.375 0.108297784894 18.1307126304
715.0 0.116306000893 20.1119989912
715.625 0.0856294589986 41.4913920722
716.25 0.0787303075963 72.255010557
716.875 0.105405372439 89.4547263902
717.5 0.152468355204 157.201651474
718.125 0.119803475003 165.317996784
718.75 0.099955241415 172.18896725
719.375 0.111189796176 -179.64500601
720.0 0.126945484882 -141.919801987
720.625 0.112999944375 -79.007102582
721.25 0.0947681150532 -25.5305748327
721.875 0.0884787403327 9.22125601369
722.5 0.0824327279434 86.2217417942
723.125 0.0935676355377 78.0867967328
723.75 0.107074661687 43.9973080293
724.375 0.100909891421 -12.0499265007
725.0 0.0991977407518 -38.5300261181
725.625 0.0993620155544 -71.1268780197
726.25 0.121561481487 -66.8993853789
726.875 0.10443318394 -55.4243485755
727.5 0.0791464593002 -51.6422380838
728.125 0.101397791137 10.0867331828
728.75 0.0975962845086 22.8765500047
729.375 0.0867287424139 23.0088718641
730.0 0.059605843151 -9.01145377059
730.625 0.0483872788927 4.61823791572
731.25 0.0679827425807 58.6076440699
731.875 0.0559508004281 102.234108485
732.5 0.071963958243 146.688867383
733.125 0.0593580185055 153.500647747
733.75 0.0739005574715 172.216733147
734.375 0.053362628271 177.795590938
735.0 0.0292579596923 114.783098973
735.625 0.0852627880511 150.152129855
736.25 0.0318261021934 136.675911403
736.875 0.0319765786612 179.213591342
737.5 0.0607040970763 -178.948385061
738.125 0.0668300974287 178.68880012
738.75 0.0776820275176 -178.92491002
739.375 0.0413650141056 175.199931322
740.0 0.0394498553117 -150.662976307
740.625 0.0195940450596 -116.59686139
741.25 0.0811493171722 -155.700165471
741.875 0.0468757009327 -111.72064639
742.5 0.0189868379629 5.36156080388
743.125 0.0237429390573 125.395148916
743.75 0.0667561732035 76.5707013919
744.375 0.0559354646155 87.2413120281
745.0 0.0536775311629 131.035677783
745.625 0.0678656482418 144.488455156
746.25 0.0997738180082 64.3266364882
746.875 0.0672661510405 40.1012518538
747.5 0.0384543522986 17.0938988434
748.125 0.0196336135053 -12.6731668598
748.75 0.0234964289846 47.0675426982
749.375 0.0530052458384 -68.9519015828
750.0 0.038530155639 -125.037728373
