!Created with skrf (http://scikit-rf.org).
# GHz S RI R (50+0j) 
!freq	ReS11	ImS11	
500.0	-2.207096246	-5.356566736	
500.625	-0.7579823921	-1.830514214	
501.25	0.5845037053	-2.201668757	
501.875	-1.801154957	-2.474697388	
502.5	-0.191749111	-0.06010817159	
503.125	-0.3380459253	-0.04818423452	
503.75	0.2591288646	0.0930382623	
504.375	0.1080483521	0.07373869907	
505.0	-0.03945753148	-0.1719790237	
505.625	0.2629323259	0.004869707875	
506.25	-0.6377383469	-0.3868783792	
506.875	0.5207771372	0.2018836076	
507.5	0.3164312001	-1.915177412	
508.125	-1.299647288	-2.602781665	
508.75	1.707995567	-0.7994610955	
509.375	-2.547056747	-5.61297627	
510.0	-0.8160833221	0.7141826592	
510.625	-0.4736695394	-0.8490354833	
511.25	-0.4265048357	0.35895723	
511.875	-0.2287106951	-0.2980492184	
512.5	-0.1408050267	0.1435218865	
513.125	-0.09659600332	-0.3869393409	
513.75	-0.1557514935	0.03736864939	
514.375	-0.2105455037	-0.4663119134	
515.0	-0.6509937024	1.316139866	
515.625	0.5408668071	-3.353785209	
516.25	-2.443139966	0.2596139308	
516.875	1.037744275	-1.480945725	
517.5	-0.7358832086	-1.103367558	
518.125	0.297134954	0.10066823	
518.75	-0.5538877797	-0.9305462052	
519.375	-0.03422928671	0.1260385707	
520.0	0.3015560682	0.39788615	
520.625	0.6010010047	-0.3343421241	
521.25	-0.1861878036	-0.485963112	
521.875	-0.4250963113	-0.3570681712	
522.5	-0.05404178905	0.1628664751	
523.125	-0.2622577195	0.05789520609	
523.75	-0.05337882565	0.03864106761	
524.375	-0.7253898407	-0.06442792046	
525.0	0.3096179503	0.3126520764	
525.625	-0.1211552248	0.1095401479	
526.25	0.1498330222	-0.08726668945	
526.875	-0.3479022497	0.2164051477	
527.5	0.2635312759	0.5199232176	
528.125	-0.2551596348	0.5365961875	
528.75	0.1994683952	1.147625292	
529.375	-0.03151664225	-0.05685513615	
530.0	0.5872144032	0.6135579134	
530.625	-0.0535325092	0.5757582517	
531.25	1.664652449	0.4931396889	
531.875	0.2366379176	-0.5200342975	
532.5	0.08859733579	-0.5820655436	
533.125	-0.1229401298	0.1559288416	
533.75	0.4152088269	-0.8604643964	
534.375	-0.4295996556	-0.2662859996	
535.0	-0.4826817216	-0.7182859424	
535.625	-0.4780637165	0.5948188697	
536.25	0.006005641251	0.1142898876	
536.875	0.3154209391	0.1566603282	
537.5	0.09581003463	-0.2067448734	
538.125	0.3786115518	0.0826971379	
538.75	0.2484780839	-0.5358128603	
539.375	-0.04819559168	-0.25302466	
540.0	-0.3951439673	-0.6023427863	
540.625	-0.4879288951	0.1125818686	
541.25	-0.1473432328	0.01781888147	
541.875	-0.06964669479	-0.1261360187	
542.5	-0.2903377844	-0.09791324406	
543.125	0.008247507898	-0.08157908207	
543.75	-0.3832654549	-0.04904574104	
544.375	0.07452465547	0.06725757407	
545.0	-0.1470315254	0.2672017966	
545.625	0.2252794663	-0.02167014383	
546.25	0.04472294102	0.336833132	
546.875	0.463290308	-0.3453754424	
547.5	0.04761823629	-0.07201454568	
548.125	0.09923719617	-0.5165548368	
548.75	-0.4950340157	-0.27565767	
549.375	-0.09861661218	-0.05889368435	
550.0	-0.3314769084	-0.08786357709	
550.625	0.002399809008	0.08829339348	
551.25	-0.3059378564	-0.02933779806	
551.875	-0.09648048306	0.2884791153	
552.5	-0.1354672076	0.09032780832	
553.125	-0.05618057853	0.2114647193	
553.75	0.1132488123	0.09318909636	
554.375	0.225142103	0.03622690096	
555.0	0.2592466501	-0.1839665051	
555.625	0.2012118721	-0.25367196	
556.25	0.1817816886	-0.3426608019	
556.875	-0.08505982913	-0.4062836052	
557.5	-0.2385539152	-0.2490830544	
558.125	-0.2684474726	-0.1108280355	
558.75	-0.2865845524	-0.02749705067	
559.375	-0.2552427011	0.07664491705	
560.0	-0.2261458759	0.1262987347	
560.625	-0.1691286051	0.3071887882	
561.25	0.09476604704	0.1958732685	
561.875	-0.02060145525	0.169507819	
562.5	0.1151505003	0.04847420246	
563.125	0.0634865275	0.2635832269	
563.75	0.4592305632	-0.0521773659	
564.375	0.130607722	-0.2034243972	
565.0	0.3319467913	-0.2776618529	
565.625	-0.1551039908	-0.4686098485	
566.25	-0.222805752	-0.1301831748	
566.875	-0.2734522143	-0.3371837833	
567.5	-0.4993077555	-0.1971365822	
568.125	-0.1120847167	-0.3419218879	
568.75	-0.7184588229	-0.326153403	
569.375	-0.4106911657	0.3458013659	
570.0	-0.4215994484	0.2160682885	
570.625	-0.290957934	0.7588151708	
571.25	0.2328246193	0.007861896845	
571.875	-0.04884073754	0.5003487671	
572.5	0.3585247497	-0.3454073905	
573.125	0.1986768175	0.09907718024	
573.75	0.323837679	-0.5578939656	
574.375	-0.2529252676	-0.03078210466	
575.0	0.4095848792	-0.09556106524	
575.625	-0.2106452472	-0.278168295	
576.25	0.2719707104	0.07038245131	
576.875	0.03900941466	-0.6260664633	
577.5	-0.2563998916	-0.3120955113	
578.125	0.106547042	-0.2304931256	
578.75	-0.2044740595	-0.5458818808	
579.375	-0.3298534296	0.0510780706	
580.0	0.1011467361	-0.1791063996	
580.625	-0.4090887559	0.02617760666	
581.25	0.01275923572	0.01968979919	
581.875	-0.3536397365	0.4430149702	
582.5	0.4522896467	0.5585286057	
583.125	0.05640588958	-0.2469993005	
583.75	0.06570995279	0.5416178425	
584.375	0.05283823007	-0.3429220698	
585.0	0.2551407673	0.5976911639	
585.625	0.4578486337	-0.3663928913	
586.25	0.06750691959	0.1504720994	
586.875	0.4984822855	-0.5097912802	
587.5	-0.325949148	-0.2527158095	
588.125	0.2136732426	-0.1491457109	
588.75	0.2296521713	-0.5904865043	
589.375	-0.07520743087	-0.3615895751	
590.0	0.1178198066	-0.3624475794	
590.625	-0.6143302059	-0.1670613674	
591.25	-0.162741741	0.2241977555	
591.875	-0.2591204068	0.2185415104	
592.5	0.148817572	0.1978131805	
593.125	-0.2711056744	0.04864710164	
593.75	0.2905520007	0.3957009096	
594.375	0.2986117299	-0.02162166675	
595.0	0.05522316016	0.4500190047	
595.625	0.9268731439	0.3650537145	
596.25	0.05826990106	-0.1742138025	
596.875	0.5190102517	0.4970635634	
597.5	0.4952353447	-0.1401392035	
598.125	-0.03851607471	0.5625230677	
598.75	0.8044908009	0.1308727193	
599.375	0.2066774937	-0.05174860416	
600.0	0.6109546315	-0.1530143279	
600.625	0.3922221196	-0.6237345334	
601.25	0.01684174723	-0.343551187	
601.875	-0.04087815974	-0.3494349461	
602.5	-0.3125014895	-0.07469928623	
603.125	-0.2808465486	0.1591562071	
603.75	-0.221198574	0.06324539282	
604.375	-0.3441198181	0.1803891769	
605.0	-0.0512041748	0.1911578897	
605.625	-0.3386071363	0.07155183218	
606.25	-0.1456748212	0.348507502	
606.875	-0.3419655945	-0.1570476377	
607.5	-0.6972215619	0.7574398717	
608.125	0.1779260472	0.2579902714	
608.75	0.1109561887	0.7258120537	
609.375	0.7538023332	-0.4153595575	
610.0	0.2314118588	0.08747230067	
610.625	0.4338590091	-0.5662613008	
611.25	-0.1738267418	-0.1305051528	
611.875	-0.001008468471	-0.5863872702	
612.5	-0.4390339053	0.05582195796	
613.125	-0.4221049775	-0.1978387594	
613.75	-0.2526682444	0.5855303914	
614.375	-0.0113966924	0.02631419754	
615.0	0.2952855466	0.3109297702	
615.625	-0.1717478297	-0.1101310112	
616.25	-0.2534988276	0.5982650823	
616.875	0.1783389168	0.350136067	
617.5	-0.4927432346	0.3584530069	
618.125	0.0915673212	0.7605960475	
618.75	0.06552458769	0.1775998749	
619.375	0.1327379435	0.6411059141	
620.0	0.4278833979	-0.0502006011	
620.625	0.3995467921	-0.2195172419	
621.25	-0.3040122158	-0.4289958843	
621.875	-0.3440269154	-0.2236202326	
622.5	-0.5961890917	0.1741756059	
623.125	-0.1064067533	0.2406831124	
623.75	0.3915659596	0.3215254421	
624.375	-0.1420615851	-0.2566781213	
625.0	0.4966380716	0.09684356045	
625.625	-0.3208159587	-0.249358681	
626.25	0.2446214534	-0.2855008669	
626.875	-0.6398833369	-0.2691680207	
627.5	-0.07431592604	0.1330136665	
628.125	-0.2748793412	-0.5429938846	
628.75	-0.3274327641	-0.02940279443	
629.375	0.08311842332	-0.4509048306	
630.0	-0.6315423469	-0.351216973	
630.625	-0.3958614184	0.3181025481	
631.25	-0.3621819742	0.2294324249	
631.875	-0.1625996977	0.6525804987	
632.5	0.3579346177	0.5213645727	
633.125	0.4223980189	0.06821748781	
633.75	0.4700282294	0.0551914	
634.375	-0.0003918415865	-0.395811508	
635.0	0.1293924692	-0.3124031421	
635.625	-0.4672763065	-0.3007401206	
636.25	-0.114159048	0.2144303927	
636.875	-0.4875351535	0.1178401377	
637.5	0.1363692447	0.5688108107	
638.125	-0.08448541322	-0.2487891267	
638.75	-0.5071380658	0.6542553173	
639.375	0.3446438085	0.5715718091	
640.0	-0.05648408398	0.3717341374	
640.625	0.7678844199	0.6364048273	
641.25	0.4694883051	-0.286360976	
641.875	0.6343364702	-0.02525789373	
642.5	-0.3420866343	-0.8647938103	
643.125	-0.05573428601	0.02503279569	
643.75	-0.2609472984	-0.5843781523	
644.375	-0.5867589531	0.2694850766	
645.0	-0.04920355146	0.2129208125	
645.625	-0.2954371915	0.5570069277	
646.25	0.7314845832	0.1979204738	
646.875	-0.1046942124	-0.2039811655	
647.5	0.4742993387	0.4144611873	
648.125	-0.08326629008	-0.2240981255	
648.75	0.9944506339	0.3171984964	
649.375	0.467170053	-1.1119217	
650.0	-0.0839869434	-0.2408443484	
650.625	1.204189903	-0.4528087246	
651.25	0.1677851341	-1.390523859	
651.875	0.1011111331	0.1598650365	
652.5	1.257131364	0.01181688461	
653.125	0.4090391679	-0.728733796	
653.75	0.4582200418	0.09438474591	
654.375	-0.1151880924	-1.233051676	
655.0	-0.7233795586	0.1767117889	
655.625	-0.3014440509	-0.09836536581	
656.25	-0.1810786124	0.8802841051	
656.875	0.3635213618	-0.2908020013	
657.5	-0.1382828649	0.5885306868	
658.125	0.5716414011	0.2799992392	
658.75	0.3835528603	0.08758843903	
659.375	1.095211903	0.05159417519	
660.0	0.3435232634	-1.099975262	
660.625	0.1792558237	-0.3412375778	
661.25	0.8184572553	-0.5987197802	
661.875	0.4561673848	-1.177771359	
662.5	0.03155214614	-0.07375664282	
663.125	1.30307439	-0.3806567299	
663.75	-0.06666024111	-0.8715680641	
664.375	0.3392542762	-0.4315557047	
665.0	-1.071274264	-0.8113529465	
665.625	-0.2693024684	0.293454083	
666.25	-0.6446861088	0.4511815794	
666.875	0.4285730154	0.7522338809	
667.5	0.3883439853	-0.1121157135	
668.125	0.4016679007	0.3891672765	
668.75	0.6115162444	-0.6013767762	
669.375	0.06226255037	-0.3937120434	
670.0	0.2752036887	-0.4757272867	
670.625	-0.234449919	-0.6114280615	
671.25	0.3081849512	-0.1333720167	
671.875	0.3990804661	-0.5814680419	
672.5	0.3092567871	-0.4668986933	
673.125	0.2912351238	-0.08058501062	
673.75	0.9531565163	-0.4842307743	
674.375	-0.4173884443	-0.9390520775	
675.0	0.2668662753	-0.1057503863	
675.625	-0.6328775802	-0.7807880358	
676.25	-0.3833191561	0.5147406848	
676.875	-0.3849141383	-0.7095305532	
677.5	-0.3986397181	0.6539051323	
678.125	-0.2391542083	-0.245205268	
678.75	-0.2048155504	1.076260008	
679.375	0.7478636691	-0.245515744	
680.0	0.01590263907	0.04758195586	
680.625	0.5267254911	-0.1129532105	
681.25	0.2117645095	-0.3315045784	
681.875	0.0155608265	0.2577002398	
682.5	0.7379314337	0.3893032109	
683.125	0.5003314747	-0.06716014662	
683.75	0.409708922	0.2093522215	
684.375	0.9903906612	0.2862338203	
685.0	0.3757985489	-0.3304892906	
685.625	0.6318980032	0.634655629	
686.25	1.275747139	-0.498773863	
686.875	-0.104600042	-0.2781098373	
687.5	1.443931165	-0.1945565911	
688.125	-0.8394256465	-1.608743426	
688.75	0.04540274541	-0.5005416625	
689.375	-1.475723076	0.961785859	
690.0	0.7091956017	0.4830704821	
690.625	-0.06979183004	1.185758786	
691.25	1.230198393	0.2550671058	
691.875	0.6674214085	0.6803043742	
692.5	1.46019523	0.7627656805	
693.125	1.664028018	-0.2076925226	
693.75	1.266677585	-0.5482827574	
694.375	0.9547577366	-1.050319738	
695.0	1.144248858	-0.4520011441	
695.625	1.381988249	-0.5530406588	
696.25	0.7101729896	0.3636765847	
696.875	1.248820815	1.570481007	
697.5	1.10989267	0.3293829786	
698.125	0.9428568443	1.317438668	
698.75	1.489269923	-1.704466722	
699.375	-0.4101305577	-0.115195484	
700.0	-1.549255202	0.5763708383	
700.625	0.8142609597	0.6461429266	
701.25	-0.09333188769	0.7312395474	
701.875	1.266744442	0.373246047	
702.5	0.3762925192	0.4428274656	
703.125	1.290954205	0.5568232355	
703.75	0.5636899435	-0.5883018436	
704.375	0.9379511834	-0.05815927568	
705.0	0.4567346794	-0.88536193	
705.625	0.2412009555	0.3394156931	
706.25	1.135145799	0.6695800488	
706.875	0.3654729942	0.1648849461	
707.5	0.4187844685	1.388242898	
708.125	1.50386415	-0.02218881345	
708.75	0.5758888443	-0.265347725	
709.375	-0.8071752124	-1.293924023	
710.0	-0.1419003449	0.6744582703	
710.625	-0.1897997487	0.4364692108	
711.25	0.4273119258	0.2669121538	
711.875	0.4164604062	0.352188699	
712.5	0.7277337485	-0.1006852853	
713.125	0.6196517057	-0.1916987427	
713.75	0.4088653188	-0.847909853	
714.375	-0.1523425031	-0.1605350263	
715.0	0.1937023463	-0.8494151444	
715.625	-0.4264512996	-0.2920582773	
716.25	0.8409608794	-0.1132902594	
716.875	1.280025654	-1.238235801	
717.5	-0.1420199952	-0.09429441262	
718.125	2.792353565	1.382584213	
718.75	2.408424435	-1.498527034	
719.375	0.5126451182	0.1177835992	
720.0	3.342598767	-3.154970166	
720.625	-0.9325979792	-1.88893317	
721.25	1.234522987	-2.671479104	
721.875	-1.105105797	-3.587962276	
722.5	-1.421674754	-0.9593748399	
723.125	-1.720965772	-1.405373979	
723.75	-1.143849161	1.551624657	
724.375	0.2585573508	0.8351525852	
725.0	0.1652340212	0.6654702123	
725.625	0.3567195822	1.659132034	
726.25	1.11479423	1.134270341	
726.875	-1.169955503	1.867257895	
727.5	0.006101693422	5.217812769	
728.125	2.22315466	2.810121599	
728.75	-6.295704668	5.999956462	
729.375	3.009620713	13.33941446	
730.0	1.896821721	2.230044649	
730.625	-10.9704423	13.25471927	
731.25	10.5169382	21.49807306	
731.875	-4.292137899	-1.45621316	
732.5	-13.23595091	1.704416469	
733.125	-6.943678668	3.071187968	
733.75	-1.731619094	0.7840869269	
734.375	3.474012944	2.366843902	
735.0	-0.4405064125	-0.8056784015	
735.625	-0.8709603274	-0.4065653227	
736.25	-0.4555568514	2.198925019	
736.875	1.815760959	0.3909484455	
737.5	1.026830816	1.370578844	
738.125	6.058424122	-0.2629744458	
738.75	4.199599677	-6.718397523	
739.375	-0.2825859787	1.568909304	
740.0	24.78668024	-2.415681979	
740.625	1.831305978	-15.43125572	
741.25	-8.181160076	12.60044136	
741.875	-4.342045685	23.15272056	
742.5	9.190521511	-4.788766301	
743.125	4.484994764	-11.12014632	
743.75	-3.711641816	-3.361753387	
744.375	-0.1025864711	0.16114628	
745.0	-0.3192029613	0.681769058	
745.625	-0.2317043733	-0.1637056062	
746.25	0.2887891669	-0.6500849759	
746.875	-0.6171264096	0.3078225924	
747.5	-0.3399199523	0.5590782406	
748.125	0.06572784553	1.655666348	
748.75	1.083271953	1.160960756	
749.375	0.08636676876	0.9890294901	
750.0	-1.927722394	0.2193270146	
