!Created with skrf (http://scikit-rf.org).
# GHz S MA R 50.0 
!freq magS11 angS11
500.0 0.0184839304967 163.147511567
500.625 0.0116264045856 159.151015281
501.25 0.0134867191726 -161.362597398
501.875 0.0156673552014 -110.176270472
502.5 0.0256234576687 161.343008472
503.125 0.0140274195948 129.089635431
503.75 0.0157473204565 -36.8416092692
504.375 0.0138592407823 132.534018163
505.0 0.0149778483224 -55.3854392677
505.625 0.0347682146005 -76.9818862734
506.25 0.0373723068673 -106.266817078
506.875 0.0491384552984 -112.168099023
507.5 0.0368555375389 -141.898753376
508.125 0.0414759498562 -108.24120743
508.75 0.0841443833684 -116.714135096
509.375 0.0500579447513 -176.258245867
510.0 0.0249620824006 -151.253652331
510.625 0.0310409601149 -172.545614585
511.25 0.0736671076689 -171.100638813
511.875 0.0481732279982 139.262839827
512.5 0.0369555112033 100.47976653
513.125 0.0548481461296 37.6262771547
513.75 0.0686950919771 46.6399761418
514.375 0.0412609007455 16.8631542751
515.0 0.0566282397922 8.85028248815
515.625 0.080341424604 50.5137783892
516.25 0.106060241735 31.392490226
516.875 0.100445539439 67.8823590289
517.5 0.102089920889 17.3017712141
518.125 0.192394176457 69.9526972175
518.75 0.0818927838187 8.12051651049
519.375 0.0697034976268 19.720663228
520.0 0.100912846196 -4.77668804266
520.625 0.100057159053 -5.76672971419
521.25 0.0899597119278 -23.0905422269
521.875 0.0622992254528 -3.69985841723
522.5 0.0903966849024 -34.3839583029
523.125 0.17908160088 -36.5912883539
523.75 0.233864718715 -54.4213383029
524.375 0.194195050991 -63.8161374111
525.0 0.0738229412813 -42.612467624
525.625 0.0454183852941 -23.3249793306
526.25 0.0358617012611 -26.3567888401
526.875 0.0510404267761 -23.5294976903
527.5 0.0540303286911 -26.7638179253
528.125 0.045894889858 -55.8639706455
528.75 0.0743981978264 -71.7636784398
529.375 0.0872746652083 -111.323166357
530.0 0.0380741075577 -144.11414069
530.625 0.0484112712565 -151.988144964
531.25 0.0811590236506 -128.352904999
531.875 0.166644330711 -147.230695452
532.5 0.13104570927 -174.803379563
533.125 0.107473182129 174.912057011
533.75 0.108221143854 166.335121507
534.375 0.109778686616 178.736875181
535.0 0.0927718607667 162.926118916
535.625 0.0637270965552 177.923499488
536.25 0.0442866707701 159.710973932
536.875 0.0695559034184 -161.445347865
537.5 0.0865183997918 -144.304131482
538.125 0.115951640503 -175.865370178
538.75 0.086833763515 175.258708202
539.375 0.0746285876084 -164.150814546
540.0 0.0993039355424 -158.754711231
540.625 0.146192248035 -160.567169634
541.25 0.100264741144 -142.672771947
541.875 0.0886943170308 -141.037403398
542.5 0.104214017987 -141.681352603
543.125 0.151200106474 -168.855081761
543.75 0.111386696426 156.931654702
544.375 0.0965212388436 135.558475279
545.0 0.0930270102608 91.3290229736
545.625 0.0986316209908 83.9460181311
546.25 0.101267144261 66.9385323345
546.875 0.0843339349977 53.4566888528
547.5 0.118851441593 57.0182670709
548.125 0.131725684572 76.5501901109
548.75 0.0711411164035 86.9366916988
549.375 0.0937836658268 86.480749994
550.0 0.0969736201487 124.633327538
550.625 0.050387624842 155.338786704
551.25 0.0444064241822 -150.020671494
551.875 0.0643327137626 -162.596091464
552.5 0.106087601272 -164.981785665
553.125 0.0965198321202 -172.406859209
553.75 0.0842251632116 -166.536021582
554.375 0.107931252587 165.404867283
555.0 0.133122972157 160.688887719
555.625 0.0973447924668 157.930620148
556.25 0.105419152551 158.992696491
556.875 0.106600269842 166.817265877
557.5 0.109150953822 167.484585451
558.125 0.0886131243425 163.828180068
558.75 0.0897483895163 175.819031843
559.375 0.066278368637 -173.589719183
560.0 0.0478300363351 -152.781105876
560.625 0.0575762378676 -139.018441233
561.25 0.0922350041679 -154.712110552
561.875 0.102498081437 -162.102185233
562.5 0.0904939929213 174.712384631
563.125 0.106496636548 144.314499631
563.75 0.126677684193 131.392512042
564.375 0.104349112976 120.528355206
565.0 0.0862499069011 118.027473981
565.625 0.0817754907871 117.841331745
566.25 0.0987057321635 150.204802718
566.875 0.0708931082122 -179.205287533
567.5 0.0685969127519 -173.521906509
568.125 0.0763457312269 -170.219194164
568.75 0.0784490893072 -154.864291039
569.375 0.0435098469622 -97.7399780321
570.0 0.0610996742497 -105.731764653
570.625 0.0907901012789 -116.354058974
571.25 0.0934253878098 -124.616307087
571.875 0.0838176242475 -119.720386633
572.5 0.109685310982 -152.554268493
573.125 0.134255926124 -173.629871155
573.75 0.112040470106 157.327670289
574.375 0.0779715393926 152.419691889
575.0 0.103769130073 155.633497472
575.625 0.108919964861 154.880437973
576.25 0.0931792926235 143.360202636
576.875 0.0818926448986 129.327250335
577.5 0.0865055367205 134.429996856
578.125 0.0593591175313 159.688266313
578.75 0.0517962550976 155.168307803
579.375 0.0516978245379 166.832547198
580.0 0.0664525085598 -169.768637883
580.625 0.0762379186641 -146.915762126
581.25 0.0875173733214 -170.407088623
581.875 0.112225724377 -168.785845306
582.5 0.115517998676 -174.078819687
583.125 0.093842910001 -170.406883152
583.75 0.0839351232073 -171.752642485
584.375 0.0978332515677 -154.233469324
585.0 0.0938475255123 -144.280657328
585.625 0.0703504379523 -144.802739118
586.25 0.0729850968168 -150.919311542
586.875 0.0786507654619 -123.98361143
587.5 0.0712724006023 -140.494999087
588.125 0.0564947448419 -174.926117913
588.75 0.0675136144915 -175.730455667
589.375 0.0830680897254 -145.425934868
590.0 0.0922033460381 -167.885624479
590.625 0.103637067817 159.77344387
591.25 0.12293197476 150.675107151
591.875 0.102350172162 151.738560342
592.5 0.0631362945681 148.812085553
593.125 0.0625497818822 144.814945014
593.75 0.0761395899724 163.845821515
594.375 0.0573247586076 -145.813258604
595.0 0.044978281099 -116.255790534
595.625 0.056661681375 -108.928662984
596.25 0.0757503708402 -86.0825636239
596.875 0.0659120965696 -81.2192674444
597.5 0.0610560178676 -59.2993774919
598.125 0.0641874521182 -61.069387388
598.75 0.0701517781671 -73.0677949887
599.375 0.0989434774256 -56.1254724426
600.0 0.104911989382 -64.3144698067
600.625 0.0983920979914 -61.0717828245
601.25 0.08557178937 -81.4044111529
601.875 0.0678427870901 -82.0298407057
602.5 0.0629044951137 -82.8245716181
603.125 0.0470169812904 -67.3937457216
603.75 0.0317780874149 -37.5111491696
604.375 0.0305388310342 -42.8480467253
605.0 0.0751210748102 -6.04327338565
605.625 0.0539525223552 -2.12734934037
606.25 0.0291066865529 30.0875481408
606.875 0.0166142762983 40.7227970935
607.5 0.0712612065547 47.5019618493
608.125 0.0832212460597 33.0921610434
608.75 0.0647718086171 21.4037458643
609.375 0.0499590286498 20.4109954402
610.0 0.0864826194329 49.5247357031
610.625 0.0725851943073 41.763665656
611.25 0.059355885841 45.0695887678
611.875 0.0290698700226 11.695317131
612.5 0.0320125634608 107.312761886
613.125 0.0273230521982 121.056562248
613.75 0.0333416580757 124.100266401
614.375 0.0502660933563 120.797481448
615.0 0.0211702465348 103.055629776
615.625 0.0357862287899 132.172286718
616.25 0.0629140964347 133.299398813
616.875 0.0491945322589 128.450082341
617.5 0.0300846363743 116.373942066
618.125 0.0277036219423 132.108852805
618.75 0.0355907479745 136.964608323
619.375 0.0246282750103 140.317037329
620.0 0.0104297651642 155.240402117
620.625 0.0139319816891 -104.673239779
621.25 0.0469346061751 -98.9276802659
621.875 0.0595746212517 -113.537179846
622.5 0.0706798844547 -161.426408702
623.125 0.0800635804824 167.269933063
623.75 0.0637431487281 158.582649061
624.375 0.0468252095694 -178.822259997
625.0 0.0286193840121 -118.156452219
625.625 0.0595115427728 -158.636394028
626.25 0.033124976881 176.540869418
626.875 0.0102448754095 -173.293285485
627.5 0.050639699721 -11.2559429542
628.125 0.0380281639936 -52.6449201777
628.75 0.0318379592094 -22.0275443447
629.375 0.0430541661215 -18.8228436193
630.0 0.0696692566194 1.98848259902
630.625 0.0739721025115 -15.5373272716
631.25 0.0656248060679 -11.121905867
631.875 0.0692874228069 -17.6472081517
632.5 0.0707495357451 12.3673306057
633.125 0.0549170952073 -12.6104371976
633.75 0.0406103929631 3.55004751335
634.375 0.0467814316584 26.0977478945
635.0 0.0332632469179 18.3163717972
635.625 0.0508986432397 47.9492012358
636.25 0.0408075870333 21.2889579134
636.875 0.0547488478889 28.9107095507
637.5 0.0498106939355 36.3266255829
638.125 0.0512929713109 68.6296121646
638.75 0.0557876771853 62.1766325142
639.375 0.0928702209066 91.9398254575
640.0 0.0752318728529 106.272309344
640.625 0.0606503414882 107.856511155
641.25 0.0776748101558 128.147182104
641.875 0.0645535076827 146.302344627
642.5 0.0456300862051 148.120032958
643.125 0.072608902487 161.981837746
643.75 0.0531354094382 155.932678965
644.375 0.0710207661876 -176.651214138
645.0 0.0740319302818 170.09481766
645.625 0.0981363056544 169.760307013
646.25 0.0871413524456 159.77385636
646.875 0.0680798407677 176.350240045
647.5 0.0719530348562 -173.929807273
648.125 0.0815721528542 -176.16206344
648.75 0.0863857988403 -159.152550391
649.375 0.0448713791148 -156.184309248
650.0 0.0431762761627 -120.318826287
650.625 0.0609663376769 -91.4110128861
651.25 0.0804139262978 -66.48120173
651.875 0.051365715669 -44.4638108584
652.5 0.08023050791 -22.62449116
653.125 0.107318469812 -7.86653731035
653.75 0.120531265981 6.20454802087
654.375 0.108471650216 7.19836484428
655.0 0.125034940409 12.3501207411
655.625 0.0932147199393 25.0531134937
656.25 0.071483706407 22.5798217489
656.875 0.0563773715101 0.121461733624
657.5 0.0690585081217 18.3670026562
658.125 0.0657026957893 40.5042839547
658.75 0.0672865085944 57.5094573671
659.375 0.0658387660792 42.796357477
660.0 0.116809089263 25.5815012905
660.625 0.119721791732 16.8433081454
661.25 0.114100720586 3.40942589742
661.875 0.13317040918 -14.0652733604
662.5 0.120010555033 -20.3436128866
663.125 0.0962053664353 -19.1524151954
663.75 0.11435839056 2.73196902515
664.375 0.0763639313566 48.2219799893
665.0 0.0641008075643 91.0788474211
665.625 0.0649234459641 111.897264155
666.25 0.0851696056597 127.642907299
666.875 0.113709949187 169.610939997
667.5 0.0992408072808 -169.587352062
668.125 0.102504335048 -179.099091499
668.75 0.13752758981 164.80450809
669.375 0.109120464142 177.026560177
670.0 0.0785597756527 -169.620648041
670.625 0.0879795639773 -171.967240535
671.25 0.127201303964 170.755576
671.875 0.0796623941908 166.229024326
672.5 0.0741151250913 154.479435151
673.125 0.0776503146618 152.498410563
673.75 0.119348401977 155.134352793
674.375 0.112383835448 169.539383424
675.0 0.119259703568 -176.565256668
675.625 0.128558109826 -150.267311651
676.25 0.124475333556 -128.091722836
676.875 0.112941001205 -121.096513659
677.5 0.127025453556 -128.789710577
678.125 0.122904434054 -116.564901812
678.75 0.0825197103967 -97.4065744038
679.375 0.038106448916 -66.1785193227
680.0 0.0721239374425 -75.2817907262
680.625 0.11435674888 -76.2706672016
681.25 0.107950559036 -74.7096603164
681.875 0.100981787031 -93.3123667325
682.5 0.131492317196 -120.988894387
683.125 0.154621833862 -120.33385636
683.75 0.136759052665 -105.086803848
684.375 0.127680213582 -83.7441883589
685.0 0.121379136453 -39.1321628579
685.625 0.121000765113 -0.64712380693
686.25 0.102527927856 19.3234477648
686.875 0.104158369595 39.1593859405
687.5 0.0603580554963 93.1356938338
688.125 0.0779873711525 112.66872067
688.75 0.0963879639407 112.295686127
689.375 0.149914683967 113.086185472
690.0 0.134568312684 131.333012
690.625 0.120902170391 125.396132157
691.25 0.145778279283 94.6703930067
691.875 0.188565443292 67.9628741056
692.5 0.155302308692 36.7224492174
693.125 0.0805376349259 -12.1615371538
693.75 0.0888123792205 -35.6597658628
694.375 0.121878345316 -26.2431883592
695.0 0.140125864934 4.7499975336
695.625 0.101824438515 52.6795511986
696.25 0.115601239325 110.697422067
696.875 0.141092845099 171.154710125
697.5 0.142317740349 -144.332476344
698.125 0.146354992017 -138.426187812
698.75 0.133142524022 -132.61748512
699.375 0.103592880741 -124.955092236
700.0 0.102489504042 -121.072063488
700.625 0.101953180323 -80.1940509093
701.25 0.101687229601 -67.1247932176
701.875 0.0824630135038 -63.4930400091
702.5 0.0981814159685 -88.9200599515
703.125 0.170751901479 -128.807350357
703.75 0.175009073573 -152.113277046
704.375 0.126709131093 172.683579865
705.0 0.104939349154 162.321294268
705.625 0.149899280039 179.186441735
706.25 0.130232059531 -103.251444799
706.875 0.0919177008847 -62.5702575375
707.5 0.0784630126277 -41.0416930651
708.125 0.0915039945554 8.98896484605
708.75 0.110784777482 67.5885142596
709.375 0.106523455187 104.998171871
710.0 0.103046601913 125.190292467
710.625 0.106763378874 152.828547049
711.25 0.117955682747 172.992258863
711.875 0.142459397956 170.360549672
712.5 0.140829431477 144.148395635
713.125 0.133600025905 92.217890622
713.75 0.102079330382 44.5690412989
714.375 0.110536457328 21.1633914173
715.0 0.11673775178 24.6131096707
715.625 0.0857922293667 51.8810673974
716.25 0.0726524383102 61.9889467109
716.875 0.130863164366 116.896255361
717.5 0.147240980818 147.851106828
718.125 0.120313850071 161.720068481
718.75 0.103877474773 168.076610221
719.375 0.111423351576 179.262024415
720.0 0.136961676857 -117.504181526
720.625 0.119156210979 -68.7361217424
721.25 0.0988187299699 -23.3622254024
721.875 0.0867576564255 47.0946397377
722.5 0.076584251841 74.4291972742
723.125 0.0854927586441 79.4492926801
723.75 0.102212161186 34.0151081846
724.375 0.101803711977 -11.9171671422
725.0 0.096053888263 -40.9375914287
725.625 0.112494328843 -62.0943102641
726.25 0.120884958085 -58.4970910472
726.875 0.096916106346 -67.4448949453
727.5 0.0922336731427 -15.3711617341
728.125 0.089506978247 -1.10466949915
728.75 0.0869003981369 8.71666587845
729.375 0.078563010068 9.79366758076
730.0 0.0600319105423 -10.991880096
730.625 0.0842855523857 30.2594395072
731.25 0.0863813424686 71.9384309621
731.875 0.0725127057612 110.216553766
732.5 0.0512842815021 138.014515632
733.125 0.108100277457 -175.998678783
733.75 0.0942404460732 -178.212556761
734.375 0.0695618000976 165.24793032
735.0 0.0482557645094 144.482979532
735.625 0.0513314411013 142.680474746
736.25 0.0444071635516 137.784220711
736.875 0.0524526838341 165.525504933
737.5 0.0565390262541 -179.556442441
738.125 0.118429135643 -171.223583008
738.75 0.0980797812976 -172.024835253
739.375 0.0539757251837 -171.845922341
740.0 0.010566206519 -81.3655894508
740.625 0.0769876870607 -146.419207501
741.25 0.0565136421232 -160.159620789
741.875 0.0155724108121 -103.387398728
742.5 0.0357791680147 -21.8575101532
743.125 0.0418069379707 50.7718821418
743.75 0.0366080510542 81.897776433
744.375 0.0556369340679 115.818418366
745.0 0.0521658243192 174.305349561
745.625 0.0914971357025 94.9267137295
746.25 0.0697303333649 84.5159809031
746.875 0.0600408639994 40.6916171064
747.5 0.0426917709706 3.16496605705
748.125 0.0119431154896 43.287611207
748.75 0.0484715733685 -31.6141776489
749.375 0.0312726759862 -45.187039258
750.0 0.0407122337668 -98.07383542
