!Created with skrf (http://scikit-rf.org).
# GHz S RI R (50+0j) 
!freq	ReS11	ImS11	
500.0	0.1235125882	-0.4157809451	
500.625	0.3998533216	-1.064650282	
501.25	-0.6345189979	-0.1975257061	
501.875	-0.03688856107	-0.3267111826	
502.5	-0.09410788666	-0.174302008	
503.125	-0.01344971761	0.02207038402	
503.75	-0.03592901762	0.08756760832	
504.375	0.02507429129	-0.02773726445	
505.0	0.03880426517	0.01573439793	
505.625	-0.05146361435	-0.07297026853	
506.25	0.01801575252	0.02645797755	
506.875	-0.2770115971	-0.09590159715	
507.5	-0.1984876627	0.02151590579	
508.125	0.4752078089	-0.6995153234	
508.75	0.3237592724	-1.201645	
509.375	-0.2877644475	-0.5098621041	
510.0	-0.2101428452	-0.3758671863	
510.625	-0.1541125007	-0.09821347959	
511.25	-0.01435450201	-0.03906393893	
511.875	-0.1480239881	-0.04990226803	
512.5	-0.001114416516	0.02022269844	
513.125	0.006572623604	-0.01783479701	
513.75	-0.07513556191	-0.07077976466	
514.375	0.01271072634	0.08334081874	
515.0	0.00242517637	-0.2832019143	
515.625	-0.1064865574	0.1502803627	
516.25	0.2636173238	-0.743609777	
516.875	-0.6368447265	-0.2946319537	
517.5	-0.06734374504	0.03346022308	
518.125	-0.08559614228	-0.06672743199	
518.75	-0.07380131564	0.01603329086	
519.375	-0.06085788441	0.02409256983	
520.0	0.1061189405	0.0267350117	
520.625	0.08774725553	-0.06241263291	
521.25	0.04058241581	-0.1540329612	
521.875	-0.1349438537	-0.02489714915	
522.5	0.01968478337	0.065829903	
523.125	-0.02080378769	-0.03980579974	
523.75	-0.1245317935	0.07808796837	
524.375	-0.006859380535	-0.01854408066	
525.0	-0.1408943132	0.1763045391	
525.625	0.1161357044	0.0007993043306	
526.25	-0.07142462397	0.03372292595	
526.875	0.01555525325	0.01700694838	
527.5	-0.1344609211	0.1491656472	
528.125	0.128552117	0.3133779772	
528.75	0.07395617319	0.03826900609	
529.375	0.04137833895	0.08383306788	
530.0	-0.07278379782	0.1224762302	
530.625	0.048470792	0.2371479502	
531.25	0.4890011817	0.06492647704	
531.875	0.1108156036	-0.2174605315	
532.5	-0.03690425923	0.04508263543	
533.125	-0.0805962713	-0.08839488192	
533.75	0.1571536413	-0.09802381804	
534.375	-0.1310002794	-0.3353197638	
535.0	-0.1828043075	0.02087337043	
535.625	-0.1515124713	0.04974254797	
536.25	0.02180830965	0.1095827215	
536.875	0.04756855005	-0.01266382997	
537.5	0.08697469332	-0.01380750606	
538.125	0.07557689843	-0.1064170626	
538.75	0.09586443899	-0.04292035235	
539.375	-0.07314117782	-0.190082416	
540.0	-0.1684584008	-0.07508055055	
540.625	-0.1078107164	-0.04801631044	
541.25	-0.1293953085	0.006227605779	
541.875	0.004922678822	0.02405151412	
542.5	0.02605309848	-0.06393301428	
543.125	-0.1006962964	-0.002794014966	
543.75	-0.03820667837	-0.04023999842	
544.375	-0.1031056498	0.05420228975	
545.0	0.0411797165	0.01186890072	
545.625	0.01708533241	0.1161129742	
546.25	0.1311839712	-0.01850045567	
546.875	0.0426343819	0.007410458083	
547.5	0.1046340099	-0.1446320019	
548.125	-0.1016204936	-0.1135717357	
548.75	-0.06262768689	-0.1017820929	
549.375	-0.1376899646	-0.09043770757	
550.0	-0.03882544138	0.0532094392	
550.625	-0.07122843822	-0.02320295952	
551.25	-0.04664530403	0.06422859623	
551.875	-0.05258367645	0.03761832678	
552.5	-0.04914182412	0.08579988487	
553.125	0.004997881581	0.04570070478	
553.75	0.04488181614	0.04648403254	
554.375	0.08962368781	-0.02012663621	
555.0	0.07511911452	-0.06471876702	
555.625	0.07414393605	-0.1033327746	
556.25	0.04342126797	-0.1328201743	
556.875	-0.04220722291	-0.1346790889	
557.5	-0.09465072538	-0.0885211921	
558.125	-0.1125734918	-0.02676037014	
558.75	-0.09588777768	0.01101759292	
559.375	-0.09398587301	0.01928722558	
560.0	-0.09137323341	0.08215990883	
560.625	-0.02170552954	0.09712601032	
561.25	-0.01410865642	0.08536706864	
561.875	0.06575444964	0.0448673174	
562.5	-0.0160739432	0.03606684727	
563.125	0.1042534467	0.07225317104	
563.75	0.08882164164	-0.02972020895	
564.375	0.1317665472	-0.05956307652	
565.0	0.05254747578	-0.1833145874	
565.625	-0.04785594554	-0.08648877122	
566.25	-0.08802349073	-0.13188637	
566.875	-0.1855053613	-0.01852221275	
567.5	-0.07677412562	-0.08290347221	
568.125	-0.1790796241	-0.2224122909	
568.75	-0.1987529383	0.02954630194	
569.375	-0.1894618891	0.03875196586	
570.0	-0.121254169	0.2643283818	
570.625	0.0628891648	0.09163831609	
571.25	-0.08643382914	0.09679739823	
571.875	0.1308529861	0.04239896913	
572.5	0.03619537156	0.03197302359	
573.125	0.1586910744	-0.1741342328	
573.75	-0.06477348159	-0.1220036546	
574.375	0.07587962945	0.008699950388	
575.0	-0.002133644606	-0.1253159417	
575.625	0.04858294633	0.02838280277	
576.25	0.09655394048	-0.1498700706	
576.875	-0.09595665447	-0.1212992872	
577.5	0.02205632056	-0.06709661637	
578.125	-0.01145172101	-0.2311287513	
578.75	-0.1788833432	-0.06090781172	
579.375	0.02367601604	-0.01279980168	
580.0	-0.1116155108	-0.09031227139	
580.625	0.05217664688	0.100378399	
581.25	-0.1973475759	-0.0138556278	
581.875	0.08778272929	0.2055391073	
582.5	0.05852223325	-0.001386642609	
583.125	0.00145375397	0.1829259183	
583.75	0.1300593675	-0.04106893344	
584.375	-0.06163076325	0.09160597813	
585.0	0.2114459169	-0.001544588822	
585.625	0.02703200985	-0.03284370263	
586.25	0.1806966096	0.01524478827	
586.875	0.02947042349	-0.2137936473	
587.5	-0.01969258658	-0.03669470025	
588.125	0.02044416139	-0.1862816623	
588.75	-0.05330191578	-0.1673084309	
589.375	0.04572003447	-0.04793816467	
590.0	-0.05864148003	-0.2534406689	
590.625	-0.1594327761	0.08048383408	
591.25	-0.09495671538	0.01795024998	
591.875	-0.08140273244	0.1994257114	
592.5	0.1143777318	-0.07021686239	
593.125	-0.08057842089	0.1613225988	
593.75	0.1123585174	0.02122496643	
594.375	0.04333435538	0.1133204181	
595.0	0.2613293195	0.1074247902	
595.625	0.1169626794	-0.05130452247	
596.25	0.1207417248	0.1146111771	
596.875	0.210895799	-0.02685392564	
597.5	0.06195019694	0.03996653546	
598.125	0.1615892	0.1622157311	
598.75	0.207248695	-0.012306577	
599.375	0.1064625539	-0.02755362368	
600.0	0.1925087231	-0.1406478314	
600.625	0.09409238577	-0.1943012092	
601.25	0.0068805296	-0.1010002259	
601.875	-0.03394442382	-0.1856514875	
602.5	-0.1562058293	0.08296038843	
603.125	-0.02871743643	-0.0190329026	
603.75	-0.2319787961	0.1367504775	
604.375	0.03644582133	0.1201791285	
605.0	-0.106940913	-0.01420822631	
605.625	-0.0572122392	0.1785178338	
606.25	-0.07350215457	-0.08823662258	
606.875	-0.2602362465	0.09789768269	
607.5	-0.04328109781	0.249488603	
608.125	-0.03477781142	0.1269053951	
608.75	0.2331592231	0.07810267269	
609.375	0.1774368099	-0.114726491	
610.0	0.1069246017	-0.05631158234	
610.625	0.1114796204	-0.197034179	
611.25	-0.03128851463	-0.1885093756	
611.875	-0.02332765699	-0.1085842963	
612.5	-0.247820448	-0.05720729919	
613.125	-0.1224752395	0.1609780943	
613.75	-0.1302206661	0.0400305545	
614.375	0.1263615602	0.1906526737	
615.0	-0.003795005153	-0.06954695558	
615.625	0.01680378722	0.2107866251	
616.25	0.08227772181	0.08531375516	
616.875	-0.1497674323	0.2066415574	
617.5	-0.05528889013	0.303091375	
618.125	-0.03582998088	0.1228999691	
618.75	-0.06410032457	0.1440161426	
619.375	0.03963657469	0.09302337668	
620.0	0.126541839	-0.02609949936	
620.625	0.0338456092	-0.1142492741	
621.25	-0.07494863549	-0.2098595679	
621.875	-0.1979977749	0.0448496748	
622.5	-0.1934562706	0.02370696341	
623.125	-0.02948173901	0.2561194752	
623.75	0.08054132593	-0.03810857511	
624.375	0.1124978467	0.05333972185	
625.0	-0.02851094035	-0.08570664909	
625.625	0.08518289748	-0.0310126683	
626.25	-0.08848936536	-0.1802183406	
626.875	-0.1367140835	0.01146690553	
627.5	-0.08747593345	-0.1031918013	
628.125	-0.1817218352	-0.04100213059	
628.75	-0.04356689755	-0.0523047228	
629.375	-0.07855147958	-0.1567020012	
630.0	-0.222239766	-0.02635910362	
630.625	-0.1265216302	0.04080960715	
631.25	-0.1528521803	0.2077049841	
631.875	0.01683990557	0.305508389	
632.5	0.1647400878	0.09847811242	
633.125	0.2110649387	0.08442426372	
633.75	0.2177373105	-0.2236667025	
634.375	0.006923652673	-0.02659907365	
635.0	0.0257768222	-0.2626380845	
635.625	-0.1889453113	0.03448292284	
636.25	-0.109082851	-0.01224559143	
636.875	-0.08833809251	0.2058551582	
637.5	0.08259545376	0.04928781321	
638.125	-0.131504996	0.06991449626	
638.75	0.02402729276	0.2258610578	
639.375	0.03835674412	0.08854019284	
640.0	0.1043830428	0.2904151014	
640.625	0.3122163958	0.03764762307	
641.25	0.1489402262	-0.04519242674	
641.875	0.2094077757	-0.1347244291	
642.5	-0.1209255544	-0.2815268594	
643.125	-0.07131504477	-0.0143640839	
643.75	-0.1921385182	-0.1229041707	
644.375	-0.1674022247	0.1702060945	
645.0	-0.09220531482	-0.08248425894	
645.625	0.1194952407	0.3312011316	
646.25	0.1762042295	-0.08886304388	
646.875	-0.0107952987	0.1747059188	
647.5	0.1842359471	-0.09791172079	
648.125	-0.03266204699	0.1480729636	
648.75	0.4203669791	-0.09348646569	
649.375	0.01800661702	-0.3217099509	
650.0	0.1199501018	-0.1352609536	
650.625	0.2948504105	-0.3646734834	
651.25	-0.03323589584	-0.3093814494	
651.875	0.2124956915	-0.01456993151	
652.5	0.3615968137	-0.2142133762	
653.125	0.06427767133	-0.1981292489	
653.75	0.220194589	-0.1208726861	
654.375	-0.1757916992	-0.3982613114	
655.0	-0.2367074358	0.1213687229	
655.625	-0.1212548928	-0.006903732295	
656.25	0.03618523389	0.3309484864	
656.875	0.0634423513	-0.1143667529	
657.5	0.03057897231	0.2340666231	
658.125	0.271093344	-0.03814746727	
658.75	0.1092108423	0.07916732415	
659.375	0.42937826	-0.1708796468	
660.0	-0.09509231829	-0.3433454491	
660.625	0.1658359632	-0.1417383511	
661.25	0.1949149313	-0.3630973347	
661.875	0.03460659245	-0.3284948693	
662.5	0.1769398684	-0.03203427032	
663.125	0.3149896131	-0.3246150362	
663.75	-0.02693750515	-0.2582319755	
664.375	0.01644667756	-0.2516051638	
665.0	-0.3746368631	-0.1820318958	
665.625	-0.1471822698	0.1566100516	
666.25	-0.1331550236	0.1930767022	
666.875	0.2083205667	0.247784748	
667.5	0.138382368	-0.04167800336	
668.125	0.2033523653	0.1412692772	
668.75	0.1696242207	-0.2930366432	
669.375	-0.01415541282	-0.1229028571	
670.0	0.09088367858	-0.2149653908	
670.625	-0.2381328236	-0.2398794785	
671.25	0.09092902953	0.01447879485	
671.875	0.1839649999	-0.2443428766	
672.5	0.03163098472	-0.1837612319	
673.125	0.2028531653	-0.04713950878	
673.75	0.2006229871	-0.3203039164	
674.375	-0.1343643411	-0.1577837758	
675.0	0.001205865869	-0.1742702484	
675.625	-0.2872264303	-0.1217777529	
676.25	-0.1204734036	0.1255169838	
676.875	-0.1335526473	-0.09627881769	
677.5	-0.1888871843	0.1707880746	
678.125	-0.03014561024	0.07647632312	
678.75	-0.03874088506	0.2370090542	
679.375	0.3309293474	-0.01349126683	
680.0	-0.05246048019	-0.1003701425	
680.625	0.2312130131	0.01872918207	
681.25	0.04569120892	-0.2286589121	
681.875	-0.06128687547	0.1479844185	
682.5	0.4764829881	0.1221417465	
683.125	0.1595304538	-0.1711090767	
683.75	0.2454397014	0.3220816808	
684.375	0.4369639796	-0.01256434705	
685.0	0.1389379448	-0.1948253551	
685.625	0.2421499147	0.1933000138	
686.25	0.2204222465	-0.2497967165	
686.875	0.1015334592	-0.1434897724	
687.5	0.2882920849	-0.2216145897	
688.125	-0.2868622423	-0.460075003	
688.75	-0.2535085995	-0.04552137811	
689.375	-0.3341736072	0.3039573622	
690.0	0.2910019652	0.3235846419	
690.625	0.1700193768	0.06297878854	
691.25	0.337990468	0.40290649	
691.875	0.5936212534	-0.01517592614	
692.5	0.3291462724	0.1515045199	
693.125	0.7357030183	0.03433439216	
693.75	0.3973134534	-0.5254663723	
694.375	0.4596940968	-0.06872819401	
695.0	0.552535675	-0.3883907273	
695.625	0.2719535477	-0.2786197815	
696.25	0.5581010082	0.3136821634	
696.875	0.6334446742	0.3804267491	
697.5	0.2552228846	0.382079221	
698.125	0.5545946264	0.1289015014	
698.75	0.2244590347	-0.399624832	
699.375	-0.4978904468	-0.1981271749	
700.0	-0.1776991673	0.1833290393	
700.625	0.2826791759	0.3685383371	
701.25	0.3156480741	-0.01416018285	
701.875	0.128310386	0.2413088633	
702.5	0.4968263245	0.1896117632	
703.125	0.2693862109	-0.05727262198	
703.75	0.3789337817	0.01214654429	
704.375	0.2922752574	-0.3208934946	
705.0	0.08201540418	-0.06758138609	
705.625	0.3085406942	0.1265305037	
706.25	0.3626258627	-0.0009653538671	
706.875	0.1427094286	0.2269390723	
707.5	0.3293719349	0.2380592382	
708.125	0.4296018823	-0.09550118593	
708.75	0.1738764755	-0.2404435209	
709.375	-0.1889957105	-0.09807612408	
710.0	-0.06176949471	0.287482064	
710.625	0.1952845217	-0.144208666	
711.25	0.1482323475	0.175271083	
711.875	0.164576755	-0.10151107	
712.5	0.1811168687	0.09296105182	
713.125	0.2682676379	-0.2633958759	
713.75	-0.02339366722	-0.2366169608	
714.375	0.1113549549	-0.163323538	
715.0	-0.115307135	-0.2617797281	
715.625	-0.04761102093	-0.1062837479	
716.25	0.2405130046	-0.197550531	
716.875	0.2425681646	-0.3639278348	
717.5	0.2769205195	-0.07166663018	
718.125	0.689184981	0.03835847585	
718.75	0.6424845916	-0.4085393454	
719.375	0.3929087372	-0.3818098109	
720.0	0.4703889505	-1.061255403	
720.625	-0.352019732	-0.6317519555	
721.25	-0.08086931067	-0.3181477632	
721.875	-0.4652062242	-0.9729503797	
722.5	-1.031697261	-0.2865155535	
723.125	-0.1377805481	-0.05448935682	
723.75	-0.4506317069	0.6347675638	
724.375	0.3261785278	0.3383061225	
725.0	-0.07074331047	0.2407793894	
725.625	0.2699654392	0.5597194965	
726.25	0.284820345	0.2794084839	
726.875	-0.2652113573	0.7273102653	
727.5	0.2055442127	1.442082847	
728.125	0.7726011126	1.151781489	
728.75	-0.4597064879	1.907533557	
729.375	0.4556533596	3.968457097	
730.0	1.641523821	1.989541749	
730.625	-0.651122657	3.114134625	
731.25	1.0561024	4.283169033	
731.875	0.711959367	2.216720316	
732.5	-2.618136523	0.6127815185	
733.125	-1.937229758	1.531750419	
733.75	0.07650956534	0.9217629226	
734.375	0.6961840636	0.8044210041	
735.0	-0.5556878852	-0.7604241723	
735.625	0.05675479082	-0.001113767879	
736.25	-0.1968102173	0.5665521653	
736.875	0.9054933431	0.1705634883	
737.5	0.1637964212	0.02329244075	
738.125	1.782166945	-0.2524301433	
738.75	0.9663557335	-2.040076443	
739.375	0.6349812072	-0.3182615909	
740.0	4.325877834	-0.3614890676	
740.625	2.093181444	-3.539736612	
741.25	-2.506693149	0.4107402662	
741.875	-5.80007205	2.805536972	
742.5	-1.259477045	1.07043799	
743.125	1.023820199	-1.350709487	
743.75	-0.5351877989	-1.253824056	
744.375	-0.189845708	0.3126579638	
745.0	-0.09458956789	0.09013734507	
745.625	0.02271303002	-0.1067878038	
746.25	0.09342488966	-0.07402213802	
746.875	-0.2394758404	0.09255702093	
747.5	0.1182935866	0.25302252	
748.125	0.01702287297	0.3025535124	
748.75	0.2834117439	0.4459406892	
749.375	0.2547049983	0.2386339324	
750.0	-0.2847580944	0.1494068829	
