!Created with skrf (http://scikit-rf.org).
# GHz S MA R 50.0 
!freq magS11 angS11
500.0 0.0103609175622 155.481103983
500.625 0.00919323584321 105.678389915
501.25 0.00907893500421 -155.846768275
501.875 0.031716489033 -176.793561978
502.5 0.0350578932631 175.440626968
503.125 0.0246935737989 126.205255433
503.75 0.007911795931 89.1660402126
504.375 0.0220665413612 -60.1474503193
505.0 0.00539275974959 95.3689516197
505.625 0.0189702055247 -73.9799763102
506.25 0.0441021437497 -110.785368454
506.875 0.0803405599701 -90.4555302739
507.5 0.0423156508674 -129.575963611
508.125 0.0407027319881 -94.7043662979
508.75 0.0590602037067 -129.353885585
509.375 0.0610141838357 -127.889907698
510.0 0.0327822729834 -123.863740228
510.625 0.024983173406 -168.654418508
511.25 0.0535578674285 -172.508670707
511.875 0.0648258261514 154.145025502
512.5 0.0354472732373 81.2795007423
513.125 0.0462306798597 30.6461473424
513.75 0.0545928823493 32.7521341641
514.375 0.0391001123652 11.2883743757
515.0 0.0477340893716 3.57072790809
515.625 0.0894605514612 44.6867985255
516.25 0.0870138717234 30.761406803
516.875 0.115336646495 69.9025722162
517.5 0.118602755932 19.8586872972
518.125 0.20551422243 72.5607506401
518.75 0.0975780246431 16.4425490924
519.375 0.0529447260592 7.17599776252
520.0 0.0832720203883 -6.14370923974
520.625 0.104232412516 -7.2683431289
521.25 0.0934423606853 -21.146355221
521.875 0.0701542688759 1.38197475824
522.5 0.0961156400034 -32.1400540097
523.125 0.187367738102 -32.327299638
523.75 0.208148498697 -58.0931505431
524.375 0.222776684406 -47.2819395892
525.0 0.0683122992476 -48.233212857
525.625 0.0342813950835 -46.4973851938
526.25 0.0576227477004 -5.98522791225
526.875 0.0410495933379 -37.2124426274
527.5 0.0452306239685 -33.3705218718
528.125 0.0359402900913 -63.8213179285
528.75 0.0703550055211 -71.1324167562
529.375 0.0669575421272 -125.755358366
530.0 0.042398979453 -134.126650914
530.625 0.0388355301205 -139.027581355
531.25 0.136000124808 -139.428958331
531.875 0.138720528643 -149.442470661
532.5 0.123462487998 -171.728351849
533.125 0.0911114985035 172.837005562
533.75 0.134841516342 166.131470297
534.375 0.0871141209445 173.615947159
535.0 0.0828329324407 161.951666385
535.625 0.0641785910504 170.212063468
536.25 0.0728604424039 161.877519837
536.875 0.0721610453481 -157.724513261
537.5 0.0914869023985 -142.659610058
538.125 0.103257915036 -173.336717426
538.75 0.11652950364 179.582251296
539.375 0.0617803961626 -167.48217306
540.0 0.0833402375228 -154.693952995
540.625 0.128862918516 -155.991158388
541.25 0.139655354472 -142.72785146
541.875 0.0948392556726 -144.890467713
542.5 0.109183784154 -141.652259854
543.125 0.13421748898 -167.666764113
543.75 0.141051956009 158.929456708
544.375 0.0818927704077 131.098060302
545.0 0.0844494314352 90.7757411979
545.625 0.0959368774325 79.2667769764
546.25 0.0925686996793 67.0406443037
546.875 0.0898146667526 53.7184199011
547.5 0.105830504024 59.2330094755
548.125 0.115113684335 78.6858959873
548.75 0.0990170142496 89.9501150179
549.375 0.074327052776 84.3357337262
550.0 0.0826305477224 125.487005828
550.625 0.0412515394124 151.676178246
551.25 0.04167899567 -144.978558606
551.875 0.0530781119848 -146.381982874
552.5 0.0986712535247 -159.957386953
553.125 0.0855963692955 -166.833992246
553.75 0.0956805034951 -173.050877075
554.375 0.0966567089467 172.575125199
555.0 0.121066364263 165.228304767
555.625 0.100523197967 156.300423228
556.25 0.0991429886038 162.886965439
556.875 0.126517442704 163.334263505
557.5 0.106198249236 166.779414303
558.125 0.0911694814543 165.115517962
558.75 0.0848719567261 177.512902795
559.375 0.0483398319026 -172.346354124
560.0 0.0403659263911 -143.225946674
560.625 0.0561050177145 -140.690386173
561.25 0.0906245460936 -153.409822596
561.875 0.0956941593614 -159.756098714
562.5 0.0936340372084 173.140391863
563.125 0.0993764918016 147.155104693
563.75 0.140265229268 127.359748749
564.375 0.0897887152539 123.929289867
565.0 0.079432836575 122.11345301
565.625 0.0775169094818 113.630562023
566.25 0.102100557582 148.952666837
566.875 0.0752878273293 178.893180714
567.5 0.0717898308748 -177.675763634
568.125 0.0799711828625 -169.957656924
568.75 0.0667075565168 -147.372834035
569.375 0.0533696525456 -118.921524337
570.0 0.0596066822569 -102.246747829
570.625 0.0940560303671 -119.656241723
571.25 0.0913508709787 -120.349583314
571.875 0.090211888164 -131.606789705
572.5 0.112159613463 -155.812173204
573.125 0.139763036975 -173.223817355
573.75 0.102853437464 162.312720691
574.375 0.0870610455805 145.182919577
575.0 0.106418913461 153.329715516
575.625 0.113031841448 151.954633483
576.25 0.0917405874454 142.668770504
576.875 0.0708750333862 136.574415596
577.5 0.0830379667135 136.601638988
578.125 0.0565446677173 158.373448537
578.75 0.0485103104425 163.946466019
579.375 0.0547912089883 158.11346477
580.0 0.0662319447211 -176.384033999
580.625 0.0787432552061 -149.614672173
581.25 0.090114984326 -163.814381861
581.875 0.116112501162 176.554077008
582.5 0.112143478244 -169.690454709
583.125 0.0906020686057 -164.838290263
583.75 0.0790618975713 -161.896991854
584.375 0.106367004555 -166.740450107
585.0 0.0881276803626 -137.14825183
585.625 0.0686264327537 -139.348968392
586.25 0.0713142850261 -137.44044624
586.875 0.0847979957694 -143.692879629
587.5 0.0712406084334 -137.574377945
588.125 0.0573235861122 -166.567770988
588.75 0.0637877460442 -156.894956013
589.375 0.081363357786 -163.93127244
590.0 0.0956793557676 -158.78433366
590.625 0.107410295188 166.854059168
591.25 0.119169929972 157.121314632
591.875 0.0978973215374 153.525832545
592.5 0.0614359602765 150.707811523
593.125 0.0624199985144 153.313104778
593.75 0.0683378902458 -177.125293839
594.375 0.0600799930099 -167.34983056
595.0 0.048787462742 -99.8556191721
595.625 0.061509387195 -98.0237761759
596.25 0.0692747135899 -81.6975101966
596.875 0.0671310752558 -74.7562173494
597.5 0.0604050293993 -57.5551204014
598.125 0.0726685736551 -52.9752087094
598.75 0.0811476282502 -62.4067522057
599.375 0.0809392640201 -73.1719161664
600.0 0.109857530375 -59.2451205512
600.625 0.104243473527 -58.5395370318
601.25 0.0827869588447 -68.1607168526
601.875 0.0684206855899 -101.241090839
602.5 0.0634493180152 -69.2043291273
603.125 0.0455298301682 -51.1197667115
603.75 0.0288600893914 -48.7976478635
604.375 0.0421709518024 -23.0981321723
605.0 0.0512924827838 -32.4991656177
605.625 0.0580596008153 7.59751621885
606.25 0.0341683480645 26.8909828133
606.875 0.0365845480814 45.6789397864
607.5 0.0394615927265 36.8365785339
608.125 0.071303655071 31.2963756749
608.75 0.0576190477536 19.1906573256
609.375 0.0653544142885 30.5866856607
610.0 0.0596955168041 32.6114416964
610.625 0.0709893629458 45.0405413617
611.25 0.0606359783851 42.6563253361
611.875 0.0397115178958 49.0211714827
612.5 0.0112220991974 16.8259025583
613.125 0.0482780754816 129.039179886
613.75 0.0519308903337 123.062952124
614.375 0.0395463018178 123.978039369
615.0 0.0256577391451 111.644348534
615.625 0.0408137235955 135.957123375
616.25 0.0507317240677 137.756657131
616.875 0.0364068068089 127.158193457
617.5 0.0195584523867 106.093639342
618.125 0.051576060631 139.399223503
618.75 0.0285579070803 137.90495342
619.375 0.0148781987568 149.08063461
620.0 0.0176007368774 -28.8688403168
620.625 0.0283484132488 -172.33138164
621.25 0.0436926118566 -124.348253142
621.875 0.0724169000533 -110.86426128
622.5 0.0701828460346 -152.194116196
623.125 0.072767375846 171.040001649
623.75 0.0611206922951 167.938827041
624.375 0.0397295534348 -168.793509627
625.0 0.042941990999 -151.574607881
625.625 0.0222803202177 -135.303966392
626.25 0.0357314515459 -179.600796524
626.875 0.0105841579306 157.947511936
627.5 0.0237519025157 -23.1356999594
628.125 0.0550041802102 -4.19602482318
628.75 0.0357932688948 -58.7710847616
629.375 0.0354902106365 -32.6394453186
630.0 0.0644153775214 -13.5240639639
630.625 0.0808336535738 20.5479859894
631.25 0.0673974736636 0.325639678448
631.875 0.0639895674545 -15.8530916548
632.5 0.0581726104383 -5.92486406214
633.125 0.0540600038862 28.7978753031
633.75 0.0481660061653 -22.6077064866
634.375 0.0417808931756 3.07717344311
635.0 0.0395924319007 29.0199654799
635.625 0.0326782522226 40.7713881381
636.25 0.0668950326041 48.431585704
636.875 0.0584432661955 25.0287270625
637.5 0.037254453944 21.2142456415
638.125 0.0302369947498 55.0437592967
638.75 0.0974678264202 78.4000817007
639.375 0.078641465159 73.8248659787
640.0 0.0685066279075 96.7442032375
640.625 0.0553500724671 93.2373382433
641.25 0.0726800707011 125.753394632
641.875 0.0522322354712 123.211182281
642.5 0.0480074282087 158.005452838
643.125 0.0564351615471 160.263602085
643.75 0.0878221909878 176.131737926
644.375 0.0552313111597 173.100924538
645.0 0.0651025061148 174.539250485
645.625 0.0858895510162 159.545780881
646.25 0.10859477596 168.969841615
646.875 0.0633686325468 167.731758591
647.5 0.0605860323431 -178.046191057
648.125 0.0867298853251 176.579967654
648.75 0.0761657679702 -160.483068694
649.375 0.0517001408993 -152.912194474
650.0 0.0474984467339 -120.192078002
650.625 0.065054778987 -86.4302383456
651.25 0.0674758892176 -64.1914127414
651.875 0.075452252918 -43.6689393647
652.5 0.0768612300598 -25.5936849685
653.125 0.107067120697 -1.81208345177
653.75 0.11084602397 7.24816494222
654.375 0.0908161464046 0.623036101966
655.0 0.109634140528 10.5899719137
655.625 0.0997117111186 26.0497737093
656.25 0.0599014279286 21.7876231949
656.875 0.0787532453445 8.08658447528
657.5 0.0721585697917 17.8233888604
658.125 0.0536913002841 45.191192945
658.75 0.0503945574985 60.7501117918
659.375 0.0951696882261 34.6814763378
660.0 0.0891883123898 26.2360176472
660.625 0.106157972276 18.9796923547
661.25 0.0990768685738 2.90400180269
661.875 0.128808998526 -13.5491709825
662.5 0.0988900761119 -25.1168041863
663.125 0.100814855921 -15.5361816746
663.75 0.0960180957226 2.99242427344
664.375 0.115391263376 54.1339873858
665.0 0.0724041195923 90.7927023837
665.625 0.0616904772699 107.661264577
666.25 0.0935834554249 128.110165336
666.875 0.0897305530394 172.665509924
667.5 0.0999152327453 -169.84771036
668.125 0.107263625828 179.168153221
668.75 0.133846917992 165.977520853
669.375 0.141830562505 176.332478653
670.0 0.0856680790004 -172.59187477
670.625 0.0912461262987 -172.317298839
671.25 0.11389887033 174.956145665
671.875 0.115206283089 166.650131512
672.5 0.0580907704846 157.399143655
673.125 0.0845575174008 153.829823549
673.75 0.117423873028 155.826660546
674.375 0.105465266839 170.233203793
675.0 0.112414312166 -173.538311781
675.625 0.133806722557 -151.395803921
676.25 0.132891836047 -127.983686877
676.875 0.112117218028 -122.203653526
677.5 0.127249588717 -128.920277639
678.125 0.132227763273 -116.140338558
678.75 0.0699230791946 -92.4342693231
679.375 0.0600162316018 -80.7090593393
680.0 0.0721098432444 -76.0506053092
680.625 0.106942970277 -71.5742078556
681.25 0.0966083316834 -72.9485848768
681.875 0.104992257907 -97.1581058596
682.5 0.131471855017 -119.722466378
683.125 0.160430604657 -123.016320698
683.75 0.142805159413 -106.113935078
684.375 0.118238171673 -79.0637606751
685.0 0.146122109322 -44.2448694536
685.625 0.124799874781 -2.16300849416
686.25 0.0970490244534 24.9408345377
686.875 0.0875073588385 47.7819689158
687.5 0.086952051053 76.1702129103
688.125 0.0756654148298 112.117971851
688.75 0.096613737678 119.39958463
689.375 0.134239548568 122.627739735
690.0 0.142101962731 129.350903932
690.625 0.108940155692 132.438026568
691.25 0.137973433016 99.8186826599
691.875 0.189364774145 66.3850090369
692.5 0.149794491147 38.1965775723
693.125 0.0969554588421 -18.8531141799
693.75 0.0889923976425 -35.476876284
694.375 0.129350890798 -27.2706850941
695.0 0.119364376131 14.1979669479
695.625 0.107272013352 48.3700476195
696.25 0.106109243532 122.989414138
696.875 0.139236138926 170.951139513
697.5 0.145077201409 -146.228199198
698.125 0.139619631979 -132.88650708
698.75 0.121601296227 -127.859334699
699.375 0.0993614669825 -118.842585402
700.0 0.0909573545398 -113.499333784
700.625 0.122061845436 -99.27275777
701.25 0.0858281990986 -52.6903566222
701.875 0.078909052752 -55.3574538009
702.5 0.099037716993 -79.4218398074
703.125 0.170347918958 -126.342564294
703.75 0.192102020271 -157.619900263
704.375 0.128754158424 170.306945401
705.0 0.111394965471 160.443351025
705.625 0.141253956726 -168.217398074
706.25 0.156694941168 -120.716993954
706.875 0.082817834046 -54.4448710274
707.5 0.0735919281495 -30.2034198715
708.125 0.0847865964232 23.674132605
708.75 0.112073797677 53.4060183771
709.375 0.104567464585 116.53754832
710.0 0.10460642509 133.074421162
710.625 0.107123474362 148.531261594
711.25 0.117837506289 163.569398225
711.875 0.149361212909 170.179167015
712.5 0.147835384811 151.19475811
713.125 0.120532324327 102.976396067
713.75 0.107636276563 37.7843178633
714.375 0.105748786391 22.7916670952
715.0 0.112203073716 26.5147614867
715.625 0.0866261012137 45.905643133
716.25 0.0807207605454 75.6730336512
716.875 0.108359586735 92.7201277534
717.5 0.15156119373 161.286242677
718.125 0.118246695838 169.566991544
718.75 0.098850265959 174.791137467
719.375 0.115348396497 -175.61283441
720.0 0.128108111316 -138.335527452
720.625 0.11345076471 -74.7937772125
721.25 0.0927586733142 -23.0115603102
721.875 0.0875255399013 13.2588226037
722.5 0.0821307961105 92.0074144551
723.125 0.0971235368441 83.9788087102
723.75 0.109851594019 50.5645035902
724.375 0.101511684184 -6.72795895516
725.0 0.101856719741 -35.1627142197
725.625 0.0990664709267 -66.1803983661
726.25 0.123507048944 -62.4591866176
726.875 0.103900482179 -50.2191584288
727.5 0.078562529635 -48.3781474061
728.125 0.102737503579 14.8580110623
728.75 0.0999916476116 28.8871820253
729.375 0.090180599044 25.4417536679
730.0 0.0620773895912 -5.41397646802
730.625 0.0512079731992 6.38144113341
731.25 0.0699351410391 66.7313561171
731.875 0.0582962666064 107.193770242
732.5 0.075353691156 149.593893774
733.125 0.0607204594743 157.592055108
733.75 0.0780856517371 175.42260184
734.375 0.0524517966772 -172.458233951
735.0 0.0324252381141 123.009836269
735.625 0.0885768751352 156.772356169
736.25 0.0379540358602 148.340299535
736.875 0.0373039909119 179.411581449
737.5 0.0645525648794 178.292660525
738.125 0.0692480721743 -179.74751074
738.75 0.0766787514372 -172.394493954
739.375 0.0445507011232 -178.071281836
740.0 0.0451910013946 -148.919918065
740.625 0.0207249609177 -122.406038019
741.25 0.0830414102739 -152.306367041
741.875 0.050104557115 -111.13275503
742.5 0.0275874584583 3.62953294104
743.125 0.0217292527998 123.056379676
743.75 0.069573062878 80.3275358526
744.375 0.0610929456837 91.7174263993
745.0 0.0617997188233 124.470885639
745.625 0.0656949288486 144.474536224
746.25 0.103969327456 66.8346811949
746.875 0.0694205437891 40.0499351635
747.5 0.0436919627168 28.7626812723
748.125 0.022643396162 -9.69922803276
748.75 0.0223643740828 49.2249776585
749.375 0.0552898636052 -64.9668461343
750.0 0.0420610735834 -122.192769215
