!Created with skrf (http://scikit-rf.org).
# GHz S RI R (50+0j) 
!freq	ReS11	ImS11	
500.0	-0.261990379	-0.6873273602	
500.625	0.8995268174	-0.7961217736	
501.25	-0.6902195303	-0.8080877404	
501.875	-0.1064826387	-0.252941806	
502.5	-0.02368878822	-0.1844966656	
503.125	-0.05547530758	0.05408189443	
503.75	-0.03476483779	0.05056223777	
504.375	0.05752127316	-0.02750717917	
505.0	-0.004115585113	0.0005633071678	
505.625	0.01115922539	-0.118996831	
506.25	-0.1129368322	0.02668138684	
506.875	-0.1865297896	-0.2492702155	
507.5	-0.46130366	-0.1968394025	
508.125	0.2971423634	-0.2584611771	
508.75	1.116974916	-1.274199812	
509.375	-0.816551035	-1.429992269	
510.0	-0.1432374489	-0.4414905989	
510.625	-0.09690834245	-0.2185854926	
511.25	-0.0643027109	0.02154419669	
511.875	-0.1007279319	-0.1225681289	
512.5	-0.03432043251	0.08831201918	
513.125	-0.006010377764	-0.007617101762	
513.75	-0.03248361644	-0.1209992698	
514.375	-0.114072722	0.06756742905	
515.0	0.3134010136	-0.3595519775	
515.625	-0.5000131734	-0.3486875234	
516.25	0.12389552	-0.2692954382	
516.875	-0.1634650094	-0.7189355207	
517.5	-0.1686523785	-0.06741224044	
518.125	0.05186357264	-0.0645007556	
518.75	-0.1607982576	-0.1212298344	
519.375	-0.03302076454	0.008303623551	
520.0	0.1327337083	0.0624915562	
520.625	0.1891162032	-0.1137820072	
521.25	-0.05104761398	-0.1525331858	
521.875	-0.1147866763	-0.1331321587	
522.5	-0.09916212453	0.06798156789	
523.125	-0.005807836672	-0.1040108642	
523.75	-0.2474990312	0.00724204734	
524.375	-0.02700467651	0.1187871119	
525.0	-0.1942085753	0.05977876975	
525.625	0.1169321296	0.129112094	
526.25	-0.1104298872	-0.03298842253	
526.875	0.008734899025	0.09822723759	
527.5	-0.1651472613	0.1640190618	
528.125	-0.03107766547	0.396858577	
528.75	0.191973775	0.2607940013	
529.375	-0.06308001221	0.01545557268	
530.0	0.104582699	0.2543981084	
530.625	0.06576495341	0.1074132988	
531.25	0.3312508949	0.2218485861	
531.875	0.2729894532	-0.3210055893	
532.5	-0.08407304208	0.04654193269	
533.125	0.06537260384	-0.2085604944	
533.75	0.02215004661	-0.04715679656	
534.375	-0.01174627567	-0.4266790583	
535.0	-0.3434363554	-0.05331714694	
535.625	-0.1291848283	0.04599124095	
536.25	-0.03524304503	0.122223214	
536.875	0.1068233044	-0.0293594517	
537.5	0.06716736833	0.004254350497	
538.125	0.1649664566	-0.1191022667	
538.75	0.0836776791	-0.106017735	
539.375	-0.02229825823	-0.2074322365	
540.0	-0.1599360447	-0.192977945	
540.625	-0.09413530088	0.0103049809	
541.25	-0.0686591624	-0.03645307216	
541.875	-0.09430728431	-0.001031785389	
542.5	0.01534412664	-0.09242839961	
543.125	-0.1450722344	-0.05804684966	
543.75	-0.03747182537	0.09031994502	
544.375	-0.113211386	0.02767581241	
545.0	0.07456994155	0.1005444955	
545.625	-0.01278412166	0.06461322853	
546.25	0.1661732963	0.0477118901	
546.875	0.06126297227	-0.04820782209	
547.5	0.135411417	-0.07167945523	
548.125	-0.09413552709	-0.2071659694	
548.75	-0.09319078972	-0.0500506611	
549.375	-0.1021757384	-0.129218181	
550.0	-0.1091638035	0.04835492681	
550.625	-0.02974552191	-0.03430201483	
551.25	-0.110877661	0.06342225021	
551.875	-0.04108177225	0.05015518044	
552.5	-0.07408705845	0.0536427355	
553.125	-7.048546525e-06	0.0733700776	
553.75	0.03066628344	0.04850814192	
554.375	0.1103126685	-0.002274035223	
555.0	0.09357524347	-0.07905169608	
555.625	0.09746421551	-0.1077267679	
556.25	0.07591803722	-0.1507059428	
556.875	-0.03710276483	-0.1681836106	
557.5	-0.1020258768	-0.1082446856	
558.125	-0.1254240088	-0.05001859057	
558.75	-0.1207656869	-0.002059159525	
559.375	-0.1104803387	0.01892819186	
560.0	-0.1222007806	0.07180938404	
560.625	-0.04777115848	0.1300704981	
561.25	-0.002628772425	0.0821265139	
561.875	0.03591746035	0.07983464795	
562.5	0.0079518825	0.01619663166	
563.125	0.06933648685	0.1209865738	
563.75	0.1614178204	-0.03263710361	
564.375	0.1161677571	-0.05184785	
565.0	0.1558009157	-0.1696247258	
565.625	-0.07797364704	-0.1571651042	
566.25	-0.06225836453	-0.125167384	
566.875	-0.2031589949	-0.1211955511	
567.5	-0.1298328364	-0.02145841495	
568.125	-0.1098195695	-0.2286100518	
568.75	-0.3077333863	-0.05169150983	
569.375	-0.1347351031	0.05668015343	
570.0	-0.2360908084	0.2033810779	
570.625	0.004123658688	0.2457302531	
571.25	-0.03036674408	0.04784132113	
571.875	0.1197141394	0.1666994434	
572.5	0.04985202451	-0.06862989643	
573.125	0.1739436754	-0.04874910783	
573.75	0.03380509552	-0.2208599472	
574.375	-0.03894904333	0.02091236857	
575.0	0.116620817	-0.1073228287	
575.625	-0.05165131675	-0.055595284	
576.25	0.1356910959	-0.06799614266	
576.875	-0.03908202062	-0.2301824767	
577.5	-0.09646392966	-0.08510764514	
578.125	0.0583323032	-0.1548471302	
578.75	-0.16673827	-0.1976757364	
579.375	-0.06839995548	0.05530134696	
580.0	0.00620825141	-0.1695117265	
580.625	-0.1195435286	0.06954807794	
581.25	-0.06941130829	-0.03509863821	
581.875	-0.04549058851	0.3292449436	
582.5	0.1673483988	0.09850896005	
583.125	-0.07066172168	0.07255072318	
583.75	0.1312152983	0.1070307372	
584.375	-0.06117429239	-0.03451715861	
585.0	0.1533556277	0.1679468522	
585.625	0.1525403664	-0.1166316679	
586.25	0.08502012712	0.01113026663	
586.875	0.1632471696	-0.2025184137	
587.5	-0.1046503402	-0.1267440252	
588.125	0.06380646459	-0.09604558832	
588.75	0.06164040321	-0.2466309307	
589.375	-0.04853447931	-0.1308280203	
590.0	0.05293113704	-0.2003564467	
590.625	-0.3560730635	0.01200141233	
591.25	-0.03261779169	0.09117590007	
591.875	-0.1312660867	0.09843618582	
592.5	0.09145740091	0.1121812001	
593.125	-0.2457257174	0.05642759914	
593.75	0.1789338282	0.157793388	
594.375	0.0550524412	0.04068642736	
595.0	0.1347206039	0.1964281328	
595.625	0.2527636155	0.00238479518	
596.25	0.05732490034	0.01156642798	
596.875	0.2169057899	0.1284930896	
597.5	0.1990324544	0.006465520826	
598.125	0.1054083369	0.1746078031	
598.75	0.2558149243	0.1575182836	
599.375	0.1782643099	-0.08433863239	
600.0	0.179324067	-0.06522742164	
600.625	0.2098445286	-0.2227062717	
601.25	-0.02411225012	-0.2234172561	
601.875	0.03936690959	-0.1013160447	
602.5	-0.2314488892	-0.0452700525	
603.125	0.03333829796	0.05597005501	
603.75	-0.1678385999	-0.02430035348	
604.375	-0.1406589689	0.1859341053	
605.0	-0.03267385885	-0.04488233715	
605.625	-0.18439212	0.1003332376	
606.25	-0.01095930062	0.05975890911	
606.875	-0.1821995761	-0.03098569715	
607.5	-0.1917885568	0.2569559262	
608.125	0.02411713168	0.2106797952	
608.75	0.08888914954	0.2274065858	
609.375	0.358572767	-0.04226070816	
610.0	0.1095610082	-0.1512505157	
610.625	0.1536038848	-0.09075814527	
611.25	-0.009956146185	-0.2846539345	
611.875	-0.04615264215	-0.0280740128	
612.5	-0.1508742566	-0.1899337279	
613.125	-0.2499933858	0.1560185514	
613.75	-0.04149535788	-0.01694945257	
614.375	-0.03426184979	0.2146732692	
615.0	0.1394055996	-0.03320488164	
615.625	-0.1398578986	0.09236097862	
616.25	0.07142776591	0.1971797269	
616.875	-0.02099430618	0.07875677302	
617.5	-0.1961653286	0.2203716643	
618.125	0.03496633363	0.341020206	
618.75	0.02678518152	0.2337633421	
619.375	0.03445867895	0.2664705885	
620.0	0.2385708877	0.03156758851	
620.625	0.09101524383	-0.06918297987	
621.25	0.07871776932	-0.2047382088	
621.875	-0.2721813962	-0.03113450165	
622.5	-0.1421277331	-0.01456826236	
623.125	-0.1435379239	0.2424502648	
623.75	0.2294117414	-0.001895293457	
624.375	-0.007901765474	0.02239893987	
625.0	0.08700215916	-0.1208045912	
625.625	0.003448823049	-0.01611856477	
626.25	0.01600269487	-0.2060742578	
626.875	-0.2184865801	-0.06616653302	
627.5	-0.05855541921	-0.01483256394	
628.125	-0.1377686771	-0.132854586	
628.75	-0.1353855134	-0.06467064734	
629.375	-0.08127350767	-0.1206862993	
630.0	-0.2525934989	-0.1552149891	
630.625	-0.2675911558	0.1194557217	
631.25	-0.09989782184	0.1361095692	
631.875	-0.106699029	0.3386504774	
632.5	0.1977939796	0.1737338227	
633.125	0.09558683352	0.06775243341	
633.75	0.2833830812	-0.07519178495	
634.375	-0.1096144511	-0.1558783598	
635.0	0.08816875177	-0.151587828	
635.625	-0.234327819	-0.1040598492	
636.25	-0.07297843009	0.08411155893	
636.875	-0.1788880367	0.07187882906	
637.5	0.005990244052	0.2269141986	
638.125	-0.0714578907	-0.02012242484	
638.75	-0.1562330308	0.2532658946	
639.375	0.105413912	0.2383156756	
640.0	0.05669862902	0.1880581112	
640.625	0.3130628754	0.2547027218	
641.25	0.2652717878	-0.1089137592	
641.875	0.1898233294	-0.04749362311	
642.5	0.08247449812	-0.3856732163	
643.125	-0.1631806827	-0.01483986566	
643.75	0.03821668036	-0.156130033	
644.375	-0.3095144901	0.0459466754	
645.0	0.07474613711	0.104233171	
645.625	-0.1380374383	0.2568980101	
646.25	0.3636431588	0.05738779698	
646.875	-0.03518448035	-0.03131601321	
647.5	0.2383625587	0.1237603205	
648.125	0.07581631067	-0.09220962638	
648.75	0.3230161955	0.1200327545	
649.375	0.3163345636	-0.4241397377	
650.0	-0.01534478887	-0.2414108017	
650.625	0.3019214736	-0.1772792003	
651.25	0.2768627021	-0.4199011119	
651.875	0.07006127643	-0.1413769013	
652.5	0.3907389612	0.07282029315	
653.125	0.3672356278	-0.2506057393	
653.75	0.1015606302	-0.10216299	
654.375	0.1212547949	-0.4295138919	
655.0	-0.5523305137	-0.07938280523	
655.625	-0.05274508876	0.1384641662	
656.25	-0.1371498105	0.2162843866	
656.875	0.2830492522	0.09380388082	
657.5	-0.2079448206	0.1048193844	
658.125	0.3906941758	0.2476482737	
658.75	0.228872969	-0.04916391546	
659.375	0.3812049476	0.0841522335	
660.0	0.3489863213	-0.4519171847	
660.625	-0.03015835844	-0.1931239325	
661.25	0.3124471318	-0.2014386305	
661.875	0.2912377831	-0.3700825621	
662.5	0.1478681717	-0.2186625114	
663.125	0.3772639829	-0.0531896186	
663.75	0.1887530484	-0.4313924712	
664.375	-0.03380443624	-0.2147274481	
665.0	-0.2032709362	-0.3520980224	
665.625	-0.4152723242	0.1647816561	
666.25	-0.07137587932	0.1678303382	
666.875	0.02955998674	0.3172114146	
667.5	0.3370457692	0.04844360108	
668.125	0.09288529035	0.01715684621	
668.75	0.341043815	-0.123307844	
669.375	-0.05632969283	-0.2861421346	
670.0	0.1210963736	-0.1072188872	
670.625	0.07284884959	-0.31375753	
671.25	-0.08641089395	-0.1600527594	
671.875	0.3427443973	-0.07609770154	
672.5	0.2700510541	-0.2638023603	
673.125	0.1277200171	-0.1523337959	
673.75	0.2501431446	-0.1185348011	
674.375	0.08807281872	-0.413272337	
675.0	-0.07150644181	-0.09111120561	
675.625	-0.09547539045	-0.2597675467	
676.25	-0.3070532322	-0.01831524902	
676.875	-0.03285807473	0.04345604803	
677.5	-0.2674919914	-0.1202778582	
678.125	-0.09075585368	0.2578175608	
678.75	-0.03659871784	0.09174421316	
679.375	0.2339654889	0.3350974968	
680.0	0.1804858991	-0.3046198503	
680.625	0.008829285607	0.2692717963	
681.25	0.3002171932	-0.06763015767	
681.875	0.05367646731	-0.08225110145	
682.5	0.1114182945	0.3249330086	
683.125	0.4901516129	-0.05962093777	
683.75	0.07922061229	-0.04913187947	
684.375	0.3201628139	0.2544714005	
685.0	0.4406180545	-0.0349461719	
685.625	0.08715010777	-0.0366203316	
686.25	0.5124959073	0.04385548394	
686.875	0.2961002416	-0.3409092388	
687.5	0.2551466888	-0.1475930671	
688.125	0.1856044893	-0.5586326286	
688.75	-0.5081592598	-0.1913092531	
689.375	-0.2336153525	0.08193510735	
690.0	-0.02162667711	0.5708745131	
690.625	0.3488624824	0.1500399012	
691.25	-0.05771586096	0.4144427997	
691.875	0.6830797499	0.5182348775	
692.5	0.5666439857	0.0362413877	
693.125	0.6617094361	0.2618405982	
693.75	0.846492498	-0.2998074001	
694.375	0.2516821265	-0.3446913804	
695.0	0.5799653839	0.007487403152	
695.625	0.7262263561	-0.1821194206	
696.25	0.4082125188	0.05013779539	
696.875	0.3970161394	0.4871823777	
697.5	0.6042628895	0.6206808607	
698.125	0.3714860919	0.1385196552	
698.75	0.6776653477	-0.1915135205	
699.375	-0.2915292075	-0.6642786769	
700.0	-0.1711512134	0.3642873675	
700.625	-0.1012198823	0.2850129565	
701.25	0.4383471968	0.1810147313	
701.875	0.07349142539	0.1211398403	
702.5	0.3315617577	0.4361067847	
703.125	0.5686621672	0.02937400081	
703.75	0.2317788004	0.005280142033	
704.375	0.4628007085	-0.2088398232	
705.0	0.2076722353	-0.2314636749	
705.625	0.1164952054	0.1067881582	
706.25	0.3255537129	0.2030023594	
706.875	0.3131537314	0.1636236946	
707.5	0.4517170564	0.3123263889	
708.125	0.5403032608	0.2664748879	
708.75	0.3130765161	-0.4347533387	
709.375	-0.002087718292	-0.3074867181	
710.0	-0.4216470696	0.01881514434	
710.625	0.1417136992	0.09289106596	
711.25	-0.04784043613	0.2036626217	
711.875	0.3742602304	0.1390957936	
712.5	0.1006731303	-0.03901233692	
713.125	0.3920345077	-0.06166149107	
713.75	0.1422967229	-0.3601428944	
714.375	-0.02494705533	-0.1370110373	
715.0	0.07873425907	-0.2572182689	
715.625	-0.1148309797	-0.2694928589	
716.25	0.1603092825	-0.08003248862	
716.875	0.4840809055	-0.1510788605	
717.5	0.4890031751	-0.2721254105	
718.125	0.5327426382	-0.003462667637	
718.75	1.067000883	-0.02650389586	
719.375	0.550929357	-0.6285486749	
720.0	0.2694594627	-0.3826716931	
720.625	0.9167832402	-1.273670198	
721.25	-0.2146854913	-0.8057291985	
721.875	0.4072238484	-0.849594835	
722.5	-0.7294056665	-1.077651491	
723.125	-0.6917231549	0.2327082957	
723.75	-0.543365186	0.08984168867	
724.375	0.08882993887	0.6658513754	
725.0	0.1395962436	0.1885821006	
725.625	-0.04233374487	0.6085207994	
726.25	0.2134656387	0.8640046159	
726.875	-0.04246494544	0.5850315815	
727.5	-0.7570858625	1.388754247	
728.125	0.2312145723	2.484829068	
728.75	0.4576997023	1.79404031	
729.375	-2.340037612	3.341455554	
730.0	1.172996394	4.982778925	
730.625	0.8390999858	2.639306872	
731.25	-3.673249219	2.583174536	
731.875	-2.53922117	4.206662363	
732.5	-1.975320323	-0.1733912841	
733.125	-3.612984341	-0.9815427914	
733.75	-0.8667247939	1.895054212	
734.375	0.383114797	0.2766503652	
735.0	0.4070654122	-0.8795563708	
735.625	-0.4106779516	0.3621564061	
736.25	-0.4895906416	0.175869127	
736.875	0.4645278574	0.9541256098	
737.5	1.135067973	-0.174620372	
738.125	0.7077339703	0.3530219645	
738.75	3.321841689	-1.161456655	
739.375	1.070631447	-2.719198174	
740.0	1.501252306	1.227930416	
740.625	6.627962177	2.008567024	
741.25	2.140698334	-1.720620266	
741.875	-4.393853387	-3.16054879	
742.5	-3.123894126	-2.555882047	
743.125	-0.1644059639	-0.5396065559	
743.75	0.7622182624	-1.273914499	
744.375	-0.9925315747	-0.07413689403	
745.0	0.1037395353	-0.02933529218	
745.625	0.2092892605	0.04720762404	
746.25	-0.03994980352	-0.05203222064	
746.875	-0.2700781882	-0.1844384125	
747.5	-0.1468061701	0.4557527061	
748.125	0.1192405719	0.4216237796	
748.75	0.06485547159	0.5557930433	
749.375	0.1416538089	0.606405923	
750.0	-0.2721924197	0.203575912	
