!Created with skrf (http://scikit-rf.org).
# GHz S RI R (50+0j) 
!freq	ReS11	ImS11	
500.0	-0.3259816675	-0.6461165702	
500.625	0.8912877257	-0.8080474039	
501.25	-0.7335109968	-0.8386101972	
501.875	-0.02242722679	-0.1242115419	
502.5	-0.01166459233	-0.2350597565	
503.125	-0.06643068281	0.04134184216	
503.75	-0.07002362874	0.0614257728	
504.375	0.05701029705	-0.01528169475	
505.0	-0.002745435208	0.0005491480153	
505.625	0.03201254637	-0.102405235	
506.25	-0.1121893582	0.02654611601	
506.875	-0.07519859845	-0.2485974966	
507.5	-0.4746039165	-0.3421435193	
508.125	0.2721520051	-0.2519274545	
508.75	0.7176133655	-1.406890053	
509.375	-0.4402450723	-1.30581899	
510.0	-0.1837921198	-0.3174437884	
510.625	-0.2493671193	-0.3359082574	
511.25	-0.1057862151	0.007730320655	
511.875	-0.08156290247	-0.1425184134	
512.5	-0.003999135007	0.06958783109	
513.125	-0.001525455034	-0.03552073144	
513.75	-0.01374614903	-0.1494550271	
514.375	-0.133340098	0.05940391704	
515.0	0.3361096842	-0.2965697584	
515.625	-0.466950389	-0.1667389602	
516.25	0.469081366	-0.6287214555	
516.875	-0.1374312394	-0.7465517027	
517.5	-0.1890029208	-0.07673204423	
518.125	0.04612909186	-0.06868035452	
518.75	-0.1887408227	-0.1605741811	
519.375	-0.0224991411	0.01064089045	
520.0	0.1036075527	0.1063898013	
520.625	0.1922986903	-0.09028389543	
521.25	-0.06321631355	-0.1809269613	
521.875	-0.1081796342	-0.1463457217	
522.5	-0.09122940481	0.07847894985	
523.125	-0.01751981135	-0.1104797739	
523.75	-0.2662584547	-0.04995466633	
524.375	-0.02080023271	0.1085860557	
525.0	-0.1939084904	0.04813584437	
525.625	0.1385299949	0.1243953094	
526.25	-0.09765438385	-0.07287453543	
526.875	-0.001781477381	0.1095855153	
527.5	-0.09319164232	0.09261318491	
528.125	0.0322116918	0.3732878594	
528.75	0.09382475161	0.1960974248	
529.375	-0.06133413055	0.01490181398	
530.0	0.1508182794	0.2819531309	
530.625	0.2388665706	0.3813868565	
531.25	0.4204587022	0.3488456445	
531.875	0.249744708	-0.3683832519	
532.5	0.00289246533	0.03070005974	
533.125	0.1441352289	-0.1813857267	
533.75	0.06549823681	-0.02199291717	
534.375	0.004278529104	-0.4313085669	
535.0	-0.3377857628	-0.06134011804	
535.625	-0.1260714072	0.04528947933	
536.25	-0.02992660225	0.1294281615	
536.875	0.1003382135	-0.02732650164	
537.5	0.06852675527	0.00866421373	
538.125	0.1445209552	-0.09626808864	
538.75	0.06352317776	-0.09327587823	
539.375	-0.01062190282	-0.2145056111	
540.0	-0.217573169	-0.1658689661	
540.625	-0.1756081582	0.01522960679	
541.25	-0.1060308364	-0.05966103549	
541.875	-0.08331868687	0.03601970819	
542.5	0.02285910572	-0.09440895381	
543.125	-0.1444007891	-0.1378469102	
543.75	-0.02807678919	0.03081467801	
544.375	-0.1179787129	0.02768213025	
545.0	0.06764234208	0.09418454084	
545.625	-0.02729061371	0.06072986879	
546.25	0.1838035503	0.0693150738	
546.875	0.06494052712	-0.04485004869	
547.5	0.1357220614	-0.08610194372	
548.125	-0.08908245633	-0.2410279188	
548.75	-0.09329489563	-0.06573513266	
549.375	-0.09808233796	-0.1342942124	
550.0	-0.1105317311	0.04476089831	
550.625	-0.02696541767	-0.03035961632	
551.25	-0.1186265348	0.04689812608	
551.875	-0.04441488872	0.04798993403	
552.5	-0.07991504076	0.07185682184	
553.125	-0.003756909584	0.08087862775	
553.75	0.03165759587	0.05646628821	
554.375	0.1119233919	0.001899430767	
555.0	0.09913950705	-0.07587303784	
555.625	0.101547246	-0.1044615126	
556.25	0.08137916003	-0.1555478007	
556.875	-0.03305699537	-0.1706707834	
557.5	-0.1010537808	-0.114457483	
558.125	-0.1245629267	-0.05310959973	
558.75	-0.1235625572	-0.002668047361	
559.375	-0.1118187878	0.01528099617	
560.0	-0.120856159	0.06921587082	
560.625	-0.04867092427	0.1317782006	
561.25	-0.006563725722	0.07952891132	
561.875	0.03466236306	0.08124119462	
562.5	0.0087009512	0.01781831123	
563.125	0.06715607245	0.1235495157	
563.75	0.1577305563	-0.03283061904	
564.375	0.1195769006	-0.04788483887	
565.0	0.1377993264	-0.1779973152	
565.625	-0.08329652063	-0.1594676182	
566.25	-0.05307688143	-0.1243517691	
566.875	-0.1967819168	-0.1254293611	
567.5	-0.1199640766	-0.04791143814	
568.125	-0.1093591635	-0.2317399581	
568.75	-0.3341701582	-0.03561339923	
569.375	-0.16793974	0.06880160894	
570.0	-0.2230123767	0.2043634762	
570.625	-0.002253812743	0.2363045624	
571.25	-0.05065728683	0.02289089865	
571.875	0.1039654339	0.1616357128	
572.5	0.06117982274	-0.05716291653	
573.125	0.170413169	-0.04446264886	
573.75	0.02940091034	-0.2358691256	
574.375	-0.03952915456	0.01312298823	
575.0	0.1174394358	-0.1062722047	
575.625	-0.04801534183	-0.04517091088	
576.25	0.1392349328	-0.06881551503	
576.875	-0.04180858148	-0.2321751412	
577.5	-0.08913805635	-0.09014658839	
578.125	0.06552973282	-0.150089434	
578.75	-0.1934773018	-0.2862551037	
579.375	-0.09657178927	0.05157170143	
580.0	0.0006143413608	-0.1313366493	
580.625	-0.1205497704	0.0586461072	
581.25	-0.0879466064	-0.124280223	
581.875	-0.05826874947	0.2860112077	
582.5	0.1531889204	0.1059073345	
583.125	-0.04756334622	0.0591062823	
583.75	0.1543571212	0.09013236517	
584.375	-0.04090406161	-0.03239576146	
585.0	0.1527098581	0.1745639598	
585.625	0.1867642624	-0.0962559954	
586.25	0.09320616945	0.02530098407	
586.875	0.1834846403	-0.1697405183	
587.5	-0.1048612665	-0.1312924789	
588.125	0.06945225152	-0.09617158286	
588.75	0.05620329489	-0.251830391	
589.375	-0.02389927461	-0.1162190205	
590.0	0.05973377691	-0.2132527345	
590.625	-0.328334932	-0.00203195511	
591.25	-0.01517199845	0.07210819185	
591.875	-0.1848172864	0.09748516448	
592.5	0.09670161229	0.126298556	
593.125	-0.2061800774	0.01202304651	
593.75	0.1965807738	0.1258201403	
594.375	0.08745502416	0.03020487228	
595.0	0.1412513176	0.1971254056	
595.625	0.2561374442	0.00629534573	
596.25	0.05773830396	0.04626956492	
596.875	0.2596740184	0.07791092147	
597.5	0.195726474	0.006604043727	
598.125	0.06875169668	0.1329979456	
598.75	0.236406454	0.1023826321	
599.375	0.184785939	-0.1126224965	
600.0	0.176745318	-0.05944930533	
600.625	0.2184136132	-0.2327356915	
601.25	-0.02897398494	-0.2357711566	
601.875	0.02229709674	-0.1134459976	
602.5	-0.2401640667	-0.04176987989	
603.125	0.01108986063	0.06328860643	
603.75	-0.1678176184	-0.02038062951	
604.375	-0.01823053388	0.2654326667	
605.0	0.01775173982	-0.01462639904	
605.625	-0.1892720441	0.07166368592	
606.25	-0.03832352958	0.132398769	
606.875	-0.253809019	0.04662493522	
607.5	-0.2670359833	0.2731972526	
608.125	0.07007023083	0.2109824404	
608.75	0.08248260446	0.2218719179	
609.375	0.2111545133	0.01085221674	
610.0	0.08422805741	-0.1589069631	
610.625	0.1910257194	-0.07359888329	
611.25	-0.04993945184	-0.2788307978	
611.875	-0.09631093897	-0.03054146642	
612.5	-0.1846079598	-0.1960321778	
613.125	-0.2543157966	0.1563096258	
613.75	-0.0255878253	0.01134508247	
614.375	-0.03857429652	0.2170614098	
615.0	0.0911604065	-0.0706464106	
615.625	-0.1471251924	0.08725917747	
616.25	0.03483025863	0.2388813277	
616.875	-0.003781504234	0.08818176522	
617.5	-0.1415502023	0.2188953316	
618.125	0.04361609743	0.3288868018	
618.75	0.0219326036	0.1934748212	
619.375	0.02305175749	0.2738799818	
620.0	0.2610428601	-0.02615251956	
620.625	0.08641629637	-0.07205578003	
621.25	-0.01257902926	-0.2555973744	
621.875	-0.304894968	-0.05935566086	
622.5	-0.1048460233	0.007154585461	
623.125	-0.1355381177	0.2385418614	
623.75	0.2226490377	1.980714482e-05	
624.375	-0.001681369174	0.03350297978	
625.0	0.08996593699	-0.1147326001	
625.625	0.01508713793	-0.007531129785	
626.25	0.01107426731	-0.2191959456	
626.875	-0.2270800159	-0.05721731058	
627.5	-0.09056122433	-0.02856613435	
628.125	-0.1425413861	-0.171581324	
628.75	-0.1458280277	-0.07270093386	
629.375	-0.0339977466	-0.1413046576	
630.0	-0.2140401951	-0.1628861125	
630.625	-0.2045447458	0.123643557	
631.25	-0.1567707448	0.1098016917	
631.875	-0.05852076827	0.3392908258	
632.5	0.2662443266	0.1907002502	
633.125	0.137827577	0.1033904998	
633.75	0.2851412844	-0.06438246095	
634.375	-0.07316784097	-0.1569212572	
635.0	0.09285114228	-0.1587979288	
635.625	-0.2842367025	-0.1073648967	
636.25	-0.08170933336	0.08602134176	
636.875	-0.1853467426	0.08633083372	
637.5	0.01294859488	0.1952804388	
638.125	-0.06495799277	-0.02970632493	
638.75	-0.1456237871	0.2580868237	
639.375	0.09974430795	0.2323489032	
640.0	0.0303647922	0.2167168024	
640.625	0.2872544643	0.2648862426	
641.25	0.3249388872	-0.1020687448	
641.875	0.187586718	-0.04775862024	
642.5	0.04676466287	-0.3758397603	
643.125	-0.3006737593	-0.002251714756	
643.75	-0.03759783123	-0.1745521659	
644.375	-0.3007075134	0.0685833378	
645.0	0.007309494922	0.1052780321	
645.625	-0.191600902	0.2698398219	
646.25	0.3261805	0.04829149881	
646.875	-0.0518942381	-0.04790656602	
647.5	0.2343010317	0.1382292891	
648.125	0.07466776599	-0.08593288579	
648.75	0.303096857	0.2011254389	
649.375	0.3223034435	-0.4161658996	
650.0	8.394419374e-05	-0.2413131053	
650.625	0.3072413008	-0.1834721939	
651.25	0.3192501329	-0.449886684	
651.875	0.08831751174	-0.1411473254	
652.5	0.3991135917	0.06545132637	
653.125	0.3568676937	-0.2429030187	
653.75	0.01201890692	-0.1850177082	
654.375	0.1343280679	-0.4158413015	
655.0	-0.5073807751	-0.08481996604	
655.625	-0.0660343486	0.108610452	
656.25	-0.2971077367	0.2148677528	
656.875	0.2440954384	0.09138847303	
657.5	-0.1388494569	0.1348421383	
658.125	0.3148018559	0.2575909785	
658.75	0.1919577223	-0.06361115323	
659.375	0.3394162865	0.04617529681	
660.0	0.3749908949	-0.4422042717	
660.625	-0.02678663584	-0.2442517726	
661.25	0.3203237165	-0.2085067506	
661.875	0.2962733217	-0.3911399831	
662.5	0.1519090308	-0.2015112768	
663.125	0.3817697098	-0.06147744262	
663.75	0.1693015883	-0.4410469255	
664.375	-0.03328766012	-0.2297784438	
665.0	-0.204087978	-0.3509481638	
665.625	-0.4325096824	0.1512689519	
666.25	-0.04080441675	0.1727146495	
666.875	0.007579675403	0.317972128	
667.5	0.3281690529	0.05999182319	
668.125	0.1083429885	0.03621211839	
668.75	0.4460258019	-0.1423982884	
669.375	-0.01183253557	-0.2888955258	
670.0	0.09811814593	-0.1257448031	
670.625	0.07364206936	-0.3045326763	
671.25	-0.1198552374	-0.09340594676	
671.875	0.2661127919	-0.04338195287	
672.5	0.2756609571	-0.2555381722	
673.125	0.1298727052	-0.1643084927	
673.75	0.2672203905	-0.1168576433	
674.375	0.09311054395	-0.4231836907	
675.0	-0.07636331219	-0.09703883402	
675.625	-0.1010679045	-0.2633377076	
676.25	-0.298439254	-0.005401112045	
676.875	-0.03177882844	0.04746399576	
677.5	-0.2676281749	-0.1188855746	
678.125	-0.09720190872	0.2580991609	
678.75	-0.04006264858	0.05795572396	
679.375	0.2245980235	0.2865315061	
680.0	0.1742399173	-0.256117441	
680.625	-0.002015180863	0.1564208508	
681.25	0.2800932641	-0.113317974	
681.875	0.004028790243	-0.07281731939	
682.5	0.09145424872	0.3188645731	
683.125	0.4967991146	0.03791032224	
683.75	0.09535133049	-0.04957480108	
684.375	0.4118814385	0.1767243195	
685.0	0.4640188632	-0.006544569062	
685.625	0.09162384989	-0.07267848149	
686.25	0.4779910571	0.1601228093	
686.875	0.2665429039	-0.2561050646	
687.5	0.2258799634	-0.1132348848	
688.125	0.2036188243	-0.561323933	
688.75	-0.5787978586	-0.1618469514	
689.375	-0.2261207789	0.1210056402	
690.0	-0.06112410033	0.5728871923	
690.625	0.3664694729	0.1570672539	
691.25	-0.004768139565	0.3824963557	
691.875	0.6843452423	0.5031923757	
692.5	0.3558995359	0.02753941778	
693.125	0.6107366689	0.2305366237	
693.75	0.8369472306	-0.241652645	
694.375	0.260548981	-0.5052741772	
695.0	0.7203633213	-0.1326546139	
695.625	0.6147105978	-0.191149677	
696.25	0.4194985159	0.07789187287	
696.875	0.3408592596	0.5014192227	
697.5	0.5985078614	0.6894092672	
698.125	0.6945121776	0.3898092069	
698.75	0.6667062735	-0.209978074	
699.375	-0.4230805112	-0.5989905281	
700.0	-0.2055066675	0.3829823894	
700.625	-0.1342488587	0.3812885151	
701.25	0.4313705074	0.1721326408	
701.875	0.1037716061	0.1369579129	
702.5	0.3313148714	0.4587131549	
703.125	0.5316351635	-0.0337784002	
703.75	0.2096131477	-0.03710991452	
704.375	0.466596009	-0.1578015138	
705.0	0.2394593266	-0.2914682194	
705.625	0.2537519508	0.1518428052	
706.25	0.3992498326	0.3351322432	
706.875	0.3103975413	0.1496566544	
707.5	0.2705257866	0.399905742	
708.125	0.4655909866	0.2796886716	
708.75	0.2360953461	-0.4289772653	
709.375	-0.01275998027	-0.2899300061	
710.0	-0.3929651099	0.03586994009	
710.625	0.1474431656	0.07577717701	
711.25	-0.07289191507	0.2119155185	
711.875	0.3755050824	0.1026780662	
712.5	0.14055502	-0.02046109133	
713.125	0.4064673172	-0.04235068758	
713.75	0.1362901358	-0.3602891728	
714.375	-0.01958566996	-0.1335194672	
715.0	0.08037750547	-0.27670284	
715.625	-0.1199897088	-0.2644509622	
716.25	0.1490760376	-0.1371405481	
716.875	0.5488806136	-0.1719678953	
717.5	0.4921501837	-0.2621857206	
718.125	0.5484819542	0.09516901295	
718.75	0.9924996308	0.06901536156	
719.375	1.10870608	-0.8493581335	
720.0	0.7195754567	-0.3530524953	
720.625	0.5303333726	-1.405189384	
721.25	-0.276451409	-0.734149732	
721.875	0.2662137804	-1.10801625	
722.5	-0.778691905	-1.080843749	
723.125	-0.6923147076	0.07407577356	
723.75	-0.5993249063	0.05710623945	
724.375	0.1358018234	0.7750797708	
725.0	0.1447844835	0.186434233	
725.625	-0.02643416012	0.6097600111	
726.25	0.2434770806	0.8640772803	
726.875	0.06690717468	0.6164716918	
727.5	-0.7063146926	1.459222102	
728.125	0.2237531704	2.482877768	
728.75	0.2144188862	1.833958015	
729.375	-2.434114626	3.369696896	
730.0	0.3013599875	5.743091456	
730.625	0.1186592662	2.958442231	
731.25	-3.282149412	3.749089299	
731.875	-1.851869887	4.282319792	
732.5	-0.5938624316	0.1635112452	
733.125	-3.333764515	-0.4619208211	
733.75	-0.7970027586	1.725842912	
734.375	0.3603203865	0.2920189154	
735.0	0.6011815312	-1.003694155	
735.625	-0.4287409385	0.4255455267	
736.25	-0.4588329442	0.220136089	
736.875	0.4887206159	0.9233296779	
737.5	1.079806906	-0.2161997848	
738.125	0.933611695	0.4533141634	
738.75	3.126408861	-1.441468529	
739.375	1.1363547	-2.541123854	
740.0	1.004404427	1.236360432	
740.625	6.728196554	1.309305431	
741.25	2.682662372	-1.21538055	
741.875	-3.946436606	-3.114518778	
742.5	-4.210268486	-2.673973968	
743.125	-0.153327121	-0.6230411344	
743.75	0.7084293458	-1.287036878	
744.375	-0.8293303323	-0.1048545727	
745.0	0.08985944028	-0.1344298077	
745.625	0.1595424621	0.02742928053	
746.25	-0.04592720025	-0.02899251707	
746.875	-0.2538155054	-0.1659899028	
747.5	-0.1658922092	0.4518776304	
748.125	0.1064297158	0.3388222989	
748.75	0.07846112982	0.4992202458	
749.375	0.1349885419	0.6216651494	
750.0	-0.316065676	0.2178898653	
