!Created with skrf (http://scikit-rf.org).
# GHz S MA R 50.0 
!freq magS11 angS11
500.0 0.0177169634956 -175.666882378
500.625 0.0101199462677 152.711067981
501.25 0.020525494397 -177.762437737
501.875 0.0148356195532 -93.4338891559
502.5 0.0276546586009 163.2695175
503.125 0.00994882948651 96.6963997052
503.75 0.0113179172607 -16.3967346379
504.375 0.0064461808447 173.563791419
505.0 0.0142865297375 -51.4754543415
505.625 0.0383971630814 -77.7717556169
506.25 0.0367059259249 -107.629324822
506.875 0.060276978456 -103.337507948
507.5 0.0377393426279 -130.026875018
508.125 0.0416506950686 -108.242056828
508.75 0.0869576852302 -116.95072957
509.375 0.0512160260964 179.546251853
510.0 0.0249818453605 -152.02396526
510.625 0.0346073271642 -168.2867465
511.25 0.0720392748283 -168.808139593
511.875 0.0526054795492 144.004267927
512.5 0.0417054853531 103.077507188
513.125 0.0554616597021 47.533888696
513.75 0.0751298966736 47.546548079
514.375 0.0398646047868 21.8857848464
515.0 0.0498310048101 6.68409561911
515.625 0.0815480041026 48.0511208793
516.25 0.108551731266 30.4918492016
516.875 0.0897064208126 64.6289834974
517.5 0.110945308998 16.835842348
518.125 0.188113203084 68.2460429226
518.75 0.0872117214764 12.2940473366
519.375 0.0711139326499 20.2608943639
520.0 0.107789451805 -1.95115333883
520.625 0.101531518407 -5.33658533085
521.25 0.0921778096712 -20.8905726133
521.875 0.0578669293616 -5.95803886355
522.5 0.0873168180618 -37.0244975876
523.125 0.177586490948 -35.335618318
523.75 0.23120839038 -53.6374283688
524.375 0.1910801673 -66.6507259791
525.0 0.0702829270529 -44.309633574
525.625 0.042016964539 -26.3422024389
526.25 0.0402765953269 -19.2911408932
526.875 0.0522570922527 -22.071931471
527.5 0.051997766975 -25.9132654938
528.125 0.0422387262416 -55.4544913098
528.75 0.0746660374294 -71.3740951615
529.375 0.0913647336489 -111.152800288
530.0 0.0404402173442 -140.454287626
530.625 0.0487762056912 -151.318318655
531.25 0.0810829444712 -128.307100482
531.875 0.168686017862 -147.505303517
532.5 0.135812323927 -173.639101785
533.125 0.102929449888 176.103295675
533.75 0.117675163668 168.117415682
534.375 0.113961706134 179.232547855
535.0 0.0887949479358 163.082340278
535.625 0.0640163912648 178.442141962
536.25 0.0518228239165 161.463077989
536.875 0.0745109719873 -162.504217503
537.5 0.0878408853102 -144.473713134
538.125 0.116418141551 -175.470278044
538.75 0.0940467459344 176.390413029
539.375 0.0751059506902 -162.920650191
540.0 0.102220086122 -156.76421828
540.625 0.14601234314 -159.76448274
541.25 0.100335464343 -142.014360808
541.875 0.0912966685384 -141.372965256
542.5 0.100749799095 -140.780699891
543.125 0.149774249138 -168.078758933
543.75 0.116385008932 158.262807381
544.375 0.0967953521987 135.811477828
545.0 0.0893943382631 91.927341589
545.625 0.0985791099771 84.0683475919
546.25 0.102601630865 67.0512861537
546.875 0.0775875714574 55.6714805241
547.5 0.11777114661 58.5847002457
548.125 0.130712369445 77.2693696808
548.75 0.0717170356389 88.2191079969
549.375 0.0990542077716 86.0192881941
550.0 0.092334159487 126.556936802
550.625 0.0485290446768 155.579872433
551.25 0.0447107658075 -149.270811341
551.875 0.0668357067092 -160.666228563
552.5 0.114426234781 -165.547062814
553.125 0.0961503386699 -170.563684151
553.75 0.0873233696285 -168.644650391
554.375 0.109478504375 167.127168888
555.0 0.131114161961 162.360883667
555.625 0.0981499825847 158.117264232
556.25 0.10576900818 158.943696712
556.875 0.102816206181 168.918421337
557.5 0.112831849673 167.249337163
558.125 0.090333622455 162.984272191
558.75 0.0903000924299 176.274183696
559.375 0.066029156806 -173.718356149
560.0 0.0494124043271 -151.087929589
560.625 0.0578478443828 -138.661619038
561.25 0.0926928478995 -154.153550564
561.875 0.10132029565 -161.580499648
562.5 0.0885477445872 176.164504659
563.125 0.105480802491 145.963086082
563.75 0.132430519081 130.505345809
564.375 0.104841595111 120.811607034
565.0 0.0917274609373 118.430983804
565.625 0.0824277172672 118.553534439
566.25 0.101890874972 149.528899976
566.875 0.0681076907435 -175.732368582
567.5 0.0696769317884 -174.744175526
568.125 0.0718731539721 -167.911615679
568.75 0.0770102175626 -153.122810664
569.375 0.0460113680411 -99.9384269097
570.0 0.0617673964007 -107.674479406
570.625 0.0904775630091 -113.826200528
571.25 0.0939759633504 -124.712868168
571.875 0.0836876973128 -119.340316387
572.5 0.109436467705 -153.465349483
573.125 0.13028331885 -171.473518842
573.75 0.110967516248 158.437373727
574.375 0.0749057482061 155.744758613
575.0 0.101057468462 158.359728733
575.625 0.108734443724 156.095148761
576.25 0.0930867935296 143.423100577
576.875 0.0799368462067 128.479809472
577.5 0.08324598089 137.835026901
578.125 0.0589936899366 160.341060135
578.75 0.0522170892197 154.843677736
579.375 0.0507640015154 173.257692201
580.0 0.0666449043033 -171.474725366
580.625 0.0768752708715 -144.485364523
581.25 0.0875220615387 -170.513379842
581.875 0.110337615086 -171.993830649
582.5 0.115492893615 -174.153317045
583.125 0.096514665811 -172.274011618
583.75 0.0832725570906 -170.347448563
584.375 0.100420867635 -157.997955166
585.0 0.0928542776519 -143.706937517
585.625 0.0708433498141 -147.52555212
586.25 0.0728404977449 -149.088317076
586.875 0.0794808630693 -125.63861317
587.5 0.0732918695262 -142.152933163
588.125 0.0591242931 -178.325379317
588.75 0.0669101463691 -171.715544796
589.375 0.0825707594325 -150.160305924
590.0 0.091906009153 -166.767607933
590.625 0.104347966112 162.085419154
591.25 0.123525091611 154.136000679
591.875 0.102282550044 151.80097135
592.5 0.0618404218756 148.588191633
593.125 0.062741505295 148.206308889
593.75 0.0780043655014 166.879486437
594.375 0.0560591105798 -152.071921491
595.0 0.0425266283133 -119.711895906
595.625 0.0591865111208 -103.92799308
596.25 0.0758637820858 -85.0733380531
596.875 0.0649681969649 -81.793877978
597.5 0.060687241951 -56.2864541456
598.125 0.0614609843666 -64.9065968226
598.75 0.0699531886035 -74.12066291
599.375 0.0931205588887 -58.5169257693
600.0 0.104897996483 -64.5894233181
600.625 0.0992896351322 -62.7513181808
601.25 0.0859288133744 -79.0646554024
601.875 0.0644556564205 -86.3856211366
602.5 0.0603106523946 -79.7549076149
603.125 0.0465359088282 -59.4721883979
603.75 0.0315509934505 -34.5577512258
604.375 0.0295569969305 -44.1164675172
605.0 0.0774385468486 -2.67274965563
605.625 0.053645492164 -4.54611462325
606.25 0.0268205573219 22.2275652787
606.875 0.0180877911083 43.094187985
607.5 0.0641720896233 43.3487668059
608.125 0.0793116722418 29.8131432257
608.75 0.062315257139 21.2121759074
609.375 0.0474343767854 19.4964657544
610.0 0.0896515819309 54.4006547657
610.625 0.0688876715321 39.0551054779
611.25 0.0569722351763 39.5335546298
611.875 0.0290713009663 13.0949381846
612.5 0.0254960212768 101.5457703
613.125 0.0288792799299 127.149516167
613.75 0.038881205937 122.991976797
614.375 0.0464249129655 121.428913139
615.0 0.0208303509388 104.201545318
615.625 0.0359146418613 141.11341587
616.25 0.0664040279886 133.903243939
616.875 0.0541499374363 128.642372938
617.5 0.0240161215188 106.033811648
618.125 0.0288706364992 131.861141871
618.75 0.043223903464 144.141493891
619.375 0.0222335706494 140.713380044
620.0 0.000993001859303 171.601731923
620.625 0.0169383938942 -88.8091942256
621.25 0.0477503507188 -86.8686235775
621.875 0.0610660391485 -112.400076163
622.5 0.0676745750278 -155.243542065
623.125 0.0888908634234 164.327207974
623.75 0.0715806723625 158.375894908
624.375 0.0444667347864 -178.267428307
625.0 0.028966998639 -111.713932445
625.625 0.0679464640591 -158.480213919
626.25 0.0276783598821 170.236600506
626.875 0.00664745282714 -153.66084408
627.5 0.0502907326821 -10.1067277533
628.125 0.0348140758979 -33.3967234751
628.75 0.0351087609223 -19.4881544635
629.375 0.0484461964659 -11.2246688587
630.0 0.0638142899727 -3.01874220537
630.625 0.0722833603317 -6.40532042676
631.25 0.0671920606431 -12.7237730844
631.875 0.0706986243142 -14.5459904725
632.5 0.0702042128349 12.6788738912
633.125 0.0500704351298 -1.82729410145
633.75 0.0390424614653 1.71155653328
634.375 0.0438328308802 20.7848842232
635.0 0.0335799528013 24.8517341845
635.625 0.0532384787129 48.6535565998
636.25 0.0406850128422 10.4716294953
636.875 0.0596759281925 34.1013246047
637.5 0.0509795708614 48.9680901477
638.125 0.0481527472565 70.1704270803
638.75 0.0686403799117 64.4958231602
639.375 0.0919489399609 92.3836227234
640.0 0.0742932678176 108.179008139
640.625 0.0566715964442 105.676517131
641.25 0.0779399341599 128.665671629
641.875 0.0657214754009 152.110469619
642.5 0.052003204928 147.996069083
643.125 0.0729590845335 162.65480135
643.75 0.0599298496818 165.087696913
644.375 0.0691504987714 -172.259439386
645.0 0.0788229309777 171.909743831
645.625 0.0933245847771 169.181117443
646.25 0.0919746406473 165.209192499
646.875 0.0677910181678 175.865641345
647.5 0.0672532313164 -174.587396052
648.125 0.0833971705108 -176.526050753
648.75 0.0886437816498 -158.561158278
649.375 0.0407764791936 -164.448996646
650.0 0.0371923500725 -120.582086187
650.625 0.0538568036269 -94.9571990103
651.25 0.082334643504 -66.4352814215
651.875 0.0462069245698 -45.847272729
652.5 0.0861600886717 -22.0359983369
653.125 0.110777788543 -5.64416282587
653.75 0.12180997972 6.21319678158
654.375 0.108523834582 5.04505712461
655.0 0.121236279668 13.7760977415
655.625 0.0944883679151 26.3624594913
656.25 0.072514398056 22.6707834361
656.875 0.0512649598924 -4.18348542595
657.5 0.0734315241385 21.7473638826
658.125 0.07360120024 44.2020083212
658.75 0.0638210592026 59.0898253195
659.375 0.0739496397808 41.0506462539
660.0 0.114731248882 25.9468278606
660.625 0.117710078174 17.6459087738
661.25 0.110414425578 4.3764605794
661.875 0.133683800681 -13.7437625734
662.5 0.126441949287 -20.9792450312
663.125 0.0956498996366 -20.2170901152
663.75 0.110421055665 4.58623804616
664.375 0.0861161234987 49.4991171383
665.0 0.0631263127367 88.9114762186
665.625 0.0642702829382 112.604929575
666.25 0.0927492643687 128.726532592
666.875 0.111999421569 168.241946087
667.5 0.0939634108116 -167.693207601
668.125 0.103608280577 -179.57704414
668.75 0.137729420073 164.644889692
669.375 0.102513836374 175.347554371
670.0 0.0766496271562 -169.760015052
670.625 0.0850467670302 -172.750981696
671.25 0.127264682228 171.38347113
671.875 0.0798676225019 166.79563814
672.5 0.0775566535658 155.219119951
673.125 0.0715073145763 154.789097706
673.75 0.1197708552 155.568488655
674.375 0.111577682234 168.735550908
675.0 0.116503086006 -174.905253421
675.625 0.125043879777 -150.420007934
676.25 0.131198695551 -127.195221572
676.875 0.10742991016 -121.631861341
677.5 0.120119312297 -127.294708706
678.125 0.114376972268 -117.914757313
678.75 0.0814551348738 -96.4267794624
679.375 0.0393658904133 -65.8642800997
680.0 0.0730479740668 -79.858535947
680.625 0.119923913694 -79.9931196169
681.25 0.106540774095 -73.8453815588
681.875 0.104110449427 -95.8490229686
682.5 0.131993610389 -117.80308605
683.125 0.15409985346 -119.940395444
683.75 0.130626347881 -104.72161344
684.375 0.127050192952 -83.0238479897
685.0 0.130674940552 -39.8310164139
685.625 0.121724940907 -1.75029559275
686.25 0.108149427663 18.5164319488
686.875 0.0998898225941 41.1165629151
687.5 0.0628381792624 87.3393894815
688.125 0.0815897015763 111.093704516
688.75 0.100771755033 108.632362323
689.375 0.148059745352 115.327762497
690.0 0.140334031296 129.944936075
690.625 0.1197022016 125.753754494
691.25 0.145178078127 96.0168342813
691.875 0.191128510333 67.774037669
692.5 0.155169884855 37.0698484686
693.125 0.0747723756602 -9.45528812876
693.75 0.0931585309137 -37.4966477551
694.375 0.123355388822 -27.547111904
695.0 0.136245010064 7.15793496305
695.625 0.106137700571 50.4168455609
696.25 0.116382923333 112.144832244
696.875 0.13627462398 174.696829626
697.5 0.137274897869 -142.292747187
698.125 0.146658680574 -138.770637041
698.75 0.130728274311 -132.544192164
699.375 0.108424365359 -128.066583659
700.0 0.100246063361 -118.461399209
700.625 0.105752039117 -85.5980177394
701.25 0.100651875919 -66.2442935793
701.875 0.0833843446319 -64.7897147261
702.5 0.0990620471867 -87.5919360505
703.125 0.170911804689 -128.515276974
703.75 0.172778507003 -148.434567093
704.375 0.124815075037 174.876456418
705.0 0.102788384455 161.93573288
705.625 0.149078164068 -177.628100434
706.25 0.132007255423 -108.062644724
706.875 0.0907298102508 -63.3056595948
707.5 0.0777869840669 -42.3340270583
708.125 0.0911712909882 12.1554532481
708.75 0.110555989069 63.2474726727
709.375 0.105023828621 102.409306937
710.0 0.104005255174 128.292014703
710.625 0.108643194171 154.819658079
711.25 0.117794258909 170.121194869
711.875 0.13906307412 168.77663093
712.5 0.151756176948 142.378604771
713.125 0.132586728254 95.1950557544
713.75 0.105706549184 40.6855335377
714.375 0.107865747528 26.8604892321
715.0 0.113807320741 31.4886741564
715.625 0.0817944615562 55.5721897787
716.25 0.0733486180471 63.3356652188
716.875 0.130874871863 116.944464817
717.5 0.143334647054 143.501765911
718.125 0.121527589275 164.801631963
718.75 0.103674853369 170.220868284
719.375 0.111017865897 179.418535431
720.0 0.137829973547 -114.264749788
720.625 0.116265011906 -67.1747299733
721.25 0.0969432336295 -22.6328756918
721.875 0.0813009035826 38.8099531102
722.5 0.0748127260199 72.3328079178
723.125 0.070348239401 77.2041032687
723.75 0.107296376054 40.4527331708
724.375 0.100782651472 -12.0110857744
725.0 0.0929898030728 -39.708195799
725.625 0.114073263921 -59.0971958616
726.25 0.113141357902 -60.9255717381
726.875 0.0964614078956 -67.0328730385
727.5 0.0919995257423 -14.6539833511
728.125 0.0821923549066 0.0143743236853
728.75 0.0858784731337 12.7897822449
729.375 0.0859078286512 14.6150200294
730.0 0.059139113199 -10.8531292712
730.625 0.0880724530201 35.9650627468
731.25 0.0918252946513 73.717186579
731.875 0.0740289983424 117.657079487
732.5 0.0510435226761 138.677985273
733.125 0.0985428823405 177.944743032
733.75 0.0972707480724 -176.73639422
734.375 0.0640702743238 168.61692244
735.0 0.0378383812719 126.849722003
735.625 0.049535965552 144.37612834
736.25 0.0566925945605 143.508316706
736.875 0.0495934198492 165.866696827
737.5 0.0557587956819 -177.599841375
738.125 0.127297090229 -168.457787917
738.75 0.100582494083 -170.069372578
739.375 0.0612900216103 -169.387603
740.0 0.00999465417559 -83.9643697651
740.625 0.0628311664237 -153.099722161
741.25 0.0489250566255 -158.517184838
741.875 0.0242981656689 -110.105407117
742.5 0.0328934183717 -21.6532024383
743.125 0.031028289489 63.5416730001
743.75 0.0277441877161 96.1047685374
744.375 0.0344170842149 126.898700768
745.0 0.0458332711073 157.897360549
745.625 0.079567611747 103.404920852
746.25 0.0699064653016 84.7090619914
746.875 0.0683061551131 33.3195289625
747.5 0.0421094418227 9.45817555081
748.125 0.0145555433162 61.8843266147
748.75 0.0477197057762 -31.0827974511
749.375 0.0334102432105 -33.8196663213
750.0 0.041195125654 -80.9061171819
