!Created with skrf (http://scikit-rf.org).
# GHz S RI R (50+0j) 
!freq	ReS11	ImS11	
500.0	-1.116183204	-4.36978476	
500.625	-0.3448478733	-2.395255071	
501.25	-0.2171912304	-2.037984636	
501.875	-2.469253535	-2.854481122	
502.5	-0.1987747455	-0.03759536872	
503.125	-0.3426392333	-0.07224327456	
503.75	0.2895914216	0.1161600358	
504.375	0.1064007174	0.08034306772	
505.0	-0.04428304416	-0.1748528485	
505.625	0.2593902527	0.001804593715	
506.25	-0.6787577639	-0.3387386402	
506.875	0.5893962166	0.05580343705	
507.5	0.1873362434	-2.087397569	
508.125	-1.261945869	-2.383032551	
508.75	1.844124894	-0.5775975727	
509.375	-1.687114114	-6.222223236	
510.0	-0.6779767927	0.4815001358	
510.625	-0.05932638655	-1.074120751	
511.25	-0.357590983	0.3092413683	
511.875	-0.261922558	-0.3335520024	
512.5	-0.09773741625	0.1322339914	
513.125	-0.07175113875	-0.4044444258	
513.75	-0.1115628315	0.1323654532	
514.375	-0.2416605207	-0.4738554174	
515.0	-0.5387534971	1.051828745	
515.625	0.4794357463	-3.551163746	
516.25	-2.76677012	0.2519778141	
516.875	1.061593259	-1.508690959	
517.5	-0.8140667182	-1.069351146	
518.125	0.324824572	0.08990841098	
518.75	-0.7930355433	-0.8073407085	
519.375	-0.01411258735	0.1430402399	
520.0	0.2723099166	0.3727112736	
520.625	0.5461781112	-0.3938251661	
521.25	-0.1483343099	-0.3516062026	
521.875	-0.4263668116	-0.375954775	
522.5	-0.008703678496	0.2218071446	
523.125	-0.3593751355	-0.00450058632	
523.75	-0.03560458047	0.06905961433	
524.375	-0.7051104663	-0.0960231116	
525.0	0.3314708447	0.3101055248	
525.625	-0.1334573519	0.1115426973	
526.25	0.1894592628	-0.05912174939	
526.875	-0.3763666928	0.205256039	
527.5	0.2673273766	0.5220968846	
528.125	-0.2510129111	0.5339901293	
528.75	0.2795600618	1.086740016	
529.375	-0.07970272584	-0.02232030872	
530.0	0.529869939	0.582774071	
530.625	-0.1637645824	0.5745982134	
531.25	1.800302753	0.4200117035	
531.875	0.02125097776	-0.3923677676	
532.5	0.0926336821	-0.623459038	
533.125	-0.1923368152	0.3082474885	
533.75	0.4566772697	-1.02524848	
534.375	-0.484073533	-0.16555182	
535.0	-0.5035850968	-0.7633390468	
535.625	-0.429776011	0.6725803459	
536.25	-0.0003537915012	0.09700074502	
536.875	0.3122634108	0.1653353593	
537.5	0.1010060344	-0.2212844708	
538.125	0.3400291887	0.08204544726	
538.75	0.2680717487	-0.5573695715	
539.375	-0.05555246566	-0.2330155155	
540.0	-0.3882506038	-0.592332538	
540.625	-0.473058067	0.134891387	
541.25	-0.1272575982	0.002415204233	
541.875	-0.06851767648	-0.1281890436	
542.5	-0.2701752905	-0.09221846781	
543.125	0.02253822269	-0.0821618736	
543.75	-0.4068182614	-0.06311728346	
544.375	0.1149398839	0.07165454642	
545.0	-0.1579188363	0.2671269945	
545.625	0.2489644456	-0.05170332483	
546.25	0.03948314569	0.3547087949	
546.875	0.4585209599	-0.3439627319	
547.5	0.05065040964	-0.06450562171	
548.125	0.08619619715	-0.5194564733	
548.75	-0.5066018704	-0.2633539787	
549.375	-0.089373701	-0.05782811129	
550.0	-0.3300512943	-0.08038810175	
550.625	0.009952743006	0.08723923599	
551.25	-0.3148519636	-0.02435807799	
551.875	-0.08338636612	0.2843815326	
552.5	-0.1401135112	0.08043884554	
553.125	-0.05160071148	0.2103524655	
553.75	0.1157705828	0.08815553696	
554.375	0.2227251897	0.03440923964	
555.0	0.2559021723	-0.1874633768	
555.625	0.1973936726	-0.2499624166	
556.25	0.1733798266	-0.3403921151	
556.875	-0.08364632691	-0.4055746993	
557.5	-0.2382081126	-0.242011967	
558.125	-0.2636405336	-0.1033270417	
558.75	-0.2840584841	-0.02322446055	
559.375	-0.2512981346	0.08294285531	
560.0	-0.2203989175	0.1279408928	
560.625	-0.1718492871	0.3074517762	
561.25	0.09592536726	0.2001490767	
561.875	-0.02340470311	0.1624061581	
562.5	0.1186402829	0.04815215134	
563.125	0.06769386597	0.2674757773	
563.75	0.4470926217	-0.0723762463	
564.375	0.1211769539	-0.1906430721	
565.0	0.3325879078	-0.287969112	
565.625	-0.1693719452	-0.4581131467	
566.25	-0.2297748769	-0.1194049054	
566.875	-0.2591624487	-0.3283503822	
567.5	-0.5109029271	-0.2053557965	
568.125	-0.1206732856	-0.312069915	
568.75	-0.7155999898	-0.3190897369	
569.375	-0.3995457081	0.3463779381	
570.0	-0.4328779332	0.2327285594	
570.625	-0.247126636	0.7529328864	
571.25	0.2275274937	-0.01033687617	
571.875	-0.04616891781	0.499974522	
572.5	0.3579260554	-0.3553485733	
573.125	0.1680591696	0.08861911996	
573.75	0.3347327008	-0.5387019396	
574.375	-0.2536179279	-0.02978551885	
575.0	0.4146939565	-0.1214546899	
575.625	-0.2373051034	-0.2319273178	
576.25	0.3078648903	0.05270820871	
576.875	0.01515421202	-0.6293779917	
577.5	-0.2607617183	-0.3068471061	
578.125	0.1006479165	-0.2230191342	
578.75	-0.1800578663	-0.5317977783	
579.375	-0.3540299997	0.04160344337	
580.0	0.105326164	-0.1689027952	
580.625	-0.3985486345	0.03431625338	
581.25	-0.00430575823	-0.001201306157	
581.875	-0.3226139414	0.4832675852	
582.5	0.4573641771	0.5109225136	
583.125	0.03694078912	-0.2314830871	
583.75	0.07909873201	0.554943506	
584.375	0.04200482179	-0.3610942949	
585.0	0.2259444312	0.5853188798	
585.625	0.4777675957	-0.3520007761	
586.25	0.05826858842	0.1355010641	
586.875	0.4978787749	-0.5312320287	
587.5	-0.3344085681	-0.1922868423	
588.125	0.2276848212	-0.1926685973	
588.75	0.1844182705	-0.6125686765	
589.375	-0.1106121657	-0.3091461806	
590.0	0.1265066523	-0.3857374522	
590.625	-0.6086106711	-0.1577797612	
591.25	-0.1640604653	0.2378204541	
591.875	-0.2289578241	0.2010527978	
592.5	0.1388478466	0.2169076952	
593.125	-0.262984426	0.04387581933	
593.75	0.2793796595	0.3644394245	
594.375	0.2852005772	-0.00297048428	
595.0	0.07106925922	0.466581855	
595.625	0.9261356241	0.3551691744	
596.25	-0.001717640964	-0.1713398656	
596.875	0.5393401933	0.4952783867	
597.5	0.502260864	-0.1325150136	
598.125	-0.02616358406	0.5409396405	
598.75	0.7997342769	0.1043272352	
599.375	0.1789878719	-0.04428073025	
600.0	0.6443090895	-0.1648026083	
600.625	0.3516779609	-0.6369318348	
601.25	0.009122914448	-0.2941505769	
601.875	-0.04782586162	-0.4042968867	
602.5	-0.3208209568	-0.04007970835	
603.125	-0.2767383227	0.1504551702	
603.75	-0.2202236425	0.09217708668	
604.375	-0.3453653582	0.1629396583	
605.0	-0.0528857057	0.2039297195	
605.625	-0.3147620889	0.03682569769	
606.25	-0.1467289591	0.3380783342	
606.875	-0.3212871385	-0.1539467865	
607.5	-0.7068445746	0.8013589605	
608.125	0.2035081758	0.2302114497	
608.75	0.1178857623	0.7462215412	
609.375	0.7171128783	-0.4687430172	
610.0	0.2223404557	0.1210193464	
610.625	0.4230511921	-0.6604926452	
611.25	-0.1911934666	-0.1120362575	
611.875	-0.003460923644	-0.6334781987	
612.5	-0.4128521527	0.1968662208	
613.125	-0.4080844169	-0.2317854776	
613.75	-0.2562907154	0.6002951843	
614.375	-0.01505660925	-0.06161989001	
615.0	0.3587694733	0.3735250979	
615.625	-0.1432840737	-0.1184676418	
616.25	-0.3020159473	0.6184124262	
616.875	0.2098914265	0.3712643219	
617.5	-0.5412325358	0.3916653963	
618.125	0.1016303195	0.7738351742	
618.75	0.07436409804	0.1464593351	
619.375	0.1405677311	0.654956222	
620.0	0.3970591152	-0.04438739982	
620.625	0.4117463102	-0.2607415905	
621.25	-0.3146272992	-0.3943744884	
621.875	-0.3309340841	-0.2882359082	
622.5	-0.5980191372	0.2592529439	
623.125	-0.09477875767	0.2458933646	
623.75	0.3978381942	0.3193887839	
624.375	-0.1795087297	-0.2692725837	
625.0	0.521818972	0.07345016025	
625.625	-0.3557825172	-0.2317436151	
626.25	0.2875618021	-0.296870948	
626.875	-0.6280914127	-0.2907231535	
627.5	-0.09621234128	0.136215799	
628.125	-0.2489612785	-0.546485832	
628.75	-0.3426059479	-0.02684607676	
629.375	0.06428873071	-0.4394449241	
630.0	-0.6431170859	-0.3305980533	
630.625	-0.3379398213	0.3303742052	
631.25	-0.392042414	0.2130326718	
631.875	-0.1367155259	0.6926263664	
632.5	0.3685879806	0.4944626238	
633.125	0.4210001744	0.0340675393	
633.75	0.4598460757	0.06693483781	
634.375	-0.01859026902	-0.4278789326	
635.0	0.1378543975	-0.274163747	
635.625	-0.4895358823	-0.3078335803	
636.25	-0.1003334581	0.2336054795	
636.875	-0.5206451583	0.1203481466	
637.5	0.1605624933	0.5421055888	
638.125	-0.1100993433	-0.2663294706	
638.75	-0.4945231332	0.7160322001	
639.375	0.3802915944	0.5328279269	
640.0	-0.0572735916	0.3740795899	
640.625	0.7678448455	0.6292788817	
641.25	0.483964596	-0.3014429701	
641.875	0.6130613824	-0.02714002938	
642.5	-0.36843357	-0.8539937968	
643.125	-0.05349725204	0.02711612626	
643.75	-0.2917017875	-0.5913639113	
644.375	-0.5757843308	0.2987216921	
645.0	-0.04048089989	0.2040144087	
645.625	-0.2952322671	0.5601086705	
646.25	0.7445138297	0.1849201883	
646.875	-0.1010544912	-0.1894654585	
647.5	0.4833023736	0.3960778599	
648.125	-0.1309762854	-0.2004067751	
648.75	1.008367387	0.2728154383	
649.375	0.4313958708	-1.09080501	
650.0	-0.09783893671	-0.2281001721	
650.625	1.172069546	-0.4397906994	
651.25	0.183585959	-1.392342711	
651.875	0.06086594918	0.1147088748	
652.5	1.232909136	0.009354235443	
653.125	0.3978592533	-0.748127472	
653.75	0.501899125	0.09765433731	
654.375	-0.2505471282	-1.21818577	
655.0	-0.6374128899	0.1978735528	
655.625	-0.3557219097	-0.1066939736	
656.25	-0.1298071031	0.9064115355	
656.875	0.3793099319	-0.285231794	
657.5	-0.161039767	0.5706812819	
658.125	0.5855200617	0.3144695635	
658.75	0.4173262273	0.01993662772	
659.375	1.066101133	0.0722465075	
660.0	0.3182152444	-1.095876306	
660.625	0.225399766	-0.3552878279	
661.25	0.7925142251	-0.6520225731	
661.875	0.3600275214	-1.179322745	
662.5	0.05337651393	-0.004825905474	
663.125	1.27817016	-0.3803724427	
663.75	-0.08241497492	-0.9024139093	
664.375	0.293745651	-0.4061781283	
665.0	-1.041514607	-0.8088745507	
665.625	-0.2338213162	0.3072908473	
666.25	-0.663624773	0.5013798812	
666.875	0.5137385653	0.6920895957	
667.5	0.2991734358	-0.1074180718	
668.125	0.48308696	0.4089883504	
668.75	0.5692995913	-0.6304507322	
669.375	0.05017666784	-0.3908631342	
670.0	0.2493228062	-0.4478124088	
670.625	-0.1781895411	-0.6537407097	
671.25	0.231881555	-0.1192278966	
671.875	0.3993533187	-0.5727710203	
672.5	0.3016363691	-0.4565205282	
673.125	0.3381615572	-0.0801833766	
673.75	0.9241414244	-0.5885420614	
674.375	-0.444590124	-0.8482577522	
675.0	0.2635071022	-0.1100945833	
675.625	-0.6494829803	-0.7695469172	
676.25	-0.3863628821	0.5504236848	
676.875	-0.3278547558	-0.6804736027	
677.5	-0.4061781226	0.6784652578	
678.125	-0.2224981627	-0.2163804768	
678.75	-0.1533602607	1.103595954	
679.375	0.6778829044	-0.3674733255	
680.0	0.06308102197	0.1258120791	
680.625	0.5190087673	-0.1396241208	
681.25	0.1540935746	-0.3416403592	
681.875	0.05279299206	0.288134021	
682.5	0.7266832683	0.3858238154	
683.125	0.4970710695	-0.0536858234	
683.75	0.418486109	0.2009598602	
684.375	0.9679131528	0.2707350418	
685.0	0.39746663	-0.2999262279	
685.625	0.6585338009	0.5443763823	
686.25	1.219630104	-0.4985575667	
686.875	-0.1380180044	-0.2670246861	
687.5	1.485620026	-0.2260727911	
688.125	-1.002877962	-1.571351895	
688.75	0.03780289449	-0.4527372874	
689.375	-1.462177209	1.04696086	
690.0	0.7250186704	0.3815046472	
690.625	-0.08572889638	1.235301924	
691.25	1.253360203	0.1633586539	
691.875	0.5472416195	0.7204077017	
692.5	1.528622284	0.7610993602	
693.125	1.599397101	-0.291560375	
693.75	1.284364693	-0.425996799	
694.375	0.9255349475	-1.034996167	
695.0	1.056949882	-0.3883251537	
695.625	1.488065574	-0.6035484838	
696.25	0.696563975	0.2847920514	
696.875	1.182403737	1.540012205	
697.5	1.169207096	0.3791645735	
698.125	1.005127578	1.312264282	
698.75	1.387270635	-1.720985047	
699.375	-0.4038925509	-0.1044443573	
700.0	-1.581407677	0.6999899515	
700.625	0.9130708946	0.5211256189	
701.25	-0.1174864612	0.7546518807	
701.875	1.277411624	0.3527457318	
702.5	0.237872954	0.5003950525	
703.125	1.361383622	0.5483544451	
703.75	0.5055026443	-0.6175884943	
704.375	1.030065076	0.03302587309	
705.0	0.4591256646	-0.8806436065	
705.625	0.1384375348	0.3710281902	
706.25	1.30724848	0.7148610385	
706.875	0.3162428035	0.03990332623	
707.5	0.4436411357	1.353014339	
708.125	1.563431174	-0.09459921327	
708.75	0.5740153177	-0.2495399082	
709.375	-0.8831986293	-1.263025565	
710.0	-0.07774862327	0.6899783666	
710.625	-0.2606510606	0.4395071364	
711.25	0.406727241	0.2698755554	
711.875	0.4345306083	0.3441018933	
712.5	0.7207755567	-0.10852893	
713.125	0.6351223124	-0.1322163647	
713.75	0.4236970037	-0.9292184265	
714.375	-0.211552074	-0.1509842044	
715.0	0.2566998605	-0.9006994465	
715.625	-0.4270154357	-0.310573595	
716.25	0.8577582037	-0.1082084449	
716.875	1.238838735	-1.375508056	
717.5	-0.2500156423	0.07024923078	
718.125	2.927109622	1.199457672	
718.75	2.298250621	-1.866906713	
719.375	0.4915560703	0.2175355889	
720.0	3.358956799	-3.16911221	
720.625	-1.208450909	-2.064972624	
721.25	0.9688884837	-2.544690578	
721.875	-1.097477014	-3.363458492	
722.5	-1.316959612	-0.799173086	
723.125	-1.93026667	-1.326882458	
723.75	-1.029349767	1.536889831	
724.375	0.2635010044	0.7756234698	
725.0	0.1428042365	0.7105786351	
725.625	0.3539591507	1.700341897	
726.25	1.143353185	1.177285961	
726.875	-1.255414545	1.705894609	
727.5	-0.1494645673	5.212631993	
728.125	2.998306526	2.623681516	
728.75	-6.324595855	6.824888654	
729.375	4.19809659	16.82373923	
730.0	1.157220876	0.9478504034	
730.625	-12.26984065	11.78049024	
731.25	6.671643716	14.79281568	
731.875	-5.220538193	-2.642583363	
732.5	-13.20625513	2.064255821	
733.125	-6.927297153	3.215548811	
733.75	-1.352422307	0.9362381045	
734.375	3.551599046	2.204328912	
735.0	-0.5373296253	-0.795322318	
735.625	-0.9152084591	-0.387919092	
736.25	-0.3461442787	2.309809475	
736.875	1.598200686	0.1936866253	
737.5	1.286321265	1.534121915	
738.125	5.941851405	-0.8678723671	
738.75	3.645480221	-6.706604603	
739.375	-0.6568584497	1.159018307	
740.0	24.92661855	-2.864305334	
740.625	-3.741333407	-14.71312798	
741.25	-15.37835237	10.36161985	
741.875	1.921437613	20.83001594	
742.5	8.019202336	-4.767888845	
743.125	3.742934948	-13.31730614	
743.75	-3.085088648	-1.686162804	
744.375	0.07161056821	-0.1932678149	
745.0	-0.1695833137	0.691759403	
745.625	-0.2541822614	-0.09886079509	
746.25	0.1887891103	-0.4128152457	
746.875	-0.4823925458	0.4512223943	
747.5	-0.2876216911	0.5343154483	
748.125	0.2220974023	1.746217308	
748.75	1.018650003	0.5622984394	
749.375	0.2133650665	0.8131831478	
750.0	-0.6447091216	0.9983135521	
