!Created with skrf (http://scikit-rf.org).
# GHz S RI R (50+0j) 
!freq	ReS11	ImS11	
500.0	1.613106282	-2.41956786	
500.625	-0.6981213129	-3.767351875	
501.25	-0.9018795067	-0.4867878914	
501.875	-1.17183634	-1.933702928	
502.5	-0.4653350631	-0.1892408749	
503.125	-0.102725325	-0.04679436978	
503.75	0.1006193285	0.4323757778	
504.375	-0.05676422772	-0.05926893699	
505.0	0.2273125512	-0.07828959391	
505.625	-0.2295348754	-0.04199692369	
506.25	0.2486570858	-0.3983585588	
506.875	-0.45379392	0.9640232824	
507.5	0.9283559682	-0.8067197026	
508.125	0.1332107182	-3.115689824	
508.75	-0.998925645	-2.520253149	
509.375	1.585449328	-4.220228595	
510.0	-2.794866488	-1.23696978	
510.625	-0.1850533864	-0.1686557325	
511.25	-0.4347572342	-0.1008048239	
511.875	-0.4237901625	0.1455912353	
512.5	-0.04810653692	0.1387702666	
513.125	-0.0411172834	-0.3150000215	
513.75	-0.4373616963	-0.1096244199	
514.375	0.1402648869	-0.0803297489	
515.0	-0.9698751079	-0.6344858436	
515.625	1.815014354	0.02890459606	
516.25	-2.48714171	-3.938577287	
516.875	-0.872317895	0.6748231472	
517.5	0.5718229671	-0.7323902622	
518.125	-0.3785544277	0.2851559271	
518.75	0.3642630298	-0.8427642529	
519.375	-0.1826919019	0.2652674679	
520.0	0.2068012368	0.01840074075	
520.625	0.5992691618	-0.01842588711	
521.25	-0.3969248399	-0.7757880815	
521.875	-0.1487378539	-0.03221176372	
522.5	-0.2394533779	0.09900319788	
523.125	-0.02172617186	-0.1396480346	
523.75	-0.3826582661	0.1198472426	
524.375	-0.1080357863	-0.08965928471	
525.0	-0.2284734646	0.5784751535	
525.625	0.1720150337	-0.1397504943	
526.25	0.00683580311	0.1762382519	
526.875	-0.1197973692	-0.07308938054	
527.5	-0.2569128145	0.8511417133	
528.125	0.4426556113	0.3581871275	
528.75	-0.2961795265	0.6516480647	
529.375	0.3690500167	0.1271905828	
530.0	-0.3066697851	0.5630289326	
530.625	0.7324650691	0.5831486674	
531.25	0.8202658508	0.5660591999	
531.875	0.6169835761	-0.9699737482	
532.5	0.07710327263	0.05643510093	
533.125	-0.2588891136	-0.675887022	
533.75	0.7488178979	0.02212531595	
534.375	-0.8550175951	-0.9792537107	
535.0	-0.2610171431	0.001651692484	
535.625	-0.6637922733	0.1996861828	
536.25	0.1833342247	0.2428771936	
536.875	0.1015516863	0.1334578464	
537.5	0.2544775229	-0.1785867322	
538.125	0.08045753387	-0.1667809388	
538.75	0.489329078	-0.1624033317	
539.375	-0.3621054078	-0.3895650101	
540.0	-0.2191148913	-0.2344523045	
540.625	-0.4384401458	-0.1352443123	
541.25	-0.2171910968	0.1028945843	
541.875	-0.04998733537	-0.04391441227	
542.5	-0.1616502521	-0.179536636	
543.125	-0.1918663447	0.0299987066	
543.75	-0.1229325328	-0.1633314279	
544.375	-0.1358113577	0.2654230595	
545.0	-0.04492975987	-0.08097693847	
545.625	0.2781210402	0.3626583283	
546.25	0.08987524267	-0.1751550882	
546.875	0.3715370375	0.2074593485	
547.5	-0.00891945389	-0.5128433208	
548.125	0.02378001975	-0.1675652989	
548.75	-0.3008271788	-0.4438667486	
549.375	-0.39238398	-0.02502962368	
550.0	-0.02930360509	-0.07244537005	
550.625	-0.2551406543	0.1058230316	
551.25	-0.04522001026	0.01162190452	
551.875	-0.2758105515	0.1862515936	
552.5	0.003413095728	0.2156900584	
553.125	-0.07326589196	0.1316809268	
553.75	0.1495802802	0.106577197	
554.375	0.1964164266	-0.01284314176	
555.0	0.2379890366	-0.1587136071	
555.625	0.1833290972	-0.2670420255	
556.25	0.1279531953	-0.3274840488	
556.875	-0.0854762109	-0.3703960738	
557.5	-0.2403706006	-0.2379730994	
558.125	-0.2740823372	-0.06624106859	
558.75	-0.2264826194	-0.01343227101	
559.375	-0.2840535638	0.05171441655	
560.0	-0.1643843819	0.1962871738	
560.625	-0.1518134635	0.2030885597	
561.25	0.05044997126	0.2996740093	
561.875	0.05943421495	0.000307140271	
562.5	0.01794328071	0.2330977247	
563.125	0.1684513661	0.01999231656	
563.75	0.2900883394	0.1377266595	
564.375	0.3342611254	-0.3599716554	
565.0	0.02864763575	-0.2289491057	
565.625	0.03948934239	-0.4190408767	
566.25	-0.3916314875	-0.1826066761	
566.875	-0.1812138862	-0.1201620498	
567.5	-0.3643758045	-0.3819460753	
568.125	-0.4735639521	-0.2243929518	
568.75	-0.3008837942	-0.2529065557	
569.375	-0.7747098297	0.2899280989	
570.0	0.01205961196	0.5184324353	
570.625	-0.2960060619	0.1250346389	
571.25	0.1059440802	0.6481854242	
571.875	-0.1526479236	-0.0849219967	
572.5	0.6001876928	0.1193623959	
573.125	-0.1376971588	-0.4067622774	
573.75	0.2555791482	0.05345064971	
574.375	0.05830163413	-0.5043717743	
575.0	-0.09221882547	0.1674129088	
575.625	0.3160553531	-0.3416482211	
576.25	-0.2038321221	-0.3154712578	
576.875	0.2414380076	-0.1124178366	
577.5	-0.01077847728	-0.6503137679	
578.125	-0.2940026451	-0.2009726828	
578.75	0.02815928141	-0.2145161711	
579.375	-0.286720123	-0.3512826982	
580.0	-0.1721696644	0.1887449094	
580.625	-0.1084911677	-0.3269102845	
581.25	-0.2748227581	0.4415424817	
581.875	0.12031197	0.02630749405	
582.5	-0.2264070589	0.4633011765	
583.125	0.623330923	0.2248968419	
583.75	-0.3282746592	-0.05673830189	
584.375	0.5065360832	0.2963423248	
585.0	-0.1513602319	-0.1108651254	
585.625	0.5746683231	0.3047393349	
586.25	0.2927538777	-0.4750433517	
586.875	0.08074267788	-0.02141850884	
587.5	0.1106520386	-0.5482271497	
588.125	-0.3420519871	-0.2437754049	
588.75	0.3151369403	-0.1094350521	
589.375	0.1869219356	-0.6140838608	
590.0	-0.1806465488	-0.1303237872	
590.625	-0.381225949	-0.2993049965	
591.25	-0.3339314618	0.4391779627	
591.875	0.04534489049	0.1552160409	
592.5	-0.1482076761	0.09695302417	
593.125	0.1312287478	0.1547908725	
593.75	-0.1752105865	0.237400267	
594.375	0.6658730471	0.3804545207	
595.0	0.2833181039	-0.1323579978	
595.625	0.1719494566	0.4998474057	
596.25	0.8169777148	-0.1082665034	
596.875	-0.1062966603	0.1097161166	
597.5	0.6180260289	0.4675670455	
598.125	0.388446502	-0.08457051645	
598.75	0.17286396	0.4093854794	
599.375	0.6720398477	-0.2364673456	
600.0	0.1496441283	-0.3033326093	
600.625	0.4198252498	-0.2542629413	
601.25	0.1517003092	-0.6192124458	
601.875	-0.1309956839	-0.1276644464	
602.5	-0.3237530107	-0.1541446689	
603.125	-0.2060422621	0.1698940181	
603.75	-0.2379003719	0.1784137979	
604.375	-0.2105946774	0.08724854406	
605.0	-0.2887885458	0.26522604	
605.625	0.0834797636	0.05064517574	
606.25	-0.5735088209	0.1045741555	
606.875	-0.1078718749	0.444019773	
607.5	-0.4807774464	-0.02606724697	
608.125	0.04950381545	1.041809681	
608.75	0.1495632823	-0.01287775146	
609.375	0.7172520861	0.237798116	
610.0	0.1947701065	-0.6364028606	
610.625	0.3110406263	0.02442813618	
611.25	-0.08466108113	-0.6453457514	
611.875	-0.07539383277	-0.06787265479	
612.5	-0.5380390894	-0.3700831595	
613.125	-0.2414544048	0.2829729288	
613.75	-0.4152196144	0.2058684637	
614.375	0.3790030587	0.3069979781	
615.0	-0.2313869823	0.05456165605	
615.625	0.3329466049	0.2752372737	
616.25	-0.2526376606	0.0354999327	
616.875	-0.3197943232	0.7017082409	
617.5	0.2194467087	0.3648010244	
618.125	-0.3502225544	0.4386368564	
618.75	0.2998687227	0.5296620211	
619.375	0.06658279812	0.2151178905	
620.0	0.5931660756	0.1637473707	
620.625	0.08848486829	-0.3191240372	
621.25	-0.1355740984	-0.4973646062	
621.875	-0.4413219247	-0.0392000085	
622.5	-0.475125076	-0.02990550303	
623.125	0.07711196642	0.6098023953	
623.75	-0.01720764417	0.02625713456	
624.375	0.3825925917	-0.3252807087	
625.0	-0.1172064623	0.1795218301	
625.625	0.3808886651	-0.4729328012	
626.25	-0.3855019754	0.05632416495	
626.875	-0.03716755162	-0.4703195363	
627.5	-0.6208806966	-0.001648199426	
628.125	-0.02042103643	0.02514790688	
628.75	-0.07572143038	-0.5305042046	
629.375	-0.4307164707	-0.1658839086	
630.0	-0.2261791416	-0.2756528624	
630.625	-0.6421365374	0.1271594406	
631.25	-0.1265081053	0.5396868243	
631.875	-0.1342871201	0.3906531056	
632.5	0.4238543988	0.5538913939	
633.125	0.465995601	0.01567789283	
633.75	0.2907091308	-0.1345224305	
634.375	0.276593936	-0.3048691768	
635.0	-0.323760864	-0.3067638823	
635.625	-0.05563527246	-0.2798120557	
636.25	-0.6190205675	0.2955170056	
636.875	0.2003529604	0.2958589919	
637.5	-0.466851892	-0.07751694949	
638.125	0.2613739527	0.5446263921	
638.75	-0.3485514892	-0.061964793	
639.375	-0.04003763934	0.986748396	
640.0	0.6020038212	0.188449819	
640.625	0.1346035807	0.4252397803	
641.25	0.9938252956	-0.05139081482	
641.875	0.01135396817	-0.5517529488	
642.5	0.2519101824	-0.2569670817	
643.125	-0.612366585	-0.550961418	
643.75	0.0212366535	0.2400517768	
644.375	-0.6026236771	-0.2761817149	
645.0	-0.2091038707	0.6105712641	
645.625	0.1662644993	0.1906117435	
646.25	0.1897908541	0.4874437109	
646.875	0.4587910602	-0.3681912253	
647.5	-0.2132321075	0.2392139152	
648.125	0.7894466612	0.1216650038	
648.75	0.07562859566	-0.5005352651	
649.375	0.9465234993	0.07177707406	
650.0	0.2896691973	-1.435133239	
650.625	-0.2645450391	-0.2065338264	
651.25	1.075767384	-0.2471599119	
651.875	0.4234793315	-1.19705113	
652.5	0.08108278964	0.18789801	
653.125	1.117546595	-0.2421702985	
653.75	-0.04091713976	-0.8390450688	
654.375	0.123743372	-0.2595395328	
655.0	-1.034223668	-0.5621170077	
655.625	-0.009009289795	0.7157100372	
656.25	-0.1303441	0.02738177714	
656.875	0.2567211989	0.5372764833	
657.5	0.04369345503	-0.202012997	
658.125	0.2332397048	0.7517878894	
658.75	0.8671752946	-0.09879167043	
659.375	0.4294030641	-0.3840309698	
660.0	0.6721538825	-0.3182654527	
660.625	0.2481200165	-1.338540497	
661.25	-0.1055199516	-0.2407197557	
661.875	0.9304358069	-0.4431447296	
662.5	0.4995220958	-0.9637156135	
663.125	0.07556691624	-0.1131980242	
663.75	0.8520663007	-0.9296968611	
664.375	-0.638186263	-0.5108504612	
665.0	-0.1686222908	-0.4857457477	
665.625	-1.064957006	0.265698424	
666.25	0.2147953174	0.6160893417	
666.875	-0.06376092647	0.4468823227	
667.5	0.6877535558	0.274803101	
668.125	0.2425850587	-0.2863707947	
668.75	0.5728353807	-0.01165059462	
669.375	0.06245109764	-0.852912121	
670.0	-0.0570011244	-0.2256349489	
670.625	0.1793306228	-0.4555881055	
671.25	0.01418008781	-0.6060805773	
671.875	0.0307304563	-0.1701918316	
672.5	0.7510378921	-0.276855665	
673.125	0.2912350149	-0.7276263621	
673.75	0.1072954206	-0.2102409257	
674.375	0.5113760111	-0.7333209276	
675.0	-0.8731440012	-0.4452964621	
675.625	0.2212690105	-0.2495676784	
676.25	-0.9323521288	-0.1469787147	
676.875	0.004550724956	0.4850784	
677.5	-0.5170416606	-0.4467076115	
678.125	-0.1314040865	0.8847655368	
678.75	0.02674199284	0.1093307988	
679.375	0.4267024856	0.4667909485	
680.0	0.5086596901	-0.6117231164	
680.625	-0.2417793486	0.1275362299	
681.25	0.5950964998	-0.07658781628	
681.875	0.234263686	-0.1649134952	
682.5	0.2056450585	0.3044659407	
683.125	0.812865756	0.2808911046	
683.75	0.5577869447	-0.201792877	
684.375	0.3507529126	0.1485676182	
685.0	0.9225888431	0.4196318093	
685.625	0.609218682	-0.7780415964	
686.25	0.3470268061	0.7094627496	
686.875	1.154206869	-1.242376531	
687.5	-0.2196734824	-0.1008389736	
688.125	0.5144635536	-1.372888706	
688.75	-1.739980113	0.2269280438	
689.375	-0.2276619744	-0.08137893494	
690.0	0.3581870471	1.549248637	
690.625	0.63847359	-0.007673918544	
691.25	0.404161871	0.9159863516	
691.875	1.496450227	0.4903142951	
692.5	1.047064112	0.292484652	
693.125	1.586957222	-0.01017557896	
693.75	1.27566531	-0.7339606221	
694.375	0.8709862157	-0.8805734821	
695.0	0.877497646	-0.8040152118	
695.625	1.048474092	0.02375901551	
696.25	1.557188535	-0.005015177308	
696.875	0.4950888029	0.4480688083	
697.5	1.321060575	1.623631169	
698.125	1.266420064	-0.5733485754	
698.75	1.267213131	-0.4153443192	
699.375	-1.724869612	-0.9132225197	
700.0	0.1751595666	0.4864833987	
700.625	0.1753876929	1.4468193	
701.25	0.6967744219	-0.1636177069	
701.875	0.2039542414	0.8269219298	
702.5	1.372696914	0.2622208582	
703.125	0.4323800139	0.2757964128	
703.75	1.331910846	-0.2729232729	
704.375	0.1718894314	-0.6744720202	
705.0	0.8235721792	0.1413019746	
705.625	0.6676061143	-0.631992015	
706.25	0.03986154291	0.5219940258	
706.875	1.129066857	1.036175368	
707.5	0.5068322749	-0.0125803125	
708.125	1.318361123	0.6513487343	
708.75	0.3050291925	-1.386568532	
709.375	-0.3999055601	-0.2582251157	
710.0	-0.6764321712	0.5999313776	
710.625	0.4549310524	0.1589769195	
711.25	0.1419992189	0.3980628185	
711.875	0.5619593044	0.08913882457	
712.5	0.7591779985	-0.04189453205	
713.125	0.4793500357	-0.487950148	
713.75	0.3566155172	-0.4149594202	
714.375	-0.09111010108	-0.8078131373	
715.0	-0.1989044107	-0.03048709001	
715.625	0.5221957676	-0.8794160393	
716.25	-0.4232609168	-0.7794648922	
716.875	0.910873195	0.4179089444	
717.5	2.277902703	-0.5484700394	
718.125	-0.04856554523	-1.059587662	
718.75	3.405677049	0.9395424093	
719.375	0.9778733647	-2.982012451	
720.0	0.6637887061	-0.7690638858	
720.625	1.32701189	-4.035471432	
721.25	-1.835174517	-1.621051803	
721.875	0.2547625807	-2.197245481	
722.5	-2.127263708	-2.053984069	
723.125	-1.905543926	0.5427600296	
723.75	-0.6714133227	0.606689343	
724.375	0.02725035635	1.557529101	
725.0	0.6560956075	0.5198888961	
725.625	0.1720129876	0.8458630313	
726.25	-0.06362284911	2.008990797	
726.875	1.296639245	2.43584056	
727.5	-1.739278883	1.663401659	
728.125	0.3561115055	7.218765819	
728.75	5.247784774	4.908283574	
729.375	-6.887901452	3.08596535	
730.0	7.269659942	24.36038363	
730.625	3.4169424	0.461852474	
731.25	-7.764317574	8.830149732	
731.875	-1.237731457	17.02541775	
732.5	-1.452838245	-0.7190039302	
733.125	-9.4374539	1.503203326	
733.75	-0.07541239709	4.225056664	
734.375	1.384220051	-0.1997064964	
735.0	0.8379859912	-1.981375226	
735.625	-0.8344843391	1.500385705	
736.25	-0.6956219573	0.5698065299	
736.875	1.420196914	1.829330633	
737.5	3.116934842	-0.6931985514	
738.125	0.9940780977	-0.4686823251	
738.75	7.781366111	-2.459120276	
739.375	4.618391532	-10.14461914	
740.0	-4.180514403	0.3282397816	
740.625	20.59349042	12.4783951	
741.25	20.98026413	-23.02218041	
741.875	-14.0021454	-11.49766101	
742.5	-17.51613856	0.2629190647	
743.125	-0.4621942018	2.361650766	
743.75	2.939620691	-4.161838994	
744.375	-1.711349282	1.216660499	
745.0	-0.1130900025	-0.1454053149	
745.625	0.3738280282	-0.1487703511	
746.25	-0.1650066449	0.03475499822	
746.875	-0.7726011971	-0.335364777	
747.5	0.01077979818	0.9788884314	
748.125	0.6682027138	0.8996496213	
748.75	0.3116032104	1.344470004	
749.375	0.2209936214	1.390677836	
750.0	-0.6158955986	-0.4660256333	
