!Created with skrf (http://scikit-rf.org).
# GHz S RI R (50+0j) 
!freq	ReS11	ImS11	
500.0	0.581846659	-1.153866179	
500.625	1.530203165	-4.269372449	
501.25	-3.702371356	-2.617650519	
501.875	-0.7581582856	-0.01425855409	
502.5	-0.07335070885	-0.6644766529	
503.125	-0.1510524148	0.2463357509	
503.75	-0.1750583876	0.2091547843	
504.375	0.1229625514	-0.1189122372	
505.0	0.08290042678	0.1040915972	
505.625	-0.1372406353	-0.4005463638	
506.25	0.1123956828	0.2550649644	
506.875	-1.051155157	-0.633526468	
507.5	-1.644618048	-0.2230176163	
508.125	1.434670189	-0.9777480742	
508.75	1.775519355	-5.167612321	
509.375	-2.293485835	-1.86225425	
510.0	-1.730128981	-1.803439579	
510.625	-0.950081987	0.2688852997	
511.25	-0.2480237723	-0.2790744962	
511.875	-0.6499770406	-0.1018536214	
512.5	-0.005012287686	0.2064145357	
513.125	0.05328528497	-0.1937623369	
513.75	-0.1647087885	-0.510594847	
514.375	-0.5583257129	0.4751353659	
515.0	1.110506763	-1.284969896	
515.625	-1.766094145	0.3747301461	
516.25	1.902798556	-2.818616665	
516.875	-2.515671253	-1.678115331	
517.5	0.1663789564	0.359624337	
518.125	-0.3785031461	-0.428122013	
518.75	0.08025094832	0.1694622304	
519.375	-0.3041329646	0.1205965011	
520.0	0.4969286556	0.08649210629	
520.625	0.260298448	-0.1200909921	
521.25	0.2392485618	-0.9255068787	
521.875	-0.46534511	0.07131050432	
522.5	-0.1279320822	-0.0538377949	
523.125	0.03667810423	0.2093550553	
523.75	-0.4233520087	-0.1322499144	
524.375	-0.1196790282	0.3171553991	
525.0	-0.3791595606	0.2368698762	
525.625	0.3620277496	0.2660679308	
526.25	-0.2902427401	-0.01610071705	
526.875	0.06886769764	0.1444877254	
527.5	-0.4562087126	0.3643661362	
528.125	0.4973801253	1.182734417	
528.75	0.1893944855	0.2350436286	
529.375	0.1641237813	0.4076894934	
530.0	-0.1068664314	0.09391323462	
530.625	0.5530143641	1.281389788	
531.25	0.723493507	0.04432527164	
531.875	0.957334678	-0.3375766552	
532.5	-0.4163648504	-0.1842879374	
533.125	0.6171065969	-0.4274279677	
533.75	-0.1738657263	-0.2291284398	
534.375	0.1235445945	-1.243005809	
535.0	-0.8902966073	0.1276829481	
535.625	-0.3218089257	0.04642085545	
536.25	-0.07458120111	0.3444113511	
536.875	0.2509701782	-0.1050739626	
537.5	0.2341742899	0.02511381314	
538.125	0.2690225429	-0.3257749539	
538.75	0.2511960792	-0.09006910266	
539.375	-0.195573966	-0.6260845009	
540.0	-0.4991214605	-0.1233942051	
540.625	-0.2808483495	-0.1917787564	
541.25	-0.2736458254	-0.02121218546	
541.875	-0.1944125787	0.009987429805	
542.5	0.03300062235	-0.1081607058	
543.125	-0.3763756966	-0.2183029644	
543.75	-0.0227918644	0.1464908834	
544.375	-0.291937284	0.06718292862	
545.0	0.1631862307	0.09584773744	
545.625	-0.09672009979	0.3255151227	
546.25	0.4389998869	-0.07109095983	
546.875	0.05801233143	0.09704333506	
547.5	0.4223208461	-0.4100319671	
548.125	-0.318845208	-0.3299765698	
548.75	-0.08354763523	-0.2626781693	
549.375	-0.3670972284	-0.3182833755	
550.0	-0.1105086	0.1529377657	
550.625	-0.2254846017	-0.1386343476	
551.25	-0.09993580153	0.1916545328	
551.875	-0.2319569472	0.03785853509	
552.5	-0.1312570857	0.2996010869	
553.125	-0.01496579345	0.112519461	
553.75	0.09834776806	0.1610149915	
554.375	0.249131459	-0.01428857939	
555.0	0.2335826835	-0.1481975154	
555.625	0.2399900667	-0.2649588656	
556.25	0.1662961159	-0.3590193563	
556.875	-0.07358579131	-0.3903626149	
557.5	-0.2216062814	-0.278955455	
558.125	-0.2953429838	-0.106624431	
558.75	-0.2493249073	0.001148115335	
559.375	-0.2706153995	0.004977573027	
560.0	-0.2617915983	0.2175593402	
560.625	-0.07378564445	0.2329327047	
561.25	-0.0675294384	0.2593965855	
561.875	0.1638854617	0.08270070561	
562.5	-0.1014279994	0.1471965079	
563.125	0.2984183306	0.1363785709	
563.75	0.1732032046	0.05613470236	
564.375	0.4754778017	-0.2092425834	
565.0	0.06351825692	-0.4447493602	
565.625	0.006332959529	-0.2580683513	
566.25	-0.2613974975	-0.4141882255	
566.875	-0.4038233183	-0.04396017234	
567.5	-0.1579720042	-0.3166398407	
568.125	-0.5099469087	-0.5174271375	
568.75	-0.4222395868	-0.0256696004	
569.375	-0.7184440518	-0.02948689949	
570.0	-0.2532492313	0.7541787867	
570.625	0.03238127283	0.1550991936	
571.25	-0.3659727441	0.4477019239	
571.875	0.3720848855	-0.1296280102	
572.5	0.2263867201	0.3891681115	
573.125	0.3031821231	-0.5846096718	
573.75	-0.1633526976	-0.05100301478	
574.375	0.3949808872	-0.2139083371	
575.0	-0.2812594561	-0.1521253789	
575.625	0.3775177756	-0.0273060755	
576.25	0.08744653043	-0.5652765165	
576.875	-0.1610594901	-0.065752233	
577.5	0.3084558181	-0.4055699738	
578.125	-0.3010912013	-0.5541470555	
578.75	-0.2137079223	-0.08130743137	
579.375	-0.009364175441	-0.3300924802	
580.0	-0.3830778441	-0.03069299574	
580.625	0.1315824381	-0.1631086946	
581.25	-0.5296649762	0.2566399211	
581.875	0.3261472706	0.3590557239	
582.5	-0.1382863018	0.01498228496	
583.125	0.1549416861	0.6907232246	
583.75	0.128566437	-0.4881364382	
584.375	0.03914330738	0.5865468681	
585.0	0.3847479968	-0.2620210895	
585.625	0.1661988341	0.3983516188	
586.25	0.6581502352	-0.422957951	
586.875	-0.08431952056	-0.1371612562	
587.5	0.2944647083	-0.353394348	
588.125	-0.1930714481	-0.5765285989	
588.75	-0.1084541659	-0.04313005282	
589.375	0.4866236068	-0.3407223403	
590.0	-0.2657729102	-0.5141831012	
590.625	-0.2690873685	-0.07082251002	
591.25	-0.4765038631	0.1700031084	
591.875	0.06376736253	0.3896474394	
592.5	-0.1303328599	0.02512694975	
593.125	0.04912153563	0.2027034651	
593.75	-0.02399783033	0.1268657647	
594.375	0.3668321013	0.6101749749	
595.0	0.8013390609	0.01535643142	
595.625	-0.05719348783	0.1265971111	
596.25	0.6853116416	0.4818829896	
596.875	0.2953881654	-0.2828578473	
597.5	0.1578280675	0.529591991	
598.125	0.6581368344	0.1374957707	
598.75	0.0566208656	0.2256957733	
599.375	0.8903816344	0.02103818998	
600.0	0.1880580991	-0.4543697706	
600.625	0.3004074594	-0.2074381488	
601.25	0.3671895929	-0.5317550815	
601.875	-0.284697669	-0.3226918635	
602.5	-0.2477130097	-0.03699634996	
603.125	-0.2660973923	0.01203505832	
603.75	-0.3646488728	0.2260198208	
604.375	-0.06961996758	0.1004077182	
605.0	-0.3359659528	0.1530514649	
605.625	-0.005163668517	0.2515406301	
606.25	-0.4234690568	-0.09889274904	
606.875	-0.472713857	0.5799476901	
607.5	-0.1814747618	0.04920924212	
608.125	-0.5455430721	0.9212041172	
608.75	0.637297377	0.009801443216	
609.375	0.4074339585	0.3051101196	
610.0	0.6040662916	-0.4830138582	
610.625	-0.0353614668	-0.09737055158	
611.25	0.2635100781	-0.6000792923	
611.875	-0.2627685521	-0.06716324496	
612.5	-0.2897324211	-0.3930548329	
613.125	-0.5413705039	0.2069137553	
613.75	-0.261328147	0.1247475705	
614.375	0.2208326479	0.531730871	
615.0	-0.07651696372	-0.08003894006	
615.625	0.1181242876	0.4711328402	
616.25	-0.0171659048	-0.03374900124	
616.875	-0.5279540724	0.5578583868	
617.5	0.1114407269	0.7011423444	
618.125	-0.2059894152	0.2007273205	
618.75	0.06421691909	0.7247026358	
619.375	0.2156615523	0.1837533314	
620.0	0.4498883035	0.344420916	
620.625	0.2031946697	-0.4316581331	
621.25	-0.04741362712	-0.4191319882	
621.875	-0.5615006116	-0.174177554	
622.5	-0.413004774	0.05240651614	
623.125	-0.1911028349	0.5698464256	
623.75	0.1581533102	-0.1188661554	
624.375	0.4965867012	0.06987002702	
625.0	-0.2399733477	-0.04523574208	
625.625	0.4738064897	-0.1287174974	
626.25	-0.4642322438	-0.4078626746	
626.875	0.06071731863	-0.1120539668	
627.5	-0.6418923124	-0.2704041814	
628.125	-0.1898105886	0.1123684054	
628.75	0.07254319529	-0.5267784998	
629.375	-0.5194851468	-0.2980294869	
630.0	-0.1463019803	-0.2771634261	
630.625	-0.6705954377	-0.02021774248	
631.25	-0.3723692568	0.5925055478	
631.875	-0.02912277654	0.5090023585	
632.5	0.1884246364	0.4280948346	
633.125	0.5914155578	0.2903651522	
633.75	0.3208696547	-0.2313409585	
634.375	0.2811382115	-0.1986921463	
635.0	-0.1842169648	-0.4967177771	
635.625	-0.08605223475	-0.2433231819	
636.25	-0.6072038339	0.1403337933	
636.875	0.07604356568	0.4004245796	
637.5	-0.2039377985	-0.1769110864	
638.125	-0.2201743321	0.7898783766	
638.75	0.08980393751	-0.03120185069	
639.375	-0.4327157859	0.6587911587	
640.0	0.597107692	0.7208518967	
640.625	0.3518985942	0.09643600908	
641.25	0.8640748251	0.4419529262	
641.875	0.2036618432	-0.6759856801	
642.5	0.2796583269	-0.2069173438	
643.125	-0.4114519768	-0.7426609699	
643.75	-0.2682772047	0.3527249637	
644.375	-0.344913965	-0.4846879741	
645.0	-0.5453809385	0.533652397	
645.625	0.3543915383	0.4738088006	
646.25	-0.041178863	0.08118596146	
646.875	0.7391781697	0.1482316438	
647.5	-0.341413291	-0.05245416065	
648.125	0.7421524917	0.399904711	
648.75	0.3697024772	-0.5886129954	
649.375	0.651173713	0.2034265658	
650.0	0.8051105707	-1.408623022	
650.625	-0.3757700307	-0.6044758937	
651.25	0.8430718733	0.1531041995	
651.875	1.092803783	-0.959737548	
652.5	0.009288486477	-0.3425094899	
653.125	0.9550236264	0.2542476173	
653.75	0.4755166332	-0.9950144919	
654.375	-0.0820613783	-0.2099435643	
655.0	-0.5741672216	-0.91034071	
655.625	-0.3713419398	0.920230819	
656.25	0.07861978636	-0.01958256389	
656.875	-0.07541303613	0.5386164785	
657.5	0.3193126738	-0.0568708992	
658.125	-0.110123792	0.6047112295	
658.75	1.054969737	0.1873198647	
659.375	0.5361987739	-0.3952173917	
660.0	0.6218477799	-0.26251861	
660.625	0.6727140403	-1.269975828	
661.25	-0.2570912209	-0.5510306357	
661.875	0.9075156196	-0.09010339743	
662.5	0.9374070058	-0.9036147809	
663.125	0.08185476991	-0.4908678575	
663.75	1.018913226	-0.3876354906	
664.375	-0.5724984655	-0.9506250531	
665.0	-0.07604435144	-0.4226864273	
665.625	-1.235003209	0.0306661754	
666.25	0.1246462783	0.7628678273	
666.875	-0.1120505484	0.3247406886	
667.5	0.5825905867	0.5226231912	
668.125	0.5199550808	-0.3084457871	
668.75	0.3053146411	-0.03935737794	
669.375	0.5284869942	-0.6794928405	
670.0	-0.2172802032	-0.3894004445	
670.625	0.2337365081	-0.4073536249	
671.25	0.08221143505	-0.6353795111	
671.875	0.1339596375	-0.1272286002	
672.5	0.794921332	-0.3206191848	
673.125	0.4613296946	-0.6905248553	
673.75	0.05121125761	-0.3010985973	
674.375	0.6178620937	-0.4230549974	
675.0	-0.5349760593	-1.076853089	
675.625	-0.003305451264	0.224045859	
676.25	-0.7901557935	-0.5908785002	
676.875	-0.2665046764	0.514000172	
677.5	-0.3680509899	-0.6569545256	
678.125	-0.3436138524	0.9791899198	
678.75	-0.09870741472	0.01201430173	
679.375	0.3619342173	0.6029149089	
680.0	0.7500087155	-0.4297612391	
680.625	-0.3351510675	-0.2393923162	
681.25	0.5640940392	0.2706553094	
681.875	0.4599566772	-0.08705516508	
682.5	0.3013374481	0.06655711402	
683.125	0.5261248507	0.5263303783	
683.75	0.8007622878	-0.130593293	
684.375	0.4107079813	0.1693406462	
685.0	0.8803500621	0.4860544826	
685.625	0.819547548	-0.6100653953	
686.25	0.1506994804	0.7001774809	
686.875	1.754048275	-0.8740313738	
687.5	-0.3657009489	-0.5074651938	
688.125	0.9281490435	-1.042959263	
688.75	-1.742735075	-0.6193407586	
689.375	-0.06243110414	0.07768383842	
690.0	-0.2034889926	1.598903533	
690.625	0.721894941	0.1468085575	
691.25	0.2753683695	0.9706136983	
691.875	1.594119844	0.7281904649	
692.5	1.205831483	0.34432354	
693.125	1.57351476	0.1717982905	
693.75	1.444142732	-0.5808211491	
694.375	1.143614042	-0.9424402708	
695.0	0.9708434023	-0.8802618826	
695.625	1.138230295	0.2314739121	
696.25	1.672701136	0.2420622442	
696.875	0.4495308043	0.5924063931	
697.5	0.908808064	2.053332596	
698.125	1.479282439	-0.1415314483	
698.75	1.372588208	-0.005023034494	
699.375	-1.334095641	-1.60619971	
700.0	0.06209394382	0.6461970203	
700.625	-0.3230807495	1.338794653	
701.25	0.7863574639	0.1085685708	
701.875	0.2038589671	0.7744152094	
702.5	1.44428453	0.5308098125	
703.125	0.5715331821	0.2734085193	
703.75	1.29973795	-0.1338197481	
704.375	0.2600951045	-0.7045224834	
705.0	0.8370166852	0.1454025074	
705.625	0.7977045886	-0.6905907034	
706.25	0.07085774535	0.5078352803	
706.875	0.8864943106	1.274987913	
707.5	0.6657779669	0.2718645452	
708.125	1.054578391	1.060618465	
708.75	0.8482483368	-1.290889415	
709.375	-0.2780924425	-0.4277839269	
710.0	-0.9790738578	0.4299417115	
710.625	0.4520497706	0.2371361498	
711.25	0.02020720153	0.4586100492	
711.875	0.5567818428	0.2168755385	
712.5	0.8450121886	0.1302801652	
713.125	0.4875732914	-0.6160902265	
713.75	0.4672207521	-0.2930490322	
714.375	0.02408634661	-0.879364526	
715.0	-0.1874493198	-0.05575702517	
715.625	0.5076412726	-0.9374319732	
716.25	-0.4057110012	-0.6539546264	
716.875	1.00528862	0.4224102134	
717.5	2.422666545	-0.3925847327	
718.125	0.2225120188	-1.004473129	
718.75	3.084402822	1.875413502	
719.375	2.083610928	-2.692065695	
720.0	0.8347810609	-1.092177348	
720.625	2.484502104	-2.893990841	
721.25	-1.360137371	-2.407968899	
721.875	0.6833181913	-2.667710509	
722.5	-1.794719306	-2.624112529	
723.125	-2.042891269	0.1889383961	
723.75	-0.9859289137	0.3607555299	
724.375	-0.1698577517	1.588325006	
725.0	0.669121714	0.7135237326	
725.625	0.1317772125	0.7176369882	
726.25	-0.5297937101	2.094456226	
726.875	1.330537861	2.840857605	
727.5	-2.15616102	1.674579722	
728.125	-0.9168128988	8.973938203	
728.75	3.469747006	4.952401917	
729.375	-10.05017903	4.456563711	
730.0	5.048131159	18.15215222	
730.625	2.608964482	0.3601004436	
731.25	-11.7970295	7.732942559	
731.875	-10.20147564	14.68754579	
732.5	-1.988030308	1.514270583	
733.125	-9.42074545	-2.734905816	
733.75	-2.128612697	3.962599664	
734.375	0.9347353796	0.6044856109	
735.0	1.266388216	-2.464114058	
735.625	-0.6261954519	1.158608958	
736.25	-1.050044226	0.777628774	
736.875	1.214109608	2.13394906	
737.5	3.701648256	-0.0283170188	
738.125	0.7491432691	-1.567577274	
738.75	8.756097088	-0.1216008663	
739.375	6.044855125	-12.74879883	
740.0	-3.647073955	2.560194241	
740.625	24.23224719	15.50861704	
741.25	10.07438116	-13.84278992	
741.875	-19.48468355	-15.66337184	
742.5	-18.41605697	-11.24778067	
743.125	0.9189408977	2.855205769	
743.75	2.985288471	-4.715100317	
744.375	-2.37676001	0.5230257695	
745.0	0.0486154246	-0.2341199786	
745.625	0.356501491	0.05993966188	
746.25	-0.04959998814	-0.1454332162	
746.875	-0.4624876408	-0.1474217446	
747.5	0.07735155343	0.9254475264	
748.125	0.1284312647	1.423835582	
748.75	0.3755765357	1.791380306	
749.375	0.993348084	1.008660275	
750.0	0.1263373031	1.953569882	
