!Created with skrf (http://scikit-rf.org).
# GHz S RI R (50+0j) 
!freq	ReS11	ImS11	
500.0	0.5553871031	-0.7156240667	
500.625	0.1457204966	-1.265800598	
501.25	-0.02868581341	-0.1191675166	
501.875	-0.2500968383	-0.6930961538	
502.5	-0.06547875345	-0.07158484285	
503.125	-0.04679199542	-0.02739069163	
503.75	0.02471575993	0.1129485781	
504.375	-0.01068417447	0.01047168757	
505.0	0.0491446872	-0.02514154639	
505.625	-0.04264638067	-0.03214571641	
506.25	0.04032638669	-0.09337991873	
506.875	-0.1240016856	0.2425168572	
507.5	0.233319196	-0.1563897361	
508.125	0.1308684653	-0.8535388011	
508.75	0.05961727454	-0.8734464343	
509.375	0.2158082833	-0.9089714488	
510.0	-0.6588890732	-0.3685717909	
510.625	-0.08239795627	-0.005261033628	
511.25	-0.03636976215	-0.1070297414	
511.875	-0.1425294262	-0.01256755907	
512.5	0.004412801542	0.01282035928	
513.125	0.02190261958	-0.08455019368	
513.75	-0.08140729152	-0.003346542977	
514.375	0.03887827836	-0.02437108746	
515.0	-0.1720476405	-0.1481823356	
515.625	0.459121725	-0.1228090244	
516.25	-0.5238409377	-0.8580827881	
516.875	-0.2807574346	-0.0970467824	
517.5	0.10728069	-0.1213663488	
518.125	-0.06616035313	0.006433573285	
518.75	0.02698792235	-0.1442900502	
519.375	-0.07286297958	0.03534910862	
520.0	0.1188966835	0.01315016132	
520.625	0.09328276976	-0.02900576648	
521.25	0.02253053892	-0.2174712117	
521.875	-0.1901902284	0.02149367312	
522.5	0.0160253287	-0.0114888123	
523.125	-0.154124737	0.0338245378	
523.75	-0.00267474823	0.0670017717	
524.375	-0.1951245079	-0.1384846101	
525.0	0.02116706006	0.2447872773	
525.625	0.01316967144	-0.04679113239	
526.25	0.05429612981	0.03027114766	
526.875	-0.049590138	-0.02754133928	
527.5	-0.1155902344	0.2364757299	
528.125	0.1650950221	0.17379859	
528.75	-0.02675879666	0.2035382918	
529.375	0.07329481338	0.08740699085	
530.0	0.0515254984	0.1353240838	
530.625	0.008519889499	0.3760248849	
531.25	0.5040185814	0.2223047496	
531.875	0.1195790418	-0.07707086671	
532.5	0.01731514102	-0.1846750932	
533.125	-0.06043785775	0.04731609669	
533.75	0.2539812545	-0.1250510123	
534.375	-0.1523417367	-0.221452429	
535.0	-0.1179770397	-0.1056298172	
535.625	-0.208088072	0.0794934775	
536.25	0.03615370812	0.08539614141	
536.875	0.04906847381	0.04098906321	
537.5	0.07903030342	-0.05858800164	
538.125	0.03861488153	-0.05078390876	
538.75	0.1201274783	-0.09666326239	
539.375	-0.1191979018	-0.1432596429	
540.0	-0.08816147849	-0.07356188793	
540.625	-0.1590779625	-0.08738166583	
541.25	-0.1383774735	-0.01875627113	
541.875	0.0006708132648	-0.01496917651	
542.5	-0.04538310141	-0.1302747163	
543.125	-0.03079002566	0.002435760196	
543.75	-0.03156657423	-0.1269177279	
544.375	-0.03698443524	0.09071184088	
545.0	-0.03597387099	0.01664762489	
545.625	0.08268109618	0.1048163314	
546.25	0.06373382668	-0.02731440905	
546.875	0.121514291	0.03424953526	
547.5	0.04211457461	-0.1571398134	
548.125	-0.03141204744	-0.08998868474	
548.75	-0.07245370849	-0.1559259332	
549.375	-0.1458075718	-0.04918834895	
550.0	-0.0222492794	-0.002445250707	
550.625	-0.08487627511	0.00704976608	
551.25	-0.03793105979	0.03521024259	
551.875	-0.0867854475	0.04220721795	
552.5	-0.02409635913	0.08814335397	
553.125	-0.020949669	0.0389212263	
553.75	0.04445652152	0.06237928839	
554.375	0.07903832498	-0.006735954833	
555.0	0.09390517849	-0.05762010508	
555.625	0.0833517282	-0.1033891491	
556.25	0.05640136802	-0.1265681297	
556.875	-0.02553211257	-0.1424341471	
557.5	-0.08986339365	-0.09887889605	
558.125	-0.1084051958	-0.03308691985	
558.75	-0.09493733039	-0.002537193044	
559.375	-0.107184707	0.01356821631	
560.0	-0.08533491375	0.07814423988	
560.625	-0.04270728581	0.083734706	
561.25	-0.01128258235	0.1130794525	
561.875	0.0467557817	0.02270273324	
562.5	-0.01837202025	0.06647500169	
563.125	0.09478765451	0.0524776603	
563.75	0.08288698278	0.006577093745	
564.375	0.1562960758	-0.07903477993	
565.0	0.02967913516	-0.1492208057	
565.625	0.003624213865	-0.1014330805	
566.25	-0.1331035607	-0.1745951961	
566.875	-0.1118769708	-0.01170224465	
567.5	-0.06853016241	-0.1406498723	
568.125	-0.2265687911	-0.1511878125	
568.75	-0.1441406448	-0.03500671028	
569.375	-0.311316456	0.01959017818	
570.0	-0.06985564548	0.2546983644	
570.625	-0.02924204793	0.06013431795	
571.25	-0.05473938249	0.1671815623	
571.875	0.09563127181	-0.02966631961	
572.5	0.09570651832	0.09286096207	
573.125	0.09542575696	-0.1989190832	
573.75	-0.03427265837	-0.05276980261	
574.375	0.1058907302	-0.06812163825	
575.0	-0.0543873264	-0.07156047812	
575.625	0.09023617371	0.001210220533	
576.25	0.06365175812	-0.1880747373	
576.875	-0.068019703	-0.07766204875	
577.5	0.07673977894	-0.1164460303	
578.125	-0.08206209076	-0.2532708937	
578.75	-0.1203248337	-0.00620962149	
579.375	0.02121812806	-0.1162978718	
580.0	-0.1724144352	-0.04558459153	
580.625	0.09930683159	-0.0372403786	
581.25	-0.2057128981	0.08786418557	
581.875	0.1374636473	0.0873010028	
582.5	-0.03607364291	0.04920692319	
583.125	0.06544392748	0.1700821183	
583.75	0.06731521503	-0.08290356461	
584.375	0.007599754047	0.1756558236	
585.0	0.1695396805	-0.01083601221	
585.625	0.05147065979	0.01564010391	
586.25	0.2181869281	-0.009852970269	
586.875	-0.007849066646	-0.1494575344	
587.5	0.03667529242	-0.06105936779	
588.125	0.0007085898384	-0.2028411987	
588.75	-0.0542971305	-0.1149373502	
589.375	0.1548546015	-0.0331460278	
590.0	-0.1094740382	-0.2372608778	
590.625	-0.1159977831	0.02329440792	
591.25	-0.1685899292	0.003171749844	
591.875	-0.01040229637	0.248056369	
592.5	0.03022929057	-0.06399384503	
593.125	-0.04227936678	0.1386690612	
593.75	0.04412503776	0.0203751268	
594.375	0.1370492724	0.1931765167	
595.0	0.251577173	0.07248004305	
595.625	0.08215744207	-0.002696339685	
596.25	0.169406593	0.1177472823	
596.875	0.1661220412	-0.04190009585	
597.5	0.05478429386	0.05466065261	
598.125	0.1558744709	0.1887238345	
598.75	0.1851061461	-0.0002228398297	
599.375	0.1742014347	-0.0009861361284	
600.0	0.2105835557	-0.1413240824	
600.625	0.06693195547	-0.2160585614	
601.25	0.06652591026	-0.08159241878	
601.875	-0.08588404814	-0.2388363389	
602.5	-0.1100986163	0.07331426032	
603.125	-0.08047175817	-0.04541396258	
603.75	-0.1273508579	0.2282073464	
604.375	0.01774112111	0.0556513404	
605.0	-0.1768497161	0.0980081598	
605.625	-0.0001069770989	0.147766494	
606.25	-0.08898890546	-0.02415820539	
606.875	-0.2659497682	0.1021573632	
607.5	-0.1158781812	0.1184025315	
608.125	-0.090523471	0.178976373	
608.75	0.1674774925	0.1601725843	
609.375	0.1809775283	-0.1053924289	
610.0	0.1198887349	-0.08047242476	
610.625	0.1101276038	-0.2154316647	
611.25	-0.0687837236	-0.1093647421	
611.875	0.002658550977	-0.1652167875	
612.5	-0.2767886089	-0.05788243443	
613.125	-0.05599537787	0.0452347836	
613.75	-0.1799889568	0.08601795318	
614.375	0.1623160411	0.1215735769	
615.0	-0.08178899288	-0.004646351005	
615.625	0.03743355927	0.1997270999	
616.25	0.02124718164	0.03400768503	
616.875	-0.1024783406	0.231796769	
617.5	-0.008195051383	0.1776068587	
618.125	0.03668721607	0.1160931467	
618.75	-0.06353797739	0.2001424308	
619.375	0.02944382875	0.1914577629	
620.0	0.2222816296	-0.03199753748	
620.625	0.1472591353	-0.106682554	
621.25	-0.1665719544	-0.1897842526	
621.875	-0.1288849469	-0.008582311249	
622.5	-0.214546191	-0.05582273258	
623.125	0.002401324306	0.2475981253	
623.75	0.06416677824	-0.01698014103	
624.375	0.1190922873	-0.003245038042	
625.0	-0.04541539031	-0.03754885516	
625.625	0.1049707489	-0.05054931982	
626.25	-0.1047288221	-0.1757555136	
626.875	-0.08247479704	-0.01490554519	
627.5	-0.1233023772	-0.1299482143	
628.125	-0.1162588575	-0.06760721234	
628.75	-0.02575799239	-0.08466850638	
629.375	-0.07217736105	-0.2113174926	
630.0	-0.2133805212	-0.06232687653	
630.625	-0.09137612966	0.1332058344	
631.25	-0.1707241594	0.1636569551	
631.875	0.01831784483	0.2791844139	
632.5	0.07718824302	0.1355309973	
633.125	0.1961872563	0.2048799755	
633.75	0.1457600125	-0.1349457248	
634.375	0.07812098023	-0.05549992206	
635.0	0.0001442222896	-0.2498333591	
635.625	-0.141769932	-0.001585583267	
636.25	-0.1140621816	-0.04372944373	
636.875	-0.1055215054	0.1975223846	
637.5	0.0336487789	0.03338786634	
638.125	-0.1496246758	0.07260322279	
638.75	-0.008695680417	0.2213270105	
639.375	-0.04259768719	0.1330327553	
640.0	0.1027645786	0.3271089265	
640.625	0.284915041	0.09122644488	
641.25	0.168941242	-0.03715292796	
641.875	0.2464107078	-0.1207376759	
642.5	-0.09103994935	-0.2800663153	
643.125	-0.02324834018	-0.07394767677	
643.75	-0.1814087576	-0.2949627867	
644.375	-0.1518921379	0.1541250386	
645.0	-0.1847585264	-0.002773143129	
645.625	0.09552516636	0.3468723142	
646.25	0.1223658052	-0.1332203954	
646.875	0.04413549365	0.1182051438	
647.5	0.1479489776	-0.08852612323	
648.125	-0.01180888697	0.1567113975	
648.75	0.4057693169	-0.08578976197	
649.375	0.06741796434	-0.2778316603	
650.0	0.1707121247	-0.1225885647	
650.625	0.291633096	-0.3819400036	
651.25	0.01911686291	-0.2590345828	
651.875	0.2299684244	0.02604686349	
652.5	0.3743335489	-0.1280251445	
653.125	0.1342968773	-0.1799449043	
653.75	0.2358436781	-0.03930850377	
654.375	-0.06546990273	-0.4203907061	
655.0	-0.2105257892	0.005441639855	
655.625	-0.1941394152	-0.08515088725	
656.25	0.02880883451	0.332140478	
656.875	0.01180849783	-0.1782961153	
657.5	-0.006280386679	0.2765482315	
658.125	0.2121710595	0.06289060932	
658.75	0.1113478833	0.1114899541	
659.375	0.5208268435	-0.1161401371	
660.0	0.06529298446	-0.3489761454	
660.625	0.1535233194	-0.166050002	
661.25	0.2516140905	-0.3257585151	
661.875	0.07621599873	-0.3239132186	
662.5	0.2184845146	-0.01696834813	
663.125	0.3542391271	-0.2550437576	
663.75	0.04617371754	-0.2483723109	
664.375	0.07038375718	-0.2572708031	
665.0	-0.3044492669	-0.2842909742	
665.625	-0.223132285	0.1803979425	
666.25	-0.1766350038	0.1123373091	
666.875	0.1330949848	0.2897893574	
667.5	0.1417758587	-0.03166783793	
668.125	0.2355898859	0.205637274	
668.75	0.180800271	-0.2813167012	
669.375	0.02679533571	-0.05376137324	
670.0	0.1488019221	-0.2341078879	
670.625	-0.1691649916	-0.2366341113	
671.25	0.06082840926	-0.01691402938	
671.875	0.1768855879	-0.2932014515	
672.5	0.102965579	-0.1853821738	
673.125	0.157560914	-0.05016107416	
673.75	0.2826274655	-0.2615468972	
674.375	-0.07213693873	-0.2371696377	
675.0	0.0396377398	-0.1711840337	
675.625	-0.2355216514	-0.2008920705	
676.25	-0.1608766152	0.07364755347	
676.875	-0.06714604557	-0.1121262025	
677.5	-0.2467503171	0.07935461078	
678.125	0.01349729684	0.1026935001	
678.75	-0.1121540704	0.1906661331	
679.375	0.4610195597	0.09474197214	
680.0	-0.07185239621	-0.1287507208	
680.625	0.1665977854	0.04155681957	
681.25	0.06381086572	-0.2155357933	
681.875	-0.0666809615	0.2228274516	
682.5	0.3650444259	0.157682067	
683.125	0.1364339449	-0.1597705234	
683.75	0.2115266852	0.227535801	
684.375	0.396419783	0.1155102751	
685.0	0.146471686	-0.1094207548	
685.625	0.1789708872	0.2270609899	
686.25	0.4505604704	-0.1067270565	
686.875	0.1239073792	-0.1502562264	
687.5	0.3363548221	-0.1954293265	
688.125	-0.05613088806	-0.5680641796	
688.75	-0.2740271185	-0.01850838666	
689.375	-0.3939882969	0.1265138706	
690.0	0.1686878969	0.4899646942	
690.625	0.1519189637	0.04235463084	
691.25	0.2270878271	0.465528052	
691.875	0.5509677141	-0.03061666142	
692.5	0.3001555177	0.250781341	
693.125	0.8524174187	0.01401955907	
693.75	0.4836499089	-0.476207194	
694.375	0.3400628549	-0.1006096988	
695.0	0.6210338541	-0.2607883388	
695.625	0.3304923388	-0.07062968576	
696.25	0.2907143721	0.1706897383	
696.875	0.4021593615	0.5486467186	
697.5	0.3335674796	0.3966843214	
698.125	0.3549166614	0.3217669959	
698.75	0.5548450262	-0.337798562	
699.375	-0.4599446832	-0.3214155438	
700.0	-0.1950713736	0.08488346448	
700.625	0.0004638772545	0.4547812639	
701.25	0.2254084731	0.02802805354	
701.875	0.1043637003	0.2628109961	
702.5	0.4569289053	0.2985168592	
703.125	0.2705740769	-0.04874439984	
703.75	0.4101190905	0.01534882875	
704.375	0.3479484968	-0.2887583971	
705.0	0.1061410832	-0.1078064122	
705.625	0.2426370424	0.185751941	
706.25	0.1447071132	0.1386589298	
706.875	0.09753037841	0.2445679994	
707.5	0.1613429924	0.4447651458	
708.125	0.4560223225	0.1574839969	
708.75	0.1958998107	-0.4291091432	
709.375	-0.137883601	-0.3223760476	
710.0	-0.2039067211	0.2574424965	
710.625	0.1507433088	-0.02425825527	
711.25	0.003235684438	0.2933229626	
711.875	0.2309610569	-0.02221927053	
712.5	0.225321355	0.1101678413	
713.125	0.3287742447	-0.1874444265	
713.75	0.02131801471	-0.2519020261	
714.375	0.08162091533	-0.13875643	
715.0	-0.04013330083	-0.3017134271	
715.625	-0.04815113042	-0.1433131577	
716.25	0.2494004684	-0.1231963729	
716.875	0.3345631532	-0.1539192965	
717.5	0.2886547708	-0.02180657447	
718.125	0.6159603729	0.2885133061	
718.75	0.8392865819	-0.03928418862	
719.375	0.4871857232	-0.4721813235	
720.0	0.6655809381	0.2057677503	
720.625	0.2067063987	-1.12480043	
721.25	-0.07907238388	-0.2457115044	
721.875	0.2552446109	-1.219512865	
722.5	-0.8387560887	-0.7360045531	
723.125	-0.3986329035	-0.1314260687	
723.75	-0.6577845032	0.3470951725	
724.375	0.2285465785	0.4270679356	
725.0	0.02352984301	0.2171889181	
725.625	0.1427756085	0.6046924313	
726.25	0.3015255917	0.5101816115	
726.875	-0.2784054598	0.5897975216	
727.5	-0.3898969047	1.466888917	
728.125	0.4369487932	1.577878815	
728.75	-0.6697651241	1.426334851	
729.375	-1.435747588	3.793521203	
730.0	0.9618634461	3.324309492	
730.625	-0.3031775235	1.357420437	
731.25	-2.243003957	3.678314896	
731.875	-0.0243030437	4.037253639	
732.5	-2.640980738	-0.3925476534	
733.125	-3.358496671	0.4745285264	
733.75	-0.2130459248	1.410491396	
734.375	0.005395817053	0.6775741459	
735.0	0.01960222086	-1.106036972	
735.625	-0.1296399804	0.1907611416	
736.25	-0.3851482334	0.4470674053	
736.875	0.6340599678	0.5629549994	
737.5	0.4928432306	-0.2178484014	
738.125	1.497956953	0.6186968829	
738.75	1.777834524	-1.818672809	
739.375	0.4101677633	-1.531101932	
740.0	2.798045532	1.084093262	
740.625	5.790258343	-0.8984033484	
741.25	-0.4043684421	-1.730654618	
741.875	-4.538837714	-1.150432991	
742.5	-2.957584588	-1.105665932	
743.125	0.6907823543	0.06380493362	
743.75	0.5741236116	-1.407580112	
744.375	-0.4217019265	0.04306410936	
745.0	-0.0468950064	-0.006128020027	
745.625	0.1758592757	-0.1290088579	
746.25	0.0341223945	-0.003738225611	
746.875	-0.2876003724	-0.0741826567	
747.5	0.01640368803	0.357916529	
748.125	0.05433794635	0.3054206791	
748.75	0.1531698891	0.4973822629	
749.375	0.216487176	0.4297829952	
750.0	-0.2730077146	0.08007685139	
