!Created with skrf (http://scikit-rf.org).
# GHz S RI R (50+0j) 
!freq	ReS11	ImS11	
500.0	0.8655975902	-1.558979811	
500.625	1.678266353	-3.732799678	
501.25	-2.301748284	-2.705657495	
501.875	-0.7718321721	0.02230572283	
502.5	-0.02976625778	-0.6113130868	
503.125	-0.1530992734	0.2594684596	
503.75	-0.1568145646	0.1439012391	
504.375	0.1200973736	-0.1066710083	
505.0	0.05552285714	0.09796544447	
505.625	-0.1141427368	-0.3790388693	
506.25	0.08639062775	0.2650048269	
506.875	-0.9992989677	-0.6075270704	
507.5	-1.647246821	-0.1839623947	
508.125	1.323886612	-0.6065093355	
508.75	2.290195321	-4.669973634	
509.375	-2.254476154	-1.315848262	
510.0	-1.088063313	-2.280425167	
510.625	-1.250215516	-0.1814403264	
511.25	-0.1686070513	-0.2420350398	
511.875	-0.5932356708	-0.08983256361	
512.5	0.05698889483	0.1499851163	
513.125	0.02592268857	-0.1599316605	
513.75	-0.1373953545	-0.3316400042	
514.375	-0.5815372276	0.3026233529	
515.0	1.130979046	-1.051393546	
515.625	-1.614015323	0.2432696675	
516.25	1.61409808	-2.198611671	
516.875	-2.342684898	-1.720684361	
517.5	0.02589869418	0.4454317104	
518.125	-0.2931873876	-0.4205164755	
518.75	0.0508831231	0.2103450988	
519.375	-0.2980005417	0.09449994529	
520.0	0.4866368182	0.02318866813	
520.625	0.2239791318	-0.1352257919	
521.25	0.2344775044	-0.9418849578	
521.875	-0.4023753412	0.2273381378	
522.5	-0.1171730181	-0.09567494671	
523.125	0.01959866369	0.2482218229	
523.75	-0.3868842754	-0.2576839229	
524.375	-0.1237396636	0.419210787	
525.0	-0.3313756208	0.1159854595	
525.625	0.3049968788	0.2846053874	
526.25	-0.2928533289	-0.06163964581	
526.875	0.07285009351	0.1662986598	
527.5	-0.3818799744	0.2472320726	
528.125	0.3967096843	1.114398608	
528.75	0.1967647552	0.1634014111	
529.375	0.1921045786	0.3958728694	
530.0	-0.1291230372	0.02174607624	
530.625	0.6749708853	1.398284051	
531.25	0.5383869745	-0.1747930824	
531.875	0.9743132811	-0.30349514	
532.5	-0.5904409231	-0.04245617631	
533.125	0.5678200935	-0.3984935631	
533.75	-0.2919957527	-0.241171999	
534.375	0.1855486133	-1.17957747	
535.0	-0.9142217693	0.2869595786	
535.625	-0.2699975225	0.05100614937	
536.25	-0.06739438218	0.318703201	
536.875	0.2587088047	-0.1005006803	
537.5	0.1880676183	0.03657029238	
538.125	0.2948332687	-0.3150624025	
538.75	0.1929220129	-0.1045481891	
539.375	-0.1524397101	-0.5840645425	
540.0	-0.5066755625	-0.08441257204	
540.625	-0.2406266384	-0.17084797	
541.25	-0.2571689636	-0.01176672535	
541.875	-0.1785529783	0.009000875757	
542.5	0.03493191063	-0.07398734433	
543.125	-0.3468868869	-0.2103031664	
543.75	-0.02394003677	0.1826618362	
544.375	-0.2876554382	0.03987633533	
545.0	0.1807687214	0.1018685231	
545.625	-0.08415963163	0.2703071299	
546.25	0.4544586119	-0.09246407288	
546.875	0.01775347936	0.07687414853	
547.5	0.4033107441	-0.3795608898	
548.125	-0.3219329144	-0.3366071137	
548.75	-0.09721924706	-0.1897544463	
549.375	-0.3279535086	-0.303443177	
550.0	-0.1171994938	0.1679647606	
550.625	-0.2033973764	-0.1208146428	
551.25	-0.08698882946	0.1977471516	
551.875	-0.2089830759	0.04305593005	
552.5	-0.1116978988	0.2975091441	
553.125	0.0006040910306	0.1087779032	
553.75	0.1017453977	0.1366061736	
554.375	0.2385726318	-0.02991577838	
555.0	0.2010238509	-0.1562042059	
555.625	0.203757703	-0.25461261	
556.25	0.1341574211	-0.3460619215	
556.875	-0.09142909516	-0.3681358085	
557.5	-0.2257582226	-0.2387917652	
558.125	-0.2850846372	-0.0843712955	
558.75	-0.2367558803	0.01216453112	
559.375	-0.2459578401	0.01272434358	
560.0	-0.2424184908	0.2102523639	
560.625	-0.0543479416	0.2337302926	
561.25	-0.056688218	0.2195068846	
561.875	0.1632353708	0.09637273817	
562.5	-0.0877094068	0.1130029297	
563.125	0.2868092599	0.1302793582	
563.75	0.1579563596	0.03221988921	
564.375	0.4327408105	-0.2102966374	
565.0	0.02650107852	-0.4304080038	
565.625	-0.007629214192	-0.2262957608	
566.25	-0.2360860789	-0.3664161625	
566.875	-0.4220588719	-0.04395858232	
567.5	-0.1441365705	-0.2421818577	
568.125	-0.4522132819	-0.5245545927	
568.75	-0.439165874	0.019656175	
569.375	-0.6200190258	-0.01245561426	
570.0	-0.220845012	0.7133952487	
570.625	0.05340978484	0.1713543436	
571.25	-0.3589447379	0.3835133143	
571.875	0.4022240139	-0.108225035	
572.5	0.1586444493	0.3387903987	
573.125	0.3127557625	-0.539882638	
573.75	-0.1957154107	-0.1105715322	
574.375	0.3630100486	-0.1502304968	
575.0	-0.2584416306	-0.1848483544	
575.625	0.3329495515	-0.006844788256	
576.25	0.09332673267	-0.5366187525	
576.875	-0.1880683178	-0.0698333194	
577.5	0.2921713893	-0.3424624424	
578.125	-0.2603840636	-0.5516430324	
578.75	-0.2339504602	-0.07803451156	
579.375	0.009408225065	-0.2635033443	
580.0	-0.3599803831	-0.069587696	
580.625	0.1187946358	-0.1153591675	
581.25	-0.4742691509	0.2474924766	
581.875	0.3035280642	0.3434424448	
582.5	-0.09220183721	0.005026132971	
583.125	0.07967882329	0.6422774917	
583.75	0.2217939678	-0.4454437837	
584.375	-0.03269833747	0.5462182632	
585.0	0.4420516429	-0.2325502346	
585.625	0.08979999448	0.3261265105	
586.25	0.6590453327	-0.3700285987	
586.875	-0.1221159446	-0.1399854144	
587.5	0.2699608447	-0.3460130754	
588.125	-0.2305667301	-0.5197025587	
588.75	-0.1280502159	-0.05851838894	
589.375	0.4756370239	-0.2992828571	
590.0	-0.2769231927	-0.4653941523	
590.625	-0.2795222899	-0.0191903117	
591.25	-0.3938672468	0.140584517	
591.875	0.01129612884	0.4114554231	
592.5	-0.09482761272	0.01424308704	
593.125	0.02996389271	0.1741312442	
593.75	0.00137153365	0.1462163122	
594.375	0.3395961553	0.5341876341	
595.0	0.7531898219	0.05793732627	
595.625	-0.06007388024	0.04773365419	
596.25	0.5671225141	0.4936006978	
596.875	0.3363130762	-0.3207212015	
597.5	0.1004293614	0.4499149472	
598.125	0.6665532441	0.1629868619	
598.75	0.05253458252	0.1462632922	
599.375	0.847218485	0.02855518026	
600.0	0.1174398841	-0.4483394826	
600.625	0.3159457522	-0.1624408286	
601.25	0.3482681103	-0.4890744672	
601.875	-0.3074803184	-0.2864256557	
602.5	-0.2516168295	-0.07901278755	
603.125	-0.2091865962	0.06472828788	
603.75	-0.3650720452	0.1932351935	
604.375	-0.04017852061	0.1790109756	
605.0	-0.3047008155	0.08637652273	
605.625	-0.0366392952	0.2875222395	
606.25	-0.2976093964	-0.1167570511	
606.875	-0.5111056267	0.523593498	
607.5	-0.1166414633	0.0940142	
608.125	-0.4916297279	0.7973609046	
608.75	0.6838944047	-0.0142443874	
609.375	0.3516485757	0.2976312207	
610.0	0.5772781041	-0.5054025637	
610.625	-0.1039479268	-0.1267086088	
611.25	0.2828628068	-0.6264677984	
611.875	-0.2998119092	-0.003367250994	
612.5	-0.2354688097	-0.3894346838	
613.125	-0.5948235876	0.375902999	
613.75	-0.1814219358	-0.03364902973	
614.375	0.1769349601	0.5345409987	
615.0	-0.03669457162	-0.2139640478	
615.625	0.07000010331	0.6122186772	
616.25	0.07840953802	-0.0212331676	
616.875	-0.5171921275	0.4797910756	
617.5	0.1268322123	0.7023611413	
618.125	-0.1408829761	0.1507878469	
618.75	0.0813118652	0.691458532	
619.375	0.2536843729	0.1537410161	
620.0	0.4243349491	0.2725381287	
620.625	0.1190490473	-0.4182436879	
621.25	-0.07282392049	-0.4111092762	
621.875	-0.5490178817	-0.1246462481	
622.5	-0.3642036503	0.07042967416	
623.125	-0.1755139123	0.5793778909	
623.75	0.1804093847	-0.1699908416	
624.375	0.4249950162	0.07367160305	
625.0	-0.3116029686	-0.07631603229	
625.625	0.4624419462	-0.1002192089	
626.25	-0.4550834379	-0.4267837589	
626.875	0.05511020364	-0.02309010446	
627.5	-0.5710634193	-0.3245444382	
628.125	-0.2511293446	0.1141974077	
628.75	0.08150959853	-0.4458333874	
629.375	-0.53683347	-0.2981580004	
630.0	-0.1401491763	-0.2129242728	
630.625	-0.6338804762	0.05023223082	
631.25	-0.2950857893	0.6062244672	
631.875	0.03944221351	0.4588893225	
632.5	0.2367617781	0.3622946597	
633.125	0.5518012952	0.2509419454	
633.75	0.2767330107	-0.333848975	
634.375	0.2113300294	-0.147166048	
635.0	-0.1813477124	-0.5241876231	
635.625	-0.05696849957	-0.1051419922	
636.25	-0.5651258569	0.1651193978	
636.875	0.09258475943	0.389656045	
637.5	-0.1771262261	-0.1552008691	
638.125	-0.1995129016	0.7483187777	
638.75	0.1376714914	-0.05210429327	
639.375	-0.3766894829	0.6414908506	
640.0	0.6358766542	0.6677027827	
640.625	0.4286158474	0.02097071806	
641.25	0.6792573911	0.3937249987	
641.875	0.1774354269	-0.7211635423	
642.5	0.1812342644	-0.1684736231	
643.125	-0.4283478813	-0.6353746143	
643.75	-0.2464369018	0.3749157252	
644.375	-0.3493889871	-0.4463127365	
645.0	-0.4479394689	0.5901066929	
645.625	0.3604625117	0.3940818434	
646.25	0.02186329191	0.0005396492072	
646.875	0.6689853751	0.2439447342	
647.5	-0.3238193228	-0.1857065447	
648.125	0.6689824111	0.4117586498	
648.75	0.4074185704	-0.6568986542	
649.375	0.4350483267	0.1739005385	
650.0	0.7748525272	-1.313116406	
650.625	-0.4181201758	-0.633748686	
651.25	0.7141475559	0.1518099449	
651.875	1.018149781	-0.9840598412	
652.5	-0.04822751587	-0.4157726892	
653.125	0.8646542434	0.1527500047	
653.75	0.3126689785	-1.023640275	
654.375	-0.1949760603	-0.1658194454	
655.0	-0.5869722496	-0.7233837777	
655.625	-0.2972632299	0.9543151771	
656.25	0.125825055	-0.03624008425	
656.875	-0.05092852926	0.4853551538	
657.5	0.346259433	-0.0411955354	
658.125	-0.07327949789	0.4753814446	
658.75	1.030283241	0.1252953182	
659.375	0.4528329894	-0.4580963882	
660.0	0.4719437548	-0.3313049303	
660.625	0.5862930506	-1.173760772	
661.25	-0.307901275	-0.5857244386	
661.875	0.7710253572	-0.1105604835	
662.5	0.8377256986	-0.9250489298	
663.125	0.01444893266	-0.5707389546	
663.75	0.7975422547	-0.3333941011	
664.375	-0.6299083954	-0.9475318122	
665.0	-0.1512929306	-0.2465701282	
665.625	-1.122705365	0.1058024058	
666.25	0.2378472193	0.7315151396	
666.875	-0.0936282941	0.3106349497	
667.5	0.6056529551	0.3960441839	
668.125	0.4732121434	-0.3556136611	
668.75	0.2429285106	-0.08678232632	
669.375	0.4465248608	-0.6266394106	
670.0	-0.2913589992	-0.4475079979	
670.625	0.1584725796	-0.3390662682	
671.25	0.1064487281	-0.5928090999	
671.875	0.045497835	-0.2109726189	
672.5	0.6912714991	-0.326891952	
673.125	0.350314943	-0.6671140076	
673.75	0.005398343546	-0.3270468096	
674.375	0.4904598924	-0.4245353002	
675.0	-0.5860195781	-0.9828246208	
675.625	-0.09483705399	0.3385735634	
676.25	-0.7128648295	-0.5428549674	
676.875	-0.2632570703	0.5500615887	
677.5	-0.2684197465	-0.5313285198	
678.125	-0.2783686851	0.9909215199	
678.75	0.01973205189	-0.05054787545	
679.375	0.4186387759	0.4998366165	
680.0	0.6244618845	-0.5015403407	
680.625	-0.3526427857	-0.1791987119	
681.25	0.5468871864	0.2707559713	
681.875	0.4205165504	-0.1472578323	
682.5	0.3363425992	0.06038504106	
683.125	0.4418854911	0.3990555007	
683.75	0.8261066467	-0.1082326535	
684.375	0.3611937913	0.0511588506	
685.0	0.7629184005	0.3799792538	
685.625	0.8156254439	-0.5953001787	
686.25	0.07382888888	0.4915348019	
686.875	1.552845453	-0.8938177462	
687.5	-0.5160885183	-0.5706206736	
688.125	0.6702342928	-0.9949963484	
688.75	-1.816494265	-0.2881568084	
689.375	0.1381611719	0.2706661606	
690.0	-0.06554635871	1.511379892	
690.625	0.7620354448	-0.0503988039	
691.25	0.2535965746	0.8892153542	
691.875	1.607834182	0.6051454713	
692.5	1.003132048	0.2122929856	
693.125	1.536525112	0.06860231575	
693.75	1.283439449	-0.7114526526	
694.375	0.9796192977	-0.7945033556	
695.0	0.8833570352	-0.9040954613	
695.625	0.8605121254	0.05990140161	
696.25	1.760359813	0.2075890415	
696.875	0.6086124278	0.2670799151	
697.5	1.002347581	1.701010751	
698.125	1.531917526	-0.5831486442	
698.75	1.079553594	-0.2398216383	
699.375	-1.75592559	-1.15931676	
700.0	0.2166050951	0.7727876049	
700.625	-0.1931205766	1.250225085	
701.25	0.813697699	-0.1551354766	
701.875	0.1306200166	0.7195695043	
702.5	1.396582466	0.5512590141	
703.125	0.3611097684	0.1243062003	
703.75	1.288681582	-0.09585388172	
704.375	0.2425242672	-0.7741458196	
705.0	0.7138552494	0.3533164115	
705.625	0.8954843515	-0.6682052398	
706.25	0.02051562878	0.339760016	
706.875	0.9330246273	1.193213521	
707.5	0.7865202303	-0.02234012805	
708.125	1.065734351	0.6970715173	
708.75	0.4517672636	-1.421614047	
709.375	-0.3828064774	-0.2125321427	
710.0	-0.7362130169	0.5868252943	
710.625	0.5132511696	0.1629815061	
711.25	0.08056907418	0.3911724231	
711.875	0.5979445921	0.1283874161	
712.5	0.8008153273	0.05046737714	
713.125	0.4375284321	-0.6575366897	
713.75	0.3402959726	-0.2400101892	
714.375	-0.01350106385	-0.9179843232	
715.0	-0.2944425782	-0.05497170051	
715.625	0.5941898118	-0.810948389	
716.25	-0.3974636966	-0.8229986255	
716.875	0.8124923384	0.3903521637	
717.5	2.348959478	-0.5233221167	
718.125	0.08929104595	-1.347466198	
718.75	2.765322954	1.456148178	
719.375	1.5391391	-3.09005781	
720.0	0.4692845172	-1.241150364	
720.625	1.576465115	-2.951782321	
721.25	-1.975304096	-2.267396186	
721.875	0.3709445878	-2.22895585	
722.5	-2.189116975	-2.067099066	
723.125	-1.90841329	0.6321697045	
723.75	-0.6931072843	0.5249256286	
724.375	-0.07202521946	1.512166748	
725.0	0.805849987	0.6846689131	
725.625	0.2043728844	0.625815648	
726.25	-0.4263875657	1.965027554	
726.875	1.290541991	2.811044538	
727.5	-1.305058675	1.152879268	
728.125	0.1461544995	7.711463126	
728.75	3.607649261	5.312561942	
729.375	-6.815533645	4.502425968	
730.0	8.947937663	16.75622316	
730.625	4.153752906	1.67255302	
731.25	-9.070152447	6.519678366	
731.875	-6.024485288	14.75781459	
732.5	-1.115314998	3.757995346	
733.125	-8.312801479	-1.030602423	
733.75	-0.4094233946	4.411253216	
734.375	1.285693488	0.03076270952	
735.0	0.5757275748	-2.413527552	
735.625	-0.3703681638	1.3240813	
736.25	-0.813531765	0.7883908307	
736.875	1.375828218	1.904653246	
737.5	3.4915042	-0.2913984264	
738.125	0.8401554824	-2.172285963	
738.75	7.739810475	1.382881378	
739.375	6.246332333	-13.01314288	
740.0	-4.564775217	-0.7687205765	
740.625	14.49989918	10.60697865	
741.25	8.196270122	-14.55104036	
741.875	-12.9604607	-8.903266704	
742.5	-11.6526765	-2.14579789	
743.125	0.4928143254	2.940201592	
743.75	1.565865419	-4.908374711	
744.375	-2.040430204	0.8234123075	
745.0	0.1365451241	-0.205026896	
745.625	0.3754129444	0.01420650035	
746.25	-0.1572484571	-0.01303154561	
746.875	-0.8976220289	0.08892395491	
747.5	-0.1103679561	1.117411303	
748.125	0.4945510732	0.8281033353	
748.75	0.5827874669	1.447318236	
749.375	0.07687442295	1.833554639	
750.0	0.1630091518	0.01515009475	
