!Created with skrf (http://scikit-rf.org).
# GHz S MA R 50.0 
!freq magS11 angS11
500.0 0.0141090466488 143.379763165
500.625 0.0125972649816 166.407117484
501.25 0.0180353066889 -172.326767158
501.875 0.0293415067153 -175.124617
502.5 0.0227803178117 149.700333009
503.125 0.0192993467072 110.982969447
503.75 0.00697707691564 119.242026249
504.375 0.0234161988867 -61.259079207
505.0 0.00632986026112 -48.0691846997
505.625 0.0222929162233 -70.4172384574
506.25 0.0435674126643 -102.127723984
506.875 0.0757210043411 -94.1990608474
507.5 0.0402609634174 -153.232169416
508.125 0.0391729568462 -112.709814127
508.75 0.0548873705574 -133.68498082
509.375 0.0639366207438 -127.930841536
510.0 0.0303381737366 -151.344307704
510.625 0.0252099091633 -165.087020628
511.25 0.0500921959638 175.611876269
511.875 0.0618136547897 152.011304403
512.5 0.0359737722119 85.3529884309
513.125 0.0472810101375 39.6604085261
513.75 0.0516883909198 31.6281584906
514.375 0.0500954900999 26.6938021897
515.0 0.0523403334423 5.18557431228
515.625 0.0958691242583 52.0710652839
516.25 0.0882610546349 30.4738715561
516.875 0.125285066509 71.0829942729
517.5 0.0993338675602 14.409752457
518.125 0.194964051345 70.6843968669
518.75 0.0907174015048 14.1500936175
519.375 0.0609345146164 13.1785381045
520.0 0.087875968632 -4.46253699029
520.625 0.108427175046 -3.01517524325
521.25 0.08552460508 -22.5856275861
521.875 0.0760638191834 1.99294892344
522.5 0.0929833636725 -33.4266960711
523.125 0.177219461019 -34.4683600339
523.75 0.206411972974 -58.2777801052
524.375 0.223682935276 -46.854954808
525.0 0.0696487196052 -45.2745953672
525.625 0.0385341261104 -47.5253585157
526.25 0.057076708849 -5.16832791191
526.875 0.0400711458644 -38.6839445918
527.5 0.045522598864 -29.7553654378
528.125 0.0422650349104 -61.5069211453
528.75 0.0621757992989 -70.2993437343
529.375 0.0702394137351 -114.47379067
530.0 0.0344078784381 -139.584839844
530.625 0.0333313193309 -136.947610174
531.25 0.139988972407 -140.103752319
531.875 0.133776865213 -149.473961498
532.5 0.126569812723 -171.598271622
533.125 0.100817526783 172.202507504
533.75 0.129351834579 167.628734936
534.375 0.0958094109755 176.51084228
535.0 0.0866370888756 163.300660691
535.625 0.0703269159494 179.371299725
536.25 0.0727394890895 163.903810691
536.875 0.0595197665945 -157.183840011
537.5 0.0856420053036 -141.419449575
538.125 0.0989495817173 -172.831804316
538.75 0.116197172452 -178.610265715
539.375 0.056304688225 -166.338377687
540.0 0.0889757496551 -151.947898255
540.625 0.116025690118 -155.219379613
541.25 0.14206409504 -141.538996138
541.875 0.0855376200467 -140.174439691
542.5 0.100962211469 -138.202563141
543.125 0.127326597985 -165.810118689
543.75 0.141501573011 160.885043639
544.375 0.0873383878141 133.828924769
545.0 0.088183815604 91.9847499819
545.625 0.105401764138 85.0768019049
546.25 0.0910631917883 69.4601313239
546.875 0.0968058633044 55.0732777361
547.5 0.108557169041 60.2013651111
548.125 0.103127961644 77.198194554
548.75 0.100344641517 90.4084646814
549.375 0.0781355708061 86.3067083668
550.0 0.0867574084563 125.824150601
550.625 0.0520435752302 155.878633021
551.25 0.0407790791418 -138.556508833
551.875 0.0597623618946 -153.73153919
552.5 0.105256644103 -159.515934332
553.125 0.0856682527585 -166.417183761
553.75 0.0957661539956 -174.273438941
554.375 0.105911369309 168.131596404
555.0 0.123691252729 164.805764467
555.625 0.0986299769097 158.582796358
556.25 0.0994357597739 163.788969971
556.875 0.127003571366 164.106932627
557.5 0.0976167250667 168.680931377
558.125 0.0876783221399 166.268124788
558.75 0.0814874714142 179.136771122
559.375 0.0578859735176 -172.622355012
560.0 0.0426173904501 -142.444737983
560.625 0.0606741819453 -139.737749448
561.25 0.0903105442543 -148.876457054
561.875 0.105237738347 -161.749817489
562.5 0.0926551130246 174.602301205
563.125 0.107580753205 144.75615974
563.75 0.136711785827 130.078374597
564.375 0.0946084895884 123.362847912
565.0 0.0828522273928 121.968559015
565.625 0.0857682215294 116.931934334
566.25 0.0958457217825 153.246828669
566.875 0.0792974263933 177.730425237
567.5 0.0653805230345 -172.074010403
568.125 0.0724820134475 -165.652746515
568.75 0.0615041797542 -142.472365754
569.375 0.0535947033409 -118.722567067
570.0 0.0587648440947 -95.2161868952
570.625 0.0916124366128 -112.713483278
571.25 0.0899435077154 -118.713138144
571.875 0.0906086707105 -131.848288438
572.5 0.10785609146 -150.63855974
573.125 0.132390510492 -169.332726395
573.75 0.0970828566842 164.528832398
574.375 0.0876363947964 145.754756895
575.0 0.105875726355 156.103913285
575.625 0.108453764425 156.493691468
576.25 0.0888901151096 145.95672019
576.875 0.0725762503272 131.50295928
577.5 0.0821374222231 136.457214352
578.125 0.0631328772662 157.777464521
578.75 0.0483965058561 164.854309612
579.375 0.057581820602 156.129957058
580.0 0.064840425047 -163.151260781
580.625 0.0778283935966 -142.976764792
581.25 0.0908075780279 -162.520998425
581.875 0.116807789743 176.396279146
582.5 0.107287125323 -166.412206918
583.125 0.0918522055502 -165.681458182
583.75 0.0779182320808 -165.144016284
584.375 0.10535935013 -164.797817298
585.0 0.0927649909108 -143.106252457
585.625 0.0705160381015 -141.155557044
586.25 0.0660403929207 -130.658853125
586.875 0.0847981006655 -145.021941744
587.5 0.0675443209059 -131.329439014
588.125 0.059081919782 -169.880027715
588.75 0.0616341992457 -157.993492443
589.375 0.0809604431957 -162.197865862
590.0 0.0943046624218 -164.900153223
590.625 0.105458140866 165.655148695
591.25 0.119918813763 153.200268387
591.875 0.0941480696527 159.421947639
592.5 0.0664272795673 143.566634904
593.125 0.0609539835859 151.087488678
593.75 0.0607895878516 172.835760572
594.375 0.0593531107958 -162.35422959
595.0 0.0476989445111 -103.603004903
595.625 0.0586826343038 -100.479107582
596.25 0.0733305449364 -90.2871370515
596.875 0.0682183998899 -69.888599468
597.5 0.0564964761566 -67.2658110694
598.125 0.0698096120033 -55.3656675014
598.75 0.0812184242798 -58.7915739883
599.375 0.0807867962022 -73.5954475018
600.0 0.11131945233 -54.7413960083
600.625 0.103553553338 -58.0323752427
601.25 0.0798189291968 -73.076415466
601.875 0.0676919367154 -98.0587509952
602.5 0.0607554377254 -83.049271809
603.125 0.0431353402461 -56.6028344336
603.75 0.0319098187237 -37.3931978937
604.375 0.0436432509481 -20.6479027974
605.0 0.050554569802 -33.1786618298
605.625 0.062732599613 15.3277872093
606.25 0.0349779377331 28.4042434495
606.875 0.0468815518938 54.3113922227
607.5 0.0444097676389 37.6127966414
608.125 0.0865946273957 37.496644461
608.75 0.0593523420827 19.8042411794
609.375 0.067076659085 29.7830057049
610.0 0.0598830871465 32.4619112668
610.625 0.0797289329883 52.3816726769
611.25 0.0643851116937 47.7182161747
611.875 0.0389220709394 61.842193114
612.5 0.0101708138365 24.756314641
613.125 0.0321325669321 128.961730055
613.75 0.0474280381787 125.693110274
614.375 0.0419723322271 120.167120814
615.0 0.037949798751 115.886492889
615.625 0.0252557003174 132.1071065
616.25 0.0571022270533 138.357627334
616.875 0.054628224207 127.28566877
617.5 0.0311650600101 114.821814075
618.125 0.0329041708478 141.794116323
618.75 0.0327684458291 149.764945751
619.375 0.0166234240992 136.434783314
620.0 0.0116688069484 -15.5267483457
620.625 0.0227739304338 -150.848663561
621.25 0.0402083017093 -113.57910537
621.875 0.0613775838949 -101.208746467
622.5 0.0676275337152 -162.579853485
623.125 0.0631524343014 -179.311517482
623.75 0.0631399185491 164.590558997
624.375 0.0408052974029 -174.384331735
625.0 0.0421601231871 -152.684630936
625.625 0.0212135953172 -135.721904359
626.25 0.048933481284 -174.913469463
626.875 0.0167541220666 175.959833414
627.5 0.0221536807474 -47.5896121851
628.125 0.0538948253959 -3.9526162611
628.75 0.03613359163 -59.3639039714
629.375 0.0411335898759 -21.9192324783
630.0 0.0764231613996 -0.631624429649
630.625 0.0834409635468 21.2861281212
631.25 0.0697357748292 -7.41698885024
631.875 0.0677990502043 -22.327586198
632.5 0.0637669481106 -13.9958145021
633.125 0.0523304058728 27.9403656997
633.75 0.040556448168 -1.73434228966
634.375 0.041766050443 12.5591318706
635.0 0.0366494319937 29.8471123104
635.625 0.0335489631577 39.7560400164
636.25 0.0670580120003 49.6120543958
636.875 0.0578131892012 10.3015355536
637.5 0.0401038469224 34.9434249274
638.125 0.0377227450903 52.898915985
638.75 0.0984106743079 79.0306184995
639.375 0.0885107397959 85.4292920147
640.0 0.0682134732526 99.7749061445
640.625 0.0608693019733 98.7044731445
641.25 0.0608113480643 124.495210676
641.875 0.05252752954 134.314439189
642.5 0.0446487241178 147.557108629
643.125 0.0555601983389 155.272115125
643.75 0.0883368713925 178.314781329
644.375 0.0543705113977 169.933018282
645.0 0.0686429638474 174.206086531
645.625 0.0947782897486 163.858527652
646.25 0.101624811957 169.952074293
646.875 0.0740001752162 179.019239521
647.5 0.0658447704924 -175.546226777
648.125 0.0925712510209 -171.885566824
648.75 0.0727008096964 -161.857826655
649.375 0.0571098063295 -143.996006479
650.0 0.0442472067272 -120.515035928
650.625 0.052735985304 -85.909839091
651.25 0.0677925443051 -63.0073325745
651.875 0.0761077618687 -42.4553235021
652.5 0.0640601548924 -25.0660829849
653.125 0.100835484898 -2.56262498478
653.75 0.109036810073 7.3269784011
654.375 0.102552584073 4.89670005223
655.0 0.110057885947 12.2345466772
655.625 0.0985286025753 29.8783285734
656.25 0.0602888531353 22.7253014285
656.875 0.079777330219 9.17307459649
657.5 0.0566714805375 11.9648585944
658.125 0.0609005774762 50.8895106845
658.75 0.0509081139802 62.4026678752
659.375 0.0959058871299 35.900763558
660.0 0.108077724317 27.201872187
660.625 0.108647747433 18.7145062819
661.25 0.107600269999 2.53339536653
661.875 0.12018209385 -11.1354406957
662.5 0.104607015614 -23.7919042245
663.125 0.092076033877 -16.6432799534
663.75 0.0910272817182 2.41419600333
664.375 0.115083230654 55.2963330864
665.0 0.063070831624 96.8721798136
665.625 0.0708047506946 111.457011649
666.25 0.0879531413866 132.683185487
666.875 0.107961283044 170.807682182
667.5 0.0957543460452 -169.325599207
668.125 0.105378405678 -178.327567692
668.75 0.127295389878 169.207771372
669.375 0.14189534608 177.547278886
670.0 0.0800440431121 -168.131364096
670.625 0.08509612906 -168.966175085
671.25 0.105790283936 174.995396402
671.875 0.116780755256 167.565028748
672.5 0.056408612929 159.618705738
673.125 0.0741181307687 158.691277976
673.75 0.109943308703 159.579531252
674.375 0.117983857377 169.57577341
675.0 0.115481333247 -173.796444955
675.625 0.126332165462 -148.206360532
676.25 0.127896045951 -125.501639347
676.875 0.122232666748 -121.590688236
677.5 0.123010105505 -127.646390012
678.125 0.114150815395 -116.103502395
678.75 0.0593812482362 -94.8163442662
679.375 0.0612853030032 -80.673293543
680.0 0.0633092149612 -67.87123288
680.625 0.114730866425 -72.3666335641
681.25 0.109489274568 -75.0346724871
681.875 0.102688103281 -94.0800071633
682.5 0.144451231143 -122.596886119
683.125 0.151650849885 -120.191760077
683.75 0.130624839843 -102.757996304
684.375 0.108497104625 -77.8602765409
685.0 0.143860132999 -43.0972378558
685.625 0.111634509927 1.20147771916
686.25 0.099413152371 23.3341116495
686.875 0.0782026082699 48.295945175
687.5 0.0887235647303 76.9363583394
688.125 0.0713043799403 121.849968044
688.75 0.100923097456 116.472958031
689.375 0.132142936479 122.15205246
690.0 0.137934444903 132.532689928
690.625 0.116375087447 128.165971886
691.25 0.140094359486 99.8684542949
691.875 0.195314296393 68.1231361214
692.5 0.139242850971 41.8845977354
693.125 0.0967008850764 -17.982859878
693.75 0.0791758310326 -26.2883009033
694.375 0.125365541859 -21.2549362809
695.0 0.119729058948 14.5297323815
695.625 0.105800978756 52.6842142604
696.25 0.113953604526 115.662383552
696.875 0.136584469916 172.30731639
697.5 0.139995495707 -141.155138915
698.125 0.140974635383 -132.009998509
698.75 0.134544666786 -130.823700253
699.375 0.103187153286 -121.549144114
700.0 0.0887338556784 -108.024154698
700.625 0.122034809125 -98.6166950219
701.25 0.0940021047136 -60.1040838787
701.875 0.0804297407479 -55.7172604737
702.5 0.0950738024189 -82.2889007276
703.125 0.172540325284 -121.257642042
703.75 0.194288712105 -157.841414252
704.375 0.126937977564 172.894154516
705.0 0.108098570568 166.155383589
705.625 0.134502644893 -166.868559532
706.25 0.156110813749 -120.002397076
706.875 0.0795867520224 -50.3564647167
707.5 0.07446536891 -30.4789484269
708.125 0.0842937158085 18.512774465
708.75 0.112045981488 57.143828604
709.375 0.105672920475 114.214493878
710.0 0.100926369953 130.804055355
710.625 0.108883913307 155.863714057
711.25 0.119152746521 168.26329845
711.875 0.144934678992 178.016404774
712.5 0.148058965134 148.473739532
713.125 0.118571023086 103.425908951
713.75 0.105187135248 43.7006024705
714.375 0.115144140866 13.8883719537
715.0 0.111268033302 29.8518680743
715.625 0.0874684046546 58.5074735361
716.25 0.0825076897369 85.1686843386
716.875 0.106951997267 91.0898882784
717.5 0.149861611253 160.944251665
718.125 0.117048014459 167.333917825
718.75 0.097924390057 167.443933424
719.375 0.11829003992 -169.666422711
720.0 0.126369955551 -137.837897446
720.625 0.112107759043 -69.341945767
721.25 0.0982363530979 -28.8607255658
721.875 0.0860976784023 14.5599571309
722.5 0.0842236502752 96.9566198803
723.125 0.0930703824519 84.3111543983
723.75 0.102315299178 43.1570263853
724.375 0.113738353541 0.660602214652
725.0 0.0915904068392 -43.8650068471
725.625 0.10694371684 -62.5467317305
726.25 0.125171203855 -55.5888052907
726.875 0.101120097946 -45.2395300138
727.5 0.075362388169 -50.0472452522
728.125 0.105583401557 19.6046786482
728.75 0.0962114832265 27.6168987363
729.375 0.0789060225947 17.4632933433
730.0 0.0719744658351 4.24431860493
730.625 0.0514216472055 6.27535243127
731.25 0.0749092804985 70.3018758393
731.875 0.0776930995011 114.390719429
732.5 0.0797166945634 156.46360305
733.125 0.0610562773627 158.384862088
733.75 0.0835228111271 -175.983070366
734.375 0.0507410184129 148.710263457
735.0 0.0489033227505 142.975320451
735.625 0.057883234676 152.947454137
736.25 0.0476377351954 146.197329033
736.875 0.048047861068 167.771058676
737.5 0.0810818863155 176.648639338
738.125 0.0678085277891 -178.840741648
738.75 0.0866312510207 -172.770805229
739.375 0.0621506407018 -167.469929028
740.0 0.0582649889754 -136.6583032
740.625 0.0224068006118 -123.88803593
741.25 0.0852026278537 -151.029431008
741.875 0.042698823442 -110.1182799
742.5 0.0284326605562 -23.9197093521
743.125 0.020244858258 96.0789756915
743.75 0.0596860619993 83.6968864696
744.375 0.0512172142953 101.388709078
745.0 0.0686385534296 126.705470592
745.625 0.0687370874381 147.671940577
746.25 0.0881062223516 77.3976924489
746.875 0.069741057859 41.176021313
747.5 0.0344542609247 17.1423144099
748.125 0.0223312417367 -9.79907351881
748.75 0.027157876947 60.0436492823
749.375 0.0550009168223 -63.846668937
750.0 0.033413239545 -112.454815637
