!Created with skrf (http://scikit-rf.org).
# GHz S RI R (50+0j) 
!freq	ReS11	ImS11	
500.0	0.511102726	-0.9736766424	
500.625	-0.08663511814	-1.075172931	
501.25	0.01517716854	-0.3816575978	
501.875	-0.3117667081	-0.5789089743	
502.5	-0.0630500503	-0.04872214426	
503.125	-0.05308815644	-0.02696759071	
503.75	0.03694762904	0.09864229325	
504.375	9.039760595e-05	-0.0001191959563	
505.0	0.03923913805	-0.04515170551	
505.625	-0.03713711054	-0.01000614039	
506.25	0.01418652896	-0.1072740082	
506.875	-0.1096574419	0.2184187972	
507.5	0.2411398699	-0.4177784152	
508.125	0.09979043832	-0.8187440113	
508.75	-0.005897755316	-0.6543159752	
509.375	0.3755132965	-0.7644744807	
510.0	-0.4103314579	-0.1315894929	
510.625	-0.07809218565	-0.01467171039	
511.25	-0.08408406617	-0.09638012216	
511.875	-0.1170858376	0.01711922521	
512.5	-0.02724669887	0.01845646625	
513.125	0.008562644077	-0.09150154406	
513.75	-0.06760957933	0.01208486511	
514.375	0.0263294964	-0.07064520633	
515.0	-0.2363692837	-0.008455089129	
515.625	0.4386632002	-0.2550159608	
516.25	-0.8428740835	-0.7646865889	
516.875	-0.2690104791	-0.04141249885	
517.5	0.02950053951	-0.2878252527	
518.125	-0.09360168707	-0.00545062956	
518.75	0.0465218188	-0.1172540763	
519.375	-0.05285927413	0.04791611707	
520.0	0.09543644809	0.002232919307	
520.625	0.08600949384	-0.007649795909	
521.25	-0.01584549294	-0.2381802372	
521.875	-0.1665934576	0.06699876015	
522.5	0.004705287207	0.02197860591	
523.125	-0.1124587423	0.09635162103	
523.75	0.01455493621	0.03012627283	
524.375	-0.2365188279	-0.07501458975	
525.0	0.07650788519	0.2095252861	
525.625	-0.01306171492	-0.03341903569	
526.25	0.03157907569	0.04473527757	
526.875	-0.08944614764	-0.005113212968	
527.5	-0.07099292498	0.2480158194	
528.125	0.1548683813	0.1384397911	
528.75	-0.03185008486	0.2102442566	
529.375	0.0639796504	0.03933722462	
530.0	-0.03346780494	0.03192170018	
530.625	0.07010071319	0.3681969819	
531.25	0.3536591275	-0.1087348196	
531.875	0.07270344927	-0.1822231163	
532.5	-0.03847564959	-0.191036353	
533.125	-0.006365698468	0.09187127985	
533.75	0.1782006642	-0.2125394876	
534.375	-0.1957269951	-0.2090712639	
535.0	-0.1206163137	-0.115203786	
535.625	-0.1925560119	0.1259649064	
536.25	0.03104086134	0.06447685026	
536.875	0.05669202517	0.04388163469	
537.5	0.07251406434	-0.06724409363	
538.125	0.04080117105	-0.03544953992	
538.75	0.1660454219	-0.09818114797	
539.375	-0.09766953419	-0.1323718302	
540.0	-0.0810850699	-0.09083171855	
540.625	-0.1777826165	-0.07521269204	
541.25	-0.08689673463	0.06304029	
541.875	0.01087769266	0.03860912953	
542.5	-0.08728645496	-0.05276078789	
543.125	-0.009950935265	-0.01096449132	
543.75	-0.1121275525	-0.05142784378	
544.375	-0.02117089664	0.1141820019	
545.0	-0.05140066462	0.01424685684	
545.625	0.09573830067	0.07712639741	
546.25	0.03842904526	-0.02403808074	
546.875	0.1404152739	0.01620068653	
547.5	0.01759854104	-0.1468236585	
548.125	-0.01354356012	-0.09476422461	
548.75	-0.1117082714	-0.1442249818	
549.375	-0.1487803538	-0.02604010531	
550.0	-0.02816847717	-0.01397400984	
550.625	-0.08167194051	0.02720719841	
551.25	-0.0315410076	0.02442796276	
551.875	-0.08662849445	0.05053603977	
552.5	-0.01323562934	0.08444707246	
553.125	-0.02341168219	0.0430370808	
553.75	0.05303767276	0.04339487166	
554.375	0.07355384986	-0.01021040895	
555.0	0.08945925841	-0.06194179463	
555.625	0.0740731726	-0.1029728487	
556.25	0.04836691867	-0.1228834974	
556.875	-0.0324577579	-0.1411523885	
557.5	-0.09554702831	-0.09235688968	
558.125	-0.1097069427	-0.02765024496	
558.75	-0.09377715121	6.407592206e-05	
559.375	-0.1067275706	0.02168034889	
560.0	-0.07712936528	0.07885873429	
560.625	-0.04487805603	0.08475551958	
561.25	-4.987521079e-05	0.1166206768	
561.875	0.04155628222	0.01268042132	
562.5	-0.01003564316	0.08014996146	
563.125	0.08823425112	0.03392776997	
563.75	0.09414240457	0.02290683474	
564.375	0.1535404957	-0.1018696691	
565.0	0.01635997743	-0.1370014806	
565.625	0.008912068325	-0.1229795673	
566.25	-0.1595933785	-0.1427970794	
566.875	-0.09405049186	-0.02140234462	
567.5	-0.08323239058	-0.1749444118	
568.125	-0.2007562601	-0.1157464216	
568.75	-0.1379776986	-0.05381804996	
569.375	-0.2691761141	0.07785552262	
570.0	-0.005349803956	0.2358313224	
570.625	-0.04465769436	0.07096620362	
571.25	-0.009207521949	0.1899242222	
571.875	0.05936964753	-0.01479304153	
572.5	0.1518655405	0.09416487703	
573.125	0.05855034293	-0.1886916722	
573.75	-0.01076654124	-0.02977326886	
574.375	0.09126640263	-0.09265530568	
575.0	-0.07769229863	-0.01925164045	
575.625	0.1097650203	-0.03985674259	
576.25	0.006394093738	-0.1806761167	
576.875	-0.04060784416	-0.04928624586	
577.5	0.08894878599	-0.1526432606	
578.125	-0.1199140901	-0.1960658261	
578.75	-0.07486608886	0.00613520482	
579.375	-0.02457460862	-0.1238201146	
580.0	-0.1975306163	0.02366176444	
580.625	0.05404476188	-0.06583892139	
581.25	-0.173653857	0.1432584502	
581.875	0.1042522546	0.08808618165	
582.5	-0.08383467925	0.1070568035	
583.125	0.1167277503	0.1624238097	
583.75	0.01906840484	-0.08645440843	
584.375	0.04513385335	0.1523566875	
585.0	0.1228565113	-0.05145881981	
585.625	0.05984743171	0.04653739711	
586.25	0.2197060868	-0.05915630473	
586.875	-0.02722372017	-0.1414834915	
587.5	0.0580031391	-0.1046219005	
588.125	-0.04162180288	-0.200929989	
588.75	-0.04905433357	-0.07258294618	
589.375	0.1468094956	-0.1122149301	
590.0	-0.1498267958	-0.1908691262	
590.625	-0.08261698822	0.006250468062	
591.25	-0.1809256745	0.05438485009	
591.875	0.05722968708	0.2280342616	
592.5	-0.03050296923	-0.0663044157	
593.125	0.0145227215	0.142410761	
593.75	0.0226657131	0.02485936066	
594.375	0.1496599522	0.1829770219	
595.0	0.2220306414	-0.01544973397	
595.625	0.06932009998	0.05368073546	
596.25	0.1890997129	0.09737778441	
596.875	0.124626192	-0.05142136891	
597.5	0.05647813221	0.08275953876	
598.125	0.202035492	0.1453514918	
598.75	0.1442929734	-0.01292494703	
599.375	0.166923007	0.02108259883	
600.0	0.1601463976	-0.1649937419	
600.625	0.03248643927	-0.1797480687	
601.25	0.0962951546	-0.1060800758	
601.875	-0.1173163567	-0.1942853201	
602.5	-0.06970312875	0.07153414088	
603.125	-0.1271867362	-0.04842521662	
603.75	-0.1072720932	0.1804555989	
604.375	-0.001255155704	0.01315283088	
605.0	-0.1448734629	0.05230017792	
605.625	0.07810078497	0.07743475099	
606.25	-0.1153244691	-0.04376350926	
606.875	-0.2351616425	0.1533411366	
607.5	-0.06967093696	0.127666153	
608.125	-0.008265767337	0.2917497874	
608.75	0.2396385916	0.1668955687	
609.375	0.1438274758	-0.08987121652	
610.0	0.184784046	-0.0283878048	
610.625	0.09076998418	-0.1629071132	
611.25	-0.03623986565	-0.06164458731	
611.875	-0.03278410931	-0.1942983086	
612.5	-0.2240189487	0.009815095424	
613.125	-0.06438365194	0.01044249732	
613.75	-0.1809986786	0.1446774399	
614.375	0.1495368336	0.1005124593	
615.0	-0.09363146884	0.03213697468	
615.625	0.08452689304	0.1512985319	
616.25	-0.1052770158	0.05481960871	
616.875	-0.16568179	0.1706848252	
617.5	0.0167361378	0.1801085598	
618.125	-0.01550648673	0.1254534154	
618.75	0.06305702864	0.1360058995	
619.375	0.1520074245	0.1218419494	
620.0	0.1586915416	-0.009499179262	
620.625	0.1111741101	-0.08772185638	
621.25	-0.1668450325	-0.1354914623	
621.875	-0.1118254655	-0.06306478116	
622.5	-0.2307816233	-0.03983525414	
623.125	0.04098364054	0.2041684979	
623.75	0.01091416787	-0.02967489173	
624.375	0.1156912632	-0.05547507378	
625.0	-0.04426781338	-0.002613759189	
625.625	0.1140854449	-0.0887917454	
626.25	-0.1163854017	-0.1469056308	
626.875	-0.06223867761	-0.02265018673	
627.5	-0.1588582699	-0.1112731955	
628.125	-0.1421465119	-0.01568703554	
628.75	-0.03964181041	-0.08455252461	
629.375	-0.1071702966	-0.1967200021	
630.0	-0.1755775043	-0.008433470117	
630.625	-0.1702075427	0.02631934544	
631.25	-0.2142610012	0.1339394836	
631.875	0.04186263426	0.2307078007	
632.5	0.06011686257	0.1564742048	
633.125	0.2475180736	0.1112158169	
633.75	0.1053938546	-0.153355777	
634.375	0.101441469	-0.05939412464	
635.0	-0.03516630234	-0.2113290552	
635.625	-0.09947527849	0.01479202458	
636.25	-0.1826735679	-0.006164893481	
636.875	-0.04724011227	0.2238072096	
637.5	0.01207286198	0.007670980725	
638.125	-0.1308217562	0.1186681701	
638.75	0.04786859669	0.1741529319	
639.375	-0.06315376333	0.1416731653	
640.0	0.1621836451	0.3046872783	
640.625	0.2580169542	0.03168177592	
641.25	0.1540883233	-0.004026724414	
641.875	0.2569522132	-0.1687616513	
642.5	-0.1155720335	-0.1827928815	
643.125	-0.003895807936	-0.1188985164	
643.75	-0.2355663229	-0.1394868027	
644.375	-0.0404140396	0.1850084614	
645.0	-0.2285151879	0.04274696218	
645.625	0.1555182867	0.2722044657	
646.25	0.06040577597	-0.1071644638	
646.875	0.1093334311	0.1353413829	
647.5	0.0656701096	-0.1692991571	
648.125	0.06919705848	0.1950714209	
648.75	0.3612013088	-0.1874690436	
649.375	0.05185209231	-0.2180287303	
650.0	0.2180171668	-0.1193922049	
650.625	0.1881714187	-0.4307085524	
651.25	-0.004607079763	-0.1770603836	
651.875	0.2978636931	-0.0344488432	
652.5	0.3274006383	-0.2282744183	
653.125	0.08358620084	-0.1231328898	
653.75	0.2931874286	-0.1305587102	
654.375	-0.1842243357	-0.3706289084	
655.0	-0.1492967714	0.02269483883	
655.625	-0.2465255597	0.04776531313	
656.25	0.1570431387	0.2856174755	
656.875	-0.03643109328	-0.04531393662	
657.5	0.115883625	0.2853599082	
658.125	0.1630930277	-0.003432693819	
658.75	0.1640703227	0.1646911079	
659.375	0.4540600538	-0.2414118579	
660.0	0.00934760339	-0.2594907198	
660.625	0.194847375	-0.2060157279	
661.25	0.192661058	-0.3713503951	
661.875	0.006669373049	-0.258455243	
662.5	0.306576842	-0.03908721777	
663.125	0.2748094418	-0.3067359557	
663.75	0.03577763261	-0.2077227764	
664.375	0.06160095257	-0.3064704228	
665.0	-0.3770559497	-0.1759153902	
665.625	-0.1634759572	0.1151345565	
666.25	-0.1857729815	0.1993826269	
666.875	0.2082354771	0.2377415947	
667.5	0.05642830308	-0.04952821231	
668.125	0.2772643933	0.08649420543	
668.75	0.1036346856	-0.2726233645	
669.375	0.05549454846	-0.1073104182	
670.0	0.1316952077	-0.3491834189	
670.625	-0.1638932949	-0.182767822	
671.25	0.112979325	-0.0607092351	
671.875	0.1645003482	-0.2471255083	
672.5	0.05788728864	-0.137057616	
673.125	0.2008181571	-0.04345089438	
673.75	0.1725987446	-0.343989384	
674.375	-0.06830823851	-0.155364309	
675.0	0.01558274837	-0.2379780483	
675.625	-0.2700789303	-0.154283857	
676.25	-0.07207767985	0.08236640694	
676.875	-0.1382507108	-0.1202983548	
677.5	-0.1548332708	0.1356594491	
678.125	-0.03248549258	0.04243017395	
678.75	-0.06116972617	0.2707410141	
679.375	0.3253506098	-0.02618622946	
680.0	-0.07422677861	-0.01067930951	
680.625	0.2070922532	-0.05409761556	
681.25	0.01398294685	-0.1781780948	
681.875	-0.001417400559	0.312823844	
682.5	0.3910042534	0.1088969338	
683.125	-0.0750182659	-0.05177439976	
683.75	0.1822177277	0.2107754063	
684.375	0.4134988186	0.04564603272	
685.0	0.053729461	-0.08199777937	
685.625	0.4498446408	0.1109575326	
686.25	0.326768919	-0.213076266	
686.875	0.1156250603	-0.0997429954	
687.5	0.3496397745	-0.2273479294	
688.125	-0.1939474175	-0.4033924606	
688.75	-0.1989717673	-0.06694933674	
689.375	-0.3993412993	0.2613135397	
690.0	0.2348418595	0.3759894536	
690.625	0.07576836481	0.07583254542	
691.25	0.3920226015	0.4351059473	
691.875	0.4660991354	0.03986981937	
692.5	0.3370335278	0.3044097735	
693.125	0.7506073909	0.03750847178	
693.75	0.2327616866	-0.3963075288	
694.375	0.4000618998	-0.1203997059	
695.0	0.5431394956	-0.3468198253	
695.625	0.2444849987	-0.06198558777	
696.25	0.374082916	0.2532175364	
696.875	0.381982018	0.1704976874	
697.5	0.3221407312	0.186055841	
698.125	0.4594681554	0.2646308089	
698.75	0.4439291996	-0.4433721644	
699.375	-0.4418210941	-0.1521584474	
700.0	-0.2826180801	0.1160195363	
700.625	0.2002712523	0.3760179892	
701.25	0.1854396541	0.005877254423	
701.875	0.1444451787	0.3036262885	
702.5	0.4759405519	0.1932110251	
703.125	0.2188320112	-0.009292231724	
703.75	0.3887085106	0.03147115405	
704.375	0.1891809269	-0.3014180198	
705.0	0.06353623631	-0.09196677233	
705.625	0.3119706729	0.1312023174	
706.25	0.2583421216	0.0389594222	
706.875	0.1904250037	0.2952112675	
707.5	0.2677301963	0.3731280641	
708.125	0.4438567188	-0.04321983352	
708.75	0.1756364708	-0.3374929375	
709.375	-0.1612133559	-0.2337469179	
710.0	-0.2285937549	0.3224442559	
710.625	0.03632878415	0.03916200071	
711.25	0.07769810051	0.2819469688	
711.875	0.2220209962	-0.1390373071	
712.5	0.2782583581	0.08018265427	
713.125	0.2776211084	-0.2454732749	
713.75	-0.02395341087	-0.2161415187	
714.375	0.1116365339	-0.1691776925	
715.0	-0.06628861679	-0.2502609363	
715.625	-0.03306915144	-0.08492665816	
716.25	0.2553546424	-0.1947919165	
716.875	0.2737629611	-0.3230534586	
717.5	0.299652637	-0.04084951248	
718.125	0.6148179461	0.1595014743	
718.75	0.6653139511	-0.373610575	
719.375	0.3438633574	-0.4211345053	
720.0	0.7222468162	-0.9418390408	
720.625	-0.2574940389	-1.527595851	
721.25	0.05275564046	-0.5939498099	
721.875	-0.117478769	-1.12886729	
722.5	-1.02293359	-0.4343524591	
723.125	-0.4135847153	-0.1988462362	
723.75	-0.4970692073	0.5288529095	
724.375	0.2864784181	0.2998127623	
725.0	-0.007155141065	0.2694779697	
725.625	0.2965040303	0.5923666953	
726.25	0.2461854483	0.3621510592	
726.875	-0.2867786767	0.7309915452	
727.5	0.01527402791	1.473959537	
728.125	0.6227547373	1.366194917	
728.75	-0.6701125792	1.749490954	
729.375	-0.3224530915	4.279501161	
730.0	1.327162381	2.396592458	
730.625	-1.407478651	2.936928349	
731.25	-0.5616262999	5.114796032	
731.875	-0.4932312129	1.888386103	
732.5	-3.364297539	0.2446611675	
733.125	-2.616421211	1.097679369	
733.75	0.423738266	1.043580958	
734.375	0.4324613986	0.7103679907	
735.0	-0.455526443	-0.9809558931	
735.625	-0.0578522303	0.07514370075	
736.25	-0.3543815215	0.6879943164	
736.875	0.7569668988	0.404836116	
737.5	0.1880283566	0.08295183124	
738.125	1.725154493	-0.05553971192	
738.75	0.9278675431	-2.079063358	
739.375	0.4049596847	-0.746759502	
740.0	4.14097322	0.1295927806	
740.625	4.528732632	-3.334905174	
741.25	-2.348181294	-0.6669823802	
741.875	-4.245068333	1.182124805	
742.5	-1.641742008	0.04668207044	
743.125	1.208707665	-0.8588888066	
743.75	-0.1706736705	-1.458718943	
744.375	-0.2792275585	0.1865275035	
745.0	-0.05509074435	0.07370723889	
745.625	0.0875192545	-0.1261760086	
746.25	0.08693155036	-0.05492216708	
746.875	-0.3055343476	0.02051568741	
747.5	0.02380896891	0.3068754669	
748.125	0.04215831403	0.3368420207	
748.75	0.251671113	0.4950379416	
749.375	0.2539039043	0.302937191	
750.0	-0.2971349668	0.06022750077	
