!Created with skrf (http://scikit-rf.org).
# GHz S RI R (50+0j) 
!freq	ReS11	ImS11	
500.0	0.04532534441	-0.7143315151	
500.625	0.1388036424	-0.7678424705	
501.25	-0.3229380482	-0.5116344345	
501.875	-0.2504491473	-0.2941751083	
502.5	-0.05525844007	-0.1036945121	
503.125	-0.05777533037	0.007889608438	
503.75	0.01297487262	0.06635326418	
504.375	0.02219887748	-0.004873575961	
505.0	0.01544187693	-0.0190415743	
505.625	-0.004137843963	-0.04126662758	
506.25	-0.05382555018	-0.04202910558	
506.875	-0.09499835643	0.01199360015	
507.5	-0.08879577434	-0.2762199978	
508.125	0.08230020204	-0.5240658062	
508.75	0.379661024	-0.7887697033	
509.375	-0.1632592171	-0.981953296	
510.0	-0.3792885253	-0.2627307068	
510.625	-0.1069323701	-0.1043915141	
511.25	-0.07966249911	-0.06282329817	
511.875	-0.1000876774	-0.01395021776	
512.5	-0.00268228246	0.0231809435	
513.125	-0.0102028113	-0.05673980622	
513.75	-0.03824927803	-0.02306633684	
514.375	-0.05639045975	-0.004396083142	
515.0	-0.003270844579	-0.04727410473	
515.625	-0.0616586236	-0.2986696081	
516.25	-0.1359570997	-0.5195947421	
516.875	-0.154676508	-0.3367905192	
517.5	-0.04658917419	-0.1125506988	
518.125	-0.02968860499	-0.02030764546	
518.75	-0.04766469139	-0.09716349105	
519.375	-0.0411847121	0.03452388271	
520.0	0.08788677068	0.03766530865	
520.625	0.1198321556	-0.05286488411	
521.25	-0.02760872137	-0.2069075888	
521.875	-0.1194575621	-0.009954809106	
522.5	-0.03718909367	0.02474651319	
523.125	-0.04464045585	0.02661093977	
523.75	-0.08716416997	-0.0003161981147	
524.375	-0.1235808772	0.03338105027	
525.0	-0.02513741603	0.1133361159	
525.625	0.03260028437	0.03601321557	
526.25	-0.0106972271	-0.01014523513	
526.875	-0.03632539367	0.04570570311	
527.5	-0.02361236001	0.1456517738	
528.125	0.05855533512	0.1931891713	
528.75	0.04033960361	0.157996211	
529.375	0.03403586354	0.0443312675	
530.0	0.02942048	0.1099793363	
530.625	0.1056455994	0.2031901641	
531.25	0.3274332117	0.04737027694	
531.875	0.1653319691	-0.1615076691	
532.5	-0.05168199651	-0.08419657688	
533.125	0.03968291177	-0.04750629404	
533.75	0.0732462943	-0.1501233352	
534.375	-0.08204100618	-0.221118485	
535.0	-0.1976368712	-0.07319914583	
535.625	-0.1269473333	0.09670895505	
536.25	0.004632398205	0.07942851494	
536.875	0.08011766327	0.005317065117	
537.5	0.05109642121	-0.0418195948	
538.125	0.08978333138	-0.06079866805	
538.75	0.09537838523	-0.1130241469	
539.375	-0.07363665541	-0.1341104046	
540.0	-0.149369464	-0.1144174347	
540.625	-0.1417210796	-0.01212730428	
541.25	-0.074146681	0.009652945111	
541.875	-0.03831045455	-0.01669805878	
542.5	-0.04154301128	-0.04251816289	
543.125	-0.06921730858	-0.03453219645	
543.75	-0.07503419698	-0.0006967490912	
544.375	-0.03711040488	0.03904054219	
545.0	-0.0009631977497	0.05082763681	
545.625	0.04775258667	0.0514722167	
546.25	0.08613377211	0.02606898468	
546.875	0.1002229204	-0.0322039126	
547.5	0.04719102761	-0.1114741162	
548.125	-0.04970164531	-0.1349010436	
548.75	-0.1142580741	-0.08748976129	
549.375	-0.1013367197	-0.04962865464	
550.0	-0.06652652349	0.01240622949	
550.625	-0.04498896485	0.01213326367	
551.25	-0.06293845109	0.02946121666	
551.875	-0.05760052524	0.06434792882	
552.5	-0.03083984694	0.07069315172	
553.125	-0.004853260595	0.05601390351	
553.75	0.04397974778	0.03710506561	
554.375	0.08222825751	-0.007201518135	
555.0	0.08245188531	-0.06988706867	
555.625	0.06983235989	-0.1002541134	
556.25	0.04944932165	-0.1277027073	
556.875	-0.04201147346	-0.1390849125	
557.5	-0.09579046444	-0.08614112122	
558.125	-0.1083852776	-0.02653228639	
558.75	-0.09935255804	0.008550062524	
559.375	-0.09678186046	0.02926958167	
560.0	-0.07992029451	0.07450183298	
560.625	-0.03692107313	0.1018457133	
561.25	0.01330880279	0.08805975809	
561.875	0.03032619179	0.03871296453	
562.5	0.01315827955	0.04614404703	
563.125	0.0671308049	0.0609132694	
563.75	0.1253902359	-0.006895966028	
564.375	0.1081689638	-0.09457281695	
565.0	0.05465197121	-0.1362237852	
565.625	-0.04004490751	-0.1362286515	
566.25	-0.109289423	-0.08856579069	
566.875	-0.1285950137	-0.05868196322	
567.5	-0.1308025662	-0.08250378	
568.125	-0.1406540801	-0.1186068667	
568.75	-0.2018865409	-0.04397188457	
569.375	-0.1911884292	0.1085719934	
570.0	-0.08230761263	0.1870114551	
570.625	-0.02600036626	0.1580325028	
571.25	0.01883083386	0.1010612768	
571.875	0.05831749399	0.05724188196	
572.5	0.1085349411	-0.01200758359	
573.125	0.06827905039	-0.1047206015	
573.75	0.02692873829	-0.1026959122	
574.375	0.002288396211	-0.06166924392	
575.0	0.02282417914	-0.03544099098	
575.625	0.02712166096	-0.06753240947	
576.25	0.02927391539	-0.09947887158	
576.875	-0.01437169801	-0.1241738068	
577.5	-0.01467866397	-0.1386520646	
578.125	-0.05366415024	-0.1350198691	
578.75	-0.08637114047	-0.09805079089	
579.375	-0.08207578839	-0.04717252611	
580.0	-0.04881221568	-0.02136313994	
580.625	-0.06529882846	-0.01716626745	
581.25	-0.08209636208	0.07584017833	
581.875	0.01966796563	0.1347823577	
582.5	0.06136373436	0.1170467074	
583.125	0.07481117998	0.06087351562	
583.75	0.03701464654	0.01371802362	
584.375	0.03363701624	0.0475818066	
585.0	0.1021384245	0.04334216336	
585.625	0.1348460436	-0.01489476151	
586.25	0.1249421991	-0.06914439935	
586.875	0.05308305064	-0.1243050761	
587.5	-0.02321315798	-0.1224394219	
588.125	-0.02722783422	-0.1199032167	
588.75	0.01379613803	-0.1278154778	
589.375	0.03834045678	-0.1401541138	
590.0	-0.06827101739	-0.1457516097	
590.625	-0.1630641047	-0.01960361506	
591.25	-0.1020691245	0.1084762206	
591.875	-0.01576449758	0.1073394513	
592.5	0.01431045112	0.0425436275	
593.125	-0.01932987877	0.04545164536	
593.75	0.0556656142	0.09918425509	
594.375	0.139181708	0.07359893825	
595.0	0.1553552804	0.06910738818	
595.625	0.1545999854	0.0473980237	
596.25	0.1402035455	0.01910179352	
596.875	0.1388623492	0.01418221576	
597.5	0.1359514991	0.05364258147	
598.125	0.1416257565	0.07895334695	
598.75	0.1615666811	0.05187592048	
599.375	0.1799226302	-0.05171383361	
600.0	0.1283835687	-0.1440513827	
600.625	0.09564669063	-0.1714641995	
601.25	0.0289753736	-0.1726998676	
601.875	-0.0848690982	-0.1136079074	
602.5	-0.114382169	-0.0004835079616	
603.125	-0.09111931532	0.05399927008	
603.75	-0.08331094817	0.07370327361	
604.375	-0.07722267412	0.07509620943	
605.0	-0.05389547691	0.07410915185	
605.625	-0.05587645446	0.06179797482	
606.25	-0.08990706984	0.06486916362	
606.875	-0.1382421921	0.09212514561	
607.5	-0.1229038798	0.1719994673	
608.125	0.002561935576	0.2180692859	
608.75	0.1742151322	0.1259702192	
609.375	0.2029488026	-0.0512854619	
610.0	0.1340329322	-0.123503507	
610.625	0.05621249619	-0.151318451	
611.25	-0.01301596947	-0.1400364062	
611.875	-0.08445679463	-0.101047159	
612.5	-0.1498590246	-0.04434880968	
613.125	-0.1655540528	0.04862984849	
613.75	-0.06606246451	0.138254954	
614.375	0.05077339369	0.09236912701	
615.0	0.0376761812	0.03630592743	
615.625	0.00438097307	0.07652933284	
616.25	-0.02749670436	0.1295977357	
616.875	-0.05791727499	0.1687825975	
617.5	-0.04250820427	0.1984826582	
618.125	-0.0007088278641	0.1905862035	
618.75	0.03984039718	0.167281522	
619.375	0.1016597228	0.1344315409	
620.0	0.1722771627	0.01950994024	
620.625	0.08282053438	-0.1498672527	
621.25	-0.09627666277	-0.1560098314	
621.875	-0.1895811555	-0.05667305115	
622.5	-0.1836612207	0.07532453575	
623.125	-0.01713232895	0.1688554503	
623.75	0.1212286215	0.02776689225	
624.375	0.03166545341	-0.05291534645	
625.0	0.03214790998	-0.02662716544	
625.625	0.03854770818	-0.08359961559	
626.25	-0.05397489778	-0.1183459965	
626.875	-0.1284481065	-0.06579424087	
627.5	-0.1317258245	-0.02860297193	
628.125	-0.1027076379	-0.05424966446	
628.75	-0.07483525728	-0.1026533294	
629.375	-0.09350289622	-0.1272930294	
630.0	-0.1743124932	-0.07244963423	
630.625	-0.1924200252	0.07749879333	
631.25	-0.1086101608	0.1876483439	
631.875	0.002606152438	0.2207201996	
632.5	0.1466120423	0.1613244665	
633.125	0.1927325711	0.0292086551	
633.75	0.1447076434	-0.07593341441	
634.375	0.04591496559	-0.1256849249	
635.0	-0.02474503897	-0.1326808859	
635.625	-0.1377603119	-0.06979951177	
636.25	-0.1340148064	0.07658986061	
636.875	-0.04768169693	0.1181428107	
637.5	-0.02653870212	0.0836589561	
638.125	-0.05054174707	0.08316345229	
638.75	-0.05074155631	0.1510645867	
639.375	0.01721897469	0.2212914351	
640.0	0.142959599	0.2051246332	
640.625	0.2250685316	0.1100288332	
641.25	0.2455118739	-0.02654664508	
641.875	0.1390464288	-0.1771551671	
642.5	-0.02217262738	-0.190275752	
643.125	-0.1185316994	-0.09908535439	
643.75	-0.1254891601	-0.0538569454	
644.375	-0.1567879332	0.01259863249	
645.0	-0.1216764863	0.148353709	
645.625	0.0660138636	0.188744469	
646.25	0.1548860605	0.05542972938	
646.875	0.08628531017	-0.0238857264	
647.5	0.05137843737	0.02521865723	
648.125	0.1451559577	0.03518225978	
648.75	0.2248967037	-0.07828242068	
649.375	0.180708428	-0.2266073077	
650.0	0.1217402459	-0.2776320277	
650.625	0.1161086768	-0.262804463	
651.25	0.1549253804	-0.220042219	
651.875	0.2054273857	-0.1648271052	
652.5	0.2362146953	-0.1052679826	
653.125	0.2303086498	-0.1178990805	
653.75	0.1539607325	-0.220152869	
654.375	-0.07347263938	-0.2661366479	
655.0	-0.2600887877	-0.06315229214	
655.625	-0.147103666	0.1751990203	
656.25	0.04216438208	0.1536410983	
656.875	0.05281873946	0.05605786853	
657.5	0.03789192207	0.08792074493	
658.125	0.1379848584	0.1332679528	
658.75	0.2667672722	0.04838513306	
659.375	0.2772460162	-0.14924388	
660.0	0.1767561987	-0.272647772	
660.625	0.1011588676	-0.2952808702	
661.25	0.1228082624	-0.2716005217	
661.875	0.1733966646	-0.2354783068	
662.5	0.2126553538	-0.1953002203	
663.125	0.2143998571	-0.1901085127	
663.75	0.1219994947	-0.2603450838	
664.375	-0.05759813266	-0.2885825269	
665.0	-0.2516248335	-0.166520915	
665.625	-0.2737320721	0.1008265253	
666.25	-0.06916890393	0.2466745253	
666.875	0.1180192851	0.1743835367	
667.5	0.1709644463	0.07001099709	
668.125	0.1935049594	-0.02885671191	
668.75	0.1584713774	-0.1399714522	
669.375	0.07040928229	-0.2012698344	
670.0	-0.006244320299	-0.1950482475	
670.625	-0.003087834664	-0.1704653589	
671.25	0.04231462452	-0.1605539913	
671.875	0.1093809626	-0.1566810338	
672.5	0.1677911904	-0.1420419594	
673.125	0.1734714373	-0.162829374	
673.75	0.1267253229	-0.2043972465	
674.375	0.02633183539	-0.2344799642	
675.0	-0.09513957024	-0.2039091962	
675.625	-0.1733492693	-0.1008633008	
676.25	-0.1609180895	-0.01077081213	
676.875	-0.1314883837	0.01870318639	
677.5	-0.1339981141	0.03837317363	
678.125	-0.1093923095	0.1358097861	
678.75	0.0468587503	0.1944653455	
679.375	0.1896095882	0.05431919028	
680.0	0.1268852795	-0.08924902406	
680.625	0.05617158823	-0.07814813999	
681.25	0.077274399	-0.01601873865	
681.875	0.1336912239	0.03677020553	
682.5	0.1833563661	0.07093028138	
683.125	0.2176904742	0.05610629753	
683.75	0.2363745049	0.04534329963	
684.375	0.2446262747	0.02389473421	
685.0	0.2527742027	0.0189034992	
685.625	0.257270329	-0.01524089307	
686.25	0.2599770151	-0.05853221244	
686.875	0.2548482697	-0.1500401296	
687.5	0.1982978652	-0.2779797532	
688.125	-0.06064487259	-0.3834962356	
688.75	-0.382371197	-0.131154106	
689.375	-0.2282447577	0.3030935818	
690.0	0.1164155781	0.3033415209	
690.625	0.2266566419	0.2035481857	
691.25	0.2965140337	0.2156323291	
691.875	0.4148105407	0.2421121024	
692.5	0.5394982384	0.151990961	
693.125	0.5820326056	-0.05823101385	
693.75	0.5031754148	-0.2478878974	
694.375	0.3613487974	-0.3672608943	
695.0	0.3752500192	-0.2776786851	
695.625	0.4348908901	-0.1038669617	
696.25	0.4401922576	0.1128048476	
696.875	0.3708945941	0.3026468308	
697.5	0.3668091895	0.3496451892	
698.125	0.5081176546	0.1431271428	
698.75	0.3396197696	-0.393485842	
699.375	-0.3691427344	-0.2984265947	
700.0	-0.2192229842	0.3254992167	
700.625	0.1450955896	0.2450065929	
701.25	0.2089892256	0.138257345	
701.875	0.2434215812	0.186079833	
702.5	0.3153092345	0.1881040359	
703.125	0.3733549063	0.07676753871	
703.75	0.3323899822	-0.1115217881	
704.375	0.2319315504	-0.183130567	
705.0	0.2046515478	-0.1318093092	
705.625	0.2305405633	-0.01176845739	
706.25	0.2254310806	0.1395536515	
706.875	0.2188840938	0.2381122935	
707.5	0.2553408504	0.2775201007	
708.125	0.3911175257	0.08098399597	
708.75	0.2248607739	-0.3171760599	
709.375	-0.2480083432	-0.2240625479	
710.0	-0.1471859158	0.1925062535	
710.625	0.07096794769	0.1260846441	
711.25	0.08862069499	0.09102629337	
711.875	0.1867721372	0.08552005166	
712.5	0.2670804902	-0.04010688006	
713.125	0.2183989383	-0.1680339943	
713.75	0.1025245158	-0.2260741129	
714.375	-0.002035663703	-0.2084512696	
715.0	-0.03011016226	-0.1765575688	
715.625	0.004859089611	-0.1888155998	
716.25	0.1167953816	-0.2120167	
716.875	0.2684780046	-0.1690642788	
717.5	0.4226805761	-0.06016896437	
718.125	0.5531182417	-0.003904312187	
718.75	0.6219429183	-0.1509131697	
719.375	0.5651777192	-0.4034609667	
720.0	0.3353416324	-0.7112999237	
720.625	0.1079186433	-0.7703315079	
721.25	-0.114985579	-0.7994603937	
721.875	-0.273121566	-0.7891836691	
722.5	-0.5812817852	-0.577135561	
723.125	-0.6711369693	-0.04987087026	
723.75	-0.3096792146	0.4043433729	
724.375	0.05457518618	0.3880008594	
725.0	0.1674426712	0.305649367	
725.625	0.1686134203	0.3756150128	
726.25	0.07416410521	0.5574426027	
726.875	-0.005165012292	0.7769095404	
727.5	-0.01073205916	1.133008499	
728.125	0.1220146267	1.542136182	
728.75	0.08802183306	2.180872218	
729.375	-0.3442149711	2.933826789	
730.0	0.4154882158	3.145522154	
730.625	0.2518748572	3.167258383	
731.25	-0.3259780876	2.952358796	
731.875	-1.782465465	2.170830817	
732.5	-2.467344922	0.9515969164	
733.125	-1.88886036	0.6024434197	
733.75	-0.5685270111	1.138666546	
734.375	0.7289846236	0.2816366121	
735.0	-0.05837293664	-0.510074003	
735.625	-0.3963084501	0.1276174751	
736.25	-0.01434434249	0.4437671732	
736.875	0.3744603211	0.4273842659	
737.5	0.8531417431	0.0836239684	
738.125	1.151582732	-0.4260696122	
738.75	1.305059971	-1.063155133	
739.375	1.571591773	-1.363684047	
740.0	2.035567614	-1.212221433	
740.625	2.244456404	-0.3581119758	
741.25	0.6292723612	1.790017038	
741.875	-2.255767768	0.5317071218	
742.5	-1.223378886	-1.916568906	
743.125	-0.1177969848	-1.611563352	
743.75	-0.1916468574	-0.8021513734	
744.375	-0.3511553774	-0.04113728925	
745.0	0.06521510279	0.07054367105	
745.625	0.04439295911	-0.002391777825	
746.25	-0.01456246667	-0.1136932584	
746.875	-0.1798087004	0.01482928877	
747.5	-0.06487386622	0.2989188952	
748.125	0.1339039356	0.3900431563	
748.75	0.262807566	0.3533328459	
749.375	0.1698125793	0.3811361492	
750.0	-0.2660923838	0.2913684017	
