!Created with skrf (http://scikit-rf.org).
# GHz S RI R (50+0j) 
!freq	ReS11	ImS11	
500.0	-0.2392153967	-0.9005133099	
500.625	0.5501331658	-0.5043412219	
501.25	-0.498011529	-0.6515069757	
501.875	-0.2324844968	-0.08599316755	
502.5	0.01872358617	-0.1329334247	
503.125	-0.06954157854	0.04625653391	
503.75	-0.0265372568	0.0132650978	
504.375	0.05154356217	-0.008011400578	
505.0	-0.01658024277	-0.003958346405	
505.625	0.03170048081	-0.09375606462	
506.25	-0.1227333708	0.01600943234	
506.875	-0.0009601410879	-0.1630740087	
507.5	-0.3334637456	-0.4453724013	
508.125	0.0497773023	-0.1537965543	
508.75	0.7638019902	-1.086865592	
509.375	-0.6631272568	-1.194148236	
510.0	-0.1021205211	-0.1213747576	
510.625	-0.1080807664	-0.2319964711	
511.25	-0.0488398253	0.003565345859	
511.875	-0.06865824405	-0.08755752195	
512.5	-0.02990434897	0.04640820853	
513.125	-0.0332834932	-0.03615690406	
513.75	0.007016815592	-0.07067583353	
514.375	-0.1297985924	0.03174307923	
515.0	0.3190018809	-0.03387353942	
515.625	-0.4454242313	-0.4037984556	
516.25	0.500500627	-0.1240051033	
516.875	-0.1260140585	-0.6705475928	
517.5	-0.1871549892	-0.1346445982	
518.125	0.04531622624	-0.03659903295	
518.75	-0.1356341923	-0.1312067713	
519.375	-0.01869266198	0.014315322	
520.0	0.1054355699	0.05671863391	
520.625	0.1414997683	-0.09149260527	
521.25	-0.03160813187	-0.1818793689	
521.875	-0.1012232057	-0.06098460066	
522.5	-0.06519123268	0.03401302794	
523.125	0.01825479743	-0.05295092886	
523.75	-0.1124035825	-0.08253624521	
524.375	-0.08533836946	0.1211436823	
525.0	-0.06635994487	0.006938187719	
525.625	0.04366006642	0.1259343544	
526.25	-0.05087390948	-0.07849316665	
526.875	-0.0190932794	0.1036563535	
527.5	-0.041726116	0.05232299184	
528.125	-0.003670876858	0.2921187218	
528.75	0.1151143367	0.1361690188	
529.375	-0.02652672163	0.008714437216	
530.0	0.09267929016	0.2056556685	
530.625	0.07333840238	0.328721027	
531.25	0.3435296107	0.06652222746	
531.875	0.1997808434	-0.2739762708	
532.5	-0.1041208622	-0.0546097329	
533.125	0.1718060313	-0.07013641254	
533.75	-0.01649457644	-0.09892493885	
534.375	-0.01853444494	-0.2510392202	
535.0	-0.3210168884	-0.0856435982	
535.625	-0.06845169474	0.09173631373	
536.25	-0.02405087073	0.08790593825	
536.875	0.1012425024	-0.01733169008	
537.5	0.03057999544	-0.01138731261	
538.125	0.1559224788	-0.06859907625	
538.75	0.04216311879	-0.1160396123	
539.375	-0.01386775396	-0.1409123782	
540.0	-0.1754692826	-0.1448808801	
540.625	-0.1408602478	0.01577170765	
541.25	-0.06058488188	-0.01545376756	
541.875	-0.08473700902	0.01477243363	
542.5	0.003326073782	-0.0381788455	
543.125	-0.06550476287	-0.09664192388	
543.75	-0.07082540986	0.05517433357	
544.375	-0.05720718015	-0.004329199271	
545.0	0.03306457046	0.1202381703	
545.625	0.004833404471	0.009698653927	
546.25	0.1606104012	0.1121391481	
546.875	0.07306066055	-0.09544605794	
547.5	0.07501384371	-0.04582727494	
548.125	-0.05177118592	-0.2042421929	
548.75	-0.1295243887	-0.02995128169	
549.375	-0.0574631034	-0.08240782145	
550.0	-0.1163891215	0.03414803141	
550.625	-0.005718935805	-0.005740031196	
551.25	-0.1057983813	0.03897818847	
551.875	-0.02450984293	0.07077137977	
552.5	-0.04713227772	0.04982750193	
553.125	-0.002109933419	0.07007414841	
553.75	0.03515451559	0.03142096381	
554.375	0.08934229363	-0.004388864136	
555.0	0.0764023807	-0.08004608928	
555.625	0.06686839288	-0.09675029232	
556.25	0.05510424418	-0.1317585859	
556.875	-0.04684180826	-0.1399270611	
557.5	-0.09430357828	-0.08279581925	
558.125	-0.1056800433	-0.03056534526	
558.75	-0.1067082841	0.008355000164	
559.375	-0.08914995205	0.03036162612	
560.0	-0.09019835941	0.06251083248	
560.625	-0.03802957409	0.1202255952	
561.25	0.02313250242	0.06071263888	
561.875	0.01563765477	0.07025525489	
562.5	0.03227976771	0.01388477921	
563.125	0.04774179864	0.09487926671	
563.75	0.1518572791	-0.03900462692	
564.375	0.06523094198	-0.07517031999	
565.0	0.1044721128	-0.1303980409	
565.625	-0.08502113623	-0.1515455342	
566.25	-0.06267095414	-0.05585538968	
566.875	-0.1472296766	-0.1178817759	
567.5	-0.1512073847	-0.03167949921	
568.125	-0.06603372774	-0.1481335024	
568.75	-0.3012426875	-0.05799291974	
569.375	-0.1108203874	0.1340860017	
570.0	-0.1494550082	0.1328347106	
570.625	-0.02378431182	0.2472717044	
571.25	0.01224272505	-0.01284347596	
571.875	0.06511734873	0.1602185262	
572.5	0.08492433077	-0.09434062673	
573.125	0.09254176946	-0.005857191921	
573.75	0.06101669562	-0.2127079988	
574.375	-0.08190673025	-0.004075137361	
575.0	0.1231035697	-0.04824479342	
575.625	-0.06310854361	-0.08923968491	
576.25	0.09000371383	-0.01981012075	
576.875	-0.004604512682	-0.207115964	
577.5	-0.09812802301	-0.1168488543	
578.125	0.02009193297	-0.08396206338	
578.75	-0.09089433696	-0.2228610295	
579.375	-0.1465619849	0.05714571623	
580.0	0.03519677171	-0.07589443553	
580.625	-0.1568415708	0.04237038233	
581.25	0.0367069164	-0.04223322668	
581.875	-0.0967707675	0.212402779	
582.5	0.1772432092	0.1454950567	
583.125	-0.04875996535	-0.03703686387	
583.75	0.108517729	0.1264480392	
584.375	0.01410538545	-0.06282606499	
585.0	0.1042464885	0.1650755006	
585.625	0.179702909	-0.1110932733	
586.25	0.03142206575	-0.01413366222	
586.875	0.1497254719	-0.1341615249	
587.5	-0.1159333028	-0.1471325975	
588.125	0.04174281415	-0.06311392508	
588.75	0.05363341734	-0.1984366022	
589.375	-0.04091275926	-0.1491335891	
590.0	0.02399018121	-0.1111668976	
590.625	-0.2773993974	-0.04805134944	
591.25	0.001219143123	0.1333930693	
591.875	-0.1103118618	0.01908854166	
592.5	0.06955196739	0.1489940737	
593.125	-0.1262268827	-0.07623800351	
593.75	0.1860815763	0.2065287959	
594.375	0.09883981285	-0.02442379058	
595.0	0.07994005827	0.1538603424	
595.625	0.2654034249	0.01191110379	
596.25	0.05682668229	-0.0351966054	
596.875	0.2133608849	0.08919004258	
597.5	0.178858124	-0.01293927287	
598.125	0.06245846659	0.102544687	
598.75	0.2243351423	0.0870471407	
599.375	0.1548725513	-0.1271206625	
600.0	0.1031400467	-0.07307442526	
600.625	0.1570219708	-0.1850754691	
601.25	-0.0004058453681	-0.2076925649	
601.875	-0.04053975415	-0.04678705241	
602.5	-0.1826327068	-0.0678789047	
603.125	-0.0182020135	0.1329485087	
603.75	-0.08929089184	-0.0213682027	
604.375	-0.1659123988	0.1815816329	
605.0	0.06854800095	0.01508658358	
605.625	-0.1673952921	0.03491569493	
606.25	-0.005453783092	0.1423795827	
606.875	-0.2028112224	-0.04504933649	
607.5	-0.2020484482	0.2411006304	
608.125	0.1093442241	0.208131087	
608.75	0.0922829099	0.1357360859	
609.375	0.1798810272	-0.1166017531	
610.0	0.09447174842	-0.1331279637	
610.625	0.09259893579	-0.06598531986	
611.25	-0.01540932825	-0.1934265789	
611.875	-0.1435853475	-0.0882252086	
612.5	-0.1211633128	-0.1192125632	
613.125	-0.227378373	0.08683668167	
613.75	0.04852964609	0.148905468	
614.375	-0.04123794395	0.1291987694	
615.0	0.1618587942	-0.004922156739	
615.625	-0.09161688042	0.02255617271	
616.25	-0.03849552941	0.2418061688	
616.875	0.04961947915	0.1188011139	
617.5	-0.1005656635	0.2135327551	
618.125	0.05892484168	0.2559200747	
618.75	0.03039199797	0.1249104244	
619.375	0.04487166141	0.1886805544	
620.0	0.2107744977	0.001672488466	
620.625	0.04987579875	-0.1328453348	
621.25	-0.05473050592	-0.07184789937	
621.875	-0.2368737284	-0.0584598876	
622.5	-0.09797016372	0.1832811354	
623.125	-0.06414021986	0.1203111027	
623.75	0.2064339691	0.02992671746	
624.375	-0.03046497236	-0.0227263079	
625.0	0.139148277	-0.06969876973	
625.625	-0.04937336035	-0.07121918886	
626.25	0.01256025135	-0.1357026524	
626.875	-0.197655373	-0.08412620184	
627.5	-0.1033106999	0.03931617804	
628.125	-0.06915719264	-0.1252638027	
628.75	-0.1457438089	-0.08712215856	
629.375	-0.06508027317	-0.09519227999	
630.0	-0.1855382406	-0.09802285548	
630.625	-0.1920250791	0.1343016791	
631.25	-0.07603404067	0.1447553852	
631.875	-0.04931097752	0.2263668304	
632.5	0.2396683965	0.2022166847	
633.125	0.1397627266	-0.008478226843	
633.75	0.1738760002	-0.0005995882765	
634.375	-0.06141517765	-0.2654997188	
635.0	0.02338331733	-0.07572612126	
635.625	-0.2523267823	-0.1516484603	
636.25	-0.05802540245	0.1694693123	
636.875	-0.0761542462	0.04010250895	
637.5	-0.03757017873	0.2116982057	
638.125	0.02290280325	-0.001727189203	
638.75	-0.1300534346	0.1855341346	
639.375	0.1236432635	0.2657506897	
640.0	0.09135617103	0.08089526398	
640.625	0.2400535138	0.2040393536	
641.25	0.2931168483	-0.1395974994	
641.875	0.06309090233	-0.1121748694	
642.5	0.05753907012	-0.249197678	
643.125	-0.2668219679	-0.0630568838	
643.75	-0.01735239584	-0.06040778341	
644.375	-0.2668953813	-0.001980954221	
645.0	0.03193940381	0.2629136999	
645.625	-0.09230165051	0.06190506318	
646.25	0.3218247655	0.1519946133	
646.875	-0.04353191942	-0.1911067445	
647.5	0.1384130278	0.2364089138	
648.125	0.1563862811	-0.1461741255	
648.75	0.1353560832	0.1502559132	
649.375	0.3500374495	-0.3727039212	
650.0	-0.07331178174	-0.3196671031	
650.625	0.1433719786	-0.1059246742	
651.25	0.3070245197	-0.3355527443	
651.875	0.01912233954	-0.2829970393	
652.5	0.2187237603	0.03431080813	
653.125	0.3384665004	-0.2500406687	
653.75	-0.02446873492	-0.2005835449	
654.375	0.05678284622	-0.2552992502	
655.0	-0.4440540447	-0.02849453449	
655.625	0.008234911273	0.1988641972	
656.25	-0.1163218623	0.05421812132	
656.875	0.2072146246	0.1896302899	
657.5	-0.08069139617	-0.03036324371	
658.125	0.2837459866	0.3327034449	
658.75	0.2660841256	-0.1700049274	
659.375	0.1695089108	-0.04270183318	
660.0	0.3674864209	-0.3724387879	
660.625	-0.1789094291	-0.3150360755	
661.25	0.1935701554	-0.1062354708	
661.875	0.229805338	-0.3871258818	
662.5	0.08414947446	-0.2752818761	
663.125	0.2004584563	-0.05789054759	
663.75	0.1350379518	-0.4254281614	
664.375	-0.1663571636	-0.1782970511	
665.0	-0.1740345715	-0.205992666	
665.625	-0.3639809896	0.1787220608	
666.25	0.05401070886	0.1930502578	
666.875	0.02775913934	0.2008513489	
667.5	0.28498589	0.05353367418	
668.125	0.08207957544	-0.08388414673	
668.75	0.2921669684	-0.0257872984	
669.375	-0.03242602508	-0.353970897	
670.0	-0.02473813414	-0.07236226289	
670.625	0.08759198187	-0.2320588253	
671.25	-0.1513837507	-0.2198961022	
671.875	0.132627679	0.02716979585	
672.5	0.2766875892	-0.2621311521	
673.125	0.0307887296	-0.2073369926	
673.75	0.1872065686	-0.1269346625	
674.375	0.03548593846	-0.3605987565	
675.0	-0.2012221158	-0.0589651731	
675.625	-0.06322825318	-0.1511771829	
676.25	-0.2740318031	0.03110438986	
676.875	-0.02292405325	0.09730418874	
677.5	-0.1905067879	-0.06293348167	
678.125	-0.05769833329	0.2876215367	
678.75	0.068279994	0.07593090386	
679.375	0.1609766942	0.164814142	
680.0	0.2064759841	-0.2397206235	
680.625	-0.1602313207	0.03932808576	
681.25	0.2765273504	0.03506193089	
681.875	0.09248242613	-0.2128529583	
682.5	-0.02390137854	0.195411606	
683.125	0.4374754624	0.1478048289	
683.75	0.1231831204	-0.2168461701	
684.375	0.3025213322	0.3064942495	
685.0	0.4081618179	-0.09188959515	
685.625	0.1172191141	-0.1806749978	
686.25	0.3991362894	0.06675033996	
686.875	0.1576337651	-0.3617082853	
687.5	0.08347052375	-0.1540576289	
688.125	0.01459839745	-0.4282651677	
688.75	-0.4706652675	0.009758855387	
689.375	-0.08021796301	0.2167834227	
690.0	0.09633505489	0.3524688568	
690.625	0.3673869296	0.1153267449	
691.25	0.178929579	0.1132514282	
691.875	0.5190430698	0.4166160727	
692.5	0.6466140502	-0.1779828417	
693.125	0.3921558632	0.05587514951	
693.75	0.6679873177	-0.2333027243	
694.375	0.1455952403	-0.5553416121	
695.0	0.3764001134	-0.007875193221	
695.625	0.5954232445	-0.352627718	
696.25	0.2859425317	-0.06666681409	
696.875	0.3440931971	0.405047823	
697.5	0.5920485736	0.3840346305	
698.125	0.4601496305	0.1374899772	
698.75	0.3164297423	-0.4647861514	
699.375	-0.3375680159	-0.2078247908	
700.0	-0.1401284449	0.4268582412	
700.625	0.04077293962	0.1758811239	
701.25	0.3123351701	0.1904007078	
701.875	0.3228927281	0.003167117491	
702.5	0.2307355731	0.2585384386	
703.125	0.5539089232	0.06348402358	
703.75	0.2011223283	-0.1970145615	
704.375	0.3114614023	-0.06822510653	
705.0	0.2223943005	-0.2711439074	
705.625	0.09440380005	0.002804052903	
706.25	0.2654366411	0.26639745	
706.875	0.3447267242	0.1083911513	
707.5	0.2926431467	0.313073697	
708.125	0.4288067345	-0.02288131579	
708.75	0.1523098996	-0.3958927137	
709.375	-0.2663323707	-0.1425633599	
710.0	-0.06901859964	0.08663769685	
710.625	0.1565251468	0.07685058044	
711.25	-0.03321336684	-0.002526918929	
711.875	0.2869176335	0.08945955147	
712.5	0.2139538234	-0.2965477238	
713.125	0.1898157665	-0.01306050591	
713.75	0.1440753413	-0.3701363918	
714.375	-0.1251297607	-0.1805145991	
715.0	0.08227673288	-0.1499417609	
715.625	-0.06049898539	-0.2927651065	
716.25	0.03026739625	-0.1355000327	
716.875	0.3694598437	-0.1067401011	
717.5	0.4944810493	-0.2658011325	
718.125	0.3677169837	-0.09751976849	
718.75	0.7643173081	-0.1250748016	
719.375	0.6379685051	-0.5983784742	
720.0	0.07689446048	-0.6419749276	
720.625	0.1651533732	-1.009358775	
721.25	-0.5041061559	-0.7742134398	
721.875	-0.1677259124	-0.5533392077	
722.5	-0.6968974494	-0.7009213761	
723.125	-0.8298823172	0.3507103648	
723.75	-0.1005472361	0.1913984157	
724.375	-0.0636616804	0.8388259906	
725.0	0.4018723466	0.1088862988	
725.625	-0.006813558684	0.3408652319	
726.25	0.1186647148	0.8228006839	
726.875	0.3232338467	0.5846867542	
727.5	-0.3413477543	0.8830012933	
728.125	0.3679124102	2.117744572	
728.75	1.247399279	1.844976267	
729.375	-1.088145065	1.956962407	
730.0	1.188173466	4.643381437	
730.625	1.530491585	1.760739824	
731.25	-0.9277361066	2.669289911	
731.875	-1.634381202	3.869690005	
732.5	-0.6649127	2.278974856	
733.125	-2.049615124	0.1622894848	
733.75	-0.2045420286	1.68503919	
734.375	0.6326284765	-0.2419189239	
735.0	0.3848983598	-0.4719925574	
735.625	-0.6792317591	0.6311660446	
736.25	0.01669887607	0.01142607522	
736.875	0.3481992302	0.7463712553	
737.5	1.10055849	-0.6335134625	
738.125	0.2089744529	-0.3346213499	
738.75	2.271846843	-0.492733225	
739.375	1.548968123	-3.217760595	
740.0	-0.08890045803	-0.1179814025	
740.625	3.59084489	2.182983815	
741.25	4.403068969	0.6088576095	
741.875	-1.790868419	-2.493645204	
742.5	-3.303102859	-2.290775282	
743.125	-1.207418239	-0.69697411	
743.75	0.3634650349	-0.5799443371	
744.375	-0.7370609031	-0.004518559114	
745.0	0.1595942074	-0.03785484775	
745.625	0.114934485	0.0358124972	
746.25	-0.1464330638	-0.05907546473	
746.875	-0.1022804062	-0.04003978615	
747.5	-0.07465020219	0.3978804333	
748.125	0.3398276647	0.2842651399	
748.75	0.1395033694	0.2543787794	
749.375	0.1297061043	0.5363883372	
750.0	-0.04970316169	0.2460781438	
