!Created with skrf (http://scikit-rf.org).
# GHz S MA R 50.0 
!freq magS11 angS11
500.0 0.017174992477 -178.092743219
500.625 0.00894038224333 118.880305479
501.25 0.0202458027409 -160.963375553
501.875 0.0160980588369 -109.331877148
502.5 0.0260049521467 163.212601663
503.125 0.0117528418053 71.6149920889
503.75 0.00980834587419 -25.1142486639
504.375 0.00160229507986 -160.799582518
505.0 0.0144679950506 -60.1006076469
505.625 0.0374036285821 -78.2441310995
506.25 0.0404523589025 -106.900371677
506.875 0.0646757880063 -98.7834188688
507.5 0.042254402837 -123.494884123
508.125 0.0477744201544 -104.727055846
508.75 0.0885570044458 -117.346338751
509.375 0.0493527864264 -179.49213249
510.0 0.0269295871535 -137.596195169
510.625 0.0385775337464 -166.771849992
511.25 0.0728892524306 -170.842896774
511.875 0.0551554329766 145.421850333
512.5 0.040203527613 103.888075616
513.125 0.0604147596785 50.3743919047
513.75 0.073220695582 45.047782118
514.375 0.0367364206216 17.1949569806
515.0 0.0479941087935 3.14014243134
515.625 0.0883351232891 50.172711729
516.25 0.110851407543 30.3410273305
516.875 0.0871048014634 65.7694087693
517.5 0.116294840995 19.4817089502
518.125 0.189731089853 68.3022247934
518.75 0.0922824662691 13.5961003715
519.375 0.0735818337209 18.744040066
520.0 0.108054111605 -2.12260268505
520.625 0.105005954043 -5.10060235538
521.25 0.09389917258 -21.622522188
521.875 0.0566025458348 -6.04884022812
522.5 0.0878098138564 -37.0085048366
523.125 0.179139866702 -36.1090332057
523.75 0.235912974255 -55.1579646109
524.375 0.191609080848 -66.3757755396
525.0 0.071748674704 -46.739765565
525.625 0.0441874807735 -28.0383396633
526.25 0.0442317059765 -16.126661631
526.875 0.0575892413844 -22.119124757
527.5 0.0528997627237 -27.725863866
528.125 0.0430112973253 -58.679148562
528.75 0.075461653004 -73.8220618052
529.375 0.0932383573175 -111.910560198
530.0 0.0475553021267 -142.111543749
530.625 0.0484692173315 -153.779253244
531.25 0.083693445942 -129.083539669
531.875 0.177233005807 -149.472359676
532.5 0.142887308655 -174.078724557
533.125 0.10293746555 174.635597536
533.75 0.124636414175 165.081775152
534.375 0.11739236531 178.003965157
535.0 0.0887938946094 161.61292621
535.625 0.0662175019368 175.247195657
536.25 0.0568115932151 159.665375659
536.875 0.0793857926589 -162.571444395
537.5 0.0890205819538 -146.683037017
538.125 0.116138473743 -177.601932054
538.75 0.100598689819 175.806065911
539.375 0.0797509186799 -165.902217032
540.0 0.0998461639742 -159.131832693
540.625 0.144444828681 -162.114338455
541.25 0.103886453878 -143.54649756
541.875 0.0943746736397 -144.483815141
542.5 0.101051174756 -143.591163947
543.125 0.147749301321 -170.580095986
543.75 0.122491322508 155.864755501
544.375 0.0992357225317 133.974867172
545.0 0.0884123212464 88.8989699644
545.625 0.102061628399 80.6700976397
546.25 0.104249155567 64.0979191024
546.875 0.0771820227589 52.7462411456
547.5 0.118004800738 55.9831382156
548.125 0.132445164897 75.6373473405
548.75 0.0789562489026 88.104373539
549.375 0.101082557049 83.5684426485
550.0 0.0938365699056 123.455238816
550.625 0.0518428160639 152.213633938
551.25 0.0440996392668 -154.278317462
551.875 0.0654688070653 -164.83698224
552.5 0.115921921252 -169.565634848
553.125 0.0957487857727 -172.200954199
553.75 0.0901603740438 -170.211712227
554.375 0.107567494674 165.285219814
555.0 0.131356624322 160.961284302
555.625 0.0995879780424 156.704193125
556.25 0.106094079586 156.965260816
556.875 0.104483517389 167.466223024
557.5 0.116198451005 165.430816277
558.125 0.0943616405596 162.237349186
558.75 0.0918331369494 173.390035101
559.375 0.0683961767437 -175.495079787
560.0 0.0496919329598 -153.277299218
560.625 0.0581694736314 -142.578714398
561.25 0.0914606719791 -156.813893085
561.875 0.100856317546 -164.72233099
562.5 0.0896035837172 174.065660218
563.125 0.105669778397 143.334727582
563.75 0.137163026573 126.988450205
564.375 0.108276021247 119.070693863
565.0 0.0924567665016 116.276235121
565.625 0.0836212083088 115.249323568
566.25 0.102867823432 146.342019164
566.875 0.0684784076457 -177.601935743
567.5 0.0722227039408 -178.30857521
568.125 0.0733496872436 -172.934279155
568.75 0.0775927561971 -155.692992335
569.375 0.0475443820724 -109.118184597
570.0 0.0601325720822 -112.096206753
570.625 0.0875513727542 -118.213455262
571.25 0.0939339169393 -127.748929576
571.875 0.0844111528248 -121.953288937
572.5 0.112578705189 -156.757191199
573.125 0.133399685261 -174.91227775
573.75 0.110799136356 157.436717926
574.375 0.0757697851276 154.494274901
575.0 0.100889209108 155.431003905
575.625 0.107532634135 153.701985439
576.25 0.0944464722159 142.021810861
576.875 0.08080161972 125.697938867
577.5 0.0837576007459 135.815151072
578.125 0.0619653903869 156.132849007
578.75 0.0529010549745 151.835996874
579.375 0.0513082926623 171.167223854
580.0 0.0649708923125 -179.319498942
580.625 0.0763413188044 -148.996359994
581.25 0.086263482085 -172.148198783
581.875 0.111657729721 -176.23176715
582.5 0.116824448678 -177.463532754
583.125 0.0973051803322 -174.213733548
583.75 0.0838881316151 -171.712737083
584.375 0.105247799266 -162.045436496
585.0 0.0953189947303 -145.092730227
585.625 0.0736248149271 -151.705208933
586.25 0.0719748017766 -150.967115418
586.875 0.0805700554415 -131.933739427
587.5 0.0742270647058 -145.043318024
588.125 0.0607750267592 177.216478968
588.75 0.0670461996756 -176.211401158
589.375 0.0801969717792 -155.681225771
590.0 0.091156065574 -169.224330555
590.625 0.102863464862 160.189940864
591.25 0.123205515263 150.357665462
591.875 0.104255124567 148.257726676
592.5 0.0607296953995 147.548896746
593.125 0.0634000982334 145.386451479
593.75 0.0768738849738 164.482570566
594.375 0.0600539035369 -160.825598717
595.0 0.0430537295187 -125.60140938
595.625 0.0584411624652 -107.781620922
596.25 0.0743972725872 -90.0722053203
596.875 0.0638645634859 -86.4514936685
597.5 0.0592547669377 -56.8582235444
598.125 0.0589471781405 -68.6771434439
598.75 0.068596057982 -77.0260331386
599.375 0.0902800648351 -63.1642139385
600.0 0.10313735855 -68.2188979243
600.625 0.0973151587942 -67.4998821605
601.25 0.086154401602 -79.8098822402
601.875 0.0669592837029 -93.1963494848
602.5 0.0629391393244 -85.6396444607
603.125 0.0470342963178 -62.6934873878
603.75 0.0319193086136 -38.3431542139
604.375 0.0285381479056 -48.2367688415
605.0 0.0762236094794 -6.9809006047
605.625 0.0535558504141 -10.0263240691
606.25 0.0222349825724 17.0316064006
606.875 0.0168356612066 39.3355347994
607.5 0.0531018322711 43.2981376512
608.125 0.0735321421909 24.2034309156
608.75 0.0610102667056 19.115428297
609.375 0.0450377556697 16.4430077268
610.0 0.0898446345743 51.6597012695
610.625 0.0657848281716 36.0643484814
611.25 0.0505994134948 39.3917464603
611.875 0.029021262838 10.2688391257
612.5 0.0192589085573 87.5643928294
613.125 0.0279682161167 123.931665328
613.75 0.0383626240802 118.390720452
614.375 0.0451167266102 119.677586306
615.0 0.0180487233427 102.735574448
615.625 0.0382780980718 132.527320293
616.25 0.062176676184 131.884584214
616.875 0.0520741975287 131.214751849
617.5 0.0219006542566 107.396942938
618.125 0.0290736322276 125.729796312
618.75 0.0432838806493 139.790804719
619.375 0.0200445243876 136.471670059
620.0 0.00559581532016 -15.035366447
620.625 0.0208556015672 -84.9039033844
621.25 0.0501204139841 -82.97097657
621.875 0.0608557348003 -109.97413425
622.5 0.0693163811613 -154.846806837
623.125 0.0902070049829 160.59731234
623.75 0.0717460567841 158.720242936
624.375 0.0434127531983 -179.160224592
625.0 0.0306348398605 -109.365648587
625.625 0.0672267789744 -161.62763622
626.25 0.0249295537577 171.780593214
626.875 0.00382169791429 -136.89312379
627.5 0.0506334502344 -13.9431178762
628.125 0.0424478689726 -27.0070848994
628.75 0.0395047249897 -12.9674385693
629.375 0.0524888169661 -7.66110165502
630.0 0.0682741991918 -1.76292453067
630.625 0.0703274686334 -0.416641864018
631.25 0.0655877710384 -9.9690767299
631.875 0.0674016349672 -11.1220093383
632.5 0.0720202424103 12.103043346
633.125 0.0503293747087 4.569390476
633.75 0.0427163983247 0.96038436748
634.375 0.0432102269975 18.7897407514
635.0 0.0348401795221 22.0407167078
635.625 0.0546809758837 45.5664811452
636.25 0.0390781919675 10.0214359631
636.875 0.0611246437031 34.1995810606
637.5 0.0545226390449 49.8799936008
638.125 0.0479810113722 66.8133312595
638.75 0.0714895154555 68.8526539521
639.375 0.0949549937955 89.4066096897
640.0 0.0741064594161 106.704442778
640.625 0.0550517194104 104.195016429
641.25 0.0801331353947 125.258745693
641.875 0.0683075422766 150.053110843
642.5 0.0561497863351 147.473596135
643.125 0.0733408585237 159.983243783
643.75 0.068973280882 162.990675059
644.375 0.077636503725 -175.920655076
645.0 0.0813573406363 174.225749099
645.625 0.0916514423173 166.194442595
646.25 0.100143921094 164.766046637
646.875 0.0686355016689 172.78552561
647.5 0.0667617404281 -177.847349853
648.125 0.0857865238575 -177.749148769
648.75 0.0916179870153 -161.222211
649.375 0.0398405960918 -167.914732874
650.0 0.0372853858356 -123.636385483
650.625 0.055671053881 -94.7795094
651.25 0.0831370001684 -69.4307224475
651.875 0.0469011824182 -46.4999775387
652.5 0.0875180485565 -25.6340614069
653.125 0.115446535634 -9.14909990807
653.75 0.123454054999 4.29785232221
654.375 0.109624820973 4.42669097422
655.0 0.121410088932 11.7233659808
655.625 0.0982390118258 25.2406891239
656.25 0.0746067574858 21.3369545695
656.875 0.0504006723168 -4.70939548594
657.5 0.0792754027788 17.9517797371
658.125 0.081333257471 43.8582047429
658.75 0.0649498933144 57.1639034688
659.375 0.0770938706714 36.9094007034
660.0 0.114092751092 22.9379876104
660.625 0.118234541316 15.0934755299
661.25 0.110175386918 2.02276529455
661.875 0.134634031648 -16.4493638969
662.5 0.129213076965 -23.2557252558
663.125 0.102762823697 -22.574175059
663.75 0.110825268961 1.97466214998
664.375 0.0954011045432 49.9989484544
665.0 0.0685267226523 85.7598630698
665.625 0.0670364096085 109.110445224
666.25 0.0923417264401 125.624745106
666.875 0.112549500403 167.529704269
667.5 0.0942747141424 -168.800001448
668.125 0.103307154496 178.622214603
668.75 0.138640559318 162.2325979
669.375 0.105608173667 173.552343249
670.0 0.0806108539749 -171.415682899
670.625 0.082806864833 -174.650729318
671.25 0.127131044682 168.022088301
671.875 0.0850198881854 164.88863471
672.5 0.0821457274055 151.187850435
673.125 0.0729639113451 151.21322198
673.75 0.120721010871 152.686372573
674.375 0.11177395937 166.698729777
675.0 0.114635093527 -176.57323856
675.625 0.125788528561 -153.658870049
676.25 0.133319351157 -129.680237191
676.875 0.107279834875 -121.641910593
677.5 0.119913388885 -129.343928223
678.125 0.114196949122 -119.884044165
678.75 0.0831391326798 -98.8246268093
679.375 0.0435458301792 -73.3510875919
680.0 0.0773039584093 -82.6591915862
680.625 0.127183555614 -83.9371809274
681.25 0.107478680531 -77.5410618107
681.875 0.103648769696 -98.8343940338
682.5 0.126061919707 -119.384236181
683.125 0.158071566184 -123.365964136
683.75 0.129555710907 -106.003817819
684.375 0.127154144465 -84.7146218889
685.0 0.136386506879 -43.7881933101
685.625 0.129197658901 -5.44668934753
686.25 0.113582537779 17.1505444392
686.875 0.100743820775 38.2830865812
687.5 0.0694147117386 80.6536826772
688.125 0.0809338781645 106.104477226
688.75 0.104403089517 104.937474872
689.375 0.14873158799 112.569105266
690.0 0.142285077851 127.282608837
690.625 0.12106099027 123.944478891
691.25 0.144089492264 93.8450216091
691.875 0.192573655426 64.3084683207
692.5 0.159627467507 34.3987182459
693.125 0.0761561066066 -12.0215547898
693.75 0.0955625021601 -42.5921734946
694.375 0.128732248864 -31.6221465463
695.0 0.138097644326 4.45095219349
695.625 0.106327060691 47.6541203851
696.25 0.114573436095 110.087191106
696.875 0.137659465046 172.716969091
697.5 0.138791115513 -143.337508204
698.125 0.147260137526 -141.260707791
698.75 0.131308530684 -135.358267426
699.375 0.114912552664 -131.169970169
700.0 0.100111479466 -121.211820002
700.625 0.108216288891 -92.1333170307
701.25 0.102323442002 -69.5206447684
701.875 0.0852813039597 -67.147339616
702.5 0.0965725676607 -88.8319045763
703.125 0.168355199754 -131.990555431
703.75 0.172928811965 -150.495261964
704.375 0.125620076115 171.807748269
705.0 0.10490746862 158.600671221
705.625 0.147186439592 179.747984477
706.25 0.142970158698 -112.56131234
706.875 0.0943330207724 -66.2026687312
707.5 0.0780463292874 -44.8888650156
708.125 0.0899263112868 9.18003846055
708.75 0.111943998671 56.5356680483
709.375 0.106286604054 99.4623908159
710.0 0.103837095626 126.065517227
710.625 0.10671717159 152.789567489
711.25 0.117999984841 164.97778158
711.875 0.143215178523 164.583945516
712.5 0.154658202306 137.12375287
713.125 0.1324664918 92.6725397701
713.75 0.108960945247 37.0428377787
714.375 0.108194330632 26.3661755916
715.0 0.116441972689 29.0025009782
715.625 0.0856023624968 55.3231543575
716.25 0.0730405920433 60.6128924498
716.875 0.122628433491 110.876703261
717.5 0.141317064615 139.312726616
718.125 0.121683651149 162.541885214
718.75 0.102223287242 166.582172991
719.375 0.10831568665 175.431269825
720.0 0.139085123971 -118.021722918
720.625 0.117788349234 -70.7424531466
721.25 0.100217049445 -27.826130775
721.875 0.0836631834363 29.5810783397
722.5 0.072076490632 60.8120479871
723.125 0.074704532812 65.3515043642
723.75 0.104537861961 35.6342797119
724.375 0.0984139987002 -15.5641700331
725.0 0.0939422936414 -40.7641648384
725.625 0.11338757828 -62.6866950237
726.25 0.113633500592 -66.8866796667
726.875 0.0963717360043 -69.8687266124
727.5 0.0925317045387 -19.100471171
728.125 0.0768260522434 -9.6816886991
728.75 0.0860773019619 9.64030324744
729.375 0.0850681567124 11.1808188993
730.0 0.0579758443171 -15.3027228856
730.625 0.090598786262 33.4837853164
731.25 0.0884741130176 68.3155554073
731.875 0.069387683886 111.904248921
732.5 0.0494764402248 136.305681768
733.125 0.086977866399 174.566686164
733.75 0.0890806326915 176.133020523
734.375 0.060448133193 164.196848072
735.0 0.0346983896039 122.626960625
735.625 0.0527067100904 133.997321902
736.25 0.0571008946501 140.409627536
736.875 0.04659264128 166.632993101
737.5 0.0526690490464 -176.118336086
738.125 0.126561306435 -171.424590495
738.75 0.0945101283483 -171.55001589
739.375 0.0588072375463 -167.651526674
740.0 0.0113775976999 -78.5187136443
740.625 0.0519990896625 -147.933859613
741.25 0.0398230107346 -152.262425709
741.875 0.0244423068013 -106.289329
742.5 0.0292846359874 -26.4924263584
743.125 0.0227042272026 78.4583064376
743.75 0.0331789910022 107.028798719
744.375 0.0327410995067 140.392278635
745.0 0.0523217729665 157.766542265
745.625 0.0725481072239 112.541862815
746.25 0.0738381111221 86.0135878227
746.875 0.0709201332787 34.9114553589
747.5 0.0385952358034 9.47463608077
748.125 0.0163245207687 63.0443695193
748.75 0.042724004898 -32.4328531502
749.375 0.0296754965197 -23.2340321226
750.0 0.0329615832719 -69.8354678115
