!Created with skrf (http://scikit-rf.org).
# GHz S RI R (50+0j) 
!freq	ReS11	ImS11	
500.0	0.338993259	-1.463819796	
500.625	-0.1360738835	-0.8421994942	
501.25	0.01627319167	-1.070267054	
501.875	-0.4602470544	-0.48711019	
502.5	0.004424933999	-0.08489508767	
503.125	-0.1140254872	-0.02308277714	
503.75	0.06739336847	0.06463227558	
504.375	0.01058250451	0.02046671708	
505.0	0.02295677355	-0.05980245362	
505.625	-0.002780605631	0.0009572076377	
506.25	-0.1131767093	-0.1704862757	
506.875	0.03630349454	0.1708922617	
507.5	0.05153334465	-0.6688446824	
508.125	-0.245569985	-0.6135284419	
508.75	0.6270434175	-0.3367268109	
509.375	0.5338632949	-2.10020977	
510.0	-0.6243064467	-0.08210950614	
510.625	-0.01578003275	-0.1053164807	
511.25	-0.1745998473	-0.1070443346	
511.875	-0.123769114	0.04335221873	
512.5	-0.06085186167	0.01078725757	
513.125	-0.01694177604	-0.1068626158	
513.75	-0.02109661371	-0.009778740065	
514.375	-0.0877020171	-0.1044094269	
515.0	-0.1134533824	0.2337483979	
515.625	-0.04957233538	-1.15181541	
516.25	-0.8318413657	-0.5158067357	
516.875	-0.05341990295	-0.1058442587	
517.5	0.06510799968	-0.2574075804	
518.125	0.001484832186	0.02281338168	
518.75	0.07302386081	-0.2166389458	
519.375	-0.04465463029	0.05729476222	
520.0	0.06451994277	0.03707368276	
520.625	0.1723782583	-0.07917278336	
521.25	-0.08429108523	-0.3589146395	
521.875	-0.06863322378	0.05222917052	
522.5	-0.0775721352	-0.05924202467	
523.125	-0.1119123507	0.1269804154	
523.75	0.02366241038	-0.09415649743	
524.375	-0.3416768274	0.03445056499	
525.0	0.101211791	0.1134573889	
525.625	-0.06653989315	0.05935915305	
526.25	0.07939972325	-0.02792535854	
526.875	-0.1370629891	0.07986681766	
527.5	0.0551187255	0.2666953942	
528.125	-0.04386960648	0.2146839267	
528.75	-0.09426812621	0.3008383759	
529.375	0.05619930489	0.04212593147	
530.0	-0.006472026247	0.1557198529	
530.625	0.2568729829	0.4088524119	
531.25	0.226473141	-0.01112147265	
531.875	0.1602120246	-0.06213640162	
532.5	-0.1129171602	-0.2086996884	
533.125	0.001010883672	0.177890695	
533.75	0.07943241634	-0.3106226871	
534.375	-0.1193817898	-0.1599594082	
535.0	-0.2312418264	-0.233237776	
535.625	-0.2053280256	0.1934658034	
536.25	-0.01705941573	0.05801535394	
536.875	0.1233991632	0.05389303279	
537.5	0.04567490095	-0.07770823706	
538.125	0.1098332185	0.01616628759	
538.75	0.1872010991	-0.1870357909	
539.375	-0.0856290295	-0.1459424551	
540.0	-0.08238029316	-0.1761833556	
540.625	-0.2402392996	-0.04927481094	
541.25	-0.03447758203	0.05436801672	
541.875	-0.04982158926	-0.08077719055	
542.5	-0.09579866193	-0.02884209026	
543.125	-0.03249740289	-0.1043274044	
543.75	-0.1453858084	0.03374805202	
544.375	0.03841995557	0.04073956739	
545.0	-0.04894714264	0.09850019236	
545.625	0.1436583011	0.04893262417	
546.25	0.0283056143	0.04076748439	
546.875	0.1913592701	-0.01388161639	
547.5	0.01353127197	-0.1248792099	
548.125	0.02706822838	-0.1766290067	
548.75	-0.1840301817	-0.1342250773	
549.375	-0.07832665166	-0.008934717281	
550.0	-0.1112139212	-0.04023881168	
550.625	-0.04208239751	0.05936315214	
551.25	-0.07915214574	-0.02010540894	
551.875	-0.1132108719	0.07956125818	
552.5	-0.01834778202	0.07970090343	
553.125	-0.04147815108	0.04950681177	
553.75	0.05686722865	0.04468452143	
554.375	0.08758601496	0.009983452434	
555.0	0.112980146	-0.07816953507	
555.625	0.08691926114	-0.1139405215	
556.25	0.07768131852	-0.1430463996	
556.875	-0.02858489616	-0.1736781592	
557.5	-0.1051289181	-0.1151317808	
558.125	-0.1182773923	-0.04305724279	
558.75	-0.1134196134	-0.01291565633	
559.375	-0.1287178333	0.02113341502	
560.0	-0.09234272634	0.07378644438	
560.625	-0.08589499802	0.1038017839	
561.25	0.02654751224	0.120933309	
561.875	0.0006677257751	0.02753703608	
562.5	0.03693262103	0.08281859117	
563.125	0.03883420297	0.0415473203	
563.75	0.1626229595	0.05132730923	
564.375	0.1560113658	-0.1417936024	
565.0	0.05076555222	-0.1119037482	
565.625	0.055994673	-0.1924317148	
566.25	-0.1652885759	-0.08815457508	
566.875	-0.08613855753	-0.1052358194	
567.5	-0.1949068638	-0.1712464329	
568.125	-0.1680906871	-0.05335388306	
568.75	-0.19885942	-0.1818470097	
569.375	-0.3008400891	0.1500749611	
570.0	-0.0320090993	0.1558417575	
570.625	-0.1758162579	0.1364883553	
571.25	0.05962506328	0.1938554721	
571.875	-0.02417647815	0.04907926021	
572.5	0.2308283683	0.008240895163	
573.125	-0.02444426386	-0.1183512385	
573.75	0.1329227575	-0.03897594325	
574.375	0.006740664076	-0.1746431233	
575.0	-0.01594608707	0.0449485699	
575.625	0.1321666871	-0.1232694987	
576.25	-0.03074487261	-0.1492250317	
576.875	0.04661660116	-0.0563301787	
577.5	0.0128811596	-0.2581458916	
578.125	-0.1601905802	-0.09593570206	
578.75	0.01828398676	-0.1203863103	
579.375	-0.169215782	-0.1344599523	
580.0	-0.01990712545	0.1058449712	
580.625	-0.1048434859	-0.2036036004	
581.25	-0.109786943	0.1865941358	
581.875	0.03355437229	0.05213012283	
582.5	-0.06329638991	0.2131181269	
583.125	0.192949489	0.1212001549	
583.75	-0.09155550022	-0.002710985722	
584.375	0.1394635589	0.1021471868	
585.0	0.01209802645	0.01253188901	
585.625	0.2464159431	0.08399237452	
586.25	0.1435808434	-0.1681932175	
586.875	0.03534690314	-0.05140344654	
587.5	0.06302651704	-0.2034410805	
588.125	-0.09709516891	-0.1926350735	
588.75	0.00624604155	-0.03190487399	
589.375	0.1699802853	-0.2061599439	
590.0	-0.1588201226	-0.1401609737	
590.625	-0.1098802438	-0.110877655	
591.25	-0.258038153	0.2282807593	
591.875	0.06265139518	0.05988559612	
592.5	-0.09233262851	0.07748140328	
593.125	0.06538285958	0.0433356001	
593.75	-0.08540054265	0.197959658	
594.375	0.2412629829	0.186823806	
595.0	0.1493256334	-0.01761328111	
595.625	0.08347853694	0.1286220641	
596.25	0.2423118793	-0.009691603429	
596.875	0.09074491704	-0.02474530477	
597.5	0.1513403558	0.19047813	
598.125	0.2173063676	0.05572452899	
598.75	0.09439850773	0.08539941071	
599.375	0.2876388079	0.02390228227	
600.0	0.1693776455	-0.2029691089	
600.625	0.07116210827	-0.1236675204	
601.25	0.1731445565	-0.1927302195	
601.875	-0.1701888532	-0.1653988476	
602.5	-0.02527258212	-0.02144362336	
603.125	-0.2242446066	0.04619632681	
603.75	0.03770259777	0.08722738759	
604.375	-0.1306648389	-0.02569981998	
605.0	-0.1214583287	0.1725565675	
605.625	-0.01246726385	-0.08087103309	
606.25	-0.2266416903	0.08525369123	
606.875	-0.1414172835	0.1916739352	
607.5	-0.1263949062	0.08340388373	
608.125	-0.07781704527	0.3087533451	
608.75	0.1406610383	0.1720852491	
609.375	0.1645758819	0.05628346201	
610.0	0.2856085289	-0.1484233924	
610.625	0.06158577899	-0.1879217443	
611.25	0.05065703805	-0.08892348749	
611.875	-0.1510072537	-0.2387137513	
612.5	-0.1446937195	0.04796989602	
613.125	-0.1583860257	-0.09154824234	
613.75	-0.1656511192	0.2540529722	
614.375	0.09520586433	-0.03668939824	
615.0	-0.03008680663	0.1755608002	
615.625	0.0999905113	0.01661129375	
616.25	-0.1518364254	0.1002221468	
616.875	-0.03592558678	0.2921620333	
617.5	0.06996897725	0.1773337587	
618.125	-0.09890307193	0.1973109334	
618.75	0.01401205039	0.3134939028	
619.375	0.1299530695	0.2854766079	
620.0	0.1333969321	0.1223355414	
620.625	0.1957806825	-0.1696720357	
621.25	-0.06600744534	-0.1100040954	
621.875	-0.05208570209	-0.1352294681	
622.5	-0.2729123678	0.1230357786	
623.125	0.006778153955	0.1012808366	
623.75	0.09509898421	0.1528647144	
624.375	0.1007708827	-0.1497111859	
625.0	0.01093916962	0.05966558477	
625.625	0.1116069541	-0.1608322255	
626.25	-0.1119210486	-0.08916280713	
626.875	-0.06837462216	-0.1397914288	
627.5	-0.2418996367	-0.03856007048	
628.125	-0.06115975006	-0.002491364152	
628.75	-0.04776205325	-0.1931135371	
629.375	-0.167879061	-0.1312918519	
630.0	-0.2039066047	-0.05226083874	
630.625	-0.282284135	0.009108002857	
631.25	-0.1856363459	0.26750902	
631.875	0.04851749283	0.2266553537	
632.5	0.07384020658	0.2839790754	
633.125	0.2871151452	0.02896531449	
633.75	0.08072829864	-0.04117996993	
634.375	0.153837815	-0.1800133391	
635.0	-0.1828133423	-0.1533442877	
635.625	-0.04958801213	-0.1513538036	
636.25	-0.2568240384	0.1065656458	
636.875	0.03427631676	0.1556325524	
637.5	-0.0917313803	0.007110174187	
638.125	-0.1106835647	0.2049871212	
638.75	-0.01246035713	0.07194003903	
639.375	-0.1274450849	0.2952233832	
640.0	0.2483222627	0.2713938664	
640.625	0.1760017723	0.08368198036	
641.25	0.3642176814	0.1199435288	
641.875	0.2006262036	-0.3015564618	
642.5	-0.06589905346	-0.1152485767	
643.125	-0.06812387803	-0.2552198502	
643.75	-0.260141302	-0.01069351441	
644.375	0.07823642932	-0.04616451613	
645.0	-0.3375047642	0.2157318097	
645.625	0.3050341788	0.1421325443	
646.25	-0.0005027257028	0.1115337953	
646.875	0.2858539932	-0.03894867508	
647.5	-0.1074463807	0.03303596969	
648.125	0.3916344266	0.1805896922	
648.75	0.2212430937	-0.216233818	
649.375	0.1698950872	-0.0928588398	
650.0	0.3683996072	-0.3375881299	
650.625	0.01927309552	-0.4651029472	
651.25	0.167556595	-0.05723558307	
651.875	0.4380120928	-0.2083419836	
652.5	0.1748958885	-0.2370859157	
653.125	0.2892817292	0.08995499137	
653.75	0.2921046845	-0.3636119483	
654.375	-0.1676108576	-0.2217683982	
655.0	-0.1501847397	-0.2031322283	
655.625	-0.5278767624	0.1854504624	
656.25	0.1904525691	0.1671620675	
656.875	-0.09156041297	0.07766597311	
657.5	0.2502230256	0.1819141027	
658.125	-0.01711265961	0.07224184809	
658.75	0.5112766431	0.2769062145	
659.375	0.2621126956	-0.2795961905	
660.0	0.2524874019	-0.1180422336	
660.625	0.297032862	-0.4046947719	
661.25	0.002919835272	-0.4379883424	
661.875	0.1658855467	-0.08794676146	
662.5	0.4579052172	-0.1960754439	
663.125	0.2158815295	-0.312497621	
663.75	0.1879986317	-0.1497711635	
664.375	0.02105157503	-0.4862292269	
665.0	-0.2719162871	-0.1000925051	
665.625	-0.3220245994	-0.06666988173	
666.25	-0.1820105655	0.371503002	
666.875	0.2001798116	0.1397921691	
667.5	0.08084629898	0.1824238651	
668.125	0.4122619764	-0.03340987574	
668.75	0.08689362864	-0.1731608825	
669.375	0.2012147606	-0.1458953089	
670.0	-0.05287764002	-0.392228386	
670.625	0.03934325127	0.02407227436	
671.25	0.1678445649	-0.2518243508	
671.875	0.06512746249	-0.251925329	
672.5	0.1678766136	0.0257991592	
673.125	0.3996955109	-0.2144394698	
673.75	0.08071932301	-0.3207977432	
674.375	0.08928486311	-0.1507771847	
675.0	-0.01012873138	-0.3531243105	
675.625	-0.29406598	-0.0379338152	
676.25	-0.0409591867	-0.1125770974	
676.875	-0.2944612926	-0.009425929457	
677.5	-0.05667129974	0.0867232754	
678.125	-0.2262557728	-0.003411662522	
678.75	0.04951869854	0.4020000406	
679.375	0.1892396144	-0.06659848134	
680.0	0.1354968074	0.1662083299	
680.625	0.2079712004	-0.2060821756	
681.25	-0.2633315399	0.1026807524	
681.875	0.3240649317	0.2612464529	
682.5	0.2509118068	-0.08037266024	
683.125	0.07433885941	0.2130712378	
683.75	0.5384457827	0.1568897458	
684.375	0.2117649178	-0.1985721492	
685.0	0.1178303325	0.2722058874	
685.625	0.4467838571	-0.02338212744	
686.25	0.2582421572	-0.1600996532	
686.875	0.291949773	0.05106516314	
687.5	0.4954963742	-0.4291035809	
688.125	-0.04597915819	-0.30733654	
688.75	-0.2854321953	-0.4018015886	
689.375	-0.4117321333	0.3822733658	
690.0	0.1492290933	0.1785234841	
690.625	0.09092055734	0.4781000135	
691.25	0.512845774	0.2306672	
691.875	0.1615660321	0.1858257486	
692.5	0.5662048732	0.5030141074	
693.125	0.8916431992	-0.107050817	
693.75	0.3777212408	0.009286056136	
694.375	0.7027448941	-0.398792567	
695.0	0.2837140039	-0.3913250519	
695.625	0.2860277269	0.02568072462	
696.25	0.7218700669	0.3167219407	
696.875	0.4937034259	0.1926115159	
697.5	0.3453721287	0.5842346848	
698.125	0.6347749214	0.4640362072	
698.75	0.4962226267	-0.579385232	
699.375	-0.2051318398	-0.260376529	
700.0	-0.4660505016	0.144264354	
700.625	0.2752738941	0.3189300417	
701.25	0.05166385804	0.1509683387	
701.875	0.4014954108	0.4167484686	
702.5	0.3330835985	-0.004569095359	
703.125	0.3339524234	0.287768119	
703.75	0.5533052521	-0.1240559929	
704.375	0.1373287407	-0.2638531564	
705.0	0.3218996121	0.03091851754	
705.625	0.302731798	-0.09166934794	
706.25	0.1798625573	0.05316266133	
706.875	0.2811604243	0.339165518	
707.5	0.4289642953	0.4763207395	
708.125	0.631527857	0.188562045	
708.75	0.4734881625	-0.2801384126	
709.375	-0.2022176837	-0.4498442857	
710.0	-0.06137911609	0.1494627058	
710.625	-0.1521776366	0.07265255467	
711.25	0.2166248583	0.04866815691	
711.875	-0.01227304335	0.1101948233	
712.5	0.4391731453	0.06703195605	
713.125	0.2151394512	-0.3074207075	
713.75	0.1461647574	-0.1018697861	
714.375	0.08225135173	-0.3771520078	
715.0	-0.1236056036	-0.1428831692	
715.625	0.1392058991	-0.1554648003	
716.25	0.206793456	-0.3873052356	
716.875	0.1454658009	-0.1741748985	
717.5	0.4833337184	0.1451346605	
718.125	0.9733369379	0.03186536722	
718.75	0.9499073051	-0.3438477864	
719.375	1.01346589	-0.02262707978	
720.0	0.4269448694	-1.270798212	
720.625	0.04155527177	-0.5921269811	
721.25	0.8266017465	-0.8353542551	
721.875	-0.504008261	-1.20202743	
722.5	-0.2912377032	-0.1911007572	
723.125	-0.8995009702	-0.5875537028	
723.75	-0.3912160545	0.7785054062	
724.375	0.03595360436	0.2599697797	
725.0	0.02471595187	0.5977845928	
725.625	0.4207462308	0.3596642018	
726.25	-0.1884985297	0.477118995	
726.875	-0.2277729535	1.237687379	
727.5	0.2711190203	1.319122429	
728.125	-0.5106475911	1.185940632	
728.75	-0.4756639233	3.884909877	
729.375	0.2693964457	4.359486767	
730.0	-1.217873805	2.390738542	
730.625	-1.34505035	5.836196985	
731.25	0.8601341471	4.271912458	
731.875	-1.61663234	0.05097005146	
732.5	-4.734083457	0.5159914636	
733.125	-2.214689271	1.131571925	
733.75	-1.362004735	0.2746072464	
734.375	1.649728408	1.027546841	
735.0	-0.1939691366	-0.4392880062	
735.625	-0.409966773	-0.2677732861	
736.25	-0.0665985498	0.8892762107	
736.875	0.4390532529	-0.01256345922	
737.5	0.7918039677	0.9087895245	
738.125	2.076541347	-0.6516899808	
738.75	0.8350823461	-1.352243961	
739.375	2.353199291	0.7464767524	
740.0	4.992169281	-4.020005922	
740.625	-0.7737479454	-1.018383574	
741.25	-2.281497947	5.685284521	
741.875	-1.712687737	3.821436591	
742.5	1.483097651	-1.124834419	
743.125	0.9713320778	-2.742244596	
743.75	-0.4868482027	-1.392573779	
744.375	-0.1054724411	-0.02637697081	
745.0	-0.1127332449	0.3936819803	
745.625	-0.06376566478	-0.04620444263	
746.25	0.06921583646	-0.2351968252	
746.875	-0.2469109274	0.05048844801	
747.5	-0.09127785602	0.1391487776	
748.125	-0.08492927424	0.6428561851	
748.75	0.3503026172	0.4847713951	
749.375	0.01369494768	0.3513708347	
750.0	-0.5326462046	0.2474391014	
