!Created with skrf (http://scikit-rf.org).
# GHz S MA R 50.0 
!freq magS11 angS11
500.0 0.0117666219403 140.805357302
500.625 0.00874850187194 123.849258113
501.25 0.0120169320761 -165.650741933
501.875 0.0234585685081 -166.649249088
502.5 0.0304136182734 160.615195544
503.125 0.0201898672205 120.027129727
503.75 0.0112429271922 101.258351788
504.375 0.0238532590342 -62.9355367645
505.0 0.000359652460823 117.271409728
505.625 0.0250666308777 -73.2668339148
506.25 0.0520793981043 -104.156109578
506.875 0.0806320809159 -91.4354153735
507.5 0.0400809297404 -141.13609497
508.125 0.0421062319784 -103.805758107
508.75 0.0613305848276 -127.467542705
509.375 0.0625917072432 -126.801676303
510.0 0.0329652116434 -128.642414868
510.625 0.0245923254097 -168.272491744
511.25 0.0543633951623 -177.519231016
511.875 0.0639963695044 151.691522869
512.5 0.034810248426 82.5159471068
513.125 0.0483846481901 36.7864831911
513.75 0.0565813413425 40.3031211403
514.375 0.0446273700955 23.9920548757
515.0 0.054850941131 4.92981709037
515.625 0.103157560562 49.8254223577
516.25 0.0904589197149 30.6271913485
516.875 0.124723049162 69.6637481565
517.5 0.107233164077 17.5173731199
518.125 0.200250306163 71.2067948862
518.75 0.0971008290733 16.3562366522
519.375 0.0555106665786 10.2034355805
520.0 0.0877723740991 -3.5437281597
520.625 0.112920385615 -3.38828013252
521.25 0.0914549152786 -22.2076272937
521.875 0.0752259598342 1.45275361402
522.5 0.0967037935484 -33.7124945624
523.125 0.184564819909 -33.6541675151
523.75 0.210215759073 -57.7045959767
524.375 0.225875626039 -48.0181946809
525.0 0.0749246983226 -45.5023886255
525.625 0.0344639028967 -47.8279293207
526.25 0.0583673310911 -6.43012758421
526.875 0.0408152237817 -38.5159562388
527.5 0.0459053260244 -31.3597967999
528.125 0.0394692727793 -65.4591381033
528.75 0.0689362446963 -73.0274640777
529.375 0.0692636314224 -122.938167551
530.0 0.0379841317851 -137.453686931
530.625 0.0383682390746 -139.052900463
531.25 0.137291553743 -140.38256123
531.875 0.136113734478 -149.64467056
532.5 0.126226257458 -172.493823844
533.125 0.0942565443623 172.507453848
533.75 0.134206323832 165.209742092
534.375 0.0893104260075 174.5818333
535.0 0.0885683684073 162.48156628
535.625 0.0692492368165 175.629776169
536.25 0.0740240058374 160.734340233
536.875 0.0662380355537 -158.653708199
537.5 0.0883479365868 -142.189197432
538.125 0.104224473182 -173.387967218
538.75 0.118208021488 179.578055371
539.375 0.0585351727012 -166.86248057
540.0 0.0882262994309 -154.185167435
540.625 0.124611914831 -157.435239576
541.25 0.141523681122 -143.373221198
541.875 0.0907772304805 -143.316574012
542.5 0.104807268443 -140.805936322
543.125 0.129853066722 -168.235938754
543.75 0.142821427098 159.005914985
544.375 0.0838488828072 132.743518619
545.0 0.0901878339008 90.0650752771
545.625 0.105066444086 80.9593575209
546.25 0.0936685428582 67.5223216255
546.875 0.0963623303948 53.163283309
547.5 0.109145074652 57.616266822
548.125 0.112888055013 77.7060833948
548.75 0.100741521656 89.2844342463
549.375 0.0758763769754 84.728948542
550.0 0.0878332424949 124.318816132
550.625 0.0507815072378 149.220036725
551.25 0.0402248727978 -141.380068092
551.875 0.0575955265732 -150.291583683
552.5 0.104503326348 -161.663756371
553.125 0.0870973529649 -166.989551174
553.75 0.095745405465 -174.541149
554.375 0.101640780902 169.259146165
555.0 0.123159557805 164.099816761
555.625 0.102327830344 156.194331828
556.25 0.0998513246905 162.306983127
556.875 0.127313004042 162.958925103
557.5 0.102530624672 167.364609575
558.125 0.0905503452848 165.856435131
558.75 0.0834050228298 177.611072726
559.375 0.0556028798184 -173.487468048
560.0 0.0431511438094 -146.552461619
560.625 0.0604271059593 -145.878654022
561.25 0.0902059354828 -153.612913967
561.875 0.100869175208 -162.520050643
562.5 0.0928403072641 173.484763325
563.125 0.10192041279 144.796040756
563.75 0.140430288007 127.12757658
564.375 0.0934932075429 123.673946324
565.0 0.0831111495124 120.073178836
565.625 0.0851286880369 114.042978267
566.25 0.0999632084652 149.120296348
566.875 0.0798156805035 175.870986186
567.5 0.069538632551 -175.30938058
568.125 0.0763842338562 -169.499264151
568.75 0.0641762064902 -147.703271101
569.375 0.0535868980554 -120.780801948
570.0 0.059297609182 -99.2665242025
570.625 0.0931503612575 -118.300162693
571.25 0.0905867097994 -120.741704859
571.875 0.0897610203274 -132.828187175
572.5 0.109379423941 -154.638741187
573.125 0.136305162483 -172.564625299
573.75 0.100300030483 162.337905318
574.375 0.087769751504 144.043703898
575.0 0.1044619008 152.503740867
575.625 0.112345796573 152.90671888
576.25 0.0910139900038 143.533868055
576.875 0.0703661835668 133.43265282
577.5 0.0844795484048 133.428583815
578.125 0.0627460000957 156.126995232
578.75 0.0484796959932 161.996471031
579.375 0.0576565238836 153.049245068
580.0 0.0648780465929 -172.318178228
580.625 0.0783188637704 -147.029131485
581.25 0.0899787137658 -165.041878706
581.875 0.116164256536 175.317758104
582.5 0.109169337781 -168.290127201
583.125 0.0927109876994 -167.793700359
583.75 0.0797661013687 -164.910404864
584.375 0.106245190585 -167.613584894
585.0 0.0917499939849 -141.76923057
585.625 0.0711760253943 -140.97990448
586.25 0.0678938322075 -137.544275715
586.875 0.0852105389589 -146.289405862
587.5 0.0684737775355 -134.838525306
588.125 0.057915616207 -170.381038957
588.75 0.0635015078513 -158.639437277
589.375 0.0807645157749 -165.153735984
590.0 0.0953145095076 -163.445115449
590.625 0.105158699343 165.830632634
591.25 0.116639678802 154.272299605
591.875 0.099151096358 155.583606961
592.5 0.0649520382431 145.877202721
593.125 0.0618038504511 151.616605111
593.75 0.063501601754 175.260184633
594.375 0.0603118055637 -167.51037344
595.0 0.0488321852257 -101.176484831
595.625 0.0588388257012 -102.081935572
596.25 0.0688812227078 -89.6425626731
596.875 0.0690093454328 -72.8842815605
597.5 0.0582347992832 -64.9379542447
598.125 0.0723921227387 -59.3910665913
598.75 0.0802659070917 -64.1460494148
599.375 0.079393660212 -74.656983234
600.0 0.110908327944 -56.9241068342
600.625 0.104504789565 -58.6735605073
601.25 0.0789437614012 -71.8416708116
601.875 0.0684615898414 -101.578018103
602.5 0.0625063304165 -79.695944131
603.125 0.0457707485784 -57.5662387717
603.75 0.0296341393757 -43.801764694
604.375 0.0403857638672 -27.3292052241
605.0 0.0505400262597 -34.4625397816
605.625 0.0618588631907 10.9884182261
606.25 0.0354365191419 26.8767195464
606.875 0.0378199240315 49.7297010388
607.5 0.0389504968848 36.7175650981
608.125 0.0783314932997 34.1318661852
608.75 0.0565590579917 15.4570447718
609.375 0.0641871893518 27.9129503334
610.0 0.0594408179572 31.9850585058
610.625 0.077420371914 47.5450504598
611.25 0.0620592293327 44.974425897
611.875 0.0393358836394 51.1709116602
612.5 0.0108958839097 6.91038769233
613.125 0.0373707661011 130.529946942
613.75 0.0489129935035 123.469700016
614.375 0.0365017520624 116.87769387
615.0 0.0304544487599 111.693682641
615.625 0.0301351363752 139.084443071
616.25 0.0484407776257 142.568112914
616.875 0.041046805479 122.980034476
617.5 0.0249617304888 116.623314887
618.125 0.0394469173698 137.77951952
618.75 0.0288905623807 142.836065815
619.375 0.0120814549135 129.601290597
620.0 0.0171840191009 -31.938717539
620.625 0.025616830343 -172.0458277
621.25 0.0422029996038 -113.645693728
621.875 0.0669476120981 -102.059242201
622.5 0.0656105100417 -156.846423459
623.125 0.0652850185756 178.989312282
623.75 0.0597053025322 167.115275199
624.375 0.0365829245225 -171.579522698
625.0 0.0397597573834 -147.085819703
625.625 0.0218706781092 -132.444858401
626.25 0.0432026527103 -177.783423773
626.875 0.0135748538279 167.79036823
627.5 0.0234869545321 -32.5858080337
628.125 0.0567615484891 -3.7914031785
628.75 0.0348161956098 -59.1381286748
629.375 0.0370364436868 -22.5592116436
630.0 0.070919381377 -9.6606372042
630.625 0.0848720648977 21.3037797893
631.25 0.067300106631 1.02709757207
631.875 0.0654179781695 -19.087734635
632.5 0.061009833263 -9.29242742943
633.125 0.055533120574 29.1257594208
633.75 0.045102034667 -9.63509357477
634.375 0.0417589802301 6.85169378604
635.0 0.0403452945959 33.1921988222
635.625 0.035110068751 41.8475107759
636.25 0.0677491857622 47.8285361485
636.875 0.0562809973756 17.6557379824
637.5 0.0405534770724 30.3050298199
638.125 0.0342062707014 54.6178194257
638.75 0.0998581212385 77.5096723718
639.375 0.0844057246306 81.3356615127
640.0 0.0673535467238 101.461281488
640.625 0.0589920392888 94.9886514497
641.25 0.07146359495 125.343100541
641.875 0.0522010731317 126.208598394
642.5 0.046358166688 151.850006633
643.125 0.0566790262749 159.192602055
643.75 0.0901557975104 176.005166106
644.375 0.0552707730278 170.751138035
645.0 0.0667069781845 174.816689185
645.625 0.0875330403465 162.216011731
646.25 0.108759114092 168.670794746
646.875 0.0688453100629 175.177576333
647.5 0.0688408825168 -177.60435612
648.125 0.0947222486306 -178.785239478
648.75 0.0761279179958 -162.426118586
649.375 0.0566023285256 -146.1496461
650.0 0.048230430995 -119.235154487
650.625 0.0599984085634 -89.5013096494
651.25 0.0703798465179 -64.2008734212
651.875 0.0759444615594 -44.0333533716
652.5 0.0692305011278 -25.3873455977
653.125 0.104560186608 -2.51150067103
653.75 0.111714182905 5.78929053882
654.375 0.099910957776 2.72494129905
655.0 0.109851928814 10.8650386732
655.625 0.103684643412 28.7993439593
656.25 0.0616957587774 20.3577738812
656.875 0.0803151020014 7.34543591342
657.5 0.0641953615513 15.0643549712
658.125 0.0595804817051 47.2613997566
658.75 0.0487703545625 61.0137132485
659.375 0.0953220822761 33.2308418264
660.0 0.100095605166 25.4358830729
660.625 0.110314282597 17.0668266258
661.25 0.102327396728 1.37202126927
661.875 0.12731524391 -14.2197894161
662.5 0.100607175095 -24.9511401113
663.125 0.0961479113621 -16.9842278504
663.75 0.0902798786647 2.28670997844
664.375 0.117666076763 53.3438758701
665.0 0.072187609829 91.5906996529
665.625 0.0697895043026 110.555421243
666.25 0.0882200875887 127.288123644
666.875 0.100709966599 170.39043728
667.5 0.0999480831397 -171.668842607
668.125 0.109665750311 179.181561325
668.75 0.131039247364 166.268645172
669.375 0.142650226232 175.235569228
670.0 0.0853203891127 -171.837512905
670.625 0.0896711578602 -171.655879818
671.25 0.111000125506 174.219080165
671.875 0.117235518233 165.275528325
672.5 0.058294953992 157.260878465
673.125 0.0794380732564 154.150325069
673.75 0.114716452482 155.935673471
674.375 0.112768660691 169.845837665
675.0 0.117304129485 -175.073056531
675.625 0.131262893819 -150.9546013
676.25 0.129997640414 -127.731725993
676.875 0.118605147757 -122.316639718
677.5 0.126302469227 -129.952775
678.125 0.125741149163 -117.592837729
678.75 0.067843385881 -94.7360601137
679.375 0.0608167561914 -82.4582303934
680.0 0.0668489394923 -73.3564457166
680.625 0.113136611031 -74.3586898065
681.25 0.104223764552 -75.1073919308
681.875 0.104304152308 -96.3144923077
682.5 0.138632665643 -122.543516997
683.125 0.161899771297 -122.795071434
683.75 0.138608669043 -105.626130636
684.375 0.114985378221 -78.4701546678
685.0 0.145932253997 -44.8452975445
685.625 0.120679767809 -0.501764711177
686.25 0.101421403905 23.2319930337
686.875 0.0797268413604 46.4418309308
687.5 0.0889840569899 74.2467352054
688.125 0.0756234465781 116.850030982
688.75 0.0978253972824 116.364073973
689.375 0.131843192515 121.454250621
690.0 0.140004677222 129.692311521
690.625 0.113500103083 128.793602522
691.25 0.139996797603 98.2391995185
691.875 0.19774263822 64.3476020451
692.5 0.150084836697 37.7746921127
693.125 0.0983679187772 -20.4335467921
693.75 0.0848198613807 -32.7765025527
694.375 0.128682894943 -24.7825183523
695.0 0.121521275668 13.6459512986
695.625 0.105824331751 50.3931729241
696.25 0.110896753749 118.238703027
696.875 0.139294457971 170.818736985
697.5 0.143763010867 -144.466109143
698.125 0.140079901902 -133.291786528
698.75 0.129234536723 -131.193452793
699.375 0.103783639504 -121.900439414
700.0 0.0892547845999 -109.307965562
700.625 0.122371207718 -101.326588545
701.25 0.0920388694219 -58.6954832812
701.875 0.0816614310098 -58.7961839709
702.5 0.0925153902305 -82.7718259704
703.125 0.170662780861 -126.896330493
703.75 0.196311549852 -160.822818195
704.375 0.129767137221 170.290661473
705.0 0.108264962941 162.259789775
705.625 0.135371765145 -167.643440131
706.25 0.159317159827 -123.022069983
706.875 0.0819134695058 -52.8152119853
707.5 0.0736275877661 -35.7887907299
708.125 0.0812056137401 17.9243543743
708.75 0.113010101446 52.9614601907
709.375 0.105788057308 115.61861694
710.0 0.101243403139 129.142438701
710.625 0.107783021257 149.858260697
711.25 0.117722115741 163.655649879
711.875 0.146729033339 172.954588514
712.5 0.146129029495 147.023678303
713.125 0.117863075716 103.065353747
713.75 0.108077996889 38.913983308
714.375 0.115662539864 15.6431939179
715.0 0.113736149146 24.2476689585
715.625 0.0874675867128 49.6756992877
716.25 0.0807295791696 78.01894327
716.875 0.105201152396 89.9470075343
717.5 0.151818450282 159.479942812
718.125 0.11861159669 167.045545058
718.75 0.0968867448035 169.742078371
719.375 0.116251489856 -172.91568567
720.0 0.125682323082 -139.833295027
720.625 0.112749763597 -74.8246241399
721.25 0.0964513952998 -29.0778014326
721.875 0.0871822023955 10.7689694907
722.5 0.0839466076877 92.5355088106
723.125 0.0974129464694 80.9175333666
723.75 0.106018015429 44.5321778962
724.375 0.10650313542 -7.80246172052
725.0 0.0923805668386 -43.2672411823
725.625 0.102012725667 -67.642987169
726.25 0.123044583869 -60.192358849
726.875 0.104812470872 -50.8593455193
727.5 0.076165338046 -49.9185413458
728.125 0.103991338385 16.2752819221
728.75 0.094021446482 21.8284076923
729.375 0.0810070565042 21.6187485774
730.0 0.0641164000142 -3.50231456414
730.625 0.0480156898666 4.26706158066
731.25 0.0691253569031 64.6936327036
731.875 0.0642702978242 108.47399389
732.5 0.0758224743613 149.406293991
733.125 0.0578496831246 155.431414896
733.75 0.0758198779411 172.222143114
734.375 0.0521855818669 167.293259254
735.0 0.0371719132731 140.423966091
735.625 0.0700564269921 148.21379147
736.25 0.0365070661917 144.720405259
736.875 0.0321854496023 175.751332824
737.5 0.0694576657111 174.30124287
738.125 0.0676694226422 -179.939622576
738.75 0.0760519113482 -171.847569221
739.375 0.0520733025456 -175.628809613
740.0 0.0492797498942 -145.857640491
740.625 0.0195138427173 -114.551071094
741.25 0.083540454113 -152.70235295
741.875 0.0460864848555 -109.716990896
742.5 0.0124936064103 11.9774543565
743.125 0.0226565730778 119.743336724
743.75 0.0674440360348 78.9696831319
744.375 0.0523844431262 98.307331409
745.0 0.0672564883398 116.159169237
745.625 0.0700584937222 148.114734021
746.25 0.0958526942425 69.0082359406
746.875 0.0647511959645 43.081615206
747.5 0.0302196544677 29.3011417323
748.125 0.0212666932158 -7.95064786613
748.75 0.0255755910474 56.6247695847
749.375 0.053873488291 -66.2009361231
750.0 0.0361052708472 -116.908742526
