!Created with skrf (http://scikit-rf.org).
# GHz S RI R (50+0j) 
!freq	ReS11	ImS11	
500.0	0.3718793336	-1.098732951	
500.625	-0.1857784139	-0.693202781	
501.25	0.1001980948	-0.6552260092	
501.875	-0.4736306641	-0.4809150761	
502.5	-0.04108200721	-0.05091312608	
503.125	-0.07964774135	-0.02138492747	
503.75	0.07730897759	0.04334185979	
504.375	0.01182241385	0.0228703433	
505.0	0.02323026315	-0.04587172745	
505.625	0.001649940856	0.00715249146	
506.25	-0.05534324164	-0.1328504623	
506.875	-0.01417932881	0.1828088463	
507.5	0.1595922434	-0.4339231546	
508.125	-0.09159935842	-0.7852835283	
508.75	0.6366911671	-0.2830979516	
509.375	0.04495964835	-1.348890473	
510.0	-0.4162499349	-0.0520078673	
510.625	-0.002513755489	-0.05882804044	
511.25	-0.1239198812	-0.05662613233	
511.875	-0.1005650426	0.03005835684	
512.5	-0.03179128365	0.006023319992	
513.125	-0.007635272988	-0.08138454898	
513.75	-0.0172272173	0.02974480073	
514.375	-0.03905028309	-0.08649477121	
515.0	-0.1042184339	0.2807027547	
515.625	0.1682639054	-0.7441307542	
516.25	-0.5758206673	-0.008980646938	
516.875	0.02784903582	-0.1122445225	
517.5	0.05102083335	-0.2111057147	
518.125	-0.06800587529	0.01099849241	
518.75	0.05538879456	-0.1103052318	
519.375	-0.06195430114	0.05693891194	
520.0	0.06246106396	0.02359162509	
520.625	0.1409738562	-0.03115714064	
521.25	-0.08223003236	-0.2637332638	
521.875	-0.06297011795	0.03052708345	
522.5	-0.03446663442	-0.001289039877	
523.125	-0.04192438456	0.1226648898	
523.75	0.03083557342	-0.01032944717	
524.375	-0.2671403103	-0.02212404494	
525.0	0.1186546829	0.1190307416	
525.625	-0.05379915367	0.02324043508	
526.25	0.06257381751	0.003827177096	
526.875	-0.1085642799	0.03198390609	
527.5	0.0623563579	0.1749364598	
528.125	-0.01925334671	0.133921328	
528.75	-0.01174240209	0.2342600779	
529.375	0.1206065828	0.03543847213	
530.0	-0.08128576647	0.06185668228	
530.625	-0.06375580779	0.1926485602	
531.25	0.3278192379	-0.04425662139	
531.875	0.2073254379	-0.01927060179	
532.5	-0.1230514647	-0.1776384448	
533.125	0.008548586968	0.09510110109	
533.75	0.03765697656	-0.2550636045	
534.375	-0.05189901355	-0.1140052785	
535.0	-0.1412550395	-0.1546853511	
535.625	-0.1629428377	0.1577090422	
536.25	0.01702108693	0.04993572508	
536.875	0.08348327662	0.04756049235	
537.5	0.05120070317	-0.07169825191	
538.125	0.07955623739	-0.01914342532	
538.75	0.146820322	-0.1483389494	
539.375	-0.09470894487	-0.08366615913	
540.0	-0.1073217111	-0.1279537118	
540.625	-0.1461951061	-0.04804588749	
541.25	-0.05608194471	0.03899978417	
541.875	-0.01722049048	-0.06138497271	
542.5	-0.08129369483	-0.003033555809	
543.125	0.0155610792	0.0161629825	
543.75	-0.1244219487	-0.02451423143	
544.375	0.01322211775	0.02885073759	
545.0	-0.08098941857	0.05339610283	
545.625	0.1107143701	0.03037490314	
546.25	0.003700390226	0.02707001978	
546.875	0.1574230571	-0.01219383476	
547.5	-0.002649627021	-0.1324871404	
548.125	0.01331442597	-0.09664700178	
548.75	-0.1349292657	-0.1455487268	
549.375	-0.09502450867	-0.008447772172	
550.0	-0.06166148049	-0.04257371899	
550.625	-0.04604676816	0.0498571888	
551.25	-0.05435106583	-0.00488923461	
551.875	-0.08505662417	0.08380542301	
552.5	-0.01187596248	0.07036563919	
553.125	-0.02582546967	0.03901663286	
553.75	0.05373752669	0.03852221234	
554.375	0.07334256559	-0.004276014996	
555.0	0.09395227697	-0.0635784655	
555.625	0.06848639671	-0.1016339153	
556.25	0.05104014094	-0.120456672	
556.875	-0.03662382445	-0.1414889048	
557.5	-0.09774950634	-0.08489363589	
558.125	-0.1057968298	-0.0273251533	
558.75	-0.09576871468	-0.003264535776	
559.375	-0.1051169862	0.02404009011	
560.0	-0.07343868446	0.07783276026	
560.625	-0.05139737016	0.08580436248	
561.25	0.0170624072	0.1100171267	
561.875	0.01791599434	0.01317362851	
562.5	0.02874097585	0.081504271	
563.125	0.0416032369	0.03026152841	
563.75	0.1393142288	0.03327428491	
564.375	0.1153836579	-0.1304463987	
565.0	0.01583771047	-0.1120042624	
565.625	0.02349052385	-0.1393696153	
566.25	-0.1644748323	-0.09537778027	
566.875	-0.07471492032	-0.02169784071	
567.5	-0.1352962991	-0.1542807249	
568.125	-0.1636464536	-0.07958983069	
568.75	-0.1205766482	-0.1427920487	
569.375	-0.2614878865	0.1520210449	
570.0	-0.04272645568	0.1455578097	
570.625	-0.1146537191	0.114028336	
571.25	0.05683894551	0.1836887282	
571.875	-6.29253815e-05	-0.008326172722	
572.5	0.1701163646	0.04918370189	
573.125	0.02397367404	-0.1631411096	
573.75	0.05292285539	0.007175258197	
574.375	0.04144202867	-0.1569805249	
575.0	-0.01461658608	0.0497375838	
575.625	0.09212050708	-0.1199865587	
576.25	-0.04322558474	-0.1109053287	
576.875	0.03780601109	-0.05425253429	
577.5	0.07811495842	-0.2177986427	
578.125	-0.1430381731	-0.1520152714	
578.75	0.008332610641	0.006129954222	
579.375	-0.05841548735	-0.1699349198	
580.0	-0.1023886123	0.06556347508	
580.625	-0.03888951584	-0.1250279473	
581.25	-0.0543851138	0.2293407947	
581.875	0.02314857812	0.01791536914	
582.5	-0.04475827054	0.1657367851	
583.125	0.1922299757	0.08025732905	
583.75	-0.07645805054	-0.02649894095	
584.375	0.09805142424	0.1219552006	
585.0	0.06877562499	-0.04193806828	
585.625	0.1184367562	0.09955325668	
586.25	0.1689004892	-0.151187854	
586.875	0.001556981722	-0.05658294885	
587.5	0.06176465134	-0.1548371929	
588.125	-0.08877702614	-0.1526276334	
588.75	0.01560482224	-0.0306558306	
589.375	0.1460350553	-0.1763058516	
590.0	-0.1408188549	-0.1349323353	
590.625	-0.04336192508	-0.05611744613	
591.25	-0.2437537297	0.1043408124	
591.875	0.107629652	0.1208705775	
592.5	-0.09698555869	0.009806286521	
593.125	0.1160223408	0.03797644474	
593.75	-0.07999602578	0.1290137054	
594.375	0.206746028	0.1520425088	
595.0	0.1782355568	-0.007858372428	
595.625	0.08775599101	0.1400145623	
596.25	0.2165401462	0.04542275759	
596.875	0.07909079841	-0.02274471166	
597.5	0.08246476569	0.1424615463	
598.125	0.201862827	0.05797601549	
598.75	0.1008307651	0.1052383176	
599.375	0.2386315218	0.01225705781	
600.0	0.1333688635	-0.2009765826	
600.625	0.05719790333	-0.10302797	
601.25	0.1444543494	-0.1395786435	
601.875	-0.1410342577	-0.1640632954	
602.5	-0.03215876322	0.03028043066	
603.125	-0.2436579289	-0.00727660447	
603.75	-0.03865544348	0.1464309186	
604.375	-0.1496926795	-0.07123734402	
605.0	-0.1148884141	0.1579678745	
605.625	0.03785955465	0.03241797834	
606.25	-0.2004552364	0.02312908595	
606.875	-0.05849090858	0.1070893674	
607.5	-0.09596965658	0.07917343263	
608.125	-0.1017923189	0.2344797813	
608.75	0.2414827684	0.144575027	
609.375	0.2469034981	-0.0317651949	
610.0	0.2155304947	-0.08556721529	
610.625	0.0006160448192	-0.2018399373	
611.25	0.06148557	-0.06100337414	
611.875	-0.06054697643	-0.1795835486	
612.5	-0.113149371	0.03374375979	
613.125	-0.1439462184	-0.06635397139	
613.75	-0.1479473157	0.2187355936	
614.375	0.128319019	0.02067595142	
615.0	-0.01501031444	0.1377263385	
615.625	0.1127218333	0.06898326998	
616.25	-0.08593424976	0.06827687296	
616.875	-0.1408816224	0.2481425969	
617.5	0.0270485987	0.1833311477	
618.125	-0.09329532813	0.1429739526	
618.75	0.04209911565	0.1451376771	
619.375	0.1144107782	0.09326977372	
620.0	0.1047019352	0.07817032963	
620.625	0.1530087621	-0.2004455959	
621.25	-0.1575162512	-0.1337613538	
621.875	-0.0967271267	-0.08453199882	
622.5	-0.2841274136	0.06817683145	
623.125	0.04390760082	0.1543920254	
623.75	0.02664003553	0.09556186941	
624.375	0.05624515077	-0.1240773111	
625.0	-0.0001805532831	0.05347313505	
625.625	0.09482623796	-0.1316642008	
626.25	-0.1100023979	-0.07532502983	
626.875	-0.04583632711	-0.0840136028	
627.5	-0.1638375268	-0.04866045077	
628.125	-0.1032259869	0.005354132225	
628.75	0.005099393947	-0.1346517952	
629.375	-0.1355390411	-0.1541978589	
630.0	-0.151577664	-0.05437664687	
630.625	-0.216643286	0.02534238633	
631.25	-0.1500675464	0.2326475866	
631.875	0.02025523065	0.1670884896	
632.5	-0.005848242659	0.1548259443	
633.125	0.2644502664	0.03270426949	
633.75	0.07153138657	-0.08427204711	
634.375	0.1682888967	-0.07586062503	
635.0	-0.09576729415	-0.169540222	
635.625	-0.002868550997	-0.03677036914	
636.25	-0.2330379345	0.05447561376	
636.875	0.02104339356	0.1383076279	
637.5	-0.06319740385	0.00230907418	
638.125	-0.09017165921	0.1828467272	
638.75	0.01813229032	0.07953598659	
639.375	-0.08996912804	0.2292721742	
640.0	0.1930467376	0.2728548281	
640.625	0.2119197723	0.04508819444	
641.25	0.1906830779	0.08101096118	
641.875	0.1544855422	-0.2738583238	
642.5	-0.04292908556	-0.08700617421	
643.125	0.04633107463	-0.1798520854	
643.75	-0.2351007845	-0.01825154764	
644.375	-0.04317218817	-0.05696790393	
645.0	-0.281175644	0.1745804646	
645.625	0.2467917045	0.1964467504	
646.25	0.01768211326	0.02964338573	
646.875	0.2349679199	0.08245985204	
647.5	-0.1374789553	-0.1141878401	
648.125	0.2516088751	0.1733574471	
648.75	0.1750258909	-0.2425229978	
649.375	0.0970230754	-0.100610738	
650.0	0.3336106216	-0.2735457952	
650.625	0.007889994515	-0.3838015623	
651.25	0.06673572774	-0.03823842324	
651.875	0.3633111029	-0.1312912842	
652.5	0.2086799058	-0.2452712229	
653.125	0.1444499949	0.01396568662	
653.75	0.321943147	-0.269964763	
654.375	-0.1848698635	-0.2082871374	
655.0	-0.06212408815	-0.07963267885	
655.625	-0.3183757642	0.1972180957	
656.25	0.3114731856	0.1206413521	
656.875	-0.1186967209	0.01420839225	
657.5	0.1470428956	0.1456804761	
658.125	0.02227312729	-0.02391093569	
658.75	0.3301731112	0.2926115353	
659.375	0.2757108248	-0.3214596045	
660.0	0.1046873926	-0.1444980829	
660.625	0.2397171799	-0.3476401689	
661.25	0.01622233179	-0.3962544594	
661.875	0.1141221845	-0.05793564544	
662.5	0.3452155437	-0.1875206213	
663.125	0.1798679155	-0.2908645878	
663.75	0.09588820419	-0.1486766373	
664.375	0.03403536036	-0.3694368885	
665.0	-0.3250153866	-0.08183355169	
665.625	-0.2067057718	0.003354150829	
666.25	-0.1423286298	0.3182569706	
666.875	0.1972808123	0.1065848405	
667.5	0.02700052272	0.1447729194	
668.125	0.3027270932	-0.04402072387	
668.75	0.006383126213	-0.1693720742	
669.375	0.1445817627	-0.09039633157	
670.0	-0.00525607284	-0.3464644481	
670.625	-0.1032495888	-0.06891967066	
671.25	0.1916874714	-0.2387310217	
671.875	0.03796516416	-0.2502552943	
672.5	0.08135284339	-0.07342631002	
673.125	0.3042967448	-0.1564496513	
673.75	0.002015932336	-0.2662996076	
674.375	0.05307519751	-0.1261459753	
675.0	-0.03943047829	-0.2964921023	
675.625	-0.2810903163	-0.07955599376	
676.25	-0.03180148399	0.006538564054	
676.875	-0.2418453935	-0.05245566949	
677.5	-0.07975107713	0.1253410616	
678.125	-0.139623346	0.01275070254	
678.75	0.04168797334	0.3593472162	
679.375	0.1645834577	-0.1103686212	
680.0	0.1179993387	0.04634495531	
680.625	0.1730876601	-0.2275544711	
681.25	-0.1516289582	-0.01813037071	
681.875	0.256290828	0.2505789542	
682.5	0.2774169964	-0.1597039159	
683.125	0.05775768911	0.06712501545	
683.75	0.278223355	0.1982180097	
684.375	0.2250256672	-0.1992078764	
685.0	0.03978950777	0.08865006245	
685.625	0.4449996255	0.04954656076	
686.25	0.2008470205	-0.1450646776	
686.875	0.2372465798	-0.006100426408	
687.5	0.3611228698	-0.4129505883	
688.125	-0.2233596965	-0.2734993281	
688.75	-0.2717448179	-0.2276182044	
689.375	-0.3423645759	0.3498537135	
690.0	0.2558829502	0.2168681643	
690.625	0.03995220236	0.3058966226	
691.25	0.5568735261	0.1982849675	
691.875	0.2905725441	0.09025885266	
692.5	0.6038615844	0.4131690589	
693.125	0.7529991571	-0.2474383343	
693.75	0.2720182245	-0.2668918748	
694.375	0.5210414327	-0.2770468039	
695.0	0.2335598815	-0.4120436922	
695.625	0.2960992202	-0.03684093941	
696.25	0.5261173842	0.2944644613	
696.875	0.3128329503	0.2035804272	
697.5	0.2003774257	0.309687406	
698.125	0.4043171151	0.06670784674	
698.75	0.3593503792	-0.5129838849	
699.375	-0.3155343192	-0.1730159722	
700.0	-0.2837371373	0.1886864954	
700.625	0.2716932858	0.2632619312	
701.25	0.08152536479	0.08551947309	
701.875	0.2772527094	0.3611729692	
702.5	0.3798795946	0.002970026369	
703.125	0.2625558671	0.2006473088	
703.75	0.4618581269	-0.1182108297	
704.375	0.115204962	-0.2554065993	
705.0	0.1600873289	0.02690759648	
705.625	0.2501600389	-0.1199170891	
706.25	0.1811291026	0.03478956501	
706.875	0.09736867147	0.2834152792	
707.5	0.1684035142	0.2739631201	
708.125	0.4179261774	0.04878311167	
708.75	0.3172884909	-0.2257525343	
709.375	-0.3202928617	-0.2728288592	
710.0	-0.09991449777	0.3705350536	
710.625	-0.06121268583	0.1705891648	
711.25	0.2401177763	0.03834176191	
711.875	0.06678406606	0.1084254101	
712.5	0.3667478167	0.03925648628	
713.125	0.1939996406	-0.293945706	
713.75	0.05762377855	-0.12354562	
714.375	0.0829581301	-0.2671860002	
715.0	-0.1259355512	-0.1769338661	
715.625	0.0722226702	-0.1011690871	
716.25	0.1678802492	-0.295491421	
716.875	0.1216286717	-0.2110623628	
717.5	0.4061493935	0.1121648644	
718.125	0.6335900352	0.03159873467	
718.75	0.5281580003	-0.316362429	
719.375	0.1729241848	-0.1184669646	
720.0	0.5031195437	-0.9037004537	
720.625	-0.1912763284	-0.588331803	
721.25	0.2589928342	-0.7279350165	
721.875	-0.488922215	-1.005771623	
722.5	-0.4290116159	-0.2910990129	
723.125	-0.735064396	-0.3889622978	
723.75	-0.2693364181	0.6554799598	
724.375	0.08655400208	0.1411980835	
725.0	0.0273002947	0.4594535914	
725.625	0.4165806649	0.3291406235	
726.25	-0.02922727538	0.3556450125	
726.875	-0.1963785757	0.9660153674	
727.5	0.3014120801	1.329978895	
728.125	0.04552181518	0.9467929262	
728.75	-0.8600376919	2.330416993	
729.375	0.668649409	3.490800774	
730.0	0.4382607816	1.837391446	
730.625	-1.17347334	4.202288786	
731.25	1.189166525	3.556846434	
731.875	-1.937517123	0.9970498768	
732.5	-4.117271344	0.3968986066	
733.125	-1.784533368	1.463699902	
733.75	-0.5665621122	0.4206199551	
734.375	1.040546994	0.7969890487	
735.0	-0.3922555266	-0.3761277207	
735.625	-0.2484605296	-0.1323648666	
736.25	-0.03478270817	0.800255415	
736.875	0.5073059323	0.04695708175	
737.5	0.6716326883	0.7171079987	
738.125	1.725156186	-0.7814560989	
738.75	0.5466466288	-1.357723039	
739.375	1.543579129	0.06848880962	
740.0	5.168740348	-1.896328057	
740.625	0.08555147069	-2.03395022	
741.25	-2.599742903	2.990260024	
741.875	-3.169627919	3.572212056	
742.5	0.5118214167	-0.4284420305	
743.125	0.943941947	-2.246399882	
743.75	-0.5751199252	-0.9769382203	
744.375	-0.07159654654	0.1391753402	
745.0	-0.1388079528	0.3022697766	
745.625	-0.04991116914	-0.06832140473	
746.25	0.04397585083	-0.2124200289	
746.875	-0.2352148074	0.1133981884	
747.5	0.03285725522	0.207907799	
748.125	0.004581612892	0.5140147553	
748.75	0.4231671558	0.366958167	
749.375	0.1175613535	0.2865079315	
750.0	-0.4737204558	0.009859353984	
