!Created with skrf (http://scikit-rf.org).
# GHz S RI R (50+0j) 
!freq	ReS11	ImS11	
500.0	0.1206917329	-0.7197823476	
500.625	0.1683219198	-0.730505411	
501.25	-0.3060108204	-0.5573337937	
501.875	-0.2248296082	-0.359832955	
502.5	-0.02261238042	-0.09341771197	
503.125	-0.05686141209	0.005781329468	
503.75	0.01129745933	0.06843285022	
504.375	0.02399780402	-0.006099884395	
505.0	0.01542516402	-0.01800042397	
505.625	-0.002487527953	-0.03912301016	
506.25	-0.04835811079	-0.04531667011	
506.875	-0.09584165574	0.004159367993	
507.5	-0.08052546749	-0.2698644401	
508.125	0.0867778789	-0.5065948989	
508.75	0.4200976571	-0.7916723086	
509.375	-0.2823007393	-0.8894721102	
510.0	-0.329134118	-0.2992969774	
510.625	-0.08031241369	-0.1442019069	
511.25	-0.1023243622	-0.03229583227	
511.875	-0.08447288747	-0.04226135759	
512.5	-0.001110404117	0.03345466402	
513.125	-0.012103078	-0.05062042626	
513.75	-0.03855177986	-0.03087055145	
514.375	-0.04298144498	-0.01148423053	
515.0	0.003479833477	-0.02044953129	
515.625	0.04695148641	-0.3238612815	
516.25	-0.2184609973	-0.4859658556	
516.875	-0.1770215562	-0.2925343033	
517.5	-0.03816644869	-0.1163518907	
518.125	-0.02615298743	-0.02536556731	
518.75	-0.051032072	-0.1084871005	
519.375	-0.03927848021	0.03166906951	
520.0	0.08700242977	0.0408697963	
520.625	0.1218262679	-0.05532132977	
521.25	-0.03089140756	-0.2110164521	
521.875	-0.1179501268	-0.01273550577	
522.5	-0.0366372816	0.02239209388	
523.125	-0.05095138963	0.02519540432	
523.75	-0.0898544998	-0.003072082427	
524.375	-0.1261798373	0.03097349565	
525.0	-0.03093054198	0.1134650647	
525.625	0.03027537585	0.03814596352	
526.25	-0.01055227837	-0.01061001343	
526.875	-0.03941585333	0.04527412305	
527.5	-0.02617197222	0.1524665584	
528.125	0.06042274392	0.2030478472	
528.75	0.03424192103	0.1687537107	
529.375	0.04204010357	0.04997581571	
530.0	0.02815010729	0.1195176133	
530.625	0.1086235038	0.2244303443	
531.25	0.3304609533	0.05168577406	
531.875	0.1725614228	-0.1572311391	
532.5	-0.04749644394	-0.08968345865	
533.125	0.04031508704	-0.0450633424	
533.75	0.07444995335	-0.1506482789	
534.375	-0.07970811308	-0.2182847411	
535.0	-0.1965170398	-0.07225901964	
535.625	-0.1295517768	0.1005245708	
536.25	0.005165703237	0.0778050288	
536.875	0.07928116013	0.009703420345	
537.5	0.05344835013	-0.03919073808	
538.125	0.09199398692	-0.05645258935	
538.75	0.09863794501	-0.1077136242	
539.375	-0.07151884202	-0.1352924981	
540.0	-0.1473637169	-0.1142212411	
540.625	-0.1387034615	-0.01263691792	
541.25	-0.0736314244	0.008088376822	
541.875	-0.04020450231	-0.01581038285	
542.5	-0.04189404849	-0.04219121752	
543.125	-0.06903863313	-0.0333050533	
543.75	-0.07271079703	0.0001034212818	
544.375	-0.03900174684	0.03792735142	
545.0	-0.000486140135	0.05095833881	
545.625	0.04869378461	0.05114043758	
546.25	0.08485921393	0.02604252136	
546.875	0.0988543343	-0.03028406373	
547.5	0.0520883145	-0.1073894457	
548.125	-0.0427335911	-0.1361404762	
548.75	-0.1088983499	-0.09686203572	
549.375	-0.09915807666	-0.0540251837	
550.0	-0.06590317364	0.01160139432	
550.625	-0.04515902762	0.009972345619	
551.25	-0.0633291822	0.02760945068	
551.875	-0.06142188216	0.05998861089	
552.5	-0.03459590452	0.06621276393	
553.125	-0.007973987348	0.05353812352	
553.75	0.04364359047	0.03659984225	
554.375	0.08203539432	-0.006827615016	
555.0	0.08215468855	-0.06674502664	
555.625	0.07088406941	-0.09937851386	
556.25	0.0489230069	-0.1264944188	
556.875	-0.0425767958	-0.1378924148	
557.5	-0.09444869443	-0.08498215454	
558.125	-0.1064456323	-0.02829987259	
558.75	-0.09773896836	0.003045570368	
559.375	-0.09723719205	0.02425677832	
560.0	-0.08242651685	0.07098067574	
560.625	-0.04167818546	0.1011669973	
561.25	0.01234912488	0.08882712473	
561.875	0.02938812383	0.03873081091	
562.5	0.01308992552	0.04641628747	
563.125	0.06608101109	0.06092942626	
563.75	0.1244909333	-0.003143133621	
564.375	0.109055036	-0.09237027877	
565.0	0.0548960025	-0.1353998544	
565.625	-0.03992571516	-0.1365296863	
566.25	-0.1091383466	-0.08789182656	
566.875	-0.1251833348	-0.06042671315	
567.5	-0.1253140866	-0.08753448388	
568.125	-0.1323198965	-0.1265624148	
568.75	-0.1988482701	-0.05364524481	
569.375	-0.196897954	0.09676050255	
570.0	-0.09725579221	0.1788256973	
570.625	-0.04265362322	0.1524128846	
571.25	0.009970854157	0.1008669154	
571.875	0.05531470759	0.05948769323	
572.5	0.1074130515	-0.008693557454	
573.125	0.07099786419	-0.1003043225	
573.75	0.03388304443	-0.09845289107	
574.375	0.008451888848	-0.06073670367	
575.0	0.02286289021	-0.03616960889	
575.625	0.02945432204	-0.06807576474	
576.25	0.03200887449	-0.09792119928	
576.875	-0.009830996257	-0.1238306886	
577.5	-0.009865735699	-0.1375553807	
578.125	-0.04574904549	-0.1349059607	
578.75	-0.07733260241	-0.1030860414	
579.375	-0.07630874597	-0.0557017995	
580.0	-0.04739741624	-0.02603230405	
580.625	-0.06421599021	-0.02060096966	
581.25	-0.08548397476	0.07121630766	
581.875	0.009889890735	0.1355947891	
582.5	0.04979889688	0.1207602896	
583.125	0.06796270582	0.06440098888	
583.75	0.03619975105	0.01652938814	
584.375	0.0339180712	0.0484773016	
585.0	0.09767324769	0.04640621653	
585.625	0.1360114032	-0.004597791133	
586.25	0.1292277535	-0.05968994693	
586.875	0.05883825712	-0.1204042852	
587.5	-0.0161997922	-0.1217190778	
588.125	-0.01865150911	-0.1208374279	
588.75	0.02560056571	-0.126608823	
589.375	0.05070085559	-0.1352103068	
590.0	-0.05747869498	-0.1499723227	
590.625	-0.1618822562	-0.03096019537	
591.25	-0.1115168242	0.09941510493	
591.875	-0.03010063059	0.1030509776	
592.5	0.006929932652	0.04191970755	
593.125	-0.02307545156	0.04545637029	
593.75	0.05248758652	0.0996760723	
594.375	0.1327477646	0.08024089073	
595.0	0.1469975652	0.08143551646	
595.625	0.1495437657	0.06337122253	
596.25	0.1398775998	0.02959641829	
596.875	0.1366008586	0.02443863161	
597.5	0.1276869148	0.06661142085	
598.125	0.1320140739	0.0926712246	
598.75	0.1573803525	0.06398883099	
599.375	0.181404383	-0.03747025339	
600.0	0.1406334256	-0.1270466394	
600.625	0.1183858142	-0.1551424804	
601.25	0.05060264468	-0.1676080289	
601.875	-0.07396759964	-0.1183529306	
602.5	-0.1119370554	-0.009380515363	
603.125	-0.09508360821	0.04485236789	
603.75	-0.09037357371	0.06295574756	
604.375	-0.08292715582	0.06627647949	
605.0	-0.05847949116	0.07045424406	
605.625	-0.05911207573	0.05796290542	
606.25	-0.0959168541	0.05690958132	
606.875	-0.1482961234	0.07726584621	
607.5	-0.1396106019	0.1626534055	
608.125	-0.0168085194	0.2149126801	
608.75	0.1634886528	0.1434291542	
609.375	0.206252019	-0.0347265555	
610.0	0.1442534344	-0.1095187605	
610.625	0.06825113537	-0.1428569341	
611.25	-0.002191908221	-0.140077905	
611.875	-0.08248592106	-0.1042411833	
612.5	-0.1449844152	-0.04988368594	
613.125	-0.1657634974	0.03533971747	
613.75	-0.07547420178	0.131801794	
614.375	0.04762693714	0.09390650184	
615.0	0.03742760873	0.03422480857	
615.625	0.00281831631	0.07505362813	
616.25	-0.0281123167	0.1289984759	
616.875	-0.0574731098	0.1697867916	
617.5	-0.04416257982	0.1962567592	
618.125	-0.002576418828	0.1885298889	
618.75	0.02881284022	0.1670227408	
619.375	0.08919172488	0.13885791	
620.0	0.1689068711	0.03163021877	
620.625	0.08940136556	-0.1425496841	
621.25	-0.08549180317	-0.1606486544	
621.875	-0.1824518295	-0.0703007089	
622.5	-0.1882126239	0.05967155066	
623.125	-0.02573803438	0.1664606423	
623.75	0.1184235073	0.03044136551	
624.375	0.03271567425	-0.04931831546	
625.0	0.03548857045	-0.02383671917	
625.625	0.04288125046	-0.08053775697	
626.25	-0.04970255925	-0.1197707875	
626.875	-0.1288773776	-0.06677129524	
627.5	-0.1300402875	-0.02859837448	
628.125	-0.1005269758	-0.05522830176	
628.75	-0.07091964126	-0.1050458298	
629.375	-0.09129476656	-0.1281736792	
630.0	-0.1719933596	-0.07544118465	
630.625	-0.1919504571	0.06752896619	
631.25	-0.1181977125	0.1785269561	
631.875	-0.009087124563	0.2188849921	
632.5	0.1386004448	0.1643655074	
633.125	0.188475077	0.03420366341	
633.75	0.1452062243	-0.06827486926	
634.375	0.04889033787	-0.1243663603	
635.0	-0.02094092293	-0.1307848445	
635.625	-0.134048645	-0.07174521682	
636.25	-0.1351405574	0.0713006253	
636.875	-0.05138673811	0.1152335128	
637.5	-0.02698998561	0.0795445664	
638.125	-0.05275299871	0.08255905034	
638.75	-0.05134642832	0.1505928306	
639.375	0.01381991762	0.2195067045	
640.0	0.1362615524	0.2076561398	
640.625	0.2185831096	0.1166717357	
641.25	0.2430441538	-0.02008029423	
641.875	0.1398844931	-0.1750286579	
642.5	-0.02177638935	-0.1876835115	
643.125	-0.1120633871	-0.1006915769	
643.75	-0.1227458669	-0.0590211487	
644.375	-0.1574626819	0.01045563625	
645.0	-0.1210352817	0.1461537127	
645.625	0.06288479299	0.1878201558	
646.25	0.1518874492	0.05525717331	
646.875	0.08579355983	-0.0220806918	
647.5	0.05176907506	0.02564188147	
648.125	0.1442616905	0.03564990177	
648.75	0.2255713052	-0.07887508798	
649.375	0.1789227884	-0.2283550798	
650.0	0.1188069387	-0.2759492793	
650.625	0.1106385652	-0.2593534287	
651.25	0.152860885	-0.2196197932	
651.875	0.2082602376	-0.1648475912	
652.5	0.2359223579	-0.105688201	
653.125	0.2297113215	-0.1171232272	
653.75	0.1573169215	-0.2139413175	
654.375	-0.06563612392	-0.2675128635	
655.0	-0.2556323342	-0.07067458958	
655.625	-0.1501182304	0.170915933	
656.25	0.03842334546	0.1514412506	
656.875	0.0506847435	0.056043234	
657.5	0.03771116232	0.08910018101	
658.125	0.1366039797	0.132197753	
658.75	0.2621674004	0.04819532471	
659.375	0.2747703163	-0.1469422246	
660.0	0.1752426138	-0.274214718	
660.625	0.09457151589	-0.2968399025	
661.25	0.1151467812	-0.2678044373	
661.875	0.1665244343	-0.2350442875	
662.5	0.210099057	-0.1953771102	
663.125	0.2130212829	-0.189689739	
663.75	0.1202247414	-0.258586791	
664.375	-0.05563203007	-0.2868146419	
665.0	-0.2463114544	-0.1679201603	
665.625	-0.2708973792	0.0946972667	
666.25	-0.07306833347	0.2433019152	
666.875	0.1151373802	0.1764922353	
667.5	0.1689632485	0.06943587096	
668.125	0.191024707	-0.02731286403	
668.75	0.1572383665	-0.1383248153	
669.375	0.0680070461	-0.2027566886	
670.0	-0.01229488559	-0.1950630678	
670.625	-0.01107586748	-0.1670074009	
671.25	0.0366344834	-0.159454286	
671.875	0.1038124431	-0.1600286069	
672.5	0.1633122941	-0.1475372268	
673.125	0.1681449496	-0.166376982	
673.75	0.1249113495	-0.2027178502	
674.375	0.02937031696	-0.2323357315	
675.0	-0.09004190636	-0.2057678757	
675.625	-0.1698393352	-0.1024446856	
676.25	-0.1623177873	-0.0103404924	
676.875	-0.127471856	0.01794735692	
677.5	-0.1326581443	0.03469765054	
678.125	-0.1126105192	0.1332662315	
678.75	0.04676234015	0.1955790104	
679.375	0.188461939	0.05140383753	
680.0	0.1242202946	-0.09060204335	
680.625	0.05332168962	-0.07551783884	
681.25	0.07869976088	-0.01867590228	
681.875	0.1364473568	0.0293005851	
682.5	0.1849575046	0.06215344237	
683.125	0.2210531756	0.04900462902	
683.75	0.2347685949	0.04147489039	
684.375	0.2441980306	0.01848593171	
685.0	0.2511661302	0.01894686074	
685.625	0.2540167194	-0.01368968644	
686.25	0.2583150838	-0.05341960958	
686.875	0.2530026059	-0.1487286477	
687.5	0.2035081933	-0.2754306094	
688.125	-0.05290975111	-0.3812996693	
688.75	-0.3730306601	-0.1388431052	
689.375	-0.2324822657	0.2929269992	
690.0	0.1126003063	0.3048136813	
690.625	0.2258563405	0.1976152421	
691.25	0.2991831741	0.2071169232	
691.875	0.4216240314	0.2250767076	
692.5	0.543161014	0.1258288717	
693.125	0.5747416575	-0.08122744727	
693.75	0.488327625	-0.2621157183	
694.375	0.3472213382	-0.374333634	
695.0	0.3677268693	-0.2835487032	
695.625	0.4287498488	-0.1166533745	
696.25	0.4378668726	0.09862394593	
696.875	0.3683781495	0.2963599261	
697.5	0.363803455	0.3517300277	
698.125	0.5023588821	0.1545330623	
698.75	0.3497138071	-0.3781519762	
699.375	-0.3490401573	-0.311783385	
700.0	-0.2226683619	0.3073492918	
700.625	0.1379341104	0.2469767247	
701.25	0.2064106256	0.1390225732	
701.875	0.246776285	0.1743206599	
702.5	0.3187271496	0.1696370779	
703.125	0.3734015955	0.0597957056	
703.75	0.3253392704	-0.1208197138	
704.375	0.2229935481	-0.1886023455	
705.0	0.19743622	-0.133869815	
705.625	0.2266051651	-0.02029897933	
706.25	0.2298903768	0.1307570888	
706.875	0.2185381441	0.2312621346	
707.5	0.2536330268	0.2728984791	
708.125	0.3845614013	0.07876899798	
708.75	0.2272098158	-0.3104910192	
709.375	-0.2428292268	-0.2256634326	
710.0	-0.1505004174	0.188881443	
710.625	0.06672806073	0.1265150297	
711.25	0.08747127274	0.09198013111	
711.875	0.1884299973	0.07939085162	
712.5	0.2622832912	-0.05074067548	
713.125	0.2072812397	-0.1757286016	
713.75	0.09283171805	-0.2270796355	
714.375	-0.01196023777	-0.2072494158	
715.0	-0.04081100874	-0.171713572	
715.625	-0.003023902395	-0.1857960478	
716.25	0.1103116551	-0.2131930365	
716.875	0.2629840815	-0.1767020324	
717.5	0.4191193284	-0.07187263149	
718.125	0.5419236612	-0.01667933866	
718.75	0.6162791658	-0.1451204812	
719.375	0.5840101515	-0.3909245986	
720.0	0.3533789713	-0.6915561051	
720.625	0.1167285736	-0.7830567285	
721.25	-0.1183472621	-0.8087118929	
721.875	-0.2953301482	-0.7817091471	
722.5	-0.5843034964	-0.5665017898	
723.125	-0.6692637115	-0.02441291362	
723.75	-0.2947459821	0.4075205475	
724.375	0.07170940685	0.3854492295	
725.0	0.175398073	0.2892395853	
725.625	0.1822847851	0.3653214599	
726.25	0.1049989275	0.545548841	
726.875	0.02733264415	0.7714902151	
727.5	0.001146526935	1.112890734	
728.125	0.1093272866	1.581069985	
728.75	-0.04262737381	2.043907271	
729.375	-0.288104221	2.754890555	
730.0	0.2439525772	2.938445713	
730.625	0.4000142453	2.92647148	
731.25	-0.4223353161	3.087782404	
731.875	-1.87463775	2.354440825	
732.5	-2.527003594	1.045136818	
733.125	-1.880210615	0.6425211823	
733.75	-0.5727344072	1.15289675	
734.375	0.7329923184	0.3089192254	
735.0	-0.0367849667	-0.5103661214	
735.625	-0.3901239452	0.1160626263	
736.25	-0.01079978588	0.4426315946	
736.875	0.3950151211	0.4185596077	
737.5	0.8626020506	0.06407173481	
738.125	1.125472195	-0.4511836634	
738.75	1.268130978	-1.064562445	
739.375	1.668324359	-1.327083644	
740.0	2.226420083	-1.186913147	
740.625	2.076275417	-0.1951099682	
741.25	0.7464779271	1.660821452	
741.875	-1.84728272	0.4402356179	
742.5	-1.040812332	-1.544549434	
743.125	0.01366255636	-1.488957184	
743.75	-0.08899782987	-0.8321793116	
744.375	-0.3460225705	-0.05449858942	
745.0	0.0677792569	0.09072358863	
745.625	0.03343091694	-0.01201532336	
746.25	-0.02372305843	-0.1191058578	
746.875	-0.211290393	0.05842944971	
747.5	-0.06367349209	0.3251050401	
748.125	0.1453254056	0.3606909916	
748.75	0.192688072	0.3201849494	
749.375	0.1054012256	0.3514592413	
750.0	-0.2087197821	0.2743858069	
