!Created with skrf (http://scikit-rf.org).
# GHz S MA R 50.0 
!freq magS11 angS11
500.0 0.0181612572619 -170.336888141
500.625 0.00935035848653 100.136318616
501.25 0.0129442819851 -139.46035453
501.875 0.0151643195294 -115.643426456
502.5 0.0397437725618 173.42272762
503.125 0.0148815105227 64.0055983066
503.75 0.00841468108509 11.8361091876
504.375 0.0169121718974 -62.135135371
505.0 0.0105797497919 -62.449992647
505.625 0.0266480438658 -69.5056892531
506.25 0.0379907641451 -109.77259558
506.875 0.0761051992411 -91.2635679736
507.5 0.048373036214 -114.57874467
508.125 0.0633577221589 -93.2476539806
508.75 0.0811326178691 -117.551940708
509.375 0.0456136854071 -156.848799129
510.0 0.0338967575357 -118.364855404
510.625 0.0484974451962 -156.362819884
511.25 0.0649917937477 -169.852214292
511.875 0.0613622000678 153.25213476
512.5 0.0417013287263 101.471193213
513.125 0.0549643454694 52.1717659519
513.75 0.0699106067474 43.327667246
514.375 0.0312926081774 -2.8723504906
515.0 0.0403837465617 0.638778398633
515.625 0.08345243187 48.4825790072
516.25 0.112695649705 30.5967824646
516.875 0.0878935297813 64.687179507
517.5 0.122119305583 21.545793632
518.125 0.187933925141 64.6443137431
518.75 0.0952550354726 16.2892271339
519.375 0.0701894816517 20.1444682966
520.0 0.0951614655305 -1.38315777708
520.625 0.102460469641 -5.79548765848
521.25 0.0968498400878 -20.1789223162
521.875 0.0550171886314 -6.74935387815
522.5 0.0909935696458 -34.4935460535
523.125 0.174078552873 -40.1441082666
523.75 0.227920118132 -54.6700053151
524.375 0.197572962792 -59.503981704
525.0 0.0659196525198 -51.6199464841
525.625 0.0395061446319 -29.4516623513
526.25 0.0554640684232 -6.02276866961
526.875 0.058804303915 -20.5977725341
527.5 0.046391389329 -29.4650285138
528.125 0.0451952277236 -56.433173501
528.75 0.0790465893705 -73.1825684044
529.375 0.0927632571858 -113.447279656
530.0 0.053304341102 -131.424424353
530.625 0.0457165015463 -148.289709342
531.25 0.110596943669 -134.869885676
531.875 0.183237377436 -148.71186484
532.5 0.152693716123 -171.054516487
533.125 0.105846928045 175.028978775
533.75 0.132158583007 165.672377034
534.375 0.114697698893 178.045274374
535.0 0.0814092668101 161.633290124
535.625 0.0647127132568 176.279340457
536.25 0.0708957182114 162.617235058
536.875 0.0859235282024 -161.16101032
537.5 0.101683110676 -146.53795518
538.125 0.112258197051 -175.274288707
538.75 0.114009710005 179.749158937
539.375 0.0829695996425 -163.255609274
540.0 0.0907710558216 -153.716996171
540.625 0.138912552298 -158.965181042
541.25 0.12226503428 -142.83701648
541.875 0.0991578923955 -144.355514291
542.5 0.108190391083 -143.854151988
543.125 0.143131835481 -167.82883122
543.75 0.135141044757 158.972948256
544.375 0.0966878581517 136.187326896
545.0 0.0815153027275 90.8296624845
545.625 0.0992435428488 82.4906755334
546.25 0.10482741346 65.6375476962
546.875 0.0740396867357 54.8131186322
547.5 0.10962339701 57.863212954
548.125 0.12573420885 77.7496867974
548.75 0.0907601373032 89.7320443096
549.375 0.0977695417506 85.894825853
550.0 0.0803261851754 125.160660589
550.625 0.051863592988 155.231711557
551.25 0.0458424094864 -153.289748468
551.875 0.0640085521836 -162.302435007
552.5 0.113374122098 -166.403799557
553.125 0.0946579901518 -170.222175325
553.75 0.0954295161966 -173.177269063
554.375 0.103873555198 169.301417613
555.0 0.123678894397 164.965289481
555.625 0.0925348199219 158.330072257
556.25 0.106208224805 158.499360287
556.875 0.10887723476 167.862074282
557.5 0.118941142902 165.488747231
558.125 0.102940344895 162.656844587
558.75 0.0928335999426 174.028110322
559.375 0.0638547831599 -172.221886197
560.0 0.0443328761079 -146.415087763
560.625 0.0551483245875 -138.386675596
561.25 0.0932213814898 -157.314853572
561.875 0.0966189996758 -158.705751324
562.5 0.0921959988378 173.248704135
563.125 0.106880186337 144.035776836
563.75 0.13944149958 127.24511904
564.375 0.106129809592 120.123681605
565.0 0.0874094410338 120.021291027
565.625 0.0810728728979 116.954497932
566.25 0.105145287981 146.879120168
566.875 0.0669956423663 -174.495081169
567.5 0.0736550554817 -179.624545899
568.125 0.0789588383314 -173.597095278
568.75 0.0729263479538 -150.746245361
569.375 0.0509789913924 -115.47614139
570.0 0.0613089924011 -113.408416199
570.625 0.0863659252019 -115.671966004
571.25 0.0947138712738 -127.001264809
571.875 0.0851097181621 -127.214413813
572.5 0.11285034357 -157.444834956
573.125 0.136862563807 -176.744108839
573.75 0.10734243548 160.47187878
574.375 0.0781390841384 154.844039792
575.0 0.102844195338 153.7490584
575.625 0.10279686991 155.818939469
576.25 0.0952151538722 141.972441254
576.875 0.0856214159494 130.846112189
577.5 0.0801434344244 139.977757595
578.125 0.0603667173272 160.897135141
578.75 0.052754565046 152.814719912
579.375 0.0512301816384 174.971987321
580.0 0.0687204253783 179.51442227
580.625 0.0777316219726 -152.11319393
581.25 0.0876975814688 -169.420960393
581.875 0.115700141234 178.625861342
582.5 0.118660295612 -178.654962743
583.125 0.0944214159327 -170.343748371
583.75 0.0826187937275 -169.768651325
584.375 0.106206815278 -165.911524479
585.0 0.0907799430963 -138.33336081
585.625 0.0738488083443 -150.399509454
586.25 0.0718602806217 -144.664460057
586.875 0.0825710457876 -139.808735384
587.5 0.0756244635042 -147.129874546
588.125 0.0606756198679 -177.428538887
588.75 0.0682615873603 -169.493140964
589.375 0.0818523443197 -162.847239911
590.0 0.0939754512986 -164.021002918
590.625 0.10596596112 166.21345914
591.25 0.122358146273 150.746657735
591.875 0.10494948744 147.957964054
592.5 0.0601323972164 158.718914814
593.125 0.0599229252207 154.628533681
593.75 0.0724832328644 166.543747351
594.375 0.0600902665098 -164.619269369
595.0 0.0428741106483 -120.532658085
595.625 0.063835978638 -97.0179340173
596.25 0.0741170275105 -88.2345847152
596.875 0.0632962136524 -87.5429398759
597.5 0.0668813740044 -49.6815745531
598.125 0.0646860015198 -63.20994485
598.75 0.0726960292359 -71.8491428395
599.375 0.0824467028756 -69.5951764869
600.0 0.0983462050748 -69.7823709389
600.625 0.0983636979944 -72.3960287538
601.25 0.0845879480349 -78.1373225887
601.875 0.0682998690177 -99.1051593687
602.5 0.0669903721685 -70.9305602146
603.125 0.0487599198769 -48.6259282001
603.75 0.0322983022817 -26.9013698372
604.375 0.0312550830587 -40.2785550138
605.0 0.0650554906933 -10.3492750242
605.625 0.0506040270629 -17.6553794187
606.25 0.0211569711589 -10.1166293803
606.875 0.0253883371938 42.3587383956
607.5 0.0430550994978 37.0809548307
608.125 0.0655800404573 27.5930814208
608.75 0.0682764005947 25.9954833744
609.375 0.046797887337 19.2466743192
610.0 0.0825873846586 50.5897722492
610.625 0.059625889202 32.1402450676
611.25 0.0456650955564 22.6860235379
611.875 0.03313506855 25.0943318224
612.5 0.0116860082115 31.0848686275
613.125 0.035805746692 129.023023803
613.75 0.0505837346974 123.919625729
614.375 0.0554786783598 126.43606528
615.0 0.0107401112262 98.1717572882
615.625 0.0543718037752 132.418556281
616.25 0.0490563287383 137.473520444
616.875 0.0574481375918 133.146307773
617.5 0.0172893659691 107.725699333
618.125 0.0385570280986 131.984007535
618.75 0.0400463549419 145.699300188
619.375 0.0305242105547 161.526297704
620.0 0.0144239208314 -21.5690278588
620.625 0.0193325983811 -90.4415964845
621.25 0.038914322952 -95.5960967204
621.875 0.0608737007377 -110.328015139
622.5 0.0702806933908 -149.810646278
623.125 0.0955435207973 159.15759914
623.75 0.071262761211 165.608520524
624.375 0.0560510694448 -177.736346178
625.0 0.0292699362884 -111.34670955
625.625 0.0570720034783 -157.642107033
626.25 0.0142469557915 174.34667788
626.875 0.0158483377724 -2.67982831261
627.5 0.0408577886679 -10.6975920442
628.125 0.052356589681 -4.63574568721
628.75 0.038391696491 -11.6520487502
629.375 0.0544797817383 -2.29891009969
630.0 0.0710373820458 2.92712347727
630.625 0.079311657405 15.5360494626
631.25 0.0663417886016 1.49549560762
631.875 0.0703986284778 6.38166487697
632.5 0.0667939129329 6.53201539624
633.125 0.0522630694387 26.6102592093
633.75 0.0426826467542 -10.6820798978
634.375 0.0394121482686 2.80767989984
635.0 0.035509504884 2.36178611244
635.625 0.0533490208095 47.7385844173
636.25 0.0423800773206 23.1684889102
636.875 0.0688291079474 42.6284354334
637.5 0.0437426847902 48.9524403002
638.125 0.0437191997109 68.4053132329
638.75 0.0929175097295 76.5859197312
639.375 0.0884153998214 88.8705243254
640.0 0.0684229144566 102.492498285
640.625 0.0586569685101 106.229947002
641.25 0.0862732709089 127.215010003
641.875 0.0699530763953 148.347716871
642.5 0.0639324887105 157.977584045
643.125 0.0676171357774 161.378040564
643.75 0.0847994356015 175.832583331
644.375 0.0818602459295 -172.392491075
645.0 0.0874286923986 -179.084395675
645.625 0.0962736849842 167.989181408
646.25 0.106222501272 167.81300903
646.875 0.055711292559 164.801625113
647.5 0.0575609926319 -179.472464834
648.125 0.084030818902 -177.363662765
648.75 0.093781854959 -159.456660637
649.375 0.0366149590745 -170.951484446
650.0 0.0399634202647 -119.848935391
650.625 0.0665510512723 -96.0838955589
651.25 0.0819995685647 -67.8096039216
651.875 0.0543729475547 -43.7485781999
652.5 0.0946443183812 -25.7977378999
653.125 0.13181144961 -3.06007374481
653.75 0.125241202953 5.03539245912
654.375 0.104252323217 4.15963938085
655.0 0.11139284527 10.2597504195
655.625 0.0914035262258 20.0443984039
656.25 0.0735932316052 22.5651584496
656.875 0.0522448714777 0.310825546506
657.5 0.0874986926912 21.507586923
658.125 0.0739519400563 47.6700641335
658.75 0.0618185193439 61.0231504648
659.375 0.093093514542 33.9554161506
660.0 0.107541309709 23.1935265107
660.625 0.111404365237 16.9601738988
661.25 0.112659167525 2.47783474969
661.875 0.137919080764 -16.3026221595
662.5 0.124908565542 -22.3088906038
663.125 0.111124752232 -20.1296762681
663.75 0.104100171935 3.54854317839
664.375 0.111409491459 52.9974882473
665.0 0.0754860901218 89.4056409194
665.625 0.0640987419606 109.965692129
666.25 0.094158206695 126.228232621
666.875 0.102588739587 171.315904452
667.5 0.0950071252359 -169.486806119
668.125 0.095909144854 -178.352400506
668.75 0.141960350916 162.355877607
669.375 0.113401133751 174.79719229
670.0 0.0874078885813 -172.353256038
670.625 0.0824651266669 -176.543296848
671.25 0.123515566736 171.351291179
671.875 0.103063776001 166.1760053
672.5 0.0807832569273 153.821982134
673.125 0.0784003592044 150.445404229
673.75 0.123403200428 152.66778702
674.375 0.101312226416 171.111533752
675.0 0.109041182991 -173.579618763
675.625 0.121759335248 -152.310391263
676.25 0.133597602056 -128.80752302
676.875 0.10063360823 -118.871979241
677.5 0.118569841842 -128.068177556
678.125 0.121992526354 -120.290572126
678.75 0.0781749727273 -95.3156386009
679.375 0.0542481297153 -77.0336162826
680.0 0.0824122557386 -84.3043672891
680.625 0.126400429101 -80.8273323373
681.25 0.10949334706 -75.7941992704
681.875 0.105133875019 -97.9978086914
682.5 0.123764704035 -114.465513133
683.125 0.164014903486 -123.107255396
683.75 0.135518878413 -107.460408739
684.375 0.123755445803 -81.9832827609
685.0 0.144643051822 -44.1943750719
685.625 0.133160118057 -3.62454178123
686.25 0.117703044091 18.7282621834
686.875 0.095647160093 43.4692685241
687.5 0.0805337350243 75.9399467149
688.125 0.0842119120551 104.889471152
688.75 0.105016273557 110.428783719
689.375 0.144965182207 115.945810216
690.0 0.143044957403 127.967468632
690.625 0.118437920355 127.007108436
691.25 0.139494207421 97.4223853064
691.875 0.17934196895 67.5590514214
692.5 0.161649589479 34.447753123
693.125 0.078828613151 -11.9876379079
693.75 0.0980587027273 -44.4159933104
694.375 0.140662943079 -34.9310810459
695.0 0.134232803472 8.68044247337
695.625 0.106818732544 48.6553943564
696.25 0.113112948366 114.466065192
696.875 0.134438683437 174.109433841
697.5 0.138194102941 -144.941312767
698.125 0.146897863001 -139.949890815
698.75 0.122907353559 -128.165539761
699.375 0.114510083224 -127.715276449
700.0 0.0997389029614 -116.891226472
700.625 0.120757458579 -98.3993970664
701.25 0.0974874225208 -65.7647453823
701.875 0.0821674117481 -61.353149275
702.5 0.0991136578321 -88.6680468138
703.125 0.170200735546 -132.826343466
703.75 0.172132255464 -149.083440579
704.375 0.129986023863 170.740989571
705.0 0.11044891705 155.101741375
705.625 0.148728402524 -174.822115272
706.25 0.154062886022 -119.697885978
706.875 0.0957494626529 -67.2077588341
707.5 0.078481010666 -36.9484363104
708.125 0.0919970359848 11.4026817314
708.75 0.113001228965 54.1172466211
709.375 0.106010964214 102.118662166
710.0 0.102941612657 133.944692437
710.625 0.102625427345 156.726152919
711.25 0.118778972664 163.889531365
711.875 0.143863940184 162.438447414
712.5 0.157735003122 139.777616787
713.125 0.129323448237 96.6719060581
713.75 0.107422665535 37.474162032
714.375 0.110837625271 37.2594541268
715.0 0.115422348418 34.3168070579
715.625 0.0787178276984 51.7169106332
716.25 0.0754014550379 67.9494642027
716.875 0.112296306214 99.9829158456
717.5 0.145992301922 141.813952099
718.125 0.120142708577 169.759763294
718.75 0.100670199215 167.422601895
719.375 0.106280212897 173.12258388
720.0 0.134421379959 -122.495310334
720.625 0.114677190194 -76.1698023735
721.25 0.0969033615062 -24.8573270703
721.875 0.0872405468437 14.6355588078
722.5 0.0709765130465 61.7167481718
723.125 0.0711485138341 57.7695702514
723.75 0.102335029717 35.1984475773
724.375 0.0938019961204 -18.9081329496
725.0 0.108315629362 -32.4637987217
725.625 0.102358042882 -66.4981221573
726.25 0.104683853154 -74.0587263739
726.875 0.097739717435 -62.4613781153
727.5 0.0857949497684 -32.5270436146
728.125 0.0736494036475 -11.6431202421
728.75 0.0945557176611 21.4949808183
729.375 0.0813586632988 10.7909946303
730.0 0.0516720867489 -19.0552051003
730.625 0.0878186901059 32.7873495945
731.25 0.0729215371477 61.8098723756
731.875 0.0697818825187 117.596514189
732.5 0.0582028376241 144.482777423
733.125 0.0663350359128 159.073890044
733.75 0.0777010592134 171.451445241
734.375 0.0614081090401 166.199062149
735.0 0.029623448166 117.745115423
735.625 0.0707114097456 144.587762592
736.25 0.0519220831989 145.317291432
736.875 0.0651841985976 166.782138564
737.5 0.045308240773 -167.049701137
738.125 0.115549931826 -172.685713207
738.75 0.0773913390184 -178.514351101
739.375 0.0526323846264 -161.357048829
740.0 0.0178222091104 -139.655378983
740.625 0.0240201629807 -137.707345193
741.25 0.0402662325874 -158.73624021
741.875 0.0497797276569 -113.874052666
742.5 0.0491329043145 -25.9198069709
743.125 0.0186286578443 110.815765345
743.75 0.030779327689 105.393490879
744.375 0.0319751632148 150.191410507
745.0 0.0484372660292 139.088727804
745.625 0.0675214001707 135.613056837
746.25 0.072515774247 75.4335234568
746.875 0.0793233307413 30.9584800778
747.5 0.043635743376 9.31136419549
748.125 0.0177984457633 71.0149312887
748.75 0.0283547784562 6.45460385388
749.375 0.0300875367937 -24.911402199
750.0 0.0297394305574 -59.3009275267
