!Created with skrf (http://scikit-rf.org).
# GHz S MA R 50.0 
!freq magS11 angS11
500.0 0.0205128630355 -153.189991675
500.625 0.00762585848256 117.121846267
501.25 0.0136003993095 -141.883428529
501.875 0.0156872158077 -113.90208329
502.5 0.0439546347525 174.040730497
503.125 0.0155138230828 87.7899080016
503.75 0.00687032073686 47.5780618994
504.375 0.013425233472 -53.4867257827
505.0 0.00871816247803 -62.9084825205
505.625 0.024172784812 -68.101597038
506.25 0.033559678576 -111.22222804
506.875 0.0722045942028 -90.0179989828
507.5 0.0427566903142 -120.62101764
508.125 0.0530839476753 -93.6230502538
508.75 0.0778805237841 -118.164212358
509.375 0.047106650311 -163.226700177
510.0 0.0292253715136 -129.352550586
510.625 0.0484860390004 -155.817752433
511.25 0.060788847759 -169.725408761
511.875 0.0596615668418 150.336726189
512.5 0.0381364370054 100.095263375
513.125 0.0514048029178 48.8615834826
513.75 0.0649904170737 44.0917045714
514.375 0.0298007968665 -11.4457338689
515.0 0.0362614117696 -3.72213995478
515.625 0.0754915420663 46.5081720897
516.25 0.110218071306 32.131917968
516.875 0.0831336303841 63.381107886
517.5 0.117442852528 20.8757454572
518.125 0.18502252174 63.8340520192
518.75 0.0921061562083 17.1676011193
519.375 0.0684836109952 19.4187475023
520.0 0.0928158170293 0.24604839528
520.625 0.0997592125058 -6.02494930313
521.25 0.0935857533731 -19.34124688
521.875 0.0533814256674 -8.84990013669
522.5 0.0876275893164 -34.9806792282
523.125 0.170224143301 -40.445448886
523.75 0.225138367535 -54.0438433339
524.375 0.194299279046 -61.2785243375
525.0 0.0648867449945 -55.9988438422
525.625 0.0368142992475 -33.4269686137
526.25 0.0529459613656 -5.02883384529
526.875 0.0542641569652 -20.3418726031
527.5 0.0420645104111 -30.5915288995
528.125 0.0419220685646 -55.9323222701
528.75 0.0775953993198 -71.4663508555
529.375 0.0878583440172 -111.570717702
530.0 0.0501072705492 -131.300132678
530.625 0.0441169985748 -144.849501822
531.25 0.103057554055 -132.970478439
531.875 0.174719182422 -146.857553391
532.5 0.146792197881 -169.894442065
533.125 0.10136096775 176.590352731
533.75 0.130847463965 168.144601345
534.375 0.109975757641 179.241988907
535.0 0.077731430854 161.089470038
535.625 0.06141571342 176.78271992
536.25 0.0682126786402 164.591687359
536.875 0.0810492092565 -159.686361142
537.5 0.0984636383534 -145.793457805
538.125 0.110143774293 -174.209125799
538.75 0.110826964963 -179.612389336
539.375 0.0793371097951 -163.701529487
540.0 0.0891053899184 -152.530091002
540.625 0.136257948331 -156.730216374
541.25 0.117351529733 -141.873561958
541.875 0.0958620368416 -142.382988948
542.5 0.105972961901 -143.495761693
543.125 0.140091694435 -166.477334487
543.75 0.132901185164 159.239578249
544.375 0.0946656039262 134.640205918
545.0 0.0781270911831 90.7067412478
545.625 0.0943835470167 83.9383755005
546.25 0.103208526365 66.5876582473
546.875 0.0701098552958 54.1298083017
547.5 0.104766854763 59.2810340032
548.125 0.120793516126 79.7149779359
548.75 0.0880495756245 90.2115464676
549.375 0.0939218988867 87.4184005017
550.0 0.0747516189528 125.369096972
550.625 0.047783850081 158.698158856
551.25 0.0459466638649 -150.886295882
551.875 0.0617742436775 -159.400909045
552.5 0.109914476468 -162.519784373
553.125 0.0932786992234 -167.48135878
553.75 0.0954517839473 -171.563284691
554.375 0.0994437278083 169.632151188
555.0 0.119368102271 165.752632597
555.625 0.0895494710992 159.36330785
556.25 0.105366878004 159.770939637
556.875 0.104748407303 168.605699725
557.5 0.115389290499 166.690024754
558.125 0.0989652330822 163.854254024
558.75 0.0913426729771 175.534254876
559.375 0.0601753905333 -171.633664507
560.0 0.0427469979667 -144.365197598
560.625 0.0550568349625 -134.615233346
561.25 0.0935061602562 -155.114747068
561.875 0.093127402909 -156.584595895
562.5 0.0900937423858 174.697024132
563.125 0.106012504089 145.971853671
563.75 0.138228233128 129.264107203
564.375 0.102519781668 121.144374836
565.0 0.0858115760831 120.851278503
565.625 0.0787774394261 119.468168156
566.25 0.10374318113 149.24761492
566.875 0.063383833896 -172.645781482
567.5 0.0716575007109 -177.119557503
568.125 0.0763349220973 -171.040543296
568.75 0.069739060328 -147.670626283
569.375 0.050656938072 -112.165556845
570.0 0.0609403094021 -110.333996442
570.625 0.0847804532141 -112.570566423
571.25 0.0944264844271 -125.268121849
571.875 0.0858157817349 -124.263815454
572.5 0.111349818192 -155.048247847
573.125 0.132945410305 -174.380494338
573.75 0.105775041977 161.985560945
574.375 0.0747275426758 157.693889662
575.0 0.100037412967 159.007625719
575.625 0.101974708652 159.111010262
576.25 0.0943600409627 143.037118595
576.875 0.082290534933 132.884115182
577.5 0.0762554121443 142.83993014
578.125 0.0565931041924 163.355098789
578.75 0.0522384524018 154.675569407
579.375 0.0495334273745 178.945668232
580.0 0.0668940936629 -176.398035716
580.625 0.0752500699072 -150.657285016
581.25 0.0896181101508 -168.328900968
581.875 0.115957414505 -179.226944645
582.5 0.11604566102 -176.224428032
583.125 0.0925589597947 -167.078140032
583.75 0.0825326895527 -166.668562572
584.375 0.105706625436 -163.602326746
585.0 0.0884214363796 -136.153461938
585.625 0.0734852933158 -148.942275079
586.25 0.0718005476056 -140.675285321
586.875 0.0813187652019 -135.903767279
587.5 0.073262815176 -143.517748737
588.125 0.0595982242849 -173.050221364
588.75 0.0678795234618 -164.427361524
589.375 0.0819097823922 -160.584830387
590.0 0.0943675109679 -162.296254538
590.625 0.106790943345 167.80056747
591.25 0.122480219525 153.765535259
591.875 0.102988248381 149.302943805
592.5 0.0580943854456 161.444169339
593.125 0.0602301962772 159.340640662
593.75 0.0714849692349 172.144591087
594.375 0.0595587258667 -161.528484708
595.0 0.0433552076655 -115.881241435
595.625 0.0663257208598 -92.7805543014
596.25 0.0768083515817 -83.7936812056
596.875 0.0638773261456 -84.4601220692
597.5 0.0674886133572 -46.0770737953
598.125 0.0685766289216 -58.8692890242
598.75 0.0748218087572 -69.4878893105
599.375 0.0850645440757 -67.8985787228
600.0 0.101835739005 -67.1417777927
600.625 0.0992455995472 -71.4428490122
601.25 0.0840502384646 -75.0073326996
601.875 0.0685420551181 -96.1194332324
602.5 0.0656027478349 -64.75079146
603.125 0.0464249661768 -40.5300176926
603.75 0.0339379808779 -19.8950922113
604.375 0.0329635166562 -34.2389921379
605.0 0.0686850148928 -7.84095884741
605.625 0.0498952522572 -10.4965781944
606.25 0.0206727907958 -5.18800703869
606.875 0.0302545420108 43.4058032041
607.5 0.0480252429711 37.757187071
608.125 0.0709853823757 29.9289268935
608.75 0.0694607230572 30.9430467855
609.375 0.0494780166173 22.1160866957
610.0 0.0883479630512 52.5658539137
610.625 0.0626138179544 34.6261176233
611.25 0.045122118353 25.4491560779
611.875 0.0318512839493 36.6496306764
612.5 0.0131473031317 51.8880006104
613.125 0.0410580299549 130.396665326
613.75 0.0568355562657 124.901004423
614.375 0.0594923381759 131.067164604
615.0 0.0145992427772 101.63791067
615.625 0.0578053913636 135.487688464
616.25 0.0552611296958 133.1665598
616.875 0.0617549879532 138.275182367
617.5 0.0208715728576 107.814311059
618.125 0.0448060497598 131.766982032
618.75 0.0468195905346 143.459208199
619.375 0.0363345909596 156.025194925
620.0 0.0117463829341 -14.0780800597
620.625 0.0105399679187 -89.425535808
621.25 0.0382304983243 -100.719273222
621.875 0.0610804578997 -116.033029331
622.5 0.0691575221216 -152.260205985
623.125 0.10085635138 159.715636634
623.75 0.0745660802408 160.884839792
624.375 0.059171772065 -179.791617866
625.0 0.0297952586174 -120.25989535
625.625 0.062857294286 -156.370496982
626.25 0.0188876966168 175.535893319
626.875 0.0149777161445 -0.159540312235
627.5 0.0351665339512 -13.862305102
628.125 0.0482767855005 -5.23267172319
628.75 0.0375098162387 -18.926345996
629.375 0.0467729339905 -2.27699320929
630.0 0.0643929197614 -1.25496180367
630.625 0.0735473039368 14.0512713484
631.25 0.0662029746827 -2.35377953556
631.875 0.0721497445845 4.94041430362
632.5 0.0633303794671 3.60279184231
633.125 0.0484229130245 25.3465190913
633.75 0.0435577394628 -14.6894246243
634.375 0.0418033403197 -5.43070635301
635.0 0.0373548293266 -3.15741724827
635.625 0.0501298754387 48.3106645583
636.25 0.0434036169309 15.4012057112
636.875 0.064420517698 40.4080269754
637.5 0.0420418707482 45.3470979881
638.125 0.0391038388415 69.7503240946
638.75 0.0888480406568 79.1337893165
639.375 0.0827155880072 87.8042909001
640.0 0.0639794514839 99.1141565038
640.625 0.0545056026492 104.454766039
641.25 0.0834344571007 128.97891822
641.875 0.06558028535 146.095515075
642.5 0.0631321613429 158.020285409
643.125 0.0636895346076 164.061388285
643.75 0.0801297653094 177.533073472
644.375 0.0770787070333 -174.126289471
645.0 0.0826037037884 -178.328533411
645.625 0.0914163219273 168.225954586
646.25 0.103399714507 169.334851817
646.875 0.0554191803724 160.73712516
647.5 0.053797432859 178.156963364
648.125 0.0788004844712 -176.546994296
648.75 0.0905507160816 -158.024565554
649.375 0.0367702759552 -177.334966877
650.0 0.0365197094991 -122.139448845
650.625 0.0623047365621 -93.3577051545
651.25 0.0798314275888 -65.4208453711
651.875 0.051575902898 -44.8497448688
652.5 0.091384902018 -24.03173497
653.125 0.130850884979 -1.98487755986
653.75 0.123294333809 6.25066624788
654.375 0.100587763929 4.08815617847
655.0 0.10552594778 11.4892666024
655.625 0.0864803684563 19.6498227921
656.25 0.0714097272098 23.9937070028
656.875 0.0498861901109 -3.17259172902
657.5 0.0826687249194 22.098632217
658.125 0.0720546562716 50.8969103377
658.75 0.0588348665287 63.562701076
659.375 0.0925353957582 37.4468108387
660.0 0.10408511566 25.4343656081
660.625 0.106172526185 18.5528065779
661.25 0.110052885068 4.83453115031
661.875 0.136647857209 -13.8172164984
662.5 0.123019029928 -20.5984681672
663.125 0.108506184187 -18.4850904349
663.75 0.0995963429022 5.77283948412
664.375 0.106999521043 54.7159080035
665.0 0.0705098715416 91.1338569753
665.625 0.0605651284206 111.744969747
666.25 0.0933464154395 128.563890204
666.875 0.0979999113141 171.359907707
667.5 0.0907229982489 -167.820947787
668.125 0.0923917597956 -178.325211392
668.75 0.141232272394 164.32633183
669.375 0.107551338701 176.050690871
670.0 0.083306101635 -169.658501197
670.625 0.0801399877296 -173.928102062
671.25 0.120243884715 174.390149639
671.875 0.0974032632393 166.541044337
672.5 0.0780882825962 154.527362335
673.125 0.0785078571723 154.628964022
673.75 0.122615142843 154.889321122
674.375 0.0968746641982 172.453883386
675.0 0.105417104513 -171.593402933
675.625 0.115594709002 -149.79881807
676.25 0.131778120527 -127.072039745
676.875 0.0959246283447 -118.611056006
677.5 0.113811059735 -126.979438509
678.125 0.118324079239 -120.804449321
678.75 0.0742704920072 -94.3272343937
679.375 0.0538040402297 -73.6006363333
680.0 0.0791297846905 -81.5168581021
680.625 0.123252791715 -76.2214190079
681.25 0.105676302278 -73.1983196943
681.875 0.104666303403 -96.2865547397
682.5 0.119533999775 -112.584642566
683.125 0.160431731621 -120.483262808
683.75 0.129528672804 -105.843892169
684.375 0.122450399828 -80.1195609059
685.0 0.142656365257 -42.397787543
685.625 0.128692698656 -2.37761666609
686.25 0.113204658184 21.5094426595
686.875 0.0917033037617 46.3784936787
687.5 0.0784153779272 78.1874884682
688.125 0.0821098216164 107.774176787
688.75 0.105392261628 112.52241782
689.375 0.143015419929 119.500318713
690.0 0.140939996677 130.241168612
690.625 0.11726343962 130.443454366
691.25 0.137508231323 100.31040515
691.875 0.17583352311 71.4139241494
692.5 0.157133122066 36.8196847487
693.125 0.0733627966623 -9.63786873492
693.75 0.0961749211935 -40.9513895339
694.375 0.137946042927 -33.984638986
695.0 0.130569449994 11.2664293936
695.625 0.10694821483 49.8389255275
696.25 0.111122879592 117.67707536
696.875 0.134405969356 177.409646425
697.5 0.136474873484 -143.519906817
698.125 0.14646812203 -137.712280529
698.75 0.117203511123 -126.661440627
699.375 0.112127690442 -125.495721434
700.0 0.0974712483813 -113.752759342
700.625 0.118951719225 -95.2383289418
701.25 0.0962082757772 -61.6233234017
701.875 0.0808898124163 -56.6501586645
702.5 0.10038931191 -84.7142753527
703.125 0.172021636578 -129.56302041
703.75 0.165699809591 -145.798573017
704.375 0.125682003253 173.65108493
705.0 0.108311337955 156.545245088
705.625 0.144514382926 -170.451566709
706.25 0.151036387717 -115.704418145
706.875 0.0951500630745 -63.0094394021
707.5 0.0761711770392 -32.4134834185
708.125 0.0915971085796 16.2029926464
708.75 0.112760638933 56.820556032
709.375 0.104735892548 105.594908485
710.0 0.102474917181 137.056177509
710.625 0.103786276918 159.821584228
711.25 0.118945793659 166.113233399
711.875 0.144628091862 166.698635835
712.5 0.15625589382 143.931833376
713.125 0.126197482223 99.8921126855
713.75 0.106708119893 39.5606399792
714.375 0.107457063899 42.0686247756
715.0 0.112894761832 39.94594851
715.625 0.0755477341212 55.4661639338
716.25 0.0784486989003 71.6419873804
716.875 0.114462692553 104.821282358
717.5 0.145308016118 147.575228536
718.125 0.121187343273 174.258847974
718.75 0.102056372398 171.486554748
719.375 0.107816552468 176.343560144
720.0 0.132492348627 -119.280833762
720.625 0.11575703025 -72.6304742368
721.25 0.0981653696264 -20.6050885325
721.875 0.0873680373308 20.1163935432
722.5 0.0761666228842 69.6560980656
723.125 0.0805796818351 65.8153259538
723.75 0.109425021803 40.0926549386
724.375 0.0962058653234 -14.5218225094
725.0 0.109919923142 -28.7601455348
725.625 0.109257135652 -63.6544653379
726.25 0.108273866858 -73.2404189559
726.875 0.098155099412 -57.3776804692
727.5 0.0825864974316 -26.9585591387
728.125 0.0789367350758 -5.35124802909
728.75 0.102068045555 28.864741085
729.375 0.0857996719452 16.3260687079
730.0 0.0543735361769 -15.0531855739
730.625 0.0928086432205 38.0618816177
731.25 0.079753841467 68.4808355436
731.875 0.0754368954488 119.679988869
732.5 0.0637628858983 145.983772815
733.125 0.0707546135574 164.24395358
733.75 0.082813592121 175.593232592
734.375 0.0693465725144 170.130743118
735.0 0.0342452694676 127.05377873
735.625 0.0738704827546 153.700316354
736.25 0.0622768008429 150.114233391
736.875 0.0702263318426 168.056090729
737.5 0.0480953741302 -171.151489658
738.125 0.120433246464 -168.494715431
738.75 0.0852463023575 -174.383727828
739.375 0.0578874061062 -153.741906075
740.0 0.0279304144841 -137.77795831
740.625 0.0271446655973 -141.624819602
741.25 0.0484754609056 -151.918638234
741.875 0.0558267572616 -120.425792767
742.5 0.0574884590103 -21.6670767959
743.125 0.0172758033709 94.8173171487
743.75 0.0351799763389 92.3897936392
744.375 0.030776280998 121.245959577
745.0 0.0484502121197 131.01633881
745.625 0.0643684970543 130.745313119
746.25 0.0764258468064 77.6817897729
746.875 0.0870267219107 29.538149198
747.5 0.046811813121 11.7063076924
748.125 0.0149920215862 64.4382465439
748.75 0.0264578585383 -8.07181516348
749.375 0.0313790588925 -36.8274470797
750.0 0.0262998709346 -76.3887158433
