!Created with skrf (http://scikit-rf.org).
# GHz S RI R (50+0j) 
!freq	ReS11	ImS11	
500.0	-0.8971992346	-3.020228196	
500.625	0.4059296792	-1.455935906	
501.25	-1.341277728	-3.209035369	
501.875	-1.635144603	-0.2390309492	
502.5	-0.04009423053	-0.407576469	
503.125	-0.1950654306	0.1861311859	
503.75	-0.06034470955	0.1363079594	
504.375	0.1493766911	-0.05504567813	
505.0	-0.07256916527	0.04130732415	
505.625	0.1609932078	-0.3360669657	
506.25	-0.4300074055	0.1396595488	
506.875	0.1849144124	-0.5659642744	
507.5	-1.406585299	-1.563972761	
508.125	0.2838466089	-0.1646198457	
508.75	2.830260692	-3.993961117	
509.375	-3.067305591	-2.432988314	
510.0	-0.4496398259	-1.239841562	
510.625	-1.304152204	-0.6206188899	
511.25	-0.09872764919	-0.06766546806	
511.875	-0.455795365	-0.2105699447	
512.5	-0.1073234219	0.1710624647	
513.125	-0.1836876473	-0.1528264056	
513.75	-0.02179689252	-0.2092201885	
514.375	-0.499358769	0.05447254805	
515.0	1.192650059	-0.04153542749	
515.625	-2.18849663	-1.372688142	
516.25	1.233433397	-0.3912773018	
516.875	-1.12164204	-2.562591523	
517.5	-0.7325073927	0.3428036704	
518.125	0.01182631107	-0.4466061443	
518.75	-0.6113503452	0.1346676479	
519.375	-0.2194523661	-0.05928242156	
520.0	0.5306753632	0.2041842786	
520.625	0.2886768847	-0.3204911542	
521.25	0.2826146495	-0.5669675965	
521.875	-0.5382756791	-0.02428880817	
522.5	-0.03020225537	0.006459588775	
523.125	-0.09844386739	0.2612325063	
523.75	-0.1820148583	-0.2051059821	
524.375	-0.4452854265	0.3906023379	
525.0	-0.06760132916	0.07879065784	
525.625	0.06388718412	0.2735684362	
526.25	-0.1398521082	-0.2807870511	
526.875	-0.01551810483	0.3193439214	
527.5	-0.09472061232	0.1696956579	
528.125	-0.00518920943	1.119112751	
528.75	0.4329215367	0.3446546393	
529.375	-0.02801330964	0.3452438552	
530.0	0.2998192793	0.07105344406	
530.625	-0.04727656464	1.031464307	
531.25	1.231011246	-0.3413428422	
531.875	0.5043804899	-0.2244127094	
532.5	-0.3944867688	-0.4484263611	
533.125	0.4639624605	0.04746244393	
533.75	-0.3991354191	-0.7078261844	
534.375	0.2690626347	-0.4820933411	
535.0	-1.071690485	-0.2551445632	
535.625	-0.1089958317	0.3031721464	
536.25	-0.1047729102	0.2562347091	
536.875	0.3363323447	-0.07736074779	
537.5	0.1144514581	0.05013075527	
538.125	0.4024191335	-0.327236907	
538.75	0.1076754315	-0.198652493	
539.375	-0.01756367126	-0.4757005939	
540.0	-0.6138614997	-0.3305301266	
540.625	-0.2756317842	0.0260853946	
541.25	-0.1470951062	-0.006002872311	
541.875	-0.1863731567	-0.08026983623	
542.5	-0.03976888788	-0.004985706466	
543.125	-0.2375486342	-0.1919091289	
543.75	-0.1479869379	0.1522361359	
544.375	-0.1801989124	-0.01299392935	
545.0	0.1126423224	0.2057993404	
545.625	-0.09647287569	0.04118924049	
546.25	0.5099823314	0.2034231128	
546.875	0.03357286193	-0.2042662974	
547.5	0.3260979467	-0.1428847736	
548.125	-0.2537714698	-0.5458577886	
548.75	-0.1660872258	-0.07203387998	
549.375	-0.2457201868	-0.3303054407	
550.0	-0.2104589487	0.1740060651	
550.625	-0.08362634846	-0.1317761434	
551.25	-0.2288206781	0.2154940778	
551.875	-0.07219368421	0.06925770274	
552.5	-0.1803581079	0.2126782911	
553.125	0.01566213299	0.1708436034	
553.75	0.08625470318	0.1115987963	
554.375	0.246892668	-0.01371650746	
555.0	0.2033534077	-0.1675173287	
555.625	0.2008480057	-0.2530889603	
556.25	0.1429308014	-0.3487973078	
556.875	-0.09509324431	-0.3704594438	
557.5	-0.2185148214	-0.2281379781	
558.125	-0.2774537671	-0.1005320328	
558.75	-0.262654888	0.02467561657	
559.375	-0.2208920445	0.03843598674	
560.0	-0.2623146384	0.178794858	
560.625	-0.04662923873	0.2748385619	
561.25	-0.05190985298	0.1759174342	
561.875	0.1628544744	0.1451431152	
562.5	-0.06631634111	0.05136827188	
563.125	0.251195928	0.2498374689	
563.75	0.23149671	-0.1375034498	
564.375	0.3154036044	-0.06702235416	
565.0	0.1856246419	-0.4690023574	
565.625	-0.1563617783	-0.2429786844	
566.25	-0.157527637	-0.3122331603	
566.875	-0.4613638298	-0.137129336	
567.5	-0.1720309329	-0.1639580433	
568.125	-0.3736379718	-0.5398887837	
568.75	-0.5594104063	0.003001886388	
569.375	-0.4005620089	0.02831360245	
570.0	-0.5125090746	0.6351098118	
570.625	0.2034928156	0.4551056855	
571.25	-0.2764513166	0.04886563391	
571.875	0.5029369783	0.2582811412	
572.5	-0.07030834569	0.100648038	
573.125	0.5192823342	-0.4136897528	
573.75	-0.2292093247	-0.343703322	
574.375	0.2697365608	0.09630855956	
575.0	-0.02706161624	-0.4168890771	
575.625	0.07722700357	0.1579317327	
576.25	0.3403101615	-0.4178188711	
576.875	-0.2944170843	-0.3374025632	
577.5	0.1330521016	-0.1177888931	
578.125	-0.04823003948	-0.6224470419	
578.75	-0.3641226868	-0.1116380145	
579.375	0.02404157762	-0.1147042338	
580.0	-0.2863522601	-0.2312928757	
580.625	0.01431158815	0.1360030398	
581.25	-0.424584303	-0.07454947624	
581.875	0.1593986349	0.6386349829	
582.5	0.2956725126	-0.03474596683	
583.125	-0.24309993	0.3431543627	
583.75	0.5497301295	-0.1383146181	
584.375	-0.3158355268	0.3955055578	
585.0	0.6242946493	-0.02123905771	
585.625	-0.09327081383	0.0006496754517	
586.25	0.695692006	0.02658353153	
586.875	-0.1049816797	-0.5096854181	
587.5	0.05621969912	-0.06025124559	
588.125	0.1355552291	-0.519131044	
588.75	-0.2016474704	-0.4219227936	
589.375	0.2814728493	-0.07548966812	
590.0	-0.2103118165	-0.6132102246	
590.625	-0.272647152	0.05165907056	
591.25	-0.4394061885	0.1295405087	
591.875	0.02116779274	0.4362161658	
592.5	-0.03607699837	-0.08160957311	
593.125	-0.102683425	0.2686872585	
593.75	0.2642069339	0.1009876049	
594.375	-0.01859476792	0.2713550321	
595.0	0.6804081178	0.5987296639	
595.625	0.3375612382	-0.3059850761	
596.25	0.2496829357	0.5097705118	
596.875	0.6781882196	-0.2335581798	
597.5	-0.09882115568	0.2425874908	
598.125	0.7154661004	0.4599760483	
598.75	0.2312360922	-0.0967012345	
599.375	0.5209836154	0.2449630159	
600.0	0.4795757151	-0.5194683313	
600.625	0.1028308601	-0.4134404487	
601.25	0.2499846413	-0.2931660773	
601.875	-0.2260035239	-0.4050212621	
602.5	-0.2430470789	0.01170255792	
603.125	-0.2732193235	0.06290783074	
603.75	-0.2114181687	0.1540033937	
604.375	-0.2070902896	0.1791226788	
605.0	-0.170323418	0.09538390048	
605.625	-0.1919949955	0.2704470084	
606.25	-0.08708858425	-0.03851900728	
606.875	-0.7690413461	0.2460002045	
607.5	0.1029598611	0.4472419689	
608.125	-0.43604327	0.3384634789	
608.75	0.8859394063	0.4718418975	
609.375	0.09705537238	-0.05539376576	
610.0	0.7096758504	-0.2200271018	
610.625	-0.1144114866	-0.4911039144	
611.25	0.3893440581	-0.2035128049	
611.875	-0.4976844055	-0.2749165936	
612.5	-0.08813491727	-0.2224327492	
613.125	-0.6449407868	0.08147042475	
613.75	0.008676135575	0.2502822873	
614.375	-0.07271019024	0.4859244088	
615.0	0.2390238893	-0.1768237895	
615.625	-0.2390110938	0.3605130915	
616.25	0.2618207234	0.35161837	
616.875	-0.4266314346	0.1440363312	
617.5	-0.1680760902	0.8163967168	
618.125	0.2135630066	0.273689206	
618.75	-0.203110393	0.5455809515	
619.375	0.4223530723	0.2784581318	
620.0	0.2716491978	0.1980121279	
620.625	0.2923562493	-0.4964910957	
621.25	-0.1841732199	-0.2660862749	
621.875	-0.5266356733	-0.2568207243	
622.5	-0.3384030691	0.1689828211	
623.125	-0.2323246754	0.4002427687	
623.75	0.4858066911	-0.09333052992	
624.375	-0.02793188882	0.2893631881	
625.0	-0.04503695661	-0.485778862	
625.625	0.2357945089	0.1172275399	
626.25	-0.2195328857	-0.6355549114	
626.875	-0.2138514764	0.2211042627	
627.5	-0.2928906885	-0.516961807	
628.125	-0.4583262352	0.1131204334	
628.75	0.141822267	-0.1796496501	
629.375	-0.2995631475	-0.5866788864	
630.0	-0.4751745132	0.04066492897	
630.625	-0.3592902393	-0.02460287455	
631.25	-0.4260867868	0.4968788333	
631.875	0.03338705896	0.565798023	
632.5	0.2862291749	0.3508067777	
633.125	0.5190783805	0.2002699527	
633.75	0.298201221	-0.2313271463	
634.375	0.1972199023	-0.2651741429	
635.0	-0.06610350901	-0.4386869531	
635.625	-0.2573338206	0.009255626642	
636.25	-0.422080058	-0.1068365336	
636.875	-0.1800670654	0.6192846369	
637.5	0.2426822852	-0.02427867222	
638.125	-0.5862029065	0.2120687315	
638.75	0.2538421501	0.5474325239	
639.375	-0.2517300011	0.230421032	
640.0	0.4616681045	0.8960616465	
640.625	0.5017718765	-0.08612220025	
641.25	0.5020920111	0.4129818113	
641.875	0.3465412215	-0.8859708899	
642.5	-0.1923983173	-0.1339574442	
643.125	0.01418825795	-0.4887131325	
643.75	-0.710339341	-0.09867016438	
644.375	-0.005694735771	0.147034545	
645.0	-0.6017863538	0.1853568866	
645.625	0.321165455	0.6391870247	
646.25	0.2635881715	-0.1080043131	
646.875	0.2895105847	0.3578264157	
647.5	-0.03186636521	-0.3620967623	
648.125	0.4268111608	0.4975026201	
648.75	0.7692090198	-0.548113881	
649.375	-0.06056140461	-0.3374938023	
650.0	1.075056429	-0.3517969156	
650.625	0.0118660134	-1.427474385	
651.25	-0.08757739609	-0.002222087181	
651.875	1.225043843	-0.2038898409	
652.5	0.441162282	-0.8631488349	
653.125	0.2820904002	0.2404180754	
653.75	0.7175524469	-0.9046776468	
654.375	-0.5845393178	-0.4096611855	
655.0	-0.1915067975	-0.3556482443	
655.625	-0.8954064939	0.6609169643	
656.25	0.5285275337	0.1382342617	
656.875	-0.2451189932	0.2317937031	
657.5	0.4329411516	0.2581868386	
658.125	0.04459421834	0.1028245997	
658.75	0.8549056749	0.5300583058	
659.375	0.6619814002	-0.7108993474	
660.0	0.2343956232	-0.4504930506	
660.625	0.6515337696	-0.5738166165	
661.25	0.2364219962	-1.288928108	
661.875	-0.02887151578	-0.078208222	
662.5	1.143000262	-0.4192943953	
663.125	0.2552246243	-0.8745803337	
663.75	0.3515090029	-0.09666230236	
664.375	-0.2973438873	-1.328337361	
665.0	-0.4508153535	0.06992183113	
665.625	-0.7456459337	-0.2034860016	
666.25	-0.2726773702	0.929535112	
666.875	0.514041886	0.182939462	
667.5	0.1248067429	0.439461005	
668.125	0.7411023053	-0.2067920229	
668.75	0.1368638382	-0.3090142426	
669.375	0.4953032353	-0.4143160911	
670.0	-0.3423424217	-0.6198577233	
670.625	0.2074833115	-0.2371822794	
671.25	0.1744670853	-0.5920458537	
671.875	0.06833571014	-0.475738572	
672.5	0.3016588662	-0.0583454542	
673.125	0.8949885194	-0.4159495804	
673.75	-0.02179920304	-0.8986999613	
674.375	0.1489337033	-0.09753941975	
675.0	-0.0868320206	-0.9674769041	
675.625	-0.7520101833	0.3309207616	
676.25	-0.2006390041	-0.7067197053	
676.875	-0.6256966866	0.5006059801	
677.5	0.1900860539	-0.1522299714	
678.125	-0.9008682776	0.5868069125	
678.75	0.6741164777	0.3424928436	
679.375	0.1247934165	0.1248446275	
680.0	0.5478287732	0.02939096068	
680.625	0.1633254298	-0.5628395438	
681.25	-0.1131912372	0.2915665938	
681.875	0.6723453945	0.01215022806	
682.5	0.321771128	-0.01274859729	
683.125	0.4085482247	0.3219838184	
683.75	0.8876992178	0.03702758863	
684.375	0.3116610107	-0.06216365459	
685.0	0.5254812643	0.2967963452	
685.625	1.159135753	-0.09468776486	
686.25	0.03572821317	-0.5953111366	
686.875	1.187673903	0.4639997312	
687.5	0.02771943033	-1.824778033	
688.125	0.3149451366	-0.1570412704	
688.75	-1.410659392	-0.9505771601	
689.375	0.1354120443	1.230994291	
690.0	-0.6544671298	0.7911409875	
690.625	1.31770992	0.4549073638	
691.25	0.3052188198	0.3231543579	
691.875	1.134200879	1.05753615	
692.5	1.559243976	0.1062254575	
693.125	1.262417696	-0.01708333249	
693.75	1.337239031	-0.634129943	
694.375	0.8798817445	-0.8603279777	
695.0	1.015196704	-0.8479408399	
695.625	0.8328914136	-0.337443934	
696.25	1.344531925	0.6042651479	
696.875	1.249199469	0.2687027563	
697.5	0.4101252927	1.161765218	
698.125	2.247789962	0.2053503083	
698.75	0.05994811747	-0.7597359657	
699.375	-0.7439778422	-1.551672572	
700.0	-0.2610458895	1.437890334	
700.625	-0.3658898747	0.2835412194	
701.25	1.184199189	0.5578969927	
701.875	0.2437097582	0.1458501993	
702.5	0.8942034668	0.9858280649	
703.125	0.9020747908	-0.3642502442	
703.75	0.8385153472	0.2246631268	
704.375	0.7133153494	-0.8874106833	
705.0	0.06694970455	-0.04952856689	
705.625	1.196691492	0.1358738432	
706.25	0.2774093824	-0.2150897557	
706.875	0.278710191	1.077418569	
707.5	1.394603782	0.5926729785	
708.125	0.4250638581	0.3093621009	
708.75	0.9806122368	-1.375059433	
709.375	-0.9802668882	-0.106541613	
710.0	-0.5095125734	0.1641536585	
710.625	0.3627083191	0.5480581311	
711.25	0.1159950332	0.1399783762	
711.875	0.5939556725	0.2794315434	
712.5	0.5639951903	-0.04940280531	
713.125	0.7132993921	-0.5632242366	
713.75	0.07666099187	-0.4155698118	
714.375	0.2065169447	-0.6405300701	
715.0	-0.3684593916	-0.4404417968	
715.625	0.4355596415	-0.1709406957	
716.25	0.4529261616	-1.263506901	
716.875	-0.2184434761	-0.07281644444	
717.5	1.942014359	0.6770748984	
718.125	2.400916652	-1.29224477	
718.75	-0.0008894505586	0.4535858148	
719.375	3.828421629	-1.859295711	
720.0	-0.7390514167	-1.574750738	
720.625	1.327009927	-1.723282451	
721.25	-1.454207806	-3.60527909	
721.875	-0.7315570467	-1.003026118	
722.5	-1.378889156	-2.591356563	
723.125	-2.265748834	0.1582196338	
723.75	-0.3751474364	1.107873597	
724.375	-0.07110519937	0.8006276742	
725.0	0.6480718314	1.237228801	
725.625	0.6454646731	0.586081977	
726.25	-0.3521562219	1.467937799	
726.875	0.2470189855	3.183991602	
727.5	1.20279611	1.430873388	
728.125	-3.296511121	5.600627474	
728.75	0.6329292496	11.1442572	
729.375	3.017126451	1.93225461	
730.0	-10.45502328	11.74749971	
730.625	12.18185668	10.51996192	
731.25	-3.903328766	0.9386968879	
731.875	-11.16265727	10.37931793	
732.5	-4.628090674	9.272226903	
733.125	-4.222273278	-2.053378363	
733.75	-1.361917713	5.898722427	
734.375	1.764507363	0.007006755536	
735.0	0.459461808	-0.7717485852	
735.625	-2.174825584	0.5653523798	
736.25	0.8483391602	0.5149121977	
736.875	0.2444997166	1.74807427	
737.5	3.514126585	0.5947315378	
738.125	3.476260643	-3.644378393	
738.75	1.837893693	1.052557827	
739.375	10.5826411	-6.98210016	
740.0	-1.999973509	-7.789985335	
740.625	11.89332918	17.46826128	
741.25	20.41141833	7.783584807	
741.875	18.3386443	-31.03164052	
742.5	-7.402393806	-10.15438386	
743.125	-5.61853576	-3.977459761	
743.75	0.9222597774	-0.01680962113	
744.375	-2.248941753	-0.7053664001	
745.0	0.5255507175	-0.2108830405	
745.625	0.3449613	0.1121266991	
746.25	-0.2283628969	-0.2462084736	
746.875	-0.4348076174	-0.2349464486	
747.5	-0.3177552915	1.035179658	
748.125	0.4803792931	0.9862578488	
748.75	0.2675316197	0.8392301813	
749.375	1.286553389	2.00070163	
750.0	-0.3371523737	0.7047019874	
