!Created with skrf (http://scikit-rf.org).
# GHz S MA R 50.0 
!freq magS11 angS11
500.0 0.0153833146545 164.778197803
500.625 0.00847932952685 96.923838925
501.25 0.0130767550348 -140.80342319
501.875 0.0303416731798 -172.055562443
502.5 0.0384134480011 177.517338355
503.125 0.0230415621802 124.654748626
503.75 0.0076992104039 70.2393147552
504.375 0.0209944593723 -58.5481410801
505.0 0.00445294901786 93.5719399552
505.625 0.0186683332903 -65.908165909
506.25 0.0373164044803 -112.274889591
506.875 0.0810303885177 -88.8726752033
507.5 0.0446457402656 -121.903277742
508.125 0.0505317973648 -88.5946733203
508.75 0.0590876663697 -126.751306939
509.375 0.0612833848395 -126.189062351
510.0 0.0348485773168 -120.295189527
510.625 0.0284282285279 -160.804585555
511.25 0.0566161397449 -171.651966115
511.875 0.0622949024003 152.252313456
512.5 0.035209007451 84.0184603361
513.125 0.0448011515161 32.7367984833
513.75 0.0541670832606 38.9382708679
514.375 0.0389589755474 4.78350952986
515.0 0.047553642992 2.42559220082
515.625 0.0799940726282 44.0118090746
516.25 0.0951440248823 33.6202116121
516.875 0.112073176047 69.2855368512
517.5 0.120416425136 20.4107568032
518.125 0.208764825518 72.8959751042
518.75 0.0974962065155 18.1347037763
519.375 0.0533740221536 9.4386822694
520.0 0.0814913692427 -4.84670895118
520.625 0.101988828336 -7.70994427183
521.25 0.0952137929497 -18.4635617561
521.875 0.0671530271462 1.5125668325
522.5 0.0982070280399 -32.0207458054
523.125 0.186303128481 -33.4923324245
523.75 0.208116158273 -57.5501159222
524.375 0.21742903782 -46.6939799822
525.0 0.0671851561655 -47.2156225284
525.625 0.0340342406966 -37.2381162047
526.25 0.0561513819601 -3.98157325611
526.875 0.0437878458214 -28.9899826789
527.5 0.0406440765799 -29.4606045678
528.125 0.0349122058334 -61.7412667796
528.75 0.0738375430651 -69.3916270933
529.375 0.0668970150463 -122.091504908
530.0 0.0432924710423 -127.855133849
530.625 0.0393674152125 -135.726186954
531.25 0.139819775483 -138.039991411
531.875 0.150302743365 -146.555998799
532.5 0.125991108098 -169.723695401
533.125 0.0909111360503 174.516033511
533.75 0.136372617673 167.804058919
534.375 0.0880015734173 175.883660492
535.0 0.0845871046432 163.395745545
535.625 0.0598168590425 174.837294823
536.25 0.0722903313363 164.637246658
536.875 0.080123858058 -157.175612963
537.5 0.0983652183817 -141.778849961
538.125 0.103601658431 -171.422158502
538.75 0.114927046321 -178.047503541
539.375 0.0648789544048 -162.245367886
540.0 0.0844484932391 -150.563092702
540.625 0.133364049287 -153.761597634
541.25 0.139689893492 -140.677639977
541.875 0.0974356725922 -141.771711529
542.5 0.113252122046 -141.780394099
543.125 0.138636583902 -165.645465008
543.75 0.138956018331 160.831410628
544.375 0.0816010035899 133.072099861
545.0 0.0847601257986 92.6401086471
545.625 0.0916486113305 82.1354966531
546.25 0.0951567180973 69.3385670511
546.875 0.0869175681098 54.8542389193
547.5 0.10238737313 60.53291633
548.125 0.115873549965 80.0406634642
548.75 0.0975317718208 91.7969526457
549.375 0.0751647664245 87.1556638166
550.0 0.0822732558674 127.601169876
550.625 0.0394813174131 155.524454898
551.25 0.0439884521058 -143.024692174
551.875 0.0556930719013 -145.352796316
552.5 0.0986527469686 -157.42969163
553.125 0.0896265093133 -165.707517701
553.75 0.0964107964475 -172.346754711
554.375 0.0957181771099 174.123740131
555.0 0.119801539995 166.174221118
555.625 0.0953223479014 157.945321104
556.25 0.0990127975883 164.144484452
556.875 0.12442053402 165.662598428
557.5 0.110187983432 167.980702194
558.125 0.0938545390646 166.202078825
558.75 0.0856953279872 178.777965922
559.375 0.0480321945664 -169.087882226
560.0 0.0396310184177 -139.505842731
560.625 0.0545384776415 -135.970321241
561.25 0.0935132747833 -153.09856657
561.875 0.0942216297014 -156.842492003
562.5 0.0935536807428 173.802526472
563.125 0.100250312077 148.852272663
563.75 0.140355802644 129.272422902
564.375 0.0895397134748 125.475955022
565.0 0.0778858713946 123.668667677
565.625 0.0753421058658 119.263340292
566.25 0.103526394476 150.83569556
566.875 0.0731875392329 -178.218393185
567.5 0.0719758751205 -176.161831161
568.125 0.0827217352713 -169.565526502
568.75 0.069244637871 -144.988214327
569.375 0.0534161760901 -115.484302875
570.0 0.0591770215207 -104.168030667
570.625 0.0944197898434 -117.728406495
571.25 0.0922460011188 -120.101834683
571.875 0.0909582854454 -130.310757897
572.5 0.112800651312 -154.69530913
573.125 0.14275927897 -173.581491556
573.75 0.103720275438 163.465960559
574.375 0.0855804485406 148.892354837
575.0 0.105562031659 154.540523086
575.625 0.111626396153 155.149747148
576.25 0.0923888234922 143.477238247
576.875 0.0712237358546 137.962151967
577.5 0.0804241010437 140.05969604
578.125 0.0538281347468 162.327887568
578.75 0.0497762180595 163.341663428
579.375 0.0535386162114 163.459459933
580.0 0.0670604543972 -173.789801156
580.625 0.0797650634594 -148.704021926
581.25 0.0910603287885 -162.815206398
581.875 0.117538464087 178.710402636
582.5 0.113405835421 -170.543759136
583.125 0.0897258527474 -162.167583431
583.75 0.0793261216077 -160.841593245
584.375 0.106776217672 -164.581686859
585.0 0.0861413679014 -133.881572495
585.625 0.0679430220957 -138.735408711
586.25 0.0707863941104 -137.820035638
586.875 0.0847332104425 -141.47446984
587.5 0.0717156997867 -139.452861901
588.125 0.0580201840875 -162.784014494
588.75 0.0661699975996 -158.555286076
589.375 0.0823252454776 -161.134024684
590.0 0.0965578162316 -156.07704383
590.625 0.106452696393 168.935480942
591.25 0.11913961164 160.481385914
591.875 0.100453523361 154.628887251
592.5 0.0608555669132 156.433054667
593.125 0.0639697718924 158.1836159
593.75 0.0752309534766 -175.553506552
594.375 0.0593025347783 -164.127781494
595.0 0.0492262771814 -98.0305671672
595.625 0.0620237481981 -96.1601087807
596.25 0.0716023892814 -77.8250209379
596.875 0.0665911191611 -74.864863998
597.5 0.063566428888 -53.765066741
598.125 0.0760092745705 -49.5818750984
598.75 0.082689841025 -61.0658959862
599.375 0.0821072210475 -70.9741998648
600.0 0.108446843667 -59.9028941406
600.625 0.101822296426 -59.1411383442
601.25 0.0829393092019 -67.628082706
601.875 0.0680876697009 -99.3349022898
602.5 0.0670585388475 -61.7543589436
603.125 0.0439851425782 -47.760260619
603.75 0.0272771085912 -44.9457494248
604.375 0.042128432049 -22.3485804614
605.0 0.0521784828464 -30.3571813206
605.625 0.0547769191432 5.8142187671
606.25 0.0326300631406 26.4418993427
606.875 0.0354911813289 48.8733097433
607.5 0.0411908956545 38.6229254261
608.125 0.0707239926301 31.9663365706
608.75 0.0569405240447 21.5533708229
609.375 0.0664879851314 31.0408827731
610.0 0.0645873194634 36.0636787096
610.625 0.0699317228245 41.9661277782
611.25 0.0573097414983 41.6349772849
611.875 0.0367435396781 52.1543918863
612.5 0.0102161274044 26.4306794394
613.125 0.0517576698829 131.156956423
613.75 0.0547731378209 126.350522452
614.375 0.0398422115679 132.381317882
615.0 0.0241542244379 112.57204554
615.625 0.0456353875582 133.330061459
616.25 0.0470442705355 138.913023576
616.875 0.0384367979136 128.82621024
617.5 0.0165406307149 107.614554451
618.125 0.0543702705531 139.656934537
618.75 0.0314140432616 148.532278525
619.375 0.0154105684672 159.930637064
620.0 0.0189912633606 -30.2067478503
620.625 0.0279558509739 -167.609239806
621.25 0.0435490421414 -127.960920376
621.875 0.0693096488752 -115.231894124
622.5 0.0702362582527 -149.32845452
623.125 0.0796621912733 172.123328302
623.75 0.0599577136587 166.721694647
624.375 0.0416080850155 -161.826894819
625.0 0.041075943899 -148.763157283
625.625 0.0242260723202 -142.757197547
626.25 0.028511163146 -178.771605434
626.875 0.00615431379858 141.604505373
627.5 0.0252784715231 -23.1359456206
628.125 0.0543368250997 -2.52522369772
628.75 0.0329533359447 -48.6668784863
629.375 0.0368347558467 -25.0539667317
630.0 0.0657933006319 -13.5448903362
630.625 0.0796121542103 21.4621649905
631.25 0.0681620242569 2.72175983407
631.875 0.0667750643658 -9.89896513762
632.5 0.0587457290179 -4.8960159959
633.125 0.0518645181808 30.6484001319
633.75 0.0489490990186 -25.328141635
634.375 0.0420469371614 5.36457673922
635.0 0.0415144887018 27.7380928552
635.625 0.0344286283977 41.8095635328
636.25 0.06293222303 48.4723485506
636.875 0.0609105249606 31.3153760473
637.5 0.0352438779549 21.4163887081
638.125 0.0383101397672 61.4851983888
638.75 0.0966287553694 80.1695794107
639.375 0.0792091564424 76.4175793227
640.0 0.0634759311135 97.290453781
640.625 0.0511272748225 93.9326745259
641.25 0.0786191023099 132.455923917
641.875 0.0518643147296 127.222980838
642.5 0.050901362667 162.110700358
643.125 0.0560283372433 161.472794864
643.75 0.0872333993403 179.346458014
644.375 0.05996507156 -178.811476082
645.0 0.0668531354353 177.868639681
645.625 0.0826785314565 162.436895531
646.25 0.10875576121 171.319464289
646.875 0.0584560497064 167.580152284
647.5 0.0617556927929 -174.705198995
648.125 0.0808792641325 178.400081854
648.75 0.0796498849025 -157.872746273
649.375 0.0461771328562 -150.314629063
650.0 0.0483445529192 -116.855974336
650.625 0.0714240715277 -85.5538675626
651.25 0.068798721259 -62.1721500743
651.875 0.0742167336265 -41.3713452052
652.5 0.0818622485106 -24.0346249832
653.125 0.111659855931 -0.1266358919
653.75 0.114764324938 8.53845798238
654.375 0.0905571809112 1.90542819234
655.0 0.104053997787 12.6999270562
655.625 0.0943247766945 25.3543371574
656.25 0.0597114896791 23.6202390854
656.875 0.073560194181 9.72471723529
657.5 0.0743967392484 24.6688261324
658.125 0.0529867949551 52.3468460984
658.75 0.0561267048988 66.2309968743
659.375 0.096203709481 37.1527259253
660.0 0.0905372436464 28.0472987566
660.625 0.10359949206 20.5786298608
661.25 0.0990285111617 4.76458439761
661.875 0.132564544053 -11.7053267846
662.5 0.100066554106 -22.5967323268
663.125 0.104244061747 -13.0133204659
663.75 0.0963817840541 6.41942411509
664.375 0.112961491469 56.8132416485
665.0 0.0738135745497 94.1438511762
665.625 0.0583148045308 112.873311479
666.25 0.0958052582694 130.028189728
666.875 0.0861117965186 175.479039454
667.5 0.0999304689482 -167.12923614
668.125 0.103702620015 178.975125629
668.75 0.136882229476 168.567592317
669.375 0.137936922413 179.153999646
670.0 0.0865536096112 -169.131962909
670.625 0.0948777617273 -171.902519687
671.25 0.11363435306 176.016364846
671.875 0.114084758783 169.477431601
672.5 0.0619140710634 160.563209126
673.125 0.0865029521188 155.532301004
673.75 0.120044246268 157.409480387
674.375 0.102177687866 172.456094244
675.0 0.112855858562 -171.566095712
675.625 0.136952005235 -150.878093521
676.25 0.133565342093 -126.201784941
676.875 0.108589867967 -120.482502416
677.5 0.122233617271 -126.60739944
678.125 0.131302128802 -114.214487673
678.75 0.0702868289127 -90.9091405433
679.375 0.0604467824722 -77.5455589884
680.0 0.0750572732777 -77.6962862202
680.625 0.108113656888 -69.1363553301
681.25 0.0983998500426 -69.898601572
681.875 0.106421405454 -95.6698378864
682.5 0.131267646336 -117.408176855
683.125 0.165217569653 -119.830443813
683.75 0.141965485044 -104.383801039
684.375 0.11934578748 -77.6973989907
685.0 0.145256338453 -42.2424903327
685.625 0.128496126002 -0.31776706544
686.25 0.0972449585144 26.4404111741
686.875 0.0875091601094 48.6697791463
687.5 0.0866721402177 79.5054106737
688.125 0.0770629424431 111.331502281
688.75 0.0995897284356 121.332702587
689.375 0.1417142854 123.189516639
690.0 0.142171522883 131.134173503
690.625 0.10911577337 134.618127095
691.25 0.137901072724 102.34925003
691.875 0.187385070164 69.3657541659
692.5 0.149790333495 39.9590678112
693.125 0.0929738975787 -15.2107452866
693.75 0.0931800652351 -35.4724371843
694.375 0.136200430462 -25.2384549608
695.0 0.124653770202 14.5009427938
695.625 0.107396568209 49.9798995583
696.25 0.107739905281 125.38425965
696.875 0.136574867364 173.846240905
697.5 0.146602727663 -146.178247928
698.125 0.140336812307 -130.419289094
698.75 0.119020085685 -124.782423143
699.375 0.1009679286 -117.122683227
700.0 0.0935927568465 -110.594674151
700.625 0.121226369255 -96.2767282876
701.25 0.0863444355415 -50.6439743921
701.875 0.0810188838571 -51.069157567
702.5 0.0990255175471 -76.6872897807
703.125 0.172834575884 -126.568011132
703.75 0.186592073665 -154.035777178
704.375 0.128729549658 171.721931258
705.0 0.112013916774 160.618922321
705.625 0.143304544711 -168.134094622
706.25 0.155066030619 -117.792509092
706.875 0.0851464383946 -55.8027112091
707.5 0.0707922497149 -26.2545974924
708.125 0.089084298126 28.2780683166
708.75 0.113326512694 56.0582159881
709.375 0.105546446128 117.955719942
710.0 0.104382289474 134.501510396
710.625 0.108037671262 151.871310032
711.25 0.118559235558 165.373020265
711.875 0.14594648464 169.650371839
712.5 0.148473292985 152.922767929
713.125 0.123581796583 103.227946647
713.75 0.106847292252 39.0625238261
714.375 0.1017723413 29.9606777241
715.0 0.114054978349 32.6174459843
715.625 0.0875153581617 48.2189931883
716.25 0.0818484265372 76.9277682388
716.875 0.110043732186 94.9759080928
717.5 0.151643454485 161.36543473
718.125 0.118302928957 172.179902465
718.75 0.100856930122 177.824876097
719.375 0.115084236127 -176.028310067
720.0 0.12798324208 -135.802458165
720.625 0.112695420454 -74.5474934689
721.25 0.097566459733 -17.0454359391
721.875 0.0847304120803 16.9735875164
722.5 0.0783983034058 89.947273879
723.125 0.097108048823 85.1242839669
723.75 0.115205676516 51.9773740534
724.375 0.102979862144 -8.9667381597
725.0 0.104129539164 -29.9424819049
725.625 0.10091306783 -63.7734328071
726.25 0.120741564175 -63.7322256985
726.875 0.103108643762 -48.0180447114
727.5 0.0763853684543 -46.9430658034
728.125 0.0981557338783 12.5778583685
728.75 0.104922686035 33.4661237224
729.375 0.098187462353 29.7871604211
730.0 0.0594593866992 -7.53864948836
730.625 0.0561696984288 12.7990642343
731.25 0.072929381707 63.8120872
731.875 0.0591324353575 106.275161159
732.5 0.076193123668 152.206030087
733.125 0.0635630267097 159.945767421
733.75 0.0747672558412 174.200735924
734.375 0.0585734885202 -173.45936154
735.0 0.0288132961974 121.802295213
735.625 0.0934656723608 160.724838855
736.25 0.0406849031027 149.465337514
736.875 0.0490468338489 174.002799718
737.5 0.0635171218204 -174.171869024
738.125 0.074928914896 -178.130570818
738.75 0.0748825291815 -175.695093978
739.375 0.0304266742068 178.445869155
740.0 0.0457729190334 -141.849468544
740.625 0.0208721429767 -122.203885524
741.25 0.0762703164849 -152.209357117
741.875 0.0523144945134 -107.241044013
742.5 0.031946734417 3.44432901291
743.125 0.0229142378279 126.05541103
743.75 0.0654294017994 82.6302230361
744.375 0.0585746783441 94.29332949
745.0 0.0563512361439 130.052502475
745.625 0.0651542553844 145.334376495
746.25 0.103165369551 68.7610163057
746.875 0.0710150674661 36.3580226583
747.5 0.0488887895803 17.3488918063
748.125 0.0177080791272 -2.295307931
748.75 0.0231388043591 55.9034225217
749.375 0.0466090783323 -61.9099633262
750.0 0.0401770343832 -118.041812251
