!Created with skrf (http://scikit-rf.org).
# GHz S RI R (50+0j) 
!freq	ReS11	ImS11	
500.0	2.229370334	-4.556476471	
500.625	0.6725528857	-4.094927679	
501.25	-0.5840168256	-1.091750773	
501.875	-1.146032204	-1.87754253	
502.5	-0.4759284338	-0.1753072846	
503.125	-0.1448775772	-0.07799380538	
503.75	0.1150495741	0.4751670392	
504.375	-0.07302516355	-0.04115476633	
505.0	0.2486044738	-0.1082588905	
505.625	-0.22551063	-0.02312808776	
506.25	0.2455150112	-0.4938355312	
506.875	-0.3063317726	1.042053639	
507.5	1.064693444	-1.060714494	
508.125	0.006844818479	-3.479538027	
508.75	-0.9683670441	-2.279816373	
509.375	1.930844597	-3.433784761	
510.0	-3.165652585	-0.4348700632	
510.625	0.01761017194	-0.1808132297	
511.25	-0.6154197597	-0.4589445944	
511.875	-0.4835435038	0.001360473466	
512.5	-0.08658456721	0.1591136545	
513.125	0.04059808761	-0.3509961696	
513.75	-0.4113295069	-0.1636175617	
514.375	0.1213006916	-0.1293474246	
515.0	-1.046513922	-0.465546887	
515.625	2.009774688	-0.1399233318	
516.25	-3.062332115	-4.538048931	
516.875	-0.7604188878	0.6744955401	
517.5	0.5190372846	-0.8989199971	
518.125	-0.348130691	0.3481819452	
518.75	0.2293920264	-0.8655804908	
519.375	-0.1472929856	0.2960362895	
520.0	0.1870821146	0.04135759534	
520.625	0.6989779091	-0.03586019802	
521.25	-0.3660354753	-0.8150295464	
521.875	-0.1451064153	-0.08491914399	
522.5	-0.2699104025	0.1313565097	
523.125	-0.06353969485	-0.1882934218	
523.75	-0.4452600326	0.1617061681	
524.375	-0.1539930512	-0.1183320488	
525.0	-0.2801567212	0.6460566881	
525.625	0.1731715522	-0.1474408766	
526.25	0.03771734559	0.1838953423	
526.875	-0.1593906806	-0.09506536407	
527.5	-0.2522588011	0.965978193	
528.125	0.4389022241	0.382073835	
528.75	-0.4007568138	0.7748940843	
529.375	0.3703761291	0.1152781655	
530.0	-0.3793785029	0.7555751714	
530.625	0.6673246902	0.6326616678	
531.25	0.8790205558	0.8188227815	
531.875	0.7000797568	-1.074689635	
532.5	0.205451461	0.02981880967	
533.125	-0.3212212513	-0.71733838	
533.75	0.9251261864	-0.03560064534	
534.375	-0.9084817245	-1.08688314	
535.0	-0.2321488877	-0.07868932854	
535.625	-0.7706044588	0.1689070775	
536.25	0.170481345	0.2443218096	
536.875	0.1116841541	0.1756513119	
537.5	0.2713072385	-0.1924737657	
538.125	0.07654048269	-0.1422679678	
538.75	0.5621227957	-0.1951324206	
539.375	-0.3761935226	-0.3891362099	
540.0	-0.2129922354	-0.3055672916	
540.625	-0.4754014776	-0.1667764092	
541.25	-0.2188569111	0.0987132784	
541.875	-0.04584030444	-0.05229806614	
542.5	-0.1743060272	-0.212461008	
543.125	-0.2031694964	0.03226378172	
543.75	-0.1439498572	-0.2096271046	
544.375	-0.1398290759	0.3116223147	
545.0	-0.09265568036	-0.08922292799	
545.625	0.3110651123	0.3845365771	
546.25	0.05199882819	-0.1582884207	
546.875	0.4345713533	0.2449391375	
547.5	-0.02305865813	-0.5237249008	
548.125	0.07689604449	-0.1957629235	
548.75	-0.3154778133	-0.5006763244	
549.375	-0.4093125191	-0.02740919834	
550.0	-0.03664672312	-0.1127458543	
550.625	-0.2671113113	0.1170460128	
551.25	-0.06252489874	-0.02403029742	
551.875	-0.3174680554	0.1949924363	
552.5	-0.01161079268	0.2126281349	
553.125	-0.1072125152	0.1408228498	
553.75	0.1463741362	0.1265170246	
554.375	0.2095735685	0.01285249543	
555.0	0.2712530673	-0.1550748522	
555.625	0.2171799462	-0.2785485926	
556.25	0.1650526127	-0.339077356	
556.875	-0.05461971393	-0.4068692802	
557.5	-0.2403645504	-0.2803919097	
558.125	-0.2891147994	-0.08773178675	
558.75	-0.2461545714	-0.03351763746	
559.375	-0.3081704881	0.04835976487	
560.0	-0.1849792532	0.187935544	
560.625	-0.1837960514	0.2236463299	
561.25	0.05830900898	0.3185963327	
561.875	0.03890477909	0.00351702549	
562.5	0.02984347398	0.2576707524	
563.125	0.1423667918	0.03392204754	
563.75	0.3353450698	0.1746185487	
564.375	0.3589617142	-0.3754485492	
565.0	0.07436565178	-0.2159477936	
565.625	0.05860692639	-0.4708120091	
566.25	-0.3951724396	-0.1938361272	
566.875	-0.1780455633	-0.1688093062	
567.5	-0.400509931	-0.4254614786	
568.125	-0.4738255025	-0.2322559579	
568.75	-0.3205313755	-0.345849624	
569.375	-0.8469879305	0.2987907529	
570.0	-0.0153875814	0.4971586746	
570.625	-0.3996889058	0.150321241	
571.25	0.1801474233	0.6731965416	
571.875	-0.2074842947	-0.02852247972	
572.5	0.6609359692	0.1202176594	
573.125	-0.1553483397	-0.3649842727	
573.75	0.3432037646	0.04118572432	
574.375	0.0142419464	-0.5441527401	
575.0	-0.04602269334	0.2062787755	
575.625	0.3205628248	-0.4025244814	
576.25	-0.2308262924	-0.2784471776	
576.875	0.3216044308	-0.1841842715	
577.5	-0.0536902168	-0.6790687213	
578.125	-0.2754056883	-0.200878125	
578.75	0.04398011084	-0.2678544899	
579.375	-0.3259294286	-0.3843486681	
580.0	-0.1410685825	0.2096206106	
580.625	-0.1432183287	-0.3662529023	
581.25	-0.2709374014	0.468037152	
581.875	0.05258120518	0.01524457315	
582.5	-0.2325894273	0.5795054694	
583.125	0.663199149	0.1438012436	
583.75	-0.3648428326	0.009799013974	
584.375	0.5687682529	0.257805237	
585.0	-0.2030830366	-0.03503825202	
585.625	0.6610765174	0.3186655797	
586.25	0.2847563948	-0.4724736764	
586.875	0.1417566535	-0.001779892658	
587.5	0.1124858906	-0.6141771005	
588.125	-0.33577041	-0.1962993859	
588.75	0.38932097	-0.1853962482	
589.375	0.1669603312	-0.6535958262	
590.0	-0.1055496881	-0.1380885173	
590.625	-0.4180317393	-0.3657408246	
591.25	-0.3659414279	0.4458006507	
591.875	0.0236773694	0.1632151515	
592.5	-0.1736079438	0.1261867424	
593.125	0.1441815611	0.1321148287	
593.75	-0.2047194573	0.3165660529	
594.375	0.7291193513	0.3555145501	
595.0	0.2203999001	-0.1014372652	
595.625	0.2437662317	0.5850405641	
596.25	0.8151867143	-0.2040737303	
596.875	-0.1083719259	0.2425025981	
597.5	0.6942561809	0.4773097148	
598.125	0.3529923718	-0.07685454119	
598.75	0.2096759922	0.5207187911	
599.375	0.7021427165	-0.2198782346	
600.0	0.1923441869	-0.252079628	
600.625	0.5083251113	-0.2783757324	
601.25	0.137791282	-0.6474988514	
601.875	-0.08294188027	-0.1622512867	
602.5	-0.3749554195	-0.181156423	
603.125	-0.2213866005	0.1469216263	
603.75	-0.263352734	0.1924542171	
604.375	-0.2337211033	0.08244523667	
605.0	-0.2987975285	0.3009482612	
605.625	0.06874287109	0.006282699293	
606.25	-0.6346831843	0.1489636017	
606.875	-0.09417495429	0.405741722	
607.5	-0.6232665894	-0.05206425028	
608.125	0.08430871786	1.101714839	
608.75	0.07127541291	0.08144494273	
609.375	0.8334056984	0.2913126985	
610.0	0.1983247213	-0.6338810869	
610.625	0.4427137648	0.02651100205	
611.25	-0.13548521	-0.6633980826	
611.875	0.003417925485	-0.09190647877	
612.5	-0.6073939386	-0.4007803005	
613.125	-0.1730681915	0.2344406976	
613.75	-0.4962495389	0.2328176256	
614.375	0.4044427043	0.2917445856	
615.0	-0.2961335503	0.1447009831	
615.625	0.3532526697	0.2643408655	
616.25	-0.3296519177	0.0573038282	
616.875	-0.3174464397	0.7798204552	
617.5	0.1753264529	0.3024431034	
618.125	-0.4399794881	0.5146884346	
618.75	0.3005728649	0.5747350802	
619.375	0.003450772667	0.2705125904	
620.0	0.6322390256	0.211716009	
620.625	0.1596164749	-0.2730201261	
621.25	-0.1125283121	-0.5866100756	
621.875	-0.4320319277	-0.09036529552	
622.5	-0.567586476	-0.09542753459	
623.125	0.05700944376	0.6296733578	
623.75	-0.05955099478	0.1067317319	
624.375	0.3977623076	-0.3805236465	
625.0	-0.0931150997	0.2467548767	
625.625	0.4013926987	-0.5414953158	
626.25	-0.3093686507	0.1143282644	
626.875	-0.1009981284	-0.5893958643	
627.5	-0.6423638466	0.03041335729	
628.125	0.006170586347	-0.03085581609	
628.75	-0.1112544546	-0.6048393392	
629.375	-0.4035630121	-0.1455776438	
630.0	-0.2272392299	-0.3655848301	
630.625	-0.7173642183	0.08808624664	
631.25	-0.1800860317	0.517815251	
631.875	-0.2325676475	0.4230593255	
632.5	0.4048355111	0.6251148488	
633.125	0.4846280093	0.09179723189	
633.75	0.3255556499	-0.08748661305	
634.375	0.3600861734	-0.3215752047	
635.0	-0.3018378267	-0.2995714897	
635.625	-0.02922389981	-0.3815568209	
636.25	-0.6829878501	0.2722510111	
636.875	0.195670984	0.2805500791	
637.5	-0.6031970113	-0.04276862065	
638.125	0.2966808432	0.5007458009	
638.75	-0.4665893604	-0.05760644221	
639.375	-0.06313235548	1.076719365	
640.0	0.5462400747	0.2098095081	
640.625	0.1046434406	0.5990718694	
641.25	1.043977773	0.02439093448	
641.875	0.06435951392	-0.5103006861	
642.5	0.3663311845	-0.2837515173	
643.125	-0.6583930173	-0.6083251945	
643.75	0.0820783687	0.1591333191	
644.375	-0.6555894328	-0.321730819	
645.0	-0.2580050728	0.5978690314	
645.625	0.106758637	0.2033916185	
646.25	0.2283350741	0.6020971891	
646.875	0.441975501	-0.3931875261	
647.5	-0.2250555436	0.2975867755	
648.125	0.8464972532	0.1294568656	
648.75	0.01144963988	-0.4143376329	
649.375	1.183812205	0.02401190797	
650.0	0.2536005317	-1.485254318	
650.625	-0.15926766	-0.09607094393	
651.25	1.276295295	-0.3319117299	
651.875	0.380888557	-1.201334329	
652.5	0.1835199328	0.3339193243	
653.125	1.252899083	-0.175793504	
653.75	0.07539166162	-0.81055227	
654.375	0.2986065161	-0.2795023051	
655.0	-1.092611005	-0.7293331935	
655.625	-0.1070550264	0.6802853204	
656.25	-0.2285554341	0.04220531792	
656.875	0.2655444183	0.5871589924	
657.5	-0.04218269008	-0.2064752239	
658.125	0.2615976098	0.8568644351	
658.75	0.872958351	-0.007093437646	
659.375	0.4900744835	-0.3092269417	
660.0	0.8856836912	-0.2741908994	
660.625	0.2549708703	-1.403013946	
661.25	0.02994217072	-0.1773901981	
661.875	1.090382788	-0.4758253284	
662.5	0.5646805187	-0.9802607912	
663.125	0.1743813588	0.04353280006	
663.75	1.001431393	-1.003574822	
664.375	-0.5241268838	-0.5324379536	
665.0	-0.1061147358	-0.6632881428	
665.625	-1.174046744	0.1884033283	
666.25	0.1358833639	0.5956540768	
666.875	-0.1308111201	0.541653158	
667.5	0.7111508381	0.3543043605	
668.125	0.238401408	-0.2265690819	
668.75	0.7093104691	0.03079625165	
669.375	0.09154246455	-0.8507303759	
670.0	0.03173146481	-0.2580659008	
670.625	0.2332546862	-0.5074144679	
671.25	0.01788838195	-0.634010239	
671.875	0.1225485699	-0.09522889984	
672.5	0.8567512643	-0.3010537638	
673.125	0.3529191076	-0.7063158837	
673.75	0.2005527875	-0.1492830841	
674.375	0.6781713908	-0.8051009843	
675.0	-0.8356704222	-0.4681891806	
675.625	0.2906418273	-0.4146807467	
676.25	-0.9756069186	-0.2267571945	
676.875	0.01937073726	0.4546279817	
677.5	-0.6006292807	-0.5648617073	
678.125	-0.1645520277	0.8565102211	
678.75	-0.0986472481	0.1465351164	
679.375	0.4260481947	0.6179307821	
680.0	0.5581878506	-0.6303797849	
680.625	-0.1697389906	0.2165153482	
681.25	0.6137249488	-0.1044807888	
681.875	0.2302974505	-0.1258659715	
682.5	0.2199866484	0.3936523323	
683.125	0.8821272255	0.3403956043	
683.75	0.5568547976	-0.1081093846	
684.375	0.376280825	0.2394867519	
685.0	1.054918798	0.4967724411	
685.625	0.565536312	-0.749830779	
686.25	0.4797554559	0.9360623378	
686.875	1.261014378	-1.212556364	
687.5	-0.04587946566	0.02664179513	
688.125	0.8651589881	-1.473659083	
688.75	-1.785252884	0.0194051122	
689.375	-0.4346775445	-0.2677970643	
690.0	0.2607265628	1.659981039	
690.625	0.549057972	0.06348704096	
691.25	0.3949459833	1.157131704	
691.875	1.4718407	0.5578772493	
692.5	1.072952132	0.5203631812	
693.125	1.705915211	0.1264032015	
693.75	1.387497083	-0.6599795694	
694.375	1.105173607	-0.8287691948	
695.0	0.9912824536	-0.7688664752	
695.625	1.220880982	0.2171463547	
696.25	1.611952188	0.1231085609	
696.875	0.3340352287	0.691696229	
697.5	1.253047582	2.07869466	
698.125	1.239124134	-0.2239931822	
698.75	1.618809123	-0.02360760001	
699.375	-1.536680313	-1.421498746	
700.0	0.04770806579	0.3625416059	
700.625	0.08633845939	1.610589044	
701.25	0.5918352616	-0.1342929591	
701.875	0.1897954973	1.067189306	
702.5	1.377529138	0.2573094851	
703.125	0.4638168069	0.5347833642	
703.75	1.402552825	-0.2771039254	
704.375	0.1323624276	-0.5785613843	
705.0	1.099015766	0.1502689799	
705.625	0.5929547121	-0.634256758	
706.25	0.03403571429	0.7039690646	
706.875	1.206714617	1.139906862	
707.5	0.3290835158	0.1475326589	
708.125	1.269315981	1.044216036	
708.75	0.6880210791	-1.305000034	
709.375	-0.1751575637	-0.5084926541	
710.0	-0.9940251536	0.5005611403	
710.625	0.3676227157	0.2161735793	
711.25	0.09154416332	0.4722406763	
711.875	0.4855919247	0.1867924482	
712.5	0.8770482265	0.08219700888	
713.125	0.5409419934	-0.4484681692	
713.75	0.5116683617	-0.3916403289	
714.375	-0.0693212413	-0.8556851532	
715.0	-0.0855221816	0.01044679686	
715.625	0.4836340848	-1.11151744	
716.25	-0.461620667	-0.58782585	
716.875	1.172361636	0.4646757763	
717.5	2.512896377	-0.6159738235	
718.125	-0.2316045995	-0.6215515808	
718.75	3.656418914	1.357304151	
719.375	1.353609888	-2.745618894	
720.0	1.059110219	-0.4425838658	
720.625	2.108687262	-4.101126839	
721.25	-1.425130858	-1.765077591	
721.875	0.6993780939	-2.524663335	
722.5	-1.624153671	-2.427945004	
723.125	-1.990298358	0.1011919835	
723.75	-1.004931001	0.387917445	
724.375	-0.02657097601	1.647271045	
725.0	0.5640217197	0.5687926718	
725.625	0.1041235647	0.9221961376	
726.25	-0.2094321112	2.307064364	
726.875	1.220928089	2.186427336	
727.5	-2.360818967	2.058156757	
728.125	-0.2951063445	9.669049183	
728.75	3.835287091	5.266557918	
729.375	-10.91046959	2.813415879	
730.0	4.357986603	19.64392337	
730.625	1.119952161	0.44001186	
731.25	-15.75920772	12.28663009	
731.875	-4.966106916	17.30684802	
732.5	-2.43871398	-3.404714211	
733.125	-10.64455131	-0.3000097167	
733.75	-1.843677553	4.071420347	
734.375	1.083522195	0.4444804523	
735.0	1.4796928	-2.10923304	
735.625	-0.9018114476	1.311576654	
736.25	-0.982982484	0.6682810292	
736.875	1.231061191	2.14753526	
737.5	3.425967374	-0.5229915837	
738.125	1.271405596	0.3821133979	
738.75	9.151340047	-2.648419097	
739.375	5.122832431	-10.95296408	
740.0	-2.076326369	3.812189172	
740.625	27.68134056	4.762841897	
741.25	13.92207347	-14.32840937	
741.875	-33.51102428	-32.26616584	
742.5	-20.56571851	-2.365232696	
743.125	0.8638900861	2.863608526	
743.75	4.096749285	-5.557019406	
744.375	-1.991317437	0.7582077678	
745.0	-0.03887016748	-0.1223159314	
745.625	0.3944303303	-0.01230306993	
746.25	-0.1563992521	-0.1048617412	
746.875	-0.7441604914	-0.3449954451	
747.5	-0.1305226751	1.326083229	
748.125	0.4300012368	1.001112695	
748.75	0.04236255762	1.615323633	
749.375	0.4764661299	1.115456465	
750.0	-0.3655153647	0.1566735321	
