!Created with skrf (http://scikit-rf.org).
# GHz S RI R (50+0j) 
!freq	ReS11	ImS11	
500.0	-0.2708258756	-0.9657361232	
500.625	0.6646699768	-0.5919461754	
501.25	-0.6815268531	-1.118003827	
501.875	-0.1991635756	-0.1443952525	
502.5	0.0153742944	-0.1729052556	
503.125	-0.08715326889	0.06336541449	
503.75	-0.035685437	0.02000257405	
504.375	0.05888265033	-0.001532379839	
505.0	-0.02134170918	-0.003565534936	
505.625	0.04182720884	-0.1085651959	
506.25	-0.1508268577	-0.002023463134	
506.875	-0.04705640166	-0.2460215266	
507.5	-0.4276350552	-0.4748073788	
508.125	0.1841509405	-0.1811317848	
508.75	0.98489476	-1.207914422	
509.375	-0.7243099594	-1.047380775	
510.0	-0.1664551107	-0.07833244252	
510.625	-0.08789616145	-0.1924509021	
511.25	-0.06116773399	-0.003267997098	
511.875	-0.05120034843	-0.07376181553	
512.5	-0.03051769155	0.06671294532	
513.125	-0.02218243529	-0.01459712322	
513.75	-0.007030799805	-0.08868856977	
514.375	-0.1659183568	0.03057384598	
515.0	0.3739590654	-0.02800953959	
515.625	-0.3317348684	-0.5997050561	
516.25	0.5167054237	-0.191397952	
516.875	-0.1111989894	-0.7554295853	
517.5	-0.20701461	-0.1723759703	
518.125	0.06674965857	-0.03687472344	
518.75	-0.1627745445	-0.0984312834	
519.375	-0.03412084464	0.01534415723	
520.0	0.1260790295	0.07464269146	
520.625	0.1979606906	-0.1123462039	
521.25	0.03813559527	-0.2687818134	
521.875	-0.106424677	-0.09077060389	
522.5	-0.1057362508	0.08001366397	
523.125	0.02787075018	-0.0733712538	
523.75	-0.1744359149	-0.09036270876	
524.375	-0.08951675355	0.1603450438	
525.0	-0.1043414224	0.004305017971	
525.625	0.05615968533	0.1550891206	
526.25	-0.06835802157	-0.09590602087	
526.875	-0.02384353649	0.132114344	
527.5	-0.05872315558	0.06617800527	
528.125	-0.06568486059	0.3447501095	
528.75	0.1131588934	0.100424544	
529.375	-0.0418094887	0.02551160148	
530.0	0.0963406188	0.2070333004	
530.625	0.1114539767	0.3729982358	
531.25	0.3887492136	0.2047659785	
531.875	0.2664843602	-0.2931816503	
532.5	-0.1899877501	-0.083221673	
533.125	0.1344135352	-0.1447924074	
533.75	-0.06918995992	-0.142271664	
534.375	0.009935624142	-0.3062801894	
535.0	-0.3475892471	-0.06803403419	
535.625	-0.1020343984	0.0776706636	
536.25	-0.03302635394	0.1076643451	
536.875	0.1213853725	-0.01696715506	
537.5	0.03379211721	-0.005475470568	
538.125	0.1816889644	-0.07965259135	
538.75	0.05531752722	-0.1304197726	
539.375	-0.008391069925	-0.1723616641	
540.0	-0.2030150417	-0.1682262108	
540.625	-0.1588032271	0.006194510486	
541.25	-0.08500525733	-0.04563996994	
541.875	-0.0931404267	0.03373337227	
542.5	-0.003056480935	-0.03889201656	
543.125	-0.09730187313	-0.1094079597	
543.75	-0.05163265762	0.05199136411	
544.375	-0.05918685479	-0.01059746931	
545.0	0.03965009174	0.1107829998	
545.625	0.003781326294	0.03270540374	
546.25	0.1761744779	0.1186766231	
546.875	0.08087000917	-0.09300528763	
547.5	0.09769706382	-0.0582887216	
548.125	-0.05899683122	-0.238246708	
548.75	-0.1320805615	-0.05056334328	
549.375	-0.06417611929	-0.1047555654	
550.0	-0.1276604003	0.03841196472	
550.625	-0.009085003308	-0.01391046589	
551.25	-0.1200615317	0.03907197724	
551.875	-0.03489582634	0.07194249769	
552.5	-0.05660096104	0.05624090208	
553.125	-0.003367450462	0.07892950908	
553.75	0.03875015825	0.04057401741	
554.375	0.104552996	-0.0003029420754	
555.0	0.09129550504	-0.08719205899	
555.625	0.08462621953	-0.1101673455	
556.25	0.06918214881	-0.1511355139	
556.875	-0.04677371096	-0.1653275303	
557.5	-0.1019174651	-0.1031698845	
558.125	-0.1216422858	-0.04455828003	
558.75	-0.1227768134	0.00332597799	
559.375	-0.1035572832	0.02824367289	
560.0	-0.1101388924	0.06739529249	
560.625	-0.04804980367	0.1335112183	
561.25	0.02217236485	0.06627503988	
561.875	0.01543513022	0.08102742443	
562.5	0.0312131275	0.02237718803	
563.125	0.05430271273	0.1099316488	
563.75	0.1744538945	-0.04092333963	
564.375	0.08975006167	-0.07706374016	
565.0	0.129520449	-0.1480995559	
565.625	-0.08481269343	-0.1633945646	
566.25	-0.05755893623	-0.06118629273	
566.875	-0.1666802469	-0.1386265644	
567.5	-0.1650560068	-0.05143160586	
568.125	-0.05364764835	-0.1819074899	
568.75	-0.3408867224	-0.09057749744	
569.375	-0.153332805	0.1308413576	
570.0	-0.1983064371	0.1394537963	
570.625	-0.03824283979	0.275290389	
571.25	-0.001430376041	-0.006786772306	
571.875	0.07355979534	0.1769601987	
572.5	0.09318001531	-0.09156242006	
573.125	0.1260589621	-0.001883285767	
573.75	0.07761334786	-0.2373137144	
574.375	-0.08779619296	-0.01458486312	
575.0	0.1347948191	-0.04107341438	
575.625	-0.0601156191	-0.09790257671	
576.25	0.1047459614	-0.02827007285	
576.875	-9.460115706e-05	-0.2326782291	
577.5	-0.09187616281	-0.132160627	
578.125	0.02873280317	-0.1126316268	
578.75	-0.1009246095	-0.260246546	
579.375	-0.1650694602	0.048797106	
580.0	0.04120405096	-0.08265518382	
580.625	-0.1930035136	0.04812454909	
581.25	0.02256404974	-0.04964174111	
581.875	-0.1099786383	0.2362557731	
582.5	0.2018955109	0.1619873545	
583.125	-0.05625707181	-0.02216714224	
583.75	0.1083559633	0.1382941264	
584.375	-0.008247538874	-0.06491005675	
585.0	0.1148314726	0.1819719701	
585.625	0.2046276411	-0.1269406461	
586.25	0.04549808399	-0.02138880258	
586.875	0.1738917165	-0.1389357684	
587.5	-0.1237415461	-0.1654496349	
588.125	0.04903527742	-0.08078311565	
588.75	0.07586185169	-0.2257918966	
589.375	-0.02774262371	-0.1656456532	
590.0	0.03788910346	-0.1292338337	
590.625	-0.3214177992	-0.06996935517	
591.25	-0.02557555114	0.1503515579	
591.875	-0.1522406536	0.007714758537	
592.5	0.0560452387	0.1788779828	
593.125	-0.1321213906	-0.07499939317	
593.75	0.1651663058	0.2354511301	
594.375	0.07404367773	-0.0184141843	
595.0	0.1010973277	0.2109971476	
595.625	0.2938530906	0.05174666323	
596.25	0.08063065518	-0.0393981634	
596.875	0.2392826345	0.1152780451	
597.5	0.2174673243	0.01383574987	
598.125	0.06898733429	0.1177543148	
598.75	0.2407560316	0.1232385667	
599.375	0.20058323	-0.1282641454	
600.0	0.1328492462	-0.07969584068	
600.625	0.1751396204	-0.2046140764	
601.25	0.002134886857	-0.2391374901	
601.875	-0.04249032864	-0.05911941876	
602.5	-0.2117655457	-0.08966294113	
603.125	-0.03067527695	0.1366707205	
603.75	-0.09721698794	-0.02890786055	
604.375	-0.185813644	0.2142668445	
605.0	0.07699419828	0.04587758098	
605.625	-0.2052192964	0.0237765583	
606.25	0.01435750056	0.1391326198	
606.875	-0.2087219964	-0.04121349769	
607.5	-0.177930158	0.2784361822	
608.125	0.1102343359	0.2318930383	
608.75	0.08512969972	0.1724341268	
609.375	0.2314102519	-0.08380917771	
610.0	0.1129235386	-0.1709838513	
610.625	0.1095814173	-0.07105326412	
611.25	0.02301775889	-0.2048238329	
611.875	-0.1435685939	-0.08053427607	
612.5	-0.08894181999	-0.1493371064	
613.125	-0.2890761763	0.08317186797	
613.75	0.05522423028	0.1225155364	
614.375	-0.06394378693	0.1504908193	
615.0	0.1693394843	-0.02629310241	
615.625	-0.1229013586	0.01609716466	
616.25	-0.05928494349	0.2921698937	
616.875	0.06974429154	0.1303236135	
617.5	-0.09681331546	0.3241124048	
618.125	0.06066569548	0.3105268585	
618.75	0.09436282486	0.09134745245	
619.375	0.01975640028	0.2338461158	
620.0	0.2063401821	0.1124415457	
620.625	0.08038430095	-0.1514807364	
621.25	-0.03792864984	-0.1026212554	
621.875	-0.2834966959	-0.04672886354	
622.5	-0.1052793607	0.2555591165	
623.125	-0.1016658158	0.1555553081	
623.75	0.2135573464	0.006437243602	
624.375	-0.03385336586	-0.01478411514	
625.0	0.1419562769	-0.08644696199	
625.625	-0.04517246636	-0.05670885546	
626.25	0.02618711475	-0.1621851893	
626.875	-0.2257485819	-0.100526957	
627.5	-0.1053628987	0.03285528899	
628.125	-0.0784186008	-0.1428391793	
628.75	-0.1660641005	-0.09545480944	
629.375	-0.09351674707	-0.1278750572	
630.0	-0.2390708527	-0.154738514	
630.625	-0.224324913	0.1418200258	
631.25	-0.1275250397	0.1281837649	
631.875	-0.09460126642	0.2350858504	
632.5	0.2502349081	0.2297969397	
633.125	0.1204028411	-0.01435412729	
633.75	0.2173153188	0.004618350673	
634.375	-0.05704982143	-0.2529072636	
635.0	0.03746224694	-0.09519933615	
635.625	-0.2736319245	-0.1746114416	
636.25	-0.07292852942	0.1628239264	
636.875	-0.1064386459	0.03519534915	
637.5	-0.05032870983	0.2332062485	
638.125	-0.00020264137	-0.005558681464	
638.75	-0.1606779462	0.2279588913	
639.375	0.1357173577	0.2902672455	
640.0	0.07533370406	0.1286978838	
640.625	0.2862882089	0.2512621923	
641.25	0.3598209213	-0.1100866031	
641.875	0.1035647144	-0.1340980628	
642.5	0.09996174333	-0.2515128854	
643.125	-0.3096632839	-0.0972025611	
643.75	0.01128254455	-0.0907297175	
644.375	-0.3039392426	-0.03348337381	
645.0	0.08663487624	0.2960176129	
645.625	-0.07822111049	0.1453804055	
646.25	0.4493750497	0.1739569221	
646.875	-0.04243190395	-0.1913173823	
647.5	0.1369820097	0.2125892175	
648.125	0.173229926	-0.1413415729	
648.75	0.1450260403	0.1365378962	
649.375	0.3962719913	-0.3856108023	
650.0	-0.03255268887	-0.3554692024	
650.625	0.2018755058	-0.1143576896	
651.25	0.3639907604	-0.3863783706	
651.875	0.04349349409	-0.273226913	
652.5	0.2924555835	0.06547985344	
653.125	0.3854416831	-0.2837134729	
653.75	0.0004876210039	-0.2370698525	
654.375	0.06419823476	-0.2880067025	
655.0	-0.4961829648	-0.08483235015	
655.625	-0.03255449665	0.2159459401	
656.25	-0.1507740435	0.0565231074	
656.875	0.214680703	0.2132854046	
657.5	-0.1029811373	-0.03804128354	
658.125	0.3295957383	0.3968100921	
658.75	0.3053853463	-0.1401236507	
659.375	0.2183191202	0.01648049575	
660.0	0.4227190528	-0.4373433208	
660.625	-0.1351608858	-0.3526383123	
661.25	0.219678478	-0.1370207257	
661.875	0.2780466461	-0.4153627347	
662.5	0.1243610053	-0.2930430275	
663.125	0.2590556826	-0.0397262622	
663.75	0.1894278444	-0.4617901709	
664.375	-0.1519263799	-0.2138133569	
665.0	-0.1889813258	-0.2700962744	
665.625	-0.4194872894	0.1764476358	
666.25	0.04102722927	0.2292056202	
666.875	0.01743854064	0.2330668194	
667.5	0.2983731646	0.07734698532	
668.125	0.1167059264	-0.07031265166	
668.75	0.3717430331	-0.02071046132	
669.375	-0.002844574487	-0.3856125257	
670.0	-0.01844324705	-0.09643492832	
670.625	0.1125252251	-0.2798679734	
671.25	-0.1478395142	-0.2467615026	
671.875	0.1375708453	0.003152183019	
672.5	0.326272423	-0.3016412791	
673.125	0.04946493042	-0.2005027802	
673.75	0.2290277911	-0.1503820746	
674.375	0.07398179204	-0.3955082819	
675.0	-0.215465794	-0.1083067106	
675.625	-0.07469255778	-0.1971604689	
676.25	-0.3169496389	0.02719494158	
676.875	-0.04272188649	0.105189761	
677.5	-0.1936924949	-0.1014380598	
678.125	-0.1075610842	0.2989393833	
678.75	0.08217628255	0.08565129639	
679.375	0.1700635319	0.2009043576	
680.0	0.2503011155	-0.2534878744	
680.625	-0.1760651819	0.07829210282	
681.25	0.2880940518	0.03984367246	
681.875	0.003734852723	-0.2588847089	
682.5	-0.01269247886	0.2422497346	
683.125	0.4945860767	0.1849149814	
683.75	0.08117993309	-0.2312535953	
684.375	0.3070662366	0.2948315764	
685.0	0.4167479667	-0.1039439988	
685.625	0.1502928633	-0.1627813181	
686.25	0.4548666182	0.09872417035	
686.875	0.27107066	-0.3816526929	
687.5	0.1307027375	-0.2087456426	
688.125	0.07166472586	-0.505959263	
688.75	-0.546997239	-0.05745978258	
689.375	-0.1099568055	0.2258533264	
690.0	0.05103424012	0.3614011347	
690.625	0.412654592	0.1927166525	
691.25	0.156469292	0.1399229948	
691.875	0.5376031936	0.526215904	
692.5	0.6829082637	-0.2013227585	
693.125	0.4548108737	0.09158742317	
693.75	0.8049590875	-0.2101374192	
694.375	0.1128053087	-0.5708679566	
695.0	0.4080109182	0.02088881377	
695.625	0.5618796742	-0.4939011179	
696.25	0.341286144	-0.02116080649	
696.875	0.2557980158	0.4236651313	
697.5	0.591630746	0.4240102696	
698.125	0.5510114155	0.194636876	
698.75	0.4434399906	-0.4276806355	
699.375	-0.3508320034	-0.3578974598	
700.0	-0.1797532775	0.4754582369	
700.625	0.037316278	0.1513771095	
701.25	0.3633271696	0.2583752844	
701.875	0.2797855138	0.01881929741	
702.5	0.2744858572	0.3432801355	
703.125	0.6361949184	0.07481440286	
703.75	0.211720693	-0.2129947943	
704.375	0.364539056	-0.04993301943	
705.0	0.245589241	-0.2954979829	
705.625	0.09427060864	0.0153475729	
706.25	0.3033147743	0.2703936474	
706.875	0.3856316055	0.1140524194	
707.5	0.2875706324	0.3521106014	
708.125	0.5834216352	0.1209838991	
708.75	0.388479095	-0.4136888308	
709.375	-0.2924957969	-0.2173112139	
710.0	-0.2582338851	0.1978761036	
710.625	0.1699316753	0.1270526153	
711.25	-0.1333102122	-0.05215194806	
711.875	0.3349121287	0.1724103842	
712.5	0.2264428357	-0.2955939163	
713.125	0.279844416	-0.02424429301	
713.75	0.185828797	-0.4266985278	
714.375	-0.1281166818	-0.1904725251	
715.0	0.1058758304	-0.1753321303	
715.625	-0.05929802983	-0.3393281477	
716.25	0.06157081369	-0.1389302116	
716.875	0.471533394	-0.08193471716	
717.5	0.5867527018	-0.3047011176	
718.125	0.3923078794	0.04201474027	
718.75	1.09219901	-0.05655960502	
719.375	0.8123561021	-0.6436170073	
720.0	0.3602841263	-0.5785648274	
720.625	0.2736147361	-1.362539109	
721.25	-0.4339939999	-0.8293686635	
721.875	-0.001252888173	-0.5126994199	
722.5	-0.6405215919	-1.020428411	
723.125	-1.020017124	0.363720172	
723.75	-0.2533295407	0.2380765749	
724.375	-0.07464813814	0.9227359121	
725.0	0.375633955	0.1294762683	
725.625	-0.03875406265	0.4312122911	
726.25	0.1778923827	1.00427886	
726.875	0.2714431285	0.7134639936	
727.5	-0.5418736015	1.177584566	
728.125	0.2566960362	2.476625994	
728.75	1.147006737	2.186503054	
729.375	-1.855333917	2.749878288	
730.0	0.3704802424	5.810233597	
730.625	1.361186414	2.441011041	
731.25	-1.996383599	3.722584895	
731.875	-2.586208083	4.495166641	
732.5	-1.136297492	2.228104907	
733.125	-2.788149142	-0.3388034687	
733.75	-0.4507093448	1.86059971	
734.375	0.7557703354	-0.105731311	
735.0	0.6582944677	-0.5783513275	
735.625	-0.779961297	0.6480152544	
736.25	-0.02990736736	0.1477559905	
736.875	0.354345754	0.946887268	
737.5	1.302324075	-0.5044806534	
738.125	0.5006474063	-0.1965325936	
738.75	3.067250708	-0.4724079217	
739.375	1.70400291	-3.643317278	
740.0	0.1493694428	-0.0927999593	
740.625	4.345797746	2.652527519	
741.25	5.112878079	0.8705734438	
741.875	-2.42737405	-4.04860849	
742.5	-3.297474951	-3.046751552	
743.125	-1.328772674	-0.7712869591	
743.75	0.5344930781	-0.7944560602	
744.375	-0.8957783457	-0.09813086878	
745.0	0.1441264083	-0.06775137073	
745.625	0.1625051522	0.07993860861	
746.25	-0.1644451566	-0.09876168491	
746.875	-0.141592048	-0.06508819611	
747.5	-0.1645466251	0.4283683734	
748.125	0.3103478688	0.427027886	
748.75	0.1190556101	0.3967977827	
749.375	0.08919228261	0.6504712697	
750.0	-0.1957782577	0.2025855129	
