!Created with skrf (http://scikit-rf.org).
# GHz S RI R (50+0j) 
!freq	ReS11	ImS11	
500.0	-0.2417034124	-0.4917230144	
500.625	0.7890859095	-0.9534740571	
501.25	-0.808019251	-0.6232263591	
501.875	-0.09183211416	-0.2345299458	
502.5	-0.0519784786	-0.1931732908	
503.125	-0.04679937243	0.04743770455	
503.75	-0.03989369652	0.06365682583	
504.375	0.04590594893	-0.05029685487	
505.0	0.005828597827	0.02386535755	
505.625	0.01270696029	-0.1048323914	
506.25	-0.06063514598	0.05773004406	
506.875	-0.3434439796	-0.1911011086	
507.5	-0.406889666	-0.09981969146	
508.125	0.5577203048	-0.5002822368	
508.75	0.8235335612	-1.462871866	
509.375	-0.5578724884	-0.795616016	
510.0	-0.2319776098	-0.3610182746	
510.625	-0.2574339774	-0.26069398	
511.25	-0.06403060909	-0.009193279673	
511.875	-0.1075423758	-0.153933213	
512.5	0.00380283692	0.06851860716	
513.125	-0.000699952327	-0.01500105659	
513.75	-0.05697847098	-0.1187884619	
514.375	-0.08443752364	0.08223784078	
515.0	0.2200219653	-0.2084751712	
515.625	-0.5736026057	-0.04232387619	
516.25	0.3953706656	-0.7584829446	
516.875	-0.4028607901	-0.7865680841	
517.5	-0.1476924014	-0.002520091867	
518.125	-0.03686434071	-0.1102191922	
518.75	-0.07142438672	0.0005836608998	
519.375	-0.05186944366	0.01124037515	
520.0	0.1324027783	0.1013012381	
520.625	0.1335243308	-0.103117438	
521.25	-0.01061108866	-0.238955019	
521.875	-0.1569496009	-0.1084133515	
522.5	-0.03313592296	0.1037038336	
523.125	-0.01525557967	-0.03734544742	
523.75	-0.2034233599	0.04111143441	
524.375	0.001430977697	0.08399505974	
525.0	-0.1823031314	0.1042961115	
525.625	0.1370462198	0.08738017178	
526.25	-0.1106249423	0.01586053001	
526.875	0.02792944413	0.07880678929	
527.5	-0.09027216318	0.06539339724	
528.125	0.03230819834	0.4103611183	
528.75	0.07945747245	0.09859186376	
529.375	-0.01966808272	0.1005293882	
530.0	0.04584188441	0.1048131686	
530.625	0.008725113387	0.1887859806	
531.25	0.2655368596	0.09176426155	
531.875	0.178562759	-0.2690395922	
532.5	-0.01014861284	-0.008989275252	
533.125	-0.002607251729	-0.1848014067	
533.75	-0.03123219199	-0.05033619013	
534.375	-0.05378831218	-0.3776215443	
535.0	-0.2542623704	-0.001882020118	
535.625	-0.1306913492	0.04952710971	
536.25	-0.02464564724	0.1280882126	
536.875	0.0921067725	-0.03478653716	
537.5	0.07647766359	0.006271375493	
538.125	0.1371252172	-0.1284243433	
538.75	0.08771020557	-0.08849307849	
539.375	-0.04368387024	-0.2223103759	
540.0	-0.2560632403	-0.1129696302	
540.625	-0.08054397144	-0.02334213198	
541.25	-0.06521834361	-0.02852813439	
541.875	-0.0464088844	0.01602479966	
542.5	0.01533682584	-0.03504694428	
543.125	-0.1345250353	-0.0143102708	
543.75	0.007530239083	0.121118486	
544.375	-0.09875135345	0.01557327315	
545.0	0.04462701046	0.04405068311	
545.625	-0.02458277415	0.07482963893	
546.25	0.1811365429	0.02363676404	
546.875	0.0523287796	-0.0301576081	
547.5	0.1228646619	-0.126577079	
548.125	-0.1057700582	-0.1791841825	
548.75	-0.07183892909	-0.04417436546	
549.375	-0.1125275108	-0.1295527065	
550.0	-0.08410385674	0.06089244843	
550.625	-0.03996434269	-0.04005428625	
551.25	-0.09216268891	0.07192867649	
551.875	-0.04833207899	0.04647766255	
552.5	-0.06905222027	0.09386367043	
553.125	0.00669740283	0.0593633191	
553.75	0.03321699381	0.04687527179	
554.375	0.1045370104	-0.0109944212	
555.0	0.09193879687	-0.07435168708	
555.625	0.08758489505	-0.1099405778	
556.25	0.06227213083	-0.1548817775	
556.875	-0.04771029615	-0.1626215035	
557.5	-0.1003377297	-0.1012171377	
558.125	-0.1239378146	-0.04032997239	
558.75	-0.1153810151	0.006224170486	
559.375	-0.1058838536	0.01787025167	
560.0	-0.1129999634	0.08247442001	
560.625	-0.03071621254	0.1268785862	
561.25	-0.01137079234	0.07538244718	
561.875	0.05019831348	0.07498174044	
562.5	-0.003722279819	0.01740368661	
563.125	0.09194927869	0.1143149214	
563.75	0.1363447854	-0.05078800727	
564.375	0.1219063247	-0.05849258916	
565.0	0.09137541491	-0.1992716762	
565.625	-0.08355818975	-0.1299832709	
566.25	-0.05273203369	-0.1257760821	
566.875	-0.20931216	-0.0842679012	
567.5	-0.1067095778	-0.03343846088	
568.125	-0.1039546851	-0.2648698381	
568.75	-0.2860867454	-0.02434951168	
569.375	-0.1242025414	0.004161709836	
570.0	-0.2395131666	0.2423242965	
570.625	0.06952463808	0.2078092671	
571.25	-0.07472654031	0.03746431466	
571.875	0.1618263592	0.1251759388	
572.5	0.02384964918	-0.03543611273	
573.125	0.2161615379	-0.07973940273	
573.75	-0.01032733576	-0.2055838337	
574.375	0.002537683013	0.04924333113	
575.0	0.08393728643	-0.1418968432	
575.625	-0.02750462251	0.0136255282	
576.25	0.143705887	-0.1131923758	
576.875	-0.07185692512	-0.2061959841	
577.5	-0.03200036962	-0.07937186464	
578.125	0.05864865816	-0.186019623	
578.75	-0.2055851781	-0.1888479328	
579.375	-0.04146569336	0.04829233535	
580.0	-0.02364925018	-0.1713820078	
580.625	-0.08144056152	0.1357243805	
581.25	-0.1044158031	-0.06384017293	
581.875	0.08062992273	0.3649188679	
582.5	0.1576605389	0.01935415141	
583.125	-0.04972027267	0.08129841839	
583.75	0.1690593929	0.04709537538	
584.375	-0.1094362311	0.03625438918	
585.0	0.2085349859	0.1260340512	
585.625	0.1281623954	-0.1122715291	
586.25	0.1054998592	0.02564293279	
586.875	0.09614896485	-0.2655729726	
587.5	-0.08745854391	-0.0622763347	
588.125	0.07318439606	-0.1387013131	
588.75	-0.005737159571	-0.2340008045	
589.375	-0.004652754759	-0.08728175394	
590.0	0.02792061266	-0.2492079649	
590.625	-0.2570590071	0.03931410124	
591.25	-0.03837347388	0.05493012731	
591.875	-0.1706163752	0.1377287353	
592.5	0.1262580177	0.08899940966	
593.125	-0.156169519	0.02659817568	
593.75	0.1717914672	0.1018923778	
594.375	-0.008083376237	0.09291819093	
595.0	0.2307726368	0.2149204045	
595.625	0.2542677272	-0.01505839022	
596.25	0.06675029558	0.1015785494	
596.875	0.2606420378	0.04616470712	
597.5	0.146634963	-0.0116973946	
598.125	0.07161177503	0.1507346097	
598.75	0.2794765845	0.09158628675	
599.375	0.154796845	-0.03120592082	
600.0	0.2051599854	-0.1004635659	
600.625	0.1561728323	-0.2494647376	
601.25	-0.02431157585	-0.1780505367	
601.875	0.02334838036	-0.1302884629	
602.5	-0.2292303551	0.01534141798	
603.125	-0.01247132169	0.05094670861	
603.75	-0.2440564518	0.008958087905	
604.375	-0.07648707714	0.2144460061	
605.0	-0.1067368091	-0.07895000432	
605.625	-0.1665277276	0.1666408539	
606.25	0.01143647019	0.05040682033	
606.875	-0.239291676	-0.0225430517	
607.5	-0.03810202017	0.2293506806	
608.125	-0.008875240694	0.1612107459	
608.75	0.2416333225	0.2047992274	
609.375	0.2820662149	-0.1028687291	
610.0	0.1499212152	-0.1385756293	
610.625	0.1565197735	-0.1559349641	
611.25	-0.04266613488	-0.206280699	
611.875	-0.0127064551	-0.06222240733	
612.5	-0.141883949	-0.1685824461	
613.125	-0.1955540664	0.1591376804	
613.75	-0.0738919467	0.03465279524	
614.375	0.0267647289	0.2457639586	
615.0	0.08686566327	-0.08532102517	
615.625	-0.1296006784	0.142648061	
616.25	0.1083315448	0.2207751496	
616.875	-0.156627385	0.1160595025	
617.5	-0.06664936666	0.3113656497	
618.125	0.122885128	0.2365311102	
618.75	-0.03088451348	0.1140092325	
619.375	0.1126120472	0.1130112833	
620.0	0.2363963779	0.09031028726	
620.625	0.1001165448	-0.145530256	
621.25	-0.1248234156	-0.2600738721	
621.875	-0.2946249126	-0.02039228478	
622.5	-0.07947172878	0.05549355381	
623.125	-0.09693644034	0.2652398978	
623.75	0.1774656017	-0.03737774295	
624.375	-0.002523591909	0.06680911842	
625.0	0.03323191601	-0.1341969835	
625.625	0.04016863366	-0.005948418449	
626.25	-0.02829965102	-0.2236619386	
626.875	-0.2107742007	-0.01962615779	
627.5	-0.04645652265	-0.04583370031	
628.125	-0.1619860518	-0.1102403581	
628.75	-0.09692329038	-0.04653991719	
629.375	-0.02739749192	-0.1793468778	
630.0	-0.2534136089	-0.09732952806	
630.625	-0.2561883401	0.1640024046	
631.25	-0.1451607376	0.1806695568	
631.875	-0.03113508856	0.3103594718	
632.5	0.1799778331	0.1348088847	
633.125	0.058234002	0.06413520672	
633.75	0.2595235604	-0.1088394659	
634.375	-0.009757293867	-0.09879317198	
635.0	0.1265959834	-0.1802509547	
635.625	-0.2600592172	-0.04986806234	
636.25	-0.04729543427	0.04970970668	
636.875	-0.1826372295	0.12855997	
637.5	0.06487365513	0.1450387779	
638.125	-0.1112114142	0.003980011639	
638.75	-0.09770417725	0.2929028406	
639.375	0.1167907506	0.166707281	
640.0	0.03812297116	0.2758668909	
640.625	0.3681869847	0.1677462077	
641.25	0.2284515855	-0.1209989243	
641.875	0.1867227454	-0.1137436412	
642.5	-0.01701735396	-0.3385898425	
643.125	-0.1084276913	-0.01338164195	
643.75	0.02242676345	-0.2093805702	
644.375	-0.3234569376	0.101551219	
645.0	-0.01548686581	0.06434051307	
645.625	-0.07187685264	0.3455583332	
646.25	0.4009375348	-0.08681594463	
646.875	-0.06657513571	-0.003233009258	
647.5	0.2403665397	0.07730944945	
648.125	-0.03429558737	-0.06669100048	
648.75	0.4118001227	0.09409520004	
649.375	0.1839979214	-0.4604011563	
650.0	0.02555891667	-0.1746917151	
650.625	0.3303344741	-0.2281989629	
651.25	0.1402009314	-0.4604676774	
651.875	0.07027899265	-0.0356903249	
652.5	0.4500119626	-0.04473258093	
653.125	0.2097364183	-0.3087497265	
653.75	0.1048587163	-0.1059493628	
654.375	-0.02280915469	-0.4519166056	
655.0	-0.3581081296	0.06173733612	
655.625	0.00532510084	0.07449370895	
656.25	-0.1058709894	0.2680159278	
656.875	0.2892860352	-0.05955520484	
657.5	-0.1708371758	0.200061178	
658.125	0.3077323555	0.1594685033	
658.75	0.179941028	-0.05663333476	
659.375	0.5046105909	0.06794093438	
660.0	0.196810523	-0.5569789718	
660.625	-0.008372485978	-0.2024877872	
661.25	0.3114083157	-0.3019662258	
661.875	0.1699502523	-0.4156792656	
662.5	0.09181063274	-0.1546658061	
663.125	0.4289359871	-0.1684677634	
663.75	0.03999433212	-0.4089477099	
664.375	0.01806416861	-0.2000084634	
665.0	-0.3185300278	-0.316844869	
665.625	-0.3122948116	0.2478001759	
666.25	-0.0650638485	0.1553120513	
666.875	0.1023730579	0.3174274003	
667.5	0.2645357751	-0.01421492618	
668.125	0.06313770683	0.09012589283	
668.75	0.3508695079	-0.2469128953	
669.375	-0.104802317	-0.2196115089	
670.0	0.1275853106	-0.1389027996	
670.625	-0.04450605033	-0.4085808243	
671.25	-0.09595094814	-0.07661056122	
671.875	0.3836742537	-0.2311299418	
672.5	0.1252282737	-0.3172613107	
673.125	0.1228969908	-0.09111740884	
673.75	0.2714985485	-0.2185611145	
674.375	-0.07791641304	-0.3843996276	
675.0	-0.04786321074	-0.09551421976	
675.625	-0.2396998135	-0.2488014592	
676.25	-0.246249784	0.1073682151	
676.875	-0.01570868894	-0.02887001326	
677.5	-0.3085974452	0.03744448684	
678.125	-0.00808230846	0.1930648869	
678.75	-0.04954720407	0.1473172424	
679.375	0.3457598102	0.2198174655	
680.0	0.04308887862	-0.2987773999	
680.625	0.07593696729	0.09828418504	
681.25	0.2571450411	-0.1945612476	
681.875	-0.1403802562	-0.0159779258	
682.5	0.2619980631	0.3493117181	
683.125	0.4453478163	-0.2215259788	
683.75	-0.01926004354	0.2173461247	
684.375	0.4176951733	0.1916990929	
685.0	0.2639052092	-0.197593537	
685.625	0.08928015993	0.1270171358	
686.25	0.5608537881	-0.02057135122	
686.875	0.1243794481	-0.2881387834	
687.5	0.305541107	-0.2456378816	
688.125	-0.05334231155	-0.6250337709	
688.75	-0.475986649	0.08264125202	
689.375	-0.3099080238	0.1424792918	
690.0	0.1304731229	0.4858308489	
690.625	0.31335007	0.06978160526	
691.25	0.1570597382	0.379611944	
691.875	0.8168775654	0.2975526796	
692.5	0.3788690065	-0.009682941271	
693.125	0.7792093489	0.2232121574	
693.75	0.7674900072	-0.5101243556	
694.375	0.1368033289	-0.2602235313	
695.0	0.6837783705	-0.1200316835	
695.625	0.3662826143	-0.3441163652	
696.25	0.3224400374	0.1216183113	
696.875	0.4529300791	0.5633870227	
697.5	0.3988898352	0.2755248092	
698.125	0.4408157041	0.1811234251	
698.75	0.4991501405	-0.4836465465	
699.375	-0.5931128207	-0.3210747004	
700.0	-0.07253304181	0.2813964147	
700.625	-0.02099988386	0.211602229	
701.25	0.3600753887	0.07194173374	
701.875	0.1270197021	0.2157640773	
702.5	0.4154988761	0.3886304616	
703.125	0.510171231	-0.1081065547	
703.75	0.2897634016	0.05416487458	
704.375	0.4559040563	-0.225498266	
705.0	0.1235026926	-0.250138176	
705.625	0.1382572262	0.1545039883	
706.25	0.2816350585	0.03263729675	
706.875	0.1522242995	0.1537817393	
707.5	0.1970842151	0.4314550495	
708.125	0.5290035804	0.02479654531	
708.75	0.2909277022	-0.5046214216	
709.375	-0.2892670953	-0.2723226095	
710.0	-0.164377081	0.3339985388	
710.625	0.3379627889	0.118249289	
711.25	-0.1026759814	0.2042529787	
711.875	0.3800431066	0.04627919159	
712.5	0.1862861531	0.02820082479	
713.125	0.3713998212	-0.1646063845	
713.75	0.04051732172	-0.3803287689	
714.375	0.01583190432	-0.1034326378	
715.0	0.04218145496	-0.3414422491	
715.625	-0.1031250372	-0.2015768714	
716.25	0.210804474	-0.09341902723	
716.875	0.4777867706	-0.2171652635	
717.5	0.3131244565	-0.2081760452	
718.125	0.6201452834	0.3107729175	
718.75	0.933124979	-0.2770106184	
719.375	0.5477366513	-0.6687056945	
720.0	0.1898499473	-0.4035120157	
720.625	0.2156916606	-1.214047018	
721.25	-0.6389598326	-0.6733033609	
721.875	0.3810563851	-1.052360122	
722.5	-1.012439312	-0.9417735991	
723.125	-0.5832073392	0.1315879617	
723.75	-0.6678414525	0.2266542798	
724.375	0.3369592633	0.6683402249	
725.0	0.1061659814	0.1678320921	
725.625	0.006773475618	0.7020724094	
726.25	0.3912484426	0.7329673069	
726.875	-0.1689178477	0.5457588964	
727.5	-0.4851014722	1.652533995	
728.125	0.6908880279	2.128132939	
728.75	-0.2459049176	1.471468886	
729.375	-1.654969387	4.378001722	
730.0	2.072522567	4.283313568	
730.625	0.07861670836	1.978148299	
731.25	-1.493854815	5.016585714	
731.875	-0.5872716739	5.114754423	
732.5	-2.711764864	0.2622506814	
733.125	-3.745490536	0.6225527819	
733.75	0.01955690648	1.969750661	
734.375	0.1527326419	0.2616926005	
735.0	0.08261941222	-1.325306908	
735.625	-0.1441150976	0.4644054813	
736.25	-0.4390241728	0.3676842069	
736.875	0.9239747129	0.8084222122	
737.5	0.6888032555	-0.4705778141	
738.125	1.486021197	0.7999660824	
738.75	2.595570172	-2.297632169	
739.375	0.2474738768	-1.979695535	
740.0	3.05694833	1.137841227	
740.625	7.425120022	-1.132279471	
741.25	0.9308183497	-2.59974431	
741.875	-5.580824466	-2.136278747	
742.5	-4.895263192	-1.679905126	
743.125	0.4198232754	-0.1660837204	
743.75	0.1181244465	-1.588058639	
744.375	-0.5481218007	0.2714143553	
745.0	0.001625597424	-0.02040796995	
745.625	0.2478853036	-0.1092031232	
746.25	-0.02659992772	-0.0196837974	
746.875	-0.2985237839	-0.05488010072	
747.5	0.0124481034	0.4531626259	
748.125	0.1373382445	0.3521531794	
748.75	0.1133961925	0.6585643871	
749.375	0.3227535342	0.6144761939	
750.0	-0.2090213295	0.09240738785	
