!Created with skrf (http://scikit-rf.org).
# GHz S MA R 50.0 
!freq magS11 angS11
500.0 0.0111739478835 124.877576835
500.625 0.012116846391 154.724619633
501.25 0.0126078621511 -165.914257715
501.875 0.037481357567 -179.268454812
502.5 0.00917591502061 95.8593984773
503.125 0.0156648209375 101.026328223
503.75 0.007077723238 10.4991127328
504.375 0.00532782858199 -53.5556335886
505.0 0.023396548599 -67.6353285445
505.625 0.0260900452728 -72.1660237358
506.25 0.0249434838678 -125.796317321
506.875 0.0552892191116 -104.442311987
507.5 0.0440051335373 -137.670973825
508.125 0.0440747680593 -101.377095334
508.75 0.0639167623072 -137.074881715
509.375 0.0636816853317 -130.554324936
510.0 0.030634955597 -166.279738819
510.625 0.036954405198 -159.146728712
511.25 0.0661616463989 -170.605120751
511.875 0.0525335297109 145.002764169
512.5 0.0451886373177 110.00388397
513.125 0.0496765004578 42.7929812823
513.75 0.0584244579294 29.1624446603
514.375 0.057051755364 28.712198979
515.0 0.0338666829395 -17.0350464978
515.625 0.0624049303468 39.8288116113
516.25 0.0767041743685 22.623269294
516.875 0.129201054711 68.6888019992
517.5 0.108911878761 15.3130437472
518.125 0.172608146828 63.1849181354
518.75 0.0826568054824 9.62539637566
519.375 0.0804872696953 23.3246623013
520.0 0.0907234238118 -3.91735986781
520.625 0.0898177069907 -11.6136625597
521.25 0.0812456039097 -25.5547758638
521.875 0.0793677217295 0.739363975749
522.5 0.0787338972946 -43.3726466409
523.125 0.165554422026 -41.8191553447
523.75 0.210125912293 -62.7032879693
524.375 0.229327681248 -47.3910334083
525.0 0.0684467845223 -61.8036601767
525.625 0.0400836969987 -28.2493278996
526.25 0.0437414295412 -9.74997668882
526.875 0.0608136650453 -19.8339096811
527.5 0.0457450391153 -35.8102295827
528.125 0.0378030794048 -56.5664194585
528.75 0.059413420578 -73.8201203972
529.375 0.103641299537 -108.119263634
530.0 0.0442970344489 -133.594255552
530.625 0.0348246726463 -152.430049994
531.25 0.132150882173 -140.414086278
531.875 0.184258945274 -148.950527502
532.5 0.139384747307 -172.08677473
533.125 0.0979134363589 175.867505052
533.75 0.113392494021 168.202107044
534.375 0.125531885484 179.395151434
535.0 0.0761569225766 157.153016481
535.625 0.0563587098957 173.941866368
536.25 0.0588797430819 162.771838998
536.875 0.0720653067465 -163.227835443
537.5 0.0938514836197 -144.43980947
538.125 0.101655247164 -177.646080278
538.75 0.102805669031 179.204156264
539.375 0.0830245229414 -163.900659684
540.0 0.0888337987992 -155.04542518
540.625 0.135496312262 -158.96651556
541.25 0.137544076656 -142.88629151
541.875 0.087465045549 -142.718645113
542.5 0.106061597455 -141.172415476
543.125 0.144985703334 -168.048868564
543.75 0.133773172788 159.507817997
544.375 0.10399166289 136.033972951
545.0 0.0747031233488 89.7004035522
545.625 0.0876285394702 82.7524548641
546.25 0.0827075999524 64.7876362824
546.875 0.0998107730514 52.0274286522
547.5 0.10574330859 57.1011540882
548.125 0.123583527977 76.7170978386
548.75 0.0955382767829 89.2516136895
549.375 0.108329340112 84.8620357647
550.0 0.0753276612252 122.62147755
550.625 0.0409902695008 155.999512695
551.25 0.0319441475275 -134.876014845
551.875 0.0699151352746 -168.731968537
552.5 0.103741739048 -163.830312665
553.125 0.0936611213414 -170.183724313
553.75 0.0909467984641 -170.187273136
554.375 0.114856797289 162.708803983
555.0 0.118440989689 162.966962179
555.625 0.089410434685 159.583687427
556.25 0.0920233262371 161.410249972
556.875 0.12802768625 161.507309674
557.5 0.112221280065 165.336424737
558.125 0.0966694878356 163.676524637
558.75 0.0746213962756 177.0058451
559.375 0.0738815682742 -176.075187586
560.0 0.0422766235151 -150.220544342
560.625 0.0536721802808 -132.321822192
561.25 0.0862545208233 -149.105125712
561.875 0.109404980801 -166.917632628
562.5 0.0826279949165 177.639022598
563.125 0.101561932842 146.680767973
563.75 0.129797592854 130.679653593
564.375 0.111821383169 118.257850115
565.0 0.0840089926901 118.588890098
565.625 0.0745794300584 120.933587301
566.25 0.0927468965211 153.187148291
566.875 0.0812112012471 173.988899195
567.5 0.0675657506244 -174.981447228
568.125 0.0777597224722 -169.374548623
568.75 0.0746889949034 -152.738549765
569.375 0.0507817306363 -115.604585969
570.0 0.0611297656834 -110.16022743
570.625 0.0863593661877 -113.496322226
571.25 0.0849732559856 -116.941511686
571.875 0.0897965879487 -132.170796841
572.5 0.1087459885 -152.785321076
573.125 0.136678318335 -173.471847679
573.75 0.108934086085 158.717180973
574.375 0.0886115332501 142.095747877
575.0 0.0935875368314 162.797621155
575.625 0.10317678663 158.871021523
576.25 0.0880173156885 145.55131562
576.875 0.0851656181591 124.535699355
577.5 0.0722863176773 143.529237041
578.125 0.0552418191651 165.911283536
578.75 0.0437432798123 165.789785592
579.375 0.0583296348006 149.981242201
580.0 0.0626565115881 -173.402020746
580.625 0.0771018023744 -148.674415548
581.25 0.0866622781543 -162.907664862
581.875 0.115782653536 -179.647659283
582.5 0.116440234309 -177.677679099
583.125 0.0924188410687 -168.420757806
583.75 0.0828059393439 -168.31780997
584.375 0.102661292244 -158.989808468
585.0 0.0994848925855 -149.677449383
585.625 0.0720682182857 -147.358161412
586.25 0.073115648156 -147.822687604
586.875 0.0828213913236 -140.860848853
587.5 0.0757360916133 -143.146937325
588.125 0.058817548081 -172.804055273
588.75 0.0683570868201 -168.297176861
589.375 0.0825196097931 -153.543615591
590.0 0.0906463158631 -173.462847621
590.625 0.105551871533 167.244171106
591.25 0.12085721106 156.273921551
591.875 0.0911146636808 159.726729489
592.5 0.0681524532334 136.887014046
593.125 0.0589947807227 158.740462521
593.75 0.0777141420835 172.031897679
594.375 0.0587293161622 -151.09365528
595.0 0.0417134409082 -131.193282278
595.625 0.0627164764012 -91.003014688
596.25 0.0779403129011 -78.7973609529
596.875 0.0699165008852 -63.5584925593
597.5 0.0542711611786 -75.3981083873
598.125 0.0673841335234 -57.0263037741
598.75 0.0762607067614 -59.3558368182
599.375 0.0892146650119 -67.6283064566
600.0 0.100294907122 -68.4882320517
600.625 0.0999750325465 -65.8481591681
601.25 0.086109574896 -76.7500461336
601.875 0.0698246372616 -87.2387045318
602.5 0.0620328044144 -99.4446584718
603.125 0.0454582068419 -41.2990489481
603.75 0.0357095819121 -23.4662502892
604.375 0.0388349166659 -17.1898385125
605.0 0.0489727179647 -36.4668168869
605.625 0.0489588585116 -12.2873380127
606.25 0.026192975681 12.2974107007
606.875 0.0252423158427 43.8245187812
607.5 0.062930333672 41.7557385339
608.125 0.0809768675084 29.3004134459
608.75 0.0767280404741 26.9988661793
609.375 0.0708666805919 33.577635617
610.0 0.054852726358 30.5110480783
610.625 0.0649650371267 38.1546511886
611.25 0.0535957689185 33.4788654149
611.875 0.0304815099636 40.0964753518
612.5 0.0239430627423 85.0126159891
613.125 0.0129759004056 124.418179919
613.75 0.0542191687645 127.283749271
614.375 0.0668732514647 126.299622764
615.0 0.0427243695962 117.671336163
615.625 0.0120452437397 144.192339405
616.25 0.0785586697919 135.062345167
616.875 0.0635073863552 130.178248328
617.5 0.0397263499284 118.525830115
618.125 0.0122268819616 117.505868657
618.75 0.0624202202089 147.791055169
619.375 0.0415600415785 151.072953831
620.0 0.00712941862962 129.675924124
620.625 0.0290961662677 -68.0132440846
621.25 0.0409431441949 -107.645102407
621.875 0.0644695408565 -125.963814018
622.5 0.0726467442632 -169.370149584
623.125 0.0638659922453 -171.246925285
623.75 0.0905999627626 159.866416226
624.375 0.0625742329521 175.138790073
625.0 0.0506443476239 -149.186574239
625.625 0.0217165191734 -121.344717737
626.25 0.0244263234283 -176.01129582
626.875 0.0018385017545 58.1724940773
627.5 0.0347730087389 -25.9746339313
628.125 0.0352481766557 -25.2561422841
628.75 0.0419556434752 -4.62102045061
629.375 0.0429085295403 -10.9421153678
630.0 0.0583463247687 -11.3809632203
630.625 0.0724208550854 9.09244184055
631.25 0.0730501675277 -19.5807843146
631.875 0.0667035140033 -7.01852128306
632.5 0.0633479660173 -0.545969877572
633.125 0.0450363258239 2.78277317119
633.75 0.0452245558681 22.408916632
634.375 0.0469755266756 -3.67493584378
635.0 0.0330866673416 -12.1102681587
635.625 0.0316118005157 21.2261601402
636.25 0.0716653559436 46.9935289251
636.875 0.0662515795964 33.0453922968
637.5 0.0416885835266 35.5427188363
638.125 0.043820563364 70.4232100362
638.75 0.0727778689596 76.4286321468
639.375 0.103212884197 97.0320067143
640.0 0.0684789387224 99.7092534922
640.625 0.0511496571864 101.191607631
641.25 0.058824936766 116.099636595
641.875 0.0768824000062 155.92737457
642.5 0.0532946530629 154.979283657
643.125 0.0626085997316 153.60123617
643.75 0.065429282037 173.530085316
644.375 0.0815032959061 -173.077259284
645.0 0.0767755922342 177.947913615
645.625 0.0844881233165 168.044513223
646.25 0.0877307266147 164.192300616
646.875 0.0843966312504 -178.714557816
647.5 0.0530680836426 172.003142562
648.125 0.0702425514978 178.389382759
648.75 0.0673589009699 -173.209275512
649.375 0.0622993782155 -146.332898988
650.0 0.0263268206927 -143.679361004
650.625 0.0595913563186 -90.7146544471
651.25 0.0616742161534 -72.032165425
651.875 0.076931350593 -46.1199344981
652.5 0.0885484049473 -26.520024268
653.125 0.119062865044 -2.82006705599
653.75 0.100367944424 2.74540632023
654.375 0.118499204966 7.06564902846
655.0 0.107473544158 9.56630901757
655.625 0.0794777409311 17.5325286808
656.25 0.0576333978817 11.8162651412
656.875 0.0834585508734 5.37320463867
657.5 0.0757056288731 17.9056092915
658.125 0.0659627058819 44.3268483791
658.75 0.0632859280954 60.5641702483
659.375 0.0824916990083 40.5024279629
660.0 0.127283716308 23.6699068661
660.625 0.106690269429 16.5531973428
661.25 0.105238468798 4.84198820554
661.875 0.116348290272 -14.0404497144
662.5 0.136496673481 -21.6891343555
663.125 0.102000330694 -17.2685356823
663.75 0.108578288909 3.47772166882
664.375 0.0995878994028 54.0316456649
665.0 0.055882571479 78.876616279
665.625 0.0546844946962 111.316610963
666.25 0.0813944381162 132.70713571
666.875 0.127239846974 166.446788577
667.5 0.0793938179454 -167.718066319
668.125 0.0919351072024 -178.806095362
668.75 0.118237863152 166.540814334
669.375 0.14553436699 174.157447791
670.0 0.0683139064763 -172.801738359
670.625 0.0827929290196 -171.803041651
671.25 0.114391299636 172.956418675
671.875 0.11188536849 166.4775129
672.5 0.0856797745191 152.09763968
673.125 0.0795340688593 155.758849197
673.75 0.105977165161 158.790472853
674.375 0.123479546024 164.749239244
675.0 0.100028818224 -173.6712936
675.625 0.117921981473 -149.912760794
676.25 0.123811220879 -126.345197539
676.875 0.125086623521 -124.553663325
677.5 0.103530440744 -127.172275955
678.125 0.121329905745 -116.755450085
678.75 0.0776839417918 -95.9070790212
679.375 0.0570273666992 -80.8247189368
680.0 0.0707471804228 -81.1438337249
680.625 0.115402237543 -76.6357164504
681.25 0.100052226984 -71.3597010616
681.875 0.100870558809 -93.5727759417
682.5 0.143918540622 -126.199889225
683.125 0.140790714848 -120.623981627
683.75 0.135577249587 -105.127328853
684.375 0.123852080276 -82.2834891467
685.0 0.133429736349 -40.3513953992
685.625 0.12017630757 -1.96545777549
686.25 0.107790149991 19.6201077971
686.875 0.0982606609386 42.5324104586
687.5 0.0836706109267 79.5237165221
688.125 0.0808513359923 109.585803755
688.75 0.101794046928 113.350387469
689.375 0.146426290904 115.509538592
690.0 0.134548650097 132.364985666
690.625 0.125484773423 121.594348807
691.25 0.137108322599 98.9590210861
691.875 0.173896538312 72.324160169
692.5 0.13562870709 39.2519466502
693.125 0.100465055638 -21.6646908706
693.75 0.0887306022836 -40.5747632343
694.375 0.132123266897 -30.7308627735
695.0 0.135398710139 7.06157855535
695.625 0.102786661585 53.1251850594
696.25 0.120594434378 104.815749122
696.875 0.126214367442 -179.323375283
697.5 0.140781437288 -145.02003797
698.125 0.131701014671 -131.718263261
698.75 0.141027530921 -137.801655973
699.375 0.107468446596 -125.328735985
700.0 0.0995767881646 -118.486993933
700.625 0.113926874133 -93.2636157512
701.25 0.108853742986 -72.0851019562
701.875 0.0814261781915 -58.8651846486
702.5 0.0988669463026 -85.0997998072
703.125 0.167898428041 -120.867153236
703.75 0.197949830127 -162.532349079
704.375 0.116768153902 178.181999358
705.0 0.108833561216 159.481790394
705.625 0.147182608822 -176.977155977
706.25 0.145774482459 -114.589537372
706.875 0.0961171689558 -66.3582741317
707.5 0.0723249917688 -36.199800253
708.125 0.0924108237146 15.8645754532
708.75 0.111865652521 63.1596688381
709.375 0.107441787172 95.9061442977
710.0 0.101214334905 136.936652355
710.625 0.107451660348 159.281914557
711.25 0.120397540682 171.209579007
711.875 0.139082082307 168.36584261
712.5 0.153598165343 144.329505097
713.125 0.132809568514 97.1882169464
713.75 0.103495591779 45.1247822283
714.375 0.115070023001 5.77218991367
715.0 0.110256726976 46.1105751085
715.625 0.0860554702548 52.9827152046
716.25 0.0733645165656 68.4080860275
716.875 0.109813618901 95.2712870407
717.5 0.1414490116 135.658426522
718.125 0.116846210247 173.321959143
718.75 0.106699154647 175.293698677
719.375 0.115638572405 -163.492888115
720.0 0.12536261673 -141.031872568
720.625 0.115653445464 -61.8562139754
721.25 0.0974951988568 -15.780856056
721.875 0.0865641165791 30.7555691318
722.5 0.0703283396245 59.6424043438
723.125 0.0855980551043 69.3724350212
723.75 0.11611247505 42.4601663414
724.375 0.113479599129 2.14088327418
725.0 0.0826422969801 -54.0683648224
725.625 0.122153657059 -52.9731610481
726.25 0.118492977243 -66.8201200569
726.875 0.097626318089 -52.9824519457
727.5 0.0772737873898 -47.6824619742
728.125 0.0743276410769 -12.7857939355
728.75 0.0951808066793 27.8136670594
729.375 0.0915896014776 19.1938964694
730.0 0.0718208271951 6.4125764489
730.625 0.0428421052015 -2.6321894204
731.25 0.104422205178 79.2009700462
731.875 0.0814351699272 118.141793045
732.5 0.068195742095 151.491573318
733.125 0.0871947497308 172.345073565
733.75 0.104110548479 -170.381881428
734.375 0.0858272982543 178.100062339
735.0 0.0598539041937 149.041057512
735.625 0.0293174344524 118.425578679
736.25 0.0795429097164 153.258468084
736.875 0.0755851012692 160.814538775
737.5 0.0907129877236 174.265295723
738.125 0.0594857787187 -178.80268828
738.75 0.110443774739 -163.501743539
739.375 0.0652517969275 -164.37107712
740.0 0.0391119012094 -137.446635188
740.625 0.0526998124371 -156.443956618
741.25 0.0313530508827 -154.598886304
741.875 0.0541697034968 -109.046677129
742.5 0.0627721941678 -30.4214195649
743.125 0.032383754487 47.8397002773
743.75 0.020290785079 136.154986228
744.375 0.0360942727926 110.427001525
745.0 0.0455052019099 145.048592121
745.625 0.0615805720577 119.895828394
746.25 0.0650734281568 101.676194825
746.875 0.097846161994 28.5360246078
747.5 0.0620775353749 1.71515874833
748.125 0.0325224981404 -5.79760337138
748.75 0.0189133510593 33.1654083309
749.375 0.0303539170917 -4.28380917815
750.0 0.0337859123166 -90.8775407029
