!Created with skrf (http://scikit-rf.org).
# GHz S RI R (50+0j) 
!freq	ReS11	ImS11	
500.0	0.190523881	-1.480572369	
500.625	-0.2576702119	-0.8657907181	
501.25	0.0001176044733	-0.9580521681	
501.875	-0.5235514137	-0.5001240709	
502.5	-0.008466132848	-0.06060612764	
503.125	-0.1074046151	-0.0306387416	
503.75	0.07051169961	0.07338274055	
504.375	0.0132824644	0.01984124463	
505.0	0.009527919382	-0.06564083041	
505.625	0.01093681734	0.01018517004	
506.25	-0.05993672428	-0.1654957065	
506.875	0.02285840241	0.1928685707	
507.5	0.09099390451	-0.7296835008	
508.125	-0.1571135255	-0.9525687618	
508.75	0.6334261432	-0.3787956301	
509.375	0.3558044661	-1.733230853	
510.0	-0.5301011405	-0.1575749359	
510.625	-0.02178395959	-0.1478465799	
511.25	-0.1616545081	-0.09499390332	
511.875	-0.09816583534	0.03349720067	
512.5	-0.04445528496	0.01657356568	
513.125	-0.02798220104	-0.1273844862	
513.75	-0.01878472722	0.01560887701	
514.375	-0.05761366848	-0.1509636908	
515.0	-0.2119898846	0.1899517393	
515.625	0.4560445938	-0.7601469401	
516.25	-0.8844692904	-0.2830938254	
516.875	0.1199090957	-0.2622628817	
517.5	-0.06842320785	-0.3229608817	
518.125	-0.05790284275	0.05878937663	
518.75	0.07927156183	-0.2285596039	
519.375	-0.03753572886	0.05047103616	
520.0	0.07872806496	0.0223905623	
520.625	0.1726848708	0.03364858309	
521.25	-0.04246408327	-0.3571387607	
521.875	-0.1275540982	0.03023829273	
522.5	-0.06633094895	-0.05343406608	
523.125	-0.0330876744	0.1606020841	
523.75	0.006271450722	-0.07246083732	
524.375	-0.3348293227	0.05020239276	
525.0	0.09914178222	0.1013229071	
525.625	-0.06560551897	0.03167805703	
526.25	0.0782170959	-0.006963592056	
526.875	-0.1201237107	0.1028948514	
527.5	0.04675732145	0.2808334908	
528.125	0.06095416714	0.09887925336	
528.75	-0.04402472119	0.294717033	
529.375	-0.008238745827	0.04876126713	
530.0	-0.1221685185	0.1646794144	
530.625	0.08513366674	0.3284683396	
531.25	0.2756378707	-0.00801378419	
531.875	0.05409067429	-0.05529523076	
532.5	-0.1331976129	-0.1929469392	
533.125	0.1658036792	0.09661943738	
533.75	0.06836929739	-0.321042547	
534.375	-0.1432912094	-0.1582906091	
535.0	-0.210393003	-0.2219851057	
535.625	-0.1726139119	0.1828905608	
536.25	-0.006415804996	0.05531845403	
536.875	0.1113761234	0.05778704484	
537.5	0.0504536112	-0.08265902064	
538.125	0.1056223773	0.004807431961	
538.75	0.1856456905	-0.192218555	
539.375	-0.08191984558	-0.1641510204	
540.0	-0.1044529229	-0.2004187218	
540.625	-0.2076974134	-0.04955014554	
541.25	-0.04464550873	0.04659521942	
541.875	0.01310558348	-0.05931483185	
542.5	-0.07893298177	-0.01640714979	
543.125	-0.004320256253	-0.0553488271	
543.75	-0.1569377738	0.00189863295	
544.375	0.06033422087	0.07307459603	
545.0	-0.05634678311	0.08356952284	
545.625	0.09843411743	0.02679854324	
546.25	0.007064834671	0.05065314458	
546.875	0.2014978296	-0.02527149706	
547.5	0.01104854886	-0.1207220897	
548.125	0.02379858211	-0.1530536384	
548.75	-0.1756007264	-0.1559102348	
549.375	-0.112942793	0.000195009708	
550.0	-0.0781445639	-0.04840352154	
550.625	-0.05669912795	0.05474802436	
551.25	-0.06440240541	-0.006182937921	
551.875	-0.1102936668	0.08528901864	
552.5	-0.021799023	0.0664129551	
553.125	-0.03576090013	0.07281957261	
553.75	0.05480847962	0.04177633752	
554.375	0.08560987862	0.007839477116	
555.0	0.1139663763	-0.07449125157	
555.625	0.09114950297	-0.1135130415	
556.25	0.07428330428	-0.1390329416	
556.875	-0.0290945223	-0.1741201489	
557.5	-0.1070162739	-0.1128518524	
558.125	-0.120867882	-0.04149605873	
558.75	-0.1148455064	-0.01286358893	
559.375	-0.1280060785	0.02625189507	
560.0	-0.09085811141	0.0767993005	
560.625	-0.07357264098	0.1093102606	
561.25	0.02122791457	0.1264477173	
561.875	0.009561958909	0.01630736582	
562.5	0.02509964441	0.09300204761	
563.125	0.05457697277	0.04178977602	
563.75	0.1583211167	0.05054146286	
564.375	0.1601898711	-0.144617578	
565.0	0.05081251153	-0.1176476881	
565.625	0.008632331127	-0.2070362099	
566.25	-0.1756178588	-0.08619635362	
566.875	-0.06730786734	-0.07900351458	
567.5	-0.1962101421	-0.1949882651	
568.125	-0.1826707786	-0.08465079163	
568.75	-0.1760412018	-0.1670567607	
569.375	-0.3051849299	0.1454513877	
570.0	-0.01190095574	0.1429747291	
570.625	-0.143659156	0.1385119898	
571.25	0.08540067134	0.2059162864	
571.875	-0.02112530819	0.03053772315	
572.5	0.2419923856	0.02974323614	
573.125	-0.002659495959	-0.1561648341	
573.75	0.1019647178	-0.01725035391	
574.375	0.02060978847	-0.1874935685	
575.0	-0.01585827017	0.0473572836	
575.625	0.1135677735	-0.1357973623	
576.25	-0.0430867694	-0.1314739846	
576.875	0.05552444605	-0.05965720321	
577.5	0.03080763307	-0.2597763766	
578.125	-0.1298396032	-0.1310667157	
578.75	0.0405919947	-0.05032261861	
579.375	-0.1193862542	-0.1961716658	
580.0	-0.08308722314	0.159434658	
580.625	-0.05631680406	-0.1774240985	
581.25	-0.08020437913	0.2344821531	
581.875	0.01957082046	0.0528696986	
582.5	-0.03412352187	0.2930984921	
583.125	0.2225360235	0.07011781441	
583.75	-0.06779080997	-0.01386424273	
584.375	0.1283813265	0.1222850218	
585.0	0.02081032603	-0.0197594088	
585.625	0.1707030661	0.1215192206	
586.25	0.2015219109	-0.1625882585	
586.875	0.009639775586	-0.07364558183	
587.5	0.04959858011	-0.2130029154	
588.125	-0.1090292727	-0.1728936222	
588.75	0.06219490718	-0.04637297909	
589.375	0.131576393	-0.2400824716	
590.0	-0.1561966078	-0.1152483914	
590.625	-0.09318236171	-0.1095697168	
591.25	-0.2378597826	0.1488653188	
591.875	0.1209177695	0.0955608189	
592.5	-0.1429559551	0.04016773175	
593.125	0.07985591248	0.07514643409	
593.75	-0.04702200946	0.09704856178	
594.375	0.245816243	0.1868679537	
595.0	0.07923947388	-0.00372761353	
595.625	0.1070789633	0.1648053337	
596.25	0.266792734	0.04279256181	
596.875	0.07369184647	0.008121849549	
597.5	0.1615815645	0.1859471321	
598.125	0.2409056947	0.07622750742	
598.75	0.114689389	0.08759569095	
599.375	0.2761679707	0.040721889	
600.0	0.1836624679	-0.1912881833	
600.625	0.08291535951	-0.1127439631	
601.25	0.1564194499	-0.2130155259	
601.875	-0.1712494586	-0.1556051222	
602.5	-0.004428996014	-0.01883004387	
603.125	-0.2376103338	0.02519698718	
603.75	-0.02255979774	0.1446275105	
604.375	-0.1526949749	-0.05289997499	
605.0	-0.1395510777	0.1767399319	
605.625	-0.04827341614	-0.1329235063	
606.25	-0.2501972841	0.03710711048	
606.875	-0.1228095399	0.1610176439	
607.5	-0.1183026368	0.0765792159	
608.125	0.001643595802	0.2906136255	
608.75	0.2816776563	0.1274909553	
609.375	0.2201757456	0.004676163563	
610.0	0.2673621189	-0.1158776622	
610.625	0.1449166178	-0.2266683218	
611.25	0.07199119462	-0.08549508588	
611.875	-0.1167350783	-0.2321810726	
612.5	-0.1192448431	0.04166589032	
613.125	-0.1701025132	-0.09263202381	
613.75	-0.1544809055	0.2598196744	
614.375	0.1179242118	0.004627718497	
615.0	-0.02079907545	0.1823708541	
615.625	0.1004028125	0.01463493013	
616.25	-0.1206922083	0.1154447963	
616.875	-0.157422919	0.3148496464	
617.5	0.01882460946	0.2073142414	
618.125	-0.05025864066	0.2526301351	
618.75	0.0325078465	0.2860048039	
619.375	0.1237997122	0.08178316794	
620.0	0.1431438914	0.1450361458	
620.625	0.2318205394	-0.1184583723	
621.25	-0.1044740813	-0.1292824181	
621.875	-0.1730038345	-0.1831979394	
622.5	-0.3217236936	0.0775737865	
623.125	0.0563125211	0.1820578995	
623.75	0.06671220638	0.1362631624	
624.375	0.06871005887	-0.1462312856	
625.0	0.01041437674	0.06395767712	
625.625	0.09866672234	-0.1711859362	
626.25	-0.1015916821	-0.08367158547	
626.875	-0.06474035968	-0.1550597782	
627.5	-0.2279479729	-0.04855200861	
628.125	-0.08719978975	0.01080484039	
628.75	-0.04892668197	-0.1312071839	
629.375	-0.1685233433	-0.1618427774	
630.0	-0.1117164841	-0.0721817666	
630.625	-0.2907512435	0.004033751456	
631.25	-0.2025737892	0.2936494044	
631.875	-0.002022252065	0.2092650157	
632.5	0.03881668197	0.2695919837	
633.125	0.2708488887	0.009349733376	
633.75	0.04720006307	-0.07303766478	
634.375	0.1637341948	-0.1356954355	
635.0	-0.1041122861	-0.1731327168	
635.625	-0.006183682897	-0.08403147775	
636.25	-0.2780552367	0.06316645816	
636.875	0.03187215385	0.1828015451	
637.5	-0.08262814044	-0.002958973572	
638.125	-0.07519622113	0.2071918143	
638.75	-0.02870162935	0.06575471861	
639.375	-0.1309334136	0.2974862453	
640.0	0.2406185374	0.2861396635	
640.625	0.1595355144	0.07863607025	
641.25	0.284374846	0.1342864495	
641.875	0.2803950061	-0.2974111862	
642.5	-0.03798491696	-0.1324402603	
643.125	0.01102432318	-0.2436503519	
643.75	-0.2361381333	0.01262203859	
644.375	0.1148925627	-0.08009594324	
645.0	-0.3211896722	0.1888524289	
645.625	0.166159804	0.1779998127	
646.25	0.005670603464	0.0927413695	
646.875	0.3436211534	0.05766087464	
647.5	-0.1092956426	-0.04782894912	
648.125	0.2733627871	0.1799949251	
648.75	0.2163600425	-0.2426898949	
649.375	0.154039172	-0.08837268472	
650.0	0.3863948612	-0.3704810031	
650.625	0.01199157331	-0.4181455473	
651.25	0.1678698396	-0.02425050287	
651.875	0.4504138485	-0.1748488088	
652.5	0.261888526	-0.2639804122	
653.125	0.208315541	0.05599655584	
653.75	0.4129378687	-0.2845310624	
654.375	-0.2189357953	-0.2849973478	
655.0	-0.1265408692	-0.1763608012	
655.625	-0.3715840977	0.2444052161	
656.25	0.2592900643	0.1137713131	
656.875	-0.1270077186	0.08946209004	
657.5	0.3185190523	0.1577634837	
658.125	-0.02158713708	0.02983811399	
658.75	0.3780772412	0.2759279307	
659.375	0.3487623373	-0.2899942547	
660.0	0.200222319	-0.1093870406	
660.625	0.321226816	-0.3527291714	
661.25	0.09115955109	-0.4393888657	
661.875	0.1713367968	-0.05118383646	
662.5	0.4647749553	-0.2450894576	
663.125	0.2051370821	-0.2891221498	
663.75	0.1886576707	-0.1539871951	
664.375	0.03943540936	-0.4805864547	
665.0	-0.3275179463	-0.1181963061	
665.625	-0.2670642269	-0.03451125158	
666.25	-0.2298280173	0.3499565473	
666.875	0.2487667126	0.1639485069	
667.5	0.06465503287	0.199422332	
668.125	0.356289393	-0.02771513452	
668.75	0.04261414551	-0.1500093837	
669.375	0.227759607	-0.1313829598	
670.0	-0.07631614913	-0.4216282833	
670.625	-0.03979151312	-0.02942617287	
671.25	0.2027499954	-0.2498882656	
671.875	0.09825293275	-0.2733384394	
672.5	0.1448678006	-0.001465869858	
673.125	0.3974154537	-0.1491992022	
673.75	0.04954509946	-0.3019559112	
674.375	0.1246810428	-0.1524613209	
675.0	-0.009749646116	-0.3645197481	
675.625	-0.3092748032	-0.08125572426	
676.25	-0.0338781289	-0.08491789736	
676.875	-0.298471364	-0.04433327731	
677.5	-0.08630306675	0.1099757445	
678.125	-0.1983295714	-0.01663620767	
678.75	0.01650408292	0.4222425911	
679.375	0.1897064215	-0.06293135659	
680.0	0.1568789439	0.2106883655	
680.625	0.2180579386	-0.2381082945	
681.25	-0.1093643246	-0.02322554496	
681.875	0.3528767186	0.2684495358	
682.5	0.2523144924	-0.159233365	
683.125	0.09573696216	0.2587579809	
683.75	0.3945795751	0.2692401639	
684.375	0.3326939228	-0.1752751986	
685.0	0.04656289432	0.1967969209	
685.625	0.4018359952	-0.0972815045	
686.25	0.2373135963	-0.1388447991	
686.875	0.2651865884	0.07877029971	
687.5	0.4923781621	-0.4502643736	
688.125	0.01694864213	-0.363496834	
688.75	-0.2640721934	-0.3824830611	
689.375	-0.4889842858	0.3919459637	
690.0	0.2291860722	0.2579393234	
690.625	-0.02778058203	0.4341883348	
691.25	0.5504460236	0.2845286378	
691.875	0.2929666931	0.2002856666	
692.5	0.6814766279	0.5731253484	
693.125	0.8586242592	-0.1996347704	
693.75	0.4871564483	0.1948620704	
694.375	0.7197793437	-0.3393112127	
695.0	0.5334373482	-0.4674210255	
695.625	0.3638325446	0.03069550032	
696.25	0.6748794349	0.2365584309	
696.875	0.5254853147	0.2875659856	
697.5	0.2081353265	0.4870747764	
698.125	0.5165184359	0.3759429088	
698.75	0.5472444879	-0.4696501019	
699.375	-0.1726847434	-0.3296084626	
700.0	-0.5623424708	0.2995915589	
700.625	0.2686445771	0.296282865	
701.25	0.05277123686	0.1302810477	
701.875	0.343331931	0.442910685	
702.5	0.3968384317	0.06233455312	
703.125	0.2869070191	0.2798971167	
703.75	0.5712307763	-0.07816763092	
704.375	0.1623420341	-0.2347656757	
705.0	0.253529754	0.07749487797	
705.625	0.4535570202	-0.04952306181	
706.25	0.1821447564	0.04584657505	
706.875	0.3364032258	0.2787452578	
707.5	0.4024816627	0.4096712628	
708.125	0.2806445287	0.04881396561	
708.75	0.4628810215	-0.2344368013	
709.375	-0.1283777568	-0.5332072788	
710.0	-0.1048382437	0.2103508846	
710.625	-0.1125302993	0.1856449846	
711.25	0.2448082715	0.1059716812	
711.875	-0.0827749051	0.07623146566	
712.5	0.4296806729	0.08953538709	
713.125	0.2441692248	-0.269699649	
713.75	0.1333265522	-0.1020506683	
714.375	0.1151407054	-0.3492595743	
715.0	-0.1339515873	-0.1804550367	
715.625	0.1379838356	-0.1286187233	
716.25	0.2351676162	-0.3835027673	
716.875	0.14397819	-0.2062412384	
717.5	0.4695087013	0.1139043382	
718.125	0.9396321425	0.04192264335	
718.75	0.4601863838	-0.2283751268	
719.375	0.4802828034	-0.06604890587	
720.0	0.5358098763	-1.138821284	
720.625	-0.3027302594	-0.5808225851	
721.25	0.4932732522	-1.14149643	
721.875	-0.4391849423	-1.231991939	
722.5	-0.4277203911	-0.04113383738	
723.125	-0.7911266144	-0.5987713305	
723.75	-0.4321190562	0.5651877858	
724.375	0.02809359619	0.1928128663	
725.0	-0.0006327360074	0.6295881907	
725.625	0.4275347966	0.3652997322	
726.25	-0.1693044888	0.4599286939	
726.875	-0.3434761323	1.189778475	
727.5	0.2151925625	1.524088069	
728.125	-0.1250542924	1.156144882	
728.75	-0.7442982301	3.439024748	
729.375	0.6049195018	4.132170007	
730.0	-0.4720524895	2.180263606	
730.625	-1.560015725	6.316856794	
731.25	1.138516118	4.586164525	
731.875	-2.842166182	1.042450602	
732.5	-5.124172184	-0.01719503657	
733.125	-2.13268545	0.9538421381	
733.75	-0.8933678378	-0.1998678144	
734.375	1.10486138	0.9571541279	
735.0	-0.3111925009	-0.4683498877	
735.625	-0.3445691082	-0.3547240739	
736.25	-0.1142785849	0.9140201475	
736.875	0.3973815882	0.1039635193	
737.5	0.9500620994	1.113843913	
738.125	2.139157504	-0.7213757221	
738.75	0.8115724225	-1.327522395	
739.375	2.329226928	0.6343795155	
740.0	5.593805432	-3.867073535	
740.625	-0.3008813589	-1.819213305	
741.25	-2.649484688	4.113927389	
741.875	-4.09561024	3.469225078	
742.5	0.9903817374	-1.152591229	
743.125	1.271779597	-3.171553159	
743.75	-0.7050837662	-1.605856866	
744.375	-0.006210953427	-0.01107120134	
745.0	-0.06847134002	0.2902436057	
745.625	-0.05819639001	-0.04385570343	
746.25	0.1074108844	-0.2432358806	
746.875	-0.2825463585	0.0678295009	
747.5	-0.1145010907	0.2355059898	
748.125	-0.1087811186	0.6619874146	
748.75	0.3679920832	0.5259175709	
749.375	0.0199689124	0.3415850245	
750.0	-0.5938055985	0.1701386486	
