!Created with skrf (http://scikit-rf.org).
# GHz S RI R (50+0j) 
!freq	ReS11	ImS11	
500.0	-1.288291113	-2.243611826	
500.625	1.484960361	-2.448160503	
501.25	-2.605351938	-2.434228315	
501.875	-1.543616337	-0.5616178524	
502.5	0.001767994185	-0.2226025223	
503.125	-0.4287431805	0.04475308341	
503.75	0.2393270417	0.01555232529	
504.375	0.163121934	0.08039734996	
505.0	-0.1127832422	-0.1176139095	
505.625	0.2823507953	-0.2228343203	
506.25	-0.6164445363	0.1741901096	
506.875	-0.05861073984	-1.002521428	
507.5	-1.525052609	-1.633176423	
508.125	-0.7966157336	-0.5458140251	
508.75	3.021270902	-2.404297044	
509.375	-1.961815596	-5.021954292	
510.0	-0.7486617981	-0.3313587918	
510.625	-1.058204449	-0.872465052	
511.25	-0.2333162811	0.1512431578	
511.875	-0.5162125992	-0.3574478973	
512.5	-0.04533695318	0.1626255026	
513.125	-0.123839616	-0.2368173992	
513.75	-0.03069018582	-0.2586222972	
514.375	-0.6262367846	-0.2998194978	
515.0	0.9291433178	1.14109195	
515.625	-1.610316814	-3.872477846	
516.25	-0.5759339038	0.7180688475	
516.875	0.09673276193	-2.638581236	
517.5	-1.12067466	-0.3167573048	
518.125	0.2749752143	-0.3615344318	
518.75	-0.8132889482	-0.3317436863	
519.375	-0.1280094962	0.02879298487	
520.0	0.4202100129	0.3439689545	
520.625	0.4605919643	-0.3726612215	
521.25	0.07532111787	-0.4446777327	
521.875	-0.5092109571	-0.2247527554	
522.5	0.01531357238	0.07991269253	
523.125	-0.3502666664	0.1979556299	
523.75	-0.1665877669	-0.08538937409	
524.375	-0.6497141507	0.2407660251	
525.0	0.05578110998	0.007336574648	
525.625	-0.05883749376	0.3356866698	
526.25	0.01858407257	-0.30825808	
526.875	-0.1555850917	0.3983035092	
527.5	0.05862115208	0.2558612543	
528.125	-0.286088162	1.012858115	
528.75	0.5811347041	0.8809085894	
529.375	-0.14105514	0.1637120351	
530.0	0.4512220906	0.3646703352	
530.625	-0.08327844005	0.9422511537	
531.25	1.544464826	-0.2224037806	
531.875	0.3692862488	0.06184682332	
532.5	-0.338001938	-0.7243117276	
533.125	0.5105289163	0.5800307399	
533.75	0.02101590747	-0.9860166225	
534.375	0.02753114702	-0.3579154057	
535.0	-0.9620815995	-0.5510747848	
535.625	-0.04092935275	0.4117593931	
536.25	-0.1335311936	0.2102206655	
536.875	0.3725003266	0.07412751632	
537.5	0.04871491521	-0.1363746024	
538.125	0.4514566756	-0.04220391713	
538.75	0.1880036849	-0.440540809	
539.375	-0.007000303272	-0.3543132558	
540.0	-0.5734004715	-0.5352251834	
540.625	-0.2631402294	0.143372977	
541.25	-0.2305767416	-0.1452099143	
541.875	-0.1838350577	-0.02741419009	
542.5	-0.1113658779	-0.01636881855	
543.125	-0.08656931922	-0.2650286636	
543.75	-0.4578666678	0.1207260157	
544.375	0.05551023464	-0.1101816495	
545.0	-0.04665757415	0.357978914	
545.625	0.06451913207	-0.1410492984	
546.25	0.3098923452	0.3934627655	
546.875	0.1745792045	-0.3211415677	
547.5	0.3079939324	-0.07243846332	
548.125	-0.1391802047	-0.6551316479	
548.75	-0.3776714008	-0.09022860795	
549.375	-0.08595054689	-0.2336461204	
550.0	-0.3506695645	0.02892064729	
550.625	0.03132160139	-0.009135655745	
551.25	-0.3432006066	0.08036461696	
551.875	-0.03717447489	0.1626009549	
552.5	-0.2305913504	0.1686525034	
553.125	0.007244799022	0.1905096965	
553.75	0.08048609316	0.1211136396	
554.375	0.2597133981	0.02818092954	
555.0	0.2431972724	-0.1844441728	
555.625	0.2161160233	-0.2430076165	
556.25	0.1881574184	-0.3542126825	
556.875	-0.09074969246	-0.411146366	
557.5	-0.2320823587	-0.2531486639	
558.125	-0.2792642056	-0.1246812335	
558.75	-0.2870104986	-0.001193433774	
559.375	-0.2317439483	0.04765134848	
560.0	-0.2794454911	0.1478942598	
560.625	-0.108504371	0.3261655242	
561.25	0.04784796669	0.1589953623	
561.875	0.02406175134	0.2014207662	
562.5	0.07071957401	0.01507611567	
563.125	0.1356118764	0.3166352107	
563.75	0.3576057817	-0.1426474301	
564.375	0.2658450727	-0.03918408102	
565.0	0.2871965669	-0.4964014658	
565.625	-0.1934845039	-0.2807683807	
566.25	-0.1253803694	-0.266913359	
566.875	-0.4210321573	-0.3204758148	
567.5	-0.410245665	-0.06677911939	
568.125	-0.1066061333	-0.4781748433	
568.75	-0.8016042867	-0.228051285	
569.375	-0.3227733708	0.2333451445	
570.0	-0.6335222993	0.4101133478	
570.625	0.09781726896	0.6248512435	
571.25	-0.1409110362	-0.01522384546	
571.875	0.3559604159	0.5147939247	
572.5	-0.03998633962	-0.1891320492	
573.125	0.5049735185	-0.023041698	
573.75	0.07518499981	-0.5878659354	
574.375	-0.1285574841	0.1081029355	
575.0	0.3243016133	-0.3205569814	
575.625	-0.1744841582	0.06147916926	
576.25	0.4404194767	-0.3007505515	
576.875	-0.2421172789	-0.5191452778	
577.5	-0.04505645253	-0.07543077327	
578.125	0.1472582618	-0.5122500249	
578.75	-0.4134488302	-0.4419496606	
579.375	-0.1868460886	0.08076687891	
580.0	0.04152258863	-0.3230548288	
580.625	-0.2847730678	0.1926666838	
581.25	-0.2081007137	-0.1703282906	
581.875	-0.0511186554	0.7086472091	
582.5	0.4146119853	0.1230518747	
583.125	-0.2426338241	0.1346365357	
583.75	0.5920965461	0.2760860468	
584.375	-0.3889703681	-0.08270297588	
585.0	0.5592482016	0.419333049	
585.625	0.2630772111	-0.3132679067	
586.25	0.3346233686	0.2210151769	
586.875	0.2452170813	-0.6389150742	
587.5	-0.04157796256	-0.0307625939	
588.125	0.2115847785	-0.4895939584	
588.75	-0.1647479504	-0.5207874939	
589.375	0.1261527161	-0.002491910862	
590.0	0.03884847894	-0.6982363816	
590.625	-0.5412461012	-0.008098030038	
591.25	-0.171441464	0.1894228467	
591.875	-0.3118418544	0.2046277041	
592.5	0.2460023807	0.241372625	
593.125	-0.3260347524	0.1484766126	
593.75	0.2730780176	0.2170805729	
594.375	0.1000860345	0.2299158461	
595.0	0.5476818079	0.6091531731	
595.625	0.6060859594	-0.221435018	
596.25	-0.03062624944	0.4087717789	
596.875	0.775907074	0.203146588	
597.5	0.2330659017	-0.0869786975	
598.125	0.223976522	0.5644623783	
598.75	0.5808687448	0.0263710325	
599.375	0.3126487987	0.1555260918	
600.0	0.6639634709	-0.4707186775	
600.625	0.1179951022	-0.4631411471	
601.25	0.3318718794	-0.2520926626	
601.875	-0.1587951926	-0.5301780385	
602.5	-0.3141453635	0.04177428784	
603.125	-0.1913510241	0.1099713016	
603.75	-0.2889444822	0.01667748046	
604.375	-0.3274185528	0.3966008785	
605.0	-0.001773925406	-0.0585068431	
605.625	-0.4455161338	0.2909637477	
606.25	0.01148766514	0.1125331147	
606.875	-0.7216407022	-0.0564091763	
607.5	-0.1599481315	0.7736838456	
608.125	-0.285532249	0.1871730708	
608.75	0.5895923966	0.9072037715	
609.375	0.3183333968	-0.3463782311	
610.0	0.5745382231	0.01893304547	
610.625	0.139263401	-0.6160264757	
611.25	0.09401930795	-0.1056110974	
611.875	-0.3465441529	-0.5277062846	
612.5	-0.1561141748	-0.04461996617	
613.125	-0.5626217272	-0.05881857624	
613.75	-0.1069920244	0.4300531414	
614.375	-0.2715876699	0.2512987731	
615.0	0.3501898678	0.03279591912	
615.625	-0.2810069862	0.1854126743	
616.25	0.1146498831	0.6537188207	
616.875	-0.1654602688	0.03587564225	
617.5	-0.4308844079	0.764845069	
618.125	0.2151101629	0.4995030952	
618.75	-0.2389556128	0.3266444845	
619.375	0.4071047264	0.5346082092	
620.0	0.2551103085	0.08031983112	
620.625	0.4413744287	-0.3729847915	
621.25	-0.2140601681	-0.3456057316	
621.875	-0.5257655537	-0.4272448601	
622.5	-0.4175584958	0.2510916106	
623.125	-0.2298685743	0.328437703	
623.75	0.5243592025	0.1266488868	
624.375	-0.1767527169	0.07724163041	
625.0	0.2571216514	-0.3723149012	
625.625	0.01533780289	0.1414288585	
626.25	0.08754140357	-0.6669032858	
626.875	-0.5519331656	-0.006391511052	
627.5	-0.01589948884	-0.147967269	
628.125	-0.4784741377	-0.3626157571	
628.75	-0.1574192246	-0.0801751564	
629.375	-0.05775032609	-0.5258953295	
630.0	-0.6578368694	-0.1666926443	
630.625	-0.3158421189	-0.05953250267	
631.25	-0.5804642393	0.468206192	
631.875	0.04859863391	0.6663959418	
632.5	0.2839354219	0.4046442516	
633.125	0.355650285	0.1936525316	
633.75	0.6339251963	-0.08053356774	
634.375	-0.07201729634	-0.2897540641	
635.0	0.2843426146	-0.3399550777	
635.625	-0.5914269418	-0.2160573239	
636.25	-0.06855887885	-0.07068194878	
636.875	-0.458778506	0.5347602402	
637.5	0.2154527428	0.1344869012	
638.125	-0.5697324704	-0.001492323602	
638.75	0.1059705404	0.846397267	
639.375	-0.05752228689	0.04133904398	
640.0	0.02284205559	0.8876175678	
640.625	0.8879913191	0.3983449539	
641.25	0.3773995425	-0.169742746	
641.875	0.8387516231	-0.1072449787	
642.5	-0.3848499937	-0.5404741233	
643.125	0.1418982509	-0.2594442733	
643.75	-0.6916493511	-0.3907156489	
644.375	-0.00832910112	0.2864896693	
645.0	-0.7196158732	0.003989824747	
645.625	0.2286023706	0.7887950264	
646.25	0.518258177	-0.04477347419	
646.875	-0.1589418977	0.1296221863	
647.5	0.7174539168	0.01254436714	
648.125	-0.3083967599	0.2927875382	
648.75	1.207303361	-0.06648473445	
649.375	0.05163398833	-0.8538695343	
650.0	0.6487774695	0.03713000834	
650.625	0.7677680421	-1.477416465	
651.25	-0.3239984844	-0.4537920859	
651.875	0.9290214886	0.3280179609	
652.5	1.112286207	-0.7165377194	
653.125	0.1210315819	-0.3620962218	
653.75	0.9768561144	-0.1552987705	
654.375	-0.4012970717	-1.038699753	
655.0	-0.2493780629	0.01731369584	
655.625	-0.9396712045	0.03738374904	
656.25	0.5242014454	0.7446498413	
656.875	-0.2570682482	-0.1129353571	
657.5	0.2296572435	0.5497220212	
658.125	0.4250884733	0.1241895233	
658.75	0.2515187507	0.3971857429	
659.375	1.302465175	-0.3535080821	
660.0	0.1395537836	-0.7706799541	
660.625	0.53809597	-0.3930607548	
661.25	0.7704708816	-1.143044424	
661.875	-0.163917411	-0.5301077048	
662.5	1.021398003	0.08576036067	
663.125	0.8533855243	-0.9652770229	
663.75	-0.03079675713	-0.3645541639	
664.375	0.4694553331	-0.8967717346	
665.0	-1.065046782	-0.4153059754	
665.625	-0.3823747106	-0.09885913019	
666.25	-0.605023428	0.8215543466	
666.875	0.5567094321	0.3443672823	
667.5	0.0206493859	0.41336813	
668.125	0.8669560759	-0.02604035298	
668.75	0.2531190538	-0.4778534385	
669.375	0.2779360891	-0.2399446887	
670.0	0.2573591732	-0.6854423038	
670.625	-0.2944197368	-0.49912738	
671.25	0.336088584	-0.190865551	
671.875	0.4225310647	-0.6075071803	
672.5	0.1664685652	-0.3642397456	
673.125	0.8503528933	-0.1558997167	
673.75	0.2707106352	-0.896672528	
674.375	-0.01726105459	-0.1898588036	
675.0	0.3000051211	-0.8142874171	
675.625	-0.9973561187	-0.4405405433	
676.25	0.1101163306	0.1904558796	
676.875	-0.7623316723	-0.4191800335	
677.5	-0.08356035503	0.3983900961	
678.125	-0.5871600472	-0.1335007982	
678.75	0.3416993333	1.010541932	
679.375	0.0688928346	-0.03299936552	
680.0	0.5687709457	0.09955146959	
680.625	0.3537248799	-0.5386463144	
681.25	-0.2982799122	0.09710132899	
681.875	0.6415798759	0.4872406204	
682.5	0.6956986854	-0.0007385685938	
683.125	0.4955375146	0.01870821719	
683.75	0.317887208	0.5419240903	
684.375	1.274253222	-0.07310519891	
685.0	-0.03854869061	0.03136585164	
685.625	1.134751436	0.4324245471	
686.25	0.6247001681	-0.7204529233	
686.875	0.5184502342	0.715628271	
687.5	1.331106697	-1.619606782	
688.125	-0.5700983158	-0.1045335954	
688.75	-0.5502050652	-1.332143854	
689.375	-0.8887024961	1.353319585	
690.0	0.1524720892	0.2586268442	
690.625	0.5674271748	1.223805068	
691.25	0.7271415748	0.2934052513	
691.875	0.7815083313	1.084502394	
692.5	1.720428211	0.6105325934	
693.125	1.305639298	-0.1379322456	
693.75	1.564394414	-0.4196547644	
694.375	1.043868798	-0.8734839848	
695.0	1.41367493	-0.5831885674	
695.625	0.9693310882	-0.5103155366	
696.25	0.9443828345	1.029811737	
696.875	1.794901049	0.9189188736	
697.5	0.2305134675	0.6565435377	
698.125	1.787856735	1.450172558	
698.75	0.6078245966	-1.393499232	
699.375	0.1196124238	-1.242095014	
700.0	-1.119606968	1.4134613	
700.625	0.3380736739	0.08924963029	
701.25	0.5598145428	1.103660729	
701.875	0.6584497994	0.163962234	
702.5	0.5350789139	1.041482245	
703.125	1.336719437	0.1313422485	
703.75	0.5412453662	0.04209201692	
704.375	1.148545429	-0.6293246459	
705.0	0.1781720239	-0.4145424382	
705.625	0.9344053063	0.7498364094	
706.25	0.9635187263	-0.182778468	
706.875	-0.00812385158	0.8003554829	
707.5	0.9207782383	1.365875181	
708.125	0.7742930737	-0.1038495869	
708.75	1.25447082	-0.4261645283	
709.375	-0.9812949962	-0.9086796228	
710.0	-0.2877257014	0.2790530145	
710.625	0.01842079612	0.6475221334	
711.25	0.2492361291	0.06709013528	
711.875	0.4293296064	0.4934999813	
712.5	0.8086353647	-0.09519372252	
713.125	0.9291103638	-0.2878019163	
713.75	0.07922427173	-0.7790055217	
714.375	0.3521388438	-0.2549187814	
715.0	-0.3319294977	-0.9098158786	
715.625	-0.05575328187	0.03903496722	
716.25	1.196312667	-0.8355812608	
716.875	0.01871854662	-1.136869256	
717.5	1.11279258	1.151763679	
718.125	3.065926601	-0.1491171523	
718.75	-0.0452320888	-1.219476585	
719.375	3.568839951	1.08406496	
720.0	0.4630560024	-3.793513765	
720.625	0.7300859009	-1.279940988	
721.25	1.325599156	-2.800866946	
721.875	-1.665753785	-2.960645504	
722.5	-0.2024429663	-1.718831177	
723.125	-2.505253097	-0.7949076275	
723.75	-0.7507275726	1.328322191	
724.375	-0.2519101462	0.7647867718	
725.0	0.3343196941	1.313844251	
725.625	1.000829262	0.9821102452	
726.25	-0.129875811	0.9225830316	
726.875	-1.287041649	2.881894301	
727.5	1.432034488	4.657325879	
728.125	-1.191671982	0.8157357456	
728.75	-3.585064606	10.86578385	
729.375	3.054513736	7.278106211	
730.0	-10.3846992	5.528046986	
730.625	5.405079033	25.65023482	
731.25	1.587470906	-1.165655608	
731.875	-14.65986618	4.550732663	
732.5	-12.57421071	5.45035073	
733.125	-3.512245402	3.280363144	
733.75	-4.802666519	0.8703934374	
734.375	3.285585465	1.047986025	
735.0	-0.04967707438	-0.9074283473	
735.625	-1.671361302	-0.8047679553	
736.25	1.086964856	1.46495467	
736.875	-0.3772683736	1.453294472	
737.5	3.837680317	1.253740503	
738.125	4.633383658	-2.182152175	
738.75	0.2153097202	-3.91383141	
739.375	9.211132189	5.805261546	
740.0	14.39087333	-20.86235345	
740.625	-8.772688022	-3.015896476	
741.25	-6.45333298	34.14688605	
741.875	32.50867264	45.25299761	
742.5	15.26182931	-17.92722848	
743.125	-2.803221275	-10.23627494	
743.75	-0.5499685188	0.5722636653	
744.375	-0.5715073372	-2.066587998	
745.0	0.6194566678	0.7323530106	
745.625	-0.1279055011	0.282034318	
746.25	0.01244498272	-0.6447219788	
746.875	-0.4432915189	0.1016455897	
747.5	-0.5352526892	0.6924997389	
748.125	0.5483239876	1.56789539	
748.75	0.6093180901	0.7623631797	
749.375	2.135051286	2.481788671	
750.0	-2.382705027	-0.4002895103	
