!Created with skrf (http://scikit-rf.org).
# GHz S RI R (50+0j) 
!freq	ReS11	ImS11	
500.0	-0.3553544399	-1.325333103	
500.625	0.5217449286	-0.4979243687	
501.25	-0.7289294177	-1.008191822	
501.875	-0.3137744263	-0.2121452963	
502.5	0.05504125317	-0.183831979	
503.125	-0.09533168413	0.03748674258	
503.75	-0.02433276713	0.01089202843	
504.375	0.06302206942	0.0009825929952	
505.0	-0.0202543623	-0.007984721697	
505.625	0.05566145277	-0.06193221183	
506.25	-0.1513909215	-0.02652165971	
506.875	0.03809095797	-0.1645229247	
507.5	-0.3769771189	-0.5799308971	
508.125	-0.06176590213	-0.26583243	
508.75	1.083878993	-0.8938070064	
509.375	-0.4022460926	-1.282796843	
510.0	-0.2179545611	-0.05618307443	
510.625	-0.01725533461	-0.2781705425	
511.25	-0.1295333311	0.03145634104	
511.875	-0.02159241476	-0.09567024843	
512.5	-0.05712125325	0.05121444281	
513.125	-0.02321994156	-0.02631229862	
513.75	0.01539994527	-0.07739414141	
514.375	-0.2241233195	0.05147766341	
515.0	0.3249975477	0.1073877523	
515.625	-0.5729279967	-0.5228693485	
516.25	-0.197427021	-0.04218952001	
516.875	-0.2428950522	-0.8205667828	
517.5	-0.1987301661	-0.2164549832	
518.125	0.05685582684	-0.003296387842	
518.75	-0.1290421195	-0.2045663085	
519.375	-0.04237327747	0.02389390242	
520.0	0.07965184981	0.09482678	
520.625	0.199389648	-0.08460697542	
521.25	-0.1351737718	-0.2095974399	
521.875	-0.1229482534	0.01691512062	
522.5	-0.12228833	0.05553267082	
523.125	0.0765398538	-0.0247178761	
523.75	-0.2110063916	-0.09302539472	
524.375	-0.1179401906	0.201678049	
525.0	-0.07925584893	-0.005747051645	
525.625	0.05534447555	0.1575441147	
526.25	-0.05029536848	-0.1061377162	
526.875	-0.04274518975	0.129031544	
527.5	0.02132238096	0.08728924558	
528.125	-0.002101130813	0.3465088858	
528.75	0.09582950701	0.3514716157	
529.375	-0.008572375495	0.06561115083	
530.0	0.03992425623	0.3187173635	
530.625	0.1620188313	0.2311995792	
531.25	0.2852351782	0.02337048773	
531.875	0.3455430628	-0.2524752268	
532.5	-0.1082664882	0.01992107391	
533.125	0.223589206	-0.0497448916	
533.75	-0.03599734078	-0.1435114464	
534.375	0.07017673378	-0.2515775639	
535.0	-0.3401333175	-0.1081320594	
535.625	-0.08720679919	0.1105292955	
536.25	-0.03961161497	0.09815517629	
536.875	0.1301866758	-0.009273691848	
537.5	0.03095350299	-0.01337078095	
538.125	0.1826345779	-0.06526421771	
538.75	0.07500341646	-0.1391191597	
539.375	-0.01685696529	-0.149427463	
540.0	-0.2070637809	-0.2041737736	
540.625	-0.1750440032	0.008057977518	
541.25	-0.04041728961	0.01305057449	
541.875	-0.1032431714	-0.007868071094	
542.5	0.02249892752	-0.03417542257	
543.125	-0.06463045703	-0.1387689994	
543.75	-0.1147646318	0.09301797448	
544.375	-0.0538049645	-0.0536301432	
545.0	0.02107349787	0.1066608948	
545.625	0.008669797962	-0.0005749458279	
546.25	0.1365104967	0.09206380976	
546.875	0.1099309775	-0.1128888118	
547.5	0.07953205532	-0.06443842464	
548.125	-0.03938544532	-0.2395298971	
548.75	-0.1660503984	-0.05001944763	
549.375	-0.05650427112	-0.0960718934	
550.0	-0.1274511315	0.0195498338	
550.625	-0.01164462691	0.005336403982	
551.25	-0.1219374644	0.02884803433	
551.875	-0.05210384973	0.09841492879	
552.5	-0.05885014141	0.05527490677	
553.125	-0.01874219123	0.08753152332	
553.75	0.0398848719	0.0357263558	
554.375	0.1062183701	0.01233239549	
555.0	0.09812237802	-0.08301432886	
555.625	0.08750281579	-0.1074270375	
556.25	0.07181967498	-0.148640622	
556.875	-0.04027036794	-0.1669076189	
557.5	-0.1018421049	-0.1034467505	
558.125	-0.1222444658	-0.04214962758	
558.75	-0.1215712467	-0.002133216137	
559.375	-0.1071980061	0.03108868479	
560.0	-0.105365881	0.06752776892	
560.625	-0.05683060602	0.1354290268	
561.25	0.02176934599	0.08355640285	
561.875	0.00345806547	0.07913842898	
562.5	0.04252517751	0.03233123628	
563.125	0.03779289625	0.09751001863	
563.75	0.1860299866	-0.01327538785	
564.375	0.0778790714	-0.106471714	
565.0	0.123406655	-0.1305398148	
565.625	-0.08351902184	-0.1975179424	
566.25	-0.07789909301	-0.07817477935	
566.875	-0.149956338	-0.1755281232	
567.5	-0.1915873389	-0.05205963794	
568.125	-0.07564409478	-0.1689664457	
568.75	-0.3436402707	-0.1132808901	
569.375	-0.1483146737	0.1623253344	
570.0	-0.167540472	0.1337916156	
570.625	-0.07184968537	0.2648376735	
571.25	0.04886090585	0.04640168494	
571.875	0.03469758892	0.1846831441	
572.5	0.1272707228	-0.0995553955	
573.125	0.08716558243	-0.01772959038	
573.75	0.1159594426	-0.2262808754	
574.375	-0.09949371428	-0.03635513526	
575.0	0.1275205572	-0.002850324985	
575.625	-0.02974584868	-0.133369615	
576.25	0.0495404104	-0.01618548148	
576.875	0.05799647223	-0.2450809154	
577.5	-0.1052657683	-0.1790822543	
578.125	0.01616412271	-0.076299524	
578.75	-0.07346771072	-0.2268062474	
579.375	-0.2269490783	0.05378393064	
580.0	0.06190915345	-0.06190553275	
580.625	-0.1772187112	0.001994692741	
581.25	0.01729512354	0.01907332777	
581.875	-0.134227244	0.2064864012	
582.5	0.1708455302	0.2046139963	
583.125	0.0364135579	-0.04486870665	
583.75	0.06798156582	0.1558351876	
584.375	0.06113437035	-0.06020173707	
585.0	0.0805659027	0.208462528	
585.625	0.2493385158	-0.06652738696	
586.25	0.03944192978	-0.05697329632	
586.875	0.1669699586	-0.1165835561	
587.5	-0.09201230214	-0.2101631333	
588.125	-0.009964034488	-0.03842369133	
588.75	0.1173557254	-0.1980512098	
589.375	-0.03376311155	-0.2148393525	
590.0	0.03876023728	-0.07418191135	
590.625	-0.2940939491	-0.1227284434	
591.25	-3.380833162e-05	0.1912062595	
591.875	-0.07152866549	0.02883363928	
592.5	0.07876227775	0.2260018995	
593.125	-0.05303446836	-0.07740468693	
593.75	0.1735882713	0.2596787999	
594.375	0.1562713701	-0.0191118129	
595.0	0.1117408459	0.1826023753	
595.625	0.2767349574	0.1164695833	
596.25	0.107321898	-0.04809598332	
596.875	0.1249367929	0.1353629076	
597.5	0.2086137854	0.0001738463058	
598.125	0.09440460969	0.04729076034	
598.75	0.1872421202	0.1493733274	
599.375	0.2367857496	-0.1135744095	
600.0	0.09732725542	-0.1073356204	
600.625	0.2149055489	-0.1678901052	
601.25	0.02130124879	-0.2775389279	
601.875	-0.05987284846	-0.04127293444	
602.5	-0.2417365126	-0.1532957916	
603.125	-0.0635978385	0.154508157	
603.75	-0.07124263218	-0.01919634494	
604.375	-0.2055911788	0.1525592775	
605.0	0.07870621882	0.01134567756	
605.625	-0.1654132892	-0.004189687782	
606.25	-0.1099067344	0.1788374746	
606.875	-0.1649941778	-0.004420476103	
607.5	-0.2452418371	0.1916178445	
608.125	0.081247093	0.2990149694	
608.75	0.09218282327	0.1243744135	
609.375	0.3002364676	-0.001241366442	
610.0	0.1801330857	-0.1534298169	
610.625	0.06500782588	-0.05853396825	
611.25	0.0561108656	-0.2752183757	
611.875	-0.1704019718	-0.0611507441	
612.5	-0.07348413512	-0.1249524983	
613.125	-0.3480294656	0.05061087295	
613.75	0.04795263457	0.1584539806	
614.375	-0.08192358815	0.1143806129	
615.0	0.1673958717	0.07022944437	
615.625	-0.1226427723	0.08075976229	
616.25	-0.08075002793	0.2798938218	
616.875	0.06881828635	0.2005096871	
617.5	-0.1366038882	0.1264321065	
618.125	0.05144484567	0.1265516577	
618.75	0.09517746919	0.1475298937	
619.375	-0.002739228361	0.1577695792	
620.0	0.2935123691	0.04984131714	
620.625	0.03900441172	-0.2672017244	
621.25	-0.03235901639	-0.1947935912	
621.875	-0.2883058139	-0.1208591574	
622.5	-0.1209480102	0.1104690359	
623.125	-0.1296223373	0.07817233717	
623.75	0.2197584138	0.05409764077	
624.375	-0.04873666086	-0.04070569698	
625.0	0.1382796327	-0.04588803426	
625.625	-0.04352220998	-0.09934261741	
626.25	0.03710539971	-0.1331387443	
626.875	-0.222703659	-0.1280306275	
627.5	-0.1300897544	0.02770105685	
628.125	-0.0631308894	-0.125305267	
628.75	-0.1326323262	-0.1416393748	
629.375	-0.06714797508	-0.09864655539	
630.0	-0.1583972593	-0.1223945863	
630.625	-0.3031416066	0.1014753042	
631.25	-0.08211306229	0.1772041514	
631.875	-0.09226169279	0.2779526818	
632.5	0.2508723446	0.2632031142	
633.125	0.1498177946	-0.01652474026	
633.75	0.2315105385	0.09758961805	
634.375	0.01228911563	-0.2393700698	
635.0	0.03818857188	-0.07673402588	
635.625	-0.2180403216	-0.1780444144	
636.25	-0.1036798573	0.1693368473	
636.875	-0.06895077134	0.03556356256	
637.5	-0.09724142265	0.1935942936	
638.125	0.05277454778	0.03636030591	
638.75	-0.1805045028	0.1729167928	
639.375	0.08863395401	0.339066522	
640.0	0.1265023301	0.1372045544	
640.625	0.1962665575	0.2351836473	
641.25	0.3656589226	-0.1014973617	
641.875	0.03941516088	-0.2053541356	
642.5	0.1119792065	-0.2469919286	
643.125	-0.3071717654	-0.1697901364	
643.75	0.01063885154	0.009048373117	
644.375	-0.3469421009	-0.0830261616	
645.0	-0.03618795948	0.2688172204	
645.625	-0.1016184955	0.03279589257	
646.25	0.2944347888	0.2081096504	
646.875	-0.04859054202	-0.2552407252	
647.5	0.06138658123	0.216140844	
648.125	0.2145806847	-0.1030000279	
648.75	0.1226902052	0.0268726313	
649.375	0.4833763701	-0.2694928377	
650.0	0.007354392158	-0.4460853226	
650.625	0.1346031971	-0.1290216356	
651.25	0.3711056855	-0.2889021736	
651.875	0.1363579297	-0.3563411587	
652.5	0.212440446	0.05379791301	
653.125	0.4287378762	-0.1716528126	
653.75	0.03759599492	-0.2840226824	
654.375	0.09513911621	-0.1206553004	
655.0	-0.4543591213	-0.2084531751	
655.625	-0.04253928133	0.26827674	
656.25	-0.08200143559	0.04149077415	
656.875	0.1869047151	0.3134476432	
657.5	-0.04028843314	-0.06657850758	
658.125	0.1686875993	0.3857119567	
658.75	0.3560355848	-0.1568809986	
659.375	0.2005833649	-0.04069265628	
660.0	0.4480675827	-0.3364028053	
660.625	-0.02176641492	-0.4858598143	
661.25	0.1572435516	-0.1041033335	
661.875	0.3491882617	-0.3053702262	
662.5	0.1761314138	-0.3357943548	
663.125	0.1944574601	-0.08817921326	
663.75	0.2884277733	-0.4127935595	
664.375	-0.1810175288	-0.2830875037	
665.0	-0.1606843324	-0.2257952458	
665.625	-0.4426265291	0.0875037157	
666.25	0.02229313381	0.3008451128	
666.875	-0.05650274145	0.1540541764	
667.5	0.3135405729	0.161691504	
668.125	0.1425319346	-0.09712775294	
668.75	0.2490925021	-0.02813108067	
669.375	0.05158853387	-0.4635323995	
670.0	-0.05286562027	-0.08535659102	
670.625	0.1128850034	-0.2183700838	
671.25	-0.07391202687	-0.290127071	
671.875	0.09698354107	0.01149970212	
672.5	0.3742409235	-0.2189875402	
673.125	0.1277192544	-0.2769760306	
673.75	0.1344126307	-0.1261668534	
674.375	0.1606964311	-0.3699500656	
675.0	-0.257502041	-0.2163191987	
675.625	-0.04828136812	-0.1130892137	
676.25	-0.3001845215	-0.09508609218	
676.875	-0.1008858134	0.1144140087	
677.5	-0.1052567239	-0.1090640524	
678.125	-0.2223224063	0.2857974081	
678.75	0.1687490827	0.08940567938	
679.375	0.0701423888	0.20903291	
680.0	0.3184490829	-0.1784327526	
680.625	-0.1793186709	-0.08035141743	
681.25	0.3029676803	0.116521105	
681.875	0.2031528296	-0.1310163353	
682.5	-0.02946297806	0.2421064964	
683.125	0.4075931392	0.2679767423	
683.75	0.3361435222	-0.1761980975	
684.375	0.2558969393	0.3130485022	
685.0	0.4508232972	0.0778224268	
685.625	0.2796334431	-0.1787770914	
686.25	0.1775652565	0.1525931453	
686.875	0.3903073457	-0.3448235778	
687.5	0.09763739952	-0.2108961444	
688.125	0.124326695	-0.4304592828	
688.75	-0.6076461113	-0.2521785516	
689.375	-0.1122631746	0.3475591323	
690.0	-0.1269745907	0.3973524969	
690.625	0.5008760244	0.3287070363	
691.25	0.1823613268	0.09997097302	
691.875	0.4208448657	0.5573368185	
692.5	0.8236002085	0.03489547719	
693.125	0.402704239	0.1808271926	
693.75	0.7602276276	-0.1473147444	
694.375	0.4365437691	-0.6233061805	
695.0	0.4701200928	-0.007951216456	
695.625	0.7546638413	0.05089581422	
696.25	0.2557873511	0.2146827035	
696.875	0.2845352507	0.3804976906	
697.5	0.4166273345	0.6736533946	
698.125	0.6674613821	0.05525416057	
698.75	0.325761635	-0.5599266188	
699.375	-0.4397780177	-0.5256201006	
700.0	-0.2976378615	0.5148202802	
700.625	0.06634265509	0.1394905649	
701.25	0.2604115626	0.4729990671	
701.875	0.2930412386	0.04473680292	
702.5	0.1967178503	0.3483477797	
703.125	0.5865803281	0.1758421333	
703.75	0.2195559987	-0.1953084451	
704.375	0.3208036296	-0.004685791481	
705.0	0.3620127491	-0.2568067003	
705.625	0.1613209392	0.05647403308	
706.25	0.2442586471	0.2772761542	
706.875	0.3130320408	0.3162883175	
707.5	0.1945380007	0.2760171694	
708.125	0.3721544506	0.06729671255	
708.75	0.3022467807	-0.501986823	
709.375	-0.4842628297	-0.1615713879	
710.0	-0.268481402	0.1202715119	
710.625	0.2334579904	0.1716913616	
711.25	-0.02906955243	0.08755642771	
711.875	0.3180706224	0.2268345247	
712.5	0.2863838343	-0.174810142	
713.125	0.2113533557	-0.01501859148	
713.75	0.2253384389	-0.3477753318	
714.375	-0.09882340561	-0.2433459662	
715.0	0.08145436022	-0.1336701659	
715.625	0.004221704344	-0.3752536529	
716.25	0.06271265043	-0.2196349003	
716.875	0.3896458995	-0.06201305124	
717.5	0.6702891816	-0.07127689772	
718.125	0.4588979677	-0.04301656995	
718.75	0.7946414887	0.1247252147	
719.375	0.7895652411	-0.7808226377	
720.0	-0.07450724771	-0.9178803334	
720.625	0.6220088186	-0.9544793768	
721.25	-0.504932609	-1.259217266	
721.875	-0.08664498771	-0.5399729042	
722.5	-0.6276503661	-1.295518028	
723.125	-0.9776304393	0.07587343055	
723.75	-0.1437422008	0.2331373838	
724.375	-0.1391560031	0.648323972	
725.0	0.4605294755	0.2118677498	
725.625	-0.0355841961	0.3587885898	
726.25	-0.01102759791	0.9212920624	
726.875	0.2376450661	0.9642665522	
727.5	-0.3531444214	0.8606004593	
728.125	-0.276352129	2.547070664	
728.75	0.9909972129	2.531391264	
729.375	-1.008816564	1.954916798	
730.0	0.1961302945	5.716872341	
730.625	2.124545726	3.758883345	
731.25	-1.434931318	2.397557122	
731.875	-3.14920234	4.075089704	
732.5	-2.015604911	3.214813502	
733.125	-2.090559551	-0.7175389313	
733.75	-1.026490182	1.969251931	
734.375	0.8612481976	-0.03924648583	
735.0	0.2690982855	-0.453913466	
735.625	-1.05458466	0.4935021492	
736.25	0.1745345593	0.1075324728	
736.875	0.2254148747	0.8612350656	
737.5	1.452620063	-0.009597322262	
738.125	0.7695518277	-0.6967453126	
738.75	2.311224086	0.07157240994	
739.375	2.904423931	-3.22580365	
740.0	-0.130498333	-1.743782086	
740.625	3.693818688	4.321035455	
741.25	4.845423374	3.913552962	
741.875	0.1348095002	-2.606423741	
742.5	-2.286538848	-4.727401054	
743.125	-0.977718388	-1.391980527	
743.75	0.5921216482	-0.0782305287	
744.375	-0.7042761479	-0.380583792	
745.0	0.3161501583	-0.01698346143	
745.625	0.09379084736	0.117400996	
746.25	-0.1878786898	-0.1528160889	
746.875	-0.09839815408	-0.03008788404	
747.5	-0.2122105546	0.4295809688	
748.125	0.2642000141	0.5458337805	
748.75	0.1284476044	0.3636348795	
749.375	0.0607258925	0.630194855	
750.0	-0.2740055605	0.3882136369	
