!Created with skrf (http://scikit-rf.org).
# GHz S RI R (50+0j) 
!freq	ReS11	ImS11	
500.0	0.1272432141	-0.474101877	
500.625	0.6944325553	-1.278080893	
501.25	-0.6858188101	-0.4246888793	
501.875	0.1175244629	-0.4652808593	
502.5	-0.1249356541	-0.211092501	
503.125	-0.03401820252	0.02266325918	
503.75	-0.04643701915	0.1214352019	
504.375	0.03160004391	-0.03231850704	
505.0	0.05289960163	0.01683082699	
505.625	-0.02887251326	-0.1005049448	
506.25	-0.02860104499	0.03690675561	
506.875	-0.3102434882	-0.1326773558	
507.5	-0.1487452371	0.07817088453	
508.125	0.5318988569	-0.5493957599	
508.75	0.3131063606	-1.429274584	
509.375	-0.1900665996	-0.6561985137	
510.0	-0.2974562243	-0.4074294492	
510.625	-0.2559836217	-0.2078346339	
511.25	-0.1083368839	-0.05775329332	
511.875	-0.1827926862	-0.06514076105	
512.5	0.04810886608	0.06050357201	
513.125	0.03687677806	-0.04069525678	
513.75	-0.1229008315	-0.1255932801	
514.375	0.01634048863	0.1175710877	
515.0	0.06477489706	-0.3536351953	
515.625	-0.2455338308	-0.02957916173	
516.25	0.5489832244	-1.168916587	
516.875	-0.6156183133	-0.3935653681	
517.5	0.003595156791	-0.005136677648	
518.125	-0.01829488476	-0.1245720733	
518.75	-0.133636769	-0.0009123661317	
519.375	-0.08002042114	0.041225538	
520.0	0.1472292775	0.07192335117	
520.625	0.1202631754	-0.123792751	
521.25	0.03228853326	-0.1550043207	
521.875	-0.1790186902	-0.06380543601	
522.5	0.01201748137	0.08915813236	
523.125	-0.1510613255	-0.06405494187	
523.75	-0.1880717158	0.08386482629	
524.375	-0.01166113017	-0.0279829005	
525.0	-0.1803236754	0.2136168731	
525.625	0.1463244611	0.001866591137	
526.25	-0.09342251082	0.02817935344	
526.875	-0.01134007642	-0.01313905289	
527.5	-0.1549544136	0.1364826959	
528.125	0.1228469147	0.3927935285	
528.75	0.07768855042	0.1046578697	
529.375	0.08374930087	0.0551810505	
530.0	0.1344770636	0.08694961436	
530.625	0.1734022931	0.237195318	
531.25	0.4968131028	0.1658922309	
531.875	0.3782773128	-0.4187259637	
532.5	0.05298829201	-0.08532370324	
533.125	-0.08777928539	-0.1479403846	
533.75	0.2068981861	-0.07253900459	
534.375	-0.1087707446	-0.4731065436	
535.0	-0.2048976695	-0.01048649954	
535.625	-0.1987308989	0.04914906709	
536.25	0.01819429255	0.1316546737	
536.875	0.05489656566	-0.02148428637	
537.5	0.1045018736	-0.01978333618	
538.125	0.09548944771	-0.1154450343	
538.75	0.1082540115	-0.0485505333	
539.375	-0.07128667303	-0.1858943504	
540.0	-0.2035037704	-0.08193579683	
540.625	-0.1278497526	-0.01521344483	
541.25	-0.1349691774	-0.01335344007	
541.875	-0.04876120228	0.04823589252	
542.5	-0.03802863894	-0.1077087425	
543.125	-0.1615484248	-0.0237074165	
543.75	-0.02904230673	-0.04388763965	
544.375	-0.1626532679	0.06177892738	
545.0	0.03205047791	0.01878549758	
545.625	0.03336542627	0.1223986666	
546.25	0.1577419918	-0.02149777966	
546.875	0.05287768765	0.008032241614	
547.5	0.1212564258	-0.1587983606	
548.125	-0.1215799597	-0.1417281789	
548.75	-0.06372254826	-0.1167831908	
549.375	-0.1526292955	-0.1239566097	
550.0	-0.05363754229	0.05414964337	
550.625	-0.07826481167	-0.03303919352	
551.25	-0.06604952398	0.07078738242	
551.875	-0.05401069361	0.04436461845	
552.5	-0.05778487872	0.1026723509	
553.125	0.00450836458	0.04957571084	
553.75	0.0472628791	0.0608167939	
554.375	0.1080071523	-0.01541008862	
555.0	0.09474785245	-0.07080147157	
555.625	0.09259608786	-0.1156831689	
556.25	0.05961991623	-0.1551535537	
556.875	-0.04017754744	-0.1605791459	
557.5	-0.0990601163	-0.1098042081	
558.125	-0.1286563319	-0.03980635135	
558.75	-0.1126360309	0.005540274592	
559.375	-0.1121841122	0.01350677048	
560.0	-0.1113947566	0.09091847355	
560.625	-0.03455351482	0.110478162	
561.25	-0.01946924649	0.09694545634	
561.875	0.06849996958	0.05947798282	
562.5	-0.02035151736	0.03828349022	
563.125	0.1093644606	0.09457429997	
563.75	0.1083685467	-0.02636039193	
564.375	0.1520885304	-0.05052843122	
565.0	0.07041941822	-0.204576486	
565.625	-0.03636634662	-0.1113572048	
566.25	-0.09686187498	-0.165167888	
566.875	-0.2244786337	-0.03748156155	
567.5	-0.05644366507	-0.08913664758	
568.125	-0.1779929749	-0.2340284659	
568.75	-0.2299542766	0.03148919965	
569.375	-0.2187564298	0.0261586158	
570.0	-0.1602071895	0.336608227	
570.625	0.02944396703	0.145594343	
571.25	-0.1056627705	0.1254893726	
571.875	0.1538090471	0.05695346122	
572.5	0.03038018519	0.05707600162	
573.125	0.1846818255	-0.159862765	
573.75	-0.06849266424	-0.1491414621	
574.375	0.08154007487	0.02116304011	
575.0	0.01795133491	-0.1417701048	
575.625	0.02646760945	0.02133876421	
576.25	0.1217582244	-0.1666508423	
576.875	-0.1129835665	-0.1572423859	
577.5	0.02878851008	-0.07825161198	
578.125	-0.0134656445	-0.2561627824	
578.75	-0.2325919181	-0.07114849257	
579.375	0.03753677037	0.002011498281	
580.0	-0.1477520778	-0.1520975249	
580.625	-0.0009678031722	0.08354186776	
581.25	-0.2695044619	-0.03356530967	
581.875	0.0879048444	0.2480611048	
582.5	0.01768882611	-0.02690452806	
583.125	-0.008625337578	0.1733626325	
583.75	0.1503837175	-0.03783031291	
584.375	-0.07431612375	0.09901857953	
585.0	0.2404152079	0.02826800339	
585.625	0.06519998728	-0.06370546435	
586.25	0.2074096741	0.02585791887	
586.875	0.06746786736	-0.2467927557	
587.5	-0.00869777249	-0.05444706566	
588.125	0.05749628046	-0.195413141	
588.75	-0.0541692257	-0.2024417017	
589.375	0.05908909947	-0.05302966569	
590.0	-0.04530339984	-0.3189219753	
590.625	-0.1943529229	0.07528868462	
591.25	-0.1108939844	0.02401715883	
591.875	-0.1077219399	0.2278738065	
592.5	0.1400691838	-0.07424578081	
593.125	-0.1198694037	0.1579583456	
593.75	0.1302802357	0.04299522577	
594.375	0.05744765069	0.1222154676	
595.0	0.311601642	0.09869809612	
595.625	0.1642620983	-0.05061658916	
596.25	0.1023044321	0.1234307455	
596.875	0.2392470805	-0.01710372772	
597.5	0.08081940234	0.03599861082	
598.125	0.1270977206	0.2000099894	
598.75	0.2236180107	0.01300200493	
599.375	0.127897558	-0.03097255377	
600.0	0.1861285883	-0.1622705892	
600.625	0.1052874137	-0.2705178324	
601.25	0.003791866044	-0.1131378647	
601.875	-0.03138350956	-0.2216027233	
602.5	-0.1877913937	0.09816610118	
603.125	-0.03578539774	-0.02281425702	
603.75	-0.2173325803	0.0925128755	
604.375	0.07420644397	0.09781946387	
605.0	-0.1424112654	-0.01120672334	
605.625	0.03625642836	0.2028459789	
606.25	-0.02593947199	-0.01474566089	
606.875	-0.2702050523	0.1544274037	
607.5	-0.08040861219	0.2970911889	
608.125	-0.09049000859	0.2385531452	
608.75	0.1956318059	0.2738164425	
609.375	0.236279712	-0.04958318605	
610.0	0.1235717846	-0.08219655244	
610.625	0.0980075439	-0.1206019506	
611.25	-0.1001655194	-0.1541968932	
611.875	-0.01808272658	-0.08274946728	
612.5	-0.2928906715	-0.08814887757	
613.125	-0.09719400689	0.1635824809	
613.75	-0.1657438063	0.06004099202	
614.375	0.1199468188	0.2157439353	
615.0	-0.01533538908	-0.07691269382	
615.625	0.03031088692	0.2356971695	
616.25	0.05673448075	0.09229121732	
616.875	-0.1393613132	0.09840272656	
617.5	-0.1007299806	0.3179290162	
618.125	-0.04077562687	0.1908716102	
618.75	-0.07702823184	0.1623820443	
619.375	0.1870791462	0.235793328	
620.0	0.1369978555	-0.04066444528	
620.625	0.01160592691	-0.09201788175	
621.25	-0.1498107049	-0.2392408693	
621.875	-0.1402762475	0.001960277178	
622.5	-0.2280575019	-0.03007827586	
623.125	-0.0521417178	0.2902954777	
623.75	0.1028927995	-0.04353271828	
624.375	0.1120346242	0.01610539507	
625.0	-0.03360560959	-0.1042816396	
625.625	0.1036688317	-0.02982441237	
626.25	-0.08143416927	-0.2094167676	
626.875	-0.1399836161	0.009322442172	
627.5	-0.1119808184	-0.1061771277	
628.125	-0.2071502624	-0.06509133492	
628.75	-0.1038607697	-0.1064272973	
629.375	-0.07157341949	-0.2105314193	
630.0	-0.2786142826	-0.0409663415	
630.625	-0.149817084	0.04325891477	
631.25	-0.2093042362	0.1717309777	
631.875	0.01649207971	0.3083095202	
632.5	0.1827233158	0.07930332687	
633.125	0.2438464874	0.1344120165	
633.75	0.2603457613	-0.2223630895	
634.375	0.02965425503	-0.05648856043	
635.0	0.005793692009	-0.23399417	
635.625	-0.2059727936	0.02763252899	
636.25	-0.1012156377	-0.01932990674	
636.875	-0.1622152741	0.2229581887	
637.5	0.06956831252	0.07249346663	
638.125	-0.1606475092	0.06585538173	
638.75	0.0002680397356	0.2620885392	
639.375	0.02686171278	0.1249664066	
640.0	0.09817584622	0.341060467	
640.625	0.3551980249	0.08642501799	
641.25	0.1833262953	-0.05463159145	
641.875	0.2481414527	-0.06572178846	
642.5	-0.1090380617	-0.3031415612	
643.125	-0.07438753507	0.03491027389	
643.75	-0.2053281725	-0.178743033	
644.375	-0.2266967174	0.2932123879	
645.0	-0.1215794313	-0.01821644344	
645.625	0.1055330185	0.364485068	
646.25	0.1834564279	-0.06878349428	
646.875	-0.01409172675	0.1881584202	
647.5	0.2112983734	-0.07327136298	
648.125	0.00741136342	0.1255730341	
648.75	0.4968472647	-0.07667197942	
649.375	0.06046184761	-0.367808939	
650.0	0.1615429379	-0.1499941633	
650.625	0.3237111114	-0.3828000794	
651.25	-0.01760848095	-0.3733284795	
651.875	0.2317776863	0.01415462681	
652.5	0.4595821566	-0.1720591361	
653.125	0.1544613931	-0.2329801479	
653.75	0.2335996112	-0.0468626042	
654.375	-0.09107561806	-0.5126676824	
655.0	-0.2828128393	0.07755819662	
655.625	-0.2110873136	0.04629180741	
656.25	0.002505017311	0.4638482177	
656.875	0.08894480975	-0.1736386983	
657.5	0.004274555885	0.3722958833	
658.125	0.289492107	0.04607429637	
658.75	0.1311557376	0.1143333524	
659.375	0.5084116909	-0.1026380733	
660.0	-0.0004396266062	-0.4284323328	
660.625	0.164069229	-0.1658680139	
661.25	0.2682773848	-0.3762490683	
661.875	0.09186511126	-0.3752633229	
662.5	0.2386437985	0.00868631598	
663.125	0.4002505913	-0.2909427416	
663.75	0.02116262916	-0.300718157	
664.375	0.05373954667	-0.2818393747	
665.0	-0.3814280987	-0.2956008917	
665.625	-0.2318603312	0.1902125946	
666.25	-0.1707388036	0.1825112811	
666.875	0.1861741273	0.3442880598	
667.5	0.1563875882	-0.02405415063	
668.125	0.2464500714	0.1244341875	
668.75	0.2113374768	-0.322137716	
669.375	0.002565521295	-0.1128176862	
670.0	0.1493098514	-0.2670892782	
670.625	-0.1247157126	-0.3016919318	
671.25	0.1193240155	0.02446791882	
671.875	0.2546143531	-0.2553196013	
672.5	0.0751093093	-0.1851494835	
673.125	0.1727391543	-0.06522210782	
673.75	0.2916104346	-0.3204926872	
674.375	-0.1133201582	-0.2105680344	
675.0	0.03122749121	-0.2062077801	
675.625	-0.2745545807	-0.219783099	
676.25	-0.178226637	0.1069491346	
676.875	-0.09818091688	-0.1354296277	
677.5	-0.2759446954	0.1269830943	
678.125	-0.002771878282	0.1067828531	
678.75	-0.1256410952	0.234078278	
679.375	0.3945975746	0.08272647649	
680.0	-0.135932878	-0.1292868892	
680.625	0.2415042503	0.03748599546	
681.25	0.1027245246	-0.1817354071	
681.875	-0.0486402776	0.1692142223	
682.5	0.547521114	0.1603665395	
683.125	0.07700210185	-0.16216397	
683.75	0.1502157329	0.2295622812	
684.375	0.4763526523	0.03725595746	
685.0	0.2609367488	-0.2035873768	
685.625	0.3831697351	0.206263802	
686.25	0.4591886338	-0.202154036	
686.875	0.1472918512	-0.1524576944	
687.5	0.3839418099	-0.1704982641	
688.125	-0.1637339265	-0.4980519244	
688.75	-0.2711301034	-0.02620894127	
689.375	-0.4567946172	0.2259303874	
690.0	0.2467126309	0.4806561783	
690.625	0.1469394237	0.03125410816	
691.25	0.3440734104	0.5466039375	
691.875	0.6202853387	0.1127289243	
692.5	0.3572544687	0.2731290995	
693.125	0.9028567703	0.1149311637	
693.75	0.2735868243	-0.5132009027	
694.375	0.3815333549	-0.1120826398	
695.0	0.6765499504	-0.3516377829	
695.625	0.4149315912	-0.229505829	
696.25	0.5612317763	0.3173762327	
696.875	0.583112878	0.6054287596	
697.5	0.4322581956	0.2261501862	
698.125	0.6473297843	0.158770096	
698.75	0.5014467103	-0.3777226893	
699.375	-0.5465486925	-0.2557171064	
700.0	-0.2360783807	0.1472603096	
700.625	0.2223154114	0.5129797288	
701.25	0.3118700355	0.001033114567	
701.875	0.1359861937	0.3290919428	
702.5	0.5432633991	0.3002183336	
703.125	0.2987141522	-0.03926562837	
703.75	0.4553354756	0.06265249832	
704.375	0.3402559054	-0.3276108878	
705.0	0.06827907208	-0.1241956637	
705.625	0.3409180304	0.1507805553	
706.25	0.4103040192	0.06003096485	
706.875	0.3170221228	0.4184519571	
707.5	0.3091339481	0.4534370247	
708.125	0.592662562	-0.03331664448	
708.75	0.1844851115	-0.1960276322	
709.375	-0.05435400744	-0.2169716385	
710.0	-0.1705920479	0.327982923	
710.625	0.03015820954	0.03502525772	
711.25	0.1655090977	0.2768842837	
711.875	0.2478406668	-0.2226833722	
712.5	0.2832825913	0.111046769	
713.125	0.364602295	-0.2602537925	
713.75	0.01123126548	-0.2578634673	
714.375	0.1227851412	-0.1787813611	
715.0	-0.08328234531	-0.3350334756	
715.625	-0.04679281181	-0.1060071052	
716.25	0.2854253118	-0.1805403532	
716.875	0.3648184913	-0.3869985535	
717.5	0.4511129193	-0.1167487143	
718.125	0.8083384027	0.2207972989	
718.75	0.8747412655	-0.4566440342	
719.375	0.4621526947	-0.53416133	
720.0	0.8796048619	-0.8684437112	
720.625	-0.4336854201	-1.368045173	
721.25	0.2155567957	-0.7837491417	
721.875	-0.212375154	-1.309912453	
722.5	-1.360612196	-0.6163225606	
723.125	-0.4417884003	-0.1685616503	
723.75	-0.6117836748	0.5757515829	
724.375	0.2896886319	0.4025460154	
725.0	-0.08219461795	0.3014952141	
725.625	0.2865124655	0.6936806571	
726.25	0.2693638863	0.4575799147	
726.875	-0.421810757	0.7927864093	
727.5	-0.07573871319	1.807903033	
728.125	0.7904766941	1.674837579	
728.75	-0.9648235185	2.249533464	
729.375	-0.7428553441	4.921181923	
730.0	1.566836615	3.202053985	
730.625	-1.487280245	3.243116482	
731.25	-0.6751819012	6.02387936	
731.875	-0.7040393309	2.273587189	
732.5	-3.506185638	-0.8501141301	
733.125	-2.886897704	1.180487038	
733.75	0.1603651411	1.09660568	
734.375	0.7109420132	0.8606359477	
735.0	-0.437991428	-0.9336543625	
735.625	0.02848469362	-0.01071378677	
736.25	-0.3370920941	0.6767520175	
736.875	0.8129124743	0.5052199862	
737.5	0.2663269668	0.1105473068	
738.125	2.24116501	0.1714619269	
738.75	1.489975379	-2.289701032	
739.375	0.7185807631	-0.7660047295	
740.0	5.077036042	1.140901052	
740.625	4.797025916	-3.738339378	
741.25	-3.577791623	-0.5383560873	
741.875	-4.961985534	0.8620720469	
742.5	-1.663071702	0.06585284426	
743.125	1.312127796	-1.884708602	
743.75	-0.3245846085	-2.006250124	
744.375	-0.4122460132	0.2565457897	
745.0	-0.1100732819	0.1060394698	
745.625	0.08404521573	-0.1091638821	
746.25	0.1491213372	-0.05269059977	
746.875	-0.3189040267	0.03235953461	
747.5	-0.01765846779	0.3721851715	
748.125	-0.05197245199	0.4082070438	
748.75	0.2700956548	0.6399405941	
749.375	0.2485349736	0.3329425303	
750.0	-0.3819963332	0.07685563202	
