!Created with skrf (http://scikit-rf.org).
# GHz S MA R 50.0 
!freq magS11 angS11
500.0 0.0155238979526 131.101017909
500.625 0.00802867293962 78.3300997858
501.25 0.00889390590534 -76.4142601648
501.875 0.0302309485984 -170.971888692
502.5 0.0181134103695 150.456129783
503.125 0.0117413147728 24.2660707896
503.75 0.0197195447419 120.98763798
504.375 0.00857631194639 110.594534936
505.0 0.00730163004806 -76.8019421929
505.625 0.0420131587535 -85.1268947087
506.25 0.0375938780728 -115.67438431
506.875 0.0504615267186 -109.097307535
507.5 0.0450726783947 -119.766702342
508.125 0.0642617589622 -84.5499737641
508.75 0.0606717502215 -136.223330041
509.375 0.0482441925193 -146.355259295
510.0 0.0362342512856 -119.931426726
510.625 0.0535586866523 -159.769586827
511.25 0.0419588947456 172.816153186
511.875 0.0480741302374 141.669142119
512.5 0.0380227263623 93.5900729387
513.125 0.0677230178896 53.1029481287
513.75 0.0581111726687 29.1848531008
514.375 0.0549230115432 25.792829812
515.0 0.0631442864776 5.19235357501
515.625 0.0783907843048 41.4952573067
516.25 0.0894193336632 27.0442653266
516.875 0.114965016957 69.5146972547
517.5 0.122951587163 20.1959068947
518.125 0.206331133674 69.9826225678
518.75 0.0816677962959 6.59051858006
519.375 0.0661238882948 14.0296850716
520.0 0.115146838213 -3.69449624433
520.625 0.100743430403 -9.87733137813
521.25 0.0839832974836 -25.8948672225
521.875 0.0714354352697 0.533842208821
522.5 0.0984081784639 -35.5594792325
523.125 0.188757164799 -35.6847484211
523.75 0.214578549821 -60.768862799
524.375 0.21020127108 -53.2893356825
525.0 0.0799966479337 -41.3077182167
525.625 0.035003773272 -64.6783237768
526.25 0.0390216568394 -21.2926482373
526.875 0.0503191825913 -31.1073163329
527.5 0.060858538247 -29.5952798096
528.125 0.0298794780843 -69.0827488704
528.75 0.0674013590392 -77.8122553427
529.375 0.084360727548 -120.133942624
530.0 0.0607331580457 -133.396200314
530.625 0.0276168922176 -142.606935917
531.25 0.106973506406 -134.819138853
531.875 0.159673615316 -150.730786165
532.5 0.159746673267 -173.844694096
533.125 0.0818417497493 170.885132542
533.75 0.108970318777 165.830923885
534.375 0.107609017951 174.244505133
535.0 0.0970049363595 159.858723941
535.625 0.0597062635265 171.415769634
536.25 0.0515087311687 158.282798677
536.875 0.0825514475832 -164.067454296
537.5 0.105782237901 -149.029775079
538.125 0.0966748837895 -175.798326708
538.75 0.095167546263 175.543138371
539.375 0.0745589524481 -168.100923475
540.0 0.104868751848 -163.465891221
540.625 0.108183322454 -158.078006601
541.25 0.121928555641 -144.211374531
541.875 0.100928427841 -147.408706064
542.5 0.115508406675 -148.042282358
543.125 0.120007287292 -168.602738801
543.75 0.123267126125 156.185104066
544.375 0.09482212253 130.675933649
545.0 0.0961899619089 85.6961355681
545.625 0.0945456718919 77.1680181357
546.25 0.0948463666646 63.4480932387
546.875 0.0948539008963 50.2884478248
547.5 0.125445468918 52.1839115513
548.125 0.103080276023 73.098097507
548.75 0.0840573545255 87.1247484485
549.375 0.0910595685017 81.1588229048
550.0 0.102838306762 120.867598117
550.625 0.0413110470859 149.094768213
551.25 0.0387963541293 -149.253105199
551.875 0.0557659760487 -162.86126917
552.5 0.119462760165 -174.354582017
553.125 0.0811623970438 -165.060240799
553.75 0.0866188510214 -169.072547974
554.375 0.104462152828 163.684978034
555.0 0.136426366797 157.178563936
555.625 0.0991669125269 154.580804924
556.25 0.0969239308352 159.073246429
556.875 0.121548292751 162.374990837
557.5 0.116865734444 163.196828343
558.125 0.107012291761 160.291461055
558.75 0.0849921036158 173.465877086
559.375 0.0634457475975 176.357255503
560.0 0.0525751316624 -160.553564049
560.625 0.0543971827164 -143.15316932
561.25 0.0867925446589 -155.276170739
561.875 0.103411598996 -167.54415659
562.5 0.094271564575 169.719933594
563.125 0.0980010580178 146.225255703
563.75 0.129736536023 128.419068499
564.375 0.102292692244 117.457915217
565.0 0.0964211055764 114.061691843
565.625 0.0787499063774 114.619297252
566.25 0.0942401801751 148.249153712
566.875 0.0792734994531 173.623110104
567.5 0.076152638285 176.430471946
568.125 0.0882106793821 -179.123893756
568.75 0.0590960940269 -146.525008722
569.375 0.0471229834009 -110.809194725
570.0 0.0585892607973 -113.118071225
570.625 0.0924698629514 -126.002673379
571.25 0.0896562393781 -124.394127365
571.875 0.0868528221099 -129.313270303
572.5 0.112139076864 -161.184860037
573.125 0.147083325757 178.613142428
573.75 0.0972069496974 163.460701292
574.375 0.0853516120725 143.221280207
575.0 0.107533906009 148.401010113
575.625 0.113606737518 149.452168696
576.25 0.0906163801809 143.163729732
576.875 0.0761678267568 126.233959491
577.5 0.0900545966905 126.251884333
578.125 0.0593765907606 155.670552742
578.75 0.0485721713282 157.607025694
579.375 0.0564193425127 151.145739301
580.0 0.0674956361501 173.502417518
580.625 0.0774879930524 -161.508425335
581.25 0.0884552573986 -165.178444741
581.875 0.114333343848 -175.757294339
582.5 0.117778825038 -178.548319829
583.125 0.100050768435 -179.360950818
583.75 0.0791688204654 -160.822268301
584.375 0.100462553586 -159.076176922
585.0 0.0932110260684 -150.376358124
585.625 0.0779670909347 -158.394444309
586.25 0.0682331712098 -133.294635526
586.875 0.0826585504576 -134.185759473
587.5 0.0746448055469 -147.23998726
588.125 0.0619489484265 171.266949158
588.75 0.0675883309142 -153.605937344
589.375 0.0826234978222 -153.680654949
590.0 0.0906383585128 -170.031364293
590.625 0.101154899997 155.220805954
591.25 0.120759506779 156.951475744
591.875 0.100517538977 151.329676509
592.5 0.0681474094552 137.257100485
593.125 0.0623338203757 133.978454299
593.75 0.072516779693 -177.741524736
594.375 0.0581450477296 -153.903781924
595.0 0.0422694016108 -117.484343605
595.625 0.0532412839901 -116.440903244
596.25 0.0728782809377 -82.9071149804
596.875 0.0660549159411 -78.4578160152
597.5 0.0550961104243 -74.8588417539
598.125 0.0548878100585 -78.3245482459
598.75 0.0810928275504 -65.3910460381
599.375 0.0952118936185 -64.2529445468
600.0 0.100602274013 -68.2900591884
600.625 0.0976827143199 -78.6844690115
601.25 0.0871702311858 -65.9611139972
601.875 0.0684797237626 -86.8566483214
602.5 0.0610570327853 -91.3906330461
603.125 0.0482802311519 -81.2153299915
603.75 0.029196200677 -55.0615085326
604.375 0.0395247218587 -25.3892022268
605.0 0.0615925937055 -26.2511637493
605.625 0.0501274474425 -12.1628989119
606.25 0.0203285417725 -30.5413579578
606.875 0.047657831611 48.5002319204
607.5 0.066460060214 39.6409274959
608.125 0.0668070635269 20.8325390128
608.75 0.0572611922914 17.0134656146
609.375 0.0644530517134 26.9011224685
610.0 0.0699990293167 34.1964619525
610.625 0.0671020846365 32.167919911
611.25 0.0446592586377 12.0282321294
611.875 0.045424970026 61.2281224893
612.5 0.0314257148846 90.9282549336
613.125 0.027439486454 125.576914352
613.75 0.022435815837 130.094501508
614.375 0.0423772671979 120.233759911
615.0 0.03034018424 111.260476096
615.625 0.0172093315041 140.382007755
616.25 0.0447734415095 132.908122608
616.875 0.0342905562142 125.216420658
617.5 0.0406244657535 115.224996765
618.125 0.028903862291 137.587674905
618.75 0.023591477574 140.886532881
619.375 0.0170999063787 135.244827186
620.0 0.0112058343403 124.785034336
620.625 0.0172364769027 -124.303722127
621.25 0.0561298651527 -79.3946085261
621.875 0.0639670744438 -120.548130326
622.5 0.073423517449 -170.968808663
623.125 0.0647663846832 174.846371801
623.75 0.057259997955 166.407903666
624.375 0.0453398761799 -169.173626985
625.0 0.0433057708631 -148.669472299
625.625 0.0327849484514 -157.807360899
626.25 0.0245099309663 172.63417345
626.875 0.0194317682157 -10.0028375456
627.5 0.0178300564162 -77.0646558272
628.125 0.0326988412691 -43.1971914587
628.75 0.032528337681 -38.6020284856
629.375 0.0645588569896 -2.65106196593
630.0 0.0598422693829 -24.800760008
630.625 0.0673039693566 -6.19558327996
631.25 0.0675641677225 1.52609488111
631.875 0.0761546414213 6.62866188434
632.5 0.0692363537493 -23.8109898869
633.125 0.0484815231287 -10.0946067911
633.75 0.0491252868298 -0.323556160134
634.375 0.0572012601649 26.669452396
635.0 0.0394916941505 20.2952913167
635.625 0.0379310222073 27.6234596984
636.25 0.0553563435759 41.4692605567
636.875 0.0622388472131 33.3958415813
637.5 0.0599563184094 49.0392674262
638.125 0.0222178442108 28.7472174428
638.75 0.0598072053 66.2663677599
639.375 0.0924887268485 83.5574420484
640.0 0.084688377582 107.172044758
640.625 0.0497009952739 77.1917383984
641.25 0.0702099371076 115.201161795
641.875 0.0631827309587 137.274738136
642.5 0.0676565267145 158.365566746
643.125 0.0504271916293 147.438057484
643.75 0.0566102664572 160.339007378
644.375 0.0667558576249 179.179961284
645.0 0.0919929962472 177.006171396
645.625 0.0730839651986 153.038641933
646.25 0.088688574923 156.97103524
646.875 0.0805756038029 173.965303448
647.5 0.0764892609666 -179.493499673
648.125 0.0789459963258 173.697610313
648.75 0.0791199256389 -167.854810717
649.375 0.0557778106485 -150.847083302
650.0 0.0500880255009 -125.281310849
650.625 0.0782021423475 -94.7677544523
651.25 0.067513307162 -70.2383513222
651.875 0.0673215411334 -46.1625990358
652.5 0.0861878738493 -26.3313206831
653.125 0.136093731393 -6.54684504653
653.75 0.112918906048 2.79924457992
654.375 0.106435546466 1.11360502946
655.0 0.133705431678 9.29735580858
655.625 0.100869534664 18.8366926574
656.25 0.0626587691089 16.6061240164
656.875 0.0747613285438 3.45147754498
657.5 0.0826770494389 16.3767416883
658.125 0.0861755374179 39.4675038402
658.75 0.0388506624993 63.7232583666
659.375 0.0725421347027 39.2752708202
660.0 0.106701006512 20.7190839007
660.625 0.125135010126 11.4487945521
661.25 0.0903619551444 1.6323860175
661.875 0.125186613778 -18.238938052
662.5 0.117438110742 -27.0666308621
663.125 0.118540630008 -20.132706402
663.75 0.0802940529437 -3.03829379088
664.375 0.0877619962908 48.3369675678
665.0 0.0781272013497 85.3007328761
665.625 0.0589949370161 104.871307129
666.25 0.0770434293308 126.391244401
666.875 0.10961567063 159.78418829
667.5 0.103640441339 -173.57484925
668.125 0.101470641643 175.637945086
668.75 0.126488345818 161.537685844
669.375 0.133850113167 171.149254852
670.0 0.0910997397704 -175.45809603
670.625 0.0954387705237 -179.380350184
671.25 0.100340142379 168.604967312
671.875 0.100418898907 160.404310579
672.5 0.070241129289 148.452536849
673.125 0.0901773778946 144.146598738
673.75 0.111609414852 152.131475377
674.375 0.118051206919 163.352399934
675.0 0.120151414813 177.863697843
675.625 0.138508625448 -158.134874571
676.25 0.121359556426 -129.080832074
676.875 0.124105921318 -126.454262479
677.5 0.131596084932 -134.262930069
678.125 0.145383743656 -124.743299554
678.75 0.0612562623725 -98.7522683819
679.375 0.0492730305154 -76.0162082631
680.0 0.0780499078466 -86.616714534
680.625 0.131719678918 -89.5937739649
681.25 0.0972619725398 -76.8115605392
681.875 0.0972012297662 -95.6781028699
682.5 0.14061370149 -127.860686735
683.125 0.167789569777 -127.891131705
683.75 0.151853108049 -112.215431369
684.375 0.107794894193 -80.0833961881
685.0 0.128338283686 -43.1304665103
685.625 0.135448138848 -7.44726463691
686.25 0.125111239146 12.6308503283
686.875 0.0724292242178 44.7816976465
687.5 0.073280807351 81.2492142714
688.125 0.0809921621666 101.516320726
688.75 0.103089490201 100.847879413
689.375 0.124747159698 123.424063273
690.0 0.135215627269 129.839958644
690.625 0.115188435769 121.820022218
691.25 0.145104341376 88.6157008247
691.875 0.187168154244 60.9018198811
692.5 0.152484792332 33.4140981608
693.125 0.0975706594275 -21.7854521963
693.75 0.0970380161049 -46.6739133964
694.375 0.145387820408 -42.7949734679
695.0 0.116241041074 15.2475710647
695.625 0.100361322442 51.2785114629
696.25 0.105346971851 108.347841966
696.875 0.139966824756 163.866151838
697.5 0.148810782569 -155.229957205
698.125 0.140456330027 -137.605617153
698.75 0.134676742239 -139.935373744
699.375 0.120520171954 -136.078335465
700.0 0.0875754696041 -108.772972763
700.625 0.108968461465 -91.1355464866
701.25 0.0961766818965 -70.1939709026
701.875 0.0856054477687 -75.3164405427
702.5 0.0975717873634 -78.830031205
703.125 0.162998009176 -129.207200817
703.75 0.194564410019 -163.943701919
704.375 0.134524742764 165.335548816
705.0 0.114909254648 148.089492026
705.625 0.134819581664 -165.174110094
706.25 0.144880906609 -112.989265891
706.875 0.0918295421529 -68.6827213328
707.5 0.0825959678148 -54.1304919936
708.125 0.0879826724078 26.1613324706
708.75 0.109843600985 61.0312392763
709.375 0.104532278223 103.443127441
710.0 0.0990406059926 119.247250889
710.625 0.105300951996 143.468149649
711.25 0.118747108851 168.446117021
711.875 0.14366415226 160.453552206
712.5 0.158937531897 131.120443706
713.125 0.120337063377 105.7409278
713.75 0.104367493414 43.4906440163
714.375 0.114801662556 4.10117590882
715.0 0.119146648456 12.3912329522
715.625 0.0873144044353 32.1085932372
716.25 0.0857566036036 80.3579023252
716.875 0.120896881788 101.966375701
717.5 0.140353921357 145.330504912
718.125 0.118240332443 152.721857667
718.75 0.103702942972 173.321180688
719.375 0.113356023811 -178.382996161
720.0 0.135309014808 -135.743450368
720.625 0.117652576405 -80.7253769309
721.25 0.100992641135 -22.7291194072
721.875 0.0895850816884 32.6211410718
722.5 0.0735499536421 70.651683509
723.125 0.0670205989253 42.0214956551
723.75 0.127196826253 46.458344711
724.375 0.104718521515 -11.0822627869
725.0 0.0855919325181 -54.9041589204
725.625 0.0965728455817 -72.5948172968
726.25 0.102869719179 -85.4185991065
726.875 0.106957963814 -47.0586017307
727.5 0.0869509329382 -35.0344436487
728.125 0.0837318612464 -4.2551538231
728.75 0.0657179796701 -9.93033357395
729.375 0.107796442443 26.5487171088
730.0 0.0674996873448 -7.50883566638
730.625 0.0565563753976 7.5196705763
731.25 0.0676019630283 55.2920689533
731.875 0.0536210674873 95.4613705041
732.5 0.083971720584 150.938014324
733.125 0.0981093286158 175.863420939
733.75 0.0778289315623 162.026692063
734.375 0.0685028608639 -177.13842635
735.0 0.0629087943755 142.565439976
735.625 0.0439994862583 156.559647121
736.25 0.0313581806856 122.815400355
736.875 0.0440897996266 172.506415528
737.5 0.0681821494775 172.54370625
738.125 0.0895418700948 175.811023292
738.75 0.0763552855036 175.93448268
739.375 0.0276640005729 160.519492865
740.0 0.0695081919841 -146.157421142
740.625 0.0660712290549 -154.930566736
741.25 0.0624501235222 -156.794130204
741.875 0.011778951018 -62.8017365933
742.5 0.0300816612067 -19.1400245503
743.125 0.0361944511144 42.6457419151
743.75 0.0457838703183 78.9894374091
744.375 0.0434443373395 171.771108465
745.0 0.0824039696546 97.6633642207
745.625 0.0727948700849 98.9711693125
746.25 0.0833288691065 80.9893612768
746.875 0.058038349432 50.3905899141
747.5 0.0511264884565 13.5637701425
748.125 0.0259578259526 -6.99453545787
748.75 0.0277616578313 -30.2356281793
749.375 0.0419174275696 -52.4814476714
750.0 0.043665202669 -52.8391805037
