!Created with skrf (http://scikit-rf.org).
# GHz S MA R 50.0 
!freq magS11 angS11
500.0 0.0156714099943 161.605470461
500.625 0.00923734351392 146.164323335
501.25 0.0132690580961 -167.539438052
501.875 0.00882654577301 -129.032589777
502.5 0.0227229396645 158.006905031
503.125 0.0140189194559 133.133015055
503.75 0.0189521814983 -35.2273289025
504.375 0.015584399447 142.935864715
505.0 0.0138304187721 -56.2143752416
505.625 0.0307978134054 -79.6118584094
506.25 0.0374981285783 -108.806027057
506.875 0.0521767868342 -118.382874869
507.5 0.0381190985089 -141.386505731
508.125 0.0440473145958 -97.7506138928
508.75 0.0821812475888 -112.31784025
509.375 0.0483853223053 -167.70810229
510.0 0.027872812536 -144.670355571
510.625 0.0290765317505 -168.679834988
511.25 0.0755295341256 -165.148757457
511.875 0.0482331397713 134.402266643
512.5 0.0370338128806 102.326275548
513.125 0.0512317181614 40.8344635076
513.75 0.0695954486859 53.9928393427
514.375 0.0419849438006 23.6087960383
515.0 0.0586663888449 14.6376651121
515.625 0.0814466342024 56.1573592271
516.25 0.107352758423 33.9844604936
516.875 0.106100346586 71.0858055027
517.5 0.105401658369 19.0449812451
518.125 0.189212622744 72.3034393965
518.75 0.0792311045847 6.21783028293
519.375 0.0659417269073 21.7288185272
520.0 0.0941344013652 -3.65906122023
520.625 0.101415467325 -3.17912958169
521.25 0.0856139658104 -20.333671988
521.875 0.064089640842 2.36409962843
522.5 0.0954868413737 -30.678735916
523.125 0.17260973788 -33.8960986185
523.75 0.22363709812 -51.9997893419
524.375 0.189472674433 -58.5942436658
525.0 0.0685860338918 -37.5200194603
525.625 0.0444950505616 -17.5429142089
526.25 0.0314385137012 -28.5537038054
526.875 0.0493158788391 -19.6495640634
527.5 0.0501937357751 -23.1734808912
528.125 0.046413045465 -50.625968829
528.75 0.0722105320189 -66.9747174514
529.375 0.0830948522313 -107.766582942
530.0 0.0399414267041 -132.321961622
530.625 0.0509726502179 -144.320533295
531.25 0.0922790338719 -126.115310479
531.875 0.164077195885 -143.585240806
532.5 0.127273869339 -169.83797116
533.125 0.107726921525 178.866947155
533.75 0.103536070463 170.442963858
534.375 0.105201273482 -177.273733332
535.0 0.0903686485273 167.750761678
535.625 0.0650899714066 -178.253358167
536.25 0.0402558829246 164.809720662
536.875 0.0687838147056 -152.713861235
537.5 0.0918549130412 -141.313703772
538.125 0.116750245155 -171.646912427
538.75 0.0812203826688 177.996042981
539.375 0.0709744769025 -157.451569626
540.0 0.0929458738197 -152.695730487
540.625 0.150548823753 -155.270341728
541.25 0.102614236252 -137.307714041
541.875 0.0894884202546 -137.092048727
542.5 0.108046349368 -138.107577212
543.125 0.152985159729 -165.264920886
543.75 0.108012637103 159.375438329
544.375 0.0908117716288 138.19603271
545.0 0.0917498177136 95.5088137933
545.625 0.0986691045362 88.9505753286
546.25 0.0987282243856 71.9505617877
546.875 0.0847099967871 59.0208841027
547.5 0.114291309037 61.2689968189
548.125 0.128054383588 81.8542087128
548.75 0.0671611338065 91.2517408132
549.375 0.0896070098056 92.1853649484
550.0 0.0919580771795 132.191711894
550.625 0.0510808626364 164.354272331
551.25 0.0468319003277 -141.128618028
551.875 0.0696756128488 -154.016875169
552.5 0.103998017171 -159.149143766
553.125 0.099964014721 -168.293891972
553.75 0.0819226663994 -161.343431739
554.375 0.111297642167 170.316610914
555.0 0.128540928518 166.398847137
555.625 0.0959474835966 161.932993637
556.25 0.10568060976 163.442148024
556.875 0.110552790801 170.168177876
557.5 0.104174187759 171.393344214
558.125 0.0860164674298 168.180209207
558.75 0.0873158961065 -179.274842473
559.375 0.0613006771907 -165.870206771
560.0 0.0438354353899 -140.359139415
560.625 0.0600736471495 -132.096946728
561.25 0.0930814106252 -148.269234623
561.875 0.103564332165 -158.070406588
562.5 0.0929153243448 177.772552182
563.125 0.108663342733 147.369451092
563.75 0.121373091861 137.117735459
564.375 0.0991792734976 125.344041336
565.0 0.0796697498294 121.547931995
565.625 0.081187277417 122.874674084
566.25 0.0933085162796 159.118244742
566.875 0.0720788501107 -175.124990396
567.5 0.0676809615309 -168.451375261
568.125 0.0762961700809 -163.827666531
568.75 0.0771936872535 -147.361133539
569.375 0.0443798399478 -89.5894300242
570.0 0.0634667734598 -99.8339411553
570.625 0.0933804116658 -111.423887406
571.25 0.0949368310202 -119.721894071
571.875 0.0859287593535 -116.828752527
572.5 0.111547010725 -149.261874092
573.125 0.1365606302 -168.677654978
573.75 0.10985493732 161.572003399
574.375 0.0768737468669 155.532156609
575.0 0.10648529899 160.906354742
575.625 0.107510700494 160.30002598
576.25 0.0897608357061 149.640513474
576.875 0.078552893547 134.713753435
577.5 0.0866738354375 139.333132104
578.125 0.056519059671 166.876839679
578.75 0.0507820043135 162.636355906
579.375 0.0539940947761 170.386014525
580.0 0.069281657707 -161.628462453
580.625 0.080640596966 -142.73698906
581.25 0.0910337355533 -166.723098619
581.875 0.112520770656 -164.460244665
582.5 0.114614430373 -167.548067901
583.125 0.0891868569731 -164.542380886
583.75 0.0839136920883 -168.92877797
584.375 0.0974398862463 -145.655277348
585.0 0.0927488547672 -138.845170194
585.625 0.0668629625303 -138.203019757
586.25 0.0731685609701 -144.542978227
586.875 0.0779286328978 -117.60357277
587.5 0.0708355202921 -132.172959257
588.125 0.0556975475173 -167.170738645
588.75 0.0691224217413 -171.188718697
589.375 0.087185920658 -137.864804965
590.0 0.0932259931255 -164.297704052
590.625 0.104688007495 164.897750247
591.25 0.122701722848 153.176397701
591.875 0.0972100301136 155.274851924
592.5 0.0603084735564 151.00271263
593.125 0.0620424891121 146.48195838
593.75 0.0784612192289 166.437335001
594.375 0.0538626338743 -133.186446515
595.0 0.0455682367235 -108.337256341
595.625 0.0586241983793 -103.365851337
596.25 0.0750283536153 -84.051559853
596.875 0.0659976005472 -75.8614867001
597.5 0.061151191877 -55.1733510227
598.125 0.0684561092374 -52.7777565967
598.75 0.073847707867 -68.105415895
599.375 0.100406655627 -51.985627857
600.0 0.107025239253 -59.1268304088
600.625 0.0969681307677 -56.1140522055
601.25 0.0833145917884 -80.0999687784
601.875 0.0681004003098 -73.2001740252
602.5 0.0607599295907 -77.3225564408
603.125 0.0419395574175 -66.8332441736
603.75 0.0313173165172 -25.2822628217
604.375 0.0326833816709 -33.5355982121
605.0 0.0724077404124 -1.52009766953
605.625 0.0540682449851 8.08184811045
606.25 0.0334864516793 36.0997067102
606.875 0.0193193655719 47.1015759887
607.5 0.0810782800845 55.9866875822
608.125 0.0840730549748 36.6757093222
608.75 0.0642898034973 25.6253399591
609.375 0.0527811732499 24.2894174879
610.0 0.0807181679027 51.3255878987
610.625 0.0721561578116 46.9308682918
611.25 0.057668484732 48.7423337048
611.875 0.0275765573053 17.6806499267
612.5 0.0409492381062 117.183884243
613.125 0.0283891711139 134.840219204
613.75 0.0364799624134 127.138414401
614.375 0.0491737959605 125.921133646
615.0 0.02299127673 112.866506735
615.625 0.0360976531364 138.339690777
616.25 0.0621858895983 138.235202574
616.875 0.0518375493851 130.950144518
617.5 0.0340374481927 127.723096618
618.125 0.0273462518203 136.970471606
618.75 0.0276417365359 147.440291771
619.375 0.0230634949617 149.270326265
620.0 0.0154042802505 -177.948183117
620.625 0.0178627479215 -119.652862962
621.25 0.0544934648623 -106.689466068
621.875 0.0618251952418 -107.925303329
622.5 0.0769880867357 -163.382451665
623.125 0.0777888598581 169.308671095
623.75 0.0564734184378 163.873218145
624.375 0.0454843940057 -177.227694289
625.0 0.0269142507436 -119.889404078
625.625 0.0521557321711 -152.542119103
626.25 0.0333387604244 -178.231588068
626.875 0.00834926281479 -135.342917639
627.5 0.052261793886 -6.40501098058
628.125 0.0413696067462 -58.2588963335
628.75 0.0329752812715 -24.0972548447
629.375 0.047841456553 -19.0012482557
630.0 0.0753232562228 7.12331501509
630.625 0.0772758452716 -12.9498130579
631.25 0.0642310087922 -6.15174120128
631.875 0.0707664041385 -14.1794832628
632.5 0.0672548987084 18.1528469506
633.125 0.0572114937554 -14.9820063195
633.75 0.0381701019724 9.53297297149
634.375 0.0488950599732 30.1369643551
635.0 0.0334101548913 25.6144006194
635.625 0.0499058160227 54.6317739183
636.25 0.0475157170693 28.3202189145
636.875 0.0568021730848 28.9664263103
637.5 0.0442313989347 33.464372732
638.125 0.0571503145756 74.7635225799
638.75 0.055573676306 60.2869325871
639.375 0.089721575052 95.0992108401
640.0 0.0734206152028 106.859174581
640.625 0.0598799045861 112.763907944
641.25 0.0741991225789 131.776171552
641.875 0.0593162402994 151.452920813
642.5 0.0492847428401 157.622817426
643.125 0.0719949550922 167.462031762
643.75 0.0504372018046 155.701975321
644.375 0.0666653505775 -171.10926644
645.0 0.0711797446401 175.818852467
645.625 0.0992405997951 172.980638779
646.25 0.0826721048041 159.246367036
646.875 0.0655306833587 -177.079513229
647.5 0.0721582674789 -168.759325137
648.125 0.0849353317684 -170.400850618
648.75 0.0832105131905 -153.255801998
649.375 0.0448817066024 -146.765283531
650.0 0.0496261344076 -110.150261628
650.625 0.0632842352956 -80.9106114106
651.25 0.0811058854056 -59.9040120902
651.875 0.0563898538695 -41.3571769159
652.5 0.0811826528485 -18.8674976784
653.125 0.106808631288 -0.403727533103
653.75 0.119681461221 9.64889760673
654.375 0.109645528322 8.8881046884
655.0 0.117491267511 16.7161776056
655.625 0.0882348070873 32.0646587879
656.25 0.0674666855808 29.0750505375
656.875 0.0596276958318 7.13753536565
657.5 0.0640981878643 26.5514994777
658.125 0.0600599126346 49.2452079164
658.75 0.0704280526424 64.1878537116
659.375 0.0640193119018 49.6733895937
660.0 0.117000395444 30.3956200168
660.625 0.116031475623 21.2470618225
661.25 0.114539422705 7.69496684822
661.875 0.130907263405 -8.63557986836
662.5 0.118450325831 -15.9366921908
663.125 0.0979410536109 -11.8465183788
663.75 0.11372046045 8.69049040873
664.375 0.0694187021637 52.350326874
665.0 0.0624601993268 100.499243941
665.625 0.0628924008586 117.997256848
666.25 0.0822099430757 136.823268131
666.875 0.1135021611 174.588892354
667.5 0.100918949504 -164.892687629
668.125 0.103371255461 -175.231108812
668.75 0.140230217534 170.248560581
669.375 0.112660106674 -177.525951638
670.0 0.0783522816068 -165.183891106
670.625 0.0889973954004 -167.000387304
671.25 0.126483240193 177.36310278
671.875 0.0779879961924 173.018348416
672.5 0.072708756992 162.654404727
673.125 0.0821679414006 160.618994422
673.75 0.119459615751 161.960671649
674.375 0.114497945158 173.435433573
675.0 0.122902514146 -172.283551224
675.625 0.127086330741 -145.108811842
676.25 0.118368269833 -120.576043824
676.875 0.110220925189 -117.061534557
677.5 0.126345957579 -124.070211691
678.125 0.119911925126 -110.564602843
678.75 0.0777131535002 -89.9349275792
679.375 0.0383939918915 -56.5347966759
680.0 0.0735869828113 -66.7598432401
680.625 0.113251368961 -67.6153811471
681.25 0.108275693534 -69.9165081185
681.875 0.0991018778684 -88.1883868531
682.5 0.136886349755 -115.401909271
683.125 0.15438131048 -114.286871626
683.75 0.135467083796 -100.648269175
684.375 0.126310733299 -79.439144643
685.0 0.115951908025 -32.7147372306
685.625 0.115903318725 4.74016827916
686.25 0.0952178903179 24.2469608795
686.875 0.100653994019 46.5286446201
687.5 0.0605496862885 102.801878208
688.125 0.0801583569893 121.45503496
688.75 0.0965303473616 119.157383101
689.375 0.155988003679 118.923786637
690.0 0.1289480342 137.624599245
690.625 0.121271725342 129.911287877
691.25 0.143211525614 99.8001962497
691.875 0.187726988575 74.4372801901
692.5 0.145359103854 43.1629554282
693.125 0.0783249663179 -8.05368525783
693.75 0.0886968860619 -26.0357103782
694.375 0.12626932277 -20.2851630537
695.0 0.137474780605 11.0450414372
695.625 0.0999230261334 60.2948915507
696.25 0.118285123622 116.174686609
696.875 0.144226732594 174.984972543
697.5 0.144605974882 -140.362606168
698.125 0.144885258767 -132.616787691
698.75 0.13046813542 -127.355189034
699.375 0.0972039634188 -118.334070569
700.0 0.101982831936 -115.531454625
700.625 0.0968440602935 -70.4868192337
701.25 0.0965789236902 -58.4451184225
701.875 0.0787070276304 -55.6777597044
702.5 0.101049973107 -84.4208448544
703.125 0.177928183848 -118.980149302
703.75 0.177960504089 -146.934520328
704.375 0.124476085188 176.628844839
705.0 0.108643675604 165.811980652
705.625 0.152876928569 -174.412724196
706.25 0.121443525573 -93.8602150307
706.875 0.0846531892163 -54.0655890904
707.5 0.0728091180024 -33.1478849033
708.125 0.0971874816771 15.8859535726
708.75 0.115024481321 78.8483907258
709.375 0.107868001997 111.813865848
710.0 0.105155895029 130.785411291
710.625 0.108679096316 160.014590396
711.25 0.120204802403 179.844498984
711.875 0.145025395745 177.463585635
712.5 0.139934786579 150.564379307
713.125 0.130208126929 96.4684885614
713.75 0.0972645701459 53.9313707588
714.375 0.109210934565 31.5129900293
715.0 0.115094509021 33.303155116
715.625 0.0857148509905 58.1364645932
716.25 0.0754510181379 69.1950195392
716.875 0.136061188861 123.558204681
717.5 0.146474495614 154.923716437
718.125 0.115774388546 165.151348315
718.75 0.101059150932 171.631171814
719.375 0.114078139785 -174.538855261
720.0 0.13305296936 -114.076480371
720.625 0.112895648242 -65.4636751011
721.25 0.093729317251 -20.6710856289
721.875 0.0837967480342 60.7307808786
722.5 0.0772674673564 86.1275986675
723.125 0.0874645597968 90.7597330294
723.75 0.100054023481 41.9580858566
724.375 0.105355026056 -3.68983672872
725.0 0.0953940587328 -35.4811122567
725.625 0.111481628556 -56.7864032757
726.25 0.115089965658 -55.076652682
726.875 0.094263353444 -61.3967622383
727.5 0.0894358963692 -10.3245506907
728.125 0.0897499979034 10.8210450086
728.75 0.0752191651322 23.9762466737
729.375 0.073923335463 17.1292602228
730.0 0.0636440863453 -0.334574754428
730.625 0.079243733852 34.2137305337
731.25 0.0853910128875 75.1826375249
731.875 0.0722093520771 117.98428687
732.5 0.0539851679018 143.380980825
733.125 0.113643664139 -166.062400965
733.75 0.0898721916043 -173.911756787
734.375 0.0600768894995 167.600435378
735.0 0.0572142759423 160.901729821
735.625 0.0498679802684 150.498541115
736.25 0.0442661698891 150.681649532
736.875 0.0577842215015 172.057247724
737.5 0.0582342477447 -176.461729158
738.125 0.107195282354 -165.927205323
738.75 0.0899701377514 -168.266977803
739.375 0.0482431362212 -164.398278626
740.0 0.0111034581578 -81.8937663297
740.625 0.0898536342633 -142.053717838
741.25 0.0556670934007 -152.631347307
741.875 0.0272414115911 -91.6930391843
742.5 0.0378009395848 -11.4115255816
743.125 0.0506567743562 60.5573801818
743.75 0.041318469692 96.3456209355
744.375 0.0513876346375 115.713505023
745.0 0.0565320034643 178.374476805
745.625 0.0981679348984 100.556951258
746.25 0.076545234366 83.9984994473
746.875 0.0595225455996 45.4321022357
747.5 0.0417453356503 12.7048001601
748.125 0.0109083344879 52.8017430116
748.75 0.0465239225253 -21.4336021688
749.375 0.0338015833603 -36.1975164789
750.0 0.0426848574321 -92.5732969427
