!Created with skrf (http://scikit-rf.org).
# GHz S RI R (50+0j) 
!freq	ReS11	ImS11	
500.0	0.4194439359	-1.23945085	
500.625	0.01094317481	-0.3934334033	
501.25	0.04877030942	-1.145235331	
501.875	-0.3644654441	-0.3000111952	
502.5	0.02630057913	-0.08373781776	
503.125	-0.08982144599	-0.008681460602	
503.75	0.03454973801	0.03466247399	
504.375	0.02530217808	0.01821673225	
505.0	0.007312940345	-0.04338087598	
505.625	0.02572997239	-0.005171385297	
506.25	-0.1480296034	-0.1109080374	
506.875	0.07074831971	0.07247561995	
507.5	0.1680229493	-0.5787103924	
508.125	0.0822950414	-0.5242860424	
508.75	0.656378562	-0.1633082798	
509.375	0.7668091037	-1.287412852	
510.0	-0.4063835658	-0.086479649	
510.625	0.08088977798	-0.1056155315	
511.25	-0.1101424719	-0.1326108281	
511.875	-0.03336168952	-0.02807568705	
512.5	-0.05702077998	0.02498850001	
513.125	-0.02538866355	-0.0843861802	
513.75	0.002206059252	-0.01346256222	
514.375	-0.06053830567	-0.09052950803	
515.0	-0.06381103428	0.2010231615	
515.625	-0.1936990032	-0.67994247	
516.25	-0.1818761799	-0.3761584361	
516.875	0.1930957737	-0.1612804772	
517.5	0.1012317951	-0.2561183626	
518.125	0.02245537594	-0.02656038064	
518.75	0.1014811944	-0.19165228	
519.375	-0.06548639326	0.03381486266	
520.0	0.04108312916	0.04148322692	
520.625	0.1234108529	0.01181399466	
521.25	0.01772693429	-0.3151735853	
521.875	-0.05036979465	0.01285529978	
522.5	-0.07244572689	-0.06414621185	
523.125	0.02074591661	0.121950929	
523.75	-0.0205535169	-0.1604142088	
524.375	-0.2626619185	0.05753680156	
525.0	0.03936443017	0.04013151439	
525.625	-0.05694383681	0.06359758228	
526.25	0.07833949659	-0.02117209155	
526.875	-0.1278477333	0.01277347738	
527.5	-0.05593795326	0.1983663604	
528.125	-0.07735697528	0.2692355597	
528.75	-0.1237293387	0.2037290916	
529.375	0.1054978156	0.05721586742	
530.0	-0.09563080189	0.03707426777	
530.625	0.07467441437	0.4629936437	
531.25	0.1072776488	0.141400137	
531.875	0.3338877945	0.07135361811	
532.5	-0.1199831345	-0.1690367346	
533.125	0.1558116283	0.1042848884	
533.75	0.06285745239	-0.2162759008	
534.375	0.05115028815	-0.1331291577	
535.0	-0.1692135567	-0.2571996427	
535.625	-0.1540925924	0.08612533107	
536.25	-0.04957558513	0.03682301053	
536.875	0.08258056969	0.08275733014	
537.5	0.05408081862	-0.01625772738	
538.125	0.1023237753	0.06293485784	
538.75	0.1820162245	-0.09440421697	
539.375	0.001885893258	-0.1155469971	
540.0	-0.004244521143	-0.2117519373	
540.625	-0.1779317685	-0.0829363855	
541.25	-0.01137617476	0.008461824631	
541.875	-0.02684721047	-0.09290133218	
542.5	-0.09685156575	0.009652748444	
543.125	-0.001641361	-0.104320182	
543.75	-0.1263685844	0.004727689974	
544.375	2.645816091e-05	-0.007040160404	
545.0	-0.05462255768	0.08000028561	
545.625	0.07282118906	0.03211062876	
546.25	0.0009270156841	0.08963747181	
546.875	0.1515648187	0.001534128161	
547.5	0.05153047406	-0.04756897536	
548.125	0.08588092987	-0.1426756751	
548.75	-0.09705382124	-0.1551634978	
549.375	-0.04168068589	-0.05505858781	
550.0	-0.07125202053	-0.06780780616	
550.625	-0.06449721189	0.01980119463	
551.25	-0.04639381293	-0.03828110533	
551.875	-0.103258324	0.04850165022	
552.5	-0.03843517958	0.03217133478	
553.125	-0.05620174807	0.0457476531	
553.75	0.02345735696	0.0433845467	
554.375	0.06781843012	0.04435466974	
555.0	0.1110726679	-0.01995331077	
555.625	0.1037835217	-0.04902641387	
556.25	0.116650817	-0.07262850294	
556.875	0.05133217742	-0.1401971983	
557.5	-0.02919696872	-0.1268459333	
558.125	-0.06707591576	-0.08371164459	
558.75	-0.07992058806	-0.05782067904	
559.375	-0.09878015414	-0.02982678615	
560.0	-0.09726355459	0.01149367537	
560.625	-0.1043176231	0.05878216631	
561.25	-0.02074442938	0.0922243868	
561.875	-0.01339573436	0.03029290365	
562.5	0.003435700694	0.06987739764	
563.125	0.01786784364	0.04891388865	
563.75	0.1295313233	0.08544709912	
564.375	0.1418533133	-0.07035696992	
565.0	0.0915390937	-0.04438421273	
565.625	0.08706701002	-0.2004614376	
566.25	-0.07892049203	-0.0845968168	
566.875	-0.02950220206	-0.1343859912	
567.5	-0.1046228651	-0.1846253663	
568.125	-0.02580393731	-0.08560586813	
568.75	-0.09972162347	-0.223236622	
569.375	-0.2478946656	0.01464902549	
570.0	-0.1179738418	0.06571147687	
570.625	-0.2131674382	0.06670622241	
571.25	0.01277289556	0.1407656566	
571.875	-0.0575801422	0.05942316816	
572.5	0.1679241989	0.06353993448	
573.125	0.03377961596	-0.04768902585	
573.75	0.128690808	-0.0003359454333	
574.375	0.03360685294	-0.1266281541	
575.0	-0.0007167502556	0.05013482305	
575.625	0.1553842149	-0.08804256749	
576.25	0.00428415425	-0.07568455316	
576.875	0.1236444435	-0.03904812208	
577.5	0.08083312235	-0.1974711898	
578.125	-0.06739978393	-0.06461604372	
578.75	0.1005298168	-0.1067881589	
579.375	-0.08487487635	-0.1607291399	
580.0	-0.01013150975	0.06565369653	
580.625	-0.107188328	-0.1566958391	
581.25	-0.06718118099	0.09850809971	
581.875	-0.06764780449	0.03578840949	
582.5	-0.08789870087	0.198700645	
583.125	0.1222100391	0.07351747683	
583.75	-0.06826663443	0.01735374611	
584.375	0.08497967618	0.08564415248	
585.0	-0.003374836989	0.03063009166	
585.625	0.1526780842	0.1385593674	
586.25	0.1659494458	-0.05809951826	
586.875	0.06976518028	-0.006644770008	
587.5	0.1185911111	-0.1500796986	
588.125	-0.05458415801	-0.1350473768	
588.75	0.1162847842	-0.01044284049	
589.375	0.1605797633	-0.1553168908	
590.0	-0.0373014806	-0.08911505042	
590.625	-0.06394626648	-0.1759096629	
591.25	-0.2127501358	0.1217663951	
591.875	0.007707664084	0.01837891081	
592.5	-0.09845040942	0.03443309865	
593.125	0.02929165706	0.02634000736	
593.75	-0.09171281954	0.1058991039	
594.375	0.144090544	0.184393196	
595.0	0.056106478	0.07664433614	
595.625	0.01554202712	0.1889222544	
596.25	0.1502980287	0.100749731	
596.875	0.03325520171	0.06340818806	
597.5	0.05872452592	0.2061231911	
598.125	0.1206696995	0.1195782356	
598.75	0.04495629536	0.1103069436	
599.375	0.2322462133	0.09942669394	
600.0	0.1479733199	-0.131448195	
600.625	0.1492508638	0.02551616228	
601.25	0.2000877893	-0.1468115428	
601.875	-0.07600913604	-0.1267555647	
602.5	-0.004054158282	-0.09203938989	
603.125	-0.1907189185	0.01767166488	
603.75	-0.02927299635	-0.05867017766	
604.375	-0.1617318187	-0.02915124578	
605.0	-0.1324020438	0.09639978972	
605.625	-0.009942432399	-0.02198149772	
606.25	-0.1186647246	0.02800641598	
606.875	-0.1428157439	0.04633674623	
607.5	-0.1648269085	-0.03355272545	
608.125	-0.2016908586	0.2250769285	
608.75	0.1117513449	0.2196096339	
609.375	0.1254085566	0.0974112875	
610.0	0.265570984	-0.04584711374	
610.625	0.04978293324	-0.1292008233	
611.25	0.1552935824	-0.02152440962	
611.875	-0.1074217232	-0.2020873069	
612.5	-0.03861744991	-0.03176564289	
613.125	-0.1756548291	-0.1613130806	
613.75	-0.1362852958	0.1816827523	
614.375	-0.08056898445	0.0657721398	
615.0	0.007450260332	0.1291524766	
615.625	0.04120686089	0.01707973072	
616.25	-0.1639462907	0.03103440769	
616.875	-0.1652312183	-0.007109526689	
617.5	-0.02538339231	0.1100998866	
618.125	-0.1570230047	0.1118700588	
618.75	-0.04797133523	0.2449840656	
619.375	0.1301641624	0.1119867713	
620.0	0.09743201218	0.2116648952	
620.625	0.1546675251	-0.1668217743	
621.25	-0.01639837134	-0.08692338317	
621.875	-0.119360208	-0.2285394545	
622.5	-0.2403615245	0.0446594554	
623.125	-0.04587752504	0.06374937765	
623.75	0.07494396353	0.1675065119	
624.375	0.0546402516	-0.08769850716	
625.0	0.05221255492	0.05877065669	
625.625	0.08048819503	-0.1305777816	
626.25	0.001613398377	-0.05790252472	
626.875	-0.05790963748	-0.08954473482	
627.5	-0.1236750065	-0.1125957838	
628.125	-0.01592984579	-0.03554837918	
628.75	0.04913412018	-0.1543523634	
629.375	-0.03173578588	-0.234943139	
630.0	-0.03071678176	-0.1384451338	
630.625	-0.2461078291	-0.1028115844	
631.25	-0.173935302	0.1483146411	
631.875	-0.05436940499	0.0520253385	
632.5	-0.01437825757	0.3111451678	
633.125	0.1752246725	0.05717393421	
633.75	0.0968253724	0.04647582702	
634.375	0.1720216884	-0.112523258	
635.0	-0.04571767437	-0.1205510352	
635.625	0.007820994981	-0.1619883534	
636.25	-0.2179524905	0.02686124483	
636.875	-0.03246260446	0.07844211082	
637.5	-0.1083584352	-0.007641804809	
638.125	-0.05595934453	0.1208930892	
638.75	-0.1185535004	0.0007006698784	
639.375	-0.1694431684	0.2259405962	
640.0	0.07352223203	0.2793884894	
640.625	0.05695578901	0.1491076236	
641.25	0.2893165055	0.185257735	
641.875	0.204901936	-0.201679464	
642.5	0.01381880619	0.04146119898	
643.125	-0.007893239404	-0.3079021334	
643.75	-0.101037741	0.03013854013	
644.375	-0.06452661796	-0.1950959871	
645.0	-0.272515712	0.219202819	
645.625	0.04529518574	0.1103994142	
646.25	-0.02504445201	0.196417587	
646.875	0.2325319863	0.02779161613	
647.5	-0.109462171	0.01664316354	
648.125	0.1811414336	0.1971253575	
648.75	0.1919770269	-0.03788002653	
649.375	0.2294423517	0.07878937125	
650.0	0.3837996148	-0.2366561047	
650.625	0.09019750403	-0.2276901935	
651.25	0.2407818892	0.01725191761	
651.875	0.370983754	-0.1108336861	
652.5	0.1612462869	-0.1122555843	
653.125	0.1982918272	0.2407464109	
653.75	0.2960145146	-0.2880669042	
654.375	-0.08147652172	-0.1536815528	
655.0	-0.07064721854	-0.3111346532	
655.625	-0.3016514814	0.2871306588	
656.25	0.06007325951	0.01113398824	
656.875	-0.09520270418	0.1415219269	
657.5	0.1187575662	0.06185061754	
658.125	-0.1697232942	0.1454918777	
658.75	0.2744821872	0.3124858931	
659.375	0.2629427146	-0.02987406329	
660.0	0.2552198703	-8.44241069e-05	
660.625	0.3976621187	-0.1908114779	
661.25	0.1395498219	-0.2373622101	
661.875	0.2730456631	0.02472656606	
662.5	0.3751786212	-0.1020550493	
663.125	0.2166211467	-0.1219237359	
663.75	0.2375647264	-0.0577994414	
664.375	0.05939083406	-0.3884607792	
665.0	-0.1573327452	-0.1498796383	
665.625	-0.2492278442	-0.142549582	
666.25	-0.2073756746	0.2713149789	
666.875	0.08426209432	0.08880183309	
667.5	0.04600564454	0.2391904418	
668.125	0.2407655871	-0.007851479984	
668.75	0.122735905	0.002592741074	
669.375	0.2789265079	-0.09315976316	
670.0	0.02847363971	-0.2419551209	
670.625	0.144592742	-0.04524512291	
671.25	0.1914599521	-0.1447741116	
671.875	0.1273858862	-0.1379595643	
672.5	0.1481099289	0.07152861159	
673.125	0.3447432134	-0.1166193964	
673.75	0.1249112443	-0.1434025107	
674.375	0.1706778987	-0.1112711341	
675.0	0.01697125071	-0.3203505982	
675.625	-0.186533216	-0.0425603996	
676.25	-0.07028339403	-0.1577535837	
676.875	-0.2458246657	-0.02134513271	
677.5	-0.02985110488	0.03509797624	
678.125	-0.3326665351	-0.1297478153	
678.75	0.06100864811	0.3367327517	
679.375	0.06165610761	0.04312697032	
680.0	0.1887725328	0.1432333646	
680.625	0.06169951478	-0.2257595292	
681.25	-0.08992482421	0.09362556817	
681.875	0.205160225	0.206917402	
682.5	0.1086675696	0.05213329527	
683.125	-0.003774998397	0.1882579554	
683.75	0.3000909414	0.2169543541	
684.375	0.1381017985	-0.005516965981	
685.0	0.1180062221	0.2718457391	
685.625	0.3851204702	0.05296018789	
686.25	0.1653480457	-0.06149057992	
686.875	0.3317251216	0.1145096228	
687.5	0.2944061138	-0.3922915653	
688.125	0.04196099547	-0.2021661128	
688.75	-0.1506746181	-0.4870092092	
689.375	-0.4500478441	0.3253655751	
690.0	-0.003539013886	0.1424314967	
690.625	-0.0192775885	0.5090469906	
691.25	0.2421376295	0.1657211443	
691.875	-0.02808104322	0.4069155806	
692.5	0.3145610476	0.6585899911	
693.125	0.5295497985	0.1709147698	
693.75	0.4108814406	0.2217794822	
694.375	0.3920965157	-0.1958091183	
695.0	0.448866298	-0.1635888952	
695.625	0.2447737366	0.1576611684	
696.25	0.5201532354	0.325606801	
696.875	0.3420015893	0.2436952725	
697.5	0.144106375	0.3041586395	
698.125	0.5564513707	0.4183296739	
698.75	0.2907442351	-0.3672187071	
699.375	0.03363240664	-0.3627954342	
700.0	-0.4990644229	0.2539971231	
700.625	0.1015243083	0.2280001093	
701.25	-0.09944258125	0.2524792476	
701.875	0.2134190394	0.3226291602	
702.5	0.0662225442	0.1896587125	
703.125	0.08260908185	0.404038243	
703.75	0.4189327984	0.1479036439	
704.375	0.1771345841	-0.06376895851	
705.0	0.1500484586	-0.1229715816	
705.625	0.240072667	0.09414467291	
706.25	0.07370018117	0.1218148239	
706.875	0.1006001155	0.3779448302	
707.5	0.2922746974	0.4354785689	
708.125	0.2307475754	0.1222853734	
708.75	0.416111872	-0.2433483424	
709.375	-0.2952568625	-0.3048531593	
710.0	-0.04813922143	0.07426535842	
710.625	-0.1009748041	0.2773211931	
711.25	0.08452774936	-0.002288679651	
711.875	-0.0005191409464	0.242140753	
712.5	0.2967220464	0.1467319761	
713.125	0.2163678306	-0.01502672959	
713.75	0.2589544388	0.04326818987	
714.375	0.16532662	-0.2416392533	
715.0	0.01758384663	-0.1103344904	
715.625	0.1245923831	-0.1061379337	
716.25	0.2461224985	-0.1703319376	
716.875	0.163039279	-0.009134772755	
717.5	0.4166345714	0.2024919469	
718.125	0.7380489098	0.1620654828	
718.75	0.3267032393	-0.01439142685	
719.375	1.004672848	-0.1632314327	
720.0	0.2849093336	-0.8520916511	
720.625	0.3882319144	-0.3264498311	
721.25	0.5398396629	-1.068474799	
721.875	-0.152471834	-0.7433905936	
722.5	0.3242275651	-0.6302644481	
723.125	-0.50596362	-0.8153242657	
723.75	-0.4721567358	0.1180051096	
724.375	-0.2685537444	0.1112311327	
725.0	-0.133629564	0.5046138445	
725.625	0.0560155626	0.2637076714	
726.25	-0.3801268176	0.3286486089	
726.875	-0.4641559315	0.8277533526	
727.5	-0.143711646	0.8565473462	
728.125	-0.7013664512	1.10213567	
728.75	-0.8052709902	2.515700302	
729.375	0.4535513702	2.401580904	
730.0	-1.402250344	2.452611247	
730.625	-0.06822680697	4.957470788	
731.25	0.2286964957	1.660285557	
731.875	-3.668203981	0.3987651654	
732.5	-4.145500071	0.4184770911	
733.125	-1.146544766	-0.2612873728	
733.75	-1.671471591	-0.314811674	
734.375	0.4745671296	0.9652249562	
735.0	0.2183064668	-0.2052388803	
735.625	-0.2388427652	-0.4646737099	
736.25	-0.314833227	0.5686827722	
736.875	-0.1608313116	0.2419514043	
737.5	0.4927365733	1.024212344	
738.125	1.36354435	0.120958292	
738.75	0.6818071579	-0.2171888035	
739.375	2.633977909	0.5497909132	
740.0	2.589633505	-3.009715346	
740.625	-0.1844826909	0.6236723068	
741.25	-0.7152249916	4.531488743	
741.875	-0.5458525887	4.137950548	
742.5	1.580876435	-2.102180381	
743.125	0.5346338515	-2.091064776	
743.75	-0.2710700581	-0.6636612813	
744.375	0.2945982467	-0.4313236989	
745.0	-0.04859636805	0.3238306387	
745.625	-0.04880219666	0.02321815792	
746.25	0.1075244097	-0.1401834401	
746.875	-0.1508899795	-0.05111991023	
747.5	-0.2253714745	0.04328277155	
748.125	-0.2026035025	0.4477709389	
748.75	0.1498646698	0.361846974	
749.375	-0.03214386377	0.3002100741	
750.0	-0.3900406074	0.1977731661	
