!Created with skrf (http://scikit-rf.org).
# GHz S MA R 50.0 
!freq magS11 angS11
500.0 0.018778454727 -169.191262952
500.625 0.0123653839244 39.3829400239
501.25 0.0177536222339 -173.364918274
501.875 0.0329338535582 179.925677468
502.5 0.0278377230531 159.830785973
503.125 0.0120573228893 47.0735490095
503.75 0.00553787650355 17.2188013107
504.375 0.0156865209775 -56.0632736228
505.0 0.0151846750369 -55.6506924799
505.625 0.0405286015054 -79.2145906196
506.25 0.0239091884091 -134.910109365
506.875 0.059018034905 -102.229108226
507.5 0.0557860257886 -110.462236818
508.125 0.0444937917699 -106.664050765
508.75 0.0560939282051 -132.352913303
509.375 0.0560033683077 -147.465109416
510.0 0.0556111967971 -107.034764636
510.625 0.0410536475648 -158.891326016
511.25 0.0618765814403 -175.737678931
511.875 0.0493092200434 148.712208418
512.5 0.0388492563665 104.407599876
513.125 0.0616274026159 55.922749431
513.75 0.0534913225991 34.0708309548
514.375 0.0378594273579 16.4782101075
515.0 0.0739602341484 11.4143941802
515.625 0.0585339923416 37.2504038473
516.25 0.082929231445 27.0298749293
516.875 0.100744338353 64.4463493607
517.5 0.135316770832 23.2215798994
518.125 0.167368321194 56.7901642443
518.75 0.0805988554121 10.7609819453
519.375 0.0698905272054 22.4916093393
520.0 0.107780293127 -0.786547110793
520.625 0.0881096059318 -13.3515748866
521.25 0.0773696448502 -28.079077975
521.875 0.0615072697405 -3.94924607518
522.5 0.11315968192 -30.7786744261
523.125 0.161131368605 -45.5757843325
523.75 0.204100961063 -59.4590313648
524.375 0.213022625087 -56.4682439709
525.0 0.0798798430178 -34.4947822155
525.625 0.0358241063706 -32.0773679866
526.25 0.0477584278686 -4.58490685416
526.875 0.0545469413129 -17.4728978122
527.5 0.0568004473297 -23.0881959814
528.125 0.0394621930776 -56.2845303735
528.75 0.0523828608548 -73.326159981
529.375 0.0884854660615 -106.668427199
530.0 0.0430406309718 -133.211580063
530.625 0.0372916718593 -136.396843281
531.25 0.117421150955 -138.324644969
531.875 0.177447045356 -145.634566389
532.5 0.145763337794 -169.787990547
533.125 0.0986343628829 174.356633181
533.75 0.116600884979 170.569409249
534.375 0.113131530691 -179.165595267
535.0 0.0980916432836 164.671809777
535.625 0.0530384908625 175.194083315
536.25 0.065411618773 166.418099752
536.875 0.0896331173702 -160.350060389
537.5 0.0908602078745 -143.402701906
538.125 0.101263524642 -171.631975325
538.75 0.110477656284 -177.715586818
539.375 0.0803873068142 -160.131540836
540.0 0.103911742315 -155.949026359
540.625 0.132937635768 -155.364833391
541.25 0.125113491316 -141.326435937
541.875 0.105996039795 -144.244092509
542.5 0.100128404223 -138.517865263
543.125 0.140561187739 -165.764042977
543.75 0.138196863316 161.227282358
544.375 0.0958416742039 137.47220494
545.0 0.0991855083364 91.4891213885
545.625 0.0830330689776 83.8710393817
546.25 0.0854123379231 68.5251427253
546.875 0.0798529062561 55.6092345034
547.5 0.122849318674 58.6733756953
548.125 0.116883889091 79.1427432303
548.75 0.0955628869133 91.4113085382
549.375 0.0976240930667 88.6786369684
550.0 0.100012269308 127.179848625
550.625 0.0382462557478 160.948323351
551.25 0.0358705902287 -129.791081457
551.875 0.0689842230031 -159.694579346
552.5 0.119115422617 -165.771601086
553.125 0.09281031094 -166.786195667
553.75 0.0936480727083 -170.711709633
554.375 0.111261581028 167.584722022
555.0 0.134968236637 163.10754668
555.625 0.0839169895428 162.510906032
556.25 0.0978066030935 164.805530196
556.875 0.112348660946 166.018768501
557.5 0.120082163111 166.731510726
558.125 0.0929716843515 165.258730575
558.75 0.075455549191 -178.963389851
559.375 0.0663202164529 -170.08937813
560.0 0.049975227429 -149.172284087
560.625 0.0520222793662 -125.092209822
561.25 0.0857268672674 -143.995951941
561.875 0.101932442262 -160.293882053
562.5 0.0994585586304 170.399399196
563.125 0.0993865334168 147.665447806
563.75 0.128072644517 133.200116559
564.375 0.104626570358 122.146463157
565.0 0.0912135596007 120.022517279
565.625 0.070489385612 124.571635921
566.25 0.0854256308327 159.278991257
566.875 0.068203897048 -177.414242014
567.5 0.0783167182447 179.346699169
568.125 0.0711218788322 -165.691774155
568.75 0.0709646329648 -145.595410796
569.375 0.0525951088453 -115.042820488
570.0 0.0628998704274 -112.339257407
570.625 0.0835491339526 -104.540997781
571.25 0.0888062495668 -115.710591142
571.875 0.087493008475 -127.040553527
572.5 0.115921474751 -159.641581655
573.125 0.129527464017 -169.900019879
573.75 0.104586412861 162.058327599
574.375 0.0785933285108 151.918686802
575.0 0.113537561409 147.746848727
575.625 0.0971380896245 164.57646098
576.25 0.0829584759202 150.684750749
576.875 0.0807520556048 129.539907739
577.5 0.0915892966534 130.607956738
578.125 0.0518321782548 171.096082159
578.75 0.0461244287609 169.50064494
579.375 0.0517155274042 169.483675034
580.0 0.0705442217112 177.292220104
580.625 0.077984116363 -143.682107881
581.25 0.0913626415093 -161.597867593
581.875 0.117828966752 -179.883768377
582.5 0.11888438236 -176.476985672
583.125 0.0967625497463 -172.166921128
583.75 0.0818673597762 -165.520556372
584.375 0.104361020998 -158.22496355
585.0 0.0935378895249 -141.083622935
585.625 0.0742396045336 -148.204485244
586.25 0.0703165711311 -139.225961405
586.875 0.0835154549364 -140.817080726
587.5 0.0750238645378 -146.833174064
588.125 0.0605679406583 -179.465164681
588.75 0.0685034559072 -162.180411802
589.375 0.0830084455238 -156.017620777
590.0 0.0940543078178 -166.440834542
590.625 0.103654730224 160.806357719
591.25 0.120766190556 158.246678359
591.875 0.0891367496058 166.147572404
592.5 0.0616671773729 151.55047258
593.125 0.0644577366304 142.446338097
593.75 0.078223222332 172.892660163
594.375 0.05919837653 -150.006910322
595.0 0.0434162817697 -116.765573293
595.625 0.0536926474077 -112.166504376
596.25 0.0803238637989 -75.2812404289
596.875 0.0692298264195 -63.1862342351
597.5 0.0602375841354 -54.1860949752
598.125 0.0616681531562 -67.253060939
598.75 0.0829694579907 -58.281846291
599.375 0.0850305968482 -70.3942350776
600.0 0.100519025993 -67.9863864963
600.625 0.0998489478901 -65.3039950687
601.25 0.0823204043339 -73.3603941931
601.875 0.069993054635 -86.8260890686
602.5 0.0623540317595 -79.1352624039
603.125 0.0450818834908 -76.0767275829
603.75 0.041009738234 -9.04330037127
604.375 0.0435072711573 -18.0784325757
605.0 0.0602355764324 -14.9762197647
605.625 0.049752910244 -13.7067813563
606.25 0.0262597366029 13.8723234077
606.875 0.0335908328073 50.16413264
607.5 0.0626740442282 42.0632800493
608.125 0.0575125526087 25.3378006999
608.75 0.0802521094707 33.4272470756
609.375 0.0704136044975 32.5098131217
610.0 0.0735827520089 47.8671033469
610.625 0.0582119501713 31.4506779064
611.25 0.0547705265296 37.5240493409
611.875 0.0349634858152 49.128109654
612.5 0.0188166661355 80.110072295
613.125 0.0281369475727 124.489922147
613.75 0.0272861218953 125.758586655
614.375 0.0738649945798 133.952276565
615.0 0.0509926296138 122.295198744
615.625 0.0378231243961 136.835831456
616.25 0.0240508879099 153.979289873
616.875 0.0785327761589 138.164717965
617.5 0.0496614451363 123.76225955
618.125 0.0277557608456 127.340886701
618.75 0.00555331136476 -161.604935189
619.375 0.0494642515541 160.446827067
620.0 0.0056628563939 108.047211981
620.625 0.0161286902162 -90.7496911366
621.25 0.0487480355558 -82.6532774254
621.875 0.0713350204749 -124.742908094
622.5 0.0795730693049 -174.86367124
623.125 0.0856960613804 165.740143388
623.75 0.0439697292825 -172.173842408
624.375 0.0718684614846 178.430076454
625.0 0.0457481163372 -152.197388424
625.625 0.045199600545 -146.774012712
626.25 0.0110397149038 158.393201661
626.875 0.000949886376152 83.5584046213
627.5 0.0283974200643 -22.4743623997
628.125 0.0391260805869 -12.0376659303
628.75 0.0356430014565 -11.7094547444
629.375 0.0549405020306 -0.333928773871
630.0 0.0679884127621 -10.1623768329
630.625 0.0791364195382 17.7345181228
631.25 0.076631406742 15.505484645
631.875 0.0698042739231 -7.64219303531
632.5 0.0636000932711 -3.17207986888
633.125 0.0433446778661 14.1558348738
633.75 0.0378973104935 8.33141362362
634.375 0.051376752602 34.2850102923
635.0 0.0404022610562 -21.6400955828
635.625 0.0311324872683 38.729297205
636.25 0.0493181091513 36.2588830214
636.875 0.0707215727869 47.3774156764
637.5 0.0518964808189 55.825829016
638.125 0.0393158907916 65.0472618945
638.75 0.0840375351076 80.9939130283
639.375 0.0935787798733 94.7698096126
640.0 0.0782017704144 111.415503327
640.625 0.0520241132922 104.331679528
641.25 0.0506799712378 112.282974758
641.875 0.0640788494218 154.336110827
642.5 0.0572065556267 149.812022827
643.125 0.0545702024834 160.839312222
643.75 0.075220639765 178.687983232
644.375 0.0758195978805 -169.232152603
645.0 0.0818306868416 -178.575777353
645.625 0.089103709326 167.347922371
646.25 0.0890800400507 167.224842389
646.875 0.066246576359 176.786914267
647.5 0.0806543292793 -172.234301849
648.125 0.0687831168449 177.462092059
648.75 0.0677591152558 -167.049767507
649.375 0.0443930761288 -159.450842385
650.0 0.0644316300596 -117.602528516
650.625 0.0525228175116 -95.8316021517
651.25 0.065231294465 -62.4330639226
651.875 0.0624745502881 -44.8144343147
652.5 0.098988005682 -22.4476259077
653.125 0.117019407228 -2.36317455675
653.75 0.103264444888 4.424774944
654.375 0.110438016945 8.23059192861
655.0 0.128506652793 15.4369234611
655.625 0.0735076949505 13.8164433433
656.25 0.0557142628943 23.6053499557
656.875 0.0639269968716 4.28653602831
657.5 0.0908475902372 26.1857644558
658.125 0.0797579252057 51.2346030536
658.75 0.058068372869 64.8673463476
659.375 0.0903211514537 40.6164863842
660.0 0.11924132931 27.3317984369
660.625 0.123869741879 18.3657365964
661.25 0.105286451058 6.41585218756
661.875 0.109009999899 -11.3123219142
662.5 0.124305138927 -18.7649075231
663.125 0.0985086974316 -18.4793149289
663.75 0.101403171602 6.62955204311
664.375 0.105145015299 57.0297011981
665.0 0.0866428183738 92.2170302733
665.625 0.0494029838757 113.39563993
666.25 0.0735191814239 138.278502272
666.875 0.115936222443 172.830156124
667.5 0.109961449789 -171.290338707
668.125 0.0849552646358 -173.694935859
668.75 0.11411820346 171.225232496
669.375 0.120268871554 175.987247695
670.0 0.0975123824028 -170.414044511
670.625 0.0698859665355 -167.467630224
671.25 0.112190718428 175.184791828
671.875 0.107199362868 166.409867448
672.5 0.0790883931268 157.95627689
673.125 0.0694752080465 160.193940616
673.75 0.101709512549 164.219875573
674.375 0.110936137237 169.914429832
675.0 0.125815674751 -176.662973986
675.625 0.103420491014 -144.637602676
676.25 0.116227830433 -122.650024819
676.875 0.105322994437 -118.023544558
677.5 0.13742813416 -130.2303587
678.125 0.100212989532 -115.149371531
678.75 0.0710006538997 -90.0191836578
679.375 0.0573360367195 -76.0051114926
680.0 0.0853619665114 -81.0675806799
680.625 0.132051591527 -78.2563618625
681.25 0.0991745209731 -68.3117552884
681.875 0.0991068522881 -88.9782930333
682.5 0.13207829604 -114.686953175
683.125 0.178345044135 -124.416768534
683.75 0.12053151145 -100.43622408
684.375 0.117117751494 -78.3485200903
685.0 0.135545433802 -38.0795546737
685.625 0.136980861439 -2.23373708375
686.25 0.11483977391 21.8242691029
686.875 0.0899951612497 47.7142658033
687.5 0.0887477717058 80.73192749
688.125 0.0861939586456 106.554585176
688.75 0.107496896496 110.121075082
689.375 0.142327706105 121.064570298
690.0 0.129536498587 137.268527674
690.625 0.122264496007 126.564893914
691.25 0.1478251987 95.2826072867
691.875 0.162599126514 77.1055143989
692.5 0.127445588259 44.1618037218
693.125 0.0818650411316 -14.0909768302
693.75 0.100576049274 -42.3075090507
694.375 0.128437741342 -25.6128371684
695.0 0.128674041691 13.6127929648
695.625 0.099850785465 60.7543798722
696.25 0.118319398903 113.313352671
696.875 0.146095517655 166.935279847
697.5 0.133364544508 -136.882911831
698.125 0.137619332204 -129.46313608
698.75 0.13017861429 -129.635985314
699.375 0.114445383362 -126.292540188
700.0 0.0970214567393 -111.113131976
700.625 0.117001129359 -92.9776631761
701.25 0.101302829006 -64.2240702305
701.875 0.0855947249186 -64.188278973
702.5 0.100959974091 -83.2623709279
703.125 0.171797711581 -114.270122249
703.75 0.176398374918 -150.979590218
704.375 0.136014612981 166.270838427
705.0 0.106469454423 164.69787284
705.625 0.147227938258 -170.275767754
706.25 0.149606822946 -114.365770707
706.875 0.0941490925752 -63.5404268004
707.5 0.0802398708586 -42.5345502516
708.125 0.090799112384 18.7476065972
708.75 0.113912687052 65.0310685041
709.375 0.107326184536 105.404878373
710.0 0.103758553083 124.106466401
710.625 0.107474532411 168.925233058
711.25 0.123126813445 175.680238541
711.875 0.145595623855 162.740452538
712.5 0.156564274576 140.164344437
713.125 0.125761805686 100.55727348
713.75 0.0989339740277 52.99766563
714.375 0.107450653433 30.7382038809
715.0 0.119253434989 14.2615598769
715.625 0.0879701299398 68.1586660016
716.25 0.0805131233368 76.3535067858
716.875 0.111336603611 100.253904342
717.5 0.147502115295 146.429201336
718.125 0.117566113851 159.994007899
718.75 0.10411876915 177.617776067
719.375 0.125490264337 -161.387747067
720.0 0.115357298449 -125.065482193
720.625 0.113794407868 -85.5854486839
721.25 0.0956252139828 -10.6472614904
721.875 0.0849142039792 27.7025139341
722.5 0.0734949198484 71.6406285227
723.125 0.0817679614819 68.62024803
723.75 0.108194335089 46.9082620092
724.375 0.124339178841 8.20191752645
725.0 0.0944834596253 -35.7434768139
725.625 0.0856401499758 -78.1482004107
726.25 0.12043388381 -62.0711107671
726.875 0.103473766118 -47.9990349627
727.5 0.074621362046 -35.2465986973
728.125 0.0819294084629 -4.04594370382
728.75 0.0738797118916 6.26906261538
729.375 0.0811309712749 24.9106275115
730.0 0.0836897706549 14.1511898661
730.625 0.0686927834444 35.358620129
731.25 0.0455377406396 46.5732388153
731.875 0.0979302812858 128.727580539
732.5 0.0762563348773 155.033527189
733.125 0.0778552789758 169.843147486
733.75 0.0543792730195 148.361150062
734.375 0.0814390411793 -175.983627088
735.0 0.0778584520197 159.543828817
735.625 0.0518229867961 141.475044464
736.25 0.00550671337062 158.763608204
736.875 0.0899660985176 167.128513074
737.5 0.10311023815 176.268201959
738.125 0.0972808167612 -166.829954798
738.75 0.0450154048459 171.60490441
739.375 0.0913119884131 -151.023663855
740.0 0.0447189908031 -135.092203639
740.625 0.0385173925931 -148.706352414
741.25 0.0454144694926 -157.047021609
741.875 0.0138171562333 -89.1963575162
742.5 0.0793513763634 -20.0867587679
743.125 0.0333369990662 49.4197810109
743.75 0.0267562306826 97.1264869722
744.375 0.0319049560907 155.637333969
745.0 0.0541524244317 137.572730412
745.625 0.0611335133992 139.205993245
746.25 0.0723657773716 84.8210356513
746.875 0.0523780562848 67.6652325842
747.5 0.0679842292988 3.74660437841
748.125 0.0287061372541 -1.45407498517
748.75 0.0256269748881 25.2360352814
749.375 0.0286693173554 -25.6217005538
750.0 0.0314785372594 -55.5778049718
