!Created with skrf (http://scikit-rf.org).
# GHz S RI R (50+0j) 
!freq	ReS11	ImS11	
500.0	0.3894995529	-1.069806894	
500.625	0.3190577745	-1.042832927	
501.25	-0.3986921084	-0.6917785226	
501.875	-0.2408796709	-0.4299018916	
502.5	-0.05249181105	-0.1396351679	
503.125	-0.07500893778	-0.0004372033583	
503.75	0.006171170246	0.08028547501	
504.375	0.028539698	-0.002574952734	
505.0	0.02137518044	-0.0208564514	
505.625	0.006247761055	-0.05086405443	
506.25	-0.06263765187	-0.06607037166	
506.875	-0.1124802992	0.001502293999	
507.5	-0.08811411387	-0.3828817337	
508.125	0.1963065697	-0.6119666726	
508.75	0.606251201	-0.9093388349	
509.375	-0.171979224	-1.039812179	
510.0	-0.2551406743	-0.3351703864	
510.625	-0.1885158116	-0.2242324453	
511.25	-0.08875709318	-0.08741461851	
511.875	-0.07864798533	-0.08024695462	
512.5	-0.006305248935	0.05237957449	
513.125	-0.002577994123	-0.06002567873	
513.75	-0.04530165578	-0.05507294171	
514.375	-0.06687428813	-0.03137426802	
515.0	0.03389363659	-0.06239907487	
515.625	0.01904600943	-0.3518615121	
516.25	-0.1425435456	-0.7135289044	
516.875	-0.171469028	-0.421555608	
517.5	-0.05301130539	-0.1714541054	
518.125	-0.0198696833	-0.02802941	
518.75	-0.0532385269	-0.1421939437	
519.375	-0.06313090028	0.03917477712	
520.0	0.1019896388	0.06066485243	
520.625	0.1608321151	-0.05713789972	
521.25	-0.01091679465	-0.2557637873	
521.875	-0.146588263	-0.03366386205	
522.5	-0.0481420738	0.02497806009	
523.125	-0.06105469619	0.021551493	
523.75	-0.1047629238	-0.0119354169	
524.375	-0.1576840668	0.02512971313	
525.0	-0.04421986858	0.1342879498	
525.625	0.03397920903	0.04961735037	
526.25	-0.01067919838	-0.01443244492	
526.875	-0.05332636358	0.05201188375	
527.5	-0.05075250765	0.1828145842	
528.125	0.04687659344	0.261660599	
528.75	0.03345963632	0.2160508283	
529.375	0.05262809602	0.0707589023	
530.0	0.003081465379	0.1502350386	
530.625	0.1056412541	0.3137804412	
531.25	0.3985258646	0.1244754496	
531.875	0.2394525584	-0.1678385467	
532.5	-0.05716300204	-0.1133097395	
533.125	0.05995947767	-0.05286830339	
533.75	0.1108360638	-0.1727449456	
534.375	-0.07262738445	-0.28067524	
535.0	-0.2329741272	-0.1110676575	
535.625	-0.1676857232	0.1040552247	
536.25	-0.006175090598	0.09606004605	
536.875	0.09416914768	0.01845635523	
537.5	0.06781598678	-0.03944093072	
538.125	0.1146790149	-0.05983678776	
538.75	0.131248832	-0.1162886946	
539.375	-0.07366799467	-0.1688807326	
540.0	-0.158570372	-0.153138656	
540.625	-0.1656776089	-0.02727568142	
541.25	-0.08678905889	0.00181515057	
541.875	-0.04488658598	-0.02066762725	
542.5	-0.04389124989	-0.05630294381	
543.125	-0.07966197196	-0.04415436083	
543.75	-0.08579621242	-0.007362759981	
544.375	-0.04773363821	0.04195076602	
545.0	-0.007584128429	0.05968933553	
545.625	0.05307957073	0.06410125845	
546.25	0.09631119698	0.04220055734	
546.875	0.1212881088	-0.02529202804	
547.5	0.07470595191	-0.1212571246	
548.125	-0.04023362149	-0.1659876924	
548.75	-0.1207847535	-0.121631874	
549.375	-0.1140972976	-0.07345448883	
550.0	-0.07724965002	0.006208728567	
550.625	-0.05516155919	0.005983158721	
551.25	-0.0756489301	0.02616992037	
551.875	-0.07763195164	0.0688764046	
552.5	-0.04605335655	0.07548853002	
553.125	-0.01685251053	0.06710239028	
553.75	0.04610198456	0.04873675818	
554.375	0.100291875	0.0009767651248	
555.0	0.1014487299	-0.07279892366	
555.625	0.09228172572	-0.1115622781	
556.25	0.06678134733	-0.1465611785	
556.875	-0.03605213361	-0.1664913806	
557.5	-0.1027992899	-0.1118252484	
558.125	-0.119239682	-0.04284959391	
558.75	-0.1165613946	-0.006361282398	
559.375	-0.1159745436	0.01912788746	
560.0	-0.1050881603	0.07718684883	
560.625	-0.05529764862	0.114240045	
561.25	0.002853636958	0.1044300413	
561.875	0.03088102645	0.04732789569	
562.5	0.007144235295	0.05742450893	
563.125	0.07306390051	0.07628835503	
563.75	0.1449558105	0.008914028888	
564.375	0.1361885979	-0.09893799745	
565.0	0.0798784874	-0.1511938842	
565.625	-0.02820157514	-0.1655338669	
566.25	-0.1179692564	-0.112862993	
566.875	-0.1404932689	-0.08447916214	
567.5	-0.1434571699	-0.1145345995	
568.125	-0.1429396367	-0.1638643232	
568.75	-0.2317597799	-0.0895335341	
569.375	-0.2423067323	0.09276837202	
570.0	-0.132958637	0.2013488595	
570.625	-0.0634692696	0.1782726518	
571.25	-0.00371630778	0.1181328272	
571.875	0.05748873384	0.08115192998	
572.5	0.128854919	0.002896074418	
573.125	0.09623370794	-0.1133359976	
573.75	0.04578877729	-0.1148463949	
574.375	0.01648874368	-0.06992253711	
575.0	0.02866601455	-0.03981114181	
575.625	0.0462718411	-0.07451460658	
576.25	0.04840400415	-0.1142799815	
576.875	0.0005515860039	-0.1458176283	
577.5	0.0008437964028	-0.1660155504	
578.125	-0.04442174757	-0.1629223921	
578.75	-0.08366650825	-0.1275651199	
579.375	-0.08905628511	-0.07075878891	
580.0	-0.05158599363	-0.03269959164	
580.625	-0.07355589783	-0.03289713504	
581.25	-0.1063832854	0.07258438411	
581.875	-8.608720254e-05	0.1616081171	
582.5	0.05664379724	0.1456211144	
583.125	0.07540401482	0.07803761237	
583.75	0.04210135625	0.02431409981	
584.375	0.03269606897	0.05964851326	
585.0	0.1132916389	0.06456242299	
585.625	0.1588160951	0.0005327172258	
586.25	0.1554952935	-0.06158820438	
586.875	0.07871988935	-0.1389198184	
587.5	-0.01003202074	-0.1427685192	
588.125	-0.01372690829	-0.1447829618	
588.75	0.03372738416	-0.1483393228	
589.375	0.06972878767	-0.1543638325	
590.0	-0.05309708399	-0.1833393511	
590.625	-0.1876134216	-0.04914826348	
591.25	-0.1370537015	0.107613694	
591.875	-0.04085901668	0.1224015546	
592.5	0.007499595354	0.04931427809	
593.125	-0.03439049838	0.05231100934	
593.75	0.05468928049	0.1229831728	
594.375	0.1505247716	0.1054530563	
595.0	0.1739964526	0.1041709167	
595.625	0.1748717366	0.0814887569	
596.25	0.162281635	0.04718124964	
596.875	0.1638606661	0.04085946579	
597.5	0.1489584785	0.08506427588	
598.125	0.1500114307	0.1200999659	
598.75	0.1828762419	0.0896185493	
599.375	0.2170840916	-0.03254140064	
600.0	0.1739740148	-0.1451474289	
600.625	0.1419402728	-0.1837168078	
601.25	0.0640176589	-0.1941046741	
601.875	-0.07594455513	-0.1481630441	
602.5	-0.1337985667	-0.01982420283	
603.125	-0.1119906278	0.04596518255	
603.75	-0.1124171462	0.0701152379	
604.375	-0.1012111673	0.07732782179	
605.0	-0.0702730212	0.07789214445	
605.625	-0.07644934462	0.06204691599	
606.25	-0.116280073	0.06677710564	
606.875	-0.1781430012	0.08649519638	
607.5	-0.1722058936	0.1802726274	
608.125	-0.0338185402	0.2559536697	
608.75	0.1814414202	0.1768359505	
609.375	0.2433303106	-0.0258966207	
610.0	0.1762094284	-0.1231801635	
610.625	0.08942575391	-0.1627373219	
611.25	0.01105198237	-0.1639710458	
611.875	-0.08979792259	-0.1309752791	
612.5	-0.1669318247	-0.06742955854	
613.125	-0.1971477328	0.03196892327	
613.75	-0.09819434596	0.1493957231	
614.375	0.04767842016	0.1137994528	
615.0	0.03889041794	0.04568071637	
615.625	-0.001589328122	0.09075653644	
616.25	-0.04216671485	0.1454593583	
616.875	-0.0820728979	0.1925574493	
617.5	-0.06807867991	0.2286614663	
618.125	-0.01602811742	0.2191874002	
618.75	0.02170913439	0.1970531068	
619.375	0.09632446489	0.1709330399	
620.0	0.1950291628	0.05089164781	
620.625	0.1195687046	-0.1571611664	
621.25	-0.08796788343	-0.1950611028	
621.875	-0.2104623654	-0.0914621665	
622.5	-0.2233395522	0.05664469102	
623.125	-0.04449755882	0.193092783	
623.75	0.1359937332	0.04552532101	
624.375	0.04099378587	-0.05305697315	
625.0	0.04441067516	-0.02683818646	
625.625	0.05358689125	-0.09213613218	
626.25	-0.04701674647	-0.1426856482	
626.875	-0.1447266558	-0.08939158037	
627.5	-0.15064753	-0.04244576518	
628.125	-0.1145855654	-0.07193605981	
628.75	-0.07555648705	-0.1276597637	
629.375	-0.09467564245	-0.1594179982	
630.0	-0.1921747506	-0.1054564419	
630.625	-0.2348244692	0.06201444741	
631.25	-0.1531117049	0.2003122439	
631.875	-0.03224580655	0.2545176542	
632.5	0.145287352	0.2093025646	
633.125	0.217337936	0.06075323148	
633.75	0.1760577846	-0.06587561779	
634.375	0.07156698053	-0.1402905075	
635.0	-0.01179836143	-0.1565180549	
635.625	-0.1471764111	-0.09733347033	
636.25	-0.1659803725	0.06911149742	
636.875	-0.0696115247	0.1314259291	
637.5	-0.0385318841	0.09171548934	
638.125	-0.07170154816	0.09230379089	
638.75	-0.07439489455	0.1724040517	
639.375	-0.005331950939	0.2568442577	
640.0	0.1389889502	0.2568305869	
640.625	0.2464849618	0.158378619	
641.25	0.2858599377	0.003901741863	
641.875	0.1860455606	-0.1843108711	
642.5	-0.002522941981	-0.2240133733	
643.125	-0.1220768524	-0.128135132	
643.75	-0.1363269204	-0.08011103327	
644.375	-0.1862316098	-0.005084970127	
645.0	-0.1532184091	0.1578196989	
645.625	0.05267304675	0.2235624438	
646.25	0.1712441442	0.08223253938	
646.875	0.1018305435	-0.01817814049	
647.5	0.05657015991	0.03814320441	
648.125	0.1650731324	0.05686248679	
648.75	0.2711137883	-0.06506638764	
649.375	0.2348741172	-0.2483512395	
650.0	0.1672454754	-0.3107742314	
650.625	0.1605312446	-0.2881123978	
651.25	0.2063851836	-0.2425074704	
651.875	0.259245515	-0.1698969522	
652.5	0.2890654516	-0.09487824474	
653.125	0.2807536598	-0.1105575698	
653.75	0.2085919558	-0.2294214557	
654.375	-0.04543225457	-0.3215573482	
655.0	-0.2931040009	-0.1100903358	
655.625	-0.1938881461	0.1791729603	
656.25	0.02355381946	0.1843670017	
656.875	0.05394723338	0.07126211255	
657.5	0.03147972053	0.1113601943	
658.125	0.1439922478	0.17007046	
658.75	0.2987947435	0.09261414851	
659.375	0.3432485333	-0.1348329001	
660.0	0.2370222116	-0.2995134412	
660.625	0.1482865893	-0.3326039391	
661.25	0.1703598415	-0.3040168374	
661.875	0.223413197	-0.2588511536	
662.5	0.2716356133	-0.2004475014	
663.125	0.2775657962	-0.1948367473	
663.75	0.1739161836	-0.2891516764	
664.375	-0.02761078501	-0.3415255362	
665.0	-0.267539528	-0.2281782826	
665.625	-0.329518388	0.07952382475	
666.25	-0.1179917386	0.2738615437	
666.875	0.1103774626	0.2231897469	
667.5	0.1888911033	0.1047249448	
668.125	0.2278659648	-0.004078622981	
668.75	0.2058278606	-0.1401941084	
669.375	0.1062658494	-0.227468513	
670.0	0.01346232017	-0.2287203345	
670.625	0.01000253521	-0.1977424339	
671.25	0.06233595831	-0.1821204898	
671.875	0.141941355	-0.1731629692	
672.5	0.2110646535	-0.1509561497	
673.125	0.2183675526	-0.1740406318	
673.75	0.170236094	-0.2210069697	
674.375	0.06463714902	-0.2679163636	
675.0	-0.07879506924	-0.2541933329	
675.625	-0.1898189517	-0.1446397352	
676.25	-0.1887707954	-0.03499461598	
676.875	-0.1559287866	0.001360218488	
677.5	-0.1605254624	0.0202854679	
678.125	-0.154033463	0.13550691	
678.75	0.01889907109	0.238710544	
679.375	0.2139631028	0.08903768957	
680.0	0.1583231488	-0.08524861048	
680.625	0.07283952612	-0.08260349231	
681.25	0.09074553916	-0.009307171635	
681.875	0.1576180329	0.05555127179	
682.5	0.2059645776	0.09220801173	
683.125	0.2473900805	0.08959814504	
683.75	0.2705320386	0.07475027189	
684.375	0.281011488	0.05429741382	
685.0	0.2956839444	0.05240472599	
685.625	0.2971399015	0.01378482627	
686.25	0.3139146304	-0.0284877254	
686.875	0.3174092927	-0.1375048587	
687.5	0.2855429034	-0.2899080137	
688.125	0.0001037513232	-0.451597209	
688.75	-0.4122347415	-0.2302203845	
689.375	-0.3174112247	0.3053591648	
690.0	0.0763177602	0.3726553874	
690.625	0.2348696705	0.2686736719	
691.25	0.3174738679	0.2926920217	
691.875	0.462211031	0.324409858	
692.5	0.6133261047	0.2342836999	
693.125	0.6821209739	-0.0101737165	
693.75	0.6109248953	-0.2313197869	
694.375	0.4593765526	-0.3947343043	
695.0	0.4705744667	-0.2800577708	
695.625	0.5247940917	-0.0798225409	
696.25	0.501186844	0.1840980022	
696.875	0.4042550426	0.4106832915	
697.5	0.3801558461	0.4793644402	
698.125	0.5774497314	0.2674287922	
698.75	0.4774805572	-0.3913912309	
699.375	-0.3652401525	-0.4365133925	
700.0	-0.3092899131	0.3296395663	
700.625	0.1236268896	0.3181516157	
701.25	0.220038188	0.19659629	
701.875	0.2623146858	0.2496810011	
702.5	0.3475662953	0.2539550164	
703.125	0.4256645597	0.1338030328	
703.75	0.4013180941	-0.09082167907	
704.375	0.2853209641	-0.1867620027	
705.0	0.2488916962	-0.1326195027	
705.625	0.2693950186	0.006035675579	
706.25	0.2560543823	0.1856763696	
706.875	0.236551481	0.3028630242	
707.5	0.2705557843	0.3590493741	
708.125	0.4504590858	0.1552241819	
708.75	0.3221826666	-0.3371247049	
709.375	-0.2470550554	-0.3136366602	
710.0	-0.2139655233	0.2016100412	
710.625	0.05784809015	0.1598758884	
711.25	0.08605789911	0.1276920549	
711.875	0.207407386	0.1305788907	
712.5	0.3181751691	-0.003003513282	
713.125	0.2826478898	-0.1627542306	
713.75	0.1492496967	-0.2487449354	
714.375	0.02498629944	-0.2421447919	
715.0	-0.02017442078	-0.2100604222	
715.625	0.02359277816	-0.2175548749	
716.25	0.1648859327	-0.2373600096	
716.875	0.3402926761	-0.1736970135	
717.5	0.5174120937	-0.02016213692	
718.125	0.6776075114	0.07568258376	
718.75	0.7794118318	-0.07861732591	
719.375	0.7759487337	-0.3923675046	
720.0	0.5514868315	-0.795198383	
720.625	0.3106876129	-0.9173115881	
721.25	0.03683094268	-1.044022144	
721.875	-0.1829129334	-1.027108237	
722.5	-0.5719264614	-0.8037339626	
723.125	-0.7885949217	-0.1911209558	
723.75	-0.4371392305	0.4129498899	
724.375	0.006710638268	0.4588107427	
725.0	0.1554991196	0.3828747033	
725.625	0.1648958351	0.4587475307	
726.25	0.03441274171	0.6801136843	
726.875	-0.0957826913	0.9353203153	
727.5	-0.1755709447	1.335353053	
728.125	-0.1074388405	1.917366554	
728.75	-0.2617440761	2.759334438	
729.375	-0.8925838198	3.440781867	
730.0	-0.3120184518	3.717329911	
730.625	-0.03680454633	3.9429009	
731.25	-1.192793381	3.391804155	
731.875	-2.66304673	2.349389309	
732.5	-3.318568815	0.7732167655	
733.125	-2.447657502	0.362969383	
733.75	-0.9172874439	1.266803428	
734.375	0.8067107715	0.4981136686	
735.0	0.043879451	-0.6099644381	
735.625	-0.4788369517	0.07296883946	
736.25	-0.1039636769	0.5215102941	
736.875	0.3848406003	0.580683726	
737.5	1.042670442	0.251242056	
738.125	1.48864663	-0.3693579871	
738.75	1.750193315	-1.039909811	
739.375	2.201580756	-1.550037499	
740.0	2.87956241	-1.348573741	
740.625	2.901994765	-0.1052700687	
741.25	0.6116189826	2.180933959	
741.875	-2.062899924	0.5796720773	
742.5	-0.9850900997	-2.166050779	
743.125	0.08538950614	-1.694169588	
743.75	-0.0308105922	-0.9084931762	
744.375	-0.4342591972	-0.1348789844	
745.0	0.06831711611	0.1009684772	
745.625	0.05608268259	0.01543037756	
746.25	-0.0007388688309	-0.1311693064	
746.875	-0.237218763	-0.004409609961	
747.5	-0.1407899411	0.3404213372	
748.125	0.06998628803	0.53110855	
748.75	0.2282553687	0.4912038705	
749.375	0.05418731211	0.4620826104	
750.0	-0.433243739	0.315428247	
