!Created with skrf (http://scikit-rf.org).
# GHz S RI R (50+0j) 
!freq	ReS11	ImS11	
500.0	-0.2575437168	-0.7215929775	
500.625	0.4859637103	-0.5113871056	
501.25	-0.4881600314	-0.7269902245	
501.875	-0.2582416728	-0.09534911708	
502.5	0.04128038116	-0.1461347656	
503.125	-0.07832147126	0.04105562275	
503.75	-0.03166656241	0.007145173611	
504.375	0.05633692687	-0.0083043372	
505.0	-0.02083094529	0.0146123925	
505.625	0.03738091637	-0.08504803217	
506.25	-0.1293070949	0.01203332818	
506.875	0.005655607358	-0.173453493	
507.5	-0.3469045558	-0.4717080399	
508.125	-0.00279732311	-0.1768967576	
508.75	0.8342007109	-0.8587733313	
509.375	-0.3352035741	-1.119187123	
510.0	-0.2223440685	-0.1512408193	
510.625	-0.06858336428	-0.2477645163	
511.25	-0.04486477582	-0.02009428368	
511.875	-0.07907592904	-0.05979689427	
512.5	0.003679888949	0.040591194	
513.125	-0.03425411304	-0.03349805909	
513.75	0.009636740579	-0.06167206779	
514.375	-0.1522975645	0.02949036087	
515.0	0.2683136346	-0.01719990152	
515.625	-0.3740800079	-0.4366104126	
516.25	0.1595774774	-0.08896747611	
516.875	-0.1906105894	-0.7990341488	
517.5	-0.1768299777	-0.1198137393	
518.125	0.05126458792	-0.01381266766	
518.75	-0.1449980595	-0.1706891581	
519.375	-0.03874173385	0.007512538649	
520.0	0.09196739617	0.06532307477	
520.625	0.1390332307	-0.09456732603	
521.25	-0.07466714199	-0.1300909006	
521.875	-0.125155063	-0.01430715188	
522.5	-0.05445032076	0.05302552492	
523.125	0.02178006689	-0.05018579862	
523.75	-0.1457187777	-0.0615145178	
524.375	-0.1168546728	0.169151138	
525.0	-0.04932652249	0.001940403866	
525.625	0.03286677577	0.1322519265	
526.25	-0.05019304303	-0.08283510688	
526.875	-0.006841917497	0.09716131342	
527.5	-0.02286352669	0.05346118296	
528.125	-0.01136264828	0.3080810024	
528.75	0.158840268	0.2292471302	
529.375	0.01962954353	0.08867789358	
530.0	0.06966432714	0.2126949405	
530.625	0.08325129488	0.2913115619	
531.25	0.2948433655	-0.01491854516	
531.875	0.2462058322	-0.1503876638	
532.5	-0.07874665992	-0.04497002026	
533.125	0.1744939127	-0.06333946094	
533.75	0.02001173759	-0.1002073447	
534.375	0.07738148426	-0.2025788757	
535.0	-0.283115846	-0.06906998828	
535.625	-0.07188539002	0.09633150684	
536.25	-0.02866468665	0.07930791115	
536.875	0.1103877517	-0.003009490049	
537.5	0.02369577235	-0.01667933196	
538.125	0.1564996867	-0.05723765911	
538.75	0.04880009535	-0.1167000262	
539.375	-0.01614748374	-0.1450006358	
540.0	-0.1938567106	-0.1497623517	
540.625	-0.1418205685	0.003574930047	
541.25	-0.04737397917	-0.002748511255	
541.875	-0.07972502639	-0.01025155964	
542.5	-0.006458363745	-0.02630069825	
543.125	-0.03818686643	-0.1164573857	
543.75	-0.0925706374	0.07181743227	
544.375	-0.0358273262	-0.05799886745	
545.0	0.01921109411	0.1035993583	
545.625	0.002642852921	0.01143150003	
546.25	0.1225089281	0.07801694766	
546.875	0.06156536929	-0.09414591972	
547.5	0.06746206877	-0.04609545277	
548.125	-0.02841615627	-0.2064143285	
548.75	-0.1418234918	-0.04206676789	
549.375	-0.0405864953	-0.08013858711	
550.0	-0.114184927	0.0217191561	
550.625	-0.004469808344	-0.00519784467	
551.25	-0.1011336522	0.03686222282	
551.875	-0.02850977343	0.07078752555	
552.5	-0.05042939171	0.0534964325	
553.125	-0.006238758922	0.07209384723	
553.75	0.03663422167	0.02982430134	
554.375	0.08870645554	0.005840086296	
555.0	0.08011393459	-0.07684480034	
555.625	0.06897991065	-0.09500281111	
556.25	0.05664203415	-0.12785032	
556.875	-0.04254983056	-0.1416670369	
557.5	-0.09183522253	-0.08560629804	
558.125	-0.1046095178	-0.03412002211	
558.75	-0.1049651874	0.002980439738	
559.375	-0.08890463521	0.02800408018	
560.0	-0.09129687623	0.05671680701	
560.625	-0.04608218905	0.1179043312	
561.25	0.02370161908	0.06906290813	
561.875	0.008414228711	0.07283884912	
562.5	0.03461934289	0.01486108755	
563.125	0.04756990515	0.09704793085	
563.75	0.1532753553	-0.03627904962	
564.375	0.06863481563	-0.07220854628	
565.0	0.1055566644	-0.1253668277	
565.625	-0.07801433294	-0.1606209951	
566.25	-0.07483654303	-0.05459470069	
566.875	-0.1313747716	-0.1339196697	
567.5	-0.1713227597	-0.04243106547	
568.125	-0.05172670424	-0.1369732451	
568.75	-0.3071369982	-0.08264662649	
569.375	-0.1090597504	0.1264996027	
570.0	-0.1754196458	0.115733197	
570.625	-0.04204584769	0.2457100019	
571.25	0.03338857918	0.01254458637	
571.875	0.04590858214	0.1628122515	
572.5	0.1020022	-0.09992012701	
573.125	0.07423601768	0.0006225663033	
573.75	0.08918488154	-0.209484844	
574.375	-0.08589549624	-0.006600565526	
575.0	0.1300645386	-0.04405034414	
575.625	-0.05757623539	-0.08923533546	
576.25	0.08156351278	-0.01375819214	
576.875	0.01299926155	-0.205131605	
577.5	-0.09503766869	-0.1350249342	
578.125	0.01150416273	-0.06896683144	
578.75	-0.0564454868	-0.2110900186	
579.375	-0.1814569794	0.0408666384	
580.0	0.05668163287	-0.06140791932	
580.625	-0.1679401459	0.03037856833	
581.25	0.02819312863	-0.02623757043	
581.875	-0.1180113007	0.227459381	
582.5	0.1918629418	0.1390820303	
583.125	-0.02143087046	-0.04407430159	
583.75	0.09002237254	0.1361528036	
584.375	0.03182952913	-0.06842885874	
585.0	0.08332911769	0.1773964017	
585.625	0.2024547679	-0.08929173879	
586.25	0.02775565688	-0.01263944168	
586.875	0.1612283172	-0.1404417303	
587.5	-0.115264695	-0.130680094	
588.125	0.04576009353	-0.05557327565	
588.75	0.06524948921	-0.1950074096	
589.375	-0.02657264254	-0.1602660757	
590.0	0.02555316143	-0.08091751947	
590.625	-0.2648962851	-0.09704234208	
591.25	-0.008574115635	0.1625071545	
591.875	-0.07829624103	0.01324560602	
592.5	0.05489581826	0.1791609723	
593.125	-0.09737979203	-0.07591997942	
593.75	0.1821407988	0.2118871234	
594.375	0.09571904868	-0.02653763648	
595.0	0.09674573092	0.2212394602	
595.625	0.2633080408	0.05963207715	
596.25	0.0718133639	-0.04170765085	
596.875	0.1379634764	0.122036051	
597.5	0.1801756126	0.004093272941	
598.125	0.05991434972	0.07732746077	
598.75	0.210368219	0.108727067	
599.375	0.1504640779	-0.1076838759	
600.0	0.1325202405	-0.07646180322	
600.625	0.1769494907	-0.1813896582	
601.25	0.0276298331	-0.2048294922	
601.875	-0.03949076228	-0.05006236259	
602.5	-0.1779195142	-0.1184827075	
603.125	-0.04408118151	0.1376283291	
603.75	-0.06618053475	-0.02772012224	
604.375	-0.1886467923	0.1518442426	
605.0	0.08525956866	0.01309602671	
605.625	-0.1836536801	0.05132044408	
606.25	-0.01887969328	0.1506643553	
606.875	-0.2205830355	-0.06192072262	
607.5	-0.2201811761	0.2428678433	
608.125	0.08065596678	0.1950127555	
608.75	0.08061332928	0.1362754976	
609.375	0.2367627377	-0.06892039117	
610.0	0.1393498676	-0.1153499708	
610.625	0.07126236004	-0.09838385682	
611.25	-0.001310737105	-0.2023187526	
611.875	-0.1373075041	-0.1042045322	
612.5	-0.1072981775	-0.1108401181	
613.125	-0.280052765	0.01787674001	
613.75	0.01589632603	0.1321970492	
614.375	-0.04930763618	0.1210629308	
615.0	0.1408861498	0.03942405456	
615.625	-0.1093827082	0.04336898828	
616.25	-0.05050728242	0.2465801631	
616.875	0.05608589421	0.1275430348	
617.5	-0.1442452125	0.1492693727	
618.125	0.07858896019	0.1562893078	
618.75	0.01762260453	0.1057223424	
619.375	0.02790797941	0.1868698978	
620.0	0.2158221741	-0.01484725151	
620.625	0.06642937327	-0.266431336	
621.25	-0.07832810437	-0.1173802835	
621.875	-0.2277558346	-0.07419414813	
622.5	-0.1369941111	0.08667836695	
623.125	-0.1014111824	0.07300076425	
623.75	0.1930471311	0.05297697507	
624.375	-0.02847156941	-0.02968878525	
625.0	0.126925041	-0.04629701596	
625.625	-0.04932785686	-0.07313289406	
626.25	0.02114325513	-0.1158587281	
626.875	-0.1906283042	-0.1032223632	
627.5	-0.1126224954	0.03082043899	
628.125	-0.05889065879	-0.1205802115	
628.75	-0.126001	-0.1047062282	
629.375	-0.05402134953	-0.1011921928	
630.0	-0.187866801	-0.1115547019	
630.625	-0.2037524993	0.1093524299	
631.25	-0.07903402967	0.1604001369	
631.875	-0.04359315525	0.2087917465	
632.5	0.2343710206	0.2418475131	
633.125	0.1597702146	-0.02733193153	
633.75	0.1844832201	0.07789287609	
634.375	-0.005200913847	-0.2490683613	
635.0	0.01493888628	-0.0671383844	
635.625	-0.2182329286	-0.1555954372	
636.25	-0.03588209219	0.1607569026	
636.875	-0.08335611292	0.02529965256	
637.5	-0.04320889297	0.2106560364	
638.125	0.02710604961	-0.005282717744	
638.75	-0.1463530687	0.1727425057	
639.375	0.1187607065	0.2890779576	
640.0	0.1127946942	0.09656741506	
640.625	0.2064511532	0.2030165073	
641.25	0.2972915598	-0.1128659651	
641.875	0.03399703636	-0.1433540817	
642.5	0.06073538521	-0.2349744133	
643.125	-0.2701047228	-0.07402085725	
643.75	-0.01520384328	-0.04196111886	
644.375	-0.2985880427	-0.05285578075	
645.0	0.01061481509	0.2736554367	
645.625	-0.08240358426	0.04304621602	
646.25	0.2712151843	0.197688001	
646.875	-0.07047378629	-0.2269699429	
647.5	0.08677250657	0.2362187652	
648.125	0.1864407067	-0.1386068482	
648.75	0.09797953676	0.0841868775	
649.375	0.3585690767	-0.3550411097	
650.0	-0.07656687651	-0.3289255823	
650.625	0.1491928497	-0.09586583898	
651.25	0.3104488422	-0.3243885606	
651.875	0.01914884642	-0.2803015793	
652.5	0.2177545201	0.05617721388	
653.125	0.3535604051	-0.2270856909	
653.75	-0.01585786866	-0.2241746671	
654.375	0.07371514811	-0.20128388	
655.0	-0.4340617839	-0.08004652977	
655.625	-0.006524088262	0.2194831348	
656.25	-0.09492779035	0.04386456741	
656.875	0.2113799164	0.2226623391	
657.5	-0.09539443939	-0.07729210491	
658.125	0.2448990861	0.339942014	
658.75	0.2673266357	-0.1763179027	
659.375	0.1468527692	-0.01778515357	
660.0	0.3872193652	-0.410931129	
660.625	-0.146017608	-0.3561181767	
661.25	0.1761851522	-0.09424072597	
661.875	0.2764657712	-0.3371366346	
662.5	0.09430788187	-0.2851449164	
663.125	0.180405432	-0.05726049615	
663.75	0.1672721428	-0.4211417672	
664.375	-0.1644645403	-0.1817548521	
665.0	-0.1640344513	-0.219239373	
665.625	-0.3680751121	0.1666830389	
666.25	0.05375317538	0.2045545061	
666.875	0.01500146852	0.1879210825	
667.5	0.2890880809	0.07366147329	
668.125	0.09270471634	-0.09546710729	
668.75	0.2397274276	-0.02647080493	
669.375	-0.01319506604	-0.3834073239	
670.0	-0.04167728019	-0.05038396747	
670.625	0.1056906565	-0.2248320636	
671.25	-0.1577336498	-0.2313002431	
671.875	0.1371623071	0.0361188858	
672.5	0.2744058467	-0.3170312999	
673.125	0.02687435844	-0.2051088037	
673.75	0.1473028193	-0.1037946967	
674.375	0.05480780736	-0.3459436425	
675.0	-0.2220788236	-0.08600326321	
675.625	-0.04925129918	-0.1379369158	
676.25	-0.2800022751	-0.007306778574	
676.875	-0.02879986309	0.08909685099	
677.5	-0.1759820198	-0.07571688772	
678.125	-0.07390210249	0.2871335667	
678.75	0.07538763869	0.07889589015	
679.375	0.143107626	0.1661755332	
680.0	0.230795592	-0.2340682831	
680.625	-0.156982667	0.0157735392	
681.25	0.2758952538	0.04925079264	
681.875	0.1283436032	-0.1653282447	
682.5	-0.03861411246	0.220587709	
683.125	0.4577393674	0.1692779143	
683.75	0.1412508552	-0.2308975379	
684.375	0.3091832252	0.3291493699	
685.0	0.4323291119	-0.05058536659	
685.625	0.1058525108	-0.1334680259	
686.25	0.3572351648	0.1167140178	
686.875	0.1588496472	-0.3475779549	
687.5	0.1140672426	-0.1571184266	
688.125	-0.00290084328	-0.4435848914	
688.75	-0.5175929084	-0.03118490102	
689.375	-0.1156369654	0.2252354477	
690.0	0.01293816589	0.4158801474	
690.625	0.3603126895	0.20334903	
691.25	0.1657394723	0.1212413728	
691.875	0.4740868247	0.432023154	
692.5	0.6493530254	-0.09267880306	
693.125	0.3539641616	0.09099615961	
693.75	0.7078854412	-0.2463267249	
694.375	0.1757786786	-0.5884445322	
695.0	0.4294726427	0.04790527777	
695.625	0.6857019078	-0.1886569123	
696.25	0.1589045578	0.07956258865	
696.875	0.3338485945	0.4208700462	
697.5	0.5721532444	0.3574069621	
698.125	0.428396059	0.09019734559	
698.75	0.2301567334	-0.5765273889	
699.375	-0.4093964605	-0.2399375592	
700.0	-0.2031272446	0.4407778615	
700.625	0.07275464784	0.161647382	
701.25	0.1848427559	0.336793876	
701.875	0.2580314537	0.06506787124	
702.5	0.2199975706	0.2635656487	
703.125	0.4981718787	0.06022334368	
703.75	0.1734567904	-0.21092642	
704.375	0.295936328	-0.04699098992	
705.0	0.2526528553	-0.2704889302	
705.625	0.1085086674	0.02348421558	
706.25	0.273258905	0.2689064847	
706.875	0.2294089299	0.1511250246	
707.5	0.2030659967	0.2963399129	
708.125	0.4144872083	-0.01181853109	
708.75	0.08159599705	-0.3809480147	
709.375	-0.5035004392	-0.09179526739	
710.0	-0.07488315932	0.1446685291	
710.625	0.1379363356	0.0892509867	
711.25	0.05112650079	0.05790703888	
711.875	0.2949035384	0.1707161916	
712.5	0.2608131639	-0.232076414	
713.125	0.1755367194	0.003109780179	
713.75	0.1501989551	-0.3071006619	
714.375	-0.1283766116	-0.1682328245	
715.0	0.0780833005	-0.1220759441	
715.625	-0.04445585168	-0.3048372646	
716.25	0.02641062619	-0.1530662384	
716.875	0.3386852899	-0.08809277301	
717.5	0.5439342587	-0.1932147015	
718.125	0.381109559	-0.06878849806	
718.75	0.7728998471	-0.09255741198	
719.375	0.5225167124	-0.6174759842	
720.0	0.009108316081	-0.6969199905	
720.625	0.227818271	-0.8615200832	
721.25	-0.4517214994	-0.787061944	
721.875	-0.2455163976	-0.530929065	
722.5	-0.6338007589	-0.9721215046	
723.125	-0.876330159	0.2947865134	
723.75	-0.03910073198	0.2452929431	
724.375	-0.09683506521	0.5952054456	
725.0	0.4235350069	0.06044098404	
725.625	-0.04603574057	0.3182265902	
726.25	0.09824343587	0.8465452588	
726.875	0.3130363921	0.6045407787	
727.5	-0.3754724877	0.8603587546	
728.125	0.2354187088	2.116191757	
728.75	0.9021911947	1.634492511	
729.375	-1.027103512	1.84879917	
730.0	0.6464916098	4.688350816	
730.625	1.76866206	2.4116097	
731.25	-1.103336535	2.241037127	
731.875	-2.163808662	3.568845279	
732.5	-0.7605452093	2.81763609	
733.125	-1.907089029	-0.001377486797	
733.75	-0.3282820563	1.723630991	
734.375	0.6819207364	-0.2059264722	
735.0	0.2223934806	-0.3997357351	
735.625	-0.7503772744	0.7502644846	
736.25	0.07397833702	-0.06136159998	
736.875	0.2577320586	0.7507281062	
737.5	1.261482982	-0.3823858999	
738.125	0.3372454294	-0.4150349858	
738.75	2.32020841	-0.2555215968	
739.375	1.406263985	-3.263601051	
740.0	-0.2167591875	-0.1149473395	
740.625	4.120575001	2.804913682	
741.25	5.151098172	-0.0475915993	
741.875	-1.452711231	-3.050999466	
742.5	-2.052976293	-2.272729137	
743.125	-1.102431817	-0.8196601399	
743.75	0.3837909822	-0.3160033038	
744.375	-0.7484594782	-0.1320081038	
745.0	0.1990984419	-0.05226918441	
745.625	0.1053476712	0.06677142096	
746.25	-0.1842614314	-0.08013862718	
746.875	-0.08631581988	-0.05361133244	
747.5	-0.09440675958	0.3992344355	
748.125	0.2994707091	0.324119892	
748.75	0.1211922388	0.2620958415	
749.375	0.1145007123	0.5544892025	
750.0	-0.145621228	0.2788532506	
