!Created with skrf (http://scikit-rf.org).
# GHz S RI R (50+0j) 
!freq	ReS11	ImS11	
500.0	0.2758850121	-0.9127563641	
500.625	1.103393856	-4.552047919	
501.25	-2.218406313	-1.403309799	
501.875	-1.010867579	-0.3806227388	
502.5	0.06603303824	-0.4087497904	
503.125	-0.3570552901	0.2127968459	
503.75	0.0172168573	-0.0429190728	
504.375	0.2024295924	-0.01346963119	
505.0	-0.1015866244	0.02315581492	
505.625	0.1271113111	-0.3916801018	
506.25	-0.2191083249	0.3515090479	
506.875	-0.8868083072	-0.9949760157	
507.5	-1.683242308	-0.3750680967	
508.125	0.576805161	-0.2373498429	
508.75	2.7820298	-3.671609131	
509.375	-1.762286885	-3.31772557	
510.0	-0.6976589503	-0.5748454592	
510.625	-0.7370776222	-0.9550916166	
511.25	0.005742868712	-0.1192045901	
511.875	-0.653876613	-0.2163013177	
512.5	0.03780838419	0.08592937329	
513.125	-0.00188681502	-0.2525980007	
513.75	-0.08216453119	-0.2941988407	
514.375	-0.6459119311	0.01649822695	
515.0	1.409429972	0.2406517128	
515.625	-2.209650991	-0.9797964601	
516.25	1.359574638	-0.1277827398	
516.875	-1.015445577	-2.86197466	
517.5	-0.7353362484	0.3008096851	
518.125	-0.03319753553	-0.4987225397	
518.75	-0.522407924	0.1946867194	
519.375	-0.195468022	-0.008301501841	
520.0	0.4904786904	0.2063452242	
520.625	0.2831630736	-0.2822696353	
521.25	0.2851383086	-0.6222007758	
521.875	-0.6161251503	0.048476924	
522.5	0.01137108971	-0.05387547864	
523.125	-0.2092331031	0.3127241225	
523.75	-0.1047993604	-0.1739304861	
524.375	-0.5216738935	0.4498434906	
525.0	-0.1535874012	-0.0104262837	
525.625	0.135994622	0.380947377	
526.25	-0.2102548315	-0.2607325023	
526.875	0.01965377358	0.3117558844	
527.5	-0.1581401396	0.1605366405	
528.125	-0.02022513699	1.201400512	
528.75	0.5487433706	0.4560824362	
529.375	-0.06071472016	0.3708137221	
530.0	0.3023329034	0.1366218634	
530.625	0.05347922629	1.284890698	
531.25	0.8852837501	-0.5438733955	
531.875	0.7530657444	0.05943469446	
532.5	-0.6564917395	-0.4891992909	
533.125	0.7525328297	0.06485228397	
533.75	-0.3241130445	-0.6914225412	
534.375	0.2829592335	-0.6203736422	
535.0	-1.15082101	-0.1611114157	
535.625	-0.09278978591	0.1040565828	
536.25	-0.1213715109	0.2944422946	
536.875	0.3441638366	-0.0366763906	
537.5	0.06230817623	-0.009928549166	
538.125	0.4503612955	-0.2125573769	
538.75	0.1222673735	-0.2877680086	
539.375	-0.01418414492	-0.4762998921	
540.0	-0.6440237479	-0.3087641479	
540.625	-0.1493915822	-0.04804532881	
541.25	-0.3170467144	-0.06118541971	
541.875	-0.1254592469	0.0376296633	
542.5	-0.03750826881	-0.04953960177	
543.125	-0.2162130454	-0.2631337165	
543.75	-0.2509804609	0.285280806	
544.375	-0.1599670094	-0.1478207086	
545.0	0.1367040333	0.3144874539	
545.625	-0.1418224599	0.005522336164	
546.25	0.5209790189	0.1988997325	
546.875	-0.005562422154	-0.1424385602	
547.5	0.4299293477	-0.211064177	
548.125	-0.3308483863	-0.5061373029	
548.75	-0.1649660406	-0.09449098705	
549.375	-0.2047166225	-0.331808545	
550.0	-0.2711229763	0.1503533179	
550.625	-0.03589010814	-0.1212798728	
551.25	-0.2546326478	0.2052886928	
551.875	-0.09307040931	0.04993055025	
552.5	-0.1926338232	0.2577286845	
553.125	0.02460597745	0.1276274098	
553.75	0.08773270196	0.1381746933	
554.375	0.2518704635	-0.009052992818	
555.0	0.2131096448	-0.1707387296	
555.625	0.2109325926	-0.2412777939	
556.25	0.1584731911	-0.3535541094	
556.875	-0.09464453147	-0.38042451	
557.5	-0.2188449429	-0.240400105	
558.125	-0.2788263173	-0.1058269757	
558.75	-0.2559079975	0.0177610603	
559.375	-0.2340298858	0.02252634649	
560.0	-0.2722734918	0.1887790598	
560.625	-0.05378696153	0.2773843248	
561.25	-0.02789784355	0.1647791215	
561.875	0.1193003837	0.1870502732	
562.5	-0.03088501352	0.01995181307	
563.125	0.2470920046	0.2690388592	
563.75	0.2008902691	-0.1025454601	
564.375	0.4051306348	-0.09522846646	
565.0	0.1166751692	-0.5034347672	
565.625	-0.07486368303	-0.1938678156	
566.25	-0.1830005436	-0.3563415992	
566.875	-0.479444767	-0.1651104661	
567.5	-0.1991738172	-0.09993286225	
568.125	-0.2632891545	-0.5834873744	
568.75	-0.6775885326	-0.01526429795	
569.375	-0.3714670305	0.01564208344	
570.0	-0.5009916457	0.6785460578	
570.625	0.1396939999	0.3491639824	
571.25	-0.3216869147	0.1703917855	
571.875	0.5400743975	0.1844894545	
572.5	-0.06972210381	0.1636579634	
573.125	0.5336948104	-0.3630628743	
573.75	-0.1597112077	-0.4184217437	
574.375	0.1776409942	0.1310410079	
575.0	0.006807260427	-0.4328540293	
575.625	0.1485779844	0.1581168682	
576.25	0.2814347991	-0.493745663	
576.875	-0.2982014711	-0.245847309	
577.5	0.2338018908	-0.1422015543	
578.125	-0.07493123592	-0.6548058496	
578.75	-0.3852427901	-0.162761063	
579.375	-0.002311769144	-0.02929239388	
580.0	-0.2310389964	-0.320922801	
580.625	-0.003552663146	0.1679093207	
581.25	-0.4822915914	-0.03536032019	
581.875	0.2166379798	0.5554533076	
582.5	0.1342874762	-0.03406368146	
583.125	-0.1379007394	0.4648134855	
583.75	0.532381586	-0.2134344752	
584.375	-0.3405877369	0.3776914678	
585.0	0.6339617747	0.06037001159	
585.625	-0.01601228036	-0.09318025273	
586.25	0.6208695001	0.06338459163	
586.875	-0.1041685405	-0.4870678872	
587.5	0.1861959454	-0.1258543619	
588.125	-0.04282118522	-0.6128898687	
588.75	-0.2142083868	-0.2362620354	
589.375	0.450264304	-0.1018728561	
590.0	-0.2664033107	-0.6178413893	
590.625	-0.3483141182	0.03195361806	
591.25	-0.2623024725	0.09095719802	
591.875	-0.2494758549	0.392664599	
592.5	0.19367783	-0.02840514088	
593.125	-0.1454878582	0.2676079174	
593.75	0.1415918093	0.1145214611	
594.375	0.1746756131	0.4355333485	
595.0	0.7423585516	0.2955025213	
595.625	0.1589915921	-0.1757121408	
596.25	0.3152340097	0.5428796885	
596.875	0.6961008124	-0.1923827665	
597.5	-0.01446324956	0.1541486035	
598.125	0.5150166461	0.5257376212	
598.75	0.3084363474	-0.05825378621	
599.375	0.5596150226	0.2478083322	
600.0	0.3611324069	-0.6092431184	
600.625	0.1510963651	-0.2097692905	
601.25	0.3672331745	-0.4118694007	
601.875	-0.3267317931	-0.4267926073	
602.5	-0.1534100462	-0.01749002878	
603.125	-0.2373240039	0.08595786206	
603.75	-0.353139772	0.08123194797	
604.375	-0.1154641675	0.3514714935	
605.0	-0.2237547703	-0.08020238188	
605.625	-0.208327948	0.3979954132	
606.25	-0.08724690828	-0.08011731447	
606.875	-0.7389554293	0.2813423083	
607.5	0.02449482937	0.3947186826	
608.125	-0.48088312	0.4184676306	
608.75	0.9288651293	0.4501366175	
609.375	0.1073416506	-0.003712723685	
610.0	0.7253266266	-0.268172182	
610.625	-0.07658637876	-0.468246201	
611.25	0.3694225826	-0.2517944435	
611.875	-0.4788190675	-0.2581363585	
612.5	-0.1109292571	-0.2526226397	
613.125	-0.6880909911	0.05722295349	
613.75	0.09440065201	0.227868474	
614.375	-0.09997184554	0.5194956525	
615.0	0.2430456628	-0.1695717591	
615.625	-0.2981890388	0.4140357232	
616.25	0.2908925693	0.3037837071	
616.875	-0.4804352389	0.1946943001	
617.5	-0.1288317234	0.8329765104	
618.125	0.14867426	0.206504435	
618.75	-0.1962268294	0.6203660814	
619.375	0.4142599815	0.2736476437	
620.0	0.2695685952	0.219747397	
620.625	0.2958085544	-0.5010836519	
621.25	-0.1015267539	-0.3018881915	
621.875	-0.6278368261	-0.2428105834	
622.5	-0.3314337695	0.1400925541	
623.125	-0.2817504596	0.4385561616	
623.75	0.435248236	-0.09924448231	
624.375	0.1387696838	0.2283705174	
625.0	-0.1113296005	-0.3725484996	
625.625	0.3221188977	0.1025556208	
626.25	-0.252085075	-0.653150383	
626.875	-0.2649577906	0.1782991322	
627.5	-0.1905554566	-0.4190758375	
628.125	-0.4705523054	-0.0631472936	
628.75	0.02379794929	-0.1518282873	
629.375	-0.2592398986	-0.5803329901	
630.0	-0.3649900242	0.04127265707	
630.625	-0.5767373942	-0.07468438839	
631.25	-0.4064247163	0.5990206073	
631.875	0.1050869659	0.4812693868	
632.5	0.2148763935	0.4092891248	
633.125	0.4519334768	0.2673928772	
633.75	0.5164687555	-0.3070531043	
634.375	0.02335192798	-0.116806916	
635.0	0.1463837407	-0.5457407515	
635.625	-0.4470733821	0.1079852201	
636.25	-0.4657523944	-0.1868876269	
636.875	-0.09625348465	0.5750728585	
637.5	0.05590959278	-0.07892901557	
638.125	-0.5686347399	0.4511782132	
638.75	0.3985230237	0.2539654636	
639.375	-0.4659114214	0.3520259031	
640.0	0.4296801864	0.9288804193	
640.625	0.6895101745	0.07092093443	
641.25	0.2532839981	0.1178533637	
641.875	0.7464214789	-0.6979532631	
642.5	-0.2476595527	-0.1892522175	
643.125	-0.05698191347	-0.604967213	
643.75	-0.6915523839	0.1344947776	
644.375	0.04360290018	-0.3294342657	
645.0	-0.6845186758	0.5183659427	
645.625	0.36762162	0.5039150378	
646.25	0.265525126	-0.09220439633	
646.875	0.152495082	0.434235694	
647.5	0.2599903506	-0.5243685674	
648.125	0.2287100839	0.656598539	
648.75	0.9247225828	-0.5732168944	
649.375	-0.06654317111	-0.2567889745	
650.0	1.192979053	-0.6237940645	
650.625	-0.1797752267	-1.236353693	
651.25	0.1102109439	0.1554595274	
651.875	1.355245768	-0.3342602663	
652.5	0.405924632	-0.8539363451	
653.125	0.2491859056	0.220695701	
653.75	0.8450667642	-0.7738972721	
654.375	-0.5544963414	-0.4724691897	
655.0	-0.1878657649	-0.4812793745	
655.625	-0.8815630907	0.7854307741	
656.25	0.4275624577	0.06283860703	
656.875	-0.2683851951	0.2869383033	
657.5	0.4263712804	0.2671659594	
658.125	0.0892251553	0.09387845712	
658.75	0.7003041328	0.6430706769	
659.375	0.7981655753	-0.7164374821	
660.0	0.2558853049	-0.4428675793	
660.625	0.7479654385	-0.6518863701	
661.25	-0.01233812802	-1.17865981	
661.875	0.3705469121	0.02422741029	
662.5	1.126043924	-0.5902926033	
663.125	0.2964624328	-0.8658051129	
663.75	0.3340789226	-0.08611398906	
664.375	0.02174747981	-1.254216103	
665.0	-0.6654916247	-0.004909352234	
665.625	-0.7458516623	-0.2306694031	
666.25	-0.1835507191	0.9930030311	
666.875	0.1522805048	0.0539622527	
667.5	0.4998789277	0.5551310785	
668.125	0.6226907116	-0.2860559891	
668.75	0.1452873777	-0.2114618475	
669.375	0.5137982733	-0.4023233767	
670.0	-0.07987118451	-0.7767876169	
670.625	-0.09493686109	-0.1806051385	
671.25	0.335065913	-0.4268313682	
671.875	0.1748807733	-0.6084572729	
672.5	0.3178907823	-0.02728272855	
673.125	0.6667734486	-0.6317494317	
673.75	0.04272398987	-0.5209358173	
674.375	0.3282599098	-0.2575633244	
675.0	-0.1181574109	-1.068705814	
675.625	-0.7929873425	0.2658738462	
676.25	0.05379384207	-0.4987898251	
676.875	-0.8133642095	0.2689628608	
677.5	0.1136844425	0.01580952885	
678.125	-0.8721952717	0.3674042748	
678.75	0.5993581625	0.2992584537	
679.375	0.1557207431	0.4342591973	
680.0	0.7298676058	-0.2266296149	
680.625	-0.2000336591	-0.4993157657	
681.25	0.2136154689	0.5283119133	
681.875	0.6921934435	-0.07850624683	
682.5	0.3674324479	0.03595970461	
683.125	0.3117549632	0.1254250424	
683.75	0.8341666264	0.5498918747	
684.375	0.6049772841	-0.4526509833	
685.0	0.3679152106	0.5050715352	
685.625	1.141490548	-0.1140136202	
686.25	-0.03749823346	-0.3392999306	
686.875	1.560116914	0.1457961795	
687.5	-0.1282036013	-1.487906819	
688.125	0.5053246447	-0.2216240462	
688.75	-1.394731711	-1.118607342	
689.375	-0.1029979106	1.194313829	
690.0	-0.4761707836	0.5942707731	
690.625	1.156880982	0.6320114676	
691.25	0.3087777589	0.3973201474	
691.875	1.247429733	1.149191265	
692.5	1.390281758	-0.01500011666	
693.125	1.381307011	0.2349224095	
693.75	1.468619967	-0.6286164843	
694.375	0.8932316619	-0.8806411706	
695.0	1.151876352	-0.849800746	
695.625	0.7696250868	-0.2626770746	
696.25	1.478376671	0.9226164152	
696.875	1.299858901	0.1500865376	
697.5	0.204110758	1.296219162	
698.125	2.259216216	0.3835303474	
698.75	0.267222563	-0.4995065392	
699.375	-0.7574516192	-1.756556147	
700.0	-0.2950969262	1.410470823	
700.625	-0.4329597662	0.3260276635	
701.25	1.187164859	0.5775334651	
701.875	0.1962496438	0.2467896936	
702.5	0.9551158302	1.045118534	
703.125	0.8862009016	-0.3140657349	
703.75	0.9757978443	0.3070159088	
704.375	0.7106162963	-0.8910596998	
705.0	0.1303703742	0.002301772444	
705.625	1.346217814	0.02005246239	
706.25	0.2058362908	-0.1196797773	
706.875	0.265774929	1.242134315	
707.5	1.420483031	0.5865491013	
708.125	0.495783879	0.3926881053	
708.75	1.109107781	-1.111833018	
709.375	-0.9273308099	-0.3422695153	
710.0	-0.5854756744	0.2028511933	
710.625	0.3753954894	0.5968988139	
711.25	-0.04826937285	0.1617112899	
711.875	0.6504585037	0.4029488108	
712.5	0.5966579264	-0.078600731	
713.125	0.7526349375	-0.5618455861	
713.75	0.0269286738	-0.3877167849	
714.375	0.4664146243	-0.7310781777	
715.0	-0.5527889125	-0.4696004933	
715.625	0.4874104431	-0.06033276029	
716.25	0.4910860258	-1.431121238	
716.875	-0.0630134389	0.09509754856	
717.5	2.16665737	0.5873306922	
718.125	2.002411494	-1.747992646	
718.75	0.4167410982	1.813463483	
719.375	3.797159037	-2.607288307	
720.0	-0.4038831387	-1.292015663	
720.625	1.294343513	-1.745289675	
721.25	-0.09570331661	-3.964109907	
721.875	-1.31658167	-1.257702203	
722.5	-1.18383777	-2.716037168	
723.125	-2.368537334	0.0441265072	
723.75	-0.3921792977	0.8344235349	
724.375	-0.4152049983	1.267021468	
725.0	0.9403352903	0.9035661672	
725.625	0.3650651388	0.6564870504	
726.25	-0.3745554258	1.48507131	
726.875	-0.2021357449	3.446055627	
727.5	2.047181119	2.057066236	
728.125	-3.540980436	5.011765978	
728.75	3.925710185	9.73679208	
729.375	1.662136779	1.103034753	
730.0	-4.55401065	20.43785095	
730.625	10.71544527	3.86868431	
731.25	-9.513192632	2.215630937	
731.875	-11.66653609	12.63268674	
732.5	-4.383501261	8.476460658	
733.125	-3.589158984	-2.30856449	
733.75	-3.689548007	4.820622735	
734.375	2.184352588	0.2197633614	
735.0	0.5024501632	-0.6384389755	
735.625	-2.269827888	0.8410492896	
736.25	0.02749855274	0.03657392093	
736.875	0.8231062526	2.309716313	
737.5	3.4901983	-0.03778219717	
738.125	2.576003476	-2.885062209	
738.75	2.093794967	1.60857726	
739.375	14.07300682	-5.950078542	
740.0	-3.968780939	-16.40451406	
740.625	-0.1560650354	11.98037945	
741.25	9.439498316	27.94577132	
741.875	15.06209852	-10.84502498	
742.5	-11.03591794	-10.11934466	
743.125	-4.894337349	-0.5233766676	
743.75	3.68593474	-1.663748882	
744.375	-3.059721519	-0.2601746873	
745.0	0.4851820242	-0.2616736107	
745.625	0.2616622335	0.1723408512	
746.25	-0.2675894231	-0.4586700203	
746.875	-0.5793444552	0.05897288034	
747.5	-0.6806021381	1.121832918	
748.125	0.8643045747	1.497903793	
748.75	0.3234246932	1.009465557	
749.375	-0.4105709117	1.287346902	
750.0	-0.495913418	0.001434014659	
