!Created with skrf (http://scikit-rf.org).
# GHz S MA R 50.0 
!freq magS11 angS11
500.0 0.0176509173057 -161.663026231
500.625 0.00853733962853 138.184435406
501.25 0.0171433385506 -157.366072352
501.875 0.013188601856 -104.952438272
502.5 0.0316791209858 168.453266011
503.125 0.0128462666754 60.8493503251
503.75 0.00946828019505 -1.2561777916
504.375 0.00293944672545 -107.842906969
505.0 0.0114723566401 -62.9504473251
505.625 0.0306119576686 -74.7453176016
506.25 0.036601812184 -108.685121358
506.875 0.0656732634325 -95.8405548523
507.5 0.0389846367462 -126.806114601
508.125 0.0462234294635 -107.54518883
508.75 0.0830622456956 -114.518729876
509.375 0.0514280921362 -179.983066032
510.0 0.0262489993519 -136.174305185
510.625 0.0400181707359 -163.657190177
511.25 0.0680309959899 -169.039966813
511.875 0.057195936544 150.850119072
512.5 0.0393018837908 104.745262588
513.125 0.0592858916533 55.0035073277
513.75 0.0707717964643 48.8992350918
514.375 0.0346443504606 6.11898687113
515.0 0.0409543846201 2.32658850976
515.625 0.0823105831637 51.4967094407
516.25 0.109844232118 32.0168169828
516.875 0.0849644482371 64.7955608852
517.5 0.113183297691 20.5936989531
518.125 0.185324629145 67.9628598239
518.75 0.0913205729214 16.2430521046
519.375 0.0674526526521 22.7311334447
520.0 0.09924311756 -0.988911356581
520.625 0.100891728787 -3.67733198489
521.25 0.0920646495629 -19.0881861804
521.875 0.0537185176907 -7.16700230512
522.5 0.084991043296 -36.721048345
523.125 0.174148470552 -37.493123106
523.75 0.229363394924 -53.0199122924
524.375 0.191836317345 -66.333563892
525.0 0.065813392185 -50.2635072257
525.625 0.0384914952051 -26.5524720887
526.25 0.0434605497455 -8.86175046733
526.875 0.0561923367171 -19.8941202476
527.5 0.0495106355321 -24.3317979102
528.125 0.0410682895025 -55.5411824218
528.75 0.0751156897179 -70.4984421775
529.375 0.0866245315774 -108.551445517
530.0 0.0422562768681 -138.676299811
530.625 0.0487716195388 -148.158965314
531.25 0.0845839081724 -126.904894243
531.875 0.178113850505 -146.732978425
532.5 0.145100012927 -170.338757249
533.125 0.100183779533 177.19051242
533.75 0.127537033909 168.676779663
534.375 0.110724194644 -179.136886496
535.0 0.0820555501443 163.463191435
535.625 0.0640886626157 179.1852036
536.25 0.0582563779354 163.679446229
536.875 0.0767299800358 -158.400583976
537.5 0.0902257853571 -145.745214084
538.125 0.115805924154 -174.507967893
538.75 0.100349756944 178.734307801
539.375 0.0794437851099 -162.490891771
540.0 0.097307252437 -153.281190925
540.625 0.142481188323 -158.183647658
541.25 0.102357892084 -141.004445742
541.875 0.0947993681383 -141.784831379
542.5 0.101570802847 -141.361481289
543.125 0.145376814565 -166.4315468
543.75 0.121833290161 158.523862951
544.375 0.0947648501994 137.138615083
545.0 0.0824046093186 92.7759331971
545.625 0.09935738345 85.1157170602
546.25 0.102961040516 67.7274043035
546.875 0.0726638965654 55.1390628918
547.5 0.115381208105 59.7070925693
548.125 0.125107991341 78.7898296459
548.75 0.0777232734892 89.457129678
549.375 0.0969239729777 87.6745042299
550.0 0.0831023222873 128.325804014
550.625 0.0480886063088 159.798773802
551.25 0.0455859535645 -148.892630221
551.875 0.0659027286584 -159.128163329
552.5 0.116413032686 -164.735688602
553.125 0.0951580200778 -168.684646976
553.75 0.0902922806118 -169.27645729
554.375 0.107507664959 168.601424252
555.0 0.12612828457 165.416170526
555.625 0.0957850515497 159.454615253
556.25 0.106022322872 159.75254794
556.875 0.101570166221 169.939846587
557.5 0.111502166948 168.152604551
558.125 0.0909190687853 164.385367076
558.75 0.0905870825356 176.817605655
559.375 0.0624952059671 -171.435920667
560.0 0.0468485801959 -145.6473205
560.625 0.058955665006 -136.611814063
561.25 0.0931823781797 -153.171473286
561.875 0.100559283453 -159.091338161
562.5 0.0883392847427 177.375166625
563.125 0.106220135515 146.866680703
563.75 0.136819863188 130.050230675
564.375 0.10425866145 122.477612434
565.0 0.0889869559771 120.574571037
565.625 0.0826699536787 119.352589809
566.25 0.102093349362 150.982673275
566.875 0.0649438877482 -172.590177766
567.5 0.0705384556465 -175.46723023
568.125 0.0731238491032 -168.215889609
568.75 0.0738192573844 -149.352241674
569.375 0.0468391837043 -104.567351167
570.0 0.0619545748975 -106.122786899
570.625 0.0861235152966 -111.345739514
571.25 0.0943126237693 -124.318863556
571.875 0.0848027920688 -118.677802297
572.5 0.111153298877 -154.007169151
573.125 0.132978586883 -171.773098744
573.75 0.108263986226 161.045891646
574.375 0.0735068322443 158.723842809
575.0 0.0997932788196 161.199203951
575.625 0.104071371043 157.951272568
576.25 0.0931564368123 144.408514694
576.875 0.0803796379704 129.738268732
577.5 0.0811317316082 142.700764694
578.125 0.0590080092591 161.725483805
578.75 0.0521979118716 155.46796888
579.375 0.049993527045 179.126574028
580.0 0.0680079669798 -173.161928369
580.625 0.074760750779 -145.356342605
581.25 0.0883804828681 -169.405486588
581.875 0.114267288957 -173.900802297
582.5 0.115828900619 -173.826398523
583.125 0.0952611308699 -170.352858848
583.75 0.0819356493806 -166.133335326
584.375 0.103290275678 -159.803340549
585.0 0.0912897437017 -140.882136596
585.625 0.0731832960269 -147.572248679
586.25 0.0725953131384 -143.282008902
586.875 0.0816377785293 -128.647207802
587.5 0.0725001475309 -139.989399525
588.125 0.0603608224141 -177.916780315
588.75 0.0689006199407 -166.289269834
589.375 0.0818146083921 -152.949962506
590.0 0.0924041707144 -165.233182459
590.625 0.106321475093 164.89433134
591.25 0.122458945257 154.657782207
591.875 0.101002326362 151.935425534
592.5 0.0586584711772 154.753171505
593.125 0.0617001503287 151.732401326
593.75 0.0739913442979 174.159554662
594.375 0.0583917883654 -156.378568037
595.0 0.0421794290136 -117.065540984
595.625 0.0641195528218 -97.8232125468
596.25 0.075206069033 -84.2237045934
596.875 0.0645110120071 -82.5828915245
597.5 0.0643176052588 -51.1188105741
598.125 0.0612290428733 -64.1324341595
598.75 0.0714711640702 -72.2811850168
599.375 0.0910077762299 -61.8959227129
600.0 0.103362043952 -64.7373291772
600.625 0.0977731079722 -64.9385701824
601.25 0.0847886560872 -74.1221765421
601.875 0.0677903188987 -91.3814455831
602.5 0.0596863334623 -77.5618110814
603.125 0.0468269791565 -53.1346035186
603.75 0.0326420770922 -27.3059672724
604.375 0.0302016343508 -40.3586195946
605.0 0.0777711867514 -1.44645468957
605.625 0.052182337841 -4.95569722727
606.25 0.0261409763307 16.2271999929
606.875 0.0236936954374 43.0224678133
607.5 0.0558565011508 42.6532077587
608.125 0.0783479294689 28.920837307
608.75 0.0670189212105 22.7629076187
609.375 0.0476383708983 19.6235707068
610.0 0.0903984353108 55.2690832894
610.625 0.0690951335968 40.0139330839
611.25 0.051726765559 41.0132328056
611.875 0.0294255041284 20.7562661394
612.5 0.0194270554861 90.5986178892
613.125 0.0310685030647 128.621951111
613.75 0.0431140219639 123.052314136
614.375 0.0518446738861 125.8334517
615.0 0.0191806629647 104.259200006
615.625 0.0471934356864 136.241542465
616.25 0.0639966765429 134.162914386
616.875 0.0571004376855 134.884853547
617.5 0.0230200848932 108.678140447
618.125 0.0325658210005 130.221210933
618.75 0.049636371708 142.311230402
619.375 0.0274427756594 143.622561407
620.0 0.00756814029605 -8.87950735114
620.625 0.0185841449041 -99.6525166495
621.25 0.0425857456631 -90.0910940198
621.875 0.0604142449655 -112.404064537
622.5 0.0687345470654 -155.078229184
623.125 0.0952130126753 160.139673703
623.75 0.0762695612539 159.178323116
624.375 0.0493268645291 -179.607379172
625.0 0.028260230686 -110.627457649
625.625 0.0690121809291 -157.830494575
626.25 0.0269438288255 172.674315543
626.875 0.00653899524239 -92.8088864404
627.5 0.0465600915576 -10.9762175071
628.125 0.0388111482484 -20.6533096024
628.75 0.0373753474936 -14.6143977911
629.375 0.0550245498567 -2.32559317954
630.0 0.0646022220349 -2.25543241356
630.625 0.0693744842116 2.40677383388
631.25 0.0683034275993 -9.86222905792
631.875 0.0787194119556 -6.62663028092
632.5 0.0670149119634 11.3239133328
633.125 0.0485267369279 9.5249335958
633.75 0.041460866365 -0.637993712946
634.375 0.0413407054892 16.4903389657
635.0 0.0340766134881 15.1014895598
635.625 0.0535636322792 49.5606791892
636.25 0.0409799956959 8.82929844305
636.875 0.0581531711974 34.2147773191
637.5 0.0464857104803 51.9926283161
638.125 0.0433792013151 72.2050823176
638.75 0.0754114899052 72.756426957
639.375 0.089956053436 90.6772728145
640.0 0.071768671776 107.157923832
640.625 0.0527827648039 104.630936763
641.25 0.0783124968776 129.739829309
641.875 0.0648343445901 149.428001885
642.5 0.0596036316237 146.97102412
643.125 0.0715340935399 164.131949601
643.75 0.069281937445 169.711763784
644.375 0.0766894280096 -172.25903401
645.0 0.0838943725691 177.309352993
645.625 0.0902972729262 168.82702274
646.25 0.0993769716528 169.116996795
646.875 0.0611114931785 172.466193319
647.5 0.0593715290538 -177.941831579
648.125 0.0832227779828 -174.700107037
648.75 0.0891661617549 -157.580028308
649.375 0.0370877804212 -170.593277741
650.0 0.0341811190251 -121.088009617
650.625 0.0580207895743 -93.8473261878
651.25 0.0820772588656 -65.2682913997
651.875 0.0457455784464 -45.3481308378
652.5 0.0861718819023 -20.5607711118
653.125 0.114825156429 -3.71981338282
653.75 0.122390251179 6.58358825229
654.375 0.105896796428 6.80638329575
655.0 0.117497448199 13.9446662116
655.625 0.0900591313923 27.1265273836
656.25 0.0722643688018 24.0910835427
656.875 0.0484166377746 -4.99736112998
657.5 0.0761087487979 22.9597786535
658.125 0.0754990949503 50.2840274621
658.75 0.0629849765528 63.0228918279
659.375 0.0807873036084 39.2513663021
660.0 0.111616528801 26.7383258093
660.625 0.116564406162 19.3248228764
661.25 0.108056482055 5.82519680718
661.875 0.13409066397 -12.2732735323
662.5 0.122577568301 -19.4588421897
663.125 0.100229520722 -19.3652923328
663.75 0.106924740183 5.04057908926
664.375 0.093931466253 51.1852889719
665.0 0.0655123838728 89.3017509674
665.625 0.0652749237435 114.153897445
666.25 0.091898775997 129.867173727
666.875 0.110669152006 173.676519548
667.5 0.0902246390231 -166.544583362
668.125 0.101786889397 -177.241531198
668.75 0.138945461515 165.578078798
669.375 0.100525733174 176.665398042
670.0 0.0774075684627 -167.040917035
670.625 0.0778617894575 -171.31160338
671.25 0.125150319339 173.430096988
671.875 0.0840333409936 168.888006539
672.5 0.0772101979348 154.502360086
673.125 0.0728275145953 154.56578559
673.75 0.121135000317 156.90835452
674.375 0.106174987526 170.976682268
675.0 0.112159802427 -171.981879692
675.625 0.118772033821 -149.983468141
676.25 0.130820588771 -126.056103055
676.875 0.100826160685 -118.246683113
677.5 0.11498626198 -125.698327647
678.125 0.111355872643 -118.259583643
678.75 0.0770045477863 -95.3672216217
679.375 0.0429849381681 -69.8124372645
680.0 0.0738580915334 -76.8093671419
680.625 0.128631062127 -78.8000554239
681.25 0.105426554871 -72.7729255327
681.875 0.10520778528 -95.2241540985
682.5 0.125574859818 -113.740161169
683.125 0.158316789803 -118.820916929
683.75 0.125609816696 -104.469296897
684.375 0.124760879784 -81.235296975
685.0 0.135681144729 -41.777200702
685.625 0.124766772252 -1.67243046524
686.25 0.114590154771 19.6265012762
686.875 0.0966696959527 43.4993780096
687.5 0.0674957366446 84.7289486653
688.125 0.0802994463489 111.114912673
688.75 0.105882256129 110.810766556
689.375 0.147922499052 118.590886318
690.0 0.140418218485 131.45191785
690.625 0.119521367011 127.614151998
691.25 0.144415660132 98.064300055
691.875 0.188334572272 70.9349907473
692.5 0.153256727131 38.3104611574
693.125 0.0712957205978 -7.85264324365
693.75 0.0930080609256 -36.7402790294
694.375 0.123284618361 -28.3933088077
695.0 0.133762260456 10.1437179317
695.625 0.106415114758 50.4517531648
696.25 0.115057252209 114.208209615
696.875 0.134161865926 177.713370881
697.5 0.135738416083 -140.284415532
698.125 0.146868840591 -137.7066176
698.75 0.123714161634 -130.415025241
699.375 0.113398339598 -126.511734859
700.0 0.0994797221351 -116.030953588
700.625 0.110810541988 -88.285853143
701.25 0.0999486022672 -62.964946788
701.875 0.0830774855604 -61.3257871351
702.5 0.101141547383 -83.7115848194
703.125 0.17302776486 -126.682174593
703.75 0.164666455387 -144.726665652
704.375 0.121802803392 176.537010557
705.0 0.103026571569 161.557733666
705.625 0.148613942799 -174.380248157
706.25 0.142564155773 -109.948875579
706.875 0.0920524191151 -62.9500836913
707.5 0.0789206076949 -39.3837791082
708.125 0.0912350722595 17.1449836504
708.75 0.114908983833 61.02009739
709.375 0.107316371607 104.958021071
710.0 0.105089641804 133.750693138
710.625 0.103486615183 158.024179628
711.25 0.119145324605 167.110511203
711.875 0.1457405261 169.046303889
712.5 0.155478415223 140.14792623
713.125 0.129558108239 97.9564585457
713.75 0.105916482465 41.0040130393
714.375 0.111390204004 36.9210260679
715.0 0.11798527474 39.9813839575
715.625 0.0805915844096 60.5586188191
716.25 0.0755371107709 67.5558667588
716.875 0.127347103571 113.97650684
717.5 0.143849516284 146.19703709
718.125 0.1203205948 168.694284607
718.75 0.102878584625 171.864316328
719.375 0.110195176614 179.110534921
720.0 0.137651528652 -112.895883895
720.625 0.11542247267 -68.2571455885
721.25 0.098929591206 -22.5242435104
721.875 0.0822726013934 32.0554205747
722.5 0.0736738176244 68.0465478121
723.125 0.0751571292956 66.9117465847
723.75 0.111124673075 42.1962341906
724.375 0.100869716941 -10.6464783861
725.0 0.102767445607 -33.5113078907
725.625 0.114591583705 -57.898705588
726.25 0.107256359372 -60.1707739451
726.875 0.0960798583465 -64.0126984312
727.5 0.0922776247726 -14.3143520887
728.125 0.077567944045 -4.06571543942
728.75 0.0919649065881 16.1919699886
729.375 0.0872833576962 19.0545401086
730.0 0.0593118974053 -9.73123495431
730.625 0.0939262538247 40.2645880479
731.25 0.0913184742652 75.882570059
731.875 0.0761919268522 121.899046408
732.5 0.0540769221421 140.648456743
733.125 0.0874378999987 173.017086617
733.75 0.0902012329693 -176.926060648
734.375 0.0653624118728 169.882243966
735.0 0.0385676274821 133.181590591
735.625 0.0548982876256 150.859295381
736.25 0.0657717761438 147.02457182
736.875 0.0571558333335 166.441798657
737.5 0.0548624516059 -175.84144335
738.125 0.128627854726 -167.001694444
738.75 0.095109834994 -168.916400082
739.375 0.0659023539029 -152.587403915
740.0 0.0133023582769 -108.232981535
740.625 0.0498897446362 -142.624119159
741.25 0.0433117154924 -155.234573996
741.875 0.0403764298723 -111.769027619
742.5 0.038552620331 -23.236960426
743.125 0.0212627816785 86.8217400875
743.75 0.036634032034 96.7987126919
744.375 0.0316031858582 149.229632446
745.0 0.0480913054925 153.193744352
745.625 0.0701065481784 113.671367328
746.25 0.0775418231359 82.7945781746
746.875 0.0795039025391 31.9389456001
747.5 0.0401727282878 6.65356584286
748.125 0.0156970770307 67.434861029
748.75 0.0399741189514 -28.5509355623
749.375 0.0316224412629 -27.2594817545
750.0 0.0327880479146 -60.8921673754
