!Created with skrf (http://scikit-rf.org).
# GHz S MA R 50.0 
!freq magS11 angS11
500.0 0.016161946582 153.699040277
500.625 0.00808217657357 69.6367975847
501.25 0.00937154664838 -74.5227134835
501.875 0.0242787694388 -163.105230927
502.5 0.0396860586526 172.483866705
503.125 0.021048983792 111.601547364
503.75 0.00592994579401 24.3641964973
504.375 0.0230391811212 -65.281610519
505.0 0.00551338194111 48.5512633529
505.625 0.0229228897182 -68.6699760279
506.25 0.0449061383756 -119.576283161
506.875 0.085115072377 -91.4556801941
507.5 0.0481565596003 -120.704053751
508.125 0.0526022075398 -86.7188729324
508.75 0.0671862401164 -123.586105254
509.375 0.0642994592684 -129.200772695
510.0 0.0379221264125 -113.560495421
510.625 0.0327728706393 -159.487534573
511.25 0.0612030058581 -170.994934248
511.875 0.0671013278196 152.200180811
512.5 0.0335963188213 84.7758429223
513.125 0.0468036727026 35.0310164193
513.75 0.0597189268683 38.5022295263
514.375 0.039096377718 6.56949830204
515.0 0.0524399221449 5.51999625689
515.625 0.0836463576475 43.3845636254
516.25 0.100233590145 30.6564719449
516.875 0.113533161942 68.713592053
517.5 0.125178926003 19.3247751947
518.125 0.213360531657 70.9912467552
518.75 0.100472014288 15.451702826
519.375 0.0533652568364 12.4189686964
520.0 0.0846903762857 -5.43540447159
520.625 0.103476111624 -9.69293710765
521.25 0.101099155143 -20.2226896117
521.875 0.0689784878825 -0.866514606167
522.5 0.103191318496 -34.5761099338
523.125 0.191986537147 -34.917897658
523.75 0.220196345851 -57.8418885337
524.375 0.230471667879 -49.128317617
525.0 0.0730668158895 -46.8851497293
525.625 0.0394280284307 -34.991054982
526.25 0.0584145020082 -8.03443081422
526.875 0.0455202149307 -28.7299897355
527.5 0.0458661961287 -31.6685495009
528.125 0.037546613823 -62.6141087175
528.75 0.0766642392989 -74.6580396895
529.375 0.0696810951548 -121.746300912
530.0 0.0517737951978 -131.417610693
530.625 0.0412686985088 -144.404991462
531.25 0.13578256427 -142.353609967
531.875 0.155434770978 -148.730394584
532.5 0.132996582186 -172.170453717
533.125 0.0944626499092 171.594024014
533.75 0.137307302932 163.04028845
534.375 0.0925553657421 174.775248263
535.0 0.0894112169354 161.326484673
535.625 0.0634105485609 169.848174194
536.25 0.073769348227 158.292685854
536.875 0.0840173996864 -160.92290612
537.5 0.0994871972039 -145.642945848
538.125 0.106885796202 -175.838323332
538.75 0.118677381485 178.021830513
539.375 0.0714925721005 -164.972252646
540.0 0.0865068647681 -155.292246122
540.625 0.136008103509 -159.008712324
541.25 0.142484957998 -145.019597474
541.875 0.100248190533 -144.380354105
542.5 0.112953394349 -145.440269397
543.125 0.142910943433 -169.648118213
543.75 0.143021542177 156.895693062
544.375 0.0856471053917 132.095029276
545.0 0.0890432517715 88.4685726573
545.625 0.0969664274808 77.7657012016
546.25 0.100128696364 64.5092645394
546.875 0.089800427307 51.1338003739
547.5 0.107517786058 56.0371448391
548.125 0.124418532408 75.5056648863
548.75 0.10099887834 88.0694865136
549.375 0.0817605545835 85.5449316267
550.0 0.0902322962502 122.300262266
550.625 0.0455252108339 147.109743937
551.25 0.0426309174833 -151.853134855
551.875 0.0565121272479 -151.091886472
552.5 0.101375854308 -163.355699677
553.125 0.0908808643142 -170.118243206
553.75 0.0949440235674 -175.127031578
554.375 0.0978782812107 171.221481296
555.0 0.12277775546 161.945846208
555.625 0.0987381726965 154.698120229
556.25 0.10083980882 159.996838487
556.875 0.125676446459 162.122213814
557.5 0.114051010363 163.794378016
558.125 0.097113693602 163.782884961
558.75 0.0889251581405 174.093258259
559.375 0.0531366901303 -172.397167684
560.0 0.0422050708374 -146.792904968
560.625 0.0538344445063 -141.826024537
561.25 0.0918435751581 -158.218393965
561.875 0.0978321787741 -161.013481712
562.5 0.0948702123498 169.974361059
563.125 0.101436904573 144.621846399
563.75 0.141973703451 124.643796736
564.375 0.0954442400452 122.688721091
565.0 0.083174887717 120.367383071
565.625 0.0789395270528 115.009594612
566.25 0.106020250399 144.085510804
566.875 0.0764426074538 176.848035572
567.5 0.0743236224403 178.565660334
568.125 0.0844786935366 -175.000008226
568.75 0.0740822690095 -152.3852982
569.375 0.053487353108 -121.695406734
570.0 0.0603864677668 -110.782486586
570.625 0.0945379006904 -124.834938527
571.25 0.0925753566747 -125.36077142
571.875 0.0895846375888 -134.066398
572.5 0.111054405416 -159.268700088
573.125 0.145008121219 -177.848178041
573.75 0.108110748799 159.266610881
574.375 0.086638183518 144.006721541
575.0 0.107338982651 148.463848798
575.625 0.11427739799 149.428941874
576.25 0.0946193881401 140.292834902
576.875 0.0748060927306 134.032034344
577.5 0.0861926416156 133.592087643
578.125 0.0577597164149 157.41337268
578.75 0.0512859043968 156.355502243
579.375 0.0544065056508 156.351382487
580.0 0.0673512561336 176.282920022
580.625 0.0779814791512 -156.148208916
581.25 0.0886217452144 -167.302450667
581.875 0.115662954143 174.552162871
582.5 0.115901722728 -175.243486329
583.125 0.0928364183287 -167.796610482
583.75 0.0785445764457 -166.967835507
584.375 0.106156293954 -169.529064921
585.0 0.0889911749108 -138.385338665
585.625 0.0705036690123 -144.933711256
586.25 0.0710978854267 -146.066126247
586.875 0.0849293643272 -146.829477229
587.5 0.0735156126585 -144.992078155
588.125 0.0588160825297 -169.904899721
588.75 0.0641999298135 -167.171070432
589.375 0.0811454563523 -166.890116158
590.0 0.0969461109093 -160.607119234
590.625 0.106464787407 164.060902231
591.25 0.119669805299 154.082126604
591.875 0.102308709922 148.577049916
592.5 0.0617140259928 149.265444206
593.125 0.0663247819001 148.246405476
593.75 0.0772670803326 174.851696865
594.375 0.0611619356085 -172.184531964
595.0 0.0484642437134 -106.379830834
595.625 0.0574731095468 -104.139203309
596.25 0.0709034497114 -85.3005025298
596.875 0.0650784625231 -82.8672605961
597.5 0.0621962471142 -60.8807265815
598.125 0.0725252299875 -56.6664432329
598.75 0.0778610257867 -67.5642945393
599.375 0.0801449125298 -75.097226646
600.0 0.10416329841 -64.6631624854
600.625 0.103957629564 -64.7206822601
601.25 0.0823391518175 -72.3880088665
601.875 0.0686354068912 -104.062453517
602.5 0.0664684590344 -70.3483829259
603.125 0.0439567868243 -61.307042719
603.75 0.0266215388899 -55.1919355602
604.375 0.0374746505486 -31.5425420329
605.0 0.0477700484277 -38.4372824319
605.625 0.0521691362202 -3.76256255726
606.25 0.029815269026 12.5623004943
606.875 0.0280149472324 41.7606681623
607.5 0.0353301381334 35.5422869015
608.125 0.0649401599027 25.5939569587
608.75 0.0542588555887 18.5230178909
609.375 0.0600399350937 24.8989001505
610.0 0.0594749004258 31.6485929121
610.625 0.0655122327191 34.4117486245
611.25 0.0547739853528 31.3773822723
611.875 0.0346750440758 39.0806214903
612.5 0.0115138284674 0.192268162529
613.125 0.0477570135199 124.693382042
613.75 0.0469202184918 122.722579528
614.375 0.0385537238744 125.189571063
615.0 0.0175400503172 109.364966601
615.625 0.0414708284571 133.401787972
616.25 0.0386853614107 141.365634631
616.875 0.0270129391838 128.826204072
617.5 0.0115886526374 105.670147491
618.125 0.0517309271538 132.708889934
618.75 0.0222669424354 146.306110555
619.375 0.0139542569703 145.44721621
620.0 0.0218828405082 -35.1200086923
620.625 0.0219039709713 -175.004062088
621.25 0.0395966547314 -120.887288946
621.875 0.0695458130937 -112.330848564
622.5 0.073037464049 -146.559218322
623.125 0.0773738151822 173.531334983
623.75 0.0559782869707 172.595970475
624.375 0.0418075039287 -163.799139368
625.0 0.0371640633613 -142.868214733
625.625 0.0256005352642 -131.639887332
626.25 0.0235573106991 -176.265498366
626.875 0.00343642182845 58.0651177603
627.5 0.0314959757513 -16.4726388681
628.125 0.0579100417774 -4.13943732481
628.75 0.0314987617944 -45.7943648323
629.375 0.0367558469368 -19.1253044009
630.0 0.064819002741 -8.66630892111
630.625 0.0833638879511 20.1914701538
631.25 0.0697409747455 5.43164952123
631.875 0.0643742070454 -5.65963267099
632.5 0.0616371388201 1.06011590154
633.125 0.0570366687168 29.6128568487
633.75 0.044845848074 -26.4350879774
634.375 0.0459973999475 7.54483677954
635.0 0.0457574724942 23.779419475
635.625 0.0394524431832 42.575925314
636.25 0.0661123476743 45.1495246436
636.875 0.0628725278885 35.7286563876
637.5 0.0379000615665 27.8534046955
638.125 0.0400743590527 61.8371790042
638.75 0.0987696823547 76.2715936709
639.375 0.0775655538761 77.2538312508
640.0 0.0680571628528 97.5251961421
640.625 0.0507784835694 94.71824222
641.25 0.0850116734847 125.786598278
641.875 0.0513601033625 129.628162197
642.5 0.0591328620256 160.792635716
643.125 0.0612531462856 158.912741538
643.75 0.0896153435754 173.68736792
644.375 0.0644521644512 -179.827719993
645.0 0.0706116734631 177.678171999
645.625 0.0855249339527 162.750347475
646.25 0.113095361552 167.125431198
646.875 0.0608249233861 168.904413586
647.5 0.0664398529869 -177.891312563
648.125 0.0849231344929 176.466780273
648.75 0.0864464183953 -161.277544378
649.375 0.049868405984 -152.883398947
650.0 0.0531056460281 -123.624606044
650.625 0.0732946175012 -90.7294359903
651.25 0.0737297269099 -67.0950184649
651.875 0.0747360513008 -46.5172310741
652.5 0.0845849457049 -26.7556254576
653.125 0.120344692043 -3.46807448609
653.75 0.119813590051 5.54761665587
654.375 0.0923862396886 2.50503829669
655.0 0.111263428424 8.8745593973
655.625 0.0990522855193 24.8034076168
656.25 0.065724488151 20.974204756
656.875 0.076974012695 5.73735512686
657.5 0.0827359780784 17.7479578141
658.125 0.0600801094093 45.7997420623
658.75 0.0582062013922 59.2427587993
659.375 0.0946644245702 31.4657884691
660.0 0.0939311650365 25.1089796724
660.625 0.109407852776 16.1525061746
661.25 0.100683318458 1.02846510805
661.875 0.135611303052 -16.7957512583
662.5 0.105822713027 -23.9178920783
663.125 0.112110937789 -17.0976458347
663.75 0.102765004005 1.78978568907
664.375 0.118098662494 51.6091669838
665.0 0.0790208346704 86.7564943927
665.625 0.0620681915313 107.942804147
666.25 0.0958673316969 124.212429037
666.875 0.0907589789054 172.503565816
667.5 0.103029770315 -172.68335679
668.125 0.104342568594 175.699057594
668.75 0.137481066754 162.63366696
669.375 0.143081219747 173.132392904
670.0 0.0918040051164 -175.067746298
670.625 0.0953698517636 -176.604785303
671.25 0.11850190906 171.264063856
671.875 0.118440468045 163.242322748
672.5 0.0678701094834 156.050354679
673.125 0.0896713552181 148.639388724
673.75 0.120827602298 151.929689933
674.375 0.108292648393 170.561962731
675.0 0.117062800373 -176.925764426
675.625 0.138800422228 -154.804733484
676.25 0.136254193411 -130.615915827
676.875 0.111768965091 -123.126176417
677.5 0.128082029601 -131.080888065
678.125 0.140876214139 -120.631286516
678.75 0.0768474755145 -97.444766016
679.375 0.0604743728642 -83.3914060326
680.0 0.074341572155 -83.8089472808
680.625 0.114045930609 -74.9633931465
681.25 0.103521436608 -74.3450827434
681.875 0.104703568132 -100.013184868
682.5 0.135943672514 -120.336407988
683.125 0.16811437024 -125.684121782
683.75 0.14993058776 -108.554292843
684.375 0.121839967471 -82.1879813048
685.0 0.147630835765 -46.1092934111
685.625 0.134022885924 -3.73080447634
686.25 0.106154209161 22.8239447006
686.875 0.0941175076806 42.2620989814
687.5 0.0886943885748 72.8770216814
688.125 0.0788459608176 104.572672531
688.75 0.100806009698 115.099262366
689.375 0.142177002702 116.120064154
690.0 0.144287517063 125.856144705
690.625 0.113418252168 130.204977824
691.25 0.13858155384 96.7221570772
691.875 0.187735259283 63.1776176977
692.5 0.159477687744 34.5764186219
693.125 0.0966161327301 -20.5128301553
693.75 0.0955992115411 -43.4357695604
694.375 0.139050016814 -33.988107843
695.0 0.130252619445 7.74116888931
695.625 0.107356383636 45.8324657739
696.25 0.109784380514 120.351567454
696.875 0.140475926322 168.605085824
697.5 0.148743323289 -150.491800104
698.125 0.14207555678 -136.251106533
698.75 0.125098228125 -128.369088371
699.375 0.106806562719 -123.801822171
700.0 0.0966433485256 -116.989390767
700.625 0.121793278969 -102.660277167
701.25 0.0916464023874 -57.9462698139
701.875 0.0832093417299 -59.6495059576
702.5 0.0989703782668 -83.8251898062
703.125 0.168276136346 -134.001172142
703.75 0.191506714992 -160.631277851
704.375 0.133635592264 166.491250431
705.0 0.112927763145 153.851956892
705.625 0.144511173907 -175.610660039
706.25 0.16018565754 -124.174159892
706.875 0.0911661426393 -61.0304303258
707.5 0.075889436044 -34.4876027278
708.125 0.0837742804274 17.9691331638
708.75 0.112265076471 48.7994514385
709.375 0.107098047425 111.637536151
710.0 0.101001129676 127.827437799
710.625 0.105646894225 143.775955369
711.25 0.116964342369 160.360966764
711.875 0.148671365348 162.83264697
712.5 0.15209095118 147.001767233
713.125 0.130298665799 97.6762202587
713.75 0.110193052782 33.7570281839
714.375 0.109878652997 20.5956678539
715.0 0.117798442671 21.1670381002
715.625 0.0871081490177 36.7234076465
716.25 0.0767833477775 68.3051538789
716.875 0.104860062916 88.3347001449
717.5 0.152988285624 153.68639349
718.125 0.11684367614 164.153263388
718.75 0.0990678140084 170.405067671
719.375 0.112182590029 176.421516664
720.0 0.125899187337 -142.872489448
720.625 0.118436386671 -81.4680252818
721.25 0.0924855026703 -23.9730750911
721.875 0.088574031418 8.54564727481
722.5 0.0782525994444 78.0132336324
723.125 0.0879640984582 76.311268136
723.75 0.106751210425 43.6268806058
724.375 0.095270266319 -17.517964159
725.0 0.101032332987 -37.6502251271
725.625 0.0971105540909 -74.3668777947
726.25 0.115167291339 -73.954497908
726.875 0.102774339708 -57.0879314141
727.5 0.076622902851 -53.9911768484
728.125 0.0952663999808 2.87784702416
728.75 0.095957599837 22.3270645276
729.375 0.0860864356323 21.7410133628
730.0 0.0530160892231 -16.823678393
730.625 0.052566978575 5.36305606329
731.25 0.0593969330557 58.9197879425
731.875 0.048411728124 97.3977994619
732.5 0.0684168777674 145.957289939
733.125 0.0582488781721 154.374199218
733.75 0.0699811300695 162.168390902
734.375 0.057291760138 179.523539231
735.0 0.0232095316884 102.461351765
735.625 0.0891955426933 150.231828235
736.25 0.0298854951831 141.581770879
736.875 0.0403243645726 -176.566259876
737.5 0.0557729460306 -172.795944626
738.125 0.068185422029 -179.14609573
738.75 0.0627883280906 179.799620626
739.375 0.0292963152501 161.860645447
740.0 0.0326033603853 -152.664018634
740.625 0.0197009352404 -114.167044931
741.25 0.0691079203079 -160.112252632
741.875 0.0470031178762 -113.152320849
742.5 0.0252213770273 -3.54042481585
743.125 0.0264874446621 130.970895672
743.75 0.0606842313688 73.8422701058
744.375 0.0471914467019 96.6970964621
745.0 0.0503848726759 138.751500061
745.625 0.0681716166994 145.129577348
746.25 0.09490805849 63.9322718789
746.875 0.0650278902244 39.0547284967
747.5 0.0446857356162 20.6267963967
748.125 0.0155366994519 15.2205427571
748.75 0.025340057705 52.2023198792
749.375 0.0427506140293 -67.139376375
750.0 0.0322245888103 -118.31671771
