!Created with skrf (http://scikit-rf.org).
# GHz S RI R (50+0j) 
!freq	ReS11	ImS11	
500.0	0.002522620418	-1.44573488	
500.625	0.05862270546	-0.3756512894	
501.25	-0.2330138445	-0.8745198716	
501.875	-0.4771869354	-0.1736731096	
502.5	0.01987762293	-0.07909100077	
503.125	-0.1025698112	0.01493985913	
503.75	0.03065731758	0.002180392908	
504.375	0.03892495952	0.0171257571	
505.0	-0.01168056371	-0.03802898611	
505.625	0.05744939792	-0.03623560834	
506.25	-0.1309454084	-0.09508202403	
506.875	0.0900630335	0.03011920404	
507.5	-0.03250666593	-0.5893669922	
508.125	-0.2403772251	-0.4869575633	
508.75	0.7302541145	-0.5400010841	
509.375	-0.2419497231	-1.142722661	
510.0	-0.3464906547	0.0242570321	
510.625	0.001593820997	-0.1638242698	
511.25	-0.1222774417	-0.02201872131	
511.875	-0.01720795818	-0.001635928576	
512.5	-0.04924151877	0.04462713035	
513.125	-0.04355688937	-0.04455164892	
513.75	0.01682361232	-0.01605942647	
514.375	-0.1145643574	-0.07621572945	
515.0	0.1564180957	0.2371377951	
515.625	-0.1188056206	-0.6407167902	
516.25	-0.04046731571	0.1686044232	
516.875	0.1827541003	-0.4371069683	
517.5	-0.08402324335	-0.2527320318	
518.125	0.009370884389	0.04122723418	
518.75	-0.04677216409	-0.1784972608	
519.375	-0.02544139665	0.05042235491	
520.0	0.07806385728	0.06752776848	
520.625	0.1778287989	-0.0275817473	
521.25	-0.03472680736	-0.2026330675	
521.875	-0.05798011249	-0.01484176005	
522.5	-0.08470947354	-0.002440454764	
523.125	0.05888543896	0.0645511006	
523.75	-0.05888393716	-0.1021870633	
524.375	-0.199404475	0.1355108553	
525.0	0.03118564427	0.005148636841	
525.625	-0.03617959744	0.09524167355	
526.25	0.04099463681	-0.07377744787	
526.875	-0.092728293	0.09421246107	
527.5	0.03366681355	0.08820354603	
528.125	-0.03458527176	0.1923463859	
528.75	0.117225207	0.1790720891	
529.375	0.04475393085	-0.007024228594	
530.0	-0.03808887337	0.1971659567	
530.625	0.05622630776	0.269913869	
531.25	0.2590835829	0.08358235721	
531.875	0.3088087388	-0.1535559765	
532.5	-0.112217693	-0.1156466425	
533.125	0.1361142437	0.0365871993	
533.75	-0.0182044158	-0.2168088333	
534.375	0.0003114522852	-0.1619592257	
535.0	-0.2255656372	-0.1788533055	
535.625	-0.0963293966	0.1450896355	
536.25	-0.02212793819	0.05961967064	
536.875	0.1155031566	0.01826513578	
537.5	0.02092257031	-0.04631494739	
538.125	0.1393078411	-0.01185497903	
538.75	0.07867914938	-0.1666653636	
539.375	-0.03526865542	-0.09668082091	
540.0	-0.1318391053	-0.1465175678	
540.625	-0.1710137832	-0.01763144844	
541.25	-0.04404137812	0.01146303213	
541.875	-0.08489144893	-0.05740796906	
542.5	-0.02940964965	0.004945968086	
543.125	-0.00255059356	-0.0712827826	
543.75	-0.117860499	0.03167731486	
544.375	-0.0103824231	-0.00319825704	
545.0	-0.037471137	0.1132827901	
545.625	0.05152127289	0.0004452021051	
546.25	0.04288082088	0.1260613099	
546.875	0.1438595359	-0.07292342314	
547.5	0.008179131499	-0.06453538001	
548.125	0.01491322413	-0.1673402177	
548.75	-0.1642783289	-0.09434857122	
549.375	-0.05755016931	-0.02757404836	
550.0	-0.1043040499	-0.02739125849	
550.625	-0.01711134602	0.03529931282	
551.25	-0.08418344985	-0.005824232809	
551.875	-0.0544003619	0.09012196594	
552.5	-0.02216470663	0.04860278687	
553.125	-0.02316605735	0.06708077948	
553.75	0.04140523187	0.03053401736	
554.375	0.08076193936	0.005920565402	
555.0	0.09640075486	-0.07356091558	
555.625	0.07055450299	-0.09552865533	
556.25	0.06034788598	-0.1203353723	
556.875	-0.03627329019	-0.1463076581	
557.5	-0.09458546031	-0.08942274927	
558.125	-0.10392599	-0.03419998001	
558.75	-0.1055309631	-0.005657198685	
559.375	-0.1004956951	0.03156977825	
560.0	-0.07632896346	0.05725919933	
560.625	-0.05968375722	0.1090528115	
561.25	0.03747069508	0.09134401414	
561.875	-0.004066032152	0.03557451407	
562.5	0.04350171487	0.05683846087	
563.125	0.02873262288	0.05588698215	
563.75	0.1628216318	0.01718330088	
564.375	0.08692702376	-0.1197381167	
565.0	0.0645701769	-0.08009688406	
565.625	-0.03457462206	-0.1899822143	
566.25	-0.1204505906	-0.03314620773	
566.875	-0.07942747217	-0.1083539441	
567.5	-0.1822695321	-0.09077092902	
568.125	-0.0898227168	-0.07519289238	
568.75	-0.235923811	-0.161785267	
569.375	-0.1970171614	0.1719633005	
570.0	-0.0749369252	0.1124343654	
570.625	-0.1182383093	0.189024826	
571.25	0.1146840602	0.07720391847	
571.875	-0.02917539888	0.09831105512	
572.5	0.1761743855	-0.05061840574	
573.125	-0.0005379689608	-0.0521500913	
573.75	0.1530390706	-0.1021297505	
574.375	-0.07732759615	-0.1183460268	
575.0	0.0636392589	0.046276636	
575.625	0.03005810155	-0.1500143134	
576.25	-0.02502145543	-0.04545764735	
576.875	0.08582214735	-0.1268894525	
577.5	-0.04600606864	-0.2305322516	
578.125	-0.07613227136	-0.05673410351	
578.75	0.04214377725	-0.1528180502	
579.375	-0.1952747199	-0.1030836929	
580.0	0.03509755623	0.03902537973	
580.625	-0.1566421228	-0.08613907877	
581.25	0.05885815775	0.1244939662	
581.875	-0.08404328887	0.06795357291	
582.5	0.0573478024	0.2394255574	
583.125	0.1125790601	-0.06875468513	
583.75	-0.05363271732	0.09751479622	
584.375	0.1273315499	0.01301592834	
585.0	-0.0130329999	0.05692367323	
585.625	0.2479911325	0.02719470281	
586.25	0.06238493281	-0.1282873373	
586.875	0.09313593984	-0.03651916862	
587.5	-0.009400875813	-0.2120707696	
588.125	-0.0618372544	-0.05247940916	
588.75	0.1084903652	-0.1037724595	
589.375	0.03725130565	-0.2260076612	
590.0	-0.06540681329	-0.05635205338	
590.625	-0.1431430454	-0.163649145	
591.25	-0.134698705	0.2254874034	
591.875	0.02844221298	-0.03527637416	
592.5	-0.0738065025	0.1278342922	
593.125	0.04198853195	-0.08126945772	
593.75	-0.01243195794	0.2358153389	
594.375	0.2149145247	0.008321958737	
595.0	0.05759476889	0.05244318669	
595.625	0.2165544789	0.1454762371	
596.25	0.1822922032	-0.04630069412	
596.875	0.07682939923	0.1008699231	
597.5	0.2040653977	0.1124379955	
598.125	0.1061765845	0.02757957604	
598.75	0.1341724145	0.126936614	
599.375	0.2602719358	-0.05410446512	
600.0	0.06628332741	-0.1519456423	
600.625	0.1447648334	-0.1001906334	
601.25	0.07441106418	-0.2387210278	
601.875	-0.1260423373	-0.06088095966	
602.5	-0.05818231809	-0.1027429469	
603.125	-0.1507468128	0.1591072244	
603.75	-0.00237679171	0.03651228782	
604.375	-0.2093658407	0.03919127876	
605.0	0.003005239103	0.1714860485	
605.625	-0.03749525893	-0.05874031008	
606.25	-0.138343375	0.1550342899	
606.875	-0.06306776677	0.02280875567	
607.5	-0.2008376351	0.1127264557	
608.125	-0.007016634879	0.3196713093	
608.75	0.1455667807	0.05040127364	
609.375	0.2327248876	-0.02935355012	
610.0	0.166346951	-0.163970487	
610.625	-0.006064633758	-0.09624736464	
611.25	0.07619986229	-0.1370509662	
611.875	-0.1430938937	-0.1468469219	
612.5	-0.05551542757	-0.02921199185	
613.125	-0.2375205993	-0.02977403472	
613.75	-0.02772673999	0.2385786263	
614.375	-0.01938610224	-0.002955239662	
615.0	0.1453350572	0.1154055116	
615.625	0.008717100402	-0.03352866373	
616.25	-0.1403850591	0.1510727897	
616.875	0.004107037375	0.2706799418	
617.5	-0.09762288704	0.1753113565	
618.125	-0.05602621716	0.2505343537	
618.75	0.06326487103	0.1809517098	
619.375	0.03847143781	0.07887199465	
620.0	0.1513337901	0.0924442979	
620.625	0.07006586018	-0.1818313533	
621.25	-0.1330605007	-0.07983750266	
621.875	-0.2126955018	-0.1272274443	
622.5	-0.2656939563	0.171665389	
623.125	-0.01371972701	0.09794240371	
623.75	0.1448425108	0.1147679055	
624.375	-0.01689892417	-0.09950410503	
625.0	0.08811096298	0.04619568672	
625.625	0.01569937184	-0.1554055513	
626.25	-0.01240669973	-0.04838382647	
626.875	-0.1285376249	-0.1454375518	
627.5	-0.1709304173	0.01000809477	
628.125	-0.03283974112	-0.04173030874	
628.75	-0.09411795744	-0.1770883624	
629.375	-0.1083785465	-0.115049832	
630.0	-0.136655657	-0.1053035772	
630.625	-0.251709685	0.06488439169	
631.25	-0.07124394251	0.1986853529	
631.875	-0.02131502744	0.1474940355	
632.5	0.09672051011	0.2922976264	
633.125	0.2021465274	-0.02761297824	
633.75	0.09223759916	-0.006786146109	
634.375	0.1512959722	-0.2202145953	
635.0	-0.05979780283	-0.0633509153	
635.625	-0.07632917776	-0.1959168701	
636.25	-0.1955011582	0.145584463	
636.875	0.003739238161	0.06849101747	
637.5	-0.1353908486	0.05759934444	
638.125	0.03676278195	0.1391571312	
638.75	-0.1133420173	0.07011600652	
639.375	-0.01656276053	0.3200650685	
640.0	0.2069283963	0.1593444523	
640.625	0.1187887539	0.1381145488	
641.25	0.3266176774	0.06477742769	
641.875	0.08412167059	-0.2277454257	
642.5	0.05536474508	-0.09655840114	
643.125	-0.1253186079	-0.2692049335	
643.75	-0.09509827674	0.0629186495	
644.375	-0.1580155772	-0.1248920189	
645.0	-0.1950807891	0.3202724394	
645.625	0.12141094	0.03805241994	
646.25	0.0777058671	0.2563694422	
646.875	0.2356661371	-0.179094679	
647.5	-0.109056574	0.1554073237	
648.125	0.2883025438	0.01822867661	
648.75	0.08103274552	-0.1062266837	
649.375	0.2991494729	-0.05213805687	
650.0	0.1603800368	-0.4604044039	
650.625	-0.02185558339	-0.1843620826	
651.25	0.3131140836	-0.09811865892	
651.875	0.2922071469	-0.3085029021	
652.5	0.08688729558	-0.08335688035	
653.125	0.3420719917	0.01819953795	
653.75	0.1723011184	-0.3678906514	
654.375	-0.07435317646	-0.1276922263	
655.0	-0.1741661768	-0.2916859301	
655.625	-0.1732231547	0.3171279531	
656.25	0.08408318816	-0.03330929653	
656.875	-0.06016097773	0.213224565	
657.5	0.1333834642	-0.02539038963	
658.125	-0.1018584828	0.3069724024	
658.75	0.469219322	0.009560330416	
659.375	0.1469761328	-0.1674370045	
660.0	0.2891393625	-0.1214028708	
660.625	0.1544564048	-0.4874801228	
661.25	-0.04016655326	-0.2064442098	
661.875	0.3429119755	-0.1268318839	
662.5	0.272953617	-0.3060284335	
663.125	0.1115349603	-0.1647923132	
663.75	0.2767252901	-0.1950815207	
664.375	-0.1385621459	-0.3720601285	
665.0	-0.1627274148	-0.105985226	
665.625	-0.3389289496	-0.01350718668	
666.25	-0.0666373579	0.3521824118	
666.875	0.08508506483	0.05473613973	
667.5	0.1662522307	0.2050038133	
668.125	0.2291215697	-0.1182927411	
668.75	0.06301035203	0.02184749028	
669.375	0.2368457037	-0.2785524865	
670.0	-0.1333827837	-0.1922620288	
670.625	0.09939543728	-0.091850609	
671.25	0.04682396476	-0.3074283527	
671.875	-0.02210662925	-0.1335610862	
672.5	0.259397926	0.004183188127	
673.125	0.2273941597	-0.2959658981	
673.75	0.0681333631	-0.1057900426	
674.375	0.1428317455	-0.2049687803	
675.0	-0.1544369955	-0.3186339995	
675.625	-0.1320780779	0.02114876464	
676.25	-0.2017369027	-0.146028276	
676.875	-0.1867840413	0.1091232381	
677.5	-0.02880140848	-0.01753058484	
678.125	-0.2690630099	0.1217560907	
678.75	0.174032411	0.2248184661	
679.375	0.04140537261	0.0302548376	
680.0	0.2600211209	0.006517950669	
680.625	-0.07554967126	-0.2994873127	
681.25	0.006325049403	0.2016659281	
681.875	0.3667611811	-0.1272694586	
682.5	0.01489723572	-0.0486669027	
683.125	0.1401775395	0.2301751082	
683.75	0.462152999	-0.01341795704	
684.375	-0.03865705752	0.07469510136	
685.0	0.3855732379	0.1701318359	
685.625	0.3496837472	-0.1202355612	
686.25	0.1329713744	0.007238549397	
686.875	0.462735248	-0.07269258304	
687.5	0.08646734948	-0.4308255404	
688.125	0.06215793863	-0.2344861084	
688.75	-0.3972479646	-0.257640523	
689.375	-0.2076484335	0.4164778538	
690.0	0.04487842478	0.1688751689	
690.625	0.2964827712	0.3963331152	
691.25	0.3443864287	0.03550405468	
691.875	0.2220831488	0.3421566589	
692.5	0.9081331585	0.192738587	
693.125	0.3980429786	-0.2290327752	
693.75	0.5165371134	-0.02454880384	
694.375	0.4725162113	-0.5443951464	
695.0	0.1771254327	-0.256394658	
695.625	0.6806649002	-0.01405761283	
696.25	0.5791780153	-0.02020000015	
696.875	0.2329716986	0.2484650458	
697.5	0.2543010923	0.4858164932	
698.125	0.4939046175	0.2175593016	
698.75	0.288818403	-0.3240270188	
699.375	-0.2754646598	-0.2949305792	
700.0	-0.3308568016	0.3508446746	
700.625	0.1700534634	0.1412041298	
701.25	0.1215389444	0.2726571847	
701.875	0.4151400008	0.198568033	
702.5	0.1686898667	0.1271913736	
703.125	0.452376782	0.2485508786	
703.75	0.3932257711	-0.2327722223	
704.375	0.09615130241	-0.100564259	
705.0	0.3459883106	-0.1223391744	
705.625	0.1830258193	-0.1079244154	
706.25	0.1099574014	0.1705320904	
706.875	0.2858417123	0.360626105	
707.5	0.1709610883	0.3195748222	
708.125	0.3564192091	0.1759501187	
708.75	0.3057160008	-0.2312345644	
709.375	-0.2660498685	-0.2447162485	
710.0	-0.02331229196	0.1387748604	
710.625	0.07140735788	0.2555524071	
711.25	0.1581360668	-0.1079815952	
711.875	0.1549817584	0.2023434282	
712.5	0.4341996835	-0.08678062469	
713.125	0.07809141907	-0.1573251493	
713.75	0.2483418017	-0.1815195821	
714.375	-0.04855113736	-0.299023432	
715.0	-0.02837948897	-0.07227487627	
715.625	0.1033423554	-0.2591217758	
716.25	0.0403289845	-0.2829243084	
716.875	0.2137225041	-0.03755283622	
717.5	0.5607824622	0.03286397097	
718.125	0.6179789747	-0.07507247593	
718.75	0.4883221152	0.07299238249	
719.375	0.726467408	0.01786493559	
720.0	0.2892708935	-0.8321395027	
720.625	0.4000691996	-0.5609823061	
721.25	-0.05287819895	-1.099446723	
721.875	-0.5446108705	-0.5288211101	
722.5	-0.2161697903	-0.6802110083	
723.125	-1.054097533	-0.2042945252	
723.75	-0.1722659129	0.4763009381	
724.375	-0.2689039425	0.2257988334	
725.0	0.3091796901	0.540484867	
725.625	0.1551879922	0.183386759	
726.25	-0.1540198726	0.6376737042	
726.875	0.1173087747	1.025132022	
727.5	0.1455492644	0.7839286328	
728.125	-0.5962074606	1.655576243	
728.75	0.4007283545	2.792642114	
729.375	0.2987494826	2.017770383	
730.0	-1.674573561	2.821357505	
730.625	0.7742778786	4.548637043	
731.25	-0.2537173606	1.778873222	
731.875	-2.976908112	1.795767445	
732.5	-3.984595142	2.004419855	
733.125	-0.8670521199	0.4122928186	
733.75	-1.307056921	1.140482465	
734.375	1.008931687	0.2276447159	
735.0	-0.01192493302	-0.08789125512	
735.625	-0.6571879184	-0.2311669621	
736.25	0.3364159521	0.5330491567	
736.875	-0.02491760052	0.3568100158	
737.5	1.482043599	0.2727511674	
738.125	0.9860906076	-1.009962645	
738.75	0.7525823512	-0.2337374261	
739.375	3.591054593	-1.0032215	
740.0	0.9525167017	-3.618755761	
740.625	-0.1432606111	1.665988741	
741.25	1.10343807	5.301507506	
741.875	1.198755764	1.514731182	
742.5	0.4163525291	-3.572115308	
743.125	-0.4550235994	-2.624218179	
743.75	-0.407387727	-0.4694268063	
744.375	-0.07831015487	-0.4820401307	
745.0	0.2041223649	0.235909762	
745.625	-0.0126022383	0.08284929346	
746.25	-0.03451331381	-0.2178839681	
746.875	-0.130828897	0.10064356	
747.5	-0.1537801453	0.2059336732	
748.125	0.2327624898	0.5799341616	
748.75	0.270258923	0.2660852061	
749.375	-0.04452726725	0.3529086239	
750.0	-0.3827000712	0.2650708205	
