!Created with skrf (http://scikit-rf.org).
# GHz S RI R (50+0j) 
!freq	ReS11	ImS11	
500.0	-0.3081058269	-1.006697113	
500.625	0.3963900525	-0.3303134597	
501.25	-0.6019922544	-0.8101384271	
501.875	-0.1947699649	-0.1721477902	
502.5	0.006747485222	-0.1442414766	
503.125	-0.07392561328	0.0379148836	
503.75	-0.007244407274	0.0177045394	
504.375	0.05665999126	-0.002759799986	
505.0	-0.01573453607	-0.02052779116	
505.625	0.04290230435	-0.06331218125	
506.25	-0.1392067836	-0.0204792357	
506.875	-0.006598089889	-0.1952226373	
507.5	-0.4674627415	-0.3689413206	
508.125	0.06638646296	-0.1911236155	
508.75	0.8407335369	-0.6952416172	
509.375	-0.539943682	-0.9949200056	
510.0	-0.2339934622	-0.05459599174	
510.625	-0.009892860494	-0.2144484155	
511.25	-0.1303275017	0.01319223711	
511.875	-0.04459016828	-0.06144676836	
512.5	-0.03519683682	0.05602300594	
513.125	-0.03797518576	-0.02110728943	
513.75	-0.006245623585	-0.06130191435	
514.375	-0.1211983065	0.006824736555	
515.0	0.4128500953	0.001866118122	
515.625	-0.3892459589	-0.4592984773	
516.25	-0.1946469568	-0.08407372172	
516.875	0.02487356537	-0.4765490595	
517.5	-0.1675700805	-0.0982724286	
518.125	0.04469468883	-0.03563306036	
518.75	-0.129198379	-0.07750969792	
519.375	-0.01864180698	0.02718446311	
520.0	0.09406681074	0.06699724022	
520.625	0.1634752463	-0.0781339944	
521.25	-0.06629558936	-0.1884261742	
521.875	-0.03967945536	-0.05393430616	
522.5	-0.07786876038	-0.001423390379	
523.125	0.04055859645	-0.004212147603	
523.75	-0.189011808	-0.06867386367	
524.375	-0.08417486059	0.146377734	
525.0	-0.08246724379	-0.004410119772	
525.625	0.04737481801	0.1231817494	
526.25	-0.06548204684	-0.08098317917	
526.875	-0.01666045786	0.1046493633	
527.5	-0.04355020328	0.07196627028	
528.125	-0.03859539919	0.2398238169	
528.75	0.09582836023	0.2453880047	
529.375	0.01020642643	0.004841774365	
530.0	0.05953804076	0.2230940546	
530.625	0.1256655512	0.0966293868	
531.25	0.3000697865	0.1281714595	
531.875	0.2558709626	-0.1289517693	
532.5	-0.1041512499	0.002801594915	
533.125	0.1360772871	-0.08303355732	
533.75	-0.03428141532	-0.1880353276	
534.375	0.02916655721	-0.2232042144	
535.0	-0.3067530476	-0.1369663712	
535.625	-0.07918399525	0.1016136817	
536.25	-0.03277671983	0.07978166066	
536.875	0.1134728456	-0.009311891725	
537.5	0.02838468538	-0.01138773803	
538.125	0.1547704007	-0.06476098534	
538.75	0.06549842634	-0.1199722575	
539.375	-0.03007009064	-0.1296310571	
540.0	-0.1435132661	-0.1514181483	
540.625	-0.1347842803	0.03936696754	
541.25	-0.0472943806	-0.01378991318	
541.875	-0.07182400607	-0.04952242616	
542.5	-0.001380371659	-0.02913070585	
543.125	-0.0968292458	-0.07737330837	
543.75	-0.1112846906	0.08358157158	
544.375	-0.05162076677	-0.01740165517	
545.0	0.02387871135	0.1357722458	
545.625	0.02374199293	0.0001475310306	
546.25	0.1096443997	0.0800086169	
546.875	0.08956761051	-0.07680602433	
547.5	0.06544142399	-0.04772285665	
548.125	-0.05135935289	-0.1915603582	
548.75	-0.1317801577	-0.03631685288	
549.375	-0.0503637695	-0.08390537206	
550.0	-0.1180007523	0.02038644436	
550.625	-0.008519544256	0.00582275	
551.25	-0.1016081588	0.02227296111	
551.875	-0.0392704418	0.07924198546	
552.5	-0.04286569	0.03986131325	
553.125	-0.007615481561	0.07003734022	
553.75	0.03500532046	0.02826929087	
554.375	0.09174437352	0.00079100939	
555.0	0.08196246467	-0.07479361871	
555.625	0.07369954955	-0.09265007721	
556.25	0.06032342383	-0.1289008878	
556.875	-0.03630868493	-0.1427083926	
557.5	-0.0902331233	-0.08729835416	
558.125	-0.1033029667	-0.03578630625	
558.75	-0.1050950997	-0.000397792384	
559.375	-0.09407042042	0.02622935169	
560.0	-0.09164941362	0.05789982374	
560.625	-0.04411132977	0.1196354218	
561.25	0.01873143875	0.06842911076	
561.875	0.01232527806	0.06408167212	
562.5	0.03610102502	0.01949605413	
563.125	0.0332852496	0.08405520951	
563.75	0.1657423747	-0.006539631146	
564.375	0.07233474385	-0.09417717211	
565.0	0.1088824601	-0.1029790835	
565.625	-0.06973584279	-0.1748537583	
566.25	-0.06748164225	-0.05608217223	
566.875	-0.1439057824	-0.1144439298	
567.5	-0.1781898938	-0.02288676623	
568.125	-0.05308926825	-0.1430696927	
568.75	-0.2737846385	-0.08639934635	
569.375	-0.1092310928	0.1428676375	
570.0	-0.1536136889	0.09725245098	
570.625	-0.06400206393	0.252528714	
571.25	0.0489407833	0.03846255468	
571.875	0.03057897675	0.1523228053	
572.5	0.09919082665	-0.1032011258	
573.125	0.08103709221	-0.001647156055	
573.75	0.09015020049	-0.1838844342	
574.375	-0.08003187634	-0.03520280243	
575.0	0.1284156121	-0.02331758441	
575.625	-0.03822392258	-0.1144604735	
576.25	0.04359286419	-0.01057338984	
576.875	0.03546331661	-0.1996932444	
577.5	-0.1094346933	-0.1553742858	
578.125	0.01434169086	-0.06206215783	
578.75	-0.06516907771	-0.1982351767	
579.375	-0.161110956	0.01639850625	
580.0	0.0889674232	-0.06449944726	
580.625	-0.1741652174	0.002830376691	
581.25	0.007905841176	0.03955402579	
581.875	-0.1422389917	0.2013608441	
582.5	0.1863764489	0.1726570243	
583.125	-0.005646467462	-0.03241943404	
583.75	0.05903366636	0.1380880833	
584.375	0.01589146672	-0.06971850935	
585.0	0.05770104679	0.1501573482	
585.625	0.2172951634	-0.06835019436	
586.25	0.04196842365	-0.06667689085	
586.875	0.1531948866	-0.1006450072	
587.5	-0.07633390186	-0.1782639181	
588.125	-0.008627572176	-0.04064964737	
588.75	0.1006840479	-0.1745338771	
589.375	-0.03004146558	-0.1764855132	
590.0	0.02347397971	-0.1006397039	
590.625	-0.2835533461	-0.09662072617	
591.25	-0.01186725596	0.1483109981	
591.875	-0.07932585063	0.02373806356	
592.5	0.01695711512	0.1416858456	
593.125	-0.1072893275	-0.1093361603	
593.75	0.09926392811	0.2270104783	
594.375	0.1022357356	-0.0367767691	
595.0	0.06703214584	0.1315069515	
595.625	0.2516392609	0.02781834229	
596.25	0.07079420501	-0.03905486948	
596.875	0.1315457181	0.123304748	
597.5	0.2052578299	0.03130211829	
598.125	0.06347581519	0.08528073381	
598.75	0.1525596525	0.1466102866	
599.375	0.1949359809	-0.08146243107	
600.0	0.0906065902	-0.09303278981	
600.625	0.1834708293	-0.136515197	
601.25	0.01435661351	-0.2362898634	
601.875	-0.0566250334	-0.03018773115	
602.5	-0.1694593983	-0.09297300791	
603.125	-0.01775255061	0.1433027111	
603.75	-0.08555590668	-0.03846738018	
604.375	-0.1708635792	0.1160327477	
605.0	0.05816574342	0.04620726037	
605.625	-0.1735212614	0.0217936413	
606.25	-0.07719953271	0.1485857844	
606.875	-0.0778545974	0.01363759026	
607.5	-0.1703821081	0.2306630456	
608.125	0.0299703312	0.1894980545	
608.75	0.09698753317	0.1510487991	
609.375	0.2896823867	0.01254295185	
610.0	0.1122800051	-0.1558441864	
610.625	0.06503042713	-0.09206679322	
611.25	0.03359206953	-0.2350083247	
611.875	-0.1211937709	-0.03065405028	
612.5	-0.06143973389	-0.08427434968	
613.125	-0.2724937696	0.0665775192	
613.75	0.07451209199	0.1399711532	
614.375	-0.06863330637	0.1041525538	
615.0	0.1466317674	0.05466110098	
615.625	-0.07738929433	-0.00598812239	
616.25	-0.01503107798	0.2385573981	
616.875	0.03856286008	0.1227899064	
617.5	-0.1328848349	0.1684907294	
618.125	-0.02566277407	0.2856283125	
618.75	-0.02856231659	0.1764119867	
619.375	0.0574949509	0.1622886137	
620.0	0.152061891	0.08192976242	
620.625	0.05128768784	-0.1280972644	
621.25	-0.004376234304	-0.09147167359	
621.875	-0.2319166827	-0.1055920722	
622.5	-0.1357482733	0.1226648076	
623.125	-0.1026412238	0.1340431459	
623.75	0.2094714644	0.08580432665	
624.375	-0.03737114246	-0.05903104985	
625.0	0.1151644871	-0.04337828525	
625.625	-0.03715313202	-0.07733658709	
626.25	0.03035449645	-0.1164197763	
626.875	-0.1930126533	-0.1030284326	
627.5	-0.1025630921	0.03197662833	
628.125	-0.06783692891	-0.1022857233	
628.75	-0.1250033905	-0.115056675	
629.375	-0.08589396624	-0.08831606566	
630.0	-0.1602273628	-0.1135143218	
630.625	-0.2690978871	0.04588012904	
631.25	-0.05109018862	0.2069612627	
631.875	-0.07936409406	0.231353855	
632.5	0.1889556631	0.1846854781	
633.125	0.1400080886	-0.05552261596	
633.75	0.1936887224	-0.008385924817	
634.375	-0.0210425679	-0.2885026982	
635.0	0.02132096848	-0.03457620372	
635.625	-0.1770512425	-0.1438106474	
636.25	-0.10434937	0.1405580763	
636.875	-0.04476317379	0.02563081199	
637.5	-0.1122660744	0.1657527446	
638.125	0.03286942066	0.03357773025	
638.75	-0.1713009691	0.1418031101	
639.375	0.07573615198	0.2803930622	
640.0	0.1011494342	0.1086248199	
640.625	0.1928160372	0.2247566082	
641.25	0.3124782208	-0.07483637711	
641.875	0.06859229194	-0.1272801422	
642.5	0.09364168541	-0.2018462336	
643.125	-0.2298245685	-0.1178932402	
643.75	0.04367508202	0.06019378035	
644.375	-0.2649542751	-0.1097294643	
645.0	-0.01868035022	0.2523153685	
645.625	-0.06168012755	0.0347579531	
646.25	0.3117002361	0.2589383443	
646.875	0.02409303514	-0.1470132231	
647.5	0.1116107313	0.2641464391	
648.125	0.2057683485	-0.1129301769	
648.75	0.1039491702	0.02463309103	
649.375	0.3740461783	-0.2437124093	
650.0	-0.02468915939	-0.3913849727	
650.625	0.1140959431	-0.09929036571	
651.25	0.3136353556	-0.2553025361	
651.875	0.1046774758	-0.2924618914	
652.5	0.1806793703	0.06207910787	
653.125	0.3818207487	-0.1424090051	
653.75	0.04733600154	-0.240215957	
654.375	0.07359674805	-0.1954073692	
655.0	-0.4420548201	-0.2518501959	
655.625	-0.03301225826	0.2720901685	
656.25	-0.06943408913	0.06572798475	
656.875	0.1355359556	0.228667707	
657.5	-0.06919061804	-0.1139183585	
658.125	0.2078473389	0.3669384197	
658.75	0.3232523818	-0.1003208372	
659.375	0.1500234732	0.01020167782	
660.0	0.3589159926	-0.2438561952	
660.625	-0.07877856965	-0.4130056927	
661.25	0.129325299	-0.08356061297	
661.875	0.3120153319	-0.2714048072	
662.5	0.1590463149	-0.2823635939	
663.125	0.1785001127	-0.05582679195	
663.75	0.2487449837	-0.3586626982	
664.375	-0.1489676095	-0.2158215321	
665.0	-0.1327066159	-0.2240680401	
665.625	-0.392860556	0.06519087784	
666.25	0.02338035233	0.2753488681	
666.875	-0.005180347609	0.161779109	
667.5	0.297372048	0.1533748547	
668.125	0.1007745599	-0.1091376855	
668.75	0.2321392351	-0.01726884357	
669.375	0.04009005406	-0.3633534437	
670.0	-0.0278697577	-0.02525752213	
670.625	0.123419672	-0.2150978505	
671.25	-0.03748521975	-0.2538650914	
671.875	0.08463701513	0.02881313856	
672.5	0.3307611691	-0.1722272577	
673.125	0.09832819207	-0.2284436103	
673.75	0.1266965421	-0.1033908882	
674.375	0.1390424475	-0.2996617658	
675.0	-0.2123289401	-0.1151495706	
675.625	-0.027036003	-0.1385094522	
676.25	-0.2656126786	-0.06632640012	
676.875	-0.09493636586	0.1120693742	
677.5	-0.1136104229	-0.09108145216	
678.125	-0.198893398	0.2505984117	
678.75	0.1179695419	0.08784590618	
679.375	0.04901234225	0.1935020213	
680.0	0.3115636239	-0.1847884185	
680.625	-0.1942785903	-0.01773481387	
681.25	0.2894473254	0.1005117341	
681.875	0.1407659202	-0.1719981916	
682.5	-0.002494028033	0.1017161322	
683.125	0.4740648044	0.1814681251	
683.75	0.2264715043	-0.1962809043	
684.375	0.1057054233	0.2240456196	
685.0	0.3753527182	-0.01028677649	
685.625	0.1865646176	-0.1102605602	
686.25	0.2402685861	0.1432470243	
686.875	0.3934681504	-0.300440732	
687.5	0.1647134659	-0.1773374339	
688.125	0.1054170761	-0.3936617795	
688.75	-0.4604434069	-0.192523444	
689.375	-0.0788058026	0.2627977753	
690.0	-0.09586073316	0.3456966196	
690.625	0.3942458828	0.2376212859	
691.25	0.1238995575	0.02358893155	
691.875	0.3980940285	0.5232087419	
692.5	0.7036562871	-0.005659339637	
693.125	0.3556592924	0.07781848909	
693.75	0.7262491055	-0.1755940673	
694.375	0.3089156457	-0.5450437295	
695.0	0.2855933621	-0.02102958127	
695.625	0.6714424791	-0.1147371397	
696.25	0.4407675646	-0.04449462253	
696.875	0.3633288598	0.4434233235	
697.5	0.3648877532	0.5321399738	
698.125	0.5828473892	0.008759679074	
698.75	0.3741832596	-0.1592738908	
699.375	-0.2336807965	-0.4240613507	
700.0	-0.2070619308	0.382026282	
700.625	0.09646955949	0.143531707	
701.25	0.3242954735	0.2891072244	
701.875	0.3122549771	-0.01389326423	
702.5	0.1933684364	0.2748274722	
703.125	0.510563311	0.1356669466	
703.75	0.2188536115	-0.2133464561	
704.375	0.340901391	-0.04266285122	
705.0	0.2934316139	-0.2341224879	
705.625	0.106272787	-0.02961500772	
706.25	0.323537714	0.1977547891	
706.875	0.2774165681	0.1954437136	
707.5	0.2929958056	0.4050957036	
708.125	0.4228731208	0.1425797698	
708.75	0.3529095206	-0.2586087386	
709.375	-0.2090089837	-0.1571982075	
710.0	-0.008876589484	-0.05940761508	
710.625	0.1152712218	0.206030631	
711.25	-0.01655325664	-0.01589110999	
711.875	0.2413845944	0.243583661	
712.5	0.2288736674	-0.2276211116	
713.125	0.1849278269	-0.0406174755	
713.75	0.1928095524	-0.3019337978	
714.375	-0.08780013698	-0.1933023212	
715.0	0.06676053489	-0.1294181804	
715.625	-0.007556946092	-0.3086144145	
716.25	0.01673006807	-0.1539926305	
716.875	0.2956343973	-0.07362846509	
717.5	0.5601982663	-0.1573853907	
718.125	0.5642987867	-0.08550379085	
718.75	0.6919721461	0.04308772827	
719.375	0.6300437753	-0.6187378271	
720.0	0.1187600855	-0.6695782546	
720.625	0.5741574691	-0.4620251359	
721.25	-0.2437449244	-1.170075767	
721.875	-0.2442783181	-0.1587884999	
722.5	-0.4217250799	-0.9517405809	
723.125	-0.8558395961	0.1255451372	
723.75	-0.1149222599	0.2437675933	
724.375	-0.1052820189	0.5522309633	
725.0	0.3181367689	0.2141587848	
725.625	-0.069501934	0.3356140231	
726.25	0.044130459	0.7862713249	
726.875	0.2525170154	0.7459177553	
727.5	-0.2930826109	0.6977924257	
728.125	-0.2072143034	2.107752431	
728.75	0.9435914924	2.467614071	
729.375	-0.9111341344	1.640139249	
730.0	-0.4698629247	4.432988537	
730.625	1.350922202	2.969203126	
731.25	-1.300326706	1.602796436	
731.875	-3.359589735	3.022787003	
732.5	-1.639584418	1.74868399	
733.125	-1.441463326	-1.123573615	
733.75	-1.174215054	1.8930682	
734.375	0.7756886052	-0.04623499466	
735.0	0.2728313993	-0.2783517465	
735.625	-0.7308392149	0.2085665497	
736.25	0.1192818897	-0.06773814274	
736.875	0.1615048897	0.8408018102	
737.5	1.19167598	-0.07963669951	
738.125	0.4678271727	-0.4823295794	
738.75	2.175405995	0.08104371459	
739.375	2.318050513	-3.09088578	
740.0	-0.2048913301	-1.211500392	
740.625	2.078632424	3.496968001	
741.25	3.539284012	2.59512438	
741.875	0.9681570813	-3.007365338	
742.5	-1.362928351	-4.419833405	
743.125	-1.180311266	-1.343435416	
743.75	0.3370772711	-0.3808839684	
744.375	-0.7137533935	-0.348914852	
745.0	0.1723686209	0.01741378354	
745.625	0.09697363629	0.13181903	
746.25	-0.1011481568	-0.1304417669	
746.875	-0.04804423919	-0.0631616799	
747.5	-0.1922239705	0.3731891199	
748.125	0.2329460314	0.4440892258	
748.75	0.1070864461	0.2685121754	
749.375	0.07078381398	0.4988783095	
750.0	-0.2096048124	0.2608337979	
