!Created with skrf (http://scikit-rf.org).
# GHz S RI R (50+0j) 
!freq	ReS11	ImS11	
500.0	0.05125973481	-0.8587211342	
500.625	0.1896800676	-0.7206933597	
501.25	-0.3377070643	-0.5035214897	
501.875	-0.1962227492	-0.3536005936	
502.5	-0.03460325533	-0.1137424834	
503.125	-0.06070194243	0.004222866202	
503.75	0.00907655582	0.06778463123	
504.375	0.02335940251	-0.0049150791	
505.0	0.01678833281	-0.01974258438	
505.625	-0.002379907477	-0.04177257016	
506.25	-0.05170943168	-0.0495850634	
506.875	-0.0932997951	0.008206632882	
507.5	-0.06594277825	-0.2693778259	
508.125	0.1199507763	-0.531794285	
508.75	0.3975420538	-0.7459654945	
509.375	-0.07128097458	-1.026881916	
510.0	-0.2752321758	-0.1822007189	
510.625	-0.04107725881	-0.1012651179	
511.25	-0.09253627098	-0.06528359248	
511.875	-0.08617252969	-0.02621660865	
512.5	-0.01704802539	0.05130803917	
513.125	-0.007687666404	-0.05911100819	
513.75	-0.0489272063	-0.03078812409	
514.375	-0.03976530814	-0.00309133689	
515.0	-0.00790686293	-0.02429244116	
515.625	0.02950270553	-0.2999459428	
516.25	-0.2340105877	-0.5045082382	
516.875	-0.1673014451	-0.3421629793	
517.5	-0.04225215472	-0.1235137063	
518.125	-0.02554631263	-0.02078564046	
518.75	-0.03184530565	-0.1099218188	
519.375	-0.0425363827	0.03352698364	
520.0	0.09060248344	0.04402661331	
520.625	0.1307435186	-0.05067903028	
521.25	-0.01875695123	-0.2108018744	
521.875	-0.1229262542	-0.02108808594	
522.5	-0.03856508834	0.02377000837	
523.125	-0.04646486417	0.02308198812	
523.75	-0.08866958779	-0.00855335482	
524.375	-0.1341947296	0.02959404327	
525.0	-0.03171437451	0.1163312506	
525.625	0.03164623166	0.03734899941	
526.25	-0.0120705762	-0.009683316062	
526.875	-0.04006037148	0.04605922407	
527.5	-0.03127626982	0.1519424603	
528.125	0.05321311059	0.2055242054	
528.75	0.02543735882	0.1730984927	
529.375	0.03604654964	0.04419091234	
530.0	0.03175147057	0.1242005013	
530.625	0.09736853559	0.2298964625	
531.25	0.3309064034	0.08468827862	
531.875	0.1894453814	-0.1539352006	
532.5	-0.04120175945	-0.09084538497	
533.125	0.04619175729	-0.04213513055	
533.75	0.0851176792	-0.148297081	
534.375	-0.07125516525	-0.2270358168	
535.0	-0.1945616909	-0.08430385081	
535.625	-0.1363009273	0.09265331163	
536.25	0.0002132871214	0.08273424649	
536.875	0.08064769583	0.01127178206	
537.5	0.05523041481	-0.0392192731	
538.125	0.09422657451	-0.05511389695	
538.75	0.1053533992	-0.1074597246	
539.375	-0.06903415	-0.14126897	
540.0	-0.1446253714	-0.1257452512	
540.625	-0.1410364033	-0.01792185514	
541.25	-0.0746817692	0.006136047205	
541.875	-0.03826339939	-0.0178153659	
542.5	-0.04070686828	-0.04565271167	
543.125	-0.07076565407	-0.03847714819	
543.75	-0.07474583885	-0.002061929254	
544.375	-0.04000729241	0.03627267675	
545.0	-0.003045979388	0.05180848402	
545.625	0.04678281254	0.05354021602	
546.25	0.08444787446	0.03125080282	
546.875	0.1028689605	-0.02414004057	
547.5	0.05780257495	-0.1091754461	
548.125	-0.04226085384	-0.139954409	
548.75	-0.1092766639	-0.09727516107	
549.375	-0.0978061932	-0.05807264206	
550.0	-0.06890385674	0.007759700468	
550.625	-0.04588540906	0.008549528845	
551.25	-0.06585434429	0.02535931516	
551.875	-0.06186834659	0.06186307929	
552.5	-0.03572766427	0.06889026531	
553.125	-0.01036168203	0.05617818306	
553.75	0.04138847275	0.03999126577	
554.375	0.08374853013	-0.002625049924	
555.0	0.08742026647	-0.06593542065	
555.625	0.0739574894	-0.09815860381	
556.25	0.05563028694	-0.1265670666	
556.875	-0.036204283	-0.1426438901	
557.5	-0.09361558302	-0.09039922339	
558.125	-0.1052683203	-0.0330367988	
558.75	-0.100218373	-0.0003563867249	
559.375	-0.09972048545	0.0232712018	
560.0	-0.08430987542	0.07011583116	
560.625	-0.04444363282	0.1029968156	
561.25	0.008924538075	0.09027578055	
561.875	0.02796139378	0.03967487228	
562.5	0.009467998598	0.04708940377	
563.125	0.06517296255	0.06543832471	
563.75	0.1274518059	7.431024684e-05	
564.375	0.1136807702	-0.09020104998	
565.0	0.06449400128	-0.1340637953	
565.625	-0.03037414147	-0.1408646225	
566.25	-0.1057188296	-0.0948313409	
566.875	-0.1248509808	-0.0664776027	
567.5	-0.1264580168	-0.09389974727	
568.125	-0.1330034346	-0.1328882986	
568.75	-0.1991518193	-0.06186711993	
569.375	-0.2044676377	0.09063898948	
570.0	-0.1018924493	0.1825680709	
570.625	-0.04147797443	0.1547522956	
571.25	0.005236162701	0.1026299879	
571.875	0.05478224604	0.06485209761	
572.5	0.1097798712	-0.003757246503	
573.125	0.07780832908	-0.09998119384	
573.75	0.03450933921	-0.1030262163	
574.375	0.008672630881	-0.06043010577	
575.0	0.02460693837	-0.03612757522	
575.625	0.03268187666	-0.06486025496	
576.25	0.03915067311	-0.09923247764	
576.875	-0.007322443846	-0.1268115088	
577.5	-0.004024882157	-0.1396817865	
578.125	-0.04309014934	-0.1422141312	
578.75	-0.07863626155	-0.1059361799	
579.375	-0.07616335949	-0.05857372952	
580.0	-0.04933109122	-0.02609241689	
580.625	-0.06148813023	-0.02563107345	
581.25	-0.0911861031	0.07020422707	
581.875	0.008195411716	0.1368799097	
582.5	0.05129454678	0.1243617686	
583.125	0.07141938839	0.06477605755	
583.75	0.03535870737	0.01878845825	
584.375	0.03310513398	0.04937553106	
585.0	0.09766908306	0.0526010347	
585.625	0.1392018751	-0.003494373283	
586.25	0.1322974906	-0.05730096591	
586.875	0.06501283843	-0.1213686561	
587.5	-0.01241330948	-0.1230244435	
588.125	-0.01615393998	-0.1244020291	
588.75	0.02415640849	-0.1278920147	
589.375	0.05512475874	-0.1373066808	
590.0	-0.05351796483	-0.1534786268	
590.625	-0.162211393	-0.03767002384	
591.25	-0.1136848849	0.1011876035	
591.875	-0.02668601014	0.1043256182	
592.5	0.008086505149	0.04438118195	
593.125	-0.02632877837	0.04385226065	
593.75	0.05048717381	0.1050071036	
594.375	0.1328426398	0.08444886051	
595.0	0.1510777751	0.08312738199	
595.625	0.1512302692	0.06313838779	
596.25	0.1423583719	0.03330080394	
596.875	0.1394867379	0.02641475969	
597.5	0.131280725	0.06789852383	
598.125	0.1347950216	0.09471174896	
598.75	0.1582999786	0.07104289321	
599.375	0.1864796842	-0.03643525807	
600.0	0.1429316459	-0.1312273767	
600.625	0.1160699013	-0.1621236838	
601.25	0.05033610483	-0.1691320832	
601.875	-0.07327879126	-0.1245683805	
602.5	-0.1132383165	-0.0126712807	
603.125	-0.09655424906	0.04472330107	
603.75	-0.09162223599	0.06401187567	
604.375	-0.08541128375	0.06856173	
605.0	-0.0600494604	0.06841745178	
605.625	-0.0624080276	0.05741790161	
606.25	-0.09925235837	0.0581661218	
606.875	-0.1500745128	0.08185060335	
607.5	-0.1400474718	0.1627370557	
608.125	-0.02068075064	0.2192010493	
608.75	0.1634377098	0.1486656696	
609.375	0.2104101053	-0.03490811277	
610.0	0.1466233854	-0.1111820712	
610.625	0.07183114069	-0.1451688466	
611.25	0.00100102472	-0.1413811044	
611.875	-0.07965384163	-0.1108141255	
612.5	-0.1452571209	-0.05415041426	
613.125	-0.1712540896	0.03620600659	
613.75	-0.07734214808	0.1318399596	
614.375	0.0425049796	0.09830523877	
615.0	0.03643336684	0.03700978174	
615.625	0.0004624421774	0.07748126449	
616.25	-0.03247370138	0.1290909397	
616.875	-0.06776960656	0.1704582602	
617.5	-0.05168407487	0.1992880584	
618.125	-0.009369273729	0.1910163804	
618.75	0.02680854492	0.170831259	
619.375	0.08570927115	0.1429559788	
620.0	0.1724876964	0.04028282952	
620.625	0.09738990117	-0.1423583745	
621.25	-0.08113573289	-0.1658641923	
621.875	-0.1845589737	-0.07388762447	
622.5	-0.1929738049	0.05660219716	
623.125	-0.03301289208	0.1701798915	
623.75	0.118014317	0.03635782649	
624.375	0.03632593522	-0.04840532735	
625.0	0.03572906637	-0.02400011359	
625.625	0.04418000283	-0.0819769117	
626.25	-0.0443510038	-0.1226087864	
626.875	-0.1260033832	-0.07523243677	
627.5	-0.1318849416	-0.03510714814	
628.125	-0.101847078	-0.05964283636	
628.75	-0.06912599918	-0.107778694	
629.375	-0.08647481955	-0.1343535644	
630.0	-0.1697249561	-0.08508775539	
630.625	-0.1998791238	0.05991066147	
631.25	-0.1272505487	0.177170989	
631.875	-0.01787253276	0.2230521687	
632.5	0.1333721832	0.1747058514	
633.125	0.1903306858	0.04595845586	
633.75	0.151503297	-0.06204956408	
634.375	0.05698862622	-0.1232999482	
635.0	-0.01317606646	-0.1358386028	
635.625	-0.1319607728	-0.08070731994	
636.25	-0.1414165262	0.06496143632	
636.875	-0.05759465469	0.1152228508	
637.5	-0.03164935884	0.08141825413	
638.125	-0.05809884217	0.0804873411	
638.75	-0.06146438176	0.1493739069	
639.375	0.00243317463	0.2254021009	
640.0	0.1282340416	0.2181965368	
640.625	0.2159029259	0.129818278	
641.25	0.2491219456	-0.003979904318	
641.875	0.1546129435	-0.1682508183	
642.5	-0.00751284543	-0.1926625363	
643.125	-0.1093778176	-0.1099407875	
643.75	-0.1216042146	-0.06530352198	
644.375	-0.1605522756	-0.0002771388662	
645.0	-0.1316754827	0.1426486072	
645.625	0.05270969402	0.1934840452	
646.25	0.1506889731	0.06637592404	
646.875	0.08979298422	-0.01869263982	
647.5	0.04907839141	0.02973154355	
648.125	0.1445756875	0.04548919442	
648.75	0.2332142838	-0.06608651611	
649.375	0.1964017459	-0.2190495172	
650.0	0.1392324392	-0.2740995454	
650.625	0.128980943	-0.2587741985	
651.25	0.1704324991	-0.2143332673	
651.875	0.2230739923	-0.1531320736	
652.5	0.2461584814	-0.09244285089	
653.125	0.2410935188	-0.1002189921	
653.75	0.1784928112	-0.2040159769	
654.375	-0.04707830594	-0.2775636968	
655.0	-0.255422748	-0.08964741288	
655.625	-0.1638155876	0.1624490819	
656.25	0.02788015423	0.1581360474	
656.875	0.04757571678	0.06100636727	
657.5	0.03160656146	0.09426557602	
658.125	0.13054355	0.142221421	
658.75	0.2623756936	0.06827174808	
659.375	0.2904884232	-0.1302570404	
660.0	0.1989395846	-0.267805716	
660.625	0.1130470287	-0.2966207045	
661.25	0.1347465049	-0.2644878977	
661.875	0.1857419813	-0.2286735143	
662.5	0.2274711553	-0.1850289185	
663.125	0.2293206442	-0.1769387493	
663.75	0.1430992329	-0.2539009588	
664.375	-0.0352764282	-0.2969663409	
665.0	-0.239973273	-0.1871445723	
665.625	-0.2832194193	0.07700763691	
666.25	-0.09196563613	0.2422065086	
666.875	0.1049482393	0.1875727563	
667.5	0.1657446581	0.08321843903	
668.125	0.1959046618	-0.01305163352	
668.75	0.1721917245	-0.1281248977	
669.375	0.08418514395	-0.2002788384	
670.0	0.002835727558	-0.1986289921	
670.625	0.00239134184	-0.1704900012	
671.25	0.04941034342	-0.1597887922	
671.875	0.1175416429	-0.1545992465	
672.5	0.1767592184	-0.1366336627	
673.125	0.1842803653	-0.1551221394	
673.75	0.1422920909	-0.1966231422	
674.375	0.04756395995	-0.2340201508	
675.0	-0.07663144147	-0.2152868873	
675.625	-0.1659927216	-0.1171926257	
676.25	-0.1646964022	-0.0269696567	
676.875	-0.1353756069	0.004686899892	
677.5	-0.1376652993	0.02365133768	
678.125	-0.12689061	0.1221101589	
678.75	0.02548425771	0.2022618342	
679.375	0.1873009287	0.07095484586	
680.0	0.1336526307	-0.0833738179	
680.625	0.06095344791	-0.07044878324	
681.25	0.08128842698	-0.01153437045	
681.875	0.1366202115	0.03935123736	
682.5	0.1811580149	0.07421630291	
683.125	0.2187522818	0.06641150179	
683.75	0.2363691044	0.06138796794	
684.375	0.2473739347	0.03793308754	
685.0	0.2506882756	0.03703441188	
685.625	0.2603863777	0.005947216024	
686.25	0.2686310119	-0.03547035525	
686.875	0.2691367651	-0.1292833734	
687.5	0.2313476311	-0.2582443324	
688.125	-0.0143622489	-0.3920973316	
688.75	-0.3651215424	-0.1799295971	
689.375	-0.2652799989	0.2752055	
690.0	0.08493508576	0.315657299	
690.625	0.2097610176	0.2243440584	
691.25	0.2853819018	0.2385100162	
691.875	0.4080965678	0.2652451471	
692.5	0.5373198646	0.17694543	
693.125	0.5901228837	-0.03072788918	
693.75	0.520811524	-0.2250508941	
694.375	0.3803954345	-0.355829233	
695.0	0.3920342993	-0.2623254259	
695.625	0.4438190399	-0.08336148296	
696.25	0.4378723959	0.1403025408	
696.875	0.356748353	0.3377999187	
697.5	0.3390776716	0.3923153788	
698.125	0.492430118	0.2065674892	
698.75	0.4005848256	-0.3440990084	
699.375	-0.3217804444	-0.3551937841	
700.0	-0.2600735407	0.2900402367	
700.625	0.1217729222	0.263103744	
701.25	0.1959073982	0.1575679726	
701.875	0.2352707285	0.2018825415	
702.5	0.3100778013	0.2036433735	
703.125	0.3729238814	0.09596327512	
703.75	0.3395928029	-0.09530787316	
704.375	0.2423197312	-0.1731493619	
705.0	0.2090539338	-0.1254116098	
705.625	0.2319597352	-0.0033624858	
706.25	0.2256091009	0.1486640299	
706.875	0.2064445	0.2531497806	
707.5	0.2360267225	0.2974334713	
708.125	0.3876904522	0.1213831923	
708.75	0.2659178184	-0.2905779419	
709.375	-0.219127343	-0.2572558065	
710.0	-0.1730202104	0.174249651	
710.625	0.05379042264	0.1358124178	
711.25	0.08005599019	0.1020849648	
711.875	0.1807527791	0.1010875946	
712.5	0.2710500798	-0.02088113473	
713.125	0.2310700616	-0.1545886966	
713.75	0.1155050478	-0.2220314511	
714.375	0.006601374533	-0.2097968217	
715.0	-0.024997064	-0.1767211767	
715.625	0.01164642691	-0.1905300287	
716.25	0.1263054447	-0.2115197467	
716.875	0.2786305408	-0.1610780986	
717.5	0.4293983201	-0.03809887154	
718.125	0.5607917311	0.03483027515	
718.75	0.6419015409	-0.09622693377	
719.375	0.6228601519	-0.3496804868	
720.0	0.422290098	-0.6690604143	
720.625	0.1957722635	-0.7834173461	
721.25	-0.03554432304	-0.8343497804	
721.875	-0.1996692469	-0.8256973237	
722.5	-0.5316619626	-0.6334340282	
723.125	-0.6723164721	-0.1091980967	
723.75	-0.3467940244	0.3783031382	
724.375	0.02952152334	0.3938809295	
725.0	0.1590215588	0.3158396958	
725.625	0.1609530701	0.3819923662	
726.25	0.0576138996	0.5661440867	
726.875	-0.03958835166	0.7931070351	
727.5	-0.07498442473	1.126527154	
728.125	-0.0003835763136	1.563428725	
728.75	-0.0876763195	2.154361785	
729.375	-0.5657644611	2.893482337	
730.0	-0.1146561024	3.22391265	
730.625	0.005546023492	3.184093488	
731.25	-0.6251073423	3.077859536	
731.875	-2.03807169	2.177877738	
732.5	-2.692524438	0.8115396757	
733.125	-2.000990079	0.3902356838	
733.75	-0.7271819562	1.070942049	
734.375	0.6948338797	0.4092738097	
735.0	0.01842578554	-0.5233693527	
735.625	-0.4042485144	0.0829741878	
736.25	-0.05737933147	0.4459708911	
736.875	0.359047394	0.4658487581	
737.5	0.8578910315	0.1385902055	
738.125	1.180568614	-0.3759544283	
738.75	1.361245064	-1.000638159	
739.375	1.654467726	-1.242149349	
740.0	2.326311229	-1.19953752	
740.625	2.154435538	-0.04477674777	
741.25	0.4649332085	1.643025315	
741.875	-2.025429274	-0.0133739266	
742.5	-1.028036274	-1.731367245	
743.125	0.1908123023	-1.479466499	
743.75	-0.1193816902	-0.9071739407	
744.375	-0.3439551555	-0.08206598444	
745.0	0.04276838114	0.08608891001	
745.625	0.0470194668	0.01270945199	
746.25	0.0009629443349	-0.1181596374	
746.875	-0.1977754483	0.02348161157	
747.5	-0.09104494221	0.2877148146	
748.125	0.09228275158	0.4311531785	
748.75	0.2386768768	0.3686312568	
749.375	0.1282461279	0.3773725166	
750.0	-0.3152273592	0.2398064904	
