!Created with skrf (http://scikit-rf.org).
# GHz S RI R (50+0j) 
!freq	ReS11	ImS11	
500.0	0.3793652365	-1.119870273	
500.625	-0.2504267795	-0.7184714143	
501.25	0.08087105707	-0.6142364467	
501.875	-0.451705998	-0.4878938104	
502.5	-0.0259619869	-0.05103956843	
503.125	-0.09377772889	-0.02676543741	
503.75	0.064269426	0.06657268904	
504.375	0.01476606459	0.02068998732	
505.0	0.02497852839	-0.04684294868	
505.625	0.003078044911	0.007215233799	
506.25	-0.02109949936	-0.133077079	
506.875	0.05553028456	0.1733472928	
507.5	0.2078276279	-0.390690556	
508.125	-0.09401112396	-0.7554138597	
508.75	0.3917792004	-0.388129765	
509.375	0.2088148616	-1.34255293	
510.0	-0.5923363531	-0.1849431768	
510.625	-0.007293078342	-0.06039927902	
511.25	-0.1352618617	-0.0873608216	
511.875	-0.08832999846	0.05130531688	
512.5	-0.00776636189	0.01174262128	
513.125	-0.003901626573	-0.09786531788	
513.75	-0.03045626535	0.03088051568	
514.375	-0.03388550723	-0.06990006317	
515.0	-0.1462486927	0.1182625508	
515.625	0.3273581602	-0.5060220384	
516.25	-0.6223356984	-0.08909043894	
516.875	0.01708386213	-0.1371135037	
517.5	0.06499368811	-0.2157397564	
518.125	-0.07732635575	0.027248093	
518.75	-0.03369007613	-0.1665006339	
519.375	-0.06614547662	0.04958709773	
520.0	0.08640285592	0.02687012671	
520.625	0.1190628469	0.01828273006	
521.25	0.008188238312	-0.2055701334	
521.875	-0.08621022478	0.04808040234	
522.5	-0.0651607091	-0.04690516776	
523.125	-0.02691461907	0.1382850568	
523.75	0.01748720982	-0.06042722614	
524.375	-0.2885711075	-0.006977343685	
525.0	0.08692627332	0.1622298558	
525.625	-0.03965812714	-0.007456096565	
526.25	0.06345367951	-0.02366821303	
526.875	-0.1058129108	0.0157543003	
527.5	0.02687436094	0.2046886357	
528.125	0.04679731906	0.08752035679	
528.75	0.06662296776	0.2358257994	
529.375	0.09760019106	0.03943786287	
530.0	0.01659178124	0.09310988952	
530.625	0.06552603518	0.3258138373	
531.25	0.3121243423	-0.07206380145	
531.875	0.1883994354	-0.005553348732	
532.5	-0.006129742086	-0.2156481985	
533.125	0.09066326921	0.09959672263	
533.75	0.1599806654	-0.2968632764	
534.375	-0.07867555327	-0.134692036	
535.0	-0.1685384261	-0.1795750906	
535.625	-0.1598992695	0.1507030579	
536.25	0.009380471131	0.05000011444	
536.875	0.08544921158	0.05288052598	
537.5	0.05402560109	-0.06691233288	
538.125	0.07849516035	-0.01086148117	
538.75	0.147243169	-0.1248672167	
539.375	-0.09442260114	-0.1008907146	
540.0	-0.1006390899	-0.1296244426	
540.625	-0.1771324141	-0.05056879016	
541.25	-0.05642648946	0.05438284255	
541.875	-0.009043965576	-0.0781097049	
542.5	-0.1136540266	-0.05291676388	
543.125	-0.001022229015	-0.01860127339	
543.75	-0.1500985271	-0.04173371229	
544.375	0.01336225117	0.04672247797	
545.0	-0.05277628019	0.06885351891	
545.625	0.09290252613	0.02906945035	
546.25	0.01200457569	0.03100720491	
546.875	0.1635982133	-0.00810327841	
547.5	0.005355943369	-0.132691621	
548.125	0.007311060114	-0.1067049897	
548.75	-0.1324144178	-0.1499148212	
549.375	-0.1143883403	-0.01579015354	
550.0	-0.05434332552	-0.03815969852	
550.625	-0.05628009404	0.04531614623	
551.25	-0.05199502965	-0.00123527486	
551.875	-0.08855999544	0.07998286018	
552.5	-0.01509997467	0.07354088521	
553.125	-0.03188762905	0.05265823086	
553.75	0.05715931438	0.04776935329	
554.375	0.07473406029	0.0001542484891	
555.0	0.09995362382	-0.0605099329	
555.625	0.07831288669	-0.0997802127	
556.25	0.06073125477	-0.1217977693	
556.875	-0.02832010397	-0.1460405814	
557.5	-0.09316996793	-0.09591969008	
558.125	-0.1036375384	-0.03369473636	
558.75	-0.09893330616	-0.009982651112	
559.375	-0.1106379395	0.02009230635	
560.0	-0.07899485596	0.07226961118	
560.625	-0.05751043482	0.08852297075	
561.25	0.007356457465	0.1168450855	
561.875	0.02557210197	0.01458929162	
562.5	0.0100452833	0.0810332087	
563.125	0.05383245548	0.03308651912	
563.75	0.1265917086	0.04824632161	
564.375	0.131099234	-0.1252888636	
565.0	0.02309239342	-0.1088378273	
565.625	0.01888238971	-0.1624550399	
566.25	-0.2002003691	-0.1155446053	
566.875	-0.07395837903	-0.03861125016	
567.5	-0.1331867887	-0.159088188	
568.125	-0.1856937146	-0.07891793062	
568.75	-0.1274216387	-0.1223045809	
569.375	-0.2831893602	0.1286319958	
570.0	-0.03880599459	0.1635362938	
570.625	-0.1204165757	0.1125467422	
571.25	0.04451139207	0.1912782571	
571.875	-0.001830064903	0.006083480309	
572.5	0.1745070173	0.05407639281	
573.125	0.01586497628	-0.1672247364	
573.75	0.04277171107	-0.008080691886	
574.375	0.05994269719	-0.1429650189	
575.0	-0.03441100327	0.02651996608	
575.625	0.1104713409	-0.1026545842	
576.25	-0.03439493399	-0.1483858676	
576.875	0.02161460905	-0.04364893145	
577.5	0.06047394716	-0.209238803	
578.125	-0.125484563	-0.1492678866	
578.75	0.001974912871	-0.002310527043	
579.375	-0.06062579468	-0.1667244688	
580.0	-0.1053995014	0.06141604678	
580.625	-0.03740001365	-0.1798185052	
581.25	-0.08824673455	0.1940209137	
581.875	0.004317106065	0.02581596874	
582.5	-0.05151860669	0.1718422741	
583.125	0.1882359132	0.1011684553	
583.75	-0.03894768758	-0.05193381578	
584.375	0.1093069334	0.1384492254	
585.0	0.08851379125	-0.03815579131	
585.625	0.1171935912	0.1028845194	
586.25	0.2017810189	-0.1207374735	
586.875	0.00920868999	-0.06527587887	
587.5	0.07209378142	-0.1555321566	
588.125	-0.08393991766	-0.1638400139	
588.75	0.02734230096	-0.03090929868	
589.375	0.175879468	-0.1893018788	
590.0	-0.1442387424	-0.1511782932	
590.625	-0.06074814127	-0.05206418362	
591.25	-0.2119690427	0.0724940682	
591.875	0.136708237	0.1475964171	
592.5	-0.09097339775	-0.008877419005	
593.125	0.06160098486	0.07172357581	
593.75	-0.04109439875	0.08245728988	
594.375	0.2616176733	0.1058281216	
595.0	0.1519399163	-0.0129186206	
595.625	0.07028449068	0.1105699751	
596.25	0.2143381881	0.08144471652	
596.875	0.1011823849	-0.02638124636	
597.5	0.06268156224	0.1286931941	
598.125	0.1938733584	0.1091294811	
598.75	0.1027914414	0.0534270818	
599.375	0.2107140763	0.01985027704	
600.0	0.1541359177	-0.1991504738	
600.625	0.05471329541	-0.1082235916	
601.25	0.1454905419	-0.1579955637	
601.875	-0.1697748789	-0.1678102043	
602.5	-0.03025026533	0.0228886139	
603.125	-0.1792179495	-0.02398410782	
603.75	-0.04676968261	0.1479113155	
604.375	-0.0944627672	-0.04088865407	
605.0	-0.1416318869	0.115535875	
605.625	0.03247553651	0.04259994765	
606.25	-0.1881114709	0.09149032623	
606.875	-0.1242829384	0.1434512704	
607.5	-0.2108626291	0.1273025132	
608.125	-0.1249208979	0.2404401286	
608.75	0.2471794511	0.1647436616	
609.375	0.1640248046	-0.03029449673	
610.0	0.2343394236	-0.05668939335	
610.625	0.03379910186	-0.2165998518	
611.25	-0.006457465804	-0.06866043093	
611.875	-0.08797702653	-0.2139022917	
612.5	-0.1525829432	0.07624886563	
613.125	-0.1328375919	-0.07421676795	
613.75	-0.1629054794	0.2119957188	
614.375	0.1268856819	0.03221334778	
615.0	-0.007155362612	0.1408921313	
615.625	0.1005089414	0.07753012351	
616.25	-0.05424727322	0.03223457324	
616.875	-0.1242395836	0.2316556541	
617.5	-0.1374093546	0.1304309959	
618.125	-0.08482372884	0.1377516596	
618.75	0.005369269703	0.2695102722	
619.375	0.1329281009	0.1058759684	
620.0	0.09297145071	-0.0723296716	
620.625	0.1827334865	-0.1672338217	
621.25	-0.1689882303	-0.1509595855	
621.875	-0.1097293582	-0.1332541043	
622.5	-0.319139151	0.004586476732	
623.125	0.03496356199	0.1594157605	
623.75	0.04889130016	0.1101041612	
624.375	0.07151153661	-0.1260159752	
625.0	0.003111438101	0.04897926819	
625.625	0.09869504963	-0.137438176	
626.25	-0.1067890244	-0.08416075774	
626.875	-0.08279990683	-0.08988304217	
627.5	-0.1696610978	-0.07481067205	
628.125	-0.142410139	-0.06844983238	
628.75	-0.009042611982	-0.114773208	
629.375	-0.07704834737	-0.1896804929	
630.0	-0.1161696079	-0.04677549447	
630.625	-0.18121749	-0.01886023757	
631.25	-0.1364517589	0.236781849	
631.875	0.07643709632	0.2074843514	
632.5	0.02677465501	0.1983719807	
633.125	0.3456262929	0.08108518861	
633.75	0.08416560593	-0.08540024947	
634.375	0.1388251158	-0.08421873562	
635.0	-0.06507238677	-0.1914919876	
635.625	-0.05065432996	-0.02102401583	
636.25	-0.2345467403	0.02969041977	
636.875	0.00444414482	0.1635335779	
637.5	-0.05616280098	-0.007325889147	
638.125	-0.086293386	0.1735559559	
638.75	0.01489209225	0.07927314745	
639.375	-0.1041620713	0.2305250831	
640.0	0.1778282646	0.2893380334	
640.625	0.2003523366	0.05256334407	
641.25	0.1340273128	0.0646088673	
641.875	0.2478195723	-0.2357556794	
642.5	-0.1498357156	-0.1357962478	
643.125	0.02452601673	-0.1822961475	
643.75	-0.3351303437	-0.04096705432	
644.375	0.003247047324	-0.02423731297	
645.0	-0.3695972802	0.1463299865	
645.625	0.1686385753	0.1926595702	
646.25	-0.05621306309	0.03733146923	
646.875	0.2051362951	0.1067516771	
647.5	-0.04786953093	-0.0924404083	
648.125	0.2006433953	0.1877401273	
648.75	0.2586625074	-0.2139598063	
649.375	0.1029920146	-0.1162622291	
650.0	0.3203414745	-0.2579626415	
650.625	0.05086395592	-0.4257554849	
651.25	0.07768387161	-0.07577325061	
651.875	0.3685172387	-0.09402757676	
652.5	0.2809418938	-0.2150922183	
653.125	0.05964299819	-0.03033785109	
653.75	0.3817446283	-0.1810722127	
654.375	-0.1774519613	-0.2805200881	
655.0	-0.08661565976	-0.114045517	
655.625	-0.3499798728	0.1627124406	
656.25	0.2576123514	0.1726685803	
656.875	-0.1021503611	0.02507655221	
657.5	0.1470946133	0.1785961605	
658.125	0.03476137472	-0.009958543953	
658.75	0.2374912449	0.2494546953	
659.375	0.3345063574	-0.3149913492	
660.0	0.1055447018	-0.162059541	
660.625	0.256805889	-0.2788495237	
661.25	0.1027380903	-0.3950737698	
661.875	0.1081349513	-0.05401809051	
662.5	0.3847027978	-0.1575834543	
663.125	0.201755575	-0.2839785355	
663.75	0.1065291987	-0.1601451549	
664.375	0.1051928262	-0.3414429307	
665.0	-0.3447272684	-0.1591191349	
665.625	-0.1934422166	0.009805342452	
666.25	-0.2452225452	0.2781836139	
666.875	0.2083833876	0.1609151571	
667.5	0.05402082744	0.1412855257	
668.125	0.3209639082	-0.02251517753	
668.75	0.03040547119	-0.1571141347	
669.375	0.1547240517	-0.1024090544	
670.0	0.0403760246	-0.3192824271	
670.625	-0.1093929863	-0.06711903369	
671.25	0.1895882018	-0.1514477188	
671.875	0.1076565837	-0.2392433031	
672.5	0.08743836283	-0.09845237698	
673.125	0.3353183819	-0.09925188631	
673.75	0.05341813369	-0.2841638848	
674.375	0.06551649703	-0.1232152926	
675.0	0.008890984108	-0.292151511	
675.625	-0.273734431	-0.1120721295	
676.25	-0.04058398562	0.0143083251	
676.875	-0.2169341311	-0.1192458755	
677.5	-0.1247444184	0.12921434	
678.125	-0.09473357787	-0.03246508471	
678.75	-0.06200372405	0.3633667043	
679.375	0.2187563894	-0.1158243865	
680.0	0.08994319188	0.08769879724	
680.625	0.2012278528	-0.2241433877	
681.25	-0.08320622582	-0.06455664774	
681.875	0.3808691635	0.2843701613	
682.5	0.3037627308	-0.08785090746	
683.125	0.06894995932	0.05189098331	
683.75	0.2892738815	0.2002505468	
684.375	0.3772197231	-0.09403437385	
685.0	0.1148558499	0.2059265543	
685.625	0.4246121255	0.1271475041	
686.25	0.2515310856	-0.1226875494	
686.875	0.1705841236	0.01291991232	
687.5	0.3900069272	-0.275600225	
688.125	-0.1831502932	-0.354303231	
688.75	-0.198964721	-0.2473375247	
689.375	-0.4467034639	0.3021939361	
690.0	0.3078395763	0.2732278933	
690.625	-0.03805063574	0.2995110447	
691.25	0.5011065653	0.2942435329	
691.875	0.2751276003	0.1354753847	
692.5	0.5716491199	0.4779845222	
693.125	0.7945577587	-0.09924932109	
693.75	0.3143945783	-0.2161012606	
694.375	0.5843838023	-0.4031870576	
695.0	0.4930085026	-0.3680148301	
695.625	0.4804582135	0.06524960005	
696.25	0.4147740916	0.3579404761	
696.875	0.5742894461	0.3330958723	
697.5	0.2882229812	0.3963290316	
698.125	0.4243529833	0.3271695831	
698.75	0.4843271281	-0.4605447003	
699.375	-0.2825427178	-0.2492451582	
700.0	-0.4707831595	0.1535283764	
700.625	0.2855071904	0.3795553583	
701.25	0.07874536295	0.07649562788	
701.875	0.2248379504	0.3892895805	
702.5	0.4379455077	0.09000429763	
703.125	0.2484810453	0.2179273651	
703.75	0.4792557685	-0.03893720409	
704.375	0.1864546543	-0.2888657617	
705.0	0.2974206117	-0.04075280928	
705.625	0.3774588235	-0.01789451577	
706.25	0.2276694494	0.2044623023	
706.875	0.1137535345	0.2989728913	
707.5	0.2496022101	0.4110535253	
708.125	0.3620160989	-0.003150608864	
708.75	0.01288422511	-0.1976123612	
709.375	-0.2151038287	-0.3940002111	
710.0	-0.09028103733	0.2326352105	
710.625	-0.1056228901	0.06574068981	
711.25	0.3297711767	0.2106873263	
711.875	0.04086766465	0.1016865916	
712.5	0.3765614474	0.08701867572	
713.125	0.2290049511	-0.2483752281	
713.75	0.1052733074	-0.1397693545	
714.375	0.121073313	-0.2637459752	
715.0	-0.1315703474	-0.196186638	
715.625	0.05039908975	-0.1146535044	
716.25	0.2197759696	-0.2810112527	
716.875	0.2469056649	-0.2499785928	
717.5	0.3685800889	0.1043968588	
718.125	0.7805646892	0.121461746	
718.75	0.5100132592	-0.2845345471	
719.375	0.267721738	-0.1249171932	
720.0	0.7111101128	-1.051407496	
720.625	-0.03134182108	-0.5396456593	
721.25	0.3989874397	-0.8197827193	
721.875	-0.2813599166	-1.477505676	
722.5	-0.5141186276	-0.3341542939	
723.125	-0.558357166	-0.5849318808	
723.75	-0.4069136237	0.5379136321	
724.375	0.07877394631	0.2252780401	
725.0	-0.01149775217	0.4221069143	
725.625	0.3683084329	0.418742667	
726.25	0.02914252634	0.3090483194	
726.875	-0.3111362317	0.9265432756	
727.5	0.1494206539	1.397851046	
728.125	-0.008362487739	1.104834377	
728.75	-1.088353088	2.673199913	
729.375	0.01755122894	3.653204462	
730.0	0.6628642544	2.14286696	
730.625	-1.726825466	3.967776781	
731.25	0.3062467512	3.882667845	
731.875	-1.062597135	0.3293131336	
732.5	-4.098978675	-0.3005157519	
733.125	-2.458097048	1.563616725	
733.75	-0.606426287	0.3649584831	
734.375	0.8488149774	0.9104858847	
735.0	-0.4320043002	-0.4422172095	
735.625	-0.2514695172	-0.1717633149	
736.25	-0.1634028798	0.7050805974	
736.875	0.518438704	0.1554819204	
737.5	0.4450071605	0.6743266928	
738.125	1.79720543	-0.4252947132	
738.75	0.8365822872	-1.445039635	
739.375	0.9723597362	0.1147743077	
740.0	4.94896416	-1.186732217	
740.625	0.682105809	-3.760255763	
741.25	-3.094832658	1.714799018	
741.875	-3.447202098	2.42128902	
742.5	0.3406934485	0.03917352874	
743.125	2.20099397	-2.420423145	
743.75	-0.3689598971	-1.184583183	
744.375	-0.095717891	0.1955038739	
745.0	-0.09506800205	0.2004358741	
745.625	-0.09113828379	-0.1354462586	
746.25	0.09746042017	-0.1509702247	
746.875	-0.2388239822	0.03273215136	
747.5	-0.03187921449	0.2266811975	
748.125	-0.07762981694	0.4525987014	
748.75	0.3335651587	0.4638762287	
749.375	0.1277544476	0.2882766275	
750.0	-0.3719624295	0.1669092991	
