!Created with skrf (http://scikit-rf.org).
# GHz S RI R (50+0j) 
!freq	ReS11	ImS11	
500.0	0.31053581	-0.9167873657	
500.625	-0.2867267274	-0.8256522675	
501.25	0.1869746462	-0.5408638609	
501.875	-0.3950248086	-0.3748828601	
502.5	-0.01410990538	-0.06406089145	
503.125	-0.08102800208	-0.02069071916	
503.75	0.07288719223	0.05000535372	
504.375	0.008349722834	0.01960889014	
505.0	0.02261122761	-0.04758295539	
505.625	-0.01222100291	0.001979853221	
506.25	-0.06261075045	-0.136646656	
506.875	0.0221382607	0.1661773115	
507.5	0.09438967081	-0.5417567126	
508.125	-0.1715610419	-0.6533550077	
508.75	0.2321305103	-0.378342658	
509.375	0.3161737994	-1.137051363	
510.0	-0.4528858612	-0.1434658968	
510.625	-0.05423003994	-0.07066502018	
511.25	-0.09759467068	-0.1177939752	
511.875	-0.1109774543	0.04090522151	
512.5	-0.03104503281	0.01293960647	
513.125	-0.01352641564	-0.08571927498	
513.75	-0.02828864216	0.01263249223	
514.375	-0.03637255325	-0.08818940901	
515.0	-0.1606734233	0.1706231082	
515.625	0.2388179062	-0.8429510997	
516.25	-0.6337953182	-0.4839711838	
516.875	-0.0875164581	-0.081888081	
517.5	-0.04633995426	-0.2540859799	
518.125	-0.01657794102	0.03030528308	
518.75	0.0230721703	-0.1551117888	
519.375	-0.04785268889	0.04973002076	
520.0	0.06949844004	0.008362282643	
520.625	0.1418310098	-0.05609552799	
521.25	-0.05105413027	-0.2826885582	
521.875	-0.08823426401	0.06298362238	
522.5	-0.02896539608	-0.03026275984	
523.125	-0.09643421232	0.1039361454	
523.75	0.02400332517	-0.05302735879	
524.375	-0.2697611514	0.002028075454	
525.0	0.09033127003	0.1190052723	
525.625	-0.05664767832	0.04106877362	
526.25	0.06218875677	-0.00338303137	
526.875	-0.1073460136	0.05868524583	
527.5	0.02673364764	0.234790793	
528.125	-0.05242195741	0.1985358016	
528.75	-0.04806073388	0.2203489645	
529.375	0.06401081332	0.04481676915	
530.0	0.01092922592	0.09348114294	
530.625	0.117410641	0.3110536216	
531.25	0.2978888177	-0.04523091974	
531.875	0.08500190113	-0.0697458186	
532.5	-0.09362221455	-0.1800947039	
533.125	-0.10239045	0.162463409	
533.75	0.09564612958	-0.2541710684	
534.375	-0.1221204048	-0.1124011144	
535.0	-0.1739949545	-0.1537786994	
535.625	-0.1771492216	0.1588319746	
536.25	0.01395851553	0.04688823873	
536.875	0.08443372137	0.04720322861	
537.5	0.04896740505	-0.06954806867	
538.125	0.06930012583	-0.004541158167	
538.75	0.147794546	-0.1391371281	
539.375	-0.08191328257	-0.1205662423	
540.0	-0.08258887573	-0.1327937806	
540.625	-0.1649584734	-0.04385886403	
541.25	-0.0580264695	0.04624022052	
541.875	0.02411501636	-0.02811473029	
542.5	-0.1029533807	-0.03725767806	
543.125	0.01551411437	8.381384938e-05	
543.75	-0.1292042009	-0.02768330515	
544.375	0.02588695582	0.05578080147	
545.0	-0.0494383348	0.05923589471	
545.625	0.1186193	0.04614029934	
546.25	0.02413506858	0.02364169928	
546.875	0.1569640521	-0.0172967774	
547.5	0.002743963749	-0.1159647608	
548.125	0.01994808421	-0.1150086916	
548.75	-0.1424110738	-0.1427692621	
549.375	-0.1003715757	0.001334099014	
550.0	-0.0598816411	-0.03636045265	
550.625	-0.05847423499	0.04339079351	
551.25	-0.0477703699	-0.003612977284	
551.875	-0.09104264933	0.06947135236	
552.5	-0.01136660885	0.06703334711	
553.125	-0.02764316027	0.03653470228	
553.75	0.05414483823	0.03655184062	
554.375	0.07387438329	-0.0005905393243	
555.0	0.09217039744	-0.06724886309	
555.625	0.06663295473	-0.102878521	
556.25	0.05195567443	-0.1224942328	
556.875	-0.03545989737	-0.1393671343	
557.5	-0.09818030491	-0.08797091437	
558.125	-0.10457829	-0.02816917359	
558.75	-0.09593826189	-0.004812986963	
559.375	-0.1059434358	0.02408934753	
560.0	-0.07312179381	0.07098542601	
560.625	-0.05814637536	0.08688979686	
561.25	0.02127607549	0.1103086861	
561.875	0.01640423617	0.01443851928	
562.5	0.02130656107	0.08145592522	
563.125	0.05784742751	0.0237756316	
563.75	0.1230201915	0.03672591657	
564.375	0.1316714211	-0.1285911256	
565.0	0.02339025289	-0.1082323908	
565.625	0.02834184202	-0.1446090251	
566.25	-0.1691357583	-0.08692119165	
566.875	-0.07016707244	-0.05229735955	
567.5	-0.1473440323	-0.1802397902	
568.125	-0.1776063556	-0.05974875025	
568.75	-0.1184621078	-0.1368068546	
569.375	-0.2771204647	0.1362582962	
570.0	-0.004380046287	0.1538104241	
570.625	-0.1331026261	0.09819532492	
571.25	0.03945335898	0.1762985508	
571.875	-0.01132119295	0.004425902181	
572.5	0.2006416443	0.0380264312	
573.125	-0.004847176057	-0.1546603926	
573.75	0.0720850115	0.004478525084	
574.375	0.04849846888	-0.14639675	
575.0	-0.03707567424	0.03051685041	
575.625	0.109445395	-0.09977185523	
576.25	-0.03474405311	-0.1350096432	
576.875	0.02789276335	-0.04792648642	
577.5	0.04558116487	-0.2176321923	
578.125	-0.1591460089	-0.1316135361	
578.75	-0.002946373605	-0.043345676	
579.375	-0.08048818121	-0.1534554252	
580.0	-0.1248351279	0.1244612498	
580.625	-0.02407405397	-0.1761935694	
581.25	-0.1006116304	0.1781831522	
581.875	0.04140742917	0.02550218026	
582.5	-0.06315094334	0.1884770694	
583.125	0.1727346037	0.1034383873	
583.75	-0.09129131731	-0.004417260358	
584.375	0.119768668	0.1059936639	
585.0	0.05366110751	-0.03098230778	
585.625	0.1258677061	0.09521270137	
586.25	0.1757010015	-0.1459731189	
586.875	-0.00655993216	-0.07231628301	
587.5	0.05505924891	-0.1477653532	
588.125	-0.07816902193	-0.1752874499	
588.75	-0.002776486525	-0.02977738174	
589.375	0.1492083542	-0.1809590193	
590.0	-0.1356494318	-0.1199536586	
590.625	-0.07669013924	-0.06929298025	
591.25	-0.2612534025	0.1335224735	
591.875	0.08910229186	0.1186220795	
592.5	-0.07994198843	0.004377210438	
593.125	0.05681639588	0.07876206548	
593.75	-0.0987583408	0.133990667	
594.375	0.2067847224	0.1564951405	
595.0	0.147400256	-0.01864749035	
595.625	0.07095651474	0.1075328974	
596.25	0.2180704733	0.004323988028	
596.875	0.08875282506	-0.03411661101	
597.5	0.08730363838	0.1454395788	
598.125	0.2095424677	0.08173165375	
598.75	0.09872001388	0.04317272202	
599.375	0.2156599701	0.02146662634	
600.0	0.1628609481	-0.1728084968	
600.625	0.04944664302	-0.1140794068	
601.25	0.1503372102	-0.1333148257	
601.875	-0.1501671365	-0.151070947	
602.5	-0.02944261024	0.01096353971	
603.125	-0.1871842895	0.003994278822	
603.75	0.02040336125	0.1325946189	
604.375	-0.08631438047	-0.03347380969	
605.0	-0.1255362229	0.1367902192	
605.625	0.0254024197	-0.05059418239	
606.25	-0.1867103045	0.01978302584	
606.875	-0.0833557705	0.1171975534	
607.5	-0.1175033957	0.09243263293	
608.125	0.000389976505	0.2555495823	
608.75	0.1663190007	0.1247704193	
609.375	0.126567015	-0.02187842512	
610.0	0.2193037093	-0.07722460702	
610.625	0.08402894663	-0.1779467768	
611.25	0.01346479354	-0.05646312623	
611.875	-0.06704300949	-0.1935967509	
612.5	-0.1455311212	0.0419246973	
613.125	-0.1268970557	-0.06747899661	
613.75	-0.1443936749	0.2108620003	
614.375	0.1158615515	-0.01187185711	
615.0	-0.04508399925	0.1224183996	
615.625	0.1060395925	0.06768223676	
616.25	-0.1035279347	0.09507029209	
616.875	-0.04511132603	0.2471639262	
617.5	0.02659203728	0.1762932261	
618.125	-0.05993152297	0.1116215835	
618.75	0.02592092168	0.1887399155	
619.375	0.09732503255	0.2034585074	
620.0	0.1257857169	0.05281681697	
620.625	0.15035886	-0.1712567204	
621.25	-0.1167981063	-0.08967009522	
621.875	-0.06978907385	-0.065561791	
622.5	-0.2655763663	0.0565928796	
623.125	0.04905430228	0.1465193532	
623.75	0.03051345011	0.07652436272	
624.375	0.09875056811	-0.1158516398	
625.0	-0.0004289830279	0.04523217513	
625.625	0.09466349212	-0.1338586381	
626.25	-0.1065022897	-0.07757926372	
626.875	-0.05408674872	-0.09836117409	
627.5	-0.1850018462	-0.04887824456	
628.125	-0.09378389651	-0.002905495674	
628.75	-0.02910267599	-0.1157237708	
629.375	-0.1473778482	-0.1603564616	
630.0	-0.2339638132	-0.02818609386	
630.625	-0.1869765181	0.0163208432	
631.25	-0.1947918009	0.2190225445	
631.875	0.0463397823	0.1878453955	
632.5	0.01497308415	0.1932364094	
633.125	0.2766330657	0.03685587534	
633.75	0.07240727339	-0.06007360467	
634.375	0.1258098206	-0.1158415168	
635.0	-0.1207337509	-0.1808957352	
635.625	-0.03759891657	-0.04656695849	
636.25	-0.226371164	0.04428209409	
636.875	0.0212941792	0.1822606755	
637.5	-0.05022208279	0.002094909108	
638.125	-0.1116090323	0.177282374	
638.75	0.02355124134	0.07821345241	
639.375	-0.08708361744	0.240443569	
640.0	0.2150736325	0.2470993753	
640.625	0.2189722694	0.04167759815	
641.25	0.2169801341	0.08104155831	
641.875	0.1972301169	-0.2691821686	
642.5	-0.105433494	-0.1228253284	
643.125	0.01482354441	-0.1861305328	
643.75	-0.2715813797	-0.04976644349	
644.375	0.06197297139	-0.002327485751	
645.0	-0.263818712	0.1822312103	
645.625	0.3056466373	0.1627953609	
646.25	-0.008829396244	0.02180434876	
646.875	0.2215995311	0.04864977197	
647.5	-0.08052730242	-0.0927447761	
648.125	0.2495213235	0.199244108	
648.75	0.2311869507	-0.2203727338	
649.375	0.08859241126	-0.1242580119	
650.0	0.3166305155	-0.2538033752	
650.625	-0.00204662605	-0.4085616521	
651.25	0.09385783157	-0.06189696279	
651.875	0.359465856	-0.1525633236	
652.5	0.2139767302	-0.2464418724	
653.125	0.1334571078	0.01432732954	
653.75	0.2926727408	-0.2699999103	
654.375	-0.2036777049	-0.2323601341	
655.0	-0.1097766171	-0.08722043887	
655.625	-0.3976556845	0.1445148443	
656.25	0.2138981645	0.1323694285	
656.875	-0.1051323138	0.04956154488	
657.5	0.2388152781	0.1610654196	
658.125	0.03185098896	0.01492886513	
658.75	0.3902478534	0.307886787	
659.375	0.2702409695	-0.339335527	
660.0	0.1003769381	-0.1616999336	
660.625	0.2177449285	-0.2879937624	
661.25	0.06214947802	-0.4294917038	
661.875	0.06566991128	-0.1009360455	
662.5	0.358921265	-0.1815266053	
663.125	0.1555290654	-0.2926819039	
663.75	0.1256346844	-0.1304325107	
664.375	0.0192264695	-0.3885437638	
665.0	-0.325629298	-0.07587147596	
665.625	-0.1764634314	0.01765071359	
666.25	-0.1762649123	0.2918733274	
666.875	0.2110008628	0.1360240343	
667.5	0.01309775721	0.1027388201	
668.125	0.3557473955	-0.04762680575	
668.75	0.04238098465	-0.1670985625	
669.375	0.1533394988	-0.1127463214	
670.0	-0.0709462147	-0.3834355743	
670.625	-0.07453653568	0.005542660702	
671.25	0.1669371169	-0.2252191066	
671.875	0.0527102917	-0.2434415997	
672.5	0.08295556438	-0.07650555382	
673.125	0.3053318284	-0.1343919691	
673.75	0.04296546031	-0.3010019098	
674.375	0.0376197316	-0.1268996164	
675.0	-0.03445513606	-0.2883965862	
675.625	-0.2756124195	-0.03872692511	
676.25	-0.02473251841	-0.01755668535	
676.875	-0.2393673276	-0.04808348999	
677.5	-0.08492788672	0.1351740249	
678.125	-0.1094872481	0.0005158217088	
678.75	0.003977294214	0.374900692	
679.375	0.2017307697	-0.1341245509	
680.0	0.08296526238	0.1315440688	
680.625	0.1644450142	-0.1841350156	
681.25	-0.2115180352	0.02118395059	
681.875	0.2937053896	0.2385337768	
682.5	0.2679409244	-0.1151030014	
683.125	0.04731030749	0.1933561458	
683.75	0.3575623926	0.1593636404	
684.375	0.2377475614	-0.1882296105	
685.0	0.05301822266	0.106264555	
685.625	0.395663957	-0.05716480673	
686.25	0.2273259415	-0.1858609126	
686.875	0.262516268	-0.01385226563	
687.5	0.3462650864	-0.411033375	
688.125	-0.1207988404	-0.2786642914	
688.75	-0.2415551426	-0.246147337	
689.375	-0.3375601839	0.3113577828	
690.0	0.2634746182	0.2036320549	
690.625	0.02065236963	0.2820385003	
691.25	0.5106509088	0.2339604414	
691.875	0.215758151	0.04262728323	
692.5	0.5052109481	0.3403216574	
693.125	0.7460732486	-0.2127747097	
693.75	0.2718041662	-0.04067293309	
694.375	0.5315566815	-0.3402296975	
695.0	0.1058111235	-0.387356442	
695.625	0.2869434753	-0.05007817712	
696.25	0.4736831609	0.3219333948	
696.875	0.4088823383	0.2198327191	
697.5	0.3095560294	0.3490562517	
698.125	0.4927413443	0.2564553921	
698.75	0.3816971772	-0.5468491913	
699.375	-0.2528852199	-0.134267481	
700.0	-0.2227429637	0.1018257574	
700.625	0.271175668	0.2707224732	
701.25	0.06940835646	0.08601690032	
701.875	0.3051533617	0.3378303236	
702.5	0.379585315	-0.05026595885	
703.125	0.2368389275	0.1426160094	
703.75	0.4607407472	-0.09966154358	
704.375	0.1099990919	-0.2416553845	
705.0	0.1961737727	0.001207945373	
705.625	0.1621417216	-0.1171249443	
706.25	0.1750706991	0.06527936463	
706.875	0.2480782914	0.2355729079	
707.5	0.357159805	0.3451005235	
708.125	0.5814699888	0.1125486449	
708.75	0.2421462903	-0.24491174	
709.375	-0.2759962893	-0.3213808002	
710.0	-0.05794779395	0.2562033243	
710.625	-0.06894021435	0.01224264403	
711.25	0.2260218036	0.1023421903	
711.875	-0.004572908593	0.01200636091	
712.5	0.3647170222	0.005336964742	
713.125	0.1712927284	-0.3180607554	
713.75	0.05477944244	-0.1281453718	
714.375	0.0726353615	-0.2859805254	
715.0	-0.1356048468	-0.1729782148	
715.625	0.04331031799	-0.103908402	
716.25	0.1801849725	-0.2691534459	
716.875	0.1618486235	-0.2316667332	
717.5	0.3793133942	0.04980242936	
718.125	0.7366816571	0.006696220483	
718.75	0.7460890707	-0.3463031992	
719.375	0.5971770327	-0.1096249015	
720.0	0.4925818879	-0.9935735935	
720.625	-0.5333185355	-0.7055023985	
721.25	0.4002278542	-0.592500313	
721.875	-0.4736252873	-1.10866117	
722.5	-0.581931678	-0.07816204351	
723.125	-0.6882694179	-0.313549848	
723.75	-0.2803649501	0.7491644547	
724.375	0.1155707477	0.2119413347	
725.0	0.06517217473	0.4367947378	
725.625	0.4279537202	0.3550859354	
726.25	-0.03476382755	0.3464799921	
726.875	-0.1913049608	0.9465239328	
727.5	0.2776489089	1.270640361	
728.125	0.1627384741	0.9863596121	
728.75	-0.5991651689	2.41440857	
729.375	0.2114892341	3.773877986	
730.0	0.3918148055	1.863482436	
730.625	-0.9060565137	3.859019684	
731.25	1.199315332	4.543288352	
731.875	-0.9378836673	0.6576480912	
732.5	-4.096783214	0.5209979184	
733.125	-1.895244697	1.664875574	
733.75	-0.3023102324	-0.04447222591	
734.375	1.153345969	1.027186712	
735.0	-0.4318378781	-0.4545397535	
735.625	-0.283779145	-0.09649426691	
736.25	-0.06558346886	0.7556794652	
736.875	0.556717666	-0.02424086652	
737.5	0.6132628682	0.5767821398	
738.125	1.718085733	-0.7743705674	
738.75	0.5175114172	-1.309441686	
739.375	1.23893339	0.2418989216	
740.0	5.060070618	-2.23688178	
740.625	0.136624283	-2.7459459	
741.25	-2.797941865	2.806680993	
741.875	-3.17810908	3.566223128	
742.5	0.03072765155	0.3083723047	
743.125	0.9592566344	-2.189419811	
743.75	-0.5949933293	-1.086987062	
744.375	-0.1096106301	0.04911172757	
745.0	-0.1494848296	0.3587231816	
745.625	-0.06989263585	-0.07411180191	
746.25	0.06194754859	-0.1492024986	
746.875	-0.2231141127	0.1041827484	
747.5	-0.0264157318	0.2250681409	
748.125	-0.0009026285638	0.5143671246	
748.75	0.3796275231	0.3937257873	
749.375	0.1762183945	0.2528404435	
750.0	-0.3597135372	0.1587946243	
