!Created with skrf (http://scikit-rf.org).
# GHz S RI R (50+0j) 
!freq	ReS11	ImS11	
500.0	1.099155406	-2.405152318	
500.625	0.6688035268	-4.34296457	
501.25	-0.8460009023	-0.8676355317	
501.875	-0.6179555134	-1.800081134	
502.5	-0.5048631991	-0.1888449819	
503.125	-0.1351936256	-0.05643245176	
503.75	0.0916447644	0.4620130718	
504.375	-0.05544589087	-0.06008056375	
505.0	0.2314975612	-0.09381262983	
505.625	-0.231020281	-0.03558961255	
506.25	0.2597131526	-0.4118915459	
506.875	-0.3901511287	1.020012749	
507.5	0.8799894986	-0.9517724936	
508.125	0.0603974471	-3.052113979	
508.75	-0.9172491512	-2.386835179	
509.375	1.462012679	-3.291550773	
510.0	-2.406519838	-0.1342718312	
510.625	-0.1562231985	-0.1786873031	
511.25	-0.6009910641	-0.3938351708	
511.875	-0.3897696175	0.08997674245	
512.5	-0.007231229325	0.08210564412	
513.125	-0.05029622004	-0.2505437283	
513.75	-0.4571833772	-0.1046612676	
514.375	0.1286003154	-0.08784824357	
515.0	-0.8003129048	-0.5836481527	
515.625	1.668517502	0.03188368577	
516.25	-2.869099992	-3.747022753	
516.875	-0.8255512638	0.7024082203	
517.5	0.5382304461	-0.8480413571	
518.125	-0.3833252761	0.3043246484	
518.75	0.2915817786	-0.842612256	
519.375	-0.1743043195	0.2831566181	
520.0	0.194779437	0.01755496968	
520.625	0.6210235499	-0.01159357844	
521.25	-0.4135739003	-0.7768542496	
521.875	-0.1518549139	-0.02648263303	
522.5	-0.2603521595	0.1124720619	
523.125	-0.01717698755	-0.1162565072	
523.75	-0.4249202292	0.1640823891	
524.375	-0.1619079146	-0.03231017527	
525.0	-0.2418845846	0.5549418434	
525.625	0.1760325876	-0.1266700075	
526.25	-0.01339260001	0.1613551857	
526.875	-0.1433328124	-0.08303957921	
527.5	-0.2584578449	0.8900790567	
528.125	0.4770603852	0.3761983979	
528.75	-0.3305187727	0.7007883772	
529.375	0.3441119454	0.07987552021	
530.0	-0.3361124226	0.6588985904	
530.625	0.7275099527	0.5987898462	
531.25	0.7340369301	0.5450977707	
531.875	0.6122883884	-1.064923074	
532.5	0.136602118	0.06679914745	
533.125	-0.2550699569	-0.6744419543	
533.75	0.7548417583	-0.008386652572	
534.375	-0.9635450576	-1.009959809	
535.0	-0.2717599289	0.0005321320001	
535.625	-0.6753324561	0.1776436847	
536.25	0.1728346976	0.2658849062	
536.875	0.1160072715	0.1567066891	
537.5	0.2562170548	-0.1846386303	
538.125	0.07170959022	-0.1582186952	
538.75	0.5207650618	-0.1824376536	
539.375	-0.3667926534	-0.3829450303	
540.0	-0.2129721862	-0.2570557915	
540.625	-0.4493725174	-0.1440840388	
541.25	-0.2129561914	0.1112328234	
541.875	-0.04582937371	-0.03565738149	
542.5	-0.1645963557	-0.1812427385	
543.125	-0.1957477095	0.02590908509	
543.75	-0.1346916522	-0.1499326514	
544.375	-0.1273856357	0.2905442325	
545.0	-0.05417117436	-0.07873055809	
545.625	0.2818588645	0.3615326456	
546.25	0.05955657352	-0.1721356838	
546.875	0.3893156766	0.2149796475	
547.5	-0.01814138111	-0.5151776322	
548.125	0.0439724053	-0.171905265	
548.75	-0.3018826088	-0.4676294428	
549.375	-0.3918919374	-0.02697988396	
550.0	-0.03382972167	-0.08881614013	
550.625	-0.2516701492	0.1159007923	
551.25	-0.04893432376	-0.002368343145	
551.875	-0.2871538281	0.195546509	
552.5	0.001239256647	0.2098856228	
553.125	-0.08534538294	0.1299521048	
553.75	0.1474824715	0.1085292897	
554.375	0.1990085843	-0.00696227195	
555.0	0.2424633909	-0.1616146786	
555.625	0.1904173268	-0.2744983103	
556.25	0.1335779543	-0.3319218755	
556.875	-0.07815809049	-0.377478332	
557.5	-0.2429133309	-0.2482791695	
558.125	-0.2746107515	-0.06679649391	
558.75	-0.2321331857	-0.01690673747	
559.375	-0.2905854483	0.05516657655	
560.0	-0.1670305062	0.1931014262	
560.625	-0.1621567635	0.2113539536	
561.25	0.05914121611	0.3056930776	
561.875	0.05110977315	0.002509437687	
562.5	0.02225132772	0.2418753824	
563.125	0.160348942	0.02294919486	
563.75	0.3012398746	0.144955085	
564.375	0.3365454329	-0.3688721689	
565.0	0.04432121377	-0.2220354268	
565.625	0.04379628444	-0.4380659188	
566.25	-0.390119318	-0.1746701598	
566.875	-0.1799845539	-0.1426697908	
567.5	-0.3792787517	-0.3886449538	
568.125	-0.4711592943	-0.2194949306	
568.75	-0.3081364869	-0.2758087933	
569.375	-0.7861888594	0.2948325766	
570.0	0.01083287198	0.5099556145	
570.625	-0.3216866305	0.1373171081	
571.25	0.14375609	0.6591455681	
571.875	-0.1590069172	-0.06831191076	
572.5	0.6213313963	0.1070478099	
573.125	-0.1556254249	-0.3868994874	
573.75	0.2997235258	0.04835175047	
574.375	0.03106270496	-0.5166255269	
575.0	-0.07247913419	0.18675507	
575.625	0.3068226415	-0.3613467956	
576.25	-0.2132834815	-0.3013377438	
576.875	0.2683553496	-0.1389631236	
577.5	-0.03739789345	-0.6539394645	
578.125	-0.2919896632	-0.1907742463	
578.75	0.02960830549	-0.2396737605	
579.375	-0.3144540822	-0.3453959233	
580.0	-0.1422759578	0.196444331	
580.625	-0.1417219023	-0.3316103141	
581.25	-0.2550900583	0.4496792627	
581.875	0.08920261111	0.02753158535	
582.5	-0.2164299979	0.5050636143	
583.125	0.6376597145	0.1853465438	
583.75	-0.3351747123	-0.03328219166	
584.375	0.5190545744	0.2805606675	
585.0	-0.180234514	-0.07978168613	
585.625	0.6108562144	0.2908907467	
586.25	0.271000524	-0.4846295543	
586.875	0.09980272788	-0.007825170307	
587.5	0.08673468069	-0.5767384432	
588.125	-0.341466746	-0.2061472459	
588.75	0.3396010516	-0.1486352842	
589.375	0.1582487421	-0.62846475	
590.0	-0.1472477663	-0.1172612151	
590.625	-0.3951751184	-0.3139707652	
591.25	-0.3353075737	0.4546445128	
591.875	0.03828401313	0.1602374937	
592.5	-0.1489117371	0.104835756	
593.125	0.1341619209	0.134610112	
593.75	-0.16484003	0.2696951993	
594.375	0.682445427	0.3401677294	
595.0	0.2531236725	-0.1228127826	
595.625	0.2144091513	0.5132103454	
596.25	0.7888034689	-0.148668313	
596.875	-0.1200255281	0.1786507178	
597.5	0.6623787018	0.4451918756	
598.125	0.3723876377	-0.0937061133	
598.75	0.1895510567	0.4440925335	
599.375	0.6918911377	-0.2408891933	
600.0	0.1564052033	-0.286459	
600.625	0.4468116136	-0.273492302	
601.25	0.1168291951	-0.6304514757	
601.875	-0.1244390707	-0.1304636392	
602.5	-0.3637612686	-0.1546685495	
603.125	-0.1943323015	0.1894112391	
603.75	-0.2376937539	0.1643887875	
604.375	-0.2028424334	0.1015444078	
605.0	-0.2563501548	0.270873473	
605.625	0.09547725962	0.03825876463	
606.25	-0.5994548735	0.1193167966	
606.875	-0.09637253057	0.4412542211	
607.5	-0.4961469187	-0.006371380539	
608.125	0.1333974864	1.064770571	
608.75	0.143564359	0.000630037559	
609.375	0.7776774116	0.2308327772	
610.0	0.2267948032	-0.6588158138	
610.625	0.3799285096	0.01584650503	
611.25	-0.1322152828	-0.6597293804	
611.875	-0.0398215809	-0.05327939766	
612.5	-0.5440937959	-0.3691499743	
613.125	-0.1560273965	0.2898835653	
613.75	-0.4219934541	0.2010547954	
614.375	0.3707896622	0.3025201271	
615.0	-0.2966739303	0.08298506901	
615.625	0.3621727179	0.2677617645	
616.25	-0.3021998304	0.04033739605	
616.875	-0.3246620705	0.718822687	
617.5	0.2217363971	0.3360557421	
618.125	-0.3794673672	0.5033727321	
618.75	0.3100866504	0.5425980941	
619.375	0.04780171061	0.2033962543	
620.0	0.6175445413	0.1724785191	
620.625	0.1158030638	-0.2895506632	
621.25	-0.1375772534	-0.5215584653	
621.875	-0.4588692573	-0.04198236221	
622.5	-0.5099238311	-0.04242335099	
623.125	0.06478940002	0.6095944131	
623.75	-0.02844919358	0.04335070031	
624.375	0.3715174876	-0.3226174436	
625.0	-0.1053090519	0.2169475445	
625.625	0.3760025726	-0.4716643435	
626.25	-0.3577126808	0.1112690675	
626.875	-0.06362535275	-0.5235555251	
627.5	-0.6308779607	0.02642311379	
628.125	-0.01440874663	0.03081448975	
628.75	-0.1008730806	-0.5409940399	
629.375	-0.4232923083	-0.1553945163	
630.0	-0.2247178608	-0.3033500893	
630.625	-0.6697171938	0.1515966737	
631.25	-0.1283499432	0.5390605805	
631.875	-0.1674599302	0.401947577	
632.5	0.4430194546	0.5597155906	
633.125	0.4545748293	0.01872202429	
633.75	0.298349916	-0.1228065492	
634.375	0.2866480846	-0.3179146531	
635.0	-0.3126573371	-0.3061866432	
635.625	-0.03929641724	-0.3103276869	
636.25	-0.6285197672	0.274585392	
636.875	0.2028161266	0.2856341989	
637.5	-0.5123962249	-0.064345889	
638.125	0.2838455334	0.5241054242	
638.75	-0.3864130393	-0.05078822404	
639.375	0.007529553716	1.027602705	
640.0	0.5872552878	0.1569413293	
640.625	0.1292134914	0.5045763266	
641.25	1.005514954	-0.06895612671	
641.875	0.02274712385	-0.5456087254	
642.5	0.2759634617	-0.25677329	
643.125	-0.6254496818	-0.5633120456	
643.75	0.03091803559	0.2166826111	
644.375	-0.6284724246	-0.2751205621	
645.0	-0.1937317239	0.6110784127	
645.625	0.1213299923	0.1850316118	
646.25	0.2642061898	0.5273660443	
646.875	0.405335513	-0.3902396269	
647.5	-0.1835052475	0.2660257413	
648.125	0.7890739493	0.1094370261	
648.75	0.04171298704	-0.4742593552	
649.375	0.9950485454	0.05426817833	
650.0	0.2725699956	-1.460806311	
650.625	-0.2441826664	-0.1694067462	
651.25	1.140912995	-0.2862981905	
651.875	0.3955660683	-1.202091577	
652.5	0.1380448243	0.2529468688	
653.125	1.155389606	-0.2650770287	
653.75	-0.04322828182	-0.7904810378	
654.375	0.1863394819	-0.2875767502	
655.0	-1.06902375	-0.6012868659	
655.625	-0.02725129425	0.7017470088	
656.25	-0.161709889	0.03471389681	
656.875	0.259856155	0.5487481803	
657.5	0.01426255093	-0.2012282385	
658.125	0.253891455	0.7765556152	
658.75	0.8578202328	-0.09211318917	
659.375	0.447186436	-0.3454131712	
660.0	0.7428112404	-0.3140838698	
660.625	0.205566695	-1.341293831	
661.25	-0.0422875069	-0.2185051151	
661.875	0.9711831547	-0.4938256583	
662.5	0.4957253721	-0.9791686466	
663.125	0.1004389051	-0.06176501592	
663.75	0.8877153816	-0.9566956501	
664.375	-0.6145642671	-0.5167313188	
665.0	-0.1587463428	-0.5442609156	
665.625	-1.09350588	0.2638653977	
666.25	0.2050261716	0.5879472874	
666.875	-0.0673312311	0.4959614835	
667.5	0.702931719	0.268379629	
668.125	0.2282955509	-0.2605393641	
668.75	0.6337110552	-0.01175263142	
669.375	0.05722333557	-0.8521755547	
670.0	-0.02092784325	-0.2339474741	
670.625	0.1898908528	-0.4765129171	
671.25	0.01185071892	-0.6095505465	
671.875	0.05663109597	-0.1471429356	
672.5	0.7786710113	-0.2904011798	
673.125	0.29825264	-0.7146000133	
673.75	0.135607163	-0.1923185018	
674.375	0.538037737	-0.7779993383	
675.0	-0.8597219407	-0.4329134327	
675.625	0.2300534762	-0.3112745029	
676.25	-0.9522696578	-0.1558257057	
676.875	0.007205321543	0.47135986	
677.5	-0.5564833097	-0.4784101698	
678.125	-0.1227371814	0.8813252697	
678.75	-0.01325028629	0.1080009413	
679.375	0.4465742153	0.5133044137	
680.0	0.4977540935	-0.6302056632	
680.625	-0.2025476388	0.1842396366	
681.25	0.5964167299	-0.1035264492	
681.875	0.2147057497	-0.1570196095	
682.5	0.2094268339	0.3546155289	
683.125	0.8228641441	0.2658366324	
683.75	0.5375774241	-0.1781934461	
684.375	0.3791068399	0.1594640935	
685.0	0.9493040145	0.3978551992	
685.625	0.5911368781	-0.796718148	
686.25	0.3919947764	0.76427385	
686.875	1.164659419	-1.24040554	
687.5	-0.1292777434	-0.1179748394	
688.125	0.5991904666	-1.450667109	
688.75	-1.760696946	0.2091231981	
689.375	-0.261841488	-0.1345675425	
690.0	0.3793661259	1.597874378	
690.625	0.5826036953	-0.00534223021	
691.25	0.3742328668	0.9960345222	
691.875	1.508403713	0.491879156	
692.5	1.026631614	0.3708763804	
693.125	1.600616806	0.03226319241	
693.75	1.267800331	-0.7418017976	
694.375	0.9445861629	-0.8239437478	
695.0	0.9400775045	-0.8010796641	
695.625	1.059140815	0.0903104042	
696.25	1.606357845	-0.02969471401	
696.875	0.4705999985	0.5034978372	
697.5	1.358808773	1.754985243	
698.125	1.228297325	-0.5248383612	
698.75	1.39782116	-0.3677803379	
699.375	-1.695486939	-1.035122336	
700.0	0.2035906401	0.506845615	
700.625	0.06088874929	1.455470969	
701.25	0.5983268784	-0.1937713159	
701.875	0.151746258	0.8695370075	
702.5	1.423423968	0.2982411308	
703.125	0.4149424281	0.3842272744	
703.75	1.320871375	-0.2538205879	
704.375	0.1016070235	-0.6626943248	
705.0	0.9248984003	0.1702010386	
705.625	0.6808431046	-0.6546337832	
706.25	0.03486115595	0.5346985162	
706.875	1.230381609	1.053985535	
707.5	0.4863916242	0.01357254261	
708.125	1.2644079	0.792776705	
708.75	0.3950418372	-1.41276469	
709.375	-0.3275405804	-0.4122262075	
710.0	-0.8125063894	0.601392675	
710.625	0.4460084115	0.1522458613	
711.25	0.1293207133	0.4288393343	
711.875	0.5315398561	0.1286005282	
712.5	0.7881543599	-0.005333622485	
713.125	0.5124861501	-0.493448202	
713.75	0.3973948292	-0.4161036164	
714.375	-0.0750048072	-0.8078149291	
715.0	-0.1713665548	-0.01410739842	
715.625	0.4985662432	-0.9629726603	
716.25	-0.4567560579	-0.7252906672	
716.875	0.936958853	0.4257052864	
717.5	2.358057777	-0.6457673832	
718.125	-0.1435425113	-0.9388689143	
718.75	3.418265222	1.082652793	
719.375	0.9459352923	-2.888706398	
720.0	0.7697020394	-0.5349679539	
720.625	1.321853542	-4.043183942	
721.25	-1.743147894	-1.582175821	
721.875	0.3577502811	-2.417960921	
722.5	-2.072076835	-2.126346741	
723.125	-1.901629558	0.5433571458	
723.75	-0.8224647779	0.5516215845	
724.375	0.08651034651	1.562714272	
725.0	0.6204422573	0.4812801102	
725.625	0.1520414623	0.8453433893	
726.25	-0.08432648594	2.102214974	
726.875	1.24892747	2.209523931	
727.5	-1.586267322	1.898177889	
728.125	0.1253040116	8.098650868	
728.75	4.163029822	5.308631351	
729.375	-9.159184594	3.05360548	
730.0	9.370821527	19.30242509	
730.625	3.028222536	-0.1492961307	
731.25	-8.727851458	9.799726562	
731.875	-2.44275545	16.87430726	
732.5	-2.017090229	-1.694000914	
733.125	-9.725543693	1.455169356	
733.75	-0.4984613385	4.04244536	
734.375	1.321523372	0.04886136405	
735.0	0.9501068042	-2.086773442	
735.625	-0.7721918228	1.495760992	
736.25	-0.7794801835	0.650750151	
736.875	1.3966	1.890664927	
737.5	3.161985288	-0.8318415274	
738.125	1.269568267	-0.1123273735	
738.75	8.736390792	-2.462156045	
739.375	4.141480079	-9.800277732	
740.0	-3.275980003	1.057909172	
740.625	27.8322128	2.64955591	
741.25	20.04157976	-2.608891617	
741.875	-12.7964557	-11.67318086	
742.5	-14.66277833	-6.111323242	
743.125	-0.4385926789	2.324065087	
743.75	2.170911554	-4.259503992	
744.375	-1.406877912	1.25735564	
745.0	-0.2009855558	-0.3277002875	
745.625	0.3907846577	-0.1323970858	
746.25	-0.1161591847	-0.03502806274	
746.875	-0.7137094555	0.2827531665	
747.5	-0.1030623261	1.141334757	
748.125	0.3768060445	1.099095607	
748.75	0.0572198502	1.252243688	
749.375	0.7704468314	1.759648517	
750.0	-2.197423475	-0.3860302264	
