!Created with skrf (http://scikit-rf.org).
# GHz S RI R (50+0j) 
!freq	ReS11	ImS11	
500.0	-1.447980476	-3.288249101	
500.625	1.235486404	-3.980258687	
501.25	-2.756032234	-0.4696448448	
501.875	-0.8892905781	-1.613247711	
502.5	-0.4147651896	-0.4612120208	
503.125	-0.09569762892	0.182425247	
503.75	-0.1728319508	0.1232500574	
504.375	0.1695764685	-0.08626881859	
505.0	-0.04990184568	0.06339763012	
505.625	0.0562198814	-0.3605173361	
506.25	-0.1477516274	0.248486136	
506.875	-1.237337826	-0.5399215519	
507.5	-0.09690856611	0.7472793018	
508.125	1.570688743	-2.192510004	
508.75	0.8974388437	-4.397645389	
509.375	-2.226250864	-1.171950056	
510.0	-1.54834698	-2.075487416	
510.625	-1.128140435	-0.458772605	
511.25	-0.1137837994	-0.1519645561	
511.875	-0.6509635715	-0.2321674173	
512.5	-0.04282763539	0.1310440524	
513.125	0.03119880458	-0.2282396769	
513.75	-0.3427695778	-0.2590769316	
514.375	-0.3505982266	0.2452917507	
515.0	0.7411483511	-1.416414979	
515.625	-1.819306691	0.3558307708	
516.25	1.988531233	-2.135337499	
516.875	-2.326778667	-1.712885231	
517.5	-0.007722994966	0.4551525656	
518.125	-0.3515244539	-0.4415171462	
518.75	0.1176370239	0.356453038	
519.375	-0.3225284421	0.09147645262	
520.0	0.4854502887	0.05536504018	
520.625	0.248994685	-0.1676553368	
521.25	0.140321658	-0.8371886705	
521.875	-0.3809263674	0.1264039707	
522.5	-0.1530551551	-0.07055031403	
523.125	-0.00229051451	0.2504212006	
523.75	-0.2645525636	-0.258742161	
524.375	-0.321262779	0.4090041453	
525.0	-0.21183688	0.1095169821	
525.625	0.3215962158	0.2739315832	
526.25	-0.2969282717	-0.03014547319	
526.875	0.08625638056	0.1539636855	
527.5	-0.4088822006	0.2949432839	
528.125	0.4898089101	1.033244936	
528.75	0.2023857511	0.1165665285	
529.375	0.08352587987	0.4367943018	
530.0	0.1981069101	-0.01130029152	
530.625	0.302847805	1.260361781	
531.25	0.7788980741	-0.2095261646	
531.875	0.9188038213	-0.3137414457	
532.5	-0.6516936325	0.03571164152	
533.125	0.7135985457	-0.5658668233	
533.75	-0.3901171008	-0.195590608	
534.375	0.2305736709	-1.106168745	
535.0	-0.9199203917	0.2226924618	
535.625	-0.3081317006	0.01197970041	
536.25	-0.03287155637	0.3941728589	
536.875	0.1135572874	-0.1430594296	
537.5	0.2619920186	0.01924674472	
538.125	0.286432098	-0.3352955152	
538.75	0.1688263666	-0.1576954971	
539.375	-0.1352675035	-0.5063512209	
540.0	-0.5058170122	-0.2299639155	
540.625	-0.2793615297	-0.09734137908	
541.25	-0.2950701432	0.01201574064	
541.875	-0.02974516284	0.02399307625	
542.5	-0.1016896466	-0.1687084209	
543.125	-0.3084404181	-0.07050377363	
543.75	-0.03580631115	0.117775914	
544.375	-0.2997117279	0.02185371964	
545.0	0.2428345457	0.1340170858	
545.625	-0.1613110879	0.2651928668	
546.25	0.5069898015	-0.05250192168	
546.875	0.01892120148	0.05589091301	
547.5	0.3952389576	-0.4485377332	
548.125	-0.3375044128	-0.1687082428	
548.75	-0.06547452393	-0.3137679561	
549.375	-0.3894346312	-0.2725891548	
550.0	-0.1181389909	0.1782053472	
550.625	-0.1534348547	-0.1363140286	
551.25	-0.1555013801	0.203563708	
551.875	-0.1612791852	0.06154537798	
552.5	-0.1111426058	0.2901851996	
553.125	-0.02272347045	0.08181713173	
553.75	0.1425000002	0.1417238303	
554.375	0.2059873634	-0.03034390221	
555.0	0.2221977354	-0.152645005	
555.625	0.2072515247	-0.2620186197	
556.25	0.1339897842	-0.3531114075	
556.875	-0.1052753296	-0.3674349514	
557.5	-0.224530352	-0.2293159675	
558.125	-0.2882125029	-0.09101330648	
558.75	-0.2366441626	0.0208879832	
559.375	-0.259092293	0.02394369573	
560.0	-0.2172779924	0.2351005858	
560.625	-0.07476074699	0.1849140978	
561.25	-0.04736127737	0.2842305003	
561.875	0.1667002513	0.07385456511	
562.5	-0.08702782701	0.09241557984	
563.125	0.2861419832	0.2149724915	
563.75	0.1775612402	-0.06062356649	
564.375	0.4173358619	-0.1727817937	
565.0	0.01762270516	-0.4295424625	
565.625	0.06010215163	-0.2510972342	
566.25	-0.4025580262	-0.3379992048	
566.875	-0.2519845017	-0.01954567714	
567.5	-0.2224809544	-0.3424988311	
568.125	-0.5018431851	-0.46152071	
568.75	-0.4606312173	0.05774158238	
569.375	-0.5300822338	-0.06977482862	
570.0	-0.3105529474	0.8057772526	
570.625	0.1150807804	0.178442381	
571.25	-0.326775954	0.4278008795	
571.875	0.356143437	-0.1703800065	
572.5	0.2893523099	0.3917080342	
573.125	0.2292619999	-0.6152304654	
573.75	-0.1817725858	-0.0129732305	
574.375	0.3603047419	-0.1326644348	
575.0	-0.2324270164	-0.2725636519	
575.625	0.3146942397	0.03566804824	
576.25	0.0736274893	-0.5459219753	
576.875	-0.1295069356	-0.02553236589	
577.5	0.3033757628	-0.4723405963	
578.125	-0.3792970937	-0.4729847134	
578.75	-0.1708407116	-0.04380766437	
579.375	0.003373955804	-0.255434847	
580.0	-0.3751792438	-0.1353504095	
580.625	0.1332801509	0.03908211886	
581.25	-0.5602831577	0.1650502078	
581.875	0.3506692687	0.3663515687	
582.5	-0.1498307778	0.08766936211	
583.125	0.3185417507	0.5528017559	
583.75	-0.03938945072	-0.3829239639	
584.375	0.135224407	0.535951401	
585.0	0.3707626069	-0.3124778189	
585.625	0.04588714182	0.2262292108	
586.25	0.6347256244	-0.1021675566	
586.875	-0.1181612164	-0.4233885704	
587.5	0.197166716	-0.1738310397	
588.125	-0.1874615213	-0.5663933957	
588.75	-0.008515305936	0.007179069933	
589.375	0.3652745679	-0.5686670831	
590.0	-0.3494764881	-0.235224859	
590.625	-0.1832470501	-0.2613525377	
591.25	-0.4703723789	0.2967690375	
591.875	0.0400069672	0.4242312002	
592.5	0.08320033981	-0.1437121284	
593.125	-0.1520253709	0.3909936949	
593.75	0.142176658	-0.07482432599	
594.375	0.2659616572	0.5828820303	
595.0	0.6373038612	-0.05506754572	
595.625	0.06285478536	0.2493663556	
596.25	0.6909453485	0.2453418608	
596.875	0.1293643042	-0.3100192857	
597.5	0.1964346655	0.6169073472	
598.125	0.7007439149	0.1962629857	
598.75	0.2377102678	0.007710286126	
599.375	0.5624968112	0.124618467	
600.0	0.3337397002	-0.5385585415	
600.625	0.2234503015	-0.2127307639	
601.25	0.2999171624	-0.547103855	
601.875	-0.3272229939	-0.1679245869	
602.5	-0.2070205072	-0.2191272484	
603.125	-0.2965134937	0.2584483002	
603.75	-0.1994122049	0.1116261338	
604.375	-0.1278129917	0.179732656	
605.0	-0.341474719	0.09822152897	
605.625	0.03198693222	0.3693185585	
606.25	-0.3156345227	-0.2374780013	
606.875	-0.4906693476	0.6778336559	
607.5	-0.08872929536	0.09402862145	
608.125	-0.4431485353	0.8295327794	
608.75	0.6826433792	-0.05495268356	
609.375	0.3472868539	0.3195584175	
610.0	0.6086258821	-0.5596081379	
610.625	-0.1413341318	-0.108493106	
611.25	0.2856122616	-0.6229724522	
611.875	-0.2634348251	0.001608792851	
612.5	-0.2831499727	-0.3832180675	
613.125	-0.5168471163	0.3720748401	
613.75	-0.210708972	0.005914200632	
614.375	0.2082508965	0.5092148388	
615.0	0.004628718861	-0.1894545999	
615.625	0.00650442282	0.5710307778	
616.25	0.1145301422	-0.00466518647	
616.875	-0.5011703109	0.4473656645	
617.5	0.112296412	0.75146653	
618.125	-0.1509251099	0.1213821328	
618.75	0.1420643292	0.7105731194	
619.375	0.2408246542	0.1110186243	
620.0	0.4237289348	0.316972024	
620.625	0.1125732191	-0.4880494217	
621.25	-0.06476361243	-0.4009573766	
621.875	-0.5724721905	-0.03481142572	
622.5	-0.3072969246	-0.006858316149	
623.125	-0.210091216	0.6820174207	
623.75	0.2016425356	-0.2749080114	
624.375	0.4535901241	0.06218100054	
625.0	-0.2683986276	-0.0188526612	
625.625	0.4226800861	-0.2154668046	
626.25	-0.5307998977	-0.2709681086	
626.875	0.1537169473	-0.2014273756	
627.5	-0.6917707231	-0.2620124327	
628.125	-0.2678860209	0.1288439677	
628.75	0.05911278462	-0.2757842356	
629.375	-0.3355101203	-0.535659964	
630.0	-0.3387297643	-0.002986138176	
630.625	-0.5722815662	0.01369825207	
631.25	-0.233926073	0.6242697835	
631.875	-0.05334635709	0.325692929	
632.5	0.3739557958	0.6885863956	
633.125	0.4756823305	-0.09106654284	
633.75	0.3040856562	-0.08885671042	
634.375	0.2092347889	-0.2277830132	
635.0	-0.1354012819	-0.5901428029	
635.625	-0.1163707791	0.1833836058	
636.25	-0.6460109572	-0.1600266931	
636.875	0.06049098046	0.6295451626	
637.5	-0.07719729359	-0.2531816665	
638.125	-0.1681089747	0.7597142662	
638.75	-0.07193488433	-0.1289305568	
639.375	-0.2938646781	0.9506109813	
640.0	0.7962897365	0.344468278	
640.625	0.08277631636	0.179118009	
641.25	0.9324662843	0.323157291	
641.875	0.2873436633	-0.7892007316	
642.5	-0.1194388995	-0.1074858017	
643.125	-0.202794568	-0.6533782388	
643.75	-0.4842367724	0.2653465047	
644.375	-0.367180261	-0.4278605944	
645.0	-0.3340962068	0.6871255523	
645.625	0.2137793538	0.1888236053	
646.25	0.120051557	0.3805350457	
646.875	0.6165437445	-0.1504727835	
647.5	-0.3020290237	-0.05694151042	
648.125	0.6571062985	0.472122651	
648.75	0.5207911395	-0.7399869504	
649.375	0.2257672344	0.1672195621	
650.0	0.9255216476	-1.320228986	
650.625	-0.4302283621	-0.6274834116	
651.25	0.8366102347	0.09292603415	
651.875	0.9196768777	-1.12416336	
652.5	-0.1626597193	-0.2205127522	
653.125	0.9615445453	0.1491777646	
653.75	0.3950507482	-1.039364886	
654.375	-0.2800520541	-0.1798310184	
655.0	-0.5684765884	-0.7320714591	
655.625	-0.2518305	0.9447109865	
656.25	0.03207447312	-0.02865839756	
656.875	0.06458894072	0.5920902837	
657.5	0.2137170127	-0.2027012549	
658.125	0.006959920322	0.6696789465	
658.75	1.035155252	0.1292582218	
659.375	0.4955301162	-0.5904909475	
660.0	0.3468292025	-0.3052586357	
660.625	0.8145853227	-1.000247976	
661.25	-0.3537869174	-0.773561509	
661.875	0.8045142239	-0.1333555818	
662.5	0.6671639948	-0.919120717	
663.125	0.03658640867	-0.2901505413	
663.75	0.987189175	-0.6843474426	
664.375	-0.7072857662	-0.8149512702	
665.0	-0.2394276575	-0.1664852756	
665.625	-0.8490144989	-0.06512798657	
666.25	-0.1048759362	0.9393312057	
666.875	0.05823866189	0.1254621485	
667.5	0.617289595	0.416943204	
668.125	0.3270095911	-0.3109387927	
668.75	0.5519409949	0.01607499509	
669.375	0.1213871099	-0.9222206552	
670.0	-0.1162622805	-0.1842822472	
670.625	0.1978382641	-0.3999916061	
671.25	0.1955897396	-0.5813815184	
671.875	-0.02950720221	-0.5502755928	
672.5	0.4324635843	0.1221448341	
673.125	0.6417639888	-0.813535835	
673.75	0.03110462	-0.3160609457	
674.375	0.5117265518	-0.6024213204	
675.0	-0.8247464032	-0.5808213444	
675.625	0.1587939985	-0.1117178845	
676.25	-0.8606470061	-0.4356366588	
676.875	-0.2808429401	0.5562092224	
677.5	-0.1103091228	-0.3570141574	
678.125	-0.6331758719	0.6697497131	
678.75	0.3869012022	0.2410523608	
679.375	0.2187633146	0.364829015	
680.0	0.6639682775	-0.4582758591	
680.625	-0.3320174047	0.0169774687	
681.25	0.6384624253	-0.02315497498	
681.875	0.2359675252	-0.2082885724	
682.5	0.151798798	0.3103952874	
683.125	0.7810109867	0.3603637373	
683.75	0.8299038261	-0.1285849602	
684.375	0.2018666194	-0.1261013424	
685.0	0.7430659138	0.6235168159	
685.625	1.067331793	-0.6544207532	
686.25	-0.1067749314	0.3875878346	
686.875	1.495858927	-0.979197114	
687.5	-0.2733617644	-0.3782192742	
688.125	0.6663702335	-1.162602692	
688.75	-1.907754615	-0.1622293755	
689.375	0.08954220069	0.07870147075	
690.0	-0.1733065844	1.474857862	
690.625	0.8805873697	0.1387121396	
691.25	0.3387836425	0.6603927544	
691.875	1.398344418	0.8235344381	
692.5	1.076738843	0.1779754908	
693.125	1.588191456	0.08508082695	
693.75	1.31849215	-0.7771373021	
694.375	0.8151239924	-0.7632321312	
695.0	1.042681254	-0.8547114206	
695.625	0.9699363326	-0.122640811	
696.25	1.711227622	0.2616129509	
696.875	0.5575811235	0.217583741	
697.5	0.8304328212	1.819400689	
698.125	1.730670306	-0.5683149104	
698.75	0.9834591362	-0.134946068	
699.375	-1.604598049	-1.31008458	
700.0	0.2125892307	0.6643289634	
700.625	-0.2065798525	1.355939943	
701.25	0.8991137328	-0.1735915544	
701.875	0.09921395038	0.7418750546	
702.5	1.40762248	0.4912996716	
703.125	0.3821828405	0.07503215072	
703.75	1.333456568	-0.09163579358	
704.375	0.2272491863	-0.8133672164	
705.0	0.6750572204	0.2964900448	
705.625	0.8179950012	-0.6853124221	
706.25	0.009732157739	0.4080221281	
706.875	1.090998051	1.207217294	
707.5	0.6130223313	-0.1268531733	
708.125	1.169238468	0.8633273051	
708.75	0.5746389078	-1.439016929	
709.375	-0.4912192505	-0.1933777398	
710.0	-0.6415209865	0.4894551555	
710.625	0.4271362125	0.2884026037	
711.25	0.0857378542	0.3952526435	
711.875	0.6144002707	0.1040789216	
712.5	0.6818526286	-0.006825313921	
713.125	0.5755124331	-0.4121440353	
713.75	0.2820355912	-0.5020050649	
714.375	-0.0161727643	-0.7832860175	
715.0	-0.2898316078	-0.04805211119	
715.625	0.67718808	-0.7219551483	
716.25	-0.4427122409	-1.055667278	
716.875	0.6493725235	0.4941808186	
717.5	2.380465701	-0.2701408996	
718.125	0.1766689076	-1.375388499	
718.75	3.287873796	1.34434766	
719.375	1.152784855	-3.170296302	
720.0	0.7964736172	-0.2690937788	
720.625	1.413175373	-4.17433346	
721.25	-1.831619382	-2.192216008	
721.875	0.2560533633	-1.663272823	
722.5	-1.973059098	-2.402695478	
723.125	-2.040110512	0.3270948195	
723.75	-0.6816574052	0.5939541175	
724.375	0.05411860848	1.591464794	
725.0	0.5232954863	0.4234104731	
725.625	0.1481786967	1.041287542	
726.25	0.04697879215	2.007307605	
726.875	1.312633736	2.41439189	
727.5	-1.288603898	1.185352196	
728.125	-0.1415556701	8.048307826	
728.75	5.618348143	6.862481726	
729.375	-5.641199416	0.8128875457	
730.0	-1.292229681	26.30492351	
730.625	5.645788568	0.7473485438	
731.25	-9.04193148	7.575588404	
731.875	-1.491325767	17.57970474	
732.5	-3.27638214	-4.469694664	
733.125	-9.859424422	2.377992706	
733.75	-0.5802042214	4.240152928	
734.375	1.762455311	-0.1972333577	
735.0	0.9049298708	-1.30525835	
735.625	-1.470415796	1.391279824	
736.25	-0.5962061141	0.4007140296	
736.875	1.478141611	1.946616758	
737.5	2.67254064	-1.121834048	
738.125	2.481659398	1.162366445	
738.75	6.571803043	-5.326598513	
739.375	3.131412423	-8.467830604	
740.0	-3.127483216	1.080508142	
740.625	21.02858373	13.8997967	
741.25	26.75057559	-4.823524982	
741.875	-4.185431598	-20.78549988	
742.5	-16.08957831	-8.678187711	
743.125	-0.7725959892	2.08703525	
743.75	2.508757116	-6.37156585	
744.375	-1.290215867	1.44505072	
745.0	-0.405632362	-0.03828554393	
745.625	0.331566293	-0.2324947019	
746.25	-0.0804504016	0.01716466366	
746.875	-0.6970788625	-0.3796886133	
747.5	-0.3410878985	1.420463413	
748.125	0.5945590449	1.087064954	
748.75	0.5651613749	0.960025733	
749.375	1.314001081	1.856483644	
750.0	-0.06271703672	0.6007022803	
