!Created with skrf (http://scikit-rf.org).
# GHz S MA R 50.0 
!freq magS11 angS11
500.0 0.0161156460373 129.106966155
500.625 0.0101220647482 128.244119617
501.25 0.0107587551392 -163.06593215
501.875 0.0343363485588 -171.605454907
502.5 0.00919256966044 124.103434685
503.125 0.0167403069011 107.068196735
503.75 0.00696292531201 56.1869969492
504.375 0.00169290997996 -17.2084585336
505.0 0.0242760122026 -70.0223368628
505.625 0.0135758478908 -73.2801788026
506.25 0.02555941782 -121.60164061
506.875 0.053076587069 -104.971690485
507.5 0.0433962720514 -124.076093692
508.125 0.0480546127874 -95.6413883647
508.75 0.0711942267498 -124.877696034
509.375 0.0563232772721 -138.006544892
510.0 0.0341343822926 -143.419668497
510.625 0.0331064275727 -163.952805065
511.25 0.058143390134 -172.725665249
511.875 0.0524107963454 143.884229056
512.5 0.0452994225743 108.752635535
513.125 0.0502181575939 38.8042080533
513.75 0.0592511101599 38.3826164223
514.375 0.059256094767 26.5202146665
515.0 0.0313625336606 -31.3830147405
515.625 0.0610397641222 36.8522538321
516.25 0.0823836888145 20.9040454888
516.875 0.126605243104 67.427137161
517.5 0.120704990208 17.2562431726
518.125 0.18097045928 64.5702632273
518.75 0.0812784238022 7.78638710363
519.375 0.0812853444479 21.3769938012
520.0 0.0826312528435 -10.2535460278
520.625 0.0888295509071 -14.8700454937
521.25 0.0801689764324 -31.2385972294
521.875 0.0760055532355 -1.19398993161
522.5 0.0787263321392 -44.7696757668
523.125 0.174013577286 -40.7067724418
523.75 0.223319963984 -59.3843099849
524.375 0.221395533143 -50.8434486399
525.0 0.0710174476838 -67.7133608423
525.625 0.0351131323819 -39.9673676331
526.25 0.0436950926851 -14.5683763222
526.875 0.0652026102871 -20.9640771329
527.5 0.0384891352737 -44.8470366009
528.125 0.0326620955038 -64.7054179506
528.75 0.0534909211097 -82.2569800232
529.375 0.10461932727 -110.901417771
530.0 0.0479272078587 -138.393020794
530.625 0.0424495382406 -149.290037327
531.25 0.12192276799 -140.21449825
531.875 0.193691185912 -150.847876656
532.5 0.136750601787 -174.562254461
533.125 0.0897235364022 172.382044292
533.75 0.112664881002 166.506524343
534.375 0.125594270214 177.083184054
535.0 0.070991983864 151.361213807
535.625 0.0542952609735 169.978727927
536.25 0.0586126054842 160.457791866
536.875 0.0805921868322 -167.545849536
537.5 0.0952484662993 -147.124954554
538.125 0.110311135199 -177.112717651
538.75 0.103147489829 176.614713309
539.375 0.0892766180826 -167.794655759
540.0 0.0754346279006 -157.375559016
540.625 0.133113251383 -160.190244573
541.25 0.132386291291 -145.05758778
541.875 0.0942657705534 -146.846198305
542.5 0.106560816354 -144.875084996
543.125 0.141038391381 -169.262985564
543.75 0.131088655638 156.889306941
544.375 0.105258626094 134.21648677
545.0 0.0698467564237 84.8710721572
545.625 0.085445040498 80.1712628625
546.25 0.0859113907337 60.5806383756
546.875 0.0996697094837 49.8659752625
547.5 0.0969090921605 55.1611435199
548.125 0.124984016225 75.6599614822
548.75 0.0908643123623 87.1498967854
549.375 0.109347788483 82.9734146073
550.0 0.0667089237515 116.171371088
550.625 0.0368210571681 151.587134292
551.25 0.0312462802298 -141.66820187
551.875 0.0681235130617 -172.063181126
552.5 0.100312549126 -166.209049754
553.125 0.0898995143598 -170.17972477
553.75 0.0896239932634 -171.980723779
554.375 0.114250544729 160.347279502
555.0 0.10862101729 163.447191244
555.625 0.0927698956806 157.85730698
556.25 0.0961016145984 158.617938035
556.875 0.124858157058 160.55254237
557.5 0.120209085318 162.280542302
558.125 0.0984319963848 161.687838568
558.75 0.0774223933826 173.378477371
559.375 0.0760447122307 -179.268220851
560.0 0.0368033454492 -147.695596549
560.625 0.0522784986111 -136.02874216
561.25 0.0791445030072 -148.727294909
561.875 0.108984878227 -169.46005484
562.5 0.0850948734947 174.838307862
563.125 0.0988030262052 147.093970999
563.75 0.129699310912 128.880791738
564.375 0.112764134282 116.275859639
565.0 0.0813276209409 118.513415035
565.625 0.0735541414126 118.695512707
566.25 0.0849911029863 150.526208526
566.875 0.0812837955157 171.912203098
567.5 0.0716437064269 178.66729056
568.125 0.0798045825203 -174.683538111
568.75 0.0732415394754 -154.831844299
569.375 0.0486870596053 -116.049025264
570.0 0.0600120178589 -118.270468817
570.625 0.087076276344 -117.236679822
571.25 0.0845368837545 -120.993552194
571.875 0.0881365077521 -132.568946765
572.5 0.109206218324 -158.580101221
573.125 0.138878603716 -176.997896655
573.75 0.108996956422 158.424463128
574.375 0.0867839685362 141.244153133
575.0 0.0956164082123 158.699258485
575.625 0.106414219852 154.369023191
576.25 0.0826633952093 143.902881562
576.875 0.0862484739758 122.326802662
577.5 0.0698683597008 141.847722548
578.125 0.0544150251051 161.640559238
578.75 0.0443772846748 158.43415438
579.375 0.0579158280032 148.068185907
580.0 0.0645298078532 176.628066807
580.625 0.0751221838787 -154.300340454
581.25 0.0872548967571 -168.14870713
581.875 0.113606430503 -179.873314527
582.5 0.121902204541 177.00031608
583.125 0.091477491541 -167.789825473
583.75 0.0819694490863 -166.905542454
584.375 0.103478610125 -161.454299225
585.0 0.100138709409 -153.01983171
585.625 0.0709037649847 -147.960340221
586.25 0.0717541294052 -145.184397413
586.875 0.081453459594 -139.263322395
587.5 0.0759375178552 -150.904901807
588.125 0.0581550562863 -174.08399784
588.75 0.0676105864759 -166.811870577
589.375 0.0822777074862 -156.261526246
590.0 0.0892627925184 -177.212334385
590.625 0.105889567113 169.772442892
591.25 0.121312585841 157.4391721
591.875 0.0903738172283 159.270471197
592.5 0.0698563783142 133.42738556
593.125 0.0602002932242 162.542906282
593.75 0.0774637962662 174.307571321
594.375 0.0586026027453 -156.171678239
595.0 0.0410914848534 -135.270159418
595.625 0.0672245341425 -89.2743811139
596.25 0.0787606935576 -79.4184459232
596.875 0.0657520242003 -68.6570169416
597.5 0.0538739246241 -78.731783927
598.125 0.0644832355338 -54.7521912111
598.75 0.0721099321003 -69.248090991
599.375 0.0894799309902 -67.7239282154
600.0 0.0964204531919 -75.772575632
600.625 0.101935393658 -66.9121006634
601.25 0.0876782684194 -72.4819836218
601.875 0.0711057278553 -90.1528748695
602.5 0.0627252123791 -104.485411863
603.125 0.0503034191951 -35.5058606489
603.75 0.0333750174376 -31.9428597012
604.375 0.0335799056718 -32.90221952
605.0 0.0532710895256 -30.571019664
605.625 0.0481829844411 -27.5625995137
606.25 0.0274669789327 10.6649470896
606.875 0.0290417581605 40.3203163517
607.5 0.0605466494877 39.1917469345
608.125 0.0680151197784 24.9578683891
608.75 0.0697040853818 24.488356528
609.375 0.0588128543131 27.0269552308
610.0 0.0611984885993 33.4887215942
610.625 0.0597146677463 28.4100444137
611.25 0.0546374815967 32.1579650496
611.875 0.0356845869857 33.8705327878
612.5 0.0242957216234 82.9337781142
613.125 0.00998449275271 126.808036496
613.75 0.0660322177046 124.220891365
614.375 0.060404851099 123.663122182
615.0 0.0462121370194 125.271298051
615.625 0.0117509070124 151.294754871
616.25 0.065527391032 136.396024725
616.875 0.0583043405441 128.019402123
617.5 0.0450359502988 119.986612059
618.125 0.00996228504606 122.912120169
618.75 0.0627743969681 145.097754884
619.375 0.0367219768097 144.974620157
620.0 0.00909782392805 114.575599974
620.625 0.0277635804655 -67.9819278666
621.25 0.0406351262129 -118.490694219
621.875 0.0660573421516 -130.578917506
622.5 0.0770274655538 -174.168375691
623.125 0.0640438691554 -175.143433401
623.75 0.0912076577724 157.763313678
624.375 0.0575150690293 175.793027514
625.0 0.0423749370863 -141.173922829
625.625 0.0294855431989 -140.994616707
626.25 0.0148198448 166.340316115
626.875 0.00241540729624 136.200661617
627.5 0.0319902859545 -18.9207350126
628.125 0.0333998558831 -27.4655155768
628.75 0.0452243560178 -4.41781765107
629.375 0.0443798747458 -19.0686489813
630.0 0.0548850434683 -22.7636508214
630.625 0.0694250512539 3.90845173407
631.25 0.0716466081049 -11.3689961109
631.875 0.0658344638571 -8.49264987089
632.5 0.0626721548014 -1.02466633405
633.125 0.0458774811285 0.00411871243545
633.75 0.0485126980257 21.271593001
634.375 0.0501763849417 -22.2397352002
635.0 0.0367930335639 -3.73401509119
635.625 0.0419475124261 28.8542916681
636.25 0.0627604291074 42.4490049077
636.875 0.0695380843699 40.5878795021
637.5 0.0448831539036 24.1832359151
638.125 0.0323174145512 61.0901091706
638.75 0.070360429007 73.8765688865
639.375 0.105806123945 95.002067328
640.0 0.0671009029247 87.9341079856
640.625 0.0504101919635 89.2730556155
641.25 0.0548878821212 101.887185906
641.875 0.0771661542558 153.207810338
642.5 0.0554540027706 152.953088495
643.125 0.0639821024059 159.10207982
643.75 0.0648854311068 170.538368083
644.375 0.0884134646831 -173.652971532
645.0 0.0733579442451 174.309309337
645.625 0.0778390649952 160.572820651
646.25 0.0888621344341 161.172975277
646.875 0.0871505522619 177.799618121
647.5 0.0489247319074 159.966874071
648.125 0.069316702781 172.5985052
648.75 0.0748110154998 -175.294875314
649.375 0.0618420621324 -150.21025184
650.0 0.0264064721011 -149.358189382
650.625 0.0631319086132 -93.7464997361
651.25 0.0700230898807 -73.1411064143
651.875 0.0711423222478 -46.4204271489
652.5 0.0963856904452 -28.2232337954
653.125 0.115971403138 -4.92132331252
653.75 0.106483005263 -1.21523892563
654.375 0.120656373328 5.22822721023
655.0 0.101299982183 1.62325494702
655.625 0.0866624836086 14.7669110336
656.25 0.0648827838968 11.682572809
656.875 0.0799010173521 3.05493168229
657.5 0.0867683665859 17.6892715785
658.125 0.0625442463088 39.3148645285
658.75 0.0559596810389 60.7985941136
659.375 0.0805417384704 37.9101791847
660.0 0.127813471683 20.7139745274
660.625 0.0966931049636 15.0707127452
661.25 0.0977322935525 1.11651155183
661.875 0.107751849128 -17.2061301286
662.5 0.136806209953 -23.8475043049
663.125 0.106879609022 -19.7137123232
663.75 0.101691190602 2.10896447748
664.375 0.0991273155019 49.7000421882
665.0 0.0678017453636 80.1613504027
665.625 0.0534848237785 107.006885489
666.25 0.0741060805799 125.335660056
666.875 0.127980770889 161.98166282
667.5 0.0784610472173 -170.41685613
668.125 0.0940089143002 178.585261249
668.75 0.113160849404 163.39600958
669.375 0.14037703358 172.933972071
670.0 0.0778173291383 -178.015578483
670.625 0.0834972649525 -173.903718103
671.25 0.121060210684 169.251179097
671.875 0.108116127563 163.467076136
672.5 0.0890171796072 148.359183099
673.125 0.0803590500483 150.392464403
673.75 0.0962118534787 155.970860034
674.375 0.123165296435 161.573860337
675.0 0.0931485762909 -174.163395858
675.625 0.122290448276 -152.383319362
676.25 0.119320480285 -127.871418237
676.875 0.125378410853 -126.548829635
677.5 0.102662338851 -129.811760155
678.125 0.122769032772 -121.268194672
678.75 0.0764463359083 -98.6810653316
679.375 0.0531834883036 -81.5024983753
680.0 0.0788277324404 -85.8081232576
680.625 0.113978765855 -80.309080898
681.25 0.0966091012945 -72.4192386092
681.875 0.0958630117315 -94.0383272813
682.5 0.14195857437 -128.229042289
683.125 0.155615566512 -125.310543654
683.75 0.13590071667 -109.074502389
684.375 0.122791323927 -83.8034156448
685.0 0.136770737886 -43.966651219
685.625 0.130761785399 -6.99623417439
686.25 0.107613283305 17.3282800446
686.875 0.0955169682325 40.3816737089
687.5 0.0790514183071 78.0226664918
688.125 0.0827246130303 101.148757777
688.75 0.0986333301311 112.234198079
689.375 0.140839454514 117.356441037
690.0 0.130081099202 132.161426211
690.625 0.125222737604 119.136706838
691.25 0.132019141522 101.136557709
691.875 0.175155126093 67.172959334
692.5 0.130714219667 36.1153861312
693.125 0.100036049175 -22.9558897647
693.75 0.096815660991 -48.3512427208
694.375 0.131264875863 -35.569564194
695.0 0.128792618512 7.16154510769
695.625 0.0972988458412 51.7407086528
696.25 0.118811209396 100.92235646
696.875 0.124079472949 178.285483039
697.5 0.14044023706 -148.221867169
698.125 0.138438934295 -135.69637078
698.75 0.142567855114 -140.956253732
699.375 0.107433064676 -127.166044592
700.0 0.0976631499324 -117.688213384
700.625 0.113438431285 -95.4207334879
701.25 0.111224392063 -76.018313994
701.875 0.0763522724112 -57.6501326522
702.5 0.0969665018804 -83.1158414918
703.125 0.159512623056 -119.263448237
703.75 0.195365481423 -164.011279591
704.375 0.119393985772 173.785249947
705.0 0.110577261177 155.813070632
705.625 0.145292146612 -175.515248986
706.25 0.147480488005 -117.612939936
706.875 0.102245865092 -73.8303013901
707.5 0.0707943112397 -32.1982024389
708.125 0.0893217234088 18.3838201528
708.75 0.110922807168 59.4711127825
709.375 0.10687349685 93.4995752497
710.0 0.100827838657 139.907708434
710.625 0.10546404743 153.485604593
711.25 0.119020490204 169.258566601
711.875 0.141660038394 160.718992759
712.5 0.156332531155 142.909990983
713.125 0.130391773523 96.8872960961
713.75 0.10135119778 45.3823754117
714.375 0.116428084916 2.61199046439
715.0 0.109370092273 43.8844291096
715.625 0.0886337696928 49.237855439
716.25 0.0780859368709 66.9016697762
716.875 0.112904218891 97.5996831495
717.5 0.141029416905 132.194067101
718.125 0.120255365221 176.294724554
718.75 0.105304175394 176.056923579
719.375 0.112854888065 -167.911194612
720.0 0.129823822754 -139.550218969
720.625 0.117021246259 -71.3891964189
721.25 0.100381608976 -15.6547311732
721.875 0.0881479927492 26.2422891682
722.5 0.0713236134228 46.9600658676
723.125 0.0820408999101 69.8900898385
723.75 0.119990263813 45.3883319492
724.375 0.119571820326 4.19031338561
725.0 0.0800993761554 -57.6451694264
725.625 0.116959803063 -60.6364680452
726.25 0.116145049441 -70.8426412143
726.875 0.100326960435 -60.5566903768
727.5 0.0796407032529 -44.3416234354
728.125 0.0697367093208 -25.1083877444
728.75 0.112313782479 30.2729256115
729.375 0.0964166388155 23.442695322
730.0 0.0786251314741 9.85713046158
730.625 0.0493497980047 0.0113288438553
731.25 0.0937283972662 70.4254445941
731.875 0.0791436865921 111.138608867
732.5 0.0633749069257 142.966091337
733.125 0.0880733956747 169.380976487
733.75 0.0845198762747 -179.819856302
734.375 0.0871432160373 178.763111575
735.0 0.0657212752322 154.810471401
735.625 0.0248929953826 110.877334588
736.25 0.0790355865566 150.418973228
736.875 0.0672381563593 167.216137085
737.5 0.0964115041689 178.693323486
738.125 0.072208353409 -178.72472487
738.75 0.0942195453848 -167.972343481
739.375 0.0657900662812 -171.23606387
740.0 0.02283195582 -149.02334871
740.625 0.0542319230988 -155.688336475
741.25 0.0267118615129 -156.724112215
741.875 0.0745339772406 -112.94407844
742.5 0.0557039518929 -26.640532725
743.125 0.0336608396002 42.769600848
743.75 0.0219301898192 136.541685296
744.375 0.0375992523384 106.048323599
745.0 0.0423072676411 130.506823153
745.625 0.0631575273714 113.381923376
746.25 0.0678633938606 100.245319426
746.875 0.104321126339 27.1351487555
747.5 0.0591066301491 0.872917931987
748.125 0.0340235769869 4.03602619408
748.75 0.0175530241051 4.41311190939
749.375 0.030973982848 0.897566542977
750.0 0.0354290800104 -99.4756521932
