!Created with skrf (http://scikit-rf.org).
# GHz S RI R (50+0j) 
!freq	ReS11	ImS11	
500.0	0.5196712612	-1.594346412	
500.625	-0.2493769337	-0.7668244124	
501.25	-0.03150929179	-1.037416463	
501.875	-0.5298678087	-0.4590639219	
502.5	-0.0006392270241	-0.1013773468	
503.125	-0.1033691515	-0.02230732633	
503.75	0.08889878605	0.03460509834	
504.375	0.01971998468	0.02925777085	
505.0	0.02491302209	-0.05628540106	
505.625	0.008413760591	0.009263215509	
506.25	-0.1235728241	-0.1579217523	
506.875	0.09024052778	0.1401007958	
507.5	0.04115856243	-0.7196508457	
508.125	-0.2497540301	-0.7890462059	
508.75	0.6394067299	-0.3816002499	
509.375	0.3867255678	-1.615311977	
510.0	-0.5136902323	-0.192475474	
510.625	-0.009118355999	-0.1219297453	
511.25	-0.110496079	-0.08312696378	
511.875	-0.08556728146	0.01231028309	
512.5	-0.05778888694	0.02185076239	
513.125	-0.03079598072	-0.1083366247	
513.75	-0.01212739396	0.01624367027	
514.375	-0.07703765476	-0.1337276654	
515.0	-0.1436389164	0.2424187876	
515.625	0.3922481685	-0.9750762364	
516.25	-0.9450920736	-0.5461478766	
516.875	0.06130211695	-0.160748772	
517.5	-0.1179322135	-0.3221975006	
518.125	0.003591334912	0.04358709266	
518.75	0.02010543094	-0.2344525069	
519.375	-0.05908687148	0.06910063936	
520.0	0.06800731406	0.01861864878	
520.625	0.1781290933	-0.03770200923	
521.25	-0.06447034639	-0.3525345841	
521.875	-0.08575077279	0.05120621062	
522.5	-0.05614678144	-0.02581229891	
523.125	-0.06195269988	0.1161892925	
523.75	-0.002106051954	-0.1047603458	
524.375	-0.3182464904	0.06627173797	
525.0	0.1027267723	0.09253384717	
525.625	-0.07238240279	0.0670347923	
526.25	0.08414722064	-0.0214279672	
526.875	-0.1438490135	0.05558843941	
527.5	0.05021216012	0.2789419927	
528.125	-0.05921472544	0.2092562376	
528.75	-0.07868684052	0.3149438665	
529.375	0.1204771837	0.02533011794	
530.0	-0.1041091442	0.1774984444	
530.625	0.07466443216	0.3219290199	
531.25	0.3005371778	0.04690215684	
531.875	0.233977806	-0.04244649142	
532.5	-0.1644340919	-0.1757262856	
533.125	-0.009087442513	0.164547416	
533.75	0.08852435933	-0.294392968	
534.375	-0.06430101359	-0.1561189532	
535.0	-0.2146206045	-0.2166791492	
535.625	-0.1968442016	0.1893978097	
536.25	-0.00620837761	0.05549852396	
536.875	0.1129879697	0.06111749626	
537.5	0.04688651867	-0.07757492096	
538.125	0.10584429	0.0118533159	
538.75	0.1713617906	-0.1877418395	
539.375	-0.07874386937	-0.1200093508	
540.0	-0.09529559928	-0.2038401155	
540.625	-0.1874712755	-0.05687518068	
541.25	-0.05226642188	0.02575862839	
541.875	0.006192793334	-0.05152623348	
542.5	-0.09149965271	-0.02389973242	
543.125	0.03699120113	-0.008122211916	
543.75	-0.1452218179	-0.02471035571	
544.375	0.010517559	0.02544731353	
545.0	-0.06533953593	0.08225253869	
545.625	0.1309984469	0.02805875389	
546.25	0.0351734381	0.0678437469	
546.875	0.1867097601	-0.03663960557	
547.5	0.01609677947	-0.109975755	
548.125	0.03881034772	-0.1523563302	
548.75	-0.1735746071	-0.1613224747	
549.375	-0.09755999839	-0.01331685422	
550.0	-0.08778653085	-0.05020962962	
550.625	-0.05558108788	0.05219596639	
551.25	-0.07412750233	-0.01539376572	
551.875	-0.09692221659	0.09936131915	
552.5	-0.02179152502	0.06008815791	
553.125	-0.04233542792	0.05516521256	
553.75	0.05623020084	0.04435467412	
554.375	0.09296362615	0.009579598556	
555.0	0.1112073929	-0.07555729845	
555.625	0.08400615396	-0.1151653217	
556.25	0.07320152955	-0.1388508462	
556.875	-0.03172133362	-0.1687747518	
557.5	-0.104939681	-0.1120793805	
558.125	-0.1203105164	-0.03969486562	
558.75	-0.1155708284	-0.01204043401	
559.375	-0.1230159899	0.02433829817	
560.0	-0.09258109923	0.07060680235	
560.625	-0.07980255892	0.1052042618	
561.25	0.02394542589	0.1234215904	
561.875	0.008198825896	0.02320339593	
562.5	0.0334583879	0.09470559679	
563.125	0.04780728438	0.03848551484	
563.75	0.159674559	0.0488919878	
564.375	0.134346131	-0.1412585862	
565.0	0.06030542951	-0.1071233562	
565.625	0.02759725549	-0.2056493455	
566.25	-0.1668822224	-0.0829878522	
566.875	-0.08164663987	-0.09036957441	
567.5	-0.1982831146	-0.1987819427	
568.125	-0.1695637217	-0.07387247015	
568.75	-0.1568721065	-0.2229677772	
569.375	-0.3189736646	0.1633663773	
570.0	-0.03181990986	0.1458124826	
570.625	-0.1731870548	0.1434430373	
571.25	0.06673012462	0.1857979687	
571.875	-0.04171352216	0.04142669448	
572.5	0.2478751032	0.0125652057	
573.125	-0.01413659618	-0.134168906	
573.75	0.1537121518	-0.0108811709	
574.375	0.009973988623	-0.1834441944	
575.0	-0.003571197829	0.06525949997	
575.625	0.1121627607	-0.1488390854	
576.25	-0.04119411646	-0.1215574627	
576.875	0.06780004157	-0.08553935318	
577.5	0.02877303862	-0.2667925919	
578.125	-0.1576275567	-0.1163922183	
578.75	0.01684022956	-0.09232315171	
579.375	-0.1322426495	-0.1783292386	
580.0	-0.0610003562	0.1544141553	
580.625	-0.0881050958	-0.1773963937	
581.25	-0.05790763778	0.2158283997	
581.875	-0.00972774301	0.01472450371	
582.5	-0.03012942382	0.2642783446	
583.125	0.2108272288	0.06672187422	
583.75	-0.1020401175	0.04072159029	
584.375	0.1544017897	0.09806356039	
585.0	0.03214849769	-0.01551342017	
585.625	0.1901201626	0.1112836975	
586.25	0.1441999303	-0.1887502657	
586.875	0.02920048143	-0.04793123146	
587.5	0.04751040698	-0.2199785869	
588.125	-0.1135097961	-0.1536238479	
588.75	0.07591888554	-0.05595619448	
589.375	0.135720921	-0.2409008833	
590.0	-0.131215321	-0.1197911763	
590.625	-0.1001647568	-0.1130470748	
591.25	-0.2779755548	0.1983911073	
591.875	0.09270022073	0.09858641168	
592.5	-0.1060222959	0.03207891372	
593.125	0.0966388586	0.06143025924	
593.75	-0.1238463909	0.1947214806	
594.375	0.2938001159	0.1407983161	
595.0	0.1320463746	-0.01383717138	
595.625	0.1309589137	0.1775327311	
596.25	0.2377268475	-0.01802393979	
596.875	0.07879720954	-0.01710639844	
597.5	0.1386260641	0.1910885668	
598.125	0.2367041641	0.07240719018	
598.75	0.1215801386	0.09789031682	
599.375	0.2819462853	0.009393574989	
600.0	0.1485309264	-0.2087620442	
600.625	0.09795493773	-0.09914489452	
601.25	0.1445728269	-0.2090027189	
601.875	-0.1691634013	-0.139804508	
602.5	-0.0321163737	-0.03017300097	
603.125	-0.241228154	0.05631679311	
603.75	0.02029513311	0.1141108999	
604.375	-0.1647198978	-0.03857319497	
605.0	-0.1226105001	0.1967259738	
605.625	0.01572463084	-0.04682817425	
606.25	-0.2520956158	0.03186549102	
606.875	-0.04262709314	0.06712870553	
607.5	-0.1872067884	0.0749334172	
608.125	-0.004089450479	0.3058111903	
608.75	0.1899436137	0.1357618289	
609.375	0.2048882891	0.006129127046	
610.0	0.2531573179	-0.1378990196	
610.625	0.06322592473	-0.1922527349	
611.25	0.0835009497	-0.08564525798	
611.875	-0.07087494438	-0.2315351297	
612.5	-0.1279277566	0.02903102957	
613.125	-0.1937456178	-0.08934470641	
613.75	-0.1390228676	0.2638680032	
614.375	0.1005533399	-0.0242309673	
615.0	-0.02552916626	0.1774716334	
615.625	0.1154718394	0.02642297961	
616.25	-0.1573536744	0.1482568501	
616.875	-0.07936939739	0.3163338298	
617.5	0.05261091066	0.1488117837	
618.125	-0.1440581369	0.167039829	
618.75	0.05274364039	0.1903332697	
619.375	0.1030377595	0.1877490221	
620.0	0.1755662845	0.09170565618	
620.625	0.1267464336	-0.2488915379	
621.25	-0.08095130001	-0.1082983548	
621.875	-0.1032608229	-0.1263769377	
622.5	-0.2937965562	0.09459815611	
623.125	0.03082513536	0.1383170176	
623.75	0.05228939089	0.1360462227	
624.375	0.07390965276	-0.1570096909	
625.0	0.03784616908	0.06690143435	
625.625	0.08839539845	-0.1739510497	
626.25	-0.09974506349	-0.061291502	
626.875	-0.07074244847	-0.1577600065	
627.5	-0.2113919777	-0.0473127668	
628.125	-0.07411296761	-0.008049888998	
628.75	-0.02411272681	-0.189369307	
629.375	-0.18191857	-0.1400559196	
630.0	-0.187657245	-0.07177323153	
630.625	-0.2548453842	0.03721705145	
631.25	-0.2138428635	0.2615316681	
631.875	-0.02283821305	0.1871819971	
632.5	-0.01348864526	0.264840946	
633.125	0.2979721071	0.03561200595	
633.75	0.1097903843	-0.03634775086	
634.375	0.1635607542	-0.1508943704	
635.0	-0.1447747846	-0.1811091848	
635.625	-0.01805478841	-0.114273061	
636.25	-0.2717172609	0.0780943137	
636.875	0.03576612565	0.1550645411	
637.5	-0.1004261984	0.01215937614	
638.125	-0.08229230377	0.2325491068	
638.75	-0.03718955005	0.05551768592	
639.375	-0.09485626943	0.3314052951	
640.0	0.2504933551	0.2531145197	
640.625	0.183955445	0.07657979397	
641.25	0.3271596156	0.1125831199	
641.875	0.1670818675	-0.2961830007	
642.5	-0.02658942403	-0.1177928011	
643.125	0.01131378776	-0.2765659046	
643.75	-0.2761132234	-0.007412710956	
644.375	-0.04016590202	-0.09930747447	
645.0	-0.2625756955	0.2317976923	
645.625	0.2816743395	0.1404470551	
646.25	-0.03713161608	0.09653362497	
646.875	0.2837705625	0.002254564246	
647.5	-0.1568622108	-0.03350341479	
648.125	0.348408204	0.1884358297	
648.75	0.2150558776	-0.2203079888	
649.375	0.1663436583	-0.08257692448	
650.0	0.4062062742	-0.3933498314	
650.625	-0.02211534253	-0.3889898956	
651.25	0.2043355478	-0.02747121533	
651.875	0.4328347714	-0.2303030449	
652.5	0.1720847023	-0.2416532074	
653.125	0.2599715941	0.05521149891	
653.75	0.3130560771	-0.3525565214	
654.375	-0.1586928101	-0.2212080858	
655.0	-0.1384201478	-0.1833528852	
655.625	-0.4342145518	0.275859482	
656.25	0.205206975	0.08794084335	
656.875	-0.126842728	0.0886701107	
657.5	0.2657882549	0.1239614821	
658.125	-0.01909605128	0.07138888314	
658.75	0.5560153924	0.3180776478	
659.375	0.2630658864	-0.3453701626	
660.0	0.1828223051	-0.1549618846	
660.625	0.3000395802	-0.3879974316	
661.25	0.01090662127	-0.4385713281	
661.875	0.1912944131	-0.07346530981	
662.5	0.4168820788	-0.2495013837	
663.125	0.177691584	-0.2825828264	
663.75	0.2248508248	-0.1304663375	
664.375	-0.006345908068	-0.4898948513	
665.0	-0.3024528958	-0.08462428559	
665.625	-0.2744590564	-0.04185737457	
666.25	-0.1903579832	0.3667719265	
666.875	0.192499062	0.1346653627	
667.5	0.04319876472	0.207759662	
668.125	0.3753232379	-0.07346965133	
668.75	0.07846804239	-0.1368040073	
669.375	0.2494331738	-0.1447562695	
670.0	-0.1466017081	-0.4234289006	
670.625	0.006071526682	0.007242303734	
671.25	0.195702143	-0.3257929619	
671.875	0.04018976703	-0.2639569968	
672.5	0.1254568898	-0.03335777076	
673.125	0.3773488567	-0.2063527389	
673.75	0.04143222136	-0.2853429268	
674.375	0.1175440455	-0.1568483398	
675.0	-0.05627784884	-0.371741346	
675.625	-0.2755170375	-0.01120474503	
676.25	-0.04509677292	-0.1148617926	
676.875	-0.2969860681	-0.007328168561	
677.5	-0.06673974442	0.09288844153	
678.125	-0.2120623367	0.005674199883	
678.75	0.05705154884	0.430000994	
679.375	0.163386708	-0.1031341598	
680.0	0.178889431	0.1325020525	
680.625	0.1739129336	-0.2414544385	
681.25	-0.2035636436	0.1056335013	
681.875	0.3924072255	0.2306656074	
682.5	0.2292983523	-0.147103438	
683.125	0.07019223678	0.2809121482	
683.75	0.4493412667	0.202054959	
684.375	0.02465446371	-0.2077050882	
685.0	0.1498105532	0.2988283374	
685.625	0.4281515476	-0.1065704339	
686.25	0.2121586946	-0.1604779313	
686.875	0.3941623301	0.02708592462	
687.5	0.3650679202	-0.5148387308	
688.125	-0.06567442165	-0.3041676121	
688.75	-0.3134849107	-0.3766339685	
689.375	-0.4039948782	0.3741983892	
690.0	0.1968999937	0.1968705027	
690.625	0.06798850997	0.4530172298	
691.25	0.5495993579	0.208650455	
691.875	0.2177781212	0.1964470506	
692.5	0.6351951857	0.4838798197	
693.125	0.8137513454	-0.2847476211	
693.75	0.3844728573	0.01946679027	
694.375	0.6875060095	-0.3570538461	
695.0	0.1574159841	-0.3732055923	
695.625	0.3189348973	0.05652528999	
696.25	0.6813400627	0.4256200789	
696.875	0.3003841941	0.2954036631	
697.5	0.2894671269	0.5029485225	
698.125	0.5788633594	0.3142045438	
698.75	0.3772697388	-0.5924071456	
699.375	-0.149479008	-0.3251178107	
700.0	-0.3724392249	0.1299066798	
700.625	0.263059482	0.2902995135	
701.25	0.05293072592	0.1833945017	
701.875	0.3861139438	0.4120928039	
702.5	0.3697574459	0.02329112617	
703.125	0.3030320348	0.2614930665	
703.75	0.562346219	-0.1178265288	
704.375	0.1026600502	-0.2063276982	
705.0	0.2864295494	0.0672657463	
705.625	0.2127523607	-0.112626637	
706.25	0.1256479684	0.1141583208	
706.875	0.1946404505	0.4325465208	
707.5	0.4238307916	0.3463938356	
708.125	0.5048785012	0.1535812826	
708.75	0.3707448291	-0.3277309232	
709.375	-0.3712458178	-0.3395234636	
710.0	-0.09243704444	0.2900407585	
710.625	-0.1085155613	0.1417769017	
711.25	0.2201436527	0.08315769826	
711.875	0.02081603075	0.1181973612	
712.5	0.4381321065	0.02013411767	
713.125	0.1884554807	-0.3429535106	
713.75	0.1535846721	-0.1070739561	
714.375	0.07237110854	-0.3660292984	
715.0	-0.1280177861	-0.163036846	
715.625	0.1422614238	-0.1486008159	
716.25	0.205634255	-0.3233599466	
716.875	0.1691524529	-0.1554166331	
717.5	0.5602087929	0.1985874467	
718.125	0.8485794601	-0.008008763018	
718.75	0.7113595148	-0.2540570647	
719.375	1.009698981	-0.1228358346	
720.0	0.5558853951	-0.9960420234	
720.625	-0.3289845843	-0.7382270381	
721.25	0.6032559625	-0.9400227769	
721.875	-0.5110151249	-1.329873486	
722.5	-0.33377329	-0.4801723266	
723.125	-0.8947290989	-0.4227379634	
723.75	-0.361596727	0.7383077391	
724.375	0.01039766266	0.2518195541	
725.0	0.06384560225	0.6057798816	
725.625	0.465076599	0.3072771519	
726.25	-0.1733175499	0.5009785382	
726.875	-0.2702768872	1.231995675	
727.5	0.3080509036	1.400656124	
728.125	-0.5234105106	1.303459841	
728.75	-0.6891170163	3.626654787	
729.375	0.5193397163	4.112725575	
730.0	-1.150769611	2.4418949	
730.625	-1.18029241	5.878473789	
731.25	1.149886419	4.032360104	
731.875	-2.68295931	0.6839599422	
732.5	-5.598251595	0.3554736239	
733.125	-2.170943529	1.539894603	
733.75	-1.026123154	-0.1584597312	
734.375	1.53397721	0.9701797771	
735.0	-0.2837384601	-0.4050787942	
735.625	-0.4205243497	-0.2155231972	
736.25	0.0643547271	1.05782792	
736.875	0.2343570056	-0.03653415407	
737.5	1.012042921	0.8890842791	
738.125	1.993305504	-0.96315352	
738.75	0.6866423251	-1.133388497	
739.375	2.642190081	0.5732068578	
740.0	5.923898058	-4.214326931	
740.625	-0.8180620859	-1.866642305	
741.25	-1.696935586	5.236438069	
741.875	-1.4577769	3.678731872	
742.5	2.230536064	-1.783997456	
743.125	0.7837615248	-3.119422206	
743.75	-0.5069868379	-0.9793196617	
744.375	-0.1304251428	-0.1722409411	
745.0	-0.1064851765	0.4782344213	
745.625	-0.100789786	-0.04981460567	
746.25	0.06269308004	-0.1983560236	
746.875	-0.2626904136	0.1345563384	
747.5	-0.05420571801	0.180673905	
748.125	-0.08688536455	0.6211370433	
748.75	0.3966756805	0.4719273195	
749.375	0.07030429472	0.3414488292	
750.0	-0.4694064086	0.2888453463	
