!Created with skrf (http://scikit-rf.org).
# GHz S RI R (50+0j) 
!freq	ReS11	ImS11	
500.0	0.2468803704	-1.42896996	
500.625	0.03867265888	-0.3709665177	
501.25	-0.3795513003	-1.069409728	
501.875	-0.429953701	-0.2444294773	
502.5	0.01033898846	-0.1151637253	
503.125	-0.1069982688	0.008467360069	
503.75	0.04543436224	0.001943377953	
504.375	0.03852939115	0.02330866364	
505.0	-0.002589738936	-0.05189646983	
505.625	0.03557416852	-0.009555870527	
506.25	-0.1764701795	-0.08954572313	
506.875	0.1153959589	-0.02726307236	
507.5	-0.3336316012	-0.7060540964	
508.125	-0.2034187228	-0.377374072	
508.75	0.9215373798	-0.5489902341	
509.375	0.2433940485	-1.660507567	
510.0	-0.3776806331	0.01142714518	
510.625	0.02194440164	-0.1740266496	
511.25	-0.1618088163	-0.0809215547	
511.875	-0.05461715322	0.02356776804	
512.5	-0.06064368704	0.03468361198	
513.125	-0.0547119143	-0.08249109351	
513.75	0.0006154144024	-0.01524643356	
514.375	-0.1210119738	-0.08182508433	
515.0	0.04044679523	0.279093657	
515.625	-0.588946882	-0.9583435644	
516.25	-0.7059634476	-0.08265076828	
516.875	0.1523153546	-0.3272339203	
517.5	-0.2376413143	-0.2067506087	
518.125	0.0618853454	-0.03163809524	
518.75	-0.07751567413	-0.2534958003	
519.375	-0.03002655819	0.04942159873	
520.0	0.05077247444	0.04651958927	
520.625	0.1571634259	-0.07912442689	
521.25	-0.1230893818	-0.3010159081	
521.875	-0.05050934157	0.0308585838	
522.5	-0.08223788174	-0.02347629766	
523.125	-0.02037784332	0.1269664769	
523.75	-0.1272094862	-0.1400675118	
524.375	-0.191474605	0.1811167023	
525.0	0.006723352721	0.0009662772788	
525.625	-0.02140015191	0.1416191422	
526.25	0.06204499701	-0.08615576579	
526.875	-0.08830459052	0.1132370606	
527.5	0.07399660067	0.2323534109	
528.125	-0.03612095481	0.3814761716	
528.75	0.008810216357	0.3561845482	
529.375	0.05411092317	0.007857909526	
530.0	0.04043053643	0.2543090329	
530.625	0.1408183967	0.27618389	
531.25	0.2914823114	0.1538916869	
531.875	0.2156527693	-0.05822627774	
532.5	-0.192911758	-0.08490152301	
533.125	0.1742410278	0.2156492075	
533.75	0.01565302278	-0.2817224631	
534.375	-0.03347826318	-0.1515895293	
535.0	-0.3046678919	-0.1712303628	
535.625	-0.1029576257	0.2030751126	
536.25	-0.02813835894	0.07377934251	
536.875	0.1366140259	0.03211611912	
537.5	0.02415024473	-0.04969114025	
538.125	0.1599572265	0.001643886091	
538.75	0.1147841989	-0.1878907976	
539.375	-0.07380586133	-0.1461453111	
540.0	-0.1287617968	-0.2217127856	
540.625	-0.2094060454	-0.03794068529	
541.25	-0.03744573199	0.003581079122	
541.875	-0.01812914255	-0.09127862073	
542.5	-0.05951283577	0.01203923202	
543.125	-0.004328035604	-0.1130251177	
543.75	-0.1362957868	0.03751534568	
544.375	-0.005141949528	-0.01709054298	
545.0	-0.01388848545	0.1136841752	
545.625	0.09502131659	-0.02557899542	
546.25	0.06267099969	0.09409695181	
546.875	0.1545065058	-0.08107144097	
547.5	0.03576227597	-0.07741030857	
548.125	0.02075403196	-0.2081851728	
548.75	-0.188134276	-0.1076431401	
549.375	-0.05458444698	-0.03631177034	
550.0	-0.1206074336	-0.0226081935	
550.625	-0.02972261012	0.04350775941	
551.25	-0.09944672987	-0.003073076966	
551.875	-0.0657362986	0.1105571266	
552.5	-0.03653474908	0.0493610456	
553.125	-0.0367572859	0.07904666975	
553.75	0.05063204708	0.03297463509	
554.375	0.09884028813	0.002677520849	
555.0	0.09887652917	-0.08541249761	
555.625	0.07452212641	-0.1128426344	
556.25	0.06851635512	-0.144895417	
556.875	-0.03934192873	-0.1706026268	
557.5	-0.1064952483	-0.1052750154	
558.125	-0.1173310893	-0.04122607782	
558.75	-0.1196018805	-0.009226554148	
559.375	-0.1153073532	0.02912262791	
560.0	-0.09835025986	0.06297039669	
560.625	-0.07578493584	0.1277573916	
561.25	0.03510164307	0.101761819	
561.875	0.000432181153	0.0437609945	
562.5	0.05005719201	0.06905700868	
563.125	0.04164625895	0.04526509993	
563.75	0.1731497957	0.02551609518	
564.375	0.1012626897	-0.1398642496	
565.0	0.09032373493	-0.110355151	
565.625	-0.04121164072	-0.2322733787	
566.25	-0.1194995126	-0.051338567	
566.875	-0.1261481264	-0.1280056102	
567.5	-0.2480819496	-0.1208114062	
568.125	-0.08414053718	-0.07397920807	
568.75	-0.2609981721	-0.2172822595	
569.375	-0.2602600357	0.1963164041	
570.0	-0.0709668234	0.1000391106	
570.625	-0.1740103487	0.209407622	
571.25	0.09202368893	0.1216255302	
571.875	-0.0297894235	0.1194430562	
572.5	0.2002089981	-0.1011036377	
573.125	0.007711691844	-0.02701488943	
573.75	0.1832247892	-0.1474732868	
574.375	-0.07015663741	-0.1404035354	
575.0	0.05627240804	0.05947011088	
575.625	0.0584719049	-0.1733851879	
576.25	-0.03603265536	-0.07894974219	
576.875	0.08950544289	-0.1389603586	
577.5	-0.04899809771	-0.2469928384	
578.125	-0.08144666836	-0.03737763327	
578.75	0.0001363969098	-0.1821349909	
579.375	-0.1958821228	-0.08886532995	
580.0	0.1036535432	0.07724446305	
580.625	-0.2008707635	-0.1159456971	
581.25	0.01448568454	0.1463190192	
581.875	-0.09570598013	0.05600296665	
582.5	0.07341782667	0.3017106178	
583.125	0.1677235041	-0.0105157518	
583.75	-0.05312134567	0.138031242	
584.375	0.1399057939	-0.009659463611	
585.0	0.003927773951	0.0693947368	
585.625	0.2639231472	0.02546600329	
586.25	0.05712987557	-0.1429057081	
586.875	0.09949513272	-0.04128148218	
587.5	-0.02907826389	-0.2276196718	
588.125	-0.100733757	-0.08330456404	
588.75	0.1203269128	-0.09821652165	
589.375	0.06906658683	-0.2595156823	
590.0	-0.06505267668	-0.08266015659	
590.625	-0.183622222	-0.1404118764	
591.25	-0.1151760602	0.2996613691	
591.875	0.02390510574	0.009783644643	
592.5	-0.08287097883	0.1059474947	
593.125	0.0631732501	-0.01425722638	
593.75	0.01544844838	0.3110532902	
594.375	0.27799039	0.02393199749	
595.0	0.06086233948	0.06258854603	
595.625	0.1936615447	0.1911455209	
596.25	0.1531252659	-0.05327537609	
596.875	0.0594250401	0.07893645582	
597.5	0.2220513363	0.1550355281	
598.125	0.1755233541	0.02523599079	
598.75	0.1295704208	0.1269887461	
599.375	0.2869406566	-0.04408787293	
600.0	0.1177913157	-0.1790021592	
600.625	0.1618108369	-0.09673285904	
601.25	0.1187137455	-0.245197192	
601.875	-0.1359142442	-0.0763578751	
602.5	-0.08710336802	-0.101286692	
603.125	-0.1570798962	0.15095166	
603.75	0.0118101937	-0.0174011257	
604.375	-0.2140594993	0.0356242202	
605.0	-0.02358037362	0.2013470241	
605.625	-0.1540044137	-0.06135608705	
606.25	-0.2176987049	0.1385139417	
606.875	-0.08638572139	0.01180004442	
607.5	-0.2445293547	0.1280379865	
608.125	0.05315457432	0.2263484469	
608.75	0.1441291876	0.1896734907	
609.375	0.2698096493	0.02704618031	
610.0	0.1975432313	-0.2093193453	
610.625	0.05543071489	-0.1922816362	
611.25	0.1033605997	-0.1559351226	
611.875	-0.1798004787	-0.1961804291	
612.5	-0.07863290352	-0.01391395133	
613.125	-0.270860739	-0.0508489192	
613.75	-0.04203014879	0.2597422722	
614.375	-0.05868076542	-0.01647027447	
615.0	0.1009398898	0.1684834019	
615.625	0.03503297104	-0.0344058128	
616.25	-0.1199850328	0.233108968	
616.875	0.0339774055	0.1938673383	
617.5	-0.07058297162	0.09829292257	
618.125	-0.12600824	0.2649538699	
618.75	0.05612078983	0.2083515324	
619.375	0.1910021905	0.196792441	
620.0	0.2180283464	0.07633433252	
620.625	0.07086511269	-0.2145741015	
621.25	-0.03324895127	-0.1463281439	
621.875	-0.1518915673	-0.2156931459	
622.5	-0.2426181182	0.1467280904	
623.125	-0.04105074888	0.09526897072	
623.75	0.1730170181	0.1343545148	
624.375	-0.02692939825	-0.1504319348	
625.0	0.1053121016	0.03009813418	
625.625	-0.0001807374401	-0.1754078468	
626.25	-0.02500795276	-0.05740892058	
626.875	-0.1519725303	-0.1712439136	
627.5	-0.1996499783	0.006206585238	
628.125	-0.03401149301	-0.05945139787	
628.75	-0.08541280455	-0.1857206004	
629.375	-0.1360248159	-0.07212301653	
630.0	-0.1575301268	-0.01076440281	
630.625	-0.2544473033	0.06668816985	
631.25	-0.1303228906	0.3055112939	
631.875	-0.05133671519	0.1944632312	
632.5	0.1486832099	0.3397007709	
633.125	0.2495972847	-0.02719624186	
633.75	0.1564347848	-0.01116770874	
634.375	0.08696514141	-0.2257565204	
635.0	-0.1266419765	-0.01859356168	
635.625	-0.1113961917	-0.1819727101	
636.25	-0.2061746774	0.1695166509	
636.875	0.02664503182	0.08363979797	
637.5	-0.1365243794	0.08178981372	
638.125	0.05194892859	0.1978544173	
638.75	-0.1263325148	0.07358026846	
639.375	0.01611717317	0.3666567441	
640.0	0.2249497127	0.1417896834	
640.625	0.1386771392	0.1401037851	
641.25	0.3852346875	-0.01097825177	
641.875	0.0662981942	-0.2655937632	
642.5	0.01493570833	-0.1192659528	
643.125	-0.1719706808	-0.2966973002	
643.75	-0.1823373395	0.1012782282	
644.375	-0.1547329132	-0.1856337969	
645.0	-0.1523245033	0.2917927153	
645.625	0.1312032116	-0.07050168793	
646.25	0.0716722671	0.2678151933	
646.875	0.1715335523	-0.1689695913	
647.5	-0.07645641934	0.1622794459	
648.125	0.3640345085	-0.05771551057	
648.75	0.1172713319	-0.1409604054	
649.375	0.3066897177	-0.08673982075	
650.0	0.2354618879	-0.5306806663	
650.625	-0.05527783304	-0.2328061306	
651.25	0.3301602839	-0.1173859575	
651.875	0.3171321686	-0.3521135841	
652.5	0.07245889161	-0.09857732186	
653.125	0.400770429	-0.04547381085	
653.75	0.0918450939	-0.3944810155	
654.375	-0.05431861444	-0.1617745134	
655.0	-0.311725985	-0.2168453783	
655.625	-0.1855553984	0.4870112581	
656.25	0.08099005472	0.01130376351	
656.875	-0.03961360601	0.2063683495	
657.5	0.2176751157	-0.1203750196	
658.125	-0.02142049807	0.229481788	
658.75	0.6007023638	-0.05770677344	
659.375	0.1274340013	-0.2149749915	
660.0	0.2890145984	-0.1737271035	
660.625	0.1736747181	-0.5104777332	
661.25	-0.05731787607	-0.1826694469	
661.875	0.3469470888	-0.1543174453	
662.5	0.2910413289	-0.3511311504	
663.125	0.1150509105	-0.2023288172	
663.75	0.307364656	-0.2441350978	
664.375	-0.1808040948	-0.4281069927	
665.0	-0.1921318313	-0.08920982191	
665.625	-0.3735847249	-0.0001451069815	
666.25	-0.05973769839	0.396714518	
666.875	0.08764283015	0.0976781255	
667.5	0.2114982504	0.2341476215	
668.125	0.250894495	-0.2018408256	
668.75	0.1086823292	-0.03874927372	
669.375	0.2371628859	-0.313062532	
670.0	-0.2526520349	-0.1684447848	
670.625	0.1619051506	-0.09812057103	
671.25	0.0605795917	-0.3388628267	
671.875	-0.01804272483	-0.1691123888	
672.5	0.278661568	-0.01249687488	
673.125	0.2237273042	-0.3423732372	
673.75	0.04572107449	-0.1641746565	
674.375	0.1386670196	-0.2440289779	
675.0	-0.2065097283	-0.3344794744	
675.625	-0.09302825931	0.01428537841	
676.25	-0.2082208786	-0.1631403844	
676.875	-0.225040551	0.1284512686	
677.5	-0.03441536184	0.01064264637	
678.125	-0.2798845302	0.1274055784	
678.75	0.2523649136	0.2972979922	
679.375	0.04003145069	-0.01388986912	
680.0	0.363809829	0.02335843218	
680.625	-0.001372656226	-0.2729382328	
681.25	0.05833481798	0.353276983	
681.875	0.4061993212	-0.07652492424	
682.5	0.07811500037	-0.05797679894	
683.125	0.3251267354	0.3972165134	
683.75	0.5126541364	-0.1299770398	
684.375	-0.04922886932	0.1626178942	
685.0	0.4277845475	0.2300182814	
685.625	0.2899876353	-0.1135596991	
686.25	0.1245842991	-0.09794583194	
686.875	0.5040642123	-0.2081483651	
687.5	0.06992544042	-0.4916192392	
688.125	0.009210770212	-0.3763676434	
688.75	-0.5149554534	-0.2996660297	
689.375	-0.2268469462	0.4405864155	
690.0	-0.004862716099	0.1937117169	
690.625	0.3694542966	0.4256567842	
691.25	0.382698971	0.07069049295	
691.875	0.1652268351	0.4569923183	
692.5	0.8646719631	0.3464073534	
693.125	0.5358658864	-0.2818923725	
693.75	0.7548685001	0.007500892683	
694.375	0.6108958213	-0.5336901426	
695.0	0.206304724	-0.01623425766	
695.625	0.5510156333	0.1849018872	
696.25	0.7850865888	0.08296985095	
696.875	0.2982335315	0.3507733059	
697.5	0.4389412872	0.4045811752	
698.125	0.7285982963	0.1479861046	
698.75	0.1110761831	-0.4115853445	
699.375	-0.3397304765	-0.4781692081	
700.0	-0.4941511678	0.3722729934	
700.625	0.2442327738	0.1635749124	
701.25	0.1042864574	0.314606456	
701.875	0.4752118464	0.2023867689	
702.5	0.1286246283	0.1233023693	
703.125	0.4475389775	0.281673433	
703.75	0.4798110112	-0.240659807	
704.375	0.1935003439	-0.02723905288	
705.0	0.4179576584	-0.1014327143	
705.625	0.1502854082	0.02254332222	
706.25	0.1100027144	0.2506460332	
706.875	0.3103840497	0.2933136655	
707.5	0.4030601653	0.1205710217	
708.125	0.5585977862	-0.1901052643	
708.75	0.2347445032	-0.4230877727	
709.375	-0.4338215413	-0.1726062186	
710.0	-0.03999707309	0.1131944067	
710.625	-0.08150632566	0.3453436219	
711.25	0.1438524076	-0.01543396505	
711.875	0.102026597	0.2919598442	
712.5	0.4105792088	-0.1279494313	
713.125	0.04158599985	-0.143068385	
713.75	0.2584361353	-0.1786252254	
714.375	-0.04760289482	-0.3463635477	
715.0	-0.05971988518	-0.09828143588	
715.625	0.1464889069	-0.2525579554	
716.25	0.1484193419	-0.332351481	
716.875	0.2595490601	-0.04264508207	
717.5	0.680784032	0.05291493466	
718.125	0.6703110113	-0.2766969288	
718.75	0.5176115508	-0.2757271136	
719.375	0.9744918424	-0.6676741792	
720.0	0.1829384292	-0.9196171167	
720.625	-0.001854117809	-0.2643912723	
721.25	0.3805751033	-1.615692663	
721.875	-0.8612124681	-0.8605583879	
722.5	-0.1530212362	-0.8043087525	
723.125	-1.029477442	-0.07814790068	
723.75	-0.0204413219	0.5958221623	
724.375	-0.1711794145	0.3016946798	
725.0	0.3386218186	0.5652778098	
725.625	0.132946057	0.1455976434	
726.25	-0.2285534117	0.7369827799	
726.875	0.04941989089	1.2324311	
727.5	0.1933010145	0.963203075	
728.125	-0.7228345803	1.948640881	
728.75	0.662551625	3.164003655	
729.375	0.9798633266	2.605691109	
730.0	-1.398168767	3.741793761	
730.625	1.826512489	5.357319861	
731.25	1.270000494	2.014091017	
731.875	-3.699054733	1.501123282	
732.5	-4.231115721	3.350399366	
733.125	-0.8572621301	1.108987386	
733.75	-2.11480242	1.51576338	
734.375	1.438842956	-0.3604152321	
735.0	-0.1279543739	-0.1930667533	
735.625	-0.7219778405	-0.0614474199	
736.25	0.5583461952	0.5901149868	
736.875	-0.2680793415	0.5297758672	
737.5	1.561444868	0.4816677016	
738.125	1.343854815	-1.102114137	
738.75	0.6720732125	-0.5353531607	
739.375	4.709641701	-0.4253070655	
740.0	1.792746754	-4.50553588	
740.625	-0.5740903713	1.723336981	
741.25	0.9269610638	6.577349512	
741.875	1.302345456	1.477949639	
742.5	0.4033271121	-4.495650742	
743.125	-0.9251891135	-2.809434205	
743.75	-0.4083997359	-0.4051474694	
744.375	-0.3327374051	-0.3732343965	
745.0	0.3388608064	0.3085744612	
745.625	-0.0361475681	0.129196697	
746.25	-0.02218716273	-0.209834456	
746.875	-0.1536778431	0.1335670163	
747.5	-0.2451260312	0.2197473703	
748.125	0.1241304999	0.7061184472	
748.75	0.3318381522	0.3300896043	
749.375	-0.05357258991	0.4206373999	
750.0	-0.4242034522	0.244960884	
