!Created with skrf (http://scikit-rf.org).
# GHz S RI R (50+0j) 
!freq	ReS11	ImS11	
500.0	-0.4538052757	-0.5614967545	
500.625	0.7855430875	-0.7681856508	
501.25	-0.7432826391	-0.6403981436	
501.875	-0.1519205526	-0.2148790872	
502.5	-0.03550135232	-0.2409236387	
503.125	-0.05237174542	0.0481599272	
503.75	-0.06437932691	0.07333819218	
504.375	0.05026492952	-0.0400846496	
505.0	0.003235771187	0.02253771749	
505.625	0.01926085727	-0.1028699725	
506.25	-0.09228343124	0.05497849527	
506.875	-0.1567977025	-0.2513619848	
507.5	-0.523388754	-0.2266819468	
508.125	0.297969135	-0.2693112823	
508.75	0.7909336783	-1.381193206	
509.375	-0.3864684005	-0.5938110277	
510.0	-0.109860145	-0.3004005999	
510.625	-0.2378402738	-0.2673228395	
511.25	-0.05889160021	-0.01573559447	
511.875	-0.08925250637	-0.0601430452	
512.5	0.01269007133	0.08256043558	
513.125	-0.03393600797	-0.02442847384	
513.75	-0.03436106349	-0.1163731268	
514.375	-0.08396335096	0.1611952604	
515.0	0.2912319554	-0.2708086007	
515.625	-0.4312551342	-0.007769089649	
516.25	0.261505866	-0.4112977958	
516.875	-0.6661644172	-0.6074187968	
517.5	-0.1661856528	-0.03490621454	
518.125	0.02044326714	-0.08625754966	
518.75	-0.146009758	-0.06859429414	
519.375	-0.05942896667	0.01442529288	
520.0	0.1239032126	0.09659696574	
520.625	0.1418656612	-0.0864608007	
521.25	-0.06867579899	-0.1337310493	
521.875	-0.09068716174	0.01665993975	
522.5	-0.0605002761	0.09469138897	
523.125	-0.02422421589	-0.0837736827	
523.75	-0.2217406941	0.03329845674	
524.375	0.002748002575	0.1172973748	
525.0	-0.1682336248	0.07841512861	
525.625	0.1553252778	0.09221695068	
526.25	-0.1080827355	-0.02840038372	
526.875	0.008636085363	0.09808237485	
527.5	-0.08269003307	0.06411004403	
528.125	0.1226853977	0.3524516286	
528.75	0.2001642781	0.2539481491	
529.375	0.007774824171	0.09220982911	
530.0	0.1915681646	0.2383678708	
530.625	0.1084720657	0.2305622402	
531.25	0.2261875775	0.06008108813	
531.875	0.1816382094	-0.358172631	
532.5	0.01665460308	-0.01566303125	
533.125	0.199655678	-0.2075125868	
533.75	0.001346299654	-0.06814483409	
534.375	-0.004444047132	-0.4002187445	
535.0	-0.3134948846	-0.01589821857	
535.625	-0.1026809773	0.06729227909	
536.25	-0.02735563996	0.1239617719	
536.875	0.09894875701	-0.03040360542	
537.5	0.07489826996	0.004811865883	
538.125	0.1469824223	-0.1185197226	
538.75	0.08010850657	-0.08825254677	
539.375	-0.02590250989	-0.2091351096	
540.0	-0.2336849859	-0.1319582074	
540.625	-0.1369030358	0.01081007207	
541.25	-0.02951398227	-0.01396390038	
541.875	-0.07188454105	0.01748256277	
542.5	0.002872303823	-0.09024271518	
543.125	-0.1496449519	-0.10721997	
543.75	-0.01839314743	0.1027914065	
544.375	-0.1246819221	0.01010643076	
545.0	0.0562884191	0.06847142385	
545.625	-0.03921812178	0.07583577351	
546.25	0.1616163343	0.02618614625	
546.875	0.03932445875	-0.06623156511	
547.5	0.1188766181	-0.09434395358	
548.125	-0.1012043727	-0.2150478299	
548.75	-0.09756442327	-0.0375860804	
549.375	-0.09848887598	-0.124963811	
550.0	-0.09971624214	0.05737310493	
550.625	-0.02945000635	-0.02971519025	
551.25	-0.09631099538	0.07211846329	
551.875	-0.03883447337	0.06167509944	
552.5	-0.06562900021	0.08658217397	
553.125	0.01122952233	0.07909307021	
553.75	0.0350666102	0.04553087309	
554.375	0.1128811442	-0.006966514198	
555.0	0.08890492319	-0.08293603746	
555.625	0.08905519772	-0.1107326654	
556.25	0.06584540245	-0.1528461728	
556.875	-0.04528442046	-0.1608933383	
557.5	-0.1032239533	-0.1035306945	
558.125	-0.1223547928	-0.04262561983	
558.75	-0.1174736722	0.002631339783	
559.375	-0.1058090638	0.01873398552	
560.0	-0.1144355924	0.07720688003	
560.625	-0.03605529032	0.1312960259	
561.25	-0.001546866143	0.07999453896	
561.875	0.0444279946	0.0874349267	
562.5	0.01070453913	0.01591045223	
563.125	0.07271101877	0.114937741	
563.75	0.1547721723	-0.04655741475	
564.375	0.09594474134	-0.06291509892	
565.0	0.1110356648	-0.1848168624	
565.625	-0.09810007885	-0.1389269452	
566.25	-0.07370355907	-0.1250148815	
566.875	-0.2356922925	-0.1219438053	
567.5	-0.1163721658	-0.03766480697	
568.125	-0.116630475	-0.2245144333	
568.75	-0.3299464214	-0.01048237671	
569.375	-0.1189789098	0.05472953605	
570.0	-0.2164502545	0.1987814366	
570.625	0.0002468572324	0.2443759244	
571.25	-0.02339444612	0.03574658746	
571.875	0.136244107	0.1590159388	
572.5	0.03935510394	-0.05994026507	
573.125	0.175691049	-0.07074188227	
573.75	-0.02375912854	-0.223456074	
574.375	-0.005143707654	0.06202553766	
575.0	0.1022953169	-0.1279411004	
575.625	-0.04906773198	-0.03084245218	
576.25	0.1274405115	-0.0691235006	
576.875	-0.04508408055	-0.2449663494	
577.5	-0.08268990614	-0.09813555346	
578.125	0.06420961264	-0.1455260608	
578.75	-0.1612957262	-0.2006819356	
579.375	-0.05758473073	0.1062312433	
580.0	-0.007292701789	-0.1498900475	
580.625	-0.1012088508	0.07560348489	
581.25	-0.09551937027	-0.06783562329	
581.875	0.01801699119	0.340865762	
582.5	0.1655996225	0.07417252319	
583.125	-0.05816909562	0.05472092807	
583.75	0.1706709682	0.06539358979	
584.375	-0.06398705526	-0.03344966843	
585.0	0.2217176611	0.1549076019	
585.625	0.1608996001	-0.1197146199	
586.25	0.09814958766	0.03459875373	
586.875	0.1305293443	-0.2340744955	
587.5	-0.1084514989	-0.08977134126	
588.125	0.06864694385	-0.1202111074	
588.75	0.01750220039	-0.2339473211	
589.375	-0.02844250576	-0.1089466389	
590.0	0.07055110789	-0.2228988568	
590.625	-0.3034981984	0.02710591013	
591.25	0.008153654429	0.06443476376	
591.875	-0.1342016749	0.09196360011	
592.5	0.2036152819	0.1092737857	
593.125	-0.1786691938	0.004442494606	
593.75	0.2258236994	0.06071996209	
594.375	0.04053302935	0.04364353064	
595.0	0.2091316922	0.2070240622	
595.625	0.2567100848	-0.005539747147	
596.25	0.05424064989	0.09389947813	
596.875	0.2408014573	0.100331119	
597.5	0.1008748946	-0.002423821775	
598.125	0.06984377378	0.133998591	
598.75	0.2525761221	0.1128640427	
599.375	0.1666752115	-0.08543376238	
600.0	0.1696975859	-0.07770778117	
600.625	0.1923080073	-0.2391991021	
601.25	-0.01894769302	-0.2291893677	
601.875	0.02015691309	-0.1165426559	
602.5	-0.2739711439	0.01611139293	
603.125	0.0005915249149	0.06176348639	
603.75	-0.1792975618	0.002622561739	
604.375	-0.0747130703	0.225576489	
605.0	-0.09060388547	-0.09802571638	
605.625	-0.1800525747	0.1100788399	
606.25	-0.01446083369	0.1206161013	
606.875	-0.2565853561	0.04036527322	
607.5	-0.16635209	0.2711290405	
608.125	0.04718931869	0.1825932708	
608.75	0.1351573384	0.2133199649	
609.375	0.2910798845	-0.07691977003	
610.0	0.1839339401	-0.1528290447	
610.625	0.1765647443	-0.1244448864	
611.25	-0.0856025997	-0.2396196702	
611.875	-0.0750853138	-0.03692896944	
612.5	-0.1656287808	-0.1631021982	
613.125	-0.285723726	0.1867573796	
613.75	-0.005690260337	0.03958852182	
614.375	-0.01346434579	0.2175870849	
615.0	0.1403397428	-0.04208727212	
615.625	-0.0739315118	0.2104320818	
616.25	0.08023185036	0.2437538677	
616.875	-0.02665737309	0.06737814195	
617.5	-0.1868484336	0.255746952	
618.125	-0.03313656302	0.1280395549	
618.75	-0.01185591493	0.1332607079	
619.375	0.09879821867	0.2342763563	
620.0	0.2317432599	-0.009216484888	
620.625	-0.0009537287446	-0.1576495949	
621.25	-0.06874913811	-0.223848741	
621.875	-0.3343330328	-0.03158985298	
622.5	-0.1456235417	0.01078829724	
623.125	-0.1875315994	0.2308042762	
623.75	0.1969502847	-0.02426896803	
624.375	0.01001999302	0.03497713584	
625.0	0.05085038209	-0.1324845018	
625.625	0.01113675038	-0.01367282958	
626.25	-0.01770547358	-0.2119289219	
626.875	-0.2230441394	-0.03451956967	
627.5	-0.06802171955	-0.02146134174	
628.125	-0.1508679323	-0.1328467655	
628.75	-0.1239271489	-0.08482977764	
629.375	-0.03858332311	-0.152617786	
630.0	-0.1841539945	-0.153568984	
630.625	-0.249885864	0.1607066901	
631.25	-0.1297418856	0.1671183761	
631.875	-0.01441714337	0.3200466219	
632.5	0.2496788342	0.1590987498	
633.125	0.1042997395	0.06264146125	
633.75	0.3696518174	-0.06901178118	
634.375	-0.06709967634	-0.1399861244	
635.0	0.06548330744	-0.1674131035	
635.625	-0.2626832607	-0.06618093274	
636.25	-0.0553539867	0.09205329308	
636.875	-0.1588548378	0.09329017106	
637.5	0.03279857628	0.1933750481	
638.125	-0.05599966818	-0.03317700964	
638.75	-0.1176623262	0.2706762457	
639.375	0.140420415	0.2128486322	
640.0	0.03763023297	0.2418624136	
640.625	0.3372171157	0.2060191621	
641.25	0.2142763153	-0.1229157089	
641.875	0.1353777385	-0.08368109634	
642.5	-0.02919610254	-0.3543390674	
643.125	-0.2267154935	0.01493698103	
643.75	0.002817477096	-0.1465704066	
644.375	-0.3294766042	0.09027102245	
645.0	0.0272504755	0.1278442173	
645.625	-0.2107737511	0.3063470142	
646.25	0.3567993907	0.002269190279	
646.875	-0.1845163682	0.01544547427	
647.5	0.263212855	0.1005616693	
648.125	0.005249391061	-0.08420043688	
648.75	0.3463453625	0.09017549027	
649.375	0.2541388297	-0.497556464	
650.0	-0.01932299855	-0.2308456712	
650.625	0.2774966586	-0.1869403156	
651.25	0.2520944969	-0.4409617333	
651.875	0.02667557154	-0.1439862223	
652.5	0.3897710598	0.01105196933	
653.125	0.2723635759	-0.299037084	
653.75	0.08832721484	-0.1203419606	
654.375	0.06883593729	-0.4462763361	
655.0	-0.4363046991	0.04954946329	
655.625	-0.03618858566	0.1092116834	
656.25	-0.1200771067	0.2406102753	
656.875	0.366693947	-0.003014716389	
657.5	-0.1500004552	0.1350586788	
658.125	0.3549516111	0.2149475836	
658.75	0.1365437917	-0.1132901443	
659.375	0.3702179837	0.03713335181	
660.0	0.277115149	-0.5720178483	
660.625	-0.05565115281	-0.2170729983	
661.25	0.3219516908	-0.2650721595	
661.875	0.2287246252	-0.3998826509	
662.5	0.0778401513	-0.1880420728	
663.125	0.3755589727	-0.1220037551	
663.75	0.04061019131	-0.4397021677	
664.375	-0.04051006977	-0.1943702122	
665.0	-0.2590881457	-0.3103989195	
665.625	-0.3758267879	0.2233774804	
666.25	-0.02723633335	0.1813663392	
666.875	0.01122966095	0.3344826784	
667.5	0.3101335661	0.01107885991	
668.125	0.09947504584	0.018107608	
668.75	0.3275439655	-0.1801834228	
669.375	-0.1254535339	-0.2411860295	
670.0	0.1072796129	-0.1165185886	
670.625	0.03607670932	-0.3187248496	
671.25	-0.1291015063	-0.06596481093	
671.875	0.3543921933	-0.1124415783	
672.5	0.1966333637	-0.3104555386	
673.125	0.0889887382	-0.1715359856	
673.75	0.222102812	-0.1529604229	
674.375	-0.06851861425	-0.4356092663	
675.0	-0.08591709206	-0.07283414255	
675.625	-0.1613456928	-0.2450213136	
676.25	-0.2817540471	0.06601069368	
676.875	-0.02829291884	-0.03755695863	
677.5	-0.3040941461	-0.005147943855	
678.125	-0.0126801154	0.2404204293	
678.75	-0.02230610674	0.07991154771	
679.375	0.2812435185	0.2643200274	
680.0	0.152998768	-0.3060941818	
680.625	-0.03526619198	0.1501530737	
681.25	0.3147714204	-0.1552428414	
681.875	0.02157054239	-0.1079830375	
682.5	0.2822779025	0.4737095217	
683.125	0.4992707147	-0.1145376231	
683.75	0.03524796119	-0.003317936469	
684.375	0.4986250309	0.1177986181	
685.0	0.383896378	-0.1387208199	
685.625	0.06060976701	-0.001355532389	
686.25	0.5188388034	0.07011468976	
686.875	0.1746990744	-0.2209909735	
687.5	0.2416254311	-0.2042427382	
688.125	0.04040939802	-0.5743623448	
688.75	-0.5600952803	0.02074826051	
689.375	-0.2175285455	0.2416405916	
690.0	0.1277135937	0.5404121533	
690.625	0.4031600122	0.08863686035	
691.25	0.1183804559	0.3610094011	
691.875	0.7269896952	0.3799398009	
692.5	0.4975787438	-0.008579155964	
693.125	0.7530243508	0.3009491072	
693.75	0.8076012312	-0.3379078252	
694.375	0.1737688704	-0.4748329001	
695.0	0.7916827056	-0.278900253	
695.625	0.68585378	-0.2658215675	
696.25	0.4429598133	0.3757152925	
696.875	0.3908368678	0.4995380471	
697.5	0.725449927	0.4114815328	
698.125	0.4799844564	0.113506307	
698.75	0.1387301843	-0.4310549772	
699.375	-0.5799846932	-0.3290884562	
700.0	-0.1031621939	0.4800696918	
700.625	-0.005323726246	0.3012782675	
701.25	0.5250064122	0.2028263592	
701.875	0.14636306	0.1326217824	
702.5	0.3586622306	0.4398937388	
703.125	0.5738783712	0.005300145156	
703.75	0.2648997507	0.05965480501	
704.375	0.4709960982	-0.1496208044	
705.0	0.2119238633	-0.2921602272	
705.625	0.3211723635	0.1471113248	
706.25	0.3721807734	0.1629886713	
706.875	0.223356421	0.1611750416	
707.5	0.2777737368	0.4225597643	
708.125	0.3577523743	0.1067362211	
708.75	0.1246615581	-0.4378771571	
709.375	-0.2806859633	-0.03329768474	
710.0	-0.2335224341	0.2430618657	
710.625	0.1494105946	0.04240360316	
711.25	0.006414080765	0.1781002629	
711.875	0.3679447621	0.03780963716	
712.5	0.1491198243	-0.05567759085	
713.125	0.4407344873	-0.09038184232	
713.75	0.08147328345	-0.3523331318	
714.375	0.007440097505	-0.0846081619	
715.0	0.08781473202	-0.3072238096	
715.625	-0.1183117444	-0.2378625231	
716.25	0.1353058261	-0.1276843163	
716.875	0.4711449327	-0.1556992514	
717.5	0.5457487634	-0.2103987033	
718.125	0.5686003905	0.136202585	
718.75	0.8680343785	-0.07493628458	
719.375	0.405085768	-0.6430959198	
720.0	0.02685249616	-0.3532655759	
720.625	0.1872031814	-1.280398653	
721.25	-0.4696599292	-0.5626778592	
721.875	0.08207806451	-0.9748837862	
722.5	-1.088636862	-0.8672634444	
723.125	-0.6850318898	0.2707371025	
723.75	-0.6066799271	0.08513864605	
724.375	0.1516574454	0.6778913715	
725.0	0.1264056063	0.08017589235	
725.625	-0.06940587704	0.5775788909	
726.25	0.2309895142	0.8663719988	
726.875	0.04984535365	0.5720612613	
727.5	-0.6048820393	1.525468154	
728.125	0.6082511632	2.366544364	
728.75	0.1692141769	1.539314489	
729.375	-1.745556169	4.096223667	
730.0	2.213247758	3.900078125	
730.625	0.9197435515	2.045594051	
731.25	-1.902598705	3.722517522	
731.875	-0.9035381376	4.192758358	
732.5	-0.8108079699	0.4984190652	
733.125	-3.399721953	0.2200474038	
733.75	-0.05324596969	1.986612115	
734.375	0.3722782237	0.04340773966	
735.0	0.08879767751	-0.9549290707	
735.625	0.0223999149	0.7027494997	
736.25	-0.4393118833	0.2659736243	
736.875	0.6257661413	0.8647998233	
737.5	0.997441498	-0.4021449224	
738.125	0.8790594042	0.5795258207	
738.75	3.05801697	-1.60716907	
739.375	0.8902223252	-2.785470499	
740.0	1.061271135	1.072954372	
740.625	7.236475971	0.3902258558	
741.25	1.206472521	-3.345804044	
741.875	-3.726679517	-2.413382865	
742.5	-4.645832021	-1.915497961	
743.125	0.1047184161	-0.6826500324	
743.75	0.5168483646	-1.506308409	
744.375	-0.7204315823	0.2786124643	
745.0	0.03424909756	-0.1435748065	
745.625	0.2167054998	-0.02605615809	
746.25	-0.0617983683	0.0527350211	
746.875	-0.2677302428	-0.1104255673	
747.5	-0.04694508246	0.478732576	
748.125	0.1875695813	0.3906113182	
748.75	0.06867329687	0.5539454984	
749.375	0.247290451	0.5803110515	
750.0	-0.2036621903	0.1827273148	
