!Created with skrf (http://scikit-rf.org).
# GHz S RI R (50+0j) 
!freq	ReS11	ImS11	
500.0	-1.398732177	-1.357029577	
500.625	2.137251244	-1.811793799	
501.25	-1.819404676	-2.789244916	
501.875	-1.716352784	-0.5001095236	
502.5	0.01444099409	-0.1843702312	
503.125	-0.4079771192	0.03246355895	
503.75	0.2112325809	0.02110978103	
504.375	0.1490694395	0.08297915711	
505.0	-0.113412613	-0.1105913734	
505.625	0.2745030633	-0.2086441583	
506.25	-0.5805254606	0.1458680192	
506.875	-0.04196914768	-0.9399923291	
507.5	-1.551748597	-1.642334393	
508.125	-0.9169754042	-0.6987031076	
508.75	2.850968769	-1.916928025	
509.375	-2.18743567	-4.984604345	
510.0	-0.6484500554	-0.3201901806	
510.625	-0.553253276	-0.9650702029	
511.25	-0.2996714176	0.05387153515	
511.875	-0.5878492206	-0.2346386704	
512.5	-0.03581809378	0.2626736693	
513.125	-0.05566768949	-0.1563809756	
513.75	-0.07614894253	-0.1704954301	
514.375	-0.5320048336	-0.3172959062	
515.0	0.6806722614	1.166869233	
515.625	-1.241839406	-3.426908878	
516.25	-0.6772587542	0.8554499885	
516.875	0.3008863386	-2.561181113	
517.5	-1.172505683	-0.3020978664	
518.125	0.271961675	-0.3272409982	
518.75	-0.8241344433	-0.2921298534	
519.375	-0.08950896914	0.01130503481	
520.0	0.4178578445	0.3171559026	
520.625	0.435477013	-0.3597709748	
521.25	0.07049976476	-0.4008220056	
521.875	-0.5465975669	-0.2125803083	
522.5	0.0251051586	0.07936533401	
523.125	-0.2970246175	0.169657905	
523.75	-0.07968129374	-0.05607258354	
524.375	-0.6137197169	0.2133672924	
525.0	0.08620962713	0.0234858501	
525.625	-0.02268800122	0.2923358082	
526.25	0.02808528752	-0.2915250764	
526.875	-0.1731514377	0.3823262812	
527.5	0.07874077035	0.2498755235	
528.125	-0.2852639634	0.9299258369	
528.75	0.550415611	0.8682157849	
529.375	-0.1709304864	0.1519481339	
530.0	0.4328667432	0.367526193	
530.625	-0.09602442897	0.9094847518	
531.25	1.477988859	-0.1127433768	
531.875	0.3192466684	0.0452789503	
532.5	-0.3096484156	-0.7400295131	
533.125	0.3292992157	0.3336279951	
533.75	0.0332483846	-0.9446624933	
534.375	0.001705725597	-0.2301355782	
535.0	-0.94386362	-0.5481504148	
535.625	-0.08878287611	0.4341898794	
536.25	-0.1192013268	0.1944676185	
536.875	0.3596574919	0.07586895492	
537.5	0.04561002169	-0.1336721847	
538.125	0.4434499728	-0.03068433899	
538.75	0.1844098339	-0.4263589169	
539.375	-0.00204369877	-0.3341660865	
540.0	-0.5462974577	-0.5158067484	
540.625	-0.2595452561	0.1453484989	
541.25	-0.2140169027	-0.1358595592	
541.875	-0.1817216305	-0.03166690068	
542.5	-0.1201298273	-0.01494227015	
543.125	-0.09582915662	-0.2239739244	
543.75	-0.4095322542	0.1021643987	
544.375	0.06814681385	-0.1172429584	
545.0	-0.04108657334	0.3376617037	
545.625	0.07203999313	-0.1075112497	
546.25	0.3111909128	0.4089683482	
546.875	0.1668806591	-0.3243771996	
547.5	0.2847839231	-0.06307119426	
548.125	-0.1122336962	-0.6292790794	
548.75	-0.3703937769	-0.08878241694	
549.375	-0.07694932521	-0.2171665899	
550.0	-0.3426633897	0.01741409314	
550.625	0.02441398588	0.004385909969	
551.25	-0.3390511018	0.07388594256	
551.875	-0.02692122873	0.1598033406	
552.5	-0.2164828356	0.1621873221	
553.125	0.0139075697	0.1865146324	
553.75	0.07825009016	0.1169228852	
554.375	0.251679548	0.02020377634	
555.0	0.2311362722	-0.1818206007	
555.625	0.1994559844	-0.2410407649	
556.25	0.1771736431	-0.3444640767	
556.875	-0.09358222028	-0.3957429703	
557.5	-0.2238175776	-0.2385565739	
558.125	-0.270163197	-0.1204107905	
558.75	-0.2788595729	-0.00151548643	
559.375	-0.2233484039	0.04772202139	
560.0	-0.268684834	0.1411836225	
560.625	-0.1010142013	0.320925529	
561.25	0.03955075399	0.1498999959	
561.875	0.03023614108	0.198761285	
562.5	0.06796978516	0.01316373951	
563.125	0.1279653384	0.2962065327	
563.75	0.352439958	-0.140310548	
564.375	0.2426259634	-0.04074589808	
565.0	0.2774180663	-0.477571422	
565.625	-0.1942534715	-0.2753971116	
566.25	-0.1191693555	-0.2605758237	
566.875	-0.4143471291	-0.2988164054	
567.5	-0.3796243547	-0.06608754923	
568.125	-0.1138340858	-0.4741758632	
568.75	-0.756459983	-0.2110531828	
569.375	-0.3196639739	0.2300930123	
570.0	-0.6049132955	0.3836184105	
570.625	0.06570145238	0.6255497253	
571.25	-0.1180205828	-0.03712227261	
571.875	0.3110883397	0.507244381	
572.5	-0.03985926569	-0.2009454019	
573.125	0.4988787163	-0.02665967488	
573.75	0.05921470333	-0.5648086025	
574.375	-0.105696135	0.1148924555	
575.0	0.310973184	-0.3266480369	
575.625	-0.1590675405	0.05463418786	
576.25	0.4349634002	-0.2637399614	
576.875	-0.2280041639	-0.514045815	
577.5	-0.06782507529	-0.07911465789	
578.125	0.1534607835	-0.4759389436	
578.75	-0.4024773164	-0.4292521332	
579.375	-0.1706737809	0.06919550235	
580.0	0.02296771623	-0.3087057485	
580.625	-0.2574969801	0.1871312666	
581.25	-0.2183229456	-0.1524612286	
581.875	-0.03540019382	0.6724602015	
582.5	0.3998807716	0.1326662777	
583.125	-0.2279065363	0.1094680768	
583.75	0.5194853697	0.2975065257	
584.375	-0.3603643478	-0.1108143751	
585.0	0.5488138808	0.4140991566	
585.625	0.2483351483	-0.315927782	
586.25	0.3134809742	0.2103170327	
586.875	0.2202605734	-0.629888399	
587.5	-0.03169048755	-0.01918403436	
588.125	0.1962581259	-0.4843472043	
588.75	-0.1309915129	-0.5114918124	
589.375	0.09779814656	-0.01011438499	
590.0	0.02435100489	-0.6865802699	
590.625	-0.5246045946	0.001688338439	
591.25	-0.1554106283	0.1886769408	
591.875	-0.2860813964	0.196756351	
592.5	0.218713713	0.2279393333	
593.125	-0.3026491874	0.1437920693	
593.75	0.2667142822	0.1985614831	
594.375	0.1087119861	0.2150678358	
595.0	0.5074197894	0.5962528594	
595.625	0.6088870063	-0.1873490387	
596.25	-0.0379974525	0.3555965088	
596.875	0.7746948272	0.2045958264	
597.5	0.2168598748	-0.1157382448	
598.125	0.2261042196	0.5558336947	
598.75	0.5679537893	-0.001130530263	
599.375	0.295833882	0.1347653409	
600.0	0.6499418522	-0.469197853	
600.625	0.09790281816	-0.4399983181	
601.25	0.2757440207	-0.2306884731	
601.875	-0.144683605	-0.5102531145	
602.5	-0.2653439136	0.05357701107	
603.125	-0.1965574244	0.104966625	
603.75	-0.2764170948	0.02608476407	
604.375	-0.3314734326	0.3535103523	
605.0	0.0003132174887	-0.0331825512	
605.625	-0.4276215042	0.2528665519	
606.25	0.006220138494	0.1392083106	
606.875	-0.66620526	-0.0323976808	
607.5	-0.1792862299	0.7622517429	
608.125	-0.2527900537	0.176214586	
608.75	0.5399599298	0.8670861382	
609.375	0.2749042578	-0.3808078055	
610.0	0.5339117285	0.03510637678	
610.625	0.1276477672	-0.6251118768	
611.25	0.08580317803	-0.06588353072	
611.875	-0.3025365185	-0.5215696714	
612.5	-0.1672507836	-0.02729680622	
613.125	-0.6049804928	-0.1151699072	
613.75	-0.1099607522	0.426938074	
614.375	-0.2164604314	0.2133012366	
615.0	0.4132160274	0.05915458254	
615.625	-0.3050105607	0.1318467946	
616.25	0.0961733075	0.6821972035	
616.875	-0.1256222851	0.04343684995	
617.5	-0.4140321475	0.7387073622	
618.125	0.2511726566	0.4960279563	
618.75	-0.2156957215	0.3080324324	
619.375	0.3952805078	0.523343591	
620.0	0.2618040568	0.05711337304	
620.625	0.4195323322	-0.3843332007	
621.25	-0.2322307928	-0.325386134	
621.875	-0.4677737423	-0.3576262852	
622.5	-0.3979789926	0.2673169298	
623.125	-0.1996113457	0.3151468661	
623.75	0.5112556358	0.1263038686	
624.375	-0.152488682	0.04443785496	
625.0	0.3018860894	-0.3827488666	
625.625	-0.01199212544	0.1170503051	
626.25	0.1033156848	-0.6370500535	
626.875	-0.556662928	-0.002117414178	
627.5	-0.01113071851	-0.1161983827	
628.125	-0.4636893209	-0.3554100735	
628.75	-0.1434618205	-0.05830363349	
629.375	-0.06539801367	-0.5244342866	
630.0	-0.6202453682	-0.1296253169	
630.625	-0.3040750302	-0.04076779453	
631.25	-0.5461771079	0.4599456083	
631.875	0.06621128466	0.6544961997	
632.5	0.2863537085	0.370747953	
633.125	0.3570213977	0.1668670167	
633.75	0.6253395926	-0.07851877118	
634.375	-0.07196552582	-0.2800292409	
635.0	0.2340497839	-0.3324053109	
635.625	-0.5862228947	-0.184541683	
636.25	-0.09128740154	-0.05153066246	
636.875	-0.4176870126	0.51957803	
637.5	0.2090949534	0.1291816251	
638.125	-0.4861193908	0.0163080523	
638.75	0.0881097167	0.8249620979	
639.375	-0.03255186475	0.0143136719	
640.0	0.02906651751	0.8368103098	
640.625	0.8588184747	0.3688834637	
641.25	0.3614640217	-0.1916037524	
641.875	0.8072040756	-0.1388191827	
642.5	-0.3959188868	-0.4878007108	
643.125	0.12070638	-0.2624655693	
643.75	-0.6760417172	-0.3396998497	
644.375	0.01676542862	0.2847829995	
645.0	-0.6985475317	0.01418406633	
645.625	0.2527478021	0.7563385689	
646.25	0.4988022273	-0.05731210667	
646.875	-0.15957909	0.1080616723	
647.5	0.689959885	0.02652136228	
648.125	-0.2722023005	0.2443045736	
648.75	1.169984792	-0.08454461629	
649.375	0.03700693814	-0.8323387868	
650.0	0.5993032939	0.02167870151	
650.625	0.7235634265	-1.422610927	
651.25	-0.3455708144	-0.4437328555	
651.875	0.8778537085	0.2968044448	
652.5	1.05908802	-0.7612061963	
653.125	0.07699431576	-0.347236426	
653.75	0.9372988127	-0.2076796545	
654.375	-0.4665685649	-0.970818196	
655.0	-0.259648886	0.0507601972	
655.625	-0.8766748667	0.08192764523	
656.25	0.5381565036	0.711721	
656.875	-0.2491741083	-0.1083962148	
657.5	0.2556890063	0.5274168905	
658.125	0.3973712467	0.08458143909	
658.75	0.293359884	0.3818998229	
659.375	1.223925951	-0.4057024627	
660.0	0.1146456829	-0.7316358118	
660.625	0.4899833519	-0.4152528038	
661.25	0.7018324215	-1.08227618	
661.875	-0.2004545825	-0.5495773401	
662.5	0.9656150056	0.07915322459	
663.125	0.7982889659	-0.97148813	
663.75	-0.05586271201	-0.4006944048	
664.375	0.42450568	-0.8706971684	
665.0	-1.057907289	-0.3179165476	
665.625	-0.3567208926	-0.07286916187	
666.25	-0.5489424923	0.840062331	
666.875	0.5630095921	0.2900796545	
667.5	0.03407730418	0.3818570373	
668.125	0.841983426	-0.04825395487	
668.75	0.2154328835	-0.4815818105	
669.375	0.2425528041	-0.2421069247	
670.0	0.2151750392	-0.6736075963	
670.625	-0.2988122527	-0.4583617369	
671.25	0.3253810245	-0.2158825368	
671.875	0.3654271556	-0.5933017876	
672.5	0.170178235	-0.3477254434	
673.125	0.7970154724	-0.2048749205	
673.75	0.2210869912	-0.8768754413	
674.375	-0.0619462282	-0.1887062641	
675.0	0.2551057669	-0.773846799	
675.625	-0.9741126249	-0.4001038649	
676.25	0.1310548574	0.209114855	
676.875	-0.7709151773	-0.3722459902	
677.5	-0.03014594659	0.4138086036	
678.125	-0.5889581498	-0.101800277	
678.75	0.3981209289	0.9740668682	
679.375	0.04602127253	-0.0646306338	
680.0	0.5738731394	0.06858476892	
680.625	0.3146662131	-0.5309262595	
681.25	-0.2860030411	0.04637883634	
681.875	0.6463273051	0.4631712131	
682.5	0.6535961689	-0.01698745338	
683.125	0.4785437011	0.02667256274	
683.75	0.3234807742	0.4744748236	
684.375	1.18730305	-0.1076314153	
685.0	0.002709518567	0.01318837808	
685.625	1.051122276	0.3493085171	
686.25	0.592440128	-0.7248844006	
686.875	0.5173486454	0.5423196076	
687.5	1.151361434	-1.610710073	
688.125	-0.6406478301	-0.07170046453	
688.75	-0.6018690385	-1.235641508	
689.375	-0.832665549	1.340337876	
690.0	0.1605200294	0.1667651092	
690.625	0.6935135952	1.236866111	
691.25	0.7214107694	0.2212723603	
691.875	0.7770662414	0.9981632377	
692.5	1.755693112	0.4523410317	
693.125	1.268546949	-0.2215854742	
693.75	1.51761658	-0.4460702177	
694.375	0.9406101172	-0.9078741901	
695.0	1.232259004	-0.692907006	
695.625	0.9813905412	-0.560151653	
696.25	0.8138399868	0.8569138532	
696.875	1.816601841	0.8884171143	
697.5	0.3442842969	0.555538375	
698.125	1.845321626	1.206953573	
698.75	0.3763177102	-1.507124608	
699.375	0.008405573842	-1.119887745	
700.0	-1.038694656	1.365982792	
700.625	0.3900806678	0.1167339384	
701.25	0.6150054722	1.178287023	
701.875	0.6680155917	0.1332318414	
702.5	0.5265657472	0.852138061	
703.125	1.421218938	0.06606106298	
703.75	0.5065759324	-0.05298058098	
704.375	1.16652561	-0.6145331734	
705.0	0.1434933774	-0.4658814073	
705.625	0.7652009527	0.4741838672	
706.25	0.9593500112	-0.1502529843	
706.875	-0.05433745367	0.7325381976	
707.5	0.9809232237	1.215631287	
708.125	0.8586578093	-0.2108274093	
708.75	1.107509509	-0.537078453	
709.375	-1.089171842	-0.7547308483	
710.0	-0.2164564517	0.2967919505	
710.625	0.07727283758	0.6352046369	
711.25	0.2845110918	0.04185221847	
711.875	0.4282749279	0.4542452093	
712.5	0.7926851977	-0.1403209105	
713.125	0.7654858915	-0.3054906013	
713.75	0.03689766385	-0.7871563078	
714.375	0.3041769681	-0.2201811629	
715.0	-0.3236947609	-0.9073010946	
715.625	-0.09242713054	0.01744724185	
716.25	1.039150943	-0.7230540437	
716.875	0.1234155237	-1.114076568	
717.5	1.053523798	1.175273337	
718.125	2.949244064	-0.2786352841	
718.75	0.07919391237	-1.319710629	
719.375	3.904449185	0.8482797004	
720.0	0.3278019256	-4.008602822	
720.625	0.7845173063	-1.235634598	
721.25	0.7832375275	-2.770655788	
721.875	-1.831257971	-2.789821298	
722.5	-0.3761759105	-1.544976949	
723.125	-2.549914736	-0.4795934081	
723.75	-0.6207482276	1.347322889	
724.375	-0.1825494213	0.722857038	
725.0	0.326285058	1.334664703	
725.625	0.9759590831	0.8910036967	
726.25	-0.1023584159	0.9222353544	
726.875	-0.973276242	2.794583955	
727.5	1.37858669	4.705882306	
728.125	-1.008064913	0.8572671328	
728.75	-1.74959439	11.09717975	
729.375	5.605118845	8.003807831	
730.0	-6.3879357	4.839504741	
730.625	4.158846781	25.93533192	
731.25	1.985834345	-1.778577758	
731.875	-14.0012868	7.210749306	
732.5	-12.26698708	6.429756333	
733.125	-3.164514545	3.159871198	
733.75	-4.368175487	1.417857044	
734.375	3.272993685	0.4776722771	
735.0	-0.1393626429	-0.847150375	
735.625	-1.667145689	-0.6707717451	
736.25	1.165835557	1.45213715	
736.875	-0.3405430267	1.272961385	
737.5	3.751807489	1.08220315	
738.125	4.389691425	-2.557621072	
738.75	0.1392563583	-4.109607318	
739.375	8.370148481	4.146766382	
740.0	15.79119541	-15.89917054	
740.625	-8.284135314	0.4272900234	
741.25	-1.688244888	21.75701403	
741.875	10.50871411	9.133838529	
742.5	3.757303382	-20.51859906	
743.125	-6.258464744	-10.49808175	
743.75	-0.8878318259	0.6448710264	
744.375	-0.8408500905	-2.001992674	
745.0	0.6288738626	0.758174581	
745.625	-0.08799402285	0.301317928	
746.25	-0.1134561247	-0.4245270858	
746.875	-0.5353366815	0.09261764325	
747.5	-0.3984578471	0.6185471078	
748.125	0.4687461824	1.456446561	
748.75	0.5448449967	1.005789348	
749.375	-0.1507615885	1.013635744	
750.0	-0.8639152135	0.711605261	
