!Created with skrf (http://scikit-rf.org).
# GHz S RI R (50+0j) 
!freq	ReS11	ImS11	
500.0	0.1079663426	-0.3786206746	
500.625	0.7846765802	-1.103792151	
501.25	-0.7610573278	-0.4969229672	
501.875	0.1254787013	-0.3797632501	
502.5	-0.07624538907	-0.212008456	
503.125	-0.02995114569	0.02604093602	
503.75	-0.05699448425	0.1092368777	
504.375	0.03770918951	-0.03172519117	
505.0	0.01971281165	0.01793706372	
505.625	-0.02614986164	-0.1029445997	
506.25	-0.04863859952	0.04284603839	
506.875	-0.3184864629	-0.1771750117	
507.5	-0.3251154435	-0.04563969195	
508.125	0.484452594	-0.4658496217	
508.75	0.5588009026	-1.357664297	
509.375	-0.341183343	-0.7821891188	
510.0	-0.2021072352	-0.5477255027	
510.625	-0.2244293369	-0.2264244522	
511.25	-0.05378753134	-0.0329637516	
511.875	-0.1585113661	-0.1258525492	
512.5	-0.01515289428	0.05090107528	
513.125	0.02359672002	-0.0259257655	
513.75	-0.106657245	-0.1418696591	
514.375	-0.03749557455	0.1118540323	
515.0	0.08632353485	-0.3818924037	
515.625	-0.2513783733	-0.09871113914	
516.25	0.2540737538	-1.215333339	
516.875	-0.3913279568	-0.6156950427	
517.5	-0.1058153786	-0.01011106478	
518.125	0.006491391956	-0.1139194961	
518.75	-0.07905167799	-0.04138284621	
519.375	-0.05640984306	0.004004278486	
520.0	0.1263051647	0.05745866346	
520.625	0.1485902182	-0.1154245042	
521.25	-0.03441817606	-0.2311189714	
521.875	-0.1900385497	-0.1282978627	
522.5	-0.02397383212	0.1023621265	
523.125	-0.1204825071	-0.09986173136	
523.75	-0.2067736452	0.0797906736	
524.375	0.003635821438	-0.009852338819	
525.0	-0.2119433388	0.189757278	
525.625	0.1520068259	0.02323629867	
526.25	-0.102515723	0.008400344744	
526.875	0.02227786871	0.05517829692	
527.5	-0.1408276095	0.1959641736	
528.125	0.1049784805	0.357175736	
528.75	-0.0639506525	0.1957003442	
529.375	-0.02677782352	0.1049510111	
530.0	0.1054568896	0.1394132345	
530.625	0.1683029709	0.2290238888	
531.25	0.5253435383	0.2653024826	
531.875	0.1269204111	-0.2972986567	
532.5	0.02367844724	-0.00819690522	
533.125	0.000409338481	-0.2021231508	
533.75	0.1418629212	-0.003136656247	
534.375	-0.1002318988	-0.416168137	
535.0	-0.2437725043	-0.0129474882	
535.625	-0.1811956603	0.02245171885	
536.25	0.001773439763	0.1358386192	
536.875	0.06138323231	-0.01863031881	
537.5	0.1009736935	-0.009989926289	
538.125	0.1107233102	-0.105992723	
538.75	0.0966892261	-0.05599262801	
539.375	-0.05657599747	-0.2315848953	
540.0	-0.1884074766	-0.1623612627	
540.625	-0.1353639153	-0.001563731764	
541.25	-0.1327658357	-0.02526698031	
541.875	-0.01760015248	0.04784215425	
542.5	-0.01041422504	-0.1162580983	
543.125	-0.1782767444	-0.05272606655	
543.75	-0.01357198147	-0.02480977868	
544.375	-0.1113366793	0.06298990216	
545.0	0.06506838076	0.02697576749	
545.625	0.008433578206	0.1154425369	
546.25	0.1785814229	0.005059840128	
546.875	0.05785624956	0.0003486058613	
547.5	0.1505045027	-0.1384114567	
548.125	-0.1214000504	-0.1650279997	
548.75	-0.06024022245	-0.103039706	
549.375	-0.1370937796	-0.1223259963	
550.0	-0.07384432276	0.05475980125	
550.625	-0.0607532242	-0.0411516922	
551.25	-0.1019933684	0.05874010463	
551.875	-0.06257842036	0.03606557117	
552.5	-0.08093303681	0.08164781069	
553.125	0.003287141585	0.06197021403	
553.75	0.03781720879	0.06428850045	
554.375	0.1069524633	-0.006732824014	
555.0	0.09139565993	-0.06618210672	
555.625	0.0989001869	-0.1112395249	
556.25	0.0704588689	-0.1523175062	
556.875	-0.03591853532	-0.1644222517	
557.5	-0.1000372031	-0.1119985712	
558.125	-0.1261989987	-0.04756059233	
558.75	-0.1149287798	0.003169214069	
559.375	-0.1113654385	0.0117045411	
560.0	-0.1188373022	0.08663566305	
560.625	-0.0358058544	0.1136462083	
561.25	-0.02637311885	0.08928145689	
561.875	0.05683163919	0.06624676114	
562.5	-0.01708837835	0.03094552725	
563.125	0.09834569704	0.1086723845	
563.75	0.123714877	-0.03152630231	
564.375	0.1527454651	-0.05038071736	
565.0	0.1053428371	-0.2135033334	
565.625	-0.04652966519	-0.1150074176	
566.25	-0.05233008712	-0.1751846266	
566.875	-0.2146650483	-0.06209534912	
567.5	-0.07588477191	-0.09079178708	
568.125	-0.1646872811	-0.2425164051	
568.75	-0.256526064	0.02478834026	
569.375	-0.2041372912	0.01486546423	
570.0	-0.1916147816	0.2681411581	
570.625	0.02538204938	0.1654025239	
571.25	-0.1143229538	0.09758976264	
571.875	0.1516051979	0.08474337506	
572.5	0.03767369527	0.02385451209	
573.125	0.1947769663	-0.1326692105	
573.75	-0.05118084951	-0.1757077816	
574.375	0.04079284465	0.0299139082	
575.0	0.04808619154	-0.1360101087	
575.625	0.003326655137	0.01094778981	
576.25	0.151335802	-0.13539212	
576.875	-0.09364926453	-0.1763146704	
577.5	0.01108019246	-0.05698842077	
578.125	0.02562601231	-0.2441490449	
578.75	-0.2667709124	-0.1124235982	
579.375	0.008050357369	0.01330670244	
580.0	-0.09221009492	-0.1328980052	
580.625	-0.02461684936	0.08532212013	
581.25	-0.2270805892	-0.06320335876	
581.875	0.06103334844	0.2677367761	
582.5	0.09237502704	0.03992541879	
583.125	-0.01658424104	0.175825961	
583.75	0.1674954505	-0.01688186093	
584.375	-0.09176126756	0.08147274749	
585.0	0.2210576073	0.08594772802	
585.625	0.07207783496	-0.0721383165	
586.25	0.1758300991	0.04138055907	
586.875	0.1096693988	-0.2354518571	
587.5	-0.05740043286	-0.06210182486	
588.125	0.07494751432	-0.1679900372	
588.75	-0.02788679875	-0.2298141632	
589.375	0.03264890525	-0.05053167761	
590.0	-0.001544179541	-0.3024271885	
590.625	-0.2233763664	0.08748584417	
591.25	-0.08609460683	0.005038871834	
591.875	-0.1653322184	0.2600243655	
592.5	0.1384639841	0.01035285302	
593.125	-0.1325326004	0.1807427602	
593.75	0.1387746357	0.03388520645	
594.375	0.06189563408	0.1413490806	
595.0	0.2347371963	0.1821982981	
595.625	0.161790902	-0.03754971463	
596.25	0.08785337919	0.1143377461	
596.875	0.2401764385	-0.02038192842	
597.5	0.1168932099	0.007610664699	
598.125	0.1341925175	0.1885200269	
598.75	0.241696497	0.05367065924	
599.375	0.1331254458	-0.0437370808	
600.0	0.2360132505	-0.0942276934	
600.625	0.1552177577	-0.2669383133	
601.25	-0.02451260097	-0.1278852965	
601.875	0.01018917013	-0.2246979664	
602.5	-0.2128045999	0.05520855161	
603.125	-0.01354072569	-0.03697288626	
603.75	-0.2189582947	0.05053148864	
604.375	0.05841486737	0.1251612189	
605.0	-0.1054241653	-0.02608172075	
605.625	-0.1302657999	0.1518763994	
606.25	-0.04654232724	-0.006710043447	
606.875	-0.2582918339	0.1109385703	
607.5	-0.1260343127	0.2502722311	
608.125	-0.0165818396	0.1453958703	
608.75	0.1445511962	0.2776276214	
609.375	0.271201869	-0.03876291129	
610.0	0.08584323993	-0.07288849976	
610.625	0.2094228265	-0.1778866676	
611.25	-0.08490855722	-0.2129986666	
611.875	-0.006414357599	-0.07016255353	
612.5	-0.2723868503	-0.1455087952	
613.125	-0.1160469864	0.1521922868	
613.75	-0.1731820343	0.03085536544	
614.375	0.08346451097	0.235662201	
615.0	-0.06016907763	-0.05497020119	
615.625	-0.06844401199	0.2205422792	
616.25	0.09177375076	0.1591972924	
616.875	-0.1090810001	0.08284018713	
617.5	-0.007327619004	0.2199746676	
618.125	0.07224407623	0.2149876744	
618.75	-0.03589282833	0.1414203119	
619.375	0.1410522446	0.2694778351	
620.0	0.252545073	-0.00590988385	
620.625	0.1433162057	-0.07936014915	
621.25	-0.03192328567	-0.3129365137	
621.875	-0.1805131616	0.009090980362	
622.5	-0.137588964	-0.07527317704	
623.125	-0.07006302538	0.2764117159	
623.75	0.1322524763	-0.04688248561	
624.375	0.08844004322	0.04151290462	
625.0	-0.008901350682	-0.1109931673	
625.625	0.09647783424	-0.0118470493	
626.25	-0.07128935258	-0.2296633795	
626.875	-0.1552951707	-0.007187875851	
627.5	-0.1058690278	-0.09116191677	
628.125	-0.1803247068	-0.09293103492	
628.75	-0.07263178041	-0.0560467845	
629.375	-0.04738857517	-0.1396493373	
630.0	-0.2586448413	-0.106330488	
630.625	-0.1519571226	0.06416597004	
631.25	-0.2321781581	0.1739292177	
631.875	-0.02638615212	0.3364760061	
632.5	0.1988372195	0.1003261764	
633.125	0.1810569329	0.1712657985	
633.75	0.242827902	-0.1495478825	
634.375	-0.004684899212	-0.02922486511	
635.0	0.04673147081	-0.2280517574	
635.625	-0.2145484665	-0.02693455214	
636.25	-0.08284091032	0.002031182246	
636.875	-0.1666912109	0.1913435722	
637.5	0.08056149538	0.1157142699	
638.125	-0.1580220307	0.02817581571	
638.75	-0.04115144095	0.2723996838	
639.375	0.02564186013	0.1495375518	
640.0	0.04649273122	0.3038976837	
640.625	0.3436504522	0.1669955192	
641.25	0.2496736471	-0.1236071177	
641.875	0.2563579402	-0.07998430868	
642.5	-0.05576943804	-0.3832391637	
643.125	-0.1094651176	0.05757537359	
643.75	-0.1447693902	-0.2377548823	
644.375	-0.2119173736	0.1437328864	
645.0	-0.06082633022	-0.08637318515	
645.625	0.01052909856	0.4283067189	
646.25	0.2267145773	-0.1175774183	
646.875	-0.0203816842	0.1012715187	
647.5	0.2228075071	-0.02407705256	
648.125	-0.01747215071	0.06919740774	
648.75	0.4972895464	0.03515902304	
649.375	0.13532972	-0.3923210935	
650.0	0.1337204961	-0.1494209375	
650.625	0.3451848857	-0.3185758794	
651.25	0.06753586607	-0.4151398961	
651.875	0.1855240883	-0.003341299619	
652.5	0.4554429736	-0.08305307465	
653.125	0.2306499755	-0.2486889245	
653.75	0.1318763188	0.009979435496	
654.375	-0.0004457719752	-0.4977735866	
655.0	-0.3687301063	0.08811781014	
655.625	-0.1732820003	0.01848472106	
656.25	-0.1005526568	0.438268793	
656.875	0.1664263783	-0.120022698	
657.5	-0.04989234599	0.2567260805	
658.125	0.3249395614	0.04635192018	
658.75	0.1111852463	0.08282166688	
659.375	0.5062756636	-0.02827853287	
660.0	0.136672424	-0.4717392092	
660.625	0.1576409447	-0.146765864	
661.25	0.3038377855	-0.3373407779	
661.875	0.1385985511	-0.4185210173	
662.5	0.1819110315	-0.05326778577	
663.125	0.4396977085	-0.2181538494	
663.75	0.0590454151	-0.3385005953	
664.375	0.05749742747	-0.2566531584	
665.0	-0.3126426682	-0.3507449378	
665.625	-0.2853724806	0.1905028899	
666.25	-0.1647335435	0.1074658934	
666.875	0.1309002337	0.355049971	
667.5	0.184837862	-0.02104653238	
668.125	0.2000088107	0.1418155387	
668.75	0.2812821351	-0.3622865491	
669.375	-0.0009626972124	-0.1418128539	
670.0	0.1295429193	-0.2101745922	
670.625	-0.04601417783	-0.3201606839	
671.25	0.04596430228	0.02639713459	
671.875	0.2842660091	-0.2139126467	
672.5	0.1544874981	-0.2324125019	
673.125	0.1629955819	-0.07680214525	
673.75	0.3407971194	-0.2917658385	
674.375	-0.08393299655	-0.3007323352	
675.0	0.03940248592	-0.1907843503	
675.625	-0.2188268105	-0.259965876	
676.25	-0.2167138015	0.0640022472	
676.875	-0.01395312876	-0.07583300961	
677.5	-0.3184577696	0.02741949946	
678.125	-0.007658056586	0.1525279869	
678.75	-0.1688440302	0.1667166349	
679.375	0.3803926378	0.1671775786	
680.0	-0.02321524074	-0.1542774602	
680.625	0.3065111684	0.09539283628	
681.25	0.1326812166	-0.1808319477	
681.875	-0.1073338905	0.2371383964	
682.5	0.3967680856	0.2957025427	
683.125	0.304149836	-0.1248436409	
683.75	0.1225694743	0.1641412811	
684.375	0.4014581849	0.1168311918	
685.0	0.2853091517	-0.1431865313	
685.625	0.09046351352	0.1803500569	
686.25	0.4185807203	-0.1344846335	
686.875	0.1965421281	-0.1556616552	
687.5	0.3755033075	-0.1119946737	
688.125	-0.01858073896	-0.6782408767	
688.75	-0.3428270585	-0.09944786801	
689.375	-0.4317566825	0.123556392	
690.0	0.13723115	0.5912417073	
690.625	0.2005177683	0.03823115461	
691.25	0.2232797326	0.6424973917	
691.875	0.6880826899	0.2168968997	
692.5	0.2518685247	0.3780849968	
693.125	0.81322547	0.1944962218	
693.75	0.681876334	-0.4543855953	
694.375	0.4192533771	-0.1296414613	
695.0	0.6626563495	-0.3698109469	
695.625	0.3277725388	-0.0158765099	
696.25	0.3342320744	0.2176671381	
696.875	0.4178622643	0.643545901	
697.5	0.4938424386	0.349792139	
698.125	0.5489682857	0.2351633448	
698.75	0.6651716279	-0.3428354389	
699.375	-0.50085743	-0.4985449329	
700.0	-0.1808462345	0.1690021704	
700.625	0.04042531701	0.5579855759	
701.25	0.2768329543	0.02599561323	
701.875	0.07869484677	0.3217760205	
702.5	0.5206586783	0.3568275167	
703.125	0.2313107918	0.01215367497	
703.75	0.4016185901	0.09832914091	
704.375	0.4126842637	-0.2885463751	
705.0	0.1108335688	-0.1224767972	
705.625	0.2994591884	0.1035964163	
706.25	0.3863514909	0.1613122773	
706.875	0.1601198357	0.2004668953	
707.5	0.2282827966	0.2868133744	
708.125	0.5727118028	0.1768582145	
708.75	0.2249053844	-0.4330295166	
709.375	-0.1305440213	-0.423606792	
710.0	-0.3471301641	0.3016744379	
710.625	0.02665250597	0.01441699573	
711.25	0.0006442550395	0.3593780656	
711.875	0.2006078247	-0.04536728507	
712.5	0.196431755	0.1549785509	
713.125	0.4108181355	-0.1967133502	
713.75	0.04752003892	-0.2862044697	
714.375	0.1002061186	-0.1368807488	
715.0	-0.02436973672	-0.3420679204	
715.625	-0.07206604721	-0.1329263936	
716.25	0.2616593623	-0.1642968548	
716.875	0.4089104665	-0.3436013808	
717.5	0.3226679957	-0.01789887654	
718.125	0.6533312081	0.2369161105	
718.75	0.9620166817	-0.2819938908	
719.375	0.5487154513	-0.7913441879	
720.0	0.9571424255	-0.5868781226	
720.625	-0.1290532151	-1.219777272	
721.25	0.1934049695	-0.5732915324	
721.875	0.1677578962	-1.403386266	
722.5	-0.8910173081	-0.7552618379	
723.125	-0.22270645	-0.134083963	
723.75	-0.734204975	0.451966598	
724.375	0.3161741613	0.4073677361	
725.0	-0.031326614	0.2884878738	
725.625	0.2228764098	0.6935446673	
726.25	0.2859954696	0.5498412058	
726.875	-0.3682328394	0.6520983224	
727.5	-0.3308684013	1.775547164	
728.125	0.4763896508	1.871493657	
728.75	-0.6213169758	1.739907389	
729.375	-1.606443962	4.617470858	
730.0	1.472072656	4.592909359	
730.625	-1.332812674	2.791203992	
731.25	-2.052229698	5.383545681	
731.875	-0.9897734719	2.282397671	
732.5	-2.997260967	-1.730863249	
733.125	-3.404833999	0.8367053311	
733.75	-0.3663789783	1.112590592	
734.375	0.3537064196	0.881871436	
735.0	-0.180664485	-1.348862066	
735.625	-0.09961966928	0.1511135894	
736.25	-0.4137844647	0.5640500731	
736.875	0.7119361823	0.6522982225	
737.5	0.3622222208	-0.1257427701	
738.125	1.991826841	0.4852792811	
738.75	1.864474737	-2.095156461	
739.375	0.6895503418	-0.9977616822	
740.0	4.09480544	2.220011371	
740.625	5.343724701	-3.296327695	
741.25	-1.813644443	-1.12593278	
741.875	-5.423839085	-0.7592376808	
742.5	-2.521044107	-0.5549352949	
743.125	1.397542631	-0.3562580774	
743.75	0.3702703615	-1.777050731	
744.375	-0.5392249834	0.29933492	
745.0	-0.1484911915	-0.01743516984	
745.625	0.1145457311	-0.1251184977	
746.25	0.08046344792	-0.02930341339	
746.875	-0.339396662	-0.06413165061	
747.5	-0.03253236337	0.3346940311	
748.125	-0.06061958889	0.3764320057	
748.75	0.1967039321	0.6371570194	
749.375	0.2196337575	0.4617914197	
750.0	-0.4028414463	0.1394409508	
