!Created with skrf (http://scikit-rf.org).
# GHz S RI R (50+0j) 
!freq	ReS11	ImS11	
500.0	0.6395952618	-0.8379436755	
500.625	-0.0857599183	-1.162384972	
501.25	0.03173157713	-0.2869313343	
501.875	-0.2686688958	-0.5403767296	
502.5	-0.06147114273	-0.06663860087	
503.125	-0.05373845219	-0.03192945342	
503.75	0.05609006456	0.1052596719	
504.375	-0.002529759699	-0.001240231425	
505.0	0.04277129587	-0.03648403874	
505.625	-0.03900577558	-0.02030037273	
506.25	-0.005660533757	-0.1519585735	
506.875	-0.130865124	0.2217284857	
507.5	0.2319593226	-0.3305990492	
508.125	0.07391620454	-0.8299110351	
508.75	0.005169777634	-0.7879027856	
509.375	0.3039533787	-0.78858994	
510.0	-0.5646162442	-0.2522202732	
510.625	-0.07444564615	-0.02825155452	
511.25	-0.06107408535	-0.1044932714	
511.875	-0.1335663881	0.002738104702	
512.5	-0.03017591449	0.002185867481	
513.125	0.00789564988	-0.08434542347	
513.75	-0.07240826154	0.005310657849	
514.375	0.02667565456	-0.04700567402	
515.0	-0.2216893513	-0.09694576192	
515.625	0.6146786583	-0.5018781826	
516.25	-0.4140109233	-0.9772629998	
516.875	-0.3321804797	-0.07905250845	
517.5	0.08008754584	-0.1991049334	
518.125	-0.05644386499	0.02534635378	
518.75	0.06339159925	-0.09153843855	
519.375	-0.06122162456	0.03980529293	
520.0	0.1044653071	0.008504193381	
520.625	0.1455838895	-0.05073856976	
521.25	0.05258957037	-0.2931001342	
521.875	-0.1793063835	0.06156374533	
522.5	0.004734751723	-0.02212561361	
523.125	-0.1385248336	0.04564339465	
523.75	0.0209673756	0.02933488783	
524.375	-0.2262431644	-0.0926618661	
525.0	0.0568172477	0.2130556607	
525.625	-0.03392441171	-0.02077897887	
526.25	0.02703546014	0.04737045082	
526.875	-0.08732657724	-0.004644710535	
527.5	-0.08691486826	0.2496594926	
528.125	-0.007663140895	0.1222159284	
528.75	-0.06909103347	0.1373469573	
529.375	0.03840796717	0.06377741643	
530.0	0.006172250359	0.07145415295	
530.625	0.0599355518	0.3567294554	
531.25	0.3693923066	-0.07827846646	
531.875	0.08863012932	-0.1639119558	
532.5	-0.006078113523	-0.1851881911	
533.125	-0.1994453246	-0.04501104342	
533.75	0.1675998276	-0.2144456076	
534.375	-0.174626643	-0.2036878653	
535.0	-0.1234359258	-0.1259263979	
535.625	-0.216806566	0.08549583273	
536.25	0.02679540766	0.0716692209	
536.875	0.05648160852	0.04454097232	
537.5	0.07567764615	-0.06346195849	
538.125	0.0430154621	-0.03625016156	
538.75	0.1684604956	-0.09103004879	
539.375	-0.09347805915	-0.1381660412	
540.0	-0.08141117529	-0.08931678843	
540.625	-0.1577434314	-0.0623954095	
541.25	-0.08964378548	0.05212550158	
541.875	0.008289026177	-0.0001556721826	
542.5	-0.07034659568	-0.09868871146	
543.125	-0.03054088026	0.04348580375	
543.75	-0.09287456635	-0.05533401424	
544.375	-0.01906805592	0.1042423855	
545.0	-0.04372948882	0.02693493294	
545.625	0.1100440395	0.1126398367	
546.25	0.04881430798	-0.009045514771	
546.875	0.1417924482	0.0161179193	
547.5	0.02665051133	-0.1461240707	
548.125	-0.01454410985	-0.08491257521	
548.75	-0.09784318385	-0.1494049673	
549.375	-0.1453893339	-0.0357242525	
550.0	-0.02890341779	-0.01255013144	
550.625	-0.08343532634	0.01099518746	
551.25	-0.0326048333	0.02036488505	
551.875	-0.09128428676	0.04549214745	
552.5	-0.01772732088	0.08392616606	
553.125	-0.01606565575	0.03401855408	
553.75	0.04904251505	0.04663257336	
554.375	0.07499087013	-0.004133349555	
555.0	0.09487015044	-0.05931236373	
555.625	0.07810568168	-0.1050519961	
556.25	0.05548574345	-0.1224048607	
556.875	-0.0281301129	-0.1405392851	
557.5	-0.09024786503	-0.0969341401	
558.125	-0.1083163154	-0.03144835708	
558.75	-0.09479094719	-0.00316654398	
559.375	-0.1074197617	0.01519958325	
560.0	-0.08176611121	0.07651804391	
560.625	-0.04570723167	0.07836137996	
561.25	-0.004232007397	0.1116021211	
561.875	0.03952017682	0.0188586915	
562.5	-0.01275421965	0.07276961459	
563.125	0.09248737239	0.04061272247	
563.75	0.09317287693	0.02356560349	
564.375	0.1572534874	-0.09355295129	
565.0	0.02469023774	-0.1391264471	
565.625	0.01866076288	-0.09542124737	
566.25	-0.1420735586	-0.1373545568	
566.875	-0.09503860734	-0.02868702275	
567.5	-0.08252408943	-0.163352217	
568.125	-0.2152969328	-0.1259149421	
568.75	-0.1076351848	-0.05028782892	
569.375	-0.280298307	0.04646206983	
570.0	-0.02572109125	0.2424587462	
570.625	-0.05738660741	0.05666638496	
571.25	-0.0330622581	0.1751308684	
571.875	0.06806549295	-0.01360473592	
572.5	0.1306337189	0.09843026435	
573.125	0.07007258635	-0.1976087429	
573.75	-0.01701281692	-0.01343700679	
574.375	0.09536229239	-0.07946223536	
575.0	-0.06519526898	-0.04401413158	
575.625	0.1105438481	-0.03305432295	
576.25	0.02229092454	-0.1805129919	
576.875	-0.04176212042	-0.05642427764	
577.5	0.07921007949	-0.1452578256	
578.125	-0.1200612138	-0.2391607599	
578.75	-0.0859861172	-0.01551367537	
579.375	-0.01445513665	-0.116066062	
580.0	-0.1913603049	0.0004005051039	
580.625	0.07379688675	-0.06905249826	
581.25	-0.1797889436	0.1186495969	
581.875	0.1128649433	0.1001769901	
582.5	-0.08126203021	0.09608960051	
583.125	0.09893972017	0.1693508851	
583.75	-0.02140646574	-0.1075633596	
584.375	0.02609516468	0.1600039323	
585.0	0.1443434059	-0.02567765034	
585.625	0.05555232494	0.03660452381	
586.25	0.2352168294	-0.05926964543	
586.875	-0.02091510951	-0.1530842379	
587.5	0.05778341801	-0.08679693494	
588.125	-0.02424354459	-0.2072511504	
588.75	-0.05125911155	-0.08766472576	
589.375	0.1547055572	-0.09975926348	
590.0	-0.1308210415	-0.1977038031	
590.625	-0.09007801497	0.004736273615	
591.25	-0.2295647596	0.009602051375	
591.875	0.009365086501	0.2165872646	
592.5	0.001959720071	-0.05345911489	
593.125	-0.01221391864	0.133703201	
593.75	-0.06551663498	-0.001053413937	
594.375	0.1167413824	0.1917284627	
595.0	0.2316952173	0.0178645062	
595.625	0.06092920092	0.02063518005	
596.25	0.224948878	0.06794018144	
596.875	0.1570502187	-0.05133098326	
597.5	0.04806140296	0.07281267516	
598.125	0.1881059628	0.1697540797	
598.75	0.1559389198	-0.003143723913	
599.375	0.1611039969	0.03505750455	
600.0	0.1820713018	-0.1548203117	
600.625	0.04563573411	-0.1924691935	
601.25	0.08223056895	-0.07507931484	
601.875	-0.1050154194	-0.2044471689	
602.5	-0.0810351282	0.06322577879	
603.125	-0.1104524797	-0.04505195289	
603.75	-0.09184251625	0.2104041505	
604.375	0.0007325850941	0.01967618026	
605.0	-0.1513777352	0.04799671448	
605.625	0.06232157428	0.08047834733	
606.25	-0.1169767487	-0.03855632335	
606.875	-0.1794406849	0.1559954533	
607.5	-0.0494077885	0.1369607841	
608.125	-0.06315235357	0.2547061207	
608.75	0.1787710372	0.1444264061	
609.375	0.1448838577	-0.1008839755	
610.0	0.1835098166	-0.01821578532	
610.625	0.09443873896	-0.1616539377	
611.25	-0.05022496746	-0.08493689243	
611.875	-0.002715310849	-0.168861294	
612.5	-0.2182103664	0.004554383713	
613.125	-0.06636433073	0.002099696294	
613.75	-0.186351165	0.1269796186	
614.375	0.1589289346	0.100190062	
615.0	-0.07710765196	-0.0009009640802	
615.625	0.0643021976	0.177705849	
616.25	-0.0215150186	0.03354759637	
616.875	-0.1188509539	0.2115324561	
617.5	0.002133524294	0.2857685323	
618.125	0.0316035176	0.09467864603	
618.75	-0.03374983664	0.2055486929	
619.375	0.04956426554	0.178520573	
620.0	0.1236182488	0.03899237656	
620.625	0.1400144537	-0.1105160505	
621.25	-0.1682147942	-0.1457148938	
621.875	-0.1201972044	0.05069365742	
622.5	-0.2395400614	0.0153258541	
623.125	0.02945570356	0.2117676642	
623.75	0.04268602896	-0.001356014913	
624.375	0.1333572886	-0.03047522162	
625.0	-0.04213735074	-0.006162738982	
625.625	0.1176519468	-0.07913379845	
626.25	-0.1090607392	-0.1531540695	
626.875	-0.06472873661	-0.0276552406	
627.5	-0.1494191016	-0.1036668885	
628.125	-0.1434789978	-0.01785167313	
628.75	-0.0451580923	-0.07944475387	
629.375	-0.09380746333	-0.2059443583	
630.0	-0.2432795058	-0.1116760525	
630.625	-0.1756546798	0.02477017283	
631.25	-0.1882528863	0.1665601887	
631.875	0.03818842783	0.2480923503	
632.5	0.0573299196	0.1132218767	
633.125	0.2263070129	0.1130334398	
633.75	0.1040526483	-0.1172810377	
634.375	0.09693187289	-0.07052925828	
635.0	-0.03425534114	-0.2491543886	
635.625	-0.1078621497	0.00217103778	
636.25	-0.1693986752	-0.02159206102	
636.875	-0.07874898429	0.2199219355	
637.5	0.01306897629	0.0174639459	
638.125	-0.1600820311	0.08634098244	
638.75	0.02801235566	0.1900694872	
639.375	-0.06354193369	0.1450978412	
640.0	0.1388604683	0.3148771413	
640.625	0.283842351	0.0820767113	
641.25	0.1620890205	0.02560516305	
641.875	0.2767047423	-0.1657540443	
642.5	-0.1070846837	-0.2209751068	
643.125	0.01501244118	-0.08038362909	
643.75	-0.1920846391	-0.1667327676	
644.375	-0.06667764882	0.1808900941	
645.0	-0.219864198	0.02904688495	
645.625	0.2098490827	0.3967257562	
646.25	0.1171115694	-0.081672795	
646.875	0.09282060588	0.1055676594	
647.5	0.1015018099	-0.1109722131	
648.125	0.03238417477	0.2416868581	
648.75	0.3714413278	-0.139102238	
649.375	0.06997621767	-0.227797831	
650.0	0.211379619	-0.1307876389	
650.625	0.2283875543	-0.4330353523	
651.25	0.008690753956	-0.1963617818	
651.875	0.2884333746	-0.01069744425	
652.5	0.3554726452	-0.1856412213	
653.125	0.09951955143	-0.1407336937	
653.75	0.2990644896	-0.107156019	
654.375	-0.1460801468	-0.3779470969	
655.0	-0.1678327778	0.003998557701	
655.625	-0.247940633	-0.0452922048	
656.25	0.1123014427	0.2872549625	
656.875	-0.01376493024	-0.05965377967	
657.5	0.08488145648	0.3047921749	
658.125	0.1775386433	0.02764332231	
658.75	0.09494817816	0.2567533254	
659.375	0.4949466019	-0.1821900192	
660.0	0.05161249756	-0.2903567211	
660.625	0.1767571157	-0.1802332196	
661.25	0.2159702248	-0.371224215	
661.875	0.04327114161	-0.276969312	
662.5	0.2846403258	-0.03095901989	
663.125	0.304998161	-0.291288525	
663.75	0.03489249389	-0.1881034144	
664.375	0.08571913691	-0.2874993297	
665.0	-0.3573752098	-0.2295682797	
665.625	-0.172990204	0.1276373396	
666.25	-0.1900602238	0.1786847099	
666.875	0.1806570965	0.2482654905	
667.5	0.08730146086	-0.01810008011	
668.125	0.2919901968	0.1489032198	
668.75	0.1468819077	-0.248516138	
669.375	0.05096466503	-0.100519139	
670.0	0.1300753211	-0.2969395093	
670.625	-0.1894441745	-0.1755465855	
671.25	0.1603541714	-0.04485712056	
671.875	0.1831963159	-0.2593490623	
672.5	0.07934252512	-0.1553419881	
673.125	0.1972151059	-0.03940210511	
673.75	0.2357731229	-0.3044698543	
674.375	-0.06819422027	-0.1925270069	
675.0	0.03710784574	-0.2038736372	
675.625	-0.2635634407	-0.1723624789	
676.25	-0.1163603436	0.09600143483	
676.875	-0.1119071069	-0.1292175436	
677.5	-0.204335974	0.1277760818	
678.125	-0.0223888718	0.05351458943	
678.75	-0.1201421651	0.2483230384	
679.375	0.3555640819	0.01979403412	
680.0	-0.09011309743	-0.01602676019	
680.625	0.1987157921	-0.01452096036	
681.25	-0.0542039087	-0.2364418419	
681.875	-0.0335695853	0.2072253497	
682.5	0.3720312235	0.1542853482	
683.125	-0.001466607574	-0.07149542961	
683.75	0.2075643253	0.2277529543	
684.375	0.3886560442	-0.01437026801	
685.0	0.09895818719	-0.1334359013	
685.625	0.3837646873	0.1727126839	
686.25	0.3860601286	-0.1862361502	
686.875	0.1886601793	-0.08140513299	
687.5	0.3846562141	-0.1738905262	
688.125	-0.1395911909	-0.4605605577	
688.75	-0.1991004102	-0.05598577154	
689.375	-0.3299502907	0.1823628855	
690.0	0.2188655713	0.3946960426	
690.625	0.08233709926	0.07861414258	
691.25	0.3391409368	0.4514755269	
691.875	0.4783058201	-0.009447995031	
692.5	0.3484052813	0.2517869812	
693.125	0.7580048658	0.07265369768	
693.75	0.2584700237	-0.3918367787	
694.375	0.4219849721	-0.1382544313	
695.0	0.3644713582	-0.5256655426	
695.625	0.3288001384	-0.1990235821	
696.25	0.2579631158	0.2128061243	
696.875	0.4825876356	0.434864081	
697.5	0.2923714774	0.3367903156	
698.125	0.3898261145	0.3281781572	
698.75	0.5286861696	-0.4195528974	
699.375	-0.4391884899	-0.2172049252	
700.0	-0.1040001336	0.2079059699	
700.625	0.1847860168	0.3923439498	
701.25	0.1683926904	0.02217311561	
701.875	0.1377300611	0.3058315141	
702.5	0.5300852195	0.2072430331	
703.125	0.2545596378	-0.01700616534	
703.75	0.379464115	0.05005448618	
704.375	0.2750114515	-0.2993958662	
705.0	0.09502147685	-0.07569435612	
705.625	0.308506028	-0.07748816858	
706.25	0.285374306	0.03727730919	
706.875	0.1734498895	0.3001771981	
707.5	0.2154935625	0.4440429334	
708.125	0.4238037646	0.306707039	
708.75	0.2394255536	-0.2133634885	
709.375	-0.1555518467	-0.3332727777	
710.0	-0.1298358012	0.2686036428	
710.625	0.101433076	-0.02076783226	
711.25	0.1011248342	0.2129996087	
711.875	0.2105705024	-0.09504805502	
712.5	0.2722514256	0.0969463989	
713.125	0.3361573414	-0.2455072648	
713.75	0.02266676007	-0.2340594424	
714.375	0.1134103789	-0.1543562998	
715.0	-0.07442967645	-0.2711161345	
715.625	-0.03476814737	-0.09992417108	
716.25	0.2246416861	-0.1646742512	
716.875	0.286497936	-0.3061676738	
717.5	0.2878020197	-0.02855187474	
718.125	0.690760523	0.2302609052	
718.75	0.8570578171	-0.04876000545	
719.375	0.4153074285	-0.2234882884	
720.0	0.7326791295	-0.718194121	
720.625	-0.03257902048	-1.295176502	
721.25	0.02995092467	-0.1130234901	
721.875	-0.009611066276	-1.034607055	
722.5	-0.9401617775	-0.5212020462	
723.125	-0.4411897392	-0.2196587136	
723.75	-0.7206694021	0.5411929284	
724.375	0.2020328248	0.3749938866	
725.0	0.005198650871	0.2738920219	
725.625	0.2299238935	0.5924105987	
726.25	0.2528745879	0.4017603221	
726.875	-0.3108322986	0.6442247075	
727.5	-0.1311207361	1.488153479	
728.125	0.5676602408	1.443246053	
728.75	-0.8054163229	1.732600015	
729.375	-1.425939813	3.905956442	
730.0	1.075107639	2.733974902	
730.625	-1.170099074	2.66586517	
731.25	-1.399004607	4.567322884	
731.875	-0.1343500316	2.462078186	
732.5	-3.040069563	-0.8184943539	
733.125	-2.791778371	0.6651230175	
733.75	0.1330378919	1.128736551	
734.375	0.06559700456	0.8719367974	
735.0	-0.1189198473	-0.9613686612	
735.625	-0.1734433621	0.07920067775	
736.25	-0.3390060859	0.5347942478	
736.875	0.7389842631	0.4372823561	
737.5	0.3060030496	-0.02633368993	
738.125	1.694638665	0.1812177687	
738.75	1.254773755	-2.007346848	
739.375	0.3434397907	-0.831512834	
740.0	3.754759725	1.125381927	
740.625	4.196494509	-2.90201521	
741.25	-1.72610465	-0.994899156	
741.875	-4.48291576	0.1309288515	
742.5	-2.653218981	-0.3158198567	
743.125	0.9056045904	-0.8302644108	
743.75	0.05660091529	-1.426971484	
744.375	-0.3272866412	0.1177754048	
745.0	-0.1708909973	-0.02987168957	
745.625	0.1067693985	-0.1273498933	
746.25	0.06757880739	-0.0564553325	
746.875	-0.2850562	-0.009477830322	
747.5	0.0328644857	0.3095427796	
748.125	0.06058303167	0.3203094744	
748.75	0.1811797497	0.5087766753	
749.375	0.2685386749	0.3309979527	
750.0	-0.2655579872	0.1428124084	
