!Created with skrf (http://scikit-rf.org).
# GHz S RI R (50+0j) 
!freq	ReS11	ImS11	
500.0	0.2450440388	-0.839711703	
500.625	0.3434450531	-0.9108973215	
501.25	-0.3194996055	-0.5812516234	
501.875	-0.2449247904	-0.3557200211	
502.5	-0.02630080691	-0.1188704953	
503.125	-0.05942116904	0.001319222859	
503.75	0.007030911285	0.06969261787	
504.375	0.02494348146	-0.004209654405	
505.0	0.01711923279	-0.01686797244	
505.625	0.0001275829166	-0.04199390941	
506.25	-0.05070085625	-0.04748319428	
506.875	-0.1006601634	0.01465638574	
507.5	-0.06051009234	-0.2871987484	
508.125	0.1394996926	-0.5370365887	
508.75	0.4435429429	-0.7801539893	
509.375	-0.004162259152	-0.9932310992	
510.0	-0.403619267	-0.2963388476	
510.625	-0.06734144394	-0.1274002423	
511.25	-0.08032632322	-0.01593344066	
511.875	-0.1228814174	-0.007262647882	
512.5	-0.03426951358	0.04141808768	
513.125	-0.0006153881766	-0.04624116796	
513.75	-0.04199960863	-0.02422870674	
514.375	-0.04845662181	-0.01261585315	
515.0	0.01482435592	-0.0321444622	
515.625	0.004011458213	-0.2484570481	
516.25	-0.2277671685	-0.6253752041	
516.875	-0.1637925961	-0.3405883424	
517.5	-0.05083185193	-0.1210939774	
518.125	-0.01874679412	-0.02235379611	
518.75	-0.03580604199	-0.1041860121	
519.375	-0.04376563075	0.03636889967	
520.0	0.09006680671	0.04867953557	
520.625	0.1300468752	-0.04669298627	
521.25	-0.01023478956	-0.2128775257	
521.875	-0.1215904411	-0.02352903116	
522.5	-0.04094046696	0.02167952084	
523.125	-0.04976874065	0.02182555604	
523.75	-0.08966189108	-0.00788800957	
524.375	-0.1323630912	0.0259807755	
525.0	-0.03852053826	0.1128487052	
525.625	0.03076854931	0.03968684521	
526.25	-0.01202897452	-0.01129036356	
526.875	-0.04295866358	0.04420477911	
527.5	-0.03688410859	0.1507039754	
528.125	0.04470269616	0.2122685474	
528.75	0.02087309343	0.1681062718	
529.375	0.03300090455	0.05160568731	
530.0	0.02898162165	0.1251048378	
530.625	0.09019086146	0.2390128586	
531.25	0.3318498687	0.0928506972	
531.875	0.189034174	-0.1494775969	
532.5	-0.03893332066	-0.0885535727	
533.125	0.0456200416	-0.04280338662	
533.75	0.08406417605	-0.1492402373	
534.375	-0.06767059721	-0.2306809214	
535.0	-0.197070281	-0.08685371265	
535.625	-0.1392133797	0.092979036	
536.25	-0.003102687036	0.08119652492	
536.875	0.07970104857	0.01377565371	
537.5	0.05643885856	-0.03717225004	
538.125	0.09677433234	-0.05182553929	
538.75	0.1072330665	-0.1038917559	
539.375	-0.06381765231	-0.1447469072	
540.0	-0.1422980386	-0.1292112523	
540.625	-0.1411982887	-0.02157596041	
541.25	-0.07427555389	0.004491326075	
541.875	-0.03952591533	-0.0184756279	
542.5	-0.04052648001	-0.04543800118	
543.125	-0.06781105066	-0.04046342173	
543.75	-0.07487425351	-0.004309686032	
544.375	-0.03952380832	0.03714651308	
545.0	-0.003578414896	0.05159511454	
545.625	0.04430857189	0.05547280877	
546.25	0.08383769609	0.03259433375	
546.875	0.1026857569	-0.0231690582	
547.5	0.05877852336	-0.1076578669	
548.125	-0.03850839522	-0.1413345153	
548.75	-0.1073424449	-0.1004384438	
549.375	-0.09702877174	-0.05861412538	
550.0	-0.06839341954	0.005216773381	
550.625	-0.04689217058	0.006801479444	
551.25	-0.06700577385	0.02497668135	
551.875	-0.06548504536	0.05861169448	
552.5	-0.03855695523	0.06711492875	
553.125	-0.01366807076	0.05445782915	
553.75	0.04072341195	0.04186998959	
554.375	0.08470821751	-0.001714796223	
555.0	0.08782616493	-0.06285939495	
555.625	0.07615489439	-0.09559543115	
556.25	0.0586799577	-0.1259005581	
556.875	-0.03330606794	-0.1431433734	
557.5	-0.09042339896	-0.09396887887	
558.125	-0.1060894205	-0.0352742818	
558.75	-0.1001110407	-0.001658181172	
559.375	-0.1009870352	0.02069715984	
560.0	-0.08880212351	0.0694507872	
560.625	-0.04820482494	0.101777163	
561.25	0.006483914967	0.09061407757	
561.875	0.02658793662	0.04040862836	
562.5	0.009165225288	0.0483950915	
563.125	0.06471711865	0.06569172775	
563.75	0.1269035885	0.002343228955	
564.375	0.1151679489	-0.08673685261	
565.0	0.06508648989	-0.1339551471	
565.625	-0.02927049508	-0.1408395998	
566.25	-0.1040009321	-0.09631348269	
566.875	-0.1244537419	-0.06830108309	
567.5	-0.1243935705	-0.09412197913	
568.125	-0.1281682227	-0.1364178115	
568.75	-0.199116687	-0.0673008875	
569.375	-0.2061088523	0.08673434368	
570.0	-0.1048579538	0.1782613136	
570.625	-0.04650174039	0.1541383396	
571.25	0.004250238252	0.1034807326	
571.875	0.05182194769	0.06567012526	
572.5	0.1110489107	-0.001237894887	
573.125	0.07777048709	-0.09892251891	
573.75	0.03660353082	-0.1000636171	
574.375	0.0101185806	-0.06153443152	
575.0	0.02505383105	-0.0334736902	
575.625	0.03424164945	-0.06442255001	
576.25	0.039509522	-0.09760804155	
576.875	-0.003754073299	-0.1273143098	
577.5	-0.003501544968	-0.141413321	
578.125	-0.04069108636	-0.1398826818	
578.75	-0.07653172321	-0.1081991377	
579.375	-0.07681405414	-0.05850976469	
580.0	-0.04690217488	-0.02755724271	
580.625	-0.06298535954	-0.02557087676	
581.25	-0.09145013738	0.06672464308	
581.875	0.005489114189	0.1389593283	
582.5	0.05070432223	0.1239599337	
583.125	0.06917522598	0.067387617	
583.75	0.03601481552	0.01963355643	
584.375	0.0311274387	0.05136824707	
585.0	0.09793657403	0.05228530239	
585.625	0.1382165877	-0.0004992366373	
586.25	0.1338598739	-0.05578868364	
586.875	0.06563355228	-0.1193382319	
587.5	-0.0104989649	-0.1248966557	
588.125	-0.01543504764	-0.1233714079	
588.75	0.02685840117	-0.1277462451	
589.375	0.05491623785	-0.1364253796	
590.0	-0.05052609488	-0.1547629827	
590.625	-0.1624561608	-0.03926592918	
591.25	-0.1152987603	0.09791735709	
591.875	-0.02978281283	0.1054149447	
592.5	0.007531138723	0.04361000098	
593.125	-0.02608098954	0.04480202091	
593.75	0.04810732457	0.1045547098	
594.375	0.1331942438	0.08652169795	
595.0	0.1507078997	0.08386823995	
595.625	0.1514554435	0.0655943657	
596.25	0.1402077297	0.03478988192	
596.875	0.1399017106	0.02977111739	
597.5	0.1304118073	0.06979773489	
598.125	0.1328714572	0.09815451499	
598.75	0.1574383127	0.07211457409	
599.375	0.1869246149	-0.03262372441	
600.0	0.1446329279	-0.1299557382	
600.625	0.1191718788	-0.1585407513	
601.25	0.05272041244	-0.169056228	
601.875	-0.07094581922	-0.1251434408	
602.5	-0.1145071214	-0.0139030683	
603.125	-0.09716994963	0.04219712059	
603.75	-0.09328341677	0.06416007064	
604.375	-0.08549956683	0.06758866101	
605.0	-0.06114948037	0.06859461102	
605.625	-0.06369482797	0.05482440293	
606.25	-0.1002137665	0.05701841601	
606.875	-0.1495928865	0.07777124677	
607.5	-0.1434064565	0.1578792977	
608.125	-0.02290592154	0.2209683019	
608.75	0.1624072411	0.1523163942	
609.375	0.2112282409	-0.0292768743	
610.0	0.1492846379	-0.1096685175	
610.625	0.07489374482	-0.1437405026	
611.25	0.003290694835	-0.1431509487	
611.875	-0.07762419884	-0.109857651	
612.5	-0.1465003427	-0.0552406919	
613.125	-0.1710266291	0.03305603338	
613.75	-0.07959386918	0.1311873168	
614.375	0.04200190979	0.09774737307	
615.0	0.03728160862	0.03795949515	
615.625	-0.0008337271797	0.07554751656	
616.25	-0.03462379969	0.1293692967	
616.875	-0.06989474618	0.16839575	
617.5	-0.05654013189	0.1985832213	
618.125	-0.01347368638	0.1901973001	
618.75	0.02387083922	0.1712559859	
619.375	0.08468019102	0.1454941544	
620.0	0.1707943276	0.04165750546	
620.625	0.1004803219	-0.140528663	
621.25	-0.07845415517	-0.1667922743	
621.875	-0.1835619333	-0.07720198963	
622.5	-0.1938405746	0.05449642304	
623.125	-0.03562770041	0.1672613728	
623.75	0.1182571487	0.03858218152	
624.375	0.0361929859	-0.04788112629	
625.0	0.03681662011	-0.02376847905	
625.625	0.04610789148	-0.08006750922	
626.25	-0.04383818686	-0.1232112399	
626.875	-0.1252596032	-0.07517703943	
627.5	-0.1314653713	-0.03668174825	
628.125	-0.102038502	-0.05959193089	
628.75	-0.06782700394	-0.1085578887	
629.375	-0.08510540089	-0.1341908293	
630.0	-0.1676082026	-0.08870176939	
630.625	-0.1998772463	0.05817055048	
631.25	-0.1295211223	0.17469519	
631.875	-0.0208390962	0.2237685935	
632.5	0.1300666579	0.1768294301	
633.125	0.1890354295	0.04936382333	
633.75	0.1522497751	-0.05991829269	
634.375	0.05882289846	-0.1226949096	
635.0	-0.01092822932	-0.1351589284	
635.625	-0.1300273854	-0.08334726351	
636.25	-0.1416945935	0.06409631053	
636.875	-0.05913544468	0.1146049618	
637.5	-0.03227744624	0.08236033882	
638.125	-0.05904397274	0.07957429511	
638.75	-0.06396150577	0.1489731219	
639.375	-0.0006671734708	0.2242756724	
640.0	0.125940012	0.2189292715	
640.625	0.2146606664	0.1337372159	
641.25	0.2481214232	-0.0003116346079	
641.875	0.1574822652	-0.1655581878	
642.5	-0.005881296098	-0.1934498138	
643.125	-0.1082009098	-0.1112353042	
643.75	-0.1197445696	-0.06852841048	
644.375	-0.1606678889	-0.002871963541	
645.0	-0.1336462461	0.1405076346	
645.625	0.05044899809	0.1937851946	
646.25	0.1500059889	0.06857988852	
646.875	0.08932757735	-0.01656253636	
647.5	0.04960016274	0.02960635474	
648.125	0.1423696659	0.04760985157	
648.75	0.2350140489	-0.06128994957	
649.375	0.1995613042	-0.2176554651	
650.0	0.1419243745	-0.2709917419	
650.625	0.1323155173	-0.2544823895	
651.25	0.1728646001	-0.211252151	
651.875	0.2243713584	-0.1507199249	
652.5	0.2480330145	-0.08900445563	
653.125	0.2422655939	-0.09734727918	
653.75	0.1799900879	-0.2015245113	
654.375	-0.04274848099	-0.2775739421	
655.0	-0.255172971	-0.09385192713	
655.625	-0.1627980488	0.1611508124	
656.25	0.02515734745	0.1562937989	
656.875	0.04504602361	0.06189463245	
657.5	0.03104311587	0.0925742065	
658.125	0.1266571305	0.1447290067	
658.75	0.262398081	0.07271651645	
659.375	0.2918333739	-0.1268604681	
660.0	0.2014686847	-0.2650415998	
660.625	0.1200006335	-0.2950445584	
661.25	0.1390566531	-0.2644561728	
661.875	0.1883778216	-0.2261337242	
662.5	0.2291595637	-0.1809219635	
663.125	0.2329888176	-0.1742160079	
663.75	0.1467440882	-0.2514482772	
664.375	-0.03115331344	-0.2961594818	
665.0	-0.2369315088	-0.1916284038	
665.625	-0.2840431512	0.07274361038	
666.25	-0.09524478524	0.2412069435	
666.875	0.1022691098	0.1875742118	
667.5	0.165336663	0.08638150367	
668.125	0.1963808094	-0.01089425745	
668.75	0.1727259152	-0.1260458133	
669.375	0.08729925669	-0.1991412922	
670.0	0.005853118287	-0.1984875047	
670.625	0.003222643633	-0.1709253447	
671.25	0.05062483068	-0.1580822487	
671.875	0.1191716915	-0.1523868664	
672.5	0.1794737354	-0.1338183696	
673.125	0.1856371689	-0.1544461712	
673.75	0.1429678631	-0.1949839144	
674.375	0.04945497098	-0.2327359596	
675.0	-0.07294124977	-0.2163068511	
675.625	-0.1673672362	-0.1198091911	
676.25	-0.1628441266	-0.02427934272	
676.875	-0.1309852075	0.006924981832	
677.5	-0.1363807606	0.020907888	
678.125	-0.1294897165	0.1229247872	
678.75	0.02494237109	0.2036081004	
679.375	0.1854043996	0.07210953132	
680.0	0.1344504357	-0.08100067306	
680.625	0.06117148473	-0.07208440069	
681.25	0.0806538698	-0.01126727934	
681.875	0.1349302808	0.04244019641	
682.5	0.1825397047	0.07857732367	
683.125	0.2163265714	0.06930358602	
683.75	0.2342234237	0.06125960619	
684.375	0.2484250465	0.04038306807	
685.0	0.2516414714	0.03814982388	
685.625	0.2591037398	0.00552306754	
686.25	0.2661784909	-0.03346381485	
686.875	0.2712151883	-0.1246013569	
687.5	0.2333781163	-0.2547959651	
688.125	-0.01160145387	-0.3914340502	
688.75	-0.3635818412	-0.1823183479	
689.375	-0.2664974951	0.2731186806	
690.0	0.08307162114	0.3194742166	
690.625	0.2082803212	0.2249728912	
691.25	0.2834507588	0.2391001358	
691.875	0.4059856246	0.2681422114	
692.5	0.5375844834	0.1813177817	
693.125	0.5885216141	-0.02525817105	
693.75	0.5226450935	-0.2215160423	
694.375	0.3835802016	-0.3536512032	
695.0	0.394531981	-0.2608258056	
695.625	0.4454432355	-0.08195426523	
696.25	0.4378149905	0.1439133209	
696.875	0.3472671512	0.3391201938	
697.5	0.3350054616	0.3937585388	
698.125	0.4917133124	0.2110808304	
698.75	0.4020436927	-0.3418657657	
699.375	-0.3232800029	-0.3549663955	
700.0	-0.258503447	0.2876508545	
700.625	0.1215152711	0.2643036116	
701.25	0.1980242613	0.1607401738	
701.875	0.2339984943	0.2022124441	
702.5	0.3087034799	0.2046520037	
703.125	0.3706678051	0.1004720977	
703.75	0.3419112316	-0.09155673358	
704.375	0.2430842474	-0.1731760752	
705.0	0.2099206386	-0.1257060485	
705.625	0.231656845	-0.0002940474205	
706.25	0.2247786367	0.1524240861	
706.875	0.2061952702	0.2555722542	
707.5	0.2354438686	0.297469116	
708.125	0.3855531997	0.1204624506	
708.75	0.2697407674	-0.2871998551	
709.375	-0.2184810122	-0.2588934378	
710.0	-0.1729141777	0.1737685174	
710.625	0.05313971243	0.1350560853	
711.25	0.07971469499	0.103044438	
711.875	0.1824868894	0.1026351912	
712.5	0.2711522953	-0.02085861924	
713.125	0.2312543442	-0.1532153759	
713.75	0.1169138556	-0.2205117036	
714.375	0.00899178716	-0.2101268152	
715.0	-0.02373377077	-0.1779696507	
715.625	0.01232686731	-0.1897027187	
716.25	0.1266427431	-0.2084947325	
716.875	0.2791409663	-0.159645346	
717.5	0.431316093	-0.03388227589	
718.125	0.5569466164	0.03932427843	
718.75	0.6411693219	-0.0898827797	
719.375	0.6264830827	-0.3508749015	
720.0	0.4214672682	-0.6651964353	
720.625	0.1844055963	-0.7864640383	
721.25	-0.03413812675	-0.8349874681	
721.875	-0.2014774766	-0.8496391262	
722.5	-0.5086603661	-0.6439626641	
723.125	-0.674912799	-0.1180970653	
723.75	-0.3500907111	0.3785690991	
724.375	0.03229319733	0.3963595531	
725.0	0.1545071583	0.3147814168	
725.625	0.1578888569	0.3812596111	
726.25	0.05979383453	0.5655751902	
726.875	-0.04532987097	0.7852873812	
727.5	-0.0909238582	1.119018013	
728.125	0.01553251192	1.575136196	
728.75	-0.0004277688165	2.303496772	
729.375	-0.6216684167	2.844594881	
730.0	-0.192134741	3.511466802	
730.625	0.03785431142	3.144630804	
731.25	-1.004310104	2.980215337	
731.875	-2.148627906	2.000069092	
732.5	-2.610046724	0.7057874075	
733.125	-1.983512158	0.3730782977	
733.75	-0.7225626908	1.076116306	
734.375	0.6873937135	0.4178231852	
735.0	0.01544256465	-0.520970713	
735.625	-0.4034800949	0.07448233121	
736.25	-0.06421319222	0.4441845413	
736.875	0.351429116	0.4712950234	
737.5	0.8626877648	0.1516588933	
738.125	1.18177287	-0.3557310219	
738.75	1.334431127	-0.9583068049	
739.375	1.660644208	-1.225720688	
740.0	2.323242394	-1.252512224	
740.625	2.237337023	-0.190686644	
741.25	0.8131970282	1.958275024	
741.875	-1.954665375	0.09246339197	
742.5	-1.172049751	-2.003841305	
743.125	0.04943050172	-1.618835745	
743.75	-0.06293120835	-0.8241962062	
744.375	-0.3332212229	-0.1021820909	
745.0	0.03062101897	0.1111798665	
745.625	0.03426097532	-0.003518963323	
746.25	-0.006724630787	-0.1013586539	
746.875	-0.1945951625	0.006650449134	
747.5	-0.08311560748	0.3012440187	
748.125	0.0890997924	0.4112761235	
748.75	0.2267575831	0.3627542741	
749.375	0.07471450936	0.3698576656	
750.0	-0.3302503819	0.2881773364	
