!Created with skrf (http://scikit-rf.org).
# GHz S RI R (50+0j) 
!freq	ReS11	ImS11	
500.0	-0.2770467875	-4.346210171	
500.625	-0.2269618827	-1.56871813	
501.25	-2.022820125	-2.184806397	
501.875	-0.9695091703	-0.2125953741	
502.5	-0.1515282459	-0.3149687855	
503.125	-0.2948630982	-0.02989575123	
503.75	0.3386000773	0.2304721229	
504.375	-0.005323299478	0.05241120825	
505.0	0.1048976582	-0.1674469443	
505.625	-0.02302260464	0.07157013039	
506.25	-0.3524529966	-0.4952033278	
506.875	0.6855818806	-0.158498536	
507.5	-1.078861191	-2.18185097	
508.125	-1.023982504	-0.4132738271	
508.75	2.681666901	-1.565143666	
509.375	-1.367390654	-5.186446613	
510.0	-1.554369231	0.06146967203	
510.625	-0.2208820414	-0.312709804	
511.25	-0.5433905601	-0.2155620349	
511.875	-0.2948622109	-0.01478650217	
512.5	-0.08984471655	0.1714044035	
513.125	-0.1215823783	-0.1919998447	
513.75	-0.1677265774	-0.1073893682	
514.375	-0.299557144	-0.2294942198	
515.0	-0.6431620338	1.164500945	
515.625	0.5949625153	-3.984443997	
516.25	-3.2286185	0.445268303	
516.875	0.9716454156	-0.8257104203	
517.5	-0.6420609995	-1.174191493	
518.125	0.2700373493	0.1860343454	
518.75	-0.7303957463	-0.8870878506	
519.375	-0.01076807755	0.09611611609	
520.0	0.2157995888	0.3356502408	
520.625	0.5231928075	-0.3685259167	
521.25	-0.2122615175	-0.4046400452	
521.875	-0.3977654132	-0.2621327424	
522.5	0.0008679851013	0.1877050831	
523.125	-0.3713060974	-0.003270006125	
523.75	-0.07295636652	0.1760643476	
524.375	-0.4858607767	-0.1659396057	
525.0	0.2780126309	0.4582883699	
525.625	-0.1388396937	0.06771954368	
526.25	0.2071730948	-0.08607725443	
526.875	-0.3509396445	0.2270478277	
527.5	0.2170355038	0.4667557626	
528.125	-0.2107015031	0.5070966051	
528.75	0.2032619793	1.018771063	
529.375	0.06595631248	-0.08686881187	
530.0	0.2986754089	0.7529395727	
530.625	0.1992572402	0.4342379021	
531.25	1.548006568	0.3902204536	
531.875	-0.09613333819	-0.4011575623	
532.5	0.1937818195	-0.7117903416	
533.125	-0.4058671653	0.5473870242	
533.75	0.4974309425	-1.161897395	
534.375	-0.6046436265	-0.09801662547	
535.0	-0.4237485947	-0.5966193931	
535.625	-0.3330100239	0.7590219495	
536.25	-0.08216634862	0.06731867168	
536.875	0.3682962234	0.1156075653	
537.5	0.08061791213	-0.1992165376	
538.125	0.2261704629	0.06423718225	
538.75	0.3776417302	-0.437546506	
539.375	-0.1652536953	-0.2919914422	
540.0	-0.3250594289	-0.3521594958	
540.625	-0.4566683726	0.01380366182	
541.25	-0.09279758589	-0.007861433668	
541.875	-0.2021554783	-0.0640529361	
542.5	-0.08117625506	-0.0330721677	
543.125	-0.1235263092	-0.1422460813	
543.75	-0.357799276	-0.01838970426	
544.375	0.144802425	0.1221834338	
545.0	-0.2356287414	0.2097490595	
545.625	0.3514196118	-0.02543910996	
546.25	-0.05777719939	0.2107197206	
546.875	0.5068081206	-0.2528967846	
547.5	0.001341260707	-0.06514378864	
548.125	0.06274624473	-0.5435226996	
548.75	-0.4984579823	-0.1612211758	
549.375	-0.08574238535	-0.06055255763	
550.0	-0.2933423713	-0.09333159086	
550.625	-0.03956693165	0.1419288958	
551.25	-0.2204557916	-0.04341699553	
551.875	-0.1316777454	0.2865844337	
552.5	-0.08618829981	0.09815232935	
553.125	-0.01701732612	0.2176298279	
553.75	0.09913707819	0.07382059554	
554.375	0.2309436431	0.006736696825	
555.0	0.2195405123	-0.1880035218	
555.625	0.1682963739	-0.2538520479	
556.25	0.1451612644	-0.325002388	
556.875	-0.09967119014	-0.3864598446	
557.5	-0.2479313547	-0.2206964939	
558.125	-0.2526193699	-0.07297222115	
558.75	-0.2622501809	-0.007856938801	
559.375	-0.228996492	0.09154279568	
560.0	-0.2171958467	0.1278660274	
560.625	-0.1308448667	0.3195196835	
561.25	0.09754714007	0.1722893912	
561.875	-0.02192607315	0.1135519586	
562.5	0.148157935	0.1344182859	
563.125	0.03784996535	0.1220250416	
563.75	0.4332818499	0.02291941195	
564.375	0.1204616576	-0.2733614866	
565.0	0.3035003514	-0.2724695507	
565.625	-0.2376829049	-0.3890159562	
566.25	-0.1227170868	-0.1538089336	
566.875	-0.3767288442	-0.2805728689	
567.5	-0.4462580915	-0.1236742115	
568.125	-0.1570068244	-0.2249265781	
568.75	-0.6282941926	-0.3683798127	
569.375	-0.4866697807	0.5414311713	
570.0	-0.1435150684	0.1607596009	
570.625	-0.3612981584	0.6932007674	
571.25	0.2819781635	0.02268804026	
571.875	-0.002967561308	0.471941431	
572.5	0.279366871	-0.4234511879	
573.125	0.2361750712	0.1532574112	
573.75	0.2795991641	-0.571407488	
574.375	-0.2773469095	-0.1497478046	
575.0	0.3043918883	0.09739919133	
575.625	-0.1087815695	-0.4207627943	
576.25	0.1225052638	0.09233707657	
576.875	0.05517102619	-0.5997919461	
577.5	-0.2796161008	-0.2906200031	
578.125	0.1429907014	-0.2168915186	
578.75	-0.2569373148	-0.5125821122	
579.375	-0.3593691074	0.0430578609	
580.0	0.1140850825	-0.07387553259	
580.625	-0.4346080036	-0.1006382816	
581.25	0.1003555445	0.1703500999	
581.875	-0.3419817306	0.2915307056	
582.5	0.4338824866	0.5681306202	
583.125	0.06188049302	-0.2220317838	
583.75	0.09327687721	0.4929932204	
584.375	0.05395412998	-0.3880029232	
585.0	0.1814506455	0.5686080351	
585.625	0.567171855	-0.2748211194	
586.25	0.02107594494	-0.1573826933	
586.875	0.4147620095	-0.2321266587	
587.5	-0.3233116603	-0.4136611912	
588.125	0.1494224718	-0.09508536562	
588.75	0.1281016923	-0.5996503697	
589.375	-0.1197423226	-0.1996876538	
590.0	0.1849950984	-0.52080779	
590.625	-0.6269781229	0.08040497501	
591.25	-0.1190776955	0.2438690382	
591.875	-0.1062615643	0.1073345936	
592.5	-0.1072341146	0.34114743	
593.125	0.04927035353	-0.1970742843	
593.75	0.1681915991	0.6193233151	
594.375	0.3598081123	-0.07524392353	
595.0	0.1302363656	0.4362627605	
595.625	0.7780307324	0.1627736827	
596.25	-0.04396178715	-0.03250573832	
596.875	0.5880291164	0.413128944	
597.5	0.538332965	-0.1717205252	
598.125	0.02191164734	0.2231086355	
598.75	0.5157013441	0.3492482987	
599.375	0.4007395184	-0.29694788	
600.0	0.3761081201	-0.1314549137	
600.625	0.3733604007	-0.6020295723	
601.25	-0.002623108047	-0.2498685801	
601.875	-0.07164069009	-0.4868592975	
602.5	-0.3637391186	0.1376322976	
603.125	-0.1717089597	-0.03146590062	
603.75	-0.2354152278	0.1886807894	
604.375	-0.3217816158	0.1333153038	
605.0	0.08892405779	0.3402486066	
605.625	-0.4074703934	-0.1872142678	
606.25	-0.1541069094	0.5383469056	
606.875	-0.1436838524	-0.1752046167	
607.5	-0.7318048135	0.8123189904	
608.125	0.2461133724	0.1986443621	
608.75	0.1798773296	0.671124917	
609.375	0.7271592287	-0.5343418319	
610.0	0.1243339702	0.09324441552	
610.625	0.3941295597	-0.6173346825	
611.25	-0.2078190309	-0.177431556	
611.875	-0.01834015462	-0.4947382059	
612.5	-0.4168403389	0.1951785964	
613.125	-0.3785236262	-0.1904240549	
613.75	-0.2548339736	0.5817610844	
614.375	0.05987304346	-0.130068317	
615.0	0.2665708265	0.4343088508	
615.625	-0.03977446718	-0.1607519461	
616.25	-0.3568705945	0.5312702779	
616.875	0.2266057206	0.4499939515	
617.5	-0.4570910548	0.287414023	
618.125	0.1152009977	0.7092161956	
618.75	0.0889958628	0.1805742119	
619.375	0.2073094071	0.5687910591	
620.0	0.3883820048	-0.09641098513	
620.625	0.3194033463	-0.2685720848	
621.25	-0.354517169	-0.3652992096	
621.875	-0.2910653298	-0.2519278144	
622.5	-0.6666158231	0.326225139	
623.125	0.04757710733	0.126167573	
623.75	0.3974380956	0.3641863965	
624.375	-0.1950510776	-0.2885280474	
625.0	0.4657199438	0.04352039566	
625.625	-0.3480828924	-0.1772404716	
626.25	0.2676859623	-0.3352845417	
626.875	-0.6606945846	-0.2656510188	
627.5	-0.1432058388	0.1813433241	
628.125	-0.08478231816	-0.3844154313	
628.75	-0.3966609158	-0.3165642172	
629.375	-0.1031835568	-0.1839747886	
630.0	-0.4257707151	-0.3635450293	
630.625	-0.4370073159	0.3946041969	
631.25	-0.3897201686	0.2331287482	
631.875	0.04459736644	0.7266546696	
632.5	0.3766629075	0.2234632374	
633.125	0.3803561767	0.1725144981	
633.75	0.4528245638	-0.1421374815	
634.375	-0.02091261195	-0.5308256484	
635.0	0.04007452256	-0.01287721098	
635.625	-0.447451843	-0.4971373472	
636.25	-0.215773882	0.5348756943	
636.875	-0.2231503613	-0.2213760577	
637.5	0.02245126001	0.6907695761	
638.125	-0.09415276003	-0.2333740995	
638.75	-0.3241983308	0.7852726087	
639.375	0.5042943906	0.1659587997	
640.0	-0.179783599	0.6833051467	
640.625	0.9076971238	0.4615692553	
641.25	0.5020402855	-0.4070317405	
641.875	0.1409423735	-0.1226060213	
642.5	0.205362932	-0.7833815854	
643.125	-0.4396023571	0.1697743417	
643.75	-0.1324232333	-0.4380250343	
644.375	-0.5274647584	0.3693777031	
645.0	-0.1241831156	-0.07287927584	
645.625	0.1138659931	0.8863108535	
646.25	0.5070520579	-0.1198601044	
646.875	-0.0278364103	-0.04956653153	
647.5	0.3617024842	0.4214386895	
648.125	0.283790626	-0.5209105042	
648.75	0.3851806455	0.576116038	
649.375	0.8477752534	-1.146911549	
650.0	-0.3632009305	-0.4439681056	
650.625	0.9814434334	-0.2759500043	
651.25	0.1190878774	-1.377832844	
651.875	0.09774007328	0.2214138898	
652.5	1.2692313	-0.2001194082	
653.125	0.1913237747	-0.8157599632	
653.75	0.2065824343	-0.05579689111	
654.375	-0.04804623249	-1.1465561	
655.0	-0.8295835925	0.2962607446	
655.625	-0.1095692447	0.03112530365	
656.25	-0.09160552366	0.7859001959	
656.875	0.3667237393	-0.3162690469	
657.5	-0.05412640063	0.5807266997	
658.125	0.5994619748	0.1754138213	
658.75	0.4376887562	-0.06303663691	
659.375	0.7377210792	0.06806125731	
660.0	0.5902895297	-1.238233418	
660.625	-0.1724754172	-0.4184292457	
661.25	0.7023016172	-0.4914007021	
661.875	0.436846045	-1.14122444	
662.5	0.04730415906	-0.02532287789	
663.125	1.118611706	-0.6079272227	
663.75	-0.242886252	-0.7917496251	
664.375	0.1623340239	-0.349577155	
665.0	-0.8100229904	-0.7217851837	
665.625	-0.5556390861	0.6505347091	
666.25	-0.249257154	0.3123091744	
666.875	0.4104168738	0.6890504981	
667.5	0.350474535	-0.1763811435	
668.125	0.6341775287	0.2848406049	
668.75	0.2633209803	-0.6524834936	
669.375	0.05122174481	-0.2561494681	
670.0	0.2383618589	-0.5358981541	
670.625	-0.09741683867	-0.646865238	
671.25	-0.2002028957	-0.2140296819	
671.875	0.582143158	-0.1598615777	
672.5	0.4601056728	-0.7244907392	
673.125	0.05526820738	-0.2657104836	
673.75	0.7610234345	-0.5943736697	
674.375	-0.4518505406	-0.5152636216	
675.0	0.1606534621	-0.3798848843	
675.625	-0.8066531522	-0.5409440018	
676.25	-0.3482143737	0.6169279307	
676.875	-0.1260390835	-0.4955017944	
677.5	-0.6779285299	0.4595505223	
678.125	0.0698337824	0.2398635041	
678.75	-0.1718202494	0.482125378	
679.375	0.9072690308	-0.0093320024	
680.0	-0.0661020137	-0.02470002021	
680.625	0.4585287206	-0.2278999659	
681.25	-0.0524512478	-0.3616513173	
681.875	0.184206847	0.5847899966	
682.5	0.8840279234	-0.03964327315	
683.125	0.3405116838	-0.0415857463	
683.75	0.3833214008	0.03521955271	
684.375	0.754678696	0.5280180672	
685.0	1.012491626	-0.7292477473	
685.625	-0.0826194613	0.5919742	
686.25	1.4389471	-0.574718685	
686.875	-0.2400569263	-0.3874110616	
687.5	1.38519562	-0.5866473342	
688.125	-1.38691642	-1.041007479	
688.75	-0.01277002761	-0.4639376061	
689.375	-1.179132798	1.257446972	
690.0	0.8565504071	0.3781848662	
690.625	0.08597022345	0.6088609396	
691.25	1.165430509	0.5913609238	
691.875	0.8194792907	0.3778635873	
692.5	1.365976023	0.5896280346	
693.125	1.555512577	-0.385876234	
693.75	1.102131077	-0.4016034561	
694.375	0.937867161	-1.108372925	
695.0	0.8385483346	-0.5787703007	
695.625	1.364628388	-0.5430552366	
696.25	0.6824756648	0.002873981521	
696.875	1.213814087	1.489669031	
697.5	1.449702149	-0.138417756	
698.125	0.920244247	0.8642530187	
698.75	0.8359991776	-2.036287626	
699.375	-0.5692004104	0.1961176624	
700.0	-1.237145575	1.03913652	
700.625	0.9628754759	0.2632100283	
701.25	-0.05603001577	0.6259003995	
701.875	1.318647877	0.4012931789	
702.5	0.272064974	0.3277510424	
703.125	1.275336304	0.5106587241	
703.75	0.5626281455	-0.7630909058	
704.375	0.8404954905	0.1535832894	
705.0	0.5690002153	-0.8992096627	
705.625	0.0555618656	0.1778688846	
706.25	1.320579383	0.7577072688	
706.875	0.2922390142	-0.1304382684	
707.5	0.595936122	1.229229901	
708.125	1.44002203	-0.5482067143	
708.75	0.299530073	-0.5028279582	
709.375	-0.8675274216	-0.7459388792	
710.0	-0.03989791351	0.7721585367	
710.625	0.09180103127	0.3260838714	
711.25	0.3491813448	0.1596648026	
711.875	0.4397917644	0.1516991919	
712.5	0.7628310101	-0.1025338206	
713.125	0.4777220707	-0.4322846274	
713.75	0.3114513333	-0.7699815945	
714.375	-0.2255581891	-0.2458712538	
715.0	0.4191792004	-0.761387693	
715.625	-0.6354438629	-0.5273362301	
716.25	0.5385601806	0.1469612328	
716.875	1.6065571	-0.993040966	
717.5	-0.2496641786	-0.8532647474	
718.125	2.556788203	1.123749002	
718.75	1.864543147	-2.230667074	
719.375	0.4250182176	0.576301775	
720.0	1.593717752	-4.535245657	
720.625	-1.538334685	-0.8631941532	
721.25	0.3506533051	-2.355967574	
721.875	-0.840187922	-3.151136671	
722.5	-2.544677982	-0.8474420185	
723.125	-1.227136891	-0.3440750475	
723.75	-0.9685960404	1.640772363	
724.375	0.4560579335	0.7595779918	
725.0	0.1931272238	0.8107485557	
725.625	0.6095137446	1.478591819	
726.25	0.7306070857	0.993946935	
726.875	-0.9285417124	1.608300263	
727.5	-0.3093327487	5.181725574	
728.125	4.088957838	3.938171838	
728.75	-4.336052548	1.425339706	
729.375	3.977699749	19.95956153	
730.0	6.394618549	1.124999799	
730.625	-15.54054164	14.94152087	
731.25	7.664836957	13.96082294	
731.875	-6.479612606	-1.49522509	
732.5	-11.83876901	5.879023729	
733.125	-4.498330321	5.270599524	
733.75	0.05753102605	1.600249062	
734.375	2.431468628	2.075114801	
735.0	-1.625427327	-1.407780283	
735.625	-0.5571390562	-0.04499881979	
736.25	-0.409806514	1.813154962	
736.875	1.806814519	0.09357345997	
737.5	2.09497458	1.818780997	
738.125	4.744961621	-2.630561666	
738.75	2.564842754	-5.213466927	
739.375	-0.3242284989	0.3635517664	
740.0	20.70022868	7.126333949	
740.625	-1.27896676	-22.42121301	
741.25	-13.0752591	0.4905054036	
741.875	-34.4349798	3.044897878	
742.5	8.320003846	7.527503573	
743.125	0.9541761338	-10.02921616	
743.75	-2.919566562	-1.406846163	
744.375	0.2807718269	-0.6053104353	
745.0	0.4411551022	1.017696386	
745.625	-0.2905365223	0.007451262081	
746.25	0.0818343009	-0.4999804735	
746.875	-0.5367730165	0.340644034	
747.5	0.214467027	0.5571143851	
748.125	-0.5463147562	1.408205857	
748.75	1.364660548	0.9894165278	
749.375	0.5010929759	0.7493846605	
750.0	-1.706608229	0.08731535851	
