!Created with skrf (http://scikit-rf.org).
# GHz S RI R (50+0j) 
!freq	ReS11	ImS11	
500.0	0.5314350255	-0.9381523236	
500.625	-0.1071574323	-0.9498263031	
501.25	-0.01451537025	-0.4665168934	
501.875	-0.3191813048	-0.5166364277	
502.5	-0.07240210196	-0.03915217568	
503.125	-0.05657031465	-0.02595829854	
503.75	0.05739565284	0.1091534069	
504.375	-0.006647559181	0.01022983394	
505.0	0.037719718	-0.04147211702	
505.625	-0.03446888729	-0.008297161511	
506.25	-0.0002260857148	-0.1285404451	
506.875	-0.09016936684	0.1911724074	
507.5	0.2274117401	-0.2740642859	
508.125	0.1386786974	-0.8471007446	
508.75	0.01517969131	-0.6748529455	
509.375	0.2842811086	-1.343170466	
510.0	-0.5716526537	-0.2350451348	
510.625	-0.04597422711	-0.0377098229	
511.25	-0.0779769674	-0.1026290393	
511.875	-0.1098244026	0.03497675872	
512.5	-0.01864298612	0.01769579829	
513.125	0.00726342854	-0.08994524824	
513.75	-0.06152240736	0.008876129932	
514.375	0.03619594482	-0.1026383291	
515.0	-0.2238633829	-0.02899381442	
515.625	0.5737271034	-0.3382477226	
516.25	-0.5739174992	-0.9741253478	
516.875	0.07821112224	-0.01977382468	
517.5	0.112084963	-0.1388941109	
518.125	-0.07712317636	0.001211431575	
518.75	0.04966822167	-0.1197130251	
519.375	-0.05846547332	0.04850208556	
520.0	0.09883872025	0.006173531402	
520.625	0.1181701725	-0.02710883016	
521.25	0.05054563795	-0.3032060616	
521.875	-0.1317463152	-0.04900305157	
522.5	-0.005535410087	-0.02834706063	
523.125	-0.1168197177	0.08873002395	
523.75	0.02640737877	0.01662041931	
524.375	-0.1987928313	-0.09405577079	
525.0	0.06038976202	0.2008544663	
525.625	-0.02511069971	-0.02789965662	
526.25	0.03960287572	0.04196868502	
526.875	-0.06334838952	-0.02012503353	
527.5	-0.05840290628	0.2530734966	
528.125	0.05246396563	0.1130436712	
528.75	-0.07711433457	0.1150209145	
529.375	0.07299150407	0.05763203658	
530.0	-0.05041489006	0.004184941048	
530.625	0.09749736089	0.3385196188	
531.25	0.412592072	0.1161950298	
531.875	0.1389622639	-0.02189641723	
532.5	-0.05636233834	-0.2060682689	
533.125	-0.1066777626	-0.009964483825	
533.75	0.1781752402	-0.2234507473	
534.375	-0.1750239349	-0.1622146048	
535.0	-0.1328377869	-0.112449266	
535.625	-0.2011989199	0.1112421506	
536.25	0.03330070807	0.06676982399	
536.875	0.06325429816	0.04536254232	
537.5	0.06955870242	-0.06830579937	
538.125	0.04439149057	-0.03158933046	
538.75	0.1633431778	-0.1014398433	
539.375	-0.1216131449	-0.1273959712	
540.0	-0.08426068611	-0.09800969759	
540.625	-0.1604633266	-0.05984066222	
541.25	-0.1012804908	0.01599504549	
541.875	0.00232401358	-0.04576421997	
542.5	-0.1061225024	-0.03445950555	
543.125	-0.04009615467	0.02428998421	
543.75	-0.07608393013	-0.0822233802	
544.375	0.005338673195	0.09854593233	
545.0	-0.03910819332	0.01963123091	
545.625	0.1079250705	0.09200217995	
546.25	0.036253388	0.001782560559	
546.875	0.1447663602	0.04852623509	
547.5	0.02432229427	-0.1506956285	
548.125	-0.01303340864	-0.08628929282	
548.75	-0.09664643326	-0.1581897943	
549.375	-0.1349117586	-0.02446587143	
550.0	-0.02493655405	-0.01556967789	
550.625	-0.08435027036	0.02592636473	
551.25	-0.03069975296	0.01043306545	
551.875	-0.09082741199	0.05122233287	
552.5	-0.01462855682	0.08200516576	
553.125	-0.01668844845	0.03626497929	
553.75	0.05148539705	0.04527606005	
554.375	0.0727249409	-0.01068437541	
555.0	0.09154878836	-0.05953807183	
555.625	0.07430476257	-0.1022689081	
556.25	0.05278861113	-0.1243610688	
556.875	-0.02892557126	-0.1401092737	
557.5	-0.09130289455	-0.09378421407	
558.125	-0.1070251133	-0.02931434086	
558.75	-0.09541782719	-0.001310965935	
559.375	-0.1081217469	0.01943726916	
560.0	-0.07841559141	0.08023453183	
560.625	-0.04821034574	0.08361600725	
561.25	0.003748988292	0.1107401404	
561.875	0.04076398391	0.005986029246	
562.5	-0.008517752908	0.07673917077	
563.125	0.08729419398	0.03034554202	
563.75	0.09739026814	0.02895333227	
564.375	0.1524992053	-0.1063106574	
565.0	0.01838159002	-0.1354545022	
565.625	0.01576395868	-0.1159536462	
566.25	-0.1507582562	-0.1136745915	
566.875	-0.08754438591	0.01027468161	
567.5	-0.1045523723	-0.1485919637	
568.125	-0.1815307405	-0.1091471968	
568.75	-0.1008813827	-0.05032950966	
569.375	-0.3096526237	0.06521272383	
570.0	-0.03918277866	0.2206129002	
570.625	-0.05444460869	0.08183493877	
571.25	-0.01909292956	0.1737692169	
571.875	0.04738767771	-0.03653563029	
572.5	0.1379903026	0.07844135549	
573.125	0.05713201513	-0.1755056402	
573.75	-0.01067793023	-0.002722643164	
574.375	0.09940420465	-0.1256755731	
575.0	-0.07249434962	-0.02747713362	
575.625	0.111587265	-0.04546119929	
576.25	0.005256552484	-0.1712341978	
576.875	-0.02693813306	-0.04448140818	
577.5	0.08540552803	-0.1507582113	
578.125	-0.1198989791	-0.2020348695	
578.75	-0.06414416645	-0.02486233815	
579.375	0.01369282634	-0.1607269992	
580.0	-0.148143993	0.005619372109	
580.625	0.02662847467	-0.06691045861	
581.25	-0.1773866046	0.1424089519	
581.875	0.1185493385	0.06419386991	
582.5	-0.04505044167	0.08460659945	
583.125	0.1292340106	0.1690216153	
583.75	-0.03399267321	-0.09748057956	
584.375	0.05232258634	0.1543874822	
585.0	0.1006937837	-0.06277321164	
585.625	0.06308365981	0.05264353891	
586.25	0.2340998758	-0.08132172722	
586.875	-0.02939365418	-0.1172108252	
587.5	0.0578791428	-0.08466172963	
588.125	-0.04105864472	-0.2028142406	
588.75	-0.03821829365	-0.0747848864	
589.375	0.1539398602	-0.1111739736	
590.0	-0.1423540105	-0.1952180143	
590.625	-0.07804630803	0.001607379613	
591.25	-0.2132730884	0.03581651074	
591.875	0.01816038825	0.1914749482	
592.5	-0.0826320568	-0.107554463	
593.125	0.02061520378	0.1403608081	
593.75	-0.04761789131	0.001292607672	
594.375	0.1380602244	0.1929702252	
595.0	0.2197362935	0.01353100373	
595.625	0.04547924441	0.0563721959	
596.25	0.2126247208	0.07796908667	
596.875	0.1543317555	-0.04976004517	
597.5	0.08021519539	0.1386482041	
598.125	0.2053582794	0.147074289	
598.75	0.133871665	0.001598933283	
599.375	0.1881127733	0.02158212215	
600.0	0.1938528256	-0.1805745878	
600.625	0.03903857314	-0.1738233808	
601.25	0.09283090383	-0.09801421098	
601.875	-0.1082926477	-0.1985594404	
602.5	-0.06690389853	0.0790338263	
603.125	-0.126587811	-0.04931502063	
603.75	-0.1124356987	0.1677470475	
604.375	-0.008749083383	-0.001600026659	
605.0	-0.1721677375	0.1184030227	
605.625	0.009904603947	0.1251292539	
606.25	-0.1011855989	-0.04788084814	
606.875	-0.1694221828	0.1690569583	
607.5	-0.07246574443	0.1155441422	
608.125	-0.1001494107	0.2011583171	
608.75	0.2305038593	0.1811407085	
609.375	0.1368380382	-0.08116305442	
610.0	0.1534753339	-0.1050744059	
610.625	0.06758841186	-0.2319265019	
611.25	-0.03334581116	-0.047745646	
611.875	-0.0333590264	-0.1708423291	
612.5	-0.2216336627	0.006903404015	
613.125	-0.02948115551	0.01436411486	
613.75	-0.1767469428	0.1375075628	
614.375	0.1504410671	0.09942406679	
615.0	-0.07610532175	0.007608334855	
615.625	0.128583482	0.08247181114	
616.25	-0.00674260848	0.02698474268	
616.875	-0.1767117877	0.1517729431	
617.5	-0.002129781594	0.3015681009	
618.125	-0.04175622419	0.2456394018	
618.75	-0.01750087352	0.2330855223	
619.375	0.1485353714	0.132536255	
620.0	0.1215946179	0.03395745174	
620.625	0.1559077661	-0.08085511881	
621.25	-0.1492793967	-0.1480015058	
621.875	-0.1188847101	-0.02348060727	
622.5	-0.2631753901	0.03160391033	
623.125	0.02090601156	0.2876746795	
623.75	0.04652941299	0.007911846982	
624.375	0.123675788	-0.06542919006	
625.0	-0.04043595751	0.004513045642	
625.625	0.1182466781	-0.07516306436	
626.25	-0.1182687078	-0.1338611012	
626.875	-0.0526373418	-0.03205758656	
627.5	-0.1589502525	-0.1063653731	
628.125	-0.1392603714	-0.01557082343	
628.75	-0.01355552566	-0.07916231893	
629.375	-0.1075941706	-0.2023733605	
630.0	-0.2000304123	-0.06721844261	
630.625	-0.1504786904	0.03893079833	
631.25	-0.1593376201	0.2005043232	
631.875	0.04738669721	0.2087082679	
632.5	0.07507327148	0.1206524436	
633.125	0.255669124	0.1184304474	
633.75	0.08426064164	-0.2042037037	
634.375	0.08603465243	-0.05406702416	
635.0	-0.04330106427	-0.2086116097	
635.625	-0.08920469991	0.01065801039	
636.25	-0.1841797185	-0.0459063141	
636.875	-0.03515279222	0.2004859452	
637.5	0.01523918584	0.008126139882	
638.125	-0.1491553897	0.1032145345	
638.75	0.04338321377	0.1745102163	
639.375	-0.07708178039	0.1360988946	
640.0	0.1543503039	0.3110695252	
640.625	0.2593520363	0.04674989348	
641.25	0.1594516511	0.06171471317	
641.875	0.2730182465	-0.1961180554	
642.5	-0.1169604437	-0.1483778113	
643.125	0.002469801867	-0.08267786948	
643.75	-0.2289835681	-0.1472954991	
644.375	-0.03428740051	0.09068891596	
645.0	-0.2392971591	0.05610009865	
645.625	0.1895059551	0.348854358	
646.25	0.08597523832	-0.0620947692	
646.875	0.1491802147	0.2187423901	
647.5	0.08786541275	-0.1613971762	
648.125	0.08629912944	0.2259439053	
648.75	0.3365912566	-0.1626079466	
649.375	0.02751556151	-0.1823459272	
650.0	0.2336236124	-0.1460009241	
650.625	0.1571630446	-0.4187638673	
651.25	-0.005396943717	-0.1677961141	
651.875	0.3287876326	-0.003918072052	
652.5	0.3229043032	-0.2215701681	
653.125	0.083454411	-0.09798075739	
653.75	0.3097853055	-0.1633371448	
654.375	-0.180332004	-0.3936978638	
655.0	-0.1585735165	0.01970918186	
655.625	-0.2739274934	0.06867100716	
656.25	0.1543439192	0.2706464529	
656.875	-0.07974811713	-0.1217806024	
657.5	0.09009218039	0.2112140628	
658.125	0.1681587785	-0.0156545749	
658.75	0.1134555321	0.2660800559	
659.375	0.4577263673	-0.2480205728	
660.0	-0.02171621911	-0.2176478515	
660.625	0.2155725753	-0.1896902691	
661.25	0.1825093804	-0.3905396259	
661.875	0.03912342664	-0.2412632967	
662.5	0.3187342042	-0.05619638115	
663.125	0.2630970222	-0.2939504058	
663.75	0.03151279919	-0.171015341	
664.375	0.07270686789	-0.3183040804	
665.0	-0.3668380372	-0.1829545679	
665.625	-0.1652996809	0.09899866023	
666.25	-0.1800462616	0.2205069807	
666.875	0.214805406	0.2485569205	
667.5	0.08128638825	-0.01046604452	
668.125	0.2767554282	0.06620827982	
668.75	0.1226753458	-0.2212379835	
669.375	0.06402049923	-0.04649467173	
670.0	0.1054512768	-0.2871345624	
670.625	-0.1241629879	-0.1750454917	
671.25	0.1777052942	-0.05281368995	
671.875	0.1220011431	-0.3011503551	
672.5	0.07394962495	-0.1468419208	
673.125	0.1956115976	-0.05024673617	
673.75	0.195766186	-0.3130821309	
674.375	-0.02956624326	-0.105791288	
675.0	0.01919534069	-0.2324950583	
675.625	-0.2609544453	-0.1556439626	
676.25	-0.09552938642	0.08932625303	
676.875	-0.1916600963	-0.1008337521	
677.5	-0.1617752483	0.1536064571	
678.125	-0.04645867464	0.03758005735	
678.75	-0.07795677654	0.2746545602	
679.375	0.3475921267	-0.02464757836	
680.0	-0.01071440182	-0.02073195853	
680.625	0.2217735314	-0.04228247954	
681.25	-0.03850601751	-0.1811944932	
681.875	0.001773410426	0.1820424473	
682.5	0.5173204264	-0.05602637851	
683.125	0.07243382419	-0.08965471125	
683.75	0.1572374569	0.1897167721	
684.375	0.4247420418	-0.07404645596	
685.0	0.0599501484	-0.09273802027	
685.625	0.3198566577	0.2086118994	
686.25	0.3114009068	-0.2047818513	
686.875	0.1913220552	-0.07961137974	
687.5	0.371852933	-0.2605381246	
688.125	-0.2209748788	-0.4844316334	
688.75	-0.194479081	-0.09723097796	
689.375	-0.3408835815	0.2691192629	
690.0	0.2554878128	0.3535300346	
690.625	0.07527687072	0.05048675091	
691.25	0.397997397	0.4206895866	
691.875	0.4536708438	0.05829145863	
692.5	0.3800059183	0.2330944458	
693.125	0.871105326	-0.04805425057	
693.75	0.3910115836	-0.4251980139	
694.375	0.3750536733	-0.1324062312	
695.0	0.420064924	-0.4973170963	
695.625	0.3494831159	-0.2395041885	
696.25	0.608272138	0.2359374117	
696.875	0.5662943289	0.3733325753	
697.5	0.3437866595	0.1306871799	
698.125	0.4622900241	0.2591363074	
698.75	0.3829793525	-0.2507152151	
699.375	-0.4198251869	-0.1727945757	
700.0	-0.1751746842	0.2287822855	
700.625	0.1897465237	0.3849960107	
701.25	0.2360852119	-0.02557887551	
701.875	0.1551329204	0.3067465502	
702.5	0.4916201217	0.2036489161	
703.125	0.2340610425	-0.004152594586	
703.75	0.4352227127	0.01785684268	
704.375	0.2843036332	-0.307910125	
705.0	0.06030146832	-0.1051353841	
705.625	0.3581225358	-0.01636043703	
706.25	0.2507485919	0.0300450181	
706.875	0.1371221251	0.2272350649	
707.5	0.2999276222	0.374127485	
708.125	0.4172001252	0.1186743254	
708.75	0.2128984476	-0.1946295923	
709.375	-0.1018896922	-0.2633246954	
710.0	-0.1358434266	0.2480516559	
710.625	-0.02237607646	0.04122815712	
711.25	0.1765265743	0.1939732474	
711.875	0.1076272531	-0.01979898884	
712.5	0.2676849527	0.08149421812	
713.125	0.3279280212	-0.2588645444	
713.75	0.008887266761	-0.2000415735	
714.375	0.1210540105	-0.1897606439	
715.0	-0.09295026887	-0.2677138326	
715.625	-0.01863906277	-0.07673885307	
716.25	0.2352041238	-0.184836645	
716.875	0.264055057	-0.3009611265	
717.5	0.2718565224	-0.04486549691	
718.125	0.6934301761	0.1379572595	
718.75	0.7004506388	-0.2603527494	
719.375	0.3598496834	-0.09297330159	
720.0	0.6450527346	-0.4668229411	
720.625	-0.1665171506	-0.8307638363	
721.25	0.09037139006	-0.4966356103	
721.875	-0.0959273959	-1.145256868	
722.5	-0.8552817722	-0.3175349822	
723.125	-0.4159562262	-0.2005612407	
723.75	-0.607751893	0.5784299866	
724.375	0.1866934928	0.3225012506	
725.0	-0.1050215027	0.2888452806	
725.625	0.2725518823	0.5894151291	
726.25	0.1948243647	0.3379381269	
726.875	-0.3168854156	0.7199556629	
727.5	-0.03885356292	1.497186027	
728.125	0.5822918015	1.25639925	
728.75	-0.6908105885	1.677012389	
729.375	-0.6369843838	4.152348712	
730.0	1.078035259	2.14033357	
730.625	-1.27253169	2.277530977	
731.25	-0.07888799603	4.548833836	
731.875	-0.7569043587	1.149267737	
732.5	-3.025828704	-0.184867373	
733.125	-2.525246769	1.052624276	
733.75	-0.08612899324	0.9486768335	
734.375	0.4185534946	0.8016427435	
735.0	-0.255566782	-0.7330199672	
735.625	0.07738116787	-0.04498634677	
736.25	-0.3288597741	0.5719856484	
736.875	0.6977679892	0.376189667	
737.5	0.331559253	0.1085503938	
738.125	2.023200325	-0.07630880117	
738.75	1.047850359	-1.957770723	
739.375	0.5420739519	-0.5322769999	
740.0	4.524799279	0.5959385822	
740.625	3.076173148	-3.525879776	
741.25	-2.881761051	-0.2650565494	
741.875	-3.980969994	1.560296198	
742.5	-1.480757584	-0.008041962402	
743.125	1.186369331	-1.235599933	
743.75	-0.2986109463	-1.394270622	
744.375	-0.3214764816	0.1901433563	
745.0	-0.1609448247	0.03289866924	
745.625	0.08097566825	-0.1424596672	
746.25	0.1191258227	-0.04938564328	
746.875	-0.2786997658	0.02400659388	
747.5	0.02191580543	0.2783043056	
748.125	0.04310087224	0.3177093243	
748.75	0.2526651347	0.4996207885	
749.375	0.227402047	0.294728141	
750.0	-0.3447952129	0.1257888139	
