!Created with skrf (http://scikit-rf.org).
# GHz S RI R (50+0j) 
!freq	ReS11	ImS11	
500.0	0.4382247151	-1.016904447	
500.625	-0.1995725654	-0.6390098817	
501.25	0.01731208877	-0.6730611695	
501.875	-0.3858745556	-0.5831521324	
502.5	-0.02859848214	-0.03938058352	
503.125	-0.07596206509	-0.0242614794	
503.75	0.06723301331	0.06120849179	
504.375	0.0193494621	0.03130689162	
505.0	0.01498864714	-0.05015452839	
505.625	0.003050438258	0.005181201784	
506.25	-0.101625523	-0.1340071391	
506.875	0.09000402403	0.1315220832	
507.5	0.134311688	-0.4792695596	
508.125	-0.1863700595	-0.7155542253	
508.75	0.1795033438	-0.3632989698	
509.375	-0.1745192709	-1.712483013	
510.0	-0.4346986016	-0.1426631497	
510.625	0.01365093116	-0.05782157703	
511.25	-0.1400469726	-0.07036376942	
511.875	-0.0716263486	0.009341690449	
512.5	-0.03844560927	0.02319576383	
513.125	-0.01214634138	-0.09636856955	
513.75	-0.0366712375	0.02705508845	
514.375	-0.02863541663	-0.09862938738	
515.0	-0.1913758998	0.2029303557	
515.625	0.2681563337	-0.8918929967	
516.25	-0.8135230766	-0.4041393909	
516.875	0.1547949139	-0.2055208993	
517.5	-0.03078513624	-0.2571951	
518.125	0.01419233122	0.03253363495	
518.75	-0.0351798159	-0.1670321889	
519.375	-0.04393275524	0.05454347392	
520.0	0.06520855938	0.007131248833	
520.625	0.1356642607	-0.05555627588	
521.25	-0.03789234782	-0.2218221481	
521.875	-0.1358140185	0.002077293334	
522.5	-0.02970257365	-0.02293007696	
523.125	-0.1070496382	0.09274412291	
523.75	0.01038736068	-0.0581915609	
524.375	-0.2949590721	-0.009395320669	
525.0	0.1164564772	0.1094099736	
525.625	-0.05511853187	0.01725680674	
526.25	0.069892471	-0.02854623111	
526.875	-0.1184076509	0.03710345993	
527.5	0.04913723621	0.24260551	
528.125	-0.005640757317	0.1249429836	
528.75	-0.003242175724	0.2536475193	
529.375	0.06397424951	0.009827648999	
530.0	-0.02909052126	0.1233335879	
530.625	0.1809288261	0.2899689522	
531.25	0.5928099168	0.05042723544	
531.875	0.1357722216	-0.1063206111	
532.5	-0.1086867821	-0.1691046293	
533.125	-0.01154850327	0.09378836718	
533.75	0.1493954455	-0.2863464072	
534.375	-0.1189215422	-0.1229197304	
535.0	-0.1643933405	-0.1457097428	
535.625	-0.1678519706	0.1676979824	
536.25	0.01741560914	0.04389458099	
536.875	0.09005028975	0.0455095178	
537.5	0.04588684292	-0.07485563945	
538.125	0.06841523057	0.01012406652	
538.75	0.1236814599	-0.1372576198	
539.375	-0.07300308991	-0.09491828323	
540.0	-0.09769700386	-0.151163898	
540.625	-0.188675665	-0.01033143468	
541.25	-0.1191471946	0.04142529968	
541.875	-0.01424223733	-0.02811941579	
542.5	-0.09532440568	-0.04943670617	
543.125	-0.02580793883	-0.02541542936	
543.75	-0.1524051532	-0.09147884279	
544.375	0.02700954893	0.06280863519	
545.0	-0.05959241113	0.0555151715	
545.625	0.1246809836	0.03260873468	
546.25	0.01741534711	0.03338921035	
546.875	0.1724638549	-0.02708737611	
547.5	0.0009636027263	-0.1078556322	
548.125	0.006846961719	-0.1200450679	
548.75	-0.1431849827	-0.152234858	
549.375	-0.1044241894	0.004033476164	
550.0	-0.06247236173	-0.03841343665	
550.625	-0.05350233521	0.04474486284	
551.25	-0.05244135595	0.002180561411	
551.875	-0.0808618168	0.07740433821	
552.5	-0.01343042026	0.05853559518	
553.125	-0.02456299287	0.05389469373	
553.75	0.05790311058	0.0358100122	
554.375	0.07463652652	-0.005065005372	
555.0	0.08926830808	-0.06622076537	
555.625	0.06451381395	-0.1047489023	
556.25	0.04757734884	-0.1215604001	
556.875	-0.03720696816	-0.1418935561	
557.5	-0.09827610469	-0.08511253739	
558.125	-0.1036282035	-0.02471013084	
558.75	-0.09633180387	-0.001570476368	
559.375	-0.1039270547	0.02855871404	
560.0	-0.07045548459	0.072295462	
560.625	-0.05777881981	0.08962677691	
561.25	0.02484685985	0.1118839096	
561.875	0.01705741863	0.01002555881	
562.5	0.02319317728	0.07972653775	
563.125	0.06015379437	0.02610401254	
563.75	0.1204198315	0.0347875536	
564.375	0.1229850592	-0.1265761388	
565.0	0.02718860541	-0.1095836418	
565.625	0.02472928496	-0.1506817783	
566.25	-0.175624981	-0.07768677923	
566.875	-0.05557590656	-0.03712609919	
567.5	-0.1441762255	-0.1671838029	
568.125	-0.1859080049	-0.05131804942	
568.75	-0.1287871463	-0.1103576046	
569.375	-0.2860450348	0.1725031499	
570.0	-0.001181984093	0.1557531788	
570.625	-0.135956534	0.1106866057	
571.25	0.05398808201	0.16932113	
571.875	-0.03463965193	0.001444766529	
572.5	0.1938618568	0.03045449036	
573.125	-0.01313554446	-0.1548427391	
573.75	0.06483061811	-0.001745612139	
574.375	0.02094149902	-0.1712165326	
575.0	-0.02471711476	0.0376973879	
575.625	0.09641893461	-0.1128829885	
576.25	-0.04132000154	-0.1213887294	
576.875	0.02296285973	-0.05665764041	
577.5	0.04682746443	-0.2097637312	
578.125	-0.1674973863	-0.1288023806	
578.75	-0.01058267215	-0.02620412174	
579.375	-0.08222770892	-0.1897515072	
580.0	-0.1209183468	0.1084704033	
580.625	-0.02749380586	-0.1660548529	
581.25	-0.09706174218	0.1971479699	
581.875	0.01238104057	-0.01768593068	
582.5	-0.04729994818	0.2052589707	
583.125	0.1800033926	0.07371213609	
583.75	-0.0746262579	-0.006285732939	
584.375	0.1430953425	0.09332380919	
585.0	0.04645355632	-0.03958100731	
585.625	0.1225936571	0.09554472142	
586.25	0.1868340816	-0.1380357829	
586.875	0.004380587451	-0.05167174076	
587.5	0.04806215013	-0.156119525	
588.125	-0.07958089837	-0.153721715	
588.75	0.01928170394	-0.04264607854	
589.375	0.127798104	-0.1964384241	
590.0	-0.1426841256	-0.115643389	
590.625	-0.06737962851	-0.05995957357	
591.25	-0.2388418411	0.1342395609	
591.875	0.1135476317	0.1258603968	
592.5	-0.115783571	0.002146124708	
593.125	0.09785624071	0.08289289234	
593.75	-0.07039293062	0.1179679973	
594.375	0.2568667939	0.1155463644	
595.0	0.1294954702	-0.03123145797	
595.625	0.09091915057	0.13402323	
596.25	0.2114375793	-0.01610116827	
596.875	0.0817405695	-0.03356832186	
597.5	0.1233128493	0.1461948649	
598.125	0.2163535416	0.062173133	
598.75	0.09151011235	0.03740743677	
599.375	0.2174915809	-0.0285576091	
600.0	0.1476985224	-0.1768456933	
600.625	0.05081856385	-0.120950676	
601.25	0.1289762113	-0.1493191793	
601.875	-0.1604372983	-0.1419710979	
602.5	-0.01925618247	0.02334635509	
603.125	-0.2086300056	-0.003333313244	
603.75	0.04339419486	0.1382109968	
604.375	-0.07218928167	-0.04643832554	
605.0	-0.06243758156	0.2360817034	
605.625	0.04200510046	-0.03389593762	
606.25	-0.2003471808	0.01809708561	
606.875	-0.1019453444	0.1731236485	
607.5	-0.1942481622	0.1050939327	
608.125	-0.03137143491	0.2606273141	
608.75	0.141783654	0.1129582432	
609.375	0.1213418555	-0.009924327234	
610.0	0.07977155378	-0.10804068	
610.625	0.04905214224	-0.1710258704	
611.25	0.02054657387	-0.06821493391	
611.875	-0.1074232665	-0.1875916134	
612.5	-0.1824896528	0.0537946286	
613.125	-0.1209309824	-0.06343613508	
613.75	-0.1474446871	0.2177255486	
614.375	0.1163314094	-0.02985214232	
615.0	-0.04950697178	0.1579353271	
615.625	0.1040655398	0.01191083685	
616.25	-0.1208836474	0.07170217009	
616.875	-0.02516635841	0.2404278241	
617.5	-0.0109271584	0.1092421675	
618.125	-0.08504924627	0.1655922665	
618.75	0.07470295581	0.1764518831	
619.375	0.08328341653	0.2203479686	
620.0	0.1437793045	-0.04180289047	
620.625	0.1233482545	-0.1614453098	
621.25	-0.1228429196	-0.1058591771	
621.875	-0.03966347161	-0.04620827161	
622.5	-0.2962575393	0.03028846628	
623.125	0.105949053	0.1732311469	
623.75	0.02778162619	0.0787805344	
624.375	0.08915812693	-0.1341199895	
625.0	0.008171445374	0.05184639169	
625.625	0.08960596889	-0.134702107	
626.25	-0.1102400847	-0.05953353868	
626.875	-0.04337955258	-0.113476926	
627.5	-0.2159267886	-0.04314233125	
628.125	-0.100266773	-0.02429459478	
628.75	-0.03949132119	-0.1413208266	
629.375	-0.1587361104	-0.1268238439	
630.0	-0.2016970982	-0.03964103457	
630.625	-0.1433964321	0.007642151483	
631.25	-0.161712521	0.201465534	
631.875	0.02539622328	0.1871146727	
632.5	0.0856069853	0.1829168258	
633.125	0.3350218324	0.03272088133	
633.75	0.052935613	-0.09233194727	
634.375	0.1494833045	-0.09722460333	
635.0	-0.1438484334	-0.1653691584	
635.625	-0.03566890555	-0.05568155614	
636.25	-0.2544346204	0.04326676544	
636.875	0.02891840767	0.1663065345	
637.5	-0.05485978492	0.008201051078	
638.125	-0.085606583	0.1822147091	
638.75	0.03541716204	0.06928968477	
639.375	-0.08755923236	0.2527264799	
640.0	0.236937186	0.2242613567	
640.625	0.1915911289	0.05146450965	
641.25	0.2209347477	0.05868246398	
641.875	0.1712424052	-0.2559270503	
642.5	-0.07736020945	-0.1310524842	
643.125	-0.03183620229	-0.1523960902	
643.75	-0.326807684	-0.03493133339	
644.375	0.03511626232	0.01793193371	
645.0	-0.2542844752	0.1507414181	
645.625	0.286376463	0.1698090052	
646.25	-0.06527150882	0.03404940772	
646.875	0.274091412	0.04364224566	
647.5	-0.1071899905	-0.09145104837	
648.125	0.283336185	0.1926806816	
648.75	0.1963285348	-0.2277670849	
649.375	0.08620667268	-0.1085426803	
650.0	0.3183310475	-0.2723360522	
650.625	-0.02069062113	-0.4003780629	
651.25	0.09660859738	-0.0507430281	
651.875	0.3836130364	-0.1758095481	
652.5	0.202986701	-0.2321044488	
653.125	0.1712493147	-0.01300573399	
653.75	0.2603754186	-0.2579948192	
654.375	-0.1999499725	-0.2367631452	
655.0	-0.1093044555	-0.06303797438	
655.625	-0.4048669974	0.1942633056	
656.25	0.2049969911	0.141596277	
656.875	-0.1908905002	0.05138103305	
657.5	0.2409723685	0.1602240047	
658.125	0.0010498877	-0.008639437517	
658.75	0.3547238806	0.2665347803	
659.375	0.2357698923	-0.3809198252	
660.0	0.1010037646	-0.1334707854	
660.625	0.2129139105	-0.3187327357	
661.25	0.04589383104	-0.4130025105	
661.875	0.07974963376	-0.08249163784	
662.5	0.3552827361	-0.2057384347	
663.125	0.1377286039	-0.2966123658	
663.75	0.1251255443	-0.1384502146	
664.375	-0.01296109161	-0.4035222739	
665.0	-0.3172924291	-0.06989464081	
665.625	-0.1794018441	0.01917339255	
666.25	-0.1610684351	0.2988166409	
666.875	0.2209112393	0.1398303432	
667.5	0.01337476575	0.09556053038	
668.125	0.3585404972	-0.05938330275	
668.75	0.01956117343	-0.1774543411	
669.375	0.2174212269	-0.08650306796	
670.0	-0.06781898312	-0.3815501201	
670.625	-0.06280437242	0.02459939006	
671.25	0.1754129598	-0.2053809478	
671.875	-0.006003211086	-0.2331578774	
672.5	0.09028669173	-0.06020031438	
673.125	0.2961802829	-0.1501818167	
673.75	0.02330785859	-0.2909810221	
674.375	0.05504301854	-0.1222370706	
675.0	-0.04773791992	-0.2968584959	
675.625	-0.2695019114	-0.01475671637	
676.25	-0.03318186863	-0.04626261533	
676.875	-0.2386104552	0.01173654461	
677.5	-0.07269170013	0.1168521326	
678.125	-0.1261037253	0.02518359036	
678.75	0.03340714257	0.3321227436	
679.375	0.1836977601	-0.1560538725	
680.0	0.07213972575	0.1141731325	
680.625	0.1981411579	-0.2025822199	
681.25	-0.2226402962	0.01972271977	
681.875	0.3235916386	0.2673700087	
682.5	0.1985878069	-0.2491468297	
683.125	0.02729670924	0.1631044416	
683.75	0.3806413954	0.1618515455	
684.375	0.2823894294	-0.1926005479	
685.0	0.1490164529	0.2438578219	
685.625	0.4070607067	-0.07687438293	
686.25	0.2080607426	-0.1697572436	
686.875	0.2119472392	-0.005956030658	
687.5	0.2383017802	-0.4566879107	
688.125	-0.1529338888	-0.2509435682	
688.75	-0.2768099758	-0.2186045583	
689.375	-0.3286609369	0.350960998	
690.0	0.2742181913	0.241028295	
690.625	0.0180763029	0.2603337955	
691.25	0.5387929566	0.2386457645	
691.875	0.1953945782	0.03596271026	
692.5	0.5325049734	0.4077196178	
693.125	0.6531506392	-0.4691423615	
693.75	0.2113619609	-0.08219672892	
694.375	0.5839934161	-0.3165277781	
695.0	0.2312050289	-0.4484868011	
695.625	0.3696141274	0.06443524088	
696.25	0.5558302425	0.2246649042	
696.875	0.3767961029	0.139747503	
697.5	0.3317834896	0.3606834071	
698.125	0.5134262893	0.2271041782	
698.75	0.3746345021	-0.4877304957	
699.375	-0.2431431993	-0.1834390315	
700.0	-0.2955690882	0.2459374908	
700.625	0.2758366621	0.3443323695	
701.25	0.08794631793	0.07104803105	
701.875	0.2757107001	0.3455847841	
702.5	0.4108760996	-0.05327660859	
703.125	0.2169197257	0.1667087201	
703.75	0.4501549996	-0.2039763604	
704.375	0.07380466966	-0.2900965469	
705.0	0.1803959839	0.06354227506	
705.625	0.3120838724	-0.1267763986	
706.25	0.1569481409	0.166982213	
706.875	0.2448840373	0.3294101005	
707.5	0.3474663565	0.2350074801	
708.125	0.4650707062	0.0972607238	
708.75	0.09124001903	-0.2923092621	
709.375	-0.2496057494	-0.2659155689	
710.0	-0.09844518832	0.3035882073	
710.625	-0.08538274728	-0.00417093007	
711.25	0.3074086973	0.1580305296	
711.875	0.0219922622	0.005426031806	
712.5	0.3653904568	0.02650774566	
713.125	0.1700474999	-0.3135408478	
713.75	0.07164842311	-0.09721179657	
714.375	0.04461576303	-0.2770663348	
715.0	-0.1284896433	-0.150828457	
715.625	0.06961397742	-0.1040524744	
716.25	0.1756763601	-0.352309687	
716.875	0.1915960511	-0.2189239179	
717.5	0.4316853171	0.06868951734	
718.125	0.6669707993	-0.08888120246	
718.75	0.7546398678	-0.3480571642	
719.375	0.5737908421	-0.3242724497	
720.0	1.120505589	-0.9586035369	
720.625	-0.3649156852	-0.8335417898	
721.25	0.4685276901	-0.559107476	
721.875	-0.5717683799	-1.311965206	
722.5	-0.5732355528	-0.02718616328	
723.125	-0.6811741384	-0.309117772	
723.75	-0.2345527438	0.7479633781	
724.375	0.1252998796	0.1579191742	
725.0	0.05022155498	0.5062283104	
725.625	0.4112531794	0.3186936163	
726.25	-0.04064932533	0.3759238492	
726.875	-0.1408497682	0.9283419569	
727.5	0.3428341517	1.334305966	
728.125	0.05088134353	0.8975813064	
728.75	-0.369904439	2.810103779	
729.375	0.7120311392	3.587463865	
730.0	-0.06567924224	2.035483369	
730.625	-1.651663472	3.703815176	
731.25	0.8570407202	3.817947588	
731.875	-0.9986217949	0.8938008909	
732.5	-3.305497967	0.6837378708	
733.125	-1.905548556	2.113515318	
733.75	-0.2017001877	0.1674779822	
734.375	1.369156033	0.9264938055	
735.0	-0.5295063981	-0.3534323118	
735.625	-0.2786529793	-0.1792388343	
736.25	0.0209155059	0.8454009527	
736.875	0.4380462055	-0.1233699591	
737.5	0.7322436373	0.6318778889	
738.125	1.675246357	-1.033879583	
738.75	0.5316562088	-1.333747662	
739.375	1.254779153	0.2050349808	
740.0	4.666130537	-1.932266627	
740.625	-0.5834372484	-2.822464938	
741.25	-2.426583564	2.943709386	
741.875	-2.453592689	3.339352032	
742.5	0.4378833364	-0.01104238778	
743.125	1.180768107	-2.265398439	
743.75	-0.5853125394	-1.044216713	
744.375	-0.1046804302	0.09558196111	
745.0	-0.08064433044	0.2825865165	
745.625	-0.1115253172	-0.1000246334	
746.25	0.05302107323	-0.1699205876	
746.875	-0.2377566559	0.05784316762	
747.5	0.02126780526	0.1445149937	
748.125	0.00923604101	0.4674767863	
748.75	0.4205992819	0.4202838684	
749.375	-0.01856676092	0.2305199101	
750.0	-0.386656936	0.1833511075	
