!Created with skrf (http://scikit-rf.org).
# GHz S RI R (50+0j) 
!freq	ReS11	ImS11	
500.0	-0.0836420936	-0.4054304163	
500.625	0.5638258418	-0.8340826021	
501.25	-0.8022037003	-0.2799195551	
501.875	0.01180234367	-0.1939349307	
502.5	-0.06685867844	-0.1771769589	
503.125	-0.02785035606	0.02776366658	
503.75	-0.04176236942	0.08366247334	
504.375	0.02364742169	-0.0400456116	
505.0	0.01906032462	0.01437064509	
505.625	-0.01001181848	-0.08078478162	
506.25	-0.006239200063	0.04895654727	
506.875	-0.3156780287	-0.1475226131	
507.5	-0.2472189529	0.05862746784	
508.125	0.4415198477	-0.4591510736	
508.75	0.4065772721	-1.126982996	
509.375	-0.1683990199	-0.5056835062	
510.0	-0.1956206679	-0.3692541512	
510.625	-0.1772035999	-0.1298953212	
511.25	-0.03711998323	-0.0133197472	
511.875	-0.1214476242	-0.05929627847	
512.5	-0.003615474326	0.05786505306	
513.125	0.002373408205	-0.0188476652	
513.75	-0.05507711489	-0.09525782724	
514.375	-0.01129154496	0.09603992887	
515.0	0.03387177089	-0.298517283	
515.625	-0.04127110928	0.2756348865	
516.25	0.2794508682	-0.6849244952	
516.875	-0.5069945784	-0.302389503	
517.5	-0.03525519564	0.004049510558	
518.125	-0.06284733861	-0.0610395824	
518.75	-0.0196098891	-0.01379095232	
519.375	-0.04862784388	0.005643048653	
520.0	0.1134102693	0.05880192659	
520.625	0.1084876116	-0.03484600661	
521.25	-0.01892056558	-0.1725733484	
521.875	-0.09452166963	-0.04220595072	
522.5	-0.03609534287	0.07095776315	
523.125	-0.0187903924	-0.07310280693	
523.75	-0.169326831	0.07137699764	
524.375	0.02207012502	0.003296847508	
525.0	-0.1863101973	0.1394709227	
525.625	0.1372787038	0.01223534087	
526.25	-0.06632469068	0.04741661726	
526.875	0.02503074968	0.02109102184	
527.5	-0.1200011922	0.102563431	
528.125	0.1380619107	0.2329939335	
528.75	0.03279937125	0.09021584441	
529.375	0.008774339906	0.07850610244	
530.0	0.09318889361	0.08784251581	
530.625	0.02907601137	0.196096954	
531.25	0.1205239364	0.1680569047	
531.875	0.1829886944	-0.2366069811	
532.5	0.03647310923	-0.0424598632	
533.125	0.04443323715	-0.1836109639	
533.75	0.03083549665	-0.004132830945	
534.375	-0.08698662631	-0.3336920743	
535.0	-0.2030775842	0.01142190123	
535.625	-0.1140813453	0.03771642753	
536.25	-0.002310837616	0.1132674098	
536.875	0.05220643566	-0.02895054689	
537.5	0.08654923264	-0.008556061146	
538.125	0.07529891156	-0.1157427278	
538.75	0.08592413647	-0.07621635546	
539.375	-0.07772215826	-0.1737118612	
540.0	-0.1795443351	-0.06985904662	
540.625	-0.09808282156	-0.03870641625	
541.25	-0.02967798929	-0.05568460204	
541.875	-0.0726541811	0.005925432895	
542.5	0.00492478695	-0.06469756151	
543.125	-0.1305891433	-0.02843893872	
543.75	0.03264352746	0.03302271912	
544.375	-0.1005235789	0.04498993159	
545.0	0.05544115424	0.02062486951	
545.625	-0.01673101325	0.1083668624	
546.25	0.1328900544	-0.006695675025	
546.875	0.03324265122	-0.01683268112	
547.5	0.105160887	-0.1194170881	
548.125	-0.1048046805	-0.1348727883	
548.75	-0.04554734937	-0.06626251742	
549.375	-0.1244005023	-0.09710379855	
550.0	-0.04849071203	0.04952894915	
550.625	-0.04651409397	-0.02515118261	
551.25	-0.06157899194	0.05828551084	
551.875	-0.04890729451	0.03818709601	
552.5	-0.04811973193	0.08063971604	
553.125	0.009998444348	0.05199461384	
553.75	0.03002801769	0.04385204878	
554.375	0.08890534655	-0.01423538099	
555.0	0.0752421348	-0.06411930179	
555.625	0.07827951697	-0.0971733471	
556.25	0.04711374305	-0.1318582141	
556.875	-0.04175966441	-0.1305925638	
557.5	-0.08879609085	-0.0843206859	
558.125	-0.1098954787	-0.02930909052	
558.75	-0.09791298699	0.00959730869	
559.375	-0.09230505953	0.01921900721	
560.0	-0.09308795622	0.07635678011	
560.625	-0.01762083953	0.1032856975	
561.25	-0.01338248686	0.07616687529	
561.875	0.05630398617	0.05280027016	
562.5	-0.01118849677	0.02543220265	
563.125	0.08714396614	0.08813634122	
563.75	0.1135804184	-0.0439505767	
564.375	0.1098171631	-0.05051402755	
565.0	0.06987843336	-0.1705398481	
565.625	-0.08492399144	-0.0897925694	
566.25	-0.05585854322	-0.1213172389	
566.875	-0.215424609	-0.04964771864	
567.5	-0.05121781855	-0.03315724254	
568.125	-0.1422399035	-0.2124906122	
568.75	-0.217329338	0.03638218514	
569.375	-0.1582876923	-0.004443538837	
570.0	-0.1655188596	0.2486028775	
570.625	0.05179103503	0.1449582387	
571.25	-0.06009255443	0.06022845933	
571.875	0.1610782814	0.0744727964	
572.5	0.003427921143	0.001181032036	
573.125	0.1718005884	-0.1168106057	
573.75	-0.05077570593	-0.1503015487	
574.375	0.06594417073	0.03685322777	
575.0	0.01648754977	-0.1222060442	
575.625	-0.0006630906614	0.009665480699	
576.25	0.114827665	-0.1123490745	
576.875	-0.07502204661	-0.1678940147	
577.5	-0.02069945498	-0.04717897536	
578.125	0.06748012654	-0.1953753884	
578.75	-0.1893456999	-0.1325187605	
579.375	0.0336119212	0.05256404912	
580.0	-0.09352847143	-0.1658993806	
580.625	-0.009328912532	0.1037535227	
581.25	-0.1622429202	-0.04051213052	
581.875	0.1126543086	0.2454941566	
582.5	0.07650107714	-0.003548689675	
583.125	-0.01783416761	0.1213500147	
583.75	0.1505307695	-0.01294845132	
584.375	-0.09640229027	0.07419446396	
585.0	0.2015471782	0.07539693984	
585.625	0.07671951239	-0.08394913007	
586.25	0.1397120724	0.03399285637	
586.875	0.05565844774	-0.2085740663	
587.5	-0.0447958523	-0.05190303016	
588.125	0.05193206189	-0.1347685597	
588.75	-0.01610781805	-0.1964742841	
589.375	0.001937221194	-0.03556671673	
590.0	-0.002425079953	-0.242362803	
590.625	-0.2101083547	0.06719722752	
591.25	-0.04455758126	-0.01744150989	
591.875	-0.1436822699	0.1677365406	
592.5	0.1534874038	-0.009128011871	
593.125	-0.1468863515	0.1209707405	
593.75	0.1156770349	-0.002034331018	
594.375	0.03339657934	0.1374436699	
595.0	0.2078069192	0.1458261606	
595.625	0.1649138481	-0.03458374913	
596.25	0.1091804967	0.1253551543	
596.875	0.2232770528	0.01576456438	
597.5	0.06540300051	0.01692723939	
598.125	0.09340086605	0.157302237	
598.75	0.2258882509	0.03841107893	
599.375	0.1351467548	-0.03400862637	
600.0	0.1741280824	-0.09320902057	
600.625	0.1416265768	-0.2148558058	
601.25	-0.04605757368	-0.1345985296	
601.875	0.02354354557	-0.1827175951	
602.5	-0.1903840553	0.06256365911	
603.125	0.004490437962	-0.005008246295	
603.75	-0.2536682886	0.08515493822	
604.375	0.01389337999	0.1647761184	
605.0	-0.1931682151	-0.006251567537	
605.625	-0.05665653322	0.1800494194	
606.25	-0.01147240122	0.00754536989	
606.875	-0.2180361346	0.04259941384	
607.5	-0.06847726839	0.1700532155	
608.125	-0.03742841428	0.1600810421	
608.75	0.2031309529	0.1326492483	
609.375	0.2346280073	-0.1005340916	
610.0	0.1563912851	-0.1556909736	
610.625	0.1037607881	-0.1465931603	
611.25	-0.08141740747	-0.1514479583	
611.875	-0.01451502974	-0.06860755107	
612.5	-0.2003334517	-0.1396564807	
613.125	-0.1213430714	0.1670404821	
613.75	-0.110484988	-0.001406137962	
614.375	0.1168591305	0.2007075581	
615.0	0.02419316316	-0.09038810507	
615.625	-0.005555199543	0.2048192923	
616.25	0.0847145007	0.06368033124	
616.875	-0.1228302486	0.1673997633	
617.5	-0.01569257201	0.2728335765	
618.125	0.04108187395	0.1738906803	
618.75	0.01475868269	0.1916377801	
619.375	0.02272084226	0.100307537	
620.0	0.2569229039	0.02174411357	
620.625	0.07446148067	-0.1121217067	
621.25	-0.08638635485	-0.2246491574	
621.875	-0.2850973779	0.0463062389	
622.5	-0.1190476756	-0.02401461885	
623.125	-0.08432141463	0.267432734	
623.75	0.1317573638	-0.06515875353	
624.375	0.05866707642	0.04687498518	
625.0	-0.01632445766	-0.1048664461	
625.625	0.05956939716	-0.01235823729	
626.25	-0.06407767979	-0.1932466564	
626.875	-0.1517708608	0.02472339	
627.5	-0.06078857696	-0.1018773547	
628.125	-0.1250754913	-0.06217113182	
628.75	-0.05645535495	-0.07080178645	
629.375	-0.06300816212	-0.1681728011	
630.0	-0.1852089425	-0.1380994433	
630.625	-0.1753984875	0.154282611	
631.25	-0.1072912867	0.117519235	
631.875	3.587604844e-06	0.2593176115	
632.5	0.1720769791	0.1040025791	
633.125	0.09316015478	0.1355290385	
633.75	0.226499424	-0.1559923449	
634.375	-0.02639334578	-0.04154857689	
635.0	0.06893458042	-0.2219300771	
635.625	-0.1863699886	0.001173229659	
636.25	-0.04044987752	0.03198683436	
636.875	-0.1506470151	0.1435382333	
637.5	0.07069225722	0.09835268487	
638.125	-0.1315897346	0.01371838259	
638.75	-0.02922013508	0.2468037885	
639.375	0.04066359998	0.1134554145	
640.0	0.08277815179	0.2695520869	
640.625	0.2929606874	0.1450378989	
641.25	0.1953824331	-0.07937332503	
641.875	0.1840339692	-0.09512189666	
642.5	-0.06177114086	-0.2605668253	
643.125	-0.1134574144	-0.007550429872	
643.75	-0.0544408586	-0.2486932951	
644.375	-0.2553435349	0.1732503662	
645.0	-0.0348828291	0.002005192481	
645.625	-0.02210372751	0.4467963652	
646.25	0.2482603487	-0.1369767021	
646.875	-0.04451395108	0.1281985149	
647.5	0.1923182577	-0.04488410027	
648.125	-0.06689278202	0.02205248567	
648.75	0.37315981	-0.003065912052	
649.375	0.06365936865	-0.3963119919	
650.0	0.06411234166	-0.1059092662	
650.625	0.2828357354	-0.2968079817	
651.25	0.03016408731	-0.3476241422	
651.875	0.1179627947	-0.003671665683	
652.5	0.369692979	-0.08782498467	
653.125	0.1666245156	-0.2115872856	
653.75	0.1270755099	-0.09010783401	
654.375	-0.04155852931	-0.4187318077	
655.0	-0.3178344757	0.08167003153	
655.625	-0.05205694084	-0.0353711988	
656.25	-0.05615608195	0.3114697602	
656.875	0.1898761016	-0.2189398493	
657.5	-0.08650857864	0.2925967999	
658.125	0.2998080056	0.04734593742	
658.75	0.0634282826	0.04770484405	
659.375	0.4589300982	-0.04527635748	
660.0	0.06651267424	-0.4316604118	
660.625	0.07061214873	-0.1384592277	
661.25	0.2409080282	-0.3177743214	
661.875	0.09706797699	-0.3614007312	
662.5	0.1255035634	-0.05764331732	
663.125	0.3490927295	-0.2246332596	
663.75	-0.008569228883	-0.2911473893	
664.375	0.0278705869	-0.2179996852	
665.0	-0.2801420465	-0.2577027874	
665.625	-0.2429210425	0.2332627308	
666.25	-0.0841384055	0.1140362767	
666.875	0.1316693781	0.2916484924	
667.5	0.1973405756	-0.07565290535	
668.125	0.1322836556	0.1596893119	
668.75	0.240544658	-0.2791198852	
669.375	-0.06056252349	-0.05717852424	
670.0	0.1446074265	-0.193549422	
670.625	-0.1262592848	-0.2909179369	
671.25	0.002889217394	0.0027834045	
671.875	0.2478768165	-0.2625381809	
672.5	0.08703641759	-0.2146236759	
673.125	0.1214022164	-0.09391474919	
673.75	0.2498631827	-0.2186369494	
674.375	-0.1258061625	-0.2391103941	
675.0	0.02729732099	-0.1434996824	
675.625	-0.2329236775	-0.1862633623	
676.25	-0.16458732	0.09152128818	
676.875	-0.04789487065	-0.06495783284	
677.5	-0.2494313659	0.06452275001	
678.125	0.01411007818	0.1568680783	
678.75	-0.08721764315	0.1368714701	
679.375	0.3975477429	0.1281729915	
680.0	-0.09537194823	-0.2033866174	
680.625	0.1674754001	0.1103446041	
681.25	0.0638664911	-0.2925081555	
681.875	-0.1122490575	0.1298252433	
682.5	0.5038687471	0.2005670115	
683.125	0.1515052794	-0.2374310045	
683.75	0.1200974674	0.206154033	
684.375	0.3698470123	0.05208386316	
685.0	0.1886342406	-0.1465435953	
685.625	0.1627025662	0.1871600788	
686.25	0.441772436	-0.1393801949	
686.875	0.1243565451	-0.1464167835	
687.5	0.2794355967	-0.2157141583	
688.125	-0.1245086131	-0.5009792278	
688.75	-0.3211671836	0.0213100493	
689.375	-0.262792433	0.1750215543	
690.0	0.1757537239	0.45915856	
690.625	0.2219870367	-0.01749991444	
691.25	0.181407864	0.4657253377	
691.875	0.6735593052	-0.02466105063	
692.5	0.2747022761	0.1114547134	
693.125	0.8916427235	0.02981639071	
693.75	0.4072759967	-0.5488676564	
694.375	0.1892927154	-0.1292512729	
695.0	0.5517569019	-0.4632068681	
695.625	0.2787635148	-0.1774321279	
696.25	0.3904691945	0.1422103682	
696.875	0.4715871431	0.3530030044	
697.5	0.4319589543	0.2192970125	
698.125	0.4108525562	0.1933118618	
698.75	0.365752802	-0.3380906407	
699.375	-0.4894971888	-0.2417924518	
700.0	-0.0856910969	0.2439854998	
700.625	0.02100530012	0.3619707704	
701.25	0.2900224147	-0.006745380998	
701.875	0.08923283781	0.2050037915	
702.5	0.5091764429	0.2907363722	
703.125	0.3038610287	-0.141529634	
703.75	0.4311298673	0.01603192263	
704.375	0.2982124346	-0.3251578653	
705.0	0.02153297512	-0.1788345517	
705.625	0.3433202254	0.05340177745	
706.25	0.1815180792	0.08151170772	
706.875	0.1337742145	0.2488313305	
707.5	0.3127859401	0.3194962638	
708.125	0.3585388946	0.2182986546	
708.75	0.1730576029	-0.4430420714	
709.375	-0.1885496804	-0.2424963004	
710.0	-0.2677168902	0.2236703581	
710.625	0.1538702931	-0.043002957	
711.25	0.02419477966	0.2586175293	
711.875	0.288693034	-0.1031002924	
712.5	0.1799879469	0.0789446303	
713.125	0.3229116593	-0.2296730896	
713.75	-0.01930662732	-0.2698061986	
714.375	0.06086382218	-0.148512554	
715.0	-0.06414824589	-0.2660968866	
715.625	-0.07825770771	-0.1096906718	
716.25	0.2170731412	-0.1363351389	
716.875	0.3149469821	-0.2476142958	
717.5	0.258119657	-0.05410788513	
718.125	0.59516876	0.02209907938	
718.75	0.8417808961	0.03973062517	
719.375	0.480274978	-0.4311188858	
720.0	0.4984727336	0.04358273479	
720.625	0.1199601066	-1.38187131	
721.25	-0.2948390326	0.003652976147	
721.875	0.08750838068	-1.184710327	
722.5	-1.019556523	-0.5567511622	
723.125	-0.2774488149	0.05690789358	
723.75	-0.6906035147	0.4717015708	
724.375	0.3110982147	0.3726875666	
725.0	0.00160117795	0.2052124075	
725.625	0.2105075227	0.5620238075	
726.25	0.3131912818	0.4357136856	
726.875	-0.1897238997	0.5830818685	
727.5	-0.1564237293	1.483281001	
728.125	0.7157900688	1.457518389	
728.75	-0.598993841	1.593168065	
729.375	-1.312718274	3.563052446	
730.0	0.9427506321	2.755992891	
730.625	0.1148813257	1.151016737	
731.25	-1.855903512	4.243845239	
731.875	0.01117391544	3.383887948	
732.5	-2.018614731	-0.1473060405	
733.125	-3.065653419	1.170544497	
733.75	0.3367791426	1.289769792	
734.375	0.01865550728	0.7207303482	
735.0	-0.2580537045	-1.088365301	
735.625	0.02933974689	0.1512439587	
736.25	-0.3475462383	0.5810729907	
736.875	0.7399310399	0.3949710377	
737.5	0.3970125949	-0.1495404987	
738.125	1.692462398	0.3877204281	
738.75	1.483100569	-2.088777051	
739.375	0.2060483274	-1.235027182	
740.0	3.372130973	1.079960212	
740.625	5.315551318	-2.768699415	
741.25	-1.430531012	-1.249541427	
741.875	-4.859852862	-0.4177986654	
742.5	-2.779689759	-0.8815716266	
743.125	0.7953308112	-0.4211253673	
743.75	0.03766517658	-1.35299187	
744.375	-0.4568989102	0.2298167449	
745.0	-0.1246996381	-0.02476789162	
745.625	0.1181174974	-0.1644019325	
746.25	0.05669376895	-0.01117519377	
746.875	-0.3150067444	-0.06892788097	
747.5	0.020545415	0.2970778581	
748.125	0.0514479486	0.2698403939	
748.75	0.2536929092	0.5409701258	
749.375	0.2811330866	0.3276970538	
750.0	-0.1012244611	0.2417167997	
