!Created with skrf (http://scikit-rf.org).
# GHz S RI R (50+0j) 
!freq	ReS11	ImS11	
500.0	-0.2166605464	-0.6475955804	
500.625	0.8550305746	-0.878012246	
501.25	-0.8475948547	-0.8425107926	
501.875	-0.04153370108	-0.267663584	
502.5	-0.04282261836	-0.2168622289	
503.125	-0.04311630916	0.05745629065	
503.75	-0.04165183473	0.05602790939	
504.375	0.05202306695	-0.01961104271	
505.0	0.0006664165625	0.007866092085	
505.625	0.01456785157	-0.1146228737	
506.25	-0.1078308313	0.02130042479	
506.875	-0.1204594796	-0.2482087509	
507.5	-0.4625777653	-0.2969403842	
508.125	0.5982604837	-0.4341711061	
508.75	1.011074242	-1.336427666	
509.375	-0.4251441303	-1.106677705	
510.0	-0.02291175296	-0.3452460131	
510.625	-0.1906021355	-0.2345848709	
511.25	-0.0752433088	0.04040358089	
511.875	-0.1256310453	-0.08413624995	
512.5	-0.02637285217	0.07861973628	
513.125	-0.01342695688	-0.004221556192	
513.75	-0.03459394313	-0.1125241995	
514.375	-0.1161210383	0.1081146434	
515.0	0.2915367303	-0.2214842211	
515.625	-0.4707399138	-0.3011292843	
516.25	0.3069919593	-0.3191434996	
516.875	-0.4709137779	-0.7527317243	
517.5	-0.1889377336	-0.09393103642	
518.125	0.03179023235	-0.08817945776	
518.75	-0.1781769948	-0.1353166524	
519.375	-0.04209944921	0.0006684903095	
520.0	0.1210386434	0.0712293535	
520.625	0.1808755862	-0.114523552	
521.25	-0.05257726844	-0.1350548156	
521.875	-0.1166379553	-0.07263467399	
522.5	-0.0850429663	0.08112778792	
523.125	-0.02087456458	-0.1089962933	
523.75	-0.2320114834	0.01598686955	
524.375	-0.01640192372	0.09849292966	
525.0	-0.1888969931	0.05937591465	
525.625	0.1199289695	0.1227602954	
526.25	-0.1003637584	-0.05410159841	
526.875	0.006074155299	0.1009760903	
527.5	-0.1268693193	0.1080873613	
528.125	-0.03038284624	0.3930513744	
528.75	0.1907590721	0.231571224	
529.375	-0.04790069719	0.04603849508	
530.0	-0.1053092106	0.08331986497	
530.625	0.03479658601	0.1469248399	
531.25	0.3222177726	0.2109658181	
531.875	0.2089596418	-0.3551537907	
532.5	-0.1763213107	0.040616627	
533.125	0.05687576888	-0.2129102657	
533.75	0.08390990491	-0.01001038453	
534.375	-0.01455688125	-0.4237403952	
535.0	-0.313054394	-0.04775197201	
535.625	-0.1368217076	0.03266253203	
536.25	-0.02503817283	0.1314046174	
536.875	0.09208018218	-0.02749754588	
537.5	0.07295258674	0.003846556813	
538.125	0.1580475689	-0.1180516501	
538.75	0.06389417692	-0.08412306653	
539.375	-0.01360284952	-0.2133060682	
540.0	-0.1908569414	-0.1653700132	
540.625	-0.09680914747	2.045803167e-05	
541.25	-0.07924740273	-0.04040739752	
541.875	-0.06751883539	0.05109646596	
542.5	0.04256450864	-0.02514748327	
543.125	-0.1458706046	-0.05187707475	
543.75	-0.01727157356	0.03037285829	
544.375	-0.1164672408	0.02647634042	
545.0	0.0643649629	0.08046089127	
545.625	-0.01447006199	0.08174864833	
546.25	0.1652949174	0.04372006137	
546.875	0.0523726648	-0.05747114278	
547.5	0.1394175537	-0.08457468009	
548.125	-0.09352606692	-0.2025648504	
548.75	-0.08387368449	-0.06416006259	
549.375	-0.1044156218	-0.1307073444	
550.0	-0.104447694	0.05000884713	
550.625	-0.03183081979	-0.03799818345	
551.25	-0.1050623166	0.06280777961	
551.875	-0.0451168366	0.04734558231	
552.5	-0.07423399136	0.05939424156	
553.125	0.001211909475	0.0673642071	
553.75	0.03358353871	0.05918017639	
554.375	0.1108976722	0.001160940999	
555.0	0.09335610989	-0.07493948328	
555.625	0.09893492537	-0.1058439619	
556.25	0.07492799696	-0.1507665135	
556.875	-0.03668538771	-0.1667422078	
557.5	-0.09501008404	-0.1113584634	
558.125	-0.122305458	-0.05210943863	
558.75	-0.1185656991	-0.002329100759	
559.375	-0.1096338667	0.01508590899	
560.0	-0.1195120544	0.07327023122	
560.625	-0.04142657027	0.1264740356	
561.25	-0.00794298255	0.0814312581	
561.875	0.03957204704	0.08178597878	
562.5	0.003911915501	0.01836823587	
563.125	0.07257045509	0.1197708207	
563.75	0.1487363872	-0.03737707471	
564.375	0.1189056305	-0.04894106926	
565.0	0.1393013696	-0.1792843626	
565.625	-0.07119892303	-0.1371192503	
566.25	-0.06402860362	-0.138301123	
566.875	-0.2205953211	-0.1332076407	
567.5	-0.1068098625	-0.05850728349	
568.125	-0.08632470818	-0.2714883027	
568.75	-0.2979280123	-0.04448427582	
569.375	-0.1665471289	0.0561438479	
570.0	-0.2166244037	0.2059423928	
570.625	0.02493556378	0.2317081223	
571.25	-0.04224270645	0.04188075977	
571.875	0.1258750446	0.1510701417	
572.5	0.05180090044	-0.04106167382	
573.125	0.216696126	-0.05459388578	
573.75	0.01880728996	-0.2134692006	
574.375	-0.02255164074	0.04039095015	
575.0	0.1088087609	-0.1103182917	
575.625	-0.04511911759	-0.03429140305	
576.25	0.1370957228	-0.07892571498	
576.875	-0.05391785985	-0.2297434942	
577.5	-0.06995234208	-0.0822901967	
578.125	0.05185193259	-0.1798808308	
578.75	-0.1748708882	-0.2026627547	
579.375	-0.05724180587	0.08930661904	
580.0	-0.02410100047	-0.1323647153	
580.625	-0.1054839409	0.1491429021	
581.25	-0.0775039795	-0.05599084083	
581.875	-0.02870021542	0.2812989267	
582.5	0.152854797	0.09630202673	
583.125	-0.06558063746	0.08129417574	
583.75	0.1392163343	0.08944004017	
584.375	-0.04798939813	-0.01737317956	
585.0	0.1814694789	0.1610081763	
585.625	0.1273857256	-0.1199613887	
586.25	0.09134598535	0.01667369684	
586.875	0.1633318743	-0.1947922317	
587.5	-0.1025751651	-0.1121811324	
588.125	0.07060058798	-0.1122276642	
588.75	0.03948673505	-0.2449524474	
589.375	-0.01656675305	-0.1030120365	
590.0	0.06838868392	-0.2227372094	
590.625	-0.3172272156	0.01835058201	
591.25	-0.04018978478	0.0738645027	
591.875	-0.1404616851	0.1064316859	
592.5	0.1510739146	0.1011384437	
593.125	-0.2102474477	0.03588474274	
593.75	0.1745768478	0.1379149687	
594.375	0.08202601287	0.03956129058	
595.0	0.1610058773	0.1985264311	
595.625	0.2462467895	-0.0009417219038	
596.25	0.05428216653	0.03176138585	
596.875	0.2311558877	0.1122814294	
597.5	0.14858486	0.003725167662	
598.125	0.08846606734	0.1583517461	
598.75	0.2570438539	0.1461679978	
599.375	0.1645299717	-0.1039751397	
600.0	0.1854227112	-0.06174990894	
600.625	0.1914486842	-0.204449042	
601.25	-0.02756381902	-0.2030422787	
601.875	0.02109048029	-0.1324116244	
602.5	-0.2482618516	-0.01463141396	
603.125	0.006971535227	0.05514099618	
603.75	-0.2082104892	-0.01053075978	
604.375	-0.1203790063	0.2004439752	
605.0	-0.05402165535	-0.05625043698	
605.625	-0.1827985045	0.08300972923	
606.25	-0.004983572092	-0.04389597158	
606.875	-0.1952146693	-0.02195121781	
607.5	-0.2485893301	0.2915400846	
608.125	0.06455869023	0.183003246	
608.75	0.1240297641	0.2349446198	
609.375	0.3369526425	-0.05429466995	
610.0	0.1318623539	-0.1478514466	
610.625	0.1937581943	-0.08507410019	
611.25	0.0781649425	-0.2461437552	
611.875	-0.03542496304	-0.03482250647	
612.5	-0.1982791123	-0.1911031792	
613.125	-0.2422013705	0.1623163102	
613.75	-0.038362265	0.01041674201	
614.375	-0.002962618494	0.2288266816	
615.0	0.12751751	-0.04938098774	
615.625	-0.1216974637	0.1626922487	
616.25	0.05093625364	0.247492848	
616.875	-0.09732094675	0.113928235	
617.5	-0.1933801618	0.2243554244	
618.125	0.03649549504	0.266998641	
618.75	0.02403030179	0.1585761157	
619.375	0.04229356557	0.2309912553	
620.0	0.2476206767	-0.04755547125	
620.625	0.08401521422	-0.08980837908	
621.25	0.0216209879	-0.2151322906	
621.875	-0.2627687283	-0.002227323684	
622.5	-0.1479925883	-0.02570435203	
623.125	-0.1612655475	0.2228921837	
623.75	0.2049684495	-0.02111493962	
624.375	0.006283738753	0.04395776692	
625.0	0.07093497245	-0.1245742009	
625.625	0.01625832418	-0.01119081127	
626.25	0.001340348104	-0.218683405	
626.875	-0.205243819	-0.06757788144	
627.5	-0.05497436133	-0.0269751576	
628.125	-0.1570123306	-0.1636446667	
628.75	-0.1337926364	-0.05785806206	
629.375	-0.07787738122	-0.1238756159	
630.0	-0.2582680368	-0.1535587941	
630.625	-0.175374311	0.1254796463	
631.25	-0.1869403493	0.1249201417	
631.875	-0.176219781	0.3340018072	
632.5	0.1908101322	0.1634308011	
633.125	0.1409078988	0.1193522062	
633.75	0.297130949	-0.06096654012	
634.375	-0.0770565662	-0.1378788263	
635.0	0.1012824268	-0.1714931984	
635.625	-0.2389647033	-0.09768025603	
636.25	-0.06729508122	0.07684395384	
636.875	-0.1836312311	0.104156692	
637.5	0.02683860424	0.2030501515	
638.125	-0.08872781704	-0.01515251467	
638.75	-0.1211246384	0.2649922294	
639.375	0.1044477736	0.216528989	
640.0	0.02825253907	0.2251584132	
640.625	0.327446126	0.2391041801	
641.25	0.2501256481	-0.1021680915	
641.875	0.1844863689	-0.06653481383	
642.5	0.1850153784	-0.3599913106	
643.125	-0.1592984396	-0.01543791423	
643.75	-0.07105852613	-0.2035864713	
644.375	-0.2826927792	0.08734099737	
645.0	0.1070845681	0.09399799529	
645.625	-0.105949699	0.3020158763	
646.25	0.2997984421	0.01166446014	
646.875	-0.1110283133	-0.01459198697	
647.5	0.2322556297	0.1136808782	
648.125	0.04668223833	-0.06115177252	
648.75	0.3292076013	0.1238447841	
649.375	0.2961759491	-0.4589986447	
650.0	0.01796788179	-0.2149318482	
650.625	0.3357690284	-0.1658068649	
651.25	0.2477479909	-0.4307011467	
651.875	0.06534764043	-0.1024333217	
652.5	0.4152841853	0.03424249827	
653.125	0.3579344063	-0.2534589543	
653.75	0.09776907553	-0.1132131322	
654.375	0.1353351209	-0.4121169674	
655.0	-0.4857093037	-0.04554796711	
655.625	-0.04858393265	0.08626249767	
656.25	-0.151787827	0.2258138231	
656.875	0.3089076199	0.04423319574	
657.5	-0.1298589157	0.1488618369	
658.125	0.3817776917	0.2258508857	
658.75	0.2066849104	-0.03418405656	
659.375	0.3687705658	0.02643252443	
660.0	0.3213933355	-0.4931321002	
660.625	-0.01627363544	-0.1966806086	
661.25	0.3068445269	-0.2270436463	
661.875	0.2669742286	-0.3789163739	
662.5	0.1273958869	-0.1909124763	
663.125	0.4493908515	-0.06107216869	
663.75	0.1462835663	-0.4222801022	
664.375	-0.01982837893	-0.2238030085	
665.0	-0.2260678189	-0.3490595663	
665.625	-0.3889994696	0.1852744637	
666.25	-0.07398423694	0.161704668	
666.875	0.01386641501	0.3366443271	
667.5	0.2944303608	0.03362690342	
668.125	0.08714763249	0.07056382222	
668.75	0.3549388752	-0.1542755072	
669.375	-0.07033070862	-0.2539416836	
670.0	0.09194638333	-0.1372217979	
670.625	0.03625880044	-0.3838394953	
671.25	-0.08870525417	-0.131575847	
671.875	0.2852642901	-0.08936479968	
672.5	0.2446233391	-0.2635230592	
673.125	0.1406714613	-0.104276193	
673.75	0.2586624544	-0.130289577	
674.375	0.01356237168	-0.4325633869	
675.0	-0.06033079767	-0.09865951981	
675.625	-0.1581605794	-0.280499704	
676.25	-0.298205862	0.007602007142	
676.875	-0.02690571738	0.01704383539	
677.5	-0.2867717852	-0.08849082819	
678.125	-0.07825896709	0.2642761268	
678.75	-0.04999756582	0.09647210524	
679.375	0.2588267347	0.2601010991	
680.0	0.1381157668	-0.2622732614	
680.625	0.04022856061	0.2152985261	
681.25	0.2478168904	-0.09461282578	
681.875	0.03448651543	-0.06339017198	
682.5	0.2384440326	0.4254756372	
683.125	0.4759017814	0.01096298363	
683.75	-0.03089511425	0.2091906299	
684.375	0.3424022524	0.2229355562	
685.0	0.4511332895	-0.02823689757	
685.625	0.07328457722	-0.05148879173	
686.25	0.5154141468	0.03280163213	
686.875	0.2465196135	-0.3191212803	
687.5	0.2416569799	-0.1104840977	
688.125	0.1644772913	-0.5879869801	
688.75	-0.4922173178	-0.1078316984	
689.375	-0.2551883226	0.07456372974	
690.0	0.01920964546	0.5699961733	
690.625	0.3537310632	0.1155996346	
691.25	0.02466176751	0.3942458355	
691.875	0.747047359	0.4234676692	
692.5	0.5026926044	0.02826011642	
693.125	0.6960696352	0.2892986967	
693.75	0.818651869	-0.2793425011	
694.375	0.230427204	-0.04549360253	
695.0	0.6093480308	-0.03243300081	
695.625	0.6854654522	-0.2109413171	
696.25	0.4042183493	0.1513440983	
696.875	0.3046163339	0.540186852	
697.5	0.2628708233	0.436067193	
698.125	0.3779535945	0.1866725206	
698.75	0.5165496322	-0.2820185884	
699.375	-0.3553307045	-0.5975425659	
700.0	-0.1273353211	0.3260621322	
700.625	-0.1244311713	0.4062838299	
701.25	0.414457548	0.1567760446	
701.875	0.1000046971	0.1483878279	
702.5	0.3616339618	0.4306297065	
703.125	0.5479200748	-0.002987236671	
703.75	0.2640822939	0.03480471293	
704.375	0.4544413361	-0.1633797262	
705.0	0.122062151	-0.128066756	
705.625	0.1299630261	0.1264786159	
706.25	0.4002967523	0.3309581083	
706.875	0.2812006568	0.128884367	
707.5	0.2996302946	0.369051351	
708.125	0.5612042411	0.2437770067	
708.75	0.1753470021	-0.4227869704	
709.375	-0.08210360638	-0.2765392428	
710.0	-0.367994853	0.1569052209	
710.625	0.2792605236	0.1126012816	
711.25	-0.026308318	0.2395557003	
711.875	0.3608301846	0.05360344061	
712.5	0.1100816022	-0.032163993	
713.125	0.4017425311	-0.09459308695	
713.75	0.110751486	-0.3525979535	
714.375	-0.004427968574	-0.1221168621	
715.0	0.08535371972	-0.2894193785	
715.625	-0.05719919054	-0.2741262421	
716.25	0.1785857112	-0.08492429842	
716.875	0.5327525958	-0.2062656019	
717.5	0.4455647479	-0.2320934122	
718.125	0.5460069548	0.1845948331	
718.75	1.094454972	-0.07148386022	
719.375	0.5560786704	-0.5539153316	
720.0	0.5177907403	-0.330322743	
720.625	0.302223233	-1.479370674	
721.25	-0.159886147	-0.5951125095	
721.875	0.2176053589	-1.172673578	
722.5	-0.8120170573	-1.00998747	
723.125	-0.6635101172	0.2595628612	
723.75	-0.6326380515	0.1552458153	
724.375	0.1310889824	0.6466132996	
725.0	0.08511166126	0.1263885313	
725.625	0.009051202098	0.6259590491	
726.25	0.2330438018	0.8222921643	
726.875	-0.09613218308	0.5682853524	
727.5	-0.6272407987	1.537526504	
728.125	0.3054685109	2.332211481	
728.75	0.1171673842	1.682284653	
729.375	-2.449231005	3.871176998	
730.0	0.735840111	5.029390741	
730.625	0.5418741481	2.23125739	
731.25	-2.903808419	4.27919335	
731.875	-2.315603106	5.155088705	
732.5	-2.064442589	-0.2527462787	
733.125	-3.369184695	0.05058368034	
733.75	-0.5975114151	1.592715652	
734.375	0.3253984819	0.443378108	
735.0	0.3445051302	-0.9651095063	
735.625	-0.2683992894	0.5153662294	
736.25	-0.4288932282	0.2898692173	
736.875	0.6041136535	0.8569852599	
737.5	1.004416538	-0.2373687929	
738.125	0.9475309117	0.5552914504	
738.75	2.860767338	-1.461039595	
739.375	0.8155106305	-2.538129433	
740.0	1.807575774	1.076507431	
740.625	6.754846363	0.243110764	
741.25	1.27661257	-2.089821015	
741.875	-4.563248809	-3.154043193	
742.5	-3.41904732	-1.686813154	
743.125	0.3740489224	-0.5986765639	
743.75	0.8054178848	-1.380957273	
744.375	-0.8422158264	-5.28214771e-05	
745.0	0.03785471635	-0.05414247644	
745.625	0.1724038376	0.004981228024	
746.25	-0.04823731445	-0.03884878677	
746.875	-0.2795329107	-0.1466321566	
747.5	-0.07782017577	0.4328848123	
748.125	0.1287020566	0.3741759006	
748.75	0.09594180607	0.52572633	
749.375	0.197028648	0.6022578137	
750.0	-0.3030422286	0.1136671264	
