!Created with skrf (http://scikit-rf.org).
# GHz S MA R 50.0 
!freq magS11 angS11
500.0 0.0169186406606 166.818319165
500.625 0.00872158019171 106.165930044
501.25 0.0109321010327 -47.0820594781
501.875 0.0526758710298 -176.832608681
502.5 0.0205737139507 156.619669493
503.125 0.0124822000869 47.108294424
503.75 0.0202792686414 120.285304393
504.375 0.00467241216002 118.02029477
505.0 0.0167151855145 -69.6434670652
505.625 0.0335149368525 -77.59111748
506.25 0.0456500381139 -105.779102539
506.875 0.0546189355887 -116.682437909
507.5 0.0407328154969 -137.783823063
508.125 0.0678560332781 -86.0303798762
508.75 0.0505979791891 -165.669174138
509.375 0.0461787616853 -170.75393745
510.0 0.0292826499633 -133.653582156
510.625 0.0527662945942 -160.879769339
511.25 0.0403586059512 162.3511967
511.875 0.0482046926371 137.766042329
512.5 0.0394524677736 96.2257127757
513.125 0.0631796629263 51.4506769747
513.75 0.051705958686 6.59606577138
514.375 0.0462911619354 24.423214424
515.0 0.0487081765453 3.53228838727
515.625 0.0947847392532 47.9977512412
516.25 0.0784034554 24.7588401593
516.875 0.0993030748069 68.1853538889
517.5 0.113350158983 15.3683499416
518.125 0.216835574447 71.2152694957
518.75 0.0824601885867 6.80324779093
519.375 0.0736109467549 15.9766598799
520.0 0.103520699282 -3.91088908429
520.625 0.107372945595 -6.39738770544
521.25 0.0853594728188 -26.4636989078
521.875 0.0632703974877 -2.67770333785
522.5 0.0937318910293 -34.9043398471
523.125 0.195783139156 -35.2568385086
523.75 0.200995834731 -68.7270297835
524.375 0.198224790434 -61.3153593964
525.0 0.0722585676462 -48.6782056428
525.625 0.0377022108418 -63.733824763
526.25 0.0419407365002 -18.8977318019
526.875 0.0514400463521 -33.0337817272
527.5 0.0538183012625 -32.1273193702
528.125 0.0377509765001 -66.8421496684
528.75 0.0624491796013 -78.6265784778
529.375 0.0902254102263 -115.749769917
530.0 0.0624549658744 -135.043329987
530.625 0.0155811876107 -130.946427137
531.25 0.0920823903629 -133.290787236
531.875 0.156680637077 -153.626515418
532.5 0.15888648352 -174.735905681
533.125 0.0932593867638 171.018899948
533.75 0.108789442184 163.926135442
534.375 0.113102129276 172.664141281
535.0 0.0885697526235 158.770267121
535.625 0.0690094087426 173.079862304
536.25 0.0555293245169 156.409971404
536.875 0.0675850056994 -163.913929072
537.5 0.107057208248 -150.73226243
538.125 0.0827546906901 -176.733420334
538.75 0.0996254821105 175.511747559
539.375 0.0716506584804 -174.578170723
540.0 0.0983970242693 -162.033892566
540.625 0.096043994754 -157.521108327
541.25 0.111819414494 -145.838461973
541.875 0.0930107232725 -147.023837188
542.5 0.115283130749 -148.797415711
543.125 0.115566943832 -168.905351011
543.75 0.124418341547 155.965917403
544.375 0.0992023696795 131.112093884
545.0 0.0887669211865 87.3261634371
545.625 0.105578575539 77.734158337
546.25 0.0902080986203 61.4936087714
546.875 0.0879173004862 51.222711845
547.5 0.118635282534 53.7667625355
548.125 0.0936161154364 70.7737127493
548.75 0.0839833700886 84.8618036057
549.375 0.0950665849971 78.970603335
550.0 0.0944981187235 120.614362642
550.625 0.0500517775028 145.670490894
551.25 0.0349674921025 -146.727582443
551.875 0.0603752248986 -169.274777185
552.5 0.116036624304 -172.762016463
553.125 0.0828330672564 -167.648367217
553.75 0.0868708730941 -171.346093869
554.375 0.112043651048 160.489464573
555.0 0.130221566479 158.301610522
555.625 0.103229981631 152.672605952
556.25 0.090507809573 162.55062881
556.875 0.11209206987 163.337759094
557.5 0.108024006732 161.706444093
558.125 0.108309729374 158.884252197
558.75 0.0830509296373 174.699463125
559.375 0.071701199001 178.104999577
560.0 0.048385859885 -159.271078489
560.625 0.0583508490991 -149.921664123
561.25 0.0858033841722 -153.82484467
561.875 0.105689862344 -167.521906305
562.5 0.0943433779926 169.409464535
563.125 0.103983511867 142.397389812
563.75 0.12843642238 127.43190238
564.375 0.107321233061 116.188472245
565.0 0.093226499997 114.186604459
565.625 0.0862443198636 111.140785522
566.25 0.0935009059253 146.655404869
566.875 0.0745366715162 176.099438474
567.5 0.071880677131 178.283300609
568.125 0.0889610144931 -179.898281225
568.75 0.0557073818833 -145.992043241
569.375 0.0464658038597 -113.101983307
570.0 0.0553454528436 -109.617265844
570.625 0.0923271978509 -126.023430897
571.25 0.0865829399169 -122.639503383
571.875 0.0848693605071 -126.683673654
572.5 0.108619725332 -158.637147043
573.125 0.146421333134 177.958793586
573.75 0.0939687835893 163.123036228
574.375 0.080533373501 146.811958684
575.0 0.105959563708 148.198512649
575.625 0.114334468527 147.58968998
576.25 0.090988959899 142.923906627
576.875 0.0814036320136 121.31029303
577.5 0.08578405121 129.991957362
578.125 0.064754270066 151.040262194
578.75 0.0474688272371 160.87875355
579.375 0.0543928446721 158.793385993
580.0 0.0647975535617 179.521359908
580.625 0.0763896137556 -163.63082585
581.25 0.0891864278713 -159.724073201
581.875 0.112555398536 -178.112854785
582.5 0.113315611278 -176.684041395
583.125 0.0980030935747 -176.972215488
583.75 0.0797163965029 -166.838170988
584.375 0.102244135391 -159.818788554
585.0 0.0989549579672 -151.496529355
585.625 0.0774596397374 -158.26844034
586.25 0.067139946421 -130.441377647
586.875 0.0819169685774 -135.072063186
587.5 0.0699371255579 -142.734818089
588.125 0.0612159624665 173.779783129
588.75 0.0654827533996 -158.806232413
589.375 0.0811836182288 -155.51162884
590.0 0.0894195384392 -176.167642312
590.625 0.103157296168 159.046758289
591.25 0.120642530275 151.029418528
591.875 0.0967222346741 154.471215967
592.5 0.06682856575 140.69659749
593.125 0.0630329052576 141.882990403
593.75 0.0642210613422 171.619792737
594.375 0.0611947634344 -153.588670552
595.0 0.0403191968574 -123.426575333
595.625 0.0574880262705 -108.887604562
596.25 0.0710216955325 -92.8268372891
596.875 0.068747850237 -74.7922639055
597.5 0.0593724610819 -68.7764468597
598.125 0.0574807080178 -72.0005581708
598.75 0.0890812092534 -56.7599859357
599.375 0.0906862613529 -65.0236410818
600.0 0.102295713874 -64.5435630215
600.625 0.0977261410248 -78.9320899405
601.25 0.0835669014902 -72.9587281037
601.875 0.0718137594146 -87.5128847767
602.5 0.0640612781168 -95.3491231255
603.125 0.0481946318271 -67.7243347523
603.75 0.0287671328526 -62.3729522476
604.375 0.0517081178185 -16.905240851
605.0 0.0697346603451 -15.7759202206
605.625 0.0547924556824 -3.32043333246
606.25 0.0207352154691 -32.7763291833
606.875 0.05446717699 50.0863192916
607.5 0.06656648595 39.9024923969
608.125 0.0745838867986 26.6519529258
608.75 0.0523512155666 10.1490528467
609.375 0.0785236086972 33.0613892882
610.0 0.0810221533761 43.7399696174
610.625 0.0735810006609 41.4954173598
611.25 0.0430070004487 9.64949569164
611.875 0.0555357830427 71.0492908771
612.5 0.0273093527552 87.8015051551
613.125 0.0176313621987 120.537012999
613.75 0.0361415799374 119.153504568
614.375 0.0317911772923 110.219392237
615.0 0.0384935873129 113.07558526
615.625 0.0263116881096 125.383124663
616.25 0.0475013208926 128.937045329
616.875 0.0332852239688 120.62763179
617.5 0.0376616850002 120.7405304
618.125 0.0189136172741 115.332193984
618.75 0.0338394285933 138.066476132
619.375 0.0086388863527 110.140029475
620.0 0.0119426986827 122.519922244
620.625 0.0244452452157 -102.101954591
621.25 0.0464945891907 -84.8228119182
621.875 0.0628749049529 -106.897761974
622.5 0.0727270711387 -169.362683338
623.125 0.0741574860654 162.739815874
623.75 0.0634332013236 162.063293584
624.375 0.034392653782 -165.572544617
625.0 0.0625004946745 -162.834945815
625.625 0.0547605526918 -164.883772059
626.25 0.038565117449 177.022452594
626.875 0.0211712232996 -12.7280455086
627.5 0.0265778488181 -117.666839911
628.125 0.0315921101539 -37.4848340906
628.75 0.0398855132715 -36.2373929585
629.375 0.0603702716112 -3.64805987743
630.0 0.064873916258 -10.1408111286
630.625 0.068191953836 -2.98935360246
631.25 0.065847719929 -2.15456818865
631.875 0.0782941884946 6.81163301104
632.5 0.0750488712676 -36.0429040605
633.125 0.0479810084597 -4.85883211869
633.75 0.0432019902142 13.1771791042
634.375 0.0476835592925 15.5321230426
635.0 0.0443699979837 31.3518766219
635.625 0.0241737251416 0.863127708415
636.25 0.041562883245 24.1861069277
636.875 0.0606225201194 20.2018944261
637.5 0.0533281995508 47.8182744177
638.125 0.0258787086859 38.7310850949
638.75 0.0657429779922 70.1927235812
639.375 0.0986785068005 89.3076243659
640.0 0.0763440667867 104.203102999
640.625 0.0543010933996 90.3653446985
641.25 0.0656791563244 113.360542212
641.875 0.0699546744324 139.827720056
642.5 0.0691647181409 158.107902799
643.125 0.0438655403232 131.496814768
643.75 0.0620608855376 163.845128636
644.375 0.0703327488098 174.729824981
645.0 0.0908601359176 176.5383939
645.625 0.0861391283739 157.262774238
646.25 0.0882876574286 157.450952369
646.875 0.076656450697 175.118114926
647.5 0.0660078499702 178.660312128
648.125 0.0885886149696 -179.977534765
648.75 0.0754129174904 -172.896589401
649.375 0.0467348417419 -156.546138187
650.0 0.0461591994024 -126.619979567
650.625 0.0787146067773 -94.7907753729
651.25 0.052229069413 -73.2749781516
651.875 0.0548530961164 -45.703757109
652.5 0.0740917563437 -29.5128536952
653.125 0.136448668135 -7.14801030717
653.75 0.10553662529 1.91563939201
654.375 0.115130313805 4.34840143693
655.0 0.123512458452 8.04670283402
655.625 0.109878122729 23.0796940404
656.25 0.0542518677301 9.23476188743
656.875 0.0613445944757 1.15141595708
657.5 0.069692183318 10.7363539198
658.125 0.0813857246159 40.1146146355
658.75 0.0410465152753 62.9122859382
659.375 0.0751109565622 38.1315943849
660.0 0.119652112567 20.0765929263
660.625 0.117490526562 13.4918972979
661.25 0.102485808223 0.779345169531
661.875 0.120674487005 -17.775965694
662.5 0.122192984385 -28.3952872894
663.125 0.120198596496 -21.1821561199
663.75 0.080701503836 -4.20777399837
664.375 0.0936031626464 48.7666672231
665.0 0.0744902123691 85.6431023406
665.625 0.0702344800833 103.81742787
666.25 0.0793371286707 124.112412425
666.875 0.123342264182 161.160106947
667.5 0.0983269182252 -173.92943606
668.125 0.108090544773 174.642925806
668.75 0.120956130382 162.030277706
669.375 0.118008338863 172.420492385
670.0 0.08973572475 -174.288834598
670.625 0.0952989598846 -178.5896735
671.25 0.0874649793639 170.13001604
671.875 0.0916930027046 163.296890442
672.5 0.0714708997021 145.388211251
673.125 0.0906445941882 143.250459877
673.75 0.107698949406 154.363126099
674.375 0.115861765003 162.962781296
675.0 0.114232748972 -179.366029254
675.625 0.138636798397 -158.044902235
676.25 0.122098547429 -130.971096614
676.875 0.117504877334 -125.14268323
677.5 0.127056648617 -132.616916586
678.125 0.145982691035 -124.90739279
678.75 0.0534533418467 -100.952155884
679.375 0.0469508050089 -80.7971321348
680.0 0.0661539879549 -82.2911171963
680.625 0.127972445171 -88.3515505814
681.25 0.105261041909 -79.5895929598
681.875 0.0960515283523 -98.2412069804
682.5 0.13423501643 -125.27911675
683.125 0.162536123585 -126.498343763
683.75 0.151787772581 -113.067301323
684.375 0.100718288782 -79.0782741529
685.0 0.131852387166 -44.1894718176
685.625 0.125150860413 -8.18457366811
686.25 0.123786600601 12.6365987068
686.875 0.0706457480515 44.101305662
687.5 0.0688517156306 75.7748145024
688.125 0.0708825102964 106.060109063
688.75 0.102651347358 102.393651194
689.375 0.124292255404 121.353449048
690.0 0.134158273292 128.58273538
690.625 0.12306893179 119.771997145
691.25 0.143604174022 92.0458784626
691.875 0.199852630722 59.5515273599
692.5 0.146350147549 34.5085936769
693.125 0.0885690856033 -18.377777001
693.75 0.0856573412005 -42.4261537812
694.375 0.145251085059 -44.5456131829
695.0 0.117595809086 12.3471354288
695.625 0.101408777953 48.6114175611
696.25 0.116538916699 103.171446744
696.875 0.137794778162 166.730917173
697.5 0.147486304354 -155.532370321
698.125 0.133101815645 -133.135095136
698.75 0.138636796019 -139.696758064
699.375 0.11814789968 -135.153468633
700.0 0.0862105966759 -109.751290791
700.625 0.111292376498 -95.1197358215
701.25 0.1039484972 -74.8470726486
701.875 0.0829011412988 -70.6950984775
702.5 0.0951167086213 -84.5806975379
703.125 0.163176242729 -126.459857578
703.75 0.18622563024 -157.196057401
704.375 0.13303224349 166.384275139
705.0 0.115330406449 147.45274265
705.625 0.133797464578 -165.096074766
706.25 0.146967137558 -116.323128375
706.875 0.0902610223494 -66.5386668667
707.5 0.0790006282176 -48.3199571146
708.125 0.0860617181868 16.3476840872
708.75 0.10916816138 60.8368042092
709.375 0.099971979533 99.4120096811
710.0 0.102096965351 124.190424251
710.625 0.106574182857 142.448395669
711.25 0.116134102353 167.576460606
711.875 0.143722224546 166.680743208
712.5 0.159494431496 132.927481752
713.125 0.120238027676 104.457534989
713.75 0.105628443091 40.742099431
714.375 0.11691873404 12.4084748272
715.0 0.118288134726 19.6191465701
715.625 0.0853899275868 31.3378042357
716.25 0.0874746282517 86.382931048
716.875 0.117720583349 104.575303714
717.5 0.135709398267 143.357569505
718.125 0.11813471872 159.721094765
718.75 0.0992717097484 166.724502052
719.375 0.114084504029 -174.465995118
720.0 0.137543097094 -127.318693373
720.625 0.119215408798 -80.3884982414
721.25 0.102647842048 -30.7506178448
721.875 0.0866162918719 28.2015147326
722.5 0.0701919920031 70.7689903713
723.125 0.0665618375112 44.9928406032
723.75 0.105622521538 40.3807752901
724.375 0.109896539916 -5.38101091011
725.0 0.0886062397856 -50.3429682494
725.625 0.0995814291833 -71.9340928545
726.25 0.100280978492 -87.1916581614
726.875 0.114227147554 -36.9084335333
727.5 0.0911566104386 -28.5629082345
728.125 0.0824229145174 -0.147401533353
728.75 0.0802241166403 4.2577895314
729.375 0.0840984154763 18.9272965911
730.0 0.0717237880035 -2.49389293138
730.625 0.0737883600627 21.2978739605
731.25 0.0725662241871 55.2729092388
731.875 0.0543951391136 95.1757370928
732.5 0.0997326194939 158.212146436
733.125 0.0912243258796 172.29962185
733.75 0.0830647626288 165.960674672
734.375 0.0527405362347 160.353562111
735.0 0.056010742734 144.617411616
735.625 0.0309854512456 120.013123797
736.25 0.0415849489078 134.168984572
736.875 0.0294318600723 175.884550433
737.5 0.0810113628782 172.86370033
738.125 0.113199215756 -178.621904341
738.75 0.0799209265238 179.594166896
739.375 0.0306167299434 156.882913133
740.0 0.09989406163 -144.950191514
740.625 0.0614854871197 -159.346631023
741.25 0.0556248011988 -153.096276319
741.875 0.0281776728536 -114.26293948
742.5 0.0145167216228 5.89083045913
743.125 0.0376297006849 47.7073281883
743.75 0.0446799330509 100.542554496
744.375 0.0360721951068 164.298250345
745.0 0.0845305866632 97.2235903962
745.625 0.0688627192566 104.804332648
746.25 0.0784943617769 93.6682855977
746.875 0.0663261549778 34.385047564
747.5 0.0304811307109 16.5975746258
748.125 0.0364154885656 -8.43091962276
748.75 0.0343977468233 -35.7011535417
749.375 0.0450324174211 -46.9519953118
750.0 0.038514406148 -56.9542510172
