!Created with skrf (http://scikit-rf.org).
# GHz S RI R (50+0j) 
!freq	ReS11	ImS11	
500.0	0.5025513339	-3.80890882	
500.625	-1.531253124	-2.028268086	
501.25	-1.196988308	-3.214866728	
501.875	-1.34804117	-0.3541864832	
502.5	-0.1807691866	-0.426368308	
503.125	-0.2193882543	0.1410813702	
503.75	0.0728668754	0.02263765407	
504.375	0.1431446443	0.0740005617	
505.0	-0.06003847705	-0.1696414456	
505.625	0.1012863634	0.02675164735	
506.25	-0.3433593918	-0.4447049954	
506.875	0.4623774799	0.1144478934	
507.5	-1.115688253	-1.879001444	
508.125	0.1231710007	-0.03394618931	
508.75	2.745251827	-4.074321882	
509.375	-3.281757724	-2.277090065	
510.0	-0.2303789883	-0.1701279948	
510.625	-0.6214540542	-0.4513079007	
511.25	-0.4881735913	0.02025808676	
511.875	-0.367790097	0.04127265142	
512.5	-0.1542246085	0.09413872182	
513.125	-0.1695628726	-0.305339283	
513.75	-0.1179405471	-0.1000411807	
514.375	-0.3737339739	-0.08425573723	
515.0	0.5707395896	0.641162899	
515.625	-1.732120123	-2.54240053	
516.25	-0.545895593	1.03041535	
516.875	0.2614434979	-2.461844511	
517.5	-0.9834248283	-0.542237551	
518.125	0.289189687	-0.1403566269	
518.75	-0.7723720081	-0.4375432412	
519.375	-0.02960703071	-0.01943711528	
520.0	0.4028177214	0.3415642757	
520.625	0.3652820829	-0.3955449515	
521.25	0.02357953984	-0.3382634019	
521.875	-0.6078206487	-0.1532868936	
522.5	0.0337783333	0.04562189579	
523.125	-0.2783038875	0.2373468897	
523.75	0.006797890319	-0.06838771548	
524.375	-0.727231912	0.1384797739	
525.0	0.2414089723	0.1340178992	
525.625	-0.09651099948	0.2078819811	
526.25	0.1193042483	-0.2299147308	
526.875	-0.212723142	0.3561237434	
527.5	0.1019605771	0.2458941937	
528.125	-0.2327979047	0.8832038146	
528.75	0.5113022103	0.7106183539	
529.375	-0.1364773642	0.170986155	
530.0	0.459031127	0.4130696775	
530.625	-0.03661581039	0.642260853	
531.25	1.570082388	0.05427484077	
531.875	0.221108169	-0.2138369354	
532.5	-0.2600827099	-0.7381659681	
533.125	0.3656894503	0.584316788	
533.75	-0.06548553783	-1.138777864	
534.375	-0.166726025	-0.1101022999	
535.0	-0.7999334632	-0.5978510758	
535.625	-0.1276551893	0.5562213518	
536.25	-0.131866974	0.1779070042	
536.875	0.4000977836	0.005187337906	
537.5	-0.004720840212	-0.03425775064	
538.125	0.5027926844	-0.07681935283	
538.75	0.1539510549	-0.4331236537	
539.375	-0.05480303224	-0.2866342227	
540.0	-0.3725540987	-0.4121971941	
540.625	-0.4175240081	-0.04423137807	
541.25	-0.1565642036	0.07962167343	
541.875	-0.147669341	-0.1080902418	
542.5	-0.07702208461	-0.04587489949	
543.125	-0.2011010744	-0.1656030511	
543.75	-0.226795041	0.1202320355	
544.375	-0.04372796174	-0.03683771244	
545.0	-0.02516855992	0.3091633276	
545.625	0.1181730663	-0.1446757062	
546.25	0.1900661976	0.412666688	
546.875	0.2902601587	-0.3304641443	
547.5	0.1351459722	-0.07092277403	
548.125	-0.05625404199	-0.5932613532	
548.75	-0.348291653	-0.028844935	
549.375	-0.1032107547	-0.2784644374	
550.0	-0.3101528402	0.09002331051	
550.625	0.0240327968	-0.007102020502	
551.25	-0.3204688695	0.06450272439	
551.875	-0.05107205048	0.2259126674	
552.5	-0.128004428	0.1281284732	
553.125	-0.008116243436	0.1992168508	
553.75	0.0941036123	0.08435494786	
554.375	0.2373695173	-0.001901758663	
555.0	0.2006200823	-0.1822826295	
555.625	0.1833382056	-0.2422733429	
556.25	0.1532930879	-0.345855133	
556.875	-0.1001410835	-0.3839449044	
557.5	-0.2341395145	-0.2158830275	
558.125	-0.249710208	-0.09740291368	
558.75	-0.272446008	0.001015818097	
559.375	-0.2157859815	0.0700874515	
560.0	-0.2494806678	0.1413173697	
560.625	-0.08038759483	0.3162965962	
561.25	0.00231426064	0.1289528989	
561.875	0.08809288307	0.2038523606	
562.5	0.0479204336	0.006148761808	
563.125	0.08513349084	0.257094228	
563.75	0.4157250064	-0.09245878595	
564.375	0.1447370906	-0.1742129093	
565.0	0.2813173702	-0.3397315	
565.625	-0.2057788578	-0.3408968819	
566.25	-0.1230455359	-0.2353275268	
566.875	-0.4360925343	-0.2176052907	
567.5	-0.2646662619	-0.07280345455	
568.125	-0.2171707472	-0.4997487612	
568.75	-0.7030783234	-0.106315367	
569.375	-0.2816112291	0.305951828	
570.0	-0.4807155224	0.2303901455	
570.625	-0.05748368668	0.7803121592	
571.25	0.05536127496	-0.06455342835	
571.875	0.2145234759	0.5175966989	
572.5	-0.01165287038	-0.2730791809	
573.125	0.5329861378	-0.05420561577	
573.75	-0.07952735192	-0.5699589482	
574.375	-0.0725934156	0.1597440419	
575.0	0.3222581911	-0.2633225308	
575.625	-0.2454265727	-0.1071610418	
576.25	0.3737895582	-0.07443772407	
576.875	-0.1209051582	-0.5456105216	
577.5	-0.1453604398	-0.1321148036	
578.125	0.1439577475	-0.4275481938	
578.75	-0.4336140643	-0.3702682016	
579.375	-0.1089558495	0.04757662831	
580.0	-0.02177272675	-0.2729811757	
580.625	-0.2996789141	0.1582940323	
581.25	-0.04683215784	-0.09140245322	
581.875	-0.2409244356	0.6149457517	
582.5	0.5170408841	0.2631966019	
583.125	-0.2030838967	-0.06038739462	
583.75	0.4883715779	0.3499908444	
584.375	-0.3708393972	-0.1027495736	
585.0	0.5927363728	0.3589115367	
585.625	0.1910013933	-0.3618115646	
586.25	0.2207242522	0.1918516587	
586.875	0.358100919	-0.5056370287	
587.5	-0.3080002381	-0.1685560461	
588.125	0.2286826302	-0.2455728246	
588.75	-0.004642608885	-0.5926648591	
589.375	0.03049979901	-0.04041174767	
590.0	-0.05194924336	-0.7011687233	
590.625	-0.3678986173	0.1585734256	
591.25	-0.2833099497	0.04544290635	
591.875	-0.1918269825	0.3568256465	
592.5	0.17779947	0.211055708	
593.125	-0.3010693946	-0.09630769843	
593.75	0.3963495972	0.478635393	
594.375	0.1389738214	-0.09839160076	
595.0	0.2242282124	0.6539198454	
595.625	0.7589722968	-0.1474534639	
596.25	-0.0114309888	0.3468680843	
596.875	0.7458212767	0.1218848016	
597.5	0.04723095582	-0.2005557707	
598.125	0.2722245746	0.7016197993	
598.75	0.6240616777	0.03791494887	
599.375	0.2564841487	-0.10946216	
600.0	0.5070712602	-0.1784786694	
600.625	0.2868402886	-0.5789902265	
601.25	0.1403260048	-0.2468070934	
601.875	-0.1443991793	-0.4684258909	
602.5	-0.2096498796	0.1163373142	
603.125	-0.3446131092	-0.007967847967	
603.75	-0.1898995332	0.277091952	
604.375	-0.2413105829	0.1017773839	
605.0	-0.02941263944	0.1223621027	
605.625	-0.4296923089	0.1697171667	
606.25	0.07590657285	0.2814555487	
606.875	-0.5819298435	-0.2948492828	
607.5	-0.2298088982	0.9376781303	
608.125	-0.1133811346	0.1275001024	
608.75	0.5189852202	0.7999629444	
609.375	0.2053285358	-0.4895555053	
610.0	0.5705189797	0.09405302597	
610.625	0.09063118018	-0.6884270196	
611.25	0.02758198507	0.01772637431	
611.875	-0.3613002415	-0.5826591531	
612.5	-0.1464016797	0.05797113799	
613.125	-0.5998476396	-0.1159569913	
613.75	0.02281928408	0.5361241754	
614.375	-0.247363582	0.1678152707	
615.0	0.4207201523	0.1131316334	
615.625	-0.3117183439	0.02862875903	
616.25	-0.04645797063	0.6705243065	
616.875	0.03434981774	0.06592192624	
617.5	-0.4601528906	0.6141481386	
618.125	0.2446822623	0.5269814962	
618.75	-0.1263676238	0.2498829471	
619.375	0.4130485179	0.4695844748	
620.0	0.2571961496	0.01674246403	
620.625	0.3511731918	-0.4046447166	
621.25	-0.263150925	-0.2625798971	
621.875	-0.4501241754	-0.3368915639	
622.5	-0.4002009704	0.3683171866	
623.125	-0.2277418677	0.1916904206	
623.75	0.5924280394	0.1772385576	
624.375	-0.2691087273	-0.04625834047	
625.0	0.4671069435	-0.3846561903	
625.625	-0.08690616061	0.1711652851	
626.25	0.09102841725	-0.6027733985	
626.875	-0.5765871291	0.08257302798	
627.5	0.1299142889	-0.2236792244	
628.125	-0.5628346391	-0.3391922671	
628.75	-0.1863147062	-0.0373072095	
629.375	-0.03249026048	-0.3494351199	
630.0	-0.5693241813	-0.3153648801	
630.625	-0.3130922298	0.2802574937	
631.25	-0.4313946307	0.3520559694	
631.875	0.09579908567	0.6379243948	
632.5	0.2597801517	0.2859437621	
633.125	0.5488242359	0.2412977734	
633.75	0.2944189264	-0.3176878433	
634.375	0.08852557134	-0.2103096432	
635.0	0.07588185327	-0.355523666	
635.625	-0.5962828688	-0.161980753	
636.25	0.0940097551	0.2729574247	
636.875	-0.6357835437	0.1414511929	
637.5	0.2803053541	0.4836272245	
638.125	-0.3634371267	-0.1820180391	
638.75	-0.0154945016	0.7999444339	
639.375	0.02785164021	-0.008951912186	
640.0	0.2377858754	0.974072968	
640.625	0.8418812094	-0.1011063259	
641.25	0.196103122	0.1114309241	
641.875	0.7754305047	-0.3121684579	
642.5	-0.4163662221	-0.7584486408	
643.125	-0.09662545527	0.06077850938	
643.75	-0.3158613226	-0.4093706674	
644.375	-0.4706862743	0.2885972845	
645.0	-0.2763360003	-0.003856631563	
645.625	0.2650627842	0.7386622207	
646.25	0.2830562271	-0.08778473853	
646.875	0.1120682467	0.196890196	
647.5	0.4371650877	-0.2434191932	
648.125	-0.1455446088	0.2931153771	
648.75	1.101282	-0.01784300735	
649.375	0.1541961853	-1.112307227	
650.0	0.06638847715	0.01416612901	
650.625	1.018725352	-0.8921163234	
651.25	-0.3099206929	-0.8527916431	
651.875	0.6473621973	0.2631713247	
652.5	1.019310022	-0.7875498151	
653.125	-0.06691805083	-0.2355656031	
653.75	0.9164345967	-0.4620189345	
654.375	-0.6122214696	-0.8574204228	
655.0	-0.3661817904	0.2634188401	
655.625	-0.6113330245	0.03480834829	
656.25	0.3477478475	0.8118811742	
656.875	-0.09677548151	-0.2433910844	
657.5	0.2167985867	0.5021620384	
658.125	0.4417995136	0.0515366236	
658.75	0.3182749846	0.2815515946	
659.375	1.130484668	-0.4490322669	
660.0	0.0256051928	-0.8519332527	
660.625	0.30989215	-0.3347908381	
661.25	0.750983962	-0.8492366377	
661.875	-0.1333539334	-0.964546938	
662.5	0.6817485142	0.1539775962	
663.125	0.6865704673	-1.017696601	
663.75	-0.1203354116	-0.3552489007	
664.375	0.3259726197	-0.9523610509	
665.0	-1.084301238	-0.1767044046	
665.625	-0.2659312724	0.1968608505	
666.25	-0.4442616351	0.5345491063	
666.875	0.5753711344	0.5784425164	
667.5	0.1242605127	-0.07812222827	
668.125	0.8138628181	0.06026201445	
668.75	0.1444881475	-0.5044741536	
669.375	0.2954229259	-0.2302194906	
670.0	-0.04936136408	-0.8481255989	
670.625	-0.2242747866	-0.1417604166	
671.25	0.3246439749	-0.3510628192	
671.875	0.3886110998	-0.5620730552	
672.5	0.1542922021	-0.5821807444	
673.125	0.2577329239	0.02168709709	
673.75	0.639235176	-0.9778832178	
674.375	-0.3587507107	-0.2011544323	
675.0	0.1235412178	-0.742466207	
675.625	-0.9904081717	-0.1056226508	
676.25	0.296958233	-0.01971267135	
676.875	-0.9808692688	-0.04252258096	
677.5	0.08047384941	0.4730187759	
678.125	-0.3644216096	-0.01899070885	
678.75	0.1103817246	0.8594764483	
679.375	0.6459216061	-0.3277481613	
680.0	0.1171647028	0.08735489704	
680.625	0.4024362326	-0.3718195117	
681.25	-0.2035031977	-0.16240357	
681.875	0.7104840857	0.4211232528	
682.5	0.3881819763	-0.1896725085	
683.125	0.3684694809	0.2373859592	
683.75	0.6507119622	0.3015021922	
684.375	0.9232340554	-0.186030992	
685.0	0.04609964016	-0.2402476207	
685.625	0.9609928281	0.676762316	
686.25	0.8309432282	-1.037981182	
686.875	0.05367826332	0.29417495	
687.5	1.212790041	-1.525765231	
688.125	-0.8277232754	0.03097011744	
688.75	-0.8517270347	-1.065414703	
689.375	-0.4185854902	1.665671931	
690.0	0.1066802022	-0.09281202185	
690.625	0.8472054374	1.218058706	
691.25	0.8464248754	0.08439718798	
691.875	0.7654724727	0.6800001856	
692.5	1.508930133	0.5010438642	
693.125	1.308578814	-0.345018516	
693.75	1.347781753	-0.5374855407	
694.375	0.7593809696	-0.9814988468	
695.0	1.062405396	-0.5870755964	
695.625	1.022615665	-0.5404439186	
696.25	0.7871272202	0.4811116219	
696.875	1.74459967	0.7167618524	
697.5	0.516583022	0.2238162225	
698.125	1.835490374	0.8386260259	
698.75	-0.06885772076	-1.835373695	
699.375	-0.1638663443	-0.7845381909	
700.0	-0.641798832	1.645404933	
700.625	0.4735349607	-0.04926448726	
701.25	0.6716552909	1.121865788	
701.875	0.695227527	-0.1537433384	
702.5	0.4561065988	0.8352948137	
703.125	1.424472154	0.04939863468	
703.75	0.2268287012	-0.100664691	
704.375	1.164604484	-0.4658867582	
705.0	0.1059933934	-0.6586581489	
705.625	0.523222736	0.6494738566	
706.25	1.201785056	-0.1472597869	
706.875	-0.008419612921	0.5703402766	
707.5	1.232265259	1.164794006	
708.125	0.5887821328	-0.5897904032	
708.75	0.9774511147	-0.7381318703	
709.375	-1.252088049	-0.3853121545	
710.0	-0.05209509582	0.4230346467	
710.625	0.2317516007	0.4522007329	
711.25	0.2174510719	0.1531632855	
711.875	0.5568676108	0.1848210954	
712.5	0.657126305	-0.2112363241	
713.125	0.6807140892	-0.3595584902	
713.75	0.0767362192	-0.6861758228	
714.375	0.190854505	-0.342482267	
715.0	-0.2534381265	-0.7864747987	
715.625	-0.1727503993	-0.02485893524	
716.25	1.118302521	-0.5137022286	
716.875	0.4553018334	-1.584423826	
717.5	0.3066491806	0.8816834358	
718.125	2.786009593	-0.2048676264	
718.75	0.7416151798	-1.86565698	
719.375	2.662062425	0.2600363764	
720.0	-0.9251743606	-3.843258214	
720.625	0.6622672201	-1.089407941	
721.25	-0.02075372104	-3.390619315	
721.875	-2.202088269	-2.29302261	
722.5	-1.062308292	-0.6172820788	
723.125	-2.240456863	-0.5141950526	
723.75	-0.5277372641	1.522268484	
724.375	0.3215722243	0.824488293	
725.0	0.0254025055	0.8997452157	
725.625	0.9762575889	1.128203986	
726.25	-0.005066654885	0.9070635516	
726.875	-0.6098580023	2.840839269	
727.5	1.622424046	4.087957586	
728.125	-0.231013232	0.7899145224	
728.75	-4.035372785	15.66501936	
729.375	4.528465206	9.208919545	
730.0	-1.85244188	2.692819688	
730.625	0.9919562745	24.09923198	
731.25	9.131959404	2.44131436	
731.875	-11.94364896	3.861101848	
732.5	-9.143863238	8.840390469	
733.125	-1.204825989	2.570800042	
733.75	-3.859824028	3.794704018	
734.375	3.343613976	-0.5182686139	
735.0	-0.59747329	-0.6432949055	
735.625	-0.9831973693	-0.2212299442	
736.25	0.1791657743	2.059374261	
736.875	0.8308615527	-0.07567131284	
737.5	3.148250117	1.233112315	
738.125	3.892155798	-2.917834408	
738.75	0.5292635361	-2.995917688	
739.375	11.72040658	0.2643241127	
740.0	8.293869306	-14.10605339	
740.625	-6.039120678	-0.5530645986	
741.25	-9.245742222	20.25994638	
741.875	0.6741064793	14.12056315	
742.5	13.02466222	-6.447896376	
743.125	-3.711389698	-10.56773854	
743.75	-2.014576571	-0.4035352647	
744.375	-1.018489772	-1.635463474	
745.0	0.9877822957	0.1733556582	
745.625	0.1343677275	0.3203059538	
746.25	-0.4115115286	-0.4311237846	
746.875	0.03292322331	0.571999863	
747.5	-0.2421099627	0.4713246006	
748.125	0.3760953117	1.748259617	
748.75	1.295985567	1.158534129	
749.375	0.3070202257	0.4572106289	
750.0	-0.4827669436	0.5848484992	
