!Created with skrf (http://scikit-rf.org).
# GHz S RI R (50+0j) 
!freq	ReS11	ImS11	
500.0	-0.1944749893	-4.480721951	
500.625	-0.4245704446	-1.226620958	
501.25	-2.234274653	-2.298350985	
501.875	-0.5730381366	-0.9426690395	
502.5	-0.238812119	-0.434781895	
503.125	-0.1705201391	0.1568158989	
503.75	-0.0455416067	0.01519639497	
504.375	0.177246256	0.01421393335	
505.0	-0.08823757793	-0.08793338852	
505.625	0.174147839	-0.09784452652	
506.25	-0.5050847498	-0.1604825	
506.875	0.1139680746	-0.5878970737	
507.5	-1.834270414	-0.2934129365	
508.125	1.636953979	-0.9365839252	
508.75	1.436519802	-4.650879565	
509.375	-3.64029001	-2.13008554	
510.0	-0.3866762173	-0.977303291	
510.625	-0.8008733916	-0.6510796323	
511.25	-0.3915885444	-0.02797090864	
511.875	-0.1882780456	-0.03863740722	
512.5	-0.1164672699	0.1751026793	
513.125	-0.1194132316	-0.1987648677	
513.75	-0.1077587677	-0.2279009194	
514.375	-0.4092615707	0.1293486994	
515.0	1.261974936	0.007410423705	
515.625	-2.378348724	-1.156264397	
516.25	1.250985741	0.03492439259	
516.875	-0.6670149504	-2.933065147	
517.5	-0.8238008744	0.08918756171	
518.125	0.1218113765	-0.403294905	
518.75	-0.6839820656	0.09606761402	
519.375	-0.1861012565	-0.0369450346	
520.0	0.5249490856	0.1775483201	
520.625	0.2388542507	-0.3138783397	
521.25	0.2417431901	-0.5642812425	
521.875	-0.5488222074	0.0816505589	
522.5	-0.04361232381	-0.05809868333	
523.125	-0.1074255591	0.3204201085	
523.75	-0.1215049249	-0.2298900337	
524.375	-0.5691902471	0.4140594786	
525.0	0.007367454206	0.02084324446	
525.625	0.02818478716	0.3085400456	
526.25	-0.1344147604	-0.2911638099	
526.875	-0.002798324081	0.3139293553	
527.5	-0.1569314299	0.1535730296	
528.125	0.04815414514	1.11194571	
528.75	0.431040858	0.368586754	
529.375	-0.03952955802	0.338903358	
530.0	0.4032803911	0.1997990521	
530.625	-0.0716082997	0.9418794813	
531.25	1.218570068	-0.3895581936	
531.875	0.5593378349	-0.1251411016	
532.5	-0.6676908707	-0.4893787104	
533.125	0.8355844541	0.09190179784	
533.75	-0.4389000222	-0.7640212569	
534.375	0.2184621016	-0.3792224098	
535.0	-1.127129155	-0.2603936696	
535.625	-0.05446846691	0.2327160232	
536.25	-0.1253759372	0.2998918409	
536.875	0.3267545429	-0.1456730912	
537.5	0.1155107372	0.07081958944	
538.125	0.4446063604	-0.2477083606	
538.75	0.1087813052	-0.3029059527	
539.375	-0.05575719864	-0.3759630746	
540.0	-0.4190127078	-0.3808627122	
540.625	-0.394731618	-0.008608645116	
541.25	-0.1442128206	-0.0006941826134	
541.875	-0.1622210212	-0.0003080218888	
542.5	-0.05315643703	-0.1389551568	
543.125	-0.2640167838	-0.1086682071	
543.75	-0.1353541107	0.1216944604	
544.375	-0.1679539922	-0.05509847016	
545.0	0.1199639455	0.2930001746	
545.625	-0.1081072481	-0.07323140149	
546.25	0.4500072868	0.2860085916	
546.875	0.09318596574	-0.2493877625	
547.5	0.3093642939	-0.1252584519	
548.125	-0.3016884136	-0.5340498791	
548.75	-0.09788029702	-0.08515275849	
549.375	-0.270114728	-0.3320859794	
550.0	-0.2249583335	0.1637519986	
550.625	-0.03107893892	-0.1012276458	
551.25	-0.2758831728	0.1688156094	
551.875	-0.05249697048	0.1373440281	
552.5	-0.1607580985	0.1761244329	
553.125	0.02000621268	0.1690453836	
553.75	0.0909533812	0.1186929984	
554.375	0.2377506957	-0.02639550229	
555.0	0.1994023717	-0.1623701572	
555.625	0.1942435891	-0.2470172741	
556.25	0.1413980415	-0.3437615095	
556.875	-0.1081085009	-0.3682121492	
557.5	-0.2270746291	-0.2174840128	
558.125	-0.2670446329	-0.09923993223	
558.75	-0.2622234541	0.02371148157	
559.375	-0.2155322495	0.03759091361	
560.0	-0.2635083661	0.1884416602	
560.625	-0.03598954607	0.2570649826	
561.25	-0.06976533314	0.1855860303	
561.875	0.1552431722	0.1561563042	
562.5	-0.02347666505	0.01838996456	
563.125	0.1754497043	0.2809582978	
563.75	0.3102824576	-0.144728109	
564.375	0.2392997629	-0.09042332965	
565.0	0.1953341741	-0.4604418231	
565.625	-0.1401048496	-0.2147211834	
566.25	-0.2004893852	-0.3605415801	
566.875	-0.4265352632	-0.06562054694	
567.5	-0.1624181478	-0.1991158367	
568.125	-0.350591627	-0.5355542236	
568.75	-0.6338862699	0.008625056726	
569.375	-0.2679882907	0.125380733	
570.0	-0.603002779	0.5168582032	
570.625	0.2125631106	0.5471759662	
571.25	-0.2345281013	0.02125904802	
571.875	0.5105414697	0.2710023324	
572.5	-0.1039723804	0.1353165672	
573.125	0.5145563996	-0.442947302	
573.75	-0.2532832314	-0.3384181917	
574.375	0.1810352014	0.1342239469	
575.0	0.141157961	-0.40969194	
575.625	-0.07410101542	0.1338919465	
576.25	0.3700891415	-0.3410822934	
576.875	-0.2823604776	-0.3714582117	
577.5	0.1330233859	-0.1024385437	
578.125	-0.05984308431	-0.6454079016	
578.75	-0.3670498304	-0.0894114869	
579.375	0.008378643348	-0.08846280143	
580.0	-0.2265553478	-0.272910214	
580.625	-0.08142406375	0.2042208045	
581.25	-0.3071352445	-0.167833423	
581.875	0.08570019789	0.7086356645	
582.5	0.3348518592	-0.02509744276	
583.125	-0.267341671	0.3310205485	
583.75	0.5567225513	-0.1497969228	
584.375	-0.3200764975	0.3813892813	
585.0	0.6379208275	0.00417827336	
585.625	-0.05349701496	-0.1255365053	
586.25	0.5125427887	0.1267455068	
586.875	0.119270987	-0.5978774049	
587.5	-0.07423997735	-0.03150907416	
588.125	0.1704686636	-0.4834712084	
588.75	-0.2138101564	-0.396292849	
589.375	0.3859792622	-0.05848430188	
590.0	-0.3278750586	-0.5666532616	
590.625	-0.1873258084	0.0508615165	
591.25	-0.4240427966	0.1353270158	
591.875	-0.1151323103	0.4181081035	
592.5	0.2342217943	0.04200269429	
593.125	-0.3766213238	0.1750100803	
593.75	0.4384177951	0.1653800944	
594.375	-0.0514267112	0.2020596934	
595.0	0.6870925536	0.5600451187	
595.625	0.2195643096	-0.2405555358	
596.25	0.3421580921	0.4836823944	
596.875	0.6482398286	-0.2278218536	
597.5	-0.1640574686	0.2317048467	
598.125	0.5887865509	0.5536172385	
598.75	0.470443545	-0.0411938627	
599.375	0.3003624463	0.051307854	
600.0	0.5572126781	-0.3766493166	
600.625	0.117215234	-0.4437328088	
601.25	0.3000490019	-0.2991615756	
601.875	-0.3165379034	-0.4217891047	
602.5	-0.08716183716	-0.02546903368	
603.125	-0.3919966463	0.1339067114	
603.75	-0.1197249986	0.1672006587	
604.375	-0.237087197	0.1880477426	
605.0	-0.1394524162	-0.04333224132	
605.625	-0.3071529553	0.4120658932	
606.25	0.1105859481	-0.04373666357	
606.875	-0.9266615797	0.1378411262	
607.5	0.1269008725	0.5152705681	
608.125	-0.4264552353	0.3351661701	
608.75	0.9099969435	0.4535600741	
609.375	0.03925688397	-0.0270027942	
610.0	0.7465424949	-0.2451743622	
610.625	-0.1340642952	-0.5039063774	
611.25	0.3580037073	-0.1745298884	
611.875	-0.4861945456	-0.2563738699	
612.5	-0.1023619527	-0.2119558853	
613.125	-0.6721445783	0.09278250663	
613.75	0.1234095257	0.196012295	
614.375	-0.1196414649	0.5068259668	
615.0	0.2891411336	-0.1584619105	
615.625	-0.3371966488	0.3261466997	
616.25	0.2870870076	0.4245493178	
616.875	-0.387790356	0.07510097561	
617.5	-0.2115288146	0.7936973293	
618.125	0.1910341962	0.2794672903	
618.75	-0.162674878	0.5454346781	
619.375	0.3976027163	0.2570635756	
620.0	0.2843015791	0.1828278308	
620.625	0.2460429261	-0.4966261566	
621.25	-0.1384948848	-0.2840505442	
621.875	-0.6046365267	-0.2408047895	
622.5	-0.2486493628	0.1890781113	
623.125	-0.3364690501	0.3959402763	
623.75	0.5460389753	-0.1164945605	
624.375	-0.05275632749	0.2938059432	
625.0	-0.0895360189	-0.5004631961	
625.625	0.2760789466	0.1150898468	
626.25	-0.2500744264	-0.6435402143	
626.875	-0.200542706	0.2488078912	
627.5	-0.2234837687	-0.5386026233	
628.125	-0.4935711832	-0.01258620038	
628.75	-0.03242101502	-0.1046595604	
629.375	-0.08579920319	-0.4675108888	
630.0	-0.6127860193	-0.1083476576	
630.625	-0.3154832068	0.05605149716	
631.25	-0.4137772783	0.5350949535	
631.875	0.1404346699	0.4979905858	
632.5	0.1425364852	0.4268908731	
633.125	0.6645133776	0.03994457534	
633.75	0.2347606264	-0.1974732633	
634.375	0.1309362122	-0.2153627484	
635.0	0.05951264168	-0.4808744854	
635.625	-0.5663521745	0.08346782692	
636.25	-0.007499261496	-0.2177333584	
636.875	-0.430044475	0.6292810469	
637.5	0.3529248813	0.06713581613	
638.125	-0.5807396596	0.2330222815	
638.75	0.4098520818	0.4014664554	
639.375	-0.4514495147	0.3784204293	
640.0	0.7093344343	0.8318996525	
640.625	0.4032709313	-0.1707142573	
641.25	0.4518937903	0.3634927305	
641.875	0.7028608055	-0.7182290591	
642.5	-0.4295776101	-0.4139293137	
643.125	0.03859033239	-0.1913314164	
643.75	-0.5369906221	-0.2685583217	
644.375	-0.05917493835	0.2201638255	
645.0	-0.6529061288	0.3758697969	
645.625	0.4201268387	0.4161209695	
646.25	0.1155449639	0.09756455208	
646.875	0.4668445581	0.2115551825	
647.5	-0.00453787113	-0.3826629276	
648.125	0.196149831	0.5798644661	
648.75	1.064085258	-0.4542959122	
649.375	-0.2021553718	-0.6617276018	
650.0	0.7975941051	-0.0623203307	
650.625	0.3315570935	-1.462898565	
651.25	-0.1424897416	-0.05192121565	
651.875	1.251294653	-0.259117685	
652.5	0.282078016	-0.9246057849	
653.125	0.3820335741	0.3201096546	
653.75	0.6711431125	-0.9325222637	
654.375	-0.6819539545	-0.5317406365	
655.0	-0.1432168072	-0.1099800633	
655.625	-0.8536876161	0.4718986029	
656.25	0.6226587736	0.3040421316	
656.875	-0.2172193049	0.1625227759	
657.5	0.4098799744	0.2877279698	
658.125	0.1160266776	0.05277550002	
658.75	0.7618190087	0.5243552317	
659.375	0.746349444	-0.7680251911	
660.0	0.1207461141	-0.5035396679	
660.625	0.5820489359	-0.4793263133	
661.25	0.3790273354	-1.286575511	
661.875	-0.1322017334	-0.162968711	
662.5	1.114437274	-0.4305612442	
663.125	0.2065616386	-0.8717770451	
663.75	0.3167209966	-0.09219122237	
664.375	-0.2266383275	-1.279807825	
665.0	-0.680675243	0.09759082104	
665.625	-0.4941652323	-0.04652928968	
666.25	-0.3881484292	0.7962386498	
666.875	0.6037237685	0.2420296133	
667.5	0.1253180013	0.4038648163	
668.125	0.6761841739	-0.2919355075	
668.75	0.1038796651	-0.2261902677	
669.375	0.5308960145	-0.541523362	
670.0	-0.4011040983	-0.5691364793	
670.625	0.1112074909	-0.1648188652	
671.25	0.2641363926	-0.4645354579	
671.875	0.2722050134	-0.6592581714	
672.5	-0.004096645986	-0.315851437	
673.125	0.8534920172	-0.08625114633	
673.75	-0.06017231263	-0.9070283487	
674.375	0.1924438996	-0.1764945356	
675.0	-0.2826630707	-0.9743577685	
675.625	-0.5163296156	0.4305812307	
676.25	-0.2104703305	-0.6532815932	
676.875	-0.6964242861	0.5085235879	
677.5	0.1461445657	0.07378169124	
678.125	-0.6133310109	0.1993750144	
678.75	0.4514421372	0.7766502613	
679.375	0.2259426633	-0.2082403013	
680.0	0.4851450899	0.04951942354	
680.625	0.09346542072	-0.5848878743	
681.25	0.02193812765	0.4348487707	
681.875	0.6423148671	-0.2120675483	
682.5	0.2046873251	0.04754802913	
683.125	0.5009055233	0.3871078608	
683.75	0.8690542987	0.1460996509	
684.375	0.58570463	-0.3973400722	
685.0	0.09891057544	0.3983382424	
685.625	1.425145208	0.06699476833	
686.25	0.05257475285	-0.8182669904	
686.875	1.092869222	0.4727340649	
687.5	-0.2159373344	-1.771924997	
688.125	0.3626871526	-0.2318911054	
688.75	-1.602050461	-0.7592718909	
689.375	0.3950616241	1.194617153	
690.0	-0.5496650739	0.6782827022	
690.625	1.246826583	0.5465181232	
691.25	0.5339772285	0.2364219688	
691.875	0.9417212508	0.8529037459	
692.5	1.582896751	0.2398228701	
693.125	1.246854197	-0.05437577074	
693.75	1.336147635	-0.7038547057	
694.375	0.7836123429	-0.8940801171	
695.0	1.070667512	-0.7713765264	
695.625	0.8591170707	-0.4297564301	
696.25	1.31393067	0.6502273004	
696.875	1.384510158	0.03149786495	
697.5	0.3229347033	1.020913453	
698.125	2.315618209	0.05174741741	
698.75	-0.229765169	-0.7444550947	
699.375	-1.02593019	-1.430203932	
700.0	-0.007428965483	1.413953509	
700.625	-0.3148339248	0.2684430975	
701.25	1.272565846	0.4510064495	
701.875	0.1639616927	0.1737410176	
702.5	0.9209834282	0.9714766845	
703.125	0.9542212781	-0.4183197425	
703.75	0.8159426315	0.3149505213	
704.375	0.7855085649	-0.9242817045	
705.0	-0.01596056418	-0.1342543513	
705.625	1.294525853	0.2450102934	
706.25	0.3178048705	-0.276570778	
706.875	0.264073506	1.096371054	
707.5	1.517821244	0.3698288145	
708.125	0.3823250459	0.3089652436	
708.75	0.7878048067	-1.386859508	
709.375	-0.9971088126	-0.1003117088	
710.0	-0.3566254135	0.4126653549	
710.625	0.3293461104	0.3668796517	
711.25	0.2021653926	0.2143604282	
711.875	0.585131362	0.2209305982	
712.5	0.5708476566	-0.1249912308	
713.125	0.6250898076	-0.56842552	
713.75	0.1535437676	-0.4809780811	
714.375	0.2042971699	-0.6499028373	
715.0	-0.456413108	-0.4727913952	
715.625	0.3653109923	-0.00329344681	
716.25	0.7885562187	-1.317912033	
716.875	-0.4206357528	-0.5141729982	
717.5	1.742788255	0.712522377	
718.125	2.382261558	-1.216823744	
718.75	-0.0638497901	0.2935591888	
719.375	3.53649561	-2.438827286	
720.0	-0.986705843	-1.229708334	
720.625	1.347112813	-1.952206523	
721.25	-1.48581875	-3.43639172	
721.875	-1.74911707	-1.079971454	
722.5	-0.932939798	-1.878276409	
723.125	-2.396659766	0.1714550147	
723.75	-0.3733203118	1.320072681	
724.375	0.1086603257	0.7355284107	
725.0	0.6661202244	1.258417343	
725.625	0.5069769894	0.6152946854	
726.25	-0.2770496335	1.491414648	
726.875	0.07571509382	3.255142949	
727.5	1.889770064	1.695876038	
728.125	-3.825613773	4.594734073	
728.75	0.4167640317	13.68827255	
729.375	5.195845605	3.812537499	
730.0	-9.618487554	8.492240028	
730.625	13.05900118	15.08732822	
731.25	-3.348481392	0.7018312858	
731.875	-8.858090802	10.45255323	
732.5	-1.70015333	9.342736005	
733.125	-5.405033507	-1.988138302	
733.75	-1.286446268	5.789367056	
734.375	2.14084476	-0.5422166245	
735.0	-0.2229300006	-0.6102859567	
735.625	-1.746530726	-0.02975415177	
736.25	1.123918665	1.269935223	
736.875	0.1699126535	1.540922989	
737.5	3.506527435	0.04751295573	
738.125	2.270984956	-3.04124881	
738.75	4.247899063	0.8841759875	
739.375	9.678788851	-9.730211541	
740.0	-1.242632243	-9.509155532	
740.625	-3.402345858	13.24863692	
741.25	14.85360144	21.73829781	
741.875	15.6583312	-0.9703667167	
742.5	0.438578153	-12.55345235	
743.125	-4.770994731	-4.925144105	
743.75	1.015385166	0.2375751761	
744.375	-2.474333158	-0.2147154785	
745.0	0.286342083	-0.5608384345	
745.625	0.4239344459	0.01934159356	
746.25	-0.2421556912	-0.2543695039	
746.875	-0.4269232175	0.2732378954	
747.5	-0.3668429734	0.885801161	
748.125	0.6169766836	1.517922722	
748.75	0.7391890163	0.6158558538	
749.375	0.9500871677	1.7945381	
750.0	-0.3818776285	0.07125929489	
