!Created with skrf (http://scikit-rf.org).
# GHz S RI R (50+0j) 
!freq	ReS11	ImS11	
500.0	-0.6597014313	-1.850216464	
500.625	1.578227477	-3.483492949	
501.25	-1.995423994	-1.141841038	
501.875	-0.6457947686	-1.312232319	
502.5	-0.2938692717	-0.5119710864	
503.125	-0.1614866731	0.2524694158	
503.75	-0.1096876588	0.04093544482	
504.375	0.1672165371	-0.04000579826	
505.0	-0.06751461997	0.02593695985	
505.625	0.06898799882	-0.3310831899	
506.25	-0.1472021882	0.2526407491	
506.875	-1.278334748	-0.4825629637	
507.5	-0.0986830795	0.9183970759	
508.125	1.793332231	-1.991494424	
508.75	0.9575789668	-4.702651008	
509.375	-1.731578177	-1.66299979	
510.0	-0.80305616	-1.123236084	
510.625	-0.5564502523	-0.7829246126	
511.25	-0.2965139831	0.07208212465	
511.875	-0.4588052985	-0.111712971	
512.5	-0.08266699765	0.2418734898	
513.125	-0.004548045528	-0.2142222708	
513.75	-0.222194582	-0.2233160929	
514.375	-0.280866348	0.2358599515	
515.0	0.8358324767	-1.090550463	
515.625	-1.832030258	0.1715543664	
516.25	1.856434613	-1.92990172	
516.875	-2.04505942	-2.321662436	
517.5	-0.2181769608	0.4048609695	
518.125	-0.2090037307	-0.4674242269	
518.75	-0.01543261327	0.2965520079	
519.375	-0.3075555957	0.07255769333	
520.0	0.4503158725	0.06876813087	
520.625	0.219946998	-0.1454176071	
521.25	0.1768683163	-0.8945938305	
521.875	-0.3724045616	0.1719975049	
522.5	-0.1446924991	-0.08833695993	
523.125	0.004151769959	0.2491945632	
523.75	-0.3098592885	-0.2663281141	
524.375	-0.2478200168	0.4533056466	
525.0	-0.2671586975	0.07691726921	
525.625	0.2885617309	0.302586066	
526.25	-0.3046609266	-0.04855846534	
526.875	0.07283950592	0.1542665224	
527.5	-0.4132614913	0.2782786879	
528.125	0.3886666272	1.101677545	
528.75	0.1914546687	0.1888256487	
529.375	0.06402858028	0.4021578231	
530.0	0.1237213515	0.0514685606	
530.625	0.3975646477	1.278051449	
531.25	0.547466556	-0.2202452448	
531.875	1.065484205	-0.2983976537	
532.5	-0.7339294107	0.1022600218	
533.125	0.7463996049	-0.5232171111	
533.75	-0.4437588735	-0.2061028628	
534.375	0.260776881	-1.140571149	
535.0	-0.9481845002	0.3191641874	
535.625	-0.2779380269	0.01005734535	
536.25	-0.0528508842	0.3899249752	
536.875	0.1926725769	-0.1365376818	
537.5	0.1786707408	0.04185815665	
538.125	0.3508902155	-0.2731479269	
538.75	0.1728399422	-0.205854711	
539.375	-0.08945544097	-0.4626124269	
540.0	-0.4845113673	-0.2736461556	
540.625	-0.2590215704	-0.09935248926	
541.25	-0.299198593	0.003453260166	
541.875	-0.02863017401	0.03722153901	
542.5	-0.07633152159	-0.1623920441	
543.125	-0.3138020222	-0.09975777325	
543.75	-0.03227347391	0.1778050969	
544.375	-0.3008796874	-0.02873788189	
545.0	0.2430499194	0.1852772486	
545.625	-0.1857990529	0.186624579	
546.25	0.5240135809	0.01119534212	
546.875	0.003489521899	0.004081529137	
547.5	0.4122951203	-0.3836093734	
548.125	-0.3509967559	-0.230492068	
548.75	-0.06098014472	-0.2729892514	
549.375	-0.3478762552	-0.2890854303	
550.0	-0.1501226437	0.1799222943	
550.625	-0.1218508042	-0.1352714079	
551.25	-0.172229477	0.2082016399	
551.875	-0.1373503917	0.06297039988	
552.5	-0.1280560183	0.2705377955	
553.125	0.002974818661	0.09345566226	
553.75	0.1239843548	0.1367284802	
554.375	0.219018836	-0.03658911382	
555.0	0.2063114145	-0.1532943696	
555.625	0.2049958358	-0.2526777565	
556.25	0.1336821499	-0.3509580913	
556.875	-0.09538883628	-0.3624768318	
557.5	-0.2185580928	-0.2332827959	
558.125	-0.2847305392	-0.09599724624	
558.75	-0.2373121463	0.02313302817	
559.375	-0.2458624703	0.01831869099	
560.0	-0.2306117258	0.2268356225	
560.625	-0.05854391158	0.1986861356	
561.25	-0.05991015311	0.2444048132	
561.875	0.1642929653	0.1109524109	
562.5	-0.07170837613	0.05984872853	
563.125	0.269418723	0.2249330332	
563.75	0.1753058161	-0.07821261865	
564.375	0.4047492739	-0.1513693895	
565.0	0.03244961879	-0.4392684683	
565.625	0.0230715924	-0.2245655038	
566.25	-0.3324491702	-0.3597399826	
566.875	-0.3269001763	-0.01304935305	
567.5	-0.1699698957	-0.2881298283	
568.125	-0.4437861197	-0.5249241903	
568.75	-0.5133442069	0.07802716397	
569.375	-0.4427789211	-0.06298030098	
570.0	-0.3662251249	0.793022895	
570.625	0.1522065775	0.2203659539	
571.25	-0.3514427769	0.3488921336	
571.875	0.4229087918	-0.1215029352	
572.5	0.1914630746	0.3735587454	
573.125	0.2917055452	-0.5796315238	
573.75	-0.2157345143	-0.1110641335	
574.375	0.3208305908	-0.03747528927	
575.0	-0.1649632229	-0.3492281436	
575.625	0.2604270133	0.09058257698	
576.25	0.1635946296	-0.5238842208	
576.875	-0.2063950782	-0.08258554915	
577.5	0.3082822775	-0.3375820113	
578.125	-0.3013887317	-0.5493322073	
578.75	-0.231530751	-0.06258165542	
579.375	0.02827417353	-0.2014383164	
580.0	-0.3514029399	-0.1774778377	
580.625	0.1178244647	0.06824558103	
581.25	-0.5529518357	0.113760103	
581.875	0.3373206823	0.4314532258	
582.5	-0.08261038245	-0.01164562989	
583.125	0.1180270052	0.6324045827	
583.75	0.1540535011	-0.4476628675	
584.375	-0.01209815092	0.5518272332	
585.0	0.4686389136	-0.2282977053	
585.625	0.0152253925	0.144965292	
586.25	0.6196337043	-0.07343883774	
586.875	-0.1181791255	-0.3975408312	
587.5	0.1960795869	-0.1837569574	
588.125	-0.1737609424	-0.5589985029	
588.75	-0.07465945034	-0.02541711079	
589.375	0.473808477	-0.4504955426	
590.0	-0.3756915842	-0.3495285157	
590.625	-0.1939068079	-0.1211794435	
591.25	-0.3830023574	0.1605369941	
591.875	-0.1173825389	0.4781485151	
592.5	0.1827122966	-0.1320108505	
593.125	-0.1866067005	0.360210975	
593.75	0.1420186531	-0.03519408244	
594.375	0.2335387816	0.5588973948	
595.0	0.6489508349	0.01828209771	
595.625	0.02082245981	0.1788567996	
596.25	0.6179080964	0.3894119357	
596.875	0.2570176201	-0.4028368321	
597.5	0.06702355381	0.4927048792	
598.125	0.607526689	0.3412916447	
598.75	0.2946596896	-0.01794604183	
599.375	0.5230952474	0.1365861648	
600.0	0.3379216712	-0.5256317031	
600.625	0.2411362702	-0.1864350304	
601.25	0.3427532613	-0.5105538121	
601.875	-0.3346265436	-0.2022325778	
602.5	-0.1742703543	-0.1987065146	
603.125	-0.2898281883	0.2039908748	
603.75	-0.2533823917	0.1461291145	
604.375	-0.03878467949	0.2053662355	
605.0	-0.3860649418	-0.01586949708	
605.625	-0.004183335196	0.4468825875	
606.25	-0.235019945	-0.3083645629	
606.875	-0.5992510846	0.6292385011	
607.5	-0.04064088137	0.1051830696	
608.125	-0.4592723637	0.76042971	
608.75	0.7144836354	-0.04652344865	
609.375	0.3242502204	0.3009373813	
610.0	0.5970384955	-0.5323969831	
610.625	-0.132975102	-0.1587136794	
611.25	0.2769070831	-0.5685994289	
611.875	-0.2993861889	-0.03429179323	
612.5	-0.2595206809	-0.3639012362	
613.125	-0.5693290018	0.3440766392	
613.75	-0.1778518877	-0.05169866385	
614.375	0.1585387405	0.5345381088	
615.0	0.02664638782	-0.2091536881	
615.625	-0.0433200456	0.5838707444	
616.25	0.1530394724	0.01116652515	
616.875	-0.5176664132	0.4055891508	
617.5	0.07694803694	0.7201213726	
618.125	-0.1164052931	0.1585300314	
618.75	0.1034545735	0.6727393027	
619.375	0.2555036353	0.1451212869	
620.0	0.426299358	0.2506028298	
620.625	0.100856612	-0.4278664864	
621.25	-0.06722173658	-0.4361766552	
621.875	-0.5947312908	-0.03444083952	
622.5	-0.3016381525	0.003469583447	
623.125	-0.211233058	0.6395017849	
623.75	0.2149794333	-0.2487295353	
624.375	0.416052536	0.07277449929	
625.0	-0.2780085958	-0.0587392326	
625.625	0.4394516087	-0.1450512037	
626.25	-0.5125892196	-0.3927529777	
626.875	0.1205320771	-0.0290878118	
627.5	-0.5181509507	-0.3693531334	
628.125	-0.340083291	0.02210096944	
628.75	0.01051936459	-0.204250831	
629.375	-0.2686170693	-0.5363117665	
630.0	-0.3207788257	0.0160267016	
630.625	-0.568401162	0.02654839491	
631.25	-0.2310989629	0.6181302004	
631.875	0.02384297652	0.3190502164	
632.5	0.2676796831	0.612978291	
633.125	0.5470731612	-0.02094461349	
633.75	0.2668712219	-0.2502319519	
634.375	0.1609325178	-0.1046913549	
635.0	-0.05449038138	-0.6246740008	
635.625	-0.2432653168	0.2807596979	
636.25	-0.6048975771	-0.1819082655	
636.875	0.06841205903	0.6208053966	
637.5	-0.0650207534	-0.2291134346	
638.125	-0.1801543514	0.749845247	
638.75	-0.01390713579	-0.1228277376	
639.375	-0.3325827997	0.8725018341	
640.0	0.8026891718	0.4388430424	
640.625	0.2887120614	0.03736193687	
641.25	0.5850228616	0.3600965583	
641.875	0.4388450415	-0.8139439772	
642.5	-0.2500063707	-0.1474143981	
643.125	-0.1609710252	-0.5949922071	
643.75	-0.5187098123	0.2511798357	
644.375	-0.3290019148	-0.4269735896	
645.0	-0.3315845143	0.6991258351	
645.625	0.2500836939	0.1880941745	
646.25	0.0827825801	0.2595356103	
646.875	0.6537238663	0.03815815105	
647.5	-0.2895809719	-0.2857291667	
648.125	0.5323527026	0.5998992665	
648.75	0.6706794043	-0.7658840831	
649.375	0.009779433156	0.03619129215	
650.0	1.102994606	-1.061706219	
650.625	-0.4361109055	-0.8060693991	
651.25	0.6764434093	0.1492317804	
651.875	0.9876707799	-1.031797385	
652.5	-0.1648773622	-0.3484381513	
653.125	0.8933216508	0.1278312085	
653.75	0.3719696749	-1.030110529	
654.375	-0.4497201781	-0.1849353757	
655.0	-0.4145986925	-0.5846041131	
655.625	-0.4299553874	0.989145188	
656.25	0.1899096253	-0.03320709753	
656.875	-0.03952238536	0.4654878977	
657.5	0.3555406452	-0.0581088357	
658.125	-0.05466734748	0.4279229945	
658.75	1.042419875	0.2011502056	
659.375	0.4737824886	-0.63481395	
660.0	0.3050521225	-0.3364723039	
660.625	0.7548473615	-0.9732956093	
661.25	-0.3591880483	-0.8286479104	
661.875	0.6941153223	-0.06246503443	
662.5	0.756500521	-0.936596626	
663.125	-0.01627209295	-0.5202928417	
663.75	0.8079378633	-0.3860928377	
664.375	-0.6264694658	-0.9859396092	
665.0	-0.3502503212	-0.05592331319	
665.625	-0.8296253435	-0.01340070772	
666.25	-0.003308969628	0.9044367735	
666.875	0.05369551624	0.138662322	
667.5	0.6216158177	0.3559498591	
668.125	0.3565287131	-0.3622024476	
668.75	0.3652354463	-0.003934768093	
669.375	0.3161801731	-0.852619993	
670.0	-0.2976939114	-0.352168947	
670.625	0.1034535092	-0.2523565312	
671.25	0.2946520087	-0.5258616386	
671.875	-0.003656684307	-0.6259591405	
672.5	0.3499193355	0.1092237108	
673.125	0.5689331796	-0.8088351789	
673.75	-0.009555274504	-0.3333832395	
674.375	0.4359711269	-0.549159257	
675.0	-0.8169588185	-0.7186181525	
675.625	0.09099429085	0.1851571924	
676.25	-0.7169654792	-0.5156407321	
676.875	-0.3589430842	0.5452329951	
677.5	-0.04853041842	-0.1558247736	
678.125	-0.5807864759	0.5783176017	
678.75	0.4803747202	0.2384344683	
679.375	0.2370883591	0.2917855893	
680.0	0.6260610744	-0.4719324663	
680.625	-0.34564246	-0.0366099417	
681.25	0.6287828998	0.05002649446	
681.875	0.2980780336	-0.2357266802	
682.5	0.2035339524	0.167763737	
683.125	0.5279976807	0.3800834193	
683.75	1.047581553	0.05583479978	
684.375	0.1438415941	-0.4122704618	
685.0	0.618904674	0.6965360086	
685.625	1.104922652	-0.669682565	
686.25	-0.2330729026	0.2855903289	
686.875	1.51681021	-0.963520785	
687.5	-0.4834976232	-0.4507595443	
688.125	0.5335692498	-1.104976154	
688.75	-1.905390742	0.01589984398	
689.375	0.2374489541	0.3017459808	
690.0	-0.08893772886	1.314300317	
690.625	0.909696403	0.1881764054	
691.25	0.4198078339	0.5222056768	
691.875	1.288453778	0.8224184537	
692.5	1.168027554	0.0990844748	
693.125	1.511914887	0.02821501064	
693.75	1.275071095	-0.7612106601	
694.375	0.8230105363	-0.78782019	
695.0	0.9445877333	-0.8623856456	
695.625	0.8635399538	-0.07350185423	
696.25	1.763986643	0.1783952339	
696.875	0.6086347677	0.04979135724	
697.5	0.9369875618	1.694416024	
698.125	1.634730238	-0.8602136343	
698.75	0.8712479972	-0.2945265647	
699.375	-1.812951481	-0.9242157278	
700.0	0.333383213	0.7543413647	
700.625	-0.1175996608	1.265399184	
701.25	0.8547088163	-0.2121530693	
701.875	0.1352302532	0.6810602991	
702.5	1.409230515	0.563103746	
703.125	0.3677833176	0.0220547282	
703.75	1.301056238	-0.05001167422	
704.375	0.2768250352	-0.8650518315	
705.0	0.5793532885	0.3500328792	
705.625	0.9475382014	-0.6299702867	
706.25	0.02313352878	0.3083808128	
706.875	0.9743001128	1.21884788	
707.5	0.7585075679	-0.192368071	
708.125	1.076199778	0.6005662728	
708.75	0.33992685	-1.418715918	
709.375	-0.6170777197	-0.1738245704	
710.0	-0.4273812959	0.5867348553	
710.625	0.444313617	0.2601948492	
711.25	0.1495450807	0.3064323671	
711.875	0.6204708174	0.0908528837	
712.5	0.7289311721	-0.07437925977	
713.125	0.4617166062	-0.5387370537	
713.75	0.3003065485	-0.3672191993	
714.375	-0.003838741534	-0.8924696097	
715.0	-0.4039483267	-0.06832289539	
715.625	0.7390649819	-0.5462745494	
716.25	-0.30309364	-1.248981559	
716.875	0.5060943619	0.4777742448	
717.5	2.291542267	-0.2799551258	
718.125	0.2787917599	-1.633204	
718.75	2.885125623	1.253315031	
719.375	0.8367861678	-3.298475738	
720.0	0.381023297	-0.7923041249	
720.625	1.189903517	-3.253946186	
721.25	-2.129056529	-2.704824512	
721.875	-0.4049949277	-1.161199557	
722.5	-1.925799674	-2.120584783	
723.125	-2.079868325	0.6953875447	
723.75	-0.4559412703	0.7599729661	
724.375	-0.0413588924	1.489041496	
725.0	0.7049034317	0.4789132824	
725.625	0.1746398687	0.8206197757	
726.25	-0.2274193672	2.000912831	
726.875	1.311543893	2.950442744	
727.5	-0.4515203351	0.6107765474	
728.125	-0.6361724733	7.649145254	
728.75	7.367000054	5.307291332	
729.375	-3.4072915	0.543352438	
730.0	2.300484009	23.37681209	
730.625	6.464080031	-1.69503476	
731.25	-8.0753565	10.67884664	
731.875	-3.396742461	15.68945545	
732.5	-0.6885303917	-0.2054710678	
733.125	-8.774532732	0.9420034496	
733.75	-0.05590721949	4.853686458	
734.375	1.876525162	-0.5073525556	
735.0	0.6284793264	-1.145796194	
735.625	-1.490669156	1.479479401	
736.25	-0.4227225994	0.3104000252	
736.875	1.425362463	1.848607665	
737.5	2.901390185	-1.070150728	
738.125	1.268808298	-0.1969063781	
738.75	7.761419628	-2.76198785	
739.375	5.77723969	-9.974182219	
740.0	-5.678705294	-4.128694874	
740.625	12.69587862	14.06387535	
741.25	36.90714821	6.216770481	
741.875	0.4267516514	-18.26628097	
742.5	-8.312695955	-20.77703563	
743.125	-1.861521597	2.089835082	
743.75	3.066927215	-4.958649433	
744.375	-1.453749248	1.692508864	
745.0	-0.1203029548	-0.2146327472	
745.625	0.3472751382	-0.09058944887	
746.25	-0.3256623715	0.03307263549	
746.875	-0.6520622054	-0.1339338216	
747.5	0.003959475473	1.17030488	
748.125	1.018380397	0.8477682674	
748.75	0.493089629	0.936590839	
749.375	0.2990639088	2.271607773	
750.0	-0.4592194943	2.034019722	
