!Created with skrf (http://scikit-rf.org).
# GHz S RI R (50+0j) 
!freq	ReS11	ImS11	
500.0	-0.2100962734	-1.372925894	
500.625	0.315004542	-0.2977718731	
501.25	-0.3832523825	-0.8762397353	
501.875	-0.2316063667	-0.1897080407	
502.5	0.02188679365	-0.1217850347	
503.125	-0.07682263483	0.02692715166	
503.75	-0.002571108311	0.01816551715	
504.375	0.05266350152	0.002190418785	
505.0	-0.01062139823	-0.02742829849	
505.625	0.04176348221	-0.03209425306	
506.25	-0.1485727137	-0.02088470433	
506.875	0.03913944038	-0.1593466801	
507.5	-0.3329910619	-0.4689233604	
508.125	0.014105221	-0.2025263982	
508.75	0.8684092064	-0.7347801393	
509.375	-0.2035080303	-0.9509060863	
510.0	-0.196747495	-0.02269463461	
510.625	0.00306713266	-0.1958279852	
511.25	-0.1253988275	-0.007426375324	
511.875	-0.04291705491	-0.04230349282	
512.5	-0.03038246589	0.05934917001	
513.125	-0.04782179834	-0.02987641307	
513.75	0.003345180658	-0.06043147861	
514.375	-0.1325381483	0.03520312444	
515.0	0.2324861208	0.06835995173	
515.625	-0.5554171528	-0.2965304141	
516.25	-0.182747601	-0.08708948184	
516.875	-0.06722581679	-0.6517892646	
517.5	-0.1540953511	-0.1921503893	
518.125	0.02149898836	-0.03473784756	
518.75	-0.1215838361	-0.1241342635	
519.375	-0.01293904196	0.03363295249	
520.0	0.05620532589	0.08057327759	
520.625	0.1295498437	-0.06909053301	
521.25	-0.06345975136	-0.1914602837	
521.875	-0.09575218555	0.01016249869	
522.5	-0.1045917038	0.03095703743	
523.125	0.04891586276	0.04074244168	
523.75	-0.1712840256	-0.1013148352	
524.375	-0.1210758647	0.1914050902	
525.0	-0.0652514543	-0.001302828351	
525.625	0.0382065705	0.1309194824	
526.25	-0.05695960705	-0.08750788025	
526.875	-0.03619423888	0.1125440444	
527.5	0.03128456718	0.07952670416	
528.125	-0.01162869732	0.2563024608	
528.75	0.08158110371	0.2511663624	
529.375	0.02879495799	-0.02960106417	
530.0	0.01645472243	0.2593711391	
530.625	0.167978385	0.1070053515	
531.25	0.2617672329	-0.04970056744	
531.875	0.2591893935	-0.2214322906	
532.5	-0.08146870201	0.03626819746	
533.125	0.1650073142	-0.05268780117	
533.75	-0.01985835978	-0.174567377	
534.375	0.04329034571	-0.2291102929	
535.0	-0.2790458734	-0.1107383157	
535.625	-0.07343406812	0.1198935382	
536.25	-0.0320481424	0.07583049852	
536.875	0.1100496691	-0.004294402329	
537.5	0.02739688471	-0.01269952479	
538.125	0.1577627775	-0.05882380344	
538.75	0.06444837487	-0.1222298218	
539.375	-0.018934651	-0.1271272663	
540.0	-0.1702626123	-0.1841279098	
540.625	-0.1469540834	0.04390368455	
541.25	-0.03658302402	0.03885281842	
541.875	-0.07625806514	-0.01970757535	
542.5	0.004462462344	-0.0230540916	
543.125	-0.08830139075	-0.0865561445	
543.75	-0.1145466136	0.08649729403	
544.375	-0.05997723967	-0.01299009058	
545.0	0.01462314015	0.09369154035	
545.625	0.02330974248	-0.02113276162	
546.25	0.1046381745	0.08314495489	
546.875	0.1080377534	-0.09388592342	
547.5	0.06563677337	-0.05923218993	
548.125	-0.04175446646	-0.1928878853	
548.75	-0.1466824031	-0.04052166805	
549.375	-0.0532134322	-0.0787671913	
550.0	-0.1104050907	0.01495229755	
550.625	-0.00983198723	0.01099179314	
551.25	-0.1004139006	0.01700919691	
551.875	-0.03960997612	0.08076243951	
552.5	-0.04745455201	0.0439053931	
553.125	-0.01440804928	0.07033141661	
553.75	0.03659041694	0.02816433981	
554.375	0.09166481221	0.0044566957	
555.0	0.08435523108	-0.06994874795	
555.625	0.07479428835	-0.08972508325	
556.25	0.06050258891	-0.1272427549	
556.875	-0.03784214168	-0.1448952396	
557.5	-0.09112377147	-0.08864702168	
558.125	-0.1023614945	-0.03769051135	
558.75	-0.1048196315	-0.001878385525	
559.375	-0.09607917058	0.02586368291	
560.0	-0.09101151784	0.05997103261	
560.625	-0.05064706093	0.1216957276	
561.25	0.0198479839	0.06938985884	
561.875	0.01009275903	0.06672741205	
562.5	0.03744693322	0.02632764629	
563.125	0.03099325534	0.08134067172	
563.75	0.1656660313	0.0005227833325	
564.375	0.07563692677	-0.09678061027	
565.0	0.1022599406	-0.1068583161	
565.625	-0.06386963204	-0.197691744	
566.25	-0.07196614257	-0.04992133427	
566.875	-0.1285566768	-0.1459252778	
567.5	-0.1718824346	-0.04356630436	
568.125	-0.05991126129	-0.1478223765	
568.75	-0.2715241502	-0.08662394758	
569.375	-0.1187977955	0.147793719	
570.0	-0.1342072128	0.09769204237	
570.625	-0.07750121809	0.2389078589	
571.25	0.06149988694	0.05274019526	
571.875	0.009367458165	0.1534534446	
572.5	0.1261475165	-0.09355761779	
573.125	0.06565246921	-0.01077756285	
573.75	0.09723588507	-0.1766105743	
574.375	-0.09201666458	-0.01726186776	
575.0	0.1138761039	-0.003877536569	
575.625	-0.02813514877	-0.1181809897	
576.25	0.02394669333	-0.01150527232	
576.875	0.04873935501	-0.1872256372	
577.5	-0.08827848968	-0.1729827852	
578.125	0.003576410268	-0.03618689286	
578.75	-0.04823933303	-0.1924373977	
579.375	-0.2196557824	0.04255509299	
580.0	0.0744792582	-0.04379812632	
580.625	-0.1603956138	-0.009034756361	
581.25	0.004429146473	0.04673745605	
581.875	-0.1374946317	0.1829253785	
582.5	0.1500620642	0.200371171	
583.125	0.05490893812	-0.03551409553	
583.75	0.03142698696	0.1345984753	
584.375	0.05454408154	-0.06006642618	
585.0	0.03887687843	0.1496925202	
585.625	0.2216764037	-0.03403804915	
586.25	0.04496353388	-0.0755907664	
586.875	0.1494659738	-0.09232006148	
587.5	-0.06760633752	-0.1943705679	
588.125	-0.02259969727	-0.03229963429	
588.75	0.1091346649	-0.1606874074	
589.375	-0.0229746219	-0.1941176462	
590.0	0.01543318665	-0.08485005607	
590.625	-0.2444497518	-0.1088546782	
591.25	-0.006317295741	0.1725242254	
591.875	-0.06479250301	0.01638413938	
592.5	0.03087947536	0.1759389314	
593.125	-0.01915563413	-0.06860041936	
593.75	0.1023052819	0.2248184656	
594.375	0.1276998789	-0.02565113046	
595.0	0.06239222681	0.1049538512	
595.625	0.2311595888	0.1114637442	
596.25	0.07246115845	-0.02979244138	
596.875	0.1107908467	0.1216812501	
597.5	0.1898480293	0.01384590858	
598.125	0.08030945891	0.0343364933	
598.75	0.13808354	0.1474878671	
599.375	0.2173769615	-0.07543030286	
600.0	0.07327103739	-0.1000316261	
600.625	0.1843666	-0.1196379767	
601.25	0.0339844298	-0.2478163907	
601.875	-0.06788030362	-0.02604312893	
602.5	-0.1638593941	-0.1186226191	
603.125	-0.05864716679	0.1281133611	
603.75	-0.08012496952	-0.04662538147	
604.375	-0.1748526664	0.09893456647	
605.0	0.09293076945	-0.02684578795	
605.625	-0.154596574	-0.02024070347	
606.25	-0.122972086	0.151956901	
606.875	-0.06839692601	0.03458752715	
607.5	-0.1872278293	0.1886577755	
608.125	0.05614435007	0.2521657594	
608.75	0.1283564794	0.1581835245	
609.375	0.2869567322	0.02719426297	
610.0	0.183950425	-0.08337880992	
610.625	0.07285437109	-0.06178648511	
611.25	0.05161585694	-0.2453951917	
611.875	-0.1323324845	-0.02663014313	
612.5	-0.05518761453	-0.08654279572	
613.125	-0.2863680526	0.03458510318	
613.75	0.03265448677	0.1565610683	
614.375	-0.084671988	0.101592947	
615.0	0.1402851997	0.07498273391	
615.625	-0.09923033173	0.03427570917	
616.25	-0.07545569566	0.2391648657	
616.875	0.01152336952	0.1318804855	
617.5	-0.1281245652	0.162358333	
618.125	-0.02110922965	0.2352570569	
618.75	0.06455948324	0.12868298	
619.375	0.09856575519	0.1074763553	
620.0	0.1836058153	0.08138305937	
620.625	0.0274764094	-0.1285428406	
621.25	-0.008662113944	-0.1768515685	
621.875	-0.2260773287	-0.1716165721	
622.5	-0.1409972317	0.1290785585	
623.125	-0.1143470737	0.05087737631	
623.75	0.1801318335	0.0651553892	
624.375	-0.04870692935	-0.05990301324	
625.0	0.1145679411	-0.03489497509	
625.625	-0.02969425844	-0.09490176253	
626.25	0.02963933509	-0.1053479315	
626.875	-0.1872007758	-0.1181590627	
627.5	-0.1185280043	0.03621109895	
628.125	-0.06204650068	-0.09645962825	
628.75	-0.138560379	-0.1313197979	
629.375	-0.05783880465	-0.07132156649	
630.0	-0.1192574736	-0.08176280435	
630.625	-0.2633542054	0.0501539195	
631.25	-0.08464928767	0.1704015917	
631.875	-0.08971214637	0.2482782287	
632.5	0.1920938214	0.1826401316	
633.125	0.1477799138	-0.0487240617	
633.75	0.1963969014	0.03097110575	
634.375	0.02590377635	-0.2028496718	
635.0	0.02996216691	-0.01801980068	
635.625	-0.1668943651	-0.1482308052	
636.25	-0.1040266121	0.1536483596	
636.875	-0.03220022281	0.03228850951	
637.5	-0.09607171744	0.1524090613	
638.125	0.03928276805	0.04852335852	
638.75	-0.16697987	0.1281881479	
639.375	0.06779991057	0.2896591736	
640.0	0.1049054549	0.1182295259	
640.625	0.1677664011	0.2136752155	
641.25	0.3234881494	-0.06089421435	
641.875	0.06277108915	-0.1276663676	
642.5	0.1039751116	-0.2037128793	
643.125	-0.2242410185	-0.1234074933	
643.75	0.02288560189	0.07837203641	
644.375	-0.2367477597	-0.08941004375	
645.0	-0.05159531345	0.2108605079	
645.625	-0.07337894154	-0.003300244036	
646.25	0.2684372204	0.2498178448	
646.875	-0.01826962981	-0.189078121	
647.5	0.03568812387	0.196273158	
648.125	0.1940988807	-0.1092331438	
648.75	0.09757127477	0.003319212521	
649.375	0.4337795061	-0.1951465388	
650.0	0.02886440479	-0.4143988329	
650.625	0.09031392298	-0.1157736615	
651.25	0.3170291701	-0.2212607327	
651.875	0.1352937182	-0.3226116924	
652.5	0.1591026535	0.04623084192	
653.125	0.3797921875	-0.1294902291	
653.75	0.05361169133	-0.2489760978	
654.375	0.07767271409	-0.1623277321	
655.0	-0.3717671145	-0.2107327208	
655.625	-0.02978253943	0.3025246634	
656.25	-0.046202699	0.05368082145	
656.875	0.1431681331	0.3129247533	
657.5	-0.004495211595	-0.1044934794	
658.125	0.1236837923	0.3050104014	
658.75	0.3375028513	-0.08931187296	
659.375	0.1475574476	-0.009610462614	
660.0	0.354154969	-0.2475965266	
660.625	0.004074910926	-0.4335560683	
661.25	0.121923689	-0.07529294445	
661.875	0.3178044298	-0.2503339302	
662.5	0.1845958783	-0.2837678565	
663.125	0.1589301573	-0.08140772502	
663.75	0.2671759932	-0.328952466	
664.375	-0.1554372294	-0.2501840941	
665.0	-0.12202426	-0.1976681177	
665.625	-0.3881371841	0.04628061716	
666.25	0.01641404237	0.288035707	
666.875	-0.01615905825	0.1437421561	
667.5	0.2649597824	0.161227307	
668.125	0.1029451928	-0.1200539505	
668.75	0.2026864782	-0.007332625865	
669.375	0.05954697092	-0.4235332982	
670.0	-0.06422679605	-0.06212765579	
670.625	0.1175487267	-0.1897383277	
671.25	-0.01412495881	-0.2583255338	
671.875	0.07301075801	0.01959592806	
672.5	0.3184741593	-0.1274155444	
673.125	0.127938211	-0.2499237867	
673.75	0.1129690164	-0.1028532217	
674.375	0.1484499346	-0.2980280663	
675.0	-0.2239853662	-0.1972734011	
675.625	-0.03005066744	-0.1061357647	
676.25	-0.2611213469	-0.08890694599	
676.875	-0.08861096347	0.08477952363	
677.5	-0.07963564242	-0.09446589575	
678.125	-0.2223144815	0.230583084	
678.75	0.1361287939	0.1049857496	
679.375	0.02713752249	0.1808347588	
680.0	0.3065516421	-0.1452957943	
680.625	-0.1259614468	-0.09445959832	
681.25	0.3293173701	0.1353829405	
681.875	0.1556799675	-0.1690267894	
682.5	-0.06229843996	0.2252384594	
683.125	0.3863608585	0.2502694684	
683.75	0.2945551509	-0.1625909735	
684.375	0.09497547954	0.2039323367	
685.0	0.3940413583	0.01619658157	
685.625	0.2331970766	-0.1439123706	
686.25	0.1163623167	0.1218421343	
686.875	0.4270915162	-0.2635197109	
687.5	0.117766397	-0.1844171465	
688.125	0.130186867	-0.369429062	
688.75	-0.5125353529	-0.2491505126	
689.375	-0.1022841732	0.2958125598	
690.0	-0.1088573469	0.3205699057	
690.625	0.3918442623	0.2847242818	
691.25	0.1750955908	0.08253214235	
691.875	0.3666160625	0.5599111151	
692.5	0.7329815736	0.0345311913	
693.125	0.3228162532	0.2090506349	
693.75	0.6846724879	-0.1139240001	
694.375	0.4022242561	-0.546448461	
695.0	0.3190836211	-0.03009939464	
695.625	0.6568164014	-0.06649093885	
696.25	0.3897926747	0.02970796995	
696.875	0.2310116186	0.3568216284	
697.5	0.3204773607	0.5805745699	
698.125	0.6231348412	0.02507060556	
698.75	0.328147698	-0.3501365512	
699.375	-0.3458140221	-0.5134461815	
700.0	-0.2452002491	0.3950987819	
700.625	0.08278020411	0.1285622096	
701.25	0.2680823572	0.3534380223	
701.875	0.2465845712	0.04574889346	
702.5	0.1655137865	0.2843407506	
703.125	0.5001689774	0.1547059681	
703.75	0.1662548848	-0.1543154222	
704.375	0.2598250472	-0.008776879756	
705.0	0.3286969025	-0.2044142488	
705.625	0.1156312184	-0.02314958341	
706.25	0.2921073592	0.208589228	
706.875	0.3458003131	0.2401403102	
707.5	0.1318279512	0.2172133019	
708.125	0.3498168029	0.03765021125	
708.75	0.3108201535	-0.297590609	
709.375	-0.2239816371	-0.1363103344	
710.0	-0.2063116081	0.09309255424	
710.625	0.1344227942	0.2341742622	
711.25	-0.002963543781	-0.01481651492	
711.875	0.2203995188	0.1958574003	
712.5	0.2485443555	-0.1468583454	
713.125	0.1732200898	-0.02573301459	
713.75	0.2025905387	-0.2856201087	
714.375	-0.08805310413	-0.2120877023	
715.0	0.05547888843	-0.1064456433	
715.625	0.004075967378	-0.3127479087	
716.25	0.01673577219	-0.1699336868	
716.875	0.2911909093	-0.06186025076	
717.5	0.5992441243	-0.1394651708	
718.125	0.3997340558	-0.04183713692	
718.75	0.4813920216	0.01823963635	
719.375	0.6772638175	-0.6057770029	
720.0	-0.07608297722	-0.9105273244	
720.625	0.4222712076	-0.6338138767	
721.25	-0.2248791704	-1.470457723	
721.875	-0.2458036671	-0.224493124	
722.5	-0.4328050146	-0.9001580812	
723.125	-0.7795925635	0.01684503337	
723.75	-0.0518402262	0.1986511026	
724.375	-0.1363184958	0.5247447976	
725.0	0.3895779145	0.1671796001	
725.625	-0.01708504787	0.2754593083	
726.25	0.01146606358	0.7603883711	
726.875	0.2337295661	0.7958152852	
727.5	-0.2307257106	0.6737273125	
728.125	-0.2157654552	2.117691698	
728.75	0.6354156121	2.32854008	
729.375	-0.5670024643	1.559258423	
730.0	-0.7547251536	4.349620622	
730.625	1.973642895	3.497645311	
731.25	-0.9602233782	1.936476079	
731.875	-3.431002101	3.089173439	
732.5	-1.812447713	1.741451081	
733.125	-1.265276032	-0.99671065	
733.75	-1.210167413	1.563712186	
734.375	0.7823643894	-0.1175949639	
735.0	0.2442852278	-0.2604968483	
735.625	-0.8123963305	0.2605636392	
736.25	0.2266383623	0.09270306346	
736.875	0.1439016453	0.8189475132	
737.5	1.222712998	0.00677516638	
738.125	0.5433631892	-0.5415824225	
738.75	2.003418532	0.1549620084	
739.375	2.390413458	-2.724391908	
740.0	-0.03933321349	-1.491662729	
740.625	1.78402744	2.867886573	
741.25	3.084239599	2.555675634	
741.875	0.6466786285	-1.493790395	
742.5	-1.586151945	-3.821332976	
743.125	-0.9213662763	-1.745921662	
743.75	0.3037029078	-0.3299922207	
744.375	-0.537542057	-0.3445213271	
745.0	0.2283896485	0.05435444047	
745.625	0.08136370796	0.131673346	
746.25	-0.07983319356	-0.1253183663	
746.875	-0.06622629858	-0.01152881367	
747.5	-0.1982936579	0.3624263047	
748.125	0.2197516119	0.4591633389	
748.75	0.1382895106	0.2660408429	
749.375	0.05345293242	0.4534186043	
750.0	-0.2826565353	0.3100851399	
