!Created with skrf (http://scikit-rf.org).
# GHz S RI R (50+0j) 
!freq	ReS11	ImS11	
500.0	1.031473595	-2.777618796	
500.625	0.1586728339	-2.956479862	
501.25	-0.246868952	-3.119383815	
501.875	-2.09844317	-0.8794777215	
502.5	-0.09258031245	-0.2331264713	
503.125	-0.2628846371	-0.04358288786	
503.75	0.3106169071	0.3652900508	
504.375	-0.04948935893	0.02608488433	
505.0	0.170138785	-0.1635407162	
505.625	-0.1514239731	0.03570575489	
506.25	-0.03928947079	-0.6164017004	
506.875	0.5089283754	0.6488072405	
507.5	-0.03356818441	-2.294584694	
508.125	-1.315375651	-2.074697363	
508.75	1.168440606	-0.5970947594	
509.375	-0.3752089845	-6.614750953	
510.0	-1.882749761	0.4504878981	
510.625	-0.2423363657	-0.4898462618	
511.25	-0.5178563234	-0.1864669601	
511.875	-0.4149431737	0.02078905938	
512.5	-0.1111596762	0.172478669	
513.125	-0.08942931122	-0.3142291936	
513.75	-0.2184924752	-0.02645692897	
514.375	-0.07006420035	-0.341342857	
515.0	-1.201130225	0.2482124348	
515.625	1.935717664	-2.335486925	
516.25	-3.850442337	-2.089790819	
516.875	0.6148668066	0.05034112271	
517.5	0.00428587646	-1.29170814	
518.125	5.061236139e-06	0.4276198955	
518.75	-0.2615635143	-1.263065854	
519.375	-0.05787207198	0.2388814473	
520.0	0.1414091668	0.1937636671	
520.625	0.6773064918	-0.2263559986	
521.25	-0.3147052838	-0.6152510627	
521.875	-0.2510917269	-0.2422036887	
522.5	-0.1516679812	0.214656317	
523.125	-0.1885673597	-0.1729080528	
523.75	-0.286712297	0.243739254	
524.375	-0.2729898059	-0.1616200752	
525.0	0.007784917511	0.671131205	
525.625	-0.07621247448	-0.08750754493	
526.25	0.1555504983	0.08762764888	
526.875	-0.3609225146	0.01605990976	
527.5	0.154945318	0.7886088662	
528.125	0.01165682435	0.3165832445	
528.75	-0.1763907486	1.001238649	
529.375	0.262983129	-0.07730154411	
530.0	-0.149061703	0.9056329017	
530.625	0.5190433612	0.4619993298	
531.25	1.086912162	0.6882811771	
531.875	0.1332228532	-0.8685764444	
532.5	0.3942942755	-0.3362062085	
533.125	-0.7232692727	-0.1003516482	
533.75	0.9634737591	-0.6315938268	
534.375	-0.9041299859	-0.4379724582	
535.0	-0.2216822306	-0.3830221263	
535.625	-0.7126795266	0.5471433221	
536.25	0.07428657742	0.0528066808	
536.875	0.2932633039	0.214030722	
537.5	0.1488952779	-0.2405565057	
538.125	0.1264384225	0.0126270496	
538.75	0.516979374	-0.3793532273	
539.375	-0.2689284857	-0.2795123036	
540.0	-0.2907166997	-0.3648320992	
540.625	-0.5018243086	-0.06917162114	
541.25	-0.100286482	0.07143255884	
541.875	-0.1626860825	-0.135702606	
542.5	-0.1468532301	-0.04429869597	
543.125	-0.09624650664	-0.074529006	
543.75	-0.3034257624	-0.1308987354	
544.375	0.05692349091	0.2738581102	
545.0	-0.2422663012	0.04374951574	
545.625	0.4027327334	0.1693241395	
546.25	-0.07414925301	0.02174205207	
546.875	0.612668598	-0.02488667335	
547.5	-0.1278731581	-0.2168262886	
548.125	0.1686376539	-0.4284292493	
548.75	-0.5022614975	-0.3570244371	
549.375	-0.2018857752	0.03284184712	
550.0	-0.179252905	-0.1671615024	
550.625	-0.1473922768	0.1653067957	
551.25	-0.1393050105	-0.06137338273	
551.875	-0.2379736416	0.2674559533	
552.5	-0.03067510511	0.1119828083	
553.125	-0.08224278657	0.2059820435	
553.75	0.1126819485	0.07983149307	
554.375	0.2266227184	0.02801518546	
555.0	0.2484097427	-0.1827997989	
555.625	0.1926816701	-0.2574178752	
556.25	0.1583916072	-0.3269415275	
556.875	-0.06962676237	-0.3979473783	
557.5	-0.2463875611	-0.2489128463	
558.125	-0.2624849414	-0.08357300121	
558.75	-0.2572572428	-0.03544074885	
559.375	-0.2705431415	0.08324287759	
560.0	-0.1929320268	0.1308535353	
560.625	-0.1826997648	0.2920773428	
561.25	0.1143011964	0.232399912	
561.875	-0.02715983588	0.0630652468	
562.5	0.1163365759	0.2056299327	
563.125	0.0636812337	0.07030270159	
563.75	0.4098081569	0.1158435776	
564.375	0.2011598425	-0.356986398	
565.0	0.2299966804	-0.1687106083	
565.625	-0.141090095	-0.5127492924	
566.25	-0.2166469188	-0.09595804007	
566.875	-0.262263581	-0.3137491881	
567.5	-0.4795542512	-0.2584110074	
568.125	-0.2824380035	-0.1670815121	
568.75	-0.4715153866	-0.4499105946	
569.375	-0.6910116656	0.4557025588	
570.0	-0.05694998407	0.2680540313	
570.625	-0.5147529464	0.4397791745	
571.25	0.3814852943	0.2938157311	
571.875	-0.1999764151	0.3219960052	
572.5	0.5880745596	-0.2416151654	
573.125	-0.09379877151	0.03266148619	
573.75	0.4866296567	-0.2878477887	
574.375	-0.2228207588	-0.3668886746	
575.0	0.1725504216	0.2044991701	
575.625	0.07235849756	-0.4733711497	
576.25	-0.07409785388	0.04666366506	
576.875	0.2355243769	-0.5641925672	
577.5	-0.2695457795	-0.4608926885	
578.125	-0.01018983843	-0.09293627701	
578.75	-0.04826996576	-0.4859974724	
579.375	-0.4417038875	-0.209265451	
580.0	0.05898792999	0.1364013803	
580.625	-0.3054052389	-0.3159934966	
581.25	-0.01282698269	0.3935427623	
581.875	-0.2365950084	0.09593292315	
582.5	0.2143417474	0.6922885398	
583.125	0.2773975585	-0.1924047197	
583.75	-0.1242921179	0.3945912164	
584.375	0.3956366828	-0.2369575318	
585.0	-0.1350721129	0.4535360206	
585.625	0.7322933484	-0.01654385102	
586.25	0.1435449731	-0.3572368783	
586.875	0.2814574384	-0.02646837831	
587.5	-0.1037904115	-0.6085981267	
588.125	-0.07239994399	0.004405735871	
588.75	0.3108943321	-0.4997818096	
589.375	-0.1264675791	-0.3908096211	
590.0	0.2264595214	-0.307348144	
590.625	-0.7271451642	-0.1646934973	
591.25	-0.1036411974	0.3147593496	
591.875	-0.08238484444	0.1237978761	
592.5	-0.2048297769	0.2027349746	
593.125	0.2059863199	-0.01183871582	
593.75	-0.1670337223	0.5396507058	
594.375	0.6043162678	0.01616489592	
595.0	0.05692133381	0.2131784651	
595.625	0.6548770543	0.488059913	
596.25	0.2053640748	-0.2831658073	
596.875	0.3140107137	0.5345399967	
597.5	0.7239719378	0.05923345873	
598.125	0.06450123003	0.0236545701	
598.75	0.4219635333	0.4735563929	
599.375	0.5654936515	-0.2642532643	
600.0	0.2733121002	-0.151466841	
600.625	0.5328710949	-0.452522655	
601.25	-0.0474012934	-0.462457407	
601.875	0.06234375646	-0.3372151095	
602.5	-0.455367403	-0.003917836515	
603.125	-0.1088583168	0.06701447859	
603.75	-0.2987546916	0.1399837824	
604.375	-0.2556432917	0.1026544947	
605.0	-0.1226089064	0.3759494757	
605.625	-0.1176205348	-0.1919128148	
606.25	-0.4599302173	0.458982045	
606.875	-0.01706174082	0.05687421658	
607.5	-0.8792218665	0.2965518178	
608.125	0.3795986177	0.652110115	
608.75	-0.01780129763	0.3884116253	
609.375	0.9773790103	-0.07169175951	
610.0	-0.07028430186	-0.2614687399	
610.625	0.6207804893	-0.3078747314	
611.25	-0.273394192	-0.3808898801	
611.875	0.1185455462	-0.3213211623	
612.5	-0.6645179243	-0.03411280899	
613.125	-0.1736057534	-0.1299982032	
613.75	-0.4443248006	0.4692902702	
614.375	0.2969277319	0.04385207477	
615.0	-0.09327918435	0.4263273057	
615.625	0.2244225744	-0.09368611533	
616.25	-0.4281384907	0.2790002238	
616.875	-0.02597859063	0.7742699621	
617.5	-0.1236579651	0.08093988627	
618.125	-0.1451029416	0.8014467642	
618.75	0.2927017745	0.2633019601	
619.375	-0.08375343539	0.4913967722	
620.0	0.6231785529	-0.02586977195	
620.625	0.2306681532	-0.1923291697	
621.25	-0.2781960066	-0.5195576891	
621.875	-0.2935631525	-0.1319109905	
622.5	-0.7421579999	0.03855211044	
623.125	0.2403621829	0.3512854674	
623.75	0.08659717485	0.3929003855	
624.375	0.04880223405	-0.4260983886	
625.0	0.242588962	0.2526635283	
625.625	-0.132916112	-0.5285532679	
626.25	0.2234294216	-0.07270049325	
626.875	-0.5206758875	-0.5177237507	
627.5	-0.3551728698	0.2503548053	
628.125	0.0637060687	-0.2494664631	
628.75	-0.2845132475	-0.5242764591	
629.375	-0.243193381	-0.1250232638	
630.0	-0.3177682593	-0.3742492668	
630.625	-0.636562571	0.2688721541	
631.25	-0.1937843334	0.2155648397	
631.875	-0.201436405	0.7570386313	
632.5	0.4705501594	0.3173779265	
633.125	0.324501997	0.1713258444	
633.75	0.4728593645	-0.08174856313	
634.375	0.1921911939	-0.4887670805	
635.0	-0.1662545137	-0.07706936077	
635.625	-0.1633193787	-0.5325192805	
636.25	-0.5234071243	0.4692090155	
636.875	0.1785945336	-0.03686401529	
637.5	-0.5254951651	0.5518523207	
638.125	0.2325876881	-0.06532986037	
638.75	-0.6235049984	0.474471182	
639.375	0.5117505941	0.7223676131	
640.0	-0.1802122939	0.1680910273	
640.625	0.6835592055	0.7801182846	
641.25	0.7948646273	-0.3671143055	
641.875	0.05734773435	-0.254926597	
642.5	0.4120667789	-0.5175283403	
643.125	-0.7384046762	-0.144025598	
643.75	0.0856137351	-0.2820380244	
644.375	-0.759492067	0.07958341752	
645.0	0.03754633484	0.2739542792	
645.625	-0.3220362788	0.5714218959	
646.25	0.7330672319	0.1583432023	
646.875	0.006616496969	-0.2153204607	
647.5	0.07516532594	0.4392855578	
648.125	0.6778724004	-0.2901547947	
648.75	-0.0485324534	0.2598251977	
649.375	1.242270488	-0.7662935076	
650.0	-0.2929486457	-0.9464419695	
650.625	0.5566328651	0.08834073799	
651.25	0.9687490272	-1.231987264	
651.875	-0.2924218697	-0.3762332212	
652.5	0.9123657109	0.401016506	
653.125	0.8825447558	-0.8032704148	
653.75	-0.03712438924	-0.3257727243	
654.375	0.4604619423	-0.8387297301	
655.0	-1.052054687	0.01461860334	
655.625	-0.005629776282	0.2366349885	
656.25	-0.417636998	0.553907998	
656.875	0.6321057744	0.04876950762	
657.5	-0.4116619387	0.3532095384	
658.125	0.6391724254	0.4774495774	
658.75	0.6316701578	-0.05775715431	
659.375	0.4133855664	-0.1027547455	
660.0	1.109739481	-0.6955947242	
660.625	-0.273711789	-0.966536701	
661.25	0.5607496451	-0.2068231554	
661.875	0.8061563251	-0.9155458093	
662.5	-0.04265004669	-0.4957467994	
663.125	1.086837682	-0.0483918125	
663.75	0.0959705885	-1.155574329	
664.375	-0.1102243926	-0.2394114913	
665.0	-0.3901047032	-0.8420002825	
665.625	-0.9968160166	0.4201085627	
666.25	0.01741846741	0.3166849317	
666.875	0.08549978626	0.725918	
667.5	0.6037566213	-0.02947662679	
668.125	0.2677354398	0.3064714383	
668.75	0.617809537	-0.676615159	
669.375	-0.02578705971	-0.3501922217	
670.0	0.2442713589	-0.3763191577	
670.625	0.08917295355	-0.6548438807	
671.25	-0.1678256468	-0.505694994	
671.875	0.2846216762	0.03858405892	
672.5	0.8037933534	-0.5578157525	
673.125	0.1303724446	-0.5251150026	
673.75	0.6064480025	-0.1503423762	
674.375	-0.1845392782	-1.026766014	
675.0	0.002065747798	-0.09383874952	
675.625	-0.4187311395	-0.7905273295	
676.25	-0.8103017557	0.2980198238	
676.875	0.2892271336	-0.1177094509	
677.5	-0.8771631727	-0.1127739435	
678.125	0.04861021221	0.5246106311	
678.75	-0.1489482645	0.26329812	
679.375	0.7561361872	0.4759800705	
680.0	-0.07986010486	-0.4604608281	
680.625	0.4782976708	0.05050196954	
681.25	0.2413385032	-0.3466985484	
681.875	-0.08790812879	0.2214076185	
682.5	0.8825972789	0.4930528016	
683.125	0.5871789714	-0.1940063827	
683.75	0.4192488787	0.09757364165	
684.375	0.3960065317	0.4503636011	
685.0	1.300338851	0.03347425752	
685.625	-0.2038201863	-0.3028465347	
686.25	1.467340705	0.4132565924	
686.875	0.1565232885	-0.9998821916	
687.5	0.8295339128	0.1317312627	
688.125	-0.294321858	-2.033407307	
688.75	-0.3397199761	0.4777510283	
689.375	-1.470547529	0.2010613962	
690.0	0.8598914373	1.093376233	
690.625	0.1266277391	0.2257699954	
691.25	0.9255523513	1.083062361	
691.875	1.040591685	0.3179481899	
692.5	1.217269813	0.7023901196	
693.125	1.708688365	-0.1065663698	
693.75	1.049637256	-0.5935722887	
694.375	1.172838325	-0.9084806163	
695.0	0.8579913262	-0.6847814667	
695.625	1.411809794	-0.0819269649	
696.25	1.035265186	-0.1635610225	
696.875	0.3669050923	1.298667024	
697.5	1.912105387	1.107321203	
698.125	0.4305206746	0.325704286	
698.75	1.877117975	-1.129981776	
699.375	-1.484120484	-0.3133445248	
700.0	-0.9788718959	-0.1004217494	
700.625	0.9324102674	1.147636476	
701.25	0.0116745125	0.1130006799	
701.875	0.9278388449	1.157526217	
702.5	0.6507846118	-0.0483582427	
703.125	0.8967799321	0.7717516719	
703.75	1.071037023	-0.650486291	
704.375	0.234364277	0.009636494801	
705.0	1.086958963	-0.6338083635	
705.625	0.1046918917	-0.2228725695	
706.25	0.6176563712	1.096815099	
706.875	1.139455915	0.006167731786	
707.5	-0.05291724266	0.9857442323	
708.125	1.698535429	0.3582353516	
708.75	0.08076214263	-0.9259801467	
709.375	-0.3938536269	-0.8662447235	
710.0	-0.5930160934	0.8439346075	
710.625	0.05912727487	0.1136568075	
711.25	0.3904957456	0.44396512	
711.875	0.4172540523	0.1582943183	
712.5	0.7278515503	0.06598404648	
713.125	0.6278386068	-0.4799485841	
713.75	0.4360897742	-0.5671363541	
714.375	-0.2799153286	-0.5735022117	
715.0	0.4075189446	-0.1927574565	
715.625	-0.30508602	-1.138177847	
716.25	-0.05721543117	0.1048742383	
716.875	1.64965529	-0.1359062379	
717.5	1.175350788	-1.678954585	
718.125	0.6383372557	1.800793387	
718.75	3.377311719	-1.330915888	
719.375	-0.2120673025	-1.135864261	
720.0	4.117125417	-1.641910317	
720.625	-1.817985846	-3.495435498	
721.25	0.5317668028	-1.09898511	
721.875	-0.1278290149	-3.06522649	
722.5	-2.370846745	-2.025328341	
723.125	-1.271744793	0.1420585256	
723.75	-1.545411716	0.9358557082	
724.375	0.5338480287	1.071824604	
725.0	0.1046530121	0.7215949425	
725.625	0.2900105654	1.381262109	
726.25	0.882873497	1.592525929	
726.875	-0.3167897162	1.146673131	
727.5	-1.782881861	4.199040629	
728.125	2.545313446	6.958278496	
728.75	1.379577635	1.030007266	
729.375	-11.17911019	16.28340089	
730.0	7.74837074	8.564655134	
730.625	-7.941406635	2.349037531	
731.25	-2.739072907	23.00747264	
731.875	3.580491965	0.4654013382	
732.5	-14.09414067	-2.614782836	
733.125	-6.862318714	4.323681465	
733.75	-0.4214564539	3.186995747	
734.375	0.4547680976	1.541337759	
735.0	-0.04929591275	-2.744457695	
735.625	-0.1760875129	0.4739132688	
736.25	-0.7918375565	1.366420094	
736.875	2.020449236	1.454620616	
737.5	0.6236359941	0.4435944275	
738.125	5.893892673	-0.8341453488	
738.75	3.599818827	-5.544138379	
739.375	-0.07595097397	-4.437675597	
740.0	8.391924893	9.926883325	
740.625	21.92108011	-10.82697073	
741.25	-7.855758632	-16.1470764	
741.875	-22.92783105	-0.9202041519	
742.5	-8.387375757	6.924278423	
743.125	7.721247758	-1.288067221	
743.75	-2.331244055	-6.3519056	
744.375	0.1077741048	0.6373349804	
745.0	-0.4946761441	0.6906658168	
745.625	-0.04774307578	-0.4205553685	
746.25	0.3900827592	-0.3000050706	
746.875	-0.4518657257	0.1786272891	
747.5	0.07250248972	0.5977995624	
748.125	0.2242772449	1.074376118	
748.75	0.538760977	1.707113459	
749.375	0.5518746103	1.049389109	
750.0	-0.3973065422	-0.2408819572	
