!Created with skrf (http://scikit-rf.org).
# GHz S RI R (50+0j) 
!freq	ReS11	ImS11	
500.0	-1.457844767	-1.62045796	
500.625	1.395007499	-1.578195148	
501.25	-0.9772381212	-2.504004126	
501.875	-2.484352394	-1.142038367	
502.5	0.01219006456	-0.09359190089	
503.125	-0.4338512986	0.0500393109	
503.75	0.1468955299	-0.0424174379	
504.375	0.1712108721	0.0425588771	
505.0	-0.09722140708	-0.06890316313	
505.625	0.2766935915	-0.2545869342	
506.25	-0.6113444262	0.1609854974	
506.875	0.2187820404	-0.6968844036	
507.5	-0.6714233396	-2.313418846	
508.125	-1.39302069	-1.093888864	
508.75	3.118023787	-2.039577562	
509.375	-3.349465054	-4.777509096	
510.0	-0.5309436426	-0.213983599	
510.625	-1.039170927	-0.7666700965	
511.25	-0.08553141567	0.1157747656	
511.875	-0.5781574451	-0.3741338021	
512.5	-0.04679686365	0.2704571507	
513.125	-0.1207477712	-0.3015170468	
513.75	-0.02173251243	-0.1054977822	
514.375	-0.5228016322	-0.4039108754	
515.0	0.7732661765	1.544523383	
515.625	-1.721612727	-3.599257655	
516.25	-0.605709758	0.7435674185	
516.875	0.2740481387	-2.745695488	
517.5	-1.094290774	-0.2830551342	
518.125	0.2840141669	-0.3354913474	
518.75	-0.7571205376	-0.3298057499	
519.375	-0.1012958299	-0.03732514708	
520.0	0.4141757892	0.3491368777	
520.625	0.4417884359	-0.394377217	
521.25	0.07296912408	-0.3904001444	
521.875	-0.6293278445	-0.255271765	
522.5	0.0696585887	0.07406614654	
523.125	-0.3238230263	0.2034212455	
523.75	-0.04370300152	-0.1057403724	
524.375	-0.7514064196	0.2776427707	
525.0	0.1312696024	0.0200537264	
525.625	-0.06495268073	0.3019294357	
526.25	0.06641629662	-0.2974213365	
526.875	-0.190228652	0.3928843433	
527.5	0.1011581661	0.2436070217	
528.125	-0.2827613999	0.9912395295	
528.75	0.5519906001	0.8762897573	
529.375	-0.1425216943	0.1827128023	
530.0	0.4732528092	0.352340224	
530.625	-0.2868318244	1.053890246	
531.25	1.679523333	-0.1908245744	
531.875	0.3256011809	-0.06748250151	
532.5	-0.1720420385	-0.6873041863	
533.125	0.3503065529	0.4008338054	
533.75	0.1018756513	-0.97461555	
534.375	-0.01943311473	-0.2658617123	
535.0	-1.048743538	-0.7159625781	
535.625	-0.1146247523	0.4654672372	
536.25	-0.1053078833	0.1745533211	
536.875	0.3604414639	0.09283887278	
537.5	0.0417040437	-0.1269341994	
538.125	0.5070753466	-0.0628481094	
538.75	0.1402023601	-0.4000295919	
539.375	0.02004115507	-0.3916655093	
540.0	-0.6027697249	-0.5196846581	
540.625	-0.2606969582	0.1396007094	
541.25	-0.1917502632	-0.0736321572	
541.875	-0.1521169509	-0.1287910504	
542.5	-0.1972834736	0.01697803462	
543.125	-0.02797468259	-0.2660070182	
543.75	-0.4354275083	0.1129313607	
544.375	0.02798831609	-0.09020128167	
545.0	-0.01976264414	0.3445400863	
545.625	0.03455145765	-0.0862056171	
546.25	0.3305083951	0.3951535082	
546.875	0.1553324285	-0.3352364521	
547.5	0.2808008191	-0.04823321107	
548.125	-0.07028461918	-0.6460707369	
548.75	-0.4016166885	-0.1125194864	
549.375	-0.07722266726	-0.226740762	
550.0	-0.3554608025	0.0340673053	
550.625	0.0272450733	-0.02973015937	
551.25	-0.3465626277	0.09627580359	
551.875	-0.03406543193	0.1516050396	
552.5	-0.2260146494	0.1610620252	
553.125	0.005613422346	0.1935707311	
553.75	0.08616385257	0.1093155923	
554.375	0.2538313382	0.03370514191	
555.0	0.2482793744	-0.1845999549	
555.625	0.2157094289	-0.2424693048	
556.25	0.1895308821	-0.3497404572	
556.875	-0.08570952919	-0.4021661347	
557.5	-0.2300578038	-0.2556772611	
558.125	-0.2749561954	-0.1204083145	
558.75	-0.285361796	-0.007098856197	
559.375	-0.2320731303	0.04907555998	
560.0	-0.2721550866	0.1377710198	
560.625	-0.1191809818	0.3261352065	
561.25	0.03573906436	0.1559814436	
561.875	0.05506342551	0.2117809945	
562.5	0.03051317939	0.006914696745	
563.125	0.1635836531	0.3163554717	
563.75	0.3451356656	-0.1396240974	
564.375	0.2424958704	-0.04526395954	
565.0	0.3064373595	-0.4600496897	
565.625	-0.1923202886	-0.3382142923	
566.25	-0.1272731839	-0.2221768377	
566.875	-0.403226049	-0.334705544	
567.5	-0.3871495806	-0.07073696168	
568.125	-0.1496868314	-0.5265599919	
568.75	-0.7521462608	-0.1676595824	
569.375	-0.3543408267	0.1566738146	
570.0	-0.6195867125	0.4370353085	
570.625	0.06186622514	0.6620836884	
571.25	-0.09329801527	-0.06321921282	
571.875	0.2983956266	0.5565837337	
572.5	0.02310771543	-0.2150968017	
573.125	0.4933210308	-0.01246965686	
573.75	0.03712174538	-0.5849868569	
574.375	-0.04993463336	0.1577287605	
575.0	0.2601419913	-0.390048711	
575.625	-0.1272679519	0.09315474695	
576.25	0.4513091528	-0.2620721809	
576.875	-0.2087076295	-0.5453792022	
577.5	-0.0752161976	-0.09828038656	
578.125	0.149786802	-0.4553551676	
578.75	-0.393598368	-0.4546667769	
579.375	-0.1524414054	0.06102480506	
580.0	-0.01820848478	-0.3306365034	
580.625	-0.2138479269	0.1882683372	
581.25	-0.2592729807	-0.1579542455	
581.875	-0.05306877014	0.6877008495	
582.5	0.4383065414	0.1622495486	
583.125	-0.2539273327	0.04604344481	
583.75	0.5525027759	0.3419695662	
584.375	-0.361162218	-0.1047645786	
585.0	0.5702978302	0.4142648207	
585.625	0.1829047852	-0.3213108248	
586.25	0.4398185212	0.2796253005	
586.875	0.1603067541	-0.6762726308	
587.5	-0.03139378038	-0.02364279356	
588.125	0.2354965007	-0.4615124768	
588.75	-0.09951761677	-0.5764238432	
589.375	0.07052767938	-0.04971793003	
590.0	0.08494487575	-0.6128383647	
590.625	-0.5391191711	-0.02657125965	
591.25	-0.1994649106	0.1499191234	
591.875	-0.2775071442	0.290899952	
592.5	0.2028394948	0.09294488489	
593.125	-0.221699861	0.219955443	
593.75	0.2421018438	0.2104101251	
594.375	0.09178574003	0.1806884888	
595.0	0.4276937308	0.6788493258	
595.625	0.7521796177	-0.2017289692	
596.25	-0.0609564244	0.3258853428	
596.875	0.7682695189	0.2327358314	
597.5	0.1577940507	-0.1104302017	
598.125	0.3046003062	0.6923026009	
598.75	0.5199010279	-0.09664961049	
599.375	0.3089664065	0.2272207082	
600.0	0.6861123196	-0.4606230337	
600.625	0.1566982929	-0.5093412871	
601.25	0.2591729396	-0.2189711856	
601.875	-0.1255377683	-0.5000053318	
602.5	-0.3010868739	-0.02309084064	
603.125	-0.2182562312	0.1294029727	
603.75	-0.2847164979	0.03317218659	
604.375	-0.3336474654	0.3077052171	
605.0	-0.04576673439	0.02871105102	
605.625	-0.371366657	0.227840816	
606.25	-0.03950710477	0.1415946958	
606.875	-0.6961520692	-0.09844435591	
607.5	-0.1865179031	0.8144113857	
608.125	-0.2622061311	0.1574181861	
608.75	0.5611018144	0.9084892432	
609.375	0.2550795249	-0.36600368	
610.0	0.6100673786	0.06800967779	
610.625	0.1473763431	-0.6325317038	
611.25	0.08826515903	-0.02711680535	
611.875	-0.4291297272	-0.5987890573	
612.5	-0.1417362858	0.002383500262	
613.125	-0.5947762345	-0.1504557931	
613.75	-0.04310857496	0.531656614	
614.375	-0.2643409916	0.2441679003	
615.0	0.3898943619	0.08179553862	
615.625	-0.3558929798	0.1211042083	
616.25	0.1300235385	0.6751267941	
616.875	-0.1512452791	0.028464542	
617.5	-0.4753806625	0.743086913	
618.125	0.2600732224	0.5189386305	
618.75	-0.2417158307	0.2971614324	
619.375	0.3893207703	0.5411687823	
620.0	0.2455691631	0.08081780495	
620.625	0.4596180772	-0.3848187268	
621.25	-0.2352883291	-0.319017673	
621.875	-0.4752823272	-0.3940937348	
622.5	-0.4843555521	0.2280279516	
623.125	-0.221373806	0.2962181366	
623.75	0.5516546637	0.1458154795	
624.375	-0.2071765588	0.05019547424	
625.0	0.4116999101	-0.4426868908	
625.625	-0.07443277238	0.1727731724	
626.25	0.1275494925	-0.6304631615	
626.875	-0.5733906961	-0.01077275994	
627.5	0.03468828162	-0.2131997219	
628.125	-0.5667158423	-0.3027622048	
628.75	-0.05414187429	-0.02416988026	
629.375	-0.1014413877	-0.6436610468	
630.0	-0.6197818781	-0.08544827578	
630.625	-0.287364423	-0.03071936475	
631.25	-0.5792587382	0.3915626325	
631.875	-0.02305764219	0.658455699	
632.5	0.3762885406	0.4608161268	
633.125	0.3145301952	0.1345959886	
633.75	0.6486547671	-0.05712064698	
634.375	-0.02410902716	-0.2456314791	
635.0	0.1958050101	-0.394748176	
635.625	-0.5434365917	-0.1398849815	
636.25	-0.1959912732	-0.1220009019	
636.875	-0.3962803373	0.5151407332	
637.5	0.2436891696	0.1626408127	
638.125	-0.5516513551	-0.07849583691	
638.75	-0.03111475452	0.8418801453	
639.375	0.103053054	0.145884932	
640.0	-0.02788136792	0.7914260053	
640.625	0.8765775532	0.3874226109	
641.25	0.3386785773	-0.08274180975	
641.875	0.9309243012	-0.3366695756	
642.5	-0.3502847192	-0.3825072091	
643.125	0.1525973648	-0.3289041203	
643.75	-0.6776925878	-0.4031152807	
644.375	-0.1187699353	0.3293994497	
645.0	-0.5042753425	-0.05146175647	
645.625	0.06581457631	0.8398480332	
646.25	0.5898905933	-0.03688095106	
646.875	-0.1831872655	0.1291979506	
647.5	0.7003518718	-0.07610589534	
648.125	-0.1786574613	0.4249670628	
648.75	1.151212589	-0.1604250021	
649.375	0.03935731314	-0.7851663652	
650.0	0.6334436571	0.06243208863	
650.625	0.8630864198	-1.431143968	
651.25	-0.3616022012	-0.5262265786	
651.875	0.846093119	0.3443164045	
652.5	1.119807669	-0.6564809442	
653.125	0.1069572264	-0.3300126213	
653.75	1.038561746	-0.2646344939	
654.375	-0.4654710149	-0.9492707926	
655.0	-0.2265573654	0.000819806337	
655.625	-0.9146984235	0.02739352886	
656.25	0.4834455136	0.7872930772	
656.875	-0.2295701655	-0.1518575404	
657.5	0.1983725973	0.5512387722	
658.125	0.4108938505	0.1302902543	
658.75	0.2920344442	0.456942923	
659.375	1.223087202	-0.4703774616	
660.0	0.1792834042	-0.6591396697	
660.625	0.5560435743	-0.4302615774	
661.25	0.775809764	-1.112650422	
661.875	-0.1738718066	-0.6427296235	
662.5	0.9039998578	0.2049071919	
663.125	0.9337988505	-0.9451828381	
663.75	-0.04214047703	-0.3940401511	
664.375	0.4917001388	-0.9527833215	
665.0	-1.033886282	-0.2330484806	
665.625	-0.415818732	-0.2115651752	
666.25	-0.5897904974	0.889473383	
666.875	0.5610442546	0.3561857812	
667.5	-0.01188470126	0.283044446	
668.125	0.8815583562	0.1166289873	
668.75	0.302597692	-0.507895778	
669.375	0.2158633436	-0.2721309422	
670.0	0.2474334427	-0.6834995287	
670.625	-0.2716452789	-0.344199785	
671.25	0.3737244648	-0.3729865055	
671.875	0.2832402286	-0.575423649	
672.5	0.2303451862	-0.2322447137	
673.125	0.8334787087	-0.193125672	
673.75	0.387645373	-0.9793983387	
674.375	-0.2057740679	-0.1940167434	
675.0	0.3534686457	-0.7558825357	
675.625	-0.9479858524	-0.4961446059	
676.25	0.1597796054	0.1740381026	
676.875	-0.9090616937	-0.3261395362	
677.5	0.07128022077	0.3607181139	
678.125	-0.798055705	-0.1438526659	
678.75	0.563350496	0.9610120788	
679.375	0.0004340453972	-0.03129322566	
680.0	0.5118884777	0.1285278827	
680.625	0.4289193227	-0.4876753812	
681.25	-0.2437883421	-0.08590912008	
681.875	0.4498360254	0.4959599908	
682.5	0.6849933855	0.06793947572	
683.125	0.4826414395	0.0266758962	
683.75	0.4370641663	0.5080557029	
684.375	1.028598838	-0.1624707542	
685.0	0.1990042109	0.2099194362	
685.625	1.038342708	0.3076326968	
686.25	0.6756666063	-0.7078497746	
686.875	0.4087679801	0.6713636372	
687.5	1.488777661	-1.499068263	
688.125	-0.7088556353	-0.2103448941	
688.75	-0.4937367887	-1.347433719	
689.375	-0.8656776187	1.384071508	
690.0	0.07492174913	0.143458341	
690.625	0.8057065003	1.364835157	
691.25	0.5809431059	0.1584545647	
691.875	0.7737597998	1.141798341	
692.5	1.76773902	0.5889932267	
693.125	1.25922976	-0.1576836571	
693.75	1.534724496	-0.4103723373	
694.375	0.9508694711	-0.9082590078	
695.0	1.429485083	-0.5853814226	
695.625	1.033304157	-0.5342629872	
696.25	0.8189659837	0.9306040425	
696.875	1.777180879	0.9676447634	
697.5	0.3142574294	0.6435467672	
698.125	1.799755284	1.485021199	
698.75	0.5258220537	-1.54847253	
699.375	0.2403793494	-1.166115173	
700.0	-1.173039555	1.370189694	
700.625	0.3753331583	0.06650873399	
701.25	0.5958018246	1.258375274	
701.875	0.6503750414	0.00803232114	
702.5	0.5034150201	1.017142914	
703.125	1.431622185	0.1513360707	
703.75	0.41252394	0.06945575009	
704.375	1.185778656	-0.6391808855	
705.0	0.1278930827	-0.5105594445	
705.625	0.876720702	0.7356463317	
706.25	1.083521649	-0.1896492254	
706.875	-0.06003734309	0.7153386177	
707.5	0.9922454164	1.441017426	
708.125	0.7771285234	-0.1744055873	
708.75	1.335971074	-0.4401995921	
709.375	-1.127692631	-0.8443224243	
710.0	-0.2308249762	0.1330307668	
710.625	0.04278923733	0.7177958285	
711.25	0.2467034982	0.05055997141	
711.875	0.4492128412	0.4504608461	
712.5	0.701932148	-0.1126029421	
713.125	0.9598922474	-0.2583247692	
713.75	0.0770410859	-0.8376490587	
714.375	0.3911389144	-0.1864519838	
715.0	-0.3499256931	-0.8894925212	
715.625	-0.0302780898	0.01091008201	
716.25	1.136625442	-0.9196967212	
716.875	-0.01036731511	-1.091194953	
717.5	1.059907399	1.250830529	
718.125	3.236442355	-0.1713484846	
718.75	0.2742126188	-1.420717284	
719.375	3.527270833	1.058779243	
720.0	0.9074160724	-3.954099486	
720.625	0.6997295582	-1.322287618	
721.25	1.061474246	-3.078870293	
721.875	-1.661518229	-2.496309355	
722.5	-0.2372480207	-2.07139843	
723.125	-2.540238809	-0.7425733794	
723.75	-0.7174843042	1.323227545	
724.375	-0.188183845	0.8043797885	
725.0	0.08814571562	1.2536082	
725.625	1.117518835	1.198967166	
726.25	-0.04672132588	0.7468319334	
726.875	-1.258208507	2.941126691	
727.5	1.773250123	4.532008998	
728.125	-1.667541491	0.9930461047	
728.75	-1.090804896	11.5377483	
729.375	6.233889681	6.946569608	
730.0	-8.024465601	3.841766665	
730.625	4.019837013	20.01369218	
731.25	3.265029693	-0.8262201728	
731.875	-14.38552216	4.7123266	
732.5	-12.52443984	4.479538913	
733.125	-3.762874615	3.344123546	
733.75	-5.244654824	1.298704238	
734.375	3.106724686	0.5648714453	
735.0	0.08392314926	-0.853953884	
735.625	-1.793345978	-0.7520132507	
736.25	1.10621644	1.532150823	
736.875	-0.3093913846	1.058336481	
737.5	3.381387701	1.587338656	
738.125	5.112457936	-2.145803912	
738.75	0.2782245763	-4.725011638	
739.375	10.97282274	4.829168035	
740.0	14.32327875	-17.02510724	
740.625	-7.893192581	-1.547648789	
741.25	1.099593086	32.50246615	
741.875	15.20018566	6.440982618	
742.5	0.1191144418	-11.41621402	
743.125	-4.912113963	-7.961026552	
743.75	-0.8321360699	0.2257820266	
744.375	-0.5810714062	-1.759788573	
745.0	0.4459988153	0.8561565338	
745.625	-0.09421540612	0.2794128721	
746.25	-0.03794276678	-0.5669102429	
746.875	-0.5970509056	0.03795041482	
747.5	-0.8032703774	0.6768553293	
748.125	0.3600058034	1.92449805	
748.75	0.8465003294	0.7693406715	
749.375	-0.03673971854	1.094613999	
750.0	-1.040675426	-0.130779077	
