!Created with skrf (http://scikit-rf.org).
# GHz S RI R (50+0j) 
!freq	ReS11	ImS11	
500.0	0.2141982493	-5.860917726	
500.625	-1.048909045	-3.639898396	
501.25	-0.8150257204	-0.09936592076	
501.875	-1.332927326	-2.19265121	
502.5	-0.43485613	-0.06689434323	
503.125	-0.2207405331	-0.08683330605	
503.75	0.2619164286	0.2580121873	
504.375	0.02313975553	0.06725461811	
505.0	0.06664877699	-0.2164200003	
505.625	0.02142338957	0.1289816379	
506.25	-0.2787924987	-0.6750117247	
506.875	0.0508655349	0.8367543157	
507.5	0.9032898135	-1.119348856	
508.125	-0.4158910228	-3.078315568	
508.75	-0.4128720103	-1.023493184	
509.375	0.2031298033	-5.495538276	
510.0	-1.480768906	0.5544672795	
510.625	0.1199787885	-0.9005332702	
511.25	-0.8335552871	-0.01617228611	
511.875	-0.2088205977	-0.04112685217	
512.5	-0.08626569059	0.1396567847	
513.125	-0.08769879249	-0.2874666247	
513.75	-0.4256507627	0.001876513823	
514.375	-0.009879231629	-0.3142179844	
515.0	-0.9707816287	0.04211859931	
515.625	1.464392877	-1.783783647	
516.25	-3.447780776	-1.777156246	
516.875	0.5453700749	-0.006037809799	
517.5	-0.08196806608	-1.229288052	
518.125	0.02220150464	0.3056253666	
518.75	-0.1326552638	-0.9963135433	
519.375	-0.07546743135	0.2429004664	
520.0	0.1240900963	0.1922930817	
520.625	0.7049842583	-0.3012085242	
521.25	-0.4043897098	-0.4757840302	
521.875	-0.1654082964	-0.2462376729	
522.5	-0.1926227786	0.2059324292	
523.125	-0.2861841746	-0.156566499	
523.75	-0.1669342819	0.2161551717	
524.375	-0.4028602631	-0.2217649366	
525.0	0.1442036031	0.6587385253	
525.625	-0.02504583284	-0.07619611737	
526.25	0.1017742955	0.09913977994	
526.875	-0.2874059521	-0.01346788784	
527.5	0.1001781039	0.8349944699	
528.125	0.1058023304	0.2733489641	
528.75	-0.09501824438	0.9783727836	
529.375	0.1725883533	-0.1200366267	
530.0	0.2555761566	0.9305209211	
530.625	0.2950045117	0.2831339752	
531.25	1.165395122	0.7606773715	
531.875	0.2159082886	-0.922403505	
532.5	0.1748678037	-0.2605574659	
533.125	-0.2973390154	-0.251150128	
533.75	0.7126066609	-0.5873072916	
534.375	-0.8799279832	-0.4497112087	
535.0	-0.245876503	-0.3641481224	
535.625	-0.6916322891	0.4561596404	
536.25	0.1354735176	0.1728691816	
536.875	0.1912722749	0.1715437069	
537.5	0.1925197364	-0.2188195648	
538.125	0.1371284729	0.02907775923	
538.75	0.4962083317	-0.4952916957	
539.375	-0.2220051422	-0.1767273479	
540.0	-0.221034013	-0.4772350893	
540.625	-0.5620216211	-0.01497948966	
541.25	-0.1563588114	0.06704179666	
541.875	-0.0198868215	-0.03154366423	
542.5	-0.2309977746	-0.2164145564	
543.125	-0.1135419853	0.0832859887	
543.75	-0.2650575217	-0.160930466	
544.375	0.03350224409	0.2210678927	
545.0	-0.1738506671	0.09172539115	
545.625	0.3451065091	0.1124984353	
546.25	-0.06149160742	0.06982522019	
546.875	0.6057193439	-0.03796279036	
547.5	-0.1014624338	-0.2808029364	
548.125	0.1059518507	-0.316180249	
548.75	-0.4296515146	-0.4127177423	
549.375	-0.2423067941	0.04437154806	
550.0	-0.2084266676	-0.1616189913	
550.625	-0.0813647416	0.1639676063	
551.25	-0.1934368622	-0.07688956934	
551.875	-0.2074761604	0.3030263121	
552.5	-0.02080003562	0.1233347613	
553.125	-0.08133818596	0.161283211	
553.75	0.1447826178	0.1000174756	
554.375	0.1987067693	0.004668015678	
555.0	0.2498107989	-0.1717265513	
555.625	0.179606833	-0.2663904349	
556.25	0.1534506159	-0.3331502055	
556.875	-0.09014586787	-0.3829277053	
557.5	-0.2399648716	-0.2314572348	
558.125	-0.2686867379	-0.07814420409	
558.75	-0.25633334	-0.02918747297	
559.375	-0.2786148317	0.077601915	
560.0	-0.1750689704	0.1645224626	
560.625	-0.1679948743	0.2448103344	
561.25	0.09639007272	0.265504817	
561.875	-0.03148065307	0.07069500991	
562.5	0.149129672	0.1418460659	
563.125	0.03038502438	0.1601174762	
563.75	0.4489248705	0.05194323871	
564.375	0.1722236518	-0.3546448668	
565.0	0.1636027023	-0.187451618	
565.625	-0.01731040163	-0.4716453365	
566.25	-0.367806196	-0.1492307587	
566.875	-0.1689935221	-0.1936429969	
567.5	-0.4614148287	-0.3432329616	
568.125	-0.2765629453	-0.1623563457	
568.75	-0.5742985798	-0.3838426128	
569.375	-0.5218043059	0.4282378269	
570.0	-0.1832185062	0.2508075894	
570.625	-0.4739050313	0.462747681	
571.25	0.3871833111	0.3599273963	
571.875	-0.2105217774	0.214872426	
572.5	0.6043222905	-0.1156229501	
573.125	-0.09856005356	-0.1093216297	
573.75	0.4480867597	-0.2027937278	
574.375	-0.2819135712	-0.2987544237	
575.0	0.2761637988	0.1467435383	
575.625	-0.02987224084	-0.4493014649	
576.25	-0.09245106682	0.03423278247	
576.875	0.2821938647	-0.4709134889	
577.5	-0.1999320052	-0.5297545366	
578.125	-0.1362874312	-0.1293837966	
578.75	-0.005715480966	-0.3986558728	
579.375	-0.4451684216	-0.1729932998	
580.0	0.104490612	0.03489829356	
580.625	-0.3679820052	-0.1821456874	
581.25	0.01221144228	0.2744372974	
581.875	-0.2275147211	0.1404625781	
582.5	0.08714201447	0.7160754797	
583.125	0.4643470758	-0.1756381238	
583.75	-0.2905185659	0.2706213068	
584.375	0.4854038568	-0.1394321951	
585.0	-0.1319287234	0.3559151984	
585.625	0.728343483	-0.1460261789	
586.25	-0.02085187812	-0.2197429619	
586.875	0.5069912849	-0.1472019333	
587.5	-0.2650848781	-0.53611177	
588.125	-0.06754665894	0.004785695756	
588.75	0.3644300392	-0.3792382321	
589.375	0.02590410061	-0.5630067437	
590.0	-0.02509629809	-0.2246761563	
590.625	-0.4723600973	-0.2777356282	
591.25	-0.158292332	0.3717309855	
591.875	-0.1496814694	0.1344362095	
592.5	0.05978197765	0.2545302023	
593.125	-0.1126220113	-0.0584574058	
593.75	0.1170562454	0.4922680457	
594.375	0.5570294464	0.0292683467	
595.0	0.03916981109	0.06459310121	
595.625	0.4536682165	0.6557695702	
596.25	0.4366138782	-0.3673446826	
596.875	0.1109739673	0.4134958435	
597.5	0.7021328879	0.1154534862	
598.125	-0.02597416581	0.07287738878	
598.75	0.704833645	0.5223521451	
599.375	0.2823157685	-0.3605264361	
600.0	0.3734119168	-0.07710016829	
600.625	0.5233816562	-0.4559131836	
601.25	-0.005027550527	-0.5416909402	
601.875	-0.06932374975	-0.2630503224	
602.5	-0.3085225067	-0.05744523862	
603.125	-0.2731401458	0.112639717	
603.75	-0.165440887	0.1828446661	
604.375	-0.2565037798	0.1261922601	
605.0	-0.1514443769	0.2262595524	
605.625	-0.1338426099	0.00148424697	
606.25	-0.385269106	0.3439536357	
606.875	-0.09411405654	0.1074239465	
607.5	-0.8356059318	0.2691150405	
608.125	0.4058189453	0.6891274484	
608.75	-0.01258690049	0.4068162005	
609.375	0.9254980825	-0.06611018962	
610.0	-0.05232187901	-0.3184661946	
610.625	0.5911125751	-0.3133554669	
611.25	-0.2892345546	-0.3802369942	
611.875	0.1306525751	-0.2378247573	
612.5	-0.7152977236	-0.09971833698	
613.125	-0.1225934293	-0.05738433112	
613.75	-0.4389963804	0.426857154	
614.375	0.3452453107	0.01812383354	
615.0	-0.06329924001	0.4245947473	
615.625	0.2003205526	-0.08207164309	
616.25	-0.4099848147	0.3029444675	
616.875	0.06134109841	0.7336844676	
617.5	-0.1328083439	0.08844848642	
618.125	-0.1808279595	0.7793464391	
618.75	0.3327724526	0.3234634561	
619.375	0.006669573966	0.42446071	
620.0	0.5691038956	-0.03110849418	
620.625	0.2492792689	-0.2056431283	
621.25	-0.270859391	-0.519097693	
621.875	-0.358092481	-0.1012730328	
622.5	-0.60784057	0.05982844131	
623.125	0.08387115389	0.3847944801	
623.75	0.1515736126	0.2607332917	
624.375	0.05645944045	-0.4505840999	
625.0	0.1591911277	0.296360775	
625.625	0.04056562506	-0.6344586108	
626.25	0.05757780077	0.08078692809	
626.875	-0.4160772267	-0.5159737048	
627.5	-0.4058617907	0.2030979707	
628.125	0.06720574961	-0.3123986367	
628.75	-0.5495939599	-0.3270051433	
629.375	0.01456723573	-0.1521737739	
630.0	-0.4920103887	-0.4454951578	
630.625	-0.5886814244	0.3323024116	
631.25	-0.143975186	0.3564762945	
631.875	-0.1759417226	0.5181545314	
632.5	0.3624405446	0.4968074466	
633.125	0.5189793314	0.01514364324	
633.75	0.2671155549	-0.04282259756	
634.375	0.1590416112	-0.4819753512	
635.0	0.008125544536	-0.1522866688	
635.625	-0.3733529468	-0.3388996365	
636.25	-0.3233159261	0.3534117044	
636.875	-0.05779279657	-0.05667021396	
637.5	-0.3849882371	0.5936472495	
638.125	0.2988634194	0.03042964213	
638.75	-0.5860257782	0.2304649089	
639.375	0.2359755736	0.8604474616	
640.0	0.342377814	0.1816198318	
640.625	0.4447187917	0.7113228384	
641.25	0.7971037979	-0.3519608612	
641.875	0.2640752486	-0.07181263135	
642.5	0.2132221429	-0.8657028809	
643.125	-0.5377205515	0.1647659409	
643.75	0.04587497636	-0.3384847535	
644.375	-0.7338890209	0.001511277656	
645.0	-0.1307075957	0.5118821259	
645.625	-0.007807912575	0.1539476945	
646.25	0.5472469371	0.5624778326	
646.875	0.1116182626	-0.3863314829	
647.5	0.09562835609	0.4233461102	
648.125	0.486487926	-0.3578342371	
648.75	0.2916093176	0.4052096009	
649.375	0.9886324866	-0.9065821374	
650.0	-0.2793435319	-0.8983623721	
650.625	0.4502797661	0.08966658529	
651.25	1.055431869	-1.011854975	
651.875	-0.153140254	-0.7124956684	
652.5	0.6902640322	0.3611424311	
653.125	0.892638581	-0.7561806093	
653.75	-0.0172334436	-0.2094071703	
654.375	0.3376438735	-1.045697653	
655.0	-1.011017755	0.08901850326	
655.625	0.04090296533	0.2986871014	
656.25	-0.3900266444	0.4052102329	
656.875	0.5363014307	0.2859323674	
657.5	-0.3383701947	0.06014282923	
658.125	0.5925341167	0.5776048104	
658.75	0.5979727733	-0.07871107224	
659.375	0.5586772723	-0.02600090817	
660.0	0.8403731522	-1.021582656	
660.625	-0.1863160866	-0.6456468975	
661.25	0.5858469598	-0.3016069332	
661.875	0.8060172412	-0.9017584866	
662.5	0.06849702459	-0.8273478967	
663.125	0.6509981091	0.1918671827	
663.75	0.3677725089	-1.223105527	
664.375	-0.2075673312	-0.2431993116	
665.0	-0.5325184195	-0.9539774665	
665.625	-0.6166950562	0.7414732383	
666.25	-0.2972399079	0.1648573508	
666.875	0.2157742203	0.7650819667	
667.5	0.6490994694	0.001044467933	
668.125	0.130119921	0.01843224921	
668.75	0.7783694451	-0.2532029287	
669.375	-0.04816180947	-0.633050372	
670.0	0.09734476377	-0.313097095	
670.625	0.05942591593	-0.6559566581	
671.25	-0.1442571175	-0.2232591934	
671.875	0.5705687529	-0.4143445282	
672.5	0.3878184827	-0.5344479282	
673.125	0.1835412869	-0.4051027328	
673.75	0.4919779532	-0.1053672942	
674.375	0.2440243795	-1.179635472	
675.0	-0.5545559138	0.05359157347	
675.625	-0.1198852693	-0.7854776634	
676.25	-0.8373959506	0.2515519173	
676.875	0.2940734435	-0.1817302401	
677.5	-0.9853298838	0.2851188773	
678.125	0.2519275878	0.1134842308	
678.75	-0.3823161513	0.553704764	
679.375	0.9831997865	0.241156918	
680.0	-0.06095707907	-0.53005595	
680.625	0.287840378	0.2310705403	
681.25	0.3896279374	-0.2724358776	
681.875	0.1414569617	-0.07025993481	
682.5	0.3882091449	0.479058535	
683.125	0.7917729102	-0.07178802194	
683.75	0.4460508887	0.1506792408	
684.375	0.624170875	0.2861414526	
685.0	0.9669948065	-0.2194647476	
685.625	0.01774589108	0.05133390475	
686.25	1.394945115	0.2048905958	
686.875	0.222678363	-1.104196503	
687.5	0.6098882954	0.125047657	
688.125	0.02949372349	-1.92652517	
688.75	-0.6967283458	0.5964593691	
689.375	-1.322488875	0.1555477276	
690.0	0.9554834704	1.003926078	
690.625	-0.1363166529	0.2568310501	
691.25	1.318633737	1.114319757	
691.875	0.8380741975	0.1947027674	
692.5	1.198872277	0.6736553418	
693.125	1.634453912	-0.09209706458	
693.75	1.177136835	-0.6366607814	
694.375	1.016794902	-0.9984591183	
695.0	0.8164772965	-0.6520877693	
695.625	1.488156138	-0.09241301401	
696.25	1.062290206	-0.1209594549	
696.875	0.6000635874	1.119575099	
697.5	1.736803351	0.8912962036	
698.125	0.6425843625	0.288344956	
698.75	1.721097298	-1.181659987	
699.375	-1.588848053	-0.2847632595	
700.0	-0.6221668465	-0.09129397937	
700.625	0.8397037503	1.183324487	
701.25	0.0766789187	0.0695997076	
701.875	0.8482323874	1.154781727	
702.5	0.7329962948	-0.07880037766	
703.125	0.8301203455	0.710543841	
703.75	1.10285432	-0.6200863986	
704.375	0.2068063423	-0.0801858657	
705.0	1.091893101	-0.6306095001	
705.625	0.1516463131	-0.3240205165	
706.25	0.4703514005	1.012677783	
706.875	1.212959734	0.2540822753	
707.5	0.07660428871	0.7208498278	
708.125	1.634742132	0.3746403966	
708.75	-0.01593050235	-0.8790625523	
709.375	-0.3687902666	-1.086791102	
710.0	-0.4103297955	1.079016449	
710.625	-0.01362635282	0.07324729156	
711.25	0.3938603478	0.4473098255	
711.875	0.3901939249	0.2367426102	
712.5	0.8365369611	-0.1859253651	
713.125	0.379045731	-0.3615988153	
713.75	0.6034030982	-0.6230062411	
714.375	-0.346322413	-0.6341486774	
715.0	0.3292092531	-0.2313713245	
715.625	-0.3478498855	-0.9122381831	
716.25	0.1103525315	-0.02848190281	
716.875	1.619399557	-0.3411302355	
717.5	0.8724312508	-1.640699602	
718.125	0.5279128742	1.661141734	
718.75	3.550063471	-1.118447571	
719.375	0.4399340444	-1.667187658	
720.0	2.280596834	-0.6931225906	
720.625	-0.5625781618	-3.963647473	
721.25	0.3240075886	-1.139652223	
721.875	-0.5231443123	-3.17804547	
722.5	-2.590380948	-1.534413148	
723.125	-1.018510806	-0.1232177641	
723.75	-1.516517948	1.118022049	
724.375	0.5615633901	1.168285853	
725.0	0.4167806538	0.5985334456	
725.625	-0.01974993134	1.048430477	
726.25	0.6192003505	2.395502907	
726.875	0.2227488307	0.9163677126	
727.5	-1.628481636	4.102967902	
728.125	2.380684477	6.135377811	
728.75	-0.8448666463	1.408455467	
729.375	-6.356491183	14.89156679	
730.0	9.145879301	7.507395503	
730.625	-5.999178133	4.385812299	
731.25	-5.829150602	20.02104711	
731.875	4.06703188	8.765587257	
732.5	-9.147155698	-2.821557475	
733.125	-8.098410427	3.806198227	
733.75	-0.1372840547	3.137329177	
734.375	1.478408406	2.578876357	
735.0	-1.320210436	-1.937464947	
735.625	-0.3794296285	-0.09872857726	
736.25	-0.7613663567	1.483475049	
736.875	1.842499308	1.655514636	
737.5	2.114432783	-1.425927119	
738.125	2.782523522	1.717560294	
738.75	7.428343123	-5.812311902	
739.375	-0.2071475184	-6.646268335	
740.0	12.07643461	5.44386903	
740.625	8.941031978	-14.67045043	
741.25	-10.28277539	-1.630461114	
741.875	-27.75291946	6.504603681	
742.5	-3.957609861	6.281624338	
743.125	11.44523762	-4.548844066	
743.75	-1.772899976	-5.306767852	
744.375	-0.8997277813	0.7800765788	
745.0	-0.2658441686	0.1688749296	
745.625	0.1589952999	-0.3942801265	
746.25	0.2045636693	-0.2204976116	
746.875	-0.6086944662	0.4004083501	
747.5	0.06759696921	0.7628106986	
748.125	0.04603366827	1.183694223	
748.75	0.8323222754	1.388710812	
749.375	0.8456418678	0.9132519056	
750.0	-0.6143448345	-0.01556351526	
