!Created with skrf (http://scikit-rf.org).
# GHz S RI R (50+0j) 
!freq	ReS11	ImS11	
500.0	0.1813325945	-1.046857021	
500.625	2.727442858	-3.69105232	
501.25	-3.319865325	-1.215014036	
501.875	-1.27681858	-0.1635172508	
502.5	0.1692491483	-0.3977995707	
503.125	-0.3536105053	0.2151632348	
503.75	0.01124165093	-0.02096118859	
504.375	0.1855644161	-0.01902570789	
505.0	-0.09031515277	0.03955804823	
505.625	0.1058103974	-0.3917378106	
506.25	-0.2297229928	0.3168109271	
506.875	-0.7259951506	-0.9137928351	
507.5	-1.805905996	-0.5709452826	
508.125	0.4425985104	-0.2136471707	
508.75	2.428514649	-3.910245113	
509.375	-3.319887809	-3.501925223	
510.0	-0.9207495528	-0.5328599972	
510.625	-1.02369682	-0.5832539346	
511.25	-0.1000948455	-0.1101343065	
511.875	-0.5793516309	-0.08831809859	
512.5	-0.03307754034	0.144355359	
513.125	-0.03808099541	-0.1950631176	
513.75	-0.03424542039	-0.3067966252	
514.375	-0.6698713354	0.0202104811	
515.0	1.424755603	-0.08045728569	
515.625	-2.18006922	-1.487599832	
516.25	1.176196738	-0.3819804315	
516.875	-1.197792506	-2.737112896	
517.5	-0.6790939885	0.3073945632	
518.125	-0.002524279799	-0.4978872309	
518.75	-0.5559110591	0.1213139078	
519.375	-0.2225539373	-0.01239346844	
520.0	0.5090678938	0.2195082275	
520.625	0.3334650228	-0.3143922284	
521.25	0.2007798164	-0.5926191208	
521.875	-0.5890393469	0.05131303218	
522.5	-0.02265737204	0.03236568883	
523.125	-0.2148923093	0.1944091126	
523.75	-0.1180026628	-0.2174247524	
524.375	-0.437666929	0.3940140945	
525.0	-0.1552517795	0.04087354378	
525.625	0.1315510308	0.3375455696	
526.25	-0.1746464567	-0.2295089685	
526.875	0.03173559053	0.3024227747	
527.5	-0.1365353212	0.1827211053	
528.125	-0.01729960678	1.137704845	
528.75	0.5900231996	0.4200624314	
529.375	-0.03567244619	0.3548003556	
530.0	0.2766922737	0.09261710844	
530.625	0.1079330185	1.307367983	
531.25	1.011338997	-0.3594932149	
531.875	0.7991300804	0.06723866373	
532.5	-0.6124682647	-0.4438849408	
533.125	0.5306421222	-0.008984834996	
533.75	-0.155030741	-0.6399801508	
534.375	0.3271558641	-0.6578410279	
535.0	-1.043951535	-0.1297381151	
535.625	-0.1492553447	0.1847023802	
536.25	-0.1050286818	0.2727724713	
536.875	0.344118835	-0.03697941971	
537.5	0.06277714828	-0.01463365033	
538.125	0.4415326618	-0.2260367446	
538.75	0.1098875318	-0.2746279973	
539.375	-0.01614179925	-0.4847628238	
540.0	-0.6449108525	-0.2849214723	
540.625	-0.1378265634	-0.05301611396	
541.25	-0.3133452942	-0.06209678313	
541.875	-0.1310201685	0.03866008871	
542.5	-0.03814077539	-0.0448505246	
543.125	-0.217072139	-0.2609956563	
543.75	-0.2494760806	0.2356687514	
544.375	-0.1745897024	-0.1534320632	
545.0	0.1262130328	0.2840046857	
545.625	-0.09308122341	0.03430217499	
546.25	0.5175338459	0.1724706945	
546.875	-0.007433403775	-0.1262703067	
547.5	0.4108359256	-0.2248502166	
548.125	-0.3385542116	-0.5027462163	
548.75	-0.1772980413	-0.08356714167	
549.375	-0.2054770728	-0.324740799	
550.0	-0.2612836867	0.1537361994	
550.625	-0.04823460019	-0.1149677927	
551.25	-0.252354136	0.210702857	
551.875	-0.09367391308	0.04658501523	
552.5	-0.1853236572	0.2570884235	
553.125	0.03358178556	0.1230973687	
553.75	0.09114034105	0.1374897688	
554.375	0.2518426617	-0.0139970264	
555.0	0.2090655655	-0.1731197397	
555.625	0.2081621929	-0.2455200399	
556.25	0.1527070964	-0.3573001642	
556.875	-0.09673398615	-0.3755959097	
557.5	-0.2247088485	-0.2460444159	
558.125	-0.2817477364	-0.09754952575	
558.75	-0.2554506193	0.01724334229	
559.375	-0.2310972584	0.02375172681	
560.0	-0.2683513397	0.1931511967	
560.625	-0.05036536089	0.2837589145	
561.25	-0.02893036099	0.165026962	
561.875	0.1294786175	0.1815675133	
562.5	-0.03582782154	0.02601027051	
563.125	0.2507318051	0.256770238	
563.75	0.1983597873	-0.09815303821	
564.375	0.4090316319	-0.1001370591	
565.0	0.1165939005	-0.4983877363	
565.625	-0.09053395487	-0.2004392168	
566.25	-0.182113633	-0.3446547471	
566.875	-0.481420987	-0.1620614962	
567.5	-0.2013041051	-0.09750558524	
568.125	-0.2919393048	-0.5692946799	
568.75	-0.6534756482	0.006900847536	
569.375	-0.3995944801	0.02348478482	
570.0	-0.4522393209	0.6959873577	
570.625	0.1446275623	0.3400479736	
571.25	-0.3156815723	0.1761310568	
571.875	0.5242738986	0.1849415579	
572.5	-0.06261080465	0.1427807046	
573.125	0.5224961084	-0.3632726197	
573.75	-0.168338846	-0.4080945138	
574.375	0.191763409	0.1192191365	
575.0	-0.0245979138	-0.4226862018	
575.625	0.1671970355	0.1358537455	
576.25	0.2566282256	-0.5028788559	
576.875	-0.2986979587	-0.2329068276	
577.5	0.2116113752	-0.1455526209	
578.125	-0.06979611835	-0.638711479	
578.75	-0.3924291302	-0.1590640603	
579.375	-0.001970208328	-0.02448664398	
580.0	-0.2428013183	-0.3106187471	
580.625	0.008115192612	0.1631667141	
581.25	-0.4914297911	-0.004204215307	
581.875	0.2314481192	0.5304218964	
582.5	0.1212626245	-0.03949547013	
583.125	-0.1107010756	0.4715228992	
583.75	0.5036114684	-0.21542143	
584.375	-0.3188666881	0.3612454121	
585.0	0.6309724201	0.03227959535	
585.625	-0.01541772507	-0.08657721246	
586.25	0.6309497524	0.04361783601	
586.875	-0.1064944157	-0.4925732867	
587.5	0.1879061209	-0.132034885	
588.125	-0.04882056307	-0.6099825111	
588.75	-0.2176171665	-0.2361774864	
589.375	0.4096771312	-0.1081239765	
590.0	-0.288885434	-0.5915763054	
590.625	-0.3530215645	0.04845483128	
591.25	-0.2707131159	0.08065692016	
591.875	-0.215318458	0.4113278084	
592.5	0.1663784624	-0.05172392081	
593.125	-0.119952495	0.2805946559	
593.75	0.1297426394	0.09985064357	
594.375	0.1888279674	0.4323636019	
595.0	0.7556347448	0.2829913854	
595.625	0.1562132025	-0.1834200036	
596.25	0.311987213	0.4997800132	
596.875	0.673006081	-0.2212030896	
597.5	-0.01322343115	0.1703052478	
598.125	0.5525699242	0.5049626839	
598.75	0.275828137	-0.06481284141	
599.375	0.5377351427	0.2303535507	
600.0	0.3156569672	-0.6321359409	
600.625	0.1410667606	-0.215339215	
601.25	0.3375699819	-0.4032940201	
601.875	-0.2937551725	-0.4400033767	
602.5	-0.1725011896	-0.03368344684	
603.125	-0.219183098	0.05899059483	
603.75	-0.3599953265	0.1303614827	
604.375	-0.09729247914	0.3511800564	
605.0	-0.24116674	-0.03472406048	
605.625	-0.1895537781	0.3919753603	
606.25	-0.121875368	-0.07415645406	
606.875	-0.6999352245	0.3177878283	
607.5	-0.01971937401	0.3948845152	
608.125	-0.4610599118	0.425761987	
608.75	0.8685033906	0.4853959269	
609.375	0.1023679341	0.02957814583	
610.0	0.6878304009	-0.2440020546	
610.625	-0.1134582553	-0.4382439348	
611.25	0.3522948303	-0.2579823982	
611.875	-0.4730952409	-0.2173672038	
612.5	-0.1654482232	-0.1880825167	
613.125	-0.7168498608	0.1205744978	
613.75	0.01640629835	0.2327041152	
614.375	-0.03531123323	0.4256707376	
615.0	0.2154463389	-0.1535508839	
615.625	-0.2781298956	0.4422158329	
616.25	0.2241491335	0.3054602505	
616.875	-0.4175846836	0.2028339309	
617.5	-0.1335193494	0.8021795269	
618.125	0.1467228003	0.2021701486	
618.75	-0.2066886024	0.5872665961	
619.375	0.4422347105	0.2828076022	
620.0	0.2385032108	0.201173169	
620.625	0.2613693777	-0.4984955151	
621.25	-0.1158556993	-0.3121104363	
621.875	-0.5584399369	-0.2574426646	
622.5	-0.368115772	0.1534386052	
623.125	-0.2604195249	0.435862612	
623.75	0.4037625002	-0.04120401625	
624.375	0.1164836219	0.1586354698	
625.0	-0.1580042473	-0.3703332109	
625.625	0.2843310413	0.07192038277	
626.25	-0.2806045556	-0.6533158725	
626.875	-0.2685797934	0.1684000319	
627.5	-0.2058985274	-0.421325456	
628.125	-0.4850778411	-0.07057273108	
628.75	0.03699416909	-0.1649675924	
629.375	-0.2951558593	-0.5833272988	
630.0	-0.3510069472	0.05531538045	
630.625	-0.5669929305	-0.07912662962	
631.25	-0.3960351155	0.6130617448	
631.875	0.1128100927	0.4890584893	
632.5	0.2306876733	0.3868901729	
633.125	0.4687958685	0.2370014103	
633.75	0.5050882736	-0.3470977209	
634.375	0.04408918678	-0.1296991778	
635.0	0.1105899178	-0.5241235958	
635.625	-0.411326524	0.1269039638	
636.25	-0.4595547503	-0.1313448034	
636.875	-0.07051014271	0.5720731426	
637.5	0.03973819651	-0.07262174336	
638.125	-0.5296628834	0.4311574914	
638.75	0.3661904044	0.2977315322	
639.375	-0.4562640948	0.3705090725	
640.0	0.4325162147	0.9190716785	
640.625	0.6918524698	0.05022957155	
641.25	0.2612906638	0.1305932172	
641.875	0.7146786777	-0.7373774317	
642.5	-0.2340109974	-0.1693928432	
643.125	-0.07856472111	-0.6077076416	
643.75	-0.6659213407	0.1362654108	
644.375	0.03865493341	-0.3353866094	
645.0	-0.6738679925	0.5239324913	
645.625	0.3766617527	0.4935847556	
646.25	0.2518284753	-0.07000840464	
646.875	0.1783953969	0.4477227802	
647.5	0.2261716828	-0.4966804676	
648.125	0.2503912961	0.6251705974	
648.75	0.9035009832	-0.5887690161	
649.375	-0.05717207645	-0.2604293729	
650.0	1.134354507	-0.6268867903	
650.625	-0.1783282521	-1.223124906	
651.25	0.1328279775	0.1590536583	
651.875	1.316083145	-0.335613706	
652.5	0.348499382	-0.8515384052	
653.125	0.2804068315	0.2465364508	
653.75	0.8146478976	-0.8089989589	
654.375	-0.5622743677	-0.4466707669	
655.0	-0.1985228076	-0.4575033073	
655.625	-0.8759382531	0.7554147947	
656.25	0.4355818582	0.06670948053	
656.875	-0.2551247027	0.2711792441	
657.5	0.4292046573	0.258421918	
658.125	0.06975414038	0.09209098406	
658.75	0.7621675208	0.6104715273	
659.375	0.736145125	-0.70615495	
660.0	0.2719492926	-0.4360500105	
660.625	0.7268375253	-0.6845597915	
661.25	-0.01710809906	-1.16235746	
661.875	0.3532211035	0.02265017384	
662.5	1.13154378	-0.5948718688	
663.125	0.2879077525	-0.8635893416	
663.75	0.318161602	-0.1053300461	
664.375	0.007437234995	-1.254883873	
665.0	-0.6288299521	0.009955718971	
665.625	-0.7538819548	-0.2212154287	
666.25	-0.1523510952	0.9966601013	
666.875	0.141236655	0.05195762463	
667.5	0.4787500141	0.5557220665	
668.125	0.6284853954	-0.2826980231	
668.75	0.1475518184	-0.2251110906	
669.375	0.4931371492	-0.3829052289	
670.0	-0.09128824547	-0.7823155785	
670.625	-0.07346569772	-0.1665004763	
671.25	0.3249609327	-0.4505444363	
671.875	0.1458289993	-0.5863565951	
672.5	0.3539581345	-0.02216512473	
673.125	0.6406325893	-0.6534605794	
673.75	0.03204046341	-0.5190597271	
674.375	0.3264030173	-0.2526348356	
675.0	-0.1257688881	-1.025854726	
675.625	-0.7882240332	0.2529710284	
676.25	0.03947023556	-0.4803041492	
676.875	-0.8006404105	0.2915505237	
677.5	0.1024852484	0.02374216042	
678.125	-0.8631568029	0.3964428255	
678.75	0.5937805136	0.2927881553	
679.375	0.1267552282	0.4063508094	
680.0	0.7289082614	-0.2496446816	
680.625	-0.2004797043	-0.4933998675	
681.25	0.1525824637	0.4952770617	
681.875	0.7057629013	-0.05572216157	
682.5	0.3639463923	0.02536660714	
683.125	0.3067608024	0.1479103746	
683.75	0.8715481721	0.5090108633	
684.375	0.5368781637	-0.4448454784	
685.0	0.4140464913	0.5233495129	
685.625	1.165735035	-0.1418990854	
686.25	-0.04338875598	-0.3176949271	
686.875	1.519707267	0.1174896061	
687.5	-0.06332168712	-1.435809723	
688.125	0.5442873862	-0.237500219	
688.75	-1.397277095	-1.072240255	
689.375	-0.1371580514	1.215114722	
690.0	-0.4608493743	0.5885122766	
690.625	1.18205667	0.5203263857	
691.25	0.3390225447	0.3717090554	
691.875	1.180297263	1.127644525	
692.5	1.407736178	0.00904968049	
693.125	1.325308236	0.1323524135	
693.75	1.435374179	-0.6778834567	
694.375	0.9276472225	-0.9032024154	
695.0	0.9981616184	-0.8645566903	
695.625	0.839867066	-0.2036145169	
696.25	1.52417506	0.8771217128	
696.875	1.199847471	0.2946295296	
697.5	0.2934393001	1.302915467	
698.125	2.25524772	0.3041901887	
698.75	0.2772824762	-0.4734618807	
699.375	-0.8202196151	-1.695777226	
700.0	-0.3598346445	1.340203312	
700.625	-0.2374150792	0.2307131981	
701.25	1.222370953	0.4544399955	
701.875	0.2403630387	0.2531655788	
702.5	0.8859947283	0.9342104552	
703.125	0.8767186157	-0.2930469663	
703.75	0.90988599	0.2094601106	
704.375	0.6978914082	-0.8253112283	
705.0	0.1784077731	-0.01758752861	
705.625	1.150467772	0.01926222887	
706.25	0.3328967848	-0.03869228097	
706.875	0.2861237923	1.239839641	
707.5	1.319334926	0.6422145774	
708.125	0.5332501678	0.2714292776	
708.75	1.127531118	-1.053199175	
709.375	-0.8937614147	-0.312480595	
710.0	-0.537491149	0.1317648999	
710.625	0.4393085031	0.6209468381	
711.25	-0.08195655092	0.1434937018	
711.875	0.6341226918	0.379528941	
712.5	0.6008525835	-0.06495868054	
713.125	0.7249907163	-0.5324361307	
713.75	0.06668492085	-0.4048128098	
714.375	0.4278886273	-0.734137267	
715.0	-0.4500982407	-0.4701259951	
715.625	0.4645089834	-0.1097556554	
716.25	0.4214039716	-1.353153096	
716.875	0.02811684946	-0.05056672037	
717.5	2.197602233	0.5457557158	
718.125	2.004277859	-1.488518139	
718.75	0.4215098289	1.369323661	
719.375	3.825497846	-2.566535943	
720.0	-0.4783036508	-1.49475883	
720.625	1.328628137	-1.564297208	
721.25	-0.3822977871	-3.84289889	
721.875	-1.099770331	-1.136593523	
722.5	-1.193684892	-2.763493987	
723.125	-2.277308499	0.05217075097	
723.75	-0.4447638141	0.8576365762	
724.375	-0.4256419026	1.204143436	
725.0	0.9287689567	0.9084751411	
725.625	0.397031864	0.660324412	
726.25	-0.3964473959	1.493042043	
726.875	-0.01642723971	3.440697324	
727.5	1.736314143	1.842194935	
728.125	-3.909749805	6.741629432	
728.75	0.924569487	8.494043017	
729.375	1.084331421	1.688885771	
730.0	-8.244876102	16.28368312	
730.625	7.98123491	6.78639374	
731.25	-8.626903046	2.328610872	
731.875	-12.30681027	11.93852735	
732.5	-4.609001274	9.351813207	
733.125	-3.548735876	-1.969390487	
733.75	-3.347691916	5.193218586	
734.375	1.99918675	0.1876009955	
735.0	0.6047226799	-0.7493312025	
735.625	-2.126831885	0.9783410431	
736.25	0.01175259652	0.07877928521	
736.875	0.798102977	2.272176142	
737.5	3.499254595	0.07645785131	
738.125	2.869266705	-3.066000659	
738.75	1.767551196	1.511525702	
739.375	14.47933088	-6.044248143	
740.0	-1.403828957	-14.78385859	
740.625	-1.908715894	11.9071666	
741.25	13.17842249	19.59012075	
741.875	5.816079107	-17.64975935	
742.5	-15.41609452	-23.24973394	
743.125	-5.978318902	-0.1958459843	
743.75	3.200477104	-1.106336321	
744.375	-2.514345219	-0.9150184842	
745.0	0.6765787388	-0.1045550727	
745.625	0.2593221099	0.2674058109	
746.25	-0.1932998549	-0.2876538562	
746.875	-0.120943911	-0.1134079309	
747.5	-0.3487899481	1.394545855	
748.125	1.257942897	1.361129581	
748.75	0.2443893531	0.861657024	
749.375	0.2533685217	1.767062297	
750.0	1.397513646	-1.560521644	
