!Created with skrf (http://scikit-rf.org).
# GHz S RI R (50+0j) 
!freq	ReS11	ImS11	
500.0	0.6271415446	-0.9574198727	
500.625	-0.1299035126	-0.9976789154	
501.25	0.05267485572	-0.3587673486	
501.875	-0.3546496051	-0.7421566472	
502.5	-0.06937242851	-0.07797233724	
503.125	-0.06493676991	-0.04172823121	
503.75	0.05691487144	0.1028326026	
504.375	0.000462687274	0.005234644653	
505.0	0.04375920369	-0.0343978991	
505.625	-0.02674342346	-0.001322784548	
506.25	0.01644205657	-0.1069303936	
506.875	-0.05490525923	0.2339982023	
507.5	0.2028240335	-0.2415454482	
508.125	0.07065704198	-0.8370876174	
508.75	0.09951253903	-0.5861761632	
509.375	0.3784351747	-0.7996186165	
510.0	-0.583799947	-0.1797173868	
510.625	-0.08043473202	-0.04564282215	
511.25	-0.07868095193	-0.03999560872	
511.875	-0.1430820586	0.02119878143	
512.5	-0.01637074632	0.003147806572	
513.125	0.006794014866	-0.09989222643	
513.75	-0.06694173444	0.01939224178	
514.375	0.02251895425	-0.05932790447	
515.0	-0.2274854244	-0.0389798395	
515.625	0.3599189348	-0.1208440279	
516.25	-0.6296696084	-0.74099492	
516.875	-0.2380474573	-0.0547631285	
517.5	0.09770014619	-0.1116278091	
518.125	-0.09089816858	-0.01393861786	
518.75	0.002138297022	-0.1599114869	
519.375	-0.07216416927	0.04548725007	
520.0	0.08509265355	0.02409943391	
520.625	0.08152710289	-0.004927921097	
521.25	-0.007129953066	-0.18914702	
521.875	-0.1673757694	0.06360598446	
522.5	0.002604862788	-0.0373300636	
523.125	-0.1292350422	0.1075472436	
523.75	0.01302906503	0.04120749523	
524.375	-0.2361867108	-0.0945893699	
525.0	0.07352171596	0.2109598876	
525.625	-0.02030680066	-0.03402924927	
526.25	0.05054751705	0.03226503839	
526.875	-0.06612855919	-0.01901704566	
527.5	-0.01049544654	0.2421428132	
528.125	0.1599294822	0.1257510235	
528.75	0.02886972832	0.2425727501	
529.375	0.07951965669	0.09286096299	
530.0	0.01508100287	0.07664137662	
530.625	0.04075205898	0.2722565892	
531.25	0.3749150441	-0.07690339039	
531.875	0.1316389897	-0.01445958355	
532.5	0.05467818546	-0.1584958721	
533.125	-0.01066282006	0.09920934268	
533.75	0.2514623201	-0.2092509527	
534.375	-0.1385198468	-0.1672175231	
535.0	-0.1157736967	-0.1324445756	
535.625	-0.1998643705	0.123376494	
536.25	0.03204074065	0.06422161412	
536.875	0.06560146627	0.05011917496	
537.5	0.07155783438	-0.06979420888	
538.125	0.05183376256	-0.0348704397	
538.75	0.1598721999	-0.1047173825	
539.375	-0.1301421718	-0.1271822654	
540.0	-0.1203567419	-0.10226804	
540.625	-0.1578147758	-0.06160079455	
541.25	-0.08545894526	0.0601699927	
541.875	0.01925625909	-0.06365868377	
542.5	-0.08796290985	-0.0737661439	
543.125	-0.03175111996	0.02292887711	
543.75	-0.1129672449	-0.07236721363	
544.375	-0.00826307793	0.07960182471	
545.0	-0.0486367779	0.02399041054	
545.625	0.0976407592	0.0733261271	
546.25	0.04157861599	-0.02436505343	
546.875	0.1415320155	0.02214048649	
547.5	0.02448489845	-0.1609962046	
548.125	-0.01545138043	-0.08599088372	
548.75	-0.1119095874	-0.1543968484	
549.375	-0.13627688	-0.02725989025	
550.0	-0.02884597799	-0.01786299145	
550.625	-0.08510897416	0.02951974736	
551.25	-0.03904401544	0.02834800534	
551.875	-0.09569506655	0.0546033123	
552.5	-0.02882148008	0.09110377662	
553.125	-0.02367309399	0.04225000695	
553.75	0.05290982791	0.05292898523	
554.375	0.07793727481	-0.002916642856	
555.0	0.09688235898	-0.05781682092	
555.625	0.07911161171	-0.1013046678	
556.25	0.05673210303	-0.1224845226	
556.875	-0.02860615654	-0.1448730687	
557.5	-0.09030889591	-0.09670982605	
558.125	-0.1089722794	-0.03036924632	
558.75	-0.09493775733	-0.005202929012	
559.375	-0.1086044855	0.01675343515	
560.0	-0.0802576406	0.08076276348	
560.625	-0.04996253368	0.08799387295	
561.25	-0.002400387826	0.1199763753	
561.875	0.03781490928	0.0160001999	
562.5	-0.006658751793	0.07700418255	
563.125	0.08256243825	0.03741317884	
563.75	0.09153490323	0.02582698226	
564.375	0.155128281	-0.101915909	
565.0	0.02015254427	-0.1514913759	
565.625	0.01683513869	-0.1330644055	
566.25	-0.1671567766	-0.1675848842	
566.875	-0.1005733831	-0.02114045408	
567.5	-0.1130492919	-0.1480920372	
568.125	-0.2063108779	-0.1141711404	
568.75	-0.1106661428	-0.06288967161	
569.375	-0.2874275375	0.0699086351	
570.0	-0.04785871519	0.2208023995	
570.625	-0.06298031127	0.08224892637	
571.25	-0.01822691311	0.1926807949	
571.875	0.05449006864	-0.01097740442	
572.5	0.1346454969	0.07335799559	
573.125	0.06641366319	-0.1902666596	
573.75	-0.01414278332	-0.01869883301	
574.375	0.09637493649	-0.09339114039	
575.0	-0.06184914886	-0.03305910393	
575.625	0.1101367708	-0.04338334908	
576.25	0.01398372474	-0.1881270919	
576.875	-0.03098964094	-0.05486490556	
577.5	0.07966681959	-0.1598736657	
578.125	-0.1118834547	-0.1873896478	
578.75	-0.07633997127	0.01880629066	
579.375	-0.008196984033	-0.1287882265	
580.0	-0.1375027323	0.002836967723	
580.625	0.06515135033	-0.08303712429	
581.25	-0.1948505208	0.1666615853	
581.875	0.09811131863	0.08235748746	
582.5	-0.04183065011	0.08668325477	
583.125	0.1381199514	0.1691817985	
583.75	0.01307427066	-0.08207866368	
584.375	0.05753253954	0.1629373964	
585.0	0.136471731	-0.03235933914	
585.625	0.06579642308	0.07483184468	
586.25	0.2333201514	-0.05546188331	
586.875	-0.01464105816	-0.1378643777	
587.5	0.05599038874	-0.0791590926	
588.125	-0.02269914109	-0.2024347576	
588.75	-0.04918043758	-0.07949684916	
589.375	0.1673225861	-0.104582305	
590.0	-0.1315517157	-0.2019602448	
590.625	-0.07098140882	-0.0009334142983	
591.25	-0.187565558	0.04701309729	
591.875	0.08491714724	0.2364883708	
592.5	-0.02552934125	-0.06693016978	
593.125	0.02467333329	0.1263493168	
593.75	0.02264493573	0.02239210932	
594.375	0.1752248546	0.1836187585	
595.0	0.2451380716	0.0398947763	
595.625	0.06075865047	0.03907698951	
596.25	0.1813147375	0.107890234	
596.875	0.1255714951	-0.04614336923	
597.5	0.05185423331	0.08396687759	
598.125	0.1990722159	0.1312988225	
598.75	0.1357794569	0.0174921704	
599.375	0.1750261062	0.02393693668	
600.0	0.2047612256	-0.1719229271	
600.625	0.04462940303	-0.2005511875	
601.25	0.09984082793	-0.1009491673	
601.875	-0.1200239859	-0.2227238695	
602.5	-0.07986740291	0.06635555643	
603.125	-0.127948931	-0.05355013254	
603.75	-0.1237319633	0.1624196127	
604.375	-0.01858417267	-0.03302909077	
605.0	-0.1544215615	0.05670658721	
605.625	0.00894105127	0.1268286366	
606.25	-0.1873681332	0.004621355143	
606.875	-0.1932237664	0.1580064856	
607.5	-0.1359461717	0.09722849321	
608.125	-0.1102873704	0.1779110142	
608.75	0.2319040412	0.2207092596	
609.375	0.1858034972	-0.05503300633	
610.0	0.1866125571	-0.01645741529	
610.625	0.08679515427	-0.2386915088	
611.25	-0.05292771791	-0.1000493597	
611.875	-0.01734237319	-0.1787455889	
612.5	-0.2605200376	0.005005221422	
613.125	-0.06952795992	-0.007792297476	
613.75	-0.1920675068	0.1445200318	
614.375	0.1516199641	0.1068155413	
615.0	-0.09418980005	0.07800172876	
615.625	0.09230147171	0.1697153108	
616.25	0.01325153119	0.03827370708	
616.875	-0.1634327145	0.1627798837	
617.5	-0.04089634689	0.09227401933	
618.125	0.007825209701	0.08984054748	
618.75	-0.07831330463	0.2349237453	
619.375	0.1758297658	0.1439855326	
620.0	0.2007438295	-0.06761187238	
620.625	0.1787281752	-0.1364007049	
621.25	-0.152226549	-0.2220460625	
621.875	-0.09252995559	-0.08912796944	
622.5	-0.2649756859	-0.07206970987	
623.125	0.01974833525	0.2164026412	
623.75	0.03098556865	0.01717269085	
624.375	0.1332497385	-0.06029879495	
625.0	-0.04461313982	-0.0134144543	
625.625	0.1245614742	-0.08137491416	
626.25	-0.1203109786	-0.1449313923	
626.875	-0.06284026945	-0.04241895687	
627.5	-0.1647625589	-0.1015268328	
628.125	-0.129954862	-0.04306323152	
628.75	-0.001248972416	-0.0873558961	
629.375	-0.06209584263	-0.1675610015	
630.0	-0.1790310004	-0.008252602212	
630.625	-0.1420799695	0.02707020946	
631.25	-0.1877380719	0.2184534168	
631.875	0.04036043107	0.2951795228	
632.5	0.06474172468	0.1204213523	
633.125	0.2627647662	0.1776218648	
633.75	0.1135764559	-0.1186293493	
634.375	0.1123175092	-0.0448471067	
635.0	-0.03750334273	-0.2104359928	
635.625	-0.1038482537	0.010059862	
636.25	-0.1895751454	-0.02528756455	
636.875	-0.04949598093	0.2018184633	
637.5	0.02352273829	0.003283982624	
638.125	-0.1487126485	0.1106582645	
638.75	0.03509197859	0.1819225641	
639.375	-0.08059424706	0.153364674	
640.0	0.1268385845	0.3197778966	
640.625	0.253833276	0.0477657861	
641.25	0.1457066652	-0.01713225098	
641.875	0.2610421112	-0.1915607851	
642.5	-0.1271842352	-0.2379332956	
643.125	0.01592163457	-0.06142002177	
643.75	-0.2707305478	-0.1908910407	
644.375	-0.06368901361	0.0918461995	
645.0	-0.2841461311	-0.06938348165	
645.625	0.1376683068	0.2758894861	
646.25	0.03017793874	-0.1162650599	
646.875	0.09741649891	0.1382279571	
647.5	0.07514030943	-0.1250385072	
648.125	0.09066916044	0.1918102759	
648.75	0.3877990195	-0.1664999713	
649.375	0.06544537487	-0.2110126121	
650.0	0.2517991794	-0.1589557425	
650.625	0.2053356324	-0.4365611054	
651.25	-0.00659531735	-0.1785731771	
651.875	0.3155806918	-0.01400558044	
652.5	0.3431085754	-0.1891990327	
653.125	0.1050257387	-0.1608908064	
653.75	0.3095963909	-0.03863652452	
654.375	-0.1063574963	-0.3878792652	
655.0	-0.1561298166	0.01958640643	
655.625	-0.2763300096	0.05287857086	
656.25	0.143686301	0.3751975551	
656.875	-0.03456706412	-0.06038142302	
657.5	0.07302454686	0.2241773566	
658.125	0.1545955288	-0.04326502446	
658.75	0.1486877063	0.1991466326	
659.375	0.4805470691	-0.2328018687	
660.0	0.05314330148	-0.2730502304	
660.625	0.2177039802	-0.1959171846	
661.25	0.2164377485	-0.3608948911	
661.875	0.01940603182	-0.2616629776	
662.5	0.2918805873	-0.03307037367	
663.125	0.3041015804	-0.2916763287	
663.75	0.06366583757	-0.2008615411	
664.375	0.09100641606	-0.3107729067	
665.0	-0.34526734	-0.2214201208	
665.625	-0.1879693888	0.08111590653	
666.25	-0.2334130147	0.159772671	
666.875	0.1716377756	0.2658696772	
667.5	0.08711039993	0.02590386412	
668.125	0.2704009448	0.08966745358	
668.75	0.1183620246	-0.2887170206	
669.375	0.07355601088	-0.09548221061	
670.0	0.09942572438	-0.2651613909	
670.625	-0.1496314351	-0.1738501821	
671.25	0.1838759225	-0.05722387397	
671.875	0.1647971174	-0.2455498092	
672.5	0.09666055029	-0.1559292643	
673.125	0.2120268082	-0.0350316192	
673.75	0.2186774394	-0.3381442351	
674.375	-0.05400067832	-0.1776574629	
675.0	0.04141416164	-0.215880293	
675.625	-0.2473664249	-0.1881541741	
676.25	-0.1038968182	0.06221126799	
676.875	-0.1203063841	-0.1412659656	
677.5	-0.1992307999	0.1189830731	
678.125	-0.03678078826	0.0404293342	
678.75	-0.1304533385	0.26320646	
679.375	0.3409237169	0.001621972856	
680.0	-0.01332887474	-0.03591603239	
680.625	0.2829274887	-0.06326624567	
681.25	0.0432242898	-0.1552640443	
681.875	0.04729408186	0.3664499496	
682.5	0.4188602971	0.1173245383	
683.125	0.1304336211	-0.07790512082	
683.75	0.1987240941	0.2192646945	
684.375	0.4059245396	0.03698444458	
685.0	0.06166702949	0.007260834609	
685.625	0.263947216	0.2388975506	
686.25	0.3065462262	-0.1333606616	
686.875	0.1424370612	-0.08590982496	
687.5	0.3759059682	-0.1890889164	
688.125	-0.1295327135	-0.5387318457	
688.75	-0.2224003399	-0.1390939967	
689.375	-0.4455680438	0.1835987176	
690.0	0.212038836	0.4641960726	
690.625	0.06317964792	0.08175515557	
691.25	0.3659000301	0.4792010985	
691.875	0.4780164345	0.103650814	
692.5	0.3421684473	0.3877453212	
693.125	0.779495014	0.08850032994	
693.75	0.4282924323	-0.4191061334	
694.375	0.6028421884	-0.1565028978	
695.0	0.5696807219	-0.3343400889	
695.625	0.3145683293	0.08385793208	
696.25	0.2781900773	0.2681546308	
696.875	0.4930034124	0.5716908045	
697.5	0.3150029509	0.3103586508	
698.125	0.4247388005	0.2571993454	
698.75	0.5792110645	-0.3416132847	
699.375	-0.3953236055	-0.3346790461	
700.0	-0.2928467208	0.0554822969	
700.625	0.1085775865	0.470254447	
701.25	0.1539854527	0.03108966395	
701.875	0.1281062552	0.329700102	
702.5	0.4798097386	0.224010188	
703.125	0.1894648384	0.05938304165	
703.75	0.4006289289	0.06027486259	
704.375	0.3185758283	-0.2854235875	
705.0	0.1355985544	-0.01089256008	
705.625	0.3084037862	0.1396947642	
706.25	0.1885834202	0.1405763118	
706.875	0.08647777691	0.2286165771	
707.5	0.1831919017	0.3780478756	
708.125	0.4831713066	0.02710560884	
708.75	0.1365320419	-0.4424660252	
709.375	-0.1736450981	-0.3884206671	
710.0	-0.16404138	0.2662817493	
710.625	0.007889079852	-0.001109859888	
711.25	0.07220938449	0.3877407003	
711.875	0.1183939473	-0.02691261676	
712.5	0.2446479896	0.141608604	
713.125	0.3107173151	-0.2199917324	
713.75	0.01636005061	-0.1944696729	
714.375	0.1286499178	-0.1599465764	
715.0	-0.09687412309	-0.2780005806	
715.625	-0.01932145873	-0.09234436021	
716.25	0.2540501229	-0.1949675492	
716.875	0.289495738	-0.290684932	
717.5	0.2630208713	0.0541599702	
718.125	0.6949492042	0.2485141341	
718.75	0.750436052	-0.313891266	
719.375	0.3783744296	-0.4950258626	
720.0	0.9295471173	-0.7387640976	
720.625	-0.184562521	-0.7845987675	
721.25	0.2812072075	-0.6206412122	
721.875	0.1061183642	-1.290303052	
722.5	-0.7578926309	-0.5343755121	
723.125	-0.2325940333	-0.2975797237	
723.75	-0.5501798721	0.471485408	
724.375	0.2192632869	0.3040196558	
725.0	-0.0323735059	0.2799331683	
725.625	0.2744568525	0.5740576469	
726.25	0.2513595364	0.410229514	
726.875	-0.3520547026	0.6992091037	
727.5	-0.125310854	1.516093911	
728.125	0.4478890502	1.350897705	
728.75	-0.9556386271	1.672881942	
729.375	-0.9359980435	4.262025689	
730.0	1.024190501	2.848987793	
730.625	-1.629795383	2.7218554	
731.25	-0.207936522	4.755330975	
731.875	-0.5147025615	1.760517776	
732.5	-2.99152608	-0.9406659163	
733.125	-3.15132061	0.8426767687	
733.75	-0.3600554888	0.8047575598	
734.375	0.3981496365	0.8496606789	
735.0	-0.2482298256	-1.075826494	
735.625	-0.1162945806	0.06342291317	
736.25	-0.3132176394	0.524417876	
736.875	0.6558424443	0.4588279186	
737.5	0.2471822701	0.06365207972	
738.125	1.779309589	0.08403038289	
738.75	1.244143883	-1.743169892	
739.375	0.5675867403	-0.6699324185	
740.0	4.220840765	0.8446625562	
740.625	4.059370583	-3.539326703	
741.25	-1.859522039	-0.3309836698	
741.875	-4.65347167	-0.1419917299	
742.5	-1.757819083	-0.3782263931	
743.125	1.593631445	-0.1947679041	
743.75	0.1165407127	-1.411243041	
744.375	-0.4159774008	0.2218902668	
745.0	-0.1183606242	0.04277128636	
745.625	0.09779826547	-0.1565616169	
746.25	0.08647603501	-0.05097695884	
746.875	-0.2632431167	-0.00492408664	
747.5	-0.02196850943	0.3044765045	
748.125	-0.02019762822	0.3111196752	
748.75	0.2377525752	0.50716914	
749.375	0.2205303722	0.3679667526	
750.0	-0.3364459708	0.0666306719	
