!Created with skrf (http://scikit-rf.org).
# GHz S MA R 50.0 
!freq magS11 angS11
500.0 0.0137064753818 142.47741216
500.625 0.00761493286457 136.17863343
501.25 0.0138976472198 -163.240030173
501.875 0.0292030953261 -168.563404581
502.5 0.0252127234246 167.205265557
503.125 0.0209997463522 114.216136895
503.75 0.0095449707196 115.714710986
504.375 0.0246006593736 -61.2908694866
505.0 0.00306101320199 -11.8381681808
505.625 0.0239215745235 -72.2916974489
506.25 0.0481927097775 -103.861406497
506.875 0.0798057606127 -90.331617094
507.5 0.0399457786137 -142.010830957
508.125 0.0386460317815 -107.366601055
508.75 0.0612870065943 -125.785274952
509.375 0.062647457465 -125.961405058
510.0 0.0316771487553 -131.664786012
510.625 0.0251908704817 -169.386140289
511.25 0.0542835691997 -177.102396477
511.875 0.0622221394631 154.467863763
512.5 0.0345623426802 82.6016861827
513.125 0.046420746876 37.8014673746
513.75 0.0540312911436 39.8857856682
514.375 0.0458719348164 24.2077432385
515.0 0.0533686048436 7.16743986412
515.625 0.0980004347023 52.9311559399
516.25 0.0886727047532 31.1352776121
516.875 0.125289369824 70.7400183889
517.5 0.107769318925 18.4111176411
518.125 0.204296502353 73.6477954817
518.75 0.0947405328295 17.5806407651
519.375 0.0556419279438 11.2534995364
520.0 0.0889115638418 -1.82102830864
520.625 0.105953955906 -2.58177372758
521.25 0.0886333160046 -20.5318569287
521.875 0.0753193981783 3.10537592378
522.5 0.0944673379649 -31.8062455084
523.125 0.184409793629 -32.3944564018
523.75 0.205878053875 -56.9445872773
524.375 0.21964624055 -45.454006435
525.0 0.0716676987432 -43.7089996664
525.625 0.0334524552306 -47.4280999566
526.25 0.0573089913747 -2.78793066678
526.875 0.0398291792464 -36.7190822314
527.5 0.0423094973918 -26.5516136154
528.125 0.038082460133 -61.7844542334
528.75 0.0670866870708 -67.3533625133
529.375 0.0676647323855 -119.17865326
530.0 0.034922902537 -134.119405849
530.625 0.0395136949068 -133.410070875
531.25 0.142469435686 -137.793186304
531.875 0.135209090777 -147.766839368
532.5 0.123717369254 -170.281532302
533.125 0.09490200031 174.474623617
533.75 0.134309970232 168.870531706
534.375 0.0887420697603 176.792862956
535.0 0.0867583443803 164.48993651
535.625 0.0664302737043 178.186342429
536.25 0.0736763363856 165.583420945
536.875 0.0657407548952 -154.729030176
537.5 0.0879495398999 -140.732921942
538.125 0.103091355933 -170.48354027
538.75 0.115983963488 -177.376097698
539.375 0.0563463984758 -164.061297693
540.0 0.0890832433549 -151.052012875
540.625 0.124612080232 -153.777042228
541.25 0.140401700442 -139.62185314
541.875 0.090266461774 -140.762108339
542.5 0.105765020482 -137.862509074
543.125 0.128928408007 -165.495268885
543.75 0.140322882053 161.887886053
544.375 0.0823669700423 134.594301164
545.0 0.0879632273782 93.6189985965
545.625 0.101205356557 85.6130534471
546.25 0.0893948372493 71.7384357337
546.875 0.0956915029162 56.576019539
547.5 0.106822169028 61.8921512592
548.125 0.107711159648 81.5821685712
548.75 0.0986368910501 92.1573847255
549.375 0.0731388522263 87.3791178844
550.0 0.0832167386736 128.254058416
550.625 0.0462768694463 157.727747838
551.25 0.0414398422253 -135.540215685
551.875 0.0592203387682 -147.349864979
552.5 0.103211575336 -158.181696856
553.125 0.0868680181009 -164.392984665
553.75 0.0968893874151 -172.829143538
554.375 0.101963214004 171.111513489
555.0 0.121717202865 167.458326552
555.625 0.0994689413917 158.898436913
556.25 0.0994509875952 165.150660445
556.875 0.126985010985 165.521100181
557.5 0.100251243515 170.249639123
558.125 0.0869041310866 167.996834762
558.75 0.0810685940226 -178.489425226
559.375 0.0521630638104 -169.112736584
560.0 0.0425020584678 -139.395404584
560.625 0.0616201686485 -139.498207743
561.25 0.092010178993 -149.831816247
561.875 0.101669869571 -159.370757496
562.5 0.0927933542319 175.743724681
563.125 0.1042180654 147.611196777
563.75 0.138925755828 130.869526051
564.375 0.0908750161838 126.418979063
565.0 0.0814120213816 123.41749939
565.625 0.0832466263049 120.446161421
566.25 0.0977069407121 154.64795321
566.875 0.0786695424167 179.553449622
567.5 0.0675191298992 -173.434858329
568.125 0.0756350773427 -164.330964713
568.75 0.0615315910326 -140.627543848
569.375 0.0536782958133 -115.526898256
570.0 0.0603125358418 -95.066748423
570.625 0.0934907771309 -112.905861948
571.25 0.091030559652 -116.937873766
571.875 0.091296236035 -129.764013208
572.5 0.110510556173 -151.887870691
573.125 0.135970419545 -169.306340332
573.75 0.0958656222597 164.75804623
574.375 0.0872483646791 147.350204294
575.0 0.106066344068 158.702045307
575.625 0.109574809538 157.050440252
576.25 0.0891712000241 146.670875245
576.875 0.070410732383 136.146697743
577.5 0.0822781793833 138.768337473
578.125 0.0610177687094 159.822880724
578.75 0.0484199164499 167.549762894
579.375 0.0581137462527 158.636994063
580.0 0.0660433287414 -164.670330477
580.625 0.0801256711578 -142.735852415
581.25 0.091523554335 -162.46300204
581.875 0.117521025542 177.955237282
582.5 0.107439098979 -165.097952221
583.125 0.0905490089449 -163.518395599
583.75 0.0781613489098 -161.459929671
584.375 0.106466957277 -163.403703798
585.0 0.0886010623059 -138.900156802
585.625 0.0679492968663 -137.635597841
586.25 0.0673529900431 -131.722802383
586.875 0.0848490063304 -142.503729148
587.5 0.0678727411546 -131.494067317
588.125 0.0577367908762 -165.766309882
588.75 0.0628546765243 -154.25653256
589.375 0.0817105163902 -160.447060626
590.0 0.0936982804207 -160.348494026
590.625 0.106357945788 168.81634921
591.25 0.1120775665 156.847532454
591.875 0.0941901527999 159.673363387
592.5 0.0612609778581 149.39806861
593.125 0.0615694009391 157.800496149
593.75 0.062275561098 -178.762569637
594.375 0.0588843189999 -161.174926987
595.0 0.0496139971456 -96.0532166416
595.625 0.0602370482714 -97.1676786368
596.25 0.0721617345273 -83.4920618214
596.875 0.0693172799722 -67.2610556617
597.5 0.0583147040321 -61.2687624891
598.125 0.0743861138068 -52.8550424322
598.75 0.0819290177276 -59.8170151066
599.375 0.0808938166513 -72.2202033438
600.0 0.111097575497 -53.4771494187
600.625 0.10336618373 -55.2407799715
601.25 0.079113744084 -69.5531247542
601.875 0.0670764173094 -97.9944660915
602.5 0.0610945500758 -74.8998014814
603.125 0.0429953424259 -49.16997015
603.75 0.029172957204 -38.3854954743
604.375 0.0422959980015 -21.0208303866
605.0 0.0519896353814 -29.7583696867
605.625 0.0620353146653 17.1737696062
606.25 0.0368216778677 33.9326417875
606.875 0.0413335407107 53.5173603963
607.5 0.042260976866 39.9535903353
608.125 0.0802126528736 37.6498687593
608.75 0.0562009684892 19.6456046381
609.375 0.0670532842735 31.468189463
610.0 0.0601798929013 34.9003896551
610.625 0.0775242147267 51.8289648132
611.25 0.0615106637613 49.8430759026
611.875 0.0405519642485 58.6336240824
612.5 0.00940219736739 17.5641699481
613.125 0.0393651036422 130.772387602
613.75 0.0524745309202 127.570008475
614.375 0.0356895148367 121.933573266
615.0 0.0336540177327 118.884234145
615.625 0.0328427547568 140.034941123
616.25 0.0532573315029 139.411528611
616.875 0.0481032776761 127.005284205
617.5 0.0272338542024 114.733805441
618.125 0.0394053096576 142.674133829
618.75 0.031782765371 149.100068306
619.375 0.0101549053396 134.002949669
620.0 0.0167181036976 -26.1203429764
620.625 0.0282512436317 -165.652335672
621.25 0.0441029162122 -113.965668252
621.875 0.0665492052456 -104.961119342
622.5 0.0689936596347 -158.709991534
623.125 0.0659144023506 -179.235346014
623.75 0.06019424988 166.683232901
624.375 0.0349096922101 -167.695388354
625.0 0.0400724136858 -149.556470315
625.625 0.0204013684257 -133.872542646
626.25 0.0441837300116 -176.365195939
626.875 0.0132196371199 177.892333092
627.5 0.0224432995967 -35.2297292612
628.125 0.0561735163673 -1.99348595618
628.75 0.0370837489169 -56.8422509076
629.375 0.0385639732342 -23.9686358719
630.0 0.0759199942682 -5.03854779387
630.625 0.0834549787353 23.0846859119
631.25 0.0681302930707 -0.0957022917296
631.875 0.0682431065903 -18.3167367913
632.5 0.0597229705031 -9.62772798744
633.125 0.0525558353429 31.9195600123
633.75 0.0489205187582 -6.6086440184
634.375 0.0399635974134 8.24642271516
635.0 0.0395172242866 41.7313115593
635.625 0.0341485119212 45.5753847861
636.25 0.0672446903688 51.4009430104
636.875 0.0570247568866 16.8790720153
637.5 0.0407825949806 31.7397325007
638.125 0.0364914447572 58.0272595798
638.75 0.100600836888 80.6804841366
639.375 0.0848724822065 82.655847017
640.0 0.06495247665 100.785822855
640.625 0.0539019456147 98.5282972358
641.25 0.0688418348409 129.51947821
641.875 0.0517199214145 128.930944476
642.5 0.0447909173693 153.165503339
643.125 0.056056342328 161.706197627
643.75 0.0899911785193 -179.533863809
644.375 0.0549201062921 172.395774316
645.0 0.0654681830455 175.482775743
645.625 0.0884816504174 163.928009306
646.25 0.105747354744 172.436174584
646.875 0.0676735012679 178.774148065
647.5 0.0673950944599 -175.024868578
648.125 0.0876915758435 -173.211754724
648.75 0.0730598544148 -160.483188958
649.375 0.0555188405019 -141.559444365
650.0 0.0476414635854 -116.160212685
650.625 0.0595875619527 -84.1809349159
651.25 0.0698524755546 -61.1296679101
651.875 0.0765661271553 -40.8006984337
652.5 0.0686297194187 -22.0209727925
653.125 0.103668485694 -1.13761095535
653.75 0.108559288038 8.33458718641
654.375 0.0985476741003 4.26453975636
655.0 0.109270989703 12.7492904582
655.625 0.100816578604 31.928422608
656.25 0.0586006514898 23.2477085767
656.875 0.0792751710891 10.6859874283
657.5 0.0599257298861 18.5429556892
658.125 0.0577367934293 53.4041367942
658.75 0.0499729478505 66.3209419203
659.375 0.0981581733504 37.3720845426
660.0 0.103470481571 27.8659422334
660.625 0.10733154019 21.1809002073
661.25 0.10213856652 2.86058038702
661.875 0.126157605522 -9.90267729513
662.5 0.0987403378397 -22.1776230817
663.125 0.0937760849412 -14.5144081451
663.75 0.087879208755 5.09132933784
664.375 0.114586871909 57.5183245601
665.0 0.0701789443227 94.1644469384
665.625 0.0704722104848 114.106471204
666.25 0.0905102756912 134.033209146
666.875 0.100473248085 172.618272426
667.5 0.098303230548 -168.475489186
668.125 0.108383991509 -177.73357222
668.75 0.130686294169 171.044255983
669.375 0.140628583328 179.536687903
670.0 0.0832231129628 -166.851039116
670.625 0.0907975942444 -167.37086942
671.25 0.109544750643 178.211899813
671.875 0.115226549185 170.256633609
672.5 0.0561170538348 162.57083933
673.125 0.0794458841139 160.746131554
673.75 0.115698771361 161.021446414
674.375 0.113268592444 172.42122072
675.0 0.115446315157 -172.546198093
675.625 0.130734346618 -147.692500965
676.25 0.130068679339 -123.230393569
676.875 0.118447187517 -119.691803456
677.5 0.125316587573 -125.451725392
678.125 0.117730999031 -111.222250122
678.75 0.0635087249334 -90.2085024269
679.375 0.0609179911972 -76.8209032197
680.0 0.0692275800511 -66.6057885724
680.625 0.113133084561 -68.7107918742
681.25 0.10389601588 -72.739125936
681.875 0.104992551122 -93.0711426785
682.5 0.142025659437 -118.958787327
683.125 0.160108005185 -117.782475429
683.75 0.133374667975 -101.571646987
684.375 0.112848797196 -75.7901456432
685.0 0.144993871875 -41.1620535136
685.625 0.116099703177 3.03423563049
686.25 0.0961353875359 26.3838990484
686.875 0.0749729014197 51.4154162418
687.5 0.0883160243015 80.1086758535
688.125 0.0749053847338 122.26054598
688.75 0.0992157800331 119.91523356
689.375 0.133888259598 125.534520652
690.0 0.139124704814 134.150692188
690.625 0.113612561942 131.945147368
691.25 0.141234635809 102.603163404
691.875 0.198546098741 68.9571561155
692.5 0.141403345212 42.3204580525
693.125 0.0952562980936 -15.8947906503
693.75 0.0822581023361 -26.5580997724
694.375 0.126552809816 -20.1007474669
695.0 0.118355849047 18.7575662768
695.625 0.105442705887 53.6081123624
696.25 0.10955550196 121.019420737
696.875 0.139670978745 174.024587566
697.5 0.142903353859 -141.490311198
698.125 0.139751378045 -129.456002602
698.75 0.131248214847 -126.381836233
699.375 0.100587220419 -116.794488753
700.0 0.0878059890446 -105.718080012
700.625 0.12220671871 -96.1345058363
701.25 0.0888048735703 -52.9027124124
701.875 0.0812235370395 -52.6719798891
702.5 0.0974709193628 -78.2680369583
703.125 0.175045337142 -121.552834915
703.75 0.192614576317 -155.849472347
704.375 0.125903577985 174.42179434
705.0 0.107063618518 166.575711946
705.625 0.133853601008 -162.004196543
706.25 0.154795713691 -117.57640219
706.875 0.0784181052903 -48.0652588084
707.5 0.0763944876994 -27.8741253603
708.125 0.0887155688688 26.1409989251
708.75 0.113370048338 58.6316253251
709.375 0.105704892919 119.306656616
710.0 0.103293142959 133.274636499
710.625 0.109055803437 155.568465922
711.25 0.119250795667 167.791995045
711.875 0.14743222975 177.33699227
712.5 0.142445316702 151.658811281
713.125 0.112257607438 106.371105641
713.75 0.10378545926 43.7329181019
714.375 0.108280327567 21.0840136007
715.0 0.113162800714 31.561314937
715.625 0.0869228154226 58.0028185586
716.25 0.0845085271282 82.607872367
716.875 0.108795380167 94.7518452734
717.5 0.151526964848 164.934740515
718.125 0.116339936657 171.799699572
718.75 0.097066340015 173.731875434
719.375 0.120152855369 -166.864955463
720.0 0.126981126648 -135.197745833
720.625 0.11118159008 -71.520959944
721.25 0.0984477065441 -22.8245422787
721.875 0.0844675714056 15.884421682
722.5 0.0845652436817 100.191530826
723.125 0.0984983497437 86.9462035778
723.75 0.115374467756 48.3293258248
724.375 0.110181192609 -1.51550556063
725.0 0.0959915490452 -37.8723398501
725.625 0.105468164226 -60.7149838931
726.25 0.128140647292 -55.1847371965
726.875 0.105671095726 -45.6455096972
727.5 0.0749689952089 -47.130324869
728.125 0.1057748063 22.7024597936
728.75 0.101561358212 31.856817097
729.375 0.0806259523555 27.1081652355
730.0 0.0646200840331 3.843196944
730.625 0.0505667699714 10.670182925
731.25 0.0733556339546 70.4754640683
731.875 0.0711247296286 114.577278285
732.5 0.0781562308215 154.420649491
733.125 0.0591737675679 158.894661456
733.75 0.0761594617576 177.191739767
734.375 0.0394550997935 174.710860711
735.0 0.0434160539043 147.228197799
735.625 0.0720862967387 157.978015745
736.25 0.0420564839332 153.466345538
736.875 0.0425097004191 175.013914639
737.5 0.0756115243048 177.736687888
738.125 0.0683390327916 -176.753274163
738.75 0.0785391166568 -171.024516882
739.375 0.0487793725878 -169.863898691
740.0 0.0543452026205 -137.272203119
740.625 0.0205214160836 -115.345683148
741.25 0.0845455695405 -148.502106465
741.875 0.0478385901288 -105.086892402
742.5 0.0228745894206 -5.78025140805
743.125 0.02129994023 119.586718366
743.75 0.0695719948727 84.1695703452
744.375 0.0479971148909 101.279201506
745.0 0.0694176867535 116.464487228
745.625 0.0694887793299 150.051206639
746.25 0.0982189840376 74.8741306726
746.875 0.0670781043738 45.6045323708
747.5 0.030709023547 21.498901359
748.125 0.0232975070421 -2.01391073261
748.75 0.0268820239503 59.605040487
749.375 0.0554533772201 -60.161545164
750.0 0.039516310817 -109.969557871
