!Created with skrf (http://scikit-rf.org).
# GHz S RI R (50+0j) 
!freq	ReS11	ImS11	
500.0	-0.3113205134	-0.8863085158	
500.625	0.6688145682	-0.4742700869	
501.25	-0.5900724854	-0.7054466416	
501.875	-0.06174809128	-0.06010668526	
502.5	-0.003744150263	-0.1678529867	
503.125	-0.05397996496	0.04348760392	
503.75	-0.04134353325	0.03770258207	
504.375	0.0470825941	-0.01009534307	
505.0	-0.0103714925	-0.007869419756	
505.625	0.03797936224	-0.07942390323	
506.25	-0.128646709	-0.01110959986	
506.875	-0.02359253975	-0.226449351	
507.5	-0.3477939866	-0.4319782186	
508.125	0.356978795	-0.1303650425	
508.75	1.056103068	-0.8152280662	
509.375	-0.1306626773	-1.115948891	
510.0	-0.08967137299	-0.1435924321	
510.625	-0.07668653302	-0.2477951089	
511.25	-0.09335195597	0.001908080428	
511.875	-0.03429018654	-0.1104530498	
512.5	-0.03042686867	0.05385057949	
513.125	-0.01661396891	-0.03781841784	
513.75	0.007051754848	-0.1045086601	
514.375	-0.1210786346	0.0422038513	
515.0	0.2567156476	-0.02497025398	
515.625	-0.247187439	-0.4018819023	
516.25	0.8002565135	-0.5412941474	
516.875	-0.01559030581	-0.6942299418	
517.5	-0.10620149	-0.2032709447	
518.125	0.05578822165	-0.02444468787	
518.75	-0.07865445591	-0.1655804416	
519.375	-0.02339213908	0.0127009617	
520.0	0.06260631964	0.1120661456	
520.625	0.1943046949	-0.0479803313	
521.25	0.009298012121	-0.2298480549	
521.875	-0.06226995055	-0.08700058203	
522.5	-0.1094463262	0.05704171109	
523.125	0.02868353206	-0.06912978269	
523.75	-0.1986095368	-0.1096597699	
524.375	-0.06221507234	0.09781607701	
525.0	-0.1333721117	-0.01852364476	
525.625	0.04684902861	0.1407809805	
526.25	-0.03491673696	-0.09066840168	
526.875	-0.06113125202	0.08610809354	
527.5	-0.08004135474	0.03898151917	
528.125	-0.1814971709	0.2818668717	
528.75	-0.0626500926	0.1361296802	
529.375	-0.0361276879	-0.007647739794	
530.0	-0.02004155271	0.2384582265	
530.625	0.04758351584	0.5087656447	
531.25	0.1641680909	0.2495076308	
531.875	0.344597654	-0.1903332231	
532.5	-0.05637763599	-0.03210766764	
533.125	0.1554668588	-0.09131851043	
533.75	0.0425338461	-0.06150264571	
534.375	0.1344320639	-0.3083584016	
535.0	-0.2421157422	-0.1452358569	
535.625	-0.1101368917	0.01309284783	
536.25	-0.06721582539	0.08100075469	
536.875	0.09015050592	0.02223311068	
537.5	0.04143211079	0.02371837	
538.125	0.1412453137	-0.0003759856924	
538.75	0.09469297187	-0.05812948698	
539.375	0.07100279197	-0.1381190034	
540.0	-0.08635325554	-0.2111074174	
540.625	-0.1754500802	-0.06752300702	
541.25	-0.02665567555	-0.0305802965	
541.875	-0.08339727025	0.002556106757	
542.5	0.01777948889	-0.03256745616	
543.125	-0.05536030279	-0.1512860112	
543.75	-0.05523559731	0.03626571296	
544.375	-0.08989619589	-0.018991684	
545.0	0.008701669376	0.08315351774	
545.625	-0.01885376335	0.03076394767	
546.25	0.09281195589	0.133743819	
546.875	0.0811852506	-0.03008030715	
547.5	0.1131075434	-0.009753277551	
548.125	0.03509102148	-0.210309572	
548.75	-0.06692475696	-0.07996307915	
549.375	-0.01984477567	-0.1281358291	
550.0	-0.1025015134	-0.01371451249	
550.625	-0.005359488312	-0.02011292895	
551.25	-0.1004090811	-0.02145148816	
551.875	-0.04905124946	0.03550209177	
552.5	-0.07272331039	0.01880059334	
553.125	-0.03782470831	0.06367997998	
553.75	0.00935200095	0.04700058865	
554.375	0.08267030925	0.03964456013	
555.0	0.1014379138	-0.02408752297	
555.625	0.1130663604	-0.04202836887	
556.25	0.1209987411	-0.07816346895	
556.875	0.04831570854	-0.1390492647	
557.5	-0.02423574176	-0.1223220408	
558.125	-0.06813051091	-0.08961459292	
558.75	-0.08862243264	-0.05209451944	
559.375	-0.08746680374	-0.03221177067	
560.0	-0.1136303603	0.001061651309	
560.625	-0.09179942202	0.08184063472	
561.25	-0.02588338738	0.05736801054	
561.875	-0.007827899518	0.07048456846	
562.5	0.007438179666	0.022145383	
563.125	0.001612235209	0.1091571765	
563.75	0.1422684681	0.03414127682	
564.375	0.1012949511	-0.008285936746	
565.0	0.1643506347	-0.07394441404	
565.625	-0.007190459688	-0.1549062064	
566.25	-0.00278813687	-0.09454773603	
566.875	-0.09867393474	-0.1749068786	
567.5	-0.0775499026	-0.08943776925	
568.125	0.05073688208	-0.1871409602	
568.75	-0.2268240048	-0.1858183704	
569.375	-0.1385946052	0.008936367724	
570.0	-0.2236964877	0.03958444534	
570.625	-0.1187801594	0.1826959909	
571.25	-0.02492954715	-0.003706392736	
571.875	0.0007083351262	0.1706275254	
572.5	0.08111394111	-0.01841360461	
573.125	0.1248614356	0.05005340778	
573.75	0.1277531576	-0.1575213344	
574.375	-0.0456793982	-0.02199419302	
575.0	0.1199667898	0.008368627126	
575.625	-0.003955656627	-0.08372449701	
576.25	0.09622449858	0.02651424957	
576.875	0.07816921942	-0.1796739152	
577.5	-0.01778758559	-0.1149991977	
578.125	0.09809767105	-0.07028247869	
578.75	0.003375027721	-0.2829562105	
579.375	-0.1051541226	0.007608664292	
580.0	0.05859273231	-0.07404904437	
580.625	-0.1466189507	-0.01606443471	
581.25	0.005747688612	-0.100242592	
581.875	-0.1804015498	0.1824450097	
582.5	0.06745439821	0.1662412082	
583.125	-0.04020214076	-0.003860081413	
583.75	0.0614055975	0.1383792309	
584.375	-0.002905409388	-0.04990419316	
585.0	0.03064414144	0.1783910288	
585.625	0.1840477084	-0.0003752773354	
586.25	0.05219957721	0.05079319874	
586.875	0.1934272915	-0.04821182172	
587.5	-0.0181014387	-0.161332691	
588.125	0.06828289532	-0.02744969022	
588.75	0.1620346861	-0.1492466977	
589.375	0.02996372237	-0.1208830379	
590.0	0.1133837586	-0.1143398399	
590.625	-0.2399546635	-0.1454734446	
591.25	-0.03465465778	0.06817126726	
591.875	-0.1568403654	-0.01378228234	
592.5	-0.01176023566	0.1237209021	
593.125	-0.09472783372	-0.09579736365	
593.75	0.0935653485	0.1957776263	
594.375	0.05332393924	0.05023284398	
595.0	-0.008255124708	0.1815370505	
595.625	0.1634086937	0.1652495418	
596.25	0.02811390208	0.04272844796	
596.875	0.1123791457	0.1767788136	
597.5	0.1418568823	0.1097553989	
598.125	0.002261548807	0.1071442174	
598.75	0.1150872502	0.1619586607	
599.375	0.1871442787	-0.004312868433	
600.0	0.1355651858	0.009164487355	
600.625	0.2451885797	-0.07965848934	
601.25	0.08173164124	-0.1942080295	
601.875	0.05241832727	-0.05665599936	
602.5	-0.1473323113	-0.127089582	
603.125	-0.04158670091	0.0677216653	
603.75	-0.09794611858	-0.08254138507	
604.375	-0.1397131279	0.1932761258	
605.0	0.01114370503	-0.02666934179	
605.625	-0.1523135371	-0.04743262072	
606.25	-0.07184499374	0.07448523462	
606.875	-0.2535013184	-0.0705603918	
607.5	-0.2776356913	0.08169803173	
608.125	-0.04033537728	0.1928506036	
608.75	-0.01117510358	0.1857553528	
609.375	0.1528323913	0.08160109214	
610.0	0.1556233724	-0.07794241283	
610.625	0.130107734	0.01679865393	
611.25	0.09602406665	-0.2025822886	
611.875	-0.1100091692	-0.0576213394	
612.5	-0.0379847147	-0.1894568547	
613.125	-0.2556741636	0.00102859984	
613.75	-0.02671482939	0.02933394071	
614.375	-0.1076254619	0.1366515079	
615.0	0.1087033136	0.02191766858	
615.625	-0.1166049152	-0.01017055599	
616.25	-0.1069773693	0.1924821129	
616.875	-0.0487124451	0.07980623205	
617.5	-0.2082060092	0.07980209974	
618.125	-0.1364308702	0.2557978227	
618.75	-0.03845240814	0.1200650455	
619.375	-0.05521443925	0.1820084214	
620.0	0.1762613053	0.1122521627	
620.625	0.08019082625	-0.035792915	
621.25	0.05685422633	-0.1739418061	
621.875	-0.2114614542	-0.1738847403	
622.5	-0.118229325	-0.008195164197	
623.125	-0.1808736387	0.1248923055	
623.75	0.1582932746	0.08969177576	
624.375	-0.02171357841	-0.006360822489	
625.0	0.1101858924	-0.03914638241	
625.625	0.008172820617	-0.01544989052	
626.25	0.08519923765	-0.1480061104	
626.875	-0.138831783	-0.1379797339	
627.5	-0.08454058161	-0.06366868509	
628.125	-0.02770588686	-0.140832635	
628.75	-0.06658105901	-0.1388386207	
629.375	0.0186229938	-0.1187568089	
630.0	-0.02282746492	-0.1830042346	
630.625	-0.2609865159	-0.05341750822	
631.25	-0.1573994938	0.03942730188	
631.875	-0.1836640789	0.1871587344	
632.5	0.1682491976	0.2703105251	
633.125	0.06720130269	0.06654319438	
633.75	0.2345806688	0.049855167	
634.375	0.03741004488	-0.1628014489	
635.0	0.1026614166	-0.0515122016	
635.625	-0.1441477964	-0.2012484047	
636.25	-0.111882675	0.04862835842	
636.875	-0.1314502455	-0.01804039987	
637.5	-0.1031282767	0.1459370451	
638.125	-0.006817550739	-0.03416083623	
638.75	-0.217981626	0.1027604993	
639.375	-0.0277574728	0.2232966773	
640.0	-0.03888933928	0.1636028153	
640.625	0.0708029566	0.2913593917	
641.25	0.2771009012	0.04123847951	
641.875	0.1289480795	-0.01053886678	
642.5	0.183925565	-0.2012547478	
643.125	-0.3000948892	-0.1386645811	
643.75	0.08889501081	-0.05942975895	
644.375	-0.2512525653	-0.07053697985	
645.0	-0.042339001	0.1471387773	
645.625	-0.2798626482	0.06680185097	
646.25	0.2455195204	0.238914493	
646.875	0.00500894568	-0.05418502586	
647.5	0.03343772323	0.2126893138	
648.125	0.1536628506	-0.01307946248	
648.75	0.06804302305	0.211225681	
649.375	0.4210282499	-0.1035865199	
650.0	0.1190650382	-0.2137124851	
650.625	0.2481105774	-0.008206339785	
651.25	0.3945824819	-0.1932492889	
651.875	0.1143889624	-0.1150401458	
652.5	0.2502203585	0.1574831218	
653.125	0.3750738723	-0.07269598656	
653.75	0.07327039683	-0.1622967936	
654.375	0.1980186081	-0.265721372	
655.0	-0.3836815895	-0.2261225834	
655.625	-0.04682004048	0.1501719419	
656.25	-0.2299872854	0.05484768268	
656.875	0.1360659326	0.1615524021	
657.5	-0.1441154646	-0.0154789764	
658.125	0.07956355884	0.3600071208	
658.75	0.1712467551	0.02598122256	
659.375	0.1742692787	0.1948410976	
660.0	0.4587318611	-0.08170713765	
660.625	0.1021377143	-0.2551323383	
661.25	0.2914571249	0.01789895633	
661.875	0.3746114324	-0.1436958095	
662.5	0.2024729371	-0.1251170776	
663.125	0.2707180611	0.08805613401	
663.75	0.2812727861	-0.2944029702	
664.375	0.01151739009	-0.1906455662	
665.0	-0.03615129598	-0.2984476195	
665.625	-0.4108289571	-0.0460796175	
666.25	-0.0582113477	0.169002791	
666.875	-0.09112406918	0.2247174922	
667.5	0.2232070174	0.1842094766	
668.125	0.04274798114	0.0138988797	
668.75	0.311164181	0.09245937319	
669.375	0.1310118191	-0.2123209418	
670.0	0.09687375026	-0.03412232867	
670.625	0.2061802765	-0.1761706363	
671.25	-0.0274543633	-0.1600826009	
671.875	0.1774681054	0.08297576729	
672.5	0.328278068	-0.04129585482	
673.125	0.1595707625	-0.09082833917	
673.75	0.2130391393	0.001738247982	
674.375	0.210389916	-0.2788968201	
675.0	-0.07408061482	-0.1118438542	
675.625	-0.0150113128	-0.2207356611	
676.25	-0.2468949621	-0.09499379238	
676.875	-0.06551954368	0.05127898814	
677.5	-0.1223411133	-0.184924163	
678.125	-0.216035835	0.1836970605	
678.75	0.01641583691	0.01275799362	
679.375	0.003241031201	0.3035133415	
680.0	0.2806137933	-0.1069843223	
680.625	-0.1044574132	0.07993936296	
681.25	0.3252393541	0.05958664464	
681.875	0.06571891759	-0.06908472437	
682.5	-0.08127207149	0.1906700948	
683.125	0.3250850717	0.298025043	
683.75	0.1028654734	-0.03126618383	
684.375	0.2607927461	0.273545228	
685.0	0.3273194904	0.1144126282	
685.625	0.1394613696	-0.0704581985	
686.25	0.300373397	0.240051888	
686.875	0.2260767789	-0.1291756459	
687.5	0.2077552469	-0.09734780798	
688.125	0.272663408	-0.3861103405	
688.75	-0.4294331265	-0.2928584999	
689.375	-0.2005874351	0.115668463	
690.0	-0.2632741174	0.38458761	
690.625	0.2153864389	0.2969621123	
691.25	-0.08856360996	0.2084759939	
691.875	0.2419251183	0.7282286645	
692.5	0.3918883509	0.2745146354	
693.125	0.2837899024	0.3929491859	
693.75	0.6833988384	0.2428132034	
694.375	0.3993237631	-0.2703857229	
695.0	0.743576255	0.02101600611	
695.625	0.5414193849	-0.02225661272	
696.25	0.3579435083	0.09113991337	
696.875	0.1856493413	0.4285340987	
697.5	0.3442457786	0.5776165694	
698.125	0.4249792177	0.208434269	
698.75	0.5215306524	-0.03426022599	
699.375	-0.2095578285	-0.553770332	
700.0	-0.3440479533	0.3153113886	
700.625	-0.1604136403	0.1668658758	
701.25	0.2189184872	0.3519819651	
701.875	0.03501732195	0.1549523627	
702.5	-0.05520911495	0.4783664998	
703.125	0.3121916963	0.3743899009	
703.75	0.1953312971	0.0483009573	
704.375	0.3716099912	0.1233109413	
705.0	0.2845617193	-0.1187470494	
705.625	0.3004278825	0.1846650893	
706.25	0.2210647208	0.1984332487	
706.875	0.2351565023	0.1806994092	
707.5	0.1137921428	0.3369118431	
708.125	0.1198542601	0.2107069339	
708.75	0.4084382222	-0.2915862937	
709.375	-0.02336995219	-0.1782380916	
710.0	-0.2804994364	0.01431507417	
710.625	0.1230954576	0.2141452517	
711.25	-0.123411812	0.06428329423	
711.875	0.1770858055	0.2595453267	
712.5	0.1517806233	0.04705329749	
713.125	0.2610656493	0.192555018	
713.75	0.300933101	-0.1353360328	
714.375	0.05036792775	-0.1223943373	
715.0	0.1706861048	-0.1133109133	
715.625	0.06581469206	-0.2449829001	
716.25	0.1246950883	-0.1136672368	
716.875	0.3880143644	0.04510078845	
717.5	0.4689949445	-0.07113271278	
718.125	0.3773063153	0.1443457291	
718.75	0.4854321856	0.3088614362	
719.375	0.6093648181	-0.3860535127	
720.0	0.5330005191	-0.1209653825	
720.625	0.8516724267	-0.6777279618	
721.25	-0.5446603147	-1.120044918	
721.875	0.6175933443	-0.3547929431	
722.5	0.1382093514	-1.058824635	
723.125	-0.4786811196	-0.4803515846	
723.75	-0.2431607896	-0.3130589151	
724.375	-0.4233677334	0.4424497998	
725.0	0.01791973852	0.2139939209	
725.625	-0.2759111862	0.3385815439	
726.25	-0.2340977118	0.6894530133	
726.875	-0.1114531149	0.5350639987	
727.5	-0.8355838477	0.7769308487	
728.125	-0.3570281708	1.810466842	
728.75	0.2064573792	1.578369335	
729.375	-1.341280431	1.630931192	
730.0	0.007812464574	3.98506866	
730.625	0.1504604112	1.827677171	
731.25	-2.707568967	1.339146244	
731.875	-3.852462278	3.083854133	
732.5	-0.7543117175	0.4629305411	
733.125	-1.939466366	-2.254241745	
733.75	-1.723817726	0.7716173522	
734.375	0.2199088228	0.1956376678	
735.0	0.8036817731	0.07542228562	
735.625	-0.5338665256	-0.09711548757	
736.25	-0.2311335368	-0.1285107725	
736.875	-0.1931501468	0.8647373928	
737.5	0.8121862563	0.5042503093	
738.125	0.4148148063	0.4646031648	
738.75	2.374930866	0.4538362647	
739.375	1.584634818	-1.911045694	
740.0	0.2353943352	0.2981397917	
740.625	3.882371441	2.013361462	
741.25	3.000329398	-0.2316599929	
741.875	-1.518304821	-2.501821011	
742.5	-2.343838526	-2.782021231	
743.125	-0.6318042661	-0.7998294641	
743.75	1.039586737	-0.3810131784	
744.375	-0.4085815956	-0.536121035	
745.0	0.182121022	-0.01517852461	
745.625	0.07605734027	0.1394058666	
746.25	-0.0008909484088	-0.08505119298	
746.875	-0.01066670749	-0.1777540908	
747.5	-0.3663320563	0.1987440988	
748.125	-0.0698115098	0.3566992611	
748.75	-0.05498873778	0.3275567537	
749.375	0.003125492459	0.4817589382	
750.0	-0.182891318	0.2136226129	
