!Created with skrf (http://scikit-rf.org).
# GHz S MA R 50.0 
!freq magS11 angS11
500.0 0.0118319619461 143.119719095
500.625 0.0104530651002 29.124040392
501.25 0.0110199624886 -141.302867046
501.875 0.0214332959333 -165.259229226
502.5 0.006670664865 106.012931962
503.125 0.0217147885001 124.073104607
503.75 0.0095423472316 101.458795998
504.375 0.00723275909302 -42.8246590194
505.0 0.0299136858957 -71.7817116928
505.625 0.0091081271665 -86.2918164458
506.25 0.036379628511 -108.722048358
506.875 0.0622902048381 -112.1545472
507.5 0.058241847203 -104.904442573
508.125 0.0487024805614 -92.6309209235
508.75 0.0714243184685 -119.289444667
509.375 0.0493867091438 -139.223793987
510.0 0.0459688510751 -107.925157441
510.625 0.03319711684 -165.870325791
511.25 0.0530773862127 -173.941040601
511.875 0.0524989245906 142.84936501
512.5 0.0481280428052 114.488469832
513.125 0.0458447641411 27.5720166418
513.75 0.0588452949162 46.6403676423
514.375 0.0583118518591 32.692645987
515.0 0.0397473494729 -8.60881965375
515.625 0.0810027650774 49.4786406855
516.25 0.101616972718 32.5099633157
516.875 0.120696116113 71.0123523915
517.5 0.138263184162 24.9214785579
518.125 0.189364922212 70.1398957316
518.75 0.0751801271878 4.20896749447
519.375 0.0867303477098 25.6470977005
520.0 0.073134597967 -11.7197147379
520.625 0.09753558084 -4.26537968966
521.25 0.0791590164108 -27.1131883738
521.875 0.0728482710877 3.90051425605
522.5 0.0923990340052 -32.7295578232
523.125 0.172591584955 -34.6104665864
523.75 0.212803597898 -54.2307749887
524.375 0.200043348285 -51.0510184584
525.0 0.0649519328719 -58.6255737538
525.625 0.0292206850572 -44.9001118678
526.25 0.0426026934369 -7.30315755599
526.875 0.066545110264 -12.5170245074
527.5 0.0340850963445 -42.7319366234
528.125 0.0335008354433 -55.1202917153
528.75 0.0616983020106 -73.975312654
529.375 0.108112335464 -102.674860193
530.0 0.0447695402348 -130.236171905
530.625 0.0422835181829 -133.536661768
531.25 0.125505545539 -131.989408583
531.875 0.200498073757 -145.236220776
532.5 0.127172468532 -170.220896542
533.125 0.0893232414254 177.375841411
533.75 0.103681399273 168.923768456
534.375 0.129595951502 -176.857932965
535.0 0.0720078133991 160.150898638
535.625 0.0595550787148 179.895447335
536.25 0.0594630312519 170.51582041
536.875 0.0930985839453 -158.295680489
537.5 0.0959620212036 -140.802823783
538.125 0.107469154146 -169.806485125
538.75 0.100912491305 -176.549408324
539.375 0.0898051972925 -159.7603884
540.0 0.06970831252 -147.47166322
540.625 0.128374738489 -151.407350186
541.25 0.127654300351 -138.22776794
541.875 0.107442942664 -142.381758286
542.5 0.109435004024 -139.723759025
543.125 0.132282554525 -162.492903847
543.75 0.128596129465 162.782022785
544.375 0.103633102791 138.437317822
545.0 0.072170584735 92.5166113914
545.625 0.093573482299 88.0754289513
546.25 0.0942903475259 70.9244174792
546.875 0.0933396202196 57.5117359101
547.5 0.0882049440803 61.5000348923
548.125 0.110218531136 83.4146601607
548.75 0.0876011333646 94.2638335018
549.375 0.109196104295 89.0621544658
550.0 0.0614962857763 125.517128876
550.625 0.0412627715469 166.754315573
551.25 0.0410882628547 -136.970878532
551.875 0.0751345322834 -166.409231585
552.5 0.0924892253901 -153.980124713
553.125 0.0885344584074 -161.927170793
553.75 0.090657018112 -166.938805688
554.375 0.118913518121 165.206295176
555.0 0.105929207969 170.291982961
555.625 0.0939105361783 161.303134759
556.25 0.103026325378 164.365487213
556.875 0.121038703379 168.258602076
557.5 0.122107237933 168.224278305
558.125 0.0924408220056 166.602645744
558.75 0.0837610383235 179.026465815
559.375 0.0741303366085 -170.71474523
560.0 0.0327091667692 -128.358229702
560.625 0.0587538827326 -131.787778487
561.25 0.084730855311 -146.29437791
561.875 0.110733264947 -162.906758103
562.5 0.0924654994329 176.255237689
563.125 0.103002754914 151.282963126
563.75 0.118449240678 136.403005414
564.375 0.112131466821 121.136446252
565.0 0.0701710539992 126.106146936
565.625 0.0779548593626 123.127371214
566.25 0.0850200314053 160.418557497
566.875 0.0775815863943 -178.420282759
567.5 0.0783696284704 -178.005387906
568.125 0.0790683781515 -165.861932644
568.75 0.0643655273473 -138.371515352
569.375 0.0514564353808 -106.197689087
570.0 0.0651621152837 -112.610844823
570.625 0.0921712328027 -113.064926037
571.25 0.0930400531973 -118.772883944
571.875 0.0900553671348 -124.794248907
572.5 0.117010859115 -158.084098451
573.125 0.138492539037 -170.701414193
573.75 0.0991593747701 167.246346994
574.375 0.0833293627763 150.717491904
575.0 0.103557960619 158.521242861
575.625 0.107844324402 159.114584919
576.25 0.083634404771 152.33235212
576.875 0.0857464084579 126.848130458
577.5 0.0715800151363 146.689584969
578.125 0.0564624226887 168.170838216
578.75 0.0506974203529 162.056283144
579.375 0.0572274864316 162.629523097
580.0 0.0724351179499 -179.9201577
580.625 0.0790703023367 -144.854568329
581.25 0.0920131501895 -162.764723539
581.875 0.117893896857 -174.824765524
582.5 0.121429453786 -177.035176603
583.125 0.0838681788408 -155.808704145
583.75 0.0807764833757 -157.76802613
584.375 0.101736104755 -152.344606119
585.0 0.0986287700912 -146.500665169
585.625 0.0670000117589 -135.327619841
586.25 0.070341564605 -130.285782514
586.875 0.0828019662652 -132.684359093
587.5 0.0754376841877 -146.51369816
588.125 0.0564906055963 -156.717121001
588.75 0.069290508341 -148.841864278
589.375 0.0843307210324 -146.862451807
590.0 0.0916053637985 -171.841770772
590.625 0.107994719682 176.485335388
591.25 0.121459714422 162.133703681
591.875 0.0916157497107 161.799979467
592.5 0.0654286933896 142.48456407
593.125 0.0604712741685 174.54548418
593.75 0.0706848731086 -170.863278086
594.375 0.0568405474413 -137.545661946
595.0 0.040604715582 -128.005234189
595.625 0.0704927897641 -81.3698850447
596.25 0.0782944099493 -77.0248469896
596.875 0.0653403320218 -70.0434777209
597.5 0.056157478423 -66.1246925379
598.125 0.0790804833222 -41.7511430859
598.75 0.07808192894 -61.5798085598
599.375 0.0901186552895 -62.5922157541
600.0 0.0969291163962 -70.893471065
600.625 0.099237747585 -58.727059281
601.25 0.0831703799494 -63.838114153
601.875 0.0662759635938 -80.4778979024
602.5 0.0592942589187 -97.6040229784
603.125 0.0479184438559 -23.7003639874
603.75 0.0302194588275 -28.4340247582
604.375 0.0393901331063 -25.5403250849
605.0 0.0610743406357 -15.4033670642
605.625 0.0458337892316 -21.6939997061
606.25 0.0300292503029 29.6115913027
606.875 0.0433754743761 52.4461634734
607.5 0.067576054439 51.4942320466
608.125 0.0581222092113 23.4385864655
608.75 0.0672319178549 26.7947645556
609.375 0.0577444645948 26.8023652899
610.0 0.0700451500107 43.7466469792
610.625 0.055882743843 27.6360776951
611.25 0.0504057287588 42.5004981896
611.875 0.0389956929691 54.6132738593
612.5 0.0244234536033 102.24322252
613.125 0.00959695069043 152.740189322
613.75 0.0744246537862 131.73662165
614.375 0.0516419395073 129.948069028
615.0 0.0313949587606 132.66691175
615.625 0.0172546991956 156.123041182
616.25 0.0436934838193 138.715310859
616.875 0.046144047836 132.398361136
617.5 0.0427547547602 134.287717525
618.125 0.00446118548646 141.704059837
618.75 0.0412502639074 152.10878568
619.375 0.0264673554943 149.366605402
620.0 0.0149886976695 155.240316138
620.625 0.038129042099 -66.3080406255
621.25 0.0528431245782 -134.868746749
621.875 0.0652585216947 -115.026714093
622.5 0.0842194322966 -168.284762844
623.125 0.0640820951652 179.270876878
623.75 0.0698531867035 168.756390168
624.375 0.0476378652668 -176.767526108
625.0 0.0329509109783 -131.219441925
625.625 0.0336412251851 -153.024351108
626.25 0.00374203722092 143.090269107
626.875 0.00289292498532 -34.1929946311
627.5 0.0238309352219 -22.8414466175
628.125 0.0350683281023 -25.706236133
628.75 0.0510482675971 1.42372654813
629.375 0.0398669210124 -26.4047335249
630.0 0.0607615995208 -11.1312178416
630.625 0.0691617632689 11.7353011604
631.25 0.069850939762 8.01144791516
631.875 0.0669270038365 -4.75432903271
632.5 0.0561939210713 -7.04181222349
633.125 0.0453403967205 3.19120601527
633.75 0.0492481343217 30.7761348913
634.375 0.0513225290766 -19.0167398838
635.0 0.034252244596 18.1072361231
635.625 0.0444282599009 52.2780364175
636.25 0.0551822091517 47.4718730806
636.875 0.0750421297601 53.132067536
637.5 0.0388715692676 13.039128594
638.125 0.0308674119297 58.75331272
638.75 0.0763081452791 80.0993531698
639.375 0.109187120263 101.875291003
640.0 0.0654241376573 85.7373996022
640.625 0.0492364583898 94.5788722303
641.25 0.0683736024415 116.193395199
641.875 0.0808518726898 161.962667887
642.5 0.0517343015989 162.866516742
643.125 0.0563030333181 165.827605628
643.75 0.0660139679139 179.872759462
644.375 0.0909328061179 -164.899746409
645.0 0.0663095386743 -179.736373554
645.625 0.0792600769322 165.153329239
646.25 0.0812082825944 161.351298884
646.875 0.0832972255084 -172.530755582
647.5 0.0509045868998 173.756519699
648.125 0.077659271294 -173.66143623
648.75 0.0790626630419 -157.323695935
649.375 0.0533345104994 -140.970745513
650.0 0.0412491851713 -118.000474078
650.625 0.0669348186803 -82.8371229024
651.25 0.0762194035404 -59.2038923914
651.875 0.0683899024927 -37.6995668499
652.5 0.106184257026 -20.87934326
653.125 0.115153630444 1.64323807876
653.75 0.116355287564 8.71328176623
654.375 0.12147925661 9.71260902106
655.0 0.0923101960677 4.97427577797
655.625 0.0848345076369 27.7155482254
656.25 0.065973458664 28.23933835
656.875 0.0715481196883 13.7596489361
657.5 0.093739759203 30.0218728141
658.125 0.0471066408402 51.4140734424
658.75 0.051577710271 72.5219966582
659.375 0.0852811969332 45.327292943
660.0 0.13410180157 27.4204974191
660.625 0.0905707372924 20.4158702675
661.25 0.0983978788652 8.52029260354
661.875 0.11684661866 -12.7014234807
662.5 0.138835971454 -16.928540711
663.125 0.100399926649 -13.6467913418
663.75 0.0869546531952 9.40080770328
664.375 0.0962648964877 60.0072889471
665.0 0.0783391502009 95.8807131205
665.625 0.0598620948758 119.279616479
666.25 0.0731216310887 137.647094418
666.875 0.132687752041 172.399314316
667.5 0.0933790652653 -163.856890297
668.125 0.101133095578 -174.679343427
668.75 0.124118390052 166.676632576
669.375 0.129338768388 -177.346091171
670.0 0.0874297638473 -166.705192068
670.625 0.0881443778661 -168.38382361
671.25 0.114321215712 -179.648417251
671.875 0.103275978742 173.791394319
672.5 0.0882494443437 157.929296329
673.125 0.0846360052626 159.781052119
673.75 0.107147691684 164.971497793
674.375 0.124361948435 169.740078571
675.0 0.0990343017157 -166.564349992
675.625 0.130397680706 -146.015446394
676.25 0.113700441609 -121.39505971
676.875 0.119219273197 -118.442138207
677.5 0.113052371897 -123.484896986
678.125 0.122996943216 -112.289784033
678.75 0.0635849978668 -84.7513382344
679.375 0.0542530763252 -68.5656899931
680.0 0.0888584367208 -79.8237173043
680.625 0.102679439177 -64.0643790258
681.25 0.101003811231 -66.1931612317
681.875 0.0954739901051 -87.9736909947
682.5 0.146916388371 -119.098122847
683.125 0.17376166451 -119.657743288
683.75 0.13616154298 -101.403542959
684.375 0.114453641874 -74.4653810405
685.0 0.128222027569 -36.7601977969
685.625 0.138147097343 -0.372792216243
686.25 0.0932952339333 30.1775018462
686.875 0.079409751316 54.8304978586
687.5 0.0809977455238 88.3615696915
688.125 0.0890177353739 108.424839738
688.75 0.0983424140227 127.187541401
689.375 0.137257974621 129.545406437
690.0 0.122191127041 137.952587911
690.625 0.127546270626 124.892695091
691.25 0.1292321509 109.138291703
691.875 0.180558719235 74.0528481254
692.5 0.130308298458 42.8221011755
693.125 0.0898287844402 -12.4014665685
693.75 0.103424965116 -39.873691404
694.375 0.134475368816 -22.2001788078
695.0 0.120693259344 22.2016886917
695.625 0.0946156962043 62.8225065151
696.25 0.124117543102 109.227764854
696.875 0.132902221091 -179.705551414
697.5 0.146217851878 -141.045915088
698.125 0.145291796011 -132.320799185
698.75 0.139798154809 -133.749320782
699.375 0.0966236024104 -113.677040283
700.0 0.0922932927348 -102.603277007
700.625 0.113545692552 -84.9572154255
701.25 0.108490906722 -67.4723853317
701.875 0.077706745396 -40.7153727535
702.5 0.103413916854 -74.9705954791
703.125 0.164202493302 -115.355957869
703.75 0.187776766877 -153.011719425
704.375 0.123248649806 174.329285992
705.0 0.109862404207 164.476323056
705.625 0.141070440566 -159.741490003
706.25 0.143369186399 -107.215694285
706.875 0.0964796080565 -65.4722398188
707.5 0.068427197565 -11.7540901262
708.125 0.0938402759899 31.9807640129
708.75 0.110165672837 74.3294932358
709.375 0.107632471017 99.927272269
710.0 0.104074112644 147.045218469
710.625 0.108418520953 157.988744321
711.25 0.120433658125 -177.799502449
711.875 0.145169119569 163.643839855
712.5 0.142540300425 156.677404165
713.125 0.119562955943 109.969542868
713.75 0.0937075649865 57.3399542854
714.375 0.111317861991 18.7171358736
715.0 0.101467818305 45.1700696134
715.625 0.0842383288415 55.4772217752
716.25 0.0844659520154 83.8062197936
716.875 0.122043453123 106.979557642
717.5 0.142201728815 138.955657209
718.125 0.119346258348 -175.336835346
718.75 0.103700971756 -179.484325998
719.375 0.108117247031 -169.567687961
720.0 0.127684244255 -124.346318248
720.625 0.112019845335 -74.8035870444
721.25 0.0958003840559 -14.5614404262
721.875 0.0862314213996 38.0405562837
722.5 0.0685172438153 57.6485925255
723.125 0.100355365519 88.3901750313
723.75 0.125053307985 53.4290723053
724.375 0.111870215098 4.96631343478
725.0 0.0834427436545 -49.1607552655
725.625 0.104035559046 -63.799398852
726.25 0.112819146091 -61.1158978032
726.875 0.101386147535 -46.2454179317
727.5 0.0797158166275 -31.2961897362
728.125 0.0669302314454 -18.1500968704
728.75 0.124140241769 48.6462426828
729.375 0.0970602266954 31.6339838592
730.0 0.0661063966964 13.2513182633
730.625 0.0568742663962 21.384856757
731.25 0.0679282607599 73.6788810762
731.875 0.0656263653376 117.101749238
732.5 0.0761008607039 153.563878672
733.125 0.0877894861927 177.314615369
733.75 0.0648532089264 167.850756381
734.375 0.0628012821944 -172.326428465
735.0 0.0671739431828 170.780833315
735.625 0.0189694465251 116.246484037
736.25 0.0551082994988 157.157695436
736.875 0.0609041312567 170.590120654
737.5 0.0830033171529 -170.381355788
738.125 0.0875068191043 -173.709242481
738.75 0.0670413480081 -175.915339372
739.375 0.0436568151306 -161.763029678
740.0 0.0437715875068 -139.895109867
740.625 0.0580622039264 -145.923148992
741.25 0.0199140499754 -137.426216076
741.875 0.0824452998261 -100.80378816
742.5 0.0423311987769 -12.5377565673
743.125 0.0467421616722 65.2585652426
743.75 0.0300404875254 159.348590769
744.375 0.0641398698272 102.499210725
745.0 0.0666488308942 117.108413382
745.625 0.0633940118107 122.259975545
746.25 0.0700864513903 112.124128562
746.875 0.0888078615581 39.6559899386
747.5 0.0450327708209 3.8279487414
748.125 0.0102944964166 31.2892137518
748.75 0.0189830308714 8.76285120819
749.375 0.0369144758679 13.5927083108
750.0 0.0437363612108 -113.894234575
