!Created with skrf (http://scikit-rf.org).
# GHz S RI R (50+0j) 
!freq	ReS11	ImS11	
500.0	-0.6737548626	-3.105861118	
500.625	0.3079610134	-2.11717999	
501.25	-0.3194911022	-3.061428652	
501.875	-2.21243589	-0.9762222795	
502.5	-0.08171334979	-0.1776593054	
503.125	-0.346797923	0.07155810567	
503.75	0.09556348988	0.01926935708	
504.375	0.1469126327	0.01526942284	
505.0	-0.09224039847	-0.08214293552	
505.625	0.2645645108	-0.1764802582	
506.25	-0.6135870922	-0.02665827012	
506.875	0.4044435704	-0.2776582087	
507.5	-0.5557188958	-2.179788793	
508.125	-1.171580787	-1.070095609	
508.75	2.824427404	-1.877465047	
509.375	-1.925648437	-4.136705628	
510.0	-0.4694054524	-0.5954260874	
510.625	-0.8320727128	-1.261374466	
511.25	-0.1848534429	0.07012665124	
511.875	-0.4487979673	-0.1332939771	
512.5	-0.126592737	0.203396867	
513.125	-0.1835281494	-0.2434889712	
513.75	-0.03400255407	-0.1302386914	
514.375	-0.4258087199	-0.2028157106	
515.0	0.4785234614	0.8726609294	
515.625	-1.624857564	-2.726884194	
516.25	-0.7014479866	0.4699093025	
516.875	0.3649478708	-2.518864607	
517.5	-1.079261054	-0.3836778135	
518.125	0.2843838463	-0.1973635593	
518.75	-0.7382796153	-0.3262973636	
519.375	-0.0678792992	0.01667044675	
520.0	0.4270272353	0.3527488671	
520.625	0.3739233029	-0.4126997627	
521.25	0.06127912389	-0.3414198943	
521.875	-0.5438418809	-0.2234210111	
522.5	0.07793015349	0.07516695609	
523.125	-0.265091503	0.1783892095	
523.75	-0.08826276676	-0.0835760403	
524.375	-0.6584234892	0.2192973328	
525.0	0.1886111197	0.03978545162	
525.625	-0.06507641422	0.2261112111	
526.25	0.1097541297	-0.2264354205	
526.875	-0.2278143916	0.3459640989	
527.5	0.1350834753	0.2837058228	
528.125	-0.2940687213	0.8323590659	
528.75	0.510908837	0.8758440726	
529.375	-0.1113323176	0.1837622021	
530.0	0.4641585969	0.352472247	
530.625	-0.1487748285	0.8067570555	
531.25	1.618157312	-0.0562104124	
531.875	0.2565613136	-0.1831854869	
532.5	-0.1360279806	-0.5192400951	
533.125	0.1644863799	0.29764653	
533.75	0.02063147657	-0.9797773608	
534.375	-0.07826688305	-0.1559508552	
535.0	-0.9553108522	-0.6784615584	
535.625	-0.1505682623	0.531756318	
536.25	-0.07747346344	0.1506887939	
536.875	0.3444947218	0.08111016866	
537.5	0.02916360209	-0.1179853927	
538.125	0.4949317508	-0.05640787439	
538.75	0.1151319646	-0.3814932055	
539.375	0.01254239027	-0.3309349885	
540.0	-0.5420552312	-0.5108567572	
540.625	-0.3292285139	0.129280942	
541.25	-0.1514893003	-0.005196957701	
541.875	-0.1179214686	-0.139115618	
542.5	-0.1791061026	-0.0007457518178	
543.125	-0.08086131984	-0.1992137384	
543.75	-0.3294701723	0.1131009956	
544.375	-0.01481428739	-0.04480312805	
545.0	-0.000464767784	0.3005243215	
545.625	0.07287607529	-0.08280721744	
546.25	0.2619994915	0.3716271649	
546.875	0.223066217	-0.3549948052	
547.5	0.1833691491	-0.05396587266	
548.125	-0.03194951985	-0.5803839879	
548.75	-0.3909580529	-0.08933378823	
549.375	-0.08422174135	-0.2367124533	
550.0	-0.3239193229	0.07066529609	
550.625	0.01539675079	-0.03988173382	
551.25	-0.3161319849	0.1048454875	
551.875	-0.01931435652	0.1817782734	
552.5	-0.1816250198	0.1278667456	
553.125	-0.01856921566	0.190253483	
553.75	0.09689261443	0.08357751992	
554.375	0.2340016888	0.01857441199	
555.0	0.2132190734	-0.185080907	
555.625	0.1856342027	-0.2372447787	
556.25	0.1597257877	-0.3452759328	
556.875	-0.09679783071	-0.380815103	
557.5	-0.2220312469	-0.2300624195	
558.125	-0.2617804831	-0.1031176476	
558.75	-0.2733536003	0.0002496672245	
559.375	-0.2198956428	0.06517487248	
560.0	-0.2395133173	0.1280764445	
560.625	-0.1158467474	0.3138006447	
561.25	0.04103763385	0.1402678972	
561.875	0.06740841449	0.2031414254	
562.5	0.01882402082	0.002932477733	
563.125	0.165715707	0.2864189104	
563.75	0.3430216401	-0.1434276894	
564.375	0.1831003728	-0.07256585117	
565.0	0.2934381985	-0.3970305492	
565.625	-0.1987220288	-0.3530929	
566.25	-0.1447348022	-0.1685947631	
566.875	-0.3734254975	-0.307367326	
567.5	-0.3736090106	-0.07137928027	
568.125	-0.1608510655	-0.4905165142	
568.75	-0.6905094976	-0.1309721222	
569.375	-0.3303559682	0.1816802631	
570.0	-0.5505683305	0.3860415968	
570.625	0.01969844457	0.6825882787	
571.25	-0.01298807361	-0.06337748251	
571.875	0.2201019593	0.5280949733	
572.5	0.03897796496	-0.2536920254	
573.125	0.4491396128	0.002361491394	
573.75	0.02122004183	-0.5691516857	
574.375	-0.07072710928	0.1529073902	
575.0	0.2707970137	-0.3460716139	
575.625	-0.1862327571	0.01315338803	
576.25	0.4228479939	-0.1672485212	
576.875	-0.1537807468	-0.5466542575	
577.5	-0.1243142467	-0.1124162416	
578.125	0.1497173206	-0.4139989999	
578.75	-0.3966889162	-0.4112794471	
579.375	-0.1078661376	0.04620161971	
580.0	-0.05405972215	-0.2990598332	
580.625	-0.2084387194	0.1696365405	
581.25	-0.176248624	-0.1238116219	
581.875	-0.1378446339	0.6419461103	
582.5	0.4809503346	0.2446947635	
583.125	-0.1876841158	-0.06960176522	
583.75	0.4378391225	0.4105401532	
584.375	-0.3211509889	-0.1495378999	
585.0	0.5506847929	0.3918496897	
585.625	0.1488909111	-0.337567434	
586.25	0.3801685458	0.2859996186	
586.875	0.16595345	-0.6748176377	
587.5	-0.11344578	-0.02482715559	
588.125	0.237290153	-0.346257567	
588.75	0.01063243191	-0.5944293031	
589.375	0.01572837331	-0.1225269234	
590.0	0.1058684805	-0.5085334812	
590.625	-0.5110717914	0.0197305322	
591.25	-0.2139674027	0.104789773	
591.875	-0.2287839703	0.3515552424	
592.5	0.1709206023	0.008506928232	
593.125	-0.1798939623	0.2268458352	
593.75	0.2519760378	0.2239558705	
594.375	0.1121838008	0.06648384924	
595.0	0.2316102721	0.6509963864	
595.625	0.8277577756	-0.07728534641	
596.25	-0.08566969117	0.1833262037	
596.875	0.6976415986	0.2760339409	
597.5	0.1816543627	-0.1542642195	
598.125	0.268481845	0.7126415877	
598.75	0.546877797	-0.1214786017	
599.375	0.2625807315	0.1734454378	
600.0	0.6496228013	-0.399783527	
600.625	0.1980749579	-0.5474556682	
601.25	0.1571794219	-0.214026562	
601.875	-0.1093678507	-0.4319125277	
602.5	-0.3158879071	-0.02304212416	
603.125	-0.2209436739	0.1329291898	
603.75	-0.2530594708	0.09489575056	
604.375	-0.2606105219	0.2206188742	
605.0	-0.08419496816	0.09631559268	
605.625	-0.3213627314	0.1631138303	
606.25	-0.06067798248	0.1567038023	
606.875	-0.5782782573	-0.09494123966	
607.5	-0.2067754583	0.841601023	
608.125	-0.1598424094	0.1322393263	
608.75	0.4632291899	0.8228857487	
609.375	0.3323334066	-0.4481523486	
610.0	0.4955531618	0.09022030784	
610.625	0.142575489	-0.6478171804	
611.25	-0.000623782018	-0.01986767278	
611.875	-0.2935405658	-0.5980790794	
612.5	-0.1231296454	0.0645025171	
613.125	-0.5412934524	-0.1320471388	
613.75	-0.02460381269	0.5404392712	
614.375	-0.2078218426	0.1653256105	
615.0	0.3675534675	0.09896200015	
615.625	-0.2701630534	0.07802393261	
616.25	0.02880576059	0.6827970328	
616.875	-0.02988334142	0.06675868505	
617.5	-0.456069979	0.638506636	
618.125	0.242414024	0.5652795904	
618.75	-0.1409475806	0.2436853715	
619.375	0.3720323375	0.5235652456	
620.0	0.2600601083	0.03284413573	
620.625	0.3991418761	-0.3633163481	
621.25	-0.2764370231	-0.307809256	
621.875	-0.3970471888	-0.3032777283	
622.5	-0.4660184533	0.2304282189	
623.125	-0.133621914	0.3000320549	
623.75	0.5326431039	0.148134227	
624.375	-0.2258775843	-0.03136187137	
625.0	0.444176881	-0.3040708461	
625.625	-0.1466050991	0.09442021909	
626.25	0.1427887514	-0.5601957489	
626.875	-0.5608722855	-0.03889966317	
627.5	0.06124500767	-0.1423218136	
628.125	-0.5883980875	-0.290084343	
628.75	-0.07140455222	0.01310986472	
629.375	-0.06425969193	-0.59285474	
630.0	-0.6212188091	-0.09624311505	
630.625	-0.2237347153	0.1286296887	
631.25	-0.4750494708	0.3322167744	
631.875	-0.005424135576	0.6290932267	
632.5	0.3898103562	0.4017722754	
633.125	0.3253568764	0.08569246674	
633.75	0.5305708097	-0.1641972566	
634.375	0.01174686743	-0.2204435011	
635.0	0.06017724654	-0.3787713564	
635.625	-0.4647200957	-0.09859386303	
636.25	-0.1650007736	-0.03035798036	
636.875	-0.4073980141	0.4744955109	
637.5	0.2791743481	0.2436985188	
638.125	-0.4317204066	-0.1414100381	
638.75	-0.08418931822	0.7896284083	
639.375	0.2347685006	0.1904248562	
640.0	0.009564041741	0.7238460211	
640.625	0.8784148114	0.2338793039	
641.25	0.2737444631	-0.06576528206	
641.875	0.8454366082	-0.4509180857	
642.5	-0.4220059606	-0.3482514767	
643.125	0.09893737931	-0.2043156004	
643.75	-0.5964603898	-0.4233801141	
644.375	-0.2582563224	0.3627120693	
645.0	-0.3017653797	-0.02279480763	
645.625	0.05135878706	0.7882114695	
646.25	0.5433211786	-0.06459548605	
646.875	-0.1111784882	0.09558978457	
647.5	0.6136235958	-0.1053839161	
648.125	-0.1154689433	0.3578072257	
648.75	1.03356504	-0.1852288341	
649.375	0.06286146798	-0.8312297114	
650.0	0.3749557269	0.03331512783	
650.625	0.9537863179	-1.188072132	
651.25	-0.361790046	-0.7175905239	
651.875	0.6513465184	0.2889209801	
652.5	1.068732951	-0.6849972961	
653.125	0.01684840798	-0.3677181836	
653.75	0.9326317454	-0.3704053041	
654.375	-0.5931992053	-0.8529242704	
655.0	-0.276857913	0.13382657	
655.625	-0.7282328913	0.05132577959	
656.25	0.4253745926	0.7957945944	
656.875	-0.1561726223	-0.2143039118	
657.5	0.2139899274	0.5202836521	
658.125	0.4206192377	0.0687654851	
658.75	0.337693686	0.3705836395	
659.375	1.0902701	-0.5377782238	
660.0	0.1028344677	-0.675387126	
660.625	0.4244778247	-0.4268201498	
661.25	0.7109810226	-0.9566012421	
661.875	-0.1720060237	-0.8298018528	
662.5	0.6670766136	0.1869154337	
663.125	0.8462336198	-0.9462895004	
663.75	-0.1244207545	-0.4197387663	
664.375	0.3856693279	-0.9058537172	
665.0	-1.046706334	-0.07845210922	
665.625	-0.3329584588	-0.0870878377	
666.25	-0.5099178768	0.8171385716	
666.875	0.6010963622	0.4031608317	
667.5	0.04212348622	0.05900898643	
668.125	0.7935990893	0.1503694239	
668.75	0.2590004634	-0.5500534583	
669.375	0.1575387407	-0.268263658	
670.0	0.1439177007	-0.7072236726	
670.625	-0.2603289372	-0.2327430942	
671.25	0.3478971401	-0.4162698881	
671.875	0.2094615605	-0.5597155334	
672.5	0.1829401703	-0.3054785364	
673.125	0.6440499879	-0.0907536733	
673.75	0.4558574063	-1.001960948	
674.375	-0.364111684	-0.2513410086	
675.0	0.2748415156	-0.6640410467	
675.625	-0.9360100118	-0.3786028769	
676.25	0.2471500537	0.1815952781	
676.875	-0.9261853508	-0.1831514115	
677.5	0.1272342315	0.380441759	
678.125	-0.6686827734	-0.07165544638	
678.75	0.5169485173	0.9600942098	
679.375	0.1524442166	-0.2299235194	
680.0	0.3359732154	0.1171486339	
680.625	0.4213968591	-0.3953574292	
681.25	-0.1619046588	-0.2107693163	
681.875	0.4448523526	0.4657720339	
682.5	0.6458297502	-0.0674082792	
683.125	0.4286995218	0.1204609937	
683.75	0.5778585283	0.3723062178	
684.375	0.8147176535	-0.2386683635	
685.0	0.2634118345	0.1050185126	
685.625	0.9746090399	0.2923562962	
686.25	0.6818879852	-0.7773140183	
686.875	0.1602319761	0.3552157953	
687.5	1.355858803	-1.422527745	
688.125	-0.92662011	-0.1614095326	
688.75	-0.6074019455	-1.096202063	
689.375	-0.660800415	1.515790145	
690.0	0.1075573486	-0.03562949349	
690.625	0.8587672396	1.312385854	
691.25	0.6216880455	-0.01091762506	
691.875	0.7227894988	0.9288377257	
692.5	1.620637761	0.5071104201	
693.125	1.314137838	-0.3267378464	
693.75	1.377673145	-0.496066773	
694.375	0.8690571481	-0.8971371372	
695.0	1.169858597	-0.5932204091	
695.625	0.986821419	-0.5609178133	
696.25	0.9002422739	0.530552728	
696.875	1.706272801	0.8088267046	
697.5	0.5908719841	0.4606757384	
698.125	1.724019439	0.9205454335	
698.75	0.2667251594	-1.717262717	
699.375	-0.1166972282	-0.7892282162	
700.0	-0.9281991927	1.462436546	
700.625	0.4704710536	0.002616847874	
701.25	0.4573571894	1.106783458	
701.875	0.7066909896	-0.09334809278	
702.5	0.4326639878	0.8347666077	
703.125	1.382696169	0.1061923436	
703.75	0.3555914137	-0.1470132104	
704.375	1.139453095	-0.5210412567	
705.0	0.1594611225	-0.5625458106	
705.625	0.6040722929	0.6034415224	
706.25	1.178349064	-0.174672579	
706.875	0.03110936474	0.5415123659	
707.5	1.050988185	1.192189407	
708.125	0.7756747608	-0.4848243535	
708.75	1.05866229	-0.6525756923	
709.375	-1.249765268	-0.5308256273	
710.0	-0.0796126147	0.2498963763	
710.625	0.113041979	0.6328977258	
711.25	0.3326583363	0.05918743112	
711.875	0.4738322382	0.2916939307	
712.5	0.6735484978	-0.1781943472	
713.125	0.7669972265	-0.295423612	
713.75	0.04681247519	-0.796585506	
714.375	0.2050217509	-0.2458763501	
715.0	-0.291761398	-0.8160529125	
715.625	-0.1059490647	-0.07760937397	
716.25	1.009904447	-0.6695134775	
716.875	0.1281651167	-1.287492293	
717.5	0.695381747	1.011898336	
718.125	2.965652453	-0.2514188119	
718.75	0.5484885808	-1.824160723	
719.375	2.615195959	0.7570238855	
720.0	0.2115279865	-4.161847866	
720.625	0.4972286765	-1.096731266	
721.25	0.3061540962	-3.259943765	
721.875	-2.16902687	-2.138341629	
722.5	-0.5865779726	-1.468625318	
723.125	-2.543575036	-0.3162499459	
723.75	-0.5497627363	1.453082877	
724.375	0.125468871	0.7501606168	
725.0	0.05132276482	0.9536265514	
725.625	1.023922416	1.231521869	
726.25	0.1073137716	0.8384487234	
726.875	-0.8243919478	2.681817242	
727.5	1.407907181	4.285673973	
728.125	-1.481143613	1.612754775	
728.75	1.662010709	15.16055356	
729.375	7.15858299	7.512045867	
730.0	-5.208461972	4.755771488	
730.625	-6.874353372	28.74441259	
731.25	7.465740197	3.003695782	
731.875	-11.19382913	4.531146137	
732.5	-10.6404363	6.3139291	
733.125	-2.579071931	3.954298985	
733.75	-4.224825692	3.150307064	
734.375	2.882743887	-0.5958237901	
735.0	-0.1805517817	-0.8166742634	
735.625	-1.48983649	-0.4014682768	
736.25	0.9722403032	1.849023561	
736.875	0.2114847985	0.2624772637	
737.5	2.829420811	1.485273875	
738.125	4.841796385	-2.729359986	
738.75	0.5308760763	-4.680717862	
739.375	8.579986457	2.875539952	
740.0	11.27614742	-16.50202316	
740.625	-7.644860088	0.7706849998	
741.25	5.982652931	25.52893591	
741.875	8.617028632	8.848528878	
742.5	0.4596117821	-32.54978525	
743.125	-4.022697631	-8.136694521	
743.75	-2.092822559	-0.3973200651	
744.375	-0.3878809322	-0.9550430475	
745.0	0.7649779202	0.5845244957	
745.625	-0.03479678344	0.2943963146	
746.25	-0.1627264589	-0.3704912133	
746.875	-0.1618955431	0.2017286119	
747.5	-0.6053402303	0.8986440023	
748.125	0.5246247384	1.605069546	
748.75	0.6714841427	0.9815645915	
749.375	0.009870855248	1.350438182	
750.0	-0.4515999888	-0.0888030935	
