!Created with skrf (http://scikit-rf.org).
# GHz S MA R 50.0 
!freq magS11 angS11
500.0 0.014775173106 118.158535539
500.625 0.0143116929626 159.439138405
501.25 0.0141611172382 -165.004982744
501.875 0.04032694594 179.51395333
502.5 0.0101947238883 134.532948007
503.125 0.0149638759309 84.8075172262
503.75 0.0118803231996 -21.114772811
504.375 0.015654392052 -68.4981495749
505.0 0.0249835892792 -71.3429690287
505.625 0.0287350419899 -81.2444602876
506.25 0.0287848159972 -115.784517014
506.875 0.0617427531707 -103.049859518
507.5 0.0380752113011 -145.914296403
508.125 0.0469568798229 -93.726945803
508.75 0.0620287805226 -136.633658432
509.375 0.0695098064254 -126.331661287
510.0 0.0276735309449 -172.124421779
510.625 0.0380629043171 -160.926356843
511.25 0.0624662131585 -175.702303643
511.875 0.0529397113336 149.099723826
512.5 0.0436811060942 106.854381103
513.125 0.0533500410055 47.1678341823
513.75 0.054488442045 27.9115081484
514.375 0.058036587178 28.9916565446
515.0 0.0421306987142 -2.81215914192
515.625 0.071868474521 45.7636559753
516.25 0.081080827211 23.4457605463
516.875 0.13105060976 67.4309728687
517.5 0.102743401909 14.5842350935
518.125 0.176820643326 63.3448936164
518.75 0.0841808144255 9.99134563286
519.375 0.0822679245905 21.4225384365
520.0 0.0967165842112 -5.11018541432
520.625 0.0981443742087 -9.28751584971
521.25 0.0859876330294 -23.6886646634
521.875 0.0793388007965 0.165488298686
522.5 0.0820275144846 -41.5523233348
523.125 0.167722687099 -40.0392718789
523.75 0.205597426467 -62.5261056485
524.375 0.234541260552 -46.526496975
525.0 0.0720195249279 -52.3661481763
525.625 0.0453473094199 -23.5677302376
526.25 0.0499194572428 -6.47428992947
526.875 0.0569227325977 -21.3430577836
527.5 0.0476174431789 -29.3508138179
528.125 0.0440649063618 -53.9690006045
528.75 0.0647839539754 -71.045147904
529.375 0.103928494607 -106.848532575
530.0 0.0446907741064 -130.071289248
530.625 0.0320151794362 -147.276778006
531.25 0.140655853577 -143.869699721
531.875 0.176179329527 -149.61263094
532.5 0.144290992565 -172.458559031
533.125 0.105073675734 174.316348139
533.75 0.118019716163 167.123348272
534.375 0.12526485339 179.282738655
535.0 0.0834778013766 160.65123438
535.625 0.0623704226665 177.667417369
536.25 0.0665352851458 163.797311881
536.875 0.0693531682398 -160.607865195
537.5 0.0959561736753 -142.928916759
538.125 0.0984888590942 -174.703268363
538.75 0.111181392529 -179.264111037
539.375 0.0778727959452 -163.166799335
540.0 0.0916512505479 -155.07041921
540.625 0.127532075723 -157.437625458
541.25 0.143813504268 -142.614356843
541.875 0.0850227018563 -138.926916923
542.5 0.107821895793 -140.376689878
543.125 0.143889998841 -166.857855902
543.75 0.137951909356 160.705063161
544.375 0.103636100964 137.353032105
545.0 0.0831629689782 90.9642927369
545.625 0.0961999171604 85.1839911021
546.25 0.0859454916203 67.6803469195
546.875 0.0995046070679 53.6446716197
547.5 0.110667039362 57.895520257
548.125 0.117031181245 78.0672124533
548.75 0.0985815867094 90.4404116599
549.375 0.103358225528 85.5046244402
550.0 0.0862286573396 123.923974183
550.625 0.0510328443728 156.827054173
551.25 0.0378512015492 -139.986502991
551.875 0.0702185729923 -168.711706165
552.5 0.110479008692 -164.976849814
553.125 0.0975798410791 -171.01420097
553.75 0.0935137289538 -173.450384297
554.375 0.115574994137 162.417213673
555.0 0.126582284357 163.60396312
555.625 0.0930227381407 159.893577767
556.25 0.0931679159629 162.909604692
556.875 0.130119360789 161.674606321
557.5 0.108948750632 166.586037394
558.125 0.0960212808048 165.354985004
558.75 0.0801434505119 177.912806471
559.375 0.0748274373313 -174.318443165
560.0 0.044474725534 -147.04152799
560.625 0.0562247885506 -134.02806997
561.25 0.0897539479359 -151.40766303
561.875 0.109487276839 -166.261850739
562.5 0.084767143129 177.833188719
563.125 0.105617945494 144.76248743
563.75 0.13187336602 129.943287611
564.375 0.112388503708 118.604455836
565.0 0.087393669238 119.868105904
565.625 0.0800381696105 119.931654407
566.25 0.0968843660908 151.973075484
566.875 0.0817808821246 175.160755909
567.5 0.0653818080572 -170.883939424
568.125 0.078355955134 -169.038674995
568.75 0.0724098352253 -151.702410655
569.375 0.051752478455 -118.120552838
570.0 0.0595667052538 -106.946877383
570.625 0.0879157441753 -111.987022854
571.25 0.0871908129165 -118.096948819
571.875 0.0901358293893 -133.572630905
572.5 0.108632300546 -150.584851966
573.125 0.13685741312 -174.518929536
573.75 0.107779434551 160.012071986
574.375 0.0887935805269 142.256536787
575.0 0.0964770242348 161.596775792
575.625 0.104754642966 158.967673574
576.25 0.0906510257012 145.485572745
576.875 0.0863239161521 124.957407035
577.5 0.0780865965001 138.852959103
578.125 0.0576724060036 163.39692743
578.75 0.0456382267655 168.912938489
579.375 0.05812338091 150.592773987
580.0 0.0637893234551 -167.159187811
580.625 0.078873668078 -149.663477561
581.25 0.0872725023524 -162.160861772
581.875 0.115279505913 177.59618008
582.5 0.113988033081 -175.59646997
583.125 0.0938508311006 -169.750723864
583.75 0.0837772062252 -171.254881078
584.375 0.104797153613 -159.919428486
585.0 0.0996074614456 -149.193803427
585.625 0.0726092536394 -148.14795294
586.25 0.0693515294402 -144.492950745
586.875 0.0840083106584 -144.212083172
587.5 0.0722421038304 -140.91797913
588.125 0.0586407504076 -177.190072178
588.75 0.0665060336632 -174.718939642
589.375 0.0827297871255 -158.365854907
590.0 0.0916112054905 -174.253279289
590.625 0.103380429657 163.859650775
591.25 0.123583519555 150.391963539
591.875 0.0981071087967 157.280344698
592.5 0.067961796714 137.725083105
593.125 0.0566023015595 148.436062667
593.75 0.0768382450221 164.453770473
594.375 0.0598510693163 -154.698411583
595.0 0.0414149714106 -128.610426852
595.625 0.0596435619138 -101.116863087
596.25 0.0754478798511 -86.4059727135
596.875 0.0689038859131 -71.0040592782
597.5 0.0545661684831 -74.4754131113
598.125 0.066048190041 -62.3138978029
598.75 0.0788154468832 -57.7673121257
599.375 0.0839971966569 -70.95075175
600.0 0.0998374342324 -65.3207834097
600.625 0.100989706398 -66.3636549652
601.25 0.0860625809175 -81.7316953165
601.875 0.0692744734242 -89.2784921534
602.5 0.0615446502605 -98.3346740551
603.125 0.044362758375 -56.591001774
603.75 0.0367215674885 -23.427407217
604.375 0.0415266302184 -18.7060080491
605.0 0.0459148111441 -40.7385233096
605.625 0.0506225194064 -4.12599951242
606.25 0.0274316633326 11.4076174219
606.875 0.0303926596442 52.2456386412
607.5 0.0594834630518 41.2088212958
608.125 0.0849451587417 34.2624652588
608.75 0.0720754664925 24.5481563279
609.375 0.0708455268986 32.9359950921
610.0 0.0516455426769 27.4066836215
610.625 0.0687547041299 42.2982716427
611.25 0.0554701802066 34.810043358
611.875 0.0310496956841 57.3179723338
612.5 0.017615837788 68.7922320253
613.125 0.0130639435518 128.434440982
613.75 0.0449559717098 123.975042589
614.375 0.060142407704 125.277672896
615.0 0.034639818922 114.752848167
615.625 0.014906855563 145.079569454
616.25 0.0754346354381 134.729422405
616.875 0.0652767988539 129.633052262
617.5 0.0344500358836 116.965629532
618.125 0.0117221939241 120.027641067
618.75 0.053417618312 144.738996608
619.375 0.0357602583348 145.147578878
620.0 0.00371182196147 89.1599908156
620.625 0.0284294601794 -66.436064002
621.25 0.0424587582062 -98.0586710832
621.875 0.0588645743652 -115.225507215
622.5 0.0700332795294 -165.268597131
623.125 0.0632638235133 -171.371746605
623.75 0.0819938129279 159.735152245
624.375 0.0572772964379 176.222200888
625.0 0.0527662930994 -148.280152123
625.625 0.0214315528831 -108.981159659
626.25 0.0314376143668 170.843928461
626.875 0.00379191445333 106.55728492
627.5 0.0268266676099 -32.2338573143
628.125 0.0415557561248 -13.8512874178
628.75 0.0385488885883 -11.8778638321
629.375 0.0499258838309 -7.68206237976
630.0 0.066922696434 -0.272022219469
630.625 0.0795954610975 15.3317318441
631.25 0.0707919124957 -17.9300219916
631.875 0.0688675296503 -9.61758028349
632.5 0.0670355195109 -9.48244979836
633.125 0.0460142370515 13.923006471
633.75 0.0456028704248 21.7607860968
634.375 0.0488551472483 12.2434415282
635.0 0.0325721719477 -0.91180455129
635.625 0.0347512333566 22.1818037928
636.25 0.0752461689617 47.2355114473
636.875 0.0573242335269 30.0924074694
637.5 0.0451927732621 43.7919999887
638.125 0.0521443268864 69.9340409581
638.75 0.08690584706 79.4372593118
639.375 0.104658223998 97.5915479089
640.0 0.0698000841808 101.928057134
640.625 0.0576023201489 108.064367776
641.25 0.0674557541126 123.655662873
641.875 0.0752976636611 155.636646262
642.5 0.0540983296008 156.090932451
643.125 0.057934298851 150.676054087
643.75 0.0783455223869 176.452840585
644.375 0.0775669904306 -175.286682768
645.0 0.0808322339696 178.693585481
645.625 0.0946980859516 168.996397329
646.25 0.0932825472786 164.78480935
646.875 0.0833839179256 -178.168843678
647.5 0.0610278824959 179.996959566
648.125 0.0792911602408 -177.178503676
648.75 0.0720984887257 -168.233248901
649.375 0.061931626566 -145.556481841
650.0 0.0300283902048 -130.263245427
650.625 0.062433207034 -89.4709273506
651.25 0.0621017191488 -67.8328909269
651.875 0.0790149237688 -46.0586695435
652.5 0.0819162066955 -23.2822763889
653.125 0.116675843535 -3.50011315828
653.75 0.105421770315 4.83460987857
654.375 0.118619838531 6.82821111279
655.0 0.115578914985 9.68046627501
655.625 0.0845610339616 20.8944791916
656.25 0.05574939926 14.3315770475
656.875 0.0845672468485 4.9319508196
657.5 0.0704634532294 16.2876769065
658.125 0.0708746311204 48.0611049478
658.75 0.0675447677417 58.8374880473
659.375 0.0889043508612 36.3134900027
660.0 0.128940570192 23.3063864097
660.625 0.111537721999 16.3628950762
661.25 0.111953442698 3.83011571316
661.875 0.12430211501 -13.4901335534
662.5 0.132931619255 -21.3944820011
663.125 0.103133534365 -17.1534551963
663.75 0.112834252373 3.55547905657
664.375 0.109076577905 54.952277762
665.0 0.056470300957 88.2029812446
665.625 0.0593592552727 112.033603802
666.25 0.0836087885168 129.985098079
666.875 0.128421836817 167.019313403
667.5 0.0874012062515 -167.248058573
668.125 0.0966204079089 -176.154816802
668.75 0.126676527389 166.892188819
669.375 0.147599111219 174.315682459
670.0 0.0700849970006 -170.826816539
670.625 0.0811192977349 -171.385471568
671.25 0.10787592328 170.424061649
671.875 0.118675292769 165.244413629
672.5 0.0801767736452 153.356820422
673.125 0.0788633494184 154.777034495
673.75 0.112779625218 157.76369704
674.375 0.123981348194 165.828004177
675.0 0.109397358035 -173.627171923
675.625 0.117167829858 -148.670713847
676.25 0.123989700771 -126.368027581
676.875 0.124908328812 -123.134961675
677.5 0.112007088236 -126.489753987
678.125 0.11792040226 -117.717698009
678.75 0.0719137750228 -96.7945516239
679.375 0.0600833299704 -80.9706492681
680.0 0.0708898378768 -75.2629355895
680.625 0.123849327333 -78.7365969363
681.25 0.10531424215 -74.6878066137
681.875 0.101801153177 -93.3129500262
682.5 0.144306624777 -125.38502312
683.125 0.145832494666 -117.828139017
683.75 0.134244721964 -103.156056177
684.375 0.118325621805 -80.037162813
685.0 0.13640863079 -41.3352553049
685.625 0.117124080416 -0.710985564
686.25 0.110158775942 19.394496701
686.875 0.0989195046353 40.5870113679
687.5 0.0879098726638 78.0896233842
688.125 0.0790527549732 113.63248241
688.75 0.103745625257 111.722562709
689.375 0.150595464088 113.351200018
690.0 0.135717302923 131.954050274
690.625 0.126143363138 121.959248603
691.25 0.140895654326 97.5912144854
691.875 0.181532005533 71.128521313
692.5 0.145418515918 38.9330188317
693.125 0.100640727518 -21.6677755653
693.75 0.0855229286482 -36.0603528131
694.375 0.134973832479 -29.015662087
695.0 0.140034922102 6.2137521386
695.625 0.102939313946 54.0638860603
696.25 0.120820165818 106.216896825
696.875 0.129991484259 178.083226328
697.5 0.140463767551 -143.643975728
698.125 0.132166518576 -131.176900757
698.75 0.140499500758 -137.409369946
699.375 0.110515079344 -126.58971676
700.0 0.101407160573 -120.644327744
700.625 0.118678330165 -96.7128071219
701.25 0.109441758642 -72.1156201461
701.875 0.080280014939 -61.5035159149
702.5 0.0999720381102 -88.4921625047
703.125 0.170759865297 -124.83818415
703.75 0.199172668584 -162.849454897
704.375 0.119723027535 177.654719531
705.0 0.111106049563 159.22501638
705.625 0.149128045699 -179.265579268
706.25 0.152784190821 -118.162480626
706.875 0.0903372247631 -63.6004194069
707.5 0.0777566498306 -36.8544650891
708.125 0.0925192396146 10.5913024872
708.75 0.113589065044 62.027248308
709.375 0.106376371469 98.5824426193
710.0 0.104954495069 131.541477848
710.625 0.109424755861 160.012409409
711.25 0.120432613493 170.261635776
711.875 0.140490364997 171.632056295
712.5 0.151438433241 142.036620873
713.125 0.132887776196 93.7295633156
713.75 0.104569019321 45.1282713865
714.375 0.114482710365 7.60345906178
715.0 0.108058845414 38.0934993598
715.625 0.0851161352992 54.9437100619
716.25 0.0776637685351 74.4972569301
716.875 0.108659340622 89.9601193792
717.5 0.142523318867 139.261884713
718.125 0.118112525543 166.428101376
718.75 0.103084121886 169.611165151
719.375 0.116842780762 -169.585668875
720.0 0.124001473562 -144.070238917
720.625 0.116745610955 -63.0079824732
721.25 0.0993898456818 -22.2848368194
721.875 0.0876779368738 20.8489119013
722.5 0.0714098995678 65.4311216333
723.125 0.0786791630937 68.4547258687
723.75 0.106195540466 36.3572914005
724.375 0.1105277318 -4.85605526949
725.0 0.0834857918963 -52.7348493226
725.625 0.12064745812 -54.939661706
726.25 0.11551472534 -66.8289540315
726.875 0.0965140006823 -47.6098047442
727.5 0.0735700249864 -55.6694345348
728.125 0.073534400366 -8.94162568758
728.75 0.0847181457391 22.1670303072
729.375 0.0825427709732 12.0620413295
730.0 0.0686087328047 1.21449590205
730.625 0.0399850076959 -5.38041183621
731.25 0.102146917766 78.2101430073
731.875 0.0849197926337 118.361899172
732.5 0.0741889132604 154.246711169
733.125 0.0744603231287 164.15782629
733.75 0.105036950795 -171.392455362
734.375 0.0722875476629 168.734286674
735.0 0.0533789903278 146.38606589
735.625 0.0283314809835 115.94154476
736.25 0.0694315348281 148.015934641
736.875 0.0675621261184 163.087637868
737.5 0.0784812715029 174.978381397
738.125 0.0540851646295 -177.593783244
738.75 0.108483295939 -165.585396735
739.375 0.068691766682 -168.107752173
740.0 0.0523548334603 -125.511156799
740.625 0.0389919057869 -151.793946327
741.25 0.0391699358893 -149.794878727
741.875 0.038004519433 -104.626930205
742.5 0.0561904541463 -23.9418525974
743.125 0.0292967835161 63.7413344235
743.75 0.0268095479006 127.263937328
744.375 0.0326181317982 130.572537803
745.0 0.0450003346023 161.19681532
745.625 0.0621442105343 135.50331143
746.25 0.0677849365264 101.312495211
746.875 0.0785856576194 31.2257838625
747.5 0.0517851035444 1.48902685245
748.125 0.0328366644644 -13.4154853825
748.75 0.028740888135 52.7651035569
749.375 0.0326397273934 -18.759931008
750.0 0.0277658849149 -76.5070173663
