!Created with skrf (http://scikit-rf.org).
# GHz S RI R (50+0j) 
!freq	ReS11	ImS11	
500.0	-2.031119544	-4.514420688	
500.625	1.014591107	-1.473582033	
501.25	-1.858880449	-2.346735117	
501.875	-2.249078896	-0.9560287119	
502.5	-0.1930957441	-0.03675566543	
503.125	-0.2924418989	-0.08608683852	
503.75	0.3258547363	0.1985772277	
504.375	0.05391798216	0.1004310377	
505.0	-0.01596748166	-0.2124290715	
505.625	0.2164105971	0.02160432428	
506.25	-0.6576385272	-0.300957869	
506.875	0.6170890645	-0.2776481247	
507.5	-0.1639557265	-2.025878421	
508.125	-1.064465534	-2.341681155	
508.75	1.444297257	-0.7151626951	
509.375	-0.7460636655	-5.704545227	
510.0	-2.078252217	0.1742984472	
510.625	-0.1305045542	-0.5596859569	
511.25	-0.41652383	0.1786609109	
511.875	-0.3208267507	-0.1777244303	
512.5	-0.06622886279	0.2063068054	
513.125	-0.1367233538	-0.3649745883	
513.75	-0.1082452289	0.06034815942	
514.375	-0.2511427199	-0.3934470978	
515.0	-0.7106255379	1.065020612	
515.625	0.6993353528	-3.609239179	
516.25	-2.545524456	0.1625038196	
516.875	0.9099768388	-1.264957324	
517.5	-0.6508620148	-1.039228019	
518.125	0.3130897747	0.1170247732	
518.75	-0.5724956474	-0.7498363525	
519.375	-0.05306579275	0.1695482839	
520.0	0.2565285867	0.2783716619	
520.625	0.5734071463	-0.3076140674	
521.25	-0.2355417433	-0.4827305994	
521.875	-0.3415326711	-0.2937676497	
522.5	-0.02526294294	0.2191123753	
523.125	-0.2452258644	-0.04302641677	
523.75	-0.08201862466	0.166556152	
524.375	-0.5526220565	-0.06430965255	
525.0	0.3536197594	0.3068617213	
525.625	-0.1524137593	0.1171528738	
526.25	0.1862854172	-0.0810546957	
526.875	-0.3505280507	0.1923623546	
527.5	0.2475858059	0.5326263091	
528.125	-0.1990061305	0.4786134291	
528.75	0.1790301521	1.056581689	
529.375	0.02053864262	-0.08888065838	
530.0	0.315973936	0.743792684	
530.625	-0.1234506099	0.534211407	
531.25	1.714840938	0.3503351956	
531.875	0.1160346816	-0.4515330421	
532.5	0.1025417385	-0.5820168208	
533.125	-0.2786976697	0.4155353958	
533.75	0.3960692117	-0.8268876764	
534.375	-0.4815400792	-0.3292644237	
535.0	-0.5326468152	-0.6871322059	
535.625	-0.3370843677	0.6650247602	
536.25	-0.02460634516	0.101943802	
536.875	0.2991437491	0.1460702323	
537.5	0.1243312554	-0.2089409728	
538.125	0.2499389625	0.05893065539	
538.75	0.3552414786	-0.4952129313	
539.375	-0.1069892673	-0.2192984639	
540.0	-0.3484324131	-0.5535650763	
540.625	-0.4780467317	0.1665237211	
541.25	-0.06842005606	-0.06928303495	
541.875	-0.1692527337	-0.08523230331	
542.5	-0.1788696048	-0.06861582999	
543.125	0.0130653742	-0.07497550275	
543.75	-0.3928183499	-0.1000551821	
544.375	0.1257111141	0.1257275488	
545.0	-0.2058225231	0.2413344239	
545.625	0.2811078768	-0.03381945238	
546.25	0.01203466414	0.3157027782	
546.875	0.4507381153	-0.3093286991	
547.5	0.04636465791	-0.03888456851	
548.125	0.07425294717	-0.5207099916	
548.75	-0.4835699285	-0.2603828569	
549.375	-0.1268938318	-0.02372369345	
550.0	-0.2935569196	-0.1139316824	
550.625	-0.01557135433	0.1155027897	
551.25	-0.2846869849	-0.03792446575	
551.875	-0.07755360198	0.2769682709	
552.5	-0.1454885893	0.07569672467	
553.125	-0.02086259905	0.2166523479	
553.75	0.1068098024	0.08227779445	
554.375	0.2179844855	0.02493805439	
555.0	0.2439938951	-0.1838662967	
555.625	0.1750679211	-0.2544917605	
556.25	0.160595644	-0.3310245256	
556.875	-0.09502677427	-0.3883543065	
557.5	-0.2371005884	-0.2368344322	
558.125	-0.2615108109	-0.09251741418	
558.75	-0.2732102098	-0.01147590964	
559.375	-0.2379631384	0.08158676606	
560.0	-0.2152159863	0.1227439874	
560.625	-0.1583647112	0.2975522934	
561.25	0.1016533287	0.2192776087	
561.875	-0.0308158067	0.1047746469	
562.5	0.1443319348	0.1028997175	
563.125	0.05011604755	0.2261245622	
563.75	0.4309872254	-0.07508293272	
564.375	0.1248553479	-0.1606814819	
565.0	0.3483862043	-0.3336375215	
565.625	-0.2221325337	-0.4013982746	
566.25	-0.1929238766	-0.1298707167	
566.875	-0.2597310185	-0.3096663328	
567.5	-0.5066307121	-0.2364392942	
568.125	-0.1736641659	-0.1879891498	
568.75	-0.6554792375	-0.3975603469	
569.375	-0.4217344646	0.4238458167	
570.0	-0.3712228122	0.2273743152	
570.625	-0.1786729882	0.6998751882	
571.25	0.1662572808	-0.009348307319	
571.875	0.004320214089	0.5022977486	
572.5	0.3347706921	-0.3691128038	
573.125	0.126645971	0.06804658233	
573.75	0.3775506079	-0.4523417987	
574.375	-0.2716191275	-0.1448210597	
575.0	0.3701582302	-0.01230279307	
575.625	-0.1972177008	-0.2874320084	
576.25	0.2984773738	0.03292766354	
576.875	-0.01656765931	-0.6125205818	
577.5	-0.2672417697	-0.2566965312	
578.125	0.11928464	-0.2221686585	
578.75	-0.1786894922	-0.5126580684	
579.375	-0.4046026575	-0.001932457089	
580.0	0.1331706727	-0.08740633848	
580.625	-0.42809696	-0.03344086576	
581.25	0.03274769618	0.03833267802	
581.875	-0.2978028064	0.4601292287	
582.5	0.4338299505	0.4391606975	
583.125	0.01691264261	-0.187142175	
583.75	0.08584199842	0.5156072945	
584.375	0.1009071663	-0.3440886631	
585.0	0.1562442647	0.5451156734	
585.625	0.5398305651	-0.2812400969	
586.25	0.02900958566	0.02005196108	
586.875	0.4653006767	-0.4509615299	
587.5	-0.3268333537	-0.1958113636	
588.125	0.2340719338	-0.2301269741	
588.75	0.1106945769	-0.6119885501	
589.375	-0.1185939464	-0.2807116268	
590.0	0.1589830846	-0.3960468158	
590.625	-0.5932408688	-0.1603282268	
591.25	-0.1657443738	0.3349807932	
591.875	-0.1428093925	0.09055771331	
592.5	0.03493705135	0.3088492737	
593.125	-0.2191680755	-0.04319857731	
593.75	0.2798931568	0.3302860181	
594.375	0.2351690894	0.06516724282	
595.0	0.171210819	0.4641234119	
595.625	0.8525968572	0.2740645191	
596.25	-0.01098408987	-0.1881772875	
596.875	0.4845601384	0.4900815039	
597.5	0.5580404502	-0.03351937467	
598.125	0.008335006883	0.3324980125	
598.75	0.7344905064	0.1919275009	
599.375	0.2059187942	-0.1019305639	
600.0	0.6101674672	-0.1708340948	
600.625	0.2649835465	-0.6362222641	
601.25	0.03820399411	-0.2317689061	
601.875	0.003306656005	-0.3915282459	
602.5	-0.3642968038	-0.004450108553	
603.125	-0.2818389197	0.1560031963	
603.75	-0.1628139954	0.04015803982	
604.375	-0.4255128029	0.1413702817	
605.0	0.05413783391	0.2314970157	
605.625	-0.3646741715	0.01758453577	
606.25	-0.1412077094	0.3311685429	
606.875	-0.3187579404	-0.09732409112	
607.5	-0.6014335549	0.6995011192	
608.125	0.1963879752	0.2633849738	
608.75	0.1149649	0.6546293753	
609.375	0.7268353154	-0.4704097716	
610.0	0.1702273703	0.02091033727	
610.625	0.407804354	-0.5185777503	
611.25	-0.1729785868	-0.2247807672	
611.875	-0.01441350003	-0.5883300284	
612.5	-0.4709604469	0.08425343416	
613.125	-0.3678184634	-0.1583046011	
613.75	-0.2669845865	0.5776737195	
614.375	0.07122793576	0.03816620114	
615.0	0.2690740272	0.3829744365	
615.625	-0.08752134735	-0.104892116	
616.25	-0.2697875188	0.5585689883	
616.875	0.1505424694	0.4021156571	
617.5	-0.4566012516	0.3599295966	
618.125	0.1062628671	0.7474792834	
618.75	0.07184003615	0.1536522409	
619.375	0.1217184058	0.6296379015	
620.0	0.4492997322	-0.09575803	
620.625	0.3500040875	-0.2200307367	
621.25	-0.3223052886	-0.3902961447	
621.875	-0.3153544676	-0.2518973198	
622.5	-0.5959948619	0.237113728	
623.125	-0.05132717656	0.2425229879	
623.75	0.3668270549	0.2769186249	
624.375	-0.09639123243	-0.2347245741	
625.0	0.4789864833	0.02146071261	
625.625	-0.3104017916	-0.2145386157	
626.25	0.2285329335	-0.2798292499	
626.875	-0.578501818	-0.3096212133	
627.5	-0.1713492311	0.1434497327	
628.125	-0.1028175595	-0.4089132639	
628.75	-0.4090256827	-0.1637243455	
629.375	0.01881842908	-0.3230888046	
630.0	-0.5967708766	-0.3252930759	
630.625	-0.2908584409	0.2918353481	
631.25	-0.4637458467	0.2287783832	
631.875	-0.04903011798	0.7379580537	
632.5	0.3724142048	0.3777544644	
633.125	0.4162951079	0.0586077411	
633.75	0.3852646584	0.04937006425	
634.375	0.02123427353	-0.5923304116	
635.0	0.09419405955	-0.1257969156	
635.625	-0.5091824292	-0.3883978665	
636.25	-0.1146677657	0.3246191529	
636.875	-0.4424249654	0.1113257024	
637.5	0.1638762813	0.461069849	
638.125	-0.2022380096	-0.1847421414	
638.75	-0.4095837499	0.7273014066	
639.375	0.4744244146	0.4155256004	
640.0	-0.07182866041	0.382843054	
640.625	0.6796332879	0.6245671341	
641.25	0.6488806216	-0.3590791513	
641.875	0.3480267075	-0.04876975847	
642.5	-0.2111453843	-0.934275114	
643.125	-0.05824855859	0.04151475896	
643.75	-0.3645157313	-0.5435234112	
644.375	-0.4784701163	0.3943328477	
645.0	-0.09178183217	-0.0002680637234	
645.625	-0.1766041572	0.6931305961	
646.25	0.6953421868	0.1531327692	
646.875	-0.07190701639	-0.2558587344	
647.5	0.3739023172	0.4954770975	
648.125	0.07171078146	-0.417710724	
648.75	0.8712725671	0.4307710243	
649.375	0.4634042391	-1.090877518	
650.0	-0.07118481812	-0.2356176467	
650.625	1.07372909	-0.5054586158	
651.25	0.03186028731	-1.356598456	
651.875	0.06540278999	0.1585210843	
652.5	1.195687876	0.002264980741	
653.125	0.4606939646	-0.7748032042	
653.75	0.2762172473	0.01146629336	
654.375	-0.2055831439	-1.191507623	
655.0	-0.6455609352	0.2347422767	
655.625	-0.3548863766	-0.07070332875	
656.25	-0.03364311802	0.9122434069	
656.875	0.3202870591	-0.3427090397	
657.5	-0.1246661869	0.5721897163	
658.125	0.5905081141	0.288650372	
658.75	0.4715161703	-0.05897721082	
659.375	0.8503194554	0.1140091237	
660.0	0.4400172489	-1.187034016	
660.625	0.123001361	-0.3576216749	
661.25	0.7293193388	-0.6538615025	
661.875	0.252466914	-1.112839234	
662.5	0.1635533074	0.04674254784	
663.125	1.179773562	-0.4467126744	
663.75	-0.1222848605	-0.8964489338	
664.375	0.1478331293	-0.3550909417	
665.0	-0.8296598619	-0.8206266789	
665.625	-0.3404672238	0.4822637718	
666.25	-0.5772603991	0.4478309614	
666.875	0.572374072	0.6132784818	
667.5	0.1745106446	-0.06115751343	
668.125	0.6481482242	0.3423989675	
668.75	0.4312900466	-0.6682374798	
669.375	0.03247128158	-0.3467042846	
670.0	0.1972353778	-0.391670973	
670.625	-0.001802273564	-0.6950815844	
671.25	-0.09314385728	-0.1325782534	
671.875	0.525467572	-0.4636925796	
672.5	0.3190370943	-0.5356085192	
673.125	0.3486916357	-0.1121373517	
673.75	0.704611405	-0.7561361669	
674.375	-0.4084228502	-0.5884909013	
675.0	0.2565772076	-0.2124302295	
675.625	-0.644365383	-0.7194818567	
676.25	-0.5077236748	0.4736050995	
676.875	-0.0836128503	-0.4593053817	
677.5	-0.6079653128	0.5650744713	
678.125	-0.0834142011	-0.04752763709	
678.75	-0.1744934711	0.9441487885	
679.375	0.6504909374	-0.3762164852	
680.0	0.1578280825	0.1805004626	
680.625	0.4614659277	-0.2619034739	
681.25	0.04226621115	-0.3655691802	
681.875	0.00685021512	0.3785051729	
682.5	0.7606788293	0.3543806019	
683.125	0.5735173816	-0.1323764345	
683.75	0.3146747064	0.1204964855	
684.375	0.8852496045	0.4896329046	
685.0	0.5651468151	-0.553821984	
685.625	0.5930943568	0.563150495	
686.25	1.102414132	-0.5059831761	
686.875	-0.1021596545	-0.2632167952	
687.5	1.437626321	-0.3652896248	
688.125	-1.01326712	-1.486544289	
688.75	-0.01448563285	-0.3320641818	
689.375	-1.360971757	1.014626831	
690.0	0.7438486736	0.5557259423	
690.625	-0.04728001688	0.8579009399	
691.25	1.266193308	0.2644559293	
691.875	0.6292654275	0.5753233546	
692.5	1.543957277	0.7075387672	
693.125	1.56554347	-0.3620401053	
693.75	1.116549158	-0.5091556587	
694.375	0.9551059274	-0.9244184645	
695.0	0.9774730293	-0.4333598898	
695.625	1.412498353	-0.5708529994	
696.25	0.6739511262	0.1774136989	
696.875	1.233630976	1.513782949	
697.5	1.223756305	0.3237966339	
698.125	0.9780153718	1.132471262	
698.75	1.179916251	-1.763202511	
699.375	-0.5411789244	-0.04332856583	
700.0	-1.487712719	0.7973411673	
700.625	0.9191608768	0.6014774422	
701.25	-0.06186749497	0.5745200706	
701.875	1.262432997	0.4035963939	
702.5	0.32002075	0.4145654594	
703.125	1.278404367	0.5197223556	
703.75	0.614715422	-0.6235069935	
704.375	0.8179060987	-0.02570526853	
705.0	0.5308758656	-0.7393114899	
705.625	0.1472833151	0.3035040753	
706.25	1.108476387	0.6379303211	
706.875	0.4115783504	0.07563326011	
707.5	0.4879686499	1.262750606	
708.125	1.484867996	-0.1523998482	
708.75	0.3608585709	-0.482329506	
709.375	-0.7639779736	-1.105063405	
710.0	-0.09147605196	0.718091988	
710.625	-0.1872710431	0.3482529503	
711.25	0.5151942485	0.2072179596	
711.875	0.2769266967	0.2636670197	
712.5	0.8001478903	-0.02887715418	
713.125	0.5599335386	-0.2685362713	
713.75	0.399083956	-0.8154983066	
714.375	-0.2780190577	-0.2171176008	
715.0	0.3973747178	-0.8061077053	
715.625	-0.4843206211	-0.4648696684	
716.25	0.7439637842	0.02515418293	
716.875	1.295715799	-1.209218046	
717.5	-0.1036760615	-0.1759292505	
718.125	2.866817911	1.06644162	
718.75	2.078585597	-1.989531567	
719.375	0.4982023599	0.8051293937	
720.0	2.988693566	-3.744491006	
720.625	-1.326078239	-1.96826617	
721.25	0.7243483399	-2.17400887	
721.875	-0.865213239	-3.141694444	
722.5	-1.805581479	-0.7690423679	
723.125	-1.731810079	-1.143636399	
723.75	-0.9102217463	1.624135577	
724.375	0.2988959161	0.7054786585	
725.0	0.134819471	0.8179281514	
725.625	0.4696760293	1.545204394	
726.25	0.8822428141	1.163730945	
726.875	-1.144472614	1.532631711	
727.5	-0.6100092916	5.045814015	
728.125	3.736970556	3.272861885	
728.75	-5.777616671	6.4001725	
729.375	2.33437976	15.58886974	
730.0	1.689485083	0.8832619024	
730.625	-8.216500727	12.27670567	
731.25	10.263833	10.29837612	
731.875	-6.097801734	-2.607939369	
732.5	-11.53486317	4.504422512	
733.125	-6.580764207	4.166121226	
733.75	-0.4200344855	1.700794218	
734.375	3.064002196	2.508340894	
735.0	-0.8776287515	-0.8337484333	
735.625	-0.8893859656	-0.2607953801	
736.25	-0.1826795357	2.329182222	
736.875	1.224344607	-0.09300150618	
737.5	1.898509178	1.952849215	
738.125	5.512768267	-1.310692903	
738.75	3.587289214	-6.765076406	
739.375	-1.697226862	-0.7422986646	
740.0	21.47192583	4.64378571	
740.625	4.743250011	-11.23585278	
741.25	-16.39217211	2.515442246	
741.875	-7.543583745	18.43606697	
742.5	8.881480249	1.00858921	
743.125	-2.326974808	-20.57757796	
743.75	-3.563512483	-1.742610265	
744.375	0.1099237431	-0.1485271471	
745.0	-0.2076666498	0.8269369602	
745.625	-0.142058659	-0.2240121638	
746.25	0.2259982562	-0.4245268238	
746.875	-0.8812807271	0.267476439	
747.5	0.002568905967	0.6257168151	
748.125	0.1123784419	1.395423595	
748.75	1.334940733	0.748751145	
749.375	0.1243386043	0.6826834621	
750.0	-0.6312264935	1.562540001	
