!Created with skrf (http://scikit-rf.org).
# GHz S RI R (50+0j) 
!freq	ReS11	ImS11	
500.0	0.2161774512	-0.4654853733	
500.625	0.7337986262	-1.179379942	
501.25	-0.6985795334	-0.3647549854	
501.875	-0.01256928027	-0.4531069754	
502.5	-0.07638721752	-0.1925377759	
503.125	-0.04366928611	0.02125519146	
503.75	-0.03736975664	0.1035732585	
504.375	0.02315255243	-0.04738723167	
505.0	0.02380277439	0.01607415134	
505.625	-0.008501977204	-0.1042541089	
506.25	-0.002066387881	0.03885911792	
506.875	-0.3918151209	-0.1155336836	
507.5	-0.2993641125	0.002833451152	
508.125	0.5319365148	-0.6070998974	
508.75	0.6296081394	-1.520586381	
509.375	-0.1462062161	-0.694471588	
510.0	-0.2683677378	-0.4870226998	
510.625	-0.3935923443	-0.2602660824	
511.25	-0.02796312483	-0.01658362747	
511.875	-0.1598767061	-0.1100277489	
512.5	-0.01669276649	0.05270469368	
513.125	0.03539317272	-0.04053266591	
513.75	-0.1053130614	-0.1086411495	
514.375	-0.007332628537	0.09490966509	
515.0	0.1186114814	-0.3431500934	
515.625	-0.0075498475	0.2895701732	
516.25	0.4347480308	-0.8612974874	
516.875	-0.5861674632	-0.2810561447	
517.5	-0.09193462338	-0.005495636514	
518.125	-0.05157147679	-0.08758598046	
518.75	-0.05846954937	-0.03171812255	
519.375	-0.06960595368	0.005691051969	
520.0	0.1548898445	0.0986366132	
520.625	0.1432041285	-0.0706781069	
521.25	0.01887485697	-0.191203404	
521.875	-0.1565929079	-0.07442448964	
522.5	0.008334658138	0.09968803787	
523.125	-0.09173144169	-0.08535068091	
523.75	-0.1716184702	0.1097108221	
524.375	0.01064583456	-0.03053668497	
525.0	-0.20485595	0.1992596912	
525.625	0.147080428	0.01429148392	
526.25	-0.07616774023	0.04897163847	
526.875	0.02651108921	0.04337049235	
527.5	-0.1476511016	0.1178825613	
528.125	0.1358000081	0.3769562142	
528.75	0.09855651539	0.119764999	
529.375	-0.03446829444	0.1171442612	
530.0	0.1652686429	0.1166148011	
530.625	-0.08983230552	0.224434694	
531.25	0.2383449775	0.296769113	
531.875	0.1055014834	-0.2832697469	
532.5	0.1046388231	-0.08337635884	
533.125	-0.03072207526	-0.183661423	
533.75	0.1272785857	-0.01878920176	
534.375	-0.1342500482	-0.421890519	
535.0	-0.1953892549	-0.02371848407	
535.625	-0.1793338974	0.02538959968	
536.25	2.374116159e-05	0.1410205598	
536.875	0.05811988172	-0.01376628001	
537.5	0.1106689285	-0.01926771411	
538.125	0.09610333982	-0.131611947	
538.75	0.1194269337	-0.07682382149	
539.375	-0.07686111787	-0.2448037503	
540.0	-0.2312015392	-0.07843732516	
540.625	-0.09155442008	-0.06556404612	
541.25	-0.06973056362	-0.06607442349	
541.875	-0.01315855281	0.03197516703	
542.5	-0.01786093312	-0.1203228047	
543.125	-0.1213016319	0.01858050226	
543.75	0.03854046154	0.01266443356	
544.375	-0.09754321519	0.08535234231	
545.0	0.02497247425	0.01285309492	
545.625	-0.007353350137	0.1346508139	
546.25	0.1418865116	-0.01017263558	
546.875	0.05168850572	0.01113407697	
547.5	0.1261090534	-0.1658134504	
548.125	-0.1027664245	-0.1404241058	
548.75	-0.04702295268	-0.1029885211	
549.375	-0.1526756146	-0.1177240551	
550.0	-0.05517647175	0.05153842165	
550.625	-0.07269763465	-0.03898243677	
551.25	-0.06867475905	0.07245719068	
551.875	-0.07648098025	0.0285757885	
552.5	-0.06467536413	0.1096917162	
553.125	0.001484186128	0.05277070855	
553.75	0.03358462445	0.06395253802	
554.375	0.1040695798	-0.009810783044	
555.0	0.1033977278	-0.06662460668	
555.625	0.1031807233	-0.1116412078	
556.25	0.07009982225	-0.1530901365	
556.875	-0.03779591347	-0.1657954882	
557.5	-0.1030899642	-0.1159603837	
558.125	-0.1294522445	-0.0469917267	
558.75	-0.1155346546	0.00106352483	
559.375	-0.1186023187	0.01232996628	
560.0	-0.1153184018	0.08809769266	
560.625	-0.0332931475	0.1165165791	
561.25	-0.02089834106	0.09804323609	
561.875	0.06270533655	0.05977214517	
562.5	-0.02217693744	0.03653639407	
563.125	0.1071598592	0.1064627855	
563.75	0.1201973055	-0.02858795325	
564.375	0.1707815452	-0.05580119494	
565.0	0.07453924385	-0.205103244	
565.625	-0.06018293971	-0.1086495529	
566.25	-0.07769514427	-0.1771442668	
566.875	-0.2331552543	-0.04113682454	
567.5	-0.07862506572	-0.09430003438	
568.125	-0.1837711119	-0.2441359936	
568.75	-0.2370746885	-0.01355955709	
569.375	-0.2242325993	-0.03478483728	
570.0	-0.1903287658	0.2884900096	
570.625	0.04092840972	0.1469717653	
571.25	-0.0833263054	0.1103920093	
571.875	0.1765525182	0.06754152513	
572.5	0.03707006568	0.03568405098	
573.125	0.1950489225	-0.1556238016	
573.75	-0.04221173784	-0.1544837289	
574.375	0.09792407012	0.02911278022	
575.0	0.02577961325	-0.1465227756	
575.625	0.01749714989	0.0198051332	
576.25	0.138618937	-0.1586139737	
576.875	-0.08899363401	-0.1618300509	
577.5	0.02493468102	-0.07850181229	
578.125	0.04847460242	-0.2777343299	
578.75	-0.1843888439	-0.09523392389	
579.375	0.05704995129	0.005766120869	
580.0	-0.1140376511	-0.1380372628	
580.625	-0.005259417368	0.07012222698	
581.25	-0.1887213044	-0.01136209007	
581.875	0.1301111952	0.2671068901	
582.5	0.08222562694	0.02665490928	
583.125	-0.009506246423	0.1462027134	
583.75	0.1613145357	-0.02301514802	
584.375	-0.1000391811	0.110150906	
585.0	0.225761571	0.07560168698	
585.625	0.08992318873	-0.06303267833	
586.25	0.1793100061	0.03605198982	
586.875	0.05774814582	-0.2461971135	
587.5	-0.03223600649	-0.05259800284	
588.125	0.06522567846	-0.1961757268	
588.75	-0.0418426313	-0.2134244206	
589.375	0.03632458952	-0.03206062807	
590.0	-0.03110926293	-0.3003415769	
590.625	-0.2116147236	0.04426654332	
591.25	-0.09553289608	-0.012723438	
591.875	-0.1237795179	0.2068019069	
592.5	0.1359916923	-0.04522259173	
593.125	-0.1302909387	0.1224634562	
593.75	0.1177485325	0.02666053373	
594.375	0.05606927909	0.1845501402	
595.0	0.2542067608	0.1795763209	
595.625	0.1916264575	-0.03854897445	
596.25	0.1374058833	0.1432511673	
596.875	0.2618238786	0.03119167893	
597.5	0.0923721162	0.03585726753	
598.125	0.1020201519	0.2036659832	
598.75	0.2787164153	0.06003497515	
599.375	0.1632005209	-0.009717741023	
600.0	0.2500885477	-0.1111839487	
600.625	0.1292827813	-0.2762313395	
601.25	-0.003838122021	-0.1221049419	
601.875	0.003213317509	-0.2437825234	
602.5	-0.1970585252	0.06478427686	
603.125	-0.03596201091	-0.01395660956	
603.75	-0.2617181287	0.1131780454	
604.375	-0.02418739735	0.1637369136	
605.0	-0.2316430444	0.02484523998	
605.625	-0.1213920647	0.1762936439	
606.25	-0.009646538625	0.03464946141	
606.875	-0.2831195834	0.01427423964	
607.5	-0.09471652244	0.2093725151	
608.125	-0.04899564128	0.1553005807	
608.75	0.1974646399	0.2217021032	
609.375	0.2916909391	-0.1303126716	
610.0	0.1715521909	-0.1698493198	
610.625	0.2018467283	-0.2077780204	
611.25	-0.1118313224	-0.1690986271	
611.875	0.03279072469	-0.122338437	
612.5	-0.2627776865	-0.1515063441	
613.125	-0.1014641758	0.1376243127	
613.75	-0.1651419831	0.04199453314	
614.375	0.1152590756	0.2303910403	
615.0	0.0132246211	-0.08449183951	
615.625	0.009536576308	0.237598579	
616.25	0.096020236	0.1239053479	
616.875	-0.1428505974	0.16859308	
617.5	-0.07574779471	0.3159718931	
618.125	0.0883166762	0.2278684752	
618.75	-0.0855751009	0.1548005784	
619.375	0.07592535939	0.1865003481	
620.0	0.2309235545	0.02793529624	
620.625	0.1779749275	-0.08227667144	
621.25	-0.1530143009	-0.2881232263	
621.875	-0.2496295194	0.02409728399	
622.5	-0.1992318063	-0.05436873468	
623.125	-0.08940499516	0.3264509717	
623.75	0.1162283612	-0.03576589906	
624.375	0.096404938	0.04596784382	
625.0	-0.03968016374	-0.0924641713	
625.625	0.09012333133	-0.02142766749	
626.25	-0.07580415035	-0.2317009043	
626.875	-0.1532567534	0.002766982667	
627.5	-0.08078251653	-0.1247410547	
628.125	-0.1658858681	-0.07800399952	
628.75	-0.06013417402	-0.0511409685	
629.375	-0.03174985123	-0.2324293277	
630.0	-0.2439217447	-0.1316836003	
630.625	-0.1935072747	0.1262564071	
631.25	-0.223370876	0.1877702841	
631.875	0.02193936872	0.3144191091	
632.5	0.1045046848	0.1381832127	
633.125	0.1421295699	0.1925826074	
633.75	0.2102046415	-0.1723222418	
634.375	0.05602228251	-0.05246659621	
635.0	0.07838052447	-0.2591784465	
635.625	-0.1988680802	-0.02507570494	
636.25	-0.06916721606	-0.008573371675	
636.875	-0.1641970277	0.1988627731	
637.5	0.0572627511	0.07333229235	
638.125	-0.1671217519	0.04051381559	
638.75	-0.04641819984	0.2846110448	
639.375	-0.007443684222	0.1376195257	
640.0	0.06253508614	0.3706169762	
640.625	0.349830209	0.1577969791	
641.25	0.1945637578	-0.02724848826	
641.875	0.3182497943	-0.1086448497	
642.5	-0.1081336792	-0.3041077368	
643.125	-0.02178544619	-0.04945885869	
643.75	-0.09231305192	-0.2979827235	
644.375	-0.2032503781	0.1339288156	
645.0	-0.1915039287	-0.01106394706	
645.625	0.02737179442	0.4661823175	
646.25	0.2437585745	-0.1142332111	
646.875	0.00722426424	0.1581658686	
647.5	0.2104514591	-0.05192309996	
648.125	-0.07077468255	0.1225647605	
648.75	0.4551137866	-0.03589036679	
649.375	0.09489106214	-0.3878718249	
650.0	0.1531643325	-0.1465981812	
650.625	0.3570362444	-0.355627191	
651.25	0.06711866268	-0.3577545116	
651.875	0.1997485801	0.04831814273	
652.5	0.4692292926	-0.10257175	
653.125	0.1678477393	-0.205553761	
653.75	0.3025750813	-0.05583029318	
654.375	-0.05230859497	-0.4919668398	
655.0	-0.2709913369	0.01385186008	
655.625	-0.1461103492	-0.05737405877	
656.25	3.804374793e-05	0.3525744426	
656.875	0.1628338237	-0.258309017	
657.5	-0.06611110929	0.2697679508	
658.125	0.2494573635	0.1059480205	
658.75	0.1119642493	0.1121046714	
659.375	0.6003193562	-0.03472534036	
660.0	0.1280082524	-0.4238853402	
660.625	0.1694656166	-0.1829140309	
661.25	0.3117877684	-0.3726688976	
661.875	0.1436894455	-0.3715289952	
662.5	0.2336623799	-0.03976602114	
663.125	0.4299182079	-0.2338809341	
663.75	0.06764581752	-0.3175479507	
664.375	0.09463270813	-0.2778392121	
665.0	-0.327232508	-0.3571073513	
665.625	-0.2910022389	0.1997301082	
666.25	-0.1877771056	0.1534302811	
666.875	0.1484359206	0.3506405248	
667.5	0.1871590769	-0.01277361688	
668.125	0.2165267951	0.2095456072	
668.75	0.2538630948	-0.2603323328	
669.375	-0.001565810248	-0.05511413315	
670.0	0.1641997327	-0.2290111363	
670.625	-0.1098333486	-0.3179525997	
671.25	0.04479124307	-0.04040750266	
671.875	0.272076208	-0.3206584886	
672.5	0.152575319	-0.2329355856	
673.125	0.1764787491	-0.06964710391	
673.75	0.3315762398	-0.2486888506	
674.375	-0.08170726973	-0.2660502705	
675.0	0.04943866382	-0.1890002998	
675.625	-0.2472595016	-0.2619592443	
676.25	-0.2050248501	0.08002068391	
676.875	-0.07776449053	-0.1412529034	
677.5	-0.3079017897	0.06754432587	
678.125	-0.02605174664	0.1135688937	
678.75	-0.1467012354	0.2130806003	
679.375	0.4520587781	0.1927074159	
680.0	-0.0258092123	-0.1725114463	
680.625	0.191303189	0.04575366493	
681.25	0.07493214668	-0.2834796236	
681.875	-0.07861812786	0.1606004684	
682.5	0.5765660267	0.20681396	
683.125	0.2321281639	-0.1649637637	
683.75	0.1561323394	0.2222172081	
684.375	0.4432901562	0.1607909659	
685.0	0.1919080948	-0.1276179751	
685.625	0.1597684231	0.2594933639	
686.25	0.5395448602	-0.07785313289	
686.875	0.1807285816	-0.1663715242	
687.5	0.425344497	-0.1337962952	
688.125	0.004729946387	-0.6923613894	
688.75	-0.3166819643	-0.05066703079	
689.375	-0.4741940953	0.1282834293	
690.0	0.1517926092	0.5467897615	
690.625	0.1440563394	0.08153753266	
691.25	0.2806926237	0.5707355147	
691.875	0.656220029	0.09899882833	
692.5	0.3919512598	0.2457405461	
693.125	1.084385931	0.09465493997	
693.75	0.6658351577	-0.4891722467	
694.375	0.2995510479	-0.1960897786	
695.0	0.7099243543	-0.3288138038	
695.625	0.446242497	-0.1399603041	
696.25	0.3526313951	0.2287494339	
696.875	0.4584273552	0.7065501262	
697.5	0.4666963457	0.3350657207	
698.125	0.3634731423	0.4450304893	
698.75	0.6558204157	-0.2962279002	
699.375	-0.5109580146	-0.4135239823	
700.0	-0.2394526559	0.1070160319	
700.625	0.01953903898	0.5073407506	
701.25	0.2462617388	0.03143650145	
701.875	0.1027642101	0.3402995536	
702.5	0.5412716179	0.3712732209	
703.125	0.3413046237	-0.03378334623	
703.75	0.5428788862	0.04491013726	
704.375	0.4204396178	-0.3093573661	
705.0	0.09326443453	-0.1801696687	
705.625	0.3278129862	0.1493673688	
706.25	0.2424473719	0.1043572728	
706.875	0.09872044788	0.2345444893	
707.5	0.1634273609	0.5364711696	
708.125	0.5185376413	0.2624644823	
708.75	0.3033242737	-0.3308909017	
709.375	-0.1362821359	-0.5104032283	
710.0	-0.2577538574	0.2942678321	
710.625	0.1016998536	-0.004329898186	
711.25	0.0365070256	0.3363271632	
711.875	0.1941945383	-0.01978014855	
712.5	0.2969304398	0.1738517498	
713.125	0.413717173	-0.2120976684	
713.75	0.04147059386	-0.2749348663	
714.375	0.1179784366	-0.195322177	
715.0	-0.05733716503	-0.3507336984	
715.625	-0.04729136541	-0.1159956012	
716.25	0.3200278391	-0.1668731822	
716.875	0.4012328483	-0.2695687705	
717.5	0.2757552133	-0.008884063271	
718.125	0.78975535	0.3890476893	
718.75	1.049885784	0.06949127441	
719.375	0.4160820444	-0.168276573	
720.0	0.9046616896	0.2308588488	
720.625	0.05439029845	-1.119762928	
721.25	0.02234625642	-0.3227511807	
721.875	0.3260062883	-1.457221682	
722.5	-0.8593185697	-0.7579607352	
723.125	-0.4557923843	-0.4116903341	
723.75	-0.8799563579	0.4336329778	
724.375	0.1785007738	0.4381804564	
725.0	-0.05879581694	0.3208414682	
725.625	0.2038603998	0.7309847901	
726.25	0.2498772675	0.4785796522	
726.875	-0.4616925974	0.8112933231	
727.5	-0.4322434506	1.832762051	
728.125	0.409981003	1.764894318	
728.75	-1.444795114	1.901106596	
729.375	-1.781684876	4.758511633	
730.0	1.210528516	3.363870033	
730.625	-1.37355794	1.896094916	
731.25	-2.153303084	5.504344929	
731.875	-0.8363406111	2.610201277	
732.5	-4.171870169	-0.8321597803	
733.125	-3.987737912	0.4152326183	
733.75	-0.4637497861	1.24695225	
734.375	-0.06791960396	1.148822034	
735.0	-0.08877638841	-1.100876068	
735.625	-0.1267340211	-0.03210264142	
736.25	-0.4758978839	0.599283577	
736.875	0.8010069954	0.6230987542	
737.5	0.416206932	0.179362665	
738.125	2.399507549	0.5914423211	
738.75	1.906385969	-2.271552304	
739.375	0.7698876658	-0.9307289748	
740.0	4.727399054	1.026661342	
740.625	5.924590687	-3.253359411	
741.25	-2.725546935	-0.6052208329	
741.875	-5.631188244	0.8939485093	
742.5	-2.425068135	0.05890363402	
743.125	1.685824763	-0.8418745136	
743.75	0.1024100222	-1.907951762	
744.375	-0.389531217	0.08511109637	
745.0	-0.1679195465	0.01258092602	
745.625	0.135636468	-0.1950075568	
746.25	0.09586381833	-0.08998991362	
746.875	-0.3193327754	-0.05000968987	
747.5	-0.02557782582	0.3741755929	
748.125	-0.01399479049	0.4202243005	
748.75	0.2336890146	0.7009788015	
749.375	0.2411116889	0.4674256593	
750.0	-0.3982588558	0.1101125987	
