!Created with skrf (http://scikit-rf.org).
# GHz S RI R (50+0j) 
!freq	ReS11	ImS11	
500.0	0.7526860901	-1.149541113	
500.625	-0.003328989262	-1.442844988	
501.25	0.02180526591	-0.5198617782	
501.875	-0.3334216094	-0.6903238971	
502.5	-0.06989713446	-0.09861323687	
503.125	-0.07417987815	-0.03720939532	
503.75	0.04213706398	0.1273147412	
504.375	-0.003464094061	0.01054769391	
505.0	0.05453085999	-0.03915195674	
505.625	-0.03158850967	-0.002130311721	
506.25	0.03036341361	-0.1398053255	
506.875	-0.07916063479	0.2650393484	
507.5	0.2876113068	-0.4589473091	
508.125	0.2394684113	-1.053225132	
508.75	0.08781013679	-0.9701161115	
509.375	0.4591545776	-1.015346133	
510.0	-0.6515059989	-0.2617569582	
510.625	-0.08002617696	-0.0389827445	
511.25	-0.1254592394	-0.09834996841	
511.875	-0.1619234221	-0.007771856447	
512.5	-0.02094277395	-0.008325941491	
513.125	0.01751446028	-0.1230246783	
513.75	-0.09190945811	-0.0001038597282	
514.375	0.02900159983	-0.06492641843	
515.0	-0.4396036167	0.1134698007	
515.625	0.7124404685	-0.2639154141	
516.25	-0.5145997238	-1.283790308	
516.875	-0.3569504301	-0.1276200525	
517.5	0.1039648095	-0.2633055982	
518.125	-0.1177142345	-0.01314892614	
518.75	0.04721222924	-0.1690164346	
519.375	-0.08436970589	0.05194059431	
520.0	0.1113916731	0.03026255605	
520.625	0.1102623121	-0.0003774313003	
521.25	0.06085033065	-0.3168803869	
521.875	-0.2147108313	0.0723502949	
522.5	0.01102858893	0.03450789686	
523.125	-0.1607436973	0.1108851088	
523.75	0.04025225205	0.02914345323	
524.375	-0.2874033106	-0.1191440662	
525.0	0.1141070873	0.2464645957	
525.625	-0.01928001781	-0.04138014702	
526.25	0.05511979672	0.04587183463	
526.875	-0.0953769739	-0.01932801698	
527.5	-0.0090047165	0.2816333813	
528.125	0.187592627	0.1701017647	
528.75	-0.0768833444	0.2040253111	
529.375	0.08399759381	0.1160192834	
530.0	-0.04315441529	0.01519713975	
530.625	0.05699694679	0.5241958112	
531.25	0.4750241802	-0.01466178581	
531.875	0.1472356693	-0.09965461645	
532.5	-0.05127869567	-0.2797948186	
533.125	-0.01557031991	0.1088182965	
533.75	0.2716335772	-0.2295036407	
534.375	-0.1832477357	-0.2233032753	
535.0	-0.1233817217	-0.1273154385	
535.625	-0.2501747727	0.1298249248	
536.25	0.03586948255	0.08268861424	
536.875	0.07314355445	0.05990077203	
537.5	0.09046651033	-0.08213063848	
538.125	0.0529405858	-0.03266105449	
538.75	0.19535844	-0.1198223602	
539.375	-0.1225060456	-0.1631325133	
540.0	-0.1391279374	-0.1222430601	
540.625	-0.2159468838	-0.1017134467	
541.25	-0.1133701828	0.05396211656	
541.875	0.01751429016	0.00577397942	
542.5	-0.1147498738	-0.05879687711	
543.125	-0.0129079495	-0.01395046286	
543.75	-0.1053106555	-0.0975467335	
544.375	-0.01546631713	0.0981725913	
545.0	-0.07453131236	-0.01319438301	
545.625	0.1082328862	0.0960559573	
546.25	0.03926328169	0.004005859108	
546.875	0.1767469463	0.02456099924	
547.5	0.03373534181	-0.1886011003	
548.125	-0.004383795422	-0.1199581734	
548.75	-0.1208153384	-0.1890211951	
549.375	-0.1640723101	-0.03807871307	
550.0	-0.03025683101	-0.01801698249	
550.625	-0.1000558541	0.0268325476	
551.25	-0.04096833052	0.01291117292	
551.875	-0.1155817444	0.05973318196	
552.5	-0.0239362333	0.1030406165	
553.125	-0.03508388459	0.0525068963	
553.75	0.0574494412	0.06505717029	
554.375	0.08993564739	0.002316753065	
555.0	0.1174064366	-0.06387635939	
555.625	0.09638825673	-0.1163968048	
556.25	0.07216057216	-0.1446054159	
556.875	-0.026615875	-0.1721204335	
557.5	-0.1051176802	-0.1188430912	
558.125	-0.1257966062	-0.04152182095	
558.75	-0.1136443457	-0.009296929366	
559.375	-0.1262739405	0.01696267329	
560.0	-0.09575071226	0.09035741903	
560.625	-0.06215864934	0.09834678608	
561.25	-0.002771555361	0.1336681465	
561.875	0.03988953927	0.02024476648	
562.5	-0.01682094095	0.09396854184	
563.125	0.09792091693	0.04833422856	
563.75	0.110455687	0.03520381564	
564.375	0.1870805229	-0.1140994929	
565.0	0.02724413244	-0.1663049829	
565.625	0.02155918697	-0.1470691991	
566.25	-0.1770858513	-0.1729126666	
566.875	-0.1050577742	-0.04273946674	
567.5	-0.097429611	-0.20779502	
568.125	-0.2213845898	-0.1518447833	
568.75	-0.158129712	-0.08498551747	
569.375	-0.3598629021	0.06413167773	
570.0	-0.04850792293	0.2703407861	
570.625	-0.07109038556	0.08972706074	
571.25	-0.02549237823	0.2045483944	
571.875	0.06031809651	-0.01780616077	
572.5	0.168854195	0.1191538283	
573.125	0.08765014939	-0.2121089221	
573.75	-0.006581913038	-0.03512897703	
574.375	0.1127765054	-0.1056641672	
575.0	-0.07999078728	-0.03727814641	
575.625	0.1298265224	-0.04299590501	
576.25	0.01642476617	-0.2106177996	
576.875	-0.02911009491	-0.06549054469	
577.5	0.1446480522	-0.1613406187	
578.125	-0.1235353747	-0.237835031	
578.75	-0.07039079552	-0.0362666505	
579.375	-0.0274015431	-0.1506600666	
580.0	-0.218582949	0.01243746203	
580.625	0.05032778796	-0.0702480405	
581.25	-0.201329198	0.1326320483	
581.875	0.1204625568	0.08765719134	
582.5	-0.07504593857	0.1108343313	
583.125	0.1611048303	0.1939327168	
583.75	0.01667216905	-0.1001509298	
584.375	0.05965743762	0.192548399	
585.0	0.154477911	-0.03008903375	
585.625	0.07368132504	0.06981114557	
586.25	0.2688371745	-0.05677694604	
586.875	-0.01378544375	-0.1581328348	
587.5	0.06988402643	-0.0986742628	
588.125	-0.02861113607	-0.2375972647	
588.75	-0.05140449792	-0.09641778655	
589.375	0.2025533982	-0.1065297767	
590.0	-0.1424644108	-0.2300546214	
590.625	-0.06270741452	0.002202727172	
591.25	-0.2281384758	0.03823139945	
591.875	0.02018688606	0.2357863565	
592.5	-0.02174152623	-0.05595978003	
593.125	0.08003633829	0.1828692646	
593.75	0.0131697039	0.02571262005	
594.375	0.1881230886	0.2250178735	
595.0	0.2830929669	0.03980237142	
595.625	0.06723249838	0.1235133299	
596.25	0.2186384187	0.1330942269	
596.875	0.1935546581	-0.05060696062	
597.5	0.05753237985	0.09810477348	
598.125	0.2463288926	0.1611144504	
598.75	0.1764777195	0.004283132306	
599.375	0.2138054305	0.03640812088	
600.0	0.2341945328	-0.1848632751	
600.625	0.05326615985	-0.209666558	
601.25	0.1221946119	-0.1161735249	
601.875	-0.1278006879	-0.2560064078	
602.5	-0.09460823604	0.06357338533	
603.125	-0.2060156648	-0.1184920124	
603.75	-0.156177837	0.1938643661	
604.375	-0.01171481839	0.03030397383	
605.0	-0.1843983737	0.0730949088	
605.625	0.04381237923	0.1041537583	
606.25	-0.1148463134	-0.05731625901	
606.875	-0.2822565897	0.1676817806	
607.5	-0.1378827254	0.1209013006	
608.125	-0.08253060064	0.2792551655	
608.75	0.2665499508	0.2525937346	
609.375	0.1622556513	-0.1147862342	
610.0	0.2180315504	-0.01848254829	
610.625	0.1234327908	-0.2276253857	
611.25	-0.04445239843	-0.0637105368	
611.875	-0.01810843778	-0.2366196095	
612.5	-0.288021815	-0.01564331221	
613.125	-0.08123805772	-0.0161287226	
613.75	-0.2415880197	0.1864618638	
614.375	0.1747187022	0.1310089619	
615.0	-0.1007156892	0.01979215653	
615.625	0.08998648332	0.1988222951	
616.25	-0.08878569774	0.06417698018	
616.875	-0.2146231752	0.1872073865	
617.5	-0.002426266105	0.2745919093	
618.125	0.03759326739	0.09383813213	
618.75	0.09265903089	0.1296893001	
619.375	0.1835777288	0.1694879558	
620.0	0.1965307732	0.004127020128	
620.625	0.2170060992	-0.1427102326	
621.25	-0.205682052	-0.2557841422	
621.875	-0.1173598037	-0.1036420871	
622.5	-0.3053130412	-0.0243101935	
623.125	0.02967538699	0.2438574609	
623.75	0.02093764283	-0.01539972837	
624.375	0.1498691991	-0.06356497079	
625.0	-0.04928469392	0.007268512652	
625.625	0.1468144573	-0.09277755854	
626.25	-0.129943445	-0.174630376	
626.875	-0.05790613853	-0.0379366097	
627.5	-0.187772882	-0.1415215409	
628.125	-0.1435488254	-0.04211479975	
628.75	-0.01693266074	-0.1039099099	
629.375	-0.1038959448	-0.2383127126	
630.0	-0.1987091202	-0.03351925866	
630.625	-0.1738334532	0.04619740058	
631.25	-0.255778504	0.1689025432	
631.875	0.03561574149	0.2569433678	
632.5	0.04347262809	0.1972662063	
633.125	0.2823629918	0.2142046319	
633.75	0.1164216539	-0.1201646946	
634.375	0.1446892007	-0.002505058147	
635.0	-0.02556277521	-0.2474143006	
635.625	-0.09685194074	-0.01090075437	
636.25	-0.2243432069	-0.03710874102	
636.875	-0.07852279784	0.2478467894	
637.5	0.01158887546	-0.0004282334082	
638.125	-0.1734254435	0.1299767601	
638.75	0.0314530125	0.2157166984	
639.375	-0.1060539581	0.181686005	
640.0	0.1256937578	0.3796664304	
640.625	0.2921873379	0.07874149938	
641.25	0.188641884	0.06435373009	
641.875	0.3355080318	-0.2122591986	
642.5	-0.1081579933	-0.2005039531	
643.125	0.01878699624	-0.1577281982	
643.75	-0.2767575125	-0.2595492996	
644.375	-0.05987439622	0.1314495198	
645.0	-0.3283548613	0.05110420727	
645.625	0.1457451656	0.3470292103	
646.25	0.0781019889	-0.1111712677	
646.875	0.1283837463	0.1385231074	
647.5	0.1278464371	-0.2074873178	
648.125	0.07103595631	0.227175102	
648.75	0.40833934	-0.1578298166	
649.375	0.09553442881	-0.2386259901	
650.0	0.2828216315	-0.1103986135	
650.625	0.2384632507	-0.4794198538	
651.25	0.04351995662	-0.1842274909	
651.875	0.3802246602	-0.004593894136	
652.5	0.4139354994	-0.2055513725	
653.125	0.1210781009	-0.09448278101	
653.75	0.3941778562	-0.1453367729	
654.375	-0.1459265672	-0.4278234398	
655.0	-0.1693482371	0.07728324533	
655.625	-0.3017727167	0.02505399133	
656.25	0.1379918629	0.3039392248	
656.875	-0.05096277761	-0.06558729907	
657.5	0.09198033226	0.3270758458	
658.125	0.1556031651	-0.01794057153	
658.75	0.165270701	0.2338149795	
659.375	0.587645263	-0.259680437	
660.0	0.1031946696	-0.3089476274	
660.625	0.2979648256	-0.2340745993	
661.25	0.2737789581	-0.4171810748	
661.875	0.0764989855	-0.2901063096	
662.5	0.3521673109	-0.03248333918	
663.125	0.3651040885	-0.3044661367	
663.75	0.08387617817	-0.2361465704	
664.375	0.1218730058	-0.3575839405	
665.0	-0.4032300261	-0.2909598139	
665.625	-0.2228201423	0.09858594388	
666.25	-0.2541983722	0.2139732363	
666.875	0.1966749086	0.2898734214	
667.5	0.07340338547	-0.0569490707	
668.125	0.3053011545	0.1407934241	
668.75	0.1862014878	-0.2485961984	
669.375	0.09064693711	-0.1047143787	
670.0	0.1699079906	-0.3725654773	
670.625	-0.144093686	-0.2326840327	
671.25	0.1532684997	-0.07173144602	
671.875	0.1961587384	-0.3026962343	
672.5	0.1108654962	-0.168618773	
673.125	0.2447709112	-0.03556580739	
673.75	0.275557929	-0.3402338479	
674.375	-0.04460930023	-0.214062856	
675.0	0.05827929532	-0.3028136872	
675.625	-0.2761292588	-0.2388332228	
676.25	-0.1375131813	0.0797253968	
676.875	-0.1375647254	-0.165857992	
677.5	-0.2462735845	0.1186948321	
678.125	-0.05573264583	0.04573702207	
678.75	-0.139768247	0.3084952225	
679.375	0.4267677249	0.02302283989	
680.0	-0.06438331195	-0.003822147207	
680.625	0.3120826296	-0.05559443565	
681.25	0.03800447244	-0.2059836962	
681.875	0.01861627432	0.3001924902	
682.5	0.4308901261	0.1732382467	
683.125	-0.008856880958	-0.0433065728	
683.75	0.1767608369	0.2434785351	
684.375	0.4804988105	0.1040399536	
685.0	0.08632041845	-0.06616156622	
685.625	0.4046023599	0.2361664659	
686.25	0.3867979713	-0.1516114019	
686.875	0.168041166	-0.08831824015	
687.5	0.4791682175	-0.2084492072	
688.125	-0.1244543477	-0.57423926	
688.75	-0.2723065071	-0.1803097043	
689.375	-0.5329994786	0.1977016641	
690.0	0.2108494106	0.5020278903	
690.625	0.07394921613	0.1242685086	
691.25	0.4849175425	0.6684230759	
691.875	0.5658993703	0.1222905769	
692.5	0.4122527233	0.3285521741	
693.125	0.9160620291	0.1145904994	
693.75	0.3927266064	-0.4182592013	
694.375	0.4731149936	-0.1303584536	
695.0	0.6839028471	-0.3764182027	
695.625	0.4055844329	-0.1217802885	
696.25	0.2692367171	0.3114631062	
696.875	0.3763197951	0.293620389	
697.5	0.3736628885	0.276129818	
698.125	0.4105177659	0.4828306804	
698.75	0.7045396621	-0.4170369313	
699.375	-0.4949705763	-0.4136375565	
700.0	-0.3657062406	0.04642930802	
700.625	0.09713915665	0.5264494468	
701.25	0.170935793	0.04468130051	
701.875	0.1033093629	0.4269290244	
702.5	0.5570301788	0.2869261102	
703.125	0.2694681181	0.02564029359	
703.75	0.4740646405	0.08162983035	
704.375	0.2883415226	-0.3340393458	
705.0	0.07918694377	-0.1207016483	
705.625	0.3728716808	0.1915159813	
706.25	0.2193176146	0.1324071	
706.875	0.1341524481	0.3091740202	
707.5	0.1509920993	0.2671398921	
708.125	0.5362600455	0.06704002774	
708.75	0.2670916532	-0.3258792008	
709.375	-0.1813279656	-0.5016696116	
710.0	-0.4859336171	0.4022507658	
710.625	-0.009873565748	0.04176611062	
711.25	0.0979736875	0.3572895131	
711.875	0.1966421246	-0.04190225473	
712.5	0.3115214495	0.2117121102	
713.125	0.3844042889	-0.2315975302	
713.75	0.03549868035	-0.2460236711	
714.375	0.1673188856	-0.1784130709	
715.0	-0.04008932603	-0.3048964538	
715.625	-0.01861938281	-0.09486561138	
716.25	0.339190932	-0.2150308956	
716.875	0.3623996798	-0.3119078652	
717.5	0.3198716356	0.064126174	
718.125	0.5375162302	0.2580815741	
718.75	0.8878561783	-0.3079523623	
719.375	0.4313993596	-0.02969559332	
720.0	1.100740575	-0.6738076145	
720.625	0.07332906461	-1.660466908	
721.25	0.3045319834	-0.7254124005	
721.875	0.2779544755	-1.495253411	
722.5	-0.9313322981	-0.7026920194	
723.125	-0.3840715539	-0.4910470927	
723.75	-0.724579896	0.4785727204	
724.375	0.1607589214	0.4010878703	
725.0	-0.05074667046	0.3611144069	
725.625	0.2654795185	0.7123816431	
726.25	0.1894111444	0.436567587	
726.875	-0.4710626552	0.8811528198	
727.5	-0.2857148955	1.83285712	
728.125	0.4716978507	1.667263158	
728.75	-0.980558534	1.804201523	
729.375	-1.091525223	4.849405706	
730.0	0.9323101484	3.012163825	
730.625	-2.331793072	3.21973154	
731.25	-2.51189219	6.197961549	
731.875	-1.365690736	1.938627682	
732.5	-4.326343969	-0.6450512652	
733.125	-3.964639328	0.5560200146	
733.75	-0.005563990723	1.179690497	
734.375	0.3346876915	1.003610934	
735.0	-0.1426064471	-1.062139446	
735.625	-0.2203798622	0.0120005994	
736.25	-0.5171929748	0.717616037	
736.875	0.7681054257	0.6389143958	
737.5	0.4221375822	0.2320632618	
738.125	2.227204659	0.2645520313	
738.75	1.732381946	-2.15665888	
739.375	0.7617324707	-0.7661993983	
740.0	5.144791609	1.297035622	
740.625	4.831818519	-3.711871155	
741.25	-3.28352618	-0.7737584825	
741.875	-6.415811943	-0.7107771644	
742.5	-2.324649198	-0.2110631691	
743.125	1.684902682	-0.6788944392	
743.75	-0.02069966236	-1.74808903	
744.375	-0.4474638412	0.1951841405	
745.0	-0.1172309764	0.02166707174	
745.625	0.1425260657	-0.1997281565	
746.25	0.078673838	-0.08249621458	
746.875	-0.3812645525	-0.02923828296	
747.5	-0.0595898943	0.3682294787	
748.125	-0.02255097398	0.413536581	
748.75	0.2285554002	0.6846836356	
749.375	0.2194607939	0.4363451442	
750.0	-0.4243651314	0.1555084894	
