!Created with skrf (http://scikit-rf.org).
# GHz S RI R (50+0j) 
!freq	ReS11	ImS11	
500.0	0.0725567289	-1.73548722	
500.625	0.0293704379	-0.5341656346	
501.25	-0.3024160662	-1.322702273	
501.875	-0.4952325155	-0.2976015065	
502.5	0.01464945533	-0.1363440226	
503.125	-0.143229467	0.0225568917	
503.75	0.057587551	0.04651969521	
504.375	0.03638507154	0.0221976169	
505.0	0.003069956864	-0.0522247989	
505.625	0.06068914801	-0.02925171122	
506.25	-0.146466044	-0.125831649	
506.875	0.1040510921	0.02706340241	
507.5	-0.06367759082	-0.7469943016	
508.125	-0.2253991333	-0.3318183061	
508.75	0.7203874803	-0.4222721849	
509.375	0.01164073946	-1.870909117	
510.0	-0.6692394491	-0.03025344187	
510.625	-0.03263602849	-0.2027421099	
511.25	-0.1865537322	-0.05848772635	
511.875	-0.04645811161	-0.0181038615	
512.5	-0.0716269388	0.04486725435	
513.125	-0.05669318003	-0.07363327519	
513.75	-0.0002998511101	-0.01443914212	
514.375	-0.1326718817	-0.1087512162	
515.0	0.1798731461	0.3663017707	
515.625	0.2548261952	-0.8957202774	
516.25	-0.7863263745	-0.3762903983	
516.875	0.1447374105	-0.5515387015	
517.5	-0.04580688863	-0.3306307343	
518.125	0.0138661997	0.04549331463	
518.75	-0.02298558734	-0.2907979869	
519.375	-0.04014921483	0.07422916815	
520.0	0.09412307964	0.06518957827	
520.625	0.2295159031	-0.00449184915	
521.25	-0.1263447815	-0.345167991	
521.875	-0.1127940344	0.01760558377	
522.5	-0.1029670257	-0.02905180498	
523.125	0.0573893301	0.120889484	
523.75	-0.1019030174	-0.1664583055	
524.375	-0.2737121245	0.1721949952	
525.0	0.03592212739	0.00525309267	
525.625	-0.05303146905	0.102096715	
526.25	0.05850811461	-0.07825366192	
526.875	-0.1316862472	0.09425268732	
527.5	0.04101046724	0.128265752	
528.125	-0.04292735891	0.1521597276	
528.75	-0.04868061606	0.3525928064	
529.375	0.1039849921	-0.01405421025	
530.0	0.07363158279	0.07226260442	
530.625	0.2631721255	0.276540262	
531.25	0.3349091951	0.01822321027	
531.875	0.4366512939	-0.1210061717	
532.5	-0.158395675	-0.3311816838	
533.125	0.2199297849	0.001824918582	
533.75	-0.02268193004	-0.2585365759	
534.375	0.04200411101	-0.1891427601	
535.0	-0.2641574475	-0.2326289923	
535.625	-0.1141565621	0.160909963	
536.25	-0.03453546882	0.07245461661	
536.875	0.1411615192	0.02965800817	
537.5	0.03019779134	-0.0589014082	
538.125	0.1577221143	0.003028638955	
538.75	0.1218155003	-0.2057882506	
539.375	-0.05185094081	-0.1043686049	
540.0	-0.1369391966	-0.1764100445	
540.625	-0.2251362483	0.01978548593	
541.25	-0.05127190552	0.03113751546	
541.875	-0.1121564774	-0.06879698712	
542.5	-0.1116790739	0.02615907008	
543.125	-0.05860053743	-0.1140151637	
543.75	-0.1512545836	0.04178127934	
544.375	-0.01696041389	-0.02012995089	
545.0	-0.05072600985	0.1212187257	
545.625	0.06526516908	0.002154445406	
546.25	0.06918361748	0.1068315851	
546.875	0.1854142445	-0.07588854638	
547.5	0.01852002343	-0.07865798155	
548.125	0.00638537806	-0.2106630293	
548.75	-0.1945534517	-0.1129184101	
549.375	-0.06381660074	-0.04257199374	
550.0	-0.1154970041	-0.03423670771	
550.625	-0.02455701684	0.04087374975	
551.25	-0.1047873395	-0.01170464204	
551.875	-0.07734698223	0.1078255539	
552.5	-0.01705659437	0.06117777447	
553.125	-0.02751438267	0.08335352866	
553.75	0.04450066264	0.03848719077	
554.375	0.09995502912	0.01409379901	
555.0	0.1163164003	-0.08297545307	
555.625	0.09000441715	-0.1098592392	
556.25	0.07734044962	-0.1459113764	
556.875	-0.0338330003	-0.1774573592	
557.5	-0.1051888465	-0.1144110051	
558.125	-0.1188728782	-0.04351656919	
558.75	-0.1220483427	-0.01007495584	
559.375	-0.1194976691	0.02819148843	
560.0	-0.09432203745	0.06783042402	
560.625	-0.07492451438	0.126920177	
561.25	0.03127752648	0.1066159058	
561.875	-0.003926363561	0.04145062281	
562.5	0.04548311741	0.07279973098	
563.125	0.03460113831	0.0660260525	
563.75	0.1894263527	0.02974058758	
564.375	0.1082191132	-0.1344894137	
565.0	0.07805618476	-0.09022697751	
565.625	-0.03670646763	-0.2234664895	
566.25	-0.1173242826	-0.06259567492	
566.875	-0.07418682297	-0.1399116107	
567.5	-0.2107337242	-0.1179625091	
568.125	-0.08202346227	-0.05460036681	
568.75	-0.2457190228	-0.1744498404	
569.375	-0.2546925216	0.1815825666	
570.0	-0.1009738056	0.1373403738	
570.625	-0.1482513145	0.2306651121	
571.25	0.09442340024	0.1193841449	
571.875	-0.03803398412	0.1164962173	
572.5	0.2077519089	-0.0473179122	
573.125	-0.01006009744	-0.04168948729	
573.75	0.1545858243	-0.08757343031	
574.375	-0.06723144563	-0.1560449579	
575.0	0.05121086857	0.05798493102	
575.625	0.05267486806	-0.1728480377	
576.25	-0.0255051902	-0.06052812346	
576.875	0.1044336704	-0.1582576911	
577.5	-0.04539053284	-0.2740022838	
578.125	-0.073090318	-0.07566840469	
578.75	0.009732571898	-0.1706051224	
579.375	-0.2446910378	-0.1496942584	
580.0	0.0234722811	0.04584780429	
580.625	-0.2230624416	-0.141197541	
581.25	-0.02138147338	0.1594863901	
581.875	-0.07451120607	0.07538993577	
582.5	0.04010298899	0.2628168581	
583.125	0.1509322728	-0.04915542555	
583.75	-0.06506846295	0.0770157754	
584.375	0.1382468053	0.03386063757	
585.0	-0.005004839874	0.06160703845	
585.625	0.294543826	0.04005742021	
586.25	0.1231949227	-0.1599900274	
586.875	0.0914589735	-0.0439039934	
587.5	0.01829341787	-0.2406975422	
588.125	-0.1019004513	-0.09703381815	
588.75	0.1270988991	-0.0980786272	
589.375	0.05424869519	-0.2607887764	
590.0	-0.08111595672	-0.07735206711	
590.625	-0.1539430674	-0.1995987644	
591.25	-0.1788334926	0.2277364803	
591.875	0.02820212825	0.03828144532	
592.5	-0.0999964059	0.1473270728	
593.125	0.04987137345	-0.06816783334	
593.75	-0.03820506153	0.205949807	
594.375	0.2670123464	0.07336882377	
595.0	0.09499089778	0.04049271647	
595.625	0.2244668957	0.1727516979	
596.25	0.237309728	-0.02971408393	
596.875	0.05977847168	0.04059943542	
597.5	0.2343590221	0.1460054423	
598.125	0.1510482461	0.05090069631	
598.75	0.1059824288	0.1287417509	
599.375	0.3136297	-0.02890559921	
600.0	0.09323629533	-0.188752293	
600.625	0.1506088516	-0.1079883603	
601.25	0.1089330662	-0.2822169969	
601.875	-0.1430640055	-0.08378791525	
602.5	-0.05136652366	-0.1189352092	
603.125	-0.1994222622	0.1699050735	
603.75	-0.002453996596	0.03483679204	
604.375	-0.1844442254	-0.002235013008	
605.0	0.01319169145	0.1819699734	
605.625	-0.01125112919	-0.04206713474	
606.25	-0.08528897235	0.1906069601	
606.875	-0.07091294175	0.1291657828	
607.5	-0.2206965536	0.07440642776	
608.125	-0.04828921447	0.3811502352	
608.75	0.1989204841	0.09253047649	
609.375	0.2241619403	0.08433770795	
610.0	0.2227181983	-0.1473613837	
610.625	-0.01881450766	-0.1409614979	
611.25	0.06347531547	-0.07538417083	
611.875	-0.2090943965	-0.1523161323	
612.5	-0.05302268925	-0.03203377241	
613.125	-0.2873984168	-0.0619473491	
613.75	-0.03466146868	0.2811144942	
614.375	-0.02959877416	-0.001865956317	
615.0	0.08288654216	0.1749975137	
615.625	-0.0009156048338	-0.02844198264	
616.25	-0.1697498582	0.1520965198	
616.875	0.004399477723	0.2572728153	
617.5	0.02087592017	0.1134167548	
618.125	-0.09554932308	0.2488036075	
618.75	0.07242556948	0.231878008	
619.375	0.07324588828	0.09944328652	
620.0	0.2415875707	0.1856602489	
620.625	0.0736232801	-0.2430868544	
621.25	-0.1186473653	-0.103756537	
621.875	-0.2489920676	-0.1853709587	
622.5	-0.2358720133	0.1611843505	
623.125	0.004964336814	0.08544807597	
623.75	0.1584348202	0.1556182658	
624.375	-0.01625637729	-0.1311878311	
625.0	0.09983551085	0.04711844937	
625.625	0.02492562139	-0.1818611667	
626.25	-0.01305865223	-0.05087982622	
626.875	-0.1381254007	-0.151121198	
627.5	-0.2189794145	0.01481885164	
628.125	-0.03054138327	-0.03600049853	
628.75	-0.0789313138	-0.238916881	
629.375	-0.1354449231	-0.2073968118	
630.0	-0.1291641741	-0.1459975319	
630.625	-0.3180093547	0.05718995781	
631.25	-0.09572708359	0.2393714312	
631.875	0.02321625219	0.09570523246	
632.5	0.1645756734	0.2943315528	
633.125	0.2135761513	-0.01273889648	
633.75	0.1205687558	0.01571358652	
634.375	0.1790665551	-0.2282985703	
635.0	-0.07748984635	-0.06815880076	
635.625	-0.08925282152	-0.1931208516	
636.25	-0.2404174711	0.1544575583	
636.875	-0.002961462697	0.07747177913	
637.5	-0.1581494545	0.05458113965	
638.125	0.02886437446	0.1503904095	
638.75	-0.1469806495	0.07582520221	
639.375	-0.04085465474	0.3767812542	
640.0	0.2202020038	0.2274642716	
640.625	0.1254886538	0.1718776968	
641.25	0.4112120039	0.07354639811	
641.875	0.1139022518	-0.2751949986	
642.5	-0.001359601997	-0.01201495278	
643.125	-0.1702710579	-0.2581784668	
643.75	-0.06935598717	0.05658044491	
644.375	-0.2272961754	-0.1502868336	
645.0	-0.2652565016	0.4191739699	
645.625	0.09851829255	0.09188616559	
646.25	0.1002312965	0.2394717852	
646.875	0.2858148387	-0.1672977961	
647.5	-0.1415634843	0.1219473612	
648.125	0.3187474484	0.0591282401	
648.75	0.149511013	-0.147509501	
649.375	0.3069486434	-0.02387670769	
650.0	0.2389960413	-0.5225032396	
650.625	-0.04782716812	-0.2051086654	
651.25	0.3451538645	-0.1100600659	
651.875	0.3748338149	-0.315464011	
652.5	0.1128073973	-0.08922443916	
653.125	0.3372437426	0.1087364209	
653.75	0.2436281273	-0.378511922	
654.375	-0.08675744583	-0.165630071	
655.0	-0.1529703006	-0.3590829137	
655.625	-0.221559225	0.3698565954	
656.25	0.07406777126	0.03987721737	
656.875	-0.1008537966	0.2620161827	
657.5	0.1295848362	-0.006714724105	
658.125	-0.137646488	0.3116204479	
658.75	0.5023976001	0.1291972558	
659.375	0.2339304514	-0.1904554615	
660.0	0.31487267	-0.1482551628	
660.625	0.2649603438	-0.5013691536	
661.25	0.005420330627	-0.2960600834	
661.875	0.3404402676	-0.126531734	
662.5	0.3532596442	-0.3142382416	
663.125	0.135555817	-0.1753819037	
663.75	0.3061380722	-0.1898806053	
664.375	-0.09655490943	-0.462340382	
665.0	-0.2076818696	-0.1360357871	
665.625	-0.3834210668	-0.05013076025	
666.25	-0.1125820357	0.3933781248	
666.875	0.09636657897	0.08334312471	
667.5	0.1728561607	0.271329329	
668.125	0.2656408353	-0.1260418695	
668.75	0.1297723824	-0.04292953942	
669.375	0.320768854	-0.2968811174	
670.0	-0.1273192009	-0.2583374147	
670.625	0.1678943007	-0.1027281878	
671.25	0.1313935015	-0.2928250816	
671.875	0.02511491017	-0.1899717799	
672.5	0.2413776748	-0.00451008272	
673.125	0.2705672568	-0.3366713302	
673.75	0.07160856959	-0.187318741	
674.375	0.1850530005	-0.2231580903	
675.0	-0.1234451826	-0.3964378421	
675.625	-0.1375362227	-0.004632589965	
676.25	-0.1350386421	-0.1871032742	
676.875	-0.2602640487	0.0630452804	
677.5	-0.03212236107	0.02784780708	
678.125	-0.331854772	0.0336934274	
678.75	0.1519815409	0.3335212843	
679.375	0.05521042092	0.03351471148	
680.0	0.2854212485	0.02364250085	
680.625	-0.06475623318	-0.348224	
681.25	-0.001869404632	0.19346852	
681.875	0.3515593889	0.03618399836	
682.5	-0.01135787102	-0.02311607475	
683.125	0.1257765189	0.233086135	
683.75	0.5075402489	-0.04544560914	
684.375	0.1001449654	-0.1409181981	
685.0	0.2672821956	0.2932875535	
685.625	0.454392867	-0.06969580181	
686.25	0.1535591224	-0.0177683721	
686.875	0.5098343654	0.08153647825	
687.5	0.2176252803	-0.5147836066	
688.125	0.07868513908	-0.2562102652	
688.75	-0.3848033037	-0.3994515076	
689.375	-0.362941679	0.4812416984	
690.0	0.01527677157	0.1555593637	
690.625	0.2330135667	0.5542858442	
691.25	0.4223764054	0.06057134027	
691.875	0.2137696968	0.4322676187	
692.5	0.8277997235	0.4221240353	
693.125	0.4534507917	-0.2162702617	
693.75	0.5635928789	-0.0086378766	
694.375	0.4628682534	-0.6907515183	
695.0	0.3294415532	-0.4332069259	
695.625	0.3799821872	0.1775833177	
696.25	0.6854985503	0.2171524156	
696.875	0.3338140936	0.3302134684	
697.5	0.3810618255	0.4212593555	
698.125	0.7451164058	0.4371877863	
698.75	0.4065448741	-0.4158273011	
699.375	-0.2034195824	-0.4165534144	
700.0	-0.464370156	0.4444355665	
700.625	0.1969715513	0.1930182858	
701.25	0.05115045896	0.326727891	
701.875	0.4977938953	0.2859360924	
702.5	0.2027582826	0.1304573625	
703.125	0.4243059886	0.3220893212	
703.75	0.4762051779	-0.2416465702	
704.375	0.1222744954	-0.1236637635	
705.0	0.3381533587	-0.25423535	
705.625	0.2878757356	-0.150368826	
706.25	0.0885264018	0.1637010821	
706.875	0.2338737975	0.5258216735	
707.5	0.2302733635	0.4206633431	
708.125	0.2925433907	0.2634347727	
708.75	0.5353800769	-0.3235160482	
709.375	-0.372703014	-0.3669610613	
710.0	-0.06628420812	0.1551450094	
710.625	-0.150356987	0.3815174399	
711.25	0.04997859525	-0.02941708589	
711.875	0.1626186406	0.2824864176	
712.5	0.5045348846	-0.05301634875	
713.125	0.1461813882	-0.1598937067	
713.75	0.2991054299	-0.1711807955	
714.375	0.005289405248	-0.3577867048	
715.0	-0.0582714083	-0.1058591198	
715.625	0.1261691401	-0.2338718634	
716.25	0.07679054241	-0.3850308574	
716.875	0.2248134425	-0.04560433245	
717.5	0.6919297473	0.1607751618	
718.125	0.7767980563	-0.005237875717	
718.75	0.4829544896	0.2129280781	
719.375	1.228967397	-0.3613592659	
720.0	0.4969198733	-1.163091884	
720.625	0.5759336551	-0.5068527844	
721.25	0.2598776738	-1.529945448	
721.875	-0.4511473975	-0.7177927287	
722.5	-0.1420937566	-0.9793932903	
723.125	-1.255833504	-0.4745239383	
723.75	-0.3212230197	0.4894481621	
724.375	-0.2180023522	0.3212445948	
725.0	0.3115787452	0.6531434309	
725.625	0.1556993095	0.2353895991	
726.25	-0.2682912202	0.7114022541	
726.875	-0.03393361757	1.251458484	
727.5	0.1497069288	1.064949126	
728.125	-1.031634745	1.844596632	
728.75	-0.3107576124	3.934056647	
729.375	0.09717099665	2.697796876	
730.0	-2.442708797	3.701082292	
730.625	-0.2125586299	6.045075986	
731.25	-0.6522662633	1.965058591	
731.875	-4.586137578	0.3068136267	
732.5	-4.319863496	1.394128188	
733.125	-1.343251932	-0.0821727474	
733.75	-1.870976725	1.068482977	
734.375	1.122296725	0.4881596027	
735.0	0.05394982158	-0.3343153336	
735.625	-0.7310497699	-0.3190920255	
736.25	0.288446332	0.7262889922	
736.875	-0.1447449339	0.5003979912	
737.5	1.450317334	0.6709529383	
738.125	1.528896421	-0.9326749025	
738.75	0.9434734098	-0.3628465792	
739.375	4.841479528	-0.08859442528	
740.0	2.739125826	-4.198434798	
740.625	-0.2591902162	1.54595983	
741.25	0.8809731584	6.62526913	
741.875	0.7411684986	2.878973028	
742.5	0.2832914101	-4.007863214	
743.125	-0.6055484974	-2.608467165	
743.75	-0.3969483747	-0.5332425361	
744.375	0.1012983413	-0.615614074	
745.0	0.1093910011	0.3242584023	
745.625	-0.0003147099322	0.0791857399	
746.25	0.01927402605	-0.2465658545	
746.875	-0.1888098506	0.09172932771	
747.5	-0.1964937159	0.2126706636	
748.125	0.06259757194	0.7078832628	
748.75	0.3074400219	0.3750469782	
749.375	-0.008266976835	0.4661640235	
750.0	-0.3956057191	0.3412555758	
