!Created with skrf (http://scikit-rf.org).
# GHz S RI R (50+0j) 
!freq	ReS11	ImS11	
500.0	-0.1170533414	-1.295993426	
500.625	0.6851824539	-0.517705401	
501.25	-0.5293243255	-1.216664824	
501.875	-0.3314050679	-0.1310985774	
502.5	0.02254452609	-0.164945665	
503.125	-0.1028600203	0.0536157126	
503.75	-0.008244046789	0.02241001128	
504.375	0.05976116193	0.002697773016	
505.0	-0.01562824139	-0.02382752123	
505.625	0.05824668219	-0.07442401505	
506.25	-0.1610968188	-0.05386546117	
506.875	0.02225502138	-0.2235988382	
507.5	-0.3514033124	-0.6169227676	
508.125	0.02543127335	-0.2651522253	
508.75	1.034089156	-1.119461439	
509.375	-0.08972002379	-1.650578141	
510.0	-0.266978959	-0.02169994294	
510.625	-0.07547238084	-0.3453612768	
511.25	-0.0966276202	0.02203394202	
511.875	-0.05199740432	-0.06720677006	
512.5	-0.04982709379	0.06145632689	
513.125	-0.04175700573	-0.03725445305	
513.75	0.01844777279	-0.08720446085	
514.375	-0.1694808067	-0.01857501525	
515.0	0.2907413178	0.1176492273	
515.625	-0.2977687389	-0.674202931	
516.25	0.2109939316	-0.1464479093	
516.875	0.1326296728	-0.6717197048	
517.5	-0.1865518871	-0.2609669663	
518.125	0.0560426326	0.01149362563	
518.75	-0.1712804499	-0.1174443454	
519.375	-0.01842282316	0.03886324861	
520.0	0.09318262806	0.09581572793	
520.625	0.240940888	-0.07711648415	
521.25	0.01287592046	-0.2899006774	
521.875	-0.04631038969	-0.0818515298	
522.5	-0.1471890422	0.05413932781	
523.125	0.0852931327	-0.03086273721	
523.75	-0.1931242165	-0.1286511074	
524.375	-0.1195313249	0.1855145789	
525.0	-0.07883266753	-0.013419764	
525.625	0.02829334932	0.1577705629	
526.25	-0.06079385625	-0.09736606883	
526.875	-0.05674154881	0.1376591618	
527.5	-0.01256476381	0.0818588517	
528.125	-0.1027288781	0.2728961309	
528.75	0.07741662616	0.1341524493	
529.375	-0.001108838214	-0.01952773565	
530.0	0.03127103812	0.2322032268	
530.625	0.1405352495	0.2954610219	
531.25	0.2726475665	0.3171766397	
531.875	0.3812873437	-0.2828742976	
532.5	-0.1885406529	-0.08967234005	
533.125	0.1967766823	-0.1732294143	
533.75	-0.06263751506	-0.2080177032	
534.375	0.07286348661	-0.3152550226	
535.0	-0.3482362567	-0.1269973205	
535.625	-0.09864352968	0.08325392444	
536.25	-0.04426044848	0.1017937599	
536.875	0.1340041434	-0.009104573476	
537.5	0.03178097257	-0.01345855172	
538.125	0.1859452364	-0.06932312197	
538.75	0.08117752044	-0.1492189627	
539.375	-0.007026711823	-0.1557342689	
540.0	-0.1855610723	-0.2016430701	
540.625	-0.182728302	0.01314499251	
541.25	-0.0468277515	-0.05995810927	
541.875	-0.123935654	0.0001405178328	
542.5	0.0008280817926	-0.01623396131	
543.125	-0.1008039801	-0.1200981267	
543.75	-0.07566728436	0.08073456078	
544.375	-0.07366730941	-0.01623908686	
545.0	0.03215972739	0.1103074574	
545.625	5.113359573e-05	0.02587231569	
546.25	0.1253697448	0.1288201974	
546.875	0.105007728	-0.08264011819	
547.5	0.08654052803	-0.0600992487	
548.125	-0.03547464356	-0.2401114693	
548.75	-0.1428809062	-0.05835611616	
549.375	-0.05764247932	-0.09836079872	
550.0	-0.1318566841	0.01740099213	
550.625	-0.00749682843	-0.003267058701	
551.25	-0.1190160613	0.01402449895	
551.875	-0.04637223673	0.08797966029	
552.5	-0.05534866356	0.04814479436	
553.125	-0.009882145231	0.08607869158	
553.75	0.03644695655	0.03802633137	
554.375	0.1089113893	0.009505954026	
555.0	0.1035519871	-0.08271525271	
555.625	0.09887783669	-0.1058158466	
556.25	0.08131977226	-0.1485869191	
556.875	-0.03440576059	-0.1724828852	
557.5	-0.1007828077	-0.1124356497	
558.125	-0.1205646629	-0.05128271087	
558.75	-0.1251985219	-0.006161578245	
559.375	-0.1120025031	0.02392715435	
560.0	-0.1116287496	0.06442844112	
560.625	-0.05961047016	0.13552072	
561.25	0.02589790713	0.0784760672	
561.875	0.006337566526	0.07272668123	
562.5	0.03524921139	0.03178376191	
563.125	0.04004477165	0.106157708	
563.75	0.1965370128	-8.367535613e-05	
564.375	0.09469085085	-0.09298050017	
565.0	0.1367425232	-0.1192379803	
565.625	-0.0773375083	-0.1885041761	
566.25	-0.07146462024	-0.04295378792	
566.875	-0.1553713345	-0.1471311197	
567.5	-0.174276287	-0.0595837541	
568.125	-0.05195317155	-0.1689015067	
568.75	-0.325698497	-0.1229574323	
569.375	-0.1714501554	0.1354877054	
570.0	-0.1795724144	0.1329805506	
570.625	-0.07041134801	0.275634268	
571.25	0.04853214774	0.02300442179	
571.875	0.0366070419	0.1661709643	
572.5	0.1307671713	-0.08491142617	
573.125	0.09223944717	-0.002220404304	
573.75	0.1242146763	-0.2046342196	
574.375	-0.08423584773	-0.05836090796	
575.0	0.1245414437	-0.01077542176	
575.625	-0.03026004871	-0.1355554234	
576.25	0.03410359335	-0.005479152914	
576.875	0.05244053044	-0.2303096088	
577.5	-0.09049505776	-0.1694560371	
578.125	0.01935974416	-0.09946207626	
578.75	-0.04406683674	-0.2752745675	
579.375	-0.1853075594	0.003715373776	
580.0	0.04850543001	-0.06613645823	
580.625	-0.2087315548	0.009271219698	
581.25	0.03298844046	0.003924758893	
581.875	-0.1316802218	0.2083190624	
582.5	0.1552138045	0.2225190337	
583.125	0.02460397182	-0.03901762865	
583.75	0.02611841442	0.1355995262	
584.375	0.05553555931	-0.07457136609	
585.0	0.04155172649	0.1642367109	
585.625	0.2574401499	-0.07193859002	
586.25	0.05435812836	-0.06355600193	
586.875	0.1786583133	-0.1035226851	
587.5	-0.07995341673	-0.2189332299	
588.125	-0.003826174996	-0.04715775858	
588.75	0.1236017271	-0.199914686	
589.375	-0.02488264738	-0.226667688	
590.0	0.01900411617	-0.1020668358	
590.625	-0.2903020492	-0.1465721769	
591.25	-0.06555970524	0.1758090071	
591.875	-0.1236381354	-0.01789615287	
592.5	0.007424848067	0.1680844148	
593.125	-0.06829688515	-0.06359631872	
593.75	0.07865472188	0.2428751481	
594.375	0.09402822214	-0.02244306874	
595.0	0.07911338641	0.1474976941	
595.625	0.2678352342	0.1353593189	
596.25	0.1467487673	-0.05834829105	
596.875	0.1641141577	0.1473678252	
597.5	0.2513838953	0.08072274447	
598.125	0.09628442195	0.07947643027	
598.75	0.1899229762	0.1682983903	
599.375	0.2566180409	-0.0948208982	
600.0	0.1079801963	-0.09255812041	
600.625	0.2180000746	-0.1616532394	
601.25	0.02097673051	-0.2793531344	
601.875	-0.05964384884	-0.01760228518	
602.5	-0.1778373968	-0.1328086001	
603.125	-0.0847845479	0.1445715518	
603.75	-0.07161642353	-0.02513636097	
604.375	-0.2235335511	0.1543461119	
605.0	0.03841913998	0.1257402133	
605.625	-0.1610407112	-0.03410116411	
606.25	-0.04145160975	0.1433899485	
606.875	-0.1427543016	-0.003440924215	
607.5	-0.1871021785	0.2385782184	
608.125	0.07091136775	0.3254221728	
608.75	0.07882190323	0.1215351586	
609.375	0.2785428425	0.002301159085	
610.0	0.1523407058	-0.2210935154	
610.625	0.06770100867	-0.05089501214	
611.25	0.08479834547	-0.2198012967	
611.875	-0.1671741043	-0.06592499779	
612.5	-0.05081506094	-0.1314923114	
613.125	-0.3284854498	0.0504246125	
613.75	0.04463062019	0.1585508695	
614.375	-0.08679865122	0.1115073167	
615.0	0.1642936556	0.005359589185	
615.625	-0.0863404348	-0.01810667689	
616.25	-0.1125739359	0.2657117492	
616.875	0.04479328589	0.1881277076	
617.5	-0.1121512697	0.320128965	
618.125	-0.06114846286	0.3321773272	
618.75	0.1384961301	0.1670827944	
619.375	-0.03909283508	0.1559747975	
620.0	0.1478881478	0.2086566809	
620.625	0.04762233423	-0.1456731085	
621.25	-0.007538907847	-0.1497864529	
621.875	-0.3160328604	-0.1110885825	
622.5	-0.1630594716	0.2140724906	
623.125	-0.1429106615	0.1538011214	
623.75	0.2338530726	0.05537094432	
624.375	-0.04914638266	-0.03906107595	
625.0	0.1466169672	-0.02481616847	
625.625	-0.04263774207	-0.09452814538	
626.25	0.04874154412	-0.1328734601	
626.875	-0.2049258361	-0.1361051995	
627.5	-0.1385322054	0.02306965783	
628.125	-0.07890182842	-0.1087556938	
628.75	-0.1656103106	-0.1535451904	
629.375	-0.1004137975	-0.1298202726	
630.0	-0.1868417292	-0.2039335269	
630.625	-0.3051027349	0.0851434187	
631.25	-0.09322580073	0.1289976694	
631.875	-0.1392626008	0.1875265725	
632.5	0.2191177561	0.284742146	
633.125	0.1428953011	-0.04668546222	
633.75	0.2200577919	0.02191028956	
634.375	0.02554863328	-0.2461135684	
635.0	0.05420170862	-0.07725459597	
635.625	-0.1953400548	-0.2253633596	
636.25	-0.1323170796	0.1439619674	
636.875	-0.08098561195	0.02770697436	
637.5	-0.1284082129	0.2002885043	
638.125	0.0144915084	0.0199905402	
638.75	-0.2086279093	0.1696469294	
639.375	0.0648589562	0.3411583845	
640.0	0.1166226973	0.1549883805	
640.625	0.2040249997	0.2981441074	
641.25	0.4288075638	0.03250713789	
641.875	0.09482235834	-0.1474655874	
642.5	0.1588092774	-0.1635844735	
643.125	-0.2809909807	-0.20688948	
643.75	0.06157952258	0.01265258726	
644.375	-0.2989101114	-0.08688775606	
645.0	-0.02720261387	0.340549683	
645.625	-0.08341566314	0.1370987491	
646.25	0.3799969025	0.3494197219	
646.875	0.04952336827	-0.1738353331	
647.5	0.05858551291	0.1937581749	
648.125	0.2279222657	-0.06740754501	
648.75	0.08529293881	0.02290371603	
649.375	0.4463757666	-0.2496092812	
650.0	0.04501336487	-0.4126048121	
650.625	0.1448875133	-0.10135969	
651.25	0.4107992866	-0.2695316558	
651.875	0.1582617611	-0.3119716779	
652.5	0.2225572069	0.07767258824	
653.125	0.477555985	-0.08282288129	
653.75	0.1011312418	-0.3398369245	
654.375	0.1017159282	-0.2176837405	
655.0	-0.4411781594	-0.2761348186	
655.625	-0.08421774737	0.2441121053	
656.25	-0.1071798242	-0.01331902036	
656.875	0.1185256859	0.233803539	
657.5	-0.03825258998	-0.05844296094	
658.125	0.1701086465	0.4504160767	
658.75	0.3703656724	-0.02709549127	
659.375	0.2150621876	0.00806996946	
660.0	0.4417109654	-0.2626036497	
660.625	0.02059693763	-0.4698140253	
661.25	0.1587544901	-0.1443885734	
661.875	0.4052177506	-0.3126195916	
662.5	0.236534806	-0.3144398203	
663.125	0.2064394178	-0.04960479662	
663.75	0.3298176959	-0.3575486264	
664.375	-0.1451396197	-0.3049526738	
665.0	-0.1399128867	-0.2619844954	
665.625	-0.4616999812	0.0493467675	
666.25	0.01797108614	0.3576573546	
666.875	-0.02084218992	0.1910151076	
667.5	0.2868600266	0.1624149455	
668.125	0.1507541004	-0.07540188196	
668.75	0.2926772015	0.07395857302	
669.375	0.1291779135	-0.3702300411	
670.0	-0.03171115326	-0.1301402338	
670.625	0.1472903197	-0.23325796	
671.25	-0.019846851	-0.2965777285	
671.875	0.08582560442	-0.03565559345	
672.5	0.3852606703	-0.1444695884	
673.125	0.1365056626	-0.2506526599	
673.75	0.1797956518	-0.1143925205	
674.375	0.1999661747	-0.3206928187	
675.0	-0.2137317518	-0.2600144208	
675.625	-0.03492076795	-0.1385367823	
676.25	-0.2977740582	-0.09915544107	
676.875	-0.1482407497	0.1192207002	
677.5	-0.1017364571	-0.1227337262	
678.125	-0.290112966	0.2502724511	
678.75	0.1336947607	0.1319905738	
679.375	0.07262274675	0.2229140704	
680.0	0.3394174497	-0.1417282239	
680.625	-0.2199256602	-0.07705663878	
681.25	0.230623779	0.1296786081	
681.875	0.0746804445	-0.2661518098	
682.5	0.0061306452	0.1020988635	
683.125	0.3546517527	0.292619515	
683.75	0.292355132	-0.1742712668	
684.375	0.134582876	0.2550826999	
685.0	0.4132006399	0.02216451418	
685.625	0.3174321779	-0.1519454929	
686.25	0.211610386	0.1876176285	
686.875	0.5831324705	-0.235884476	
687.5	0.1745360507	-0.2607280511	
688.125	0.2140148934	-0.4038988367	
688.75	-0.5386259501	-0.362811185	
689.375	-0.1356734368	0.3452107401	
690.0	-0.1789904818	0.3249138854	
690.625	0.4252028469	0.3480913995	
691.25	0.1831978797	0.1267414812	
691.875	0.3871735124	0.5937667967	
692.5	0.7967776168	-0.1041667767	
693.125	0.461193679	0.02707492423	
693.75	0.7782239314	-0.06757149948	
694.375	0.3011590422	-0.5641638235	
695.0	0.2465086229	-0.1615175233	
695.625	0.6833746829	-0.3012876388	
696.25	0.5510742737	0.01080545688	
696.875	0.205703688	0.3582797051	
697.5	0.3252391912	0.6673713046	
698.125	0.6297159804	0.2608154851	
698.75	0.4432803189	-0.1211055686	
699.375	-0.2388806726	-0.5992145688	
700.0	-0.314575457	0.4640870936	
700.625	0.07833851363	0.1196605165	
701.25	0.3100312463	0.4230855388	
701.875	0.3091415918	0.06100335431	
702.5	0.1946207817	0.3564400079	
703.125	0.6294547643	0.1776330852	
703.75	0.3133710927	-0.2415581498	
704.375	0.3006315782	0.005106528948	
705.0	0.2847844376	-0.2568449771	
705.625	0.1454683804	-0.0839346404	
706.25	0.2946519233	0.214059951	
706.875	0.4180041141	0.3400661714	
707.5	0.225920101	0.2955527871	
708.125	0.422550672	0.3685160325	
708.75	0.6428530924	-0.1809274817	
709.375	-0.2339594124	-0.1977670081	
710.0	-0.374326837	0.02025855113	
710.625	0.1756291368	0.2846152897	
711.25	-0.09026494583	-0.1084057715	
711.875	0.2886789606	0.2705946339	
712.5	0.3213040929	-0.1762825842	
713.125	0.2608199182	0.006896159981	
713.75	0.2628809621	-0.3228516687	
714.375	-0.0832078632	-0.2458347323	
715.0	0.0946146119	-0.1294755837	
715.625	0.03088109001	-0.3596184581	
716.25	0.04326413552	-0.1947793568	
716.875	0.3948300384	-0.012772305	
717.5	0.7385280803	-0.1094670673	
718.125	0.4204237541	-0.05822184673	
718.75	0.9265713968	0.390911169	
719.375	1.236524669	-0.2537089912	
720.0	0.3099587303	-0.4601060205	
720.625	0.9553059184	-1.030065898	
721.25	-0.413025822	-1.162315605	
721.875	-0.05292372956	-0.2166137018	
722.5	-0.4136715694	-1.198009254	
723.125	-1.070765737	-0.08348256781	
723.75	-0.2933680079	0.2135782278	
724.375	-0.3307535415	0.6574895963	
725.0	0.3616378273	0.3130851029	
725.625	-0.04509634692	0.4001009968	
726.25	-0.06154411459	0.9400634208	
726.875	0.1919717899	0.9860230232	
727.5	-0.5537225119	0.9437313554	
728.125	-0.4289391355	2.556482721	
728.75	0.7147604074	2.847040176	
729.375	-1.866099369	1.925666741	
730.0	-2.022344648	5.192822544	
730.625	1.338899362	3.490360206	
731.25	-2.591827396	2.599375291	
731.875	-4.655656683	3.167877553	
732.5	-2.684818355	2.629088365	
733.125	-1.543638692	-1.999833322	
733.75	-1.373715877	1.765454513	
734.375	0.7518743048	0.2803217336	
735.0	0.6089761141	-0.1938027466	
735.625	-0.8933345726	0.1577373757	
736.25	-1.456709802e-05	0.1938876088	
736.875	0.1499569859	0.9307543467	
737.5	1.474945089	0.07668891668	
738.125	0.8343109377	-0.5677403206	
738.75	2.42908104	0.1139716583	
739.375	3.386344219	-3.082412218	
740.0	0.1728773398	-1.905628792	
740.625	2.446252548	4.171137191	
741.25	4.690351032	3.151004947	
741.875	0.08065106608	-2.82706583	
742.5	-1.177069433	-5.244277886	
743.125	-1.375412287	-2.442162164	
743.75	0.4461336928	-0.3766057806	
744.375	-0.7438334981	-0.6737994672	
745.0	0.2232764923	0.04590336604	
745.625	0.09822337685	0.1687185271	
746.25	-0.08872855765	-0.1828515704	
746.875	-0.141823011	-0.03826886185	
747.5	-0.2633840674	0.3837531644	
748.125	0.2168532399	0.5550225562	
748.75	0.1653098232	0.3959896269	
749.375	-0.01872456657	0.5803347717	
750.0	-0.3550089873	0.382578889	
