!Created with skrf (http://scikit-rf.org).
# GHz S RI R (50+0j) 
!freq	ReS11	ImS11	
500.0	0.8003433926	-0.9755892256	
500.625	-0.1762452753	-1.484698649	
501.25	0.01395026834	-0.4589007567	
501.875	-0.3927552977	-0.8495679565	
502.5	-0.08500943173	-0.06636259277	
503.125	-0.07131191229	-0.03860427173	
503.75	0.04480280204	0.1241567373	
504.375	0.0004337243153	-0.002189932657	
505.0	0.05049673342	-0.05315168161	
505.625	-0.04174398456	-0.01490095441	
506.25	0.02304703916	-0.138753816	
506.875	-0.1432715029	0.2588276652	
507.5	0.2878389497	-0.5824210334	
508.125	0.1460423235	-1.051915304	
508.75	0.1050987149	-0.7045838863	
509.375	0.4368675162	-1.117027739	
510.0	-0.7825569926	-0.3584145887	
510.625	-0.104408311	-0.09149942226	
511.25	-0.1735432809	-0.1685039577	
511.875	-0.1632001206	-0.04301380104	
512.5	-0.05346128687	-0.002785000681	
513.125	0.02070616134	-0.1057395297	
513.75	-0.08466383035	0.01798831979	
514.375	0.04354387627	-0.08938067899	
515.0	-0.2959413618	-0.0662874741	
515.625	0.5063967888	-0.2257454472	
516.25	-0.7081978033	-0.7437352705	
516.875	-0.2334700559	-0.08557226025	
517.5	0.01959727382	-0.3275889141	
518.125	-0.1112340747	-0.01033886775	
518.75	0.0867606487	-0.1210092789	
519.375	-0.06703899114	0.0591378879	
520.0	0.1250986015	0.01490135786	
520.625	0.1102644659	0.0034004304	
521.25	0.04758622083	-0.3354596427	
521.875	-0.19351312	0.04918608198	
522.5	-0.0002320518244	-0.01438033451	
523.125	-0.1470020253	0.1243728693	
523.75	0.02150047248	0.03914033221	
524.375	-0.2889290234	-0.1047360998	
525.0	0.07650701504	0.2442836892	
525.625	-0.01670548141	-0.03737112759	
526.25	0.03335672806	0.05978054235	
526.875	-0.1214750079	0.01071126226	
527.5	-0.08074882263	0.3275322913	
528.125	0.1855555639	0.1585062949	
528.75	-0.0530463059	0.2519807775	
529.375	0.05799519554	0.04777774857	
530.0	-0.07012284135	0.03515610516	
530.625	0.07772153037	0.3962463578	
531.25	0.4512159739	-0.09096683019	
531.875	0.07391541942	-0.2039389738	
532.5	-0.03181728887	-0.2438073179	
533.125	-0.009780017552	0.1277567636	
533.75	0.2361181566	-0.2862054342	
534.375	-0.2077599294	-0.2449155454	
535.0	-0.1477293595	-0.1847512999	
535.625	-0.2396713444	0.145637284	
536.25	0.0284929462	0.07150363517	
536.875	0.07733122015	0.05736354003	
537.5	0.08769732429	-0.08430762605	
538.125	0.05723232811	-0.03598592469	
538.75	0.2174486603	-0.1138980419	
539.375	-0.09347928957	-0.1751997376	
540.0	-0.0914236698	-0.1226317992	
540.625	-0.1979752031	-0.09076177174	
541.25	-0.09817324726	0.07389492148	
541.875	0.0291041125	0.03678661842	
542.5	-0.1012304749	-0.05433028177	
543.125	-0.01194228209	-0.024138534	
543.75	-0.1450300233	-0.05903787003	
544.375	-0.01574013918	0.135733107	
545.0	-0.06044735161	0.03919987159	
545.625	0.1136006936	0.08679659169	
546.25	0.04804296841	-0.02235403768	
546.875	0.1694092688	0.03499785776	
547.5	0.03055535257	-0.1770407215	
548.125	-0.01230537737	-0.1159745555	
548.75	-0.1333213563	-0.180296168	
549.375	-0.1684688415	-0.03177303362	
550.0	-0.03811483146	-0.02862640347	
550.625	-0.09711957543	0.03819399475	
551.25	-0.04692253789	0.02408069054	
551.875	-0.1091923113	0.05471671756	
552.5	-0.02375621898	0.09365500657	
553.125	-0.03503038079	0.05323345813	
553.75	0.06099048994	0.05478817164	
554.375	0.09017396835	-0.007891719627	
555.0	0.1151555119	-0.07037765038	
555.625	0.09615819297	-0.1175567801	
556.25	0.06823175371	-0.1445476668	
556.875	-0.03103885843	-0.1696815291	
557.5	-0.1048863151	-0.1151172702	
558.125	-0.1247930883	-0.04051365068	
558.75	-0.1107705665	-0.006623539664	
559.375	-0.1285680848	0.01639732684	
560.0	-0.09548084811	0.09066349476	
560.625	-0.06206038145	0.09690965341	
561.25	-0.004719430676	0.1357446043	
561.875	0.04667603739	0.01727359067	
562.5	-0.01373442859	0.09107748058	
563.125	0.09562692103	0.04385837481	
563.75	0.1191471589	0.03987945519	
564.375	0.1906691351	-0.1121806162	
565.0	0.0364523373	-0.156689264	
565.625	0.02306557157	-0.1586435369	
566.25	-0.1799097044	-0.1625638576	
566.875	-0.1028365072	-0.0275023473	
567.5	-0.0989046865	-0.2226979782	
568.125	-0.2318422115	-0.1520196662	
568.75	-0.1589914346	-0.07887751168	
569.375	-0.3266340217	0.07484284975	
570.0	-0.0222931332	0.2719058898	
570.625	-0.07310501222	0.08973629187	
571.25	-0.01534668921	0.2265776059	
571.875	0.05364128099	-0.008683916085	
572.5	0.1912136017	0.1189168983	
573.125	0.07548064243	-0.215913486	
573.75	-0.001696084044	-0.02912942259	
574.375	0.1127845386	-0.1151278416	
575.0	-0.07785669232	-0.03260603914	
575.625	0.1252038071	-0.04673008057	
576.25	0.02474386211	-0.210915022	
576.875	-0.04787926791	-0.0570861776	
577.5	0.09929664303	-0.1940239547	
578.125	-0.1308639336	-0.2188749696	
578.75	-0.07863456679	0.01152654016	
579.375	-0.02370965011	-0.1613600833	
580.0	-0.2396998602	0.05299999174	
580.625	0.06179262963	-0.08411196803	
581.25	-0.2231804653	0.1777911639	
581.875	0.1045686033	0.1235765791	
582.5	-0.09275670759	0.133144345	
583.125	0.135001279	0.1921528538	
583.75	0.02131058254	-0.09162915763	
584.375	0.04223154279	0.1760988127	
585.0	0.1426476316	-0.05128232608	
585.625	0.07422512643	0.07036267908	
586.25	0.2669278498	-0.07262321899	
586.875	-0.01853444098	-0.1570263149	
587.5	0.07611593915	-0.1258415707	
588.125	-0.03856370591	-0.2353125626	
588.75	-0.04536444847	-0.0848207063	
589.375	0.1742357575	-0.1337291126	
590.0	-0.1695744863	-0.2464862689	
590.625	-0.102061292	-0.001918669967	
591.25	-0.2197539891	0.05342448937	
591.875	0.07269593487	0.2693754304	
592.5	-0.06633280656	-0.08941966568	
593.125	0.01523620758	0.1503589475	
593.75	0.01808628106	0.03227325886	
594.375	0.1669943575	0.2122521913	
595.0	0.2531258497	-0.01347603926	
595.625	0.07120653652	0.0459703843	
596.25	0.2199957554	0.1229948409	
596.875	0.1562026792	-0.0497059152	
597.5	0.07362806362	0.1156802444	
598.125	0.2349476713	0.1901840418	
598.75	0.1581712916	0.01262954507	
599.375	0.2002889261	0.05207435895	
600.0	0.2084550549	-0.1723469073	
600.625	0.04954472264	-0.2099134453	
601.25	0.1242064773	-0.1337419371	
601.875	-0.1303572758	-0.234680887	
602.5	-0.07718585504	0.08042024206	
603.125	-0.1433204139	-0.05593580817	
603.75	-0.1500930373	0.2033660667	
604.375	-0.01406087763	-0.009379888339	
605.0	-0.1764500545	0.05391463433	
605.625	0.088799949	0.02650769357	
606.25	-0.1408968789	-0.05570455096	
606.875	-0.2657724976	0.1852409713	
607.5	-0.07680287502	0.153352005	
608.125	-0.01563456375	0.3303784538	
608.75	0.2688385717	0.2393436488	
609.375	0.2021184843	-0.06464372268	
610.0	0.2300290793	-0.01642003411	
610.625	0.1593691156	-0.1662822694	
611.25	-0.03677278532	-0.07423986277	
611.875	-0.02030058468	-0.2216300759	
612.5	-0.2698123905	0.01847584913	
613.125	-0.0662756884	-0.005545385473	
613.75	-0.2212209847	0.1622098761	
614.375	0.175655381	0.1272535678	
615.0	-0.1174955351	0.07043265509	
615.625	0.1164976194	0.1637997002	
616.25	-0.1037485927	0.1019499803	
616.875	-0.2174907214	0.2033964805	
617.5	-0.003850394976	0.2698947046	
618.125	-0.0427092044	0.1935067149	
618.75	-0.004508637275	0.2148173011	
619.375	0.1797977126	0.160131685	
620.0	0.144601473	0.02590631826	
620.625	0.1675914869	-0.07526148469	
621.25	-0.1759909074	-0.1752573368	
621.875	-0.1163059749	-0.1096669456	
622.5	-0.3029176538	-0.02158073278	
623.125	0.02585424819	0.2514602388	
623.75	0.01672768183	0.01605434683	
624.375	0.1496634676	-0.07155772694	
625.0	-0.04811086541	-0.003301123816	
625.625	0.1434130112	-0.09776255758	
626.25	-0.1215353455	-0.174524308	
626.875	-0.05557446774	-0.03144627961	
627.5	-0.1909053352	-0.133464402	
628.125	-0.173040034	-0.01516018678	
628.75	-0.05116205946	-0.1052429195	
629.375	-0.1332631298	-0.2397182495	
630.0	-0.1903365245	-0.01140957096	
630.625	-0.2240471632	-0.02400692716	
631.25	-0.2791478675	0.1709065898	
631.875	0.02340280602	0.2677632666	
632.5	0.05739393251	0.1854880626	
633.125	0.3045049354	0.1258868988	
633.75	0.1343799802	-0.1840486336	
634.375	0.1257336429	-0.07175539908	
635.0	-0.03161086389	-0.2542608801	
635.625	-0.1083736801	0.00540339372	
636.25	-0.2289115171	-0.02725048287	
636.875	-0.07598255268	0.2606493818	
637.5	0.004710200176	0.005231501182	
638.125	-0.1683590425	0.139382409	
638.75	0.04011164632	0.1843492733	
639.375	-0.09240160247	0.1747692666	
640.0	0.1701063671	0.378445683	
640.625	0.2909648533	0.05760080903	
641.25	0.1817521617	0.01026759794	
641.875	0.3401119463	-0.1483522376	
642.5	-0.09006449897	-0.2174160984	
643.125	-0.007465613085	-0.1216438905	
643.75	-0.2747192264	-0.1423707611	
644.375	-0.03633404477	0.1962530359	
645.0	-0.2776764647	0.03430754424	
645.625	0.1584893049	0.3069567696	
646.25	0.07455411009	-0.07178559666	
646.875	0.1330511909	0.182891322	
647.5	0.07052742062	-0.1573938079	
648.125	0.09721255449	0.2321232389	
648.75	0.444001375	-0.1869067413	
649.375	0.08041360163	-0.2393789679	
650.0	0.2914565555	-0.1422355372	
650.625	0.2478536704	-0.486300576	
651.25	0.01289592853	-0.1989994814	
651.875	0.3845269731	-0.01234442057	
652.5	0.4111963679	-0.2086037739	
653.125	0.1357744029	-0.09229178752	
653.75	0.3703359737	-0.09247179199	
654.375	-0.1372821722	-0.4887333005	
655.0	-0.1783089188	-0.02699565317	
655.625	-0.3100272099	0.03320822905	
656.25	0.1490794249	0.3986619989	
656.875	-0.03423223082	-0.05204691491	
657.5	0.1328409663	0.3639263236	
658.125	0.1970228578	0.00646996744	
658.75	0.1887002609	0.2295204337	
659.375	0.5315287849	-0.2176131784	
660.0	0.03950620891	-0.266355662	
660.625	0.2679775668	-0.230398161	
661.25	0.2524053178	-0.4275592327	
661.875	0.03103618474	-0.2837754832	
662.5	0.3906518386	-0.01412508136	
663.125	0.370517952	-0.3112618757	
663.75	0.08354821909	-0.235802028	
664.375	0.1167037755	-0.3580020949	
665.0	-0.4127183642	-0.2852498587	
665.625	-0.2236939319	0.0899794727	
666.25	-0.2563472516	0.2139866395	
666.875	0.2137660066	0.3146883107	
667.5	0.06495085621	-0.002319721558	
668.125	0.3141662252	0.1299209871	
668.75	0.1453087404	-0.3131812703	
669.375	0.08992613563	-0.1208835757	
670.0	0.1705388522	-0.402448276	
670.625	-0.1661479292	-0.2265003128	
671.25	0.1612606262	-0.05900719662	
671.875	0.2193388323	-0.2744471897	
672.5	0.1006564426	-0.1540071721	
673.125	0.2520856601	-0.03837419053	
673.75	0.2486832947	-0.3876441706	
674.375	-0.02384281681	-0.1725990258	
675.0	0.05622323722	-0.278909014	
675.625	-0.2947429945	-0.2266555017	
676.25	-0.1156672923	0.07087038682	
676.875	-0.1529613627	-0.1633080277	
677.5	-0.2384767983	0.1263190153	
678.125	-0.04875888436	0.05605899601	
678.75	-0.1328751453	0.3020839373	
679.375	0.3692598126	0.04657766571	
680.0	-0.1095712121	0.029281392	
680.625	0.2696548656	-0.02681230632	
681.25	0.02869557063	-0.1889556635	
681.875	0.01666862289	0.3472692136	
682.5	0.493679323	0.09092747379	
683.125	-0.102838938	0.05209808818	
683.75	0.2105260797	0.2653439137	
684.375	0.4909684376	0.08344808207	
685.0	0.1297709126	-0.09288495158	
685.625	0.4788657505	0.1716547604	
686.25	0.4294632322	-0.1745733604	
686.875	0.1642249786	-0.09663529193	
687.5	0.4839998678	-0.1562667917	
688.125	-0.08767598496	-0.494342867	
688.75	-0.2025149795	-0.1645506954	
689.375	-0.5353034658	0.2307351741	
690.0	0.2160971658	0.4824043199	
690.625	0.02909449413	0.1005152253	
691.25	0.4059356521	0.5466446839	
691.875	0.5570627081	0.1152036429	
692.5	0.3660112596	0.4569834801	
693.125	0.8804827713	0.1565088695	
693.75	0.2268534471	-0.3148298483	
694.375	0.4835370904	-0.08310708843	
695.0	0.6961432862	-0.3383765024	
695.625	0.3922411172	-0.0708542072	
696.25	0.4771383855	0.3535333981	
696.875	0.4576972955	0.4712658362	
697.5	0.3067368125	0.3090481017	
698.125	0.487744288	0.3511311629	
698.75	0.6789926632	-0.3778854792	
699.375	-0.4720985379	-0.3233999475	
700.0	-0.364885773	0.04347255449	
700.625	0.1912015471	0.5185721116	
701.25	0.2190981632	0.02377578712	
701.875	0.1399663004	0.3821411151	
702.5	0.5461495122	0.2855340093	
703.125	0.2222388502	0.05848064722	
703.75	0.4654333914	0.07736366465	
704.375	0.2458696335	-0.3155128179	
705.0	0.05856845677	-0.0796081818	
705.625	0.3804518499	0.1888995753	
706.25	0.3716617852	0.06109312559	
706.875	0.2280730349	0.3835446342	
707.5	0.2310522284	0.546791008	
708.125	0.5796984551	0.04407814958	
708.75	0.2771775402	-0.2356683692	
709.375	-0.04148780522	-0.3509197813	
710.0	-0.2560448605	0.3292098342	
710.625	0.01330767766	0.03642333026	
711.25	0.1274466764	0.3291771316	
711.875	0.2054038292	-0.1323650401	
712.5	0.3264477641	0.15395887	
713.125	0.367569663	-0.2467074628	
713.75	0.02393672309	-0.2290241349	
714.375	0.1660385815	-0.1925499878	
715.0	-0.05916580136	-0.3167739357	
715.625	-0.02644010142	-0.09497782938	
716.25	0.3355328445	-0.1982794	
716.875	0.3751504759	-0.3910853016	
717.5	0.4367992026	-0.02067048425	
718.125	0.8305515368	0.3331953088	
718.75	0.8837303221	-0.3491347536	
719.375	0.5357002907	-0.4516729367	
720.0	1.137222822	-1.058826736	
720.625	-0.2275050102	-1.838289385	
721.25	0.3142995883	-0.7787547123	
721.875	0.01024890633	-1.483618373	
722.5	-1.117340338	-0.7247844608	
723.125	-0.4208770195	-0.3450018833	
723.75	-0.7002910267	0.5020725816	
724.375	0.2547992064	0.3896144569	
725.0	-0.07395261443	0.3388248492	
725.625	0.2730103865	0.6944979643	
726.25	0.183479793	0.418850863	
726.875	-0.4670194515	0.9144479905	
727.5	-0.137515265	1.832179942	
728.125	0.470768111	1.671047358	
728.75	-1.322254866	2.309577233	
729.375	-0.8921817265	5.147830075	
730.0	1.090140288	3.258241067	
730.625	-2.518302425	3.906237622	
731.25	-3.090169904	6.217006311	
731.875	-1.25138841	2.260582404	
732.5	-3.811948294	-0.6412274934	
733.125	-3.218615205	0.6671153606	
733.75	0.2524917024	1.093537274	
734.375	0.4213332845	1.111760057	
735.0	-0.2969410766	-1.152040344	
735.625	-0.07178169365	-0.0134076768	
736.25	-0.4550627511	0.7391883555	
736.875	0.8036805646	0.5970210256	
737.5	0.3078035238	0.1042420742	
738.125	2.174486237	0.2673172728	
738.75	1.812641614	-2.30970322	
739.375	0.8290123429	-0.867885714	
740.0	5.025850716	1.213991276	
740.625	4.859752956	-4.73932455	
741.25	-3.522857176	-1.221695546	
741.875	-6.08479638	2.320730823	
742.5	-1.501646434	-0.04196668954	
743.125	1.648647865	-1.397358307	
743.75	0.3912114536	-1.960977146	
744.375	-0.4889166917	0.1395556924	
745.0	-0.1425782709	0.05191285889	
745.625	0.1006102504	-0.1077560755	
746.25	0.1326224233	-0.01710797656	
746.875	-0.356402604	-0.03788768395	
747.5	-0.03456674496	0.3490508976	
748.125	-0.09045996176	0.3891168582	
748.75	0.2390208809	0.6190068561	
749.375	0.2559749238	0.4166985968	
750.0	-0.4112376297	0.08362662767	
