!Created with skrf (http://scikit-rf.org).
# GHz S RI R (50+0j) 
!freq	ReS11	ImS11	
500.0	0.4107705363	-1.50230049	
500.625	-0.4565126021	-0.9114246265	
501.25	-0.06348042308	-0.9623357034	
501.875	-0.6394959813	-0.4914428408	
502.5	-0.01862957067	-0.08424918434	
503.125	-0.1041178259	-0.01859178033	
503.75	0.09357916423	0.05175637265	
504.375	0.01462670294	0.02377369195	
505.0	0.0287061859	-0.05524910848	
505.625	0.007198056792	0.004790863443	
506.25	-0.08938709492	-0.1702627797	
506.875	0.03294564515	0.2026099487	
507.5	0.1642713379	-0.6201717146	
508.125	-0.132189453	-0.9465438009	
508.75	0.7803392329	-0.4328186246	
509.375	0.4840732681	-1.985493638	
510.0	-0.6955910201	-0.3420069955	
510.625	-0.04642502214	-0.0606967116	
511.25	-0.1298958842	-0.03184315831	
511.875	-0.1214469115	0.03668918545	
512.5	-0.04619597979	0.0142612582	
513.125	-0.03675292929	-0.1114325034	
513.75	-0.006454445007	0.0234252121	
514.375	-0.04743873726	-0.1069042405	
515.0	-0.2054466207	0.3393100165	
515.625	0.4500873213	-0.8142196061	
516.25	-0.7327922861	-0.06501840165	
516.875	0.0165630392	-0.1294323379	
517.5	0.03097795947	-0.3097607531	
518.125	-0.0515974917	0.04719233321	
518.75	0.06789404832	-0.2325920823	
519.375	-0.06772201967	0.07924804148	
520.0	0.08487887544	0.02738458597	
520.625	0.1717657469	-0.009218227852	
521.25	-0.02837183935	-0.3802591081	
521.875	-0.1119007976	0.06864410014	
522.5	-0.03565545928	-0.0312685702	
523.125	-0.05282840264	0.1609796485	
523.75	0.03540074333	-0.05215524437	
524.375	-0.3355125814	0.05803829205	
525.0	0.1236512638	0.09939676511	
525.625	-0.0680533124	0.04906726356	
526.25	0.08342523741	-0.00198865377	
526.875	-0.1322611432	0.0225128058	
527.5	0.05426876776	0.258472183	
528.125	-0.002705224154	0.1717746285	
528.75	-0.03009844424	0.2824309386	
529.375	0.1351745278	0.04507987259	
530.0	-0.156736319	0.1160749004	
530.625	-0.04820713665	0.285048313	
531.25	0.2873194033	-0.009734082333	
531.875	0.3346543805	-0.01339688777	
532.5	-0.1708671031	-0.2067508712	
533.125	0.02831549638	0.1150380433	
533.75	0.0825269271	-0.3245128257	
534.375	-0.05943191902	-0.1471213501	
535.0	-0.1634985149	-0.210842439	
535.625	-0.203042231	0.1832981698	
536.25	0.002133576837	0.05722435103	
536.875	0.1168618635	0.05566011804	
537.5	0.05040249612	-0.08472337591	
538.125	0.1075064096	-0.0185693955	
538.75	0.1842187111	-0.1975999164	
539.375	-0.1098838513	-0.1017332769	
540.0	-0.1138275526	-0.175841857	
540.625	-0.1772792916	-0.07472572049	
541.25	-0.04692080488	0.04424991065	
541.875	-0.03473002779	-0.08751727716	
542.5	-0.08088984513	0.007749608285	
543.125	0.02233294115	-0.002956285146	
543.75	-0.1540349453	-0.02197025944	
544.375	0.01374233328	0.02639691297	
545.0	-0.09060025403	0.06628294301	
545.625	0.1259019774	0.04094256539	
546.25	0.008608486121	0.04949448156	
546.875	0.1925655442	-0.02989763177	
547.5	0.004119874754	-0.1277381883	
548.125	0.0298003932	-0.1434637192	
548.75	-0.1773443216	-0.1604824488	
549.375	-0.1050996739	-0.01261319884	
550.0	-0.07341169022	-0.04915717623	
550.625	-0.06453173239	0.05149511798	
551.25	-0.05863727679	-0.00407598971	
551.875	-0.1034609439	0.1031393774	
552.5	-0.01903289467	0.07234188518	
553.125	-0.03672186413	0.05927338577	
553.75	0.05628621922	0.04394149755	
554.375	0.09406628196	0.008362841098	
555.0	0.1174309282	-0.07542961109	
555.625	0.09015976517	-0.1164451861	
556.25	0.07281970685	-0.140585722	
556.875	-0.03140523778	-0.1732320273	
557.5	-0.1105954608	-0.1136940175	
558.125	-0.1212796703	-0.04057377324	
558.75	-0.1168524528	-0.01104293444	
559.375	-0.1255747423	0.02794176207	
560.0	-0.09028738938	0.07995889826	
560.625	-0.0752710161	0.1125343544	
561.25	0.02624990382	0.1276008311	
561.875	0.01527885955	0.0199238678	
562.5	0.02324875434	0.09707246936	
563.125	0.06264968673	0.0387619462	
563.75	0.1594623701	0.04868689971	
564.375	0.1432930933	-0.1479701251	
565.0	0.04361263294	-0.1182597901	
565.625	0.02768705681	-0.1974239741	
566.25	-0.1754724628	-0.08149915874	
566.875	-0.08538052053	-0.07399951238	
567.5	-0.188236516	-0.1740370819	
568.125	-0.1729505071	-0.09511503336	
568.75	-0.1530453179	-0.1883526726	
569.375	-0.3240752882	0.1537317996	
570.0	-0.05281963111	0.1870148619	
570.625	-0.1336094862	0.1461756425	
571.25	0.08823863694	0.203825074	
571.875	-0.01833415476	0.02502651778	
572.5	0.22317052	0.03112136186	
573.125	0.0118171061	-0.1599512954	
573.75	0.1086430129	-0.006106499186	
574.375	0.0361832256	-0.1832161095	
575.0	-0.02430171261	0.04837138088	
575.625	0.1169080302	-0.1358080181	
576.25	-0.04537575328	-0.1328415856	
576.875	0.06393894376	-0.08508159839	
577.5	0.05599666867	-0.2796320024	
578.125	-0.1571985375	-0.1382216541	
578.75	0.04270772105	-0.04645816937	
579.375	-0.1076670076	-0.1841726285	
580.0	-0.09138935069	0.08863874246	
580.625	-0.05215768768	-0.1411750019	
581.25	-0.06568287951	0.2617430081	
581.875	0.02693964313	0.03484371584	
582.5	-0.03114972578	0.2096615092	
583.125	0.2201849844	0.06647260362	
583.75	-0.09361319506	0.007694558995	
584.375	0.1324162666	0.1199678302	
585.0	0.0546491044	-0.02813050229	
585.625	0.1676988376	0.1128492535	
586.25	0.1971337798	-0.1781982634	
586.875	0.003986555036	-0.07597906552	
587.5	0.07448318629	-0.1841304988	
588.125	-0.1069251219	-0.1820244201	
588.75	0.03898922699	-0.03771251057	
589.375	0.1325886907	-0.2404576529	
590.0	-0.1440722197	-0.1297785542	
590.625	-0.07413622447	-0.1075722033	
591.25	-0.2769806936	0.1695402552	
591.875	0.1269694589	0.1010637652	
592.5	-0.1050429033	0.01230640774	
593.125	0.1250058411	0.05467499209	
593.75	-0.08230375447	0.1472197886	
594.375	0.2527729116	0.1753744972	
595.0	0.1815479574	-0.01927596256	
595.625	0.1486902824	0.1752334045	
596.25	0.2570596117	0.009991977764	
596.875	0.0751013784	-0.003365562849	
597.5	0.1231645145	0.1820578737	
598.125	0.2433163308	0.07309393384	
598.75	0.132801428	0.1091518174	
599.375	0.275174275	0.02530360396	
600.0	0.1583078779	-0.241614518	
600.625	0.07515687411	-0.1201443555	
601.25	0.1557896702	-0.2137669827	
601.875	-0.1782541449	-0.1577448522	
602.5	-0.03369329432	-0.002232662583	
603.125	-0.2875415609	0.04299966733	
603.75	-0.02895718436	0.1598708271	
604.375	-0.2058671871	-0.0485047664	
605.0	-0.1510500642	0.182035651	
605.625	0.04537692698	0.05418983148	
606.25	-0.2301773007	0.0006255990797	
606.875	-0.07718330516	0.1213127518	
607.5	-0.1237873204	0.0865441219	
608.125	-0.1103861522	0.3165388401	
608.75	0.2806550588	0.1466436755	
609.375	0.2857529993	-0.04699486014	
610.0	0.2773544078	-0.1184134485	
610.625	-0.003076816672	-0.2374439124	
611.25	0.06958603036	-0.06574617969	
611.875	-0.07686587768	-0.2396358121	
612.5	-0.1366054909	0.04832651013	
613.125	-0.1838338094	-0.0825636871	
613.75	-0.1548988647	0.2735746046	
614.375	0.1266707493	0.0009820000057	
615.0	0.005338892344	0.1759441176	
615.625	0.1381863876	0.05668810017	
616.25	-0.1206404436	0.08962946934	
616.875	-0.1772581276	0.3022466209	
617.5	0.04674189717	0.2227036275	
618.125	-0.1233745673	0.1411508574	
618.75	0.02261169932	0.1996884277	
619.375	0.1282731799	0.09784560355	
620.0	0.142544866	0.1367852995	
620.625	0.1583179816	-0.2703436744	
621.25	-0.1391061851	-0.130425743	
621.875	-0.1282521083	-0.140190119	
622.5	-0.3307342604	0.1022646336	
623.125	0.04682319792	0.1699569843	
623.75	0.0394706225	0.113366418	
624.375	0.0753656273	-0.1506056879	
625.0	0.008066896276	0.05880748607	
625.625	0.1035607007	-0.1722283297	
626.25	-0.1089692277	-0.0684419216	
626.875	-0.06185642913	-0.1478132852	
627.5	-0.2074040457	-0.04719550488	
628.125	-0.09307223131	0.01223816588	
628.75	0.007717286255	-0.1806270054	
629.375	-0.1739805127	-0.1824622949	
630.0	-0.1781999463	-0.07137867764	
630.625	-0.2748437183	0.02031076261	
631.25	-0.1777889938	0.2698415955	
631.875	-0.008832291744	0.1767216889	
632.5	-0.0190105159	0.2419026208	
633.125	0.2880501952	0.02316848237	
633.75	0.1079921639	-0.05122578136	
634.375	0.2067155657	-0.1150515821	
635.0	-0.1121540705	-0.1836378885	
635.625	-0.002997383939	-0.06073776008	
636.25	-0.2765716498	0.05690982851	
636.875	0.01464509184	0.1640317906	
637.5	-0.07749761899	0.003555429177	
638.125	-0.1059199558	0.2122147498	
638.75	-0.01838776473	0.07060207778	
639.375	-0.1213750464	0.3128414004	
640.0	0.2410856031	0.3012460519	
640.625	0.2127908388	0.07548167132	
641.25	0.2633823298	0.141607107	
641.875	0.1933945157	-0.3169763614	
642.5	-0.02099305769	-0.1020133705	
643.125	0.07762387914	-0.2404619998	
643.75	-0.2609523782	-0.01251317406	
644.375	-0.08035431237	-0.1221323458	
645.0	-0.30866956	0.2283819613	
645.625	0.2651098895	0.2049026704	
646.25	0.01597138393	0.08205739813	
646.875	0.2868871852	0.05895432137	
647.5	-0.1550675898	-0.1050166529	
648.125	0.2878361735	0.2165666287	
648.75	0.2369039864	-0.2452505565	
649.375	0.1566918108	-0.1069907156	
650.0	0.4196466131	-0.3456659811	
650.625	0.02135063313	-0.4056508283	
651.25	0.1626991321	-0.006137274705	
651.875	0.4553497832	-0.1833489975	
652.5	0.2185389386	-0.2538155332	
653.125	0.2202847723	0.06845337269	
653.75	0.4446074168	-0.2690020649	
654.375	-0.1663069776	-0.2688308186	
655.0	-0.06166757784	-0.1350126956	
655.625	-0.3914784006	0.2310849913	
656.25	0.3165225237	0.1029787821	
656.875	-0.1185032274	0.05931806553	
657.5	0.1705988894	0.1349579568	
658.125	-0.03200801819	0.05349625123	
658.75	0.4396111164	0.3578048357	
659.375	0.3588494564	-0.3181069667	
660.0	0.1596934921	-0.1696316661	
660.625	0.3139358126	-0.3555713673	
661.25	0.0990811224	-0.4739974804	
661.875	0.1542810659	-0.06627193904	
662.5	0.4299897862	-0.2113620151	
663.125	0.2202489549	-0.2916756088	
663.75	0.1921218198	-0.1449359119	
664.375	0.04374683731	-0.4788837965	
665.0	-0.3456208259	-0.1358069547	
665.625	-0.2467836084	-0.0240322752	
666.25	-0.2293534158	0.3488434763	
666.875	0.2125465034	0.1750696819	
667.5	0.011767435	0.1814514767	
668.125	0.3543813243	-0.0203735789	
668.75	0.0438909183	-0.1427806901	
669.375	0.2250504552	-0.1218496381	
670.0	-0.03615738402	-0.4060192064	
670.625	-0.05186411363	-0.07507504142	
671.25	0.2289535609	-0.2952944308	
671.875	0.0889359228	-0.2825624113	
672.5	0.1175244005	-0.07651413789	
673.125	0.3696816749	-0.122253452	
673.75	0.06485773429	-0.3087121061	
674.375	0.09595464626	-0.1483378807	
675.0	-0.01530331865	-0.3789574803	
675.625	-0.3088648501	-0.09426650715	
676.25	-0.04358835064	-0.07803868197	
676.875	-0.2950920491	-0.05999018377	
677.5	-0.1042337338	0.1209190191	
678.125	-0.1945073008	-0.009031636799	
678.75	-0.02445877581	0.4599818541	
679.375	0.2264977882	-0.08206323315	
680.0	0.1411015539	0.06677183868	
680.625	0.2261935088	-0.2456498746	
681.25	-0.1589091632	0.007490799567	
681.875	0.3125121469	0.2789228954	
682.5	0.3109834222	-0.140879556	
683.125	0.06553223532	0.1218157034	
683.75	0.3335271025	0.2823228304	
684.375	0.2574713497	-0.2049281784	
685.0	0.05489372126	0.1615179066	
685.625	0.5186731109	0.08980375527	
686.25	0.2569277502	-0.1474693807	
686.875	0.3041013104	0.06268245986	
687.5	0.504870028	-0.4447160348	
688.125	-0.1653422125	-0.3308235667	
688.75	-0.2670086561	-0.3612497288	
689.375	-0.5006008911	0.3549205561	
690.0	0.2395002902	0.2776925292	
690.625	-0.002319498837	0.3936643855	
691.25	0.6199129999	0.2884693409	
691.875	0.314391993	0.184314147	
692.5	0.7218957809	0.5591330279	
693.125	0.9098718388	-0.1956757499	
693.75	0.3846307264	-0.1921176857	
694.375	0.6806196905	-0.2746296169	
695.0	0.3443880977	-0.4298293702	
695.625	0.3612914594	-0.01591554882	
696.25	0.5746696333	0.4906966927	
696.875	0.3804703326	0.3374842675	
697.5	0.1612358827	0.4200709134	
698.125	0.432903805	0.2779610051	
698.75	0.5411536597	-0.5658373734	
699.375	-0.2091681776	-0.3329064081	
700.0	-0.4714856927	0.1971866897	
700.625	0.269281482	0.3191457188	
701.25	0.05733955644	0.1577587161	
701.875	0.328170032	0.4752009644	
702.5	0.4274620938	0.05612549193	
703.125	0.3081912257	0.2900087172	
703.75	0.5844889438	-0.04623404789	
704.375	0.1650339262	-0.2840472166	
705.0	0.1998404081	0.06259529899	
705.625	0.3146212224	-0.0994887102	
706.25	0.1633626584	0.05498697816	
706.875	0.06997628668	0.4214595913	
707.5	0.25090881	0.3967223726	
708.125	0.4400185723	0.1442503315	
708.75	0.4901414423	-0.1845263148	
709.375	-0.3333916591	-0.4261323112	
710.0	-0.1734727368	0.3802560276	
710.625	-0.1500644377	0.1964695486	
711.25	0.2563758407	0.07713754473	
711.875	0.05686933301	0.1953067873	
712.5	0.4554739056	0.1001212335	
713.125	0.2521302132	-0.3062973329	
713.75	0.1440004534	-0.1049243821	
714.375	0.1240832768	-0.358365235	
715.0	-0.1255568544	-0.2024412376	
715.625	0.1257406561	-0.1179695022	
716.25	0.229649904	-0.3379973287	
716.875	0.152945651	-0.2139010713	
717.5	0.4925485797	0.2553950888	
718.125	0.7871157997	0.183830299	
718.75	0.6412377266	-0.216236315	
719.375	0.4264798059	0.03952921938	
720.0	0.6027163836	-1.065337174	
720.625	0.04918345436	-0.6737317972	
721.25	0.6105719877	-0.9816105357	
721.875	-0.3746015162	-1.352200268	
722.5	-0.2730469085	-0.5403233443	
723.125	-0.83585675	-0.6652982707	
723.75	-0.4727053607	0.6541503046	
724.375	0.002229494538	0.2075923069	
725.0	-0.0144038294	0.6153795456	
725.625	0.4339198212	0.3865261096	
726.25	-0.1703896074	0.4895723012	
726.875	-0.3824914585	1.183197354	
727.5	0.2090601172	1.584344786	
728.125	-0.3431482844	1.228154139	
728.75	-1.265549268	3.343527991	
729.375	0.09171555834	4.32954691	
730.0	-0.2657729001	2.137181461	
730.625	-0.7808143801	5.151195155	
731.25	0.5247398167	4.557508207	
731.875	-3.555567141	1.009705974	
732.5	-5.56567974	-0.4953365127	
733.125	-2.336121299	1.060566406	
733.75	-1.069298586	0.3113324473	
734.375	1.114374344	1.193832162	
735.0	-0.2590745749	-0.4371639699	
735.625	-0.337683981	-0.2364745408	
736.25	-0.1719935637	0.972611324	
736.875	0.4253063814	0.1345345014	
737.5	0.9357818177	1.087812226	
738.125	2.13182001	-0.7493935076	
738.75	0.8362834196	-1.37546172	
739.375	2.559256106	0.4207972204	
740.0	6.358334909	-2.944972713	
740.625	0.07873368837	-2.175838332	
741.25	-2.526557366	3.801049702	
741.875	-3.799506793	3.911857723	
742.5	1.136197017	-1.123617163	
743.125	1.185993616	-2.997320483	
743.75	-0.4197115124	-1.279597009	
744.375	-0.08076834189	-0.002576575243	
745.0	-0.2043352391	0.3815839714	
745.625	-0.06262467007	-0.05260298609	
746.25	0.09764302603	-0.1994204689	
746.875	-0.3027520955	0.09886244905	
747.5	-0.08105452051	0.2008855372	
748.125	-0.1249789151	0.6817914508	
748.75	0.391895317	0.517923139	
749.375	0.09107662114	0.3761163848	
750.0	-0.514446784	0.2427573361	
