!Created with skrf (http://scikit-rf.org).
# GHz S RI R (50+0j) 
!freq	ReS11	ImS11	
500.0	1.626570217	-1.560246868	
500.625	1.266579139	-4.817713512	
501.25	-1.850936703	-1.255582461	
501.875	-0.7481561347	-0.1864334269	
502.5	0.000181151005	-0.6297828412	
503.125	-0.1747238507	0.2639212328	
503.75	-0.1399431945	0.1398864577	
504.375	0.1311499535	-0.1103364646	
505.0	0.04520442652	0.1057351354	
505.625	-0.1098373821	-0.3620853413	
506.25	0.1129946381	0.2634833402	
506.875	-1.199723234	-0.4834657186	
507.5	-1.452551062	-0.03423965678	
508.125	1.331914282	-0.7262432496	
508.75	1.408538307	-4.563372945	
509.375	-2.411937639	-2.080051961	
510.0	-0.9358369935	-1.926052322	
510.625	-0.7356186697	-0.01168585211	
511.25	-0.2688844747	-0.3196738326	
511.875	-0.6127173212	-0.04506497835	
512.5	0.006458239612	0.1115854366	
513.125	0.000238010521	-0.1404137977	
513.75	-0.1811629138	-0.3967465135	
514.375	-0.4617337379	0.3452017712	
515.0	0.9757941213	-0.9514400693	
515.625	-1.445197404	0.1152324678	
516.25	1.345071046	-2.466348884	
516.875	-2.236500264	-1.695126019	
517.5	0.05068094152	0.4112534004	
518.125	-0.36762285	-0.4206406733	
518.75	-0.04543288686	0.2075368712	
519.375	-0.2583556632	0.05432112906	
520.0	0.4587717799	0.1384272559	
520.625	0.2319031981	-0.1548165534	
521.25	0.2055470495	-0.9411627982	
521.875	-0.4306334075	0.1887833814	
522.5	-0.08834636039	-0.08754837307	
523.125	0.003369984843	0.2843359132	
523.75	-0.3084678385	-0.1501496712	
524.375	-0.1250544282	0.4074246543	
525.0	-0.3435899157	0.1675398549	
525.625	0.3272540278	0.2325088844	
526.25	-0.2974783765	-0.04392410962	
526.875	0.07499754141	0.1616887395	
527.5	-0.3882751009	0.2993316159	
528.125	0.4213384659	1.113231748	
528.75	0.1934552023	0.1740779598	
529.375	0.1478407913	0.3992902139	
530.0	-0.0258117331	0.09142762591	
530.625	0.4968793502	1.270014123	
531.25	0.4365091076	-0.1605932528	
531.875	1.000109252	-0.339688487	
532.5	-0.5118334819	-0.1117997548	
533.125	0.5303897935	-0.3747988311	
533.75	-0.2698255618	-0.2244472374	
534.375	0.01300782798	-1.064747094	
535.0	-0.832288417	0.1920485553	
535.625	-0.310043832	0.02102999148	
536.25	-0.05524862272	0.3472915258	
536.875	0.2505452964	-0.09640479153	
537.5	0.1798915229	0.02671688686	
538.125	0.3110151915	-0.3076557559	
538.75	0.1774861513	-0.1293967013	
539.375	-0.1488877879	-0.5724519112	
540.0	-0.4995162391	-0.09364107835	
540.625	-0.2495820705	-0.1986227779	
541.25	-0.3047065354	0.02259936302	
541.875	-0.1101674251	0.02162683312	
542.5	0.01644660739	-0.1055399733	
543.125	-0.3273357108	-0.1812212659	
543.75	-0.005857354119	0.1968022679	
544.375	-0.2801210492	0.02960613855	
545.0	0.1816172684	0.1159377285	
545.625	-0.08778693231	0.2759209675	
546.25	0.4369722112	-0.07920965723	
546.875	0.03812486302	0.07939223907	
547.5	0.3901654101	-0.4054688192	
548.125	-0.3196288168	-0.3096781794	
548.75	-0.08957048411	-0.2148313567	
549.375	-0.3402617551	-0.2970620528	
550.0	-0.1206577817	0.1668229135	
550.625	-0.2015115287	-0.1191763505	
551.25	-0.08690255476	0.192047391	
551.875	-0.2164952447	0.05392495925	
552.5	-0.104040462	0.2915809261	
553.125	-0.0106390059	0.1012811158	
553.75	0.1085526173	0.138021241	
554.375	0.239260288	-0.02857200283	
555.0	0.2064631049	-0.1536094588	
555.625	0.2052853293	-0.2622036648	
556.25	0.1346402737	-0.3540614558	
556.875	-0.09514853682	-0.3652626816	
557.5	-0.232859448	-0.243979447	
558.125	-0.2809967729	-0.08230036951	
558.75	-0.2363995374	0.01038870828	
559.375	-0.2511992359	0.01772694806	
560.0	-0.2418431749	0.2113712822	
560.625	-0.05342667301	0.2378148739	
561.25	-0.05239097011	0.2108386931	
561.875	0.1609873627	0.1077358707	
562.5	-0.08581932259	0.1073467476	
563.125	0.2846710076	0.1238898191	
563.75	0.1741374817	0.05841713974	
564.375	0.4300593741	-0.2432240795	
565.0	0.01130207281	-0.4168742523	
565.625	0.0152010063	-0.2367281456	
566.25	-0.2454409208	-0.3691362201	
566.875	-0.4348075661	-0.04862326454	
567.5	-0.140338344	-0.2214075565	
568.125	-0.4442912576	-0.5460245298	
568.75	-0.4615669953	0.02565317844	
569.375	-0.6443850757	-0.006096233966	
570.0	-0.1909952861	0.6875171946	
570.625	-0.009336250376	0.1563663924	
571.25	-0.3180757828	0.4246788776	
571.875	0.3769451114	-0.1426785743	
572.5	0.1681927715	0.3408643794	
573.125	0.3318833433	-0.5273911238	
573.75	-0.1993082773	-0.1629415157	
574.375	0.3528003011	-0.1150177121	
575.0	-0.2625406651	-0.1789627177	
575.625	0.3567284926	-0.05582169657	
576.25	0.02059298049	-0.5256699828	
576.875	-0.1506922864	-0.0420875736	
577.5	0.310919635	-0.3937676149	
578.125	-0.2853437724	-0.5406160082	
578.75	-0.2546962595	-0.08028584741	
579.375	0.02888194062	-0.2266392418	
580.0	-0.3713249109	-0.110154748	
580.625	0.1288380444	-0.09256025101	
581.25	-0.4680014047	0.2688996804	
581.875	0.295798519	0.296041963	
582.5	-0.1367481939	0.08277853804	
583.125	0.1926062545	0.6019641892	
583.75	0.1458653078	-0.4488292139	
584.375	0.003447732677	0.5545864488	
585.0	0.4334261101	-0.2183534162	
585.625	0.08580611421	0.2604916176	
586.25	0.6569455097	-0.3050798852	
586.875	-0.1202480779	-0.1540655147	
587.5	0.2660474271	-0.3708996993	
588.125	-0.2625676852	-0.4889968977	
588.75	-0.06219239456	-0.03021695776	
589.375	0.4957801439	-0.3882663072	
590.0	-0.3133171844	-0.4464390727	
590.625	-0.2668650755	-0.02451935199	
591.25	-0.3895285237	0.1179524715	
591.875	-0.02188572442	0.4542333398	
592.5	-0.07061053752	-0.04316689625	
593.125	0.03259470398	0.2043882199	
593.75	-0.01634499652	0.156610345	
594.375	0.4078861255	0.4984714983	
595.0	0.6663758595	0.009934437341	
595.625	-0.0309735859	0.1163443927	
596.25	0.6136974791	0.4756344418	
596.875	0.3235541585	-0.3182353456	
597.5	0.1107089149	0.4171090119	
598.125	0.6489637631	0.2029846639	
598.75	0.08370983626	0.1388568605	
599.375	0.8567336984	0.001875234253	
600.0	0.1017470162	-0.4372666527	
600.625	0.32675653	-0.1771055819	
601.25	0.3328577953	-0.5115612971	
601.875	-0.3272983808	-0.2580571048	
602.5	-0.2208610462	-0.05269859082	
603.125	-0.2266771819	0.0456255967	
603.75	-0.3708739876	0.2184886505	
604.375	-0.03428507439	0.1386321043	
605.0	-0.323616133	0.09597926106	
605.625	-0.01962411633	0.2662226184	
606.25	-0.3476239446	-0.06366342626	
606.875	-0.4542854511	0.4916120261	
607.5	-0.1467040078	0.09488602246	
608.125	-0.4695922372	0.7949624768	
608.75	0.6769581309	-0.02288956248	
609.375	0.3357023636	0.2427952513	
610.0	0.5703165291	-0.5139228408	
610.625	-0.07961214717	-0.1545051653	
611.25	0.2689952271	-0.5657808549	
611.875	-0.3056424272	-0.06994747519	
612.5	-0.2535038772	-0.4000476298	
613.125	-0.5754104389	0.2422387586	
613.75	-0.1614049024	0.06606059898	
614.375	0.1859460421	0.5271056115	
615.0	-0.02451483784	-0.1633357553	
615.625	0.05197544142	0.5239018631	
616.25	0.06213083637	0.006541507803	
616.875	-0.4973702407	0.5037361802	
617.5	0.1397296881	0.6940468292	
618.125	-0.1579883191	0.1713155037	
618.75	0.1022883843	0.7089686205	
619.375	0.2548422924	0.1383196959	
620.0	0.4235148934	0.2809427508	
620.625	0.1416414313	-0.444527574	
621.25	-0.07966140786	-0.3962510234	
621.875	-0.5482024784	-0.08396066881	
622.5	-0.3625758797	0.05042651324	
623.125	-0.1641004042	0.5730580534	
623.75	0.191104047	-0.1214160196	
624.375	0.3927517261	-0.002898260897	
625.0	-0.2160604285	-0.06480927257	
625.625	0.4677544652	-0.1483533514	
626.25	-0.4758527517	-0.3983316356	
626.875	0.03352859022	-0.03026613281	
627.5	-0.5258325046	-0.3227006338	
628.125	-0.2733013234	0.08403297435	
628.75	0.06680095745	-0.3812896113	
629.375	-0.5010967233	-0.349192921	
630.0	-0.1475843255	-0.2164198909	
630.625	-0.6559642321	0.07979157591	
631.25	-0.2648816232	0.612628794	
631.875	0.03244424381	0.3834710773	
632.5	0.2325030817	0.4621879224	
633.125	0.572991656	0.2107977134	
633.75	0.2973938327	-0.3078320321	
634.375	0.2044883844	-0.136646456	
635.0	-0.1734316676	-0.5714890612	
635.625	-0.06603916625	-0.06581370502	
636.25	-0.5944023808	0.1554843079	
636.875	0.09013926464	0.3780341237	
637.5	-0.2060427644	-0.1078074234	
638.125	-0.1078701019	0.7160434026	
638.75	0.05452404456	-0.1093601559	
639.375	-0.3820355761	0.7147916392	
640.0	0.6590857564	0.6385995421	
640.625	0.4323125234	0.02460099217	
641.25	0.6632751844	0.3975836517	
641.875	0.2146334264	-0.7280238524	
642.5	0.1814629304	-0.1772663797	
643.125	-0.4630480441	-0.6239106082	
643.75	-0.1545750117	0.3746129663	
644.375	-0.4233818683	-0.4357102582	
645.0	-0.4154676691	0.6400511645	
645.625	0.3434278131	0.3562534075	
646.25	0.009616265798	0.0294994709	
646.875	0.6646562198	0.1997864698	
647.5	-0.3224057852	-0.1597840475	
648.125	0.6913069518	0.392517314	
648.75	0.371343157	-0.6357979066	
649.375	0.5533019895	0.1517281529	
650.0	0.6670830218	-1.343944277	
650.625	-0.3820759168	-0.5760033563	
651.25	0.742771184	0.1174344484	
651.875	1.015180297	-0.9978324601	
652.5	-0.02997998445	-0.4259581804	
653.125	0.8493164694	0.1595420228	
653.75	0.2988206402	-1.021959734	
654.375	-0.1021331026	-0.1825531457	
655.0	-0.740729668	-0.7201054313	
655.625	-0.1785256006	0.8943350072	
656.25	0.07333119592	-0.0309445425	
656.875	-0.02614737202	0.5201249001	
657.5	0.3426187375	-0.04223017286	
658.125	-0.07607492771	0.429087504	
658.75	1.041029595	0.213621297	
659.375	0.4677105261	-0.5062115025	
660.0	0.4796108246	-0.3228966959	
660.625	0.5072227184	-1.220607603	
661.25	-0.2085754667	-0.4411298032	
661.875	0.855682409	-0.281117399	
662.5	0.7416679526	-0.9265538226	
663.125	0.02137676761	-0.5314746705	
663.75	0.8020247034	-0.3576238369	
664.375	-0.5740312912	-1.002964242	
665.0	-0.2067745065	-0.2049666003	
665.625	-1.103563481	0.09442875502	
666.25	0.2543334989	0.6929597239	
666.875	-0.1321994061	0.4336607434	
667.5	0.6776695434	0.3053419812	
668.125	0.3830604558	-0.3403187751	
668.75	0.3061311504	-0.01780909062	
669.375	0.4290444598	-0.7018200554	
670.0	-0.2904953639	-0.4794719736	
670.625	0.136481941	-0.2859995318	
671.25	0.1790308035	-0.5930453106	
671.875	0.0008646123411	-0.2825942736	
672.5	0.699160582	-0.280836226	
673.125	0.3181671058	-0.6270216169	
673.75	0.09624671175	-0.3024735382	
674.375	0.5000920111	-0.5197386367	
675.0	-0.6773989511	-0.9167459797	
675.625	-0.01337726182	0.2924466892	
676.25	-0.6934502404	-0.5479774115	
676.875	-0.3070434478	0.5284321696	
677.5	-0.2247467289	-0.4678023875	
678.125	-0.3329515772	0.9471147354	
678.75	0.04386351868	-0.009940048819	
679.375	0.4718626848	0.538440667	
680.0	0.5499071346	-0.5928698034	
680.625	-0.3437454014	-0.04942661189	
681.25	0.6133531942	0.1746340782	
681.875	0.3795493205	-0.1791974843	
682.5	0.2959365384	0.08226661855	
683.125	0.449509585	0.4312935268	
683.75	0.9041129165	-0.1090665589	
684.375	0.2794764123	0.0641771862	
685.0	0.7959602444	0.418987192	
685.625	0.7602662013	-0.5977155914	
686.25	0.2153878256	0.5357458076	
686.875	1.398006323	-0.9687263044	
687.5	-0.4506051247	-0.4792428105	
688.125	0.6739388882	-1.034535445	
688.75	-1.767967638	-0.3295567427	
689.375	0.09111547131	0.3243704167	
690.0	-0.07413087694	1.506616375	
690.625	0.7929052866	0.016868764	
691.25	0.2859636423	0.8864273607	
691.875	1.64781195	0.5254665406	
692.5	1.006915478	0.2376156799	
693.125	1.587719662	0.0778446678	
693.75	1.33655454	-0.6985252701	
694.375	0.9507198088	-0.9192978073	
695.0	0.8431772392	-0.8474283307	
695.625	0.9074661459	0.08674401326	
696.25	1.676396525	0.145290832	
696.875	0.5912832621	0.3533006722	
697.5	1.035414883	1.656984581	
698.125	1.465380835	-0.4294220971	
698.75	1.098244721	-0.3381349696	
699.375	-1.630104147	-1.22200156	
700.0	0.1559945063	0.8065327567	
700.625	-0.1643620301	1.307842291	
701.25	0.8437656522	0.02258928518	
701.875	0.1912510568	0.6583692187	
702.5	1.352506269	0.5339488197	
703.125	0.4461372623	0.1291437031	
703.75	1.303531633	-0.1347804558	
704.375	0.2946892417	-0.7383226398	
705.0	0.6613789303	0.163988607	
705.625	0.822607756	-0.580044711	
706.25	0.02265746997	0.4001112507	
706.875	0.9380583132	1.176490202	
707.5	0.8178965835	0.06126650844	
708.125	1.04173861	0.6843653581	
708.75	0.5013865181	-1.38527037	
709.375	-0.4391049589	-0.2331307719	
710.0	-0.77015094	0.5708183516	
710.625	0.5109924974	0.1359674439	
711.25	0.0712285687	0.455633945	
711.875	0.6396400638	0.1415723187	
712.5	0.71393854	-0.02249549731	
713.125	0.4813882378	-0.5867658724	
713.75	0.347069641	-0.2554170448	
714.375	-0.007966592911	-0.9194944647	
715.0	-0.3084370013	-0.0496807634	
715.625	0.5808960332	-0.7877992527	
716.25	-0.3113768628	-0.8237964014	
716.875	0.89737934	0.3645976816	
717.5	2.269434179	-0.5781894627	
718.125	0.01534372428	-1.045489096	
718.75	3.324006208	1.279646382	
719.375	1.3536737	-3.182308904	
720.0	0.5208164432	-1.094665545	
720.625	1.67553974	-2.891654491	
721.25	-1.865330491	-2.566025484	
721.875	0.3230914333	-2.085891598	
722.5	-2.128140517	-2.095103578	
723.125	-1.81210614	0.5887178333	
723.75	-0.8931588181	0.4234995218	
724.375	0.1489006439	1.592453703	
725.0	0.6633606724	0.5041869113	
725.625	0.2082422804	0.7576144878	
726.25	-0.2551229366	1.966396264	
726.875	1.2472692	2.88057862	
727.5	-1.328229303	1.23610572	
728.125	0.1029967482	7.441203499	
728.75	4.191150085	4.201824723	
729.375	-7.081687028	5.114338011	
730.0	7.533230377	20.38573396	
730.625	2.06316482	-0.4592414902	
731.25	-12.75749437	10.96236644	
731.875	-4.482579468	14.27420023	
732.5	-1.090080914	2.136476861	
733.125	-8.536298083	-0.5844272927	
733.75	-0.4929456418	4.494958897	
734.375	1.31825157	-0.01709877527	
735.0	0.6653657853	-2.447748426	
735.625	-0.3266599946	1.200787018	
736.25	-0.869114629	0.9493823172	
736.875	1.49897796	1.903418733	
737.5	3.199056927	-0.7934578106	
738.125	0.7030637	-1.383865874	
738.75	7.803326295	0.4387256972	
739.375	5.502808892	-11.55543984	
740.0	-4.520853877	-1.107474448	
740.625	23.26232018	13.03711572	
741.25	12.67424964	-29.98467067	
741.875	-14.5251422	-14.39924439	
742.5	-12.07948977	-4.410635733	
743.125	1.304556497	2.515794895	
743.75	2.010805132	-4.395271655	
744.375	-2.121555234	1.091881709	
745.0	0.07945586709	-0.2531287323	
745.625	0.2749343118	0.01457810771	
746.25	-0.1306189432	0.008616557869	
746.875	-0.7928857759	0.03696331849	
747.5	-0.04748712577	1.059321063	
748.125	0.5126008901	1.020235311	
748.75	0.3741091475	1.169409558	
749.375	1.386105111	0.6462709972	
750.0	-0.7014204351	0.4378445163	
