!Created with skrf (http://scikit-rf.org).
# GHz S RI R 50.0 
!freq ReS11 ImS11
500.0 -0.009806930426 0.02336151821
500.625 0.01425311023 0.03618634403
501.25 0.04372755246 0.002379989743
501.875 0.02364736516 0.01537831818
502.5 0.006503467802 0.0402204842
503.125 0.03037582249 0.03495475125
503.75 0.04138687245 0.01323193601
504.375 0.04538902548 0.001404606159
505.0 0.04539541022 -0.02648842457
505.625 0.06189828342 -0.03895031651
506.25 0.02733366051 -0.06338791062
506.875 0.05519691364 -0.0437690175
507.5 0.05497343109 -0.04037421999
508.125 0.06731974277 -0.04433060345
508.75 0.03181584255 -0.06092159924
509.375 0.01989099822 -0.05208356136
510.0 0.08011487578 -0.03478915118
510.625 -0.01356384175 -0.06379953698
511.25 -0.03658092123 -0.05148987957
511.875 -0.04615740337 -0.01146283323
512.5 -0.03425545827 0.00886671298
513.125 -0.0225037593 0.02991474144
513.75 -0.01123520474 0.04086308719
514.375 -0.005421787134 0.05608727081
515.0 0.007400455443 0.09453280818
515.625 -0.01472424195 0.08875285083
516.25 0.04149712863 0.08674450436
516.875 -0.02473835678 0.1259186311
517.5 0.039231709 0.1086800764
518.125 -0.007602652076 0.1410901563
518.75 0.02789092806 0.04159417722
519.375 0.01294626008 0.0696867231
520.0 0.04861483533 0.06687944516
520.625 0.06774430161 0.02833107067
521.25 0.05861308721 0.009289087671
521.875 0.04418090495 0.03771817386
522.5 0.0717374718 0.01413213848
523.125 0.1160563551 -0.05598485601
523.75 0.09302645746 -0.07807390644
524.375 0.07391484424 -0.04138827333
525.0 0.008158273738 0.006847686
525.625 0.005550715161 0.01700435061
526.25 0.01014931754 0.04340157116
526.875 0.01771971799 0.03166644179
527.5 0.02721064185 0.02518874026
528.125 0.03786611351 0.001953167143
528.75 0.0426275882 -0.01564647228
529.375 0.03479783523 -0.0372855055
530.0 0.01358376417 -0.02067658488
530.625 0.006915381739 -0.0659795858
531.25 0.0004498432743 -0.151794241
531.875 -0.05756368907 -0.1400207245
532.5 -0.08752347442 -0.07076083061
533.125 -0.07585439676 -0.04442078052
533.75 -0.07236833625 -0.0530647271
534.375 -0.06946723102 -0.0347481242
535.0 -0.07301436062 -0.0209625635
535.625 -0.03207388846 -0.02099436269
536.25 -0.03651592968 -0.03587887291
536.875 -0.04450948512 -0.05957266447
537.5 -0.04951861413 -0.06991729633
538.125 -0.0697995376 -0.04708039218
538.75 -0.06145320495 -0.032383076
539.375 -0.03874948454 -0.04429833401
540.0 -0.05637665041 -0.08524336508
540.625 -0.06077944994 -0.09682234304
541.25 -0.05023095158 -0.07981739322
541.875 -0.05401612648 -0.08245927001
542.5 -0.04905516678 -0.0765091955
543.125 -0.09689256908 -0.05900785096
543.75 -0.1010397417 0.02096018345
544.375 -0.06002705374 0.04220169197
545.0 -0.03138483855 0.06568368469
545.625 -0.003538994402 0.05366981004
546.25 0.01348922736 0.05908549321
546.875 0.02749449178 0.05913132231
547.5 0.02072960762 0.08966286365
548.125 0.009231762813 0.07143286317
548.75 -0.001769685866 0.07285929491
549.375 -0.01230697955 0.06999097023
550.0 -0.0422158357 0.0378594174
550.625 -0.009589203351 0.003706432512
551.25 -0.00587208493 -0.02688599376
551.875 -0.04764801051 -0.03832449151
552.5 -0.075236024 -0.04271345751
553.125 -0.06840218036 -0.02017912621
553.75 -0.07868952238 -0.02023772088
554.375 -0.0932540862 0.01130183946
555.0 -0.095617951 0.03010495921
555.625 -0.05979783716 0.02756778121
556.25 -0.07620643344 0.02094559462
556.875 -0.08485154868 0.02308371647
557.5 -0.08575992195 0.03818603193
558.125 -0.07125280072 0.03190839504
558.75 -0.05690406336 0.01038638889
559.375 -0.04232506111 0.006755226235
560.0 -0.02930557668 0.0004135030869
560.625 -0.02025940641 -0.02694906604
561.25 -0.04951720106 -0.03516417144
561.875 -0.07396006889 -0.01668766286
562.5 -0.07284586077 0.03109876552
563.125 -0.06108772394 0.05496314967
563.75 -0.05145672332 0.08481951576
564.375 -0.02036732624 0.08431098372
565.0 -0.01350116324 0.083090475
565.625 -0.008629343307 0.05662083082
566.25 -0.03588962061 0.0412980246
566.875 -0.04603076236 0.02689697141
567.5 -0.06091969453 0.02810714118
568.125 -0.04984566454 0.01178109385
568.75 -0.04622474384 0.008108653551
569.375 -0.03361539248 -0.007145248265
570.0 -0.02640439714 -0.02645038169
570.625 -0.02374526587 -0.04227792773
571.25 -0.03569616087 -0.03400449192
571.875 -0.0512158771 -0.02594721565
572.5 -0.08752106629 -0.002132844971
573.125 -0.09686066365 0.01719818626
573.75 -0.05711729092 0.06566808862
574.375 -0.02823291472 0.06196400906
575.0 -0.02969513753 0.07767383087
575.625 -0.04865149344 0.05209467039
576.25 -0.03072097234 0.06523248471
576.875 -0.006688682734 0.07402545412
577.5 0.007300621009 0.07938578694
578.125 -0.01313420198 0.04407587291
578.75 -0.009552673891 0.0361306977
579.375 -0.008174829334 0.03606652103
580.0 -0.01064452098 0.03953243803
580.625 -0.02669836987 0.002855972846
581.25 -0.05167509553 0.006458265464
581.875 -0.06402454516 0.03778397394
582.5 -0.07099822879 0.04900731854
583.125 -0.05526600194 0.05594309143
583.75 -0.05648947269 0.03438516871
584.375 -0.06726122408 0.02666156098
585.0 -0.07425794329 0.01489181081
585.625 -0.06016617483 0.02944443971
586.25 -0.0537002337 0.02126641984
586.875 -0.0584951262 0.01600614993
587.5 -0.0552910581 0.0248822677
588.125 -0.02457337301 0.0515546441
588.75 -0.01883369545 0.04170179032
589.375 -0.02810944908 0.0314859642
590.0 -0.03845860133 0.0245193217
590.625 -0.03411498569 0.0538075369
591.25 -0.03424033299 0.07950115276
591.875 -0.03435766297 0.08687770533
592.5 -0.0003557400574 0.0740686074
593.125 0.01279156775 0.06419639962
593.75 -0.009346038918 0.06246780156
594.375 -0.02828189291 0.05222901332
595.0 -0.03035091534 0.02921766515
595.625 -0.0263514824 0.01681214975
596.25 -0.03395258564 -0.01802194938
596.875 -0.03190554957 -0.02634262591
597.5 -0.03394446234 -0.01577605549
598.125 -0.02683917335 -0.01031986007
598.75 -0.01374789146 -0.02882899645
599.375 -0.01372279657 -0.03009358483
600.0 -0.02400826059 -0.04772085846
600.625 -0.02872226323 -0.07038981321
601.25 -0.04232592233 -0.06497188884
601.875 -0.05693561525 -0.04215745814
602.5 -0.05888680874 -0.02852965357
603.125 -0.05639540496 -0.02043137233
603.75 -0.02176922196 -0.03776629714
604.375 -0.01624219663 -0.02470294868
605.0 -0.008163370856 -0.03788845735
605.625 -0.01299537658 -0.04510950308
606.25 -0.01009489597 -0.04134184038
606.875 -0.01118396057 -0.01857689787
607.5 0.001394608455 -0.00978324465
608.125 0.01020956746 -0.006375529959
608.75 0.03486884801 -0.03445426703
609.375 0.03477005705 -0.02146679845
610.0 0.04943177846 -0.01102730248
610.625 0.04323995369 -0.01556594955
611.25 0.05362690722 -0.0273826311
611.875 0.05351303043 -0.02247882042
612.5 0.03564569234 -0.01832003277
613.125 0.0172563532 -0.009651936854
613.75 0.006763679686 0.00207661221
614.375 0.0459889045 0.03023761202
615.0 0.04526114078 0.02504148833
615.625 0.02113549267 0.009527092351
616.25 -0.005707241313 0.01465759741
616.875 0.04422194235 0.04418036825
617.5 0.04135507635 0.03863279881
618.125 0.02348223661 0.02526431298
618.75 0.004048646531 0.02509003518
619.375 0.04098662567 0.05712073746
620.0 0.0419110779 0.03399650624
620.625 0.04034171305 0.009273732733
621.25 0.0172178356 -0.01045679674
621.875 0.009851995648 -0.004843592545
622.5 -0.01368536821 0.005836119482
623.125 -0.01653892822 0.03834806563
623.75 -0.04022889285 0.05390564095
624.375 -0.01165889953 0.06572834681
625.0 -0.03467853778 0.04281340558
625.625 -0.04161539943 0.05671869447
626.25 -0.03820688281 0.06013453832
626.875 -0.01355532718 0.06897889991
627.5 -0.01107055688 0.05187331525
628.125 -0.02090064183 0.02779352549
628.75 -0.02791040797 0.0258914599
629.375 -0.01819743403 0.01679603065
630.0 -0.008589109775 0.01183172595
630.625 -0.002465852987 -0.01719938789
631.25 0.004682536882 -0.04724152073
631.875 -0.01382252108 -0.03843493498
632.5 -0.02128527451 -0.04601847624
633.125 -0.0158725018 -0.05871890293
633.75 -0.02716794318 -0.05328191705
634.375 -0.02629067395 -0.06332762321
635.0 -0.06360885281 -0.03184272743
635.625 -0.0554322251 -0.02665936361
636.25 -0.042409453 -0.01837532804
636.875 -0.01961702304 -0.04379271951
637.5 -0.02598304217 -0.06494067323
638.125 -0.04505481559 -0.04168291089
638.75 -0.02963336367 -0.0225422008
639.375 0.001394379322 -0.02218702488
640.0 0.05047101108 -0.02357455992
640.625 0.04502524101 -0.02898945504
641.25 0.02925371289 -0.03652568348
641.875 0.04277438685 -0.02869600467
642.5 0.05081645779 -0.02209108908
643.125 0.05213563746 -0.005684277087
643.75 0.06180103148 -0.0008401536498
644.375 0.05485779271 -0.01392709032
645.0 0.04519950837 -0.01020285005
645.625 0.03636615142 0.003738367136
646.25 0.04848933671 0.01428685989
646.875 0.07190903064 0.01372496844
647.5 0.06813995569 0.01358155665
648.125 0.04464539413 0.002063155303
648.75 0.04400248116 0.0312195404
649.375 0.05577883204 0.05948032713
650.0 0.05045464268 0.07233821337
650.625 0.04699428912 0.04464297341
651.25 0.02273736158 0.06363377323
651.875 -0.004888346369 0.07119571727
652.5 -0.02272595252 0.05639876085
653.125 -0.01520983362 0.04785968804
653.75 -0.01889614653 0.0221490884
654.375 -0.02688203792 -0.02386562519
655.0 -0.03206165415 -0.0444565062
655.625 -0.0365959081 -0.0342870559
656.25 -0.06490523924 -0.0429804948
656.875 -0.07348120339 -0.02275798957
657.5 -0.08313494307 -0.0381034567
658.125 -0.09752772877 -0.04350733241
658.75 -0.1078303383 -0.01999741548
659.375 -0.08743659135 0.02357522588
660.0 -0.06486574512 0.04625504502
660.625 -0.06150756935 0.04088367923
661.25 -0.04658970328 0.03337803877
661.875 -0.02127346905 0.02991273209
662.5 -0.03374647225 0.03312648697
663.125 -0.04174457127 0.0240765133
663.75 -0.0647488995 -0.01638156431
664.375 -0.05780094048 -0.05092476785
665.0 -0.0416063074 -0.08940191691
665.625 -0.005549310227 -0.0866477398
666.25 0.01975639482 -0.08272145098
666.875 0.03255311529 -0.08925045952
667.5 0.0475584974 -0.09868099974
668.125 0.02498496907 -0.05943585252
668.75 0.01983786167 -0.03986926697
669.375 0.03275921233 -0.03537772748
670.0 0.06811324344 -0.04756437281
670.625 0.0474046201 -0.02643236845
671.25 0.04728902477 -0.03643480572
671.875 0.05219723328 -0.05001663032
672.5 0.04208738851 -0.08606430797
673.125 0.01342526381 -0.08304679695
673.75 -0.007452149734 -0.08578506758
674.375 0.01186533582 -0.0868421561
675.0 0.05201805719 -0.07072216963
675.625 0.03834276679 -0.033709476
676.25 0.05734295204 -0.01973926749
676.875 0.06203549507 -0.001591966558
677.5 0.05004146078 0.03179326772
678.125 0.01923886563 0.03513904811
678.75 0.05074065092 0.06148993142
679.375 0.07268356834 0.08919478391
680.0 0.06424297471 0.08410060476
680.625 0.08295600278 0.05092691802
681.25 0.09375719629 0.02089085258
681.875 0.1120024854 -0.003752506966
682.5 0.08519806491 -0.04216723809
683.125 0.0715437179 -0.04975979455
683.75 0.04679801131 -0.01154614417
684.375 0.06168940463 0.03791821937
685.0 0.02161337442 0.05981176045
685.625 -0.02558450775 0.05665140072
686.25 -0.05929984377 0.0184281841
686.875 -0.07892329511 -0.01780592927
687.5 -0.09219171901 -0.02906435438
688.125 -0.1175243647 -0.0400047669
688.75 -0.1151796289 -0.06239652416
689.375 -0.08659414906 -0.04852013704
690.0 -0.08017811376 -0.04049298665
690.625 -0.1021036649 -0.03785237515
691.25 -0.1059899574 -0.02398451728
691.875 -0.03887190448 0.01793370912
692.5 -0.02908658342 0.0216829281
693.125 -0.02670339101 0.06297235576
693.75 0.009252676712 0.1175258563
694.375 0.01699557083 0.08943228781
695.0 -0.006351531663 0.09940341124
695.625 -0.0818996368 0.06861780877
696.25 -0.1137788315 -0.03630666065
696.875 -0.05949632153 -0.1060403426
697.5 0.02853295127 -0.08068111306
698.125 0.04154543733 -0.06871411705
698.75 0.03253683139 -0.05209021256
699.375 0.04776079463 -0.04322534287
700.0 0.07127717513 -0.02113242068
700.625 0.07522390234 0.01569138602
701.25 0.05970415555 0.02321447532
701.875 0.09314034209 0.007527548098
702.5 0.122941162 -0.03817979062
703.125 0.08048178666 -0.0801155016
703.75 -0.02916617824 -0.08323356501
704.375 -0.07387968642 -0.04752035724
705.0 -0.02890228318 -0.07716193058
705.625 0.01144833961 -0.08296073667
706.25 0.04001980439 -0.05330764314
706.875 0.05318131265 0.00704431997
707.5 0.04109258778 0.05952436195
708.125 -0.02512623518 0.08380460471
708.75 -0.06032308983 0.07915013015
709.375 -0.08517107638 0.0365441269
710.0 -0.08839123224 -0.002195456882
710.625 -0.06324433607 -0.05323426047
711.25 -0.07740328942 -0.07253620485
711.875 -0.09636511218 -0.05700526718
712.5 -0.08245877587 -0.002418322624
713.125 -0.03932401849 0.04504561527
713.75 -0.03023341958 0.04914429017
714.375 -0.02643742626 0.0621132824
715.0 5.107044037e-06 0.06001659242
715.625 -0.04299213174 0.06148284063
716.25 -0.05718424803 0.07305829163
716.875 -0.09763791896 0.04577478356
717.5 -0.09547122436 -0.01960680731
718.125 -0.08038335435 -0.01708584907
718.75 -0.06400829223 -0.050957069
719.375 -0.0310672564 -0.08749715594
720.0 0.0008752895928 -0.07859210171
720.625 0.03078887539 -0.06672184062
721.25 0.04213762889 0.02047240932
721.875 0.008879678499 0.03467740033
722.5 -0.03323918376 0.03296532134
723.125 -0.04667966728 0.06286356636
723.75 0.008355014234 0.09977983233
724.375 0.06831053086 0.06152867272
725.0 0.07610637614 -0.01816567377
725.625 0.04156627941 -0.0540503428
726.25 0.06331816515 -0.03410859944
726.875 0.05046182991 -0.02416844003
727.5 0.04018595625 -0.004180485329
728.125 0.03953438601 0.03566107594
728.75 0.02965532905 0.03907728893
729.375 0.03839072751 0.04449850981
730.0 0.04606660311 0.04523168343
730.625 0.01663114514 0.04517384463
731.25 0.002855968013 0.02679775959
731.875 -0.06650999766 0.03816227984
732.5 -0.06759749919 0.001971813882
733.125 -0.05043452894 -0.007179992223
733.75 -0.02413261036 0.01133468999
734.375 -0.04794493339 -0.02653958568
735.0 -0.05760526264 -0.01333454926
735.625 -0.02718521198 -0.005835604052
736.25 -0.008115767023 -0.01886561716
736.875 -0.08447965022 -0.01218191416
737.5 -0.09367990267 -0.0247609227
738.125 -0.07178908888 -0.03005432729
738.75 -0.03001747734 0.001806997784
739.375 -0.04729247155 -0.05104541073
740.0 -0.01739712625 -0.04359535349
740.625 -0.02680416718 -0.02909678504
741.25 -0.0320394599 -0.02483657505
741.875 0.008495549274 -0.01521884195
742.5 0.05858396937 -0.01072585872
743.125 0.01319977105 0.02987485053
743.75 -0.008033050942 0.03281935359
744.375 -0.02915009447 0.02344230995
745.0 -0.03735830736 0.03217861706
745.625 -0.03851414356 0.05259975956
746.25 0.005779491779 0.07493723686
746.875 0.02894598685 0.04726557562
747.5 0.05669514659 -0.001838842838
748.125 0.03373224558 -0.01152825358
748.75 0.02604244199 0.002091491593
749.375 0.02004095915 -0.02116722133
750.0 -0.005083733328 -0.02828748491
