!Created with skrf (http://scikit-rf.org).
# GHz S RI R 50.0 
!freq ReS11 ImS11
500.0 -0.01351881428 0.02197417379
500.625 0.01541710691 0.04020375546
501.25 0.04586446013 -0.0004822921314
501.875 0.03044706534 0.005682911013
502.5 0.009892758745 0.03817264737
503.125 0.0326366062 0.02484425091
503.75 0.04296716021 0.008183023328
504.375 0.04597230009 -0.005105710981
505.0 0.04290982219 -0.02690252615
505.625 0.05414583266 -0.04487952674
506.25 0.03492783645 -0.05489763945
506.875 0.06344192264 -0.03828290693
507.5 0.06475761181 -0.03853442428
508.125 0.06197284354 -0.05731769505
508.75 0.02456511766 -0.06698689882
509.375 0.01448408533 -0.05485826068
510.0 0.08233631486 -0.03676808954
510.625 -0.02839143946 -0.05863442834
511.25 -0.04142308381 -0.04717989996
511.875 -0.04969487225 -0.01563979227
512.5 -0.03500107438 0.0059757324
513.125 -0.01364669141 0.03705392066
513.75 -0.004353075005 0.04039851947
514.375 -0.00864910564 0.0573849124
515.0 0.00968144483 0.08583820826
515.625 -0.02893604937 0.09425056315
516.25 0.0431665627 0.08330599791
516.875 -0.03555516946 0.1221138925
517.5 0.03730271116 0.1163397893
518.125 -0.02853013113 0.1423422543
518.75 0.02419472076 0.0506676069
519.375 0.01203978074 0.0711158086
520.0 0.05423404196 0.05705143356
520.625 0.06589871723 0.03960673692
521.25 0.05801409973 0.02055409907
521.875 0.04138756825 0.04319101643
522.5 0.07047235637 0.01147954455
523.125 0.1173125727 -0.04300695486
523.75 0.096908722 -0.09639825875
524.375 0.08083549328 -0.04173127457
525.0 0.00770473922 0.00478612194
525.625 0.005473491482 0.01481405217
526.25 0.01520939009 0.03950710287
526.875 0.02107471017 0.03736940763
527.5 0.02631283114 0.02113162944
528.125 0.04016321359 0.0010447443
528.75 0.04860146938 -0.01284856599
529.375 0.03729590481 -0.04126030646
530.0 0.005354002208 -0.01428862211
530.625 0.003603354846 -0.06041299631
531.25 -0.002955193932 -0.1421459764
531.875 -0.0610392023 -0.150774448
532.5 -0.0892773547 -0.05405561382
533.125 -0.07972513314 -0.04631143603
533.75 -0.08057461715 -0.06023748713
534.375 -0.0728803372 -0.03719544105
535.0 -0.07153910046 -0.01832824761
535.625 -0.03603751603 -0.02688135693
536.25 -0.03644688168 -0.02986164556
536.875 -0.05225354166 -0.06087292567
537.5 -0.04454489449 -0.0603386973
538.125 -0.06879974383 -0.04236546196
538.75 -0.06412217125 -0.02484942932
539.375 -0.04623097181 -0.0464175394
540.0 -0.05243306325 -0.07763409638
540.625 -0.06007508703 -0.09026725603
541.25 -0.04828226511 -0.07598187948
541.875 -0.05972940161 -0.0825534044
542.5 -0.04849175093 -0.07114124396
543.125 -0.09508142104 -0.05466354775
543.75 -0.09470150306 0.02800464368
544.375 -0.06298752257 0.04293324972
545.0 -0.02889066032 0.065424022
545.625 -0.007087985928 0.06031066278
546.25 0.01821397416 0.05842206188
546.875 0.02629107569 0.06781448121
547.5 0.02411435295 0.08369971504
548.125 0.01251857617 0.06931995122
548.75 0.004319939411 0.0681778668
549.375 -0.01356859339 0.07840014667
550.0 -0.04077598743 0.04005885079
550.625 -0.0162865602 0.005716359476
551.25 -0.0104584544 -0.0264007087
551.875 -0.04893281033 -0.03530853192
552.5 -0.06706877418 -0.03624206365
553.125 -0.06970749023 -0.01757348549
553.75 -0.07754533864 -0.0174350638
554.375 -0.09006143147 0.01120604394
555.0 -0.09260340038 0.03116144051
555.625 -0.06622593617 0.03362743649
556.25 -0.07091267559 0.0199660125
556.875 -0.08779860775 0.02586322411
557.5 -0.08901447752 0.04330161538
558.125 -0.06100014047 0.03186416144
558.75 -0.05920715298 0.01323139674
559.375 -0.04221932695 0.006376881596
560.0 -0.02639045424 0.001031335513
560.625 -0.03155412068 -0.02462600158
561.25 -0.05742289383 -0.03187220154
561.875 -0.07435737347 -0.01492011263
562.5 -0.0720393706 0.03137492026
563.125 -0.06194001975 0.05964760675
563.75 -0.04832801155 0.0941433101
564.375 -0.01922440011 0.08818133657
565.0 -0.01191350988 0.07804673378
565.625 -0.00596631507 0.06486070028
566.25 -0.03807992866 0.05207659066
566.875 -0.05111652373 0.03208327284
567.5 -0.06173361652 0.03280841714
568.125 -0.04717636074 0.01153412844
568.75 -0.04424858569 0.008106888558
569.375 -0.02748916962 -0.007075002479
570.0 -0.03145281923 -0.02243915756
570.625 -0.02960178075 -0.0415427522
571.25 -0.03608973158 -0.03430800528
571.875 -0.05013495959 -0.02801990213
572.5 -0.08708408701 0.003594709479
573.125 -0.09452665479 0.01638902808
573.75 -0.05679247092 0.0645700555
574.375 -0.02261413493 0.06795778365
575.0 -0.02989674853 0.07674040033
575.625 -0.04660635714 0.06108940581
576.25 -0.02937926348 0.07166965246
576.875 -0.006301651353 0.07748835781
577.5 0.006166190015 0.0772575421
578.125 -0.01199750929 0.05398431467
578.75 -0.01105545679 0.03627319587
579.375 -0.006687856055 0.04178539635
580.0 -0.005964551069 0.04432499173
580.625 -0.02902159442 5.371242972e-06
581.25 -0.05220821019 0.004524289578
581.875 -0.06309646997 0.03116644004
582.5 -0.06834182208 0.05760565193
583.125 -0.05671269425 0.05078127927
583.75 -0.05566310096 0.03913473607
584.375 -0.06513061161 0.03287183069
585.0 -0.0750863784 0.01416642786
585.625 -0.05976295107 0.02213679664
586.25 -0.05323520427 0.01712761986
586.875 -0.05576182715 0.01111212929
587.5 -0.05528074919 0.03322951342
588.125 -0.02648086558 0.04550812599
588.75 -0.01643258693 0.04436494074
589.375 -0.02511272434 0.03255857682
590.0 -0.04005187051 0.0234607122
590.625 -0.03551929654 0.05304549754
591.25 -0.03162387516 0.08099092579
591.875 -0.0267694398 0.09271047897
592.5 0.003427150507 0.07614983309
593.125 0.01258522333 0.06237944535
593.75 -0.005109538889 0.06254553878
594.375 -0.02051632144 0.05882626161
595.0 -0.02891215326 0.03712590376
595.625 -0.02871343577 0.01670740236
596.25 -0.03706228539 -0.01055343896
596.875 -0.03490777613 -0.02421114063
597.5 -0.038008391 -0.01150097355
598.125 -0.02351479925 -0.01651915583
598.75 -0.01618375692 -0.03235980661
599.375 -0.01090750883 -0.03421484027
600.0 -0.02268504675 -0.03811847743
600.625 -0.02373218587 -0.08275233654
601.25 -0.04745886161 -0.06349095371
601.875 -0.05827101442 -0.03626199323
602.5 -0.05911133483 -0.03045136896
603.125 -0.05692001188 -0.02450738381
603.75 -0.0288313301 -0.03223514939
604.375 -0.01649482239 -0.0290930057
605.0 -0.007559082207 -0.03807106842
605.625 -0.02011030729 -0.03678355967
606.25 0.002769278264 -0.04683052764
606.875 -0.006447684298 -0.02260532713
607.5 -0.002410006697 -0.003737210834
608.125 0.004232127339 -0.0006575778168
608.75 0.02538491262 -0.02566086393
609.375 0.04111259159 -0.02671165294
610.0 0.04322964225 -0.01234996182
610.625 0.03236295018 -0.01362316768
611.25 0.06773521747 -0.03109658245
611.875 0.05658994232 -0.02183317396
612.5 0.03436061067 -0.01695836915
613.125 0.02292122508 -0.009264048249
613.75 0.0129829593 0.002019491588
614.375 0.03400388123 0.02196589402
615.0 0.04292682157 0.01830367959
615.625 0.01959461907 0.00744683384
616.25 -0.004598768682 0.01337449575
616.875 0.0370681941 0.03929460265
617.5 0.03230473531 0.02850830266
618.125 0.02945934186 0.02821213949
618.75 0.0126792688 0.02455850541
619.375 0.03328498343 0.0444478024
620.0 0.0316692529 0.02878110208
620.625 0.03672922748 0.003947498751
621.25 0.02489316501 0.000527214023
621.875 0.003063795421 -0.01148574263
622.5 -0.02515197571 0.00512784853
623.125 -0.02597244783 0.0378241344
623.75 -0.03039019895 0.05222029806
624.375 -0.01996798778 0.05733963529
625.0 -0.02807310488 0.05077872556
625.625 -0.04007220636 0.05184523085
626.25 -0.04708774742 0.05347157266
626.875 -0.007583356816 0.08412811901
627.5 -0.01040969981 0.05657974618
628.125 -0.02733002267 0.03035510932
628.75 -0.02977019461 0.01532365333
629.375 -0.02287639777 0.02934457206
630.0 -0.0125954801 0.01055880257
630.625 -0.006987621689 -0.008435501112
631.25 0.002718889932 -0.04697261045
631.875 -0.02565449163 -0.02618587997
632.5 -0.02445662604 -0.04129752005
633.125 -0.02194856478 -0.06282317558
633.75 -0.03310694977 -0.04927573499
634.375 -0.02956492457 -0.05807827781
635.0 -0.05355388046 -0.0410571635
635.625 -0.06456499851 -0.01963923246
636.25 -0.04201516419 -0.02076744316
636.875 -0.021927763 -0.05462008779
637.5 -0.03801269125 -0.054507273
638.125 -0.04642451978 -0.04352084644
638.75 -0.03728779909 -0.02198976752
639.375 -0.002767772703 -0.01787760972
640.0 0.04147745069 -0.02660730207
640.625 0.0481385758 -0.02964200752
641.25 0.03489286999 -0.03280648743
641.875 0.04667563334 -0.03041713177
642.5 0.03976826186 -0.0327160119
643.125 0.0525022041 -0.0107734576
643.75 0.06326354066 -0.01018261083
644.375 0.06344825347 -0.01439945286
645.0 0.03751944956 -0.02247105278
645.625 0.03944914757 0.003315203357
646.25 0.05578944982 0.01615382671
646.875 0.07057467798 0.014389044
647.5 0.06666189361 0.0105415027
648.125 0.04877721699 0.007394474558
648.75 0.04298370053 0.03050096641
649.375 0.05597427392 0.06737324077
650.0 0.05074637868 0.06883244375
650.625 0.0505786628 0.04132773767
651.25 0.03051098427 0.05781272628
651.875 -0.007197894194 0.07250049802
652.5 -0.02610417602 0.06137190705
653.125 -0.0003333382204 0.04832278863
653.75 -0.01511260776 0.02156465593
654.375 -0.02609516958 -0.01831557156
655.0 -0.03028687704 -0.03873808248
655.625 -0.04573039193 -0.0408890707
656.25 -0.06130455485 -0.03371765104
656.875 -0.07643916144 -0.02570189157
657.5 -0.09082195578 -0.03751591867
658.125 -0.09300407969 -0.02988269773
658.75 -0.1088764418 -0.01499102356
659.375 -0.08683229049 0.0309283419
660.0 -0.06005762699 0.04621145071
660.625 -0.05525861571 0.04252913927
661.25 -0.04977058219 0.03600553764
661.875 -0.02628431308 0.03385140745
662.5 -0.03614279833 0.03885134127
663.125 -0.03293299867 0.02029091913
663.75 -0.06197497487 -0.01399153101
664.375 -0.05606130357 -0.04154811752
665.0 -0.04605339167 -0.08803563918
665.625 -0.006575310757 -0.09908701608
666.25 0.02170392363 -0.09091697619
666.875 0.02955961739 -0.08701406808
667.5 0.04440644044 -0.097522523
668.125 0.03691968796 -0.06480404979
668.75 0.02469189725 -0.04373960078
669.375 0.03449858888 -0.03667825726
670.0 0.0656733176 -0.05077873428
670.625 0.04991942806 -0.02784219192
671.25 0.04371108916 -0.03641944122
671.875 0.04882936712 -0.04625277316
672.5 0.03747003443 -0.09510881387
673.125 0.00917828776 -0.08265706731
673.75 -0.009182813662 -0.0941291268
674.375 0.0122618671 -0.08916103948
675.0 0.05046448664 -0.07068963695
675.625 0.04309860329 -0.03654311114
676.25 0.06663571146 -0.02586983128
676.875 0.07036346759 -0.003808741702
677.5 0.04929865847 0.03045793373
678.125 0.02003877423 0.03432001896
678.75 0.04832666328 0.05902993954
679.375 0.0650453308 0.07959155058
680.0 0.07275476169 0.08670342477
680.625 0.07714741275 0.044553467
681.25 0.09935504651 0.02040118146
681.875 0.1234098071 -0.01050024717
682.5 0.09116783991 -0.0440356641
683.125 0.07200947121 -0.05396423292
683.75 0.04782753945 -0.0136519825
684.375 0.06078057633 0.03390252092
685.0 0.02898564938 0.05995681247
685.625 -0.02185390093 0.06432672261
686.25 -0.05049024945 0.01342134181
686.875 -0.07735050364 -0.01862317668
687.5 -0.08188214834 -0.02704871183
688.125 -0.1264406182 -0.03310083194
688.75 -0.1059209087 -0.05609242738
689.375 -0.08830668602 -0.04708996117
690.0 -0.0909340086 -0.03878980475
690.625 -0.09913636467 -0.03639798558
691.25 -0.1033626013 -0.0210612721
691.875 -0.04850521099 0.02435457124
692.5 -0.0280071171 0.0306934622
693.125 -0.01839208983 0.06849003737
693.75 0.02551373232 0.1226427444
694.375 0.009517907529 0.0844479623
695.0 -0.003156878795 0.0965560071
695.625 -0.07915126937 0.08265711555
696.25 -0.1102533856 -0.03532001814
696.875 -0.0566863639 -0.1069036722
697.5 0.02656773872 -0.08235616474
698.125 0.04173737883 -0.06459368992
698.75 0.03204385536 -0.05242241392
699.375 0.04867469843 -0.03693347564
700.0 0.07169962893 -0.02007715513
700.625 0.06810606258 0.01277129404
701.25 0.06061637477 0.02311310772
701.875 0.09110289939 0.01159522227
702.5 0.1239537034 -0.04545748274
703.125 0.08341888156 -0.09173566141
703.75 -0.03321165894 -0.08894689703
704.375 -0.0730804137 -0.04768208704
705.0 -0.01902001608 -0.07337040795
705.625 0.01211261371 -0.08060216065
706.25 0.03834052554 -0.04745388841
706.875 0.05635355878 -0.003214953711
707.5 0.03389713227 0.06037108358
708.125 -0.01881798052 0.08725863033
708.75 -0.05037606528 0.08562620379
709.375 -0.0840718908 0.04490735165
710.0 -0.08827340502 -0.003097979827
710.625 -0.07063227147 -0.04767565264
711.25 -0.09099663139 -0.06352612699
711.875 -0.1082694523 -0.04746763827
712.5 -0.07375299651 -0.004489372144
713.125 -0.03748451051 0.04516960684
713.75 -0.01341866208 0.05778654789
714.375 -0.01544471223 0.07037761289
715.0 -0.004544207213 0.0596593367
715.625 -0.03979338125 0.06280871169
716.25 -0.06105715923 0.07117558269
716.875 -0.103937468 0.03437787131
717.5 -0.09861089633 -0.008635252594
718.125 -0.08227060585 -0.01889073601
718.75 -0.0709494084 -0.04419138168
719.375 -0.04179352859 -0.08255360786
720.0 -0.0003605293524 -0.0806383076
720.625 0.0296960003 -0.06720847334
721.25 0.04885331864 0.01219882252
721.875 0.007398269751 0.02790436264
722.5 -0.01734604146 0.03239701997
723.125 -0.06254458729 0.06594771184
723.75 0.01203386878 0.0952897138
724.375 0.07261715295 0.052410429
725.0 0.07317373116 -0.02127897598
725.625 0.0436498092 -0.05374124518
726.25 0.07619230962 -0.02595054467
726.875 0.05466535622 -0.02414059426
727.5 0.0466895423 0.0009065445366
728.125 0.03965383803 0.018010418
728.75 0.02847661605 0.05046897645
729.375 0.04060387291 0.03864921155
730.0 0.04657607565 0.03481208931
730.625 0.02072070616 0.03869722082
731.25 0.003173479764 0.03069711199
731.875 -0.05833414165 0.04157007392
732.5 -0.07129939957 0.001165281836
733.125 -0.05201180229 -0.01149168678
733.75 -0.02208384167 0.01322538742
734.375 -0.03792790973 -0.01440633455
735.0 -0.0410963863 -0.002380889184
735.625 -0.03821725336 -0.001301719036
736.25 -0.01732057326 -0.01372724857
736.875 -0.06312840127 -0.007048625414
737.5 -0.08423676296 -0.01957050852
738.125 -0.07300436396 -0.02069167424
738.75 -0.02955302394 0.0005198737616
739.375 -0.04955437998 -0.04351165149
740.0 -0.02502156761 -0.04582126813
740.625 -0.02328567022 -0.03083470784
741.25 -0.02168180485 -0.01907682518
741.875 0.003280848451 -0.02263796103
742.5 0.03860158539 -0.004497699916
743.125 0.0001709918432 0.02495579948
743.75 -0.01353351176 0.02174840766
744.375 -0.01755594619 0.03967884756
745.0 -0.03255207151 0.04069562665
745.625 -0.03322100751 0.06090462222
746.25 0.009238887104 0.07353648733
746.875 0.03671172008 0.04296956043
747.5 0.04443956291 0.003285420289
748.125 0.03772719924 -0.01707647655
748.75 0.02685594475 -0.008033560204
749.375 0.02704133421 -0.01429236965
750.0 -0.02020098069 -0.03178912814
