!Created with skrf (http://scikit-rf.org).
# GHz S RI R 50.0 
!freq ReS11 ImS11
500.0 -0.01093468383 0.02057167599
500.625 0.02411501196 0.003914444824
501.25 0.02558812875 -0.01742612022
501.875 0.01876178659 0.002183459407
502.5 0.00712955535 0.02552651675
503.125 0.02385069144 0.01198660185
503.75 0.03413423718 -0.006269125162
504.375 0.04750094605 -0.007476134625
505.0 0.02468824879 -0.03126495139
505.625 0.02995850494 -0.05010654448
506.25 0.01875338262 -0.05941191652
506.875 0.05180706379 -0.06349841004
507.5 -0.01043711143 -0.06589377752
508.125 0.02733178212 -0.06542470478
508.75 0.01033161678 -0.0749841476
509.375 0.01607618543 -0.06502810724
510.0 0.0002543251618 -0.05366303315
510.625 -0.03781687511 -0.03980380963
511.25 -0.05713838498 -0.03190072445
511.875 -0.0589215985 -0.001617745017
512.5 -0.02365093787 0.03600962298
513.125 0.009646888783 0.04537447167
513.75 0.008423079445 0.04945605341
514.375 0.01434982767 0.05435288828
515.0 0.04933711187 0.04787358879
515.625 0.005217162288 0.09780176366
516.25 0.06038191279 0.08430377986
516.875 -0.003635014089 0.1353794945
517.5 0.1022581202 0.05751740807
518.125 0.0004967322791 0.1590197809
518.75 0.05615568224 0.04586302962
519.375 0.05319101818 0.04534312778
520.0 0.08314516163 0.03294778831
520.625 0.08629429367 0.02422539635
521.25 0.07533939378 -0.005795242507
521.875 0.0656796191 0.02817590993
522.5 0.0834717502 -0.02546485927
523.125 0.1343589772 -0.06969685867
523.75 0.1205495009 -0.1394465257
524.375 0.1451508238 -0.08361513421
525.0 0.03643562328 -0.02679416215
525.625 0.0240178714 -0.0115658183
526.25 0.0457484371 0.01916173608
526.875 0.03280933492 -0.01475897056
527.5 0.03628639604 -0.007348754679
528.125 0.03225944308 -0.02550597019
528.75 0.03326365233 -0.04655307325
529.375 -0.01306716 -0.06077307207
530.0 -0.01762406534 -0.01568879607
530.625 -0.02065685602 -0.03174196106
531.25 -0.08230889302 -0.1259722639
531.875 -0.09922426578 -0.06937766791
532.5 -0.1154890615 -0.02304309546
533.125 -0.09657093663 -0.0004074602713
533.75 -0.1146040591 0.004628535927
534.375 -0.08416663162 0.006546258546
535.0 -0.07614828006 0.02713442798
535.625 -0.05793127733 0.000619087029
536.25 -0.06187858914 0.01433806056
536.875 -0.04295721456 -0.01039267621
537.5 -0.06265434931 -0.03845690758
538.125 -0.09107096358 -0.004264907028
538.75 -0.1046443016 0.007275264272
539.375 -0.04879532822 0.006041488848
540.0 -0.07291736448 -0.0248010261
540.625 -0.09363613465 -0.03122146024
541.25 -0.1094076763 -0.05919562689
541.875 -0.05996450604 -0.03222414254
542.5 -0.068806443 -0.04749554145
543.125 -0.1143991021 -0.006999322991
543.75 -0.1122040048 0.07599091256
544.375 -0.04597126252 0.0765697305
545.0 0.02106569594 0.07739690672
545.625 0.0382163739 0.0811770425
546.25 0.06652054174 0.06039186036
546.875 0.07352896278 0.05509629772
547.5 0.08084466922 0.06125452931
548.125 0.06495258564 0.07716756008
548.75 0.05022607795 0.0932349602
549.375 0.0469325683 0.07189583338
550.0 0.004658681516 0.09399509429
550.625 -0.009307768827 0.05550602577
551.25 -0.01910655463 0.01452533665
551.875 -0.02887871561 0.004611213489
552.5 -0.0590658492 0.01696739262
553.125 -0.05684846312 0.01958470634
553.75 -0.06589069797 0.02324805141
554.375 -0.06214616213 0.04560085993
555.0 -0.06317875531 0.0737947775
555.625 -0.05175123125 0.06933339187
556.25 -0.05519622826 0.05773845548
556.875 -0.07163770129 0.07773136774
557.5 -0.05956622824 0.06212692575
558.125 -0.06171072574 0.06929893138
558.75 -0.067228556 0.05241790183
559.375 -0.04790604057 0.05584307405
560.0 -0.03255673389 0.03224262037
560.625 -0.03135747194 0.0164813355
561.25 -0.04746371483 0.0118259931
561.875 -0.0669631375 0.03584136924
562.5 -0.04855209674 0.0488041281
563.125 -0.02355184528 0.07972783574
563.75 0.009862543062 0.1040403893
564.375 0.02000743814 0.09829593946
565.0 0.02190537762 0.09143966315
565.625 0.03560439431 0.07798130981
566.25 0.009922517015 0.08007330793
566.875 -0.02719269474 0.08164426193
567.5 -0.03696503764 0.04558757753
568.125 -0.04591444252 0.05306084999
568.75 -0.04623804476 0.05342910183
569.375 -0.04420522999 0.04473016525
570.0 -0.01953574102 0.0010061048
570.625 -0.04312695781 0.004090459352
571.25 -0.05513265975 0.01121716308
571.875 -0.04498407207 0.01873191453
572.5 -0.05987790219 0.01246085132
573.125 -0.07267512921 0.06297883531
573.75 -0.0307142358 0.0962427705
574.375 0.0151024714 0.08229345549
575.0 0.008177847672 0.06733407118
575.625 0.0003747715029 0.08835681989
576.25 0.003671634277 0.08928940253
576.875 0.02521774043 0.07333589982
577.5 0.04279657468 0.06986984002
578.125 0.0378865735 0.08188771851
578.75 0.02299736765 0.06278635989
579.375 0.03241290932 0.05547982755
580.0 0.01564441549 0.03948839009
580.625 0.002825825419 0.03210303883
581.25 -0.01533473405 0.02992368669
581.875 -0.01815071494 0.0489253192
582.5 -0.04533266577 0.06388508358
583.125 -0.02908391966 0.07572852102
583.75 -0.02194051717 0.06737525399
584.375 -0.02789519639 0.06321015362
585.0 -0.05774690762 0.06377083517
585.625 -0.05011453362 0.05621919172
586.25 -0.03345800275 0.05051513534
586.875 -0.0245330755 0.06264939096
587.5 -0.04913966707 0.0459668535
588.125 -0.00649506122 0.06522195728
588.75 0.01668611845 0.05479914973
589.375 0.03808313522 0.04285503528
590.0 -0.003527151249 0.0417819062
590.625 -0.007295237404 0.05057615993
591.25 0.007787862444 0.0708012121
591.875 0.02856331077 0.09077646053
592.5 0.04929649769 0.0807161844
593.125 0.03930255363 0.06205656973
593.75 0.03562483592 0.05749085956
594.375 0.020842867 0.07959279291
595.0 -0.0192309698 0.05775591188
595.625 -0.02048817629 0.04039186696
596.25 -0.03153890107 0.03462932273
596.875 -0.04723236896 0.01920908377
597.5 -0.04355580441 0.0251448607
598.125 -0.0374625911 0.0127895419
598.75 -0.02376314647 0.01504128538
599.375 -0.01450051098 0.009015997314
600.0 -0.03676444355 -0.03842767737
600.625 -0.04972179192 -0.04357809654
601.25 -0.06603275217 -0.03296505815
601.875 -0.06765091979 -0.009180588408
602.5 -0.06578543622 -0.001137433379
603.125 -0.06940104383 -0.002218926771
603.75 -0.06712526658 -0.01153150419
604.375 -0.04101136315 -0.007583921932
605.0 -0.0308224629 -0.005359344701
605.625 -0.03568057822 -0.06053940505
606.25 -0.03871716146 -0.05347452463
606.875 -0.03268387707 -0.02968186044
607.5 -0.02523501062 0.0024795479
608.125 -0.005641905574 -0.03637885784
608.75 -0.01012310848 -0.02386600195
609.375 0.002706410914 -0.02216313566
610.0 0.01258436642 -0.01009234042
610.625 0.04717821119 -0.05343491214
611.25 0.04036821345 -0.05081250898
611.875 0.04051397884 -0.04733405263
612.5 0.01773971301 -0.03315799856
613.125 0.02346734577 -0.03076141441
613.75 0.01577101305 -0.01449235394
614.375 0.0274321508 -0.01115469226
615.0 0.03775560679 -0.01281151428
615.625 0.02061536037 -0.0100361639
616.25 0.03027528138 -0.005289646945
616.875 0.03734826023 0.001330791048
617.5 0.03880103267 0.01023233225
618.125 0.04182576546 0.01284021961
618.75 0.03892131836 0.01480861388
619.375 0.04671108511 0.0196779501
620.0 0.04620473888 0.02134382576
620.625 0.06983074741 -0.003500093651
621.25 0.05200943895 -0.01536247447
621.875 0.01985671363 -0.02055359946
622.5 -0.01337772671 -0.008673308447
623.125 -0.01770400682 0.02893470646
623.75 0.006976157056 0.03899857539
624.375 0.00234695272 0.04488130588
625.0 -0.0174324365 0.0416351319
625.625 -0.03371381713 0.05695150415
626.25 0.02723183373 0.08398689098
626.875 0.02194987838 0.08587672252
627.5 0.009102626603 0.06794047488
628.125 -0.01892702685 0.04798980628
628.75 0.0009361012224 0.07509611035
629.375 -0.01066882979 0.05361964861
630.0 -0.01315493948 0.02950002472
630.625 -0.02224008851 0.003562474701
631.25 -0.01814849594 0.01396033994
631.875 -0.02450270041 -0.002171439399
632.5 -0.03325554371 -0.01480469111
633.125 -0.0476349565 -0.04518479412
633.75 -0.05543512224 -0.02566462048
634.375 -0.05545311326 -0.02774104818
635.0 -0.06244149433 -0.01705192118
635.625 -0.07648462082 -0.000825180081
636.25 -0.06331670537 -0.01200341039
636.875 -0.04823501743 0.01367226524
637.5 -0.0592049504 -0.01710611192
638.125 -0.08367985941 -0.01660092523
638.75 -0.06261317915 -0.01859570023
639.375 -0.03737508454 -0.008756941156
640.0 -0.006716039276 -0.03654127119
640.625 0.02202990308 -0.06133407779
641.25 0.01397425664 -0.05254130208
641.875 0.00273018734 -0.05008243642
642.5 0.01174477562 -0.05032229022
643.125 0.04715848035 -0.04556702163
643.75 0.06470143481 -0.04149495146
644.375 0.01275469155 -0.0609327716
645.0 0.02106446806 -0.0598657669
645.625 0.03712869529 -0.03956685253
646.25 0.04795861438 -0.025830517
646.875 0.06011084018 -0.0340680787
647.5 0.05835325093 -0.0452181508
648.125 0.04930182522 -0.0267717136
648.75 0.0574954022 4.931833645e-05
649.375 0.08237099748 0.02177665077
650.0 0.08527981926 0.02854494225
650.625 0.06766059214 0.02492377033
651.25 0.064486454 0.05053705769
651.875 0.04227060902 0.09567376547
652.5 0.03238821332 0.07126965672
653.125 0.01962886465 0.06655071697
653.75 -0.0004007255279 0.06728772046
654.375 -0.02298307619 0.03946217061
655.0 -0.03728216389 0.003910454275
655.625 -0.04825677789 -0.003415469168
656.25 -0.06901923724 0.01680768478
656.875 -0.09471017461 0.034682305
657.5 -0.05633638783 0.01642117893
658.125 -0.08290542705 0.01093786781
658.75 -0.0958296362 0.05348711933
659.375 -0.09502201219 0.08709035032
660.0 -0.03400986616 0.09131608907
660.625 -0.01501289728 0.0886755037
661.25 -0.008343920129 0.0953782644
661.875 0.004264415573 0.07190909425
662.5 0.02088266761 0.04725194162
663.125 0.003787871128 0.04438985933
663.75 -0.04103629949 0.04866090817
664.375 -0.0769238341 0.0008881857878
665.0 -0.05262097646 -0.02719398469
665.625 -0.07053383353 -0.06642554644
666.25 -0.04172100875 -0.1023320201
666.875 -0.01876633895 -0.09883144158
667.5 -0.01987649012 -0.09823742864
668.125 -0.02253834115 -0.1066722487
668.75 -0.01326524752 -0.08527168024
669.375 -0.003245037048 -0.07346943891
670.0 0.006462410706 -0.05536994739
670.625 0.01737344656 -0.07630493384
671.25 0.0002514801258 -0.06925937583
671.875 -0.005535119488 -0.08295150879
672.5 -0.01519157845 -0.06299416171
673.125 -0.04318673724 -0.08621491814
673.75 -0.06346554765 -0.08540984873
674.375 -0.06079536632 -0.09121606779
675.0 -0.01786457654 -0.09993056418
675.625 0.022591028 -0.08486061617
676.25 0.03941942345 -0.0793573558
676.875 0.04929047015 -0.07758134105
677.5 0.05417544011 -0.04986137531
678.125 0.03824195442 -0.004065294887
678.75 0.04867075387 0.00793401871
679.375 0.08990972713 0.005403348858
680.0 0.08796152404 0.0207735081
680.625 0.09505493778 0.006101296693
681.25 0.09777177069 -0.0394180487
681.875 0.09196893184 -0.0873267005
682.5 0.06993269835 -0.1348581557
683.125 0.03456487551 -0.08838553717
683.75 0.04049864325 -0.06775090022
684.375 0.07780853893 -0.04048893468
685.0 0.09732945388 0.03407721134
685.625 0.03099713852 0.04526041698
686.25 -0.003784374273 0.05457535748
686.875 -0.03903629954 0.04277988318
687.5 -0.07914774561 0.03753270211
688.125 -0.08657143291 0.01001010912
688.75 -0.1192410531 0.02304514587
689.375 -0.1189655293 0.01425198009
690.0 -0.1089957212 0.01457763017
690.625 -0.1045018753 0.03331451999
691.25 -0.1086335864 0.08560694142
691.875 -0.06260483962 0.09848653008
692.5 0.02302051385 0.06719103346
693.125 0.05864846777 0.03575956166
693.75 0.0594973234 0.04912813197
694.375 0.08003591241 0.06501003588
695.0 0.05522845541 0.07043789875
695.625 -0.0003747001693 0.1018692855
696.25 -0.1026654982 0.05355496005
696.875 -0.106385718 -0.06222279827
697.5 -0.03810340284 -0.1057359094
698.125 -0.03055620714 -0.1117634369
698.75 -0.01922289524 -0.09829541935
699.375 -0.003754559997 -0.07157836317
700.0 0.01832730281 -0.07027601634
700.625 0.0526377128 -0.083457116
701.25 0.05995460202 -0.02646748248
701.875 0.06144382035 -0.034427065
702.5 0.05422541114 -0.09404950088
703.125 -0.001777936785 -0.1603463611
703.75 -0.103398105 -0.09199459899
704.375 -0.09677115181 -0.008900237878
705.0 -0.0882650867 -0.01452077462
705.625 -0.08382867455 -0.07057761795
706.25 -0.02245336474 -0.1010295397
706.875 0.04304017351 -0.02935505036
707.5 0.05609797729 -0.009336468048
708.125 0.05740207884 0.05462353355
708.75 0.01751930585 0.08898337874
709.375 -0.0493526981 0.07271018389
710.0 -0.07179247813 0.05112227857
710.625 -0.08937439857 0.0111889493
711.25 -0.1035640862 0.004198308231
711.875 -0.1170619385 -0.01838477086
712.5 -0.1054649201 0.05208860191
713.125 -0.01523127508 0.08649890515
713.75 0.06166915373 0.05925242439
714.375 0.08334128187 0.03056245733
715.0 0.05809471012 0.05030047224
715.625 0.02215026534 0.05673116562
716.25 0.003019381832 0.06580215817
716.875 -0.0004993940246 0.08539501454
717.5 -0.1069945673 0.03632044298
718.125 -0.08623230349 0.02655136396
718.75 -0.07829402377 0.02584503472
719.375 -0.09142304695 -0.0125298981
720.0 -0.08238708606 -0.05535777909
720.625 0.02322723125 -0.09064954992
721.25 0.06666304945 -0.05151016433
721.875 0.07147259617 -0.001762289059
722.5 0.001952388615 0.05681813523
723.125 0.01156117243 0.06088816503
723.75 0.06110605882 0.03542674384
724.375 0.08373071018 -0.008583466111
725.0 0.03753467518 -0.05628099998
725.625 0.03456184298 -0.08026036634
726.25 0.04084642988 -0.09857467675
726.875 0.03818164795 -0.07107860206
727.5 0.01319724622 -0.06103218609
728.125 0.08281898283 0.0003686919096
728.75 0.06285862055 0.001743153815
729.375 0.0524246727 -0.005550005508
730.0 0.05231962866 -0.01522718223
730.625 0.02768737753 -0.009558096472
731.25 0.03812014842 0.04950702332
731.875 -0.01108953682 0.06405378531
732.5 -0.04363000221 0.04137192935
733.125 -0.03613214194 0.02749975033
733.75 -0.07840730731 0.03274313441
734.375 -0.02448276489 0.0446687734
735.0 -0.01725317082 0.04104985762
735.625 -0.01815815232 0.04090919155
736.25 -0.01301101467 0.02587319145
736.875 -0.02722637686 0.02145997112
737.5 -0.06021045658 0.0164340983
738.125 -0.05945840226 0.002353830329
738.75 -0.08754350826 0.01438499037
739.375 -0.07062921376 0.02300795884
740.0 -0.05219134354 0.002574413563
740.625 -0.02369351348 -0.01379209694
741.25 -0.07504323876 0.00490970559
741.875 -0.03192420063 -0.0241585755
742.5 0.008594870695 -0.04159203282
743.125 0.02639240279 0.0162666491
743.75 0.03765276934 0.03545305863
744.375 0.02611298845 0.02872427277
745.0 0.01243814336 0.05026220435
745.625 -0.02447331217 0.05979034103
746.25 0.04800363214 0.0601780395
746.875 0.07530120903 0.01116116407
747.5 0.05137402209 -0.02152802517
748.125 0.02784333904 -0.02823072597
748.75 0.03014163165 -0.01631539943
749.375 -0.02797188773 -0.05392869449
750.0 -0.04732055036 -0.003050142485
