!Created with skrf (http://scikit-rf.org).
# GHz S RI R 50.0 
!freq ReS11 ImS11
500.0 -0.01813259526 0.03126546651
500.625 0.0265786238 0.005845304309
501.25 0.03049358402 -0.00569793671
501.875 0.01738418171 -0.005744605991
502.5 0.01222131144 0.03783595731
503.125 0.02428884414 0.01852419873
503.75 0.03756419233 0.004778714942
504.375 0.03388388329 -0.01091119704
505.0 0.03798014386 -0.02969541384
505.625 0.03185443443 -0.05118224699
506.25 0.003833382736 -0.06111735888
506.875 0.03909000306 -0.06204632044
507.5 0.005860621128 -0.06235826633
508.125 0.0429800247 -0.05642404211
508.75 0.010072259 -0.07836719663
509.375 0.01688869335 -0.06464051131
510.0 -0.001314898001 -0.05421251967
510.625 -0.03407044091 -0.05432359235
511.25 -0.05128361203 -0.04424655261
511.875 -0.05493758642 0.005323127879
512.5 -0.03464313234 0.02277768199
513.125 0.002487728619 0.04548687334
513.75 0.01039651671 0.05299483749
514.375 0.01557942792 0.0636712607
515.0 0.05319519429 0.02751556484
515.625 0.01796222142 0.08226500806
516.25 0.0657924666 0.07282160622
516.875 -0.009148094738 0.1463304303
517.5 0.09977472661 0.07268292758
518.125 0.0197346424 0.1575226681
518.75 0.05689089394 0.041442141
519.375 0.04609882882 0.06572762313
520.0 0.08358901831 0.03541432336
520.625 0.08278510608 0.009235569794
521.25 0.07751260519 -0.001389925032
521.875 0.06974018392 0.0343267921
522.5 0.07202397282 -0.03965068505
523.125 0.1245549486 -0.08038846474
523.75 0.1200526382 -0.1471146356
524.375 0.14315488 -0.07536865594
525.0 0.02791454023 -0.04047903416
525.625 0.02085976767 -0.0005311388667
526.25 0.03311984951 0.01167715335
526.875 0.04658214639 0.007170627659
527.5 0.03291755524 -0.006746193639
528.125 0.02816633152 -0.01889231593
528.75 0.03525589477 -0.04590540091
529.375 0.006209754039 -0.07729922351
530.0 -0.01413119921 -0.02651344965
530.625 -0.02098189241 -0.03682214075
531.25 -0.06902457259 -0.1294321072
531.875 -0.1131380496 -0.1107193016
532.5 -0.1248851313 -0.03203329042
533.125 -0.08919219436 -0.005985833139
533.75 -0.105304102 -0.0002827530336
534.375 -0.09867214713 -0.009236584059
535.0 -0.06317211925 0.03132335749
535.625 -0.04681767286 0.006357478575
536.25 -0.04855596927 0.0088634823
536.875 -0.05518555629 -0.01656598006
537.5 -0.06999192217 -0.04640239904
538.125 -0.09155026048 -0.007822398549
538.75 -0.08854114213 0.006329444151
539.375 -0.06600063619 -0.009393857388
540.0 -0.07114713179 -0.02541466399
540.625 -0.1046402109 -0.04131653613
541.25 -0.09850343492 -0.06242954102
541.875 -0.06389968913 -0.03681678982
542.5 -0.07468724889 -0.0500650329
543.125 -0.1273047996 -0.01576709434
543.75 -0.1049317811 0.06708230166
544.375 -0.0598159831 0.08102104661
545.0 0.02054860797 0.06489845119
545.625 0.03334332755 0.06565942095
546.25 0.05955621877 0.05301348808
546.875 0.07606063612 0.0588501005
547.5 0.07494535745 0.06156033512
548.125 0.06449084581 0.09332791243
548.75 0.04273735967 0.08691487388
549.375 0.04180429284 0.09410696486
550.0 0.00735271413 0.07894934931
550.625 -0.001573262527 0.04256923747
551.25 -0.01208345352 0.01185359796
551.875 -0.04035042958 0.01083039096
552.5 -0.06357392331 0.01580859167
553.125 -0.06538611721 0.01797066361
553.75 -0.06408286897 0.01263717123
554.375 -0.06840625316 0.05209108236
555.0 -0.06506966822 0.06396867556
555.625 -0.04865114174 0.05796748021
556.25 -0.05400067723 0.05212421634
556.875 -0.07400214942 0.07797491367
557.5 -0.06754728341 0.0695491335
558.125 -0.06848451296 0.07352864765
558.75 -0.06162252263 0.04949204901
559.375 -0.05985215481 0.05500513065
560.0 -0.03089361084 0.02983613697
560.625 -0.0244079275 0.007033468211
561.25 -0.04891263521 0.01065773972
561.875 -0.07059522008 0.03860153692
562.5 -0.04800102555 0.03757441465
563.125 -0.03093001424 0.07029894031
563.75 0.002189224389 0.1029447078
564.375 0.02196272337 0.1110843942
565.0 0.020550654 0.0914260053
565.625 0.02588924305 0.0693863039
566.25 0.008275911916 0.0810620514
566.875 -0.02860280621 0.08485149151
567.5 -0.03890976109 0.04701737945
568.125 -0.04840901935 0.05665039997
568.75 -0.05627317598 0.05900361501
569.375 -0.04139402554 0.03484336193
570.0 -0.02932861409 0.00603931999
570.625 -0.04053234668 0.002159021906
571.25 -0.04940116406 0.003078249696
571.875 -0.04706041581 0.01375604485
572.5 -0.06157280196 0.01412146416
573.125 -0.07361776143 0.06782660366
573.75 -0.03055037354 0.1066832687
574.375 0.0162181908 0.08252494859
575.0 -0.004880109987 0.06045717251
575.625 -0.005848153939 0.08329486231
576.25 0.00179266847 0.0905612234
576.875 0.03000554006 0.08170342072
577.5 0.02893363297 0.06878685473
578.125 0.02132579198 0.07194564238
578.75 0.01854011461 0.0555556035
579.375 0.03519111275 0.05607100095
580.0 0.01938574 0.04403775305
580.625 0.005421804354 0.03636676722
581.25 -0.01997274486 0.02778409671
581.875 -0.02880338481 0.04670858553
582.5 -0.03378638388 0.07599085485
583.125 -0.02914286463 0.07379254721
583.75 -0.02673749676 0.06738507571
584.375 -0.03758967204 0.05730733749
585.0 -0.05321132178 0.07084157903
585.625 -0.05024363365 0.05923671922
586.25 -0.03195317022 0.0590406012
586.875 -0.03461516077 0.05486798545
587.5 -0.04214055001 0.05746076055
588.125 -0.005049379699 0.06546336386
588.75 0.01743536777 0.05919403813
589.375 0.01948382833 0.04539815276
590.0 0.005374566396 0.04300268235
590.625 -0.01429038034 0.05213098495
591.25 -0.002020191759 0.07841655909
591.875 0.02614701945 0.09146439862
592.5 0.05275559564 0.07760957261
593.125 0.02990808972 0.06072636431
593.75 0.0319321941 0.06948439073
594.375 0.007399625008 0.0784313532
595.0 -0.006184494867 0.06926416431
595.625 -0.02902261882 0.03132786027
596.25 -0.04260345054 0.02034691223
596.875 -0.04919436249 0.009410444837
597.5 -0.04030697765 0.03036396798
598.125 -0.03698837093 0.01513360547
598.75 -0.02398934118 0.01089395629
599.375 -0.02418337401 -0.004712678616
600.0 -0.02993426708 -0.0238551568
600.625 -0.04575222088 -0.03564611975
601.25 -0.07089417237 -0.0395041541
601.875 -0.0705376198 -0.0210363435
602.5 -0.06302574725 0.005951589197
603.125 -0.07473094996 -0.01492920135
603.75 -0.06250395832 -0.02271083214
604.375 -0.03887102932 -0.009844909966
605.0 -0.03065973176 -0.007925466384
605.625 -0.03621573303 -0.04095688327
606.25 -0.04031262165 -0.04100747787
606.875 -0.0382001718 -0.02120397465
607.5 -0.02477980347 -0.00951476301
608.125 -0.007415667231 -0.0274810661
608.75 -0.001437066894 -0.03795832921
609.375 0.01063024984 -0.02511396127
610.0 0.01241415265 -0.00683919986
610.625 0.03375147401 -0.03773547931
611.25 0.03448472609 -0.04007296145
611.875 0.03592297343 -0.03879171479
612.5 0.03680299643 -0.04143125883
613.125 0.009439847103 -0.02551197639
613.75 0.02262292501 -0.01124589735
614.375 0.04461012996 -0.0097154974
615.0 0.03671453927 -0.006143768207
615.625 0.009544939883 -0.003151907299
616.25 0.0417840512 -0.004224471119
616.875 0.04036632633 0.005632191875
617.5 0.03652102202 0.01474356837
618.125 0.02653191063 0.01720610236
618.75 0.06026472739 0.01554502139
619.375 0.06379173826 0.02210529602
620.0 0.05591654707 0.02451579937
620.625 0.04557395233 -0.002890380949
621.25 0.04771508136 -0.01383407151
621.875 0.04117455824 -0.01745554808
622.5 -0.01349296228 -0.003956965676
623.125 -0.02433562264 0.04147995977
623.75 0.03044464174 0.03236228537
624.375 0.01891385394 0.04747212281
625.0 -0.01600053657 0.05068030653
625.625 -0.03983807769 0.05550482307
626.25 1.597041081e-05 0.07880907266
626.875 0.007558733041 0.07638721285
627.5 -0.001191866803 0.06461113585
628.125 -0.001508778447 0.05361876293
628.75 -0.02313212248 0.04761667303
629.375 -0.01679331462 0.04572425037
630.0 -0.00279933642 0.0392903089
630.625 -0.01095831316 0.01510792337
631.25 -0.02129092546 0.02454744948
631.875 -0.02271213797 -0.01760641765
632.5 -0.03447289415 -0.02665526853
633.125 -0.04209341684 -0.02867940796
633.75 -0.05296970098 -0.04064817508
634.375 -0.05261469857 -0.02163832299
635.0 -0.06211992553 -0.0003675262189
635.625 -0.08080526618 0.004360877901
636.25 -0.06477634327 -0.01539119069
636.875 -0.0469454769 -0.008486785129
637.5 -0.06191219849 -0.02366230501
638.125 -0.07406080112 -0.02313578542
638.75 -0.05860220843 -0.004514908142
639.375 -0.02996394944 -0.02199322593
640.0 -0.006323517383 -0.0357200749
640.625 0.0203658373 -0.04876721209
641.25 0.01679217915 -0.0532040146
641.875 0.02309093018 -0.05479110028
642.5 0.02674280313 -0.05402268194
643.125 0.05320875143 -0.04396891251
643.75 0.04995883227 -0.03829009008
644.375 0.03968061571 -0.05826083707
645.0 0.03280353813 -0.05736924829
645.625 0.02996254515 -0.0302660999
646.25 0.04190851329 -0.02330962981
646.875 0.069328081 -0.0351495093
647.5 0.04206659872 -0.04643316984
648.125 0.03468329936 -0.02789361759
648.75 0.04925705632 -0.004186088168
649.375 0.09028523123 0.02460602889
650.0 0.07283424137 0.01311839712
650.625 0.06995564435 0.03181011938
651.25 0.06564961986 0.04545508085
651.875 0.03849479727 0.09864642991
652.5 0.01459086904 0.08242859767
653.125 0.01028832875 0.07408714996
653.75 0.007257201341 0.05937917355
654.375 -0.04143453105 0.03847598759
655.0 -0.03396993977 0.004533637143
655.625 -0.03505614712 -0.003465973658
656.25 -0.06112116237 0.01497623454
656.875 -0.09973524577 0.03333124143
657.5 -0.07346047134 0.01456063973
658.125 -0.08765104775 0.01040522061
658.75 -0.1073571352 0.04693879401
659.375 -0.08272444693 0.07792417129
660.0 -0.04712264188 0.09343023381
660.625 -0.01411956912 0.08198915739
661.25 -0.01199079242 0.08310065483
661.875 0.003211144787 0.07051598825
662.5 0.01031292655 0.06613027111
663.125 -0.003633002335 0.05335445212
663.75 -0.05733939918 0.04445256013
664.375 -0.06623121487 -0.004952832382
665.0 -0.04824715171 -0.02435714235
665.625 -0.05257427162 -0.05914968097
666.25 -0.03487249047 -0.1053434747
666.875 -0.01644696332 -0.1064927077
667.5 -0.01777337228 -0.08078707056
668.125 -0.01994378384 -0.0914540384
668.75 -0.009572152593 -0.08291269289
669.375 0.0005295762434 -0.0737798516
670.0 0.006298650256 -0.04653766927
670.625 0.01827964896 -0.07812281064
671.25 0.008166761624 -0.07537711063
671.875 0.001367548053 -0.07557880142
672.5 -0.02245956679 -0.082474368
673.125 -0.04539875992 -0.09388255276
673.75 -0.06318173481 -0.08681145371
674.375 -0.06180722475 -0.09751108286
675.0 -0.01113186794 -0.08362429716
675.625 0.02312800183 -0.07867292954
676.25 0.04092403387 -0.07601441336
676.875 0.05364236983 -0.08038086096
677.5 0.03717379746 -0.03282496573
678.125 0.04301858639 -0.004069461934
678.75 0.05706927323 0.007988399669
679.375 0.08689440746 0.01668335561
680.0 0.1063131005 0.02561955538
680.625 0.09733372814 0.009587219448
681.25 0.09051807334 -0.02669815481
681.875 0.09398605891 -0.08391280223
682.5 0.07573583636 -0.1389305521
683.125 0.03491968577 -0.08308769689
683.75 0.04678702052 -0.06844473348
684.375 0.08914248937 -0.04073764401
685.0 0.08281058607 0.03628918415
685.625 0.03302260655 0.05366951581
686.25 -0.008167886659 0.05787639258
686.875 -0.04917805706 0.05375015396
687.5 -0.08277309925 0.02386109219
688.125 -0.0956323927 0.02045553369
688.75 -0.1240559891 0.0212271968
689.375 -0.1287823572 0.004076923778
690.0 -0.1072313313 0.01228034948
690.625 -0.1136726295 0.03704873087
691.25 -0.1081487243 0.07359016043
691.875 -0.05460379367 0.07592446529
692.5 0.02010331471 0.06554280627
693.125 0.05960992558 0.0403830893
693.75 0.07844463331 0.04879391443
694.375 0.08879886913 0.06785484691
695.0 0.05718797884 0.08158110626
695.625 -0.004257665177 0.1016636028
696.25 -0.1109680153 0.06267965926
696.875 -0.08250416587 -0.0711931205
697.5 -0.03982965684 -0.1093509097
698.125 -0.02177008034 -0.1023841168
698.75 -0.02119654887 -0.1015950333
699.375 -0.004242863502 -0.07293008979
700.0 0.02120532495 -0.07726563308
700.625 0.06249903378 -0.06094576389
701.25 0.06600368458 -0.03498167082
701.875 0.06389666956 -0.03097884219
702.5 0.06413476751 -0.09320654774
703.125 0.004626503508 -0.1610020096
703.75 -0.1046655901 -0.09265699586
704.375 -0.08009207589 -0.01974637962
705.0 -0.09395632749 -0.01183914716
705.625 -0.09749886204 -0.07578834946
706.25 -0.002479670347 -0.08974336992
706.875 0.04437319402 -0.0485727637
707.5 0.05630379197 -0.004430938933
708.125 0.05060576187 0.06616843388
708.75 0.003779789568 0.09300076605
709.375 -0.03912051663 0.08512901899
710.0 -0.07911265491 0.0352834044
710.625 -0.08909276014 0.002207900099
711.25 -0.102195286 -0.005173431638
711.875 -0.1172880862 -0.003668589249
712.5 -0.108283523 0.05293072499
713.125 -0.01714820276 0.09642973753
713.75 0.05616056846 0.05803468066
714.375 0.08793177437 0.02160587934
715.0 0.02671130525 0.06670479547
715.625 0.02299479267 0.05162875341
716.25 0.01056370293 0.06308538861
716.875 -0.02447444767 0.0922702151
717.5 -0.09263901725 0.06531831689
718.125 -0.08915523834 0.01129458337
718.75 -0.08891340115 0.001484311756
719.375 -0.09574614683 -0.02454230076
720.0 -0.07884416257 -0.0591113441
720.625 0.03796627787 -0.0828917578
721.25 0.07397900118 -0.02724271659
721.875 0.05854920612 0.02446093055
722.5 0.02731953051 0.03330741753
723.125 0.02019712889 0.05702615039
723.75 0.06488124206 0.06212393787
724.375 0.08237754603 -0.007264709005
725.0 0.02725709012 -0.05379301949
725.625 0.05709649376 -0.08531662577
726.25 0.0283081315 -0.08939414331
726.875 0.03461430011 -0.07241107669
727.5 0.02352044115 -0.05941128538
728.125 0.05133799651 -0.02674988153
728.75 0.06333820337 0.01905947087
729.375 0.0700080756 0.006497220239
730.0 0.05063550873 -0.01440740681
730.625 0.0216206707 -0.01230673288
731.25 0.03451274888 0.07596161499
731.875 -0.01958723848 0.06295022208
732.5 -0.0424194511 0.03687555722
733.125 -0.0685339715 0.02830451189
733.75 -0.09159559831 0.01647189431
734.375 -0.06846407639 0.03382789186
735.0 -0.0213447813 0.03041719159
735.625 -0.003525944084 0.01983108147
736.25 -0.03485938427 0.0464352293
736.875 -0.04612385444 0.03321390788
737.5 -0.06047877716 0.01507411228
738.125 -0.05440265883 -0.001990323079
738.75 -0.1053164236 0.01004752628
739.375 -0.06633360538 0.01381487641
740.0 -0.03199245199 -0.005400956227
740.625 -0.05004766031 -0.001910374744
741.25 -0.03936941543 -0.0001508320874
741.875 -0.04129257167 -0.02986231861
742.5 0.01911983637 -0.06160613312
743.125 0.03072332944 0.006984183043
743.75 0.005093718503 0.02233991682
744.375 0.008941347542 0.02974317097
745.0 -0.01080477915 0.03530309972
745.625 0.001946069886 0.05053638424
746.25 0.02574478762 0.06518838571
746.875 0.09237968569 -0.002690174507
747.5 0.06048453699 -0.03860141176
748.125 0.03031222816 -0.03577277974
748.75 0.02063974333 -0.02253203821
749.375 0.002984390163 -0.03535327562
750.0 -0.04015116132 -0.01312478488
