!Created with skrf (http://scikit-rf.org).
# GHz S RI R 50.0 
!freq ReS11 ImS11
500.0 -0.007346115845 0.02600611806
500.625 0.02739363776 0.01768113623
501.25 0.03550344949 -0.002016053744
501.875 0.03164310096 -0.001976080852
502.5 0.01874390074 0.0213030124
503.125 0.03160469339 0.01049639771
503.75 0.0383181577 -0.01298830288
504.375 0.03521332858 -0.0267302393
505.0 0.02417716836 -0.03959812289
505.625 0.02145354895 -0.06294515245
506.25 0.005043893548 -0.08132288973
506.875 0.03426925409 -0.09261959874
507.5 0.004516878574 -0.07856292671
508.125 0.03624405259 -0.08792858428
508.75 -0.01506931862 -0.1052058053
509.375 -0.02833946622 -0.0751108613
510.0 -0.003103044942 -0.07325858183
510.625 -0.06165414803 -0.03334786952
511.25 -0.08090959498 -0.0285839571
511.875 -0.06620225081 0.02417144692
512.5 -0.02547696222 0.04734544189
513.125 0.03196998624 0.06479832276
513.75 0.04486468689 0.06641078166
514.375 0.05640580345 0.03906920222
515.0 0.0821355982 0.01468048167
515.625 0.0776334817 0.09637583795
516.25 0.1057542119 0.05780127954
516.875 0.05315679702 0.1258164524
517.5 0.1439405 0.05267594728
518.125 0.0717696193 0.2244213616
518.75 0.1033155695 0.0250178434
519.375 0.08304372032 0.02713275895
520.0 0.1172282613 -0.01798365706
520.625 0.1250016297 -0.01607607437
521.25 0.0935430192 -0.04716580299
521.875 0.07740248077 -0.01165979516
522.5 0.0849506442 -0.08023617422
523.125 0.1715241893 -0.1421763179
523.75 0.1187055965 -0.2249565692
524.375 0.1338493915 -0.2238985163
525.0 0.06178900464 -0.08566553629
525.625 0.0479155473 -0.04719160487
526.25 0.05546193825 -0.03248431383
526.875 0.05029755701 -0.05374936527
527.5 0.04040295596 -0.06182068073
528.125 0.004106844386 -0.05887425443
528.75 -0.0136811551 -0.07572612555
529.375 -0.09189184531 -0.07535810405
530.0 -0.08312700269 -0.01501342428
530.625 -0.04274814835 0.01705679142
531.25 -0.09307118016 -0.001970833716
531.875 -0.1773267595 0.01193627713
532.5 -0.1546315443 0.06195227728
533.125 -0.09640017733 0.06428057887
533.75 -0.06910411272 0.09140371031
534.375 -0.1016512435 0.0929871953
535.0 -0.07314308725 0.0929260824
535.625 -0.06190361197 0.0564356411
536.25 -0.01768159039 0.07507399704
536.875 -0.06618098564 0.06382853723
537.5 -0.09498140989 0.01624096011
538.125 -0.08128895041 0.05468595626
538.75 -0.08528707071 0.104508389
539.375 -0.09156677107 0.06888476289
540.0 -0.08051576906 0.05296611266
540.625 -0.08899731125 0.05916976473
541.25 -0.1199802344 0.06119156934
541.875 -0.101767608 0.02525936298
542.5 -0.08351692778 0.007500888151
543.125 -0.09566041508 0.06360632094
543.75 -0.05527162254 0.1425904749
544.375 -0.0155911822 0.1368296935
545.0 0.07657590294 0.06972928093
545.625 0.1197475933 0.02783101712
546.25 0.1274637493 0.006551536839
546.875 0.114637624 -0.005910530432
547.5 0.1269006259 -0.004197045714
548.125 0.1617909181 0.01684506579
548.75 0.1276883244 0.07313775233
549.375 0.120966862 0.0663319782
550.0 0.1044745159 0.1066072219
550.625 0.07439817254 0.1112614884
551.25 0.006237941817 0.08092273621
551.875 0.01323035435 0.04977569019
552.5 0.02089379917 0.06799960717
553.125 0.004644408419 0.08938946621
553.75 -0.01791125974 0.05940392946
554.375 -0.001780764887 0.06311837268
555.0 0.02232648141 0.09068755427
555.625 0.03074950197 0.1047883232
556.25 -0.002221723526 0.08732053523
556.875 0.004022374548 0.0901678016
557.5 0.001792962596 0.1193198283
558.125 -0.01087814359 0.1280928459
558.75 -0.03894895948 0.1059000222
559.375 -0.001980416287 0.1104449983
560.0 -0.006828224106 0.1053183976
560.625 0.007123460178 0.06762360785
561.25 0.008326135099 0.05264215784
561.875 0.008120976724 0.07081641634
562.5 0.02108920761 0.08382737432
563.125 0.03377098913 0.06942447591
563.75 0.06498936745 0.05682548254
564.375 0.1137984611 0.06121258465
565.0 0.1024954826 0.08513346959
565.625 0.09658941526 0.05095419623
566.25 0.08620525425 0.05298782093
566.875 0.07634835044 0.08644032041
567.5 0.01855849203 0.1040743138
568.125 0.01192347374 0.09790910477
568.75 0.01144157923 0.1162495886
569.375 0.0006951831837 0.1043960284
570.0 -0.005466105066 0.07852859779
570.625 0.005041576269 0.06052876752
571.25 0.009584760461 0.07955705665
571.875 -0.001156823842 0.05958774224
572.5 0.003955407821 0.04727980379
573.125 0.01660070986 0.07052776301
573.75 0.07459386409 0.0879996157
574.375 0.08032052867 0.06668019965
575.0 0.06755561441 0.0322639143
575.625 0.07617774552 0.0250722968
576.25 0.09056348711 0.05805943898
576.875 0.0861921169 0.05322334418
577.5 0.08643508331 0.03120267835
578.125 0.104626847 0.02007918291
578.75 0.1095710594 0.04494802495
579.375 0.08793743245 0.03255553788
580.0 0.08857803646 0.01249770407
580.625 0.09269273648 0.001428426824
581.25 0.06771956449 0.009350072483
581.875 0.03255332151 0.02638296625
582.5 0.04344778888 0.0393006906
583.125 0.06589080956 0.06714217219
583.75 0.05713550678 0.06401846585
584.375 0.03918005482 0.05754671899
585.0 0.03045808187 0.06913863664
585.625 0.03471808851 0.09474680923
586.25 0.03079872548 0.0753144189
586.875 0.03528737028 0.05666535937
587.5 0.05043534891 0.06849672667
588.125 0.07741786628 0.05949327121
588.75 0.07873207128 0.03829002697
589.375 0.07798776527 -0.01034810968
590.0 0.07172839567 -0.02763903694
590.625 0.0471877193 -0.001131321538
591.25 0.03923201348 0.01964687942
591.875 0.05900714072 0.01945461682
592.5 0.09251077274 0.005299798019
593.125 0.09210721733 0.01162677796
593.75 0.07579774365 0.01544511295
594.375 0.07909429104 0.0327232831
595.0 0.07420441325 0.06180342787
595.625 0.04714883627 0.06776933533
596.25 0.0251668015 0.0580511319
596.875 0.0149711579 0.06512901028
597.5 0.001385255937 0.07453356809
598.125 0.01292838164 0.06817066833
598.75 0.03320509722 0.05173332528
599.375 0.03334649816 0.03800998135
600.0 0.01592196023 0.02406745219
600.625 -0.001954170653 0.01150164463
601.25 -0.01747467482 0.0183635493
601.875 -0.02937676942 0.03441743281
602.5 -0.03167875007 0.03843756248
603.125 -0.03218604551 0.04043789261
603.75 -0.0264417083 0.05090882003
604.375 -0.02300153552 0.0497919001
605.0 -0.02278549189 0.02986167633
605.625 -0.03030364385 0.01511155792
606.25 -0.04815450816 0.01638755291
606.875 -0.05366917047 0.02751917387
607.5 -0.0325700077 0.03864858988
608.125 -0.00758904758 0.03503615628
608.75 -0.004229258921 0.02731105643
609.375 -0.004615781022 0.0226396572
610.0 0.001395624545 0.01615404513
610.625 0.008861435955 0.004318019343
611.25 0.009135285187 -0.008482395486
611.875 0.007386567949 -0.01810214345
612.5 0.001132072233 -0.02343961166
613.125 -0.01031893864 -0.01836636014
613.75 -0.01178697772 -0.004113033421
614.375 -0.0009497057745 0.004779014121
615.0 0.009021183921 0.0003815947239
615.625 0.005199786977 -0.004038755371
616.25 -0.0007988260197 0.005353568723
616.875 0.009327568097 0.01842151895
617.5 0.02369510391 0.01959578458
618.125 0.02596201743 0.01571218952
618.75 0.02540337007 0.01691690322
619.375 0.03394425286 0.02608242119
620.0 0.04898785856 0.02528637355
620.625 0.05166553252 -0.00146053312
621.25 0.04190091688 -0.01257706571
621.875 0.02544163541 -0.01660654079
622.5 -0.004963176692 -0.005104670509
623.125 -0.002647466652 0.02208247756
623.75 0.01153753719 0.03849451256
624.375 0.01164158426 0.05074333789
625.0 -0.007759098892 0.05392050373
625.625 -0.005635633435 0.06246189581
626.25 0.01597809479 0.083440322
626.875 0.02650762566 0.09227175048
627.5 0.01720269264 0.08008492458
628.125 0.01104131503 0.07073502869
628.75 0.002903659287 0.08186089971
629.375 -0.01149635952 0.08180338631
630.0 -0.008983606477 0.06194714363
630.625 -0.0111326139 0.04812114176
631.25 -0.02632497679 0.03764971952
631.875 -0.04349159768 0.0184807557
632.5 -0.04675856353 0.008267561749
633.125 -0.05613096703 0.01048545388
633.75 -0.07237396773 0.02015074066
634.375 -0.07581692124 0.01278565175
635.0 -0.07779172969 0.02407807969
635.625 -0.07976531216 0.05326743145
636.25 -0.08368469764 0.05662327122
636.875 -0.06827278975 0.02935105905
637.5 -0.07299248614 0.02420996157
638.125 -0.1042970407 0.03980774297
638.75 -0.1030321583 0.03368118891
639.375 -0.07249675724 0.008130247995
640.0 -0.05502937614 -0.01590985821
640.625 -0.05857012972 -0.0584077682
641.25 -0.03590069658 -0.07792578015
641.875 -0.02940867412 -0.06602701458
642.5 -0.03132880768 -0.06951732156
643.125 -0.01408499212 -0.1000725226
643.75 0.01920333537 -0.1022410861
644.375 -0.00542208014 -0.08883628752
645.0 -0.03873835032 -0.09372168318
645.625 -0.02621668444 -0.09922128115
646.25 -0.004892785835 -0.08145965364
646.875 0.008802609504 -0.07350969461
647.5 -0.01018022947 -0.09637923787
648.125 0.004806948684 -0.09384133772
648.75 0.02702910169 -0.06303579755
649.375 0.05189347917 -0.0493867356
650.0 0.08673924584 -0.05110019272
650.625 0.1045997533 -0.02667258286
651.25 0.09675685665 -0.004267192942
651.875 0.1066819557 0.02702202668
652.5 0.1061384981 0.08860005732
653.125 0.07710337946 0.09491270678
653.75 0.06878208588 0.0830512265
654.375 0.05754916784 0.09466569962
655.0 0.0007597874831 0.09700763512
655.625 -0.02048668527 0.05903904163
656.25 -0.006870065269 0.06350450242
656.875 0.01214077311 0.09538049485
657.5 -0.02863910808 0.09930447056
658.125 -0.05084095748 0.07566213484
658.75 -0.03042014932 0.09485369937
659.375 0.01322240052 0.1428059461
660.0 0.04178830815 0.1367226544
660.625 0.06163397772 0.1065121339
661.25 0.09192650742 0.08381854363
661.875 0.1180932203 0.07085528722
662.5 0.1028140278 0.04756282379
663.125 0.08574857094 0.04242738418
663.75 0.06257910215 0.08366870044
664.375 -0.02973069849 0.09076315786
665.0 -0.06426729185 0.04853517906
665.625 -0.07396294537 0.03007746809
666.25 -0.1211470068 0.00508178028
666.875 -0.1143853089 -0.07144173099
667.5 -0.09348242216 -0.07075288491
668.125 -0.1119268386 -0.05095897909
668.75 -0.1433385015 -0.04836948229
669.375 -0.101897808 -0.06602087857
670.0 -0.06505592756 -0.05491730769
670.625 -0.08446066928 -0.05793535402
671.25 -0.1130984603 -0.05377827044
671.875 -0.09595564079 -0.03892461769
672.5 -0.08524209826 -0.01120111264
673.125 -0.1034441133 0.007155760886
673.75 -0.1326612193 -1.473509467e-05
674.375 -0.1269413751 -0.01422299562
675.0 -0.1192890734 -0.04632313448
675.625 -0.09491290061 -0.1002268437
676.25 -0.04593416666 -0.1222799761
676.875 -0.03827638667 -0.1132277283
677.5 -0.059178101 -0.1191737871
678.125 -0.01796870656 -0.1246664551
678.75 0.01475273192 -0.07074710154
679.375 0.02951535473 -0.05406591325
680.0 0.02868562811 -0.09001835058
680.625 0.05686899826 -0.1253568067
681.25 0.04045787438 -0.1045235426
681.875 -0.0004303865734 -0.108126569
682.5 -0.0762587292 -0.1290750749
683.125 -0.09252407043 -0.1545708056
683.75 -0.03972653648 -0.1390812892
684.375 0.01472593527 -0.1206328648
685.0 0.1026611169 -0.1022426698
685.625 0.1405207529 -0.0150127779
686.25 0.1130272098 0.03506425536
686.875 0.07945923063 0.05673261648
687.5 0.03109291201 0.08331015113
688.125 -0.009300707807 0.08645613949
688.75 -0.02133296881 0.09976792338
689.375 -0.03762549239 0.1369414573
690.0 -0.07245299709 0.1207147291
690.625 -0.05371934582 0.1137695592
691.25 0.009357573611 0.1395671244
691.875 0.1236306203 0.1541375224
692.5 0.1558491298 0.06975129176
693.125 0.09033687926 -0.05777478586
693.75 0.03932882108 -0.09261175385
694.375 0.06598634131 -0.1245336493
695.0 0.1371187515 -0.04838292528
695.625 0.09209676297 0.04606757225
696.25 0.01999964838 0.1039690767
696.875 -0.09996637345 0.08571596242
697.5 -0.1440428786 -0.01238389954
698.125 -0.1308343032 -0.04702141526
698.75 -0.1367029085 -0.03970653638
699.375 -0.1182355342 -0.04548233478
700.0 -0.09289404474 -0.05257396545
700.625 -0.08042009845 -0.07892847908
701.25 -0.05436984036 -0.1111257641
701.875 -0.03121495869 -0.07902400065
702.5 -0.04427266057 -0.06414807146
703.125 -0.1172928075 -0.03571352092
703.75 -0.1829548403 0.06935198482
704.375 -0.1087266608 0.1065699839
705.0 -0.05821254749 0.1001309471
705.625 -0.09254611871 0.09160960162
706.25 -0.1705714953 -0.01772912928
706.875 -0.05541284812 -0.1222201024
707.5 -0.009568312416 -0.09347593294
708.125 0.03621402523 -0.08021030676
708.75 0.09319786868 -0.02179030065
709.375 0.07337685977 0.06261294892
710.0 0.02896967991 0.08025192846
710.625 0.004657999985 0.08740672861
711.25 -0.03363533277 0.08466753005
711.875 -0.04201270335 0.1011387797
712.5 0.001680204258 0.1414086608
713.125 0.1103930241 0.1122758324
713.75 0.1326944114 -0.02268383897
714.375 0.0728305946 -0.09824880604
715.0 0.04027086753 -0.1299295019
715.625 0.07607775079 -0.09202951751
716.25 0.06792434922 -0.02537318218
716.875 0.06083035854 0.01227703738
717.5 0.06113422966 0.07094810383
718.125 0.02043343102 0.1109331151
718.75 -0.009162255755 0.08616531941
719.375 -0.02233823019 0.06840455892
720.0 -0.07078434906 0.05153056832
720.625 -0.1016604802 -0.04418824594
721.25 -0.01274347229 -0.1105738695
721.875 0.05376241336 -0.09206805079
722.5 0.06841955305 -0.07743182404
723.125 0.03153863684 -0.0755502352
723.75 0.0005446129384 -0.06050999352
724.375 -0.027559339 -0.05332081164
725.0 -0.04607163293 -0.02769608174
725.625 -0.04399423004 -0.01248238594
726.25 -0.05253842076 -0.01862844399
726.875 -0.06379589004 -0.04687506433
727.5 -0.05472984896 -0.0656826855
728.125 -0.03474135404 -0.0627775385
728.75 -0.03069237276 -0.0496981769
729.375 -0.02831878832 -0.04235482407
730.0 -0.02533250218 -0.04207482883
730.625 -0.01886855196 -0.03341857471
731.25 -0.003540412893 -0.02718064405
731.875 0.01287673916 -0.01521395812
732.5 0.01110029934 0.007004554022
733.125 0.0005124307633 0.02376456041
733.75 0.01082803925 0.03194923157
734.375 0.02450411609 0.02494133941
735.0 0.02757023482 0.002359452402
735.625 0.02066081434 -0.007887605687
736.25 0.01056089992 -0.01972337058
736.875 -0.01210093216 -0.02458842814
737.5 -0.03506325036 -0.01377871201
738.125 -0.04819631047 0.0007796748625
738.75 -0.04274954679 0.01480144492
739.375 -0.02188714681 0.01613908362
740.0 -0.01377742175 -0.001852985797
740.625 -0.02887173892 -0.004893046464
741.25 -0.03373964307 0.001294224681
741.875 -0.02592090164 -0.01689351709
742.5 0.01150395234 -0.02859295801
743.125 0.03297817761 0.004745654697
743.75 0.02379652911 0.02190055035
744.375 0.02315933954 0.02469609549
745.0 0.01985057613 0.03498684944
745.625 0.02256368552 0.04821500495
746.25 0.05178658279 0.04666921443
746.875 0.07995389452 -0.004294320411
747.5 0.05978429404 -0.04533133669
748.125 0.02884367882 -0.05328822128
748.75 0.0006238073415 -0.0521068043
749.375 -0.03918996783 -0.04753812692
750.0 -0.07200527854 0.01412475344
