!Created with skrf (http://scikit-rf.org).
# GHz S RI R 50.0 
!freq ReS11 ImS11
500.0 -0.02541774061 0.02538498373
500.625 0.03447401317 0.01621030488
501.25 0.03334067958 0.00671267927
501.875 0.02652817539 0.01538264924
502.5 0.003887882016 0.04733065
503.125 0.02913044682 0.03293860093
503.75 0.04329866707 0.01609609266
504.375 0.04510021898 0.001066546581
505.0 0.04902774298 -0.02227078336
505.625 0.0514528473 -0.04778868056
506.25 0.02747122727 -0.05856376817
506.875 0.05428518977 -0.04951827043
507.5 0.02328642128 -0.06535036915
508.125 0.06474315902 -0.03590877665
508.75 0.03035230651 -0.0659172835
509.375 0.04526608533 -0.0503341174
510.0 0.02922467586 -0.06109487355
510.625 -0.01675067909 -0.0619235887
511.25 -0.03952087335 -0.05265706466
511.875 -0.04794891399 -0.007080122546
512.5 -0.0338405533 0.00942940914
513.125 -0.01786572095 0.03427665394
513.75 -0.008198304104 0.04440420505
514.375 -0.01432423612 0.06366613911
515.0 0.03017263998 0.06425176638
515.625 -0.02046958394 0.08880380681
516.25 0.03894778341 0.09311358
516.875 -0.05401976083 0.1313200546
517.5 0.07637472103 0.08643148288
518.125 -0.01678237425 0.1338964242
518.75 0.02983356653 0.04682123683
519.375 0.009443294243 0.07700205649
520.0 0.05444571868 0.05835255598
520.625 0.06492927601 0.03186556239
521.25 0.06390970173 0.02601234327
521.875 0.04171465452 0.05619765938
522.5 0.06965894926 -0.01291425651
523.125 0.1145565936 -0.04608391253
523.75 0.1080088882 -0.0873884452
524.375 0.08263416327 0.000801424813
525.0 0.0100850969 -0.009714346408
525.625 0.007809035537 0.02234462225
526.25 0.01406837814 0.04097850308
526.875 0.02304319598 0.02733367642
527.5 0.02500823379 0.01606419646
528.125 0.03958181541 0.002116568987
528.75 0.05748633047 -0.01441345934
529.375 0.04075717516 -0.04294918613
530.0 0.01558877248 -0.02296109052
530.625 0.0002904317137 -0.06433295365
531.25 0.001635349267 -0.1782515759
531.875 -0.06399778344 -0.1317349557
532.5 -0.09321134386 -0.06898089053
533.125 -0.07848628868 -0.04752967057
533.75 -0.07831669418 -0.05196377677
534.375 -0.07479150546 -0.03690809253
535.0 -0.0623350321 -0.005345213567
535.625 -0.03345747634 -0.02448855702
536.25 -0.0396129051 -0.03251854169
536.875 -0.03807973412 -0.04178739569
537.5 -0.04939594604 -0.07649068614
538.125 -0.07475285752 -0.04362383993
538.75 -0.06541545026 -0.03043402423
539.375 -0.04011348213 -0.03493806164
540.0 -0.05167149799 -0.07221057068
540.625 -0.06987178074 -0.09152812734
541.25 -0.05457071125 -0.09363449498
541.875 -0.04242053353 -0.05716896728
542.5 -0.05558384552 -0.0820934901
543.125 -0.103730162 -0.05507007729
543.75 -0.10354313 0.02596227497
544.375 -0.06517167613 0.04597036968
545.0 -0.01606623493 0.05745537461
545.625 -0.005860472899 0.05805906247
546.25 0.02303558403 0.06572653558
546.875 0.03237125778 0.07761048653
547.5 0.02667294714 0.07725459352
548.125 0.01698802387 0.07447933507
548.75 -0.0015303274 0.08150182867
549.375 -0.008252897902 0.07676325106
550.0 -0.02909941952 0.03948436429
550.625 -0.01575441051 0.005423147486
551.25 -0.01749883194 -0.0239390687
551.875 -0.05370887789 -0.03231109818
552.5 -0.07087288827 -0.03657956221
553.125 -0.07295485764 -0.0160007541
553.75 -0.07832055166 -0.01740916529
554.375 -0.09554754468 0.01609202353
555.0 -0.08679047701 0.02957524053
555.625 -0.06451352841 0.03262788545
556.25 -0.07411333616 0.02654644812
556.875 -0.0992551742 0.03300056366
557.5 -0.07445748481 0.03610535911
558.125 -0.07362476329 0.03417250885
558.75 -0.06757830386 0.01625508853
559.375 -0.04924351977 0.007700097318
560.0 -0.02456383697 0.001635100953
560.625 -0.02675681477 -0.02616377367
561.25 -0.06084942647 -0.02802789742
561.875 -0.07969277593 -0.01138239197
562.5 -0.06147270109 0.01626203001
563.125 -0.06253545918 0.05909824741
563.75 -0.04851978974 0.08954875521
564.375 -0.01933629775 0.09110318072
565.0 -0.0102435951 0.07957121441
565.625 -0.008795540232 0.06268561553
566.25 -0.03694850483 0.05647406964
566.875 -0.05596833207 0.04111515813
567.5 -0.04594162828 0.01601501028
568.125 -0.05828555394 0.01605193929
568.75 -0.04795780716 0.01233659236
569.375 -0.03556758989 -0.004227717456
570.0 -0.01848772535 -0.02615009337
570.625 -0.03201794155 -0.04079401877
571.25 -0.04092839598 -0.03069466351
571.875 -0.06046131544 -0.01706462056
572.5 -0.0741972476 -0.01931660776
573.125 -0.1015876165 0.02730876579
573.75 -0.0562633144 0.06888999844
574.375 -0.01877425678 0.07833475039
575.0 -0.03951139842 0.05069674928
575.625 -0.04887470904 0.06057898412
576.25 -0.02809533209 0.0751253953
576.875 -0.002975259888 0.08085636893
577.5 -0.001928764937 0.06649705109
578.125 -0.01385873278 0.05091395717
578.75 -0.008182244755 0.04050801087
579.375 -0.0001668375429 0.05024528851
580.0 -0.01517721155 0.02055198101
580.625 -0.02837865215 0.01239832012
581.25 -0.04734358447 0.008066537412
581.875 -0.06255227149 0.03887841754
582.5 -0.07048198094 0.04314068809
583.125 -0.05755399848 0.05172281618
583.75 -0.05631137553 0.0420036099
584.375 -0.0658535979 0.02799250479
585.0 -0.07756053741 0.02236654987
585.625 -0.05804264751 0.03096930029
586.25 -0.05273154273 0.02521598215
586.875 -0.05851484094 0.02044463295
587.5 -0.05504874566 0.01637186657
588.125 -0.02642675715 0.04860632465
588.75 -0.01259032137 0.04699198008
589.375 -0.02407849035 0.03458027109
590.0 -0.03405246457 0.0284882968
590.625 -0.04117134467 0.0526597126
591.25 -0.03089826848 0.08288161243
591.875 -0.01740283055 0.0933451865
592.5 0.0111580365 0.08041652587
593.125 0.006327166845 0.05910118708
593.75 -0.003730466808 0.06699101219
594.375 -0.02596339315 0.05342537989
595.0 -0.0302558073 0.0367790042
595.625 -0.0317547951 0.007393177685
596.25 -0.03963089119 -0.01332986294
596.875 -0.03725974467 -0.01524474809
597.5 -0.03867710881 -0.001865214345
598.125 -0.02686222789 -0.01536401587
598.75 -0.01370872503 -0.02516851664
599.375 -0.01565180336 -0.02867006243
600.0 -0.02146767686 -0.05583260664
600.625 -0.03143732736 -0.07189969555
601.25 -0.04794022729 -0.06031286534
601.875 -0.05761933429 -0.04298545371
602.5 -0.05946203716 -0.0198118305
603.125 -0.05268844928 -0.03462228163
603.75 -0.02927465885 -0.03610695399
604.375 -0.01887790871 -0.02411877924
605.0 -0.0195388373 -0.01929581724
605.625 -0.004338612186 -0.05119904806
606.25 -0.009982076946 -0.04391845141
606.875 -0.01335913459 -0.01606404451
607.5 0.002664530282 -0.01071966199
608.125 0.03290210969 -0.02586639587
608.75 0.02710623332 -0.03355309696
609.375 0.03284362781 -0.02112234058
610.0 0.02313672912 -0.003578421909
610.625 0.05746984798 -0.02002970006
611.25 0.05331933745 -0.02911477896
611.875 0.05006834825 -0.02252890346
612.5 0.03617994443 -0.01888717164
613.125 0.01309887918 -0.01357306363
613.75 0.01987090703 0.007606865969
614.375 0.04160020195 0.02308792363
615.0 0.03045347358 0.0121508102
615.625 0.008765436757 0.003458889881
616.25 0.03462840469 0.02526672776
616.875 0.04040389611 0.03604820262
617.5 0.02879949633 0.0331101591
618.125 0.01992323158 0.02375408178
618.75 0.04067393475 0.0393373328
619.375 0.04064610908 0.04855595857
620.0 0.03908103965 0.03550130105
620.625 0.03550435406 0.003756158229
621.25 0.02570109111 -0.003578220229
621.875 0.0107315545 -0.009358376901
622.5 -0.02748612937 0.007184478828
623.125 -0.04161814196 0.04296743799
623.75 0.004308064879 0.06158958061
624.375 -0.01326707966 0.0587029859
625.0 -0.03546673973 0.04541178916
625.625 -0.06202729386 0.03695128854
626.25 -0.02878736086 0.08348482549
626.875 -0.01194554225 0.06865591956
627.5 -0.01361314133 0.05122623756
628.125 -0.0221484275 0.03081432786
628.75 -0.02829350149 0.02730984047
629.375 -0.02096306115 0.02031974839
630.0 -0.008246424947 0.01400839005
630.625 -0.004921796335 -0.01721994247
631.25 -0.02154983238 -0.01369687026
631.875 -0.0132604601 -0.03574601803
632.5 -0.02278810562 -0.0473037128
633.125 -0.01999591851 -0.05823897944
633.75 -0.02639680253 -0.05813218458
634.375 -0.03932432601 -0.05168606989
635.0 -0.0564415602 -0.03449384609
635.625 -0.06005397898 -0.02932570567
636.25 -0.03823942415 -0.03718024626
636.875 -0.03423895467 -0.02782902845
637.5 -0.03370814825 -0.05467728372
638.125 -0.04132940022 -0.04797309647
638.75 -0.03242144559 -0.0223555973
639.375 0.005187891698 -0.02508962105
640.0 0.03522148407 -0.02796664826
640.625 0.04850155268 -0.02611852984
641.25 0.04317576064 -0.03534196814
641.875 0.04706445393 -0.03026734833
642.5 0.04964828761 -0.01756438541
643.125 0.0571435248 -0.007722504473
643.75 0.06196821156 -0.0048353078
644.375 0.052950806 -0.02288064213
645.0 0.04531529084 -0.01102228012
645.625 0.0379939643 0.00689538089
646.25 0.04979462585 0.01245089027
646.875 0.07980707528 0.02092739794
647.5 0.05895717973 -0.0004994827339
648.125 0.04479352635 0.006817075959
648.75 0.05160700008 0.03821464818
649.375 0.06179296214 0.0784728502
650.0 0.05422775023 0.04733823505
650.625 0.04627200442 0.05273627126
651.25 0.02851631362 0.06554104822
651.875 -0.02292561437 0.08103195159
652.5 -0.008697111838 0.05760507624
653.125 -0.01482504943 0.04466673646
653.75 -0.02705851467 0.02185905651
654.375 -0.0319923413 -0.02454199555
655.0 -0.02524285661 -0.03591076935
655.625 -0.0404162369 -0.03933141461
656.25 -0.07057392527 -0.03774882993
656.875 -0.08825178436 -0.03162338754
657.5 -0.06813747049 -0.02509865979
658.125 -0.09420546989 -0.03693441965
658.75 -0.1175198622 -0.02214516005
659.375 -0.08751512266 0.0259753439
660.0 -0.06869330981 0.04642134301
660.625 -0.04862070675 0.04287601478
661.25 -0.0501088427 0.03253387979
661.875 -0.03176844932 0.03726940226
662.5 -0.03358169069 0.03804552787
663.125 -0.05221396957 0.02305872884
663.75 -0.07190826534 -0.01580307404
664.375 -0.05789786997 -0.05005061122
665.0 -0.02811077302 -0.05874731662
665.625 -0.004710928746 -0.09330241768
666.25 0.01983062037 -0.09340596799
666.875 0.03279136075 -0.09519894422
667.5 0.02840141726 -0.07490695292
668.125 0.03372126323 -0.06240637385
668.75 0.02735664862 -0.04977103287
669.375 0.04447546501 -0.04528052784
670.0 0.04185248689 -0.02885211382
670.625 0.05706081834 -0.0298506668
671.25 0.04303570025 -0.0404115456
671.875 0.05814121824 -0.05799508174
672.5 0.03720658842 -0.08757249271
673.125 0.0145922952 -0.09334393757
673.75 -0.01059548326 -0.09898340798
674.375 0.01318293815 -0.09807880974
675.0 0.03874686395 -0.06047936717
675.625 0.04514266843 -0.03544005561
676.25 0.06453162599 -0.026601429
676.875 0.08017210073 -0.005021463783
677.5 0.03062210442 0.0215072914
678.125 0.02766842273 0.03618036577
678.75 0.05318998179 0.05733448473
679.375 0.07867072306 0.08977551063
680.0 0.05699187235 0.0714297896
680.625 0.07966292187 0.04842333938
681.25 0.09908179189 0.0223638158
681.875 0.122102564 -0.008433083815
682.5 0.09874873573 -0.04670305827
683.125 0.0454057303 -0.03730606048
683.75 0.05750504724 -0.01509858776
684.375 0.06478625556 0.03438763501
685.0 0.02151796757 0.05660704296
685.625 -0.02247837184 0.03331268116
686.25 -0.05813411959 0.01807872131
686.875 -0.08264849537 -0.01306336772
687.5 -0.0951386359 -0.02824977168
688.125 -0.1004735336 -0.04613380713
688.75 -0.1111699497 -0.05874102267
689.375 -0.09502281908 -0.04866032042
690.0 -0.08812650293 -0.03793386687
690.625 -0.108556552 -0.03488317462
691.25 -0.09486434003 -0.02135310948
691.875 -0.04602403253 0.01923213853
692.5 -0.02906225924 0.03777570719
693.125 -0.006173430291 0.07990317933
693.75 -0.003720540142 0.09726655645
694.375 0.02020986592 0.09376913179
695.0 0.003365079553 0.1034788014
695.625 -0.07862028238 0.08027284095
696.25 -0.1194032447 -0.03047540415
696.875 -0.03210644977 -0.09622587133
697.5 0.02545709476 -0.09316532012
698.125 0.03902252348 -0.07126031781
698.75 0.03289134818 -0.05945694863
699.375 0.05031200347 -0.04159009803
700.0 0.07431539584 -0.03220591142
700.625 0.07477614229 0.01327088737
701.25 0.06350790164 0.01879061006
701.875 0.08909182864 0.01578395835
702.5 0.1267269302 -0.0485407727
703.125 0.08393420841 -0.1005901416
703.75 -0.04531897552 -0.09468581572
704.375 -0.03641290929 -0.05026897365
705.0 -0.04113267057 -0.07675509885
705.625 0.002251326779 -0.09159199805
706.25 0.03695229152 -0.05236166573
706.875 0.04750572663 0.01090518324
707.5 0.03289802752 0.06497344075
708.125 -0.0186573337 0.08943927299
708.75 -0.05800831837 0.08043715413
709.375 -0.08409843521 0.0430430243
710.0 -0.08095675207 -0.01299889374
710.625 -0.07051577629 -0.04880733512
711.25 -0.08256742049 -0.07118064016
711.875 -0.07087446679 -0.06322938288
712.5 -0.07965500178 -0.004791727335
713.125 -0.0377859215 0.05401545057
713.75 -0.01606026953 0.05254067993
714.375 0.002132816328 0.07148197171
715.0 -0.03030139334 0.05696014421
715.625 -0.02974501809 0.06315224198
716.25 -0.0506975109 0.0672678065
716.875 -0.09504269424 0.06187326978
717.5 -0.09627454062 -0.01465358591
718.125 -0.07867421382 -0.03058936848
718.75 -0.07289064181 -0.04946290607
719.375 -0.04937671604 -0.07180418734
720.0 -0.02841618977 -0.07971587021
720.625 0.0577892873 -0.03242201639
721.25 0.04820649299 0.01762259078
721.875 0.008379577078 0.03397798468
722.5 -0.03763801545 0.03160268862
723.125 -0.04465861534 0.0635536969
723.75 0.01107417045 0.09828870401
724.375 0.07157291527 0.04065530214
725.0 0.06194749483 -0.02632577486
725.625 0.09374607191 -0.02665698742
726.25 0.06429595106 -0.04169722791
726.875 0.04942855295 -0.02921494146
727.5 0.0307928052 -0.02713476352
728.125 0.02758607484 0.04037497307
728.75 0.02022164008 0.05597129748
729.375 0.04148519004 0.04114516683
730.0 0.03835054543 0.02179907731
730.625 0.01709538247 0.01141392598
731.25 -0.02963103672 0.07032304586
731.875 -0.05818298704 0.04042000742
732.5 -0.0621114325 0.002924799984
733.125 -0.05248205411 -0.008151105711
733.75 -0.05818815692 -0.03588010273
734.375 -0.04935666157 -0.01726828651
735.0 -0.0335579873 -0.004838516895
735.625 -0.01848831767 -0.0008818481757
736.25 -0.05595333746 0.003038640716
736.875 -0.07347594716 -0.008468610729
737.5 -0.06868751068 -0.0194761569
738.125 -0.04436161878 -0.01390441537
738.75 -0.07809864982 -0.0351871922
739.375 -0.04129123684 -0.03628008974
740.0 -0.01094982482 -0.04186765713
740.625 -0.02715478411 -0.02700570538
741.25 -0.02980353674 -0.0293260956
741.875 0.002618478174 -0.03751284481
742.5 0.04582871655 -0.01435080403
743.125 0.01175796705 0.02985719662
743.75 -0.0165178813 0.03206393183
744.375 -0.02644365044 0.02675327986
745.0 -0.04314026863 0.02542872515
745.625 -0.03933960514 0.05578508265
746.25 -0.00414620455 0.06924568135
746.875 0.06515109729 0.04685611461
747.5 0.05166367731 -0.001520354975
748.125 0.0345137084 -0.004472193899
748.75 0.01787558191 0.01452988819
749.375 0.02382949676 -0.02198246903
750.0 -0.008374960156 -0.02976982177
