!Created with skrf (http://scikit-rf.org).
# GHz S RI R 50.0 
!freq ReS11 ImS11
500.0 -0.01782426625 0.02615405028
500.625 0.02796856246 0.02706316215
501.25 0.02709964206 0.02290266455
501.875 0.01067428541 0.04035332779
502.5 0.005860542712 0.04944733721
503.125 0.0307600105 0.03195808865
503.75 0.04644765734 0.0334830309
504.375 0.0459077241 -0.01422004873
505.0 0.0454032008 -0.02731135817
505.625 0.06080457788 -0.04702340416
506.25 0.04301316743 -0.04576096297
506.875 0.05485452573 -0.06246674491
507.5 0.03790943746 -0.05222392635
508.125 0.07001279458 -0.009961033869
508.75 0.05714016643 -0.04182662223
509.375 0.02336762711 -0.05105576864
510.0 0.05397571215 -0.0386100214
510.625 -0.005824455755 -0.06642131088
511.25 -0.0239740933 -0.06263796727
511.875 -0.0534862296 -0.001127340396
512.5 -0.03288220029 0.008134039529
513.125 -0.01880868349 0.03015492706
513.75 -0.03587939398 0.03561177336
514.375 -0.01520406679 0.05537363467
515.0 -0.004280760267 0.08156684827
515.625 -0.05480315832 0.08176971394
516.25 0.009579073598 0.1064407879
516.875 -0.04741511633 0.1136403348
517.5 0.04869030476 0.08934636583
518.125 -0.048980417 0.1032230758
518.75 0.03084924349 0.0429902759
519.375 0.002182769917 0.0639060574
520.0 0.04432721937 0.05904271487
520.625 0.04827746978 0.05117966069
521.25 0.0538567376 0.02838391049
521.875 0.03072827743 0.04421915812
522.5 0.06003946949 0.01047118589
523.125 0.1079233846 -0.01487291843
523.75 0.09421373227 -0.02558843475
524.375 0.0490114976 -0.0314004521
525.0 -0.00388819722 0.005002403128
525.625 -0.001199310139 0.03537756914
526.25 0.01002028693 0.0243666306
526.875 0.01217090301 0.02714346609
527.5 0.0230595707 0.0246010371
528.125 0.04843103092 0.01601391733
528.75 0.05703335855 0.002106440371
529.375 0.03636610861 -0.02334966544
530.0 0.0317801782 -0.02147849502
530.625 0.01791845865 -0.09553732029
531.25 0.02455631633 -0.1383053057
531.875 -0.04092001999 -0.1284468882
532.5 -0.07705392205 -0.07183145766
533.125 -0.07142658297 -0.07560090712
533.75 -0.0589449173 -0.04614938322
534.375 -0.0579804395 -0.04030129374
535.0 -0.05811991709 -0.02852495361
535.625 -0.02307828211 -0.04223720345
536.25 -0.02069212318 -0.02447706221
536.875 -0.02715806529 -0.05588429872
537.5 -0.03619976044 -0.09118458367
538.125 -0.06330699784 -0.07168468226
538.75 -0.0466801405 -0.01766330625
539.375 -0.02353089657 -0.03913763889
540.0 -0.0387576358 -0.08437957019
540.625 -0.04970580838 -0.1243744207
541.25 -0.03077662402 -0.0741864918
541.875 -0.03384687432 -0.07462141414
542.5 -0.04368963808 -0.1000623903
543.125 -0.09499943032 -0.07385644442
543.75 -0.07707123138 0.02342235552
544.375 -0.05471349359 0.0325957855
545.0 -0.03687831098 0.04575320541
545.625 -0.01965395445 0.0552028776
546.25 0.001111560305 0.07371505642
546.875 0.009064520247 0.0627671833
547.5 0.004570116426 0.07327315741
548.125 -0.003350938578 0.07448430873
548.75 -0.005549263096 0.04653134264
549.375 -0.02442791374 0.05074007004
550.0 -0.03572182202 0.01605023601
550.625 -0.0199472234 -0.009160745768
551.25 -0.01666597334 -0.04284935177
551.875 -0.03933989488 -0.05546348373
552.5 -0.05665458669 -0.05216835146
553.125 -0.07696353042 -0.02918717845
553.75 -0.06021977337 -0.0345922294
554.375 -0.09030855306 -0.007997337472
555.0 -0.08856954898 0.01258333988
555.625 -0.0732101798 0.02056744411
556.25 -0.08882823052 0.01209709459
556.875 -0.08625282592 0.008554821333
557.5 -0.07471315263 0.01994259676
558.125 -0.07167936977 0.02119432183
558.75 -0.06376117574 -0.003392867116
559.375 -0.02878038718 -0.001836126392
560.0 -0.01796140974 -0.006898562188
560.625 -0.02861790487 -0.04075480193
561.25 -0.05283177064 -0.04853654486
561.875 -0.06860525786 -0.02741101019
562.5 -0.0745428641 0.01172564084
563.125 -0.07541671976 0.05221458083
563.75 -0.05651593713 0.06396722905
564.375 -0.02833891553 0.07217907542
565.0 -0.02028882458 0.06413165292
565.625 -0.02149231192 0.05959276645
566.25 -0.04377288652 0.02941502406
566.875 -0.05077434063 0.01419232048
567.5 -0.0518352992 0.004855282693
568.125 -0.05862645442 0.001303543239
568.75 -0.04809482684 0.0008464708195
569.375 -0.006681113158 -0.01806839598
570.0 -0.006660555961 -0.03915740613
570.625 -0.0284593675 -0.05369148625
571.25 -0.03935982689 -0.03943827317
571.875 -0.04347736369 -0.04607112716
572.5 -0.08053937383 -0.03043984411
573.125 -0.1078798132 0.01033652265
573.75 -0.06229144273 0.06396657225
574.375 -0.03703056809 0.05512385393
575.0 -0.05575485626 0.05384112491
575.625 -0.05802999028 0.05355041649
576.25 -0.03852114028 0.06257016273
576.875 -0.01952477073 0.06592928103
577.5 -0.01280672687 0.06997972496
578.125 -0.02014317717 0.04449280166
578.75 -0.01523814961 0.03791256656
579.375 -0.01619362879 0.02912384604
580.0 -0.02466228033 0.01192281846
580.625 -0.03522738247 0.003670660437
581.25 -0.056878739 0.007198255562
581.875 -0.077879478 0.00542723829
582.5 -0.07555600044 0.02244950443
583.125 -0.0621474606 0.03529307719
583.75 -0.06147990401 0.03430925329
584.375 -0.06570783408 -0.005808937096
585.0 -0.06991526235 -0.0004571709974
585.625 -0.05868497144 0.0123982327
586.25 -0.05774900963 0.01945055461
586.875 -0.04839805845 -0.01693891313
587.5 -0.0510462711 0.001562443854
588.125 -0.03371863876 0.03485558909
588.75 -0.02026453277 0.04404907102
589.375 -0.04185876611 -0.003962271939
590.0 -0.04958237057 0.01288633672
590.625 -0.05201880425 0.04845127556
591.25 -0.03816559711 0.08017398857
591.875 -0.03247625209 0.08385234457
592.5 -0.008843634022 0.06720151491
593.125 -0.001911563652 0.05626634558
593.75 -0.007769311768 0.06307460871
594.375 -0.03605497154 0.02610515668
595.0 -0.03236358444 0.01270518039
595.625 -0.02712266174 -0.0001627246213
596.25 -0.0324417377 -0.017289612
596.875 -0.03117191545 -0.01904776159
597.5 -0.02679445403 -0.02590633155
598.125 -0.01391213672 -0.02690699744
598.75 -0.01173354908 -0.02191468499
599.375 -0.002260902947 -0.05535524611
600.0 -0.01065676545 -0.07259546172
600.625 -0.02010668079 -0.07935696745
601.25 -0.04260640761 -0.05789546971
601.875 -0.04040275842 -0.06086788938
602.5 -0.05151164723 -0.03766300655
603.125 -0.04386660622 -0.03221929101
603.75 -0.02443738846 -0.02669618871
604.375 -0.01797008316 -0.01539058088
605.0 0.006006000072 -0.03962253422
605.625 0.01375278597 -0.0501478608
606.25 -0.003437348062 -0.03686158204
606.875 -0.02014022554 -0.01050832542
607.5 0.03197353812 -0.00611183327
608.125 0.03578935319 -0.01585783633
608.75 0.02791576392 -0.02116520463
609.375 0.02527504341 -0.009510818095
610.0 0.05156640148 -0.002971556429
610.625 0.06434888536 -0.01081706698
611.25 0.0506242374 -0.01736644151
611.875 0.03143454358 -0.01757555443
612.5 0.04835995279 0.009863793739
613.125 0.0196198769 0.0005001242304
613.75 0.01137598248 0.01218967639
614.375 0.02494207772 0.02554115544
615.0 0.02450939738 0.01837183474
615.625 0.01666583082 0.01374197634
616.25 0.0175210895 0.02377897796
616.875 0.0192791026 0.03544445138
617.5 0.02382699729 0.04657002064
618.125 0.02398388403 0.03486320777
618.75 0.01683454817 0.02827387271
619.375 0.02128968402 0.04053627951
620.0 0.0373643879 0.05097277361
620.625 0.03605953435 0.01445354749
621.25 0.01779150053 0.002259066012
621.875 -0.00799085767 -0.02188085998
622.5 -0.02786970283 0.01407902795
623.125 -0.02936170638 0.04265415157
623.75 -0.02783270263 0.0514534107
624.375 -0.02891637737 0.04719043225
625.0 -0.05016822655 0.02384128451
625.625 -0.04992000204 0.0491621984
626.25 -0.0340839047 0.07697742068
626.875 -0.02051084554 0.05599090558
627.5 -0.02450488031 0.02535764858
628.125 -0.02917987519 0.04844356143
628.75 -0.03207668307 0.02380190551
629.375 -0.02092212456 0.01503515786
630.0 -0.005510512628 -0.008545351253
630.625 -0.01777892048 -0.005571056771
631.25 0.001307633404 -0.02863056729
631.875 0.0009803786458 -0.04837215971
632.5 -0.0002752131244 -0.06918266004
633.125 -0.03254190819 -0.0555755608
633.75 -0.02489101922 -0.05455386839
634.375 -0.02206941152 -0.05841511262
635.0 -0.03750404763 -0.0538153718
635.625 -0.0332552597 -0.04537972275
636.25 -0.03391232373 -0.02502046526
636.875 -0.02532794458 -0.03193483241
637.5 -0.02558485945 -0.05630889559
638.125 -0.0233506854 -0.05292406964
638.75 -0.0414635087 -0.01314089584
639.375 0.006157652394 -0.01568298656
640.0 0.04856722347 -0.016469548
640.625 0.06191648551 -0.01276591744
641.25 0.04760773183 -0.02698389904
641.875 0.04347155143 -0.01945515998
642.5 0.05480171891 0.003914018785
643.125 0.06007354268 0.01977119832
643.75 0.05158218208 -0.01352057544
644.375 0.04845874792 -0.01240486844
645.0 0.03845662104 -0.001074651586
645.625 0.04368673248 0.02725817864
646.25 0.04457985839 0.01307148453
646.875 0.06581022031 0.0320784121
647.5 0.05723207431 0.02105089613
648.125 0.04885713663 0.02832328903
648.75 0.04284393725 0.06307194583
649.375 0.03849765482 0.07352874845
650.0 0.03569316447 0.06655943174
650.625 0.0282814016 0.06633762387
651.25 -0.002024823445 0.07462069548
651.875 -0.01932003105 0.06033976054
652.5 -0.01261388999 0.04475836329
653.125 -0.0252220816 0.0320962512
653.75 -0.03482225057 -0.007834193356
654.375 -0.01413006533 -0.0292524222
655.0 -0.01957272736 -0.04917291359
655.625 -0.03831330997 -0.0635008483
656.25 -0.06420817661 -0.07294307531
656.875 -0.06740279433 -0.03892944877
657.5 -0.06232512557 -0.04143897966
658.125 -0.08178625775 -0.05098212853
658.75 -0.1044594757 -0.04767900431
659.375 -0.06735176261 0.02497945962
660.0 -0.05767100892 0.02991239701
660.625 -0.0562936902 0.02662941606
661.25 -0.05629868014 0.01029891511
661.875 -0.03624787791 0.02338397742
662.5 -0.03914987925 0.01666480794
663.125 -0.06705522635 0.0007993610134
663.75 -0.06972535932 -0.03558074301
664.375 -0.03364837266 -0.04727458513
665.0 -0.008247728567 -0.08402773739
665.625 0.02397722399 -0.1010173631
666.25 0.02821710002 -0.08020621889
666.875 0.04292937899 -0.07558697378
667.5 0.06025256948 -0.0687251792
668.125 0.04930507964 -0.04287551586
668.75 0.03833781414 -0.03386409956
669.375 0.04542757678 -0.01884658589
670.0 0.06886306231 -0.01422357513
670.625 0.06654126299 -0.009987219867
671.25 0.06624645195 -0.03103362611
671.875 0.05688178333 -0.02554795937
672.5 0.05481586695 -0.06961169351
673.125 0.03342184626 -0.09183373166
673.75 0.01137931412 -0.09209192765
674.375 0.03189109887 -0.07334322668
675.0 0.0606302531 -0.0443095847
675.625 0.05643909371 -0.02399254172
676.25 0.05600823439 -0.0068253546
676.875 0.05442437184 0.02636748179
677.5 0.02580748044 0.04224490005
678.125 0.02900607143 0.05205264481
678.75 0.05268347824 0.08156364374
679.375 0.03139463659 0.09152529289
680.0 0.03840747066 0.07654762326
680.625 0.0657413554 0.05761650713
681.25 0.09947194942 0.04217540439
681.875 0.1009937755 0.01892572022
682.5 0.0786204539 -0.02082458091
683.125 0.05511568468 -0.02098630236
683.75 0.06639039761 0.005398952154
684.375 0.05180021869 0.05848442135
685.0 -0.003248082024 0.03989776351
685.625 -0.03942396835 0.02331958659
686.25 -0.06177689658 -0.006784564306
686.875 -0.08708644546 -0.03332664525
687.5 -0.07015815507 -0.05553743084
688.125 -0.08794720921 -0.07129156435
688.75 -0.08157912967 -0.07240499864
689.375 -0.08253478299 -0.05994889427
690.0 -0.06684171072 -0.05004084712
690.625 -0.07437470944 -0.05974487673
691.25 -0.07074223781 -0.03666786177
691.875 -0.04655604589 0.008378396956
692.5 -0.04302547571 0.01578980116
693.125 -0.05498639434 0.06311181634
693.75 -0.03905667468 0.09427067907
694.375 0.004792398578 0.09760687312
695.0 -0.01795805584 0.1071371522
695.625 -0.09012748399 0.04726041044
696.25 -0.08854867315 -0.05902724728
696.875 -0.02458195933 -0.1093852538
697.5 0.04124326736 -0.09041076352
698.125 0.05569447729 -0.062169241
698.75 0.04021554078 -0.03510735619
699.375 0.05451870332 -0.01459989349
700.0 0.08563019318 -0.009946961704
700.625 0.04149132842 0.04174037269
701.25 0.051527279 0.04028018047
701.875 0.08457713862 0.03634961713
702.5 0.1428282542 -0.02701469703
703.125 0.08518622138 -0.066540315
703.75 -0.01251829432 -0.08095059569
704.375 -0.03227320299 -0.06219202579
705.0 -0.01395537462 -0.0869168272
705.625 0.0213208239 -0.08020920437
706.25 0.04824540492 -0.009115408621
706.875 0.03817508602 0.04027639583
707.5 0.004894397568 0.07537342882
708.125 -0.02976997561 0.08728630535
708.75 -0.08349647402 0.049072111
709.375 -0.09068874276 0.01212900433
710.0 -0.07730022963 -0.02795397455
710.625 -0.06606598613 -0.05391207416
711.25 -0.04269420148 -0.08458059332
711.875 -0.04927773543 -0.07205092153
712.5 -0.05913363628 -0.01501979774
713.125 -0.03937133702 0.04580878249
713.75 -0.04274586043 0.02158498845
714.375 -0.05259321469 0.04762201276
715.0 -0.03168457344 0.05335710197
715.625 -0.03529598425 0.06059388913
716.25 -0.05540541786 0.07214525787
716.875 -0.1135936845 -0.01474131402
717.5 -0.08146053409 -0.0401617477
718.125 -0.06808324286 -0.0380203133
718.75 -0.06199418516 -0.05357204832
719.375 -0.03313295218 -0.07665771703
720.0 0.02185759137 -0.07259340441
720.625 0.05402968607 -0.02845867343
721.25 0.03997338957 0.01796389336
721.875 -0.03735572392 0.02459364695
722.5 -0.06532736677 0.015843759
723.125 -0.07835122152 0.04970516085
723.75 0.004675285512 0.08822929779
724.375 0.05811648585 0.05588822679
725.0 0.07659780538 0.003343343128
725.625 0.08210399643 -0.02369011631
726.25 0.05680610265 -0.02883305703
726.875 0.03747191837 -0.03256133711
727.5 0.04135554683 0.02933954204
728.125 0.01544863831 0.07045801773
728.75 -0.0003976944276 0.05573146717
729.375 0.0273344715 0.03201209538
730.0 0.0271099929 0.03640986005
730.625 0.008315735032 0.05159308629
731.25 -0.02438966797 0.05222412708
731.875 -0.04667366248 0.02830565716
732.5 -0.0401899634 0.003389566954
733.125 -0.04669481375 -0.05219770689
733.75 -0.04186710236 -0.02566914098
734.375 -0.02427470699 -0.008405911917
735.0 -0.03574328654 -0.03321446019
735.625 -0.03532839633 -0.01714136691
736.25 -0.03400175651 -0.01287850875
736.875 -0.05959045147 -0.02642701961
737.5 -0.06227680815 -0.03097279506
738.125 -0.06561622887 -0.02975291793
738.75 -0.05409280168 -0.02216556065
739.375 -0.01084577434 -0.01988043775
740.0 0.01872010268 -0.01697005586
740.625 -0.03555524796 -0.06093163091
741.25 -0.03116254732 -0.03836177887
741.875 0.01356883561 -0.0263809461
742.5 0.0295532197 0.007411852627
743.125 0.01233558164 0.0495049032
743.75 -0.02545682903 0.04041032832
744.375 -0.03646907348 0.03031015014
745.0 -0.06249128848 -0.0002126082284
745.625 -0.03249636685 0.08833549323
746.25 0.004731753456 0.07756351391
746.875 0.03199567387 0.04228114232
747.5 0.03177206681 0.007688645837
748.125 0.009614872202 0.008482833788
748.75 0.03483056502 -0.001991160214
749.375 0.02907363687 -0.01964496284
750.0 -0.004478507984 -0.02940579443
