!Created with skrf (http://scikit-rf.org).
# GHz S RI R 50.0 
!freq ReS11 ImS11
500.0 -0.001762391861 0.01397884797
500.625 0.01734215424 0.00287323426
501.25 0.01116976999 -0.02001009945
501.875 -0.003906029643 -0.03207874991
502.5 -0.002073451405 -0.009404091541
503.125 0.005448096096 -0.000798845283
503.75 0.003381478732 -0.01407150373
504.375 -0.002882931381 -0.02397388478
505.0 -0.002617328998 -0.02406114673
505.625 -0.006862736713 -0.03653852908
506.25 -0.03081031825 -0.04363202077
506.875 -0.03162114413 -0.08355861318
507.5 -0.04419314351 -0.05529918083
508.125 -0.02736866126 -0.06558395467
508.75 -0.08296519827 -0.04796577748
509.375 -0.0809996684 -0.03064488605
510.0 -0.05343841678 -0.03021594679
510.625 -0.0395676548 0.01574643881
511.25 -0.06269077806 0.0295360772
511.875 -0.04197386725 0.05785437366
512.5 0.007368392444 0.05141766441
513.125 0.07115694028 0.01719397165
513.75 0.09321931697 0.0002585996175
514.375 0.06922359221 -0.02307319201
515.0 0.04439857417 -0.04607444437
515.625 0.08976262896 -0.01606500152
516.25 0.09513849909 -0.0346139558
516.875 0.08705284165 0.06259991096
517.5 0.1109794203 -0.02463604402
518.125 0.1970216505 0.121785859
518.75 0.1107821141 -0.0564894268
519.375 0.07770558863 -0.03095670938
520.0 0.05391590166 -0.06870421176
520.625 0.07870211894 -0.100481165
521.25 0.04936899174 -0.1015067936
521.875 0.04946369844 -0.04696226318
522.5 0.01627457866 -0.09287330867
523.125 0.06128244887 -0.2362512649
523.75 0.01186612532 -0.3007598692
524.375 0.006431803505 -0.2889401379
525.0 -0.01030951546 -0.1429424131
525.625 -0.003465881429 -0.1110544354
526.25 0.01980807618 -0.08542002043
526.875 -0.009157466358 -0.07913536338
527.5 -0.0433661441 -0.09013756195
528.125 -0.05972892834 -0.05396856478
528.75 -0.06871269388 -0.04247319337
529.375 -0.1234297351 0.0246496754
530.0 -0.09181249314 0.09365154026
530.625 -0.00352870168 0.09403011859
531.25 -0.008938820568 0.06941234052
531.875 -0.03480355806 0.1164634598
532.5 -0.04408996895 0.1645549061
533.125 -0.02496597946 0.1254501857
533.75 0.01479585047 0.09426679172
534.375 0.02335492188 0.1133442447
535.0 0.02118703513 0.1396967015
535.625 -0.0144510885 0.09991126798
536.25 0.05865785372 0.06660781843
536.875 0.04377126514 0.08715090927
537.5 -0.0287706614 0.0927945716
538.125 -0.01924333543 0.08235029749
538.75 0.0266208416 0.1182696027
539.375 -0.004800755508 0.1507171857
540.0 0.002677056661 0.1217454348
540.625 0.002154754213 0.09489003612
541.25 0.005169624346 0.116284766
541.875 -0.02052249639 0.1163332346
542.5 -0.03676991351 0.05436898966
543.125 -0.01777035865 0.0664816181
543.75 0.05012244902 0.1086879189
544.375 0.08324642506 0.1201181109
545.0 0.1127328383 0.01603416813
545.625 0.09082642831 -0.05791190747
546.25 0.08401375132 -0.1067888058
546.875 0.08567764439 -0.09273079203
547.5 0.09076794472 -0.08515349254
548.125 0.1201993446 -0.09531645904
548.75 0.1617028323 -0.05658114573
549.375 0.1605379157 -0.01692533707
550.0 0.1515777415 0.02532325108
550.625 0.1835174489 0.0320194174
551.25 0.1129453441 0.09294127131
551.875 0.08326888569 0.04062882176
552.5 0.08335260971 0.01147285728
553.125 0.1106802438 0.007403383498
553.75 0.07041605152 0.04319227163
554.375 0.04728012627 0.0220078389
555.0 0.06527042862 0.01671379448
555.625 0.0996692707 0.0141635368
556.25 0.08079999996 0.04830917185
556.875 0.05163747551 0.04269543918
557.5 0.07038789487 0.0518341511
558.125 0.07969335052 0.09070249299
558.75 0.03898350166 0.1119159791
559.375 0.06316931524 0.09419070812
560.0 0.09189013153 0.09035620216
560.625 0.08906928435 0.06697553837
561.25 0.07187605912 0.02539535711
561.875 0.07413944808 0.007990216984
562.5 0.08167673598 0.004984131913
563.125 0.07636444163 0.003693431399
563.75 0.06273266207 -0.008281105796
564.375 0.08024508454 -0.03962950515
565.0 0.139901963 -0.0237794781
565.625 0.1160154418 -0.02335844962
566.25 0.09774798858 -0.0161048439
566.875 0.1074775846 -0.01219433938
567.5 0.1149176091 0.04140546573
568.125 0.07332258095 0.07327105757
568.75 0.08438490508 0.07585667283
569.375 0.09546490562 0.08736516985
570.0 0.08873062613 0.08012104904
570.625 0.07342584001 0.05301926315
571.25 0.08625736673 0.02925230468
571.875 0.09114528345 0.03100501363
572.5 0.06217932767 0.003938623321
573.125 0.04837537815 0.0019390676
573.75 0.08344843055 -0.01380753582
574.375 0.1064808626 -0.03624207495
575.0 0.07731573438 -0.0357247553
575.625 0.0452983151 -0.04253690897
576.25 0.06732831355 -0.05349477218
576.875 0.08838870078 -0.03366561426
577.5 0.08455639434 -0.02771536183
578.125 0.07709942294 -0.04577441881
578.75 0.09978169584 -0.06837247147
579.375 0.113722856 -0.04673243821
580.0 0.09099596958 -0.04825064251
580.625 0.08025334292 -0.07819540071
581.25 0.06788637767 -0.09225795932
581.875 0.05678908013 -0.05083338734
582.5 0.04477255046 -0.02318202198
583.125 0.07271550794 -0.02942554927
583.75 0.09369048271 -0.02070663087
584.375 0.07789180659 -0.006709077985
585.0 0.06274298408 0.005592214874
585.625 0.08056777837 0.01283050295
586.25 0.0901079931 0.02438550887
586.875 0.06922271735 0.009040417815
587.5 0.07025826898 -0.009582806524
588.125 0.09087429572 -0.02997418807
588.75 0.09967983646 -0.03315602155
589.375 0.06597775849 -0.06579950465
590.0 0.01819624059 -0.09727176631
590.625 0.005600398291 -0.09024837356
591.25 0.01618323801 -0.04101865234
591.875 0.02626534429 -0.02332375166
592.5 0.03484330814 -0.0487619033
593.125 0.05481125821 -0.06816309293
593.75 0.06419088799 -0.04365931852
594.375 0.06582871009 -0.02214581112
595.0 0.08594729173 -0.01202254132
595.625 0.095732023 0.01121429901
596.25 0.07499320816 0.02728606701
596.875 0.0599155535 0.03190911004
597.5 0.06402209894 0.04614571026
598.125 0.07033442419 0.04833439358
598.75 0.07901387834 0.02300820162
599.375 0.08019543312 0.005434581754
600.0 0.06867751619 0.001659282985
600.625 0.04398281837 0.000218873289
601.25 0.02496243019 -0.001782791825
601.875 0.02097882159 0.01188645938
602.5 0.01458468018 0.02766069727
603.125 0.004221523769 0.03418339112
603.75 0.00937349404 0.03936720157
604.375 0.0215544428 0.04517170385
605.0 0.01571216605 0.04173755532
605.625 -0.002178116004 0.02678550461
606.25 -0.01918178075 0.02857029089
606.875 -0.02559001108 0.0470433472
607.5 -0.009892197187 0.05817843823
608.125 0.01356418123 0.046128095
608.75 0.01712632299 0.0355699703
609.375 0.0132346174 0.0354553476
610.0 0.01239446465 0.03162148161
610.625 0.01733145238 0.01745075243
611.25 0.01475996304 0.003644857993
611.875 0.008272547005 -0.007407968534
612.5 -0.0007911602968 -0.01573951538
613.125 -0.01294548323 -0.01360727533
613.75 -0.01486662455 -0.00236842354
614.375 -0.004081620385 0.003408068983
615.0 0.005723759591 -0.003771069593
615.625 0.002403692355 -0.01149069221
616.25 -0.003741226877 -0.004421447387
616.875 0.005462662852 0.005692901598
617.5 0.0208544874 0.002512189967
618.125 0.02696695046 -0.003682443494
618.75 0.02679816475 -0.003109770733
619.375 0.03653309941 0.001661917672
620.0 0.05583377293 -0.00500476215
620.625 0.05732290206 -0.03190125373
621.25 0.05025885476 -0.04110458947
621.875 0.03724553477 -0.05048884079
622.5 -0.01155538165 -0.04602176102
623.125 -0.01066334516 -0.018001784
623.75 0.006096471001 -0.003361637042
624.375 0.02394661501 0.00366711973
625.0 0.02773831708 0.01888502005
625.625 0.02489210401 0.0275623189
626.25 0.04029495035 0.03520550665
626.875 0.06925900077 0.04221382585
627.5 0.06875141104 0.05506166057
628.125 0.05697799085 0.05181744085
628.75 0.05918118113 0.05242703275
629.375 0.06877596147 0.06996791825
630.0 0.05348692047 0.08032399132
630.625 0.03879591209 0.06638083944
631.25 0.03889276501 0.05994342136
631.875 0.02654354087 0.06388173758
632.5 0.007192364372 0.05701679055
633.125 -0.005780367418 0.04739367704
633.75 0.0002154811911 0.05997623271
634.375 -0.01287888179 0.06766105393
635.0 -0.01622926509 0.06603214376
635.625 -0.006618893751 0.07836938663
636.25 0.004550915334 0.09880637831
636.875 -0.009063958374 0.09066302407
637.5 -0.01565819193 0.06450949323
638.125 -0.02257048476 0.08430005057
638.75 -0.04652376769 0.1171629163
639.375 -0.06842949005 0.08669247645
640.0 -0.05681482219 0.04790369754
640.625 -0.06312719055 0.04233772164
641.25 -0.09837103424 0.01643294546
641.875 -0.08353910723 -0.01631985306
642.5 -0.07027435171 -0.01441047671
643.125 -0.08490631612 -0.01616707445
643.75 -0.09551061685 -0.05231429384
644.375 -0.08224815129 -0.0639381246
645.0 -0.09185785088 -0.03130901519
645.625 -0.1184309209 -0.02085328511
646.25 -0.1104668045 -0.02595192521
646.875 -0.07801983538 -0.04365430759
647.5 -0.07929071001 -0.03464775172
648.125 -0.1021417772 -0.04390465537
648.75 -0.07031310729 -0.05993930226
649.375 -0.03464136835 -0.05348726693
650.0 -0.01648870059 -0.07087489679
650.625 0.01942405413 -0.0918239324
651.25 0.05317531245 -0.0762009184
651.875 0.06843929381 -0.05181746201
652.5 0.1111106377 -0.04404216817
653.125 0.146987816 0.006748743368
653.75 0.1282468474 0.0246820493
654.375 0.1223946763 0.01948330901
655.0 0.1355837602 0.03700918626
655.625 0.1024064019 0.0639872579
656.25 0.06751255604 0.03625887317
656.875 0.08700424422 0.006772458542
657.5 0.1016156536 0.03569058316
658.125 0.07058150461 0.0633125945
658.75 0.04283986999 0.05914463883
659.375 0.08437915069 0.04042651777
660.0 0.1316771851 0.03256964362
660.625 0.1324856249 0.01920734823
661.25 0.1209692886 -0.01215241826
661.875 0.1260722814 -0.06348077042
662.5 0.1272007382 -0.08741704621
663.125 0.1150017624 -0.06060586065
663.75 0.1167567359 -0.02766081747
664.375 0.1149646972 0.06674907011
665.0 0.03904977721 0.09638392544
665.625 0.002075196441 0.08061037296
666.25 -0.01101309247 0.08798367505
666.875 -0.08786086884 0.09678694502
667.5 -0.1149307181 0.03332250787
668.125 -0.09781772451 0.03697277957
668.75 -0.09745121981 0.08599639228
669.375 -0.1277877532 0.09724761477
670.0 -0.1173645798 0.04111532019
670.625 -0.09017827827 0.03348563993
671.25 -0.09477785648 0.08706440106
671.875 -0.08592834908 0.1114956938
672.5 -0.04281007712 0.1026345708
673.125 -0.02253445495 0.08546289662
673.75 -0.03657780724 0.1043424935
674.375 -0.07421801454 0.1000589608
675.0 -0.0957649725 0.0675207947
675.625 -0.1236519022 0.04376414228
676.25 -0.1415072592 -0.02692353622
676.875 -0.1298995035 -0.05327813105
677.5 -0.1314023645 -0.0308846798
678.125 -0.1658289673 -0.01782861368
678.75 -0.1294566623 -0.06661165481
679.375 -0.06510457445 -0.05302911177
680.0 -0.06389103349 -0.03527742324
680.625 -0.105031302 -0.04386035231
681.25 -0.1115725378 -0.06631584607
681.875 -0.0743412813 -0.05541193313
682.5 -0.09820508921 -0.01203625502
683.125 -0.1486916342 0.009924458239
683.75 -0.1704046256 -0.03304205684
684.375 -0.09684229537 -0.1041084304
685.0 -0.02781834474 -0.1341017532
685.625 0.06927157085 -0.1480892102
686.25 0.1203365099 -0.1071463222
686.875 0.1225527293 -0.07488229499
687.5 0.1269936151 -0.0322744828
688.125 0.1020919016 0.01163067974
688.75 0.0723733488 0.03908359465
689.375 0.08241442351 0.04810097959
690.0 0.1014675776 0.09663120093
690.625 0.06794647639 0.1072796947
691.25 0.09062806054 0.07665181669
691.875 0.1474259564 -0.01308858917
692.5 0.1523409053 -0.1555749947
693.125 0.02102334079 -0.1810533876
693.75 -0.07145436402 -0.1015550686
694.375 -0.1024929111 -0.0886318002
695.0 -0.05268512685 -0.1604968014
695.625 0.09942208075 -0.1099503483
696.25 0.09543117846 0.01965484063
696.875 0.04745181905 0.09679192012
697.5 -0.04959950488 0.1106723844
698.125 -0.09983910851 0.08852401544
698.75 -0.1044033157 0.09231688708
699.375 -0.1113655983 0.0925794375
700.0 -0.1116036907 0.06148406696
700.625 -0.1132258193 0.03307212908
701.25 -0.1391340472 0.04132286355
701.875 -0.1412959611 0.02905985156
702.5 -0.0789779596 0.0421765249
703.125 -0.04661851852 0.05522892185
703.75 0.01171227752 0.1284100844
704.375 0.0602967574 0.1801864259
705.0 0.04372453368 0.1331530313
705.625 0.0138424665 0.1102072738
706.25 -0.06458834263 0.130150659
706.875 -0.183652166 0.01396104475
707.5 -0.119718244 -0.08445421696
708.125 -0.07244079847 -0.08562081559
708.75 -0.02122354663 -0.1102802827
709.375 0.07252915153 -0.08516339482
710.0 0.0998186614 -0.008180628856
710.625 0.0852740903 0.01307747595
711.25 0.07244155889 0.03853333461
711.875 0.05780229078 0.05143445313
712.5 0.0853208299 0.05094044363
713.125 0.1424509498 -0.03292594471
713.75 0.07725873191 -0.1402978319
714.375 -0.02777063479 -0.1383499679
715.0 -0.09161387282 -0.1013824389
715.625 -0.09759884513 -0.134189228
716.25 -0.002775377894 -0.1393646849
716.875 0.04030921685 -0.07848837581
717.5 0.06572348451 -0.04531799501
718.125 0.1047979725 -0.01651963909
718.75 0.1004513021 0.03517386574
719.375 0.05452269191 0.04777162078
720.0 0.02223554349 0.05780086704
720.625 -0.05501624814 0.06026736311
721.25 -0.09834354817 -0.04428009337
721.875 -0.03112016269 -0.1088148976
722.5 -0.0208922811 -0.1189046736
723.125 -0.07348823623 -0.09956893159
723.75 -0.0990220331 -0.0251432713
724.375 -0.07470032385 0.0311100264
725.0 -0.03542508739 0.05825722534
725.625 -0.01036155521 0.05032562728
726.25 -0.01433249435 0.03378290777
726.875 -0.04278209589 0.02413800552
727.5 -0.07625616562 0.01011707943
728.125 -0.08181508963 -0.01376253915
728.75 -0.0697306048 -0.003312982384
729.375 -0.05392973391 0.01630535971
730.0 -0.05175402673 0.01057142151
730.625 -0.05079131268 -0.003371288226
731.25 -0.03774921964 -0.01553427841
731.875 -0.02109484708 -0.02784920305
732.5 -0.001192022089 -0.02490979511
733.125 0.007034905524 -0.004264150995
733.75 0.01614698467 0.007859560074
734.375 0.0272351619 0.002810302951
735.0 0.02323003086 -0.0149329195
735.625 0.01594080859 -0.01890513157
736.25 0.008368617937 -0.02638308947
736.875 -0.009799441628 -0.02889511807
737.5 -0.0285373935 -0.01434268438
738.125 -0.03961820502 0.007481169676
738.75 -0.03646460962 0.0292534023
739.375 -0.0174357246 0.03693799799
740.0 -0.004161714413 0.02473436539
740.625 -0.01221753783 0.02355104054
741.25 -0.02026423684 0.03190998308
741.875 -0.03556689926 0.01737095945
742.5 -0.03196580361 -0.02387840238
743.125 0.0136654824 -0.04225925164
743.75 0.03814296929 -0.02506026984
744.375 0.036230673 -0.02551134147
745.0 0.0311759894 -0.03291995882
745.625 0.02164834672 -0.02825773197
746.25 0.0337024922 -0.01401556357
746.875 0.03547958334 -0.03989921567
747.5 0.004231570665 -0.0635807591
748.125 -0.02924576245 -0.06143774614
748.75 -0.05687300583 -0.03444955574
749.375 -0.06833307932 0.01761274752
750.0 -0.02395137483 0.08726211908
