!Created with skrf (http://scikit-rf.org).
# GHz S RI R 50.0 
!freq ReS11 ImS11
500.0 -0.009710134808 0.0255645673
500.625 0.0171985358 0.03616346394
501.25 0.02711054816 0.02058352343
501.875 0.02182032618 0.0213872716
502.5 0.01821732266 0.03231867143
503.125 0.02993711327 0.03715554316
503.75 0.04332623498 0.02275345814
504.375 0.04478014828 -0.004497410209
505.0 0.03576627065 -0.03254291847
505.625 0.05584372232 -0.04629638967
506.25 0.05325775216 -0.04530160298
506.875 0.05407965425 -0.06194869276
507.5 0.04546373186 -0.04119002164
508.125 0.06752789069 -0.02304621844
508.75 0.03971911285 -0.05653054684
509.375 0.02756253868 -0.04827141809
510.0 0.0737716096 -0.03419069719
510.625 -0.009391993613 -0.06315492574
511.25 -0.03034086538 -0.05575282632
511.875 -0.05187208227 -0.003321499023
512.5 -0.03160012638 0.01547154738
513.125 -0.02191110529 0.02864974502
513.75 -0.01766080414 0.04008509524
514.375 -0.0004819858555 0.05385452716
515.0 0.022979854 0.07281482186
515.625 -0.06019054808 0.09852424492
516.25 0.04168975327 0.09152703555
516.875 -0.02965879114 0.117110422
517.5 0.0407054753 0.09991113652
518.125 -0.06972147104 0.1161328966
518.75 0.04195328808 0.03847697464
519.375 0.02189947804 0.05800116836
520.0 0.04968000787 0.05942232023
520.625 0.06066858702 0.06005568826
521.25 0.06496235613 0.00170832071
521.875 0.04116928044 0.03898933877
522.5 0.06829369838 0.001385860183
523.125 0.12502494 -0.006261728052
523.75 0.1055206733 -0.06788897597
524.375 0.06569886728 -0.02396165064
525.0 0.00804050902 -0.00772856715
525.625 0.005007145676 0.02671049767
526.25 0.01211161873 0.03362229107
526.875 0.01607138533 0.02634446554
527.5 0.02322842308 0.02077680804
528.125 0.05120538463 0.006578515515
528.75 0.03731892319 -0.02037837419
529.375 0.02397910387 -0.03474249325
530.0 0.02322838842 -0.02460674083
530.625 0.007303198955 -0.07808845802
531.25 0.01536252385 -0.1555040672
531.875 -0.05061151115 -0.1317355985
532.5 -0.08493428769 -0.07583557682
533.125 -0.08636035364 -0.06355905889
533.75 -0.0701944618 -0.0380803496
534.375 -0.0618927626 -0.0288695048
535.0 -0.06200198913 -0.00795308675
535.625 -0.0388948435 -0.04345458358
536.25 -0.03145611592 -0.03021922697
536.875 -0.04044446488 -0.0597885489
537.5 -0.04491683644 -0.08338492073
538.125 -0.07146944263 -0.05682852845
538.75 -0.05805267224 -0.0271685084
539.375 -0.03231535189 -0.0423362291
540.0 -0.04557800098 -0.07862896971
540.625 -0.06354315637 -0.1099970193
541.25 -0.04244988263 -0.0849588205
541.875 -0.04794799857 -0.08153322059
542.5 -0.0526387147 -0.09467413952
543.125 -0.1000733439 -0.06629213375
543.75 -0.09446547677 0.02099534506
544.375 -0.05152518194 0.04035943141
545.0 -0.02000023958 0.05467909716
545.625 -0.0149754773 0.06918661898
546.25 0.01685400972 0.05718083924
546.875 0.02123666387 0.06103059534
547.5 0.0181320646 0.08008607695
548.125 0.005416100922 0.07700154668
548.75 -0.004310301152 0.06781734407
549.375 -0.01064873344 0.05925371889
550.0 -0.02539702441 0.02856890503
550.625 -0.0263956395 0.005994732572
551.25 -0.002966934223 -0.02693766287
551.875 -0.03526419398 -0.04300889129
552.5 -0.06894203218 -0.04551435904
553.125 -0.07611977318 -0.02027954934
553.75 -0.07185038477 -0.02288860125
554.375 -0.08265124914 0.001187402368
555.0 -0.0871771267 0.02457520918
555.625 -0.07884475964 0.03706853964
556.25 -0.07764947219 0.02049432635
556.875 -0.09026645573 0.01954244277
557.5 -0.08474563077 0.03199808188
558.125 -0.07554374779 0.02925899589
558.75 -0.05489747019 0.01040369618
559.375 -0.03155044096 0.0050989929
560.0 -0.02329812552 -0.003245319563
560.625 -0.0421751776 -0.0254540061
561.25 -0.04169958601 -0.0368879275
561.875 -0.06689007317 -0.02113110131
562.5 -0.0679263094 0.02291226568
563.125 -0.0677408981 0.06768877016
563.75 -0.04823734853 0.07237487788
564.375 -0.02214657969 0.07548816583
565.0 -0.01616128105 0.07653834558
565.625 -0.009545743792 0.07563339329
566.25 -0.03096753343 0.03114537997
566.875 -0.04904145465 0.02301488509
567.5 -0.06029431472 0.02149718691
568.125 -0.06320324095 0.01321730304
568.75 -0.05063181254 0.007734159724
569.375 -0.02717102539 -0.01208054738
570.0 -0.02209894038 -0.0306891326
570.625 -0.04409383792 -0.0438415736
571.25 -0.03408881779 -0.03590638362
571.875 -0.0542047474 -0.03101610097
572.5 -0.08714588008 -0.009910934307
573.125 -0.1082834056 0.02537373846
573.75 -0.06012265344 0.06810049764
574.375 -0.03249358201 0.06372888501
575.0 -0.03926994917 0.06298104458
575.625 -0.0499464748 0.07448367885
576.25 -0.034063812 0.05839263532
576.875 -0.01606905472 0.06755484281
577.5 -0.004896781752 0.06639831441
578.125 -0.01219613439 0.06361140892
578.75 -0.01092596078 0.03472183794
579.375 -0.01228601435 0.03537476388
580.0 -0.01612470869 0.03460081198
580.625 -0.03038012991 0.01255687222
581.25 -0.05215201944 0.00763446918
581.875 -0.07131157794 0.02840541362
582.5 -0.07561663099 0.04029252093
583.125 -0.06075655202 0.04810174435
583.75 -0.05595245956 0.04441256411
584.375 -0.06657494395 0.01436184696
585.0 -0.07022853129 0.00178434439
585.625 -0.06169075907 0.02759623438
586.25 -0.05574118002 0.02423545359
586.875 -0.05744017235 0.005529356213
587.5 -0.05586819069 0.01748226617
588.125 -0.02810593847 0.04623394638
588.75 -0.0148000148 0.04858432488
589.375 -0.03266724609 0.01930165635
590.0 -0.04992057078 0.0149000192
590.625 -0.04471322544 0.04975412445
591.25 -0.02234864525 0.08176942067
591.875 -0.04208061669 0.07885849543
592.5 -0.008170800907 0.07088059953
593.125 0.001319924123 0.05476272854
593.75 0.002897429129 0.06365998381
594.375 -0.03387619768 0.04006008286
595.0 -0.0354160238 0.01747726278
595.625 -0.02858871756 0.0002788397573
596.25 -0.03679123303 0.004095074179
596.875 -0.02699462478 -0.02767120872
597.5 -0.02963843936 -0.02515520383
598.125 -0.02303159585 -0.0172685503
598.75 -0.0149471087 -0.0255308553
599.375 -0.01224712296 -0.03814930907
600.0 -0.02285875805 -0.05688834174
600.625 -0.02828718442 -0.07140919108
601.25 -0.04905894761 -0.05351607431
601.875 -0.05243145863 -0.05408223793
602.5 -0.055087762 -0.04338808451
603.125 -0.04620236469 -0.04124407544
603.75 -0.04114034093 -0.01629168099
604.375 -0.01821345976 -0.02200778338
605.0 -0.008951313757 -0.03582390018
605.625 -0.006111876798 -0.05186038523
606.25 -0.009465673919 -0.04061032466
606.875 -0.01618984848 -0.0180644161
607.5 0.01635759127 -0.01292817391
608.125 0.01655215695 -0.01296579839
608.75 0.01067360968 -0.009841354329
609.375 0.03359351821 -0.01576626031
610.0 0.0457176073 -0.009294424403
610.625 0.04984414365 -0.01837359037
611.25 0.05109978238 -0.02619364408
611.875 0.04316094816 -0.02290079199
612.5 0.04500443234 -0.009483553357
613.125 0.03219585629 0.0003713717871
613.75 0.01816708883 0.008271990167
614.375 0.006911416939 0.01313831039
615.0 0.04751258884 0.03414147231
615.625 0.02738284656 0.0142777655
616.25 0.009441650118 0.01737638025
616.875 0.008651620377 0.03121219471
617.5 0.04667647391 0.05245693006
618.125 0.03895575443 0.03892808484
618.75 0.02489370993 0.0350684986
619.375 0.007849554945 0.02894123548
620.0 0.04651105476 0.04695637339
620.625 0.05160579003 0.01659453329
621.25 0.02201702195 -0.005283982854
621.875 -0.01707112565 -0.02662374046
622.5 -0.007002809657 0.01619783038
623.125 -0.01725350963 0.04053614176
623.75 -0.01734013144 0.06247036234
624.375 -0.0410326712 0.03954008887
625.0 -0.03947375194 0.03951439707
625.625 -0.04514517612 0.04746633829
626.25 -0.03160475539 0.0633110935
626.875 -0.01458389102 0.06174326883
627.5 -0.01609439172 0.03977707185
628.125 -0.02180175654 0.04045080744
628.75 -0.02735242346 0.03361934397
629.375 -0.01772338619 0.0140583163
630.0 -0.01053066654 -0.009736011114
630.625 -0.007951812073 -0.01356518008
631.25 0.001070929596 -0.03798794612
631.875 -0.00550533677 -0.04233048282
632.5 -0.01238469931 -0.05501591504
633.125 -0.02918084325 -0.05602512305
633.75 -0.03871565117 -0.04012250664
634.375 -0.03422211485 -0.05220563053
635.0 -0.03806347197 -0.06710213626
635.625 -0.0541000231 -0.03557048204
636.25 -0.0363799897 -0.02327786269
636.875 -0.01916248921 -0.0388647131
637.5 -0.02763197117 -0.05983610395
638.125 -0.03410943842 -0.05074564372
638.75 -0.03577369591 -0.01912899818
639.375 -0.01114155981 -0.01312191797
640.0 0.04206099185 -0.02097145189
640.625 0.06145688264 -0.0221290566
641.25 0.02581502339 -0.04154852906
641.875 0.0341967309 -0.03160595689
642.5 0.05114369218 -0.006692977125
643.125 0.05708202273 0.005539449978
643.75 0.05587770318 -0.006984571744
644.375 0.04752374348 -0.01580353722
645.0 0.04336226845 -0.00403310459
645.625 0.04990901983 0.01596183058
646.25 0.04246066426 0.005370836454
646.875 0.06466304978 0.009744230343
647.5 0.05766746977 0.003387976628
648.125 0.06250662694 0.02114533434
648.75 0.04643045651 0.0319991564
649.375 0.05007186237 0.06324251416
650.0 0.04811494366 0.05943627354
650.625 0.03851601516 0.06437472776
651.25 0.01924857892 0.06945025006
651.875 -0.01687960792 0.06716675634
652.5 -0.02107993039 0.05183014399
653.125 -0.02122451633 0.04111328163
653.75 -0.02139872763 0.02329726733
654.375 -0.01554851456 -0.01258430799
655.0 -0.02804749902 -0.03933380004
655.625 -0.05697516078 -0.05800401728
656.25 -0.06887089589 -0.04560736592
656.875 -0.07244736317 -0.03100575976
657.5 -0.07755758394 -0.04314423907
658.125 -0.09328954256 -0.04680350715
658.75 -0.1137960674 -0.03270901157
659.375 -0.07993231649 0.02618989311
660.0 -0.04803572581 0.04227101991
660.625 -0.05484419979 0.0391623792
661.25 -0.06387230815 0.02646588702
661.875 -0.01473204542 0.02939743812
662.5 -0.02867586662 0.02553806178
663.125 -0.06014892 0.01467356673
663.75 -0.07123141522 -0.02379574885
664.375 -0.04951792067 -0.05003458984
665.0 -0.03186824329 -0.0868068335
665.625 0.002754116469 -0.1175980024
666.25 0.01382644585 -0.07508613267
666.875 0.02874207732 -0.0761864307
667.5 0.03860640717 -0.08379624023
668.125 0.05807012178 -0.06941358734
668.75 0.01552015147 -0.0356425672
669.375 0.0426025466 -0.03038937757
670.0 0.0661323263 -0.03655377264
670.625 0.07307257326 -0.02423996782
671.25 0.05548029589 -0.03899972991
671.875 0.05739239723 -0.04479142639
672.5 0.04777670867 -0.07847427081
673.125 0.02145451264 -0.1005763612
673.75 -0.005571730702 -0.07633938708
674.375 0.01448153516 -0.07565363697
675.0 0.0426169311 -0.05738326142
675.625 0.0582970715 -0.03961723742
676.25 0.04546614162 -0.01653155187
676.875 0.05885055372 0.007664951583
677.5 0.03180348326 0.02898295987
678.125 0.03591506441 0.04377414484
678.75 0.05552453028 0.06825602097
679.375 0.05842900972 0.09295678086
680.0 0.05727356134 0.08344070047
680.625 0.07896052527 0.05372003405
681.25 0.1121491954 0.02326867883
681.875 0.09546216659 0.001341833738
682.5 0.08206204679 -0.03374393823
683.125 0.06927613453 -0.0410325725
683.75 0.07068393977 -0.01308683387
684.375 0.06457982667 0.04640988153
685.0 0.0120157566 0.04970657277
685.625 -0.03345235058 0.04859352554
686.25 -0.06349076174 0.01503215277
686.875 -0.08614768539 -0.0186526638
687.5 -0.08874680291 -0.03800276723
688.125 -0.1144331235 -0.0517149118
688.75 -0.1062161086 -0.06799065327
689.375 -0.09063640576 -0.05298640782
690.0 -0.06520066767 -0.04011781194
690.625 -0.07840611406 -0.04520180869
691.25 -0.08880162238 -0.02862920756
691.875 -0.05942079889 0.02584447907
692.5 -0.02670069152 0.0110384516
693.125 -0.03104728408 0.06722155175
693.75 -0.004069602394 0.1179620732
694.375 0.01777691182 0.09577180573
695.0 -0.004367012604 0.1052710558
695.625 -0.08330474217 0.04791436297
696.25 -0.09233718917 -0.04990224488
696.875 -0.03317693287 -0.1008229664
697.5 0.02744883167 -0.1038624399
698.125 0.04467241593 -0.06622577506
698.75 0.03534839522 -0.03877872315
699.375 0.05318427333 -0.03887110837
700.0 0.07872967439 -0.02378120912
700.625 0.06483845023 0.02522337879
701.25 0.05298138302 0.0353597637
701.875 0.09003977907 0.02120577101
702.5 0.132217185 -0.05330820382
703.125 0.07765239085 -0.06468879689
703.75 -0.0232082512 -0.08532645386
704.375 -0.05259074773 -0.04973464157
705.0 -0.03725671876 -0.08246111484
705.625 0.01104763417 -0.0892988098
706.25 0.04292310237 -0.03906766974
706.875 0.05043503349 0.01996743582
707.5 0.02492585722 0.06497849153
708.125 -0.01493855432 0.09004947418
708.75 -0.07203025922 0.06447109191
709.375 -0.08887978511 0.02125381511
710.0 -0.07917458601 -0.02292706512
710.625 -0.0801126867 -0.03481419969
711.25 -0.05505619804 -0.08379187817
711.875 -0.08534107639 -0.06664889409
712.5 -0.0778216401 -0.007665137067
713.125 -0.03945195652 0.05201423884
713.75 -0.04573774145 0.02753178395
714.375 -0.04377289912 0.05880903666
715.0 -0.02689624907 0.05390187189
715.625 -0.01930283494 0.06221978798
716.25 -0.0515444842 0.07527524249
716.875 -0.112588537 0.03200323081
717.5 -0.09118890481 -0.03453524976
718.125 -0.07352420581 -0.03925173461
718.75 -0.07586598546 -0.0265586692
719.375 -0.02164497462 -0.0862807966
720.0 -0.001181703761 -0.0819956457
720.625 0.04268228772 -0.05114373588
721.25 0.05426932663 -0.007192126565
721.875 -0.01061522669 0.03594314847
722.5 -0.05176497036 0.03287236387
723.125 -0.05119026518 0.05775381603
723.75 0.02315140009 0.07828093689
724.375 0.06280600801 0.07272384984
725.0 0.08567390472 -0.001717235064
725.625 0.06127578901 -0.03659863781
726.25 0.06052730842 -0.03991393473
726.875 0.04723682078 -0.03105140884
727.5 0.04694381102 -0.003156839799
728.125 0.03386818745 0.05688287764
728.75 0.01928583502 0.05529166451
729.375 0.0349533614 0.01986711919
730.0 0.0390407448 0.05949277081
730.625 0.01531639299 0.0471596791
731.25 -0.01222688382 0.0453714317
731.875 -0.0301669803 0.03046119
732.5 -0.05539300563 0.003368036312
733.125 -0.05358218941 -0.02623253646
733.75 -0.03359923441 -0.006442330233
734.375 -0.006174148544 0.01091242508
735.0 -0.0664977758 -0.03700549661
735.625 -0.05617632172 -0.01334666052
736.25 -0.03853042516 -0.01171178397
736.875 -0.02934046379 -0.02578934521
737.5 -0.1001967596 -0.03745754545
738.125 -0.06714563853 -0.02473684067
738.75 -0.04897649727 -0.01379212298
739.375 -0.01530160017 -0.008831257252
740.0 -0.003336000847 -0.02667575416
740.625 -0.03386164386 -0.04106545614
741.25 -0.04112868416 -0.03058226366
741.875 0.003331475497 -0.0310537578
742.5 0.01230828598 0.01954773856
743.125 0.02317043591 0.04710899094
743.75 -2.063145514e-05 0.04453310173
744.375 -0.03337477898 0.01988674799
745.0 -0.04739239479 0.01536107845
745.625 -0.03873532738 0.06280288813
746.25 0.02331237462 0.08625193407
746.875 0.05392950383 0.0484822971
747.5 0.02461844586 0.0163490826
748.125 0.0334450526 -0.002571462404
748.75 0.02335665902 -0.0001836880504
749.375 0.01957783216 -0.02694325567
750.0 -0.00110596049 -0.02596918602
