!Created with skrf (http://scikit-rf.org).
# GHz S RI R 50.0 
!freq ReS11 ImS11
500.0 -0.007613342922 0.02514350733
500.625 0.02471839239 0.02612306096
501.25 0.02236297196 0.03350229059
501.875 0.03670323762 0.004730611337
502.5 0.008091047437 0.03803993376
503.125 0.0282097612 0.04210681492
503.75 0.0443228449 0.004654362543
504.375 0.04318183731 -0.00652649263
505.0 0.05103469189 -0.02060633116
505.625 0.05715603964 -0.04110561176
506.25 0.04538949762 -0.0467737678
506.875 0.05990649993 -0.04248617827
507.5 0.04162828575 -0.05357577088
508.125 0.0855458557 -0.0002394419957
508.75 0.02028783875 -0.07507224081
509.375 0.008887560421 -0.05400807366
510.0 0.0577267358 -0.04347637071
510.625 0.003135617583 -0.07314028685
511.25 -0.04977980401 -0.04330906496
511.875 -0.05074353998 -0.01110831058
512.5 -0.0348968566 0.004724791578
513.125 -0.02461225497 0.02860153754
513.75 0.002328897883 0.04423053727
514.375 -0.008031750816 0.04854351031
515.0 0.01241815149 0.07717877498
515.625 -0.05070305967 0.08911319257
516.25 0.04287305459 0.08574918737
516.875 -0.02058173913 0.1097281661
517.5 0.0556688151 0.09827345412
518.125 -0.0680637618 0.1111219357
518.75 0.02511004387 0.0501502167
519.375 0.002232927238 0.07774138191
520.0 0.04710912145 0.06378198235
520.625 0.05801217532 0.05109382444
521.25 0.05829050324 0.02111051218
521.875 0.0412757317 0.03414739768
522.5 0.06637434474 0.007771618171
523.125 0.1217211417 -0.008053866544
523.75 0.09796086128 -0.1086841023
524.375 0.067089494 -0.05746020687
525.0 0.005975306603 -0.001586445306
525.625 0.005214079763 0.01128765831
526.25 0.009511538841 0.03448573056
526.875 0.02052371385 0.03087115996
527.5 0.02197735654 0.02367041489
528.125 0.04175860792 0.004514842724
528.75 0.05474704381 -0.008720395164
529.375 0.04550968532 -0.03691352283
530.0 0.03039735891 -0.03679891665
530.625 0.007494321659 -0.05022048812
531.25 0.006477425485 -0.1382449293
531.875 -0.05767979653 -0.1359147471
532.5 -0.0924707208 -0.08800878105
533.125 -0.07879270055 -0.05098224781
533.75 -0.07213576592 -0.05877683476
534.375 -0.07117278142 -0.04219513258
535.0 -0.06165610988 -0.01731441865
535.625 -0.03342361581 -0.03903035913
536.25 -0.03028934254 -0.030425641
536.875 -0.03851036164 -0.05093794539
537.5 -0.05596728456 -0.09683792905
538.125 -0.06340360014 -0.0346212621
538.75 -0.05747840155 -0.02551726195
539.375 -0.03776943832 -0.03969649051
540.0 -0.04801159252 -0.08456806819
540.625 -0.05127036878 -0.0735067695
541.25 -0.04010037897 -0.0754550848
541.875 -0.04368137968 -0.07174506449
542.5 -0.06316782299 -0.1019750595
543.125 -0.08817470302 -0.04850344604
543.75 -0.09138777218 0.02122706973
544.375 -0.06549371658 0.04079677993
545.0 -0.02674167144 0.05522262173
545.625 -0.01458787214 0.0643019978
546.25 0.01452478273 0.05735587666
546.875 0.02098958872 0.05818919074
547.5 0.01592503718 0.08171988279
548.125 0.01515477561 0.05592196807
548.75 -0.004573778582 0.06359165985
549.375 -0.01718307343 0.07475481219
550.0 -0.03370390446 0.02853655424
550.625 -0.02094462464 0.002063468689
551.25 -0.009839721926 -0.02955221294
551.875 -0.05230775415 -0.04045312045
552.5 -0.07297845602 -0.04659896211
553.125 -0.06493205705 -0.02192893516
553.75 -0.07464004897 -0.02455870218
554.375 -0.09612433422 0.00677066633
555.0 -0.08903906675 0.02251252392
555.625 -0.0772820227 0.03500965881
556.25 -0.06761738993 0.01460598169
556.875 -0.08195428805 0.01561150417
557.5 -0.07942098198 0.03361823452
558.125 -0.08621438837 0.0334331365
558.75 -0.05845112578 0.01100816614
559.375 -0.04420434165 0.001840962075
560.0 -0.0257901718 -0.003174863067
560.625 -0.03826991282 -0.02822165633
561.25 -0.05501958915 -0.03565268382
561.875 -0.07276162903 -0.02085021146
562.5 -0.07187552167 0.02202331527
563.125 -0.06822776399 0.05988683811
563.75 -0.0544083441 0.08546265808
564.375 -0.02329949232 0.08792325858
565.0 -0.01706703921 0.07955054829
565.625 -0.01263973724 0.07013620388
566.25 -0.03893130027 0.04455476597
566.875 -0.04791200698 0.02007470479
567.5 -0.05325294989 0.01701901142
568.125 -0.07025278432 0.02005634344
568.75 -0.0344040466 0.002995937606
569.375 -0.02481144829 -0.01324287694
570.0 -0.01888219493 -0.02910609977
570.625 -0.04803691962 -0.04211660894
571.25 -0.03432157688 -0.03680041922
571.875 -0.04842180268 -0.03565143422
572.5 -0.0792823619 -0.01442029895
573.125 -0.1121060923 0.03709822845
573.75 -0.05715032656 0.05422636893
574.375 -0.03432672836 0.05590883903
575.0 -0.04237281896 0.06613744197
575.625 -0.05070484566 0.07399890167
576.25 -0.0328044102 0.06874735057
576.875 -0.009975048027 0.07988013814
577.5 -0.003163695362 0.07090425254
578.125 -0.0141970205 0.0582333927
578.75 -0.01275907597 0.03248226224
579.375 -0.01380694395 0.03209696744
580.0 -0.01479625132 0.02592366139
580.625 -0.0252152537 0.02337704472
581.25 -0.05510946224 -0.005569625879
581.875 -0.07151318559 0.02695685527
582.5 -0.07319962992 0.03973027002
583.125 -0.05996941773 0.05168512708
583.75 -0.05742335423 0.03203886561
584.375 -0.06784625446 0.02278058724
585.0 -0.07574938319 0.009755733038
585.625 -0.0597329839 0.03261308579
586.25 -0.05138146237 0.001881052242
586.875 -0.05724100468 0.002988780399
587.5 -0.05374816486 0.01562793745
588.125 -0.02723877204 0.04874600677
588.75 -0.024058448 0.0361909196
589.375 -0.0327584512 0.02212329778
590.0 -0.04123578664 0.02384747673
590.625 -0.04474195203 0.05058238209
591.25 -0.03496710094 0.08136592922
591.875 -0.02622439687 0.08758349014
592.5 -0.006444219366 0.07234075106
593.125 0.0008086003394 0.0611270965
593.75 -0.00867209526 0.05785527543
594.375 -0.02582465213 0.05007434375
595.0 -0.02947913506 0.03248597038
595.625 -0.02951849137 0.004357874447
596.25 -0.03803553048 -0.00759928705
596.875 -0.03295264416 -0.02614191909
597.5 -0.03276057214 -0.02655409555
598.125 -0.02339114977 -0.01435087348
598.75 -0.007769252538 -0.04246208114
599.375 -0.01167613837 -0.04142902529
600.0 -0.01622292156 -0.05551779048
600.625 -0.03524237429 -0.05532694009
601.25 -0.04185147944 -0.06830827923
601.875 -0.05431157225 -0.04371505324
602.5 -0.05889211039 -0.03434940446
603.125 -0.04906722674 -0.03659795159
603.75 -0.04006557963 -0.01723059631
604.375 -0.006798883886 -0.03416347101
605.0 0.0005922253353 -0.04621542836
605.625 -0.003135670904 -0.04883160292
606.25 -0.02451014886 -0.03149726138
606.875 0.008762253457 -0.02239292713
607.5 0.004796357942 -0.006751963719
608.125 0.02650296795 -0.01425515113
608.75 0.01305295092 -0.0144988699
609.375 0.04993158146 -0.02410907421
610.0 0.06046282747 -0.01387869638
610.625 0.05318559127 -0.01646856712
611.25 0.03134619327 -0.01849835663
611.875 0.07145257529 -0.01314257818
612.5 0.04126339945 -0.01015736453
613.125 0.01960918934 -0.009322346664
613.75 0.01837908305 0.007921721679
614.375 0.01330493641 0.01470921063
615.0 0.03265229742 0.01848408887
615.625 0.02506518858 0.01125307229
616.25 0.01238923773 0.01793373721
616.875 0.004988376756 0.02596875674
617.5 0.02904305193 0.0376473091
618.125 0.02612988319 0.02598651096
618.75 0.01823001828 0.02701790437
619.375 0.01313150542 0.0337139988
620.0 0.03168064062 0.03532301034
620.625 0.02991423333 0.004642274268
621.25 0.01754353324 -0.00854713504
621.875 -0.005458714708 -0.02159039587
622.5 -0.02628199046 0.009678212012
623.125 -0.01271805252 0.0401187091
623.75 -0.0245804031 0.05311363449
624.375 -0.0366911248 0.04189405331
625.0 -0.03131658959 0.05570274871
625.625 -0.03375990803 0.0633261005
626.25 -0.03800983481 0.07377279897
626.875 -0.02809924846 0.0476513698
627.5 -0.009875719269 0.0675727697
628.125 -0.02356038669 0.03494737956
628.75 -0.03161009061 0.01883157886
629.375 -0.01671768588 0.005788592166
630.0 -0.009298937777 0.003544674336
630.625 -0.007530458277 -0.008141461682
631.25 1.336298734e-05 -0.03282481917
631.875 0.004138883257 -0.05918593365
632.5 -0.03490765232 -0.03610910367
633.125 -0.02147907457 -0.05672086856
633.75 -0.02473502731 -0.05239625869
634.375 -0.02991970332 -0.05144886576
635.0 -0.03812744586 -0.06235289577
635.625 -0.06714738533 -0.02082962935
636.25 -0.04381194869 -0.01285868009
636.875 -0.02742168652 -0.03831878919
637.5 -0.02450752016 -0.06400445299
638.125 -0.04718011668 -0.03941563875
638.75 -0.03474218304 -0.01560839905
639.375 0.00953723462 -0.02028130402
640.0 0.04543186367 -0.01725123565
640.625 0.05038923193 -0.02676459976
641.25 0.04221502244 -0.03327200736
641.875 0.05233600754 -0.02554299338
642.5 0.0711268028 0.003907276063
643.125 0.04857220746 -0.0158822576
643.75 0.05538156413 -0.006514102174
644.375 0.0570381687 -0.01778331616
645.0 0.05134314259 0.005277433531
645.625 0.04133915011 0.008157750877
646.25 0.05299317431 0.01795577222
646.875 0.06502737674 0.0228761305
647.5 0.0591014748 0.009905136936
648.125 0.05425812577 0.02081891604
648.75 0.04527972026 0.03501400738
649.375 0.04990110464 0.05990983199
650.0 0.04514538633 0.06564764198
650.625 0.04050626429 0.07503214443
651.25 0.03030577569 0.05497575676
651.875 -0.004335458545 0.06145069623
652.5 -0.01674898882 0.0555843159
653.125 -0.03476582422 0.04331935698
653.75 -0.01782609283 0.01827516437
654.375 -0.02527945747 -0.02753462112
655.0 -0.02458854355 -0.04440126803
655.625 -0.05239550687 -0.05895481622
656.25 -0.0581461018 -0.0360371403
656.875 -0.06711765616 -0.02626001678
657.5 -0.07423258185 -0.03473545331
658.125 -0.09634961788 -0.04849265434
658.75 -0.1037961783 -0.01407986986
659.375 -0.07945852653 0.02428230776
660.0 -0.06577995281 0.03724696055
660.625 -0.05558374543 0.0331344177
661.25 -0.05165205049 0.02631694293
661.875 -0.03142598508 0.03182899227
662.5 -0.03848314302 0.03627110211
663.125 -0.07580494266 0.02539159913
663.75 -0.05488780013 -0.01783534152
664.375 -0.04712366164 -0.05163208929
665.0 -0.02861186055 -0.08223008099
665.625 0.005876842191 -0.1115770562
666.25 0.02772196731 -0.08614234011
666.875 0.03744861712 -0.08732415021
667.5 0.04739859289 -0.08628673352
668.125 0.05577458782 -0.06554003294
668.75 0.02767415044 -0.04444194496
669.375 0.03397907929 -0.0241514975
670.0 0.06496448111 -0.03292888209
670.625 0.07685972776 -0.02786019031
671.25 0.0372442757 -0.02508498625
671.875 0.05392798036 -0.03632564528
672.5 0.04253435374 -0.08850316028
673.125 0.02182807478 -0.1086946891
673.75 -0.003901813752 -0.09341141778
674.375 0.02117874677 -0.08133807659
675.0 0.04938556845 -0.05722798227
675.625 0.06126200311 -0.04002314367
676.25 0.06405791988 -0.01721907292
676.875 0.05616220424 0.01123270168
677.5 0.03743611022 0.03499495062
678.125 0.04157445472 0.04279011402
678.75 0.03179777743 0.06175749515
679.375 0.05498853473 0.09282264629
680.0 0.05416830625 0.07866116978
680.625 0.08078088264 0.05516781406
681.25 0.105757623 0.0273430492
681.875 0.118998009 0.002788968195
682.5 0.08171426206 -0.03058502665
683.125 0.06153498672 -0.03700912272
683.75 0.07718823018 -0.01669931475
684.375 0.03868799643 0.03350975664
685.0 0.01468139698 0.05911753145
685.625 -0.02734093818 0.04079596008
686.25 -0.06767885338 0.01819615182
686.875 -0.07003725058 -0.02932879694
687.5 -0.08570547292 -0.03861731633
688.125 -0.1043221114 -0.05146138767
688.75 -0.1092573177 -0.07017057172
689.375 -0.07693623596 -0.05029903068
690.0 -0.08245168753 -0.04462647994
690.625 -0.09834223602 -0.04658037827
691.25 -0.0892322844 -0.03266943669
691.875 -0.05690110632 0.02289540488
692.5 -0.03430713783 0.02751319146
693.125 -0.04208207822 0.05922014201
693.75 -0.008252191065 0.1063182076
694.375 0.03002606114 0.1017148445
695.0 -0.01504557569 0.0900626376
695.625 -0.08490665526 0.0710613188
696.25 -0.1110592541 -0.04504867225
696.875 -0.03988726443 -0.1065415813
697.5 0.02244765812 -0.11217033
698.125 0.04391974271 -0.05203249483
698.75 0.03852239472 -0.0468296296
699.375 0.05435596878 -0.0426281086
700.0 0.06758737304 -0.002589626533
700.625 0.0648541172 0.02947443644
701.25 0.06178670793 0.02595966096
701.875 0.0932831795 0.0200656803
702.5 0.128610341 -0.03158660334
703.125 0.08296584418 -0.08367590702
703.75 -0.017347703 -0.08180670367
704.375 -0.05346793237 -0.05632543317
705.0 -0.06331135761 -0.07738782716
705.625 0.02634876836 -0.06666572426
706.25 0.04636735907 -0.03679789643
706.875 0.04665572844 0.01515586784
707.5 0.0302858258 0.06968700441
708.125 -0.02928256124 0.08509257642
708.75 -0.06290846878 0.07754592976
709.375 -0.08774920457 0.03775405381
710.0 -0.0831260509 -0.01973036569
710.625 -0.07990705492 -0.03425107471
711.25 -0.07618833065 -0.07480501153
711.875 -0.07441936621 -0.06410983409
712.5 -0.0808210466 -0.007399222558
713.125 -0.0404812862 0.03089786929
713.75 -0.02516268161 0.04802221313
714.375 -0.04556036303 0.05843075187
715.0 -0.02096827707 0.05706742867
715.625 -0.008836831392 0.05893135816
716.25 -0.09148455269 0.06017125002
716.875 -0.1184515206 0.02265636537
717.5 -0.09064298693 -0.01897314458
718.125 -0.076558494 -0.03544123789
718.75 -0.07247140139 -0.04446509482
719.375 -0.03658553479 -0.08048010542
720.0 0.02076020246 -0.08080794951
720.625 0.04581071444 -0.04591886774
721.25 0.05072931861 0.007575938333
721.875 -0.01000567463 0.03582178684
722.5 -0.04076519239 0.02588678486
723.125 -0.03305002858 0.05932950006
723.75 0.004535274492 0.09413439859
724.375 0.06562433076 0.05020024638
725.0 0.08292899372 -0.01042697056
725.625 0.06879611476 -0.04205946156
726.25 0.0382548447 -0.05692365796
726.875 0.05880326505 -0.006673391709
727.5 0.04850913024 0.01420557495
728.125 0.02191946642 0.04175681914
728.75 0.0183593017 0.05915109739
729.375 0.03456597919 0.04094346591
730.0 0.03598576908 0.03384054364
730.625 0.01508701489 0.06606199146
731.25 -0.01224773359 0.05002023887
731.875 -0.02304382153 0.02657162495
732.5 -0.08305330121 -0.01566397147
733.125 -0.05681441229 -0.02607422791
733.75 -0.03815561181 -0.01045054131
734.375 -0.02364692002 -0.0002558716782
735.0 -0.03571161852 -0.01245635903
735.625 -0.02724839249 0.0007044748494
736.25 -0.02758309545 -0.009072220421
736.875 -0.04111201912 -0.02659481016
737.5 -0.07645850679 -0.02190440448
738.125 -0.08468347452 -0.03478519901
738.75 -0.05298918931 -0.01322825073
739.375 -0.0004577075106 0.001926806386
740.0 -0.02277735527 -0.07490559978
740.625 -0.02721753734 -0.04004261259
741.25 -0.02190925869 -0.02754197976
741.875 0.0008065643333 -0.0325285881
742.5 0.01791343999 0.01262319426
743.125 0.004590568731 0.03175365712
743.75 -0.02445839854 0.02941948266
744.375 -0.03621028442 0.009091936894
745.0 -0.03506283782 0.04777175957
745.625 -0.02999741276 0.0666021024
746.25 -0.006568204791 0.07252691979
746.875 0.04379731458 0.04387722436
747.5 0.03086618437 0.008352083218
748.125 0.03946902494 -0.009247907568
748.75 0.03127939949 -0.005391914258
749.375 0.03042114291 -0.0140076843
750.0 0.006874120926 -0.02752319673
