!Created with skrf (http://scikit-rf.org).
# GHz S RI R 50.0 
!freq ReS11 ImS11
500.0 -0.007145619292 0.003015508273
500.625 0.01006940909 0.007359537702
501.25 -0.003027272661 -0.01913653925
501.875 -0.02928783014 -0.02082166154
502.5 -0.007706174736 7.461587656e-05
503.125 -0.02214292573 -0.00141360125
503.75 -0.01166892458 -0.000554698813
504.375 -0.003873180644 -0.007784944457
505.0 0.01217036788 -0.02759517437
505.625 -0.009296590716 -0.01118132173
506.25 -0.01735956545 -0.04124312391
506.875 -0.02577205756 -0.06280529996
507.5 -0.01609009335 -0.05638466154
508.125 -0.02390425158 -0.04546895877
508.75 -0.05586890081 -0.02619527521
509.375 -0.04957586111 -0.03524062147
510.0 -0.02218991619 -0.04134295552
510.625 -0.01895582968 0.01405720048
511.25 -0.04111452098 0.01752952965
511.875 -0.03385801114 0.04016775435
512.5 -0.009322417909 0.05149499436
513.125 0.05498686042 0.0004694323461
513.75 0.05894075269 0.003011842521
514.375 0.04628050211 0.006416142348
515.0 0.0404972084 -0.01953272657
515.625 0.06796563158 0.02793320594
516.25 0.08016041629 0.01784271012
516.875 0.05351874567 0.07837267618
517.5 0.1211651772 0.01351159196
518.125 0.1216102949 0.1488879224
518.75 0.089395757 -0.02653704382
519.375 0.07869593997 0.005600554011
520.0 0.04453983961 -0.04203511755
520.625 0.08908587623 -0.05150962634
521.25 0.06506448046 -0.06711090476
521.875 0.05424412366 -0.0237793305
522.5 0.04880719501 -0.07818079843
523.125 0.1071869389 -0.1659614606
523.75 0.04431772069 -0.2244773073
524.375 0.06035701635 -0.2348692663
525.0 0.01283737478 -0.1048382606
525.625 0.003308911371 -0.06686355574
526.25 0.02258157801 -0.05214291053
526.875 0.02780523541 -0.06721376365
527.5 -0.01596547721 -0.05755929486
528.125 -0.02186575204 -0.04172978425
528.75 -0.03113965995 -0.05689827203
529.375 -0.1099406449 -0.03758929174
530.0 -0.06365641941 0.04267427496
530.625 -0.003754263791 0.03539774277
531.25 -0.04662412397 0.01947537776
531.875 -0.1333354247 0.06793246345
532.5 -0.06260989666 0.07978404032
533.125 -0.05524953227 0.07258440832
533.75 -0.02593494772 0.07420307058
534.375 -0.05612934386 0.1141907777
535.0 -0.02937266793 0.09655030205
535.625 -0.03448852642 0.0640124633
536.25 0.01836705089 0.05893996114
536.875 -0.02412629749 0.08008709737
537.5 -0.0509565927 0.03024100308
538.125 -0.04738034305 0.04890172405
538.75 -0.03185988456 0.09589010042
539.375 -0.06795635689 0.1006124271
540.0 -0.02070539246 0.05406616272
540.625 -0.03839245407 0.0477680818
541.25 -0.07018196642 0.07864709484
541.875 -0.08125209263 0.05399981382
542.5 -0.05643581952 0.0124809326
543.125 -0.05934598222 0.04286122319
543.75 -0.017052699 0.1230131642
544.375 0.01649145856 0.1385058821
545.0 0.07783720847 0.04385834814
545.625 0.0985445699 -0.005375365318
546.25 0.1133730749 -0.02922433885
546.875 0.09616297376 -0.02989318611
547.5 0.08831824064 -0.02578679497
548.125 0.1190008855 -0.0150605729
548.75 0.1357598806 0.02804026972
549.375 0.136004775 0.04096917308
550.0 0.1071968217 0.06323368233
550.625 0.1018000646 0.07663340491
551.25 0.0364471994 0.08636330056
551.875 0.03579260641 0.04745038407
552.5 0.0299471766 0.02236756791
553.125 0.03006956685 0.05188467647
553.75 0.006401076124 0.04219264163
554.375 0.01328198833 0.04882492448
555.0 0.02185633358 0.05285747324
555.625 0.0507208526 0.07402102623
556.25 0.01368048892 0.07293604678
556.875 0.01367171808 0.06947713776
557.5 0.03095294593 0.102105213
558.125 0.007715897663 0.1004509603
558.75 -0.01798606596 0.1050553343
559.375 0.02079946153 0.1057067907
560.0 0.02205966595 0.08011643933
560.625 0.02695068534 0.06298623847
561.25 0.02700138058 0.04182657434
561.875 0.03016048057 0.05267043121
562.5 0.04306086158 0.06175373942
563.125 0.03504324655 0.05028264537
563.75 0.05314931002 0.03647868286
564.375 0.1114687069 0.0210648669
565.0 0.08459655815 0.05553089536
565.625 0.09455968286 0.03164472609
566.25 0.08451938288 0.02968395708
566.875 0.08109169599 0.05579367471
567.5 0.04850084921 0.0961989597
568.125 0.02074535319 0.08191075461
568.75 0.0206396578 0.09267624708
569.375 0.02665953209 0.09658682311
570.0 0.02262518797 0.08594125071
570.625 0.01886356913 0.05129898692
571.25 0.03153262679 0.0662578181
571.875 0.02090211913 0.05473972486
572.5 0.0191015862 0.03590153266
573.125 0.01370694674 0.0510929033
573.75 0.05687861605 0.06848792224
574.375 0.08555753351 0.04636000329
575.0 0.0680963377 0.01630030816
575.625 0.06357186678 0.0108434656
576.25 0.08872681048 0.02966535107
576.875 0.09575964728 0.02957678123
577.5 0.0774723638 0.0184097496
578.125 0.09343850706 0.004433230336
578.75 0.10763782 0.02129865656
579.375 0.087981494 0.01987261017
580.0 0.08937247872 -0.003985418705
580.625 0.08091544664 -0.01084185906
581.25 0.0610703366 -0.002571760769
581.875 0.03081004006 0.01396417383
582.5 0.04554905166 0.01882081143
583.125 0.0430605086 0.06050913561
583.75 0.05332656348 0.05232406676
584.375 0.03548186203 0.04526666354
585.0 0.03718667286 0.05537190507
585.625 0.01552920542 0.08224345606
586.25 0.02367259459 0.06901207327
586.875 0.03725498075 0.04893747354
587.5 0.06238790901 0.04720259992
588.125 0.05664860655 0.06261601581
588.75 0.07210716302 0.03966106662
589.375 0.07067274422 -0.01031115206
590.0 0.06348542276 -0.04682415013
590.625 0.03896411104 0.009163245608
591.25 0.0357599466 0.02299130975
591.875 0.05330133954 0.01185256468
592.5 0.08563641295 -0.001279230427
593.125 0.09054633327 0.02312828411
593.75 0.07080331848 0.01980632644
594.375 0.07217428477 0.03755661126
595.0 0.08455165591 0.04317871634
595.625 0.03656278226 0.07079458731
596.25 0.01843382079 0.06056213288
596.875 0.01704293375 0.06628310908
597.5 0.001685322213 0.07643293397
598.125 -0.01544201141 0.06591962633
598.75 0.01847687245 0.05995470554
599.375 0.02438716372 0.04396514622
600.0 0.02761181375 0.0240819705
600.625 -0.02852520881 0.01242064413
601.25 -0.03562418525 0.02758718456
601.875 -0.04883003213 0.03646381192
602.5 -0.03531708943 0.0437563526
603.125 -0.05167047467 0.04735462816
603.75 -0.04125526223 0.05906053945
604.375 -0.055664479 0.0501075581
605.0 -0.03420718849 0.0289374368
605.625 -0.0294548299 0.01910742304
606.25 -0.09017977454 -0.0007407675696
606.875 -0.08972497025 0.002166328368
607.5 -0.05253103579 0.02294848274
608.125 -0.01756474872 0.03853561125
608.75 -0.02938961152 0.0243264684
609.375 -0.03892296919 0.009005787636
610.0 -0.02121436792 0.002093539346
610.625 -0.0001188046765 0.001887343677
611.25 -0.02106817604 -0.04964462923
611.875 -0.01181073526 -0.06020715128
612.5 -0.0088361176 -0.06045647946
613.125 -0.0184167343 -0.03540020133
613.75 -0.01197086484 -0.05871033092
614.375 -0.004230425236 -0.02705338824
615.0 -0.001517439037 -0.02624282299
615.625 -0.003866034835 -0.03831738889
616.25 -0.007936892803 -0.02088669331
616.875 -0.001157588099 -0.01936115207
617.5 0.01588027072 -0.01709957069
618.125 0.02248737487 -0.01057380079
618.75 0.02717013105 -0.02058339199
619.375 0.0338179721 -0.01475843324
620.0 0.05417312147 -0.03046410216
620.625 0.05371968232 -0.020020633
621.25 0.06194208615 -0.07942750597
621.875 0.03369018668 -0.06524604636
622.5 -0.01738201755 -0.04885602652
623.125 -0.02371332818 -0.02373508475
623.75 -0.001894855697 -0.0005493505843
624.375 0.01539467946 0.002353729729
625.0 0.02127891322 0.001508202589
625.625 0.015256392 0.02490994327
626.25 0.02773324475 0.05632039944
626.875 0.06515220083 0.02102033173
627.5 0.06898165433 0.03714679903
628.125 0.05240516775 0.04423408547
628.75 0.02997703861 0.07196296021
629.375 0.07966130605 0.04916042722
630.0 0.04746777018 0.06061302209
630.625 0.03016743014 0.05634374617
631.25 0.01152302771 0.04455941763
631.875 0.0325155609 0.04584172577
632.5 0.01356751587 0.03285761817
633.125 -0.009409433675 0.03142191375
633.75 -0.03634302116 0.03783628763
634.375 -0.01501615558 0.04613587016
635.0 -0.03629394534 0.03884164431
635.625 -0.02511386377 0.05291181733
636.25 -0.03000022179 0.07229705269
636.875 -0.04877509329 0.05280865674
637.5 -0.009943264177 0.04669213636
638.125 -0.03932458556 0.05979557839
638.75 -0.05644919839 0.07440117034
639.375 -0.07154715503 0.03393253023
640.0 -0.04130964794 0.03789364061
640.625 -0.05336625351 0.003324932498
641.25 -0.06075280719 -0.03887621593
641.875 -0.04812266488 -0.05182344629
642.5 -0.04135471214 -0.02110091137
643.125 -0.043021509 -0.03722963182
643.75 -0.03335259331 -0.06567710417
644.375 -0.0295581577 -0.08437127922
645.0 -0.0655282895 -0.03158836866
645.625 -0.06643549409 -0.05076542912
646.25 -0.05015491329 -0.0456264946
646.875 -0.01898155359 -0.05809174274
647.5 -0.03860983784 -0.05220475781
648.125 -0.04211365986 -0.06511943841
648.75 -0.00731798413 -0.05661775558
649.375 0.01570064604 -0.03987898656
650.0 0.04459672109 -0.05396509245
650.625 0.06039416017 -0.05027175784
651.25 0.06796806848 -0.0260655177
651.875 0.08489979765 -0.005086100587
652.5 0.1246299874 0.04239467048
653.125 0.09158476061 0.03917792772
653.75 0.08218231721 0.05941282476
654.375 0.08591260122 0.06850064314
655.0 0.06244900267 0.0507703462
655.625 0.01694488383 0.05726218996
656.25 0.01522237416 0.04074653547
656.875 0.04043565827 0.05409310075
657.5 0.02262771282 0.09189597719
658.125 -5.471460643e-05 0.04248309528
658.75 -0.007540170783 0.06135288909
659.375 0.03978776939 0.08958746018
660.0 0.07978794431 0.1125910086
660.625 0.07487631609 0.05678847438
661.25 0.09046955609 0.0416704423
661.875 0.1250815569 0.02412098001
662.5 0.1269034266 0.01173122809
663.125 0.07965389921 0.0006761963984
663.75 0.06858938621 0.02784568328
664.375 0.01623294394 0.07513150952
665.0 -0.03618527025 0.0671641514
665.625 -0.04247989875 0.04111762901
666.25 -0.07823778185 0.03955203258
666.875 -0.1248626733 -0.0246006717
667.5 -0.09489286262 -0.04111272037
668.125 -0.09986367406 -0.02060552964
668.75 -0.1350303008 0.004725194439
669.375 -0.1162782054 -0.02028623818
670.0 -0.07946123158 -0.03155392216
670.625 -0.0768501357 -0.02364874342
671.25 -0.09336473394 -0.002223458131
671.875 -0.0998387315 0.001222563697
672.5 -0.08179670822 0.02547527392
673.125 -0.06976482585 0.02718716034
673.75 -0.1115092339 0.03820988765
674.375 -0.1151596296 0.02045214029
675.0 -0.1003315859 -0.0116162956
675.625 -0.1022353923 -0.05712991814
676.25 -0.07396530314 -0.08724213607
676.875 -0.05984743985 -0.09394246423
677.5 -0.08298457115 -0.08332510081
678.125 -0.06865969892 -0.09912984877
678.75 -0.01583728267 -0.05424416252
679.375 0.004550516361 -0.04773811777
680.0 -0.009086155065 -0.07573344884
680.625 0.01163880416 -0.07570800188
681.25 0.01037981786 -0.09361188081
681.875 -0.01907903558 -0.08224586395
682.5 -0.08168184247 -0.09124328975
683.125 -0.1294726981 -0.1069558662
683.75 -0.07491612864 -0.1137116329
684.375 -0.006724809256 -0.10043206
685.0 0.06038378048 -0.1074414467
685.625 0.1320529908 -0.061201838
686.25 0.08822950717 -0.001154727817
686.875 0.07412545962 0.01857852959
687.5 0.05510596639 0.05416686946
688.125 0.02780091737 0.07662079978
688.75 -0.01370962123 0.06289029312
689.375 -0.007583947916 0.09836397206
690.0 -0.02630659718 0.1187076294
690.625 -0.02169643515 0.1197184708
691.25 0.01526711773 0.1085995015
691.875 0.1340197564 0.1018264321
692.5 0.1834045061 0.01637149902
693.125 0.07504387673 -0.07817080405
693.75 0.004616740965 -0.09901923431
694.375 0.02836051708 -0.09806272454
695.0 0.09042842064 -0.06709794559
695.625 0.08737577152 0.01479290973
696.25 0.04683844771 0.08006418406
696.875 -0.06137972823 0.0885134845
697.5 -0.1234050454 0.01364695482
698.125 -0.1239611929 -0.0243990614
698.75 -0.1356752578 -0.005136134094
699.375 -0.09335827935 -0.02753118856
700.0 -0.08329232551 -0.03650129063
700.625 -0.07868525881 -0.05403059255
701.25 -0.1014886679 -0.07937582014
701.875 -0.02686304502 -0.05709867536
702.5 -0.04182509122 -0.0490970366
703.125 -0.09751190314 -0.01223041012
703.75 -0.1425833266 0.09157242196
704.375 -0.08660140129 0.1336875049
705.0 -0.04493824229 0.0909544182
705.625 -0.07839007262 0.07752304648
706.25 -0.1439908089 0.009671413979
706.875 -0.1063542698 -0.1104157555
707.5 -0.006926122712 -0.07590832439
708.125 0.01970950536 -0.07309629394
708.75 0.07325050947 -0.02982179817
709.375 0.09157870827 0.02472323271
710.0 0.02719728373 0.074864447
710.625 0.01555156258 0.07587005789
711.25 -0.02432383963 0.07534198761
711.875 -0.0145385332 0.09428905306
712.5 -0.022769003 0.1299602345
713.125 0.0972849911 0.1067830277
713.75 0.1209339355 -0.03279713543
714.375 0.06343613841 -0.1010123616
715.0 0.02408802857 -0.1200780446
715.625 0.06537917703 -0.0938456588
716.25 0.06839180653 -0.01098346079
716.875 0.05787503506 0.007957780147
717.5 0.07407007272 0.03617013308
718.125 0.002489927142 0.1096584172
718.75 -0.01681742324 0.08533532934
719.375 -0.01818342711 0.06910328083
720.0 -0.06715262874 0.05525120709
720.625 -0.1072635725 -0.030081051
721.25 -0.005434733613 -0.1157936444
721.875 0.06821053347 -0.08645502372
722.5 0.04894750053 -0.09765755435
723.125 0.0769219444 -0.04529195225
723.75 0.02409449708 -0.06410416272
724.375 -0.03008503288 -0.05788589196
725.0 -0.05221553282 -0.031087622
725.625 -0.05015484776 -0.01165509798
726.25 -0.07205840497 -0.05080460624
726.875 -0.07434835541 -0.09382250157
727.5 -0.05468819353 -0.08371748754
728.125 -0.04620124879 -0.05894412374
728.75 0.008236947944 -0.09529053784
729.375 -0.01213190694 -0.0944306821
730.0 -0.02067867012 -0.06193902058
730.625 -0.00524229999 -0.06012414859
731.25 0.00660163001 -0.04132309002
731.875 0.04788841498 -0.004166401021
732.5 0.03554870598 0.06040811458
733.125 0.001468297236 0.06795767173
733.75 0.01901793069 0.05691263662
734.375 0.04031965374 0.08454073038
735.0 0.04787257192 0.04463403243
735.625 0.04844734157 -0.002247976529
736.25 0.05219536833 -0.005767842817
736.875 0.03311981394 -0.007712073279
737.5 -0.005206217024 -0.0002664241648
738.125 -0.02046023375 0.04596718418
738.75 -0.03186962755 0.05401909653
739.375 -0.0194903774 0.07716746132
740.0 0.01378895765 0.08417050052
740.625 0.003543558204 0.06790509122
741.25 -0.02981433977 0.02086657446
741.875 -0.06203801059 0.05134147009
742.5 -0.04600966267 -0.02124892082
743.125 0.0009301882585 -0.06502635989
743.75 0.03362624027 -0.0008990973683
744.375 0.05840629191 -0.06442607893
745.0 0.03263993973 -0.06145395559
745.625 0.01427178837 -0.03804279262
746.25 0.04440565904 0.01650566155
746.875 0.03690576012 -0.03845764187
747.5 0.01302167071 -0.05657108831
748.125 -0.01914513269 -0.05204843825
748.75 -0.03808030496 -0.03170909987
749.375 -0.05784050639 -0.02366219046
750.0 -0.006643996351 0.1002705046
