!Created with skrf (http://scikit-rf.org).
# GHz S RI R 50.0 
!freq ReS11 ImS11
500.0 -0.009758373163 0.0002351426721
500.625 0.01245652367 0.003753824106
501.25 -0.03438425776 -0.01817095872
501.875 -0.0646318509 -0.01766080186
502.5 -0.02966149944 -0.005134834788
503.125 -0.02221843559 0.00785559468
503.75 -0.009000696813 0.009316881252
504.375 -0.01147564898 -0.0008147949159
505.0 0.003013860224 -0.007450530738
505.625 0.0005289688206 -0.01529010447
506.25 -0.01871080885 -0.02132668933
506.875 -0.02963792452 -0.05557265616
507.5 -0.03368415387 -0.05654930616
508.125 -0.04847118027 -0.01343211794
508.75 -0.05863068247 0.007119221448
509.375 -0.06764410125 0.003481895391
510.0 -0.04163506751 -0.03463967679
510.625 -0.0009581471633 0.01897276213
511.25 -0.0338705944 0.02050406673
511.875 -0.03114725103 0.04789823775
512.5 0.003186883912 0.04151690086
513.125 0.05445373475 -0.002326187284
513.75 0.06036952941 -0.03222569419
514.375 0.0437913893 -0.02152577529
515.0 0.03986830737 -0.02942485354
515.625 0.05723923225 -0.01201172256
516.25 0.04064334117 -0.02340915495
516.875 0.06264843438 0.0614313496
517.5 0.1156593329 -0.01248265755
518.125 0.1528637876 0.08696818649
518.75 0.09702629731 -0.03704877055
519.375 0.06395962146 -0.01700988734
520.0 0.04546599021 -0.04870874854
520.625 0.06400977411 -0.07257874
521.25 0.04455119231 -0.07488048061
521.875 0.04725468555 -0.03420096264
522.5 0.02914051492 -0.08589195242
523.125 0.05191921929 -0.184774432
523.75 -0.0140880955 -0.2325463929
524.375 0.002745818866 -0.2537729523
525.0 0.002491950077 -0.1226069991
525.625 -0.009614957425 -0.08329003692
526.25 0.01289361077 -0.06885210585
526.875 0.002801584813 -0.07032386857
527.5 -0.02723549777 -0.07173866473
528.125 -0.04274704308 -0.04214235431
528.75 -0.0464584305 -0.03720532601
529.375 -0.106088582 0.005495937365
530.0 -0.04122054269 0.07958210169
530.625 0.01514051032 0.05622797412
531.25 0.0001337961982 0.03777321019
531.875 -0.06805239869 0.09543308825
532.5 -0.03079812708 0.09814360989
533.125 -0.03517186007 0.09620489181
533.75 -0.003470274119 0.08666143931
534.375 -0.004513424401 0.104284621
535.0 -0.00692948049 0.1214724306
535.625 -0.01736692644 0.07734749366
536.25 0.04422769988 0.05755593122
536.875 0.02013706343 0.08850281183
537.5 -0.01452988372 0.04191359964
538.125 -0.02589042268 0.05482318101
538.75 0.009541524366 0.1029469152
539.375 -0.03077985953 0.1289808271
540.0 -0.01261340207 0.08703534963
540.625 -0.01512076824 0.06164459376
541.25 -0.0144851282 0.08492735567
541.875 -0.04818775982 0.099121957
542.5 -0.02810201848 0.01896043271
543.125 -0.0372547313 0.05130026013
543.75 0.01867159265 0.1031733724
544.375 0.05208537329 0.1231192663
545.0 0.09863259141 0.03147535214
545.625 0.08741467762 -0.03337009733
546.25 0.07920690395 -0.06011109874
546.875 0.08894370367 -0.06344038867
547.5 0.09231713115 -0.05860543877
548.125 0.1125641634 -0.05742737446
548.75 0.1356002586 -0.0213696879
549.375 0.1438284099 0.00870682834
550.0 0.1369396548 0.04537905199
550.625 0.1435998573 0.05220044532
551.25 0.07150868059 0.07434132766
551.875 0.05941425592 0.0383772746
552.5 0.05655311223 0.01699402604
553.125 0.07271858805 0.02812649059
553.75 0.03865440766 0.04149292663
554.375 0.02536436362 0.03020139221
555.0 0.0493946241 0.03579621398
555.625 0.06989185535 0.03918643722
556.25 0.03574085986 0.05188692954
556.875 0.03175001833 0.05121714336
557.5 0.05964825847 0.07210912225
558.125 0.03094727652 0.08399305246
558.75 0.006907195271 0.09995776352
559.375 0.04045436282 0.09566986306
560.0 0.06004480681 0.09186180128
560.625 0.05754185578 0.06067448915
561.25 0.04662346086 0.03034092338
561.875 0.05048950201 0.02823628934
562.5 0.06956294484 0.02865178214
563.125 0.05653747693 0.02813289521
563.75 0.06236316048 0.01044660886
564.375 0.09272118088 -0.01093657418
565.0 0.1175121289 0.02184542524
565.625 0.1020430978 0.005186140231
566.25 0.09019902136 0.006934863389
566.875 0.09911452819 0.01810115738
567.5 0.09762315609 0.06753755354
568.125 0.03255822171 0.06889338749
568.75 0.05262132704 0.08714165026
569.375 0.05834500279 0.08633196028
570.0 0.06242593487 0.08661846044
570.625 0.03585266513 0.04506572661
571.25 0.05011938894 0.04440684438
571.875 0.04845208173 0.03783750712
572.5 0.04809186192 0.01832465149
573.125 0.0168057706 0.03198167486
573.75 0.07432773121 0.0299261397
574.375 0.09797069797 0.005478495064
575.0 0.07494585361 -0.01198450542
575.625 0.05276497684 -0.01058364012
576.25 0.08260291167 -0.007896921914
576.875 0.09279354803 7.031195588e-05
577.5 0.08570010442 -0.006393741999
578.125 0.0859136129 -0.01892836876
578.75 0.1051506201 -0.009745277785
579.375 0.1037476256 -0.009989925677
580.0 0.09254459717 -0.03217878045
580.625 0.07672229004 -0.02809197227
581.25 0.06561010027 -0.03454587892
581.875 0.04270310849 -0.009743901688
582.5 0.04585953845 -0.005301108299
583.125 0.07169345706 0.01500470164
583.75 0.08045386046 0.02064849528
584.375 0.06256878527 0.02102859013
585.0 0.04859453083 0.03527084867
585.625 0.05501305362 0.06127473625
586.25 0.05892731069 0.05703276156
586.875 0.04768257646 0.03270497187
587.5 0.07155275022 0.01286893369
588.125 0.08814483283 0.02251372561
588.75 0.0909809616 0.01021733421
589.375 0.07006916354 -0.03886646876
590.0 0.05142332147 -0.06628768973
590.625 0.03833512527 -0.0483021336
591.25 0.03252963606 -0.008720730723
591.875 0.04929451343 0.002470775956
592.5 0.07179219127 -0.0288820119
593.125 0.08546556101 -0.03384447042
593.75 0.0764236136 -0.007562160792
594.375 0.07551408252 0.003019150638
595.0 0.08967464609 0.02457698706
595.625 0.07944862619 0.04739635408
596.25 0.04468181596 0.05272860861
596.875 0.02874710589 0.06660709266
597.5 0.02989354372 0.07339245552
598.125 0.02983983913 0.07211150082
598.75 0.03973535198 0.05816245624
599.375 0.04658864507 0.03452064015
600.0 0.04996273231 0.01846095621
600.625 -0.009521357336 0.02270780376
601.25 -0.001518480142 0.02257976776
601.875 -0.0108338418 0.03965722631
602.5 -0.02230287775 0.04933948329
603.125 -0.01902000973 0.04750507998
603.75 -0.02558373092 0.06728448865
604.375 -0.03992777057 0.07358306375
605.0 -0.02927973575 0.04289300634
605.625 -0.01917240079 0.02643423112
606.25 -0.0833036894 0.02598650885
606.875 -0.07848955963 0.03430202626
607.5 -0.04466374917 0.04797415894
608.125 0.001016770989 0.04436917242
608.75 -0.02582174151 0.0386299989
609.375 -0.04775107766 0.02729626663
610.0 -0.02086252872 0.01808246541
610.625 0.004835255656 0.01327828727
611.25 -0.04389309134 -0.0325238799
611.875 -0.02562173518 -0.04294028714
612.5 -0.02191603351 -0.04175906713
613.125 -0.03981400061 -0.04384490528
613.75 -0.03394919061 -0.02970499709
614.375 -0.02190989156 -0.02975616256
615.0 -0.02256633334 -0.03486500029
615.625 -0.01993942435 -0.03902036276
616.25 -0.01377401459 -0.01170224416
616.875 -0.01608228253 -0.03301240633
617.5 -0.003747405465 -0.01781311539
618.125 0.002714221601 -0.03394713175
618.75 0.01630512448 -0.01579961934
619.375 0.02090435588 -0.02555224
620.0 0.04355963224 -0.01936148013
620.625 0.0398704269 -0.04551097038
621.25 0.04312490233 -0.07305534039
621.875 0.02478663366 -0.07449522374
622.5 -0.04137483291 -0.05214807599
623.125 -0.0325756394 -0.02242747391
623.75 -0.00551760024 -0.003692646832
624.375 0.005291912655 -0.01936077711
625.0 0.02098326661 -0.03010290672
625.625 0.01956822986 0.008079240702
626.25 0.03382227837 0.04084671821
626.875 0.05486878933 -0.01231487787
627.5 0.06951173859 0.01694344281
628.125 0.05774587979 0.03663323899
628.75 0.04935987622 0.04498327497
629.375 0.07763087223 0.02965697056
630.0 0.05795928759 0.05366718225
630.625 0.05340370161 0.05296923372
631.25 0.02951564255 0.05323772093
631.875 0.06856299845 0.03584741229
632.5 0.03085421467 0.03536322662
633.125 -0.0002196128073 0.03660725282
633.75 0.005038973869 0.03998716319
634.375 -0.009876028245 0.04595918959
635.0 -0.005855333112 0.04464993789
635.625 0.008906214563 0.04698473761
636.25 0.0029829251 0.07927089244
636.875 -0.02464192344 0.07717598752
637.5 -0.004233241076 0.04236629773
638.125 -0.02201775564 0.06238726179
638.75 -0.03441847414 0.09955321045
639.375 -0.0523681138 0.06767064381
640.0 -0.04435751537 0.04241298174
640.625 -0.0487584397 0.02683478816
641.25 -0.06410114202 0.001309843676
641.875 -0.06446531319 -0.02262244772
642.5 -0.05225500105 0.00804719606
643.125 -0.05736529951 -0.008188205275
643.75 -0.0744849342 -0.04710121867
644.375 -0.05764698157 -0.06963892834
645.0 -0.07266927374 -0.01427607283
645.625 -0.09376687955 -0.02748700178
646.25 -0.08017562746 -0.04081454576
646.875 -0.04809227424 -0.03779200205
647.5 -0.05861722467 -0.04483263585
648.125 -0.07110167963 -0.0406839139
648.75 -0.04744566806 -0.03552873535
649.375 -0.01272587077 -0.04496667668
650.0 0.009770225118 -0.06662958573
650.625 0.01015187027 -0.05256137505
651.25 0.04021762009 -0.04649281744
651.875 0.06828864624 -0.03253113295
652.5 0.1221455797 -0.01334189769
653.125 0.0979325646 0.0004810863049
653.75 0.0958333201 0.02382197372
654.375 0.1013075689 0.03032949299
655.0 0.1011670319 0.04866902866
655.625 0.05961918444 0.04988081539
656.25 0.04115153137 0.019522406
656.875 0.06486996213 0.02077089489
657.5 0.07760915028 0.06310374801
658.125 0.03048599966 0.04766438008
658.75 0.01472019107 0.05454504067
659.375 0.06148784417 0.05857671782
660.0 0.102200133 0.0581892191
660.625 0.104748947 0.04249019803
661.25 0.1050653002 0.01123776315
661.875 0.1156269166 -0.02515521798
662.5 0.124285534 -0.048907723
663.125 0.07491006411 -0.04078259132
663.75 0.09103019877 -0.002297652245
664.375 0.07233687242 0.0660305131
665.0 0.009561051005 0.09193825258
665.625 -0.01297171094 0.05776738818
666.25 -0.0434254749 0.06621328144
666.875 -0.09840580017 0.03824072216
667.5 -0.1088274727 -0.0005382943061
668.125 -0.08879565165 0.01149302713
668.75 -0.1058599482 0.04190206222
669.375 -0.1227237951 0.0467666314
670.0 -0.106082758 0.005920436167
670.625 -0.06840041263 0.009543015268
671.25 -0.08867689493 0.04111983054
671.875 -0.08234678063 0.06161965446
672.5 -0.06038223295 0.06678742834
673.125 -0.02957897834 0.038291838
673.75 -0.06945768163 0.06862686601
674.375 -0.0911649641 0.06086435402
675.0 -0.1060356159 0.03534261137
675.625 -0.09916567248 -0.003084488913
676.25 -0.1129107939 -0.06116512373
676.875 -0.09936577427 -0.0735859885
677.5 -0.1145031843 -0.05505720977
678.125 -0.09919856509 -0.04323657149
678.75 -0.06726471709 -0.0618798917
679.375 -0.02989238906 -0.04235340101
680.0 -0.04670196346 -0.05237531454
680.625 -0.04871418363 -0.06960518379
681.25 -0.05124449462 -0.08963314375
681.875 -0.04693779265 -0.07184853929
682.5 -0.09434147415 -0.04421946235
683.125 -0.1529819212 -0.03296943089
683.75 -0.09920103862 -0.07135645972
684.375 -0.04576777874 -0.1032384343
685.0 0.01020112661 -0.1277321776
685.625 0.1015592562 -0.1222387341
686.25 0.1068372554 -0.04966179697
686.875 0.1033621602 -0.02121453354
687.5 0.08575896339 0.002197545591
688.125 0.07857499755 0.04365729575
688.75 0.03209922843 0.0517701554
689.375 0.04253651093 0.07859398839
690.0 0.0380941542 0.1231794279
690.625 0.01818719905 0.1111624295
691.25 0.05962910165 0.09605712441
691.875 0.1438275891 0.04076285583
692.5 0.1809968917 -0.06667841613
693.125 0.05269094009 -0.1259513391
693.75 -0.0417627732 -0.1033708574
694.375 -0.02205257902 -0.08830651713
695.0 0.02841666635 -0.1314658371
695.625 0.1086878552 -0.03948580176
696.25 0.06452517191 0.04899024618
696.875 0.002556805625 0.1049669132
697.5 -0.0913694252 0.04200532791
698.125 -0.1163249961 0.01636050083
698.75 -0.1216682449 0.04093062403
699.375 -0.1131040296 0.02705292527
700.0 -0.1042729715 0.01049150501
700.625 -0.09960934547 -0.01078715976
701.25 -0.1263092337 -0.02363139783
701.875 -0.09564194363 -0.03018124358
702.5 -0.06637897665 -0.006659783279
703.125 -0.07491370564 0.02284784014
703.75 -0.06460431457 0.1291155501
704.375 -0.01404565425 0.1804816946
705.0 -0.0224289926 0.09972514934
705.625 -0.03148190513 0.1006032685
706.25 -0.111536883 0.07555589302
706.875 -0.1646167466 -0.05291620772
707.5 -0.06126810003 -0.09109513095
708.125 -0.02917672146 -0.08719586142
708.75 0.03042936608 -0.09023923559
709.375 0.09282543766 -0.02498685967
710.0 0.07533108829 0.03620624707
710.625 0.04112226217 0.05706639002
711.25 0.03372716248 0.06872242134
711.875 0.03271683438 0.07697405223
712.5 0.03930444225 0.106719582
713.125 0.1401671804 0.05298011607
713.75 0.1206705314 -0.09372317647
714.375 0.02132167668 -0.1256836849
715.0 -0.04812481494 -0.1260542321
715.625 0.04457230362 -0.1218422936
716.25 0.05749799604 -0.06950800825
716.875 0.05387278469 -0.02121637111
717.5 0.08073372205 0.003122002409
718.125 0.08952732094 0.05755875203
718.75 0.04047524119 0.0841389559
719.375 0.002303209237 0.07355615764
720.0 -0.03433883726 0.0664995461
720.625 -0.08631290693 0.0286023275
721.25 -0.04790968641 -0.1019834662
721.875 0.02563343281 -0.1050151937
722.5 0.023502379 -0.1157127011
723.125 0.03326774774 -0.1002520941
723.75 -0.03842950029 -0.07160084455
724.375 -0.06333550707 -0.04975817541
725.0 -0.06684116246 -0.003661937976
725.625 -0.03770475939 0.02822961203
726.25 -0.08457951221 -0.02011139271
726.875 -0.09534609379 -0.04671552301
727.5 -0.07870818638 -0.07635010846
728.125 -0.06713734569 -0.05358213586
728.75 -0.0595859191 -0.05952441204
729.375 -0.06007924853 -0.05303598127
730.0 -0.05344875159 -0.07199105977
730.625 -0.03115266089 -0.05355064096
731.25 -0.0200937668 -0.03214124426
731.875 0.06353343285 -0.03777184082
732.5 0.05705108193 0.03402967018
733.125 0.02397341155 0.04620934452
733.75 0.024449877 0.02822093217
734.375 0.05753077983 0.0572518665
735.0 0.07306108416 0.007401544144
735.625 0.07629674625 -0.01086817741
736.25 0.04124278056 -0.03127214924
736.875 0.0480818258 -0.02475886653
737.5 0.03183648926 -0.009853307034
738.125 0.0004056426987 0.02717475673
738.75 -0.02470056676 0.03782194195
739.375 0.01213676537 0.1059454537
740.0 0.03643838239 0.07241231006
740.625 0.02694608593 0.03656937397
741.25 0.00016231973 0.03880383281
741.875 -0.02159951964 0.04734549927
742.5 -0.0594429659 0.003484881226
743.125 -0.01213272495 -0.0465486792
743.75 0.01617809671 -0.0378354558
744.375 0.02582515224 -0.07259143557
745.0 0.003803903497 -0.06903177778
745.625 -0.01286636897 -0.049657292
746.25 0.005167077157 -0.01122294291
746.875 0.02768965498 -0.02958840045
747.5 -0.01279297748 -0.04626494565
748.125 -0.05260724875 -0.03261619093
748.75 -0.06046443289 -0.007686394859
749.375 -0.05113255798 0.01359280843
750.0 0.01989966464 0.08580300064
