!Created with skrf (http://scikit-rf.org).
# GHz S RI R 50.0 
!freq ReS11 ImS11
500.0 -0.009125954676 0.02547892112
500.625 0.02026414019 0.02766012551
501.25 0.02904852974 0.01684051638
501.875 0.02313291992 0.02520358163
502.5 0.01332724339 0.03594939333
503.125 0.03056552523 0.04348231715
503.75 0.04360752688 0.00554715717
504.375 0.04038064876 -0.008048200474
505.0 0.04481992413 -0.02603401791
505.625 0.06827622323 -0.03933446528
506.25 0.02266571112 -0.06867528822
506.875 0.04954144626 -0.06139752106
507.5 0.03898287737 -0.04765459385
508.125 0.07108312678 -0.01983698189
508.75 0.0381925837 -0.05518981838
509.375 0.03257267357 -0.04621350082
510.0 0.06058561543 -0.03750646938
510.625 -0.0030178022 -0.06886537547
511.25 -0.03904822166 -0.05090004742
511.875 -0.05065395127 -0.000990096513
512.5 -0.03483402369 0.007136676733
513.125 -0.02794229234 0.03035119166
513.75 -0.01529616599 0.04011930276
514.375 0.003286795128 0.05491777733
515.0 0.008259644682 0.09720557831
515.625 -0.003168055327 0.08932481757
516.25 0.03636171602 0.09512450826
516.875 -0.0386164079 0.1274329962
517.5 0.05165011707 0.09779213992
518.125 -0.0211334161 0.1326804353
518.75 0.03957620001 0.03686885432
519.375 0.01382570414 0.07064980054
520.0 0.04902650205 0.07284129045
520.625 0.0722415148 0.02069933425
521.25 0.06229672303 0.01205513002
521.875 0.04407892246 0.04520544981
522.5 0.0700851328 0.01058239592
523.125 0.1187902397 -0.04685989115
523.75 0.1074490969 -0.07263559561
524.375 0.07091102865 -0.01612503557
525.0 0.01057947044 0.009497249547
525.625 0.004460112335 0.008869631131
526.25 0.01146830952 0.02899808194
526.875 0.01983477506 0.03456906727
527.5 0.03225582605 0.02715528949
528.125 0.02618270799 -0.005196304311
528.75 0.04939636136 -0.01378140672
529.375 0.03452066154 -0.04230191083
530.0 0.02499107003 -0.03256219426
530.625 0.00290028094 -0.07086048868
531.25 0.01046164756 -0.1634408213
531.875 -0.05991238662 -0.1437313244
532.5 -0.09457124666 -0.08235993303
533.125 -0.06867456926 -0.02627638253
533.75 -0.0718228816 -0.03901240782
534.375 -0.07239757246 -0.0338963164
535.0 -0.07757403601 -0.02091020762
535.625 -0.03152294042 -0.01102080416
536.25 -0.03106539284 -0.02741844226
536.875 -0.04187236753 -0.05506699428
537.5 -0.0535440049 -0.08748527848
538.125 -0.07338632484 -0.0507136769
538.75 -0.05754961023 -0.02334794771
539.375 -0.04251921858 -0.04352672308
540.0 -0.06470176986 -0.08573479109
540.625 -0.0660209045 -0.09361795187
541.25 -0.04723698209 -0.08713888517
541.875 -0.04853694606 -0.07510190023
542.5 -0.05754697573 -0.09015060477
543.125 -0.09829823461 -0.0547341567
543.75 -0.09425103464 0.02347133497
544.375 -0.06050436627 0.04607533948
545.0 -0.03018748322 0.07078535779
545.625 0.00214949091 0.04866074383
546.25 0.01752671667 0.06525324144
546.875 0.02888516442 0.06427106605
547.5 0.02731569837 0.09605338281
548.125 0.01305500253 0.07113406375
548.75 -0.005248346446 0.07085262469
549.375 -0.0124558524 0.07420723728
550.0 -0.0457953746 0.04438899698
550.625 -0.0003049902452 0.003904587283
551.25 -0.01322587982 -0.02506287422
551.875 -0.04800607532 -0.03360857214
552.5 -0.08005933925 -0.03968152573
553.125 -0.06155875057 -0.01898424336
553.75 -0.07046964978 -0.02220644613
554.375 -0.08596184522 0.009038533833
555.0 -0.09809040886 0.03568438729
555.625 -0.06090692833 0.0294016382
556.25 -0.07922309929 0.02622476747
556.875 -0.09385602359 0.02626655783
557.5 -0.08323211183 0.03678055066
558.125 -0.08281045092 0.03530694357
558.75 -0.06273496817 0.0130895499
559.375 -0.04174152699 0.007932418059
560.0 -0.03227793362 0.002103683293
560.625 -0.01695265553 -0.0256152464
561.25 -0.05278227712 -0.03253608539
561.875 -0.06946922689 -0.01489728075
562.5 -0.071185439 0.02802642047
563.125 -0.0582744487 0.04457354079
563.75 -0.0482594691 0.07733246391
564.375 -0.01925928351 0.0862072193
565.0 -0.01244805556 0.08657331466
565.625 -0.007209006456 0.05043953367
566.25 -0.03531579128 0.04293987835
566.875 -0.04963960783 0.03084427062
567.5 -0.05709538983 0.02343907608
568.125 -0.06306301148 0.01780393027
568.75 -0.04522369963 0.009674557975
569.375 -0.02910043799 -0.01020981752
570.0 -0.02443409875 -0.02597035733
570.625 -0.03535015742 -0.03799305593
571.25 -0.03998774438 -0.03289473767
571.875 -0.0580790247 -0.02504015146
572.5 -0.08442944233 -0.009454237144
573.125 -0.1049267731 0.03122268384
573.75 -0.05910930209 0.06511052609
574.375 -0.02597368293 0.06953667628
575.0 -0.03288446915 0.07318938128
575.625 -0.04860965727 0.06177124338
576.25 -0.03384499632 0.06792689043
576.875 -0.008194145146 0.07710339201
577.5 0.008938236717 0.08102179603
578.125 -0.01306510496 0.04055824173
578.75 -0.008194219032 0.04118049422
579.375 -0.006020920306 0.04139215318
580.0 -0.01382336372 0.03241465305
580.625 -0.02510712591 0.01767899761
581.25 -0.04987832685 0.01163508665
581.875 -0.06907196276 0.03131588889
582.5 -0.071706748 0.04811070634
583.125 -0.05343717406 0.06082423566
583.75 -0.05650915529 0.02540283848
584.375 -0.06722992675 0.01798972151
585.0 -0.07092724708 0.01042207523
585.625 -0.05971349992 0.03579798752
586.25 -0.05413643216 0.02012717049
586.875 -0.0598288662 0.01067421787
587.5 -0.05530353257 0.02196172577
588.125 -0.02195922207 0.0548198042
588.75 -0.02479795009 0.03682655277
589.375 -0.03521616906 0.02351242047
590.0 -0.04308737528 0.02100262647
590.625 -0.02792289855 0.05392801738
591.25 -0.04851015087 0.07630693856
591.875 -0.02645712043 0.09207937811
592.5 -0.001813429421 0.07329714367
593.125 0.02031676294 0.0618954281
593.75 -0.02216467091 0.05876892262
594.375 -0.0335492263 0.04534826054
595.0 -0.03022313887 0.03283233097
595.625 -0.02599060636 0.02312470325
596.25 -0.03288081897 -0.02800066875
596.875 -0.03544012424 -0.02074595116
597.5 -0.03226210836 -0.01835223657
598.125 -0.02993847121 -0.002516075243
598.75 -0.01702031938 -0.02213469887
599.375 -0.01523452477 -0.03977050007
600.0 -0.0226189706 -0.04926264209
600.625 -0.03680467592 -0.05880416983
601.25 -0.03860749898 -0.0768978557
601.875 -0.05484528668 -0.05226828391
602.5 -0.05698711032 -0.03482755494
603.125 -0.0575506702 -0.01168287404
603.75 -0.02982992111 -0.03431793693
604.375 -0.02034124587 -0.0211252133
605.0 -0.01510287249 -0.03107991945
605.625 -0.01044159015 -0.04702303195
606.25 -0.02179683701 -0.0372423233
606.875 -0.0105666798 -0.02049929138
607.5 0.01339496206 -0.01642971817
608.125 0.01940101135 -0.01763819399
608.75 0.03235569327 -0.03064477755
609.375 0.02744601476 -0.0187011486
610.0 0.03629889034 -0.01151920019
610.625 0.05010332468 -0.0200500344
611.25 0.03889992344 -0.02528224015
611.875 0.04971940316 -0.02233102847
612.5 0.0500813409 -0.0113573577
613.125 0.02527866807 -0.005697073148
613.75 -0.003642314182 0.001513087973
614.375 0.04307676871 0.02886397791
615.0 0.03859206941 0.01667821479
615.625 0.02552374119 0.01091878572
616.25 0.007513760362 0.01302369957
616.875 0.03347482655 0.0357401044
617.5 0.04167753711 0.04207968343
618.125 0.03314181082 0.0307563957
618.75 0.009028764582 0.02261618693
619.375 0.0392891973 0.05426746014
620.0 0.04935647532 0.04462293099
620.625 0.03924424868 0.008034457849
621.25 0.01013001762 -0.00987825368
621.875 0.01352077641 0.00708851392
622.5 -0.01399333783 0.01179261413
623.125 -0.02272869752 0.04355914243
623.75 -0.03340916241 0.05098373868
624.375 -0.01303529895 0.06194196421
625.0 -0.04078569605 0.03872473943
625.625 -0.04657157731 0.04353594443
626.25 -0.03150361867 0.06650539232
626.875 -0.01844816393 0.05415252567
627.5 -0.01385171211 0.04981121858
628.125 -0.01789538384 0.04535955292
628.75 -0.02939459338 0.01840216286
629.375 -0.01960923201 0.009288239218
630.0 -0.01844847165 0.03034842692
630.625 -0.007397565581 -0.002724520768
631.25 0.0009334424756 -0.03583764425
631.875 -0.0006270148612 -0.04897814829
632.5 -0.0211935444 -0.04798879901
633.125 -0.03001910636 -0.04823356205
633.75 -0.03728117682 -0.04739603866
634.375 -0.02525590086 -0.07324432461
635.0 -0.0627613671 -0.03547378044
635.625 -0.05497570573 -0.03594604843
636.25 -0.03771955994 -0.02664493223
636.875 -0.02619301201 -0.03779671568
637.5 -0.02571053366 -0.070528564
638.125 -0.05552263936 -0.03728213923
638.75 -0.03789962242 -0.01231490999
639.375 -0.004095135836 -0.02214257399
640.0 0.05831418233 -0.02824475781
640.625 0.03304909776 -0.0367833657
641.25 0.03571929834 -0.03754343081
641.875 0.04420445378 -0.03222471704
642.5 0.06269356262 -0.005690400829
643.125 0.05924439006 -0.003062920731
643.75 0.0517915645 -0.01107665336
644.375 0.05907501276 -0.0154532819
645.0 0.05073416145 -0.002084323755
645.625 0.02791254827 -0.00991711227
646.25 0.04138261532 0.005339743615
646.875 0.06735131543 0.008178469747
647.5 0.07161052107 0.01397695658
648.125 0.03831468093 -0.005832775102
648.75 0.04685952124 0.03695840195
649.375 0.05886440518 0.06455721699
650.0 0.04983994483 0.06982460012
650.625 0.04549437723 0.06103149161
651.25 0.02213333856 0.07076492297
651.875 -0.01827862814 0.07233026496
652.5 -0.01834448395 0.0562908621
653.125 -0.02780723067 0.04549093688
653.75 -0.02626128692 0.02039519698
654.375 -0.02594831821 -0.01363550253
655.0 -0.0377436772 -0.04458006018
655.625 -0.03645616992 -0.0336399526
656.25 -0.07430929736 -0.04499112854
656.875 -0.07897745842 -0.02990524811
657.5 -0.07845213291 -0.03493106337
658.125 -0.1025560367 -0.04270853704
658.75 -0.1018947849 -0.01123613523
659.375 -0.07848212513 0.02802445083
660.0 -0.05751526019 0.04981676264
660.625 -0.06723500826 0.04484732233
661.25 -0.03012066371 0.03650669891
661.875 -0.02573039433 0.03552381672
662.5 -0.03420893295 0.03583692735
663.125 -0.06234452777 0.0285252298
663.75 -0.06040225354 -0.01170782981
664.375 -0.04836849012 -0.04798159241
665.0 -0.03546136425 -0.08443841578
665.625 -0.007536265527 -0.07829349581
666.25 0.01631448548 -0.08309204495
666.875 0.02625320928 -0.08395587836
667.5 0.04632368017 -0.0965959967
668.125 0.02876328153 -0.06288598769
668.75 0.02462409861 -0.04436679118
669.375 0.04195219662 -0.03959051654
670.0 0.06496217765 -0.04135335457
670.625 0.0615774426 -0.0291615937
671.25 0.04756280994 -0.03859914297
671.875 0.05860909729 -0.04829289346
672.5 0.04174567907 -0.09201901481
673.125 0.01532375025 -0.1007333712
673.75 -0.006786428399 -0.09130291154
674.375 0.01057931176 -0.0814070535
675.0 0.05227857956 -0.07456274556
675.625 0.04654269293 -0.03910950166
676.25 0.05463838031 -0.02151612781
676.875 0.061649685 -0.003153122672
677.5 0.05006872284 0.03176827271
678.125 0.03295021256 0.03867662113
678.75 0.04930037327 0.06133457044
679.375 0.06743255332 0.09212869814
680.0 0.06184265638 0.08083325296
680.625 0.08708374683 0.0499292144
681.25 0.08260529645 0.02073473074
681.875 0.1076073755 -0.003215384759
682.5 0.08308374529 -0.04710478273
683.125 0.06625710857 -0.04577633388
683.75 0.06379918619 -0.01862426887
684.375 0.06260233346 0.03510483146
685.0 0.01398728836 0.05101757544
685.625 -0.0286636034 0.04848115374
686.25 -0.06235497352 0.02598176161
686.875 -0.07568367984 -0.01834527994
687.5 -0.08974458494 -0.03540474237
688.125 -0.114504175 -0.04350622641
688.75 -0.1220929275 -0.05948508008
689.375 -0.08091733084 -0.04730294229
690.0 -0.07679410989 -0.03771104596
690.625 -0.09378790138 -0.034457052
691.25 -0.1171688818 -0.02112010322
691.875 -0.03888070028 0.01980735812
692.5 -0.02919697844 0.03031156575
693.125 -0.01783911997 0.07208107471
693.75 0.004965108872 0.1137356572
694.375 0.03107535544 0.09863787779
695.0 -0.01039760775 0.09249477041
695.625 -0.08195870443 0.06501981609
696.25 -0.104774987 -0.03438260423
696.875 -0.05782820981 -0.1068952
697.5 0.02158734142 -0.0992824941
698.125 0.04094627184 -0.07820818586
698.75 0.0303986667 -0.04646608413
699.375 0.04851836092 -0.05232662552
700.0 0.0701291773 -0.01576518032
700.625 0.06706642862 0.02257952117
701.25 0.05830784438 0.02351126744
701.875 0.09355801971 0.0004756296568
702.5 0.1232002333 -0.01955715187
703.125 0.08165163573 -0.0869030637
703.75 -0.03436058572 -0.08843186573
704.375 -0.06495221481 -0.05050966503
705.0 -0.05766634417 -0.07600193324
705.625 0.0140498032 -0.07642809633
706.25 0.04429308216 -0.04174847927
706.875 0.05561072049 0.006971168772
707.5 0.04791658543 0.05210098186
708.125 -0.03753714156 0.08026565943
708.75 -0.06845825174 0.07217656115
709.375 -0.08529635786 0.03986916159
710.0 -0.09026165333 0.003193623348
710.625 -0.07098357985 -0.04661339167
711.25 -0.06691273163 -0.08107623127
711.875 -0.08839377815 -0.06166131211
712.5 -0.08674827515 0.003124235652
713.125 -0.04310161801 0.03813919553
713.75 -0.03361693145 0.04342309233
714.375 -0.02730260411 0.05924002577
715.0 -0.001392466683 0.06175920133
715.625 -0.02300111088 0.06202614108
716.25 -0.05751015757 0.07324080887
716.875 -0.1124137804 0.04924884488
717.5 -0.09718938808 -0.01381814412
718.125 -0.08247511794 -0.007723156803
718.75 -0.05824276866 -0.06776083337
719.375 -0.04614923759 -0.08056192184
720.0 -0.01299229296 -0.0832718866
720.625 0.04038494964 -0.0586600101
721.25 0.03691687061 0.03287684101
721.875 -0.007961141722 0.03756318007
722.5 -0.02808167018 0.03474654846
723.125 -0.03214375145 0.06060979574
723.75 -0.01680807899 0.1118687157
724.375 0.07029839277 0.05294586877
725.0 0.07980504196 -0.006034848438
725.625 0.05828041316 -0.0515380705
726.25 0.04965907815 -0.05515168939
726.875 0.05027660733 -0.0322767141
727.5 0.04362990676 -0.01559799467
728.125 0.03712444339 0.02902173424
728.75 0.02771145277 0.02256798909
729.375 0.03617472625 0.06581099705
730.0 0.04348110383 0.03504889769
730.625 0.02156986872 0.03647076489
731.25 -0.003961618075 0.0425478317
731.875 -0.048279219 0.03560416051
732.5 -0.05985352265 0.007226204079
733.125 -0.06710038195 -0.0255162299
733.75 -0.04164087758 0.002353626188
734.375 -0.05240568851 -0.04383322713
735.0 -0.05658659873 -0.01873570197
735.625 -0.04222234541 -0.007746069571
736.25 -0.01197994468 -0.01105148121
736.875 -0.08018914673 -0.01296031697
737.5 -0.08097659305 -0.02283556473
738.125 -0.06066986455 -0.01528766198
738.75 -0.04733188445 -0.008329769599
739.375 -0.02997047562 -0.02649174671
740.0 -0.01301841489 -0.03905466068
740.625 -0.04351939873 -0.03910820513
741.25 -0.02440703248 -0.0189158748
741.875 0.01871303361 -0.00569673864
742.5 0.05687941595 -0.007798436013
743.125 0.02605670995 0.04046859055
743.75 -0.01615139342 0.02815515571
744.375 -0.03628096347 0.01600969565
745.0 -0.03490977759 0.04272169023
745.625 -0.01927983873 0.06633703555
746.25 0.007553358525 0.07141084594
746.875 0.02834028185 0.04820892609
747.5 0.06342287626 -0.001234063821
748.125 0.02651475112 -0.005132383794
748.75 0.02182347064 0.0003516984308
749.375 0.02245542262 -0.01346892478
750.0 0.004385391647 -0.0280825342
