!Created with skrf (http://scikit-rf.org).
# GHz S RI R 50.0 
!freq ReS11 ImS11
500.0 -0.02140645195 0.02531509392
500.625 0.03134257939 0.02119594469
501.25 0.04020891257 0.005923434201
501.875 0.02034985524 0.02537363121
502.5 0.004330804145 0.04255156318
503.125 0.03167109425 0.02877837617
503.75 0.04374277609 0.01018914093
504.375 0.05271023444 0.01051028687
505.0 0.0440077643 -0.02763207382
505.625 0.05249482667 -0.04805586542
506.25 0.04052250352 -0.04989533028
506.875 0.06633482738 -0.03592898375
507.5 0.02714549457 -0.06680814919
508.125 0.06448578506 -0.04385384794
508.75 0.03852680909 -0.05713589636
509.375 0.04523914798 -0.04426593718
510.0 0.04292194347 -0.05359647889
510.625 -0.01784920486 -0.06023280497
511.25 -0.04085261731 -0.05101903716
511.875 -0.04690745737 -0.01803629837
512.5 -0.03596816899 0.01893320304
513.125 -0.0141496414 0.03312414231
513.75 -0.01886206958 0.0413384049
514.375 -0.01840115045 0.05829297554
515.0 0.01842562906 0.07625309746
515.625 -0.04417080362 0.08972597401
516.25 0.02550384743 0.1002912438
516.875 -0.04897820124 0.1224390555
517.5 0.07110934784 0.08792147328
518.125 -0.03454179415 0.1200091938
518.75 0.01972850574 0.05311056557
519.375 0.01652681634 0.06591651457
520.0 0.05019438774 0.05611133013
520.625 0.05797620574 0.04738440491
521.25 0.05592887251 0.02431833365
521.875 0.03454743261 0.05067843008
522.5 0.067619062 0.002587109124
523.125 0.1121026113 -0.02877179783
523.75 0.1050800128 -0.06514229011
524.375 0.06550008851 0.0006842214908
525.0 0.004698131149 -0.002950536642
525.625 0.007791521313 0.0144674403
526.25 0.01050468891 0.0523441834
526.875 0.02222650893 0.01520265042
527.5 0.02396278002 0.02080142196
528.125 0.04276452101 0.003999304463
528.75 0.05482386469 -0.009278640475
529.375 0.02653333452 -0.03465673735
530.0 0.01443816438 -0.01580402864
530.625 0.005606332447 -0.06802047583
531.25 0.017741122 -0.1791966616
531.875 -0.05888403849 -0.1105358602
532.5 -0.08383704076 -0.06664318529
533.125 -0.07725241293 -0.05242414348
533.75 -0.07609972541 -0.0631139448
534.375 -0.06561819171 -0.02885914702
535.0 -0.06344426541 -0.01518024917
535.625 -0.03365709727 -0.03633382524
536.25 -0.03991971214 -0.04021547999
536.875 -0.0321755415 -0.04132929792
537.5 -0.04199359716 -0.07059026876
538.125 -0.07145072042 -0.04996610298
538.75 -0.06545817329 -0.03688496252
539.375 -0.03016374001 -0.02382570312
540.0 -0.04763550229 -0.07758467119
540.625 -0.05981985009 -0.08896211028
541.25 -0.04910483602 -0.09568968226
541.875 -0.04057224654 -0.0598907841
542.5 -0.04780538826 -0.08021106628
543.125 -0.0943298731 -0.05152829446
543.75 -0.1071568019 0.021268218
544.375 -0.05302831423 0.04449964929
545.0 -0.02467671313 0.05536063567
545.625 -0.01176058124 0.06221595908
546.25 0.01596175526 0.07182770583
546.875 0.02336390984 0.07359215701
547.5 0.01998858893 0.08066702627
548.125 0.01214576771 0.06564977428
548.75 -0.007300028305 0.08332269219
549.375 -0.004674280387 0.05734754321
550.0 -0.03258672139 0.03195843381
550.625 -0.02117111295 0.00295106368
551.25 -0.016680352 -0.03023509068
551.875 -0.04147090398 -0.04207307508
552.5 -0.06193542214 -0.04458583494
553.125 -0.06506856329 -0.02004832249
553.75 -0.08283183241 -0.02114041021
554.375 -0.09058378834 0.006307013157
555.0 -0.08888103599 0.0247309131
555.625 -0.07269957727 0.03094412189
556.25 -0.08109850705 0.02143116161
556.875 -0.09757268094 0.02316575689
557.5 -0.06899997003 0.02925026131
558.125 -0.06728249321 0.02915507274
558.75 -0.06633474675 0.009138493338
559.375 -0.03733773469 0.005255512605
560.0 -0.02308128959 -0.001829402861
560.625 -0.03430838233 -0.0292276614
561.25 -0.05643609179 -0.03547156263
561.875 -0.07492418344 -0.01828327514
562.5 -0.06808056824 0.01867190108
563.125 -0.06670044499 0.06165578843
563.75 -0.05275849117 0.09056227135
564.375 -0.02044834466 0.07836753887
565.0 -0.01523846463 0.0726318842
565.625 -0.01206637851 0.06773215872
566.25 -0.04080282064 0.0461697968
566.875 -0.05535225458 0.03144687395
567.5 -0.04639359533 0.01245819337
568.125 -0.05232509552 0.008529676224
568.75 -0.0409303724 0.007429416792
569.375 -0.03904054399 -0.006996555626
570.0 -0.008422895497 -0.03000711505
570.625 -0.03254275414 -0.04610417922
571.25 -0.04168874248 -0.03314061102
571.875 -0.06092488824 -0.02169796931
572.5 -0.07529920576 -0.02334374673
573.125 -0.1005109224 0.01531263207
573.75 -0.05660957065 0.06073259709
574.375 -0.02676567493 0.07340926472
575.0 -0.03945532895 0.06075454188
575.625 -0.0521344883 0.06286712023
576.25 -0.03172461354 0.06882366676
576.875 -0.00614719403 0.06808214495
577.5 -0.002634918133 0.06883295048
578.125 -0.01475392127 0.05348620125
578.75 -0.009879987296 0.04231994147
579.375 -0.007250553462 0.04490051132
580.0 -0.01815919825 0.01599123452
580.625 -0.03160244945 0.001959257631
581.25 -0.051069263 0.007830037119
581.875 -0.06243675646 0.04025841299
582.5 -0.07250550281 0.02790300255
583.125 -0.0601322318 0.04563038273
583.75 -0.05528131819 0.03497699838
584.375 -0.06604312811 0.03139233732
585.0 -0.07432566696 0.01143242693
585.625 -0.05977926593 0.02171286991
586.25 -0.05203451968 0.01315381378
586.875 -0.05987712001 0.02206281149
587.5 -0.0513665628 0.005842057023
588.125 -0.03056809609 0.04213313503
588.75 -0.01881845225 0.03842687281
589.375 -0.02189320566 0.03684163857
590.0 -0.04224906397 0.02113665316
590.625 -0.04320051395 0.05006328423
591.25 -0.03126430276 0.0813426588
591.875 -0.02591004535 0.08987702491
592.5 0.002166363847 0.07630245328
593.125 0.002426399825 0.06175388854
593.75 -0.004670872239 0.06032487011
594.375 -0.02307889839 0.05591777748
595.0 -0.03213430134 0.01831282186
595.625 -0.02896145938 0.00557714795
596.25 -0.03818533728 -0.006864235891
596.875 -0.03462861764 -0.0177594966
597.5 -0.03646111014 -0.01262321016
598.125 -0.0201701121 -0.02227657796
598.75 -0.01486277427 -0.02506300128
599.375 -0.01332693294 -0.02364488806
600.0 -0.01562514488 -0.07157199008
600.625 -0.02297986908 -0.07898615901
601.25 -0.04363603501 -0.06257332211
601.875 -0.05553590229 -0.0360000063
602.5 -0.05744841384 -0.03019141249
603.125 -0.04987087519 -0.03485869656
603.75 -0.03052568401 -0.03196968711
604.375 -0.01896604872 -0.02239122013
605.0 -0.01561092955 -0.02288209789
605.625 0.01123742957 -0.05734030419
606.25 -0.001354493442 -0.04256886767
606.875 -0.004832104533 -0.02193059479
607.5 -0.004742164098 -0.003156542401
608.125 0.03687077854 -0.0233996816
608.75 0.0232924467 -0.0256938375
609.375 0.03009814866 -0.01730911368
610.0 0.03031383036 -0.006358335448
610.625 0.06867048873 -0.0161139049
611.25 0.06169003378 -0.02625135741
611.875 0.05540338048 -0.01833822165
612.5 0.02398847406 -0.01885867641
613.125 0.02201965523 -0.007067386208
613.75 0.01665034418 0.00583147666
614.375 0.03242708332 0.01802439015
615.0 0.0330127199 0.01615887262
615.625 0.01384160259 0.003939861743
616.25 0.02383932859 0.02166734113
616.875 0.03132301363 0.03443236718
617.5 0.02804500524 0.03329484672
618.125 0.02580967151 0.031023225
618.75 0.0265777495 0.03201142337
619.375 0.02936902469 0.0411984099
620.0 0.02914299991 0.02866250609
620.625 0.04567280735 0.01644526317
621.25 0.02947323635 0.00114578522
621.875 -0.001665766698 -0.02018480032
622.5 -0.02700954477 0.006411407007
623.125 -0.03569936546 0.03880587894
623.75 -0.01512195013 0.05619648314
624.375 -0.02078152977 0.04856307631
625.0 -0.03836216001 0.03583059619
625.625 -0.05710790483 0.03564038114
626.25 -0.02569464347 0.09220326352
626.875 -0.01219767218 0.07356819516
627.5 -0.012914235 0.0526448083
628.125 -0.03014926717 0.01694468508
628.75 -0.03416845347 0.04350087073
629.375 -0.0202074964 0.02473332815
630.0 -0.01091297655 0.002903474631
630.625 -0.0001344815727 -0.03070035334
631.25 -0.009291204583 -0.02190851651
631.875 -0.01583597588 -0.03444454567
632.5 -0.02413239394 -0.04646558438
633.125 -0.006836057769 -0.06918965964
633.75 -0.02992190463 -0.05136036571
634.375 -0.0299513604 -0.05539794483
635.0 -0.04418412926 -0.04489765041
635.625 -0.04993597472 -0.03528513189
636.25 -0.03408977043 -0.03393074806
636.875 -0.04051087139 -0.02256524691
637.5 -0.03621411711 -0.05288684548
638.125 -0.04622709354 -0.04374163847
638.75 -0.02618130079 -0.03055449334
639.375 -0.002456618432 -0.02014163762
640.0 0.04290526162 -0.02425183682
640.625 0.05188722321 -0.02584047228
641.25 0.04048193127 -0.0332597652
641.875 0.0362640344 -0.03376918436
642.5 0.04483772895 -0.02052583975
643.125 0.05496390934 -0.001789543546
643.75 0.06847769466 0.00466372078
644.375 0.04314415939 -0.03374352616
645.0 0.03806939372 -0.01183877894
645.625 0.04202725136 0.008117180798
646.25 0.05606723427 0.02114700346
646.875 0.07402890666 0.02406389647
647.5 0.06022314687 0.007933213221
648.125 0.05207525813 0.01721697698
648.75 0.04925106684 0.04679597566
649.375 0.05187383696 0.07699390362
650.0 0.04775978328 0.05939588149
650.625 0.04289463013 0.04962384001
651.25 0.01755471235 0.06983763916
651.875 -0.02526100978 0.07251929585
652.5 -0.002734772351 0.05562225611
653.125 -0.01084361674 0.04291874948
653.75 -0.03340757447 0.014505869
654.375 -0.02131740809 -0.01973155982
655.0 -0.02434540722 -0.04158136209
655.625 -0.04307345174 -0.05180023531
656.25 -0.07025729105 -0.05325975326
656.875 -0.08089182343 -0.03587346022
657.5 -0.06297414943 -0.02204009855
658.125 -0.08726584613 -0.03923910842
658.75 -0.1069907158 -0.01625930958
659.375 -0.09154607418 0.02243056793
660.0 -0.05729559909 0.0418067901
660.625 -0.054721962 0.03860415293
661.25 -0.05214235389 0.02813344516
661.875 -0.03078791826 0.03347456431
662.5 -0.02323410888 0.02797272027
663.125 -0.0444715316 0.01396754574
663.75 -0.05877961424 -0.01717945144
664.375 -0.06214346059 -0.05484535506
665.0 -0.02083797476 -0.06837446116
665.625 0.003310226569 -0.1036339421
666.25 0.02727310854 -0.08806874302
666.875 0.03018694471 -0.08688061639
667.5 0.04278404826 -0.08089266042
668.125 0.0466523807 -0.06081812678
668.75 0.02921746598 -0.0438341473
669.375 0.0460760699 -0.03880373605
670.0 0.05373564098 -0.02643191051
670.625 0.05864088913 -0.02457859178
671.25 0.04435412457 -0.03419139788
671.875 0.06329047344 -0.05553881959
672.5 0.03873617801 -0.06940801164
673.125 0.01639074537 -0.08828035992
673.75 -0.00374177264 -0.09516638368
674.375 0.01883004336 -0.08959095879
675.0 0.0484533887 -0.05711742693
675.625 0.04904834243 -0.03370132487
676.25 0.06677104219 -0.02210716922
676.875 0.07332927936 0.005169085357
677.5 0.03400888727 0.03134260076
678.125 0.0251050558 0.0402119083
678.75 0.04546987309 0.06087997402
679.375 0.079059057 0.0963274178
680.0 0.04903384332 0.06759968035
680.625 0.07345602536 0.05085251477
681.25 0.1054404121 0.02462251001
681.875 0.1244984691 -0.001694261964
682.5 0.09327353508 -0.03825775701
683.125 0.05060367888 -0.03463054488
683.75 0.05616839179 -0.007625955451
684.375 0.05451474801 0.03650339701
685.0 0.02342160703 0.06211905094
685.625 -0.02392493138 0.02677235318
686.25 -0.05937917506 0.008346157634
686.875 -0.0738329514 -0.0209054768
687.5 -0.09711695357 -0.02739908915
688.125 -0.08871854286 -0.05173187906
688.75 -0.09758700177 -0.06780319632
689.375 -0.08412465324 -0.04546293605
690.0 -0.08688270549 -0.04221448687
690.625 -0.09298423918 -0.03890709831
691.25 -0.09235512219 -0.02768810203
691.875 -0.05164509202 0.02038210111
692.5 -0.0319220336 0.03067631467
693.125 -0.01798565536 0.0774111828
693.75 -0.01996356459 0.09083729209
694.375 0.01013344302 0.09020459597
695.0 -0.009669394356 0.0934157716
695.625 -0.08340640893 0.07688463416
696.25 -0.1043371031 -0.04126171017
696.875 -0.03705383877 -0.1022118354
697.5 0.03375979068 -0.08773820507
698.125 0.04566748772 -0.07520445641
698.75 0.03544912441 -0.0503204305
699.375 0.05032999752 -0.03265177677
700.0 0.06731078281 -0.01543427488
700.625 0.07820481211 0.01387756752
701.25 0.0563829681 0.02858264239
701.875 0.09029905809 0.02050854833
702.5 0.1271188784 -0.04062726746
703.125 0.08548860237 -0.08660582026
703.75 -0.03686813663 -0.0927671224
704.375 -0.04767534596 -0.05397474653
705.0 -0.01998184803 -0.07946941749
705.625 0.01487512724 -0.07230632342
706.25 0.03789804467 -0.05726557215
706.875 0.03812882085 0.02918712664
707.5 0.02471105236 0.06440144969
708.125 -0.02325977771 0.08250876519
708.75 -0.0544197359 0.08224368413
709.375 -0.08438211659 0.02325853518
710.0 -0.0828741435 -0.01608257778
710.625 -0.073398168 -0.04684142688
711.25 -0.08396676826 -0.06832569494
711.875 -0.059813858 -0.06827948688
712.5 -0.07280268906 -0.01119674871
713.125 -0.03849548139 0.03891706369
713.75 -0.01852495609 0.05778195974
714.375 -0.01495328911 0.06969336167
715.0 -0.02320850869 0.05708916693
715.625 -0.03684575683 0.06417216321
716.25 -0.0677941696 0.06735717271
716.875 -0.09125417321 0.06421858168
717.5 -0.08623488256 -0.03374552849
718.125 -0.0745015151 -0.03026161298
718.75 -0.0724610945 -0.03977004088
719.375 -0.045453374 -0.07469700504
720.0 -0.01995240394 -0.07851508101
720.625 0.05133055494 -0.03849366618
721.25 0.05135332577 0.00651087472
721.875 0.01710408436 0.02888340763
722.5 -0.0665157258 0.02285848842
723.125 -0.06162844755 0.06069075031
723.75 0.00970585123 0.09056306572
724.375 0.06844555011 0.04945627333
725.0 0.06944728306 -0.02130599803
725.625 0.08010326885 -0.03408277678
726.25 0.07234249005 -0.02872178354
726.875 0.04863908122 -0.02597904682
727.5 0.03067874925 -0.02673778121
728.125 0.02379508847 0.07739250548
728.75 0.02155529124 0.05264414684
729.375 0.03707892397 0.03813682189
730.0 0.0405125238 0.03135585061
730.625 0.02121189746 0.023871198
731.25 -0.01753085446 0.0590659874
731.875 -0.05216354287 0.04006044382
732.5 -0.0601886413 -0.001173549565
733.125 -0.04028445714 0.001348760411
733.75 -0.0537237977 -0.0265666191
734.375 -0.03279713497 -0.003944728859
735.0 -0.03650245999 -0.00424031629
735.625 -0.03135435263 -0.01453566492
736.25 -0.03560937602 -0.00543937882
736.875 -0.05629535538 -0.01099126979
737.5 -0.07283857448 -0.02538214247
738.125 -0.05246571019 -0.01602012254
738.75 -0.06783231409 -0.02602028924
739.375 -0.04169361653 -0.03177385053
740.0 -0.01474026 -0.04715076529
740.625 -0.007160901266 -0.02624974934
741.25 -0.04930109487 -0.04169935676
741.875 0.005098726117 -0.03126698008
742.5 0.02877405109 -0.004191838179
743.125 -0.001220361604 0.03129508399
743.75 -0.01370794273 0.04704426624
744.375 -0.02222092509 0.03659191842
745.0 -0.03857419529 0.04175153894
745.625 -0.0571429236 0.0442126231
746.25 0.01113760385 0.0800387537
746.875 0.05050028984 0.04364145198
747.5 0.03763932679 0.001069743664
748.125 0.0218435218 -0.001851515016
748.75 0.01926686095 0.02179320075
749.375 0.02240730463 -0.03733381141
750.0 -0.01529393225 -0.02608443839
