!Created with skrf (http://scikit-rf.org).
# GHz S RI R 50.0 
!freq ReS11 ImS11
500.0 -0.006827709555 0.02487340352
500.625 0.01895082841 0.03055722218
501.25 0.03004745347 0.01763569815
501.875 0.02264512304 0.0148972425
502.5 0.01827059658 0.03102193387
503.125 0.03064295926 0.03425417402
503.75 0.04519618137 0.02131866963
504.375 0.0408367679 -0.004420203527
505.0 0.03360787573 -0.03306375371
505.625 0.05319635611 -0.04666213715
506.25 0.05134222853 -0.04891995264
506.875 0.04804553711 -0.06540495524
507.5 0.04267306072 -0.04503019469
508.125 0.06561620772 -0.02825392363
508.75 0.03655063698 -0.05987661382
509.375 0.02253173591 -0.05098368539
510.0 0.06598772279 -0.03915289971
510.625 -0.0139909618 -0.06308937209
511.25 -0.03341936506 -0.05430567785
511.875 -0.05157993665 0.001462805981
512.5 -0.03087415658 0.01938447963
513.125 -0.01890529291 0.03210059538
513.75 -0.0167308187 0.04172017291
514.375 0.004498412393 0.05231316513
515.0 0.02913405985 0.06959254356
515.625 -0.05323941509 0.1044297108
516.25 0.04454847565 0.08791978127
516.875 -0.02292570121 0.1151180545
517.5 0.04826286369 0.1005325024
518.125 -0.06535082675 0.1258854517
518.75 0.04492416687 0.03693553808
519.375 0.02726322728 0.05800525647
520.0 0.05571751636 0.05924165517
520.625 0.06637657931 0.05638747663
521.25 0.06588061929 -0.002128491151
521.875 0.04397784273 0.03590277468
522.5 0.07038450942 -0.001481057379
523.125 0.1294396516 -0.0141396502
523.75 0.1071336042 -0.07660366471
524.375 0.07781768026 -0.03335382488
525.0 0.01111033751 -0.009672366844
525.625 0.009901717521 0.02319697643
526.25 0.014962819 0.02942031732
526.875 0.01993466293 0.02351535053
527.5 0.02432441786 0.01766781316
528.125 0.05074277038 0.001225707894
528.75 0.03459477961 -0.02482700807
529.375 0.01950251597 -0.0385704962
530.0 0.01781252306 -0.02651273148
530.625 0.001008365672 -0.07304086547
531.25 0.00312027374 -0.1523166742
531.875 -0.05855835341 -0.1285214603
532.5 -0.09243115351 -0.07150958866
533.125 -0.09202176737 -0.05538458049
533.75 -0.07463183551 -0.0318921748
534.375 -0.06566946698 -0.02470630633
535.0 -0.06328675007 -0.001943841398
535.625 -0.04520117974 -0.03806292083
536.25 -0.03515813626 -0.02459654534
536.875 -0.04345567449 -0.05555694762
537.5 -0.05018716298 -0.07906706978
538.125 -0.07729691743 -0.05141712273
538.75 -0.06162533713 -0.0234534619
539.375 -0.03733571748 -0.03806538439
540.0 -0.05199611181 -0.07261338814
540.625 -0.07355929675 -0.1033238868
541.25 -0.05033073743 -0.0812003432
541.875 -0.05376572358 -0.07644298595
542.5 -0.05892850113 -0.08905157765
543.125 -0.1064098276 -0.06077095069
543.75 -0.09748081715 0.02831750157
544.375 -0.05157802639 0.04616582653
545.0 -0.01429274125 0.05956129928
545.625 -0.009330430379 0.0733233331
546.25 0.02406939133 0.05822924561
546.875 0.02792751537 0.06054335809
547.5 0.03071825705 0.0802228839
548.125 0.01224929035 0.08102023241
548.75 0.002514695379 0.07152730579
549.375 -0.003057847952 0.06404985187
550.0 -0.0235569073 0.03790025279
550.625 -0.02623004207 0.01345898576
551.25 -0.00539659794 -0.02144038421
551.875 -0.03559495847 -0.03590204971
552.5 -0.0721532778 -0.03868889755
553.125 -0.07598041988 -0.01345451171
553.75 -0.06971078381 -0.01613027613
554.375 -0.08079454314 0.007095933248
555.0 -0.08571722496 0.0306502612
555.625 -0.07658803722 0.04382236335
556.25 -0.07624575319 0.02561097219
556.875 -0.09013264909 0.0263379641
557.5 -0.08345651493 0.03775124693
558.125 -0.07681417928 0.03544693944
558.75 -0.05650684809 0.01507366267
559.375 -0.03541621747 0.009763840138
560.0 -0.02532609315 0.00269239808
560.625 -0.0432713411 -0.01684009896
561.25 -0.04266617091 -0.03082628255
561.875 -0.06785550618 -0.01493495002
562.5 -0.06643195544 0.02675194887
563.125 -0.06059965424 0.07234585166
563.75 -0.04338707711 0.07658193061
564.375 -0.01754135085 0.0794435519
565.0 -0.01094064757 0.08069239791
565.625 -0.002262878116 0.07874228802
566.25 -0.02787615559 0.03692474081
566.875 -0.0477167797 0.02956972738
567.5 -0.05843735984 0.02789780431
568.125 -0.06397299733 0.02056150542
568.75 -0.05323017735 0.01419400852
569.375 -0.02984377256 -0.005150840671
570.0 -0.02464511377 -0.02535941208
570.625 -0.04693004698 -0.03551183812
571.25 -0.03646930482 -0.03126833714
571.875 -0.05461893871 -0.02456238358
572.5 -0.0847011648 -0.003044878381
573.125 -0.1061060368 0.03501911221
573.75 -0.05715906738 0.07353597458
574.375 -0.02576229832 0.06738818354
575.0 -0.0309907195 0.06547260547
575.625 -0.04312973518 0.0802844712
576.25 -0.0311790721 0.06160181512
576.875 -0.01240718201 0.07025590982
577.5 0.002478407136 0.06860584972
578.125 -0.006267966197 0.06908007029
578.75 -0.006512683677 0.03836526757
579.375 -0.00803241274 0.03931219053
580.0 -0.00916499795 0.03907016969
580.625 -0.02595511209 0.01760043852
581.25 -0.04845457231 0.01239653668
581.875 -0.06505696458 0.03233181304
582.5 -0.07211985287 0.046531996
583.125 -0.05615418891 0.05244689989
583.75 -0.05169495133 0.05007524901
584.375 -0.0659336246 0.02025308713
585.0 -0.07060668649 0.008069589076
585.625 -0.06013712415 0.0327822312
586.25 -0.05390600075 0.03073366884
586.875 -0.05801351028 0.01239722707
587.5 -0.05567770113 0.02303962819
588.125 -0.02527517031 0.05035698955
588.75 -0.008861446357 0.05101646477
589.375 -0.02911930055 0.02635713244
590.0 -0.04677440424 0.01845442709
590.625 -0.03960603393 0.04889509686
591.25 -0.01641892776 0.08097688116
591.875 -0.03705899513 0.08390669475
592.5 -0.0042804055 0.0751543967
593.125 0.004892768617 0.05763369151
593.75 0.008839048189 0.06501643932
594.375 -0.0330922979 0.0461648379
595.0 -0.03668855103 0.02335417288
595.625 -0.02810675474 0.005016351172
596.25 -0.03663675125 0.009875732643
596.875 -0.03206409274 -0.02506497159
597.5 -0.03571639488 -0.02104905095
598.125 -0.02772068113 -0.01301305508
598.75 -0.01717752344 -0.019810742
599.375 -0.01649276876 -0.03502046624
600.0 -0.02524168211 -0.05221292822
600.625 -0.03189705677 -0.06790014203
601.25 -0.05158613632 -0.05015866525
601.875 -0.05359139067 -0.05068161271
602.5 -0.05886179803 -0.04024298446
603.125 -0.05201891946 -0.03928637986
603.75 -0.04346887405 -0.01411697328
604.375 -0.02081123582 -0.0197204891
605.0 -0.01316583164 -0.03472124461
605.625 -0.01072617036 -0.05245999629
606.25 -0.0137203007 -0.04215214624
606.875 -0.02005383431 -0.01994347617
607.5 0.01196458618 -0.01702981544
608.125 0.01294490363 -0.01418160509
608.75 0.008369797565 -0.01023622334
609.375 0.02921033539 -0.017320747
610.0 0.04252191588 -0.01332806025
610.625 0.04883445896 -0.02121533486
611.25 0.04888108099 -0.02954724465
611.875 0.04192400107 -0.02679997247
612.5 0.04654877689 -0.01122638749
613.125 0.03417911166 -0.003261327605
613.75 0.0178656607 0.00785629243
614.375 0.008053699038 0.0115543835
615.0 0.05245259598 0.02947853135
615.625 0.03110136354 0.01039155056
616.25 0.009854542742 0.01464598669
616.875 0.01096375348 0.02887049305
617.5 0.05183490342 0.04840497027
618.125 0.04205892718 0.03625002126
618.75 0.02711021566 0.03392610613
619.375 0.01047901948 0.03064500137
620.0 0.05238975447 0.04557994353
620.625 0.05513618123 0.0150346293
621.25 0.02552930568 -0.005146037051
621.875 -0.01518903667 -0.02425634378
622.5 -0.003454790884 0.01303543953
623.125 -0.01429884067 0.0364741426
623.75 -0.01202635219 0.05774767519
624.375 -0.0385680418 0.04239389978
625.0 -0.03760616763 0.04197634443
625.625 -0.04282004245 0.05158271146
626.25 -0.02936734659 0.0661361057
626.875 -0.01287724915 0.06472450763
627.5 -0.01456463325 0.04286296621
628.125 -0.01975744451 0.04590480778
628.75 -0.02668913069 0.03861207546
629.375 -0.01954678875 0.01833171726
630.0 -0.01383128051 -0.006109475727
630.625 -0.01031874787 -0.009152167638
631.25 -0.002096928784 -0.0353860525
631.875 -0.009286962624 -0.03874190711
632.5 -0.01676346407 -0.05209537083
633.125 -0.03218712705 -0.0482504043
633.75 -0.04296832448 -0.03829912736
634.375 -0.03936365062 -0.05072711857
635.0 -0.04441529589 -0.0640374793
635.625 -0.05774154801 -0.03019572431
636.25 -0.03944072006 -0.02029397532
636.875 -0.02530801924 -0.03707624507
637.5 -0.03344848095 -0.05599337422
638.125 -0.04071411152 -0.05164843013
638.75 -0.0400895692 -0.01647223949
639.375 -0.01617941949 -0.01291660897
640.0 0.03704354871 -0.02546563865
640.625 0.06002964914 -0.02794472855
641.25 0.02186524526 -0.04366527742
641.875 0.03114973801 -0.03705446067
642.5 0.05073766004 -0.01166198465
643.125 0.05812126019 5.504935219e-05
643.75 0.055061812 -0.01255709353
644.375 0.04675152429 -0.02255731271
645.0 0.04445924073 -0.011045191
645.625 0.05180979716 0.007958871006
646.25 0.04198363737 -0.001713798994
646.875 0.06395855035 0.003136094378
647.5 0.06190311209 -0.003580851263
648.125 0.06375744721 0.01376508195
648.75 0.04674658574 0.02674515159
649.375 0.05371952012 0.05788290204
650.0 0.05412438965 0.05707222444
650.625 0.04482921346 0.06158389353
651.25 0.02962035217 0.07001969914
651.875 -0.01167141124 0.07116231424
652.5 -0.01819563214 0.05606869029
653.125 -0.01852129316 0.04699601504
653.75 -0.01825038966 0.02916393026
654.375 -0.01708096805 -0.007574356732
655.0 -0.02799869058 -0.03436501413
655.625 -0.05964802824 -0.04994044657
656.25 -0.06995718549 -0.03881938124
656.875 -0.07632127206 -0.02417458339
657.5 -0.07983212727 -0.03555132363
658.125 -0.094810635 -0.0385196181
658.75 -0.1197377355 -0.02145055429
659.375 -0.08070039428 0.03166956915
660.0 -0.047458357 0.04846657964
660.625 -0.05156638801 0.0480415878
661.25 -0.06276654256 0.03889006987
661.875 -0.01140759228 0.03367065849
662.5 -0.02344594839 0.02985786003
663.125 -0.0536334145 0.02485505534
663.75 -0.07335053577 -0.01409373622
664.375 -0.05300422621 -0.04335286937
665.0 -0.04030797749 -0.0829456651
665.625 -0.01093586585 -0.1171694934
666.25 0.008337702422 -0.07703374143
666.875 0.02252594367 -0.07841066979
667.5 0.03282327804 -0.08565979145
668.125 0.05393680313 -0.08057532946
668.75 0.01230166019 -0.04009591851
669.375 0.03689319633 -0.03588207051
670.0 0.05835299146 -0.0431199188
670.625 0.07194419134 -0.03417155491
671.25 0.04957425963 -0.0462656223
671.875 0.05136637838 -0.05033253896
672.5 0.03965428147 -0.08120774168
673.125 0.01428186376 -0.1030568866
673.75 -0.011898524 -0.07710067918
674.375 0.009769907847 -0.07845593377
675.0 0.03718215126 -0.06403631169
675.625 0.05727870322 -0.04532446073
676.25 0.04452708545 -0.02368663482
676.875 0.06028085674 -0.001589059422
677.5 0.03803515186 0.02173950041
678.125 0.03869736893 0.03584425525
678.75 0.05906703763 0.0593456706
679.375 0.06641264997 0.08454589462
680.0 0.06546702486 0.08179721768
680.625 0.08287976637 0.04815636004
681.25 0.1133035644 0.01296189011
681.875 0.09749553736 -0.008299563482
682.5 0.08416618479 -0.04270476376
683.125 0.06744150675 -0.04966902542
683.75 0.0709206289 -0.02202850338
684.375 0.07417429582 0.03772585085
685.0 0.01697685912 0.04781660601
685.625 -0.02440039247 0.05440467346
686.25 -0.05729792235 0.02302949148
686.875 -0.0855004857 -0.008199152094
687.5 -0.08707067831 -0.02991914828
688.125 -0.1169692533 -0.03972435497
688.75 -0.1146617472 -0.05896980311
689.375 -0.09790997049 -0.04644265012
690.0 -0.07017441008 -0.0347347957
690.625 -0.08536530817 -0.03594328887
691.25 -0.1003968084 -0.01760659934
691.875 -0.06047866117 0.03340347584
692.5 -0.02263671505 0.01742762939
693.125 -0.01887284797 0.06737673703
693.75 0.01163595027 0.1176462407
694.375 0.0253071852 0.09482079445
695.0 0.006706587345 0.1047536364
695.625 -0.07680166584 0.0559944808
696.25 -0.09855339681 -0.04019122291
696.875 -0.04307408391 -0.09860930476
697.5 0.01623739475 -0.1076955595
698.125 0.03704683096 -0.07551567084
698.75 0.03327774189 -0.04441135615
699.375 0.04584241125 -0.04654599031
700.0 0.07297421046 -0.03574269345
700.625 0.06759388286 0.01772336244
701.25 0.05478369053 0.02943327554
701.875 0.09156013503 0.01290815708
702.5 0.1214078224 -0.06573868658
703.125 0.07707927048 -0.07408981838
703.75 -0.03081818788 -0.08733992352
704.375 -0.06156673953 -0.04615876123
705.0 -0.04989119074 -0.07480850341
705.625 -0.003731762788 -0.09268317887
706.25 0.03905093516 -0.04603487477
706.875 0.05213878129 0.01142708032
707.5 0.03307929121 0.05741352859
708.125 -0.002949755003 0.09012347212
708.75 -0.06507205307 0.07062029128
709.375 -0.08667263194 0.02947237237
710.0 -0.07907057159 -0.01254752163
710.625 -0.08094257704 -0.02751002663
711.25 -0.06344382912 -0.07874853437
711.875 -0.09505113416 -0.0610218997
712.5 -0.08510244861 -0.001964884935
713.125 -0.03482433436 0.05769632281
713.75 -0.03723482889 0.03678554516
714.375 -0.02928834036 0.06288927019
715.0 -0.01927298515 0.05694985746
715.625 -0.01092790015 0.06254730386
716.25 -0.04021861561 0.07653146496
716.875 -0.1118108379 0.04570554389
717.5 -0.09527812875 -0.027441977
718.125 -0.07500896608 -0.03136683249
718.75 -0.07805937378 -0.01817981002
719.375 -0.03224335181 -0.08733746422
720.0 -0.007483576303 -0.08548724246
720.625 0.03869961005 -0.05799763785
721.25 0.05721259298 -0.01443491349
721.875 -0.001107200859 0.03313089122
722.5 -0.04456825055 0.03745971775
723.125 -0.04135285151 0.06524754523
723.75 0.03133554082 0.07441197703
724.375 0.06831709026 0.0674787767
725.0 0.08889828804 -0.01297368505
725.625 0.06251744816 -0.04903311635
726.25 0.06187503494 -0.04917940629
726.875 0.04665586487 -0.03751230225
727.5 0.04616711463 -0.01017816119
728.125 0.04056811919 0.05032137131
728.75 0.0288381613 0.05698966674
729.375 0.0369037846 0.01636118577
730.0 0.04644666976 0.0536796105
730.625 0.02620971009 0.04315226807
731.25 -0.004554070838 0.04475910052
731.875 -0.02773542667 0.03372649564
732.5 -0.05531015386 0.009501512554
733.125 -0.06177030834 -0.02048200438
733.75 -0.03885970944 -0.0007800946494
734.375 -0.006697358057 0.01100399252
735.0 -0.07154443334 -0.02579150091
735.625 -0.05809423526 -0.004865675359
736.25 -0.03786539394 -0.005096316786
736.875 -0.02870561958 -0.0222347714
737.5 -0.1032342519 -0.02801002925
738.125 -0.07040808801 -0.02166706023
738.75 -0.05148567671 -0.009443260526
739.375 -0.01945790051 -0.007402714869
740.0 -0.005849819934 -0.02625733049
740.625 -0.0410174062 -0.03589297505
741.25 -0.04519454595 -0.02624890496
741.875 0.003362458128 -0.03633536169
742.5 0.015472776 0.01677275284
743.125 0.03136123544 0.04189990837
743.75 0.005496810057 0.04509811702
744.375 -0.02262897081 0.02030874022
745.0 -0.0468373508 0.02119502308
745.625 -0.02947823286 0.06560958824
746.25 0.03104833679 0.08353029574
746.875 0.05902275058 0.04343864321
747.5 0.02956325577 0.01543486005
748.125 0.0353197922 -0.008772953904
748.75 0.02423693443 -0.00429358117
749.375 0.0150524826 -0.03184084138
750.0 -0.006979313031 -0.02521171867
