!Created with skrf (http://scikit-rf.org).
# GHz S RI R 50.0 
!freq ReS11 ImS11
500.0 -0.01988637807 0.0257332472
500.625 0.03494188723 0.01691495129
501.25 0.03688273834 0.005539359841
501.875 0.02750656389 0.0149081338
502.5 0.005421793017 0.04740214411
503.125 0.02986691461 0.03350699421
503.75 0.04277058727 0.01568216479
504.375 0.04593241841 0.001028670246
505.0 0.04816382789 -0.02202803146
505.625 0.05230351449 -0.04629432198
506.25 0.02772284579 -0.05807260342
506.875 0.05465211794 -0.04974452501
507.5 0.02377397502 -0.06808540863
508.125 0.06486920093 -0.03655135122
508.75 0.03034478039 -0.06435036473
509.375 0.04713842828 -0.04932951959
510.0 0.02970445851 -0.06118505892
510.625 -0.01714437689 -0.06219489841
511.25 -0.04004202523 -0.05275239271
511.875 -0.04896178475 -0.008116596532
512.5 -0.03409770158 0.009875249787
513.125 -0.01774909171 0.03209704635
513.75 -0.00946122048 0.04374156599
514.375 -0.01548034172 0.06370683283
515.0 0.02816240156 0.0671192072
515.625 -0.02243682316 0.08605210932
516.25 0.03857635403 0.09448401505
516.875 -0.05277247484 0.1303993461
517.5 0.07658973586 0.08614055253
518.125 -0.02087125673 0.1364330007
518.75 0.02851439744 0.04635033091
519.375 0.008740946169 0.07504545111
520.0 0.05624587571 0.05818651653
520.625 0.06272836764 0.03311038298
521.25 0.06396440195 0.02420587025
521.875 0.04030200536 0.05481424451
522.5 0.06973324939 -0.01162330157
523.125 0.1149702295 -0.04625211866
523.75 0.1075852625 -0.08647176929
524.375 0.07910009654 0.002701162113
525.0 0.009569086401 -0.008423463542
525.625 0.006650535989 0.02387700013
526.25 0.0119604947 0.04217751064
526.875 0.02180305938 0.02699201988
527.5 0.02475374579 0.01676652417
528.125 0.03966879316 0.003703983221
528.75 0.05737690103 -0.01255001761
529.375 0.03985671779 -0.04095026572
530.0 0.0160244391 -0.02247339294
530.625 0.003000350817 -0.06444954106
531.25 0.005192307984 -0.1787140151
531.875 -0.06055334816 -0.1304896684
532.5 -0.09012393671 -0.06965322546
533.125 -0.07729221513 -0.0497618553
533.75 -0.07621041332 -0.05218398708
534.375 -0.07315885854 -0.03709838466
535.0 -0.06390821719 -0.007279229543
535.625 -0.03134226121 -0.02612513597
536.25 -0.03708531016 -0.03429024057
536.875 -0.03627923579 -0.04208552598
537.5 -0.04671564973 -0.07775236314
538.125 -0.07358144022 -0.04504370793
538.75 -0.06379229369 -0.0315926387
539.375 -0.03860124182 -0.03451476872
540.0 -0.0490153899 -0.0746171866
540.625 -0.06378038009 -0.09119597535
541.25 -0.05261849792 -0.09409892113
541.875 -0.04134751037 -0.05736984332
542.5 -0.05324922632 -0.0827146666
543.125 -0.1000775391 -0.05743297569
543.75 -0.1026533306 0.0225166034
544.375 -0.06412138648 0.04290941439
545.0 -0.01829030713 0.056963246
545.625 -0.007358198857 0.05705463666
546.25 0.02125456209 0.06731788999
546.875 0.02969196703 0.07783839644
547.5 0.02489057023 0.07758509467
548.125 0.01643190115 0.07233840151
548.75 -0.003284080669 0.08132640468
549.375 -0.009651785621 0.0741940262
550.0 -0.02954388549 0.03554399843
550.625 -0.01590461381 0.003362469276
551.25 -0.01672404657 -0.02490839073
551.875 -0.05299015614 -0.03591802512
552.5 -0.07057595884 -0.03883182178
553.125 -0.07312427839 -0.0173139621
553.75 -0.07898737192 -0.01857886978
554.375 -0.09617988282 0.01485696955
555.0 -0.08606906861 0.02856661849
555.625 -0.06501857068 0.03062269078
556.25 -0.07361461015 0.02485384354
556.875 -0.09946218387 0.03013212706
557.5 -0.07407825369 0.03434967457
558.125 -0.07283388104 0.03255312983
558.75 -0.06645872018 0.01390346017
559.375 -0.04824310242 0.006021604082
560.0 -0.02427501078 0.0009192280515
560.625 -0.02645823039 -0.02753889095
561.25 -0.06012687621 -0.02913053492
561.875 -0.07902048144 -0.0133926292
562.5 -0.06191352122 0.0151551214
563.125 -0.06510463077 0.05767849047
563.75 -0.04951760878 0.08735721565
564.375 -0.0207332627 0.08913261539
565.0 -0.01224908229 0.07795608893
565.625 -0.009595730747 0.06213168301
566.25 -0.03619239892 0.05341769407
566.875 -0.0557215651 0.03930016805
567.5 -0.04556158895 0.01463876415
568.125 -0.05595883956 0.01487951746
568.75 -0.0471221351 0.0111951555
569.375 -0.03554784539 -0.006940629609
570.0 -0.01653843492 -0.02695459766
570.625 -0.03000130588 -0.04298632319
571.25 -0.04043273927 -0.03124919549
571.875 -0.06018744266 -0.01850526094
572.5 -0.07372532873 -0.02066989172
573.125 -0.100673361 0.02495049036
573.75 -0.05567972937 0.06689662241
574.375 -0.02063354045 0.07764247572
575.0 -0.04134511137 0.04971373642
575.625 -0.0497711369 0.05887443582
576.25 -0.03005278268 0.07382783928
576.875 -0.004282246332 0.07937490429
577.5 -0.005140343616 0.06711344681
578.125 -0.01462119182 0.04920713646
578.75 -0.008475114803 0.04046575523
579.375 -0.001576139875 0.04978178641
580.0 -0.01626265774 0.01857546255
580.625 -0.02819720172 0.009670650648
581.25 -0.04865506136 0.006815815708
581.875 -0.06312465599 0.03641980743
582.5 -0.07207843599 0.04015202266
583.125 -0.05809600903 0.0501828396
583.75 -0.05620514104 0.04047615881
584.375 -0.06564336501 0.02767616041
585.0 -0.07706066907 0.02056788783
585.625 -0.05980435158 0.02923276904
586.25 -0.05115587763 0.02436810474
586.875 -0.05911029091 0.01987608358
587.5 -0.05404172511 0.01465651474
588.125 -0.02699029134 0.04659218595
588.75 -0.01528020692 0.0474568406
589.375 -0.02562584576 0.03239328959
590.0 -0.03568941257 0.02768195185
590.625 -0.04252484854 0.0512765419
591.25 -0.03250438922 0.08132735563
591.875 -0.01987844829 0.09261042524
592.5 0.008591729698 0.07785694437
593.125 0.004969066834 0.05840059815
593.75 -0.006662145791 0.0682903884
594.375 -0.02830369388 0.05177197726
595.0 -0.02929734815 0.03289048283
595.625 -0.03138017487 0.006125831641
596.25 -0.03847120019 -0.01520992287
596.875 -0.03511764646 -0.01663515617
597.5 -0.03757958806 -0.004192689474
598.125 -0.02590463353 -0.01802993255
598.75 -0.01636179671 -0.02748817255
599.375 -0.01362878499 -0.02968621532
600.0 -0.0189984588 -0.05732502656
600.625 -0.03028437026 -0.07488041975
601.25 -0.04857824766 -0.06159081603
601.875 -0.05607098157 -0.04350917067
602.5 -0.05997443224 -0.02186879929
603.125 -0.0517456019 -0.03686783306
603.75 -0.02793197029 -0.03653479709
604.375 -0.01684115209 -0.02433222445
605.0 -0.01844095109 -0.019893198
605.625 -0.001894368136 -0.052129887
606.25 -0.006933139564 -0.0433883569
606.875 -0.01019961958 -0.01591369173
607.5 0.003325293237 -0.009495268441
608.125 0.0353687427 -0.02501074816
608.75 0.02839393391 -0.03161027835
609.375 0.03425027272 -0.02018731735
610.0 0.02357041758 -0.003607723096
610.625 0.0603889575 -0.01770484217
611.25 0.05394960708 -0.0279007822
611.875 0.05135507241 -0.02024177394
612.5 0.03603479418 -0.01883099983
613.125 0.01368210725 -0.01314273308
613.75 0.02112527396 0.007315993187
614.375 0.03995053998 0.02504687536
615.0 0.03036958821 0.01491372664
615.625 0.009531685406 0.00438330204
616.25 0.03386948265 0.02677912051
616.875 0.03978978141 0.03913583334
617.5 0.0304606014 0.03419493608
618.125 0.02056079689 0.02185327081
618.75 0.03963203763 0.0387710741
619.375 0.03817513314 0.04967352312
620.0 0.03916719539 0.03542869261
620.625 0.03501019127 0.006838401841
621.25 0.02470629111 -0.003054361214
621.875 0.0104746251 -0.009812404778
622.5 -0.02708781946 0.007350259567
623.125 -0.04253698069 0.04167902082
623.75 0.001750787349 0.0627692316
624.375 -0.01376350578 0.05837129526
625.0 -0.03397906534 0.04322199852
625.625 -0.06262370245 0.03506801585
626.25 -0.02847874536 0.08259583826
626.875 -0.01194029099 0.06842672876
627.5 -0.01385478937 0.05095887686
628.125 -0.02222791546 0.0292764454
628.75 -0.03077067414 0.02600678825
629.375 -0.01982581066 0.0181320716
630.0 -0.008193227016 0.01368450854
630.625 -0.004306043286 -0.01815045759
631.25 -0.02088739135 -0.01552968682
631.875 -0.01203612204 -0.03684260631
632.5 -0.02532330429 -0.04796130501
633.125 -0.01801094153 -0.05845852182
633.75 -0.02444519626 -0.05772319061
634.375 -0.03471243359 -0.05064074519
635.0 -0.05514388689 -0.03645589475
635.625 -0.05898281975 -0.02896230049
636.25 -0.03651820174 -0.0377091714
636.875 -0.03374084839 -0.02753110706
637.5 -0.03197245675 -0.05407707155
638.125 -0.0381670469 -0.04746107691
638.75 -0.03110743275 -0.02260023883
639.375 0.007075980868 -0.02431681736
640.0 0.03695140866 -0.02376969489
640.625 0.04897807965 -0.02467712419
641.25 0.04502622085 -0.03474737473
641.875 0.04678193336 -0.02964552787
642.5 0.05018039878 -0.01549726634
643.125 0.05549157409 -0.005665698259
643.75 0.06105605235 -0.001119289995
644.375 0.05572229853 -0.02377267904
645.0 0.04175009165 -0.009399903129
645.625 0.03765461154 0.008248006451
646.25 0.04985686767 0.01481425934
646.875 0.07878681142 0.02335608009
647.5 0.05866251085 0.00220689268
648.125 0.04385708601 0.009616914936
648.75 0.0485067982 0.04192782214
649.375 0.05912048042 0.07973285079
650.0 0.05240491788 0.04900932663
650.625 0.04477338268 0.0527485895
651.25 0.02864338733 0.06649740783
651.875 -0.02571877885 0.07837016408
652.5 -0.009329477082 0.05634676987
653.125 -0.01466526722 0.04405561186
653.75 -0.02722215646 0.01925260941
654.375 -0.03047037674 -0.025964894
655.0 -0.02488980576 -0.03679887775
655.625 -0.03966854991 -0.04123717367
656.25 -0.06831909872 -0.04090701355
656.875 -0.0868309331 -0.03322070274
657.5 -0.06619070944 -0.0257470248
658.125 -0.09251982899 -0.04046205444
658.75 -0.1143801726 -0.02627553918
659.375 -0.08679712932 0.025070126
660.0 -0.06909890839 0.04394319673
660.625 -0.05082492435 0.04083369163
661.25 -0.05076146601 0.02941557364
661.875 -0.03186311738 0.03671527894
662.5 -0.0334988491 0.03613106103
663.125 -0.05154989416 0.02064188187
663.75 -0.07008436144 -0.01828515861
664.375 -0.05643210891 -0.05217615919
665.0 -0.02646285404 -0.05987901246
665.625 0.002456606451 -0.09182940688
666.25 0.02178755578 -0.09041787457
666.875 0.03479679857 -0.09382607141
667.5 0.03054090681 -0.07376875639
668.125 0.03521028062 -0.05856829551
668.75 0.0297758494 -0.04667302962
669.375 0.04607739889 -0.04284107972
670.0 0.04315452231 -0.02699326144
670.625 0.05610286265 -0.02796408706
671.25 0.0450854238 -0.03767991485
671.875 0.06120013651 -0.0555442221
672.5 0.04045318862 -0.08499909266
673.125 0.01684828698 -0.09006680315
673.75 -0.006525460388 -0.09900556676
674.375 0.01647792651 -0.09555804472
675.0 0.04172981605 -0.05759037726
675.625 0.04517536452 -0.03344846243
676.25 0.06360667798 -0.02408330213
676.875 0.07899143313 9.334578387e-05
677.5 0.02806505138 0.02538471292
678.125 0.02618333685 0.03908057001
678.75 0.05028645807 0.05930849388
679.375 0.07647334757 0.09294333512
680.0 0.05551164205 0.0700473924
680.625 0.07780988041 0.05160753426
681.25 0.09866599015 0.02549941318
681.875 0.1193193922 -0.0060389369
682.5 0.09759847575 -0.04213526043
683.125 0.04513178101 -0.03519968702
683.75 0.057179261 -0.01253729596
684.375 0.06070303723 0.03673415479
685.0 0.01868748918 0.05768895165
685.625 -0.02429726018 0.02878459015
686.25 -0.05959065896 0.01516950105
686.875 -0.08159536693 -0.01790135378
687.5 -0.09445798897 -0.03207236767
688.125 -0.09688467204 -0.04934553449
688.75 -0.1066184503 -0.06412162586
689.375 -0.09317879368 -0.05164519274
690.0 -0.08472024476 -0.040247009
690.625 -0.106190026 -0.03925066908
691.25 -0.09002418806 -0.02611899202
691.875 -0.04461923613 0.01861786771
692.5 -0.03102180849 0.03585316471
693.125 -0.0105058607 0.08053051733
693.75 -0.01371375642 0.1001812302
694.375 0.01739077982 0.09344397384
695.0 -0.0002302784837 0.1040031873
695.625 -0.08239313766 0.07600236325
696.25 -0.1172744775 -0.03594815714
696.875 -0.02979032235 -0.09604510882
697.5 0.02755432041 -0.09041412509
698.125 0.0408728497 -0.06756456882
698.75 0.03489210157 -0.05644252453
699.375 0.05086516512 -0.04043409008
700.0 0.07438512143 -0.02804562457
700.625 0.07348622607 0.01746126158
701.25 0.06250458812 0.02162273063
701.875 0.08999726728 0.0181444849
702.5 0.1292470687 -0.0419793547
703.125 0.08508802768 -0.09527858934
703.75 -0.04181727685 -0.09434814138
704.375 -0.03396747709 -0.05071616326
705.0 -0.03516706537 -0.07422607229
705.625 0.006390296274 -0.08701192033
706.25 0.04142237646 -0.05048380714
706.875 0.04628446874 0.01487937499
707.5 0.0283151801 0.06531451569
708.125 -0.02276621277 0.08871591439
708.75 -0.0631651697 0.07938222854
709.375 -0.08430880554 0.03853515515
710.0 -0.07830986769 -0.01473799255
710.625 -0.06870115703 -0.05159555643
711.25 -0.07885081352 -0.07284719134
711.875 -0.06744529782 -0.06544751243
712.5 -0.07788135805 -0.005990226085
713.125 -0.03921607678 0.05073003065
713.75 -0.02086994321 0.05075856587
714.375 -0.004688956975 0.07155926683
715.0 -0.03144128447 0.0534633214
715.625 -0.03483716905 0.06131655821
716.25 -0.05758053358 0.06891916043
716.875 -0.09802563008 0.05800685283
717.5 -0.09180397299 -0.01865138938
718.125 -0.07537668402 -0.03406327758
718.75 -0.06986935179 -0.0519059507
719.375 -0.04617178961 -0.07443015563
720.0 -0.02506224138 -0.07915618821
720.625 0.05773444922 -0.02893597658
721.25 0.04750985413 0.01977733906
721.875 0.005384771827 0.03306582437
722.5 -0.04087593894 0.02730809532
723.125 -0.04993810138 0.06185089901
723.75 0.006650357425 0.0979510326
724.375 0.07142165717 0.04413444404
725.0 0.06372315521 -0.0245193464
725.625 0.09394551053 -0.0223431923
726.25 0.0675309992 -0.03982060872
726.875 0.0496344515 -0.02575502132
727.5 0.03149484997 -0.02561537644
728.125 0.02947587474 0.04513736267
728.75 0.01569232228 0.06053413253
729.375 0.04011806761 0.04311592846
730.0 0.04034805308 0.02499019499
730.625 0.01649274361 0.01336469025
731.25 -0.03213509675 0.0684203578
731.875 -0.06028609474 0.03821213317
732.5 -0.06200687764 -9.99628052e-05
733.125 -0.05143290255 -0.01072588155
733.75 -0.05525451056 -0.03833163612
734.375 -0.04694981013 -0.020201207
735.0 -0.03710997086 -0.01096365208
735.625 -0.01913917139 -0.002773437392
736.25 -0.05531273637 0.0002438379632
736.875 -0.07523810851 -0.009367919492
737.5 -0.06929516824 -0.02117380916
738.125 -0.04369728089 -0.0139671044
738.75 -0.0755314053 -0.0375788473
739.375 -0.04117136953 -0.03869373346
740.0 -0.009691314175 -0.04732935917
740.625 -0.02386052368 -0.02909518117
741.25 -0.02971764989 -0.02946666167
741.875 0.0007451522885 -0.03368037619
742.5 0.04688668105 -0.01307563843
743.125 0.009884241028 0.03169209593
743.75 -0.01650694475 0.03163544968
744.375 -0.02423763758 0.02797404806
745.0 -0.04002205199 0.02409809427
745.625 -0.04150429879 0.05319041159
746.25 -0.005440350256 0.07015923321
746.875 0.06148130296 0.04470054102
747.5 0.05067204111 -0.001687014827
748.125 0.02945309229 -0.004108506775
748.75 0.01701431523 0.01649443349
749.375 0.0216959353 -0.02125213045
750.0 -0.006504240264 -0.02551843703
