!Created with skrf (http://scikit-rf.org).
# GHz S RI R 50.0 
!freq ReS11 ImS11
500.0 -0.002849896088 0.01342578174
500.625 0.02091300097 0.007753072311
501.25 0.0207425476 -0.01598059014
501.875 0.009984011256 -0.02677800886
502.5 0.00802804058 -0.003617636132
503.125 0.01339148375 0.0007258961482
503.75 0.01359915541 -0.01745180612
504.375 0.008596049462 -0.02914550747
505.0 0.004900621165 -0.03067814445
505.625 -0.0004013226533 -0.04519265757
506.25 -0.02446896568 -0.06057753709
506.875 -0.01238803994 -0.09392541575
507.5 -0.03007771937 -0.06718110807
508.125 -0.01152884797 -0.07705696002
508.75 -0.06926188143 -0.07350208077
509.375 -0.06782921945 -0.05033715013
510.0 -0.04096602241 -0.04878626648
510.625 -0.05089504139 0.003426243345
511.25 -0.07742513837 0.01466576065
511.875 -0.05185314814 0.04913739856
512.5 -0.002962595138 0.05242195088
513.125 0.06516515397 0.03611490196
513.75 0.08826068042 0.0266687069
514.375 0.07008310549 -0.001431562733
515.0 0.06161953983 -0.03181704398
515.625 0.09999972803 0.01896734807
516.25 0.1056427936 -0.006170878183
516.875 0.08191570128 0.08597912882
517.5 0.1284417576 -0.01039390921
518.125 0.1720358611 0.1704308176
518.75 0.1163500492 -0.02838792666
519.375 0.08280360729 -0.01215761386
520.0 0.07642597411 -0.06218018395
520.625 0.104914469 -0.07986687361
521.25 0.06813331956 -0.08773349128
521.875 0.06067178987 -0.03827448104
522.5 0.036077691 -0.09621894996
523.125 0.109811951 -0.2187301538
523.75 0.05730118202 -0.2863438377
524.375 0.04637049513 -0.2825053916
525.0 0.01800784496 -0.1343995196
525.625 0.02098851748 -0.09697833527
526.25 0.0358580268 -0.07087459696
526.875 0.009742039366 -0.0773871033
527.5 -0.01336577531 -0.0929662646
528.125 -0.03861593984 -0.06128387111
528.75 -0.05501128117 -0.05689049802
529.375 -0.1257332995 -0.006504363145
530.0 -0.1025411779 0.05912889271
530.625 -0.02371058744 0.0698860964
531.25 -0.0370774081 0.05625938819
531.875 -0.08731532312 0.1068016259
532.5 -0.0935873002 0.1431530699
533.125 -0.05543500316 0.1101039861
533.75 -0.008836664266 0.09914014565
534.375 -0.01290743499 0.1256395143
535.0 -0.01834728769 0.1348296298
535.625 -0.03280665567 0.08913835499
536.25 0.03859219989 0.07715900896
536.875 0.01197768821 0.09443433496
537.5 -0.06093925374 0.07446102879
538.125 -0.04034000621 0.07756761026
538.75 -0.005603964735 0.1282986967
539.375 -0.04294782139 0.1319049879
540.0 -0.03196821873 0.1067504506
540.625 -0.02754511423 0.09066011521
541.25 -0.03651782698 0.1163290498
541.875 -0.06037441579 0.09622987972
542.5 -0.05506572296 0.04215412823
543.125 -0.03918304667 0.07257005496
543.75 0.02424219133 0.1324087792
544.375 0.05288096984 0.1377544331
545.0 0.104595504 0.03668934084
545.625 0.1066159691 -0.03855769104
546.25 0.1141432921 -0.07800857929
546.875 0.103766635 -0.06613068213
547.5 0.10893113 -0.06415171382
548.125 0.1412881739 -0.06683204849
548.75 0.1707489542 -0.01139951943
549.375 0.1537321329 0.01447355241
550.0 0.145834361 0.05077934799
550.625 0.1615046106 0.07251749152
551.25 0.07785750643 0.1034010642
551.875 0.06003151195 0.04892831755
552.5 0.0714058634 0.03211599128
553.125 0.0931245773 0.04740564925
553.75 0.04102925925 0.05798715897
554.375 0.03470958796 0.03842249893
555.0 0.06094624517 0.04145057374
555.625 0.09171319854 0.05038371294
556.25 0.05693700522 0.07196707597
556.875 0.04074961986 0.05933381003
557.5 0.05961904022 0.07963058659
558.125 0.05536614944 0.1141896531
558.75 0.01293250183 0.1182456027
559.375 0.04422142468 0.1037198845
560.0 0.06621744143 0.1087683867
560.625 0.06097731371 0.0767106803
561.25 0.05453912309 0.03889237593
561.875 0.06314584376 0.03397614509
562.5 0.07411216161 0.03382863143
563.125 0.06873565463 0.03121014282
563.75 0.06782329733 0.01099740536
564.375 0.1015502341 -0.01690040013
565.0 0.14099453 0.02011944419
565.625 0.116693858 0.003477580677
566.25 0.09966669046 0.004929933184
566.875 0.1104407196 0.01827812015
567.5 0.0945679053 0.07707048142
568.125 0.05459689757 0.08493922172
568.75 0.0686981515 0.09501810037
569.375 0.06928758748 0.1046974357
570.0 0.05894483679 0.09118003545
570.625 0.05056459513 0.0613175416
571.25 0.07267514721 0.05110336289
571.875 0.06525493898 0.05367415424
572.5 0.04591729916 0.02362360712
573.125 0.04479139767 0.02492999194
573.75 0.09118699547 0.01718707616
574.375 0.1138318219 0.0005574527011
575.0 0.07928832064 -0.01204115158
575.625 0.058943934 -0.02721815005
576.25 0.0920696005 -0.02509504366
576.875 0.09936616024 -0.006313091636
577.5 0.08971780644 -0.007840917281
578.125 0.09069474262 -0.03020777527
578.75 0.1202366819 -0.03748378921
579.375 0.1133064726 -0.01453635133
580.0 0.09512396879 -0.02886788817
580.625 0.09260618752 -0.05716148146
581.25 0.08171191293 -0.0615631213
581.875 0.05785771344 -0.02075763439
582.5 0.04862342932 -0.004778332647
583.125 0.08353918592 -0.001808579691
583.75 0.09243875228 0.01155189354
584.375 0.07162589937 0.01847044148
585.0 0.0593779086 0.02733694817
585.625 0.07910330928 0.04051998796
586.25 0.07672573305 0.04935681586
586.875 0.0623102022 0.02666192355
587.5 0.07437905823 0.01383257622
588.125 0.0977252264 -0.0007655803656
588.75 0.1019106204 -0.005810944457
589.375 0.07322775134 -0.04903986879
590.0 0.04144292985 -0.08511869231
590.625 0.03353335966 -0.06741594416
591.25 0.03062654238 -0.02287449307
591.875 0.03920226573 -0.01261166657
592.5 0.05761855941 -0.04082335153
593.125 0.07843434573 -0.0486478622
593.75 0.07395527875 -0.02408756085
594.375 0.07413052315 -0.00773017512
595.0 0.09213705613 0.01032093317
595.625 0.08791007008 0.03592046128
596.25 0.06177361048 0.04305267732
596.875 0.05006467955 0.04559861616
597.5 0.04952137257 0.06310398156
598.125 0.05400976468 0.06185680963
598.75 0.06791650559 0.03678822209
599.375 0.06980451913 0.02077445912
600.0 0.05553427615 0.01527831184
600.625 0.03020751483 0.008900988319
601.25 0.01455679859 0.008451491511
601.875 0.008846344641 0.02545958033
602.5 0.0006678467782 0.03695141537
603.125 -0.006951860577 0.03986307656
603.75 0.0003505294186 0.04633139214
604.375 0.009130519375 0.05260783401
605.0 0.001529216526 0.04298642107
605.625 -0.01229066839 0.0258225062
606.25 -0.02886575246 0.02826250588
606.875 -0.036586994 0.04496885239
607.5 -0.01971650578 0.05492669551
608.125 0.005521676761 0.04477539554
608.75 0.009684363836 0.0355177892
609.375 0.005935009476 0.03379636043
610.0 0.006935642795 0.02803093038
610.625 0.01306117032 0.01428830156
611.25 0.01142541104 0.000606047438
611.875 0.006525563715 -0.01068256096
612.5 -0.001276995583 -0.01846582102
613.125 -0.01288348276 -0.01549491792
613.75 -0.01430636516 -0.003399565344
614.375 -0.00309373223 0.003274748037
615.0 0.007046446127 -0.003091732407
615.625 0.00401388593 -0.009700854181
616.25 -0.001829590291 -0.001830005258
616.875 0.007939287326 0.008944884296
617.5 0.02365169838 0.007024551831
618.125 0.02892243215 0.002208502439
618.75 0.02841289249 0.002989918057
619.375 0.03845968971 0.008824508618
620.0 0.05762394557 0.004624210365
620.625 0.05925957035 -0.02178158274
621.25 0.05061801406 -0.0315355541
621.875 0.03765362546 -0.03932739166
622.5 -0.004362411403 -0.03440651711
623.125 -0.003604138558 -0.006390224113
623.75 0.01213220022 0.008471822609
624.375 0.02596013913 0.01880608303
625.0 0.02119805259 0.03416496729
625.625 0.01902226105 0.04138230301
626.25 0.03887106409 0.05124754961
626.875 0.0635726354 0.06298781396
627.5 0.05534178256 0.06934268107
628.125 0.04419549585 0.06198935403
628.75 0.04704767798 0.06684279812
629.375 0.04696959897 0.08601685988
630.0 0.03003190353 0.08178019519
630.625 0.02212024411 0.0651762954
631.25 0.01859797671 0.0614120244
631.875 -0.0005876119938 0.06046968867
632.5 -0.01667804318 0.04764503878
633.125 -0.02363513227 0.04055465649
633.75 -0.0253162987 0.05823584923
634.375 -0.03975543629 0.05884263696
635.0 -0.04036751741 0.0593078413
635.625 -0.03081012789 0.07894314547
636.25 -0.02596256788 0.09950999316
636.875 -0.03689245533 0.0780597283
637.5 -0.03666151229 0.05741556532
638.125 -0.05038719063 0.08273736652
638.75 -0.07588077855 0.09837319027
639.375 -0.07969643072 0.06031828765
640.0 -0.06063970147 0.02905143454
640.625 -0.07539757705 0.01533607051
641.25 -0.09445349005 -0.02532870139
641.875 -0.0701210816 -0.03904858532
642.5 -0.06325039747 -0.03261356739
643.125 -0.07815503417 -0.04733500201
643.75 -0.06979434733 -0.08693192481
644.375 -0.05728319832 -0.08068434074
645.0 -0.08376678166 -0.05202429584
645.625 -0.1043566118 -0.05576091534
646.25 -0.0855586785 -0.05985684025
646.875 -0.05153757976 -0.06420885977
647.5 -0.06614985113 -0.05785516325
648.125 -0.07741677921 -0.07545837604
648.75 -0.03788023999 -0.07337874988
649.375 -0.007839580866 -0.06138668708
650.0 0.01549938244 -0.07916220403
650.625 0.0533943549 -0.08495218578
651.25 0.07533619089 -0.05703729899
651.875 0.08635235541 -0.03446704609
652.5 0.1311472717 -0.007567173521
653.125 0.1344699816 0.04583198289
653.75 0.1141393427 0.04947061379
654.375 0.1134274334 0.04591123901
655.0 0.1083298082 0.07625571867
655.625 0.05646281829 0.08199617012
656.25 0.04583712955 0.04945679417
656.875 0.07842181687 0.03876786951
657.5 0.07435688326 0.07385962939
658.125 0.03077718292 0.08543056167
658.75 0.02090488565 0.07434475889
659.375 0.08010210153 0.0762864615
660.0 0.1208251762 0.07853212197
660.625 0.120556447 0.05723621595
661.25 0.1209439785 0.01884791242
661.875 0.141097554 -0.02436774748
662.5 0.1415510328 -0.04026108891
663.125 0.1161322183 -0.02497986185
663.75 0.1152053274 0.008320659899
664.375 0.07284498064 0.09784380286
665.0 0.0003634911976 0.09543014665
665.625 -0.02577001772 0.06997905879
666.25 -0.05032169431 0.08157590915
666.875 -0.1279670874 0.04889166009
667.5 -0.1172368446 -0.005008424549
668.125 -0.1083195866 0.01227626457
668.75 -0.1273344025 0.05858702544
669.375 -0.1510109801 0.04269210379
670.0 -0.1098068472 -0.0002913339849
670.625 -0.09553606827 0.008618227772
671.25 -0.1201887075 0.05107764569
671.875 -0.1143890652 0.06635775907
672.5 -0.07092239096 0.06863721633
673.125 -0.05460939388 0.070065702
673.75 -0.08058721819 0.08868579255
674.375 -0.1063763036 0.07065983922
675.0 -0.114572152 0.03653509911
675.625 -0.1378293048 -0.0009701936224
676.25 -0.1247649922 -0.06718971485
676.875 -0.1059684996 -0.08361069783
677.5 -0.1207409262 -0.06002657042
678.125 -0.1464356369 -0.07291193589
678.75 -0.07571827506 -0.09023546126
679.375 -0.03261189588 -0.06279291427
680.0 -0.04501208559 -0.05798159999
680.625 -0.07741178223 -0.09356960269
681.25 -0.06341221392 -0.1087099464
681.875 -0.0524151603 -0.07800783947
682.5 -0.1050618149 -0.0445272649
683.125 -0.1591120703 -0.04126693422
683.75 -0.146870999 -0.09132251565
684.375 -0.05953324335 -0.1203327275
685.0 0.01010271126 -0.1422359349
685.625 0.1096577529 -0.1191472535
686.25 0.1377767873 -0.06150119293
686.875 0.1265623033 -0.02920039858
687.5 0.1124433255 0.01778425793
688.125 0.07717875477 0.0515219592
688.75 0.04936657596 0.06545798852
689.375 0.0638978402 0.08575590748
690.0 0.05111206703 0.1371993747
690.625 0.02897178477 0.1239538817
691.25 0.06977533378 0.1013485371
691.875 0.163830069 0.03000546233
692.5 0.2020735363 -0.0911877106
693.125 0.06246421104 -0.1416362871
693.75 -0.03771231362 -0.1067384105
694.375 -0.0635145241 -0.1205325105
695.0 0.02209115802 -0.1660987655
695.625 0.1201250421 -0.04996757044
696.25 0.08004283607 0.04902358954
696.875 0.004393427053 0.1132102357
697.5 -0.09421539333 0.08898526015
698.125 -0.1292899643 0.04910069977
698.75 -0.1311926907 0.05755278147
699.375 -0.1330867254 0.0525964792
700.0 -0.119570359 0.0228011794
700.625 -0.1162319804 -0.001673937355
701.25 -0.1438877992 -0.01414101244
701.875 -0.1181895792 -0.02629105467
702.5 -0.078817289 0.001445224927
703.125 -0.07235564357 0.03738713306
703.75 -0.046769446 0.146735379
704.375 -0.01427823682 0.1872808011
705.0 0.00511242584 0.1307881784
705.625 -0.01552246014 0.1137253181
706.25 -0.1141463114 0.1101227519
706.875 -0.1718737848 -0.05600825885
707.5 -0.07966718556 -0.09829601896
708.125 -0.04318497526 -0.09557678929
708.75 0.0230491974 -0.1026660746
709.375 0.09882624855 -0.03986392903
710.0 0.08660520258 0.03160137278
710.625 0.07137259519 0.04424409618
711.25 0.04607798688 0.0671893353
711.875 0.03309899349 0.07960036091
712.5 0.07290394186 0.08852841878
713.125 0.1565478811 0.01636140511
713.75 0.1120954236 -0.1098743862
714.375 0.008112519293 -0.136173793
715.0 -0.06212185689 -0.1247792618
715.625 -0.04033026393 -0.1547086989
716.25 0.03938737855 -0.1091747107
716.875 0.0553795211 -0.05038865278
717.5 0.07864572945 -0.0145656476
718.125 0.1038404467 0.03419288893
718.75 0.06992729399 0.0712796045
719.375 0.03096951273 0.06134416856
720.0 -0.004286336472 0.0676307529
720.625 -0.08511680251 0.03807389794
721.25 -0.0819126767 -0.07995948373
721.875 -0.002685148642 -0.1128877793
722.5 0.009966770599 -0.1194626942
723.125 -0.03863186612 -0.1075514427
723.75 -0.07319014058 -0.05055081238
724.375 -0.07154264351 -0.001390127347
725.0 -0.05175929041 0.03310425125
725.625 -0.03003486538 0.03495738417
726.25 -0.03245668581 0.02256417927
726.875 -0.05904349755 0.006570384609
727.5 -0.08160159788 -0.01687153151
728.125 -0.07332459371 -0.0361982175
728.75 -0.06346403231 -0.02189180636
729.375 -0.05531609552 -0.003866614566
730.0 -0.05244854566 -0.009896299057
730.625 -0.04460915328 -0.01786038729
731.25 -0.02847625343 -0.02353366476
731.875 -0.008939028067 -0.02912939515
732.5 0.007872620602 -0.01684121762
733.125 0.009230705439 0.005829770763
733.75 0.01801292902 0.01608296359
734.375 0.02987160709 0.0100358094
735.0 0.02742194667 -0.0102049553
735.625 0.01934596176 -0.01623572024
736.25 0.01031123158 -0.02484129629
736.875 -0.009568579937 -0.02735109822
737.5 -0.030059989 -0.01320623066
738.125 -0.04279008915 0.006924391414
738.75 -0.04006221092 0.02605270061
739.375 -0.02137209657 0.03156939966
740.0 -0.01042715933 0.01853121672
740.625 -0.02121050781 0.01747531467
741.25 -0.0283977319 0.02443712558
741.875 -0.03701325351 0.006331911391
742.5 -0.02060996569 -0.03138235116
743.125 0.02666641182 -0.03118921657
743.75 0.03963469457 -0.008131780158
744.375 0.03805561593 -0.009688586464
745.0 0.03732502439 -0.01262855388
745.625 0.0340284155 -0.005196931735
746.25 0.04781643061 0.003028428085
746.875 0.05269547216 -0.0350265895
747.5 0.02240149412 -0.06639812275
748.125 -0.01087763775 -0.06788160677
748.75 -0.04132987546 -0.04788603973
749.375 -0.06853802968 -0.005370461678
750.0 -0.04947412247 0.07220446085
