!Created with skrf (http://scikit-rf.org).
# GHz S RI R 50.0 
!freq ReS11 ImS11
500.0 -0.00714375752 0.02214791302
500.625 0.02418624963 0.02504975303
501.25 0.02307685111 0.03411437454
501.875 0.03551761166 0.005504597256
502.5 0.007313436577 0.03546393345
503.125 0.02918438023 0.0395126636
503.75 0.0461196404 0.003637581886
504.375 0.04345445277 -0.007017293363
505.0 0.04881513966 -0.02142601049
505.625 0.056862203 -0.04257111822
506.25 0.04516669914 -0.04783426986
506.875 0.05848467099 -0.04325914034
507.5 0.03889486974 -0.05592408727
508.125 0.08524078809 -0.001583612992
508.75 0.0167963667 -0.07373751697
509.375 0.007798790604 -0.05203701539
510.0 0.05727892214 -0.04133536062
510.625 0.001611395902 -0.07291495313
511.25 -0.04841755553 -0.04229780793
511.875 -0.0474410947 -0.01027853662
512.5 -0.03422645142 0.006571936923
513.125 -0.02422018302 0.0296542216
513.75 0.004080576648 0.0426256463
514.375 -0.005650535073 0.04993710578
515.0 0.01665366568 0.07704707143
515.625 -0.04742360027 0.08988104089
516.25 0.04516065881 0.08591238777
516.875 -0.01945921458 0.1147123738
517.5 0.05709618116 0.09731575296
518.125 -0.06581525579 0.1158499202
518.75 0.02707952987 0.04934267117
519.375 0.003712759527 0.07777183767
520.0 0.04886049951 0.06286798885
520.625 0.06094219729 0.04838423151
521.25 0.05833765171 0.0202010787
521.875 0.04162387432 0.03307393173
522.5 0.06622668799 0.006183783963
523.125 0.1234877372 -0.01152516174
523.75 0.09783056488 -0.1097359129
524.375 0.06920116916 -0.06086218803
525.0 0.00613413112 -0.002517606646
525.625 0.005651396274 0.01111977183
526.25 0.01010221775 0.03352186414
526.875 0.02059495162 0.03034270745
527.5 0.02291166467 0.02177005838
528.125 0.04089437885 0.005027883579
528.75 0.05476129845 -0.01324741722
529.375 0.04398091797 -0.03857449946
530.0 0.02868765077 -0.03689605666
530.625 0.00641747672 -0.0489757464
531.25 0.008449806951 -0.1366996871
531.875 -0.05989279166 -0.1340529772
532.5 -0.09291758176 -0.0868460303
533.125 -0.07747975044 -0.05020537648
533.75 -0.07490153233 -0.05618646191
534.375 -0.07178115416 -0.04022549356
535.0 -0.06274209256 -0.01488628971
535.625 -0.03469024772 -0.03749004237
536.25 -0.02918961973 -0.03001383503
536.875 -0.03971218646 -0.05032244953
537.5 -0.05658087728 -0.09548129276
538.125 -0.06361005732 -0.03388066092
538.75 -0.05584345288 -0.02534284825
539.375 -0.04000118616 -0.03672357232
540.0 -0.04736006557 -0.08304117633
540.625 -0.05204644114 -0.07200357986
541.25 -0.04134059881 -0.07371504887
541.875 -0.04786169015 -0.06912877563
542.5 -0.06345613917 -0.1006280734
543.125 -0.08929958941 -0.04727850795
543.75 -0.09199094361 0.0219190802
544.375 -0.06577533859 0.04123042771
545.0 -0.02660962397 0.05470866058
545.625 -0.01345598593 0.06414447875
546.25 0.01599132691 0.05703455468
546.875 0.02178954498 0.05790107535
547.5 0.01841003798 0.08089208919
548.125 0.01628987053 0.05588901841
548.75 -0.001617983258 0.06473429975
549.375 -0.0162353345 0.07438038941
550.0 -0.03218968905 0.03156023435
550.625 -0.02063145514 0.003505937564
551.25 -0.00930969441 -0.0266555184
551.875 -0.05210906999 -0.03885047075
552.5 -0.07242133036 -0.04442836712
553.125 -0.06524484147 -0.02065522758
553.75 -0.07427923473 -0.02230208625
554.375 -0.09440054268 0.008353701588
555.0 -0.08808016863 0.02417180754
555.625 -0.07704717546 0.03608997608
556.25 -0.06688313874 0.01610061966
556.875 -0.08128564697 0.01601251899
557.5 -0.07753942872 0.03383815464
558.125 -0.08585645833 0.03522623984
558.75 -0.05897202828 0.01036255626
559.375 -0.04485181301 0.003326080535
560.0 -0.02558734552 -0.00192810872
560.625 -0.03830718276 -0.02550038167
561.25 -0.05488015876 -0.03347126944
561.875 -0.07223569357 -0.01952324947
562.5 -0.07075225463 0.02295312537
563.125 -0.06686457513 0.06057534949
563.75 -0.05142090584 0.08589971395
564.375 -0.02204299976 0.08818773064
565.0 -0.01527076863 0.07949085892
565.625 -0.01062255931 0.07049840377
566.25 -0.03834827073 0.04510721627
566.875 -0.04719690937 0.02145599509
567.5 -0.05234406347 0.01926903505
568.125 -0.06951677492 0.02235093663
568.75 -0.03422951847 0.006449745462
569.375 -0.02526878558 -0.01150642871
570.0 -0.01892017252 -0.02677555164
570.625 -0.04795435672 -0.03968337681
571.25 -0.03396925074 -0.03531671792
571.875 -0.04772714436 -0.03428646397
572.5 -0.07878270013 -0.01378292864
573.125 -0.1106268947 0.03904851182
573.75 -0.05584570158 0.05598010621
574.375 -0.03240671274 0.05641546272
575.0 -0.04067828431 0.06680780963
575.625 -0.04817048935 0.07544757797
576.25 -0.03006458312 0.06835053466
576.875 -0.008234666872 0.07958362828
577.5 -0.001859856004 0.07144496798
578.125 -0.01209744276 0.05931406116
578.75 -0.01181502655 0.03329401195
579.375 -0.01348999478 0.03313029808
580.0 -0.0161274579 0.02664153465
580.625 -0.02275881532 0.0242882435
581.25 -0.05383271199 -0.004558812954
581.875 -0.06956364394 0.02743631176
582.5 -0.07129790569 0.04058198553
583.125 -0.05828832211 0.05216742997
583.75 -0.05605968392 0.03261387007
584.375 -0.06692433533 0.0243606316
585.0 -0.07507934953 0.01159369742
585.625 -0.05801969297 0.033721271
586.25 -0.05023751865 0.004764567636
586.875 -0.05831153082 0.004216144805
587.5 -0.05317259728 0.01644818055
588.125 -0.02584937262 0.04945913549
588.75 -0.02206088568 0.03725098176
589.375 -0.0312725827 0.02442885419
590.0 -0.03945888547 0.0232558431
590.625 -0.04386329476 0.05048441371
591.25 -0.03310652016 0.08042308316
591.875 -0.02648926558 0.08801773984
592.5 -0.005847186278 0.0731058356
593.125 0.002358751543 0.06096963032
593.75 -0.005953758304 0.05702269744
594.375 -0.02480559724 0.05098226597
595.0 -0.02897193254 0.03409291554
595.625 -0.03002473613 0.005591295316
596.25 -0.03742508669 -0.005920662058
596.875 -0.03130871398 -0.02365823962
597.5 -0.03307085539 -0.02489385345
598.125 -0.0240005945 -0.01325278442
598.75 -0.008777993646 -0.04106154908
599.375 -0.01181539106 -0.04025021373
600.0 -0.01732291133 -0.05436403341
600.625 -0.03456091934 -0.05389038446
601.25 -0.04126134359 -0.06602574754
601.875 -0.05406292794 -0.04212762957
602.5 -0.0588132655 -0.03327746174
603.125 -0.04967970417 -0.0356112763
603.75 -0.04193006563 -0.01590076942
604.375 -0.008286571714 -0.03379487231
605.0 -0.001188459805 -0.04582604432
605.625 -0.005080796818 -0.04753223199
606.25 -0.02544779689 -0.03140387806
606.875 0.007237905727 -0.02343145725
607.5 0.005102841079 -0.006595124244
608.125 0.02379422505 -0.01720267956
608.75 0.01171881915 -0.01385774069
609.375 0.04871487202 -0.02450803839
610.0 0.05956114566 -0.01533332931
610.625 0.05350708305 -0.0160116072
611.25 0.03082904953 -0.01931838623
611.875 0.07113098934 -0.01584025369
612.5 0.04286382409 -0.01402296759
613.125 0.0197352969 -0.00956532651
613.75 0.0194970209 0.005973732803
614.375 0.01369442191 0.01270775505
615.0 0.0311823505 0.01988404599
615.625 0.02646157971 0.009950150138
616.25 0.01397376425 0.01927304643
616.875 0.005594115936 0.03005476749
617.5 0.02990923537 0.035742643
618.125 0.02638681095 0.02657297205
618.75 0.01961447099 0.02828101695
619.375 0.01399321487 0.0331947077
620.0 0.03389044799 0.03366018743
620.625 0.03104525517 0.004229607831
621.25 0.01907116816 -0.008879180141
621.875 -0.00419348683 -0.02204025728
622.5 -0.02572793936 0.009115168924
623.125 -0.009690391571 0.03623238443
623.75 -0.02232893018 0.05231756709
624.375 -0.03593037463 0.04318087033
625.0 -0.02949918931 0.05590502625
625.625 -0.03131263493 0.06360049429
626.25 -0.03395278255 0.07366347684
626.875 -0.02732981777 0.04874048838
627.5 -0.008504511413 0.06826103428
628.125 -0.0224954126 0.03631579568
628.75 -0.03246925956 0.02123409346
629.375 -0.01880594519 0.007931983558
630.0 -0.01122522509 0.005016304313
630.625 -0.007830783115 -0.005327639402
631.25 -0.003230545278 -0.03348564685
631.875 0.002151265237 -0.05827516924
632.5 -0.03552812562 -0.03425693428
633.125 -0.02398315462 -0.05576377926
633.75 -0.02673757098 -0.05106533902
634.375 -0.0336659355 -0.05205415972
635.0 -0.03953865849 -0.06113787965
635.625 -0.06813678885 -0.01909089739
636.25 -0.04427695765 -0.01020701216
636.875 -0.02692804766 -0.03508271267
637.5 -0.02526105201 -0.06336812411
638.125 -0.04845761928 -0.03884183955
638.75 -0.03670638602 -0.0157834885
639.375 0.006122116204 -0.02136542298
640.0 0.04260941581 -0.01862617943
640.625 0.05091098669 -0.02903462801
641.25 0.03901775934 -0.03539808586
641.875 0.05158479751 -0.02950971571
642.5 0.0710031188 0.0009306749284
643.125 0.04788757668 -0.0176446776
643.75 0.05578557361 -0.009223487103
644.375 0.05755909953 -0.02110594426
645.0 0.05148284395 0.001641678746
645.625 0.0413251761 0.004965050317
646.25 0.0524680581 0.0158278575
646.875 0.06680702218 0.01891952699
647.5 0.05931773697 0.007586908858
648.125 0.05451978822 0.01830338
648.75 0.0450988539 0.03271743595
649.375 0.05094175064 0.05743047337
650.0 0.04700520572 0.06445102119
650.625 0.04358672382 0.07369904437
651.25 0.03273230179 0.0541497345
651.875 -0.001871683648 0.06166169178
652.5 -0.01399509731 0.05590601414
653.125 -0.03326764745 0.04577780093
653.75 -0.01580074585 0.01967313433
654.375 -0.0256047869 -0.02446809629
655.0 -0.02623932199 -0.04048546288
655.625 -0.05355692396 -0.05558816343
656.25 -0.05930302519 -0.03220319268
656.875 -0.06536953989 -0.0248330245
657.5 -0.07505519295 -0.03160574845
658.125 -0.09620037925 -0.0452506766
658.75 -0.1016742745 -0.01446616405
659.375 -0.07885352254 0.02596282961
660.0 -0.06444323872 0.04009737935
660.625 -0.05463870719 0.03658806454
661.25 -0.0522282566 0.03124574789
661.875 -0.02943235228 0.03372336302
662.5 -0.03657871421 0.03694478008
663.125 -0.07282166235 0.02939348174
663.75 -0.05392150513 -0.01375773904
664.375 -0.04776328192 -0.04848783794
665.0 -0.028314478 -0.08065661424
665.625 0.002638197466 -0.110633515
666.25 0.02249605483 -0.08751440971
666.875 0.03648568603 -0.08823197452
667.5 0.04664760066 -0.08658813299
668.125 0.05461057067 -0.06822998822
668.75 0.02440400644 -0.04576963797
669.375 0.0324128785 -0.02590912042
670.0 0.06142631867 -0.03515863949
670.625 0.07589023029 -0.03174298631
671.25 0.03505856277 -0.02704134117
671.875 0.05380919758 -0.03688283996
672.5 0.03763157761 -0.08954647467
673.125 0.01826680301 -0.1089394198
673.75 -0.008848850505 -0.09396815282
674.375 0.0181940144 -0.08189048803
675.0 0.04769948392 -0.05833656821
675.625 0.05985241991 -0.04231760641
676.25 0.06321310558 -0.02141979726
676.875 0.05736252552 0.006588612243
677.5 0.03895872078 0.0332668238
678.125 0.04231251712 0.03924550083
678.75 0.03290232527 0.05917442709
679.375 0.05780794755 0.0866750541
680.0 0.05522249169 0.0772666464
680.625 0.08193447089 0.05129271853
681.25 0.1063307436 0.02411937486
681.875 0.119496421 -0.002321312607
682.5 0.08198670937 -0.03430028256
683.125 0.06019334105 -0.0396502635
683.75 0.07731519967 -0.0199612008
684.375 0.0407175985 0.03128950619
685.0 0.01833989962 0.05670034801
685.625 -0.02778653603 0.03948007233
686.25 -0.06358476049 0.02094281704
686.875 -0.06835047111 -0.02502358582
687.5 -0.08463740562 -0.03576680834
688.125 -0.104549943 -0.04714392645
688.75 -0.1113438799 -0.06555151364
689.375 -0.07922465671 -0.04787361932
690.0 -0.08311283862 -0.03930366731
690.625 -0.09949048987 -0.04206234063
691.25 -0.09097502603 -0.0278453871
691.875 -0.05646834993 0.02626075895
692.5 -0.03228573779 0.02959517994
693.125 -0.03885285676 0.05911680763
693.75 -0.005567645095 0.1056879682
694.375 0.03309857939 0.09919420057
695.0 -0.01451403036 0.09283790097
695.625 -0.0840849369 0.07338576244
696.25 -0.1119269727 -0.0408868311
696.875 -0.04387850117 -0.1040178137
697.5 0.01837699454 -0.113209692
698.125 0.04140398153 -0.05523763178
698.75 0.035213473 -0.04793541741
699.375 0.04898324183 -0.04504949633
700.0 0.06860419679 -0.006781356891
700.625 0.06507715982 0.02480641569
701.25 0.06105215771 0.02369045503
701.875 0.0928357186 0.01701835545
702.5 0.125803706 -0.03633385881
703.125 0.08252706232 -0.0865702859
703.75 -0.01964428696 -0.08246265707
704.375 -0.05587708057 -0.0540125528
705.0 -0.06694904119 -0.07297539509
705.625 0.01988661394 -0.06915588675
706.25 0.04241266957 -0.03846056008
706.875 0.0469845847 0.01395433435
707.5 0.03253178289 0.06397486442
708.125 -0.02632998044 0.08543147519
708.75 -0.05978570175 0.07950955742
709.375 -0.08469114583 0.03974109523
710.0 -0.08476355212 -0.01756430626
710.625 -0.08017138225 -0.03112049695
711.25 -0.07839685735 -0.07222791407
711.875 -0.07608261584 -0.06042956565
712.5 -0.08283605152 -0.004766857858
713.125 -0.03796818808 0.03290584802
713.75 -0.017339946 0.04729483791
714.375 -0.04253918676 0.0606759782
715.0 -0.01749598537 0.05707399953
715.625 -0.005374062348 0.0568377443
716.25 -0.08708075258 0.0622315684
716.875 -0.1135534482 0.02802640218
717.5 -0.09201208116 -0.01613439276
718.125 -0.07691518375 -0.03256429272
718.75 -0.0722323283 -0.04023907007
719.375 -0.0384363031 -0.07943283515
720.0 0.01713336399 -0.07979440926
720.625 0.04354518099 -0.04898152738
721.25 0.05055746326 0.003433291506
721.875 -0.008255854439 0.03595533918
722.5 -0.03709800729 0.02734168757
723.125 -0.02980882639 0.06077523324
723.75 0.006926815383 0.09605824207
724.375 0.06610477332 0.04939375138
725.0 0.08072394596 -0.01268981948
725.625 0.06783916801 -0.0399763482
726.25 0.03673052548 -0.05847326284
726.875 0.05915648005 -0.0095635019
727.5 0.05200838257 0.0112271514
728.125 0.03256534189 0.03902044988
728.75 0.0224125421 0.05554455957
729.375 0.03443358812 0.03967676941
730.0 0.03568741149 0.03140461096
730.625 0.01659892582 0.0647912778
731.25 -0.0101542827 0.0495554004
731.875 -0.02174445289 0.02807446773
732.5 -0.08319592937 -0.01251637808
733.125 -0.05974973437 -0.0230768902
733.75 -0.04079777812 -0.009763443298
734.375 -0.02491226903 0.001840011361
735.0 -0.03643353454 -0.01212582469
735.625 -0.02773534649 0.001599849292
736.25 -0.02801962584 -0.007221302458
736.875 -0.03686024409 -0.02066145893
737.5 -0.07630634603 -0.02424142626
738.125 -0.08628713361 -0.03317707897
738.75 -0.05264628878 -0.01364097813
739.375 -0.001417864232 0.001192587168
740.0 -0.02785067299 -0.07289812795
740.625 -0.032784512 -0.03669275168
741.25 -0.02191299453 -0.02677383584
741.875 -0.0003463619984 -0.034618915
742.5 0.01578350759 0.01014432801
743.125 0.006620945821 0.02996885573
743.75 -0.02111326921 0.02565929506
744.375 -0.03416152972 0.01443839055
745.0 -0.03690233467 0.04898175934
745.625 -0.02663929849 0.06836447379
746.25 -0.004255703773 0.0736895372
746.875 0.04666739364 0.04132736301
747.5 0.03238647244 0.007181500771
748.125 0.04068588635 -0.01358235056
748.75 0.03107895219 -0.008513845296
749.375 0.02606778729 -0.01715519639
750.0 0.003809543521 -0.02794673709
