!Created with skrf (http://scikit-rf.org).
# GHz S RI R 50.0 
!freq ReS11 ImS11
500.0 -0.01400411887 0.02593042516
500.625 0.02980886098 0.02144172889
501.25 0.02930102086 0.02125335346
501.875 0.01641546824 0.03825029996
502.5 0.009187221694 0.04252375021
503.125 0.03549607842 0.03170188041
503.75 0.04595749491 0.02972070164
504.375 0.04210768376 -0.01863973852
505.0 0.04607777267 -0.02684755038
505.625 0.05902734879 -0.0434538243
506.25 0.03725182866 -0.05264668391
506.875 0.05181912812 -0.05734951938
507.5 0.03151239956 -0.05856030348
508.125 0.0712832924 -0.02383199176
508.75 0.05660002939 -0.04810230087
509.375 0.009362685262 -0.05604636487
510.0 0.04489058443 -0.04743776193
510.625 -0.01481915563 -0.06436260072
511.25 -0.02860160001 -0.06407328923
511.875 -0.05320507188 -0.003247002579
512.5 -0.03173900595 0.01057495918
513.125 -0.01828979658 0.03259607395
513.75 -0.03415183914 0.04027927452
514.375 -0.008602314729 0.05639722152
515.0 0.008854189502 0.07875316206
515.625 -0.0363797747 0.08845520936
516.25 0.02192351687 0.1065356635
516.875 -0.03451657658 0.1163436984
517.5 0.06062469591 0.08881023567
518.125 -0.04870855733 0.1119849387
518.75 0.03166279463 0.0434312997
519.375 0.01287494644 0.06694096873
520.0 0.05412086349 0.0616878489
520.625 0.05937910055 0.04108378676
521.25 0.05655366483 0.02535636244
521.875 0.03970374089 0.0419352958
522.5 0.06289751334 0.002778730192
523.125 0.1128107834 -0.02191604208
523.75 0.1119313501 -0.03658790234
524.375 0.06732890461 -0.05189978458
525.0 0.002352772985 0.002753919497
525.625 0.004683793178 0.03046597921
526.25 0.01430635441 0.02110427727
526.875 0.01686565989 0.02802281375
527.5 0.02404915581 0.02339147348
528.125 0.04503379336 0.007521159145
528.75 0.0627142954 -0.004726979056
529.375 0.03338554615 -0.03429032845
530.0 0.02144425889 -0.02517740032
530.625 0.002225785841 -0.09134232356
531.25 0.003482101516 -0.1272116971
531.875 -0.05066963892 -0.1312268128
532.5 -0.08579637611 -0.06560701234
533.125 -0.07823329201 -0.06026770632
533.75 -0.06905367078 -0.04687443337
534.375 -0.06463919748 -0.03452293654
535.0 -0.0654075234 -0.02219963878
535.625 -0.02873436685 -0.03502916437
536.25 -0.02416886736 -0.02011245392
536.875 -0.03155873301 -0.04962267637
537.5 -0.04480610277 -0.08373380787
538.125 -0.07612469002 -0.06746107727
538.75 -0.05195016257 -0.01425517563
539.375 -0.03174750128 -0.03848878454
540.0 -0.05046452477 -0.08244868233
540.625 -0.06885999547 -0.118863998
541.25 -0.03814445708 -0.06647724999
541.875 -0.03878096228 -0.06891302717
542.5 -0.05087479958 -0.0930695716
543.125 -0.1025201222 -0.06958199002
543.75 -0.08030148887 0.02760855569
544.375 -0.0565382053 0.03873157511
545.0 -0.0324287006 0.05560677652
545.625 -0.01323735706 0.0578166476
546.25 0.01163102072 0.07669587956
546.875 0.02062398453 0.06408939125
547.5 0.01560116576 0.08154239129
548.125 0.00409016353 0.08070261557
548.75 0.003015000654 0.05092891926
549.375 -0.01530208255 0.06108841512
550.0 -0.04091964135 0.02864188173
550.625 -0.01977741346 3.072852926e-05
551.25 -0.02199445963 -0.0325937793
551.875 -0.04366948207 -0.04390395306
552.5 -0.06339201742 -0.0438966904
553.125 -0.07672794883 -0.02093641602
553.75 -0.06403188113 -0.02592272788
554.375 -0.09220874391 0.004709904195
555.0 -0.09340974973 0.02370506514
555.625 -0.07278066442 0.02895784332
556.25 -0.0883227356 0.02327526191
556.875 -0.08271578747 0.01515589386
557.5 -0.07583367373 0.02839826013
558.125 -0.07186394804 0.03036620722
558.75 -0.07051067078 0.006209252217
559.375 -0.03745468547 0.002574886767
560.0 -0.02417102768 -0.002823030149
560.625 -0.03010747445 -0.03180246391
561.25 -0.0598911246 -0.03747771412
561.875 -0.07187963886 -0.02133894311
562.5 -0.07041574726 0.01614953238
563.125 -0.07012907267 0.05886577755
563.75 -0.04998622774 0.07696955948
564.375 -0.02389972813 0.07879445038
565.0 -0.01412409146 0.07399609352
565.625 -0.01468692113 0.06262541733
566.25 -0.0414620862 0.04407193043
566.875 -0.04998337497 0.0233358307
567.5 -0.05150683647 0.01114399718
568.125 -0.05974538462 0.01038667203
568.75 -0.05245851057 0.008298854086
569.375 -0.01189743285 -0.01336678782
570.0 -0.01410486753 -0.03283145228
570.625 -0.03945329164 -0.04616325887
571.25 -0.04302880985 -0.03366686266
571.875 -0.04237806548 -0.04045227879
572.5 -0.07979944318 -0.02247162228
573.125 -0.1054907305 0.02169044997
573.75 -0.05976134746 0.07007073421
574.375 -0.03272677801 0.05790966165
575.0 -0.04737528646 0.05962509517
575.625 -0.05220964549 0.06406771479
576.25 -0.03393116889 0.07039638242
576.875 -0.01395357954 0.07198412836
577.5 -0.006952581849 0.07276062437
578.125 -0.01614731774 0.04903678844
578.75 -0.009641348927 0.04407916538
579.375 -0.01171784376 0.03568713659
580.0 -0.02048426628 0.01877458269
580.625 -0.03012756269 0.009586780173
581.25 -0.05010709959 0.01546351649
581.875 -0.07453977014 0.0136073153
582.5 -0.07442745461 0.03353236694
583.125 -0.05894488417 0.04544921485
583.75 -0.05800558188 0.04074111715
584.375 -0.06629996595 0.01026363594
585.0 -0.07326311856 0.006967244047
585.625 -0.06007595827 0.02018497426
586.25 -0.05524011411 0.02983182144
586.875 -0.05203790742 -0.009472370372
587.5 -0.05434711443 0.009444189388
588.125 -0.02849049329 0.04184918166
588.75 -0.01505553621 0.04880736952
589.375 -0.04057439561 0.008451125266
590.0 -0.04226167751 0.01963180157
590.625 -0.040460009 0.05156438892
591.25 -0.03306479409 0.08016336263
591.875 -0.02089620088 0.09283113306
592.5 -0.005346672738 0.07187358346
593.125 0.006767625319 0.05897589574
593.75 -0.004591383505 0.06780733896
594.375 -0.03136144688 0.03937573709
595.0 -0.03258716503 0.02044628744
595.625 -0.02930677928 0.009440510931
596.25 -0.03590356679 -0.01288901287
596.875 -0.03564211503 -0.01374897036
597.5 -0.03003542145 -0.02166563893
598.125 -0.02098600125 -0.02130453195
598.75 -0.0156586158 -0.0135859187
599.375 -0.007330998857 -0.0518426546
600.0 -0.01614108361 -0.06353022458
600.625 -0.02197048572 -0.07606667443
601.25 -0.0460202389 -0.05846198999
601.875 -0.04719150022 -0.0526104035
602.5 -0.05671795474 -0.03315209494
603.125 -0.05139118049 -0.02990359069
603.75 -0.03060818179 -0.02459503071
604.375 -0.02260453053 -0.01094228279
605.0 0.002330588343 -0.04573514666
605.625 0.003659262354 -0.05253956353
606.25 -0.003959956218 -0.04071320446
606.875 -0.025529722 -0.00948412721
607.5 0.01862899909 -0.0118650027
608.125 0.03310470412 -0.02155981386
608.75 0.02253364502 -0.02122202348
609.375 0.01857765081 -0.008117511065
610.0 0.05620589483 -0.01021575183
610.625 0.06171674887 -0.01546206876
611.25 0.05397050311 -0.02107044484
611.875 0.02704405763 -0.0191954517
612.5 0.05347727224 -0.001094827415
613.125 0.01854496498 -0.006319004443
613.75 0.01205694903 0.006095167697
614.375 0.02636965458 0.02105758809
615.0 0.02199706988 0.01015685424
615.625 0.02033971438 0.01107442317
616.25 0.02315542619 0.02217959546
616.875 0.01682588574 0.03255221412
617.5 0.02555695944 0.03941642967
618.125 0.02289214207 0.02984240636
618.75 0.02762165708 0.03015945248
619.375 0.02368953916 0.04011829951
620.0 0.03865295809 0.04358022873
620.625 0.04283338326 0.01213435624
621.25 0.02002083506 -0.00136214866
621.875 -0.0004753434709 -0.01647248284
622.5 -0.02829920016 0.01026510687
623.125 -0.02367705043 0.04274346935
623.75 -0.015255564 0.05415842443
624.375 -0.02783960852 0.04938133085
625.0 -0.05178413694 0.02643231913
625.625 -0.04088312628 0.05993653303
626.25 -0.02976438101 0.07957412318
626.875 -0.01722054436 0.06544316006
627.5 -0.02704326609 0.02891622591
628.125 -0.02427062201 0.05058112837
628.75 -0.0284477113 0.02691214076
629.375 -0.02271021049 0.02049020868
630.0 -0.00788014703 -0.001179132948
630.625 -0.02014099515 0.002328407595
631.25 -0.006575372139 -0.0242718632
631.875 -0.009953227128 -0.04221515486
632.5 -0.009326802859 -0.06949116788
633.125 -0.03499483861 -0.05015096302
633.75 -0.0264610851 -0.05362839696
634.375 -0.02669083806 -0.06021568894
635.0 -0.04290875531 -0.05018423732
635.625 -0.03999239719 -0.04800560518
636.25 -0.04181781061 -0.01708453788
636.875 -0.03132329126 -0.03147509579
637.5 -0.03241428501 -0.0599574412
638.125 -0.03064868369 -0.05222925761
638.75 -0.04622424878 -0.01045222253
639.375 0.004953741815 -0.01940742557
640.0 0.0465652864 -0.01825633019
640.625 0.05572942276 -0.02184069946
641.25 0.04871233799 -0.02982270299
641.875 0.04113922462 -0.02898970459
642.5 0.05254712609 -0.007004710903
643.125 0.06566694506 0.01361379799
643.75 0.05034433059 -0.01971165333
644.375 0.05247484057 -0.01801004411
645.0 0.04008750954 -0.00877790553
645.625 0.04278737624 0.01547779294
646.25 0.04891227337 0.009692640646
646.875 0.06758183961 0.02339255683
647.5 0.06091533445 0.01540221548
648.125 0.04866903658 0.01810388061
648.75 0.05023546104 0.05476618861
649.375 0.04954506763 0.06701072014
650.0 0.04226843588 0.06109570006
650.625 0.03915097191 0.06233753732
651.25 0.009505352968 0.08016255566
651.875 -0.007354614485 0.06013251577
652.5 -0.01181414836 0.05195308096
653.125 -0.01736080354 0.04329061185
653.75 -0.03863634568 0.007021540616
654.375 -0.02311886344 -0.02541497118
655.0 -0.02613821114 -0.04534469254
655.625 -0.04436721838 -0.05381353338
656.25 -0.07778934834 -0.06260603832
656.875 -0.06990663917 -0.02681839957
657.5 -0.06504665833 -0.03349291991
658.125 -0.08907557296 -0.04088536709
658.75 -0.1143968867 -0.03590758148
659.375 -0.06966759629 0.03047743251
660.0 -0.06188752638 0.0365615729
660.625 -0.05808562597 0.03400071226
661.25 -0.05557078809 0.02208862389
661.875 -0.03875833655 0.03197023773
662.5 -0.03240988334 0.02710633839
663.125 -0.06166596614 0.01655005013
663.75 -0.07383962087 -0.02594566799
664.375 -0.03762469051 -0.04139279984
665.0 -0.01933368086 -0.07436612492
665.625 0.009859357534 -0.09961594782
666.25 0.02678028117 -0.08665352171
666.875 0.03465805135 -0.08503906884
667.5 0.05013052015 -0.07781784167
668.125 0.0484358664 -0.05729849976
668.75 0.03713410634 -0.04418982389
669.375 0.03416926629 -0.02645507127
670.0 0.05989544478 -0.02252555586
670.625 0.0697304978 -0.02134463323
671.25 0.06029131599 -0.04269731682
671.875 0.04724124815 -0.03043530926
672.5 0.04922870979 -0.07829014046
673.125 0.02249623721 -0.094885257
673.75 0.00135481274 -0.1005300028
674.375 0.02331138584 -0.08062902085
675.0 0.05456115348 -0.05489796663
675.625 0.05757057445 -0.03462210554
676.25 0.0620123732 -0.01514158462
676.875 0.05880364031 0.01399809705
677.5 0.03280043517 0.03666225979
678.125 0.03225727932 0.04428332453
678.75 0.06058918868 0.06997831624
679.375 0.04017236698 0.08306735771
680.0 0.04762027147 0.07500509519
680.625 0.07150886148 0.05231063848
681.25 0.1025883276 0.03090166985
681.875 0.1144099202 0.00519348429
682.5 0.08363743661 -0.0326316846
683.125 0.05429803302 -0.02967391251
683.75 0.06856693251 -0.006043776362
684.375 0.06831764924 0.05015695437
685.0 0.008962102356 0.04791936042
685.625 -0.03200790203 0.02932097871
686.25 -0.05781768775 0.005976736469
686.875 -0.08856613159 -0.01997785193
687.5 -0.07261149445 -0.04666733727
688.125 -0.09638537192 -0.06047164317
688.75 -0.09672268716 -0.06365788325
689.375 -0.09072839797 -0.05479672661
690.0 -0.07887963401 -0.04262698662
690.625 -0.09279475955 -0.04724912892
691.25 -0.08857796811 -0.03247927011
691.875 -0.04924830529 0.01772500113
692.5 -0.03721150139 0.03360428052
693.125 -0.04046389017 0.06002346915
693.75 -0.02288623821 0.1006004153
694.375 0.01364543858 0.09384723584
695.0 -0.005146542286 0.1067628317
695.625 -0.08984088524 0.0648126943
696.25 -0.1035745709 -0.04630299732
696.875 -0.0324693508 -0.1061572227
697.5 0.03221812538 -0.09830668565
698.125 0.04793743152 -0.07837222574
698.75 0.03743797336 -0.04342317299
699.375 0.0514004631 -0.02809458578
700.0 0.08085849487 -0.02551697981
700.625 0.04867227657 0.03516824552
701.25 0.05560141123 0.02933525735
701.875 0.09067542263 0.02259073312
702.5 0.1337715961 -0.03945829258
703.125 0.08566822646 -0.08593629857
703.75 -0.02011109496 -0.08376877085
704.375 -0.04231906128 -0.0570437835
705.0 -0.03500924297 -0.07692294779
705.625 0.009179541166 -0.08826259885
706.25 0.0466536381 -0.01900753974
706.875 0.04429306403 0.02486877153
707.5 0.02284671975 0.06880800596
708.125 -0.02381803973 0.08700073588
708.75 -0.07097060656 0.06380372292
709.375 -0.08923059578 0.0235401428
710.0 -0.08424738967 -0.01563896559
710.625 -0.07451687574 -0.0447525632
711.25 -0.06274463251 -0.08045801118
711.875 -0.06129785075 -0.06988232948
712.5 -0.06739251424 -0.009455157957
713.125 -0.03739168989 0.05343946135
713.75 -0.02498644302 0.038757812
714.375 -0.04149916677 0.05861509617
715.0 -0.02520586927 0.05659611983
715.625 -0.02520483493 0.06094727172
716.25 -0.03931071183 0.07490166114
716.875 -0.1187846965 -0.004794633181
717.5 -0.08725232596 -0.02977713006
718.125 -0.07581027237 -0.02856696397
718.75 -0.06821048285 -0.04530473248
719.375 -0.0516772753 -0.07177747092
720.0 0.01779219759 -0.07540588132
720.625 0.05608475159 -0.03608893421
721.25 0.04347905426 0.01521037079
721.875 -0.02864371277 0.03161401727
722.5 -0.05224673028 0.02626718617
723.125 -0.0646233846 0.05467429393
723.75 0.006265827841 0.08521615773
724.375 0.06509742845 0.04143222907
725.0 0.07543083999 -0.008912092863
725.625 0.0841498945 -0.03112422437
726.25 0.05845524663 -0.03487808615
726.875 0.03271959696 -0.0409759452
727.5 0.05121553979 0.02881085502
728.125 0.0258135139 0.05436763504
728.75 0.01766741808 0.05359444115
729.375 0.03385374594 0.0349524444
730.0 0.03413026241 0.02199392694
730.625 0.009122267958 0.05540976658
731.25 -0.02130268742 0.0584671736
731.875 -0.0372636747 0.0323225457
732.5 -0.03546220075 0.008619990563
733.125 -0.05797104082 -0.04818584808
733.75 -0.04974770462 -0.02720698054
734.375 -0.03206977559 -0.01278036736
735.0 -0.03410411181 -0.01405654082
735.625 -0.03264890532 -0.01008329779
736.25 -0.03506627761 -0.005185521978
736.875 -0.05624385985 -0.02070788932
737.5 -0.05791640877 -0.02240447004
738.125 -0.07694993298 -0.0345160164
738.75 -0.06668481956 -0.02428854719
739.375 -0.01689285535 -0.01337028672
740.0 0.01902781841 -0.01439992967
740.625 -0.04175327965 -0.0531684217
741.25 -0.03306978641 -0.03392999789
741.875 0.01064217309 -0.02103479051
742.5 0.0302245418 0.005016820257
743.125 0.01288092704 0.04083444075
743.75 -0.01600890157 0.03816281569
744.375 -0.03144970241 0.03724905545
745.0 -0.05838760275 0.009191758602
745.625 -0.02053507544 0.08903216963
746.25 0.00409680926 0.07855926968
746.875 0.04061885096 0.04282300956
747.5 0.04131805459 0.003188954476
748.125 0.0132097925 0.007972020629
748.75 0.03952858279 -0.01438852628
749.375 0.02489999291 -0.02064282398
750.0 -0.01006558352 -0.02918553516
