!Created with skrf (http://scikit-rf.org).
# GHz S RI R 50.0 
!freq ReS11 ImS11
500.0 -0.01038719678 0.02767692926
500.625 0.01987366924 0.03133924016
501.25 0.03561493457 0.0166417215
501.875 0.02325864321 0.02279723061
502.5 0.01487431298 0.03853693194
503.125 0.02768028187 0.04053770143
503.75 0.0454844821 0.01265854853
504.375 0.04251009097 -0.0008281341476
505.0 0.04556775738 -0.02548998626
505.625 0.06815682561 -0.03506313133
506.25 0.02634052059 -0.06683058846
506.875 0.05168778062 -0.05513113315
507.5 0.0462729868 -0.04198932842
508.125 0.0711977871 -0.02076689826
508.75 0.04221391734 -0.0541384137
509.375 0.03768686003 -0.04537828762
510.0 0.07004130656 -0.03529426303
510.625 -0.0007685194435 -0.0670095828
511.25 -0.0363696022 -0.05085427077
511.875 -0.04945965523 -0.005770289623
512.5 -0.03371685162 0.003642086586
513.125 -0.02794237071 0.02620846406
513.75 -0.02050070593 0.04064456644
514.375 -0.002435597694 0.05126387895
515.0 -7.370231561e-05 0.09917260604
515.625 -0.01055949475 0.09093091438
516.25 0.03302452045 0.09097415833
516.875 -0.03469593618 0.1232449839
517.5 0.0415853289 0.09913417806
518.125 -0.01407144079 0.1344591774
518.75 0.03418878506 0.03969934675
519.375 0.005796826467 0.07063964203
520.0 0.04560126524 0.06931538581
520.625 0.06940911553 0.02407361645
521.25 0.0585820671 0.009943836669
521.875 0.04031975944 0.04077578168
522.5 0.06779794091 0.01458988192
523.125 0.1142780147 -0.05177141965
523.75 0.1028143353 -0.06090063818
524.375 0.05964006581 -0.01481316702
525.0 0.005139968852 0.01164992693
525.625 0.002417713608 0.01587587802
526.25 0.005687262502 0.03417564004
526.875 0.0163387639 0.03364779204
527.5 0.02816072195 0.02955424129
528.125 0.03152149035 -0.0007419705348
528.75 0.04866892949 -0.01283622718
529.375 0.04104546479 -0.03292025857
530.0 0.02709029444 -0.0259513634
530.625 0.009019713427 -0.075982024
531.25 0.02117155995 -0.1660794395
531.875 -0.05147983314 -0.1409321016
532.5 -0.08725635046 -0.08634232707
533.125 -0.06894018887 -0.03720533229
533.75 -0.06625389612 -0.04618028674
534.375 -0.0679501636 -0.04048796535
535.0 -0.07334410126 -0.0270652894
535.625 -0.02856753923 -0.0145043321
536.25 -0.0278878397 -0.03375627673
536.875 -0.03794074114 -0.05880206677
537.5 -0.04515606588 -0.08703279715
538.125 -0.06853602523 -0.05611430046
538.75 -0.05426328559 -0.03085789189
539.375 -0.03396945072 -0.04448925519
540.0 -0.05579696332 -0.09264677466
540.625 -0.05524727719 -0.1015697454
541.25 -0.0404389695 -0.08997010285
541.875 -0.04564510057 -0.08170692812
542.5 -0.04918946566 -0.09182358205
543.125 -0.09249509211 -0.06002133842
543.75 -0.09556802531 0.01569237422
544.375 -0.06195082478 0.03779804
545.0 -0.03730926412 0.0634047565
545.625 -0.002582419491 0.0459589578
546.25 0.01222872459 0.06405823367
546.875 0.02087491988 0.0614509274
547.5 0.01491139344 0.09273652818
548.125 0.006033363097 0.06851669393
548.75 -0.01182035506 0.07081612504
549.375 -0.0210013909 0.07066108097
550.0 -0.04676590204 0.03318043521
550.625 -0.0011792027 -0.001370904884
551.25 -0.0114905306 -0.03176375764
551.875 -0.04834254165 -0.04329866132
552.5 -0.07490461505 -0.04864616296
553.125 -0.06587027028 -0.02353415119
553.75 -0.07400550731 -0.02756451711
554.375 -0.09047060271 0.005733747157
555.0 -0.09855507588 0.0269399616
555.625 -0.05937008689 0.02383690279
556.25 -0.07938828489 0.0190179658
556.875 -0.08990874571 0.01775006242
557.5 -0.08240475817 0.03021794072
558.125 -0.07757518311 0.02852338551
558.75 -0.05994475569 0.006840612678
559.375 -0.03841525507 0.00260272083
560.0 -0.02959271302 -0.002515185755
560.625 -0.01473934468 -0.02957202094
561.25 -0.04908008326 -0.03892586422
561.875 -0.06675861159 -0.02121063721
562.5 -0.0742245766 0.0248970172
563.125 -0.06242073446 0.0425113612
563.75 -0.05390937368 0.07237845242
564.375 -0.02381223287 0.08283950881
565.0 -0.01715399346 0.08126952218
565.625 -0.01101244301 0.0467188734
566.25 -0.03717497421 0.03383656019
566.875 -0.04916825077 0.02098400033
567.5 -0.05964598767 0.01883359813
568.125 -0.05835643203 0.009190047301
568.75 -0.04178894318 0.004858165989
569.375 -0.02860412228 -0.01378486767
570.0 -0.0202256721 -0.03151048798
570.625 -0.02676428869 -0.04586191139
571.25 -0.0368032109 -0.03704862322
571.875 -0.05868452436 -0.03082740493
572.5 -0.08725453819 -0.01285010322
573.125 -0.1036124988 0.02210428083
573.75 -0.05907315269 0.06027527815
574.375 -0.03081839272 0.0638907174
575.0 -0.03912212264 0.07256805445
575.625 -0.0514216663 0.05085703226
576.25 -0.03659019753 0.06231932987
576.875 -0.009433421321 0.07601758908
577.5 0.002381799248 0.07941667253
578.125 -0.01504569045 0.03571151142
578.75 -0.01291268395 0.03578038759
579.375 -0.009423875484 0.03517866014
580.0 -0.01762594934 0.03009488552
580.625 -0.03015065156 0.008272951592
581.25 -0.0528328642 0.007176759627
581.875 -0.07328999575 0.02815682203
582.5 -0.07397417131 0.04027431105
583.125 -0.05794338879 0.05459775426
583.75 -0.05985376858 0.02383738264
584.375 -0.06835650752 0.01362094039
585.0 -0.07043347987 0.005416697121
585.625 -0.06235373783 0.03004567716
586.25 -0.0535446773 0.01269971681
586.875 -0.05929004706 0.005481194412
587.5 -0.05518836701 0.01574786998
588.125 -0.02616905005 0.05002474491
588.75 -0.02480080915 0.0357485496
589.375 -0.03623736173 0.01931416816
590.0 -0.04232551375 0.01851893555
590.625 -0.03442076858 0.05250428983
591.25 -0.05192050611 0.07408560879
591.875 -0.03423984957 0.0842439137
592.5 -0.008347535582 0.06975097316
593.125 0.01361273098 0.06272795785
593.75 -0.02219141866 0.05736221998
594.375 -0.0346879564 0.04138055578
595.0 -0.03086439516 0.02851326715
595.625 -0.02631892064 0.01840529846
596.25 -0.02799052442 -0.03220823798
596.875 -0.03130143926 -0.02372416757
597.5 -0.02779659298 -0.02436900996
598.125 -0.02700417034 -0.01046161388
598.75 -0.01242513238 -0.02612390438
599.375 -0.0130415733 -0.03918672131
600.0 -0.01935741572 -0.05584795656
600.625 -0.03164914561 -0.06532410079
601.25 -0.0352988366 -0.07381487613
601.875 -0.05113385028 -0.05234001542
602.5 -0.05400255722 -0.03801474485
603.125 -0.05442890525 -0.01616917486
603.75 -0.01905723469 -0.03563084605
604.375 -0.01613597103 -0.02105495593
605.0 -0.01108790914 -0.03114367432
605.625 -0.004414710248 -0.04908962109
606.25 -0.01646983211 -0.03673705829
606.875 -0.00638378518 -0.01770224295
607.5 0.01587572468 -0.01252272108
608.125 0.02027501696 -0.0119869727
608.75 0.04002109746 -0.03222208934
609.375 0.03300277803 -0.01685615582
610.0 0.04140428087 -0.005275470225
610.625 0.0523507465 -0.01499432229
611.25 0.0460162482 -0.02311032825
611.875 0.04878128615 -0.0191417203
612.5 0.04681622989 -0.009630067294
613.125 0.01841717355 -0.005023098379
613.75 -0.001702622688 0.003419593211
614.375 0.04366655592 0.03684678142
615.0 0.03645796527 0.02691636741
615.625 0.02301295695 0.01541210541
616.25 0.004260009368 0.01717772309
616.875 0.03609685914 0.04341533497
617.5 0.04181187117 0.04724416799
618.125 0.02476512134 0.02780456653
618.75 0.00427904907 0.02332872344
619.375 0.03624062104 0.06035264897
620.0 0.04468710184 0.04407650649
620.625 0.03379256212 0.006614392155
621.25 0.01066349802 -0.009662661209
621.875 0.007012164073 0.006520299785
622.5 -0.0132812656 0.0129260761
623.125 -0.02233530425 0.04448524739
623.75 -0.0406433661 0.05076472607
624.375 -0.01679420946 0.06608535413
625.0 -0.0414002754 0.03811918761
625.625 -0.05171219459 0.0441428554
626.25 -0.03471092425 0.06548317586
626.875 -0.01820177502 0.05508657486
627.5 -0.01565577931 0.04538073958
628.125 -0.01812216017 0.03965994023
628.75 -0.02884783341 0.01687153064
629.375 -0.0171693621 0.006607284489
630.0 -0.01555834934 0.0222347295
630.625 -0.001330060854 -0.01130038447
631.25 0.004998333457 -0.03977018022
631.875 0.0007688352294 -0.04779432106
632.5 -0.01733705443 -0.0525893914
633.125 -0.02274786608 -0.05170298222
633.75 -0.02833542184 -0.0542494975
634.375 -0.01848647574 -0.07151924522
635.0 -0.06234010902 -0.03654832093
635.625 -0.0501262521 -0.03654885791
636.25 -0.03570294026 -0.02839947129
636.875 -0.02129355062 -0.03956935259
637.5 -0.01905529021 -0.06780538995
638.125 -0.04317867452 -0.03745508128
638.75 -0.03069779518 -0.01478359307
639.375 0.004555996373 -0.02116742637
640.0 0.06035173591 -0.01900265126
640.625 0.04013428405 -0.02937092415
641.25 0.03534055463 -0.03447265068
641.875 0.04910108914 -0.02347543081
642.5 0.05728794838 -0.002442405529
643.125 0.05647749542 0.003822157524
643.75 0.05212940585 -0.001933942737
644.375 0.05656499943 -0.01170152569
645.0 0.04664445457 0.005978584103
645.625 0.0308593129 -0.0002240127999
646.25 0.04203081401 0.01301668895
646.875 0.06658771577 0.01488310957
647.5 0.06816982547 0.02062549916
648.125 0.03876577291 -0.0006984471183
648.75 0.04413093496 0.04246273778
649.375 0.05086769256 0.06579660824
650.0 0.04406964545 0.07294864382
650.625 0.04155335544 0.06009416621
651.25 0.014009653 0.06962490481
651.875 -0.02072044635 0.0677622365
652.5 -0.02055885512 0.05047298163
653.125 -0.02762932832 0.03797448471
653.75 -0.02435859254 0.01154683596
654.375 -0.02466510823 -0.02430143263
655.0 -0.03221489016 -0.05120148999
655.625 -0.03511920025 -0.03713843966
656.25 -0.06531818331 -0.05223577669
656.875 -0.07476108834 -0.03242838437
657.5 -0.07354430446 -0.04163933743
658.125 -0.09690104714 -0.05243062716
658.75 -0.1016578105 -0.02528405141
659.375 -0.07822567621 0.01946201454
660.0 -0.06280118111 0.04056860935
660.625 -0.06765734291 0.03295070263
661.25 -0.03536743963 0.02521842007
661.875 -0.02718938377 0.02577686036
662.5 -0.04076576977 0.03042676128
663.125 -0.06234397967 0.01782123191
663.75 -0.0590192808 -0.02554445113
664.375 -0.0464728194 -0.05596867148
665.0 -0.02650119705 -0.09101883688
665.625 0.001144243771 -0.07893989069
666.25 0.02255018869 -0.0767959585
666.875 0.03699583653 -0.08122105319
667.5 0.05730053929 -0.09049614696
668.125 0.02798379243 -0.05236355077
668.75 0.02791417984 -0.03497839624
669.375 0.04280560327 -0.03170089426
670.0 0.06996724035 -0.03361330652
670.625 0.05772867105 -0.02117906068
671.25 0.05209265823 -0.03354071574
671.875 0.06561580108 -0.04460509812
672.5 0.05067569886 -0.08615353902
673.125 0.02305380081 -0.0919197257
673.75 0.003142784751 -0.08560092211
674.375 0.01590750402 -0.07664517642
675.0 0.0593486573 -0.06347666351
675.625 0.04426357645 -0.02881763142
676.25 0.05325898585 -0.01317825536
676.875 0.05795962964 0.004453601135
677.5 0.0416734501 0.03929715184
678.125 0.02632142918 0.04399723729
678.75 0.04638540044 0.06917849687
679.375 0.05845900946 0.1023513488
680.0 0.05184816148 0.0818473439
680.625 0.08131865102 0.05750652279
681.25 0.0809757119 0.02890116896
681.875 0.1023906092 0.008198608177
682.5 0.08019294193 -0.03380129261
683.125 0.06733636175 -0.035576254
683.75 0.05888543916 -0.006377147361
684.375 0.05180146129 0.04626718131
685.0 0.008262751116 0.0517085558
685.625 -0.03475778501 0.04421765274
686.25 -0.06899898185 0.01380445845
686.875 -0.07863392432 -0.02998770135
687.5 -0.09211847147 -0.04223085973
688.125 -0.1078179387 -0.05606486336
688.75 -0.108103872 -0.07217964404
689.375 -0.07640514589 -0.05377951769
690.0 -0.0684165616 -0.04683710961
690.625 -0.0910763288 -0.04636843453
691.25 -0.09949811446 -0.03508503757
691.875 -0.03493048593 0.0115123366
692.5 -0.03522696581 0.01718637787
693.125 -0.03592617157 0.06945269241
693.75 -0.01497975549 0.1110330531
694.375 0.01643888513 0.09787181096
695.0 -0.0164459976 0.0939199045
695.625 -0.09104743399 0.05135706843
696.25 -0.1028271023 -0.04670009656
696.875 -0.047008206 -0.110567688
697.5 0.03247971787 -0.08886938899
698.125 0.04762240948 -0.06270555204
698.75 0.03419202669 -0.0393770161
699.375 0.05530450363 -0.0400632157
700.0 0.07717433903 -0.004862843406
700.625 0.06361152246 0.03084126764
701.25 0.05744944074 0.03131934803
701.875 0.09580902274 0.01404555993
702.5 0.1255310921 -0.01026751612
703.125 0.08327669996 -0.06885220442
703.75 -0.02400959151 -0.08386846769
704.375 -0.0599276195 -0.05660849043
705.0 -0.03399971818 -0.082117482
705.625 0.02440432268 -0.07337192939
706.25 0.04709416801 -0.0351934563
706.875 0.04973574544 0.01874116965
707.5 0.03561954123 0.06533601268
708.125 -0.04243322402 0.08013332749
708.75 -0.07325071313 0.06661228773
709.375 -0.08906457269 0.03215513016
710.0 -0.0882239343 -0.007684117209
710.625 -0.06126286757 -0.05709368742
711.25 -0.05783363794 -0.08622819031
711.875 -0.07666277916 -0.06895661482
712.5 -0.07836623306 -0.005527631785
713.125 -0.0418811986 0.03477925458
713.75 -0.04434756783 0.03172116651
714.375 -0.04372425992 0.04848286845
715.0 -0.01008230459 0.05832583931
715.625 -0.03722539593 0.05578896717
716.25 -0.06813684796 0.0690532729
716.875 -0.1146850513 0.03281398971
717.5 -0.09032929354 -0.02088231441
718.125 -0.07807660247 -0.017366401
718.75 -0.04932858218 -0.07349504546
719.375 -0.02952280309 -0.08055190494
720.0 -0.001265255687 -0.07958152752
720.625 0.04190171302 -0.05070858356
721.25 0.02619251328 0.03673896674
721.875 -0.01340971586 0.03491100683
722.5 -0.04171347556 0.02886548798
723.125 -0.04313353928 0.05912242241
723.75 -0.02306891632 0.1041016148
724.375 0.06350373825 0.06294567692
725.0 0.07899116755 0.001244411758
725.625 0.05893521423 -0.04430939985
726.25 0.05498941713 -0.03883894271
726.875 0.04824083778 -0.02533313365
727.5 0.04142909138 -0.007999496862
728.125 0.03051945446 0.04345082718
728.75 0.02298711836 0.03402723989
729.375 0.02900476474 0.06244379218
730.0 0.04076493509 0.04767865409
730.625 0.01362719197 0.03986398979
731.25 -0.004439152645 0.03926114116
731.875 -0.06157081168 0.02775739921
732.5 -0.05707587967 -0.002054760684
733.125 -0.05786077814 -0.02774843139
733.75 -0.03349148795 -0.003547260925
734.375 -0.04204096321 -0.05114247388
735.0 -0.05887824187 -0.03146554041
735.625 -0.03144508173 -0.01007170825
736.25 -0.00970430236 -0.01812286292
736.875 -0.08818295931 -0.02362387478
737.5 -0.08159995407 -0.03271063441
738.125 -0.06068095916 -0.02567636514
738.75 -0.04238815162 -0.008014632542
739.375 -0.02692026923 -0.03984954423
740.0 -0.005014167643 -0.0372395908
740.625 -0.03373979904 -0.03941771325
741.25 -0.02134753501 -0.02730763454
741.875 0.01923371251 -0.005546279004
742.5 0.05959866338 -0.0002685747535
743.125 0.01918487624 0.04116967312
743.75 -0.01865310847 0.02453064502
744.375 -0.03786722407 0.01168163032
745.0 -0.04723000571 0.03398475629
745.625 -0.03134157792 0.05852463187
746.25 0.002354580641 0.07576725516
746.875 0.02056699321 0.04654296444
747.5 0.06004325148 0.004084049356
748.125 0.02900882661 -0.001919563102
748.75 0.01933915523 0.007359245418
749.375 0.0258970208 -0.01039709534
750.0 0.009358239014 -0.02682459717
