!Created with skrf (http://scikit-rf.org).
# GHz S RI R 50.0 
!freq ReS11 ImS11
500.0 -0.007486616622 0.01944961669
500.625 0.0179513828 0.030282371
501.25 0.03778346909 -0.008561410065
501.875 0.02321947207 -0.005917895467
502.5 0.009328211518 0.02689193906
503.125 0.02646469892 0.00407403539
503.75 0.03664399758 -0.002563208186
504.375 0.03671283261 -0.01511873449
505.0 0.04174453333 -0.02750485611
505.625 0.03257704778 -0.05694145835
506.25 0.02656911234 -0.06115799505
506.875 0.04481892885 -0.05902348777
507.5 0.05141867418 -0.05604299013
508.125 0.03854475317 -0.06772895081
508.75 0.002503710397 -0.07357456017
509.375 0.007009760724 -0.05447607717
510.0 0.06116975056 -0.05223876205
510.625 -0.04399302414 -0.04125772984
511.25 -0.05179353124 -0.03699240689
511.875 -0.05670525475 0.003459705984
512.5 -0.04088229851 0.01603679256
513.125 0.01067084773 0.04575829144
513.75 0.0128552411 0.04202782784
514.375 0.01161235185 0.04863333725
515.0 0.03834589799 0.07152799794
515.625 -0.01005325525 0.09722119444
516.25 0.04978676182 0.07949677557
516.875 -0.0124333781 0.1273700657
517.5 0.06930397327 0.1172966646
518.125 -0.01708603117 0.1544821091
518.75 0.04981983795 0.04727505621
519.375 0.03433450791 0.07347673958
520.0 0.0759508547 0.03638847181
520.625 0.08093554031 0.03086567304
521.25 0.07436127621 0.01331621356
521.875 0.05511310755 0.03295169966
522.5 0.0831537188 -0.002673677309
523.125 0.1335073533 -0.05570069823
523.75 0.1040651419 -0.129299401
524.375 0.1081225664 -0.0640553457
525.0 0.02600462299 -0.009289021131
525.625 0.01543427793 -0.0002729566539
526.25 0.0315916267 0.01577567395
526.875 0.04652325921 0.02789121189
527.5 0.03168685438 -0.000802198242
528.125 0.03287843369 -0.0145431693
528.75 0.04724562807 -0.03462245574
529.375 0.02266009358 -0.06890946086
530.0 -0.01093678638 -0.01354789346
530.625 -0.005313050179 -0.03879351696
531.25 -0.04440100091 -0.1310333102
531.875 -0.1045643625 -0.1412411832
532.5 -0.09866364607 -0.02136088037
533.125 -0.08708029294 -0.01690033816
533.75 -0.1025140051 -0.0178189337
534.375 -0.09269226022 -0.02160560534
535.0 -0.07797931215 0.0101259281
535.625 -0.05112409236 -0.01004762557
536.25 -0.04388889822 -0.001601790842
536.875 -0.0668924197 -0.04035964452
537.5 -0.05514913042 -0.04511639662
538.125 -0.07683195043 -0.01972490797
538.75 -0.07870680673 -0.00166220451
539.375 -0.06954506164 -0.02781246939
540.0 -0.06082726757 -0.04048643394
540.625 -0.07853763026 -0.05460321642
541.25 -0.07615707115 -0.06838492962
541.875 -0.07676419965 -0.06059380012
542.5 -0.06237334856 -0.05703725221
543.125 -0.1080763227 -0.03011226236
543.75 -0.09599752359 0.05419099161
544.375 -0.06402134833 0.06861155977
545.0 0.001318570918 0.07866480544
545.625 0.0181343221 0.07530352842
546.25 0.04418168272 0.06415514542
546.875 0.05326205946 0.05945767494
547.5 0.05945448046 0.0660883788
548.125 0.04170196862 0.07385380348
548.75 0.02789867532 0.07410938438
549.375 0.02383186642 0.09761823988
550.0 -0.0171179177 0.07255394305
550.625 -0.01328789379 0.03367317311
551.25 -0.0198137151 -0.002320729489
551.875 -0.04587698054 -0.00365974393
552.5 -0.05873021205 -0.006664124699
553.125 -0.06481779645 0.0008734294181
553.75 -0.0667959699 0.0025537787
554.375 -0.07968711122 0.03840914405
555.0 -0.07463157175 0.05617094475
555.625 -0.06126069712 0.05643284034
556.25 -0.06285802319 0.04103252158
556.875 -0.08405632932 0.05535221712
557.5 -0.08365529218 0.06960799948
558.125 -0.05992066107 0.05170230973
558.75 -0.06778210092 0.03618311123
559.375 -0.05979180606 0.03498181508
560.0 -0.02636595214 0.01814568502
560.625 -0.03351285066 0.001191777743
561.25 -0.05867727928 -0.001170904631
561.875 -0.07537935934 0.01198368741
562.5 -0.06071421578 0.04747634759
563.125 -0.0401955121 0.07186971629
563.75 -0.01507421921 0.1022533954
564.375 0.005272213755 0.1069459116
565.0 0.007357291998 0.08157537155
565.625 0.01808047561 0.07564820496
566.25 -0.009370032305 0.08043128051
566.875 -0.04074693897 0.05748554868
567.5 -0.05081805194 0.0547433569
568.125 -0.05002175985 0.03735641957
568.75 -0.04963482304 0.03127083113
569.375 -0.03389206025 0.01614570961
570.0 -0.03777357272 0.002878554966
570.625 -0.04611886595 -0.01075102084
571.25 -0.05116268057 -0.01418473861
571.875 -0.0503785546 -0.003012690944
572.5 -0.07112949397 0.02477389323
573.125 -0.08692440726 0.0468217068
573.75 -0.04622509451 0.08114934155
574.375 -0.0027351018 0.07766145063
575.0 0.0002982603305 0.0767534481
575.625 -0.01887654851 0.08608150234
576.25 -0.008423017774 0.08767746673
576.875 0.01659081568 0.085041971
577.5 0.03101772683 0.07786341468
578.125 0.01429774013 0.07384855282
578.75 0.004448900088 0.05223743262
579.375 0.01516745678 0.05124715875
580.0 0.02183771008 0.05319528281
580.625 -0.01383948933 0.02109966157
581.25 -0.03793942319 0.01891641217
581.875 -0.04502579605 0.03990709579
582.5 -0.03786153363 0.08029202531
583.125 -0.04374436355 0.06062527465
583.75 -0.04215276698 0.05572400833
584.375 -0.04882444185 0.04765354868
585.0 -0.07072410439 0.04661650093
585.625 -0.05702784788 0.03365217082
586.25 -0.04641296316 0.03688473547
586.875 -0.04974848738 0.03455034435
587.5 -0.04406646039 0.06137494798
588.125 -0.01971401617 0.05324328887
588.75 -6.296645545e-05 0.05353656465
589.375 0.0001788922095 0.040699052
590.0 -0.0156633819 0.0387187183
590.625 -0.02302072957 0.05383677696
591.25 -0.008672943213 0.07734648986
591.875 0.01351170914 0.09823529588
592.5 0.02162481935 0.08373969876
593.125 0.02401268341 0.06345956004
593.75 0.01465658381 0.06954279581
594.375 -0.003732100051 0.06763941869
595.0 -0.01227001938 0.06238191183
595.625 -0.02580014476 0.02967861124
596.25 -0.03746332956 0.01539216
596.875 -0.04850965007 0.0004803229861
597.5 -0.04522795644 0.003303059184
598.125 -0.03424652284 -0.008931692298
598.75 -0.02930669487 -0.01339669117
599.375 -0.0212881506 -0.02289463823
600.0 -0.02197333686 -0.01720926503
600.625 -0.04494213775 -0.07121073837
601.25 -0.06132713987 -0.05471071554
601.875 -0.06335231031 -0.02938939536
602.5 -0.06804844972 -0.01231402336
603.125 -0.06804221054 -0.01737866872
603.75 -0.05322420424 -0.01936944032
604.375 -0.03309438506 -0.02703970861
605.0 -0.02822968056 -0.02631835369
605.625 -0.03336278344 -0.02395934069
606.25 -0.01366024439 -0.06078934891
606.875 -0.01835687392 -0.03342486614
607.5 -0.01455605488 -0.01253334634
608.125 -0.005268756098 0.0005387774784
608.75 0.004557010347 -0.02624577962
609.375 0.02064657544 -0.03594267944
610.0 0.02561561384 -0.02039690795
610.625 0.02251844009 -0.01315242068
611.25 0.05780448271 -0.04698856656
611.875 0.05870683929 -0.04502855784
612.5 0.04310383234 -0.02737164916
613.125 0.01814463489 -0.02237675084
613.75 0.02242352565 -0.007744819381
614.375 0.03200954385 0.004087336652
615.0 0.03743546321 -0.002228348012
615.625 0.02990252561 -0.004626737648
616.25 0.006406438078 0.008096676504
616.875 0.0297055314 0.02109869715
617.5 0.02596750825 0.01975160716
618.125 0.03008206551 0.01912908296
618.75 0.02339344163 0.01909580874
619.375 0.04318314987 0.03145160946
620.0 0.04699269512 0.03282588179
620.625 0.03752447059 0.001394201342
621.25 0.05240646091 0.0002573369873
621.875 0.01525047681 -0.01395326541
622.5 -0.02620578977 0.003355191805
623.125 -0.01108769058 0.03139640682
623.75 -0.01385995534 0.04944679871
624.375 -0.007386599946 0.05221935827
625.0 -0.01340849414 0.04968495517
625.625 -0.03019999531 0.05212453589
626.25 -0.04288073378 0.06993960171
626.875 0.01465665622 0.09334892362
627.5 0.009443230386 0.06985887247
628.125 -0.01258740542 0.05400242979
628.75 -0.03918218666 0.02670459129
629.375 -0.01799890537 0.06227784949
630.0 -0.01113910014 0.02484860366
630.625 -0.01280784168 0.01393276853
631.25 -0.01333496704 -0.02991206484
631.875 -0.03051345424 -0.005504036952
632.5 -0.03238916481 -0.01666784677
633.125 -0.04423850379 -0.03849053956
633.75 -0.04415693092 -0.04328899512
634.375 -0.05195631917 -0.03433299858
635.0 -0.06335995633 -0.02623356464
635.625 -0.0704535984 -0.0001598718218
636.25 -0.05281554994 -0.01208935408
636.875 -0.04545616639 -0.04254730178
637.5 -0.06101632104 -0.02045943147
638.125 -0.06738339879 -0.02573160073
638.75 -0.05749458419 -0.009353540094
639.375 -0.01812871767 -0.02290124554
640.0 0.001349822071 -0.03710664649
640.625 0.02989859729 -0.04708163873
641.25 0.02865864292 -0.04603527126
641.875 0.03581848454 -0.05099328061
642.5 0.01980248137 -0.04781618841
643.125 0.04293905489 -0.03277860114
643.75 0.05362713192 -0.03624413593
644.375 0.06323115285 -0.04604931785
645.0 0.01823183798 -0.0535399064
645.625 0.03488030045 -0.02073853091
646.25 0.04896406695 -0.01300255971
646.875 0.06374063187 -0.01826594203
647.5 0.0684369516 -0.02213234058
648.125 0.05059766796 -0.01485624848
648.75 0.05087383687 0.01673745866
649.375 0.071792249 0.03859045174
650.0 0.07444474669 0.05646195397
650.625 0.06192345765 0.03345069671
651.25 0.04989510878 0.04961198872
651.875 0.01812910434 0.0869068138
652.5 -0.01180148939 0.08427272
653.125 0.01641910269 0.06019065488
653.75 -0.01273681127 0.04363168286
654.375 -0.04158725822 0.01045713564
655.0 -0.03106005392 -0.01169014694
655.625 -0.04889990064 -0.01785339975
656.25 -0.06598186124 -0.005568509753
656.875 -0.09157171263 0.002013986681
657.5 -0.09628625944 -0.00394226947
658.125 -0.07800525331 0.0003214689664
658.75 -0.1087530571 0.02372379041
659.375 -0.08387932804 0.06299251175
660.0 -0.05509916141 0.07661322803
660.625 -0.02583632534 0.07345825053
661.25 -0.02940078161 0.07225977079
661.875 -0.01528249114 0.05940501969
662.5 -0.008956226049 0.06331372126
663.125 -0.01141506153 0.03538907802
663.75 -0.05722995489 0.02066406421
664.375 -0.05919709697 -0.01668148377
665.0 -0.06757116712 -0.05479351753
665.625 -0.04641884145 -0.08630272116
666.25 -0.01164612751 -0.1090187027
666.875 0.002580959115 -0.1019870043
667.5 0.005429578965 -0.1093608229
668.125 0.008973285126 -0.09924079547
668.75 0.009955673467 -0.07320366576
669.375 0.01828171668 -0.05716534369
670.0 0.03109884963 -0.06816619065
670.625 0.04152449385 -0.06531361733
671.25 0.02157475846 -0.05126316818
671.875 0.02049178416 -0.06570289789
672.5 -0.00876577318 -0.09762927503
673.125 -0.0223830905 -0.09171878878
673.75 -0.04489491479 -0.09746359792
674.375 -0.03196807711 -0.09350909814
675.0 0.01454490295 -0.09424429011
675.625 0.03989515951 -0.06812089728
676.25 0.0557445376 -0.06285014713
676.875 0.06159979275 -0.04690570108
677.5 0.07173118337 -0.01392256964
678.125 0.03608143941 0.01266554141
678.75 0.04870006869 0.0300756344
679.375 0.07819449626 0.04243765133
680.0 0.1200123247 0.05285964325
680.625 0.07957407891 0.02327790884
681.25 0.1002088811 -0.01493753313
681.875 0.1136509594 -0.06473076186
682.5 0.09068809261 -0.08946059188
683.125 0.06085368421 -0.0880946186
683.75 0.05051587062 -0.04928357042
684.375 0.07614956794 -0.004033104219
685.0 0.06067932495 0.04298020146
685.625 0.02474666531 0.07687763426
686.25 -0.02607950069 0.02714946638
686.875 -0.063877928 0.01990863391
687.5 -0.07943833014 -0.0009664631816
688.125 -0.117247426 0.0187213986
688.75 -0.1118789165 -0.0176981386
689.375 -0.1098441593 -0.02032299806
690.0 -0.1062247244 -0.005551584672
690.625 -0.1161170492 0.009567332106
691.25 -0.1161474629 0.03517511868
691.875 -0.06246044053 0.05846650904
692.5 -0.0002787703852 0.06024161389
693.125 0.0292482993 0.0569878079
693.75 0.09182726356 0.07280935997
694.375 0.04218609209 0.07838018395
695.0 0.03026516982 0.08743982307
695.625 -0.02931088617 0.1043028056
696.25 -0.124189668 0.02653425338
696.875 -0.09482812865 -0.0855127416
697.5 -0.01123240557 -0.1050469988
698.125 0.009169689566 -0.09724376221
698.75 0.008638985133 -0.08194115134
699.375 0.02631164576 -0.04942160284
700.0 0.04682537105 -0.05459207996
700.625 0.0697788943 -0.02682477207
701.25 0.06754433505 -0.01093850907
701.875 0.07572971365 -0.01172013845
702.5 0.09177960072 -0.0798809079
703.125 0.04411030269 -0.1523456142
703.75 -0.06903920353 -0.09408806924
704.375 -0.09663967918 -0.02046733549
705.0 -0.06730311168 -0.04576407392
705.625 -0.04178441798 -0.09479584292
706.25 0.01923619032 -0.06898464458
706.875 0.04980918135 -0.04477680029
707.5 0.04802430219 0.02565710147
708.125 0.01944433978 0.08387365187
708.75 -0.02001702918 0.08861010048
709.375 -0.05421773122 0.07737767292
710.0 -0.08690508153 0.02853611053
710.625 -0.08608250934 -0.008290031665
711.25 -0.1007187587 -0.02665805144
711.875 -0.1278654809 -0.0001152117539
712.5 -0.09336117573 0.008533932933
713.125 -0.03117007973 0.07101284107
713.75 0.03523711171 0.06423188499
714.375 0.03867680007 0.06523311889
715.0 0.0406216599 0.05926755205
715.625 0.002896442504 0.06226000574
716.25 -0.02732943896 0.07814224689
716.875 -0.0746467924 0.08206213009
717.5 -0.1005198248 0.04613218102
718.125 -0.08943085213 0.001164571675
718.75 -0.08520178492 -0.005722118315
719.375 -0.08902909201 -0.04783097723
720.0 -0.04392722393 -0.08420102246
720.625 0.01334227028 -0.08648501735
721.25 0.06981263308 -0.02202758772
721.875 0.03322527767 0.03227084932
722.5 0.02527535911 0.02725946751
723.125 -0.03633509323 0.08265815583
723.75 0.0448262522 0.07739089696
724.375 0.0830601416 0.0129689979
725.0 0.06393348164 -0.04392797945
725.625 0.02578477848 -0.0687255365
726.25 0.07362469459 -0.06988946992
726.875 0.06138592333 -0.04752928789
727.5 0.0457554278 -0.03804722046
728.125 0.03285153223 -0.02447272801
728.75 0.05151941591 0.05087311341
729.375 0.05161640355 0.02527120553
730.0 0.05181011966 -0.0007595530999
730.625 0.03961439369 0.01039968002
731.25 0.02067738533 0.029293466
731.875 -0.02265341438 0.05358895789
732.5 -0.07270821435 0.03090492952
733.125 -0.06841371043 0.000269841551
733.75 -0.03430717101 0.02214648249
734.375 -0.04088114485 0.01023257806
735.0 -0.02010062627 0.02567791415
735.625 -0.01740869468 0.02341280877
736.25 -0.01049338913 0.004604003962
736.875 -0.04369763157 0.006811528164
737.5 -0.06354578242 0.004564807082
738.125 -0.07579674873 -0.002312418841
738.75 -0.04976749292 0.006382533118
739.375 -0.05727353212 -0.003847082662
740.0 -0.06771293196 -0.02387604972
740.625 -0.05059570626 -0.02300450629
741.25 -0.01723751956 -0.01689924362
741.875 -0.02525054363 -0.03406193383
742.5 0.02614754793 -0.02592074969
743.125 0.02263117876 0.02318820688
743.75 -0.01212947513 0.01918854023
744.375 0.02882818753 0.05785021193
745.0 0.0005474877314 0.04143969917
745.625 0.0005179366468 0.06493632218
746.25 0.01599155094 0.06765200521
746.875 0.05627942231 0.03467992328
747.5 0.05251691707 -0.008668474545
748.125 0.02985718956 -0.03130561879
748.75 0.01705590043 -0.02419732308
749.375 0.02654891281 -0.02472091207
750.0 -0.05759095657 -0.01538446635
