!Created with skrf (http://scikit-rf.org).
# GHz S RI R 50.0 
!freq ReS11 ImS11
500.0 -0.008434507068 0.009184973727
500.625 0.01967432472 0.01164333282
501.25 -0.01119392064 -0.02995086844
501.875 -0.03081508314 -0.03321456146
502.5 -0.01289675028 -0.002999764859
503.125 -0.00783544002 -0.002361995924
503.75 0.003008274208 -0.005453855452
504.375 0.00137019763 -0.01682014896
505.0 0.01384459184 -0.02151287085
505.625 0.004276271429 -0.03175753081
506.25 -0.01840625795 -0.04438852446
506.875 -0.002601577478 -0.07040162944
507.5 -0.004979323118 -0.07096342361
508.125 -0.03469863453 -0.04720775435
508.75 -0.06070104447 -0.03303670371
509.375 -0.04815714468 -0.03937872964
510.0 -0.01069253236 -0.05823169727
510.625 -0.02605007615 0.0118885721
511.25 -0.05388808623 0.005226529613
511.875 -0.04601890996 0.03379798019
512.5 -0.01399753299 0.04363447582
513.125 0.05147535478 0.0212895187
513.75 0.05997567972 0.006833419595
514.375 0.04400572956 0.008535597815
515.0 0.05792397678 0.003438530696
515.625 0.06258381109 0.04184025812
516.25 0.06608724301 0.01663674768
516.875 0.05110807833 0.09788371668
517.5 0.138253221 0.0349291653
518.125 0.1134477728 0.1617357914
518.75 0.09273954263 0.003797670444
519.375 0.07081611256 0.01279478649
520.0 0.07636286798 -0.03434199315
520.625 0.09495968188 -0.03509938928
521.25 0.06987140294 -0.04886515264
521.875 0.06312401187 -0.016225324
522.5 0.0685238467 -0.07636405653
523.125 0.1201111106 -0.1522101837
523.75 0.04437708025 -0.2144114836
524.375 0.07875100163 -0.2210250866
525.0 0.04084545059 -0.08922330977
525.625 0.01768652202 -0.05489201599
526.25 0.03278843152 -0.04662348679
526.875 0.03830198577 -0.05566375409
527.5 0.01325469344 -0.05849015793
528.125 -0.008734524856 -0.04580714085
528.75 -0.01918784859 -0.05520702324
529.375 -0.08974518238 -0.05030670233
530.0 -0.05442459637 0.03714601571
530.625 -0.005261957046 0.02430824278
531.25 -0.04644618401 0.005769201797
531.875 -0.1542339427 0.02888035479
532.5 -0.08137171459 0.06573035632
533.125 -0.07241599932 0.06309183339
533.75 -0.05055694704 0.07933411352
534.375 -0.07605060024 0.08941332677
535.0 -0.0574731855 0.0904054533
535.625 -0.04411956325 0.05513629983
536.25 0.003277661001 0.05862145094
536.875 -0.0514917163 0.0707757991
537.5 -0.04721271882 0.01749625719
538.125 -0.05368489289 0.04063183173
538.75 -0.05010271236 0.09291293582
539.375 -0.08097485405 0.07694077737
540.0 -0.05264845723 0.04729138854
540.625 -0.05483428123 0.04040131607
541.25 -0.07814322339 0.05756810622
541.875 -0.0945733172 0.03517559043
542.5 -0.05149926327 0.0004512430271
543.125 -0.07780454801 0.04599595537
543.75 -0.03376629055 0.1173994518
544.375 -0.004432646927 0.1282675223
545.0 0.07527910113 0.06038298444
545.625 0.09998694445 0.01380067162
546.25 0.09835093905 -0.004067403551
546.875 0.1020419052 -0.01321915016
547.5 0.1062624764 -0.01256786911
548.125 0.125930522 0.001717857703
548.75 0.11458154 0.04490885405
549.375 0.1175623632 0.05513011917
550.0 0.1020935486 0.08805244686
550.625 0.08284722432 0.08872412626
551.25 0.01927257163 0.0642366481
551.875 0.01999111809 0.04128664548
552.5 0.01919140603 0.03850316072
553.125 0.009384632666 0.06057514176
553.75 -0.006827965557 0.04498039774
554.375 -0.002797709934 0.05129103324
555.0 0.01831800339 0.07255704882
555.625 0.02964123496 0.08341421472
556.25 -0.004492587835 0.06562909296
556.875 0.002384793033 0.076305872
557.5 0.01215353401 0.112806401
558.125 -0.009481723738 0.09424520395
558.75 -0.03140043513 0.09222654232
559.375 0.00221142021 0.1020165232
560.0 0.005488775784 0.09009992715
560.625 0.01276865695 0.05530836096
561.25 0.008502442513 0.04200102109
561.875 0.007233574146 0.05545075765
562.5 0.0261898068 0.07389061499
563.125 0.02840712309 0.05999823985
563.75 0.05827613121 0.05059315628
564.375 0.1037967014 0.05184155433
565.0 0.08697907234 0.07183645166
565.625 0.08588125875 0.04361524981
566.25 0.07807826433 0.0473611335
566.875 0.07061522114 0.07428331997
567.5 0.02829853642 0.1007883898
568.125 0.002591060064 0.07466179381
568.75 0.008417155505 0.09744905294
569.375 0.007144306329 0.08696464217
570.0 0.0033348416 0.07981290642
570.625 0.003281835144 0.04318574386
571.25 0.002388302953 0.05810775366
571.875 -0.0002994056677 0.04460162651
572.5 0.009036582715 0.04256148431
573.125 -0.009278688939 0.05875895309
573.75 0.05369761274 0.08304523519
574.375 0.07264878651 0.05937667184
575.0 0.063668774 0.02848071934
575.625 0.05853650711 0.03020078838
576.25 0.07675397181 0.05387444578
576.875 0.08198795032 0.05229504183
577.5 0.08266872645 0.029822923
578.125 0.09192834951 0.02304555883
578.75 0.0850960273 0.04733366321
579.375 0.08150995529 0.02902886895
580.0 0.0883673549 0.006183585027
580.625 0.06240564049 0.01099165594
581.25 0.04145487849 0.01511956169
581.875 0.01898269314 0.02399490203
582.5 0.0421912984 0.03321406964
583.125 0.04612723932 0.06875555185
583.75 0.0425328412 0.06112598774
584.375 0.03003428472 0.05352156432
585.0 0.0172580452 0.06791407572
585.625 0.002443750077 0.08649470107
586.25 0.01566497941 0.07082586605
586.875 0.02061209867 0.05545720926
587.5 0.0524634488 0.06121470832
588.125 0.05295469165 0.06418088123
588.75 0.06520709336 0.04683663232
589.375 0.07005999866 -0.001837750777
590.0 0.06539609453 -0.01238587193
590.625 0.03850267239 0.01214907115
591.25 0.03429503316 0.02999608805
591.875 0.05857294401 0.03565529606
592.5 0.08835085422 0.02321923677
593.125 0.08662500242 0.02459338309
593.75 0.07031342422 0.02913089382
594.375 0.0706507941 0.04176554505
595.0 0.06563054389 0.06803729712
595.625 0.03389269631 0.06986876256
596.25 0.0110729813 0.05696593084
596.875 -0.01439275915 0.06826689576
597.5 -0.01880294459 0.07037650739
598.125 -0.01319690316 0.06272654435
598.75 -0.002004506738 0.05481920122
599.375 0.006802292469 0.03433685128
600.0 0.01447203402 0.02353479739
600.625 -0.04089198504 0.0035934177
601.25 -0.04229672068 0.01755659847
601.875 -0.05138549545 0.03237603091
602.5 -0.05450432951 0.03669137868
603.125 -0.04826789868 0.04083393546
603.75 -0.05781123145 0.05075349698
604.375 -0.06780373686 0.02975651406
605.0 -0.04037124063 0.01731139618
605.625 -0.03414985624 0.01309859601
606.25 -0.08940475489 -0.02282176791
606.875 -0.07511120768 -0.009170075486
607.5 -0.04727096138 0.02019688901
608.125 -0.01147721728 0.03284632349
608.75 -0.03328122805 0.01190698696
609.375 -0.03886435799 -0.01201493888
610.0 -0.01542449424 -0.007798661851
610.625 0.004319124991 -0.0005250897049
611.25 -0.00997538713 -0.0665427774
611.875 -4.116819294e-05 -0.06186463387
612.5 0.0004314317957 -0.05574548657
613.125 -0.0125631036 -0.05316659608
613.75 -0.007932082129 -0.03711958281
614.375 0.003199820172 -0.02955344907
615.0 0.005609336131 -0.03847426209
615.625 0.007025373248 -0.04442270943
616.25 -0.001104404438 -0.0112197922
616.875 0.009578695427 -0.0254896938
617.5 0.01817345871 -0.0146020234
618.125 0.02960046556 -0.02440205351
618.75 0.02685235721 -0.006476553164
619.375 0.04046207233 -0.01187347887
620.0 0.05897924518 -0.004256145997
620.625 0.05449447909 -0.02989407387
621.25 0.06163743328 -0.05230369692
621.875 0.03897516258 -0.05260925344
622.5 -0.01684811189 -0.03999072502
623.125 -0.01384447354 -0.008661584234
623.75 0.00455478462 0.01397377808
624.375 0.01674181269 0.007882008212
625.0 0.03179669969 0.008723413726
625.625 0.012623161 0.03363071098
626.25 0.02222192344 0.07014931343
626.875 0.07723569095 0.03066042818
627.5 0.06236489015 0.05239626844
628.125 0.03977192606 0.05618086866
628.75 0.01950560235 0.06845681194
629.375 0.05941277117 0.0641447946
630.0 0.02518307961 0.06222464042
630.625 0.02355876446 0.05695125879
631.25 -0.007964470579 0.04114011136
631.875 0.02241769915 0.05287385532
632.5 -0.0007290644334 0.02996400618
633.125 -0.02621310607 0.02334570427
633.75 -0.03387354671 0.02778065946
634.375 -0.04751703307 0.0298547281
635.0 -0.04490566342 0.03349674873
635.625 -0.02716288019 0.05563618312
636.25 -0.04440833712 0.06338795538
636.875 -0.0601138136 0.03836492409
637.5 -0.03563256931 0.03684723914
638.125 -0.05825060169 0.04674782173
638.75 -0.07332241586 0.06487681061
639.375 -0.06087803835 0.02632680203
640.0 -0.04756281289 0.01140576533
640.625 -0.05354882248 -0.02201402706
641.25 -0.04266044196 -0.04780405476
641.875 -0.0350440319 -0.05028386316
642.5 -0.04532424224 -0.0237927689
643.125 -0.03579653188 -0.04709436911
643.75 -0.01693508638 -0.07892417625
644.375 -0.01364762522 -0.08283769943
645.0 -0.05847887175 -0.04434335238
645.625 -0.0445507849 -0.07007931014
646.25 -0.02389809519 -0.06506208733
646.875 -0.005719683252 -0.05351616536
647.5 -0.01832435144 -0.07673537324
648.125 -0.02044779295 -0.07296059129
648.75 0.0001977299285 -0.04296909063
649.375 0.03438236031 -0.04087057052
650.0 0.06821309167 -0.05036928274
650.625 0.05583479092 -0.03852818022
651.25 0.06634022041 -0.01650522657
651.875 0.08763348208 0.01187426112
652.5 0.1127564999 0.07143715898
653.125 0.08330697389 0.04497449757
653.75 0.06823567198 0.05377496553
654.375 0.06391287497 0.07186891691
655.0 0.02917067702 0.07363348656
655.625 0.001771775102 0.04856359983
656.25 0.00712382609 0.03520333121
656.875 0.02064118805 0.06977415576
657.5 -0.01088774548 0.09809330589
658.125 -0.02312046089 0.05204117659
658.75 -0.02224636106 0.0721910934
659.375 0.02098292734 0.1088058628
660.0 0.04741954337 0.1174822749
660.625 0.0640310314 0.08366708721
661.25 0.08764249879 0.06138792075
661.875 0.1061715252 0.04666475837
662.5 0.1026751657 0.03246944428
663.125 0.06620820463 0.003995825328
663.75 0.05817788614 0.0502366714
664.375 -0.001743741043 0.0730457736
665.0 -0.05400255409 0.05482131249
665.625 -0.05463839193 0.02747659328
666.25 -0.1009664558 0.009851329849
666.875 -0.1009581093 -0.05403692869
667.5 -0.09103812563 -0.05973534045
668.125 -0.09509280418 -0.03817203522
668.75 -0.1196064716 -0.03280218003
669.375 -0.09522410741 -0.0448013034
670.0 -0.06880076606 -0.04561404161
670.625 -0.06241770122 -0.03702459462
671.25 -0.08808231046 -0.02802905983
671.875 -0.07646017187 -0.01769972512
672.5 -0.07993780516 -0.001563555712
673.125 -0.06444984188 0.00234006286
673.75 -0.1119702675 0.005448692384
674.375 -0.1112063374 -0.006232169167
675.0 -0.1114663689 -0.03523787303
675.625 -0.07941102602 -0.07126257323
676.25 -0.05326669784 -0.1100204138
676.875 -0.04210050343 -0.09928663427
677.5 -0.064253066 -0.1045178602
678.125 -0.02931155038 -0.0755506833
678.75 0.001385752236 -0.05183004025
679.375 0.0165337168 -0.03947837957
680.0 0.01511803099 -0.08500496208
680.625 0.03570729351 -0.08541492401
681.25 0.03077571466 -0.09131675902
681.875 -0.002694516321 -0.09928185452
682.5 -0.06891082023 -0.1120077586
683.125 -0.1042389989 -0.1392930975
683.75 -0.03612968539 -0.1023596645
684.375 0.01051546716 -0.09920343344
685.0 0.08105638047 -0.09633624382
685.625 0.1393778847 -0.03091449205
686.25 0.08291200773 0.01631508346
686.875 0.06551942146 0.03990721533
687.5 0.02610461631 0.05722001352
688.125 0.002819287229 0.08255384356
688.75 -0.02668122864 0.07359443998
689.375 -0.03877029673 0.1096760679
690.0 -0.06227220385 0.1146276246
690.625 -0.0474999152 0.1050378969
691.25 0.005902832575 0.1239779031
691.875 0.1057102249 0.1303468856
692.5 0.1435402391 0.05377384168
693.125 0.07689485292 -0.05849218532
693.75 0.02641924149 -0.09422475908
694.375 0.06037236975 -0.0681479058
695.0 0.1142796505 -0.03439858021
695.625 0.08533887267 0.04015954744
696.25 0.01573403499 0.09409735083
696.875 -0.0894347425 0.08337521406
697.5 -0.1129489596 -0.0325124001
698.125 -0.1047024309 -0.05408867812
698.75 -0.120841177 -0.03942403428
699.375 -0.08771154041 -0.0407234034
700.0 -0.07593470087 -0.05069313126
700.625 -0.06271492121 -0.06906687625
701.25 -0.05092104829 -0.09702976845
701.875 -0.01954642931 -0.06635268298
702.5 -0.03287389808 -0.06108295042
703.125 -0.106411243 -0.04308710263
703.75 -0.170138581 0.05699105435
704.375 -0.1015457467 0.108224606
705.0 -0.06219321885 0.06743740465
705.625 -0.09466504551 0.0697923914
706.25 -0.1428026279 -0.03372814571
706.875 -0.06496735304 -0.11717801
707.5 -0.000630684127 -0.08009543411
708.125 0.03793571019 -0.06475846446
708.75 0.08202329047 -0.01273730216
709.375 0.06479091245 0.06049450988
710.0 0.02126282401 0.07705364933
710.625 -0.01591228317 0.07657707823
711.25 -0.0380719052 0.07716990458
711.875 -0.03450983305 0.09840891348
712.5 -0.0366400304 0.1263249565
713.125 0.08298352813 0.1192857793
713.75 0.1294884608 -0.01769230676
714.375 0.07590778008 -0.08085969909
715.0 0.04682495917 -0.1206942545
715.625 0.08405309707 -0.0313891008
716.25 0.05821391808 0.004337156651
716.875 0.04915914659 0.03500791051
717.5 0.05210022214 0.07532419097
718.125 -0.003766111022 0.10619856
718.75 -0.02740592342 0.08052705849
719.375 -0.04642840766 0.06493595205
720.0 -0.08989955282 0.030801444
720.625 -0.09904886131 -0.04812035392
721.25 0.01495126173 -0.1069076053
721.875 0.07006095246 -0.06642766425
722.5 0.07044778009 -0.07136744554
723.125 0.07596292508 -0.01680904573
723.75 0.03163706254 -0.04939056704
724.375 0.003894241639 -0.07509374992
725.0 -0.03293436292 -0.05710810789
725.625 -0.04545508933 -0.02229140883
726.25 -0.06210908208 -0.08791300135
726.875 -0.04668586787 -0.1112177478
727.5 -0.01952780733 -0.09140717662
728.125 -0.02641205224 -0.06779405188
728.75 0.01335761212 -0.07510305674
729.375 0.008317026201 -0.07333654815
730.0 0.00913535866 -0.07038878141
730.625 0.006730858626 -0.05254139846
731.25 0.01327006768 -0.02836951758
731.875 0.0620837613 0.02718070112
732.5 0.0140353888 0.07210805303
733.125 -0.01261293265 0.0649940064
733.75 0.009994612251 0.04902900506
734.375 0.01246520634 0.07611057638
735.0 0.04831232515 0.03606348437
735.625 0.05992538627 0.02593802662
736.25 0.03870084041 -0.004041604881
736.875 0.02518053937 0.01118263578
737.5 0.00357409881 0.02492021907
738.125 -0.03345850599 0.04644713937
738.75 -0.04204843856 0.03693658553
739.375 -0.04218084755 0.0856782771
740.0 -0.01017670613 0.07741982372
740.625 -0.01743489915 0.05524285732
741.25 -0.02633491133 0.02462230445
741.875 -0.04884572897 0.02420373794
742.5 -0.04437932161 -0.03095125818
743.125 0.01732156925 -0.04219760631
743.75 0.02863429429 -0.0121173707
744.375 0.05827445033 -0.0381732688
745.0 0.03787785957 -0.03377853244
745.625 0.03408809999 -0.01991973183
746.25 0.03714511304 0.0138200715
746.875 0.05436074314 -0.02077422342
747.5 0.01642621646 -0.05772833966
748.125 -0.02630954404 -0.06095993457
748.75 -0.04320230892 -0.03853785936
749.375 -0.04774709538 -0.02585256791
750.0 -0.03312307679 0.08262706991
