!Created with skrf (http://scikit-rf.org).
# GHz S RI R 50.0 
!freq ReS11 ImS11
500.0 -0.002102797662 0.01530711624
500.625 0.01925364475 0.007365796835
501.25 0.01710373986 -0.01854457153
501.875 0.005802664985 -0.02957250062
502.5 0.005026339934 -0.004958674089
503.125 0.01147679693 -0.0007455596094
503.75 0.01113508768 -0.01705121924
504.375 0.005895382941 -0.02789381484
505.0 0.002840704056 -0.02940376529
505.625 -0.001006731965 -0.04384475946
506.25 -0.02594158444 -0.05426064573
506.875 -0.01638102969 -0.09126141168
507.5 -0.03374049101 -0.06414674249
508.125 -0.0164056345 -0.07458362187
508.75 -0.07378454914 -0.06782940483
509.375 -0.06963204145 -0.04635418871
510.0 -0.0451592125 -0.0429444462
510.625 -0.04859384572 0.00651140903
511.25 -0.07202040143 0.01815739265
511.875 -0.05073536216 0.05137421611
512.5 0.001346578573 0.05276971344
513.125 0.0667746018 0.03051109915
513.75 0.08783652797 0.02057408994
514.375 0.07046219539 -0.00675724277
515.0 0.05783847395 -0.03546155267
515.625 0.09805043824 0.009818562098
516.25 0.106581839 -0.01742728557
516.875 0.08534354349 0.08006588248
517.5 0.1241590964 -0.01115837805
518.125 0.1800067571 0.1570120669
518.75 0.1156648161 -0.0367696298
519.375 0.08201434528 -0.01681220028
520.0 0.07064532667 -0.06439984829
520.625 0.09990296791 -0.08616322107
521.25 0.06470505407 -0.09089100683
521.875 0.05790378439 -0.04112950875
522.5 0.03128269061 -0.0953254441
523.125 0.09824878294 -0.2256248122
523.75 0.04568350548 -0.2909761891
524.375 0.03684377489 -0.2848854809
525.0 0.01092477345 -0.1368096977
525.625 0.01543153986 -0.1013118225
526.25 0.03247119994 -0.07470927112
526.875 0.005084008151 -0.07817419142
527.5 -0.02085797459 -0.09326464804
528.125 -0.04385634373 -0.05997644996
528.75 -0.05878628634 -0.05372999771
529.375 -0.1260040418 0.001771266114
530.0 -0.1010805948 0.06809601266
530.625 -0.01952384484 0.07575045616
531.25 -0.02986221436 0.06015634458
531.875 -0.07490326182 0.1112961072
532.5 -0.08242711119 0.1496251871
533.125 -0.04858705867 0.114748139
533.75 -0.002714111009 0.09821919583
534.375 -0.003090562921 0.1235447503
535.0 -0.008820782871 0.1377633515
535.625 -0.02841035416 0.0922781497
536.25 0.04415866665 0.07474532311
536.875 0.02056255843 0.09330124588
537.5 -0.05386124941 0.0800282355
538.125 -0.03554289745 0.07901372916
538.75 0.002516500696 0.1267794187
539.375 -0.03491543742 0.137310549
540.0 -0.02426398981 0.1112717277
540.625 -0.02011421979 0.09228814809
541.25 -0.02553462573 0.1176446363
541.875 -0.05121336486 0.102785479
542.5 -0.05079351315 0.04547224908
543.125 -0.03363723942 0.0714866887
543.75 0.03135071816 0.1273013347
544.375 0.06050991969 0.1345760422
545.0 0.1068853123 0.03212769467
545.625 0.1029555931 -0.04378408554
546.25 0.1076885443 -0.08628794519
546.875 0.1001835241 -0.07293710363
547.5 0.1045599941 -0.06996094755
548.125 0.1363930607 -0.07482426343
548.75 0.1700157461 -0.02348126286
549.375 0.1561229539 0.007148690257
550.0 0.1478939982 0.04405990177
550.625 0.1684534813 0.06348027161
551.25 0.08668109232 0.1019305686
551.875 0.06567815663 0.04751576787
552.5 0.07493414315 0.02702384639
553.125 0.09932195536 0.03775980505
553.75 0.04857285627 0.05523562302
554.375 0.03827426708 0.03459432577
555.0 0.06282826024 0.03503040044
555.625 0.09523518274 0.04133168241
556.25 0.06353046523 0.06714059093
556.875 0.0437430515 0.0553748737
557.5 0.06346995818 0.07283686261
558.125 0.06219312861 0.1093760605
558.75 0.01963842776 0.1174550918
559.375 0.049359132 0.1016372136
560.0 0.07400633036 0.1046706746
560.625 0.06854027169 0.07521620221
561.25 0.05936345012 0.03573800313
561.875 0.06690966731 0.02751949615
562.5 0.07674592406 0.02662458043
563.125 0.07146425046 0.02503616805
563.75 0.06688730103 0.006200609135
564.375 0.09678171572 -0.02332313373
565.0 0.1424722836 0.009767949946
565.625 0.1173920021 -0.003167181982
566.25 0.09959928673 -0.0005822356856
566.875 0.1105696534 0.01007094922
567.5 0.1012261837 0.06875938544
568.125 0.05933979263 0.08250480062
568.75 0.07322267555 0.09048447267
569.375 0.07637370361 0.101226221
570.0 0.06655986599 0.08942509348
570.625 0.05631285237 0.0598822942
571.25 0.07705318896 0.04550823206
571.875 0.07263728612 0.04883259726
572.5 0.05049714123 0.01911598027
573.125 0.04628199128 0.0189413598
573.75 0.09015698631 0.008967503296
574.375 0.1133688832 -0.009048548469
575.0 0.0793223592 -0.01772630265
575.625 0.05576352723 -0.03125693765
576.25 0.0870140146 -0.03321515211
576.875 0.09736092368 -0.01359959198
577.5 0.08891035431 -0.01284726696
578.125 0.08752486712 -0.03479241211
578.75 0.1159100506 -0.04690196799
579.375 0.1145926569 -0.02257217158
580.0 0.09443375064 -0.03396591247
580.625 0.08991577114 -0.0631013888
581.25 0.0792646565 -0.07002687546
581.875 0.05866590095 -0.02807217804
582.5 0.04799056409 -0.009458440865
583.125 0.08157756938 -0.009216413634
583.75 0.09385967358 0.003443124432
584.375 0.07397313751 0.01227487009
585.0 0.06082594713 0.02171792161
585.625 0.08030074503 0.03303589873
586.25 0.08101038048 0.04358557012
586.875 0.0644069153 0.02237539594
587.5 0.07392188617 0.007555565394
588.125 0.09691123593 -0.008262911172
588.75 0.1023576203 -0.01261460765
589.375 0.0717383637 -0.05342519046
590.0 0.03571225141 -0.08911083545
590.625 0.02707293954 -0.0745941706
591.25 0.02733920209 -0.02818321105
591.875 0.03591397984 -0.01574575435
592.5 0.05164449065 -0.04371610284
593.125 0.07311382897 -0.05449274466
593.75 0.07213857857 -0.02912180843
594.375 0.07230878307 -0.0115485395
595.0 0.09126345821 0.004283898179
595.625 0.09072641239 0.02984904086
596.25 0.06565427918 0.03927244463
596.875 0.05305863619 0.04201658348
597.5 0.05411438834 0.05892470049
598.125 0.0587771183 0.05878060372
598.75 0.07117449658 0.03342451503
599.375 0.07294264464 0.01704573979
600.0 0.05937709454 0.01214854144
600.625 0.03389396119 0.007092262653
601.25 0.01750747269 0.005954693985
601.875 0.01250324171 0.02229946066
602.5 0.004578717699 0.03503288926
603.125 -0.003810523485 0.03866210071
603.75 0.003015628118 0.04460711003
604.375 0.01289759295 0.05095009224
605.0 0.005334877089 0.04311056926
605.625 -0.009686312237 0.02632059283
606.25 -0.02629455494 0.02861108177
606.875 -0.03369480595 0.04595114269
607.5 -0.01733517151 0.05599628323
608.125 0.007523097332 0.04534882235
608.75 0.01174771598 0.03573203044
609.375 0.007934100705 0.03444954739
610.0 0.00828237828 0.02913164066
610.625 0.01412524992 0.01524175605
611.25 0.01220192704 0.001491379471
611.875 0.006901731132 -0.009795841704
612.5 -0.001204435999 -0.01778255712
613.125 -0.01297382327 -0.0150560876
613.75 -0.01448842457 -0.003214241861
614.375 -0.003354504785 0.003249247381
615.0 0.006733611511 -0.003330335024
615.625 0.003648012737 -0.01026866312
616.25 -0.002277508124 -0.002626723096
616.875 0.007336543734 0.007933645907
617.5 0.02301724664 0.005666557648
618.125 0.02857475018 0.0005191595897
618.75 0.02814625904 0.001260511673
619.375 0.03813773386 0.006844561837
620.0 0.05750261621 0.001992106822
620.625 0.05905589709 -0.02445547058
621.25 0.05075993346 -0.03403707068
621.875 0.03782426588 -0.04231605288
622.5 -0.005922777203 -0.0377520582
623.125 -0.005144390756 -0.009718528616
623.75 0.01083830848 0.005062337949
624.375 0.02592252103 0.01458152502
625.0 0.02346667668 0.03024234736
625.625 0.02101178029 0.0378292099
626.25 0.03970310743 0.04683221458
626.875 0.06588812322 0.05754321821
627.5 0.05944408418 0.06590992208
628.125 0.0479446937 0.05954184626
628.75 0.05094172842 0.0630237271
629.375 0.05378326725 0.08237535153
630.0 0.03635012221 0.08219650687
630.625 0.02662937055 0.06585422517
631.25 0.02418237785 0.0615609289
631.875 0.006540014809 0.06240275961
632.5 -0.01092003391 0.05078950339
633.125 -0.01917064783 0.04269554889
633.75 -0.01847659107 0.0595503037
634.375 -0.03285988371 0.06212189942
635.0 -0.03392120683 0.06182924385
635.625 -0.02400459374 0.07945336211
636.25 -0.01731530273 0.1004035474
636.875 -0.02969863579 0.08255934995
637.5 -0.03115418937 0.05974276703
638.125 -0.04278008931 0.08410460164
638.75 -0.06913427277 0.1043278674
639.375 -0.07780683558 0.0674512295
640.0 -0.05993938011 0.03416248987
640.625 -0.07294841435 0.02330115286
641.25 -0.09741843112 -0.01429259396
641.875 -0.07427782886 -0.03344817353
642.5 -0.06543517438 -0.02780715477
643.125 -0.08118473542 -0.038852033
643.75 -0.07825067239 -0.0786740771
644.375 -0.06401364017 -0.07725391908
645.0 -0.08636010782 -0.04643941003
645.625 -0.1095138154 -0.04663272469
646.25 -0.09373961198 -0.05169507463
646.875 -0.05928884308 -0.05957774721
647.5 -0.07027977121 -0.05149006194
648.125 -0.08571702201 -0.06755427201
648.75 -0.04719027694 -0.0709145473
649.375 -0.01522547637 -0.05990706928
650.0 0.006676626968 -0.07803509905
650.625 0.04458101902 -0.08793704314
651.25 0.07027623705 -0.06249794668
651.875 0.08186446215 -0.03963140144
652.5 0.126957213 -0.01847463115
653.125 0.1390824114 0.0360974028
653.75 0.118634356 0.04321715431
654.375 0.116738706 0.03844881156
655.0 0.1178828677 0.06610834752
655.625 0.06926212941 0.07939062484
656.25 0.05172713288 0.04630804176
656.875 0.08183116229 0.03013707139
657.5 0.08299205211 0.06477543965
658.125 0.04150285948 0.08147800523
658.75 0.02643365221 0.07100118797
659.375 0.08254351975 0.06640894632
660.0 0.1256889113 0.06642113386
660.625 0.1251633758 0.0474381881
661.25 0.1215601206 0.01032119886
661.875 0.1381951589 -0.03572457666
662.5 0.1394796857 -0.05373555897
663.125 0.1167087071 -0.03400859049
663.75 0.1166999794 -0.001466942274
664.375 0.08540618223 0.09138773616
665.0 0.01091705188 0.09683597291
665.625 -0.01864736671 0.07329263683
666.25 -0.03898607764 0.08482179402
666.875 -0.1193914874 0.06388151879
667.5 -0.1176220777 0.004658350027
668.125 -0.1061573575 0.01891417535
668.75 -0.1199744286 0.06717422252
669.375 -0.1476294201 0.05810305671
670.0 -0.1130368764 0.009624022511
670.625 -0.09423588779 0.01545305688
671.25 -0.1146343523 0.06204738797
671.875 -0.1085672047 0.07998209959
672.5 -0.06451908286 0.07866227054
673.125 -0.0457436081 0.07522190139
673.75 -0.06855457186 0.0948799453
674.375 -0.09868699416 0.07973616405
675.0 -0.1103680644 0.04527945387
675.625 -0.1358236817 0.01131062062
676.25 -0.1299879987 -0.05755610638
676.875 -0.1129370125 -0.07688692537
677.5 -0.1241526949 -0.05224018781
678.125 -0.1544810128 -0.05832658573
678.75 -0.09055043532 -0.08681127975
679.375 -0.04164712879 -0.06123402807
680.0 -0.05099530603 -0.05175328945
680.625 -0.08766833764 -0.08042885547
681.25 -0.0783752689 -0.09998492531
681.875 -0.05854579755 -0.07258610682
682.5 -0.1039365773 -0.03493015388
683.125 -0.1579589716 -0.02613936484
683.75 -0.1559421717 -0.07674053308
684.375 -0.06956483777 -0.1173135826
685.0 -0.0009827817513 -0.140941921
685.625 0.09954478855 -0.1284678617
686.25 0.1347333948 -0.0746966358
686.875 0.1268854671 -0.04172287869
687.5 0.11828246 0.005082095451
688.125 0.08526860797 0.04194359346
688.75 0.05594786534 0.05912075646
689.375 0.07023154982 0.07574341955
690.0 0.06668917732 0.1287857971
690.625 0.03982753437 0.1205103334
691.25 0.07576660404 0.09510175802
691.875 0.160374612 0.01664219418
692.5 0.1910735751 -0.1127564221
693.125 0.05317607666 -0.1535915694
693.75 -0.04719091915 -0.1058386425
694.375 -0.07592146632 -0.1126673021
695.0 0.0005126950615 -0.1680977352
695.625 0.1176741375 -0.06610632625
696.25 0.08446390838 0.04144574373
696.875 0.01656799642 0.1102488502
697.5 -0.0829088301 0.09651855683
698.125 -0.1230800948 0.06093733807
698.75 -0.1250967819 0.06819567546
699.375 -0.1285432739 0.06428625896
700.0 -0.1186600579 0.03340535121
700.625 -0.1162266316 0.008226396602
701.25 -0.1449312637 0.002047308897
701.875 -0.1268123491 -0.01281240531
702.5 -0.0801772873 0.01220090047
703.125 -0.06529810401 0.04290016038
703.75 -0.02880442951 0.1440050887
704.375 0.00613095671 0.1892801428
705.0 0.01510852073 0.1322469992
705.625 -0.007078635594 0.1130974503
706.25 -0.1008735529 0.1178520377
706.875 -0.1787964789 -0.03747199994
707.5 -0.09009664997 -0.09622309144
708.125 -0.0517459619 -0.09347132045
708.75 0.01088995848 -0.1064154922
709.375 0.09365006049 -0.05365385882
710.0 0.09164887009 0.0215912167
710.625 0.07624081312 0.03573335474
711.25 0.05457219827 0.05998900018
711.875 0.04092963599 0.07268657931
712.5 0.07766317587 0.07855235143
713.125 0.1549456073 0.002411374571
713.75 0.103841333 -0.1193311389
714.375 -0.001311744356 -0.1378305849
715.0 -0.07124609561 -0.1189016199
715.625 -0.05752222106 -0.1517236247
716.25 0.02942350187 -0.1190597024
716.875 0.05201109857 -0.05837385092
717.5 0.07563530873 -0.02406836204
718.125 0.1065388365 0.01941115375
718.75 0.08008896259 0.06282550034
719.375 0.03776016488 0.05819860501
720.0 0.003701273721 0.06565527642
720.625 -0.07748707603 0.04555913329
721.25 -0.08799070538 -0.07101227081
721.875 -0.01038209831 -0.1125599076
722.5 0.001256731462 -0.120139094
723.125 -0.0489623242 -0.1066654065
723.75 -0.0814704714 -0.04441172877
724.375 -0.07355948484 0.007415467718
725.0 -0.04828484687 0.0408799782
725.625 -0.02522895501 0.0399678255
726.25 -0.02788179631 0.02623436098
726.875 -0.05522875955 0.01190704949
727.5 -0.08127638654 -0.009353017504
728.125 -0.07640868744 -0.03048917448
728.75 -0.06563427465 -0.01686778133
729.375 -0.05556938942 0.002080549323
730.0 -0.05308975371 -0.00380489323
730.625 -0.04698374245 -0.01386939902
731.25 -0.03140728666 -0.02144265962
731.875 -0.01251010662 -0.02917873371
732.5 0.005699752894 -0.01943802299
733.125 0.009030122228 0.003083344874
733.75 0.01784712336 0.01392371951
734.375 0.02944944126 0.008040646586
735.0 0.0265144635 -0.01162646493
735.625 0.01857242072 -0.01714386187
736.25 0.009890633866 -0.02533160847
736.875 -0.009460928531 -0.02777245598
737.5 -0.02951886872 -0.01343222851
738.125 -0.04184190784 0.007290044409
738.75 -0.03917402765 0.0272232578
739.375 -0.02040408431 0.03333748274
740.0 -0.008871708307 0.02061459334
740.625 -0.01887731359 0.01957349071
741.25 -0.02633021172 0.02685250693
741.875 -0.03693435353 0.009608343212
742.5 -0.02433656911 -0.02970091575
743.125 0.02338185952 -0.03506333126
743.75 0.03972150334 -0.01322536228
744.375 0.03817103392 -0.01428850687
745.0 0.03644565872 -0.0186111207
745.625 0.03154884969 -0.01203723751
746.25 0.04464934823 -0.00202992106
746.875 0.04811044432 -0.03688678235
747.5 0.01711940038 -0.06631123594
748.125 -0.01642903698 -0.06695442398
748.75 -0.04639107759 -0.04464057842
749.375 -0.06935669426 0.001437338944
750.0 -0.04275679776 0.07783023783
