!Created with skrf (http://scikit-rf.org).
# GHz S RI R 50.0 
!freq ReS11 ImS11
500.0 -0.02140874527 0.02471378556
500.625 0.02231820482 0.03072086596
501.25 0.02921053343 0.02198691885
501.875 0.01654455683 0.03256891064
502.5 -0.002526013654 0.06226087277
503.125 0.03024826914 0.03143094313
503.75 0.04206051995 0.01028740248
504.375 0.04700654371 0.002838211575
505.0 0.06099580177 -0.01514986958
505.625 0.0477963626 -0.05726027146
506.25 0.03766926215 -0.0556593682
506.875 0.05932347775 -0.03844062473
507.5 0.05202421082 -0.03557784544
508.125 0.07135347199 -0.01589843783
508.75 0.04769332194 -0.04422264809
509.375 0.03314143835 -0.04239137095
510.0 0.06169993226 -0.03407793425
510.625 -0.006362651698 -0.0631846361
511.25 -0.03231014417 -0.0505573552
511.875 -0.04387327941 -0.0145225893
512.5 -0.03477647339 -0.005602446568
513.125 -0.0156813765 0.03180220374
513.75 -0.02949200838 0.03445555847
514.375 -0.02990331677 0.06592774879
515.0 0.03150825586 0.06470603406
515.625 -0.03518563112 0.08607022359
516.25 0.02367033778 0.1023091292
516.875 -0.05952590541 0.1142327935
517.5 0.03409274575 0.1003327082
518.125 -0.04013919602 0.1133885867
518.75 0.01967362657 0.05197415885
519.375 -0.01347748474 0.08133708912
520.0 0.05277957355 0.05092561091
520.625 0.05804585512 0.03861843756
521.25 0.05633748726 0.02216650138
521.875 0.02748700804 0.05198189749
522.5 0.06439751255 -0.001147507773
523.125 0.1089175704 -0.02583968913
523.75 0.09598173923 -0.03590015855
524.375 0.04317541493 -0.01160040967
525.0 0.006222282549 -0.01577819178
525.625 -0.002990910089 0.01452393732
526.25 -0.0002539096033 0.04566202929
526.875 0.009227031633 0.04239044284
527.5 0.01714721408 0.01177019168
528.125 0.03149318552 0.005851541977
528.75 0.05193777131 -0.007241224472
529.375 0.05491452251 -0.02914707123
530.0 0.03047224553 -0.02061342673
530.625 0.01853756238 -0.0823886821
531.25 0.03213074539 -0.1522655799
531.875 -0.03950254815 -0.1560889585
532.5 -0.07985811664 -0.0774098106
533.125 -0.06098872975 -0.04580712508
533.75 -0.06303241803 -0.06184279559
534.375 -0.06946270988 -0.05082765833
535.0 -0.04989481815 -0.002498836965
535.625 -0.02261116569 -0.02736835394
536.25 -0.02715722479 -0.04109300728
536.875 -0.03824593816 -0.06763191754
537.5 -0.03956915415 -0.08876797768
538.125 -0.06255188029 -0.06414561898
538.75 -0.05276204891 -0.03539116648
539.375 -0.03317601648 -0.05398307645
540.0 -0.02873592675 -0.06623128918
540.625 -0.0448811391 -0.1063212049
541.25 -0.03216066398 -0.0842333764
541.875 -0.04247770223 -0.08286606947
542.5 -0.04497800712 -0.09606349803
543.125 -0.08521252703 -0.0632701652
543.75 -0.09157052563 0.01358756455
544.375 -0.0675758429 0.03322315615
545.0 -0.01327661136 0.04053606182
545.625 -0.0127089875 0.04756434336
546.25 0.006315013433 0.06622436311
546.875 0.01242392755 0.07343288801
547.5 0.01343398733 0.05758025118
548.125 -0.0009177572975 0.0654820448
548.75 -0.01444497901 0.0629539064
549.375 -0.03365186339 0.07008785451
550.0 -0.01243905771 0.01832125353
550.625 -0.006827867973 -0.007927039646
551.25 -0.01077857599 -0.03383315044
551.875 -0.05808547713 -0.05225800512
552.5 -0.05210711853 -0.05094564963
553.125 -0.06276551687 -0.03086438215
553.75 -0.07776414846 -0.03329650135
554.375 -0.1026761397 0.00114308737
555.0 -0.07394100563 0.01130300733
555.625 -0.07039527794 0.02193001641
556.25 -0.08539609866 0.01345872911
556.875 -0.092613668 0.009924150755
557.5 -0.088031628 0.02739435751
558.125 -0.07246175107 0.02137910723
558.75 -0.0587886752 0.00240091532
559.375 -0.04184703866 -0.002542500766
560.0 -0.0098506868 -0.007299125726
560.625 -0.02302850853 -0.03787886801
561.25 -0.0504652458 -0.04354034587
561.875 -0.07707903059 -0.02423263871
562.5 -0.06835571815 0.0109324874
563.125 -0.06981233061 0.03966645367
563.75 -0.06138489898 0.07609512652
564.375 -0.02864991666 0.0842788777
565.0 -0.01805171579 0.06008725128
565.625 -0.01772993266 0.05115389667
566.25 -0.03981825006 0.03294503402
566.875 -0.05628464965 0.02183023065
567.5 -0.05862662455 0.01210399848
568.125 -0.05784448136 0.003685340529
568.75 -0.03960400237 -0.002291656015
569.375 -0.02352109137 -0.01829485486
570.0 -0.02272618579 -0.03677572015
570.625 -0.02822521256 -0.05111802423
571.25 -0.03535976495 -0.03730241493
571.875 -0.05220759768 -0.04092040458
572.5 -0.08704875764 -0.02145994905
573.125 -0.1055477418 0.01305908535
573.75 -0.06181821525 0.0553267004
574.375 -0.03663785074 0.06396193022
575.0 -0.05154686227 0.04645478854
575.625 -0.05594820742 0.05321932017
576.25 -0.0352114785 0.0617942884
576.875 -0.01057318583 0.07764158736
577.5 -0.01559690926 0.04996770199
578.125 -0.01772037471 0.03828800484
578.75 -0.01294626711 0.03637232363
579.375 -0.01452351864 0.0381637641
580.0 -0.02191989935 0.02455722433
580.625 -0.03277273647 0.00386187986
581.25 -0.05734952472 0.005414961591
581.875 -0.07552465543 0.02411904426
582.5 -0.07661971462 0.03972720262
583.125 -0.0645555507 0.02869843766
583.75 -0.05998869867 0.01562498348
584.375 -0.07169881734 0.01450725061
585.0 -0.07523153365 0.01172404105
585.625 -0.05915831934 0.01465060372
586.25 -0.05585583695 0.004253336253
586.875 -0.05778136136 -0.002782544872
587.5 -0.05530207365 0.01517787165
588.125 -0.03677886839 0.03184491645
588.75 -0.03215348321 0.02591466468
589.375 -0.03633691925 0.02000292971
590.0 -0.03842050378 0.02399749113
590.625 -0.06333570186 0.0414918916
591.25 -0.05655515379 0.07265925865
591.875 -0.03511414088 0.08130201134
592.5 0.002094168621 0.07426921014
593.125 -0.01772391746 0.04952943276
593.75 -0.02879483504 0.05000344792
594.375 -0.02964288104 0.0418635496
595.0 -0.02722429958 0.03138682414
595.625 -0.02524306594 -0.01781220469
596.25 -0.0263275934 -0.02899368606
596.875 -0.02859020881 -0.02417582088
597.5 -0.0345035183 -0.01056786284
598.125 -0.007952425579 -0.03236248272
598.75 -0.01446143776 -0.02661524204
599.375 -0.008602013898 -0.03990605724
600.0 -0.01897261657 -0.05161980878
600.625 -0.01952392558 -0.07784342317
601.25 -0.02818903841 -0.07647395847
601.875 -0.04932728455 -0.04610067933
602.5 -0.05525356897 -0.01976022658
603.125 -0.02684775787 -0.05299701113
603.75 -0.02354917967 -0.02973260381
604.375 -0.01640946748 -0.01803987337
605.0 -0.005762907821 -0.03616594703
605.625 -0.008649911061 -0.04196688577
606.25 -0.002633527029 -0.03702354856
606.875 -0.002522805764 -0.01802800222
607.5 0.009214734853 -0.004706315
608.125 0.02129453995 -0.01072049169
608.75 0.03131689093 -0.02295307299
609.375 0.0272761344 -0.0106035436
610.0 0.04153746321 -0.00669342803
610.625 0.04374032404 -0.01366020242
611.25 0.05447415319 -0.02104892223
611.875 0.05043767176 -0.01716904581
612.5 0.03424069078 -0.0108319953
613.125 0.001242736299 -0.011044752
613.75 0.03133238734 0.02357342491
614.375 0.0292520549 0.02952007832
615.0 0.026281554 0.02642331052
615.625 0.002360487407 0.005113437467
616.25 0.01430527486 0.02368350608
616.875 0.02284337144 0.04127647677
617.5 0.02915110059 0.04228731155
618.125 0.003692327543 0.02109717997
618.75 0.02868339733 0.04578058158
619.375 0.02337759792 0.04601390994
620.0 0.02997243795 0.0347285063
620.625 0.01811024555 -0.0001873337766
621.25 0.02760261373 0.0088767021
621.875 -0.001910990266 -0.005133696578
622.5 -0.02424949012 0.01170210294
623.125 -0.04511013357 0.03674880686
623.75 -0.0120748707 0.06752971249
624.375 -0.02732356959 0.05226126257
625.0 -0.04949328124 0.02693419393
625.625 -0.05165210741 0.03813542792
626.25 -0.04111031197 0.05019231591
626.875 -0.01701865882 0.05889921375
627.5 -0.01400676999 0.04025666843
628.125 -0.02422673707 0.01992541846
628.75 -0.02383985079 0.0004770952676
629.375 -0.02008879879 0.01661502038
630.0 -0.01372595763 0.01662013753
630.625 0.002938608705 -0.01910584556
631.25 -0.002337354409 -0.03675536738
631.875 -0.002314574079 -0.04573883648
632.5 -0.009668217453 -0.05224117658
633.125 -0.008911002947 -0.06302786133
633.75 -0.01264593259 -0.07095392938
634.375 -0.04577219768 -0.04591030874
635.0 -0.04268215048 -0.04941165557
635.625 -0.03614079767 -0.04346326299
636.25 -0.02781674134 -0.03043901134
636.875 -0.007424893019 -0.04953958328
637.5 -0.03240480721 -0.05068373137
638.125 -0.04237990834 -0.03605579589
638.75 -0.02190831268 -0.02219774572
639.375 0.0241093205 -0.02787205925
640.0 0.02932539486 -0.02402344064
640.625 0.04179651169 -0.02368051351
641.25 0.04173656668 -0.03071886888
641.875 0.06211182202 -0.01442443502
642.5 0.05392523422 0.001070757603
643.125 0.05331992309 0.01214466222
643.75 0.05843736996 0.008435545695
644.375 0.06061822292 0.005392138481
645.0 0.03851417239 0.001996132929
645.625 0.02850167826 0.006595248471
646.25 0.0516020972 0.0253944529
646.875 0.07642771242 0.04313563957
647.5 0.05077987935 -0.0006917533434
648.125 0.04006097263 0.01514315071
648.75 0.04696110763 0.05190483208
649.375 0.03921437925 0.08473739
650.0 0.04460885494 0.05513277524
650.625 0.03097324473 0.06339532834
651.25 0.001096155665 0.07413931546
651.875 -0.026874205 0.05879917415
652.5 -0.02926798631 0.04599509725
653.125 -0.0224617622 0.03249566439
653.75 -0.02940690721 0.003351985878
654.375 -0.02658491675 -0.03961793682
655.0 -0.0141614405 -0.03389227821
655.625 -0.03653095676 -0.05792226414
656.25 -0.06428110138 -0.06821038678
656.875 -0.07193371591 -0.04324680644
657.5 -0.07617944516 -0.0543176431
658.125 -0.07799944503 -0.04663610464
658.75 -0.08962155274 -0.02895752558
659.375 -0.08172056988 0.01398965269
660.0 -0.0755102418 0.02951817266
660.625 -0.03716966811 0.0298194864
661.25 -0.03698682883 0.01673714146
661.875 -0.02998888185 0.02643307393
662.5 -0.05220509885 0.02771654748
663.125 -0.06437769359 0.003948907371
663.75 -0.05326878143 -0.03045109473
664.375 -0.04748750384 -0.06226691726
665.0 -0.02352200489 -0.08378731316
665.625 0.01572635745 -0.08921849389
666.25 0.02758076802 -0.07970102309
666.875 0.04957132749 -0.08969636548
667.5 0.03784439787 -0.06794091757
668.125 0.04624352382 -0.04585390144
668.75 0.03015040932 -0.03374608909
669.375 0.05053396694 -0.0240413502
670.0 0.06292084363 -0.02488108582
670.625 0.06421951263 -0.01238149604
671.25 0.06043882651 -0.02622702735
671.875 0.06677400357 -0.03348981811
672.5 0.0646826121 -0.08640254371
673.125 0.02902463536 -0.09146410786
673.75 0.006587604568 -0.0871382848
674.375 0.03517293168 -0.08644821633
675.0 0.03685581535 -0.03629903489
675.625 0.05334342878 -0.02460694506
676.25 0.05963429508 -0.008978550008
676.875 0.06827555589 0.02668184265
677.5 0.01398530215 0.03088370238
678.125 0.02767924568 0.04962844153
678.75 0.04034127552 0.08012432559
679.375 0.04495412295 0.1077529179
680.0 0.04839906602 0.08633894561
680.625 0.06268946557 0.05594943873
681.25 0.08359125291 0.03981438659
681.875 0.1053455077 0.01467593596
682.5 0.088592609 -0.02541628032
683.125 0.05962359842 -0.02589877083
683.75 0.06370124017 0.00361079658
684.375 0.03946924792 0.05416851275
685.0 0.003923107185 0.05792469366
685.625 -0.0425292671 0.03931657272
686.25 -0.06382058804 -0.007551577911
686.875 -0.07440031106 -0.04045330699
687.5 -0.08612299778 -0.04773133448
688.125 -0.1112210107 -0.06682280726
688.75 -0.07802857644 -0.07195115204
689.375 -0.06701062739 -0.056264165
690.0 -0.06960510558 -0.04938522002
690.625 -0.09895488802 -0.05894905647
691.25 -0.05156053627 -0.02828023996
691.875 -0.04400108123 0.008267623291
692.5 -0.03544237461 0.01454063329
693.125 -0.0471096201 0.07241421383
693.75 -0.0243282692 0.1156090341
694.375 0.005093312437 0.09623943002
695.0 -0.03257518966 0.09064522948
695.625 -0.09513668758 0.05078607245
696.25 -0.1092143591 -0.05257988814
696.875 -0.008538380028 -0.09141003742
697.5 0.04004930351 -0.08811037935
698.125 0.05451109601 -0.06022790523
698.75 0.0404465232 -0.04740588508
699.375 0.056169258 -0.01389467161
700.0 0.07285944547 0.01239642562
700.625 0.06239729747 0.03543320009
701.25 0.06165174292 0.02848062442
701.875 0.07913776936 0.05033458243
702.5 0.1275325026 0.004901601002
703.125 0.08098488943 -0.06566051427
703.75 -0.0195286004 -0.08818367834
704.375 -0.02757047697 -0.05491065758
705.0 -0.01385063019 -0.08697589482
705.625 0.03439532696 -0.06075038311
706.25 0.04883660979 -0.03272923536
706.875 0.05235059434 0.02143688511
707.5 -0.01138815189 0.07664625936
708.125 -0.05252756378 0.07780955779
708.75 -0.07360084566 0.06837267071
709.375 -0.0921882493 0.03231509272
710.0 -0.06258349811 -0.04141417071
710.625 -0.06331990293 -0.05613095889
711.25 -0.06161112308 -0.08055990404
711.875 -0.07623030155 -0.06857119356
712.5 -0.05805874323 -0.01724370464
713.125 -0.04447061162 0.02018138082
713.75 -0.04126404029 0.03176742737
714.375 -0.03285612313 0.06469142643
715.0 -0.04967879837 0.04356559293
715.625 -0.03656997848 0.06138300506
716.25 -0.08191273744 0.06708415517
716.875 -0.1148066267 0.01175101512
717.5 -0.08909802468 -0.01910639197
718.125 -0.05355725301 -0.06045401725
718.75 -0.04487664001 -0.0722816113
719.375 -0.02288160023 -0.07574605693
720.0 0.007483566223 -0.07751125304
720.625 0.05239565947 -0.03249604065
721.25 0.02638155755 0.03163520855
721.875 -0.008706220398 0.02811122262
722.5 -0.03478620971 0.02530465367
723.125 -0.06926803868 0.05130689308
723.75 -0.03176498517 0.1047707421
724.375 0.05895373423 0.06114105179
725.0 0.0622729064 -0.01837012127
725.625 0.08029882878 -0.01771163202
726.25 0.06229731315 -0.03075858331
726.875 0.04717748163 -0.02089657105
727.5 0.04423255669 0.01246849296
728.125 0.02521040556 0.02963598472
728.75 -0.01450640198 0.07812082837
729.375 0.02435815466 0.06613684403
730.0 0.0276286976 0.0425821719
730.625 0.006870224892 0.03855377278
731.25 -0.02910567412 0.0504623599
731.875 -0.05228587521 0.02755316397
732.5 -0.05794837871 -0.002378298878
733.125 -0.0450632102 -0.01823135071
733.75 -0.02931935018 -0.0211793647
734.375 -0.02762724661 -0.03997829824
735.0 -0.04230562859 -0.03128929951
735.625 -0.0004340091331 -0.01012457781
736.25 -0.05790262712 -0.02020726402
736.875 -0.06444470724 -0.03022811565
737.5 -0.06976741764 -0.04280507584
738.125 -0.05910381397 -0.02131809912
738.75 -0.0466861318 -0.02487737098
739.375 -0.01386618825 -0.02429834985
740.0 -0.003000107928 -0.03095408782
740.625 -0.01590385529 -0.03255104521
741.25 -0.006004588264 -0.02277165532
741.875 0.01618164164 -0.05992893811
742.5 0.03424824485 0.00859364718
743.125 -0.001939889556 0.03379413548
743.75 -0.03439795184 0.01213801192
744.375 -0.03553637499 0.03479265172
745.0 -0.03752651621 0.03787425612
745.625 -0.04701861566 0.05045627409
746.25 -0.02594257526 0.06430070403
746.875 0.06084608021 0.05980403122
747.5 0.04366849361 0.004104078166
748.125 0.01581323048 0.005905309808
748.75 0.02018784333 0.006955259531
749.375 0.02708136113 0.003234414728
750.0 -0.005784537925 -0.0305537068
