!Created with skrf (http://scikit-rf.org).
# GHz S RI R 50.0 
!freq ReS11 ImS11
500.0 -0.01506161529 0.02352915313
500.625 0.02671630162 0.02143206357
501.25 0.0298837504 0.02218986881
501.875 0.01392832886 0.03563790961
502.5 0.01079387588 0.04183912377
503.125 0.03246758265 0.02864924273
503.75 0.04744327156 0.03103258276
504.375 0.04250724451 -0.0185850088
505.0 0.04236253807 -0.02921117144
505.625 0.05577925118 -0.04909288429
506.25 0.04024004235 -0.0489961829
506.875 0.04879490246 -0.0684086295
507.5 0.03196264466 -0.05801099369
508.125 0.07070136012 -0.01996746985
508.75 0.05260519949 -0.04786818179
509.375 0.01753492174 -0.05250482566
510.0 0.0493166749 -0.04336480134
510.625 -0.01164838443 -0.06377474586
511.25 -0.02742385961 -0.06194760057
511.875 -0.05436944443 0.003056522074
512.5 -0.03225385937 0.01221730346
513.125 -0.01627405978 0.03550541931
513.75 -0.03051094256 0.03934293543
514.375 -0.008266794596 0.05711675014
515.0 0.004035035183 0.08504075593
515.625 -0.04484204608 0.09049648563
516.25 0.02243155783 0.1049574561
516.875 -0.03309367108 0.1173798288
517.5 0.05817774414 0.08866343777
518.125 -0.04678676034 0.1167011078
518.75 0.03991606887 0.04156509835
519.375 0.01550819882 0.06451239735
520.0 0.05567264678 0.0564358065
520.625 0.05703368038 0.04783182555
521.25 0.05856515346 0.02027226503
521.875 0.03973496107 0.04187221259
522.5 0.06433765934 0.005077315202
523.125 0.1143458716 -0.02515715526
523.75 0.1073533589 -0.04252298028
524.375 0.06728436511 -0.03699575706
525.0 0.003440318798 0.004582745964
525.625 0.006368565763 0.03138420859
526.25 0.01591132418 0.01953850778
526.875 0.01835680789 0.02352040284
527.5 0.023850867 0.01970155341
528.125 0.04859472597 0.008316467687
528.75 0.05743548751 -0.00709798892
529.375 0.03091840454 -0.03268330162
530.0 0.02384202554 -0.02536490643
530.625 0.003281382087 -0.08878656583
531.25 0.007604566584 -0.1353819034
531.875 -0.05363186666 -0.124621622
532.5 -0.08682117621 -0.06484281283
533.125 -0.08340268132 -0.06398657244
533.75 -0.06787194922 -0.03812186144
534.375 -0.06444486336 -0.0343487976
535.0 -0.06656421303 -0.0205641842
535.625 -0.03278323257 -0.03737331565
536.25 -0.02470297227 -0.01901157732
536.875 -0.0310613863 -0.05050192135
537.5 -0.04600277848 -0.0854531529
538.125 -0.07507165624 -0.06430021716
538.75 -0.05277644881 -0.01333337413
539.375 -0.03095518935 -0.03441695744
540.0 -0.04772505878 -0.07383584307
540.625 -0.06778911459 -0.1182413693
541.25 -0.04130433286 -0.07155862794
541.875 -0.03931134941 -0.07075233845
542.5 -0.05281018597 -0.09486931618
543.125 -0.1043089185 -0.06922334112
543.75 -0.0805515241 0.02850447529
544.375 -0.05635449953 0.03979008859
545.0 -0.03318966564 0.05842587017
545.625 -0.01413479953 0.06143546938
546.25 0.01187607713 0.07601490223
546.875 0.01855663603 0.06382093215
547.5 0.01887452698 0.07808640885
548.125 0.004879164764 0.08069343857
548.75 0.001537123871 0.05245281246
549.375 -0.01144376773 0.06201047671
550.0 -0.0362135077 0.03252611003
550.625 -0.02083765888 0.001913338803
551.25 -0.02021876349 -0.03221275768
551.875 -0.0434691243 -0.04171508188
552.5 -0.06325727763 -0.04472801538
553.125 -0.07796340749 -0.01929354419
553.75 -0.06177617615 -0.02546105186
554.375 -0.08912260199 0.004007074139
555.0 -0.08755485557 0.02432002047
555.625 -0.07187653857 0.02991784895
556.25 -0.08640191516 0.02329682334
556.875 -0.08738145055 0.01861946768
557.5 -0.07523392873 0.02842948257
558.125 -0.07484107403 0.02951940955
558.75 -0.07022986087 0.006847775046
559.375 -0.03545472327 0.003619857747
560.0 -0.02129211918 -0.001300539747
560.625 -0.03318110162 -0.03058852136
561.25 -0.05549772891 -0.03514786922
561.875 -0.07242269881 -0.02018789824
562.5 -0.07227044142 0.01874440467
563.125 -0.06790023433 0.06107026003
563.75 -0.0488693883 0.07277916059
564.375 -0.02264934236 0.07893839991
565.0 -0.01375383053 0.07163871096
565.625 -0.01288220981 0.06721092176
566.25 -0.03785229278 0.04212811527
566.875 -0.05079180437 0.02245069641
567.5 -0.05244497578 0.01298247008
568.125 -0.06292201043 0.01164965817
568.75 -0.05344604767 0.009171878033
569.375 -0.01281811206 -0.01275473035
570.0 -0.01257899729 -0.03251613407
570.625 -0.03687067251 -0.0459645698
571.25 -0.04345443565 -0.03425979623
571.875 -0.04635795957 -0.03686602841
572.5 -0.08122399296 -0.02157936098
573.125 -0.107487032 0.02554193403
573.75 -0.05986597795 0.07126661665
574.375 -0.02896699865 0.06281021767
575.0 -0.04421508999 0.06506859685
575.625 -0.05330237238 0.06401316844
576.25 -0.0353317582 0.0684925028
576.875 -0.013587263 0.0718016448
577.5 -0.003390747324 0.07492042269
578.125 -0.01598629373 0.05400921436
578.75 -0.0101574595 0.04452845906
579.375 -0.010753956 0.03600271119
580.0 -0.01990783543 0.02093868389
580.625 -0.03051948485 0.01236133127
581.25 -0.05082750103 0.01422628517
581.875 -0.07403541719 0.01426260413
582.5 -0.07554988917 0.03134573439
583.125 -0.05867849766 0.04339174368
583.75 -0.05663950754 0.04482417776
584.375 -0.06637029357 0.005127356452
585.0 -0.07393757459 0.008187633726
585.625 -0.05865813599 0.02073673821
586.25 -0.05526115219 0.03052423375
586.875 -0.05301044078 -0.008338357593
587.5 -0.05373044127 0.008702097974
588.125 -0.03035922129 0.04134755298
588.75 -0.01267733153 0.05121411658
589.375 -0.0401979234 0.006622674485
590.0 -0.04512936511 0.01867906561
590.625 -0.04298595064 0.04978461124
591.25 -0.02957947833 0.0817406339
591.875 -0.02641557818 0.09273619192
592.5 -0.004585311048 0.07361971738
593.125 0.00281480446 0.06043617898
593.75 0.0009581147933 0.06758001121
594.375 -0.0366442084 0.03476589997
595.0 -0.0323479895 0.02064287078
595.625 -0.02747586758 0.009624207646
596.25 -0.0376337417 -0.008964922507
596.875 -0.03602604367 -0.0149314492
597.5 -0.03285294635 -0.0202455908
598.125 -0.01866521953 -0.02230262333
598.75 -0.01727246883 -0.01570241174
599.375 -0.007679661912 -0.05161606877
600.0 -0.01756309656 -0.06769314677
600.625 -0.02672127163 -0.07348467372
601.25 -0.04903816292 -0.05418896361
601.875 -0.04720835769 -0.05871944741
602.5 -0.05601621506 -0.03279367065
603.125 -0.05015649517 -0.03149761556
603.75 -0.03137626699 -0.02690052916
604.375 -0.02155840907 -0.01365357272
605.0 -0.002889521806 -0.04118859318
605.625 0.006546913064 -0.05605353981
606.25 -0.008299658398 -0.03910412607
606.875 -0.02425661987 -0.01185271918
607.5 0.02583357252 -0.01362057057
608.125 0.03149064086 -0.0209731437
608.75 0.02301642809 -0.02334566892
609.375 0.02077456292 -0.01176770749
610.0 0.04801988895 -0.01116414457
610.625 0.06348476487 -0.01742314077
611.25 0.04865064879 -0.02452538857
611.875 0.03101993992 -0.02104960868
612.5 0.05542191386 0.001553450075
613.125 0.02347787366 -0.004155661506
613.75 0.01500811091 0.007926128983
614.375 0.02735277951 0.02114512237
615.0 0.02835425825 0.01518253331
615.625 0.02019444469 0.01000300023
616.25 0.01918562666 0.01792859587
616.875 0.02189809283 0.03247554271
617.5 0.0292861496 0.04500399011
618.125 0.02830438552 0.03267097343
618.75 0.02311324 0.02799990322
619.375 0.02746893184 0.04099351829
620.0 0.04444621103 0.05150294193
620.625 0.04406809392 0.0131447084
621.25 0.02353851692 0.001864325023
621.875 -0.004902229554 -0.01837385525
622.5 -0.02249576072 0.0114600926
623.125 -0.02282792265 0.03967926001
623.75 -0.02010555689 0.05084701925
624.375 -0.02469662775 0.04990033259
625.0 -0.04742878202 0.02806032061
625.625 -0.0395411374 0.04974229
626.25 -0.02614181404 0.08171867002
626.875 -0.01657457613 0.0603682766
627.5 -0.02418783352 0.03209215098
628.125 -0.02354133249 0.05605540285
628.75 -0.03337394889 0.03155243702
629.375 -0.02163489726 0.02345787159
630.0 -0.008736459902 -0.003379332362
630.625 -0.02074867065 0.003581941077
631.25 -0.002081081476 -0.02623481694
631.875 -0.005559894598 -0.04527010469
632.5 -0.008951223245 -0.06532861908
633.125 -0.04097134543 -0.04811523478
633.75 -0.03037231143 -0.05025293496
634.375 -0.03040169566 -0.05667543089
635.0 -0.04460586995 -0.04930529052
635.625 -0.04110981959 -0.04508982488
636.25 -0.03951086154 -0.02229125203
636.875 -0.03036753745 -0.02661806172
637.5 -0.03654896124 -0.05560855898
638.125 -0.03106490114 -0.05522687728
638.75 -0.04738625287 -0.01032276525
639.375 -0.002325201692 -0.01829894993
640.0 0.04183220195 -0.02775962516
640.625 0.06067966839 -0.01967960041
641.25 0.04288187509 -0.03288604657
641.875 0.03934901597 -0.02726344651
642.5 0.05505751912 -0.004783579117
643.125 0.06419117033 0.0122313532
643.75 0.05040444615 -0.02108704363
644.375 0.04704388408 -0.02164699889
645.0 0.03981275427 -0.01079298434
645.625 0.04731673113 0.01794079193
646.25 0.04336807099 0.003886453856
646.875 0.06960511218 0.02056496275
647.5 0.06204339048 0.01510011856
648.125 0.05210424097 0.01955306449
648.75 0.04945462691 0.0539238901
649.375 0.04903848775 0.06741833137
650.0 0.04417364992 0.06363826966
650.625 0.03880042458 0.06455908269
651.25 0.01113741211 0.07833163832
651.875 -0.01250732137 0.06537923146
652.5 -0.009860859004 0.05139701854
653.125 -0.02179561967 0.04103154462
653.75 -0.03744813156 0.006875201811
654.375 -0.02081303737 -0.02131554299
655.0 -0.02739412051 -0.04056266843
655.625 -0.04388202998 -0.05393074779
656.25 -0.07715838159 -0.06078705748
656.875 -0.07276829975 -0.03157011579
657.5 -0.06681357546 -0.03266332889
658.125 -0.08790384032 -0.04016104077
658.75 -0.1181131786 -0.03506499894
659.375 -0.0694237158 0.03244744885
660.0 -0.05754872056 0.04050459044
660.625 -0.05428729881 0.03918894707
661.25 -0.06039571422 0.02490764904
661.875 -0.03296391839 0.03223277292
662.5 -0.03285395949 0.02664850116
663.125 -0.0626896383 0.01636918425
663.75 -0.07564539474 -0.023947866
664.375 -0.03824075687 -0.03995064578
665.0 -0.02059271535 -0.07891198282
665.625 0.007860755594 -0.1057788095
666.25 0.02147103006 -0.08412952428
666.875 0.03393222423 -0.08267560988
667.5 0.05188913139 -0.08296939124
668.125 0.04767447729 -0.05682570358
668.75 0.0324357924 -0.04368833393
669.375 0.03700534749 -0.02955487186
670.0 0.06244257906 -0.02693121403
670.625 0.06720635922 -0.02385633777
671.25 0.0582887318 -0.04293439158
671.875 0.05062949131 -0.03492778022
672.5 0.04498303394 -0.07655261372
673.125 0.02429175845 -0.09862709087
673.75 -0.001114897906 -0.09461827551
674.375 0.01933755213 -0.08306006448
675.0 0.05373943962 -0.05854272051
675.625 0.05505173402 -0.03495142801
676.25 0.05687277151 -0.01561682677
676.875 0.06292494506 0.008168116472
677.5 0.03810093354 0.03562056733
678.125 0.03496595317 0.04308529267
678.75 0.06053236453 0.06802386385
679.375 0.04374763158 0.0832810672
680.0 0.04935597804 0.07522377936
680.625 0.07269707619 0.05009962006
681.25 0.104126084 0.02569005635
681.875 0.1080732732 0.004182114947
682.5 0.08467882808 -0.03281919018
683.125 0.05745823997 -0.03272720101
683.75 0.06871561109 -0.01038832033
684.375 0.07013560055 0.04832295543
685.0 0.007452489311 0.04176062138
685.625 -0.03101080919 0.03270413044
686.25 -0.05861256779 0.005857559509
686.875 -0.0898113736 -0.01695960269
687.5 -0.07305422513 -0.04510678914
688.125 -0.09714470631 -0.05678264447
688.75 -0.09576422754 -0.06584738081
689.375 -0.0935714304 -0.05316101239
690.0 -0.07523267688 -0.03991318429
690.625 -0.08866280129 -0.04638256692
691.25 -0.08698296476 -0.0285680587
691.875 -0.05136234938 0.01742897528
692.5 -0.0347123059 0.02956404182
693.125 -0.03387900166 0.0665946954
693.75 -0.02030202094 0.101506087
694.375 0.01805037812 0.09411355931
695.0 -0.001398072367 0.1075591611
695.625 -0.08525541206 0.06034155794
696.25 -0.100560653 -0.04659184268
696.875 -0.03890180899 -0.1066958089
697.5 0.0296440421 -0.1005337008
698.125 0.04625643446 -0.07832372537
698.75 0.0360340037 -0.0459622403
699.375 0.04912979264 -0.02660080375
700.0 0.08053250671 -0.03040621498
700.625 0.04974092497 0.03397368169
701.25 0.05658846619 0.03276091387
701.875 0.08746260221 0.02517724598
702.5 0.1322628843 -0.05012085895
703.125 0.08285393828 -0.08396456278
703.75 -0.02331074443 -0.08566876593
704.375 -0.04980614843 -0.05693833892
705.0 -0.03943599716 -0.08476923227
705.625 0.005989866528 -0.0919955395
706.25 0.04627259847 -0.02041069544
706.875 0.04405579545 0.02761667131
707.5 0.01995554213 0.06799293079
708.125 -0.01607477904 0.08946892718
708.75 -0.07574261722 0.05880855861
709.375 -0.09081441882 0.02507466344
710.0 -0.08406298746 -0.01407751523
710.625 -0.07366439372 -0.0448494223
711.25 -0.05666641623 -0.08201501115
711.875 -0.06522609665 -0.07075554455
712.5 -0.06826082545 -0.01037251177
713.125 -0.0365574708 0.056642901
713.75 -0.03289680795 0.03534361449
714.375 -0.03543971399 0.06127601384
715.0 -0.01880243653 0.05893497986
715.625 -0.0234849681 0.06089555687
716.25 -0.03935074027 0.07507995269
716.875 -0.1208383402 0.003631985626
717.5 -0.08969445744 -0.03154708355
718.125 -0.07495307585 -0.03040393728
718.75 -0.07075659184 -0.04184138308
719.375 -0.0487713555 -0.07138381633
720.0 0.01016876044 -0.08106338513
720.625 0.05327836486 -0.04343565245
721.25 0.04725004939 0.00829315407
721.875 -0.02832855898 0.03253485957
722.5 -0.05636355795 0.02832574972
723.125 -0.06533995048 0.0622636655
723.75 0.01782870012 0.08456465285
724.375 0.0646504581 0.0474648054
725.0 0.07799064644 -0.01000523447
725.625 0.07691532318 -0.04002686636
726.25 0.061281921 -0.04171880882
726.875 0.03653237228 -0.04005079167
727.5 0.04779996382 0.01836950781
728.125 0.02683717144 0.06096255409
728.75 0.01066811758 0.05629757917
729.375 0.03495256956 0.02654122834
730.0 0.0385493087 0.02920979395
730.625 0.01550317955 0.04792237965
731.25 -0.0138610946 0.05378178874
731.875 -0.04191450487 0.0327762641
732.5 -0.0396738045 0.008473080835
733.125 -0.06015567538 -0.04825260631
733.75 -0.05082321089 -0.02093728413
734.375 -0.02562930532 -0.005702063586
735.0 -0.03931548465 -0.02802007813
735.625 -0.04005494658 -0.01032381358
736.25 -0.02755395233 -0.005085629807
736.875 -0.05774832026 -0.01449126532
737.5 -0.06624231517 -0.02561594038
738.125 -0.07307951645 -0.02775244112
738.75 -0.06390422147 -0.01874565783
739.375 -0.02222215845 -0.01812960868
740.0 0.01369209156 -0.01763665935
740.625 -0.0464114741 -0.05639539581
741.25 -0.03991859553 -0.0344388706
741.875 0.009485310273 -0.02983796911
742.5 0.03300357719 -0.001515977055
743.125 0.02222300215 0.04644329086
743.75 -0.01585685745 0.04104610834
744.375 -0.0282617953 0.03865201818
745.0 -0.06015526092 0.007307715712
745.625 -0.01820953383 0.08969025752
746.25 0.01238323108 0.07856956371
746.875 0.03583711052 0.04229787446
747.5 0.03677425645 0.004812940818
748.125 0.01546054734 0.004786992936
748.75 0.03538627642 -0.0131883793
749.375 0.02338925991 -0.02820784039
750.0 -0.01412604781 -0.0289838994
