!Created with skrf (http://scikit-rf.org).
# GHz S RI R 50.0 
!freq ReS11 ImS11
500.0 -0.01409125061 0.02569584757
500.625 0.01934000321 0.0331205083
501.25 0.03831742355 0.01126974867
501.875 0.02563392912 0.01691730654
502.5 0.01300364963 0.04299217657
503.125 0.02694605179 0.04113295146
503.75 0.04476140882 0.01116173241
504.375 0.04332420243 -0.0004239592902
505.0 0.04647759999 -0.02506982041
505.625 0.06431199149 -0.0374808457
506.25 0.02432174737 -0.06772926291
506.875 0.05113039882 -0.05309931533
507.5 0.04983630573 -0.04240088613
508.125 0.07144869036 -0.03213920798
508.75 0.03610611156 -0.05897862166
509.375 0.03096399512 -0.05088766524
510.0 0.07140815771 -0.03608055396
510.625 -0.007597167199 -0.06526195303
511.25 -0.03744798315 -0.05172363449
511.875 -0.04683613077 -0.005295474082
512.5 -0.03363279323 0.008484945239
513.125 -0.02611265996 0.02824899183
513.75 -0.01376784667 0.04215017356
514.375 -0.0003227439592 0.05105688467
515.0 0.003337799103 0.09680341633
515.625 -0.00724081958 0.09253451233
516.25 0.03585921046 0.0897857559
516.875 -0.02882746282 0.1180949651
517.5 0.04232063584 0.1035416413
518.125 -0.01076210415 0.1425886779
518.75 0.03313912634 0.04045977428
519.375 0.007534784988 0.07214473783
520.0 0.04796825344 0.06671153964
520.625 0.07082495428 0.02182906473
521.25 0.05944645403 0.008924488697
521.875 0.04219368233 0.03844549797
522.5 0.07079533256 0.01463751628
523.125 0.1170250099 -0.05572349513
523.75 0.09891719624 -0.07560350008
524.375 0.0757828569 -0.02831246241
525.0 0.008053116417 0.01004640847
525.625 0.005153984989 0.01534329644
526.25 0.00837744803 0.03656628589
526.875 0.0180827221 0.03082966572
527.5 0.02817561069 0.02717427877
528.125 0.03407978944 0.0001208676415
528.75 0.04356385392 -0.01534754407
529.375 0.04022673965 -0.03674946064
530.0 0.02073882759 -0.0249193642
530.625 0.003971141666 -0.07422544081
531.25 0.01150882073 -0.1601840075
531.875 -0.05393351791 -0.1382213815
532.5 -0.08963186904 -0.0819964393
533.125 -0.07542968 -0.0401820777
533.75 -0.06851598364 -0.04840339844
534.375 -0.07007552746 -0.03926854744
535.0 -0.07439940268 -0.02370198004
535.625 -0.03010199076 -0.01512036034
536.25 -0.03146690013 -0.03358316217
536.875 -0.04206528462 -0.06023001358
537.5 -0.04834323302 -0.07973522277
538.125 -0.07052297153 -0.0531255264
538.75 -0.0587925042 -0.03165905043
539.375 -0.03713454502 -0.04151771051
540.0 -0.05577502792 -0.08853183671
540.625 -0.06014669966 -0.09895408214
541.25 -0.04319499034 -0.08721114516
541.875 -0.05028113833 -0.08008291452
542.5 -0.05160388273 -0.08443271313
543.125 -0.09640982192 -0.05885130328
543.75 -0.1002620297 0.01940738033
544.375 -0.06299262767 0.04062986691
545.0 -0.03345096451 0.0667162183
545.625 -0.001411222007 0.04804695937
546.25 0.0124017607 0.06382012691
546.875 0.02327430186 0.06032139317
547.5 0.018879512 0.09194173475
548.125 0.008921662641 0.07146203606
548.75 -0.007052378381 0.07650469649
549.375 -0.01479010102 0.07065688632
550.0 -0.04474775923 0.0376481967
550.625 -0.004344002748 0.00175070175
551.25 -0.008525515935 -0.02708750804
551.875 -0.04978286536 -0.03876697664
552.5 -0.07588543835 -0.04486042193
553.125 -0.06791680333 -0.02069543102
553.75 -0.07682901447 -0.02351913501
554.375 -0.09151557467 0.00837169009
555.0 -0.09729631011 0.02974744999
555.625 -0.05862929219 0.02627297084
556.25 -0.07706892936 0.02014040833
556.875 -0.08703656753 0.02127301282
557.5 -0.08459690139 0.03428413506
558.125 -0.07494659167 0.02970388085
558.75 -0.05905077578 0.008012981439
559.375 -0.04222682671 0.004077206605
560.0 -0.02969644646 -0.00129449313
560.625 -0.01570178533 -0.02716787023
561.25 -0.04767162419 -0.0370657039
561.875 -0.07148343607 -0.01893552898
562.5 -0.0733509532 0.02878921886
563.125 -0.06298089129 0.04729214683
563.75 -0.05245682715 0.07858088523
564.375 -0.02235072526 0.08600238316
565.0 -0.01585457225 0.08226557202
565.625 -0.009376727128 0.04986649212
566.25 -0.03595723575 0.03692045724
566.875 -0.04695620335 0.02442148611
567.5 -0.05987285002 0.02343814
568.125 -0.05559613599 0.01091871258
568.75 -0.04517987879 0.006435719039
569.375 -0.03307507272 -0.01008311271
570.0 -0.02197405338 -0.02949676862
570.625 -0.02398386608 -0.04367903308
571.25 -0.03779777127 -0.03575574843
571.875 -0.05489578801 -0.02740832536
572.5 -0.08675781921 -0.008060505398
573.125 -0.1016620624 0.02113525381
573.75 -0.05911542061 0.0639734402
574.375 -0.03142176624 0.06307618755
575.0 -0.03371004841 0.07633818097
575.625 -0.04978583482 0.05076948952
576.25 -0.03383273197 0.06274622219
576.875 -0.00733537738 0.07610849423
577.5 0.005639709649 0.08024141304
578.125 -0.01396644199 0.03867775629
578.75 -0.01120660398 0.03774107044
579.375 -0.01010358976 0.03556024524
580.0 -0.01457892321 0.03482964125
580.625 -0.02925044183 0.008265404927
581.25 -0.0529040426 0.006900589829
581.875 -0.06822384825 0.03208645138
582.5 -0.07384835683 0.04198130264
583.125 -0.05666846023 0.05565686006
583.75 -0.05811556667 0.03204617068
584.375 -0.06943679671 0.02058815718
585.0 -0.0730703927 0.0105684083
585.625 -0.06100552884 0.03147910072
586.25 -0.05323315154 0.0180894977
586.875 -0.06109747858 0.01209687949
587.5 -0.0559796339 0.01960524399
588.125 -0.02519344577 0.05103367953
588.75 -0.02294127204 0.04027756623
589.375 -0.03234277946 0.02725199619
590.0 -0.04166059392 0.02219439684
590.625 -0.03400582064 0.05210536178
591.25 -0.04525626779 0.07704018005
591.875 -0.03502237351 0.08559487904
592.5 -0.0052293003 0.07011527227
593.125 0.01390083415 0.06347054924
593.75 -0.01694982698 0.06541762533
594.375 -0.03244576922 0.04701061264
595.0 -0.03081807604 0.02970075562
595.625 -0.02696369109 0.01862227503
596.25 -0.03176394507 -0.027805769
596.875 -0.03143866828 -0.02397521373
597.5 -0.02894943124 -0.0229657144
598.125 -0.02755216825 -0.01063549865
598.75 -0.01460137839 -0.02734805278
599.375 -0.01300329641 -0.03410100566
600.0 -0.02198091607 -0.05561088903
600.625 -0.03098117837 -0.06716034146
601.25 -0.0398556641 -0.06851080584
601.875 -0.05376714443 -0.04962829428
602.5 -0.05572410317 -0.03202997528
603.125 -0.05464473343 -0.01773459203
603.75 -0.01974781911 -0.03766555416
604.375 -0.0148163625 -0.02315631021
605.0 -0.009128529812 -0.03131878842
605.625 -0.004970060489 -0.04974635251
606.25 -0.0135093487 -0.0402378116
606.875 -0.01004643882 -0.01895077747
607.5 0.01061736435 -0.0129826145
608.125 0.01511911141 -0.01107930542
608.75 0.03787840496 -0.03363784597
609.375 0.03613424918 -0.02055769681
610.0 0.04474289538 -0.006270068318
610.625 0.0488124791 -0.01745304772
611.25 0.04969591699 -0.02641247589
611.875 0.04831862629 -0.02079634658
612.5 0.04439436081 -0.01368551259
613.125 0.0201925888 -0.008114792404
613.75 0.002846118849 0.001434137851
614.375 0.04569818028 0.03409409501
615.0 0.04250415484 0.02421856299
615.625 0.02517533646 0.01464835739
616.25 -0.000423603849 0.01407980683
616.875 0.04293771293 0.04646251547
617.5 0.0438964519 0.04398043647
618.125 0.02679846533 0.028200148
618.75 0.003396849063 0.02390808796
619.375 0.03974363758 0.05957088704
620.0 0.04471788374 0.03984473908
620.625 0.03562948575 0.006838353405
621.25 0.01548720325 -0.009576935855
621.875 0.01023662236 0.004260122533
622.5 -0.01250649888 0.01126992063
623.125 -0.01867388987 0.04257282573
623.75 -0.04115200692 0.05256255312
624.375 -0.01430125714 0.06667023641
625.0 -0.03512827705 0.0425246016
625.625 -0.04840856644 0.05164288252
626.25 -0.03302002504 0.064338182
626.875 -0.01751473913 0.06211044645
627.5 -0.0150583345 0.04582477705
628.125 -0.01906607853 0.03622537484
628.75 -0.0280330819 0.02191195894
629.375 -0.01690169867 0.00898011903
630.0 -0.01681759966 0.01888260821
630.625 -0.001112487075 -0.01364971667
631.25 0.006865270324 -0.04278492565
631.875 -0.005993818693 -0.04176032754
632.5 -0.01900816676 -0.05220891149
633.125 -0.0203382575 -0.05258232565
633.75 -0.03100853509 -0.05197888797
634.375 -0.02185849485 -0.06838207316
635.0 -0.06411757011 -0.0339015541
635.625 -0.05580782379 -0.0308391718
636.25 -0.03954985956 -0.02339969658
636.875 -0.02024146705 -0.0397167548
637.5 -0.02287673789 -0.06740981226
638.125 -0.04550245452 -0.04261544726
638.75 -0.03017455176 -0.01642843433
639.375 0.004247030407 -0.02089674372
640.0 0.05517375828 -0.02157551386
640.625 0.04289194234 -0.02772348746
641.25 0.02996598283 -0.03683483309
641.875 0.04888653551 -0.02743717736
642.5 0.05764220094 -0.01438844202
643.125 0.05744281852 0.001142076308
643.75 0.0554533537 -0.003097838074
644.375 0.05450399462 -0.01493760756
645.0 0.04716520382 0.0008602061601
645.625 0.03439556869 0.001864490323
646.25 0.04435441196 0.01332549467
646.875 0.06671598052 0.01588527183
647.5 0.06889393319 0.01694701918
648.125 0.0391328619 -0.001029457106
648.75 0.04670441158 0.03771109319
649.375 0.05396625876 0.06115443162
650.0 0.04744014143 0.07323533906
650.625 0.04608732613 0.05397819761
651.25 0.0209401856 0.06556779077
651.875 -0.01306825098 0.07102214412
652.5 -0.0200480175 0.05113052851
653.125 -0.02100324836 0.04335935684
653.75 -0.02362902322 0.01702747226
654.375 -0.02509734078 -0.02237232718
655.0 -0.03253048835 -0.04707550788
655.625 -0.03561922671 -0.0339142151
656.25 -0.0658359743 -0.04498201084
656.875 -0.07489912527 -0.02719691089
657.5 -0.07843092914 -0.04073650659
658.125 -0.09761600981 -0.04739609404
658.75 -0.1046602112 -0.02013266403
659.375 -0.08153201985 0.02235612565
660.0 -0.06307052843 0.04250363485
660.625 -0.06413273647 0.03719784721
661.25 -0.04108943135 0.02860692059
661.875 -0.02168611252 0.02929774933
662.5 -0.03639785952 0.03324854908
663.125 -0.05456176325 0.02013126636
663.75 -0.06198647648 -0.01975301102
664.375 -0.05106576765 -0.05419785598
665.0 -0.03409415554 -0.09140816309
665.625 -0.002436232429 -0.07926279415
666.25 0.02038414935 -0.07912473022
666.875 0.03439271986 -0.08557129566
667.5 0.05245564484 -0.0960222076
668.125 0.02547748459 -0.05633948056
668.75 0.0216991884 -0.03968523116
669.375 0.03583047159 -0.03421768189
670.0 0.06982420795 -0.04128449263
670.625 0.05178814759 -0.02502274022
671.25 0.05092259893 -0.03676143076
671.875 0.06146405359 -0.0482803267
672.5 0.04855084567 -0.08537454882
673.125 0.01789494545 -0.08914662681
673.75 -0.002567113894 -0.08456368511
674.375 0.01249475503 -0.08222945479
675.0 0.05619972928 -0.06765662575
675.625 0.03986060505 -0.03120648845
676.25 0.05443415766 -0.01628966252
676.875 0.05734588363 0.00206043784
677.5 0.04712908513 0.03507616205
678.125 0.02446375663 0.03741073208
678.75 0.04950817084 0.06485640138
679.375 0.06693160259 0.09813576393
680.0 0.05834545398 0.08436122115
680.625 0.08252707109 0.0545964548
681.25 0.08595494306 0.02694981786
681.875 0.1065121922 0.003731756946
682.5 0.08082442499 -0.0370698589
683.125 0.06826880941 -0.04293550104
683.75 0.05311891557 -0.009966391202
684.375 0.0575997382 0.04265809743
685.0 0.01303897955 0.05659139218
685.625 -0.03098039031 0.05044374487
686.25 -0.06612463147 0.01853525125
686.875 -0.07782671805 -0.02379651831
687.5 -0.09397549015 -0.03644701279
688.125 -0.1142046461 -0.05104820863
688.75 -0.1128278284 -0.06781446416
689.375 -0.08177865687 -0.05061776331
690.0 -0.07331503647 -0.04269414618
690.625 -0.09650166497 -0.04428444433
691.25 -0.104942677 -0.02873140863
691.875 -0.03615647054 0.01505435604
692.5 -0.03024534304 0.01907649052
693.125 -0.02636542999 0.06202886821
693.75 -0.004526123386 0.1177587337
694.375 0.01540809413 0.09700021294
695.0 -0.01105189321 0.09496572974
695.625 -0.08903340834 0.05765728609
696.25 -0.1088811037 -0.04293127481
696.875 -0.05432657833 -0.1087500217
697.5 0.02845253427 -0.08635664371
698.125 0.04525390656 -0.06540460651
698.75 0.03452925016 -0.04718137302
699.375 0.05326578093 -0.04432082409
700.0 0.07244089169 -0.01284155003
700.625 0.06954731994 0.02549588612
701.25 0.06049714773 0.02647342919
701.875 0.09413317941 0.01089739929
702.5 0.1258263291 -0.02767887479
703.125 0.08146151064 -0.07180312858
703.75 -0.02593314643 -0.08415870703
704.375 -0.06759156597 -0.05185439846
705.0 -0.03270320742 -0.07664975116
705.625 0.01680216967 -0.07625733357
706.25 0.04614254879 -0.04345113488
706.875 0.05046919024 0.01570167855
707.5 0.03873280871 0.0618260155
708.125 -0.0338210918 0.08271558158
708.75 -0.06796062914 0.07349390484
709.375 -0.08649726327 0.03477525388
710.0 -0.08901963535 -0.004272739982
710.625 -0.06068793301 -0.05664645668
711.25 -0.0662921582 -0.0800300572
711.875 -0.08768737618 -0.06302404757
712.5 -0.08278241346 -0.004350959615
713.125 -0.04041153079 0.03881079526
713.75 -0.03845422142 0.03874302979
714.375 -0.04016764157 0.05557315333
715.0 -0.003487877477 0.06009305815
715.625 -0.03932519621 0.06202305864
716.25 -0.06158309194 0.07416233241
716.875 -0.1117012899 0.04783878757
717.5 -0.09417822494 -0.02118870042
718.125 -0.07964996675 -0.01632407871
718.75 -0.05794376254 -0.06517871968
719.375 -0.02997108429 -0.08510097509
720.0 -0.00398893534 -0.07481676609
720.625 0.0377515111 -0.06118551178
721.25 0.03287572921 0.033840315
721.875 -0.005532967057 0.03474537372
722.5 -0.04221593712 0.03064245642
723.125 -0.0392291822 0.06198122126
723.75 -0.01020343061 0.1008248121
724.375 0.0657467314 0.06379029368
725.0 0.07718133133 -0.005030340628
725.625 0.04992952659 -0.05175972258
726.25 0.06200382785 -0.04116056966
726.875 0.04793799717 -0.02822664353
727.5 0.04231018929 -0.005822351445
728.125 0.0328499952 0.04596055216
728.75 0.02541324939 0.03798894284
729.375 0.03413691957 0.05463241708
730.0 0.04240802709 0.04857981474
730.625 0.01537549297 0.0452545563
731.25 -0.0003230419866 0.03259262112
731.875 -0.06802392252 0.03565869238
732.5 -0.05739069301 0.001822786542
733.125 -0.06054774691 -0.01875958441
733.75 -0.02978620706 0.003909182567
734.375 -0.04745897419 -0.04165664423
735.0 -0.06017962244 -0.02309851713
735.625 -0.03338777294 -0.006831619002
736.25 -0.006271964087 -0.01781036345
736.875 -0.08808306601 -0.01802106841
737.5 -0.08757912607 -0.02915171838
738.125 -0.06518909256 -0.03042568439
738.75 -0.03622712584 -0.002022463617
739.375 -0.03813387526 -0.04719290875
740.0 -0.005192974999 -0.03800436198
740.625 -0.03121429905 -0.03029836894
741.25 -0.02770497033 -0.02772333824
741.875 0.01407134811 -0.01138186455
742.5 0.06074259435 -0.005509401986
743.125 0.01816397634 0.03682577316
743.75 -0.02081363821 0.03008579957
744.375 -0.03303297094 0.01472533757
745.0 -0.03804607632 0.03706971033
745.625 -0.03518534251 0.05496232168
746.25 -0.0002890184322 0.07169888809
746.875 0.02252682704 0.04859856869
747.5 0.06187321055 0.001584832871
748.125 0.02940368755 -0.006823785417
748.75 0.02042844057 0.006926379274
749.375 0.02312172698 -0.01700933151
750.0 0.00383152645 -0.02682691984
