!Created with skrf (http://scikit-rf.org).
# GHz S RI R 50.0 
!freq ReS11 ImS11
500.0 -0.02301833492 0.02671807787
500.625 0.0331858426 0.01961950689
501.25 0.03284531012 0.01135390466
501.875 0.02573593572 0.01929348842
502.5 0.002440936348 0.05253673201
503.125 0.02959561578 0.03499002445
503.75 0.04171079558 0.01900858654
504.375 0.04510280885 0.002036933547
505.0 0.05257950853 -0.01858482509
505.625 0.0523455456 -0.04571522802
506.25 0.02874035034 -0.05920645723
506.875 0.05444237255 -0.04418213169
507.5 0.03365729472 -0.06072846934
508.125 0.06558051132 -0.02983024464
508.75 0.03503827287 -0.06053444022
509.375 0.04637196197 -0.04670241469
510.0 0.0349205421 -0.05990127335
510.625 -0.009494890385 -0.06451742552
511.25 -0.03422856282 -0.05483122362
511.875 -0.04632222122 -0.01175227068
512.5 -0.03278965994 0.003846001418
513.125 -0.0186990398 0.03167589146
513.75 -0.01516251834 0.03978402534
514.375 -0.02252756106 0.06588603635
515.0 0.02867818441 0.06481485787
515.625 -0.02239903284 0.08452129196
516.25 0.03771872664 0.09299599757
516.875 -0.06398596969 0.1262849444
517.5 0.06594329755 0.09108029892
518.125 -0.02137416436 0.129140029
518.75 0.02626981807 0.04750068655
519.375 0.0003745423409 0.07655445928
520.0 0.05065534331 0.05836169232
520.625 0.06074299656 0.03448359843
521.25 0.05954828168 0.02817140725
521.875 0.03439222325 0.05740174193
522.5 0.067732376 -0.0106804454
523.125 0.1117494373 -0.04465515177
523.75 0.1050369159 -0.07739774006
524.375 0.06651283369 0.003480574208
525.0 0.00785437836 -0.01299791101
525.625 0.002778789259 0.02279685094
526.25 0.007180722607 0.03951798474
526.875 0.01753497566 0.03107042521
527.5 0.02340558178 0.01841852383
528.125 0.03737588245 0.005355201339
528.75 0.05551184963 -0.00957867672
529.375 0.04482351957 -0.03727707338
530.0 0.0183766732 -0.02213123886
530.625 0.004462281648 -0.06896681643
531.25 0.01644588474 -0.1734631522
531.875 -0.05167261631 -0.1356203028
532.5 -0.08646859551 -0.07380507177
533.125 -0.07070302574 -0.05172299283
533.75 -0.07154373615 -0.05678175843
534.375 -0.07208178345 -0.04259665839
535.0 -0.05818972286 -0.006394088352
535.625 -0.02854098762 -0.02438467946
536.25 -0.03294532012 -0.03446503633
536.875 -0.03804103348 -0.0462756838
537.5 -0.04472662223 -0.07830600304
538.125 -0.07234166851 -0.04734884975
538.75 -0.05889839011 -0.03078591776
539.375 -0.03890050574 -0.03925781337
540.0 -0.04708707746 -0.07445870601
540.625 -0.06423721676 -0.09845221287
541.25 -0.04660897924 -0.09282677727
541.875 -0.04132351989 -0.06219676929
542.5 -0.05164134924 -0.08590012478
543.125 -0.09949854952 -0.05969236394
543.75 -0.09978313461 0.02181492408
544.375 -0.06538126065 0.0414862925
545.0 -0.01582583967 0.05203715717
545.625 -0.007145412869 0.05304190613
546.25 0.01973552825 0.06221976921
546.875 0.02531189651 0.07814182854
547.5 0.01852697739 0.07519447157
548.125 0.01160621213 0.07296155476
548.75 -0.005776859009 0.07492719864
549.375 -0.01704950016 0.0753585888
550.0 -0.02506879649 0.029769757
550.625 -0.01153819966 0.0007065307065
551.25 -0.01438185246 -0.02617969938
551.875 -0.05385391823 -0.04099153182
552.5 -0.06571056769 -0.04416938877
553.125 -0.0711819412 -0.02181519493
553.75 -0.07572731002 -0.02559905467
554.375 -0.09727971012 0.00927491066
555.0 -0.08666712634 0.0239937966
555.625 -0.06446790225 0.02757619745
556.25 -0.07448806873 0.0225689371
556.875 -0.09817514097 0.02533166712
557.5 -0.07647406511 0.03327056481
558.125 -0.07168639656 0.03186413494
558.75 -0.06193303482 0.01122350898
559.375 -0.04452596042 0.00385152782
560.0 -0.02192898003 -0.00182575057
560.625 -0.02275098829 -0.02939620931
561.25 -0.05844608423 -0.03468500297
561.875 -0.07774351354 -0.01597871087
562.5 -0.06156548922 0.01317992965
563.125 -0.06574002942 0.0530117569
563.75 -0.05266738453 0.08521661633
564.375 -0.0223361914 0.08772825474
565.0 -0.01436532034 0.07445394078
565.625 -0.01258514039 0.05675783624
566.25 -0.0402391592 0.04907951311
566.875 -0.0565597579 0.03577129338
567.5 -0.04765679009 0.01337462911
568.125 -0.05719739937 0.01119763739
568.75 -0.0469058725 0.0088864873
569.375 -0.03264533484 -0.008615371228
570.0 -0.01832629606 -0.02877392361
570.625 -0.02961695636 -0.04462884405
571.25 -0.03605682353 -0.03535969682
571.875 -0.05969584924 -0.02373064156
572.5 -0.07565380842 -0.02218629395
573.125 -0.1030116406 0.01976648849
573.75 -0.0587297906 0.06565303192
574.375 -0.02355423869 0.07537212241
575.0 -0.04377183087 0.04541131173
575.625 -0.05087971909 0.05474809896
576.25 -0.03070420276 0.07137013494
576.875 -0.00654848112 0.07795712466
577.5 -0.0091318799 0.06090529097
578.125 -0.01539926979 0.04380646954
578.75 -0.009370961607 0.03598827528
579.375 -0.003904778266 0.04846842776
580.0 -0.01615454803 0.01916333129
580.625 -0.02972102666 0.008227895634
581.25 -0.04847635038 0.004775010249
581.875 -0.067022261 0.03380399467
582.5 -0.0741133779 0.04000529619
583.125 -0.0586493246 0.04594133427
583.75 -0.05860004757 0.03497027769
584.375 -0.06760062035 0.02197978022
585.0 -0.07520424804 0.01710019397
585.625 -0.05986786912 0.02632115357
586.25 -0.05397119983 0.02224209624
586.875 -0.05952247467 0.01337432165
587.5 -0.05261846602 0.0146910465
588.125 -0.02861411506 0.04475031351
588.75 -0.01872296573 0.04368718402
589.375 -0.03101293517 0.02592518002
590.0 -0.03754056978 0.02631989822
590.625 -0.04444434423 0.05001377967
591.25 -0.03914435685 0.08004605778
591.875 -0.02419415083 0.08880490867
592.5 0.008236862544 0.07744317453
593.125 0.001289383529 0.05581940786
593.75 -0.01069348426 0.06390494711
594.375 -0.02651401293 0.0480882364
595.0 -0.02918696792 0.0347879669
595.625 -0.03060511428 -0.0001654842606
596.25 -0.03580163831 -0.02120777452
596.875 -0.0338800158 -0.0197738583
597.5 -0.03750067939 -0.004321885754
598.125 -0.02304269546 -0.01990933569
598.75 -0.01150776208 -0.026941687
599.375 -0.01365798296 -0.0325787738
600.0 -0.01877408236 -0.05513433146
600.625 -0.02884378206 -0.07007451569
601.25 -0.04488713691 -0.06585235592
601.875 -0.05332193307 -0.04457477603
602.5 -0.05785902766 -0.02137020549
603.125 -0.04674252787 -0.04064096701
603.75 -0.02427530197 -0.03522433034
604.375 -0.01503069227 -0.02312592832
605.0 -0.01770292651 -0.02229731741
605.625 -0.004026063644 -0.04782876312
606.25 -0.009690641824 -0.03849019479
606.875 -0.01276355661 -0.01637903742
607.5 0.006417668154 -0.008996759247
608.125 0.0304661863 -0.02367116363
608.75 0.03087214191 -0.03178870276
609.375 0.03542936618 -0.01658521416
610.0 0.02568013349 -0.003478900939
610.625 0.05461312234 -0.01725703248
611.25 0.05357630905 -0.02650474256
611.875 0.04775852673 -0.02307838545
612.5 0.0400461245 -0.01328739692
613.125 0.01198080328 -0.01222507585
613.75 0.01987485672 0.006413393288
614.375 0.04017037304 0.02791063696
615.0 0.03031277237 0.01431914907
615.625 0.006171890379 0.005695551598
616.25 0.03207663401 0.02869619774
616.875 0.03580727601 0.03972644272
617.5 0.02541440062 0.03222979434
618.125 0.01768958658 0.02293528471
618.75 0.03949593197 0.04351702577
619.375 0.03851832531 0.05032914783
620.0 0.03655274298 0.03524637935
620.625 0.03033829992 0.002044823553
621.25 0.02347574738 -0.002877615336
621.875 0.00859263289 -0.006450500807
622.5 -0.03097931196 0.00759317891
623.125 -0.04680159697 0.04268595662
623.75 0.001981616312 0.06658196458
624.375 -0.0155166603 0.05870532421
625.0 -0.0379418748 0.04239748529
625.625 -0.06114038099 0.03349035068
626.25 -0.03265470713 0.07660634788
626.875 -0.01211157831 0.06556632545
627.5 -0.0162424903 0.04598612803
628.125 -0.01921793426 0.03272050712
628.75 -0.02906386908 0.01954650979
629.375 -0.01947099782 0.01737857923
630.0 -0.008763567791 0.01420597289
630.625 -0.001263023138 -0.01708023499
631.25 -0.01920903122 -0.01719650058
631.875 -0.008850713197 -0.03975978345
632.5 -0.01929537265 -0.0550587736
633.125 -0.02002149299 -0.05621868613
633.75 -0.02288731194 -0.05994600931
634.375 -0.03464462775 -0.05250671868
635.0 -0.05519381232 -0.03679768726
635.625 -0.05674522567 -0.03157971781
636.25 -0.03428367869 -0.03716521997
636.875 -0.03060466685 -0.03483811394
637.5 -0.02882038607 -0.05492377981
638.125 -0.03897462197 -0.0450867963
638.75 -0.02960707985 -0.01959612202
639.375 0.00902656874 -0.02467909448
640.0 0.03679546508 -0.02288014972
640.625 0.04544290589 -0.02301290626
641.25 0.04188736277 -0.03218013433
641.875 0.05283863746 -0.02545756806
642.5 0.04868804848 -0.01135121471
643.125 0.05669963008 -0.003271713713
643.75 0.05875230105 -0.001809163896
644.375 0.05745910419 -0.01790112034
645.0 0.04270530093 -0.006495238682
645.625 0.03456466538 0.007665336364
646.25 0.05056410351 0.01544259657
646.875 0.08044604471 0.0248775577
647.5 0.05566300206 -0.0006864962801
648.125 0.04232496009 0.007852022379
648.75 0.04682933067 0.03797183872
649.375 0.05583845064 0.08327464233
650.0 0.05167731805 0.04666241967
650.625 0.04200744845 0.05550770398
651.25 0.02403499792 0.06586978586
651.875 -0.02608715566 0.07489346578
652.5 -0.01241504215 0.0557847859
653.125 -0.01697292798 0.04285515649
653.75 -0.02265403012 0.0172106537
654.375 -0.02893316925 -0.02718009223
655.0 -0.02301442643 -0.03876048252
655.625 -0.03743913592 -0.04278264604
656.25 -0.06694066585 -0.04427453769
656.875 -0.08343925864 -0.03532056945
657.5 -0.07073938392 -0.02900408622
658.125 -0.0909235813 -0.04231408464
658.75 -0.1104179382 -0.02727460234
659.375 -0.08291473004 0.02321553104
660.0 -0.06890731631 0.04183612378
660.625 -0.04944817896 0.03850804253
661.25 -0.04679438971 0.02519231693
661.875 -0.0313341137 0.03344105838
662.5 -0.03963177701 0.0350694354
663.125 -0.05322101407 0.01612739678
663.75 -0.06852572582 -0.02208253019
664.375 -0.05368052355 -0.05281503987
665.0 -0.02467627065 -0.06082291307
665.625 0.00314107557 -0.08801935162
666.25 0.02493217307 -0.09027486799
666.875 0.03663809957 -0.09244479088
667.5 0.02854515409 -0.06890112867
668.125 0.03476659869 -0.05556298391
668.75 0.02881344987 -0.04405615945
669.375 0.04719149175 -0.04013139697
670.0 0.04442633661 -0.02485077875
670.625 0.05637599128 -0.02597454755
671.25 0.04466017463 -0.04194251647
671.875 0.06234688645 -0.05121051437
672.5 0.0432442564 -0.08772951408
673.125 0.01905649157 -0.09174374289
673.75 -0.004930414092 -0.09570032716
674.375 0.0196017285 -0.09446705175
675.0 0.03929502904 -0.05153426392
675.625 0.04605313541 -0.03284993299
676.25 0.06558143772 -0.02036946189
676.875 0.07864748771 0.003036632557
677.5 0.0231092328 0.02356787809
678.125 0.0265493576 0.04114517457
678.75 0.05300878426 0.06203211835
679.375 0.06907035351 0.0927582845
680.0 0.05251776858 0.07438568697
680.625 0.0763371266 0.05132178943
681.25 0.0942365674 0.02685996236
681.875 0.1214132825 -0.0006008796426
682.5 0.0947274314 -0.03979969764
683.125 0.04466401654 -0.03327134821
683.75 0.05914770113 -0.007937123894
684.375 0.06077544993 0.04091680683
685.0 0.01943452661 0.05529501662
685.625 -0.02454428839 0.03259148384
686.25 -0.06134441562 0.01214272214
686.875 -0.08384825998 -0.02034748661
687.5 -0.09381300739 -0.03481210249
688.125 -0.1007957396 -0.05292244567
688.75 -0.1024731018 -0.064258192
689.375 -0.08800516031 -0.05066510062
690.0 -0.08643192838 -0.04011939391
690.625 -0.1042558223 -0.04166692397
691.25 -0.08595360166 -0.02696359526
691.875 -0.04252487861 0.01723970054
692.5 -0.03183847424 0.03042026947
693.125 -0.01651005036 0.08010386179
693.75 -0.01150159211 0.1007005988
694.375 0.01541443835 0.0923710191
695.0 -0.006183889107 0.1027550579
695.625 -0.0832317429 0.07503605791
696.25 -0.1140881983 -0.03800905268
696.875 -0.02380722664 -0.09230428146
697.5 0.02743381354 -0.09052005274
698.125 0.03954635047 -0.06535278934
698.75 0.03478246421 -0.0554712999
699.375 0.05045661173 -0.03552039638
700.0 0.07896868684 -0.02227112636
700.625 0.06980537967 0.02233909409
701.25 0.061521551 0.02218261734
701.875 0.08889788007 0.02344502652
702.5 0.1301422636 -0.03366008521
703.125 0.0839287765 -0.08833528287
703.75 -0.0408061338 -0.09293972651
704.375 -0.02992411181 -0.05064759916
705.0 -0.0302151547 -0.07832620301
705.625 0.01118192023 -0.0848402102
706.25 0.04228969845 -0.04624400514
706.875 0.04775381863 0.01623521823
707.5 0.01905009305 0.0671092305
708.125 -0.02911856685 0.08614482424
708.75 -0.06302275633 0.07621117729
709.375 -0.08590546423 0.03980160759
710.0 -0.07543505658 -0.02183939495
710.625 -0.06700618047 -0.05228759535
711.25 -0.07586515004 -0.07350685681
711.875 -0.06792684664 -0.0587188149
712.5 -0.07493197773 -0.008754201644
713.125 -0.03998857811 0.0477910328
713.75 -0.01988320597 0.05029844818
714.375 -0.005785019467 0.06849885352
715.0 -0.03812910087 0.05134709166
715.625 -0.03430352479 0.06213026412
716.25 -0.0552115537 0.0703870427
716.875 -0.1049748124 0.04748432431
717.5 -0.09284834881 -0.01643558782
718.125 -0.07213301796 -0.03755156313
718.75 -0.06471538864 -0.05776447074
719.375 -0.04431476763 -0.07470275041
720.0 -0.02128249508 -0.07855541856
720.625 0.05720119415 -0.02628159263
721.25 0.04126729492 0.02488476921
721.875 7.669112342e-06 0.03471169645
722.5 -0.03688190051 0.02605219332
723.125 -0.05149180589 0.05909886367
723.75 0.0008604393145 0.102055906
724.375 0.06785238756 0.04709758802
725.0 0.06034704388 -0.02640890308
725.625 0.09315818405 -0.01916560651
726.25 0.06376790677 -0.03566225088
726.875 0.04803272055 -0.02682164571
727.5 0.03408547799 -0.0211131613
728.125 0.03195306458 0.04219643436
728.75 0.01110152074 0.06095329347
729.375 0.03775633844 0.04778494586
730.0 0.03528317932 0.02860528306
730.625 0.01549914666 0.01533862902
731.25 -0.03371093822 0.06645939884
731.875 -0.05730859729 0.03649182452
732.5 -0.05871976386 -0.0009775079493
733.125 -0.05369198501 -0.0146027252
733.75 -0.05265678033 -0.03872495513
734.375 -0.04613264427 -0.0266043786
735.0 -0.02991178306 -0.009742338372
735.625 -0.01697833295 -0.004742287862
736.25 -0.06097746417 -0.002497052482
736.875 -0.07621073038 -0.01393554748
737.5 -0.06952164918 -0.02506256414
738.125 -0.04517531536 -0.01433538439
738.75 -0.07302130721 -0.03835646857
739.375 -0.03499689911 -0.0340991973
740.0 -0.001193208576 -0.04172369083
740.625 -0.02884736976 -0.03261130491
741.25 -0.02615190917 -0.01931283778
741.875 0.006536480364 -0.03411333037
742.5 0.04732856478 -0.00535186588
743.125 0.01056712025 0.02952103993
743.75 -0.0212224997 0.02000084935
744.375 -0.03105285881 0.02561767319
745.0 -0.04219944732 0.02090589744
745.625 -0.04048546518 0.05423016415
746.25 -0.007978385604 0.07012636894
746.875 0.06583137416 0.0481598941
747.5 0.05251160451 -0.0005214970387
748.125 0.03103308648 -0.003478634132
748.75 0.02085460355 0.01397736143
749.375 0.02625083553 -0.01505112076
750.0 -0.005372660922 -0.03055134639
