!Created with skrf (http://scikit-rf.org).
# GHz S RI R 50.0 
!freq ReS11 ImS11
500.0 -0.007624884989 0.02290646949
500.625 0.01790826467 0.01378790797
501.25 0.0212511133 -0.008105915857
501.875 0.01428460983 0.0003450689504
502.5 0.0137423371 0.03053943747
503.125 0.008950103286 0.002635948531
503.75 0.01265218434 -0.01025874958
504.375 0.02747239699 -0.01582719212
505.0 0.03419472714 -0.03527516145
505.625 -0.002184430307 -0.04120289215
506.25 -0.002875029763 -0.05789144906
506.875 0.02455268118 -0.07623538589
507.5 0.01294313122 -0.06118170552
508.125 0.02665284649 -0.06374893964
508.75 -0.006627665237 -0.07110267027
509.375 -0.02245361213 -0.04885239878
510.0 0.01028441072 -0.05171925272
510.625 -0.04285350481 -0.03228437528
511.25 -0.05628598322 -0.02135645941
511.875 -0.05547044396 0.01862261975
512.5 -0.03217343742 0.03590113675
513.125 0.03516420942 0.03709104793
513.75 0.02391866204 0.04542256701
514.375 0.03497074071 0.05020659745
515.0 0.0508743368 0.0002669588044
515.625 0.0367749688 0.07516290487
516.25 0.07841016497 0.07099674987
516.875 0.02203134691 0.1235497622
517.5 0.1102317393 0.07662318857
518.125 0.04500609503 0.1760033413
518.75 0.07831640873 0.01990102649
519.375 0.07000090128 0.05165998825
520.0 0.07852094527 -0.01119547932
520.625 0.09148303958 -0.003622156328
521.25 0.07498823863 -0.03088161329
521.875 0.06932725669 0.007833127045
522.5 0.07349482928 -0.05177271374
523.125 0.1361842219 -0.1021600785
523.75 0.1150484893 -0.1687332336
524.375 0.117123247 -0.1518950971
525.0 0.02420517313 -0.06890770393
525.625 0.01760507951 -0.02938214021
526.25 0.04140523707 -0.007795814489
526.875 0.05556410814 -0.01986381107
527.5 0.01463621706 -0.03515446402
528.125 0.006870936337 -0.03022847284
528.75 0.005907714834 -0.05558538462
529.375 -0.03906193334 -0.09211843818
530.0 -0.03959924734 -0.01830053946
530.625 -0.02547281456 -0.01637220302
531.25 -0.07176197908 -0.06011660021
531.875 -0.1538480717 -0.07073070403
532.5 -0.1196803582 0.0133749728
533.125 -0.07436213987 0.02717941619
533.75 -0.08651162801 0.04579324864
534.375 -0.1156917585 0.03177112132
535.0 -0.04884425672 0.05384862522
535.625 -0.05013445999 0.02768804835
536.25 -0.03888215161 0.04003714736
536.875 -0.07353356495 0.006361351049
537.5 -0.07649785313 -0.01839320739
538.125 -0.08823459499 0.01746863219
538.75 -0.09510785029 0.04646859252
539.375 -0.08470082201 0.01883218445
540.0 -0.04648120323 0.009602782347
540.625 -0.09529125353 0.001404535405
541.25 -0.1081697635 -0.01138408369
541.875 -0.08811748406 -0.01977418804
542.5 -0.07951593366 -0.02637404722
543.125 -0.1059034694 0.01545968125
543.75 -0.08879540671 0.09994061082
544.375 -0.04668054675 0.109663842
545.0 0.04261782403 0.05641515077
545.625 0.06906114426 0.05674950308
546.25 0.08968470562 0.04025433331
546.875 0.0919048444 0.03068385231
547.5 0.08110787694 0.02162455981
548.125 0.1004396661 0.06608058316
548.75 0.07202696402 0.07835810297
549.375 0.08367705861 0.08781109057
550.0 0.0474945128 0.0772879563
550.625 0.02725304686 0.06831623431
551.25 -0.007121317098 0.03911227458
551.875 -0.01626124529 0.03632880078
552.5 -0.02452175621 0.02908120026
553.125 -0.04012446428 0.03520315721
553.75 -0.04642879211 0.03310360225
554.375 -0.03568346939 0.06566792391
555.0 -0.03092694681 0.06461235643
555.625 -0.02495578322 0.08236423069
556.25 -0.03558245667 0.07249488919
556.875 -0.04070510377 0.0848300873
557.5 -0.04899219602 0.1033903494
558.125 -0.04733824269 0.09522180212
558.75 -0.05518428448 0.07355070585
559.375 -0.03919780418 0.09456964676
560.0 -0.01657057874 0.04651280611
560.625 -0.01571114524 0.03288755273
561.25 -0.02464556889 0.02732206215
561.875 -0.0368623948 0.06250159622
562.5 -0.02941925453 0.06239904889
563.125 -0.00968836429 0.06940715943
563.75 0.03091363379 0.08232651839
564.375 0.07107685136 0.1061637866
565.0 0.04023531476 0.08302136766
565.625 0.05478247077 0.06606527504
566.25 0.04087711869 0.06767182917
566.875 0.01123976671 0.09502839751
567.5 -0.02208974531 0.07847838694
568.125 -0.02652597714 0.07968555354
568.75 -0.03456199509 0.07720566173
569.375 -0.03076830682 0.06425334378
570.0 -0.02911079929 0.03973539556
570.625 -0.02778784012 0.03472710816
571.25 -0.04005886235 0.04472313514
571.875 -0.03262243524 0.02639900823
572.5 -0.0359187685 0.04100922045
573.125 -0.03517593931 0.07851264403
573.75 -0.001006044541 0.1067512484
574.375 0.03520482886 0.07684738442
575.0 0.02969930204 0.05600390196
575.625 0.03706764658 0.07333576473
576.25 0.03005355539 0.08773607592
576.875 0.05824571022 0.07318053767
577.5 0.04945851703 0.05805049401
578.125 0.06317570972 0.06376426347
578.75 0.05117643681 0.06647756946
579.375 0.05312264609 0.04945039301
580.0 0.06106021382 0.03972521806
580.625 0.04439548201 0.03335920228
581.25 0.01530854727 0.03493704965
581.875 -0.003497520639 0.04253093559
582.5 0.01156629716 0.07215675584
583.125 -0.0150078858 0.07706836529
583.75 -0.008864042461 0.06970352873
584.375 -0.008352859118 0.06363638074
585.0 -0.01061333833 0.08224163701
585.625 -0.03458319327 0.07274554728
586.25 -0.01780684913 0.06522095098
586.875 -0.008207186762 0.06171354692
587.5 -0.004124856121 0.08054711033
588.125 0.005271061708 0.07056541545
588.75 0.02858795185 0.05746415921
589.375 0.05273322527 0.03256044711
590.0 0.04914051213 0.02289187246
590.625 -0.003414680552 0.05064016508
591.25 0.01350380173 0.06645569124
591.875 0.04500394032 0.06975707577
592.5 0.07938592526 0.05664090913
593.125 0.04225590105 0.0631788672
593.75 0.04586053792 0.06314129886
594.375 0.04116228921 0.07447657182
595.0 0.03025776686 0.07725771346
595.625 -0.02348584958 0.04642721174
596.25 -0.02589645542 0.04213586326
596.875 -0.03364355187 0.04344151594
597.5 -0.03380152183 0.0489513897
598.125 -0.040440008 0.02505165379
598.75 -0.01338865049 0.03677976846
599.375 -0.01353564132 0.0200874301
600.0 -0.01689477009 0.003548810706
600.625 -0.04488502462 -0.01305549014
601.25 -0.07895150026 -0.02107215335
601.875 -0.07183773715 0.002489620244
602.5 -0.05307673302 0.02261730852
603.125 -0.08462813004 0.001787945673
603.75 -0.07195403168 0.01443422211
604.375 -0.05246078258 0.0093565866
605.0 -0.04180359445 -0.008115832018
605.625 -0.04602038571 -0.0110883031
606.25 -0.06134018548 -0.03447385301
606.875 -0.0552618218 -0.02455461292
607.5 -0.03560529035 0.001016808739
608.125 -0.02277921791 0.006739258426
608.75 -0.02219052791 -0.01989830977
609.375 -0.01392079961 -0.01139486905
610.0 0.0004726270741 -0.02071043515
610.625 0.0089844249 -0.02382915928
611.25 0.01869099696 -0.0466490864
611.875 0.02119350132 -0.05248194622
612.5 0.01900598324 -0.05315274086
613.125 -0.002366264607 -0.02458816768
613.75 0.03215406841 -0.03767632757
614.375 0.02500118826 -0.02137827474
615.0 0.03340693566 -0.02384699133
615.625 0.0109868836 -0.01177004477
616.25 0.01672857692 -0.01348133913
616.875 0.02462242168 -0.001880226975
617.5 0.04787550134 -0.006486154837
618.125 0.02423513154 0.01617623234
618.75 0.05295410397 0.00216968653
619.375 0.0526499864 0.004804501163
620.0 0.06538801148 0.008604877214
620.625 0.04569047161 -0.002097918818
621.25 0.07171361812 -0.03307524314
621.875 0.04568963509 -0.03133774188
622.5 0.002224813428 -0.02532932488
623.125 -0.01205574727 0.01543338447
623.75 0.02179254938 0.01653630394
624.375 0.01933925661 0.03135861048
625.0 -0.00879046684 0.03937950511
625.625 -0.005688099688 0.04851608237
626.25 0.0007859736687 0.07366748436
626.875 0.03043295328 0.07437673809
627.5 0.02281123881 0.06171207476
628.125 0.01204431793 0.05814766101
628.75 -0.01628506342 0.06096853057
629.375 0.01249809057 0.07291216677
630.0 0.01112109036 0.06194503109
630.625 -0.006213355729 0.03210935743
631.25 -0.01466396114 0.0207825123
631.875 -0.02606584709 0.008002130464
632.5 -0.02823437922 -0.003482209693
633.125 -0.04331701756 -0.007240768789
633.75 -0.07178094523 -0.019114984
634.375 -0.0502506658 0.02126801792
635.0 -0.05885999645 0.008408293035
635.625 -0.0756643581 0.020384052
636.25 -0.06462016687 0.02371748461
636.875 -0.05590321627 0.0006769788284
637.5 -0.05095811643 0.01680079867
638.125 -0.07385437931 0.02313070404
638.75 -0.07424121424 0.009479614291
639.375 -0.05327383595 -0.01390047614
640.0 -0.03922165824 -0.001203390037
640.625 -0.02580429248 -0.03841716981
641.25 -0.01403727689 -0.05718950589
641.875 -0.0006615680174 -0.06598545254
642.5 -0.001292122798 -0.05910784811
643.125 0.03252701358 -0.06277555368
643.75 0.03971876414 -0.06121373078
644.375 0.02213201699 -0.07465738315
645.0 -0.009242010476 -0.06875364744
645.625 -0.007145641558 -0.05364503642
646.25 0.01910104259 -0.04726057378
646.875 0.04192858384 -0.05718704123
647.5 0.003516603636 -0.0605321522
648.125 0.02179697795 -0.05244096509
648.75 0.04605775691 -0.03146326465
649.375 0.07047266021 -0.01057070114
650.0 0.07795808738 -0.01089296738
650.625 0.08342758639 0.01162369996
651.25 0.08012201547 0.03037304932
651.875 0.07102514022 0.06273907473
652.5 0.04397721407 0.09918973036
653.125 0.03983166068 0.07848275252
653.75 0.03128856049 0.07881709595
654.375 -0.00754358512 0.08621929037
655.0 -0.001430164747 0.03474582227
655.625 -0.02923604973 0.01803437397
656.25 -0.04673949993 0.04141881832
656.875 -0.05374064293 0.06891410715
657.5 -0.07387347759 0.04831511192
658.125 -0.05744058966 0.03068682738
658.75 -0.06379813151 0.06493246313
659.375 -0.05360990493 0.1154331204
660.0 -0.01541038166 0.1228089316
660.625 0.02579211196 0.07427509972
661.25 0.03586198166 0.07718070782
661.875 0.04749290942 0.07831663464
662.5 0.05342665365 0.06704852978
663.125 0.03503346122 0.05303314142
663.75 -0.006976614858 0.05895212855
664.375 -0.06091086747 0.03642830773
665.0 -0.06520713188 0.004924685411
665.625 -0.06786048415 -0.0244189735
666.25 -0.07592033225 -0.06504086025
666.875 -0.05828035788 -0.1037540773
667.5 -0.0462243037 -0.08078951986
668.125 -0.06308769267 -0.08554659888
668.75 -0.0690558745 -0.08387998178
669.375 -0.03579143391 -0.0706026981
670.0 -0.02022078599 -0.06019065255
670.625 -0.02968061683 -0.08403024961
671.25 -0.03307462351 -0.08131718234
671.875 -0.03621901434 -0.0619669104
672.5 -0.05906965242 -0.05761907933
673.125 -0.08390849202 -0.06236789157
673.75 -0.09078953636 -0.05643176392
674.375 -0.0994681527 -0.06592554835
675.0 -0.04942994288 -0.06763100824
675.625 -0.0206583896 -0.1053523937
676.25 0.009079505016 -0.08816538678
676.875 0.01576374973 -0.1007535926
677.5 0.009326276649 -0.07838582571
678.125 0.03797657294 -0.05088725458
678.75 0.04276679133 -0.0177984736
679.375 0.06299582628 -0.01634439689
680.0 0.1009534016 -0.04906637195
680.625 0.08904601432 -0.02653989304
681.25 0.07194549979 -0.05279927354
681.875 0.0500144833 -0.09316034335
682.5 0.004917948179 -0.1580041927
683.125 0.006097279031 -0.1374357037
683.75 0.01982293704 -0.1027070961
684.375 0.06224650257 -0.07708558164
685.0 0.1102065327 -0.01908222816
685.625 0.09096780199 0.04650258981
686.25 0.03195990412 0.05107063089
686.875 -0.006343085809 0.05637875718
687.5 -0.04384377662 0.05903745108
688.125 -0.06658559767 0.06290451164
688.75 -0.08974043687 0.05000954353
689.375 -0.1122811014 0.05140007846
690.0 -0.09829218394 0.04517378729
690.625 -0.09249161828 0.08032021156
691.25 -0.06615629764 0.09475599373
691.875 -0.01366405874 0.1458911329
692.5 0.05774802332 0.06915195361
693.125 0.07326767056 0.002631342898
693.75 0.08780833245 -0.03160766588
694.375 0.1185246465 -0.004219333586
695.0 0.076790178 0.05288614074
695.625 0.03024278252 0.07944666489
696.25 -0.05215755225 0.1060504322
696.875 -0.1146022159 -0.01995523757
697.5 -0.09181817206 -0.08651817865
698.125 -0.07776584095 -0.09982570123
698.75 -0.08393378373 -0.09315742688
699.375 -0.03419490872 -0.07080910329
700.0 -0.01433079939 -0.07683131943
700.625 0.006084025775 -0.09626979132
701.25 0.0318684764 -0.08682241332
701.875 0.04557808341 -0.03786548272
702.5 0.02998045911 -0.08732424769
703.125 -0.06082416381 -0.1269936879
703.75 -0.1512246761 -0.06337445731
704.375 -0.104423777 0.02881725145
705.0 -0.08647169527 0.04143472002
705.625 -0.1178734317 -0.02133967316
706.25 -0.06841457558 -0.1032729103
706.875 0.0112665322 -0.08960851825
707.5 0.04373371453 -0.02489809578
708.125 0.06431518318 0.02486144461
708.75 0.04941946862 0.06838563336
709.375 0.01233106654 0.0900429848
710.0 -0.05797492602 0.05829975837
710.625 -0.07065839844 0.05201002406
711.25 -0.09640272094 0.02762018921
711.875 -0.1053915571 0.06240851639
712.5 -0.1029974479 0.08646048826
713.125 -0.0004938417381 0.114144865
713.75 0.08207377597 0.04438273959
714.375 0.09997672516 -0.02743513664
715.0 0.07549785379 0.01804139145
715.625 0.06392007078 0.01914223068
716.25 0.03845275377 0.04766866288
716.875 0.01463695376 0.07653665117
717.5 -0.02315450652 0.1038807837
718.125 -0.09396076527 0.03684997915
718.75 -0.07604677104 0.03569612289
719.375 -0.07674604031 0.02378610923
720.0 -0.09914251764 -0.0413004909
720.625 -0.02860546726 -0.1007517714
721.25 0.06487589147 -0.07007872974
721.875 0.0826144717 -0.01988580866
722.5 0.06840530483 -0.002716077883
723.125 0.04551924287 0.03896336441
723.75 0.08228891296 0.0282000168
724.375 0.06942458209 -0.03997516921
725.0 -0.001148180388 -0.05604375293
725.625 -0.008288927967 -0.07369209764
726.25 -0.01928401408 -0.0943525259
726.875 0.002336782398 -0.09976472197
727.5 0.01996390304 -0.07598566262
728.125 0.01743263815 -0.05724214624
728.75 0.1015488967 -0.01594648629
729.375 0.08763472682 -0.02461319529
730.0 0.04487817794 -0.03135136156
730.625 0.03085420657 -0.02938591246
731.25 0.05247841199 0.01187710838
731.875 0.0181562825 0.04549787959
732.5 -0.02025150262 0.05068314154
733.125 -0.04216568801 0.04963640661
733.75 -0.04422767246 0.05864955324
734.375 -0.04439464745 0.06210166861
735.0 -0.006321467564 0.06386312249
735.625 0.01496238216 0.007797032811
736.25 0.00353990176 0.04761295346
736.875 -0.007764620006 0.02949638
737.5 -0.04464487056 0.02769324348
738.125 -0.06568236965 0.0336664603
738.75 -0.07400408218 0.03943646224
739.375 -0.0484386085 0.0357662095
740.0 -0.03969820267 0.03496480485
740.625 -0.04089711834 0.02265621509
741.25 -0.031806533 0.006269175413
741.875 -0.08139714289 -0.005683111613
742.5 -0.009994186626 -0.05546329644
743.125 0.04391285796 -0.01167082161
743.75 0.0169243229 0.02848527338
744.375 0.05377297896 0.01089399906
745.0 0.04773325035 0.007346749176
745.625 0.01430890777 0.03678389745
746.25 0.03613999507 0.06450541805
746.875 0.0790937127 -0.03233786361
747.5 0.04546466772 -0.04943323933
748.125 0.02517941496 -0.03960211829
748.75 -0.005153386124 -0.04044716307
749.375 -0.01311838032 -0.04549584045
750.0 -0.06619070927 0.02965448974
